!Created with skrf (http://scikit-rf.org).
# Hz S RI R 50.0 
!freq ReS11 ImS11 ReS21 ImS21 ReS12 ImS12 ReS22 ImS22
300000.0 -0.2364451452 -0.1110767388 0.4670127744 0.0723108517 0.4706975491 0.0764903528 -0.2370977588 -0.1164768479
5299970.0 -0.240798824 0.0070648929 0.475112175 0.0052767554 0.4747482251 0.0058080816 -0.2444397331 0.0053125427
10299940.0 -0.2370872174 0.0200077919 0.4771254771 0.0065028337 0.4772828293 0.0066434168 -0.2416292961 0.0175130667
15299910.0 -0.2328960988 0.0298394523 0.4804977469 0.0077020287 0.4807351875 0.0077260185 -0.237333955 0.0262977852
20299880.0 -0.2272990632 0.0377924772 0.4853394951 0.0077989594 0.4851268439 0.0080677958 -0.2324629034 0.034129177
25299850.0 -0.2216988032 0.0441980632 0.4906323391 0.0068108283 0.4904886408 0.0070120784 -0.2275954367 0.0399807523
30299820.0 -0.2156327537 0.0494117594 0.4962855136 0.0051088349 0.4956846744 0.0051507069 -0.22269081 0.0448261016
35299790.0 -0.2100076463 0.0540163918 0.5015435137 0.0016631113 0.5012521102 0.0017185919 -0.2171958067 0.048796907
40299760.0 -0.2047103233 0.0568742255 0.5062082827 -0.0018204544 0.5061394176 -0.0024007511 -0.2126577963 0.0522553352
45299730.0 -0.1995113599 0.060161533 0.5109491844 -0.0072767864 0.5108990299 -0.0072287363 -0.2079247373 0.0546351782
50299700.0 -0.1945416487 0.0618781347 0.5152231856 -0.0125015231 0.5150955683 -0.0129621063 -0.2035069045 0.056467048
55299670.0 -0.1905265295 0.0637746756 0.5180064289 -0.018444717 0.5190632066 -0.0186164424 -0.1998749583 0.0582002227
60299640.0 -0.1862923674 0.0649578963 0.5214637468 -0.0250843351 0.5222700249 -0.024640967 -0.1961960477 0.059531535
65299610.0 -0.18337547 0.0662609375 0.5246204137 -0.0305491548 0.525286353 -0.0310217415 -0.1930717228 0.0606766453
70299580.0 -0.1796065367 0.0669911626 0.5272641882 -0.0377955253 0.5275068918 -0.037655085 -0.1898110292 0.0615935848
75299550.0 -0.1763202837 0.0680687476 0.5290903455 -0.0444612063 0.5293351618 -0.0447916439 -0.1873120353 0.0626927037
80299520.0 -0.1740191175 0.0689159548 0.5315448309 -0.0516083648 0.531063565 -0.0513336866 -0.1847864153 0.0627798362
85299490.0 -0.1714047855 0.0692909173 0.5325977291 -0.058680729 0.5324361958 -0.058288768 -0.1826973349 0.0636214299
90299460.0 -0.1692579225 0.0702479941 0.5334420479 -0.065143699 0.5336091381 -0.0653949534 -0.1799752608 0.0644910202
95299430.0 -0.1672452765 0.0709981527 0.5344388101 -0.0730258434 0.5344671918 -0.0722379877 -0.178313018 0.0649907936
100299400.0 -0.1651571218 0.0717172851 0.5344484837 -0.0791617422 0.5345311866 -0.0792240669 -0.1770727637 0.0655024202
105299370.0 -0.1633867164 0.0722769887 0.5348534392 -0.0853837006 0.5352879401 -0.0862287534 -0.1751097353 0.0662211962
110299340.0 -0.162068534 0.0730434563 0.5349199729 -0.0924098052 0.5353191689 -0.093004157 -0.1737541006 0.0669207772
115299310.0 -0.1603282722 0.0735349103 0.5349509395 -0.0996487826 0.5354112994 -0.0994350125 -0.1720891548 0.0673779142
120299280.0 -0.1591312303 0.0744477022 0.5351268918 -0.106382698 0.5348035329 -0.1061111648 -0.1713601104 0.0677887045
125299250.0 -0.1578791701 0.0750846993 0.5344450859 -0.1130171209 0.5347419765 -0.1133184092 -0.1699658675 0.0685093394
130299220.0 -0.1565193179 0.0761002361 0.5338163311 -0.1194784794 0.5340889376 -0.1200756193 -0.1692414881 0.069478535
135299190.0 -0.1552038949 0.076851618 0.5331943066 -0.1264148237 0.5330057647 -0.1263307772 -0.1683661198 0.070048398
140299160.0 -0.1544393127 0.078082513 0.5325459888 -0.1331592631 0.5325717698 -0.1329537455 -0.166701409 0.0709834819
145299130.0 -0.1531129153 0.0789803017 0.5320097069 -0.139885182 0.5314249728 -0.1393379841 -0.1661004835 0.0717134069
150299100.0 -0.1520615142 0.0799387142 0.5302393146 -0.1459551962 0.5305460105 -0.1460398211 -0.1651562419 0.0725705964
155299070.0 -0.1513241152 0.0812819696 0.5290664054 -0.1530342442 0.5294445941 -0.1529381724 -0.1646128948 0.073676793
160299040.0 -0.150118854 0.0820870105 0.5274458032 -0.1587342225 0.5278753528 -0.1591263093 -0.1635063832 0.075058301
165299010.0 -0.1494648703 0.0831459159 0.5264893732 -0.1653427264 0.5263241563 -0.1658479024 -0.1626595313 0.0755435395
170298980.0 -0.1482314378 0.0845548794 0.5241241549 -0.172074383 0.5249262592 -0.1719000402 -0.1619142657 0.0763204052
175298950.0 -0.1473169822 0.0857803398 0.5234780203 -0.1778697369 0.5231308801 -0.1781603322 -0.1612450269 0.0776542569
180298920.0 -0.1460567755 0.0866868283 0.5212782923 -0.184977328 0.5216028653 -0.1843823764 -0.1602214029 0.0786021805
185298890.0 -0.1451432705 0.0876960869 0.5192806363 -0.190906363 0.519609002 -0.190709526 -0.1596114666 0.0794671486
190298860.0 -0.1445757995 0.089098654 0.5176707293 -0.1968650998 0.5177824051 -0.1969991094 -0.1584545706 0.0807503326
195298830.0 -0.1434584211 0.0899033012 0.5157128431 -0.2025329845 0.5159625545 -0.2029769588 -0.1580130537 0.0814903589
200298800.0 -0.1425939469 0.0916493306 0.5142397684 -0.2084558691 0.5135779274 -0.2089321759 -0.1568923435 0.0830318267
205298770.0 -0.1415794511 0.093167322 0.5116437034 -0.2148652175 0.5117260345 -0.2152516376 -0.1564705702 0.0840687495
210298740.0 -0.1409828486 0.0942755501 0.5093357825 -0.2212356669 0.5090921381 -0.2211612962 -0.1557799146 0.0854877244
215298710.0 -0.1396160905 0.0957254239 0.5069887017 -0.2272299462 0.5068611168 -0.2268262728 -0.1550761401 0.0865969196
220298680.0 -0.1390093449 0.0969671231 0.5045609699 -0.233149572 0.5042310301 -0.2330097241 -0.1538967522 0.087901678
225298650.0 -0.1374135807 0.0985338421 0.5016639764 -0.238362705 0.5017904715 -0.2386171047 -0.1532970926 0.0892933727
230298620.0 -0.1368920489 0.0998378402 0.4994475173 -0.2444249379 0.4998592062 -0.2445153611 -0.1525594203 0.0901528611
235298590.0 -0.1359814344 0.1011014427 0.4969106636 -0.2501605663 0.4969144922 -0.2504382726 -0.1517258417 0.0912434612
240298560.0 -0.1351314752 0.1024587675 0.494407781 -0.25550563 0.4942344877 -0.2555355328 -0.1506880338 0.0928903232
245298530.0 -0.133512649 0.1041124174 0.4907727438 -0.2616658182 0.491410029 -0.2615954968 -0.1500749114 0.0944974609
250298500.0 -0.1331783192 0.1051862935 0.4886033489 -0.2668175328 0.4888598508 -0.2665877699 -0.148547969 0.0956312344
255298470.0 -0.1320705043 0.106793512 0.485587059 -0.2730792718 0.4859757225 -0.2731453987 -0.148023257 0.0967356581
260298440.0 -0.1308348025 0.1079779429 0.483033682 -0.2780489814 0.4827947579 -0.2780303148 -0.1467957943 0.0984550835
265298410.0 -0.1295537718 0.1097738823 0.4798062427 -0.2841931916 0.4790679987 -0.2838524097 -0.1464031001 0.0993382734
270298380.0 -0.1283201593 0.1109603448 0.4759926171 -0.2894033934 0.4766358675 -0.2894321515 -0.1453075514 0.101048062
275298350.0 -0.1274230415 0.1125808818 0.473390012 -0.294990434 0.4740576523 -0.2949724697 -0.1442845444 0.1023454179
280298320.0 -0.1259818952 0.1138763993 0.4700752222 -0.2996611942 0.4701661996 -0.3002307024 -0.1432159043 0.1037757364
285298290.0 -0.1249393538 0.1152860842 0.4667451457 -0.3047874037 0.4667294038 -0.3053224571 -0.1425531249 0.105201438
290298260.0 -0.1237215816 0.1167064078 0.4638829508 -0.3105245996 0.4635527072 -0.3107235386 -0.1411251398 0.1069123915
295298230.0 -0.1225696056 0.1179411018 0.460322827 -0.3160839709 0.4600259364 -0.3159497639 -0.1400723108 0.1079099366
300298200.0 -0.1209865009 0.1194925003 0.4570337378 -0.3212424343 0.4570150348 -0.3210614363 -0.1393227923 0.1092902391
305298170.0 -0.1197321516 0.1207113367 0.453650064 -0.3266013135 0.4537682443 -0.3269405625 -0.1376759046 0.1110657151
310298140.0 -0.1180704889 0.1217953691 0.4499562998 -0.331926457 0.4499903883 -0.3321500479 -0.1368779653 0.1123755999
315298110.0 -0.1171206511 0.1232884152 0.4462108726 -0.3368581486 0.4461840864 -0.3370899178 -0.1356608145 0.1131424458
320298080.0 -0.1158108096 0.1244530513 0.44217357 -0.342259467 0.4427289622 -0.3419783082 -0.1348011026 0.1146241583
325298050.0 -0.1147629396 0.1257072768 0.4389963078 -0.3476451179 0.4389525456 -0.3475954955 -0.1337282034 0.1160810213
330298020.0 -0.1134184419 0.127072982 0.434134275 -0.3521641151 0.4347163835 -0.3522339172 -0.1331956428 0.1171576438
335297990.0 -0.1123817446 0.1279691941 0.4306040297 -0.3572722523 0.4304165953 -0.3571414657 -0.1317766721 0.1185020792
340297960.0 -0.111323709 0.1296877485 0.4262721978 -0.3615297861 0.4268123461 -0.361790621 -0.1311753347 0.1198308246
345297930.0 -0.1103104509 0.1309311166 0.4226906778 -0.3660632924 0.4221172777 -0.3660744559 -0.1297413756 0.121361124
350297900.0 -0.1083111396 0.1327110065 0.4179508247 -0.3706566217 0.418725726 -0.3709514053 -0.1288334248 0.1230710492
355297870.0 -0.1072976124 0.1339049542 0.414387971 -0.3755460494 0.4142094757 -0.3756186234 -0.1278195455 0.1243192236
360297840.0 -0.1055763747 0.1351637353 0.4098175917 -0.3802911657 0.4097912097 -0.3803913151 -0.1266034854 0.1261514176
365297810.0 -0.1039541138 0.1362024847 0.4055823007 -0.3845445489 0.4059258052 -0.3847763142 -0.1254760312 0.1275348896
370297780.0 -0.102605022 0.1376077206 0.4013774677 -0.3885840573 0.4015208255 -0.3893065081 -0.1242501206 0.128947629
375297750.0 -0.101342128 0.1393506637 0.3976731985 -0.3933312401 0.3969686275 -0.3936135207 -0.1232091008 0.1302849125
380297720.0 -0.0997654137 0.1401120893 0.3930556695 -0.3976236321 0.3929485568 -0.39770786 -0.1217590856 0.1318007263
385297690.0 -0.0979211654 0.1418119117 0.3881127698 -0.4018519552 0.388557052 -0.4020780798 -0.1209004551 0.1333512338
390297660.0 -0.096808407 0.1426450925 0.3839967992 -0.4067171986 0.3840046519 -0.4066758597 -0.1191992863 0.134159712
395297630.0 -0.0947365736 0.1440010958 0.3797241351 -0.410101445 0.3794304414 -0.4103772747 -0.118083959 0.1361346881
400297600.0 -0.0932828644 0.1452299679 0.3752606848 -0.4148264956 0.3753653843 -0.4149250319 -0.1173561582 0.1370508241
405297570.0 -0.0917465442 0.1464941194 0.370511514 -0.4190729849 0.3706984716 -0.418983735 -0.1158358895 0.138682563
410297540.0 -0.0901911062 0.147393057 0.3652999866 -0.4226151025 0.365694349 -0.4227692373 -0.1143614572 0.1395731358
415297510.0 -0.0887279763 0.1490090779 0.3612765153 -0.4265683193 0.3609735465 -0.4268773583 -0.1132274271 0.1416059954
420297480.0 -0.0866848194 0.149671179 0.3560385188 -0.4306419319 0.3565759479 -0.4307023499 -0.1116856594 0.1421895974
425297450.0 -0.0850226906 0.1507024474 0.3514852984 -0.4339760746 0.3518486877 -0.4346914601 -0.110289788 0.1440883216
430297420.0 -0.0836684477 0.1522131598 0.3467916887 -0.4389426909 0.3471628702 -0.4385797609 -0.1092876823 0.144949097
435297390.0 -0.0816727321 0.1531020754 0.3418016941 -0.4420185327 0.3422499663 -0.4419808514 -0.1076661932 0.1463498028
440297360.0 -0.0797991516 0.1539771976 0.336889704 -0.4459307022 0.3368702002 -0.4459474179 -0.1064745375 0.147293316
445297330.0 -0.0780510932 0.1551074299 0.3319332857 -0.4496994904 0.3322888815 -0.4493593426 -0.1051827063 0.1484719937
450297300.0 -0.0761478248 0.155959712 0.3271627131 -0.4530467981 0.3275534394 -0.4532304325 -0.103788329 0.1496982551
455297270.0 -0.0745101732 0.157042801 0.3220169396 -0.4567766179 0.3230230043 -0.4562972437 -0.1022128446 0.1509894214
460297240.0 -0.0731096604 0.1579860075 0.3169132819 -0.4600534321 0.3170800667 -0.4601029187 -0.1005211957 0.1525372779
465297210.0 -0.0710731962 0.1589859105 0.3123700022 -0.463605177 0.3128575345 -0.4635503736 -0.0998444367 0.1533240524
470297180.0 -0.0695411533 0.1596627553 0.3075606814 -0.4667592972 0.307609487 -0.4670970515 -0.0985708255 0.1544889687
475297150.0 -0.0676251296 0.1604367298 0.302060526 -0.469792385 0.3025234782 -0.4700003722 -0.096568557 0.1556620458
480297120.0 -0.0658234219 0.1612620231 0.2970553519 -0.4731215848 0.2975573014 -0.4731937349 -0.0951463626 0.1570891047
485297090.0 -0.0637899729 0.1620841306 0.2920609829 -0.4761882436 0.2918146765 -0.4764829374 -0.0938618874 0.1578654202
490297060.0 -0.0620324959 0.1628428739 0.2869039948 -0.4799362778 0.2866049572 -0.4800919763 -0.0922002296 0.1592931178
495297030.0 -0.0602947994 0.1640592489 0.2813531377 -0.4825304915 0.2811843696 -0.4827443495 -0.0905705442 0.160049718
500297000.0 -0.0585181485 0.1645185545 0.2758112626 -0.4855972162 0.2763238583 -0.4855716489 -0.0895460322 0.1611559485
505296970.0 -0.0568872067 0.1654190487 0.2705724107 -0.4883442872 0.2706587209 -0.488595053 -0.0880279214 0.1623889083
510296940.0 -0.0550934148 0.1665145876 0.2658705199 -0.4917468391 0.2655415625 -0.4914714707 -0.0858969374 0.163705345
515296910.0 -0.0533101665 0.1671097131 0.2596313209 -0.4937526732 0.2601905697 -0.4941866144 -0.084616406 0.1643800198
520296880.0 -0.0511251237 0.1675575643 0.2542520259 -0.4970637215 0.2548474046 -0.4970677621 -0.0834507262 0.1653467914
525296850.0 -0.0495326684 0.1682176235 0.2491657328 -0.5000540882 0.2495336135 -0.5001352019 -0.0814334178 0.1661558698
530296820.0 -0.0474676226 0.1689606575 0.2439038061 -0.5018036204 0.2432681568 -0.5025200028 -0.0802909042 0.1670023971
535296790.0 -0.0458476736 0.1696794249 0.238205807 -0.5045995109 0.2386391508 -0.504727268 -0.0783883222 0.1679422603
540296760.0 -0.0440108516 0.1699904112 0.2328798199 -0.5076928343 0.2326470463 -0.5079808116 -0.0770662642 0.1692059469
545296730.0 -0.0418814623 0.1710486764 0.2271501087 -0.5098865602 0.2271753562 -0.5102440056 -0.0755389523 0.1697122438
550296700.0 -0.0404072968 0.171711837 0.2220459957 -0.5123936192 0.2223308822 -0.5126958643 -0.0740113161 0.1709367685
555296670.0 -0.0376746104 0.1718815965 0.2160241361 -0.5149158521 0.2165417085 -0.514752626 -0.0722871059 0.1717989902
560296640.0 -0.0360861079 0.1722758671 0.2105483473 -0.5166986148 0.2109315144 -0.5168663566 -0.0705154351 0.1727160723
565296610.0 -0.0346376186 0.1730345299 0.2051843758 -0.5192260894 0.2046658034 -0.5192229573 -0.0690461269 0.1733712681
570296580.0 -0.0322017713 0.173514789 0.1990155559 -0.5209149679 0.1999128456 -0.5214908574 -0.067571237 0.1746477741
575296550.0 -0.0304091897 0.1743349382 0.1936670597 -0.5231702739 0.1936795562 -0.5233261696 -0.0656743189 0.1749284123
580296520.0 -0.0285366394 0.1745231712 0.1881136157 -0.5253274269 0.187971859 -0.5255939773 -0.0644982165 0.1759223935
585296490.0 -0.0264681633 0.1747184618 0.1826724121 -0.5273503628 0.1824938619 -0.527295752 -0.0624641828 0.176067876
590296460.0 -0.0250155582 0.1751253954 0.1767894393 -0.5292085137 0.1764582546 -0.5292063267 -0.0604698694 0.1774739009
595296430.0 -0.0226967598 0.1757112791 0.1711691514 -0.5312063385 0.1708896044 -0.5314098869 -0.058968559 0.1778028603
600296400.0 -0.0206522593 0.176241239 0.1653088853 -0.5330828899 0.1655091494 -0.53327966 -0.0572713294 0.1790829288
605296370.0 -0.0185660092 0.1766117552 0.1592274777 -0.5348468275 0.1594794176 -0.5348879075 -0.0555231814 0.1796668368
610296340.0 -0.0169347636 0.1768251682 0.1538544358 -0.5361997006 0.153960775 -0.536426832 -0.0538009395 0.1808823085
615296310.0 -0.014825069 0.1775054588 0.1469921118 -0.5377789174 0.1474784578 -0.53768848 -0.0517388179 0.1808896883
620296280.0 -0.0128490444 0.1774883707 0.1425833906 -0.5396584987 0.1420598421 -0.5394877857 -0.0504636979 0.1813427946
625296250.0 -0.0107722548 0.1778825565 0.1355044443 -0.5413627724 0.1361877642 -0.5412337797 -0.0486389491 0.1822790776
630296220.0 -0.0087639632 0.1782018314 0.1299706672 -0.5426603892 0.1306035774 -0.5426108727 -0.0471629006 0.1830750533
635296190.0 -0.0066888014 0.1784724826 0.1242347854 -0.5431979808 0.1242499374 -0.5433107417 -0.0455233791 0.1835352666
640296160.0 -0.004976082 0.1785845133 0.118630397 -0.5450523214 0.1186114394 -0.5452203916 -0.0432430035 0.1841772597
645296130.0 -0.0030034262 0.1788751682 0.1128610222 -0.546479058 0.1128685633 -0.5461787686 -0.042228891 0.1843871834
650296100.0 -0.0010606331 0.1793710384 0.1070792815 -0.5472380741 0.106948676 -0.5474978525 -0.0400543574 0.1850294798
655296070.0 0.0008632401 0.1793512605 0.100901455 -0.5483937447 0.1008643913 -0.5486407432 -0.0378507474 0.1859557681
660296040.0 0.002778447 0.1798141 0.0947186231 -0.54984135 0.0951431592 -0.5494723791 -0.0364875676 0.1862329882
665296010.0 0.0051058513 0.1795885179 0.0889555235 -0.5505695841 0.0896136309 -0.5501976695 -0.0349581031 0.1869493203
670295980.0 0.0073229929 0.1797619843 0.0834783766 -0.5512629634 0.0835380544 -0.5512753318 -0.033363201 0.1873563915
675295950.0 0.009122986 0.1797141191 0.0769201487 -0.552610682 0.0774123493 -0.5528037081 -0.0312839157 0.1879585429
680295920.0 0.0110426318 0.1801758471 0.0710204524 -0.5533577801 0.0710257228 -0.5533127208 -0.0291652072 0.1883398864
685295890.0 0.0130874051 0.1800026249 0.0654928859 -0.5535519926 0.0649420291 -0.5540526507 -0.027638963 0.1889236039
690295860.0 0.0155588718 0.1800740996 0.058803035 -0.553878255 0.0587454671 -0.554321273 -0.025549858 0.1894602648
695295830.0 0.0176983937 0.1796094672 0.05249454 -0.5547138944 0.0528351551 -0.5553081168 -0.024192828 0.1897448125
700295800.0 0.0194300312 0.1799300005 0.046935059 -0.5555038042 0.0468843142 -0.5555876973 -0.0219751176 0.1898046626
705295770.0 0.021469697 0.1799691532 0.0410238876 -0.5558700544 0.0414362143 -0.555892776 -0.0207194796 0.1902897499
710295740.0 0.0233969878 0.1800632934 0.0351900812 -0.556252345 0.0352977245 -0.5560613004 -0.0194840781 0.1908340847
715295710.0 0.0253675753 0.1797065798 0.0292287105 -0.5566448885 0.0297086694 -0.5567091792 -0.017049808 0.1907946615
720295680.0 0.0273107612 0.1792745547 0.0230525157 -0.5568592568 0.0234433494 -0.5571239991 -0.0148705957 0.1914109361
725295650.0 0.0295730579 0.1793038148 0.0169456557 -0.5568494754 0.0170842816 -0.5568399806 -0.0131416238 0.1919454682
730295620.0 0.0311842356 0.1790835427 0.0109035729 -0.5568578392 0.0113665161 -0.5572346526 -0.0112126562 0.1915101579
735295590.0 0.0336546223 0.178770438 0.0053914721 -0.5574147816 0.0056147545 -0.5574351256 -0.0093401056 0.1921328393
740295560.0 0.0354212809 0.1788858134 -0.0009299268 -0.5568060618 -0.0005577051 -0.5571064064 -0.0075263087 0.1923086709
745295530.0 0.0374203444 0.1784308301 -0.0069868602 -0.5572311859 -0.0069671833 -0.5573765372 -0.0060064417 0.1926947884
750295500.0 0.0393642518 0.178099844 -0.0125629809 -0.5568895784 -0.0128036208 -0.5567808513 -0.0039013962 0.1922812876
755295470.0 0.0420797986 0.1778748673 -0.0187510141 -0.5561396691 -0.018442011 -0.5569944614 -0.0026416531 0.1927727892
760295440.0 0.0433084472 0.1778420655 -0.0248957895 -0.5567418065 -0.0245998716 -0.5565635506 -0.0008094008 0.192728313
765295410.0 0.0455629971 0.1770555534 -0.0304361878 -0.5561823629 -0.0305174978 -0.5563524156 0.0020787478 0.193308153
770295380.0 0.0475504187 0.177210676 -0.0367466724 -0.5555566132 -0.0367681714 -0.5559545964 0.0037700454 0.1937348909
775295350.0 0.0495507537 0.1767844859 -0.0430667453 -0.5550634717 -0.0424126446 -0.555268797 0.0051023996 0.1930680903
780295320.0 0.0516713542 0.1760266794 -0.0487380519 -0.5546529985 -0.0484931661 -0.5549620069 0.0070501238 0.1939738986
785295290.0 0.0534691451 0.1760656653 -0.0542559737 -0.5536520426 -0.0545416597 -0.553951561 0.0086142091 0.1935717163
790295260.0 0.0552782051 0.1752828628 -0.0605798022 -0.5533834989 -0.060438706 -0.553737576 0.010957197 0.1936464128
795295230.0 0.0572648346 0.1750167367 -0.0660309926 -0.5522091292 -0.0660439396 -0.5528262537 0.0128242656 0.1939690117
800295200.0 0.0595083997 0.1747264013 -0.0724270696 -0.5521948378 -0.0727187057 -0.552381072 0.0144026107 0.1936536744
805295170.0 0.0608454533 0.1738194397 -0.0782573792 -0.5504759399 -0.0783123935 -0.5508698854 0.0161957268 0.1935149435
810295140.0 0.0632634014 0.1736309302 -0.0843208347 -0.5507301551 -0.0842529736 -0.5508956218 0.0182487844 0.1942036841
815295110.0 0.0651227049 0.1728527309 -0.0900290726 -0.5493275208 -0.0902878592 -0.5493150823 0.0203549702 0.1935845019
820295080.0 0.0672673875 0.1718582773 -0.0960577941 -0.5480517722 -0.0962625844 -0.5487344077 0.0218001835 0.1937386459
825295050.0 0.0690118968 0.1715173512 -0.1017496802 -0.5469455426 -0.1020857857 -0.5472431885 0.0240681244 0.1939397979
830295020.0 0.0710393009 0.1714461497 -0.1082738446 -0.5457805917 -0.1079422147 -0.546203258 0.0255988391 0.1932793903
