!Created with skrf (http://scikit-rf.org).
# Hz S RI R 50.0 
!freq ReS11 ImS11 ReS21 ImS21 ReS12 ImS12 ReS22 ImS22
300000.0 -0.7692176537 -0.1394182757 -0.0020371348 0.0002357276 0.0001825417 0.0011636711 -0.7670156945 -0.1635941513
5299970.0 -0.7853136126 -0.0067255362 0.0002536786 7.50863e-05 0.0001679202 0.0002432717 -0.7844992365 -0.0082690969
10299940.0 -0.7872251448 -0.0039527294 -0.0001736062 5.35443e-05 0.0001239808 8.46736e-05 -0.7877926922 -0.0051564813
15299910.0 -0.7932216055 -0.0012042215 0.0001865286 -0.0002779082 -0.0001049544 6.10819e-05 -0.7934122025 -0.0030948395
20299880.0 -0.7997229117 0.0024624568 0.0001223542 1.23576e-05 9.35654e-05 9.4622e-05 -0.8000858995 0.0018264263
25299850.0 -0.806638396 0.0079968149 -6.23902e-05 -0.0001866587 -2.44128e-05 6.55502e-05 -0.8062269837 0.0075695911
30299820.0 -0.8118888293 0.0162846883 1.4992e-06 -0.0001395071 -9.47988e-05 -1.6823e-06 -0.8121970658 0.0150207829
35299790.0 -0.8170022329 0.0252185564 0.0002056816 -2.52399e-05 2.23986e-05 -4.73773e-05 -0.8177818794 0.024025397
40299760.0 -0.8213754508 0.0341795021 4.73449e-05 8.12735e-05 -3.74486e-05 -2.60161e-05 -0.8215233634 0.0333896244
45299730.0 -0.8252094736 0.0443882413 4.22949e-05 4.29702e-05 -4.42265e-05 5.88558e-05 -0.8252601314 0.0422075114
50299700.0 -0.8265252612 0.0539212372 -0.0001957567 1.6734e-06 1.45506e-05 -0.0001008846 -0.8280202541 0.0527746911
55299670.0 -0.8290269296 0.064451846 3.65544e-05 2.4714e-06 -5.30348e-05 0.0001438182 -0.82988719 0.0627240681
60299640.0 -0.8299034877 0.074745291 -0.0001398092 0.0001553458 0.0001072826 5.20621e-05 -0.8312842827 0.0727947949
65299610.0 -0.8312102844 0.0849229699 -0.0001235322 0.0001655726 2.4025e-06 -6.59138e-05 -0.8313632476 0.0831056353
70299580.0 -0.8312719157 0.0945702129 4.6329e-05 -2.8655e-05 -0.0001543926 -6.1067e-05 -0.8319826044 0.0929767228
75299550.0 -0.8311488856 0.1050142128 -0.0001457753 -6.198e-05 -2.48366e-05 3.20464e-05 -0.8322819192 0.1027893842
80299520.0 -0.8315526902 0.1147821534 -1.96897e-05 -8.81e-06 -0.0001096191 -6.88071e-05 -0.8316262615 0.1122091529
85299490.0 -0.8311450723 0.1244701927 0.000145095 -6.99006e-05 1.87936e-05 -7.63428e-05 -0.8316051449 0.1222220988
90299460.0 -0.8296504855 0.1339697621 4.87474e-05 -0.000245003 -0.0001161842 5.6208e-05 -0.8308280928 0.1310928875
95299430.0 -0.828653396 0.1432240877 9.1584e-05 1.09255e-05 6.10141e-05 3.45854e-05 -0.829505483 0.1413253272
100299400.0 -0.8277729188 0.1528778419 7.235e-05 0.0001443566 3.19826e-05 6.2529e-06 -0.8289793701 0.1499763128
105299370.0 -0.8265939439 0.1623188852 -8.2898e-06 0.0001410247 -0.0001584595 -0.0001035423 -0.8272937372 0.1592360753
110299340.0 -0.8254879896 0.1711474466 0.0001887324 -7.64825e-05 0.0001252641 5.78654e-05 -0.8267526174 0.1685680255
115299310.0 -0.8233846336 0.1806765429 -1.75089e-05 -8.28837e-05 -8.9776e-06 5.10615e-05 -0.8244931075 0.1767633538
120299280.0 -0.8221370396 0.1897615535 6.38945e-05 -1.7748e-06 -1.10984e-05 -1.44438e-05 -0.82386899 0.1859562056
125299250.0 -0.8206224636 0.1987275874 9.05751e-05 1.59179e-05 -8.26341e-05 -2.99416e-05 -0.8214892841 0.1959566695
130299220.0 -0.8185749579 0.2075058824 -1.65673e-05 -0.0001622182 -6.66002e-05 -0.0001109947 -0.8205341527 0.2041834035
135299190.0 -0.8167949856 0.2164890084 -0.0001762165 -5.76821e-05 -6.243e-05 8.72849e-05 -0.817875467 0.2129275117
140299160.0 -0.8146248776 0.2256556887 -8.68125e-05 4.33738e-05 -0.0001388836 3.61983e-05 -0.8156737862 0.2218794622
145299130.0 -0.8119631047 0.234457583 0.0001513999 -0.0001708958 3.78485e-05 0.0001784297 -0.8139585819 0.2299755318
150299100.0 -0.8099393875 0.2434852081 -0.000231927 -5.79785e-05 4.90067e-05 -1.79653e-05 -0.811807811 0.2382509245
155299070.0 -0.8075514802 0.2521424413 4.08342e-05 0.0001519342 0.0001416404 4.45897e-05 -0.8096467562 0.2472284138
160299040.0 -0.8047951274 0.2608146747 5.22943e-05 -0.000177482 0.000104109 -9.44414e-05 -0.8074393503 0.2568998634
165299010.0 -0.8021817474 0.269381657 9.82916e-05 0.0001390164 -0.0001343836 7.77988e-05 -0.8043920895 0.2650079051
170298980.0 -0.7995379306 0.2785880597 -9.59299e-05 0.0001885719 -8.0481e-05 5.57764e-05 -0.8021893241 0.2734117669
175298950.0 -0.7966833589 0.2869835515 -0.0001298515 1.3689e-05 -0.0001184418 3.39781e-05 -0.7989455652 0.2817272327
180298920.0 -0.7937378722 0.295050769 -2.74741e-05 1.52845e-05 6.02604e-05 -0.0001342009 -0.7952968215 0.290064872
185298890.0 -0.7906807518 0.3043878885 -5.23367e-05 4.47198e-05 -0.0001079846 0.0001099096 -0.7933544803 0.2985269481
190298860.0 -0.7873060345 0.3121604263 4.98988e-05 -0.000116782 -1.783e-06 7.825e-06 -0.789604414 0.3072750285
195298830.0 -0.7844515851 0.3212210563 -5.11528e-05 9.94543e-05 -5.65479e-05 -6.71711e-05 -0.7868253354 0.3154031516
200298800.0 -0.7810536948 0.3294029383 7.05189e-05 -6.46179e-05 0.0001113977 -6.07888e-05 -0.7829634119 0.3239523826
205298770.0 -0.7774586882 0.337381652 -7.79859e-05 0.0002058516 -2.56836e-05 -2.48027e-05 -0.7801142834 0.3318101482
210298740.0 -0.7734149477 0.3455653884 5.47893e-05 -4.14757e-05 0.0002386686 -5.09411e-05 -0.7764324512 0.3401941492
215298710.0 -0.7704075708 0.3538742742 0.0001874723 6.19536e-05 1.01256e-05 -2.45718e-05 -0.7731738179 0.3484138136
220298680.0 -0.7669543938 0.3626213052 3.50413e-05 -7.42049e-05 0.0001498649 0.00011089 -0.7693429202 0.3565027114
225298650.0 -0.7631683844 0.3703243674 -0.0003277382 -0.0001640475 -4.48037e-05 0.0001760617 -0.7657858835 0.3649720127
230298620.0 -0.7587188432 0.3791377989 -0.0001119597 1.92682e-05 -2.65821e-05 -2.4496e-05 -0.7614323651 0.3727689676
235298590.0 -0.7547724246 0.3870233612 -4.05274e-05 -2.20095e-05 6.14579e-05 -0.0001865167 -0.7575729966 0.3805149498
240298560.0 -0.7508200527 0.3950282369 -0.0001047772 -8.88919e-05 -0.0002377649 9.51913e-05 -0.7539468313 0.3884324207
245298530.0 -0.7468432396 0.4029974098 -2.63973e-05 -0.000136901 5.51605e-05 0.0001182747 -0.7498736623 0.3964074878
250298500.0 -0.7425608548 0.4109851024 -7.3793e-06 -3.52437e-05 6.63999e-05 6.85002e-05 -0.7456346379 0.4048444019
255298470.0 -0.7377892462 0.4184409411 3.1636e-06 -2.8788e-05 -5.86406e-05 0.0002020364 -0.7409159987 0.4124871968
260298440.0 -0.7335288486 0.4260397189 8.68521e-05 -0.0002813834 3.85604e-05 4.58703e-05 -0.7368789991 0.4199018391
265298410.0 -0.7289749408 0.4344722413 3.61742e-05 -5.94002e-05 -0.0001188305 -3.64583e-05 -0.7320928852 0.4276041995
270298380.0 -0.72438633 0.4416571499 4.5226e-05 0.0002572758 0.0002851606 0.0001153803 -0.7277452192 0.4356528348
275298350.0 -0.7191757083 0.4491567088 0.0001482385 0.0001141165 5.59701e-05 -2.24862e-05 -0.7221043012 0.4429921178
280298320.0 -0.7154568142 0.4567138006 5.52092e-05 2.6279e-05 -1.72465e-05 -0.0001476881 -0.7180625776 0.4501149522
285298290.0 -0.7103834462 0.4645231741 0.0001593416 -6.95974e-05 0.0003088298 -4.84899e-05 -0.7129228201 0.457708399
290298260.0 -0.7054418253 0.472044858 -0.0001496092 4.85109e-05 -0.0001344421 1.86693e-05 -0.7089686755 0.4655001104
295298230.0 -0.7011134355 0.4791753575 -8.23235e-05 -9.736e-07 -0.0001451304 8.26372e-05 -0.7033257447 0.4729713651
300298200.0 -0.6947969989 0.4866649021 -0.0001044511 1.56158e-05 0.0003475074 2.06965e-05 -0.698620338 0.4801553546
305298170.0 -0.6899034276 0.4937694145 -0.0003984624 -1.7459e-05 -8.68036e-05 0.0001997215 -0.6930999629 0.487843971
310298140.0 -0.6844883944 0.5010291309 -7.2967e-06 5.04882e-05 0.0001679036 -0.000193318 -0.6886127095 0.4951005794
315298110.0 -0.6794141073 0.5083113511 0.0001487418 -9.4687e-06 1.2322e-06 -3.00518e-05 -0.682450953 0.5020749679
320298080.0 -0.6742452192 0.5161377758 0.0002730214 3.92175e-05 -0.0001240334 0.0001143768 -0.6779297086 0.5090890721
325298050.0 -0.6688232096 0.5221327606 -0.000140999 -3.56677e-05 0.0001543096 1.02916e-05 -0.6723065097 0.5161752834
330298020.0 -0.6625707494 0.5294538836 0.000222953 -2.56396e-05 -0.0001132788 0.0001266432 -0.6667480235 0.5230875787
335297990.0 -0.6568119168 0.5362170568 3.68752e-05 1.7888e-06 3.16478e-05 0.000137557 -0.6610213639 0.5300098769
340297960.0 -0.6519040256 0.5426304231 9.36934e-05 -0.0001062685 -3.08037e-05 -4.82299e-05 -0.6556350924 0.5369410859
345297930.0 -0.6462860452 0.5492430567 9.79013e-05 4.0268e-05 -7.5803e-06 0.0001229662 -0.6494849398 0.5442012384
350297900.0 -0.6404307111 0.5560805401 1.3716e-06 0.0002009842 9.5983e-06 -0.0001190591 -0.6437381082 0.5509749017
355297870.0 -0.6347229094 0.5631986794 -0.0001182162 0.0001793659 7.44264e-05 0.0001436203 -0.637720042 0.5571485086
360297840.0 -0.6281694461 0.569194086 4.40006e-05 6.2559e-05 -0.0002648268 0.0001620025 -0.6321969976 0.563733105
365297810.0 -0.6220049377 0.5758125302 -0.0001599937 -5.80262e-05 3.24888e-05 -0.0001590313 -0.625807803 0.5706904082
370297780.0 -0.6159764625 0.5818548655 9.63034e-05 -5.74949e-05 8.7109e-05 -5.56841e-05 -0.6207340619 0.5765381235
375297750.0 -0.6099306655 0.5883006234 -1.97568e-05 4.7604e-05 4.26741e-05 -0.0001677811 -0.6140393533 0.5832998828
380297720.0 -0.6040517071 0.5947126861 -0.0001021729 -0.0001252737 1.1189e-06 -0.0001616409 -0.6082478391 0.5902672968
385297690.0 -0.5979105068 0.6008280882 0.0001958001 0.0001094735 0.0002113301 8.13798e-05 -0.6019727549 0.5959810803
390297660.0 -0.5917239046 0.6068797269 1.05093e-05 -7.58899e-05 0.0001305754 6.44887e-05 -0.5956348884 0.602191557
395297630.0 -0.5854169988 0.6132175661 5.70454e-05 -0.0001294316 3.53061e-05 -0.0002362274 -0.588729228 0.6081407076
400297600.0 -0.578598928 0.6196619418 0.0001905132 0.0002419628 -8.618e-07 -5.08813e-05 -0.5828690665 0.6138777797
405297570.0 -0.5724681019 0.6248393098 4.54071e-05 1.4357e-05 -0.0001220164 0.0001070818 -0.5769128557 0.6200109397
410297540.0 -0.5657489242 0.6306380473 0.000134522 -0.0001823135 -5.46084e-05 8.048e-05 -0.5700198108 0.6257028526
415297510.0 -0.5594360836 0.6362781162 -7.18376e-05 -2.78436e-05 4.03779e-05 4.33347e-05 -0.5632461635 0.6317710263
420297480.0 -0.552115068 0.6421115924 -2.87673e-05 -1.37367e-05 4.88125e-05 6.86788e-05 -0.5568863475 0.6367630075
425297450.0 -0.5455849117 0.6480021158 3.08965e-05 -0.0001085088 -3.8456e-06 2.57484e-05 -0.5497075446 0.6433176043
430297420.0 -0.539020833 0.6534942064 2.44377e-05 -0.0001340091 -9.25971e-05 2.42887e-05 -0.5440012855 0.6491410653
435297390.0 -0.5318463759 0.6589694506 0.0002615099 -0.0002275784 -7.97978e-05 0.0001173272 -0.5370645716 0.6535927504
440297360.0 -0.5248861133 0.6650041132 -3.58141e-05 -3.38136e-05 -1.68499e-05 -7.0296e-06 -0.5303468832 0.6589679557
445297330.0 -0.5187049139 0.6701778374 -0.0002116807 -9.06151e-05 -3.29675e-05 4.33879e-05 -0.5237858646 0.6643165758
450297300.0 -0.5115546372 0.6745880411 -6.45723e-05 0.0001084946 9.6434e-06 -9.55393e-05 -0.5169779956 0.6701496866
455297270.0 -0.5043889213 0.6801492119 0.0001067679 -0.0001030633 8.37441e-05 -5.36816e-05 -0.5098847361 0.674811251
460297240.0 -0.4976639602 0.6858128252 5.61521e-05 -2.47397e-05 1.12584e-05 0.0001207519 -0.5027224362 0.680862417
465297210.0 -0.4897591244 0.6905586255 5.75898e-05 -7.02459e-05 -2.26378e-05 -4.50116e-05 -0.4960272282 0.6845978715
470297180.0 -0.4833396375 0.6948985989 0.0001393217 0.0002395096 -9.3162e-05 -1.22295e-05 -0.4891967904 0.6897045034
475297150.0 -0.4757580433 0.7003421045 0.0001707528 0.0001889043 0.0001872119 -0.000139068 -0.481851454 0.6948441174
480297120.0 -0.4686675119 0.7048485495 2.4332e-05 6.51389e-05 7.71229e-05 -4.43603e-05 -0.4749903338 0.7003737552
485297090.0 -0.4608397671 0.7096929341 -0.0001344845 -6.39047e-05 -7.89085e-05 -9.71517e-05 -0.4676498561 0.7043912384
490297060.0 -0.4536179683 0.7142939583 8.19559e-05 -6.3403e-05 5.43945e-05 6.32648e-05 -0.4606588769 0.7084945732
495297030.0 -0.4472371975 0.7189419739 9.57895e-05 -0.0001187079 -5.39372e-05 0.0001492392 -0.4532913341 0.712563623
500297000.0 -0.4390870908 0.7236978192 -5.65022e-05 1.55222e-05 7.9862e-06 8.71589e-05 -0.4459482077 0.7176432252
505296970.0 -0.4312644781 0.7268392184 6.61861e-05 -1.86627e-05 -2.784e-05 8.73352e-05 -0.4399687604 0.7217601624
510296940.0 -0.4246389981 0.7316979719 -0.0002018114 2.83773e-05 -1.74898e-05 4.15208e-05 -0.431835715 0.7262920441
515296910.0 -0.4166033829 0.7362655384 0.0001566239 -4.0122e-06 5.2922e-05 5.72977e-05 -0.4249497873 0.7306196523
520296880.0 -0.4086174355 0.7405139857 4.29375e-05 -0.0003630937 -0.0001392971 -8.1187e-06 -0.4168047258 0.7343376715
525296850.0 -0.4014022363 0.744665739 7.45092e-05 -0.0002568101 -5.26983e-05 -0.000109061 -0.4093331877 0.7394306888
530296820.0 -0.3942207181 0.7484837421 0.000366583 0.0002066718 -0.0001680972 -3.67721e-05 -0.4026767426 0.7429157372
535296790.0 -0.3858998364 0.7520363873 -0.0002523489 9.75071e-05 0.0001657597 -7.84624e-05 -0.3953845215 0.7463947211
540296760.0 -0.3783181987 0.7559659237 0.0001001802 -2.65545e-05 0.0001458284 0.0001039343 -0.3882475348 0.7506980683
545296730.0 -0.3711202654 0.7595557851 -2.08238e-05 0.0002021618 -0.0001843405 -8.07787e-05 -0.3803915708 0.7539034426
550296700.0 -0.363315093 0.7636944992 0.0002164622 -3.85337e-05 -2.64412e-05 -8.2734e-06 -0.3728832133 0.7577691804
555296670.0 -0.3548295506 0.7672794264 -0.0001747973 7.72066e-05 3.326e-05 1.4235e-05 -0.3654442897 0.7618663002
560296640.0 -0.3466885051 0.7709642416 -9.3216e-05 -0.0001738786 0.0001311916 8.50579e-05 -0.3576223407 0.7653236803
565296610.0 -0.3398288605 0.7734458083 1.06491e-05 -0.0001563393 0.0001337979 -0.0002147277 -0.3502825728 0.7684434977
570296580.0 -0.33157001 0.7772201934 2.27316e-05 5.18588e-05 5.04861e-05 -8.90024e-05 -0.3426899977 0.7722186875
575296550.0 -0.3236700388 0.7804267263 -1.30671e-05 -3.02056e-05 0.0002162934 -0.0001555966 -0.3346587407 0.7754882483
580296520.0 -0.3157489314 0.7839850622 0.0002034712 8.3106e-06 -1.02169e-05 -1.03702e-05 -0.3268121744 0.7786623482
585296490.0 -0.3074242673 0.7865249665 0.0002210675 5.87262e-05 -0.0001983033 -0.0001546409 -0.319311377 0.7817354129
590296460.0 -0.2998530367 0.7894137557 -0.0001330702 0.0002656996 1.61716e-05 0.0001360258 -0.3114076994 0.784872278
595296430.0 -0.2912495663 0.7930289531 2.40979e-05 -0.0001687339 3.93824e-05 3.368e-05 -0.3033478851 0.787607566
600296400.0 -0.283536975 0.7963177083 -0.0002009508 7.52604e-05 -3.25556e-05 -4.16564e-05 -0.2951909854 0.7909653259
605296370.0 -0.2752220795 0.7987851606 -0.0002624767 -7.68134e-05 -1.97973e-05 0.0001946031 -0.2877439184 0.7943637161
610296340.0 -0.2672908503 0.8012760987 -0.0002967624 -2.97488e-05 0.0001083296 0.000273322 -0.2800839856 0.797237303
615296310.0 -0.2592830616 0.8046300964 -8.69122e-05 -0.0002805426 6.78969e-05 -8.25187e-05 -0.2722583911 0.798474793
620296280.0 -0.2507926933 0.8062598708 0.0002744793 3.66932e-05 -0.0002460784 4.09665e-05 -0.2643671845 0.8018839943
625296250.0 -0.2428130047 0.808976877 -4.89746e-05 7.65386e-05 -5.08387e-05 -6.81187e-05 -0.2560112243 0.8045338936
630296220.0 -0.2338694115 0.8120655108 7.70856e-05 1.64508e-05 -7.93353e-05 -0.0001825511 -0.248180802 0.8075866323
635296190.0 -0.2258741358 0.8141163773 7.97003e-05 -5.79941e-05 -0.0001348612 2.61185e-05 -0.2407014827 0.8094994815
640296160.0 -0.2177015532 0.8157239374 -2.50938e-05 -0.0002402204 -5.25495e-05 8.15726e-05 -0.2321291864 0.8113493929
645296130.0 -0.2096219519 0.8181311838 0.0002174164 7.3439e-06 0.0001890503 0.0001417475 -0.2245341951 0.813583075
650296100.0 -0.2013973554 0.8203337231 6.9079e-06 5.58288e-05 5.55081e-05 3.61382e-05 -0.2166016311 0.8166618503
655296070.0 -0.1930865537 0.8221091849 -0.0001936119 -6.27139e-05 -1.46044e-05 2.27154e-05 -0.2079994181 0.8178892385
660296040.0 -0.1853121843 0.8240316638 -0.0001050889 2.35431e-05 -2.66662e-05 -2.85949e-05 -0.2003846346 0.8202897185
665296010.0 -0.1766167681 0.8257307554 -5.88805e-05 -3.62986e-05 0.0002228667 -5.56036e-05 -0.1928224519 0.8223981519
670295980.0 -0.1676345925 0.8274019041 -0.0001088252 -9.33817e-05 0.0001637593 -5.40113e-05 -0.1843693735 0.8241461178
675295950.0 -0.1601969836 0.8285948661 -8.45251e-05 -9.3541e-05 -6.88114e-05 9.7759e-06 -0.1758258787 0.8263956899
680295920.0 -0.151689369 0.8308515348 6.83258e-05 -6.15774e-05 0.0002083946 -0.0002228174 -0.1680594533 0.8275477614
685295890.0 -0.1429610811 0.8317620953 0.0001416525 -1.00663e-05 -8.67261e-05 0.0002672909 -0.159469805 0.8295751334
690295860.0 -0.1343676348 0.8338819594 -0.000178487 -0.0001483646 -0.00012673 6.55862e-05 -0.151543702 0.8305789583
695295830.0 -0.1258237587 0.8339568009 0.0001016957 0.0001352472 8.63508e-05 6.30491e-05 -0.1434799828 0.832780735
700295800.0 -0.1174649894 0.8355042509 0.0001165688 -4.57202e-05 -1.966e-05 1.97857e-05 -0.1348046147 0.8335769577
705295770.0 -0.1091952245 0.8370473995 0.0001032223 9.76536e-05 3.06484e-05 0.0001015449 -0.1266849203 0.8349480099
710295740.0 -0.101045398 0.8380601603 0.0002093655 -7.80804e-05 2.18853e-05 -0.0001109918 -0.1188182959 0.8366583615
715295710.0 -0.0928984206 0.8394801734 -3.28736e-05 -9.2599e-06 -4.26118e-05 -1.36085e-05 -0.1103800861 0.8381069988
720295680.0 -0.0844513962 0.839514692 -3.50638e-05 1.44859e-05 2.80699e-05 -5.17743e-05 -0.1020508277 0.838298651
725295650.0 -0.0749029018 0.8414349919 0.0001596201 0.0001082269 9.0456e-06 5.34027e-05 -0.0939607855 0.8393026479
730295620.0 -0.0675365686 0.841258262 6.99483e-05 -0.0001155095 2.67161e-05 -0.0001131968 -0.085826821 0.8403977726
735295590.0 -0.0582785944 0.8418649591 -0.0002783428 -5.0672e-06 7.16025e-05 9.93767e-05 -0.0764767261 0.8409750482
740295560.0 -0.0497460863 0.8428645183 -6.85656e-05 -0.0002421147 -0.000150597 -0.0001461494 -0.0688037695 0.8410188306
745295530.0 -0.0417541858 0.8427938416 0.0001285369 -9.16303e-05 -4.25909e-05 3.35858e-05 -0.0602291647 0.8418023845
750295500.0 -0.0334881258 0.8428053766 -8.85563e-05 -0.0001236524 5.305e-05 -0.0001387055 -0.0521327938 0.8426635942
755295470.0 -0.0240031314 0.8434683332 0.000112984 7.27108e-05 -9.16525e-05 6.35507e-05 -0.0443387487 0.8436031362
760295440.0 -0.0162757825 0.8431549703 2.21532e-05 -0.000107378 2.7741e-06 -0.0002700841 -0.0366103983 0.8439495953
765295410.0 -0.0074415647 0.8442024977 -0.000277189 0.000103477 -4.93942e-05 1.87481e-05 -0.026939379 0.8443288738
770295380.0 0.0009386754 0.8436753843 -7.15787e-05 0.0001350117 5.69212e-05 2.30982e-05 -0.0185745702 0.8441717311
775295350.0 0.0095750744 0.844131105 8.8695e-05 1.43676e-05 2.3994e-06 -7.66334e-05 -0.011035551 0.8439637092
780295320.0 0.0178907247 0.8433663871 9.34875e-05 3.32519e-05 6.42404e-05 0.0001172848 -0.0025621815 0.8447360356
785295290.0 0.0264324613 0.8441376987 0.0002340863 -1.42812e-05 -5.49204e-05 0.0001534391 0.0050372217 0.8442111053
790295260.0 0.0347828609 0.8431787756 -0.0001211793 8.66053e-05 4.39039e-05 7.10526e-05 0.0145362696 0.8441252855
795295230.0 0.042398646 0.8435490669 8.82812e-05 2.04981e-05 -6.99233e-05 -5.9182e-06 0.0225646284 0.8442139526
800295200.0 0.0515019618 0.842787353 0.0001989841 8.95306e-05 -0.0001918542 6.18549e-05 0.0307173185 0.8435021957
805295170.0 0.0604168341 0.8422405861 5.0596e-06 0.0001450418 0.0001664766 -4.26354e-05 0.0385006325 0.842585557
810295140.0 0.0681198777 0.8407752656 5.0147e-06 -0.0002163627 5.4997e-05 0.0002290467 0.047258981 0.8436262435
815295110.0 0.0771322451 0.8406566522 -0.0001261503 6.55563e-05 -4.5849e-05 8.88475e-05 0.0556067323 0.8426099199
820295080.0 0.0851078495 0.8389169429 9.90728e-05 3.687e-05 -3.55421e-05 0.0001192851 0.063622305 0.841886318
825295050.0 0.0941703108 0.8386146363 -7.59013e-05 0.0002076606 3.18502e-05 0.0002655352 0.0718499512 0.8411301199
830295020.0 0.1022293277 0.8373074304 -2.98075e-05 -0.0001936889 2.636e-06 4.77772e-05 0.0798524746 0.8402054564
835294990.0 0.1101147677 0.8367395824 -9.13789e-05 5.67943e-05 -2.39842e-05 -5.20629e-05 0.0883561225 0.839602923
840294960.0 0.1188831507 0.8354074306 -0.0001585459 0.0001013883 0.0001538617 0.0001145819 0.0964960026 0.8387880951
845294930.0 0.1269352476 0.8344382674 -7.46243e-05 1.46899e-05 9.37952e-05 8.53501e-05 0.1049869575 0.8381819285
850294900.0 0.1354028417 0.8325101069 -1.9755e-05 7.15832e-05 -1.22757e-05 0.0001475108 0.1132675653 0.8371316508
