!Created with skrf (http://scikit-rf.org).
# Hz S RI R 50.0 
!freq ReS11 ImS11 ReS21 ImS21 ReS12 ImS12 ReS22 ImS22
300000.0 -0.7764469841 -0.1832024613 0.0002313956 -0.000611008 -0.0007704163 -4.67196e-05 0.8592678262 -0.0026879584
5299970.0 -0.7858088071 -0.0091492458 8.7117e-06 -0.0002303458 2.17163e-05 -4.3755e-06 0.859561327 -0.0101644033
10299940.0 -0.7892467195 -0.0061396622 2.2475e-05 0.0001410101 0.0001517435 -7.14731e-05 0.8585469308 -0.0192557381
15299910.0 -0.7942548905 -0.0029411695 -0.0001662588 -3.24301e-05 -9.18843e-05 -9.4694e-06 0.8576154799 -0.0279460872
20299880.0 -0.8010747764 0.0008618842 0.0001449275 1.78349e-05 1.33906e-05 1.82753e-05 0.8566246885 -0.0354818894
25299850.0 -0.8074000153 0.0069796079 1.11514e-05 -1.57282e-05 -5.43979e-05 6.5962e-05 0.8556898539 -0.0439095466
30299820.0 -0.813955574 0.0138310684 -0.0001585598 -0.000105045 2.2497e-06 -2.08054e-05 0.8548721667 -0.0525514745
35299790.0 -0.8189189038 0.0231864454 -9.2899e-05 -0.0001267077 0.0001460251 -7.44577e-05 0.8542901832 -0.0611407287
40299760.0 -0.8234609657 0.0324576742 -8.88655e-05 -5.597e-07 -0.0001287858 7.2487e-06 0.854129053 -0.0689164867
45299730.0 -0.8266666567 0.0416373302 0.0001845742 -8.21059e-05 -5.84456e-05 0.000223977 0.8525230079 -0.0773490887
50299700.0 -0.8292161555 0.0519457927 -2.76562e-05 -0.0001243401 7.70895e-05 0.0001557005 0.8520799847 -0.085202668
55299670.0 -0.8313324406 0.061605225 -3.50987e-05 -1.51595e-05 -0.0001319527 8.35105e-05 0.8514681702 -0.0931388508
60299640.0 -0.8327593773 0.0718351218 5.09699e-05 0.0001740624 0.0001081416 5.21584e-05 0.8498514124 -0.1021982679
65299610.0 -0.8333258069 0.0818527258 6.08094e-05 -3.40742e-05 -1.7005e-06 6.7737e-06 0.8490669889 -0.1109830339
70299580.0 -0.8340067916 0.0916168805 -0.0001022157 2.85569e-05 8.28768e-05 8.62422e-05 0.8475015753 -0.1188075061
75299550.0 -0.8339152328 0.1015226554 -0.0001020418 0.0001782469 1.60033e-05 3.27446e-05 0.8458829799 -0.1271372116
80299520.0 -0.8338796196 0.1119817429 0.0001751521 7.17508e-05 -8.75792e-05 -0.0001230776 0.8447887289 -0.1357337716
85299490.0 -0.832832825 0.121001534 8.03877e-05 -7.99646e-05 -9.04735e-05 0.0001027663 0.8440768787 -0.1433350867
90299460.0 -0.8325302645 0.1314646058 6.7297e-06 -0.0001501693 -4.66612e-05 -6.87041e-05 0.8424939013 -0.1517517238
95299430.0 -0.831833526 0.1409755558 7.74659e-05 -0.0001137939 2.00301e-05 6.91848e-05 0.8406661221 -0.1598683088
100299400.0 -0.830385348 0.1498778574 0.0001770868 -9.4007e-05 0.0002032812 7.69186e-05 0.8389902189 -0.1679924934
105299370.0 -0.8291484752 0.1593927184 6.30522e-05 8.21192e-05 7.68879e-05 0.0002520195 0.8378583128 -0.1763288493
110299340.0 -0.8274869425 0.1685476999 5.5795e-06 3.48603e-05 0.0001849152 -0.0001104933 0.8355741 -0.1850364735
115299310.0 -0.8260370569 0.1775706384 5.06632e-05 -5.56833e-05 8.1448e-05 -0.0001099146 0.8336517281 -0.1929234485
120299280.0 -0.8248028459 0.1867626256 -5.28564e-05 6.60197e-05 8.88125e-05 -0.0001417321 0.8319830913 -0.2003513852
125299250.0 -0.8221108748 0.1957852067 1.15085e-05 4.6479e-06 -0.000156476 2.80464e-05 0.829366455 -0.2090916842
130299220.0 -0.8206879976 0.204852707 7.45736e-05 0.0001136879 0.0001265231 0.0001157566 0.8278041765 -0.2163198599
135299190.0 -0.8185164084 0.2142551742 0.0001387312 0.0001066763 -0.0001873715 3.01571e-05 0.8255016513 -0.2251485717
140299160.0 -0.8170821732 0.2232153122 1.68237e-05 -0.000147932 0.0001590461 -3.81876e-05 0.8227111766 -0.2330998606
145299130.0 -0.8151797424 0.2321536272 7.29436e-05 -0.0002385166 -7.49286e-05 4.2861e-06 0.8204253359 -0.2414602895
150299100.0 -0.8124274367 0.2413360711 -0.0001215199 2.39549e-05 -0.0001221911 8.68954e-05 0.8179343721 -0.2490284351
155299070.0 -0.8096313596 0.2499146474 -3.55459e-05 7.03094e-05 9.53841e-05 3.4192e-05 0.816097856 -0.2575647462
160299040.0 -0.8077901322 0.2597039746 -6.70145e-05 -2.52274e-05 -4.9765e-05 2.74686e-05 0.8133846339 -0.2655043997
165299010.0 -0.8047830773 0.2676171638 1.12301e-05 0.000156049 9.3764e-06 6.00651e-05 0.8103283515 -0.2734034444
170298980.0 -0.8017265553 0.2764878812 -3.529e-07 -6.80769e-05 0.0001494925 8.63339e-05 0.8073985952 -0.2811670215
175298950.0 -0.7991138922 0.2847002358 -0.0001433917 1.89968e-05 0.000158596 7.89339e-05 0.8049477123 -0.2882809373
180298920.0 -0.7957489452 0.2936014505 0.0003350668 4.48696e-05 -8.1118e-06 -0.0001676695 0.8021846394 -0.2964137285
185298890.0 -0.7926617374 0.3022267393 0.0002084554 6.80664e-05 -4.54065e-05 -0.0001674497 0.7989696179 -0.3046629544
190298860.0 -0.7895899652 0.3112863755 4.11107e-05 0.0001517384 6.1335e-06 0.0001224506 0.7952789815 -0.3126443917
195298830.0 -0.7861640818 0.3192392618 0.0001532344 5.88819e-05 4.86934e-05 -1.9944e-05 0.7928501139 -0.3206854498
200298800.0 -0.7827984183 0.3283350844 0.0001082566 6.7681e-06 -0.0001954971 -4.17917e-05 0.7896588642 -0.3278024432
205298770.0 -0.779472583 0.3365315479 -0.0002397329 7.82622e-05 8.82646e-05 0.0002735265 0.786605884 -0.3362618666
210298740.0 -0.7764654081 0.344979081 0.0002395257 -1.67426e-05 7.87418e-05 2.0624e-06 0.7832844877 -0.343913079
215298710.0 -0.7727384724 0.3531311957 -4.13703e-05 -5.33376e-05 3.32977e-05 6.5385e-06 0.7797639571 -0.3514789465
220298680.0 -0.7684481054 0.3612885436 1.69769e-05 3.59529e-05 -6.50716e-05 -3.29862e-05 0.7755288698 -0.358531363
225298650.0 -0.7648353237 0.3695551481 -0.0001490685 0.0002472762 4.02925e-05 0.0001832112 0.7721232695 -0.3666425698
230298620.0 -0.7607816666 0.3777272403 0.0001835227 -2.6004e-06 -2.44783e-05 0.0001034461 0.7685886722 -0.3741977754
235298590.0 -0.7572763469 0.386237561 -1.42028e-05 9.10857e-05 0.0001974243 7.81299e-05 0.7648563777 -0.3809818092
240298560.0 -0.7526299834 0.3935891041 -2.71821e-05 0.0001359648 -1.37712e-05 6.96083e-05 0.7613662711 -0.388606535
245298530.0 -0.7487823576 0.4020395147 4.98046e-05 -1.0114e-05 -4.79804e-05 -0.0001546128 0.7570810929 -0.3958014478
250298500.0 -0.744901724 0.4091565093 3.25704e-05 1.1046e-06 -5.10106e-05 -4.879e-07 0.753343549 -0.4031488763
255298470.0 -0.740635522 0.417499894 -0.0002242522 -0.0001336621 0.0001214817 0.0001145471 0.7494793036 -0.4109293119
260298440.0 -0.7367512135 0.4251588419 -0.0001407356 -1.60259e-05 5.6713e-06 -3.92257e-05 0.7450170698 -0.4182586075
265298410.0 -0.7320048615 0.4330920696 0.0001616923 5.3773e-06 5.58805e-05 -3.3742e-06 0.7416467664 -0.4252292133
270298380.0 -0.7272455447 0.4404959357 -1.05942e-05 0.0001009038 -7.322e-06 -6.7622e-05 0.7376553237 -0.4323109653
275298350.0 -0.7235135079 0.4482385301 4.75817e-05 9.65746e-05 0.0001747668 2.02707e-05 0.7324605107 -0.4398675089
280298320.0 -0.7183085337 0.4556716443 -0.0001362582 -1.20841e-05 5.36638e-05 -6.10121e-05 0.7290811951 -0.4470575827
285298290.0 -0.713833988 0.4631550402 -0.0001584799 -0.0001353765 -8.99077e-05 0.0001311429 0.7241155298 -0.4539969831
290298260.0 -0.7081238353 0.4710703207 -0.0002217782 -2.22936e-05 2.48445e-05 -9.99929e-05 0.7202120072 -0.4606705248
295298230.0 -0.7037362213 0.4777731416 0.0001627507 -1.41766e-05 6.90151e-05 0.0003177118 0.7157987697 -0.4680583712
300298200.0 -0.6991841339 0.4857821901 -2.93734e-05 -6.31687e-05 7.79266e-05 0.0001352166 0.7108517224 -0.4750112326
305298170.0 -0.6944468388 0.4926703057 -9.7638e-06 -6.56852e-05 -0.0001335896 0.0001214019 0.7062565797 -0.4822519979
310298140.0 -0.6887571778 0.4995736685 0.0001277242 -0.0001161188 -0.0002011976 0.0002843765 0.7021223152 -0.4891949259
315298110.0 -0.6847292963 0.5076147938 1.2657e-05 3.14694e-05 0.0002892236 -7.75582e-05 0.6975380523 -0.4967068013
320298080.0 -0.6788190582 0.5143274878 2.22803e-05 0.0001277968 -1.57142e-05 -3.90947e-05 0.6921084304 -0.5039460527
325298050.0 -0.673220993 0.52120596 -2.88994e-05 3.30114e-05 0.0001725204 8.192e-06 0.6875210207 -0.5117529133
330298020.0 -0.6679302824 0.527861847 1.92008e-05 3.41281e-05 -9.36432e-05 0.0001757091 0.682495005 -0.5191272371
335297990.0 -0.662677962 0.5348517308 0.0002208664 -0.0001445646 -0.0002195821 -7.45948e-05 0.6759263104 -0.5263544001
340297960.0 -0.6580263955 0.5415846902 -0.0001590926 0.0001429517 5.62747e-05 -8.02578e-05 0.6697098164 -0.5318051237
345297930.0 -0.652126914 0.5479521634 6.5379e-06 -8.74368e-05 -7.28426e-05 -3.06383e-05 0.6641450363 -0.5391534962
350297900.0 -0.646072987 0.5544989037 -0.0001725304 -2.36647e-05 6.31739e-05 9.56688e-05 0.6583835096 -0.5456019377
355297870.0 -0.6409252422 0.5617228045 -7.9773e-06 0.0001131153 -7.101e-07 4.72871e-05 0.6526134048 -0.5515386616
360297840.0 -0.63484886 0.5683929106 0.000121955 -0.0001654235 9.33389e-05 5.92764e-05 0.6469817951 -0.5575353572
365297810.0 -0.6294292973 0.5750164501 -4.67367e-05 7.01994e-05 -4.33416e-05 -5.97675e-05 0.6413264294 -0.5637170243
370297780.0 -0.6237309058 0.5804591097 -0.0001483661 0.0001757563 -0.0001612042 3.98725e-05 0.6355135806 -0.5696839986
375297750.0 -0.6181621096 0.5875240167 -0.0001304931 -7.28478e-05 -7.181e-07 0.0001794113 0.630066819 -0.5756749121
380297720.0 -0.6119526762 0.5931987254 0.000189382 -8.65335e-05 -0.000170661 4.05072e-05 0.6242574683 -0.5813635726
385297690.0 -0.6055346316 0.6000218518 -0.0001679622 0.0001407402 7.41026e-05 -0.0001072321 0.6179587139 -0.5876279573
390297660.0 -0.5990286728 0.6057396893 -4.21659e-05 -6.37079e-05 -1.03425e-05 -0.0001774226 0.6121912027 -0.5931247462
395297630.0 -0.5935578022 0.6126562423 -9.96869e-05 0.0001746287 7.69444e-05 -5.90597e-05 0.606327414 -0.5993553915
400297600.0 -0.5867019103 0.6184401017 -0.0001361667 5.84137e-05 -2.32496e-05 8.09547e-05 0.6002386331 -0.6051012608
405297570.0 -0.5803589772 0.62339369 0.0001423286 5.80528e-05 -3.2795e-05 -0.0001210599 0.594142304 -0.6106941532
410297540.0 -0.5736604757 0.6295425504 0.0001315435 -5.79427e-05 0.0001202212 -8.8495e-06 0.588154031 -0.6166382173
415297510.0 -0.5678315758 0.6355504217 0.000141184 -0.0002487555 4.90077e-05 -2.22489e-05 0.5820596214 -0.6222138571
420297480.0 -0.560737218 0.6406835232 -1.44163e-05 8.88567e-05 4.61983e-05 -7.66625e-05 0.5760513733 -0.6275316422
425297450.0 -0.5544181829 0.6462194061 -5.82201e-05 0.0001813713 -0.0002189041 -0.0001709247 0.5697727421 -0.6340555689
430297420.0 -0.5475213057 0.6514161544 0.0001209407 4.97509e-05 8.9056e-05 -8.87066e-05 0.5636470975 -0.6390795061
435297390.0 -0.5410708198 0.657665609 6.7575e-06 7.76004e-05 0.0001394317 -9.709e-05 0.5568555346 -0.6443733419
440297360.0 -0.5338431675 0.6628272531 -0.0002363581 -5.06345e-05 -0.000108686 -7.65671e-05 0.5501188567 -0.6494336074
445297330.0 -0.5276990935 0.6677647274 5.19981e-05 -3.51408e-05 7.643e-05 8.46393e-05 0.5435330629 -0.6544695075
450297300.0 -0.5205030364 0.6735956344 -0.000162 -0.000174076 5.90631e-05 0.0001226865 0.5374822456 -0.660028717
455297270.0 -0.5133620032 0.6788321138 0.0003788938 -0.0001258106 0.0001116213 -0.0002166369 0.5308923597 -0.6652849668
460297240.0 -0.5059721684 0.6843841886 -0.0001774138 0.0001355766 -6.11574e-05 6.03927e-05 0.5242437052 -0.6706880779
465297210.0 -0.4988113371 0.6887779261 -0.0001461264 6.33681e-05 8.226e-06 3.10324e-05 0.5176566339 -0.6749264656
470297180.0 -0.4914855455 0.6937830977 0.0001060509 3.281e-07 7.39466e-05 5.06151e-05 0.5108883019 -0.6805608841
475297150.0 -0.4846386575 0.6986896079 -1.97723e-05 -1.9466e-05 -3.9793e-06 -9.57002e-05 0.504804407 -0.684974254
480297120.0 -0.476495194 0.7042359896 -0.0001717617 0.0001136779 -0.0001357171 0.0001057664 0.4967973621 -0.6904249046
485297090.0 -0.470007595 0.7082875683 0.0001206274 3.46849e-05 1.52372e-05 -4.60048e-05 0.4907127691 -0.6950611901
490297060.0 -0.4618458585 0.7137991683 -0.0001460182 4.76793e-05 -7.30079e-05 3.24733e-05 0.4830377565 -0.7000612846
495297030.0 -0.4547847898 0.7178586175 -7.011e-06 -3.34314e-05 -7.6758e-05 0.0001010566 0.4763338746 -0.7047566833
500297000.0 -0.4470574379 0.7220758007 -1.81874e-05 -9.1597e-05 2.75179e-05 0.0001313118 0.4693577316 -0.7084422958
505296970.0 -0.4392443976 0.7268027973 2.30333e-05 -4.83376e-05 -6.45406e-05 -6.63434e-05 0.4619785116 -0.7131400053
510296940.0 -0.4320973372 0.7313657409 -8.95324e-05 -0.0001781746 0.0001188377 -2.05856e-05 0.4547793031 -0.7178352734
515296910.0 -0.4244474065 0.7356587313 -3.74409e-05 -0.0002477161 0.0003084189 -6.97915e-05 0.4484062203 -0.7224804829
520296880.0 -0.4161133309 0.7397726427 0.0001336101 8.808e-05 6.57949e-05 2.0391e-05 0.4411210482 -0.7265625131
525296850.0 -0.4086637653 0.7440433274 1.85223e-05 0.0002771127 -3.45452e-05 -3.6144e-06 0.4335991674 -0.7306321136
530296820.0 -0.4012415728 0.7483020634 9.84132e-05 -0.0001124345 0.0002024262 5.75208e-05 0.4263438748 -0.7352345903
535296790.0 -0.3929262866 0.7520076348 -0.0003566163 8.52299e-05 -3.28798e-05 3.91358e-05 0.419690787 -0.7385764043
540296760.0 -0.3849927541 0.7563078767 0.0002248383 -0.0001420369 0.0001897516 0.0002479507 0.4120508761 -0.7429456192
545296730.0 -0.3771569087 0.7600716854 4.89937e-05 -3.23099e-05 -5.42448e-05 -5.1629e-05 0.4038343489 -0.7474162427
550296700.0 -0.3694161016 0.7636607708 -1.86411e-05 -3.3675e-06 -3.09586e-05 -1.61625e-05 0.3967117009 -0.7507645684
555296670.0 -0.3616169905 0.767364946 -0.0001249943 -0.0001416148 0.0001102774 -0.0001426752 0.3890689727 -0.7543496954
560296640.0 -0.3530091481 0.7709534008 -0.0001496818 -7.63495e-05 -0.0001613531 -5.70591e-05 0.3811370012 -0.7583612822
565296610.0 -0.3452915793 0.7743528031 -5.03898e-05 8.13379e-05 0.0001272556 -9.51647e-05 0.3746914047 -0.7618978362
570296580.0 -0.337121842 0.7782289275 -5.14747e-05 -0.0002349201 3.6821e-06 0.0003189852 0.3664214546 -0.7656918856
575296550.0 -0.3280108124 0.781308445 -4.84723e-05 5.16495e-05 0.0001021936 0.0001224633 0.3595748136 -0.7689658927
580296520.0 -0.3210524191 0.784304915 4.78809e-05 -0.0001601201 -3.59967e-05 0.0002423282 0.3512763017 -0.7724453542
585296490.0 -0.3126971081 0.7879152128 -0.0001478237 -0.0002252405 -0.0001388706 8.30206e-05 0.3437519383 -0.7753255027
590296460.0 -0.3039234122 0.7908970634 4.2765e-06 -2.2672e-06 -0.0001729667 -0.0002205477 0.3355287569 -0.7792897523
595296430.0 -0.2960944647 0.7941585083 4.60159e-05 5.85736e-05 -6.62274e-05 -9.58128e-05 0.3278551882 -0.7820410957
600296400.0 -0.2879777225 0.7962904467 -7.53022e-05 3.42429e-05 0.0001456735 4.3084e-06 0.3205277066 -0.7855252138
605296370.0 -0.2800478569 0.7996742793 -6.80505e-05 1.92872e-05 9.9146e-05 -8.05142e-05 0.3125654631 -0.7883436902
610296340.0 -0.271644059 0.803315913 -4.49486e-05 -5.17665e-05 8.84867e-05 7.75725e-05 0.3040610628 -0.7913146843
615296310.0 -0.2627010426 0.8051660726 -0.00011684 -0.000131942 -0.0001059123 -0.0001685476 0.2965777358 -0.7944121353
620296280.0 -0.2549099639 0.8085992794 -9.69281e-05 0.0001029287 5.70624e-05 -3.76387e-05 0.2888570034 -0.7966963885
625296250.0 -0.2475355677 0.8105494949 -0.0001152088 -3.17135e-05 3.28352e-05 2.57807e-05 0.2803645654 -0.7997902158
630296220.0 -0.2388853086 0.8131118124 -7.26675e-05 -7.38376e-05 5.31195e-05 -7.97513e-05 0.2729268399 -0.8023131585
635296190.0 -0.2309280018 0.8155400049 -7.9386e-06 0.0001362788 0.0002073118 -0.0001277206 0.2644852055 -0.8041267831
640296160.0 -0.2220049116 0.8178048587 4.89603e-05 -6.34007e-05 -0.0001586127 0.0001433068 0.2564852027 -0.8066497761
645296130.0 -0.2136949904 0.8205457631 -0.000111675 0.0001380383 -5.12313e-05 -0.0001270726 0.2479669011 -0.8096040274
650296100.0 -0.2049214509 0.8225848697 -9.1831e-06 -6.96698e-05 1.7083e-05 -0.0001212601 0.2409251977 -0.8117005609
655296070.0 -0.1978564419 0.8244889277 0.0002680647 -3.28574e-05 -1.52802e-05 -1.5464e-05 0.2322755633 -0.8145571742
660296040.0 -0.189095849 0.8264973249 1.13924e-05 -5.37908e-05 -9.35328e-05 6.2309e-05 0.2239671709 -0.8163020028
665296010.0 -0.180954659 0.828427218 -0.0001422009 0.0001831568 2.54677e-05 -2.39839e-05 0.2166362829 -0.8178377616
670295980.0 -0.1723100601 0.8301478441 -9.83605e-05 -2.30645e-05 -6.53929e-05 -7.18205e-05 0.2079954292 -0.8202787177
675295950.0 -0.1638697076 0.8318019586 1.01952e-05 -0.0001747374 -5.98987e-05 -0.00022149 0.1993598246 -0.8218364638
680295920.0 -0.1565313813 0.834025911 9.5967e-05 2.10566e-05 -5.6917e-06 2.00931e-05 0.1914000248 -0.8241216075
685295890.0 -0.1471323501 0.8358167354 0.0001800714 -0.0002124904 -0.0001007724 9.5681e-05 0.1834625631 -0.8256816728
690295860.0 -0.1389063722 0.8372348202 3.17741e-05 5.9207e-06 -5.21815e-05 -1.25205e-05 0.1743651818 -0.827446492
695295830.0 -0.1305198749 0.8386434746 0.0001460728 -0.0001529039 9.81081e-05 -9.46009e-05 0.1669660205 -0.828588111
700295800.0 -0.1222519842 0.8398998565 -0.0002000541 -3.05647e-05 -1.29351e-05 0.0002463079 0.1589769537 -0.8302663853
705295770.0 -0.114593207 0.8415664089 -7.28689e-05 6.00977e-05 -0.0002024942 5.6961e-06 0.1501483603 -0.8315754301
710295740.0 -0.1070867313 0.8421237096 -5.58898e-05 -8.57624e-05 -0.0001351249 -1.2732e-06 0.1424501128 -0.8329017806
715295710.0 -0.0976131082 0.8440259719 0.0002927424 0.0002904046 -8.09265e-05 -9.47249e-05 0.1339501428 -0.8342340896
720295680.0 -0.0892174693 0.8444271712 0.0002749713 -0.0001849023 -0.000109682 -0.0001258268 0.1253960253 -0.8357198305
725295650.0 -0.0814170696 0.845620851 9.2608e-06 -0.0002475579 -0.0001408536 6.99467e-05 0.1172961024 -0.8362644524
730295620.0 -0.0734582851 0.8467689553 -6.75839e-05 -7.71056e-05 6.57496e-05 -3.48606e-05 0.1083963462 -0.8374689064
735295590.0 -0.0651549317 0.8476307963 0.0001680447 -9.80639e-05 -7.90307e-05 0.0002428045 0.1006829596 -0.8381068329
740295560.0 -0.0575054486 0.8476597158 -2.77577e-05 -4.0654e-06 0.0001087145 -0.0001324263 0.0919868261 -0.8387657751
745295530.0 -0.0488950032 0.8488628006 2.78666e-05 8.77464e-05 3.15174e-05 0.0001399633 0.0833385215 -0.8399051722
750295500.0 -0.0409868226 0.849311933 0.0001564041 -0.0001076246 0.0002773244 2.26332e-05 0.0752967192 -0.8408715385
755295470.0 -0.0320700336 0.8492439914 5.5747e-06 -1.99146e-05 -0.0001666788 1.13754e-05 0.0670648383 -0.8402563379
760295440.0 -0.0238276812 0.8510894396 -8.83961e-05 1.97583e-05 -0.000126291 -0.0001271917 0.0587579111 -0.8412805461
765295410.0 -0.015911422 0.8508302791 -3.10645e-05 1.69803e-05 -3.11624e-05 2.08504e-05 0.0500778288 -0.8417061314
770295380.0 -0.008415009 0.8510179586 0.0001358056 8.0909e-05 -7.09316e-05 0.000113402 0.0419118828 -0.8418362044
775295350.0 -0.0001627248 0.8516772854 -4.71105e-05 -2.29685e-05 -0.0001668322 2.18721e-05 0.0338795643 -0.8427738972
780295320.0 0.0090181045 0.8511420581 -0.0001577143 9.1636e-05 4.948e-07 -5.4459e-06 0.0249269768 -0.842313549
785295290.0 0.0173436181 0.8510272819 0.000127674 -2.09769e-05 -1.19967e-05 -0.0002094849 0.0161884933 -0.842172937
790295260.0 0.0251707064 0.8508342378 0.000125416 -0.0001396956 -0.0001726417 6.1825e-06 0.0084738613 -0.8419861267
795295230.0 0.0331876419 0.8505211462 0.0001403182 -8.51035e-05 7.67356e-05 0.0001302867 -0.000603115 -0.8433465722
800295200.0 0.0416063175 0.8504548037 4.5389e-05 2.88724e-05 -0.0001275457 -2.7479e-06 -0.0082723143 -0.8423472348
805295170.0 0.0490860755 0.8507668527 0.0001189967 3.82953e-05 -7.38594e-05 0.0002078173 -0.016516949 -0.8423008967
810295140.0 0.0578157998 0.8502920534 -2.65737e-05 -7.84352e-05 -4.08667e-05 -0.0001362889 -0.0249280272 -0.8415040976
815295110.0 0.0653619998 0.8493949087 2.23032e-05 -8.47796e-05 3.27127e-05 1.7034e-06 -0.0341980759 -0.8409456354
820295080.0 0.0738046028 0.8489670476 0.0002062616 -5.73676e-05 1.94305e-05 -9.82744e-05 -0.0424970856 -0.8401072389
825295050.0 0.0821423572 0.8483776846 6.39572e-05 -3.22277e-05 6.8976e-05 9.48831e-05 -0.0502188574 -0.8396754298
830295020.0 0.0910183604 0.8477666654 4.63461e-05 6.44358e-05 -2.85212e-05 7.69665e-05 -0.0592967119 -0.8390627759
835294990.0 0.0980018314 0.8467892539 7.73994e-05 0.0001495416 9.21824e-05 -4.39855e-05 -0.0672050411 -0.8381982375
840294960.0 0.1066782259 0.84523739 0.0001404331 6.66899e-05 0.0002254285 4.959e-07 -0.0758983915 -0.8376362666
845294930.0 0.1147275637 0.8440198632 -4.68443e-05 6.30378e-05 2.51909e-05 -0.0001378575 -0.0839983137 -0.8361572771
850294900.0 0.1240199693 0.8432478343 0.000193359 5.40014e-05 -1.7703e-05 4.91003e-05 -0.0921412846 -0.8356737873
