!Created with skrf (http://scikit-rf.org).
# Hz S RI R 50.0 
!freq ReS11 ImS11 ReS21 ImS21 ReS12 ImS12 ReS22 ImS22
300000.0 -0.7725887287 -0.1813742317 -0.00343467 0.0014318094 0.0025843525 0.0012660282 -0.7616123327 -0.2027934923
5299970.0 -0.7862741004 -0.0095721657 -7.9879e-06 -2.90458e-05 -9.30982e-05 8.98749e-05 -0.7844103657 -0.0101771513
10299940.0 -0.7892044554 -0.0060528386 6.11924e-05 5.14316e-05 -8.07046e-05 -1.95268e-05 -0.7871789508 -0.0057615378
15299910.0 -0.7939753482 -0.0035596171 -0.0001212132 0.0001277541 -0.0002062845 -1.60669e-05 -0.7923614146 -0.0027975034
20299880.0 -0.8011996317 0.0007744264 -6.79075e-05 -2.05273e-05 9.19445e-05 6.70032e-05 -0.7991013433 0.0014587821
25299850.0 -0.8076282365 0.0071285299 -2.55928e-05 7.24347e-05 8.1164e-06 0.0001407562 -0.8057532059 0.0082023995
30299820.0 -0.8139088538 0.013908307 -0.000261258 -8.26895e-05 -0.0003545008 0.0001444925 -0.8117420148 0.0154231819
35299790.0 -0.8185624484 0.0233371415 -2.70865e-05 7.33627e-05 0.0001251073 5.71115e-05 -0.8168175363 0.0245432362
40299760.0 -0.8234951179 0.0320117733 0.000175115 3.44976e-05 -1.0994e-05 3.34107e-05 -0.8208078434 0.0336353663
45299730.0 -0.8267515336 0.0418056402 0.0004081698 0.0001706171 -0.0001444352 0.0002384716 -0.8239033104 0.0436921457
50299700.0 -0.8288561844 0.052150952 -1.60126e-05 -8.042e-06 -0.0001933524 0.0001142346 -0.8256193774 0.0541131257
55299670.0 -0.8312109882 0.0611500319 6.44019e-05 3.83731e-05 1.95134e-05 -0.0001151284 -0.8282695834 0.0640712898
60299640.0 -0.8325553417 0.0717995404 1.87979e-05 -1.56536e-05 7.663e-06 5.50312e-05 -0.8292797788 0.0739987872
65299610.0 -0.8334618449 0.0814361867 0.0002163724 -4.06517e-05 0.000149357 -3.7254e-05 -0.8300456759 0.0839250903
70299580.0 -0.8330700439 0.0915403934 -1.01885e-05 -0.0003223257 -2.49276e-05 1.38802e-05 -0.830716597 0.093466066
75299550.0 -0.833670242 0.1014999036 -6.24976e-05 0.0002203219 4.02475e-05 0.0002435458 -0.8302137353 0.1041192675
80299520.0 -0.8340530299 0.1122690288 -4.69961e-05 4.80526e-05 -0.0001039376 -0.0001515564 -0.8305458347 0.1132766648
85299490.0 -0.8326446257 0.1214708954 8.10107e-05 9.42009e-05 -0.0002034236 -1.668e-07 -0.8295320901 0.1233998002
90299460.0 -0.8318887587 0.1316343611 4.35919e-05 0.0002632995 0.0001208452 3.93492e-05 -0.8282619773 0.1328731138
95299430.0 -0.8314431258 0.1405565411 -0.0002327817 9.81699e-05 2.57558e-05 0.0001371269 -0.8276165172 0.1426705899
100299400.0 -0.8303024715 0.1500043703 6.92518e-05 0.0001161441 8.87084e-05 3.8518e-05 -0.8265281772 0.1518289659
105299370.0 -0.8289670829 0.1588678894 0.0001726791 0.0001294686 -0.0001588178 8.58584e-05 -0.8257230575 0.1608527423
110299340.0 -0.8278376547 0.1679660529 0.0002552532 -0.0002454544 -5.74531e-05 -8.84581e-05 -0.8241682264 0.1698346039
115299310.0 -0.8257847763 0.1775182239 -0.0002063344 2.67764e-05 2.96635e-05 -4.38994e-05 -0.8231121342 0.1792829726
120299280.0 -0.8241880615 0.1865168554 0.0001631274 0.0001472806 -0.0001753341 9.1701e-06 -0.8206810899 0.1877136723
125299250.0 -0.8224211803 0.1951098905 -0.0002038097 -0.0002544067 -2.25611e-05 -5.28301e-05 -0.8192086419 0.1970520901
130299220.0 -0.8211022611 0.2053238109 -0.0001288614 -9.18534e-05 -4.03011e-05 -1.21492e-05 -0.8174741698 0.205951478
135299190.0 -0.8187941581 0.2143328057 -8.94974e-05 -3.49505e-05 -4.06166e-05 -4.78857e-05 -0.8158429423 0.215186577
140299160.0 -0.8171759245 0.2231637491 -7.82941e-05 -0.0002218097 0.0001086226 -5.43177e-05 -0.81323621 0.2231796176
145299130.0 -0.8150456509 0.2328191144 0.0002658519 -0.0001376877 -4.9542e-05 8.95318e-05 -0.8115046003 0.2324059775
150299100.0 -0.8121351939 0.2413181506 0.0001023708 0.0002077979 7.3724e-05 0.0001017231 -0.8088452207 0.2412606927
155299070.0 -0.8100671681 0.2502217314 7.4736e-06 -0.0001840954 -0.0001199158 -6.1837e-05 -0.8064807844 0.2503583252
160299040.0 -0.8076796078 0.2592632137 2.3781e-06 -7.15166e-05 5.20202e-05 -7.69028e-05 -0.8041490781 0.2592257295
165299010.0 -0.8046022754 0.2679563684 -6.58912e-05 -6.97131e-05 -9.9648e-06 -0.0001113883 -0.8013532658 0.26728891
170298980.0 -0.8013830071 0.2767244715 2.91892e-05 -2.03894e-05 -2.77984e-05 0.000100885 -0.7990366257 0.2758563936
175298950.0 -0.7991505436 0.2847809182 -3.20419e-05 7.57487e-05 2.51547e-05 -1.87909e-05 -0.7961533167 0.284610948
180298920.0 -0.7965909952 0.293341292 8.44989e-05 -3.272e-05 3.86606e-05 -0.0001606425 -0.7927422321 0.2929721431
185298890.0 -0.7928283458 0.3020365997 -0.00018225 0.0001530151 0.0001271826 -9.4488e-05 -0.7903142806 0.3015718388
190298860.0 -0.78927334 0.3114581042 2.01264e-05 2.293e-06 -9.69058e-05 -0.0001149499 -0.786823648 0.3096731337
195298830.0 -0.78654059 0.3199547289 1.61621e-05 8.31799e-05 -5.09567e-05 5.13358e-05 -0.7833163189 0.3183697418
200298800.0 -0.7829207546 0.3278683931 6.48983e-05 -7.5107e-05 -0.0001269465 -2.63284e-05 -0.7807742817 0.3262922294
205298770.0 -0.7793610723 0.3362225744 9.7027e-06 2.69251e-05 -0.0002492133 0.0001118125 -0.7775726945 0.3355850018
210298740.0 -0.7762872185 0.3447462373 -2.52485e-05 7.37776e-05 0.0001641332 4.19725e-05 -0.7740467474 0.3433216903
215298710.0 -0.7719035841 0.3530422424 -7.94579e-05 -4.81021e-05 4.91997e-05 0.0001042617 -0.7703098489 0.3514988551
220298680.0 -0.7686078217 0.3612243244 7.78187e-05 -2.2372e-05 9.76396e-05 -9.33003e-05 -0.7659721472 0.3593015374
225298650.0 -0.7648243028 0.369839967 -2.66357e-05 -1.75106e-05 0.0001208424 -1.78255e-05 -0.7628066522 0.368025997
230298620.0 -0.7613728778 0.3781468019 0.0001742975 9.9954e-06 -4.52266e-05 -0.0001521991 -0.7585231348 0.3758866083
235298590.0 -0.7572455193 0.3859500367 0.0002756801 -7.73341e-05 -2.54251e-05 0.0001308618 -0.7549109048 0.3836201842
240298560.0 -0.7529330061 0.3935014181 0.0001361417 5.81186e-05 -0.0001143892 -0.000192568 -0.7509486869 0.3910968025
245298530.0 -0.748764125 0.4019268679 0.0001190978 -1.91185e-05 -1.83582e-05 -3.40882e-05 -0.7474179549 0.3989730865
250298500.0 -0.7441484367 0.4093638132 6.45138e-05 -5.70159e-05 -0.0001157543 -2.90938e-05 -0.7426285744 0.4068688143
255298470.0 -0.7409669224 0.4173107957 -3.34129e-05 -7.2598e-06 2.27592e-05 -0.0001769677 -0.738777312 0.4144322779
260298440.0 -0.7362140511 0.4251332416 4.87536e-05 2.82977e-05 8.24686e-05 -0.0001253688 -0.7340987276 0.4218561571
265298410.0 -0.7319097675 0.4329717301 -0.0001752877 3.8795e-06 -3.99732e-05 -9.25747e-05 -0.7294862516 0.4308661455
270298380.0 -0.7268897737 0.4406627065 -1.39108e-05 -0.0001062696 -0.0001244609 4.4718e-05 -0.7251006445 0.4383685598
275298350.0 -0.723043902 0.4479921231 -0.0001288432 0.0002193236 5.60917e-05 -5.9807e-06 -0.7200010571 0.4450332597
280298320.0 -0.7179440742 0.4554220381 -1.68718e-05 -2.22814e-05 -2.13321e-05 -0.0001045193 -0.7155641759 0.4527661337
285298290.0 -0.7135225733 0.463099296 -8.39617e-05 5.94705e-05 -6.30539e-05 2.47322e-05 -0.711408336 0.460495797
290298260.0 -0.7086331216 0.471243189 0.0002525723 -8.81963e-05 -7.016e-07 -4.84144e-05 -0.7059674292 0.4677147657
295298230.0 -0.7039192672 0.4782406716 -0.0002607356 4.59468e-05 -8.93432e-05 -0.0001502308 -0.7015920511 0.4747136982
300298200.0 -0.6997036642 0.4856159609 0.0002312807 -2.20123e-05 4.36672e-05 -0.0001930681 -0.6962390614 0.4828333595
305298170.0 -0.6945358656 0.4925271565 -9.38901e-05 -1.34374e-05 -0.0001379384 2.51933e-05 -0.691211057 0.4895946793
310298140.0 -0.6891925422 0.4997112171 -5.66736e-05 1.3806e-06 -0.0001056624 2.53464e-05 -0.6858482801 0.496893313
315298110.0 -0.6842029528 0.5072120081 0.0001522533 -3.85011e-05 -6.80717e-05 -7.30349e-05 -0.6807629816 0.5038166343
320298080.0 -0.6788372108 0.5141758855 -7.88474e-05 4.91993e-05 -7.938e-07 6.9157e-06 -0.6761917068 0.5114565009
325298050.0 -0.6735312267 0.5211422147 0.0001203765 -7.95043e-05 -8.71039e-05 -0.0001386001 -0.6701794015 0.5179541312
330298020.0 -0.6680704021 0.5276987394 -8.19056e-05 0.000178104 1.77143e-05 0.0001444394 -0.6645662861 0.5245307211
335297990.0 -0.6628270098 0.5347173983 -6.74441e-05 -0.0001326027 -0.000123733 9.6206e-06 -0.6594375476 0.5318280176
340297960.0 -0.6573754755 0.5414205809 0.0001546063 -8.44327e-05 0.0001158331 -0.0002299986 -0.6539664815 0.5382797074
345297930.0 -0.6519114531 0.5481153874 -0.0001258276 9.9258e-06 -0.0001706464 6.06865e-05 -0.648255977 0.5448622251
350297900.0 -0.6461218905 0.5549357413 0.0001358968 -0.0001207847 -0.0001007616 -0.0001502385 -0.6429256549 0.5516659556
355297870.0 -0.6410678328 0.5607240752 0.0001976751 -0.0001294049 -2.28042e-05 0.0001005814 -0.6368399976 0.5586736265
360297840.0 -0.6347565012 0.5682331638 -5.89456e-05 -1.39002e-05 -0.0001289523 -0.0001170361 -0.6301320841 0.5646395234
365297810.0 -0.6295004624 0.5747229591 7.06481e-05 2.21682e-05 -6.55817e-05 -0.0001820929 -0.6258972491 0.5706571536
370297780.0 -0.6230619382 0.5804408308 -0.0001118859 -0.0001433556 -2.3767e-06 0.0001101602 -0.6197218596 0.5782231327
375297750.0 -0.6176826049 0.5871398216 6.73312e-05 -0.0001319079 -4.319e-07 0.0002071909 -0.6130383616 0.5838045102
380297720.0 -0.612268305 0.593625076 9.61899e-05 0.0001928617 -0.0002814357 -5.0414e-06 -0.6064507564 0.5903976598
385297690.0 -0.6057869488 0.5995683176 0.00014387 -0.0001193789 0.0001055685 -4.0461e-05 -0.6012627138 0.5961770229
390297660.0 -0.5983228453 0.6060126585 6.1181e-06 7.21187e-05 -3.31525e-05 0.000129197 -0.5944319995 0.6024753547
395297630.0 -0.5926097283 0.6120250497 0.0002416302 0.0001288462 2.43986e-05 0.0001274958 -0.5880987292 0.6075832589
400297600.0 -0.586637072 0.6184745536 8.4347e-06 -0.0001203532 -0.0001287806 -1.8873e-06 -0.5824476532 0.6145546497
405297570.0 -0.5804524723 0.6234071533 6.27296e-05 -6.35474e-05 0.000117341 -6.28889e-05 -0.5756336336 0.6202648271
410297540.0 -0.5739083039 0.6295265828 0.0001180191 -0.0001818543 -9.16424e-05 0.0001985019 -0.5688606798 0.6259391441
415297510.0 -0.5679324024 0.6354712682 -3.94863e-05 9.41343e-05 -0.0001087918 2.12406e-05 -0.56273963 0.6315623628
420297480.0 -0.5609269252 0.6411485146 8.09215e-05 -0.0001808898 6.05592e-05 3.7757e-06 -0.5559982187 0.6382468991
425297450.0 -0.5548157988 0.6466676357 -0.0002198081 0.0001457318 -9.06541e-05 0.0001390152 -0.5496169605 0.6424646091
430297420.0 -0.54750052 0.6522150343 -0.0001130354 -7.94054e-05 4.16293e-05 -0.0002381688 -0.542562051 0.6485529277
435297390.0 -0.5410827181 0.6575802735 0.0001198024 -1.83358e-05 1.20452e-05 4.3338e-05 -0.5369092005 0.6545067
440297360.0 -0.5340239091 0.6628253702 -5.37587e-05 -3.73882e-05 -0.0001526984 7.33804e-05 -0.529904967 0.6597722866
445297330.0 -0.5270511198 0.6682748056 -3.79801e-05 0.0001028417 9.55519e-05 7.10775e-05 -0.5224852584 0.6651052576
450297300.0 -0.519833811 0.6734234609 0.0001332277 2.61064e-05 -1.067e-05 0.0001215536 -0.5159665159 0.6700020883
455297270.0 -0.5140422329 0.6786305512 2.862e-05 0.0001429801 6.93194e-05 4.64299e-05 -0.5089431296 0.675168232
460297240.0 -0.5060735778 0.6842923546 6.71876e-05 8.6684e-05 9.58737e-05 5.12456e-05 -0.5019670117 0.6802099605
465297210.0 -0.4987800504 0.6893049362 9.16535e-05 -0.0001098643 3.35588e-05 4.10034e-05 -0.4946699392 0.6857272684
470297180.0 -0.4917819349 0.6941174551 8.57701e-05 0.0001218682 -0.0002877325 -7.95846e-05 -0.4880175909 0.6906580469
475297150.0 -0.4850575173 0.6991084629 5.2663e-06 -8.60719e-05 -3.64677e-05 -0.0003292453 -0.4815310284 0.6955496494
480297120.0 -0.4766979188 0.7040416329 -2.27937e-05 -6.12487e-05 -0.000201158 0.0001767819 -0.4740923959 0.6999675378
485297090.0 -0.4697211384 0.7088672809 1.10188e-05 -8.93721e-05 -0.0002436999 -2.2039e-05 -0.4667032976 0.7049299677
490297060.0 -0.4622030957 0.7136491485 -7.19969e-05 -7.26387e-05 7.15089e-05 -8.00466e-05 -0.4592541891 0.7090599734
495297030.0 -0.4546292256 0.7177840549 7.21554e-05 -2.0705e-05 -0.0001384663 0.0001210182 -0.4523696969 0.714119213
500297000.0 -0.4467989927 0.7220514807 4.52015e-05 2.41214e-05 -0.0001453426 3.25593e-05 -0.4452649418 0.7186136639
505296970.0 -0.4389545762 0.727207031 -0.0001230514 0.0002267059 -8.35876e-05 -0.0001091326 -0.4371754675 0.7221275541
510296940.0 -0.4317170442 0.7312980691 -0.0001763035 -0.0001920367 0.000106006 5.68504e-05 -0.4302501584 0.7277737421
515296910.0 -0.4245003278 0.7356415691 0.0001387909 0.0002128055 7.0084e-06 -7.5388e-05 -0.4230806564 0.7308426869
520296880.0 -0.4163295321 0.7399201106 0.0001347495 4.451e-06 1.39688e-05 -0.0001094474 -0.4154343075 0.7361280866
525296850.0 -0.4085674723 0.7441651551 -8.70747e-05 -0.0001273198 -0.0001421053 5.28243e-05 -0.4078834174 0.7392931998
530296820.0 -0.4011503348 0.7482294506 6.67243e-05 5.53333e-05 -0.0001085329 0.0001732494 -0.4002879223 0.743512883
535296790.0 -0.3928812239 0.7520059905 -5.13736e-05 -0.0001615631 -0.0001673521 4.2998e-05 -0.3929466097 0.7482626744
540296760.0 -0.3852634107 0.7561613805 -0.0001236768 0.000152395 -3.9455e-06 0.0001147568 -0.3849348578 0.7518141014
545296730.0 -0.3774326956 0.760453947 -1.07334e-05 -6.50935e-05 2.65422e-05 -6.32292e-05 -0.3770363197 0.7556855787
550296700.0 -0.3690670181 0.7640412899 -0.0001078348 -9.1681e-05 -1.60107e-05 -4.63621e-05 -0.3696843304 0.7591220536
555296670.0 -0.3612204472 0.7671502481 -2.25577e-05 0.0001451757 -1.03145e-05 6.80277e-05 -0.362331498 0.762142601
560296640.0 -0.3526068086 0.7706943722 6.2489e-06 -1.26709e-05 -0.0001310889 -0.0001068478 -0.3542581804 0.7668824111
565296610.0 -0.345202776 0.7739696855 -2.248e-07 -0.0001148262 7.82603e-05 0.0001217359 -0.3467349274 0.7699553022
570296580.0 -0.3370163738 0.7784567111 9.00617e-05 -0.0001511181 3.95786e-05 3.67751e-05 -0.3388416901 0.7729779028
575296550.0 -0.3283390698 0.7811901 -0.0002382925 0.0001147695 0.0001400547 -0.0001743543 -0.3309689012 0.7762487747
580296520.0 -0.3205925064 0.7842204427 -0.000144582 2.37356e-05 -3.78526e-05 -0.000106062 -0.3235404271 0.7797136473
585296490.0 -0.3126473827 0.7875266795 0.0001425575 -0.0001483105 -2.94559e-05 -4.6941e-06 -0.3152569845 0.783150416
590296460.0 -0.3034878224 0.7912803748 0.0002927762 0.0001416506 -6.86984e-05 -1.68529e-05 -0.3079872243 0.7861814242
595296430.0 -0.2957436582 0.7943308787 -0.0001394634 5.39124e-05 -4.50439e-05 -1.47006e-05 -0.2998133207 0.7894489014
600296400.0 -0.2880510812 0.7965953115 -4.86226e-05 3.10379e-05 0.0001802167 0.0002167124 -0.2918728475 0.7919040991
605296370.0 -0.2794831758 0.7993936634 5.78164e-05 -5.92123e-05 -2.13486e-05 0.0001435055 -0.2837958664 0.7952358415
610296340.0 -0.2712194811 0.8027441974 4.7374e-05 -0.0001981369 -7.56508e-05 7.52501e-05 -0.2759966392 0.7974166308
615296310.0 -0.2631037216 0.805225232 5.30938e-05 -8.24907e-05 -0.0001510473 -0.0001272714 -0.2670163845 0.8009588786
620296280.0 -0.2549651092 0.8084850151 5.15238e-05 9.1812e-05 0.0001941536 4.32209e-05 -0.2598607262 0.8035100924
625296250.0 -0.247356464 0.8104082466 -5.0206e-05 -6.03413e-05 0.0001139123 2.99983e-05 -0.2515124458 0.805247761
630296220.0 -0.2388565042 0.8129323639 -7.77308e-05 -2.955e-07 5.15333e-05 8.29298e-05 -0.2434468236 0.8082908992
635296190.0 -0.2299819328 0.8159675719 -0.0001605339 8.84558e-05 5.36029e-05 6.48778e-05 -0.2353351768 0.8099735564
640296160.0 -0.2216431926 0.8180670144 0.0001010487 0.0002392728 2.13601e-05 4.41721e-05 -0.227505706 0.8132545235
645296130.0 -0.2137588408 0.8205128703 3.55231e-05 -0.0003136439 0.0001356443 3.3827e-06 -0.2192261351 0.8146968885
650296100.0 -0.2054848974 0.8216893858 0.0001774216 -0.0001463966 0.0001093894 -5.00029e-05 -0.2107217806 0.8171070899
655296070.0 -0.1972302438 0.8243077981 1.481e-07 5.18137e-05 -8.52158e-05 -1.6562e-06 -0.2029308382 0.8187455102
660296040.0 -0.1888031614 0.8264995811 0.000211509 -0.0001834786 0.0001715431 4.73457e-05 -0.1940935421 0.8209039933
665296010.0 -0.1808260296 0.8286982919 0.0001479507 -5.86138e-05 -3.34553e-05 0.0001912152 -0.1860519156 0.8224661495
670295980.0 -0.1728612873 0.8308183639 -9.8166e-05 0.000115059 6.60005e-05 -1.17892e-05 -0.1782924577 0.8245067166
675295950.0 -0.1637905529 0.8319867579 -0.0002503516 6.68984e-05 0.0001125229 0.0001886188 -0.1693852573 0.8266357964
680295920.0 -0.156238933 0.833815436 -5.33426e-05 3.74459e-05 5.1771e-05 0.0001803088 -0.1607150165 0.8280477196
685295890.0 -0.1474948871 0.8357001041 0.0001166153 -0.0001452565 2.73362e-05 -3.10744e-05 -0.1534022935 0.8298460197
690295860.0 -0.1389068263 0.8365834185 -0.0002434583 7.82654e-05 4.1016e-05 2.8424e-05 -0.145095873 0.8313774765
695295830.0 -0.1304678107 0.8388893756 5.7573e-06 0.0001502642 3.25073e-05 6.42442e-05 -0.1370725623 0.8329817409
700295800.0 -0.1225888776 0.8394264509 -0.0001197499 -9.1459e-06 0.00012732 7.11219e-05 -0.1287112551 0.833338006
705295770.0 -0.1145061494 0.8415241835 6.4464e-06 -0.0001949293 -6.61089e-05 3.51154e-05 -0.1204689421 0.835650541
710295740.0 -0.1065201609 0.8422648479 0.0001145691 -0.0002889174 2.28196e-05 -3.55784e-05 -0.1115473484 0.8361083839
715295710.0 -0.097628579 0.843542949 -0.0001787354 0.0001007679 -0.0001605774 0.0001066959 -0.1032574868 0.8364883216
720295680.0 -0.0889644484 0.8440894642 0.000125339 -3.9424e-05 -0.0002175552 -6.74374e-05 -0.0945683112 0.837849909
725295650.0 -0.0816178149 0.8462212436 -0.0001873278 5.88625e-05 -8.50265e-05 0.0001150899 -0.0872983305 0.8394810732
730295620.0 -0.0739859481 0.8466027996 7.80458e-05 0.0001479553 0.0001166198 0.000116252 -0.079064443 0.8402800917
735295590.0 -0.0653560621 0.8474592221 -1.13503e-05 0.0001521085 4.13292e-05 -3.81972e-05 -0.0690620854 0.8401144776
740295560.0 -0.0575023535 0.8477085192 7.82732e-05 0.00018739 -7.1953e-06 0.0001676669 -0.0612049738 0.8412004478
745295530.0 -0.0487962898 0.8485154563 -0.0001108384 -3.63182e-05 -9.327e-05 0.0003179447 -0.0536945915 0.8414210476
750295500.0 -0.0410716505 0.8492703618 1.5961e-06 5.81159e-05 -5.70149e-05 7.60399e-05 -0.0447189554 0.8421079878
755295470.0 -0.0321904013 0.849551188 5.73493e-05 -9.39379e-05 0.0002088438 3.25151e-05 -0.0369940014 0.8428373532
760295440.0 -0.0237495815 0.8509726734 1.16301e-05 6.48463e-05 0.000195793 0.0001080724 -0.0279576063 0.842525126
765295410.0 -0.0159120905 0.8508795196 3.42189e-05 -8.62882e-05 -8.39e-08 2.19591e-05 -0.0193622008 0.8430624959
770295380.0 -0.0082307343 0.851102683 -0.0002649561 -0.0002091115 -6.56472e-05 -0.0001624394 -0.0112305418 0.8434985125
775295350.0 0.0001693166 0.8512030646 4.8786e-06 -9.1086e-06 -8.49942e-05 7.11554e-05 -0.0030198079 0.8431567784
780295320.0 0.008578857 0.8515945492 -5.9772e-06 0.0001540575 7.82965e-05 9.61084e-05 0.0057262505 0.8435490463
785295290.0 0.0168723259 0.8510312105 -6.27261e-05 -5.75119e-05 0.000136645 6.10577e-05 0.0133065734 0.8432089025
790295260.0 0.0253905574 0.850756102 -0.0002159703 0.0001649668 5.1615e-05 1.2561e-06 0.0217532552 0.8434590088
795295230.0 0.0332607546 0.8508691621 0.0001191388 8.11303e-05 -4.43411e-05 9.11159e-05 0.0301439272 0.8421543889
800295200.0 0.0411781889 0.8504355448 -6.26838e-05 -3.19818e-05 5.89953e-05 7.22145e-05 0.0381751581 0.8420015391
805295170.0 0.0492924968 0.8505209847 4.82527e-05 0.0001406551 0.0001469535 -5.86607e-05 0.0473612847 0.8416812319
810295140.0 0.0581732786 0.8509631689 -2.92503e-05 0.0001227262 -7.98065e-05 0.0001391606 0.05622106 0.8408355452
815295110.0 0.0652142657 0.8498168456 -2.69769e-05 0.0001054207 1.84703e-05 0.0001047699 0.0635451122 0.8406179122
820295080.0 0.0737677244 0.8488787545 0.0002564893 2.90801e-05 -0.0002308324 -0.0001742298 0.0715186737 0.8399662651
825295050.0 0.0818377294 0.8478095098 0.000163012 -0.0001287395 0.0001469892 -2.63485e-05 0.0801684886 0.8393174038
830295020.0 0.0906539542 0.8474280379 0.0001579542 -0.0001395279 -0.0001611524 0.0001939624 0.0877375195 0.8378981654
835294990.0 0.0982584081 0.8462602459 -0.0001062874 9.56595e-05 -0.0001309131 6.63869e-05 0.0968813049 0.8376652411
840294960.0 0.1068053561 0.8450083102 -0.0003077648 0.0001682861 -7.67797e-05 -0.0001240411 0.1059396041 0.8367041969
845294930.0 0.1151296987 0.8444046345 0.0001157519 9.29158e-05 -0.0001112304 7.212e-05 0.1135094717 0.8354710903
850294900.0 0.123971701 0.8434423556 0.0001016806 -0.0003467386 6.76907e-05 6.2415e-05 0.121514095 0.8343593807
