!Created with skrf (http://scikit-rf.org).
# Hz S RI R 50.0 
!freq ReS11 ImS11 ReS21 ImS21 ReS12 ImS12 ReS22 ImS22
300000.0 -0.3199158706 -0.1069944238 0.3736330884 0.0557208044 0.3749352359 0.0583390575 -0.3172848656 -0.1186217845
5299970.0 -0.32362746 0.004657479 0.3784615243 0.0029835334 0.3784340037 0.003186658 -0.3259950987 0.0029066754
10299940.0 -0.3209268604 0.0154937443 0.3801412156 0.0022197231 0.3797202162 0.0024060722 -0.3241724568 0.0127975342
15299910.0 -0.3180858787 0.0235197109 0.3820491202 0.0023053297 0.3819769567 0.002502862 -0.3210559281 0.0198345613
20299880.0 -0.3144265262 0.0301799105 0.3850872047 0.0017014892 0.3851772733 0.0018299147 -0.3185017979 0.0260542854
25299850.0 -0.3105142607 0.0357818698 0.3881945846 -0.0002654689 0.3885092239 0.0001972329 -0.3157451214 0.031049171
30299820.0 -0.3067085502 0.04045112 0.3919639917 -0.0021318014 0.391644652 -0.0023416504 -0.312494997 0.0356484361
35299790.0 -0.3029146063 0.0449076103 0.3950422351 -0.0051727273 0.3954448219 -0.0049700979 -0.3098578739 0.039456521
40299760.0 -0.2994713713 0.0483131617 0.3984350749 -0.0087097856 0.3983202466 -0.0085846109 -0.3070956326 0.0429417878
45299730.0 -0.2964973327 0.0514845975 0.401388186 -0.0129906123 0.4013578513 -0.0127494018 -0.3046853391 0.0461980555
50299700.0 -0.2933650627 0.0540395783 0.4037757411 -0.0173403937 0.4036331694 -0.0176777104 -0.3021109415 0.0495644518
55299670.0 -0.2907068543 0.0567072392 0.4052720757 -0.0220092095 0.4057102712 -0.0220528605 -0.3002401312 0.0518782215
60299640.0 -0.2881361713 0.0588980544 0.4074062449 -0.0269821591 0.4076946478 -0.026979349 -0.2982603094 0.0547542616
65299610.0 -0.2860336209 0.0615594318 0.4096067155 -0.0315333306 0.4094259015 -0.0317300483 -0.2960605711 0.0572821174
70299580.0 -0.2835358487 0.0635021068 0.4102978041 -0.0369268039 0.4108018166 -0.0369103435 -0.2945004061 0.0596528983
75299550.0 -0.2819244404 0.0656615597 0.4114907342 -0.0421403995 0.4112712288 -0.0423486212 -0.2931144384 0.0621156548
80299520.0 -0.2805034824 0.0678783549 0.4127601886 -0.0472622933 0.4124204152 -0.0473121691 -0.2915712153 0.0640955416
85299490.0 -0.2784261873 0.0699192656 0.4130204847 -0.0527544012 0.4131018405 -0.0527635092 -0.2903644634 0.0666838529
90299460.0 -0.2768708197 0.0722120124 0.4133347804 -0.0577798557 0.413755128 -0.0578707275 -0.288833878 0.0688573088
95299430.0 -0.2757259657 0.0743562742 0.4142267436 -0.0634991648 0.4138448264 -0.063068971 -0.2876372893 0.0710184762
100299400.0 -0.2744548842 0.0763062741 0.413796628 -0.0685718819 0.413882501 -0.0682859357 -0.28684579 0.0731835551
105299370.0 -0.2729038449 0.0785735576 0.4135071963 -0.07355878 0.413799778 -0.0735090733 -0.2853404662 0.0759106551
110299340.0 -0.2720725819 0.0801692017 0.4135911867 -0.0784419591 0.4136284732 -0.0789310941 -0.2843769796 0.0781225845
115299310.0 -0.2707306317 0.0823068459 0.413255613 -0.0834923187 0.4132643166 -0.0835886 -0.2832439076 0.079881791
120299280.0 -0.2696893896 0.0845801563 0.4129616271 -0.0891118691 0.4128343469 -0.0888127245 -0.2822760778 0.0826517765
125299250.0 -0.2690022275 0.0866874594 0.4123784562 -0.0937985747 0.4124995737 -0.0940768055 -0.2813562404 0.0848068707
130299220.0 -0.2675883372 0.089153651 0.4115986387 -0.0988666028 0.4113181815 -0.0991440294 -0.2806005726 0.0872878743
135299190.0 -0.2667083953 0.0911484184 0.4112365616 -0.1039201932 0.4106809252 -0.1041932782 -0.2796377209 0.0898392655
140299160.0 -0.265798493 0.0938926514 0.4102587503 -0.1091551698 0.4102995171 -0.1091570081 -0.2784283467 0.0922045656
145299130.0 -0.2648983525 0.0957653463 0.4095474433 -0.1143203565 0.4089399297 -0.11382881 -0.2780613731 0.0947581853
150299100.0 -0.2637591772 0.0980600964 0.4083726053 -0.1191666566 0.4082565283 -0.1189976228 -0.2767039348 0.0967442531
155299070.0 -0.2631139229 0.101017701 0.4072138376 -0.1241950402 0.4072925996 -0.1242312372 -0.2761386567 0.0996055173
160299040.0 -0.2619031562 0.1030888221 0.4056232198 -0.1287502291 0.4057614584 -0.1290953376 -0.2751831649 0.1022101457
165299010.0 -0.2611622078 0.1053809039 0.4048257982 -0.1337020399 0.4044295521 -0.1335331975 -0.2741188339 0.1044082406
170298980.0 -0.2602598574 0.1076167132 0.4027790715 -0.1385077562 0.4030659161 -0.1383750284 -0.2730470191 0.107051487
175298950.0 -0.2591393489 0.1104029411 0.402464179 -0.1426890962 0.4021271242 -0.1428764507 -0.2721738822 0.1094039363
180298920.0 -0.257966122 0.1126908687 0.4005336015 -0.1481371601 0.4006256268 -0.1478690503 -0.2709828118 0.1122184186
185298890.0 -0.2568947391 0.1153176256 0.3986796779 -0.1527140975 0.3986939333 -0.1525982399 -0.2701861137 0.1147039215
190298860.0 -0.2556541903 0.1178658781 0.3972010865 -0.1575243089 0.3973518083 -0.1576940215 -0.2687755086 0.1179372524
195298830.0 -0.2545410211 0.1202143596 0.3956377495 -0.1620080891 0.3956870761 -0.1621017874 -0.267961893 0.1198854492
200298800.0 -0.2537861123 0.1228268851 0.3941483504 -0.1660324707 0.394031381 -0.1664185911 -0.2667828896 0.1227994559
205298770.0 -0.2527961803 0.125103534 0.3924251193 -0.1709479862 0.3921205088 -0.1712300534 -0.2656649341 0.1253480856
210298740.0 -0.2517383099 0.1278638086 0.3906886959 -0.1760317847 0.3903880871 -0.1759922753 -0.2646061833 0.1280664513
215298710.0 -0.2502474376 0.1302541646 0.3886088015 -0.1803666596 0.3885568044 -0.1801752311 -0.2634159903 0.1306415186
220298680.0 -0.2492713939 0.132827458 0.3863838342 -0.1847920368 0.386615876 -0.1847104875 -0.2621289613 0.1337904669
225298650.0 -0.2478386841 0.1356841634 0.3844971973 -0.1889169679 0.3843402937 -0.1887116614 -0.2612402018 0.1363476519
230298620.0 -0.2467510668 0.1382701197 0.3826835911 -0.1936730374 0.382615257 -0.1935145355 -0.2595113013 0.1389103282
235298590.0 -0.245149317 0.1406133145 0.3803093364 -0.1981341743 0.3804407839 -0.1981385364 -0.2583996621 0.1413099541
240298560.0 -0.2439418272 0.1432620264 0.3782620055 -0.2019396165 0.3784216426 -0.2021215957 -0.2568466852 0.1443647653
245298530.0 -0.2425661486 0.1458539717 0.3756530534 -0.2066513027 0.3758961471 -0.2066844036 -0.2553866042 0.1468812078
250298500.0 -0.2413878932 0.1483433188 0.3734661753 -0.210488071 0.3739731924 -0.2104511686 -0.2541991837 0.1497221562
255298470.0 -0.2401351597 0.1508482392 0.3712008101 -0.2151348425 0.3713434575 -0.2151857731 -0.2526852445 0.1522108452
260298440.0 -0.2385869839 0.1533964011 0.36910898 -0.2188986158 0.368810735 -0.2193814725 -0.2507699471 0.1552699633
265298410.0 -0.2369248858 0.1563555779 0.3664394038 -0.2239626827 0.3664110097 -0.2238173135 -0.2496124264 0.1576119706
270298380.0 -0.2352229851 0.1583739467 0.3636328358 -0.2277358262 0.3637876866 -0.2278100472 -0.247647248 0.1603730812
275298350.0 -0.2341227708 0.1612272033 0.3617932491 -0.2319352392 0.361978537 -0.2321718867 -0.2461157225 0.1631192022
280298320.0 -0.2324717662 0.1636254342 0.3591765155 -0.2351897842 0.3587026999 -0.2359872613 -0.2446043475 0.1657362889
285298290.0 -0.2310221943 0.1663257195 0.3565052529 -0.2394698071 0.3563368442 -0.239819799 -0.2431664145 0.1684693769
290298260.0 -0.229167427 0.1689160409 0.3540763432 -0.2437798792 0.3541147032 -0.243873809 -0.2410964946 0.1712243652
295298230.0 -0.2275793829 0.1712310004 0.3513446995 -0.2478455447 0.3509521912 -0.24799252 -0.239360153 0.1739180896
300298200.0 -0.2255709846 0.1738026474 0.3481962933 -0.2519462271 0.3484699917 -0.2519079827 -0.2376312723 0.1765246306
305298170.0 -0.2238133479 0.1761779222 0.3458520463 -0.2561875983 0.3458733673 -0.2560980611 -0.2354505087 0.1794991621
310298140.0 -0.2219320095 0.1784863609 0.3428783259 -0.2602366456 0.342990783 -0.2603812432 -0.2338393777 0.1823425556
315298110.0 -0.2206134925 0.1811028787 0.339848086 -0.2638679624 0.3401182951 -0.2637590296 -0.2319211416 0.1842417689
320298080.0 -0.2185407689 0.1835481575 0.3369304012 -0.2679597373 0.337018395 -0.2676504024 -0.2300175972 0.1869739341
325298050.0 -0.2169149166 0.1854799104 0.3341700412 -0.2714763953 0.334082652 -0.2715944023 -0.2281545128 0.1894613803
330298020.0 -0.2151937974 0.188114181 0.3307995247 -0.2752426988 0.3308532166 -0.2754031479 -0.226517458 0.1916686882
335297990.0 -0.2132685804 0.1902408028 0.3277713096 -0.2790835044 0.3278321151 -0.2791191086 -0.224711151 0.1944362558
340297960.0 -0.211915076 0.1928141453 0.324249466 -0.2828252853 0.3245727724 -0.2826602535 -0.2226587287 0.1969541202
345297930.0 -0.2100880672 0.1951501992 0.3212682789 -0.2861224527 0.3209586123 -0.2859779236 -0.2204937786 0.1994960925
350297900.0 -0.2075778184 0.1973946434 0.3177428881 -0.2891432552 0.3179735256 -0.2897211606 -0.2185552434 0.2021121097
355297870.0 -0.2060136061 0.1997837685 0.3146256884 -0.2930178117 0.3146192049 -0.2933003203 -0.2164108147 0.2050053663
360297840.0 -0.2038633043 0.2022804371 0.3114194639 -0.2968752855 0.3113509122 -0.2966662468 -0.214843125 0.2072380712
365297810.0 -0.2017793028 0.2044266305 0.3078364886 -0.2997446875 0.3079209084 -0.3000463023 -0.2123114156 0.2100711279
370297780.0 -0.199517728 0.2067078179 0.3045007315 -0.3035220232 0.3048655478 -0.3037271465 -0.2101845539 0.2122947748
375297750.0 -0.1976071947 0.2094731457 0.3017366176 -0.3069146805 0.3012205507 -0.306775965 -0.2079232105 0.2148540797
380297720.0 -0.1954394683 0.2114735805 0.2978768037 -0.3097436898 0.297982498 -0.3102073521 -0.2058970369 0.2176201263
385297690.0 -0.1930612141 0.2139002565 0.2945013912 -0.3129203496 0.2943700924 -0.3130741506 -0.2037169417 0.2199818888
390297660.0 -0.1909359333 0.2159076447 0.2907906276 -0.3168670607 0.2906413376 -0.3169089281 -0.2015180652 0.2219828195
395297630.0 -0.1887618698 0.2178988102 0.287623331 -0.319652328 0.2874802734 -0.3196894475 -0.1989541329 0.2247538297
400297600.0 -0.1865402845 0.2204774058 0.2839055891 -0.3229592559 0.2842092637 -0.3229830826 -0.1971137374 0.2266912414
405297570.0 -0.1840732747 0.2223278505 0.2803899643 -0.3260741983 0.2804051427 -0.3264334311 -0.1947611896 0.2291523579
410297540.0 -0.182063433 0.2245028645 0.276406065 -0.328984933 0.2764974841 -0.328679968 -0.1926090931 0.2314144516
415297510.0 -0.1796656584 0.2266739578 0.2732407137 -0.3318546028 0.2730107489 -0.3321734505 -0.1897867476 0.234103676
420297480.0 -0.1769925914 0.2285322576 0.2688167778 -0.3352059444 0.26904393 -0.33479799 -0.1872618349 0.2357327507
425297450.0 -0.1743324529 0.2304675833 0.2653769743 -0.3381069538 0.2658760298 -0.3377627255 -0.1849123796 0.2383388567
430297420.0 -0.1725721249 0.2326148007 0.2617899002 -0.3411004829 0.2618835477 -0.3407976638 -0.1827225073 0.240449006
435297390.0 -0.1699842423 0.2345223942 0.2579037353 -0.3436103707 0.2583205658 -0.3435386071 -0.180061275 0.2425581808
440297360.0 -0.1673396969 0.2367009277 0.254180281 -0.3463625274 0.254056278 -0.3463620837 -0.177933054 0.2445905453
445297330.0 -0.164631798 0.2385892931 0.2500444525 -0.3493496841 0.2505730889 -0.3489628559 -0.1754635296 0.2466768776
450297300.0 -0.1623343742 0.2403386551 0.2462097274 -0.3519758182 0.2467092106 -0.3518539316 -0.1729342115 0.2487866978
455297270.0 -0.1596592319 0.2423590776 0.2427099523 -0.354278657 0.2430888874 -0.3543846434 -0.1699774736 0.2507627339
460297240.0 -0.1575177439 0.244241813 0.238711123 -0.3568657921 0.2382011041 -0.3569774284 -0.1673519359 0.2527935402
465297210.0 -0.1544479906 0.245891999 0.2345334387 -0.3595559526 0.2350636425 -0.3595887869 -0.1650069034 0.2548319027
470297180.0 -0.1526896092 0.2476156343 0.2312396114 -0.3620661318 0.2312557599 -0.3619062209 -0.1625241325 0.2563446579
475297150.0 -0.1497561647 0.249573944 0.2264580723 -0.3647403297 0.2271339823 -0.3638633073 -0.1596154148 0.2583094745
480297120.0 -0.1469451348 0.2508762889 0.2227963192 -0.366910448 0.2229932979 -0.3668340517 -0.1570428649 0.2606612147
485297090.0 -0.1440120075 0.2524303525 0.2187432282 -0.3692898185 0.2188724395 -0.3692430693 -0.1544706628 0.2622092148
490297060.0 -0.1413795168 0.2541749181 0.2144957017 -0.3716813188 0.2147811391 -0.3714841079 -0.1520520349 0.2640111128
495297030.0 -0.139385339 0.2563287358 0.2108247834 -0.374271607 0.2105330158 -0.3739740886 -0.1488212915 0.265648832
500297000.0 -0.1363014953 0.2575227451 0.2062641178 -0.3761692058 0.2065349278 -0.3762762942 -0.1466376164 0.2675943524
505296970.0 -0.1336884732 0.2592869828 0.2021844509 -0.3781170415 0.2021072373 -0.3779912866 -0.1441305867 0.269418898
510296940.0 -0.1307124173 0.2609708419 0.1980257529 -0.3804014493 0.1982376902 -0.3804436149 -0.14079783 0.2710241133
515296910.0 -0.1282590306 0.2623176841 0.1939481738 -0.3824180038 0.1942943506 -0.3823356317 -0.1378595371 0.2726952366
520296880.0 -0.1254095092 0.2638753264 0.1896953884 -0.3844770457 0.1899190833 -0.3843426158 -0.1351205067 0.2743442117
525296850.0 -0.1228867391 0.2651282171 0.1854925603 -0.3864887488 0.185675716 -0.3868042217 -0.1321248592 0.2761019622
530296820.0 -0.1196889939 0.2666733185 0.1813265985 -0.3880608214 0.1812365333 -0.3883702651 -0.1298066951 0.2774282806
535296790.0 -0.1169752795 0.2679216438 0.1769989183 -0.3898338942 0.1770501537 -0.3898477116 -0.1267658549 0.2787329099
540296760.0 -0.1142575051 0.2693473283 0.1726016267 -0.3924709258 0.1726890139 -0.3922635431 -0.1242681281 0.2806667395
545296730.0 -0.1111862089 0.2709438878 0.1682446897 -0.3938132089 0.1684817415 -0.3942834523 -0.1212734407 0.2817593381
550296700.0 -0.1088085607 0.2723191738 0.164465259 -0.3959485376 0.1648729237 -0.3961365648 -0.1182525268 0.2835140391
555296670.0 -0.1052910424 0.2733646004 0.1597553599 -0.3978981416 0.1598724988 -0.3974633024 -0.1155705881 0.2848123125
560296640.0 -0.1028288296 0.2745477686 0.1556017469 -0.3990381702 0.1557697707 -0.3990772121 -0.1122115148 0.2860374509
565296610.0 -0.100104717 0.2758438748 0.1513140553 -0.400871908 0.1509930248 -0.4009224713 -0.1097431031 0.2874640714
570296580.0 -0.096879834 0.2769914019 0.1469020043 -0.4023898397 0.1469441015 -0.402471089 -0.1066868898 0.2893145074
575296550.0 -0.0940815945 0.2781898615 0.1424639426 -0.4036105388 0.1425983917 -0.4036490163 -0.1030492535 0.2901479662
580296520.0 -0.0912596372 0.2794006056 0.1382585085 -0.405489344 0.1380810921 -0.4053621204 -0.100490174 0.2913530639
585296490.0 -0.0880186273 0.2802129262 0.1337964891 -0.4071340304 0.1337009625 -0.4067291297 -0.0975105644 0.2921258193
590296460.0 -0.0853614851 0.2813742821 0.1292193712 -0.4082283902 0.1292101935 -0.4084914662 -0.0943282976 0.2937106619
595296430.0 -0.0823306932 0.2826429266 0.124841233 -0.4097312615 0.1246046835 -0.4098089986 -0.0915668093 0.2945726055
600296400.0 -0.0792713742 0.2837135252 0.1205917963 -0.4110111585 0.1203423958 -0.4111336541 -0.0882347741 0.2959870986
605296370.0 -0.0762350101 0.2848897881 0.1158122791 -0.4121402777 0.1160759626 -0.4119266906 -0.0854633736 0.297037584
610296340.0 -0.0734168399 0.2854923574 0.1118464713 -0.4134676083 0.1111007693 -0.4135019539 -0.0820375651 0.2983461691
615296310.0 -0.0700972441 0.2866009083 0.1067221603 -0.4145409259 0.1067472043 -0.4146314749 -0.0792144776 0.2993013448
620296280.0 -0.0671119851 0.2871492699 0.1023537305 -0.4153420487 0.102373687 -0.4155203356 -0.0761008852 0.2998613401
625296250.0 -0.0638630948 0.2882229062 0.0974842017 -0.4169052138 0.0978029482 -0.416689744 -0.0731826164 0.3013501334
630296220.0 -0.0611812616 0.2892516125 0.0932113176 -0.417761163 0.0935999502 -0.4176978927 -0.0695873592 0.3021578149
635296190.0 -0.0581713366 0.2901115413 0.0887202912 -0.4187925356 0.0885944364 -0.4181140313 -0.0670496838 0.3027714601
640296160.0 -0.0547633483 0.2904394401 0.0842092095 -0.4192285346 0.0839384435 -0.4195222051 -0.063286151 0.3034714543
645296130.0 -0.0519318601 0.2913440203 0.0794853288 -0.4205094198 0.0799800114 -0.4204693755 -0.0609310175 0.3044128698
650296100.0 -0.049134642 0.2923764686 0.0757810204 -0.421307449 0.0754038136 -0.4208536726 -0.0575902122 0.3052664747
655296070.0 -0.0458858598 0.292706962 0.070484028 -0.4217009371 0.0703929767 -0.4219729583 -0.0540521719 0.3062445372
660296040.0 -0.0430423321 0.2935779665 0.0662093001 -0.4220911409 0.0658832517 -0.4223625811 -0.0510377158 0.3065751703
665296010.0 -0.0396518696 0.2938928292 0.0614757882 -0.4233294936 0.0621350369 -0.4234988373 -0.0483492322 0.3076405531
670295980.0 -0.036139854 0.2944611556 0.056816738 -0.4240640498 0.0573409302 -0.4238521367 -0.0453596763 0.308031839
675295950.0 -0.033243481 0.2949399035 0.0520383308 -0.4243971099 0.0524225605 -0.4245838307 -0.0416998935 0.3086632227
680295920.0 -0.0303430439 0.295747758 0.0474372485 -0.4248782726 0.0473707441 -0.4249769419 -0.0380070813 0.3089784744
685295890.0 -0.0271260014 0.295855556 0.0432912147 -0.425356822 0.0428081925 -0.425911243 -0.0353547747 0.3101610604
690295860.0 -0.0236681992 0.2963428928 0.0382941123 -0.4253483778 0.0382199223 -0.4255485697 -0.0320965158 0.3105276403
695295830.0 -0.0205870667 0.2967222798 0.0332379721 -0.4257144157 0.0334402941 -0.4262418856 -0.028859143 0.3108898768
700295800.0 -0.0172637989 0.2972741635 0.0289164511 -0.4261354248 0.0292116936 -0.4268122525 -0.0258715929 0.3110410426
705295770.0 -0.0143726016 0.2977329613 0.0242868996 -0.4267535022 0.0247990508 -0.42632964 -0.0226975142 0.3116010945
710295740.0 -0.0110767342 0.2981580944 0.0198645553 -0.4270317013 0.0196782464 -0.426757444 -0.0198787438 0.3123595272
715295710.0 -0.0083223275 0.2981147048 0.0150856258 -0.4267299593 0.0155541469 -0.4270449924 -0.016211569 0.3124317881
720295680.0 -0.004932773 0.2981411536 0.0105029575 -0.4269446039 0.0106194565 -0.4273980449 -0.0126178653 0.3126064654
725295650.0 -0.0013159818 0.2986957773 0.0059343063 -0.4268231264 0.0060076205 -0.4270882374 -0.0096273728 0.3128912371
730295620.0 0.0010695128 0.2985204704 0.0012574751 -0.4269473865 0.0010425566 -0.4269087216 -0.0061392984 0.3129871037
735295590.0 0.004976889 0.2990208041 -0.0029482321 -0.4275173781 -0.0032901936 -0.4268956888 -0.0025689797 0.3135132752
740295560.0 0.0077054111 0.2990622348 -0.0077829424 -0.4267657044 -0.0079610711 -0.426715957 0.000255337 0.3133098424
745295530.0 0.0107187655 0.2989978802 -0.0124412153 -0.4265286078 -0.012151543 -0.427155658 0.0033649853 0.3137104463
750295500.0 0.0140311931 0.2991271395 -0.0169880458 -0.4262657965 -0.0171071908 -0.4266349655 0.0069176056 0.3135974705
755295470.0 0.0175399621 0.2990229243 -0.0215201583 -0.426250778 -0.0215643402 -0.4267228718 0.0094320016 0.3137961051
760295440.0 0.0206266028 0.2990129687 -0.0266359864 -0.4256584581 -0.0263291713 -0.4261971489 0.0128640492 0.3135615228
765295410.0 0.0233324063 0.2985329909 -0.0304723314 -0.425491447 -0.0308029502 -0.4262947542 0.016729846 0.314163219
770295380.0 0.0268890848 0.2990488129 -0.0355087607 -0.425349497 -0.0353927744 -0.4254084414 0.0199326368 0.3138758505
775295350.0 0.0298791786 0.2987188776 -0.040347783 -0.4245904546 -0.039978188 -0.424536973 0.0223618424 0.3133935378
780295320.0 0.0334054072 0.2981989326 -0.0444790598 -0.424187243 -0.0444012903 -0.4244011839 0.0260764839 0.3136315423
785295290.0 0.0361302484 0.2983426457 -0.0491712582 -0.4233185926 -0.0492102557 -0.4239382368 0.0289862291 0.313551067
790295260.0 0.0390279931 0.2980809699 -0.0537915534 -0.423500332 -0.0540091937 -0.4234362728 0.0327896048 0.3130967294
795295230.0 0.0425244746 0.2981448173 -0.0578780865 -0.4220607921 -0.0583356548 -0.422666744 0.0360790269 0.3135176902
800295200.0 0.0461237823 0.2978316148 -0.0636837851 -0.4220706519 -0.0631392439 -0.4219668412 0.0391828063 0.3126601052
805295170.0 0.0488313866 0.297016785 -0.0673874601 -0.4206185941 -0.0673586898 -0.4207171342 0.0419716226 0.3122973275
810295140.0 0.0517741885 0.2968818611 -0.0715331334 -0.42016015 -0.0719223743 -0.4209269736 0.0456574454 0.3124237939
815295110.0 0.0549152488 0.2961564442 -0.0765169546 -0.4193430524 -0.0767500477 -0.4193965292 0.0487515372 0.3119115506
820295080.0 0.0581807601 0.2956076779 -0.0810276222 -0.418584494 -0.0808862459 -0.4188017959 0.0518037025 0.3114313898
825295050.0 0.0616785891 0.2951850865 -0.0857323796 -0.4171671776 -0.0857128526 -0.4177355579 0.0553499822 0.3110295759
830295020.0 0.0646015626 0.2948816105 -0.0900446724 -0.4164705553 -0.0902058542 -0.4167763291 0.0584775334 0.3105526982
