!Created with skrf (http://scikit-rf.org).
# Hz S RI R 50.0 
!freq ReS11 ImS11 ReS21 ImS21 ReS12 ImS12 ReS22 ImS22
300000.0 -0.102053911 -0.0752240281 0.6316251177 0.068817548 0.6256305354 0.0705201315 -0.1020683827 -0.0814511422
5299970.0 -0.1020896427 0.0127356772 0.6306035186 0.0103527843 0.6303474589 0.0106506923 -0.1001875766 0.0131301348
10299940.0 -0.0971295233 0.0292234297 0.634007045 0.015305458 0.634246908 0.0154029329 -0.0952785656 0.0302172017
15299910.0 -0.0899802767 0.0425141032 0.6405997266 0.0203308308 0.6404289777 0.0207693703 -0.0881493327 0.0436853309
20299880.0 -0.0815300116 0.0528591723 0.648376874 0.0244252885 0.6483880876 0.0241515952 -0.0795933962 0.054732916
25299850.0 -0.0721537875 0.062232195 0.6576840626 0.0256765197 0.6577231531 0.0252474612 -0.0695245769 0.0637897083
30299820.0 -0.0621102671 0.0687630133 0.6671112721 0.0242049721 0.6671666087 0.0243818255 -0.0594653485 0.0702261529
35299790.0 -0.0524169366 0.0737706652 0.676935304 0.0211054161 0.6770127906 0.0214705653 -0.04964309 0.0750603959
40299760.0 -0.0433354083 0.0772028973 0.6858887344 0.0173556257 0.6866093334 0.0175396293 -0.0403558961 0.0776944151
45299730.0 -0.0337898144 0.0793798365 0.6947701959 0.0116434683 0.695318858 0.0119122457 -0.031263042 0.0799602872
50299700.0 -0.0257991347 0.080112858 0.7033678597 0.0046310012 0.7035279201 0.0053728409 -0.0225962337 0.0807314398
55299670.0 -0.0174816563 0.0802942099 0.7109339999 -0.0030304202 0.7107080168 -0.0028617299 -0.0148395191 0.0806480943
60299640.0 -0.010170838 0.0799591478 0.7172592383 -0.011498398 0.7174807624 -0.010997945 -0.0077665231 0.0797403875
65299610.0 -0.0037809526 0.0787172516 0.7230450438 -0.020000295 0.7234809216 -0.0201102789 -0.0015919862 0.0787943554
70299580.0 0.0024743302 0.0778226783 0.7288624137 -0.029615376 0.7284312284 -0.029150352 0.0044091049 0.0767513815
75299550.0 0.0082224115 0.076003317 0.7329136162 -0.0393225871 0.7324003344 -0.0389464873 0.0097971408 0.0749218041
80299520.0 0.0128970417 0.0736848999 0.7370592288 -0.0491461357 0.7374676948 -0.0492376907 0.014664749 0.0727980929
85299490.0 0.0177553574 0.0711680095 0.7405143668 -0.0585868626 0.7403775653 -0.0584396894 0.0189466553 0.0697330266
90299460.0 0.0215976973 0.0691643627 0.7424841724 -0.0693930186 0.7429935614 -0.0688789997 0.0232391209 0.0677571585
95299430.0 0.0256805522 0.0667212933 0.7452668863 -0.0788445841 0.7455289994 -0.0793730883 0.0272598456 0.0655366963
100299400.0 0.0289015085 0.0646400466 0.7468518095 -0.0889092103 0.7466058567 -0.0891379323 0.0309284216 0.0626854077
105299370.0 0.0321661746 0.0621473905 0.7485667904 -0.099897521 0.7487417463 -0.0996097264 0.033931354 0.0603795026
110299340.0 0.0349819634 0.0599159082 0.7501286576 -0.1089452645 0.7498034049 -0.1092743049 0.0359423955 0.0577374138
115299310.0 0.0374896293 0.057245303 0.750664312 -0.1194969984 0.7508934606 -0.1194436919 0.0388367794 0.0552193778
120299280.0 0.0399278699 0.0546649712 0.7506345778 -0.1298265965 0.7517458069 -0.1298027478 0.04113573 0.0529045746
125299250.0 0.0418243276 0.0523362813 0.7516267411 -0.139244303 0.7515284944 -0.1391809509 0.0427687486 0.0502385776
130299220.0 0.0437401883 0.0502543334 0.7511666035 -0.14955298 0.7512724905 -0.1492350508 0.0449585217 0.0476658799
135299190.0 0.0453889803 0.0483088991 0.751167651 -0.1592610606 0.7507327795 -0.1590047855 0.0466020696 0.0456947482
140299160.0 0.0468796562 0.046186758 0.7505229305 -0.1691074015 0.7505464774 -0.1692885625 0.0479757335 0.0440952184
145299130.0 0.0486382314 0.0439821319 0.7496211872 -0.1785945288 0.7495437421 -0.1784200583 0.0496716051 0.0419324343
150299100.0 0.0498864362 0.0419684024 0.7485200543 -0.1870823389 0.7488388114 -0.1877907842 0.0509819451 0.0400660692
155299070.0 0.0503328697 0.0396267646 0.7479422714 -0.198765007 0.7476866078 -0.1981846661 0.0519533185 0.0377604332
160299040.0 0.052008382 0.0380307713 0.7465877998 -0.2070275404 0.7460591227 -0.2077359615 0.0524665167 0.0360074559
165299010.0 0.0525552142 0.036236485 0.7442667631 -0.2175368448 0.7447909486 -0.2171840293 0.0539644682 0.0349828479
170298980.0 0.0537129307 0.033789849 0.7428905823 -0.2264608057 0.7431482006 -0.2263007504 0.0544772308 0.0327572698
175298950.0 0.053934041 0.0321469916 0.7413035251 -0.2351483891 0.7409122568 -0.235397191 0.0552354171 0.0315031883
180298920.0 0.0543690072 0.030402173 0.7389119315 -0.2449829095 0.7388455604 -0.2447080431 0.0557274368 0.0297018725
185298890.0 0.0556744068 0.0284544281 0.7366526972 -0.254247012 0.7358913806 -0.2541353883 0.0561309898 0.028346581
190298860.0 0.0554183368 0.0272137433 0.7338665056 -0.2631991141 0.7345703267 -0.2632280713 0.0565652499 0.0264165032
195298830.0 0.0563042084 0.025242044 0.7318671287 -0.2717263073 0.7320190304 -0.2720210797 0.057672028 0.0253020695
200298800.0 0.0562925645 0.023973762 0.728752287 -0.2813988468 0.7287658208 -0.2811593486 0.0570773834 0.0237867361
205298770.0 0.0567786085 0.0226591398 0.7257327541 -0.2903679065 0.7257102997 -0.2901001679 0.0572697237 0.0217393568
210298740.0 0.0570826473 0.0208311558 0.7227933467 -0.2985068871 0.7229219264 -0.2980934768 0.0580476849 0.021409709
215298710.0 0.056843714 0.0196290322 0.7198447183 -0.307767186 0.7197781076 -0.3075218273 0.0578441206 0.0198585993
220298680.0 0.0575183921 0.0175233439 0.7162434846 -0.3161950649 0.7167685878 -0.3160982783 0.0574301433 0.0182271561
225298650.0 0.0577778915 0.0167146202 0.7134487605 -0.325387469 0.7139107099 -0.3247389143 0.0573225756 0.0168570184
230298620.0 0.0576969391 0.0157316962 0.7100392835 -0.3329959552 0.7105398827 -0.3331943088 0.057057046 0.0153758547
235298590.0 0.058039929 0.0147377264 0.7062821186 -0.3412928067 0.7067098908 -0.3411274793 0.0572719142 0.0142402263
240298560.0 0.0577663958 0.0134808581 0.7029337241 -0.3500464678 0.702774168 -0.3501473978 0.0576069045 0.0133209437
245298530.0 0.0578521173 0.0122280637 0.6997654561 -0.3580593849 0.6994537038 -0.3586906471 0.0578245305 0.0112373582
250298500.0 0.0584060741 0.0111818322 0.6948701523 -0.3669752074 0.6944567143 -0.3664156287 0.0574339591 0.0104440135
255298470.0 0.058443222 0.0095760205 0.6911889678 -0.3745293035 0.6916876204 -0.3746170022 0.0579342102 0.0091616978
260298440.0 0.0577366277 0.0083438953 0.6875471296 -0.3830080883 0.6874868078 -0.382603433 0.0579856112 0.0079328889
265298410.0 0.058959878 0.0077559299 0.6834986857 -0.3910858353 0.6836551284 -0.3907201288 0.0578776573 0.0068265269
270298380.0 0.0585279618 0.0063241701 0.6796669573 -0.3989313274 0.6793058692 -0.3987813826 0.0577918919 0.0058306563
275298350.0 0.0589512638 0.0051420804 0.6750387003 -0.4068711605 0.6756954989 -0.4068543555 0.057850935 0.0040227525
280298320.0 0.0588612063 0.0045328904 0.6709161532 -0.414698572 0.6709494233 -0.4146510041 0.0585908222 0.0033267758
285298290.0 0.0587786192 0.0031769244 0.6663191242 -0.4226385844 0.6660320933 -0.4225694991 0.0580569481 0.0019959779
290298260.0 0.0590225356 0.002049972 0.6620423977 -0.4293961361 0.6618242136 -0.4303904377 0.0582325292 0.0014684194
295298230.0 0.0591750269 0.0007343659 0.6576262742 -0.4374497276 0.6568517774 -0.4375455863 0.0592876266 6.43424e-05
300298200.0 0.0586768074 -0.0005271259 0.6529263376 -0.4451169011 0.6530890285 -0.4457598566 0.0588760253 -0.0008553762
305298170.0 0.058819538 -0.0013963109 0.6473176784 -0.4537138778 0.6474168301 -0.4531929965 0.0593841794 -0.0022663609
310298140.0 0.0586019955 -0.0026496602 0.6428398136 -0.4609990358 0.6434943703 -0.4606832097 0.0595498978 -0.0034832312
315298110.0 0.0585811675 -0.0043052065 0.637744766 -0.468469204 0.6378100448 -0.4690785114 0.0591103376 -0.004825146
320298080.0 0.0588984707 -0.0050353025 0.6319790662 -0.4765736381 0.6328067973 -0.4762703593 0.0591474513 -0.0056527086
325298050.0 0.0580906425 -0.0062914562 0.6272496597 -0.48377906 0.6267059007 -0.4835400961 0.0582752376 -0.006550857
330298020.0 0.0576327 -0.0076296109 0.6213565273 -0.4910158552 0.6213273717 -0.4909765656 0.0575933008 -0.0079902252
335297990.0 0.0574258194 -0.0089540251 0.6159864275 -0.4977958184 0.6153267392 -0.4979483199 0.0570375338 -0.0079907298
340297960.0 0.0564131449 -0.0093262124 0.6092567267 -0.5052681053 0.6093635106 -0.5051247234 0.0574404199 -0.008366796
345297930.0 0.0556429245 -0.0093598471 0.604275714 -0.512089161 0.6036442248 -0.5120716581 0.0567091225 -0.0099768509
350297900.0 0.0552013161 -0.0113120471 0.5970720356 -0.5192936336 0.5979043904 -0.5186562838 0.0559136708 -0.0095657611
355297870.0 0.0552345899 -0.0110154201 0.5919747901 -0.5253646158 0.5923605613 -0.5253829124 0.0554655333 -0.0106650185
360297840.0 0.054777406 -0.0117865001 0.5869605866 -0.5318269066 0.5864758334 -0.5312713402 0.055280482 -0.0112974121
365297810.0 0.0539806757 -0.0123082521 0.580124359 -0.5387443275 0.5808031882 -0.5389336176 0.0549708166 -0.0116563915
370297780.0 0.0544584395 -0.0133484532 0.5746236462 -0.5448220933 0.574796789 -0.5443600116 0.0541925565 -0.012178935
375297750.0 0.0535880661 -0.014084218 0.5683970869 -0.5512326741 0.5689127679 -0.5512139843 0.0543633993 -0.0127991548
380297720.0 0.0532607188 -0.0145599834 0.5622376062 -0.5580414803 0.5626295098 -0.5571171327 0.0535637277 -0.013790694
385297690.0 0.0527502382 -0.0153313096 0.5557831437 -0.5639821788 0.5555776496 -0.5635998044 0.0535426582 -0.0139447533
390297660.0 0.0526446046 -0.0152236853 0.5500268205 -0.5700028365 0.5498308502 -0.5699733691 0.0523732277 -0.0150186255
395297630.0 0.0520751295 -0.0160603214 0.5436554858 -0.5762317425 0.5436944382 -0.5764160699 0.0530570338 -0.0154744397
400297600.0 0.0518527536 -0.0166342708 0.5367588543 -0.582830568 0.5371971271 -0.5821826003 0.052069584 -0.0158465514
405297570.0 0.0509666534 -0.0174771411 0.5309847826 -0.587772395 0.5305001679 -0.5877188158 0.0511611889 -0.0167169616
410297540.0 0.0513468944 -0.0179936904 0.5247000624 -0.5944152002 0.5246157857 -0.5941639872 0.0509530341 -0.0172258857
415297510.0 0.0512681527 -0.0184851104 0.517698726 -0.6002494737 0.5179225618 -0.6001535945 0.0508253436 -0.017876419
420297480.0 0.0508713113 -0.0190130456 0.5114170681 -0.6056795138 0.5107310547 -0.6061350022 0.050098692 -0.0187860847
425297450.0 0.0501703482 -0.0203097833 0.5044781849 -0.6114366311 0.5048722092 -0.6116211735 0.0490309031 -0.0187828795
430297420.0 0.0498852251 -0.0208411531 0.4979633062 -0.6166595875 0.4977137324 -0.6163882364 0.0491105296 -0.0200621012
435297390.0 0.0493493875 -0.0212461093 0.4902840743 -0.6227564924 0.4909476341 -0.6220460703 0.0496005461 -0.0205884195
440297360.0 0.0493219972 -0.0214317192 0.4835748944 -0.6273557603 0.483945058 -0.6277331025 0.0484856081 -0.0216230466
445297330.0 0.0485079069 -0.0227440355 0.477241049 -0.6332915042 0.477281066 -0.632640525 0.0485104965 -0.0223128465
450297300.0 0.0490696924 -0.0231610726 0.4702310659 -0.6386275491 0.469896657 -0.6390038919 0.0479724198 -0.0232028385
455297270.0 0.0483467444 -0.0238584956 0.4628711621 -0.6437260595 0.463743514 -0.6439847653 0.0481774746 -0.0236053951
460297240.0 0.0479690092 -0.0243287758 0.4561248477 -0.6486883387 0.4559109844 -0.6488870287 0.0474810078 -0.0236280853
465297210.0 0.0477532941 -0.024873321 0.4491991532 -0.6539145645 0.4490483202 -0.6542987913 0.0473189133 -0.0251337034
470297180.0 0.0470099708 -0.0256200949 0.4414209869 -0.6589859323 0.4414866845 -0.6586544929 0.0470267926 -0.0253075081
475297150.0 0.0467567023 -0.0264427346 0.4340473785 -0.6627698593 0.4343832486 -0.6632430707 0.047072381 -0.026511412
480297120.0 0.0460938711 -0.026500685 0.4273204062 -0.6688056296 0.4266558243 -0.6690057483 0.0468097385 -0.0263078935
485297090.0 0.0455201352 -0.0273994191 0.4198929703 -0.6726644358 0.4200387114 -0.6728402614 0.046544038 -0.0272205571
490297060.0 0.0448023287 -0.0279341314 0.4124105297 -0.6784737169 0.4129561039 -0.6774054406 0.0463206628 -0.0268533527
495297030.0 0.0445791818 -0.0283389719 0.4047400229 -0.6818273643 0.4051599563 -0.6825230232 0.0453750948 -0.0282458375
500297000.0 0.0442879542 -0.0290606559 0.3973855831 -0.6861589197 0.3964679971 -0.6863930207 0.0453084269 -0.0277918642
505296970.0 0.0437935347 -0.029504635 0.3896040867 -0.6905594647 0.38916406 -0.6909782427 0.0447003384 -0.0284735773
510296940.0 0.0432639173 -0.0298514913 0.3821079203 -0.6949872093 0.3815842774 -0.6953364726 0.0446451059 -0.0285759284
515296910.0 0.0426592646 -0.0300361438 0.3740627885 -0.6997415279 0.3742962357 -0.6992115793 0.0439887956 -0.0290536865
520296880.0 0.042143705 -0.0308549082 0.3667647593 -0.7037976585 0.3665632098 -0.7030377585 0.0434528707 -0.0298952283
525296850.0 0.041956649 -0.0316649765 0.3591157531 -0.7077864041 0.359208713 -0.7077483437 0.0427139884 -0.0298980803
530296820.0 0.0415444215 -0.0315128706 0.3510458675 -0.7116336638 0.3506756597 -0.7113745203 0.0427348142 -0.0303104777
535296790.0 0.0403519804 -0.0318160094 0.3437543658 -0.7148886179 0.3436531262 -0.7146119097 0.0422028366 -0.0308904676
540296760.0 0.040080069 -0.0318720512 0.335852412 -0.7192031186 0.3356286648 -0.7190786385 0.0411393956 -0.0301780213
545296730.0 0.0395949802 -0.0326359511 0.3268611197 -0.7221209084 0.3272962373 -0.722507557 0.0405949641 -0.0312194611
550296700.0 0.0395658744 -0.0325580705 0.3199150463 -0.725850443 0.3195730124 -0.7262577723 0.039718343 -0.031423272
555296670.0 0.0386901855 -0.0330410605 0.3120750657 -0.7295922709 0.3123162606 -0.7293199155 0.0393495068 -0.0316153497
560296640.0 0.0383857348 -0.033157042 0.3034332513 -0.7332646865 0.3038779303 -0.7329290583 0.0387274227 -0.0320820616
565296610.0 0.0374194093 -0.0339423911 0.295533714 -0.7364224777 0.2957457573 -0.7361260173 0.0379139578 -0.0327313195
570296580.0 0.0370666997 -0.0337133428 0.2881413787 -0.7398075824 0.2870900743 -0.7399719329 0.0373431116 -0.0321614936
575296550.0 0.0363132116 -0.034003326 0.2793809796 -0.7428237537 0.2793286909 -0.7427607243 0.0373447256 -0.0330252152
580296520.0 0.0361469041 -0.0346587807 0.2711547921 -0.7457196013 0.2710696199 -0.7456977103 0.0367401143 -0.0336167523
585296490.0 0.0355413567 -0.0357888121 0.2633517535 -0.7480783326 0.2634557221 -0.7486006225 0.0356371906 -0.0338755842
590296460.0 0.0352520516 -0.0353970868 0.2550292482 -0.7508068034 0.2553077061 -0.7513169845 0.0347237153 -0.0345193064
595296430.0 0.0352206788 -0.0355303138 0.2467540565 -0.7542941509 0.2462590307 -0.7542738319 0.0346155652 -0.0351089216
600296400.0 0.0338603017 -0.0362652734 0.2383558871 -0.7570657657 0.2385217822 -0.756532927 0.0339655738 -0.0353364551
605296370.0 0.0336439107 -0.0363101187 0.2300421751 -0.7590999586 0.2304373514 -0.7595209333 0.0334008016 -0.0356165078
610296340.0 0.0331977117 -0.0369596237 0.221511864 -0.7616279779 0.2217731456 -0.761505413 0.0333348482 -0.0361490231
615296310.0 0.0329913899 -0.0378531227 0.2138914707 -0.7637456391 0.2129828262 -0.7643246556 0.0328639804 -0.0362285487
620296280.0 0.0324255651 -0.0378871228 0.2052136902 -0.7662690705 0.2047446814 -0.7661178526 0.0317556739 -0.0369968571
625296250.0 0.0312280305 -0.03888341 0.1974668167 -0.7689339321 0.1967340905 -0.7688681636 0.0323140596 -0.0374759868
630296220.0 0.0318192079 -0.0385243401 0.1878294361 -0.7710786758 0.1879625344 -0.7703760892 0.0310292303 -0.0374628944
635296190.0 0.0294068222 -0.0392561629 0.179907789 -0.7729442093 0.1799995817 -0.7729186247 0.0312015953 -0.037916597
640296160.0 0.0294787676 -0.0391937317 0.1712124802 -0.7745644233 0.1715588035 -0.7746045674 0.0302949899 -0.0382792042
645296130.0 0.0288518754 -0.0394317337 0.1629837486 -0.7756261323 0.163708333 -0.7765575361 0.0300844439 -0.0384041768
650296100.0 0.0285514921 -0.0398304371 0.1542245632 -0.7782093971 0.1547581434 -0.7784036839 0.0300013387 -0.0396515419
655296070.0 0.0274312907 -0.040222086 0.1459246635 -0.7798144903 0.1464390075 -0.7796091186 0.0295315694 -0.0389772648
660296040.0 0.0263810807 -0.0408359996 0.1376212263 -0.7813042557 0.1382637195 -0.7815392903 0.02934582 -0.0389822729
665296010.0 0.0265957786 -0.0405588101 0.1283329351 -0.7828221194 0.129070142 -0.782702968 0.0285119975 -0.0389711367
670295980.0 0.0248443604 -0.0407745949 0.1205440835 -0.7841516046 0.1202539899 -0.7843181115 0.0274201253 -0.0395598311
675295950.0 0.0247450757 -0.0405182527 0.1118490876 -0.785519297 0.1120523534 -0.7846151287 0.0263964403 -0.0393712474
680295920.0 0.0237693302 -0.0412227438 0.1031474374 -0.7866372051 0.102703312 -0.7872449412 0.0266325443 -0.038764984
685295890.0 0.0236729899 -0.0405281814 0.0948121942 -0.787131324 0.0944646199 -0.7876929706 0.0258776692 -0.039218061
690295860.0 0.0233988076 -0.0407282279 0.0860760168 -0.788080778 0.085674692 -0.7890473504 0.0251405845 -0.0389354742
695295830.0 0.022624527 -0.0412322755 0.0777794908 -0.7892182605 0.0774013193 -0.78927947 0.0245741507 -0.0392170999
700295800.0 0.0220912408 -0.0418102754 0.0689223777 -0.7901412739 0.0684457452 -0.7894697947 0.0237324568 -0.0386264887
705295770.0 0.0212203244 -0.0408555781 0.0601015692 -0.790575654 0.0607232913 -0.7912866747 0.0232029525 -0.0388249756
710295740.0 0.0209875112 -0.0412799095 0.0520430084 -0.792157816 0.0521436979 -0.7920808018 0.0229046834 -0.039573251
715295710.0 0.0195350731 -0.0417395056 0.043699615 -0.7919546146 0.0427279321 -0.7921405734 0.0222897709 -0.0393320103
720295680.0 0.0196011948 -0.0414493363 0.0349092641 -0.7924290076 0.0344159962 -0.7922154583 0.0218130603 -0.038769204
725295650.0 0.0192823194 -0.0415380983 0.0256516135 -0.792788524 0.025791886 -0.7927844431 0.0205378592 -0.0391315725
730295620.0 0.0188959154 -0.0413581064 0.0172975954 -0.7927359714 0.0172762367 -0.7926789308 0.0194532996 -0.0396352885
735295590.0 0.0179682766 -0.0413755746 0.0096182543 -0.7931775849 0.0085434405 -0.7927791456 0.0188272706 -0.0398417552
740295560.0 0.0172834322 -0.0412881713 -1.6105e-05 -0.7926922965 -0.0003139124 -0.7927221521 0.0188923712 -0.0395564269
745295530.0 0.0167210169 -0.0414652286 -0.0085039274 -0.7922256705 -0.0090416416 -0.7935843528 0.0180894974 -0.0399251897
750295500.0 0.0161579713 -0.0418206779 -0.0176352212 -0.7924867581 -0.0176304446 -0.7930081286 0.0170847019 -0.0396937768
755295470.0 0.0156806454 -0.0421672726 -0.0257565666 -0.7924242297 -0.0255218958 -0.7930744057 0.0171557491 -0.0403174177
760295440.0 0.0150986338 -0.0419340544 -0.0346065229 -0.7930437137 -0.0345529295 -0.7925472447 0.0163979621 -0.0402278811
765295410.0 0.0145427294 -0.0419439994 -0.0430446198 -0.7922508549 -0.0433145424 -0.7919944449 0.0155966041 -0.04041461
770295380.0 0.0130729129 -0.0423529804 -0.0521281573 -0.7909997756 -0.0514902825 -0.7911756074 0.014720786 -0.040793159
775295350.0 0.012786197 -0.0428811803 -0.0604131993 -0.790489664 -0.0598322608 -0.7907179094 0.013325946 -0.0403104809
780295320.0 0.0124920317 -0.0424578203 -0.069475228 -0.7895922986 -0.0685162779 -0.7900914661 0.013270541 -0.0413491994
785295290.0 0.0116140991 -0.0430036764 -0.0775025251 -0.7884538958 -0.0772625165 -0.7890248844 0.0133934125 -0.0407663368
790295260.0 0.011653839 -0.0418485798 -0.0855063416 -0.7878584016 -0.0850997915 -0.787935699 0.0124598735 -0.041242671
795295230.0 0.0104476203 -0.0427073131 -0.0948953437 -0.7872171667 -0.0940784333 -0.7874081535 0.0123697745 -0.040740993
800295200.0 0.0094357411 -0.0419961241 -0.1039276458 -0.7855362881 -0.1031392979 -0.7858322841 0.011550853 -0.0410311357
805295170.0 0.0089388103 -0.0426797818 -0.1123344885 -0.7848148205 -0.1118728702 -0.7851361792 0.0106762741 -0.0410574818
810295140.0 0.0079199605 -0.0429868103 -0.1198617413 -0.7836752656 -0.1203077588 -0.7834419067 0.0106801375 -0.0403762594
815295110.0 0.0079528286 -0.0433662679 -0.1286764939 -0.7819577154 -0.1289949732 -0.7819653181 0.009788731 -0.0407064936
820295080.0 0.0066614978 -0.0420544461 -0.1369469138 -0.7803880866 -0.1370910745 -0.7802622905 0.0092852514 -0.0405847248
825295050.0 0.0067736447 -0.0424668386 -0.14519492 -0.7790147204 -0.1455273893 -0.7789290056 0.0094217627 -0.0403477223
830295020.0 0.0059284625 -0.0420501585 -0.1544437403 -0.7769651264 -0.1543181829 -0.7768942453 0.0094810849 -0.0403487003
