!Created with skrf (http://scikit-rf.org).
# Hz S RI R 50.0 
!freq ReS11 ImS11 ReS21 ImS21 ReS12 ImS12 ReS22 ImS22
300000.0 -0.2403512085 -0.1013835639 0.4690773588 0.0662090583 0.4686516261 0.0710513288 -0.2369291974 -0.1118034213
5299970.0 -0.2436934059 0.0071011547 0.4740742161 0.0057432529 0.4737035944 0.005887075 -0.2438856806 0.005770239
10299940.0 -0.2401327473 0.0197113242 0.4757482267 0.0064399112 0.4757692269 0.0066049022 -0.240993073 0.0181946268
15299910.0 -0.2359271953 0.0293359694 0.4793655755 0.0079319111 0.4794771559 0.0080065399 -0.2366657711 0.0274663429
20299880.0 -0.2305239273 0.0371651073 0.4841980197 0.0083482098 0.4839607061 0.00855226 -0.2318713781 0.0354794648
25299850.0 -0.224760973 0.0436000021 0.4890355006 0.007393851 0.4894206278 0.0071665565 -0.2268376439 0.0417644514
30299820.0 -0.2189356037 0.0483590634 0.4953231948 0.0055813496 0.4949182565 0.0052180532 -0.2215479124 0.046642109
35299790.0 -0.2128184051 0.0528622765 0.5003994077 0.0022465978 0.500403546 0.0022836669 -0.2158685698 0.0511842506
40299760.0 -0.2075096162 0.0557584973 0.5055269306 -0.0014417392 0.5053781673 -0.0017656945 -0.2113780226 0.0546816682
45299730.0 -0.2024699067 0.0585061343 0.5103595463 -0.0065857662 0.5101907183 -0.0066161395 -0.2066074233 0.0577452869
50299700.0 -0.1977493266 0.0602078177 0.5142159091 -0.0121407034 0.5141912783 -0.0121443151 -0.2018033296 0.0596289888
55299670.0 -0.1935448305 0.0615836263 0.5174884141 -0.0182071631 0.5181170744 -0.0180076179 -0.1983864222 0.0613513351
60299640.0 -0.1893397032 0.0624981965 0.5211335744 -0.0241504212 0.5216808087 -0.0241314261 -0.1944147546 0.0635227825
65299610.0 -0.1860631644 0.0639348094 0.5243558212 -0.0299082556 0.5246288348 -0.0302041327 -0.1909651676 0.0645110861
70299580.0 -0.1828076159 0.0643182542 0.5268819939 -0.0370111291 0.5266208423 -0.0369006851 -0.187839174 0.0657838338
75299550.0 -0.179440166 0.065067519 0.5285047794 -0.043865045 0.5285335195 -0.0439422875 -0.184832475 0.0669766897
80299520.0 -0.1770329252 0.065836507 0.530917652 -0.0510199881 0.5310657339 -0.0507937444 -0.1827319558 0.0675064857
85299490.0 -0.1745755484 0.0661332208 0.5321237181 -0.0576464199 0.5320067217 -0.0578434574 -0.1799595175 0.0683877635
90299460.0 -0.1725824094 0.0664889425 0.5329708006 -0.0645123175 0.5329961324 -0.0650550266 -0.1774556097 0.0694638159
95299430.0 -0.1706670806 0.0671747637 0.5342288666 -0.0716800446 0.5343800903 -0.071746211 -0.1757709572 0.0702925804
100299400.0 -0.1688054199 0.067843634 0.5344678466 -0.0786259083 0.5345595132 -0.0785858332 -0.174522731 0.0710144825
105299370.0 -0.1671059969 0.0679943882 0.534144389 -0.0851505941 0.5347817194 -0.0857604892 -0.1722515525 0.0718875161
110299340.0 -0.1655746 0.06837995 0.5346745884 -0.0919655089 0.5347939054 -0.0924554433 -0.1707580176 0.0726488838
115299310.0 -0.1638576693 0.0687284795 0.5347160658 -0.0989581114 0.5349421471 -0.0990537583 -0.1690253667 0.0731015387
120299280.0 -0.1630289564 0.0693786475 0.5348825258 -0.1057143463 0.5346672482 -0.1061823996 -0.1679142221 0.0742721468
125299250.0 -0.1618305756 0.0699209733 0.5344072305 -0.1126747704 0.5345784071 -0.1125009284 -0.1663880721 0.0747452985
130299220.0 -0.1604486402 0.0706784768 0.5333893996 -0.1190609156 0.5336841129 -0.1194371043 -0.1651973303 0.0760388432
135299190.0 -0.1594348473 0.0709442961 0.5330783591 -0.1260812861 0.5326184004 -0.1258863632 -0.1642621301 0.0770446704
140299160.0 -0.1586386435 0.0720664219 0.5322619885 -0.1326851281 0.5323768682 -0.1330083517 -0.1630464053 0.0780236891
145299130.0 -0.1574303829 0.0728857881 0.5315825326 -0.1393730911 0.5312960866 -0.1389292437 -0.1621556074 0.0786526529
150299100.0 -0.1566536228 0.0736243632 0.5305696163 -0.1460980758 0.5302035178 -0.1456188064 -0.1610778431 0.079709651
155299070.0 -0.1558922242 0.0748800077 0.5288747337 -0.1527198621 0.529223822 -0.1525874523 -0.1603302096 0.0809971471
160299040.0 -0.1551573034 0.0754101735 0.5277979373 -0.1584720035 0.5278040023 -0.158623168 -0.1589024023 0.0824152615
165299010.0 -0.1543969536 0.0764688968 0.5265425778 -0.1654909527 0.5262343939 -0.1653908449 -0.1581358488 0.0831773167
170298980.0 -0.1534247124 0.077254977 0.5235733037 -0.1716691445 0.5245751146 -0.1713982269 -0.1567477141 0.0842184329
175298950.0 -0.1527488666 0.0781617832 0.5234657045 -0.1778670364 0.5235817021 -0.1782327507 -0.1561335338 0.0857471189
180298920.0 -0.1515633057 0.0791047389 0.5211141731 -0.1840154685 0.5211181321 -0.1840577007 -0.1549300822 0.0873950371
185298890.0 -0.1511108625 0.0801078074 0.5192387452 -0.1906761066 0.5197081819 -0.1901868131 -0.154237782 0.0880776122
190298860.0 -0.1503276412 0.0812532165 0.5173619111 -0.1965827305 0.5176923944 -0.1966101685 -0.1527499083 0.0893433743
195298830.0 -0.1495966943 0.0819964841 0.5158788793 -0.2024509182 0.5157477668 -0.2032779398 -0.1521081929 0.0904545933
200298800.0 -0.1487553969 0.0834352103 0.5133673885 -0.2081326736 0.5136683918 -0.2085220663 -0.1508004761 0.0922251739
205298770.0 -0.1480138803 0.0846620898 0.5115837031 -0.2148399459 0.5115676625 -0.2146498129 -0.1503977176 0.0929456517
210298740.0 -0.1474990777 0.0857094117 0.5091860067 -0.2209468365 0.5093716914 -0.2210963878 -0.1492483657 0.0948280565
215298710.0 -0.1465378136 0.0867199752 0.5068748373 -0.2267456843 0.5069633591 -0.2267627354 -0.1484645452 0.0960583841
220298680.0 -0.14577694 0.0880915987 0.5043180643 -0.232903724 0.5045137157 -0.2327906479 -0.1470259845 0.0974894497
225298650.0 -0.1449729713 0.0892840044 0.5014346151 -0.2382292158 0.5015344351 -0.2381769667 -0.1462328258 0.0988948516
230298620.0 -0.1443990362 0.0905804637 0.4996148261 -0.2442938371 0.4995821606 -0.2445105016 -0.1450662432 0.1003774458
235298590.0 -0.143347849 0.0917803097 0.4966027061 -0.2500661865 0.4968153349 -0.250664728 -0.1439221166 0.1014479548
240298560.0 -0.1427731355 0.0931595924 0.4942521647 -0.2558840646 0.4941149035 -0.2555117605 -0.142911729 0.1031647513
245298530.0 -0.1418687618 0.0943096198 0.4906188219 -0.261826316 0.4910347727 -0.261423188 -0.1420328284 0.1047650023
250298500.0 -0.1415528437 0.0953912459 0.4883824605 -0.266696157 0.4888009614 -0.2667342075 -0.1404166363 0.1059721001
255298470.0 -0.1406339825 0.0967613358 0.4855533338 -0.2727464696 0.4856500415 -0.2726645279 -0.1395843289 0.1073227022
260298440.0 -0.1397519698 0.0979190373 0.4825333982 -0.27796747 0.4829261204 -0.2786030532 -0.1381398929 0.10882367
265298410.0 -0.1387895594 0.099458865 0.4794483115 -0.2843668535 0.479413225 -0.2840879406 -0.1373030384 0.1100948883
270298380.0 -0.1376629069 0.1003601192 0.4762157641 -0.28917345 0.476617252 -0.2893455575 -0.1359420182 0.1118039801
275298350.0 -0.1373299288 0.1018556487 0.4736460791 -0.2949552913 0.473778506 -0.2951558175 -0.1347991568 0.1133290491
280298320.0 -0.135964386 0.1035362862 0.4697612224 -0.2999091084 0.4698566495 -0.3003194426 -0.1333920408 0.1146901009
285298290.0 -0.1350448131 0.1047811205 0.4664131987 -0.3052724046 0.4669444797 -0.3054079638 -0.1322455227 0.1163098902
290298260.0 -0.1342239077 0.1057834061 0.4636554611 -0.31050577 0.4635046837 -0.3108967341 -0.1305823921 0.1178582257
295298230.0 -0.1333391616 0.1071598252 0.4603780091 -0.3159560038 0.4596332708 -0.3162299682 -0.1293758882 0.1192619147
300298200.0 -0.1321212924 0.1082881497 0.4562952551 -0.3211442963 0.4569892071 -0.3212997588 -0.1282583854 0.1206952755
305298170.0 -0.1310495219 0.1096907446 0.4538568967 -0.3267294053 0.4535986142 -0.3267106109 -0.1265494988 0.1222669051
310298140.0 -0.1297191813 0.1105822142 0.4500400037 -0.3317139914 0.4493877761 -0.3322302132 -0.1253602618 0.1237277037
315298110.0 -0.1290927733 0.1119959514 0.4459338333 -0.3373027905 0.4462920532 -0.3370189921 -0.1236411251 0.1248334925
320298080.0 -0.1280243229 0.1131628461 0.4423811641 -0.342590191 0.4424499527 -0.3421760444 -0.1224996401 0.1261076406
325298050.0 -0.1273422103 0.1141834648 0.4385111385 -0.347452325 0.4386228375 -0.3475472662 -0.121216261 0.1275824134
330298020.0 -0.1264524994 0.1155262075 0.4342691707 -0.3520757956 0.434187652 -0.3521899742 -0.1200277955 0.1287902483
335297990.0 -0.125459515 0.1163508128 0.4305938166 -0.356926844 0.4305764412 -0.3572819984 -0.1189228346 0.1305325546
340297960.0 -0.1247748396 0.1182551502 0.4265298652 -0.3618931252 0.4267350443 -0.3618990248 -0.1178628078 0.1317833807
345297930.0 -0.1239154284 0.119449383 0.4224584024 -0.3658282287 0.4219589484 -0.3662336362 -0.1161681692 0.1333420579
350297900.0 -0.1222061378 0.1208224982 0.4178398854 -0.3708535669 0.4181649419 -0.3711757879 -0.1152686293 0.1350998951
355297870.0 -0.1214577451 0.1219454542 0.4137373216 -0.3754784729 0.4140112898 -0.3758442499 -0.1137434477 0.1365684433
360297840.0 -0.1199666839 0.1234066297 0.4097494234 -0.3805866195 0.4099937683 -0.3804815466 -0.1121684898 0.1383151473
365297810.0 -0.118921971 0.1247641882 0.404917657 -0.3848311783 0.4054150025 -0.3850995429 -0.1105447101 0.1396491392
370297780.0 -0.1176709528 0.1258819693 0.4008458029 -0.389052821 0.4011167778 -0.3892867346 -0.1091090976 0.1409945058
375297750.0 -0.1169285227 0.1275119876 0.3972367609 -0.3939807806 0.3965147175 -0.3938174262 -0.1075516795 0.1422087104
380297720.0 -0.115297383 0.1284431604 0.3924635175 -0.3976401414 0.3926614298 -0.3981153865 -0.1063103103 0.143917395
385297690.0 -0.114229131 0.1299417169 0.387948952 -0.4017481914 0.3883085945 -0.4021742817 -0.1045603081 0.1455171297
390297660.0 -0.1133407969 0.1311576648 0.3834592917 -0.4068141468 0.3839777876 -0.4069429518 -0.103202741 0.1464007302
395297630.0 -0.1116171327 0.1319815557 0.3792829594 -0.4103746857 0.3790672103 -0.41068819 -0.1012184063 0.1480908178
400297600.0 -0.1107758322 0.1334617489 0.3747533004 -0.4146499375 0.375018824 -0.4149271921 -0.1004660453 0.1491046807
405297570.0 -0.1091265115 0.1349379843 0.3698159381 -0.4190004655 0.3701459003 -0.4191787006 -0.0982639574 0.1508202771
410297540.0 -0.1079424748 0.135686774 0.3650316841 -0.4226466765 0.3653832295 -0.4227533735 -0.0968002056 0.1518658193
415297510.0 -0.1066290661 0.1374416342 0.3607333578 -0.4268519589 0.3608568156 -0.4269133368 -0.0950351307 0.1534992782
420297480.0 -0.1054559567 0.1379407589 0.3560821963 -0.4310010207 0.3559995379 -0.4309286431 -0.0934090382 0.1542037628
425297450.0 -0.1036363984 0.1391701773 0.3514801734 -0.4347495968 0.3518212065 -0.434699059 -0.0920009999 0.1559711774
430297420.0 -0.1026776251 0.1406903817 0.3465445875 -0.438924934 0.3467923816 -0.4387590154 -0.0905070729 0.1569972093
435297390.0 -0.1012894398 0.1414124814 0.3417251364 -0.4418409795 0.3422879348 -0.4421801383 -0.0887503858 0.1583242054
440297360.0 -0.0995295667 0.1423877512 0.3367696984 -0.4457156321 0.3363079515 -0.4460745474 -0.0869164579 0.1586752726
445297330.0 -0.0983124734 0.1438554391 0.3316726782 -0.4501042752 0.3315404686 -0.4494894633 -0.0850639021 0.1601835979
450297300.0 -0.0968061993 0.1446548795 0.3266146179 -0.4531805733 0.3272593004 -0.4532489449 -0.0830462366 0.1616220161
455297270.0 -0.0954649874 0.1459527087 0.3221532208 -0.4571397279 0.3222548458 -0.4567438248 -0.0814477333 0.1627070484
460297240.0 -0.0943748532 0.1467910833 0.3167526283 -0.4599170328 0.316845735 -0.4602616056 -0.0797931072 0.1641933529
465297210.0 -0.0927018517 0.1478685412 0.3118941349 -0.4637925753 0.3121427502 -0.4637232336 -0.0783979083 0.164776735
470297180.0 -0.0911649457 0.1488534333 0.3064766497 -0.4665987475 0.3070668693 -0.4669720795 -0.0770240291 0.165888342
475297150.0 -0.08992518 0.1495869491 0.3016840274 -0.4701054148 0.3016810452 -0.4697189683 -0.0748739202 0.1670794716
480297120.0 -0.0883549837 0.1506983518 0.2967714541 -0.4730971113 0.2969182355 -0.4733142542 -0.0730320353 0.168581603
485297090.0 -0.086731343 0.1516495268 0.2916649829 -0.4766722882 0.2914988908 -0.476513836 -0.0715981779 0.1689857763
490297060.0 -0.0851450366 0.1524099761 0.2861928131 -0.4796545508 0.2861876736 -0.4796992034 -0.0693580212 0.1703728829
495297030.0 -0.0841962388 0.1538131585 0.2807813966 -0.4825230446 0.2807840719 -0.4828026417 -0.0676209047 0.1705542729
500297000.0 -0.0822965134 0.1544999946 0.2754850141 -0.4858898239 0.2756182683 -0.4859660166 -0.0659700044 0.1716217504
505296970.0 -0.0810708607 0.1553147921 0.2700802547 -0.4885992569 0.2699760346 -0.4884280005 -0.0644387855 0.1728905517
510296940.0 -0.0795879221 0.1563561172 0.2651362741 -0.491417865 0.2651613171 -0.4915904558 -0.0618644003 0.1738251952
515296910.0 -0.0782635065 0.1574585612 0.2596901789 -0.494253769 0.2596588287 -0.4942988875 -0.0602154176 0.1747028972
520296880.0 -0.0766462692 0.1579902805 0.2545753025 -0.4968713008 0.2543441816 -0.4970744948 -0.0583816227 0.1754964229
525296850.0 -0.0749159779 0.1587511012 0.2487259506 -0.4998637779 0.2486734285 -0.5001062757 -0.0560369164 0.1762135129
530296820.0 -0.0732806951 0.1598710694 0.2432905315 -0.5022297162 0.2432282906 -0.5024133274 -0.0549333177 0.1767112848
535296790.0 -0.0720457518 0.1603663075 0.2378619852 -0.5049196112 0.2379846808 -0.5047414466 -0.0527475483 0.1773100897
540296760.0 -0.0704371866 0.1611827114 0.2324420388 -0.5078598384 0.2321272403 -0.508047282 -0.0511920106 0.1785641698
545296730.0 -0.069020494 0.1622372228 0.22656676 -0.5096584671 0.2269785041 -0.5101397805 -0.0491412282 0.178898312
550296700.0 -0.0675078851 0.1630911094 0.2214413968 -0.5119881972 0.2218158388 -0.5127725543 -0.0469484996 0.1802351544
555296670.0 -0.0653708849 0.1636029021 0.2153964574 -0.5148064089 0.2156610223 -0.5147871073 -0.0451833227 0.1803573589
560296640.0 -0.064105826 0.1643172221 0.2104551686 -0.5168827358 0.2106255006 -0.516796747 -0.042956103 0.1814258617
565296610.0 -0.0626865544 0.1651524489 0.2045167968 -0.5193183642 0.2042359884 -0.5192264184 -0.0415591935 0.1820048376
570296580.0 -0.0606657855 0.1657026011 0.1986815473 -0.5212255544 0.1992346113 -0.5214274209 -0.0390671748 0.1830097569
575296550.0 -0.0592685242 0.1670558739 0.1930650426 -0.5233787239 0.1936355664 -0.5234201357 -0.0369261182 0.1831909931
580296520.0 -0.0576786727 0.1674132567 0.1875258327 -0.5255803063 0.1872765997 -0.5255279819 -0.0354294309 0.1837072124
585296490.0 -0.0558076621 0.1677399209 0.1818518802 -0.5277608427 0.1818652283 -0.5276209316 -0.0334377471 0.1839200646
590296460.0 -0.0547910959 0.1684250511 0.1761024396 -0.5294024182 0.1759848676 -0.529742275 -0.0308475284 0.1846053008
595296430.0 -0.052821655 0.1694559762 0.1702803333 -0.5313654274 0.1698071186 -0.5315446583 -0.0291436234 0.1849637007
600296400.0 -0.0513199178 0.1700637941 0.1644449685 -0.5329482158 0.1649274816 -0.5331183228 -0.027105484 0.1861176477
605296370.0 -0.0494460036 0.1709809683 0.1586815823 -0.5348694431 0.1589065523 -0.5345374922 -0.0254274556 0.1864108483
610296340.0 -0.0480275417 0.1713353911 0.1537221486 -0.5362733464 0.1533225276 -0.536720745 -0.0230840101 0.1868563426
615296310.0 -0.0462485579 0.1719746032 0.1469697164 -0.5378659734 0.1471315456 -0.5378652177 -0.0208698974 0.1870377334
620296280.0 -0.0448905239 0.1723792729 0.1417557595 -0.5394584748 0.1415535506 -0.5394952731 -0.0190041115 0.1873385742
625296250.0 -0.0430039792 0.1730934892 0.1352639393 -0.5411479988 0.1357211747 -0.5410939912 -0.0172449831 0.1878084918
630296220.0 -0.0412567157 0.1738975399 0.1292749443 -0.542813478 0.1300585524 -0.5425449764 -0.0152253136 0.1883899002
635296190.0 -0.0395453148 0.1743391949 0.1238059095 -0.5435954439 0.1235329168 -0.5434398257 -0.0129876025 0.1885820797
640296160.0 -0.0376452961 0.1745642399 0.1180424583 -0.5446727368 0.1181663625 -0.5451734641 -0.0107755065 0.1889226686
645296130.0 -0.0361677452 0.1755770021 0.1119698969 -0.5466226679 0.1121011378 -0.5461192948 -0.0094957112 0.1888181177
650296100.0 -0.0346678748 0.1762526841 0.1066457931 -0.5476054946 0.1064968228 -0.5476543517 -0.0069752898 0.1895197766
655296070.0 -0.032857451 0.1762477849 0.1001996895 -0.5485768782 0.09991697 -0.5483428482 -0.0045717525 0.189935444
660296040.0 -0.0315317135 0.1771112322 0.0947321124 -0.5493627204 0.0944390837 -0.5496005611 -0.0030522267 0.189590305
665296010.0 -0.0294282536 0.1771378894 0.0882856848 -0.5503752868 0.0888985936 -0.5507533048 -0.0009742694 0.1902465774
670295980.0 -0.0272712021 0.177672489 0.0827616717 -0.5511207001 0.0831605128 -0.5512722572 0.0006341861 0.1899675817
675295950.0 -0.0256992014 0.1781457374 0.07638799 -0.5521877681 0.0766997779 -0.5529180196 0.0031783901 0.1905911715
680295920.0 -0.0239382409 0.1787137686 0.0705303811 -0.5528750051 0.0701609369 -0.5529877403 0.0052872813 0.1902528121
685295890.0 -0.0223323496 0.1791546923 0.0649683736 -0.5539333785 0.0644026063 -0.5537778902 0.0072660199 0.1905932598
690295860.0 -0.0203478128 0.1793544255 0.0585277513 -0.5534983036 0.0583146116 -0.5539105056 0.0094818981 0.1905256982
695295830.0 -0.0183271377 0.1794232198 0.0519884693 -0.5544331128 0.0522946284 -0.5549134659 0.0111492646 0.1908511363
700295800.0 -0.0167927372 0.1798512631 0.0460654648 -0.55513511 0.0466123874 -0.5554751792 0.0132759908 0.1903568128
705295770.0 -0.0150044578 0.1805663045 0.0402795344 -0.5558452282 0.0403268264 -0.5554399587 0.0155973537 0.1904436986
710295740.0 -0.0134938725 0.1808032727 0.0346619328 -0.55585699 0.0343402281 -0.5562282337 0.0169072183 0.1908547629
715295710.0 -0.0112908642 0.180983928 0.0281900297 -0.5561486825 0.0288272209 -0.5564923407 0.0194025012 0.1900541743
720295680.0 -0.0100499988 0.1810839317 0.0224079161 -0.5563312725 0.0226933487 -0.5568993334 0.0219021726 0.1904929292
725295650.0 -0.0077009142 0.1815358774 0.0162782386 -0.5567450119 0.0162214061 -0.5568063561 0.0237421696 0.1905898376
730295620.0 -0.006542548 0.1815014663 0.01035906 -0.5568299984 0.0102986708 -0.5570026661 0.0256986224 0.190042644
735295590.0 -0.0041175606 0.1818138428 0.0046530009 -0.5569256966 0.0048723937 -0.5569220336 0.0279293718 0.1902605548
740295560.0 -0.002610393 0.1823367704 -0.0017356383 -0.5563932872 -0.0016553467 -0.5566926873 0.0300311219 0.1898482871
745295530.0 -0.0007772197 0.1821826042 -0.007883604 -0.5569413367 -0.0072788487 -0.5569984641 0.0317781535 0.1897031586
750295500.0 0.0008486214 0.1822918148 -0.0132335506 -0.5563742094 -0.0135928861 -0.556965507 0.03432955 0.1889807971
755295470.0 0.0032582993 0.1826136256 -0.01967226 -0.5566248836 -0.0191691545 -0.5566975386 0.035595872 0.1891767256
760295440.0 0.0045641553 0.1826437926 -0.0258062201 -0.5559307217 -0.0255653693 -0.5562259951 0.0374254254 0.18896247
765295410.0 0.0062484852 0.1825087451 -0.0312245367 -0.5555217951 -0.031160026 -0.5561117259 0.0408273254 0.1889278442
770295380.0 0.0083676749 0.1831449522 -0.0374556089 -0.5554294666 -0.0375802828 -0.555666285 0.0424797177 0.1884891742
775295350.0 0.0099473507 0.1829767187 -0.0433346937 -0.5545651786 -0.0434657929 -0.5551238678 0.0438315858 0.1875596802
780295320.0 0.0122506297 0.1829356435 -0.0496230143 -0.5543594938 -0.0492072428 -0.5548197863 0.0463949771 0.1878533815
785295290.0 0.0135455073 0.1834679299 -0.0550410504 -0.5534964348 -0.0553933613 -0.5538488945 0.0481494576 0.1871232618
790295260.0 0.0152517433 0.1831624108 -0.0610148763 -0.5531289284 -0.0612256911 -0.5538491101 0.050753641 0.1869623226
795295230.0 0.0169974276 0.1833258398 -0.0668243846 -0.5520309418 -0.0668443236 -0.5524969689 0.0525496656 0.1869516113
800295200.0 0.0191240438 0.1832934794 -0.0734764304 -0.5517565907 -0.0737268984 -0.5519906368 0.0544868984 0.1862264434
805295170.0 0.0206192806 0.183254951 -0.0790776119 -0.5507933961 -0.0791807427 -0.5508788998 0.0564170023 0.185600324
810295140.0 0.0224102282 0.1831520131 -0.0850157423 -0.5500561673 -0.0848247701 -0.5506209055 0.0586160568 0.1854590495
815295110.0 0.0242535428 0.1830712205 -0.0911186509 -0.5485270853 -0.0909259575 -0.5491689567 0.0603851616 0.1845276895
820295080.0 0.0263739647 0.1826137301 -0.0964493807 -0.5479427709 -0.0965696133 -0.5482848578 0.0622555534 0.1840669063
825295050.0 0.0280702899 0.1826832553 -0.1027556257 -0.5467148946 -0.1024137495 -0.5465634377 0.0645731733 0.1835832522
830295020.0 0.0298710029 0.1828113554 -0.1086244275 -0.5454493271 -0.1091152763 -0.5458741605 0.06618437 0.1830073166
