!Created with skrf (http://scikit-rf.org).
# Hz S RI R 50.0 
!freq ReS11 ImS11 ReS21 ImS21 ReS12 ImS12 ReS22 ImS22
300000.0 -0.2428377597 -0.0856031271 0.4727997588 0.0558515351 0.4707844519 0.0530513505 -0.2393365695 -0.0917239413
5299970.0 -0.2452950471 0.006750223 0.4748660335 0.0047228478 0.4748336314 0.0047334689 -0.2415165317 0.0075689323
10299940.0 -0.2418773827 0.0180206064 0.476570126 0.0060820323 0.476997287 0.0059339603 -0.2379457153 0.0205297981
15299910.0 -0.237511698 0.0269642211 0.4804382551 0.0075331779 0.4806195939 0.0071781997 -0.2333875297 0.0300101224
20299880.0 -0.2329887831 0.0339582406 0.4850554014 0.008569773 0.4851337207 0.0078727592 -0.2281918858 0.0380551857
25299850.0 -0.2279222097 0.0403934157 0.4902477239 0.00718371 0.4904661091 0.0073632966 -0.22219109 0.0447507616
30299820.0 -0.2226480484 0.0451888228 0.4958167549 0.0049127117 0.4953335431 0.0049220635 -0.2164454436 0.0499977455
35299790.0 -0.2175269263 0.0490598805 0.500892317 0.0015134052 0.5011422648 0.0014686533 -0.2109654841 0.0543652841
40299760.0 -0.2127834584 0.0525088241 0.5060167316 -0.0022505276 0.5058125565 -0.0022851042 -0.2052629548 0.0570790436
45299730.0 -0.2080820956 0.0546218446 0.510505366 -0.0068169228 0.5110110948 -0.0071618889 -0.2004649498 0.0602965259
50299700.0 -0.2039521209 0.0566409384 0.5151332836 -0.0127266646 0.5150695093 -0.0122247764 -0.1957686556 0.0622428275
55299670.0 -0.1999551668 0.0583216175 0.5188229472 -0.018945776 0.5186352211 -0.0183709555 -0.1914145155 0.0639451424
60299640.0 -0.196079645 0.0599945651 0.5217347095 -0.0246984791 0.5221375534 -0.0245960274 -0.1873315796 0.0652079915
65299610.0 -0.1929377395 0.0610630913 0.5247315621 -0.0311886277 0.5250812824 -0.0310799165 -0.1839917429 0.0664121283
70299580.0 -0.1898259541 0.0620773152 0.52705231 -0.0379315765 0.5269400163 -0.0375106174 -0.1805757872 0.0673326605
75299550.0 -0.1869748334 0.0627542478 0.5289178612 -0.0445052433 0.5287151833 -0.0446224214 -0.1777782335 0.0682095331
80299520.0 -0.1847000128 0.0634327987 0.5310184733 -0.0517759238 0.5310997607 -0.0515129746 -0.1753325796 0.0692189549
85299490.0 -0.1821457209 0.0640055208 0.5316687639 -0.0580681591 0.5324011918 -0.0582184014 -0.1730365943 0.0694521033
90299460.0 -0.1804943616 0.0647390347 0.5326177819 -0.0653573359 0.5332627534 -0.0654142654 -0.1703344722 0.0706415201
95299430.0 -0.1780105598 0.0651414946 0.534015995 -0.0720980981 0.5341276134 -0.0723271516 -0.168172049 0.071278183
100299400.0 -0.1767577426 0.0663122184 0.5341451882 -0.0790294128 0.5343751451 -0.0787565802 -0.1659356285 0.0714167457
105299370.0 -0.174942822 0.066788833 0.5345875884 -0.0864242513 0.5350319978 -0.0858249237 -0.1641485739 0.0725963793
110299340.0 -0.1735882984 0.0675420518 0.5350086939 -0.0926310959 0.5349195993 -0.0926332678 -0.1630069022 0.073316439
115299310.0 -0.1719293226 0.0680562368 0.5347285585 -0.0995958969 0.5349012664 -0.0994352284 -0.1608976358 0.0737059336
120299280.0 -0.1707631386 0.0682924288 0.5342974355 -0.1062365947 0.5347324983 -0.106354806 -0.1596884745 0.074721926
125299250.0 -0.169651039 0.0690702937 0.5342102261 -0.1129081136 0.5342954826 -0.1127943035 -0.1584458057 0.0752735644
130299220.0 -0.1688033844 0.070196154 0.5332910142 -0.1196167221 0.5335425711 -0.1194114159 -0.1572449628 0.0760466515
135299190.0 -0.1676337668 0.0712491806 0.5329255389 -0.1264713707 0.5328577555 -0.1262799615 -0.1559004267 0.0769932726
140299160.0 -0.1665718581 0.0719730107 0.5321634837 -0.1333932354 0.5320967129 -0.1329698411 -0.1546037086 0.0782948515
145299130.0 -0.1655845657 0.0728055639 0.5315399902 -0.1396635273 0.5310850895 -0.1398911104 -0.1537508564 0.0789726946
150299100.0 -0.1647397391 0.0739313922 0.5300002855 -0.1459562881 0.5303152702 -0.1455277295 -0.1528509168 0.0803460149
155299070.0 -0.1641175428 0.0746606558 0.5291206223 -0.1531056097 0.5289336767 -0.1524788384 -0.1514584244 0.0813656329
160299040.0 -0.1627643458 0.0761248344 0.5272787464 -0.1591640542 0.5269396303 -0.158853696 -0.1511941341 0.082136219
165299010.0 -0.1621796658 0.076908432 0.5259634266 -0.1657753998 0.5261624999 -0.1656417393 -0.1494628461 0.0837686633
170298980.0 -0.1614900099 0.0779315668 0.5242469483 -0.1719134366 0.5243946158 -0.171790441 -0.1486305625 0.0847670857
175298950.0 -0.1609006905 0.0790228375 0.523406825 -0.178117036 0.5229679435 -0.1780423317 -0.1476144263 0.085834533
180298920.0 -0.1602048638 0.080230982 0.5214730989 -0.1844090669 0.5211199665 -0.1840921957 -0.1468167101 0.0872029609
185298890.0 -0.1589197592 0.0809952688 0.5194885103 -0.1904478589 0.5191742808 -0.1902805113 -0.145991445 0.0882768954
190298860.0 -0.1584751936 0.0824136037 0.5172357611 -0.1966498397 0.5174010373 -0.1968852235 -0.1449952237 0.0896277851
195298830.0 -0.1576599222 0.0833458872 0.5153807225 -0.2029993521 0.5155738925 -0.2028111555 -0.1438715621 0.0909093696
200298800.0 -0.1569464053 0.0846663443 0.5132681949 -0.2087921769 0.5135926561 -0.2090311055 -0.143429495 0.0926588731
205298770.0 -0.1560461186 0.0860378501 0.5110137576 -0.2152326082 0.5109357161 -0.2146884858 -0.1423441882 0.0930516767
210298740.0 -0.1552736694 0.0868660753 0.5086197634 -0.2206732722 0.5086449064 -0.2206699268 -0.140960354 0.0952337408
215298710.0 -0.1552043837 0.0884386436 0.5065569997 -0.2270379093 0.506142866 -0.2271824552 -0.1404298275 0.0960469372
220298680.0 -0.154190261 0.0893540941 0.503804913 -0.2326154407 0.50380831 -0.2326717203 -0.1397443695 0.0973547903
225298650.0 -0.1535280924 0.0907425258 0.5015833814 -0.238550509 0.5018184628 -0.2386443787 -0.1392239829 0.0988084122
230298620.0 -0.1525262594 0.0924305442 0.4991229664 -0.2443654489 0.499554301 -0.2443831429 -0.1378649399 0.1001391033
235298590.0 -0.1516486408 0.0935222445 0.4960824961 -0.2499758005 0.4966398354 -0.2496045646 -0.1369212071 0.1014315927
240298560.0 -0.1509670593 0.0949862114 0.493815657 -0.2562266256 0.4937161346 -0.2557427431 -0.1358115253 0.103225007
245298530.0 -0.1504873125 0.0961568081 0.4913655336 -0.2614720551 0.490941696 -0.2614944724 -0.1345031224 0.1037844639
250298500.0 -0.1491971637 0.0975745132 0.4878302557 -0.2676015757 0.4873982205 -0.2672059988 -0.1337060605 0.1055659074
255298470.0 -0.1484886229 0.0985732277 0.484549258 -0.2722055504 0.4852362562 -0.2725184014 -0.1326696137 0.1066757131
260298440.0 -0.1480293684 0.0997507984 0.4820703885 -0.2783417356 0.4821819153 -0.2782950642 -0.1313827466 0.1086387546
265298410.0 -0.1466365985 0.1017583849 0.4791413772 -0.2837022437 0.4794891426 -0.2832496862 -0.1304942229 0.1097417602
270298380.0 -0.1461901302 0.1030594667 0.4761375891 -0.2890874281 0.4763657038 -0.2891727607 -0.1295584815 0.1109346177
275298350.0 -0.1448888244 0.1040991833 0.4729973242 -0.2947881268 0.4734204075 -0.2947058025 -0.1280208346 0.1125344162
280298320.0 -0.1440275327 0.1056107616 0.4701210806 -0.3000016276 0.4698966224 -0.3002059682 -0.1268814262 0.1141077155
285298290.0 -0.143085851 0.1072252288 0.4669588088 -0.305529195 0.4666590822 -0.3052127445 -0.125795935 0.1151513828
290298260.0 -0.1417832653 0.1083532021 0.463546073 -0.310559176 0.463187928 -0.3106431189 -0.1245281269 0.1170088305
295298230.0 -0.1407925714 0.1096496264 0.4599953324 -0.3158982862 0.4597434205 -0.315730681 -0.1229465286 0.1179836618
300298200.0 -0.1404215472 0.1107970256 0.4569458016 -0.3209645348 0.4570322561 -0.3212164177 -0.1217829762 0.1192234678
305298170.0 -0.1390273262 0.1121965123 0.4526611081 -0.3267465621 0.4532343353 -0.3262145825 -0.1200439175 0.1205115386
310298140.0 -0.138260295 0.1138484138 0.4495863785 -0.3318188976 0.4495431317 -0.3313793866 -0.1190048715 0.1216975237
315298110.0 -0.1371736925 0.1147326468 0.4460599955 -0.3365552527 0.4460402642 -0.3367158611 -0.1177121871 0.1229192319
320298080.0 -0.1361264337 0.1159134105 0.4416655019 -0.3422574765 0.44205937 -0.341707705 -0.116619639 0.1241083727
325298050.0 -0.1353389237 0.1172994624 0.4385339683 -0.3469930057 0.4383612277 -0.3469485397 -0.1158549586 0.1255371295
330298020.0 -0.1344412695 0.1184113049 0.4342898463 -0.3516779464 0.4345828079 -0.3520399157 -0.1145877724 0.1269356875
335297990.0 -0.1331497692 0.119587602 0.4301581298 -0.3565059195 0.4302113088 -0.3571968697 -0.1135342696 0.1287392181
340297960.0 -0.1327533752 0.1212214658 0.4260576035 -0.3613016232 0.4257546584 -0.3618544531 -0.1120575626 0.1299836038
345297930.0 -0.1316057693 0.1227453847 0.4217216548 -0.3664078437 0.4218122268 -0.3662487419 -0.1108255415 0.1311029714
350297900.0 -0.1305050044 0.1237286697 0.4173179644 -0.3709010912 0.4172668906 -0.3706412007 -0.1099518151 0.1324959182
355297870.0 -0.1289977321 0.1258262938 0.4132552186 -0.3758279629 0.4139578582 -0.3751597047 -0.1082731687 0.1338161688
360297840.0 -0.1282423779 0.1268534023 0.4096381637 -0.3796192803 0.4099467961 -0.3798137563 -0.107036531 0.1354651781
365297810.0 -0.1275373872 0.1283486152 0.4053241906 -0.3844759035 0.4059434808 -0.3846326339 -0.1055044074 0.1366502375
370297780.0 -0.1257408423 0.1294786304 0.4007572018 -0.388652935 0.40119222 -0.3883345953 -0.1038279512 0.1378127673
375297750.0 -0.1244171808 0.1310442836 0.3964830232 -0.3930734765 0.3974382083 -0.393385937 -0.1024678074 0.1392607163
380297720.0 -0.1234215531 0.1321255626 0.3924024884 -0.3975149466 0.3926702019 -0.3970510694 -0.1014727978 0.1406018842
385297690.0 -0.1227679987 0.1336368483 0.3881640137 -0.4017175091 0.3877428937 -0.40180715 -0.0997499373 0.1417717944
390297660.0 -0.1212794098 0.1347234102 0.3834476381 -0.4061001967 0.3833136428 -0.4055916731 -0.098463616 0.1429155159
395297630.0 -0.1198249697 0.1364750457 0.379273536 -0.4101879985 0.3792884775 -0.4103381891 -0.0960439224 0.144290412
400297600.0 -0.1187133674 0.1376748907 0.3743874506 -0.4147306433 0.3746883318 -0.4144924908 -0.0949167432 0.1455238622
405297570.0 -0.1176407339 0.138750054 0.3700407339 -0.4184454121 0.3701980645 -0.4180235744 -0.0939560827 0.1466919205
410297540.0 -0.1161093528 0.1400255049 0.3656852635 -0.4225039439 0.3657232315 -0.4228315853 -0.091940264 0.1483963278
415297510.0 -0.1144663021 0.1411965123 0.3605773777 -0.4266153348 0.3611272353 -0.4266938655 -0.0905075054 0.1493324265
420297480.0 -0.1134454554 0.1426546974 0.3560789608 -0.4306846429 0.3561888402 -0.4306330108 -0.0889607019 0.1501748786
425297450.0 -0.1120311131 0.1434627515 0.3514448302 -0.4340670826 0.3518896351 -0.4343593902 -0.0876621572 0.1515898646
430297420.0 -0.1109057021 0.1447199455 0.3467255454 -0.4378859174 0.3467713 -0.4375688942 -0.0858445091 0.1524202746
435297390.0 -0.1095465388 0.1461083569 0.3416189781 -0.4417675626 0.3416514066 -0.4417246512 -0.0833744253 0.153606951
440297360.0 -0.1080254047 0.1474202381 0.3367618636 -0.4450264082 0.3372279262 -0.4455753454 -0.0826181392 0.1544186121
445297330.0 -0.1068578599 0.1482237264 0.3321246534 -0.4489345062 0.3322693124 -0.4487842273 -0.080572721 0.1551524876
450297300.0 -0.1049980624 0.1494863555 0.3270724864 -0.4526499384 0.3271635988 -0.4528143388 -0.0787126043 0.1565173996
455297270.0 -0.1035885075 0.150595664 0.3218990151 -0.4559493731 0.3226342871 -0.456399645 -0.0771706359 0.1573417319
460297240.0 -0.1026061368 0.1520736815 0.3170188178 -0.4595613357 0.3170384927 -0.4597523937 -0.0755990462 0.1583306466
465297210.0 -0.1007263051 0.1528996047 0.3122258633 -0.4629817607 0.3122033482 -0.4638311413 -0.0735871132 0.1591535243
470297180.0 -0.0993122057 0.1539805185 0.3066736364 -0.4665376678 0.3072249256 -0.4668041212 -0.0719388375 0.1604741996
475297150.0 -0.0980178649 0.1549194326 0.301998648 -0.4693272314 0.301935951 -0.4694749031 -0.0696432733 0.1610075396
480297120.0 -0.0964693529 0.1563140446 0.2966641862 -0.4732523416 0.296727676 -0.4734054008 -0.068167883 0.1621270579
485297090.0 -0.0949095634 0.1571795494 0.2912706408 -0.4758667475 0.2920135635 -0.4758489683 -0.0664781385 0.1632874438
490297060.0 -0.0939326732 0.1584125764 0.2867784128 -0.47924203 0.2866261713 -0.4792389396 -0.0646499324 0.1640996829
495297030.0 -0.0920342764 0.159378766 0.2809216912 -0.4823699681 0.2815390974 -0.4826094918 -0.0627891889 0.1651136139
500297000.0 -0.0904915257 0.1605609607 0.2756054457 -0.4851762307 0.2757230709 -0.4848922667 -0.060819709 0.1663993663
505296970.0 -0.0889270561 0.1613548628 0.2703440046 -0.4879717043 0.270315736 -0.4883414332 -0.0590855028 0.1667252374
510296940.0 -0.0871193339 0.1624063467 0.2651908036 -0.4912898676 0.2653327445 -0.4911631718 -0.0569442681 0.167726696
515296910.0 -0.0856248707 0.1634878351 0.2596638446 -0.4941356136 0.2600736451 -0.4941595658 -0.0553396045 0.1684948537
520296880.0 -0.0841419069 0.1644667676 0.2546288816 -0.4973114332 0.2547105863 -0.4968094712 -0.0536816279 0.1689154022
525296850.0 -0.0824647563 0.1650313786 0.2488488999 -0.4998669785 0.249371118 -0.4997847354 -0.0517212297 0.1702947503
530296820.0 -0.0808850113 0.1662459353 0.2431401588 -0.5021010453 0.2436689238 -0.5019828824 -0.0498698264 0.1708871372
535296790.0 -0.0797298711 0.1669840751 0.2381838996 -0.5045818804 0.2383304466 -0.5047485559 -0.0480384477 0.1710774586
540296760.0 -0.0779808767 0.1682722426 0.2326542231 -0.5074744808 0.2327793592 -0.5073507601 -0.0464763057 0.1722054146
545296730.0 -0.0763342749 0.168755919 0.2266485315 -0.5093961996 0.227093223 -0.5098130036 -0.0446376393 0.172950653
550296700.0 -0.0741343533 0.1700302376 0.2212864342 -0.512066843 0.2216278617 -0.5126769383 -0.042557897 0.1735264132
555296670.0 -0.073017873 0.1705941139 0.2161695517 -0.514339218 0.2161139088 -0.5144229991 -0.040763073 0.1742434278
560296640.0 -0.0713289424 0.1720421332 0.2103684306 -0.5172058562 0.2106416426 -0.5167529904 -0.0381643763 0.1747232561
565296610.0 -0.0699222476 0.1723679622 0.2041999287 -0.5191754352 0.2047549164 -0.5192945852 -0.0369457742 0.1752794007
570296580.0 -0.0683656033 0.1733108574 0.1990205849 -0.5218884288 0.198657256 -0.5214323239 -0.0350180591 0.1761277576
575296550.0 -0.0665892232 0.174335474 0.193235517 -0.5234438078 0.1935187868 -0.5235095429 -0.0328609298 0.1763713362
580296520.0 -0.0647251683 0.1748878817 0.1877395894 -0.5255063472 0.1879025628 -0.5257741083 -0.0309235865 0.176922134
585296490.0 -0.0631606201 0.1755642579 0.1822606073 -0.5272697702 0.1825961361 -0.5275326599 -0.0289636778 0.1772359715
590296460.0 -0.0610374566 0.1762444889 0.1764708467 -0.5285716 0.1764009524 -0.5292520314 -0.0277176686 0.1777743545
595296430.0 -0.0593030244 0.1772937066 0.1700944511 -0.5310068321 0.1703888664 -0.5313839384 -0.025099203 0.1778426188
600296400.0 -0.0581007356 0.1777587928 0.1645677895 -0.5329281579 0.1646602182 -0.5325844518 -0.0232949061 0.1784774685
605296370.0 -0.056321537 0.1786670648 0.1589905932 -0.5345247677 0.1590341774 -0.5345690858 -0.0211086353 0.1790379534
610296340.0 -0.054392203 0.1793985466 0.1526340544 -0.5365779766 0.1533573196 -0.5362257825 -0.0190858853 0.1791995929
615296310.0 -0.0523955371 0.1794693253 0.1472553468 -0.5377938678 0.1470040599 -0.5383182652 -0.016914964 0.1798186294
620296280.0 -0.0508014572 0.1801344202 0.1414643006 -0.5389225699 0.1413693985 -0.5392903064 -0.015525374 0.1801626997
625296250.0 -0.049212251 0.1805607726 0.1362442737 -0.5412657539 0.1355179282 -0.540886896 -0.012589937 0.1803762912
630296220.0 -0.0466856956 0.1816347512 0.1294671677 -0.5423470512 0.1295384337 -0.5423092609 -0.0108578593 0.1808384297
635296190.0 -0.0458631807 0.1819099308 0.1238289458 -0.5435382042 0.1241107374 -0.543642255 -0.0091048452 0.1810765208
640296160.0 -0.0439988206 0.1827572039 0.1181696813 -0.5449534742 0.1181511241 -0.5446683575 -0.0068769064 0.1812162288
645296130.0 -0.042000539 0.1834889388 0.1115672688 -0.5456390453 0.1123446924 -0.5461326842 -0.0045888587 0.1816448054
650296100.0 -0.0403417364 0.1836338823 0.1062931192 -0.5470547595 0.1065498502 -0.547100023 -0.002618882 0.1812519333
655296070.0 -0.0386661257 0.1840551394 0.100243534 -0.5480705282 0.1005304921 -0.5484490534 -0.0004345907 0.1818006581
660296040.0 -0.0369869354 0.1844535305 0.0942253227 -0.5489128332 0.0945335794 -0.54938177 0.0015803832 0.1820214091
665296010.0 -0.0348200373 0.1849808851 0.0883687123 -0.5505613807 0.0882698639 -0.550450217 0.0035182699 0.1826233173
670295980.0 -0.0339845955 0.1857527396 0.0826478297 -0.5508998583 0.0826657864 -0.5512132036 0.0049223907 0.1825825655
675295950.0 -0.0317267875 0.1862399897 0.0766170803 -0.5521649615 0.0769160017 -0.5516432636 0.0068386841 0.1825168093
680295920.0 -0.029928382 0.1864462606 0.0703104657 -0.5526582855 0.0702247921 -0.5533155571 0.0094291574 0.1833801248
685295890.0 -0.0279383181 0.187692727 0.064706781 -0.5531360428 0.0645818281 -0.5535223998 0.0115764411 0.1828497311
690295860.0 -0.0261932839 0.1874916524 0.0589076276 -0.5532296308 0.0587606122 -0.554314119 0.0132850258 0.1830938797
695295830.0 -0.0244058025 0.1878910067 0.053042266 -0.554493616 0.0527921294 -0.5545150157 0.0154032167 0.1830399856
700295800.0 -0.0223342362 0.1879459623 0.0464884051 -0.5548398185 0.046566914 -0.554850301 0.0170940521 0.1833267664
705295770.0 -0.020588397 0.1891603414 0.040358104 -0.5553664354 0.0409467919 -0.5558970428 0.019322653 0.1834118451
710295740.0 -0.018845123 0.1889224822 0.034734642 -0.5561905659 0.0351054189 -0.5560261711 0.0209373615 0.1824936389
715295710.0 -0.0173876567 0.1894583632 0.0292242597 -0.5563897834 0.0287081745 -0.5566028379 0.0233526618 0.1828085532
720295680.0 -0.015276396 0.1895669603 0.0228853366 -0.5567209946 0.0230360632 -0.5564446642 0.0253696133 0.1831477387
725295650.0 -0.0133882729 0.1900657695 0.0165598609 -0.5565728341 0.0168132082 -0.5570419531 0.0270171679 0.1827865504
730295620.0 -0.0112569191 0.1903803911 0.0107850641 -0.5565339126 0.0109438507 -0.5569786146 0.02901312 0.1826487543
735295590.0 -0.0097200868 0.1906514333 0.0047537909 -0.5573175894 0.0048802426 -0.5566884434 0.0310255421 0.1819809491
740295560.0 -0.0081500913 0.1909675664 -0.0013170481 -0.5567905838 -0.0010933743 -0.5571171803 0.0334650057 0.1821700393
745295530.0 -0.0064473284 0.1912970837 -0.0069902365 -0.5565732684 -0.0075378108 -0.5567312475 0.0356010094 0.1815331909
750295500.0 -0.0040221618 0.1913619509 -0.0129367407 -0.556555547 -0.0129856598 -0.5568936249 0.0372558844 0.1815576386
755295470.0 -0.0021989992 0.1912079275 -0.0190595094 -0.5564724184 -0.018944376 -0.5567121062 0.0396748176 0.1807738817
760295440.0 -0.0004699151 0.1916827555 -0.0253922772 -0.5561608081 -0.025357352 -0.5564643376 0.0411891937 0.1807636539
765295410.0 0.0015337687 0.1919622004 -0.0313996116 -0.5558978906 -0.0317472678 -0.556170285 0.043813925 0.1806994475
770295380.0 0.0028702232 0.1918703781 -0.0371850863 -0.5553923605 -0.0371744488 -0.5553404795 0.0455496448 0.1804545828
775295350.0 0.0050509768 0.1912717602 -0.043025398 -0.5544373368 -0.0427846287 -0.5551772266 0.0466727724 0.1801236586
780295320.0 0.0067717453 0.1921398677 -0.0489748159 -0.5546429433 -0.0488760451 -0.5543028789 0.049155872 0.1792449371
785295290.0 0.0084558777 0.1916247064 -0.0554710447 -0.5533512032 -0.0548062553 -0.5541027311 0.0516109328 0.1789641269
790295260.0 0.0110871473 0.1924254642 -0.0605830901 -0.5528634787 -0.0601982451 -0.552972776 0.0534724865 0.1785403814
795295230.0 0.0124900788 0.1922387329 -0.0671542437 -0.5521253692 -0.0666945046 -0.5523122984 0.0558213004 0.1782727035
800295200.0 0.0141981506 0.1921594752 -0.073293475 -0.5512825184 -0.0728024765 -0.5514015954 0.0575987752 0.1777585297
805295170.0 0.0164306306 0.1919268679 -0.0788040465 -0.5505480551 -0.0788262897 -0.5511213193 0.0593150357 0.177705749
810295140.0 0.0179337433 0.1917410516 -0.0843968965 -0.549388121 -0.0845782668 -0.5498123183 0.0618067576 0.1770391789
815295110.0 0.0199060876 0.191631091 -0.0908982376 -0.5482164302 -0.0903569851 -0.5489599717 0.0635498627 0.1764320684
820295080.0 0.021468102 0.1923423217 -0.0967262654 -0.5473800763 -0.0962272254 -0.5476238946 0.0653052354 0.1759002048
825295050.0 0.0240062129 0.1917457728 -0.1022382776 -0.5462739971 -0.1021685439 -0.5467547851 0.0678358727 0.1751476132
830295020.0 0.0256209081 0.1918973181 -0.108355792 -0.5453179815 -0.1081813384 -0.545142938 0.0700713082 0.1746402829
