!Created with skrf (http://scikit-rf.org).
# Hz S RI R 50.0 
!freq ReS11 ImS11 ReS21 ImS21 ReS12 ImS12 ReS22 ImS22
300000.0 -0.7729207408 -0.1676832356 0.0002284982 0.0008713828 0.0001036831 -0.0006812299 -0.7673577659 -0.1859456697
5299970.0 -0.7858995892 -0.0092465657 -8.95432e-05 4.23651e-05 -0.0001103624 -9.55405e-05 -0.7850843857 -0.0093548916
10299940.0 -0.789214723 -0.0055170419 -0.0001099142 -0.0001650831 -0.000148635 0.000196134 -0.7874698416 -0.0057028957
15299910.0 -0.7940868773 -0.0031879577 0.0001429801 -0.0001774059 1.3216e-06 7.6637e-06 -0.7926454137 -0.0027876793
20299880.0 -0.8010003844 0.0008470935 -4.38712e-05 -0.0001138383 9.20078e-05 5.85297e-05 -0.7998127203 0.0012600485
25299850.0 -0.8073235882 0.0067619013 -9.01417e-05 1.9404e-06 -6.96401e-05 -0.0001233681 -0.8061497533 0.0074818812
30299820.0 -0.8138604026 0.0136390244 -2.83415e-05 -0.000109343 0.0001870093 -0.0002463387 -0.8118912985 0.0157227535
35299790.0 -0.8191960314 0.0232062383 0.0001268933 0.0001051537 2.48112e-05 0.0001100757 -0.8170737034 0.0246277078
40299760.0 -0.8235518781 0.0320975414 -8.0853e-06 -7.61208e-05 -0.0001197668 -5.27166e-05 -0.8211278942 0.0340574127
45299730.0 -0.8268360739 0.0419882207 7.69665e-05 2.16245e-05 -7.78521e-05 -5.88687e-05 -0.8239740458 0.0438388394
50299700.0 -0.8290061749 0.0518570996 -6.2186e-05 1.55391e-05 5.397e-06 9.31259e-05 -0.8265637317 0.0539722012
55299670.0 -0.8310022866 0.0610988645 0.0003307069 -0.0001967282 -9.6451e-06 -0.000154084 -0.8285237469 0.0636940764
60299640.0 -0.8326077912 0.0721086249 8.8255e-05 -0.0001547428 0.0001051475 -0.0001349952 -0.8297558958 0.0739360044
65299610.0 -0.8339176578 0.0816878853 -6.69601e-05 4.47415e-05 -0.0001029028 5.02257e-05 -0.8301930021 0.0837165671
70299580.0 -0.833638756 0.0915384592 0.000168018 -2.69668e-05 3.20971e-05 -2.85055e-05 -0.8308981722 0.0935447651
75299550.0 -0.8336465395 0.1015155658 9.85672e-05 3.25084e-05 2.66421e-05 1.47924e-05 -0.8310583709 0.1041535871
80299520.0 -0.8332372029 0.1115848261 -0.0001742404 0.0002798672 0.0001768356 -1.92513e-05 -0.8306649753 0.1140174336
85299490.0 -0.8331733868 0.1209184894 0.0002169195 -9.24613e-05 7.58034e-05 -6.0461e-05 -0.8299716876 0.1232431784
90299460.0 -0.8322747317 0.131692586 1.49356e-05 -0.0001491893 -6.1307e-05 0.0001293821 -0.8286503247 0.1326018465
95299430.0 -0.8313155645 0.1402943183 -0.0001106849 1.41497e-05 -0.0001421143 -5.12022e-05 -0.8281350811 0.1429202104
100299400.0 -0.8305970615 0.1503861637 -9.44685e-05 -0.000103301 -6.5866e-05 6.74534e-05 -0.8270716421 0.1518506808
105299370.0 -0.8286059197 0.1591005908 -0.0002010121 -0.0001485001 -0.0001914656 -0.0001198927 -0.8260430202 0.1608032725
110299340.0 -0.8276651007 0.1685375745 -8.23e-07 -2.20516e-05 -9.67675e-05 -2.3577e-05 -0.8244202586 0.1697180108
115299310.0 -0.8258563619 0.1774877912 0.0001982641 5.3535e-06 -1.70677e-05 -0.000118958 -0.8231157412 0.1789303643
120299280.0 -0.8246121101 0.1870664295 -1.3512e-06 6.50477e-05 -2.7387e-06 7.39792e-05 -0.8212790728 0.1880959951
125299250.0 -0.822796493 0.195754777 -0.0001206385 -4.2008e-06 0.0001916223 0.0001440344 -0.8195651992 0.1972230083
130299220.0 -0.8212084015 0.2052947066 -2.53334e-05 -1.2296e-06 7.19975e-05 -0.0001307989 -0.8176233668 0.2060972367
135299190.0 -0.8182517787 0.2142680691 -1.20148e-05 0.0001857897 4.63387e-05 -0.0001847465 -0.816016176 0.2146790876
140299160.0 -0.8175287184 0.2234046662 -3.12431e-05 0.0002007255 6.8167e-06 -0.0001179112 -0.8140570474 0.2234199034
145299130.0 -0.8145541154 0.2323158205 -0.0001152448 -9.56176e-05 -0.0001069427 5.7412e-06 -0.8120296209 0.2325359332
150299100.0 -0.8117757816 0.2408679433 7.3471e-05 8.49031e-05 -0.0002052877 1.09115e-05 -0.809371402 0.2416720302
155299070.0 -0.8098579605 0.2505627177 0.0001209161 -2.75541e-05 0.0002057956 7.64032e-05 -0.8074464382 0.2504652446
160299040.0 -0.8075833468 0.2588549996 1.8768e-06 -1.55252e-05 -0.0001071004 -5.2726e-05 -0.804222874 0.2590847145
165299010.0 -0.8043909095 0.2672339506 0.000157503 1.46089e-05 -1.91307e-05 0.0001080345 -0.8015623925 0.2674775343
170298980.0 -0.801815361 0.2760680399 -7.70442e-05 0.0001461865 -0.0003017426 -2.44842e-05 -0.7993351794 0.2753149468
175298950.0 -0.7985716552 0.284642763 3.64753e-05 0.0002552439 -8.02533e-05 -0.0001728733 -0.7962300172 0.2846905684
180298920.0 -0.7960439004 0.2932174942 4.66197e-05 -0.000101666 -0.0002826366 -1.22652e-05 -0.7935655837 0.2934158452
185298890.0 -0.7925256252 0.3025295589 2.77518e-05 6.47946e-05 -9.67473e-05 -7.3792e-06 -0.7904485743 0.3017213533
190298860.0 -0.7895598811 0.3113163604 1.60147e-05 -0.0001269197 0.0001407528 0.0001794198 -0.78703648 0.3100783239
195298830.0 -0.786578757 0.3189638527 -5.31614e-05 -6.31506e-05 7.11955e-05 8.185e-07 -0.7841187998 0.3177849823
200298800.0 -0.7827850836 0.3277476791 -2.67172e-05 -6.08823e-05 -4.93465e-05 1.05864e-05 -0.7804872898 0.3264477896
205298770.0 -0.7792728859 0.3365337572 2.1773e-06 0.0002079121 5.81455e-05 -7.43784e-05 -0.7773463159 0.3350787064
210298740.0 -0.775803041 0.3444664037 -8.72849e-05 2.74649e-05 0.0002350679 -1.5602e-05 -0.773958454 0.3432020677
215298710.0 -0.7722488603 0.3535297645 0.0002289086 0.0002062666 0.0001477429 -0.0001870582 -0.7703072075 0.3513536357
220298680.0 -0.7690726934 0.3609436149 -0.0001242147 6.63474e-05 5.08404e-05 -0.0001602388 -0.7662497602 0.3593241495
225298650.0 -0.7648324088 0.3696669233 -4.66646e-05 -2.31532e-05 -0.0001012258 5.43213e-05 -0.7629017661 0.3679994525
230298620.0 -0.7607668563 0.3781310301 -1.63415e-05 -1.43398e-05 -0.0001537362 -7.309e-05 -0.7594942752 0.3757067158
235298590.0 -0.757069624 0.3855376323 0.000148346 0.0001354145 9.17761e-05 0.0001080901 -0.7548410191 0.3838203401
240298560.0 -0.752675299 0.3933106694 -0.0001153952 3.94054e-05 2.30469e-05 0.0001980125 -0.7510956764 0.3910442497
245298530.0 -0.7486237215 0.4018377678 0.0001349293 -6.1217e-05 0.0001789053 -0.0001523285 -0.7474908208 0.3990217138
250298500.0 -0.7446356937 0.4087172442 3.11567e-05 -2.88414e-05 8.60714e-05 3.11888e-05 -0.7426445515 0.4067282175
255298470.0 -0.740583933 0.4175801939 -1.93469e-05 1.25921e-05 -7.57221e-05 2.4507e-05 -0.7387379081 0.4148077304
260298440.0 -0.7361957338 0.4252955828 0.000201518 -6.14154e-05 4.19966e-05 -0.0001718672 -0.7338966614 0.4217695048
265298410.0 -0.7317045242 0.4325691708 7.13127e-05 1.0657e-05 -0.0001528859 0.0001704023 -0.7299722439 0.4298802063
270298380.0 -0.7269714791 0.4406818393 0.0002808123 -2.34595e-05 5.46434e-05 7.1332e-06 -0.7250222623 0.4382783665
275298350.0 -0.7230939885 0.4482195357 6.48711e-05 -0.0001260118 -2.57035e-05 3.54195e-05 -0.7201760275 0.4457562943
280298320.0 -0.7181505406 0.4556059613 -0.0001699794 0.0001845286 8.79849e-05 -2.98641e-05 -0.7162927927 0.4526314995
285298290.0 -0.7134823623 0.4636244507 -0.0001712182 0.0002583704 0.0001911644 -0.0001606818 -0.7120514456 0.4608109263
290298260.0 -0.7085883931 0.4706765958 2.50145e-05 7.73515e-05 0.0001759117 0.0002332353 -0.7065861108 0.467837145
295298230.0 -0.7036480433 0.4780995799 -0.0001787139 -0.0001178587 -6.3653e-05 -2.88404e-05 -0.701510823 0.4752909492
300298200.0 -0.6994434278 0.4851856527 1.00987e-05 0.0001726509 0.0001963312 8.13207e-05 -0.6966586976 0.4820961553
305298170.0 -0.694553628 0.4922326546 0.0003300344 6.36732e-05 0.0002521834 -3.22276e-05 -0.6910977599 0.4897290821
310298140.0 -0.688966114 0.4992271637 -0.0002786069 -9.41442e-05 -0.0001223907 0.0001497111 -0.6862110488 0.4971030131
315298110.0 -0.6846200515 0.5071175638 3.36481e-05 -0.0001593963 2.33686e-05 -0.0002054562 -0.6809915045 0.5039618174
320298080.0 -0.679018684 0.5142003216 5.80171e-05 -0.0001506604 1.21088e-05 -2.22807e-05 -0.6761808285 0.5101457443
325298050.0 -0.6737435086 0.5208968874 8.94191e-05 0.000180937 7.65213e-05 -8.00286e-05 -0.6702299625 0.517639285
330298020.0 -0.6684118435 0.5278320457 -6.69749e-05 -4.28531e-05 -0.000106529 5.01102e-05 -0.6650660592 0.5249798118
335297990.0 -0.6630612401 0.5346849567 -4.51964e-05 -0.0001155256 -0.0001116579 -2.91047e-05 -0.6593456746 0.5318273089
340297960.0 -0.6578255113 0.5414127628 7.72585e-05 4.52797e-05 -0.0001338437 -6.45638e-05 -0.6540915534 0.5382960473
345297930.0 -0.6516806258 0.5480701593 -6.97147e-05 0.000210469 -8.0977e-05 -9.86964e-05 -0.6488080282 0.5447557337
350297900.0 -0.6463385276 0.5549936105 -3.6998e-06 -1.8934e-05 -3.45708e-05 -2.181e-07 -0.6432790305 0.5510132403
355297870.0 -0.6403778545 0.5611285628 -0.0001231795 0.0001448007 -4.42093e-05 0.0001011688 -0.6366176132 0.5582407113
360297840.0 -0.6348341066 0.5673577041 -7.0603e-06 0.0002956276 -8.22038e-05 0.0001241067 -0.6303100525 0.5649698682
365297810.0 -0.628915288 0.5746522437 3.55166e-05 0.0002053873 0.000159661 0.0001661565 -0.6257557472 0.570495919
370297780.0 -0.6233443076 0.5804821732 -3.3608e-06 4.94739e-05 9.54611e-05 2.04419e-05 -0.6192956679 0.5778195399
375297750.0 -0.6175931008 0.5872129862 -0.0001944406 9.6778e-05 -2.74356e-05 -6.479e-05 -0.6136436135 0.5835758886
380297720.0 -0.612172449 0.5939362141 3.09308e-05 0.0001960773 -1.80924e-05 -3.13022e-05 -0.6068561773 0.5902356396
385297690.0 -0.6055628511 0.5994521097 -6.95712e-05 0.0001600536 6.62876e-05 -2.828e-07 -0.6014836548 0.5966029109
390297660.0 -0.5980785015 0.6054637462 -5.59337e-05 -4.83375e-05 -2.32133e-05 -0.0001566184 -0.5947992858 0.6022982195
395297630.0 -0.5925844616 0.6122962562 -5.3452e-05 6.74778e-05 -0.0001853902 1.15606e-05 -0.5880264898 0.6076834248
400297600.0 -0.5864250625 0.6182785193 -2.90968e-05 0.0003151333 -0.0001074439 1.11787e-05 -0.582875472 0.6141729243
405297570.0 -0.5805878938 0.6230930535 -3.51657e-05 -0.0001194221 -0.0001347814 3.41519e-05 -0.5752673255 0.6201170173
410297540.0 -0.5740163544 0.6295640894 6.08692e-05 -0.0001651865 2.74999e-05 -8.02451e-05 -0.5689237667 0.6262209859
415297510.0 -0.567736964 0.6355989387 -7.134e-05 0.0001023757 -0.0001064253 9.51108e-05 -0.5629862229 0.6316816197
420297480.0 -0.5601517971 0.6412877744 5.9469e-05 -6.19409e-05 -5.67264e-05 0.000134203 -0.5565200014 0.637954747
425297450.0 -0.554596529 0.6468161565 0.0001174131 3.20306e-05 -0.0001248719 -3.12462e-05 -0.549935065 0.6423164757
430297420.0 -0.5477347862 0.6514791856 5.05314e-05 -1.9293e-06 -4.68486e-05 5.66944e-05 -0.5432711601 0.6483662362
435297390.0 -0.5411575951 0.6576632147 -0.000215244 0.0002303878 -0.0001385527 -1.5177e-06 -0.5366518752 0.6544736426
440297360.0 -0.533860224 0.6626398969 -0.0002845207 -6.09156e-05 9.25516e-05 -8.80526e-05 -0.5303526806 0.6598226729
445297330.0 -0.5271141957 0.6681557249 -0.0001619181 -5.33336e-05 6.49949e-05 0.0001308717 -0.5228124794 0.6647719273
450297300.0 -0.5199827016 0.6735820809 4.85021e-05 0.0001509053 -3.49746e-05 4.10893e-05 -0.5156834523 0.6696862164
455297270.0 -0.5133737924 0.6786430083 -0.0001729289 8.44659e-05 -0.0001054242 0.0001215486 -0.5092106024 0.6749810253
460297240.0 -0.5064046283 0.6839691809 2.22613e-05 2.59674e-05 0.0001042626 -0.0001107601 -0.5026821165 0.6802099049
465297210.0 -0.4994961362 0.6887094157 3.61613e-05 0.0001074124 -6.36811e-05 -2.75225e-05 -0.4948107895 0.6859740368
470297180.0 -0.4921006884 0.6939588692 4.25779e-05 4.00977e-05 1.6854e-06 -0.0001455208 -0.4876846999 0.6902859927
475297150.0 -0.4844058234 0.6986368391 0.0002013067 8.87818e-05 -6.14929e-05 1.58518e-05 -0.480980458 0.6956702151
480297120.0 -0.4765566955 0.7040613382 -7.00763e-05 2.7623e-06 3.55522e-05 3.76409e-05 -0.4737639943 0.7001601436
485297090.0 -0.4699553058 0.7082257549 0.0002557574 -0.0002214313 2.3021e-05 5.48145e-05 -0.4668565717 0.7046289722
490297060.0 -0.4619478469 0.7138606336 0.0001264997 0.0001159118 -3.04292e-05 3.21193e-05 -0.4594361678 0.7088743873
495297030.0 -0.4549770126 0.7181805302 -0.0001369447 6.10067e-05 7.65705e-05 5.12972e-05 -0.4524119153 0.7136247956
500297000.0 -0.4471928175 0.7221523605 6.74999e-05 4.14806e-05 -7.53958e-05 -7.32941e-05 -0.4448800591 0.718604827
505296970.0 -0.4392232021 0.7268770163 1.51224e-05 -6.136e-07 4.23863e-05 4.53395e-05 -0.4372802984 0.7223403969
510296940.0 -0.4323084397 0.7313832378 8.0904e-05 -4.25231e-05 -9.10159e-05 -0.0001699165 -0.4300832792 0.7274134099
515296910.0 -0.4238983728 0.7355413308 -8.9734e-06 -0.0002803965 -9.8948e-06 -8.39824e-05 -0.4231421603 0.731053151
520296880.0 -0.4158869133 0.7397008665 7.93467e-05 -3.99489e-05 -0.0001732984 6.62534e-05 -0.4153964229 0.7355749488
525296850.0 -0.4086445967 0.7441698408 9.3569e-06 -0.0001353002 0.0001285823 -3.38377e-05 -0.4083114318 0.7399853009
530296820.0 -0.4013157937 0.747813515 3.2751e-05 -0.0001830991 -9.43466e-05 2.24836e-05 -0.4001222111 0.7435467551
535296790.0 -0.3925056857 0.7517320617 9.6053e-05 0.0001655514 5.15549e-05 -8.67462e-05 -0.392852232 0.7481710804
540296760.0 -0.3851157534 0.7564221775 6.88562e-05 0.0001220565 -0.0002085767 -1.58057e-05 -0.3851673562 0.7514724917
545296730.0 -0.3773508145 0.7606809331 -4.92169e-05 -0.0001898546 -7.10898e-05 0.0002794745 -0.3776299806 0.7554609395
550296700.0 -0.3692419322 0.7636633637 -9.23955e-05 -0.0002574632 0.0001227277 -1.06409e-05 -0.3697912428 0.7590570266
555296670.0 -0.3615912851 0.7673481977 -8.4368e-06 4.97985e-05 8.70054e-05 4.51055e-05 -0.3619978831 0.7622297717
560296640.0 -0.3529551715 0.7702580433 0.0001377259 0.0001848444 0.0002858609 0.0001823555 -0.3549171296 0.7664665367
565296610.0 -0.3455361152 0.7743873973 3.18498e-05 8.50732e-05 -5.70648e-05 -5.99144e-05 -0.3466289493 0.7701876216
570296580.0 -0.337460093 0.7781446742 -0.0001309922 -4.31044e-05 -1.31454e-05 9.72053e-05 -0.3388621661 0.7732487257
575296550.0 -0.3282736504 0.7812009533 -0.000151699 8.6499e-05 -0.0001288256 8.70136e-05 -0.3308744894 0.7766534047
580296520.0 -0.3210687062 0.7844773413 0.0001033731 0.0001540967 -2.52786e-05 6.20276e-05 -0.3237027669 0.7795779663
585296490.0 -0.3128666996 0.7876959841 -0.0001579691 -4.93486e-05 2.65924e-05 -2.64276e-05 -0.3155393007 0.7834128558
590296460.0 -0.3041838213 0.7905891669 -1.41968e-05 0.0001772707 -2.31786e-05 7.1142e-06 -0.3078332046 0.7852936385
595296430.0 -0.2957300007 0.7942622646 -8.75552e-05 2.37259e-05 0.0001695609 0.0001645398 -0.3000391641 0.7892722682
600296400.0 -0.2882064662 0.7965945987 -5.69247e-05 5.98597e-05 0.0002179881 -1.9039e-06 -0.2916036524 0.7916960314
605296370.0 -0.2799498956 0.7994204413 9.4426e-06 -0.0001086411 -5.71624e-05 -6.28204e-05 -0.2838168126 0.7956300786
610296340.0 -0.2715331128 0.8029468377 0.0001068403 5.60936e-05 -6.78734e-05 4.17278e-05 -0.2757612788 0.7974346871
615296310.0 -0.262844841 0.8054649409 -3.21647e-05 8.3234e-05 2.78132e-05 -1.78836e-05 -0.2673915225 0.8008269275
620296280.0 -0.255682119 0.8082924071 6.10077e-05 3.7176e-06 -0.0001513067 3.99667e-05 -0.2602582313 0.8033882699
625296250.0 -0.2473139969 0.8101396378 2.00846e-05 4.57353e-05 5.289e-05 -9.53925e-05 -0.2514100536 0.8052229189
630296220.0 -0.2386627136 0.8130350565 4.3316e-05 -3.22479e-05 -2.30916e-05 -0.0001714914 -0.2435818379 0.8080283962
635296190.0 -0.2304155714 0.8155465065 7.80772e-05 -0.0004522968 5.22567e-05 -0.0001687843 -0.2354810251 0.810004137
640296160.0 -0.2220501382 0.8177616015 2.08095e-05 1.10604e-05 -3.63025e-05 -0.0001987571 -0.227381535 0.8124947914
645296130.0 -0.2132762493 0.8202558176 1.95151e-05 -0.0001851608 0.0001487589 -1.08495e-05 -0.2196526563 0.8144435464
650296100.0 -0.2048205605 0.8219625172 -1.60984e-05 7.02768e-05 -5.60106e-05 -8.93843e-05 -0.2106398764 0.8168013606
655296070.0 -0.1976413489 0.8239828714 -4.62618e-05 -0.000137743 -2.11253e-05 9.06993e-05 -0.2031875432 0.8190376979
660296040.0 -0.1891194669 0.8263566022 6.30223e-05 -4.7365e-05 0.0001646653 6.70315e-05 -0.1942608555 0.8210031745
665296010.0 -0.1809891022 0.8284362305 4.14391e-05 0.0001124729 4.0666e-05 -5.1659e-05 -0.1857864516 0.8227079156
670295980.0 -0.1724790827 0.8304400501 8.99336e-05 -0.0001376497 -4.92229e-05 1.9242e-05 -0.1784087529 0.8242396906
675295950.0 -0.1635631807 0.8320315661 3.63034e-05 2.23209e-05 3.17129e-05 7.59342e-05 -0.1695109407 0.8262433742
680295920.0 -0.1562806696 0.8341222501 -7.69729e-05 -6.83311e-05 -4.34737e-05 0.0001189379 -0.1612169428 0.8277896738
685295890.0 -0.1471935862 0.8353497391 -3.0623e-06 -0.0001542474 8.18296e-05 0.0001160308 -0.1534232956 0.8296759343
690295860.0 -0.1392782083 0.8368273017 0.0003517685 -0.0002538889 0.0001005234 0.000109469 -0.1451490169 0.8313672846
695295830.0 -0.1306603636 0.8382916542 4.98139e-05 3.4812e-06 8.43918e-05 -5.23508e-05 -0.1367089765 0.8326742182
700295800.0 -0.1224668488 0.8397104219 -4.1804e-06 0.0001855195 -5.95912e-05 0.0001978973 -0.1280450695 0.8331300635
705295770.0 -0.1146911575 0.8409935708 2.24184e-05 5.02466e-05 -0.0001330946 -1.34282e-05 -0.1202252463 0.8357652594
710295740.0 -0.1068574944 0.8421312897 0.0001271585 0.0001530803 1.2793e-05 -5.07485e-05 -0.111353585 0.8362952582
715295710.0 -0.0975356679 0.8436060625 9.64334e-05 -0.0001269837 6.6269e-06 -8.89648e-05 -0.1031405987 0.8366015107
720295680.0 -0.088892241 0.8442314305 1.0446e-05 -0.0002961496 9.76754e-05 1.87429e-05 -0.0944134803 0.8376367335
725295650.0 -0.0816948275 0.8457223185 3.89174e-05 -0.0001179863 5.92724e-05 -0.0001217108 -0.0869954464 0.8390723829
730295620.0 -0.0734485804 0.8464250445 1.83306e-05 0.0002111958 4.09319e-05 -0.0001522338 -0.0788529977 0.8400259934
735295590.0 -0.0654404742 0.8476362079 0.0001387377 -0.0001031553 -6.19746e-05 9.88437e-05 -0.0694051928 0.840011543
740295560.0 -0.0575173965 0.8474059302 1.87922e-05 0.0002430781 -9.71546e-05 7.57464e-05 -0.061619278 0.8413295489
745295530.0 -0.0488532739 0.8487091694 -5.30138e-05 -0.0003081622 5.75305e-05 6.629e-05 -0.0536382858 0.8418464721
750295500.0 -0.0404201711 0.8491400763 -0.000197031 -3.16093e-05 -0.0001423722 0.0002580676 -0.0446280854 0.8421438466
755295470.0 -0.0320531093 0.8497537374 -5.84412e-05 -4.20976e-05 3.78917e-05 8.01602e-05 -0.0363603875 0.842787974
760295440.0 -0.0240058992 0.8511268621 9.85287e-05 4.40997e-05 4.59984e-05 -7.55465e-05 -0.0280746089 0.8426897873
765295410.0 -0.0161024001 0.8501342456 -7.9933e-06 0.0001156152 -0.0001092082 -7.83037e-05 -0.0196366673 0.8432784796
770295380.0 -0.0076980105 0.8508604278 1.86301e-05 3.73843e-05 -0.0002333433 -7.50111e-05 -0.0112886348 0.8431241737
775295350.0 -0.0001801601 0.8509986733 -6.26065e-05 1.01979e-05 -2.93349e-05 -5.24961e-05 -0.0033389655 0.8431726912
780295320.0 0.0087098545 0.8507837864 4.7332e-06 -0.0001143884 -0.0001846074 0.0001109935 0.005540347 0.8433109042
785295290.0 0.0172383843 0.8511112665 0.0001190613 9.32101e-05 -5.65378e-05 -1.78853e-05 0.0135056614 0.8434834098
790295260.0 0.024601579 0.850752644 -8.611e-06 -9.0239e-05 3.70585e-05 -0.0001649836 0.0222116739 0.8435632515
795295230.0 0.0333689495 0.8505284358 -9.58481e-05 5.63784e-05 -2.531e-06 -1.02995e-05 0.0300124561 0.8423060873
800295200.0 0.0408585559 0.8504673684 -0.0001397736 4.94219e-05 -7.91599e-05 -0.0001192005 0.0384240929 0.8420488273
805295170.0 0.0493012283 0.8507235054 9.32194e-05 0.0001700716 -0.0001240775 7.13309e-05 0.0474008615 0.8419697213
810295140.0 0.0575667275 0.850370039 4.58511e-05 -7.4859e-06 9.41447e-05 0.0002018752 0.0554693323 0.8412129124
815295110.0 0.0653567245 0.849542123 0.0001296407 0.0001277233 -5.55856e-05 0.0001696287 0.0633377216 0.8408323812
820295080.0 0.073740747 0.8488331662 1.6631e-05 0.0001448483 0.0001730955 8.8824e-06 0.0716293162 0.8402639188
825295050.0 0.0821864914 0.8478005788 6.4401e-06 -0.0001420849 2.72472e-05 2.1555e-05 0.0801175751 0.8396732907
830295020.0 0.0907037436 0.847557448 8.23798e-05 0.0001795429 1.0136e-06 -3.8731e-06 0.0882375644 0.8381467631
835294990.0 0.0982692558 0.8465700703 4.94458e-05 -0.0001109083 3.64535e-05 5.40131e-05 0.0969337816 0.8379102938
840294960.0 0.1065170832 0.8451537633 4.4316e-06 -0.0002417793 6.12058e-05 -0.0001167533 0.1054776091 0.8364357015
845294930.0 0.1148516241 0.8448624134 2.85622e-05 2.42068e-05 -6.79587e-05 5.05153e-05 0.1139517271 0.8355434936
850294900.0 0.1239846583 0.8432936024 0.0001223294 0.0001074095 0.0001125611 7.86207e-05 0.1211338747 0.8346121122
