!Created with skrf (http://scikit-rf.org).
# Hz S RI R 50.0 
!freq ReS11 ImS11 ReS21 ImS21 ReS12 ImS12 ReS22 ImS22
300000.0 -0.047852735 -0.0770275227 -0.0002099327 0.0009492009 0.0004210873 0.0016506039 -0.7601548183 -0.2033412025
5299970.0 -0.050307873 0.0143000222 -0.0001472988 -0.0001279082 -6.88345e-05 0.0001390097 -0.784522934 -0.010042842
10299940.0 -0.0445315849 0.0324914109 0.0003018857 -5.08442e-05 -7.19203e-05 -9.00928e-05 -0.7870167561 -0.0058720641
15299910.0 -0.0355897884 0.0473094724 2.05576e-05 -4.184e-07 8.69223e-05 7.29793e-05 -0.7921842917 -0.0025997681
20299880.0 -0.0258780775 0.0592147335 -0.0001435552 0.0001860504 0.0001141415 -1.03746e-05 -0.7990599482 0.0017287312
25299850.0 -0.0142333852 0.0685494685 0.0002117157 0.0001172522 8.5817e-06 0.0001676316 -0.8058097946 0.0076114195
30299820.0 -0.0026171512 0.0754201858 8.46901e-05 6.70072e-05 4.31914e-05 -0.000139559 -0.8113683236 0.0157349893
35299790.0 0.0091866225 0.0798305519 -7.44344e-05 4.42546e-05 5.94663e-05 -0.0001703705 -0.8168670977 0.0249181773
40299760.0 0.0207219931 0.0826192827 -5.37645e-05 0.000153775 -3.72485e-05 0.0001475861 -0.8206603555 0.0335350031
45299730.0 0.0315351231 0.0837799807 0.0001075394 2.00779e-05 -4.25118e-05 -8.21513e-05 -0.8240639775 0.0437608236
50299700.0 0.0417143741 0.083650959 1.62442e-05 0.0001009098 0.0001465156 0.0001640149 -0.8259984362 0.0537960677
55299670.0 0.0512385073 0.0826491515 -0.0001408858 -2.1643e-05 -1.52943e-05 -3.6407e-05 -0.828243679 0.0634721828
60299640.0 0.0596989592 0.0807233191 -7.72538e-05 0.0004076595 -1.46742e-05 -1.22717e-05 -0.8288430037 0.0743653565
65299610.0 0.0678717995 0.0780188879 -0.0002388163 -3.5046e-06 4.20862e-05 -3.82754e-05 -0.8299600515 0.0840342895
70299580.0 0.0742572046 0.0748430066 0.0001959461 0.0001021448 0.0001122372 9.16968e-05 -0.8308848287 0.0939371067
75299550.0 0.0808134303 0.0716656502 3.52364e-05 0.0001871139 -0.0002036685 4.82004e-05 -0.8303630044 0.1040168208
80299520.0 0.0868230224 0.0679327977 -2.52056e-05 -0.000113358 -5.43718e-05 1.2176e-06 -0.830626447 0.1140566641
85299490.0 0.0921330242 0.0641178957 0.0001583476 -4.68543e-05 -0.0002223405 9.9119e-06 -0.8294870609 0.1231326503
90299460.0 0.0968487051 0.0600404585 5.58455e-05 3.13441e-05 1.45813e-05 -8.07414e-05 -0.8286928702 0.1324871016
95299430.0 0.1007593637 0.0562950678 -8.12956e-05 2.36568e-05 0.0001677417 4.86299e-05 -0.8274294552 0.1425579532
100299400.0 0.1045439705 0.0521047263 9.03738e-05 7.46469e-05 0.0001974621 -0.0001513927 -0.8266969681 0.1518744034
105299370.0 0.1080130166 0.047924213 9.63395e-05 2.52638e-05 -2.41911e-05 2.32669e-05 -0.8255875645 0.1608740487
110299340.0 0.1108750159 0.04377423 0.000216436 2.28293e-05 5.40789e-05 -0.0001680926 -0.8241261016 0.1693993944
115299310.0 0.1134139219 0.0400261922 0.0001535787 -5.85555e-05 -3.64893e-05 4.16516e-05 -0.8226760752 0.1792447958
120299280.0 0.1159237091 0.0360725071 0.0001626119 8.0827e-05 0.0001013017 -1.91525e-05 -0.8205540348 0.1880154973
125299250.0 0.1173418949 0.0320810716 0.0001182176 -7.22295e-05 0.0001190715 7.07882e-05 -0.8189867176 0.1973170742
130299220.0 0.1195256018 0.0281536157 -8.71484e-05 0.0001811485 -0.0001137428 0.0001010889 -0.8170965585 0.2056838206
135299190.0 0.1209556991 0.0244058734 4.23327e-05 0.0002005513 4.91142e-05 -3.73022e-05 -0.8155501032 0.2148269664
140299160.0 0.1221775689 0.0207644359 0.0001542368 0.0002441031 6.04475e-05 9.9289e-05 -0.8133757468 0.2233664111
145299130.0 0.1234766178 0.0173943233 5.72597e-05 -9.749e-07 -1.4955e-05 4.41528e-05 -0.8117759262 0.2324838934
150299100.0 0.1244322208 0.0137480321 -6.16672e-05 -0.0002721602 1.10304e-05 -1.9848e-06 -0.809324564 0.241863735
155299070.0 0.1250609675 0.0107060287 1.02674e-05 -9.5179e-06 0.0001946981 -0.0001176838 -0.8067796727 0.2506128371
160299040.0 0.1254867697 0.0072512673 -1.1426e-05 0.0001610219 0.0001345797 6.38606e-05 -0.8040327292 0.2590652325
165299010.0 0.1261563305 0.0041946808 -5.46032e-05 9.72284e-05 0.0002123566 7.56235e-05 -0.8014146805 0.2674856451
170298980.0 0.1263707656 0.0006333692 5.41495e-05 0.0001232283 -1.42787e-05 9.40602e-05 -0.79924279 0.2756102042
175298950.0 0.1269023849 -0.0023893981 6.06985e-05 0.0001183213 7.76522e-05 -1.70466e-05 -0.7959484815 0.2848341255
180298920.0 0.1268550432 -0.0053289807 -4.37487e-05 -7.4145e-06 -6.6481e-05 4.77065e-05 -0.7928893072 0.2935212114
185298890.0 0.12708119 -0.0083845664 -8.39512e-05 0.0001190404 -2.13894e-05 1.52462e-05 -0.7902357948 0.3016886932
190298860.0 0.1268403584 -0.0110383726 8.85071e-05 8.54914e-05 0.0001344932 -0.0001883849 -0.7868247666 0.3100669742
195298830.0 0.1269097562 -0.0136549628 -0.0002485422 -3.89279e-05 0.0001522407 2.05004e-05 -0.7840603549 0.3182078236
200298800.0 0.1269285422 -0.0166457681 5.47647e-05 -1.2582e-05 -2.48611e-05 0.000131796 -0.7804747096 0.3265750868
205298770.0 0.1259685403 -0.0192088424 -2.58366e-05 0.0002629688 0.0001103374 0.0001320895 -0.7774125608 0.3355715167
210298740.0 0.1260723946 -0.0219909195 0.0001839285 0.0001364456 -0.0001523217 2.5681e-06 -0.7735735419 0.3431659159
215298710.0 0.1255005593 -0.0241657413 8.80343e-05 2.43851e-05 0.0001299651 0.0001076028 -0.7701626348 0.351320353
220298680.0 0.1254283278 -0.0271145902 0.0001688763 3.88361e-05 -3.17702e-05 -9.38148e-05 -0.7666092866 0.3595564057
225298650.0 0.1247755849 -0.0293290658 2.60873e-05 0.0002044132 8.905e-06 7.4752e-05 -0.762813974 0.3678159366
230298620.0 0.1240817246 -0.0315069015 8.7282e-06 -7.13725e-05 0.0001801315 5.78022e-05 -0.7589297817 0.375813406
235298590.0 0.1233876707 -0.0340096508 -4.46655e-05 -3.06593e-05 2.3676e-06 -1.35481e-05 -0.755052422 0.3833611105
240298560.0 0.1226539093 -0.0362897716 0.000126249 3.83373e-05 -7.46018e-05 0.0001305072 -0.7511463455 0.3906296732
245298530.0 0.1219532822 -0.0385542149 -0.0001831077 0.0001061782 -0.0001736661 0.0001015531 -0.747039191 0.3989733223
250298500.0 0.1212453385 -0.0407392272 -6.65805e-05 -1.90785e-05 0.0002389848 0.0001192379 -0.7427341596 0.4073809998
255298470.0 0.1207312894 -0.0428145606 -8.83369e-05 0.000163831 7.91236e-05 -2.84094e-05 -0.7383656103 0.4144479165
260298440.0 0.1197459422 -0.0450314475 -9.42054e-05 -3.18826e-05 -0.0001662997 -7.9441e-06 -0.7335149164 0.4223560671
265298410.0 0.1188133372 -0.0470859684 9.56167e-05 5.941e-07 4.17082e-05 5.6224e-06 -0.7295420053 0.4302034896
270298380.0 0.1177586235 -0.0493415657 2.05831e-05 4.13954e-05 0.0002318193 -0.0001016038 -0.7248315524 0.4380327644
275298350.0 0.1169258878 -0.0510103823 7.72511e-05 5.57135e-05 3.1551e-06 -1.14587e-05 -0.7198727465 0.4455811706
280298320.0 0.1159560853 -0.0527849674 0.0001612284 6.92378e-05 9.02267e-05 2.80567e-05 -0.7161633683 0.4531492655
285298290.0 0.1152203793 -0.0548083699 -7.48421e-05 0.0001729097 4.09791e-05 6.0305e-05 -0.7119068791 0.4609589939
290298260.0 0.1140140729 -0.0564768773 4.53259e-05 0.0002503067 7.52492e-05 9.18192e-05 -0.7060844699 0.4677082433
295298230.0 0.1129222657 -0.0586169792 -0.0001453741 1.66851e-05 -6.78353e-05 -1.11247e-05 -0.701561941 0.4748626843
300298200.0 0.1119659907 -0.0602127848 0.0002058236 0.0001145116 0.0001872921 3.84569e-05 -0.6968713355 0.4822881197
305298170.0 0.1110569461 -0.0622032296 0.0001111007 2.60437e-05 0.0001603139 8.14721e-05 -0.6910524075 0.4892847907
310298140.0 0.1097132123 -0.0646035297 0.0002377392 -0.0001023767 -0.0001251809 0.0002867703 -0.6857895634 0.49719408
315298110.0 0.1083821517 -0.0665881319 -3.08968e-05 0.0001749412 0.0001865039 1.81806e-05 -0.6807794583 0.5038631519
320298080.0 0.1070690609 -0.0682923723 0.0001072926 5.71084e-05 0.0001325488 0.0001855852 -0.6764023827 0.5107167411
325298050.0 0.1052965902 -0.0704518001 8.73722e-05 0.0002132872 -7.51266e-05 -1.20316e-05 -0.6700724894 0.5180446823
330298020.0 0.1039091158 -0.0714748503 5.33748e-05 1.25819e-05 0.0001533707 8.23334e-05 -0.6647097867 0.5247366395
335297990.0 0.1023515379 -0.072849607 1.83087e-05 0.0001691412 0.000244361 5.23384e-05 -0.6593099223 0.5316279872
340297960.0 0.1010031814 -0.0745110933 -2.06033e-05 -1.35877e-05 0.0001268742 3.78554e-05 -0.6538483797 0.5382989628
345297930.0 0.099649449 -0.0760846807 -2.74872e-05 0.0001210076 -3.86393e-05 4.8856e-05 -0.6485528732 0.545104992
350297900.0 0.0982504426 -0.0777282275 -0.0001060035 -0.0001611441 0.0001873878 0.0001159524 -0.6425152542 0.5510992449
355297870.0 0.0968788373 -0.0788865933 0.0001445002 -3.08626e-05 -2.80528e-05 1.94447e-05 -0.6367352926 0.5590071635
360297840.0 0.0953403993 -0.08009466 4.81974e-05 -8.88802e-05 0.0001614128 -5.76009e-05 -0.6298538681 0.5649386845
365297810.0 0.0941500217 -0.0816321769 7.28362e-05 -2.53242e-05 -5.90962e-05 0.0002144491 -0.6252314123 0.5711116852
370297780.0 0.0924491945 -0.0828669243 7.49318e-05 -4.43502e-05 6.98504e-05 9.81951e-05 -0.6194136845 0.5779299258
375297750.0 0.0910670433 -0.0840764356 0.0001263589 3.99495e-05 9.66749e-05 0.000103932 -0.6129879986 0.5840015456
380297720.0 0.0899720983 -0.0849772349 0.0001681946 -4.1791e-06 5.94949e-05 0.0001793738 -0.6064248615 0.5905059159
385297690.0 0.0882802615 -0.086812648 0.0001073383 6.8583e-05 0.000291679 -0.0001610368 -0.6012166474 0.5960410013
390297660.0 0.086833715 -0.0881233031 -6.53442e-05 -2.82972e-05 0.0001235389 0.0001080882 -0.594479188 0.602178265
395297630.0 0.0855366277 -0.0892340168 8.93023e-05 0.0001748771 3.68254e-05 2.86553e-05 -0.5879488889 0.6077461513
400297600.0 0.08368275 -0.0905631269 -4.3153e-06 -4.02782e-05 -6.8544e-06 0.000140899 -0.5824874381 0.6144695462
405297570.0 0.081924197 -0.0920044594 -2.7515e-05 0.0001270604 2.8889e-06 -9.5005e-06 -0.5752719794 0.6201104501
410297540.0 0.0810943206 -0.0928358095 8.65478e-05 -5.21165e-05 0.0001052874 -2.78889e-05 -0.5687572972 0.6262680221
415297510.0 0.0793634062 -0.0941571415 0.0001224935 9.87307e-05 0.0001258389 9.99918e-05 -0.5633225921 0.631541807
420297480.0 0.0778227914 -0.0954499207 0.00014849 -0.0001536421 0.0001313946 1.1395e-05 -0.555832055 0.6379978658
425297450.0 0.0765798415 -0.096216967 0.0001187569 0.0001369363 0.0002072215 0.0001528091 -0.549605119 0.6425691218
430297420.0 0.0746866378 -0.0975987877 0.0001021613 -0.0001399434 0.0002821695 0.0001097777 -0.5428879883 0.6490249664
435297390.0 0.0730572553 -0.0986006304 0.0001160091 -4.0997e-05 0.0001521555 0.0002341987 -0.5365493474 0.6541730701
440297360.0 0.0718015947 -0.0995402669 0.0001664223 2.71466e-05 0.0002303599 -7.54727e-05 -0.5303555055 0.659305765
445297330.0 0.0703834194 -0.100732564 -3.67806e-05 4.07258e-05 -1.50399e-05 1.71103e-05 -0.5227836984 0.6649805855
450297300.0 0.0688841674 -0.1017983604 9.49156e-05 8.60826e-05 -8.6336e-06 0.0001958859 -0.5159818221 0.6698598651
455297270.0 0.0669406512 -0.1026239977 7.49532e-05 1.63568e-05 3.0611e-05 2.00573e-05 -0.5088475502 0.6755251608
460297240.0 0.0657830414 -0.1035589052 8.0462e-05 4.76945e-05 0.0002792483 -2.35691e-05 -0.5020605433 0.6803591591
465297210.0 0.0641392212 -0.1042242947 -0.0001198957 7.17662e-05 0.0001848403 3.41094e-05 -0.4949194182 0.6865789497
470297180.0 0.0624069432 -0.1051459575 1.33869e-05 2.52902e-05 -1.73744e-05 0.0001172924 -0.4876960749 0.6900672618
475297150.0 0.0606846416 -0.1058189116 8.69235e-05 -3.92854e-05 0.0002537561 6.7654e-05 -0.4808238778 0.6955592635
480297120.0 0.0597172348 -0.1070530464 5.10405e-05 -9.03602e-05 0.0001224941 -9.60835e-05 -0.4744411179 0.6998962038
485297090.0 0.0579157296 -0.1076733214 -6.25793e-05 -8.117e-06 -4.01957e-05 0.0001728932 -0.46690994 0.7052416987
490297060.0 0.0567042241 -0.1085225413 1.25737e-05 -4.2785e-05 0.0001807847 -2.95137e-05 -0.4594197371 0.7089062756
495297030.0 0.0549347434 -0.109058025 -5.56184e-05 0.000101764 0.0001626477 3.86826e-05 -0.4527009098 0.7138527347
500297000.0 0.0533535089 -0.1098579791 5.30676e-05 0.0001169212 0.0001400759 -5.98445e-05 -0.4451630762 0.7188408641
505296970.0 0.0521946876 -0.110814988 0.0001978676 0.0001997136 -0.0001219895 5.93661e-05 -0.4373793341 0.7227844507
510296940.0 0.0506315185 -0.1111015719 0.000174324 0.0001511915 0.0001955202 0.0002186553 -0.4303082389 0.7275801701
515296910.0 0.0485336062 -0.1116269542 9.17504e-05 8.33744e-05 2.8544e-06 1.04794e-05 -0.4233262761 0.7316253156
520296880.0 0.0473695205 -0.1126276163 0.0002111476 -7.48348e-05 2.98328e-05 -0.0001131115 -0.4151600068 0.7360213706
525296850.0 0.0456746131 -0.1131743982 9.40263e-05 6.72616e-05 0.0002608026 0.0001170783 -0.4076298612 0.7403176664
530296820.0 0.0442363634 -0.1134762742 0.0002572326 -0.0001080564 0.0001817505 6.24945e-05 -0.400241728 0.7433729966
535296790.0 0.0428353009 -0.1140242296 0.0001214153 6.178e-05 0.0003000835 4.51146e-05 -0.3930473587 0.748530462
540296760.0 0.0411600072 -0.1148232887 7.44178e-05 -0.0001646403 4.90135e-05 -5.34631e-05 -0.3845642418 0.7515956966
545296730.0 0.0391790997 -0.1149975136 1.64495e-05 -3.02669e-05 0.0002114475 4.39715e-05 -0.3777822058 0.7555568184
550296700.0 0.0378168174 -0.1151325496 -4.49806e-05 7.45492e-05 -7.5e-09 0.0002152072 -0.3700114938 0.7595232516
555296670.0 0.0362329223 -0.1159385775 0.000214451 0.0001451208 0.0001730134 0.0001166889 -0.3624345202 0.7625450644
560296640.0 0.0349083978 -0.1161141054 9.76941e-05 0.000124056 8.96656e-05 0.0001575579 -0.354550334 0.767135472
565296610.0 0.0328665661 -0.1164028967 0.0001618419 -0.0001664169 0.0001680287 -8.0666e-05 -0.3460809401 0.7698769112
570296580.0 0.0313777308 -0.1166509397 0.0001647698 -4.767e-06 7.99165e-05 -9.77232e-05 -0.3391673242 0.7729067959
575296550.0 0.0297082104 -0.1169912713 0.0001412201 4.64468e-05 9.96604e-05 2.97455e-05 -0.3307744741 0.7762996679
580296520.0 0.0282864862 -0.1166337954 0.0001497173 7.57831e-05 0.0002134128 7.28803e-05 -0.3237954402 0.7796509425
585296490.0 0.0267002909 -0.1170172207 0.000184051 -5.46977e-05 0.0001828581 -1.69366e-05 -0.3154858218 0.7832188111
590296460.0 0.0252018779 -0.1171621424 0.0001715505 6.67145e-05 0.0001986672 -3.09635e-05 -0.3071666583 0.786225617
595296430.0 0.0233061529 -0.1175323777 4.7761e-06 -0.0001586089 0.00011514 -3.91078e-05 -0.3000063138 0.789265938
600296400.0 0.0217298256 -0.1175982336 0.0002279715 1.6318e-06 6.31491e-05 -0.0001953547 -0.2920466236 0.7915380761
605296370.0 0.0200199567 -0.1174709332 0.0001006381 -6.179e-05 9.8806e-05 0.0001594744 -0.2837736525 0.7955344412
610296340.0 0.0187038721 -0.1177830445 0.0001305 0.0001957278 0.0001397364 6.84044e-05 -0.2761212775 0.7981055512
615296310.0 0.0172817654 -0.1175562045 0.0001082704 5.48218e-05 8.09748e-05 8.75041e-05 -0.2671284829 0.8009596172
620296280.0 0.015305965 -0.1173291735 0.0002042698 -1.8561e-06 0.0003056068 8.64767e-05 -0.2596864029 0.8032518107
625296250.0 0.0135591351 -0.1174995468 0.0002924159 4.88494e-05 1.36755e-05 -0.0001333488 -0.2518205068 0.8048021242
630296220.0 0.012096671 -0.1174039541 0.0001172497 3.13817e-05 6.253e-05 0.000107232 -0.2436177685 0.8081433984
635296190.0 0.0100346877 -0.1172449086 -7.32328e-05 5.1476e-05 6.46932e-05 0.000263964 -0.2358769704 0.8099351622
640296160.0 0.0086571875 -0.1172962766 0.0003360518 7.55409e-05 1.47616e-05 -4.49732e-05 -0.2272218669 0.8128795967
645296130.0 0.0073625252 -0.1171291831 0.0002540806 0.0002042986 4.16094e-05 8.177e-07 -0.2198159464 0.8144239196
650296100.0 0.0054434047 -0.1171877697 1.47567e-05 -4.84638e-05 0.0001277258 -0.0001015815 -0.2105655246 0.816955818
655296070.0 0.0035963975 -0.1168658061 0.0004589576 -2.18349e-05 0.0001050533 -3.66487e-05 -0.2026371866 0.8191409895
660296040.0 0.0018149063 -0.116463788 0.0001059617 -7.72361e-05 0.0002050139 5.05281e-05 -0.1943134228 0.8208458156
665296010.0 0.00039997 -0.1160917073 0.0001444422 -2.89232e-05 0.0002783045 6.63369e-05 -0.1861849145 0.8230575949
670295980.0 -0.0012805898 -0.1160299699 0.0001075789 0.0001507376 0.0002066869 2.77827e-05 -0.1785052671 0.8241180249
675295950.0 -0.003390694 -0.1156675265 5.99736e-05 8.4628e-06 9.46495e-05 3.3247e-06 -0.1697396878 0.8265739471
680295920.0 -0.0049730224 -0.1153260278 0.0001651107 -0.0001339456 5.22493e-05 9.65932e-05 -0.1611130603 0.8273778268
685295890.0 -0.006246809 -0.1148814843 0.0001942792 -2.64326e-05 0.0002346255 -1.19904e-05 -0.1531999311 0.8297064518
690295860.0 -0.0080035337 -0.1146759407 6.19448e-05 -0.0001273701 0.0002516164 -3.41123e-05 -0.1448252181 0.8312102522
695295830.0 -0.0097517542 -0.1144221224 9.21507e-05 -7.31453e-05 0.0002394488 -3.34523e-05 -0.136751258 0.8328022094
700295800.0 -0.0113979886 -0.1139081581 0.0002268867 3.35541e-05 4.02875e-05 3.84908e-05 -0.1284538508 0.8334453319
705295770.0 -0.0131235496 -0.1135148954 -4.77725e-05 -5.54157e-05 0.0001000379 -1.53016e-05 -0.1198580542 0.8352845172
710295740.0 -0.0148866314 -0.1132730201 0.0002158362 8.9206e-06 0.0002937372 9.91667e-05 -0.1115664512 0.8361482111
715295710.0 -0.0164399929 -0.1124130657 -1.11561e-05 4.47527e-05 0.0002833023 8.77203e-05 -0.1029250948 0.836649324
720295680.0 -0.0180067514 -0.1122867286 0.0003850876 9.33726e-05 0.0001917065 -4.28788e-05 -0.0944803088 0.8376913914
725295650.0 -0.0199552942 -0.1114316619 1.2091e-05 -4.19604e-05 8.15568e-05 -7.33785e-05 -0.0870765019 0.8391362788
730295620.0 -0.0219109663 -0.1112327796 2.82752e-05 -8.78858e-05 0.0002828424 3.44302e-05 -0.0790092079 0.8400892663
735295590.0 -0.0233893675 -0.1104050091 -6.64314e-05 -0.000207345 -3.88408e-05 -1.23237e-05 -0.0695311964 0.8405475648
740295560.0 -0.0252169324 -0.109882469 0.0002338061 -3.36762e-05 0.0001293486 -6.3913e-06 -0.0615600959 0.8415929302
745295530.0 -0.0265062793 -0.10942481 8.49975e-05 4.1335e-05 0.0001055998 -8.93502e-05 -0.0532192898 0.8419719084
750295500.0 -0.0282903047 -0.1088427116 0.000323711 0.000195694 0.0002188195 -0.0001032748 -0.0447948305 0.8421968912
755295470.0 -0.0301692007 -0.1082083076 0.0002101346 -6.54128e-05 8.99083e-05 -5.50741e-05 -0.0366424868 0.8429699933
760295440.0 -0.0318319673 -0.107264095 0.0001447861 -4.31278e-05 0.0001252832 0.0001120722 -0.0278332078 0.8426715417
765295410.0 -0.0331037388 -0.1069217826 0.0002000578 0.0001130332 8.41199e-05 3.86133e-05 -0.0194743018 0.8430009778
770295380.0 -0.0347167833 -0.1059680463 1.95548e-05 0.0001289454 0.0001539074 -8.6825e-05 -0.0114250199 0.8435398661
775295350.0 -0.0364549082 -0.1054498116 7.75573e-05 -6.43011e-05 6.64743e-05 0.0001743691 -0.0033356168 0.843234875
780295320.0 -0.0382222105 -0.1047411924 0.0003085832 -6.08221e-05 7.32962e-05 -2.29858e-05 0.0056405582 0.8433047971
785295290.0 -0.0398697774 -0.1041769592 0.0003757868 -0.0001040782 3.31553e-05 -5.44725e-05 0.0133921361 0.8435726937
790295260.0 -0.0411952497 -0.1035815909 0.000123523 -6.73188e-05 0.000166878 -1.63858e-05 0.0219129939 0.8432877562
795295230.0 -0.0431502789 -0.1028655222 5.46382e-05 -8.7441e-06 0.0002852099 -0.0001630592 0.0296285814 0.8423307846
800295200.0 -0.04458484 -0.1021196702 0.0001870722 -3.38702e-05 8.16913e-05 -0.0001353445 0.0384330154 0.842222998
805295170.0 -0.0463603257 -0.101272439 0.0001151992 2.29377e-05 0.0001023499 -0.0001491332 0.0473376883 0.8419921143
810295140.0 -0.0477197279 -0.1002346425 -6.47404e-05 -3.6569e-05 0.0003041125 3.34393e-05 0.0558514225 0.8412194702
815295110.0 -0.0495524797 -0.0997123572 0.0003694345 -5.80675e-05 2.12425e-05 -0.0002422576 0.06349391 0.8404304524
820295080.0 -0.0511463165 -0.0989459615 0.0002645106 0.0001600159 9.98031e-05 0.0002072475 0.0716605432 0.8397739396
825295050.0 -0.0526922697 -0.0982700486 0.0001612328 -0.0001976353 0.0001382426 -0.0001508027 0.0800395375 0.8393144043
830295020.0 -0.0540486318 -0.0972464359 0.0001609458 -0.0001574127 0.0001592839 -0.0001839617 0.0881947146 0.8378713886
835294990.0 -0.0555913421 -0.0964825392 4.70462e-05 -0.0002647246 0.0002176787 -0.0001146123 0.0966962411 0.8376377356
840294960.0 -0.0569078727 -0.0957257792 0.0002082698 0.0002196494 6.99638e-05 -0.000127773 0.1054405944 0.8365363435
845294930.0 -0.0584071874 -0.0943847722 8.3499e-05 -5.62324e-05 0.0001549191 0.0001419226 0.1137073722 0.8353671329
850294900.0 -0.0595964305 -0.0938507228 0.0001457463 -0.0001667151 0.0002868025 -0.0001550794 0.1210246707 0.8344516718
