!Created with skrf (http://scikit-rf.org).
# Hz S RI R 50.0 
!freq ReS11 ImS11 ReS21 ImS21 ReS12 ImS12 ReS22 ImS22
300000.0 -0.0457559034 -0.0579514002 -0.0010689621 0.0011338332 0.0002027996 0.001253954 -0.7696616707 -0.1646312378
5299970.0 -0.0448688053 0.015814603 0.0002274299 -1.4574e-06 -2.89693e-05 -0.0001345758 -0.7846273491 -0.0089081075
10299940.0 -0.0390114613 0.0335329077 9.95969e-05 -4.2113e-06 3.78585e-05 -7.83811e-05 -0.7883104312 -0.0051198078
15299910.0 -0.0306183046 0.0481932339 -0.0001257688 4.40321e-05 -3.32501e-05 0.000199038 -0.7934979855 -0.0030971335
20299880.0 -0.0205294144 0.0600436583 -0.0001087847 0.0001625057 3.19007e-05 0.0001637169 -0.8002224446 0.0016761436
25299850.0 -0.0091837255 0.0694527265 -0.0001677163 0.0002416671 0.0001801775 -0.0001266933 -0.8069606356 0.0075537422
30299820.0 0.0026103318 0.0759847905 2.38843e-05 0.0002602716 -3.90561e-05 -6.95711e-05 -0.8123417477 0.0145500956
35299790.0 0.0145354269 0.080975975 0.0001463981 -0.0001849983 0.0001148753 1.88326e-05 -0.8175697501 0.023837743
40299760.0 0.0259248297 0.0836067829 -6.71457e-05 2.65028e-05 -0.0001221915 -2.81822e-05 -0.8217905475 0.0331995957
45299730.0 0.036505066 0.085237856 3.51823e-05 -0.0002622223 -1.6118e-06 -8.1941e-05 -0.8254228322 0.0424102747
50299700.0 0.0467610351 0.0849595513 4.80666e-05 9.10177e-05 7.72792e-05 3.29432e-05 -0.8277676613 0.0522758627
55299670.0 0.0558257757 0.084155854 0.0001807262 -1.4128e-05 -5.295e-06 -5.70178e-05 -0.8296469657 0.0629110998
60299640.0 0.0644561718 0.0822394483 4.73789e-05 0.0002206039 4.0652e-05 4.90255e-05 -0.8308148196 0.073195902
65299610.0 0.0722760777 0.0798666333 0.000129948 -8.38493e-05 -3.09584e-05 0.0001386702 -0.831282836 0.0828141903
70299580.0 0.0792601795 0.0768128534 6.3142e-06 3.26101e-05 2.38916e-05 -0.0002895775 -0.8327098887 0.0925694804
75299550.0 0.0857049017 0.0732869081 0.0001334499 3.04775e-05 7.93622e-05 0.000123554 -0.8325849944 0.1027176792
80299520.0 0.0910828554 0.0703269275 8.3034e-05 0.0001589657 -2.79083e-05 0.000221661 -0.831969547 0.1127770157
85299490.0 0.0962479506 0.0665019932 -0.000135169 0.0003598437 -8.42078e-05 0.0001787223 -0.8316471466 0.1216411572
90299460.0 0.1009978001 0.062747559 -8.34169e-05 3.02572e-05 -0.000112858 4.36827e-05 -0.8307781713 0.131068278
95299430.0 0.1049217763 0.0587594373 -8.29981e-05 -1.42587e-05 0.0001064278 0.0001726036 -0.8297583965 0.1411326946
100299400.0 0.1084867858 0.0551503428 -7.63672e-05 2.0455e-05 8.10953e-05 2.65991e-05 -0.8289041513 0.1493432267
105299370.0 0.1119806839 0.0511846838 -2.3725e-05 0.0001108421 0.0001234106 9.02282e-05 -0.8278024043 0.1586353328
110299340.0 0.1144676904 0.0470625696 2.98469e-05 -2.30235e-05 0.0001637373 0.0002381853 -0.8266027694 0.1684794212
115299310.0 0.1172293654 0.0428845172 -6.6128e-06 -5.65923e-05 1.64934e-05 1.74261e-05 -0.8250732139 0.1769618696
120299280.0 0.1189629047 0.0396788773 4.804e-07 -2.06362e-05 0.0002640593 -3.7472e-06 -0.8232543627 0.1861477752
125299250.0 0.1211078467 0.0358445919 0.0001404132 0.0001212378 0.0001151904 9.09767e-05 -0.8224686649 0.1955690297
130299220.0 0.1230686582 0.0323082936 -3.51709e-05 5.82315e-05 0.0001586351 4.1032e-05 -0.8201624381 0.2042822485
135299190.0 0.1246503754 0.0283961685 8.45424e-05 -1.80959e-05 -5.19821e-05 4.42211e-05 -0.8177822757 0.2129392453
140299160.0 0.1258954087 0.0249102095 0.0001559295 8.13612e-05 0.0001336211 -0.0001027425 -0.8159634873 0.2215619195
145299130.0 0.1271730023 0.0215150611 9.01324e-05 0.0002094152 0.0001828378 0.0001182177 -0.8140670601 0.2294259612
150299100.0 0.1277310772 0.0181036296 0.0001191368 -1.85246e-05 3.4827e-06 3.45449e-05 -0.8121879152 0.2386224582
155299070.0 0.1287111535 0.0150886561 -8.28808e-05 0.0001448689 -3.34384e-05 8.9871e-05 -0.8095854581 0.247518788
160299040.0 0.1293672442 0.0115602494 3.8301e-05 8.19928e-05 4.21459e-05 3.90157e-05 -0.8074114632 0.2569475928
165299010.0 0.1298891863 0.008568829 0.0001795381 -0.0001893426 0.0001526317 -4.69412e-05 -0.8041414857 0.2645605241
170298980.0 0.1300358099 0.0052735434 -0.0001866606 -0.0001363832 -7.30917e-05 6.45441e-05 -0.8022559925 0.2733262316
175298950.0 0.1306162891 0.0027947061 9.00456e-05 7.03127e-05 4.98317e-05 -4.12599e-05 -0.7990950086 0.2822570291
180298920.0 0.1306513116 -0.0005223577 5.15063e-05 3.49993e-05 1.8778e-06 0.0001864246 -0.7955708494 0.2906327429
185298890.0 0.130883522 -0.0032772973 0.0002700323 5.65873e-05 8.19342e-05 0.0001641594 -0.7934089422 0.2981236765
190298860.0 0.1309362245 -0.0060827699 7.17153e-05 0.0001242765 0.0001080748 0.0002584256 -0.7894808017 0.3075791405
195298830.0 0.1312106881 -0.0090909908 -6.7943e-06 0.0001079579 0.0001199982 1.19481e-05 -0.7869362021 0.3153415479
200298800.0 0.1307979821 -0.0114489031 4.9545e-06 4.60747e-05 0.000193816 0.0001076059 -0.7836372163 0.3241721458
205298770.0 0.1306163735 -0.0141338284 7.32243e-05 0.0001719499 9.95714e-05 -8.5063e-06 -0.7800439923 0.3326317281
210298740.0 0.1305933101 -0.0162777361 6.35127e-05 -3.75624e-05 4.13e-05 0.0001077865 -0.7769040026 0.3401003632
215298710.0 0.1301479157 -0.0190383522 -2.677e-07 0.000258 0.0001354472 0.0001244761 -0.7731996098 0.3482189935
220298680.0 0.1298652264 -0.0214522028 6.73399e-05 9.76766e-05 -4.15521e-05 0.0001213344 -0.7697123053 0.3573430959
225298650.0 0.1295375295 -0.0238703029 -3.87721e-05 0.0001893042 6.89966e-05 8.43757e-05 -0.7659098804 0.3648487992
230298620.0 0.129009531 -0.0262008341 -1.25134e-05 0.0001279398 2.8576e-06 0.0001550792 -0.7618490848 0.3728472089
235298590.0 0.1283593536 -0.0285366142 0.0001377237 2.1027e-06 -4.13586e-05 3.8666e-06 -0.7583059581 0.380963196
240298560.0 0.1279712012 -0.030759521 7.57992e-05 -0.0001102593 0.0001560534 0.0001741112 -0.7543224216 0.388310614
245298530.0 0.1275513278 -0.0329582394 0.0001002881 -0.0001877895 0.000204313 2.147e-06 -0.7501057376 0.3967334861
250298500.0 0.1269258533 -0.0350623359 0.0001361775 -8.85136e-05 2.61785e-05 0.0001567677 -0.7461266668 0.4049650985
255298470.0 0.1260383835 -0.037275468 0.0002245662 0.0002174727 0.000176723 9.30606e-05 -0.7415786112 0.4127983616
260298440.0 0.1256865973 -0.0391612842 2.80598e-05 -0.0001776775 0.0001938058 7.56175e-05 -0.7365209935 0.4197940991
265298410.0 0.1248978441 -0.0409524981 4.95713e-05 0.0003044218 0.0002327685 9.32997e-05 -0.7327226797 0.4275138908
270298380.0 0.1244265468 -0.0429909572 0.0002175283 0.000113989 0.0002776931 8.22574e-05 -0.7275985678 0.4356861291
275298350.0 0.123494498 -0.0450109845 6.52148e-05 -0.0002595939 2.50809e-05 0.0001748146 -0.7228953004 0.4430195081
280298320.0 0.1226261149 -0.0468192879 7.33756e-05 0.0003961715 0.0002342582 -7.17135e-05 -0.7189541504 0.4503010126
285298290.0 0.121784119 -0.0486767897 9.04548e-05 0.0001521113 0.0001520524 1.89149e-05 -0.7131539315 0.4580964719
290298260.0 0.1213228394 -0.0504854139 0.0003617998 0.0002349176 0.0003139724 0.0001440705 -0.7087687733 0.4656237305
295298230.0 0.1203667975 -0.0526152944 7.80097e-05 0.0002347555 8.47254e-05 0.0001243062 -0.7038664451 0.4729470509
300298200.0 0.1196343596 -0.0547970514 0.0002473802 5.56203e-05 3.23199e-05 0.0002196394 -0.6990218613 0.4799070304
305298170.0 0.11911789 -0.0562462476 0.0003433774 0.0001922371 0.000196001 0.0002081209 -0.6931780371 0.4877553021
310298140.0 0.1180874207 -0.0584480142 -0.0001519432 0.0001269152 0.0002472489 0.0001056383 -0.6888207944 0.4950814988
315298110.0 0.1166790779 -0.0601397903 0.000252159 -4.04749e-05 0.000253514 -9.4393e-06 -0.6828965802 0.5020839631
320298080.0 0.1159156325 -0.0622275881 0.0001871366 5.93998e-05 0.0003081677 0.000293802 -0.6779680282 0.5098677746
325298050.0 0.1144770284 -0.0639256633 0.0001665166 0.0001263215 4.94827e-05 -6.45887e-05 -0.6722868474 0.5166017046
330298020.0 0.1129626155 -0.0653519676 0.0001097857 4.86005e-05 8.93993e-05 0.0002871869 -0.6668107481 0.5233104095
335297990.0 0.1118523973 -0.0669792243 3.43398e-05 -4.5725e-05 0.0001062172 0.0001508457 -0.6613242328 0.530012096
340297960.0 0.1106849305 -0.0681703993 0.0002229253 3.66729e-05 4.64631e-05 0.0001993295 -0.6555807932 0.5372328527
345297930.0 0.109232309 -0.0696880622 6.04388e-05 -1.14897e-05 0.0002102287 -0.0001118705 -0.6494847462 0.5441376735
350297900.0 0.108526628 -0.0710056401 -9.07802e-05 0.0001493717 0.0001621801 9.40711e-05 -0.6446863047 0.5507954529
355297870.0 0.1069912431 -0.0723472482 0.0002131612 2.37781e-05 0.0001350287 0.000308559 -0.6380398868 0.5575511353
360297840.0 0.1059565515 -0.0739186492 -1.08483e-05 1.83517e-05 0.0001385766 0.0001646958 -0.6325531259 0.5639802823
365297810.0 0.1049206935 -0.0751645118 0.0002490064 2.1262e-05 0.0002005101 0.00015557 -0.6262772698 0.5709221948
370297780.0 0.1037796695 -0.0764137238 -6.7019e-05 9.24009e-05 0.0001074852 0.0001340813 -0.6206039291 0.5769673477
375297750.0 0.1024946905 -0.0775233139 2.71413e-05 0.0002644993 -0.0001607954 3.7779e-05 -0.6146975288 0.5827049722
380297720.0 0.1016865548 -0.0787793834 6.51302e-05 0.0001062213 0.0002419302 0.0001582052 -0.6083421609 0.5904968944
385297690.0 0.1000803766 -0.0799712175 0.0002308371 0.0001485655 1.33318e-05 6.43327e-05 -0.6016077731 0.5960928828
390297660.0 0.0991926521 -0.0813411841 0.0001600771 9.35197e-05 4.16326e-05 0.0002553819 -0.5958069953 0.6014963859
395297630.0 0.0978822937 -0.082487774 6.01092e-05 3.83694e-05 7.48822e-05 0.0001179703 -0.5893613244 0.6081513379
400297600.0 0.0966993655 -0.0835871924 6.17724e-05 0.0002235903 0.0002071847 0.000212845 -0.5832282826 0.6136045028
405297570.0 0.0955510279 -0.0846508976 0.0001362071 0.0001759726 0.0002619605 0.0001812939 -0.5775014934 0.6197093597
410297540.0 0.0942580851 -0.0859279676 0.0003030932 3.31249e-05 0.0001882856 0.0002612568 -0.5700703854 0.6254554577
415297510.0 0.0930237311 -0.0869647461 0.000118423 0.0003203501 4.59672e-05 -3.6019e-05 -0.5639796836 0.6318651408
420297480.0 0.0916442424 -0.0882458645 0.0001355071 0.0002293385 0.0003199208 0.0002296661 -0.556950632 0.6370397938
425297450.0 0.0905467931 -0.0892204767 6.91539e-05 0.0001009167 0.0003915315 -8.7252e-06 -0.5499197788 0.6434819103
430297420.0 0.0887842941 -0.0901530421 0.000151649 0.0002618219 0.0001410724 4.52728e-05 -0.5438319416 0.6486103043
435297390.0 0.0876506604 -0.0911750769 0.0001824552 0.0002663747 0.0002238091 0.0001276471 -0.5373874006 0.6538830549
440297360.0 0.0867005575 -0.0922616223 0.0004286908 0.0001308804 2.94471e-05 4.37789e-05 -0.5302927763 0.658859069
445297330.0 0.0852840246 -0.0930655581 0.0001014603 9.92142e-05 0.0002127049 0.000138334 -0.5238504046 0.6641357898
450297300.0 0.0837992871 -0.094278651 0.0001988385 0.0001546296 0.0002774463 -2.73681e-05 -0.5173832011 0.670001336
455297270.0 0.0823404641 -0.0947890183 7.57547e-05 0.000142469 0.0002075017 -9.11381e-05 -0.5102951873 0.6749139648
460297240.0 0.081177844 -0.0957507108 0.0001028289 0.0001935668 0.0002365519 0.0001017383 -0.5027559117 0.6804837615
465297210.0 0.0799201064 -0.0967531812 0.0002716036 0.0002034389 0.0002958728 -6.79496e-05 -0.4964409269 0.6848725432
470297180.0 0.0784470432 -0.0977233949 0.0002532888 0.0001204355 0.0002802722 0.0001692643 -0.489479439 0.6890984609
475297150.0 0.0772243157 -0.0984247068 0.0002582888 8.26322e-05 0.0003050536 2.77998e-05 -0.4824678707 0.6949477535
480297120.0 0.0758258884 -0.0995799193 0.0002946445 0.0001753328 0.0002630759 -0.0001518782 -0.475267082 0.6998767757
485297090.0 0.0745758064 -0.0999845904 0.0001932755 -7.6442e-06 0.0001626125 -7.9531e-06 -0.4680883904 0.703696094
490297060.0 0.0733806823 -0.1008980715 0.0002888631 0.0002579295 0.0002090374 5.13288e-05 -0.4609955877 0.7084325256
495297030.0 0.0717572655 -0.101802864 0.000301012 0.0002162042 0.0002354051 1.89768e-05 -0.4533833405 0.7132417659
500297000.0 0.0704258541 -0.1024605159 0.0001201076 -3.86235e-05 0.0003273429 3.35071e-05 -0.4468667001 0.7176993777
505296970.0 0.0689168353 -0.1028879549 0.0003158448 -3.63256e-05 0.0002633186 -9.01511e-05 -0.4403387101 0.7221139205
510296940.0 0.0677112353 -0.1035653035 0.0001911052 9.55229e-05 0.0005743973 0.0002150764 -0.4319894504 0.726815519
515296910.0 0.0661509095 -0.1042384367 0.0003339175 0.0002432393 0.0003256547 9.45314e-05 -0.424686417 0.7303932189
520296880.0 0.0650147134 -0.1049066736 0.0001506865 -0.0001277963 0.0001400943 5.09719e-05 -0.4176264172 0.734955377
525296850.0 0.0634557382 -0.1056302474 0.0001574649 -0.0001112901 0.0002962458 0.0001634466 -0.4101098369 0.7395669179
530296820.0 0.0618062491 -0.106336885 0.000279554 6.65193e-05 0.0001301866 6.50919e-05 -0.4032308172 0.7433380274
535296790.0 0.0607207517 -0.1065801325 0.0002784811 5.66268e-05 0.0002299268 5.55003e-05 -0.3958091195 0.7464179344
540296760.0 0.0589816689 -0.1074979698 0.0001379552 0.0002943152 0.000280055 0.0001698018 -0.3884106726 0.7510705105
545296730.0 0.0578467933 -0.1079044191 0.000238029 1.49804e-05 0.0001924713 0.0001716238 -0.3806200018 0.7538819332
550296700.0 0.0562469152 -0.1084936884 0.0004750772 0.0001014089 0.0003752389 7.10582e-05 -0.3732472138 0.7579102252
555296670.0 0.0548907402 -0.1089849493 0.0004236247 4.69352e-05 0.0001805378 0.0001493174 -0.3654101857 0.7615752649
560296640.0 0.0531344707 -0.1096310144 0.0002682189 0.0001771803 0.0004184863 -3.72491e-05 -0.3576786845 0.765693271
565296610.0 0.0520397528 -0.1097580793 0.0004145628 0.0001023547 0.0004085593 0.0001585115 -0.3507125553 0.7686233337
570296580.0 0.050638748 -0.1104409485 0.000190134 0.0003042172 0.0001686559 -5.69088e-05 -0.3430032113 0.772590961
575296550.0 0.0493692545 -0.1109467191 0.0002929494 7.42376e-05 0.0001316839 0.0002584162 -0.3349137716 0.7756583583
580296520.0 0.0476993203 -0.1111819088 0.0003727797 0.0001665717 0.0002499919 -0.0001007528 -0.3276354056 0.7790953372
585296490.0 0.0459594009 -0.111707531 0.0002869346 0.000123721 0.0003125887 0.000153045 -0.3196400527 0.7816219713
590296460.0 0.0444153751 -0.1120704508 0.0002898542 0.0001561837 0.0002640714 2.3925e-06 -0.3121658485 0.7851442783
595296430.0 0.0433032869 -0.1125010053 0.0003222002 9.5137e-06 0.0001159486 0.0001687783 -0.3040581535 0.7871845936
600296400.0 0.0417759854 -0.1126738482 0.0002368614 0.0001722722 2.63599e-05 0.0002156765 -0.2960511147 0.7918919245
605296370.0 0.0405917583 -0.1130744278 0.0004059888 1.37298e-05 0.0001605895 2.23131e-05 -0.2882163158 0.7944232168
610296340.0 0.038995486 -0.1132804477 0.0002532547 -2.6405e-06 0.0001230069 0.0001282529 -0.280274976 0.7972811104
615296310.0 0.037745729 -0.1131899877 0.0003192618 0.0001106414 0.0002453698 0.0001168008 -0.2724202269 0.7991635207
620296280.0 0.0362545005 -0.1138757265 0.0004544983 7.45954e-05 0.0004671329 -1.90229e-05 -0.26470442 0.8018698499
625296250.0 0.0347669544 -0.1139480213 0.0003688555 0.0001230966 0.0002780808 -5.54675e-05 -0.2570320043 0.8050968773
630296220.0 0.0331663018 -0.1142507087 0.0002222926 9.33599e-05 0.0002930873 0.0001200517 -0.2486064858 0.8070624912
635296190.0 0.0315536523 -0.1145429615 0.0001296875 0.0001455971 0.0002873168 -0.0001392594 -0.2413241018 0.8097688909
640296160.0 0.0302200551 -0.1147887447 0.0005147539 -0.0001653044 0.000634051 -9.50439e-05 -0.2325862771 0.8120992684
645296130.0 0.0285447168 -0.1145372647 0.0004643099 2.9384e-06 0.0002728445 0.0001055691 -0.2250307251 0.8145939493
650296100.0 0.0272960815 -0.1146904249 0.0003102607 1.49082e-05 0.0002863503 0.0001163745 -0.2168739185 0.8165788878
655296070.0 0.0259302703 -0.1152017705 0.0002958022 9.68585e-05 0.0001998156 7.70759e-05 -0.2083415849 0.8182816369
660296040.0 0.0242082078 -0.1149267163 0.0001915373 2.42611e-05 0.0002024228 -0.0001480955 -0.2007353025 0.8207331759
665296010.0 0.022641648 -0.1149867563 0.0001382614 0.0001105851 0.0002283074 6.22806e-05 -0.1931048033 0.8221645023
670295980.0 0.0212414688 -0.1154981817 0.0003426682 6.33392e-05 0.0003018562 9.80354e-05 -0.1855241993 0.8239465303
675295950.0 0.0201208174 -0.1153928543 0.0003441502 3.68904e-05 0.0004033654 5.78848e-05 -0.1765681939 0.8262782998
680295920.0 0.0185645633 -0.1150599042 0.0002860527 8.782e-05 0.0002688984 2.7514e-06 -0.1678606198 0.8276808808
685295890.0 0.0168982572 -0.1152603406 0.0003779532 9.711e-06 0.000536791 -8.77428e-05 -0.1594879217 0.8295818666
690295860.0 0.015921864 -0.1151825533 0.0003307691 4.03044e-05 0.0003297409 -3.32735e-05 -0.1513719643 0.8311833919
695295830.0 0.0143173467 -0.1151618777 0.0003332337 -0.0001169593 0.0003012217 -9.98992e-05 -0.1434880528 0.8324656287
700295800.0 0.0130214501 -0.1151064004 0.0002737206 -8.32176e-05 0.0002013866 -0.0001322329 -0.1349401234 0.833399683
705295770.0 0.0113954625 -0.1152502009 0.0006466622 -0.0001070803 0.0001663 -0.000220517 -0.1266833732 0.8348432325
710295740.0 0.0101304574 -0.1149174785 0.0005058434 0.0002007962 0.0002511838 -1.29872e-05 -0.1192463753 0.8368617402
715295710.0 0.0084447533 -0.1146276853 0.0002660934 -0.0001641509 0.0003940404 8.98543e-05 -0.1105306492 0.837463684
720295680.0 0.0069879724 -0.1148421917 0.0004398201 6.98002e-05 0.0004117095 -5.48785e-05 -0.1021598998 0.8385930767
725295650.0 0.0058687663 -0.1144446865 0.0004603294 -9.16791e-05 0.0002482813 0.0001571217 -0.0934878657 0.8393177915
730295620.0 0.0040870819 -0.114851875 0.0003741966 -0.000124759 0.0004025102 -0.000258445 -0.0855247709 0.8403821054
735295590.0 0.0030644981 -0.1144521795 0.0004551165 -0.0002188374 0.0004045786 0.0002244827 -0.0768056223 0.8413303151
740295560.0 0.0015555201 -0.1141476701 0.0003767932 0.0001631143 0.0002931042 -0.0001278317 -0.0691983349 0.8416742601
745295530.0 -3.00717e-05 -0.1138792126 0.0004812246 8.25822e-05 0.0005292707 -6.2411e-06 -0.0610915624 0.8424090919
750295500.0 -0.0013950304 -0.1136928814 0.0001607557 -8.66937e-05 0.000490764 8.96903e-05 -0.052577266 0.8425578728
755295470.0 -0.0026831841 -0.1134785914 0.0003196432 8.58324e-05 0.0002600771 -0.0002144432 -0.0442946464 0.8435267104
760295440.0 -0.0042703711 -0.1128663703 0.0003796234 0.0001082481 0.0004170661 -3.89915e-05 -0.0366035091 0.8440679632
765295410.0 -0.0057336302 -0.1129668506 0.0004387723 -8.84424e-05 0.0003209345 0.0001318903 -0.0270943862 0.8446184962
770295380.0 -0.0069495199 -0.1123862528 7.72419e-05 -0.0003074095 0.000231978 -2.39166e-05 -0.0190072348 0.8439868978
775295350.0 -0.0086237107 -0.1122116166 0.0004583083 -0.0002759115 0.000312782 -0.0001183297 -0.0113238696 0.8442312244
780295320.0 -0.0096344309 -0.1119336314 0.0002757706 0.0001032056 0.0005047088 3.25631e-05 -0.0026789594 0.8448118669
785295290.0 -0.0112840577 -0.1113480885 0.0004697081 -0.0003414808 0.000431325 -0.0001111648 0.0052649768 0.8448093535
790295260.0 -0.0125960462 -0.111167619 0.0006205651 -7.09796e-05 0.0005565032 -0.0001668951 0.0141112949 0.8444541501
795295230.0 -0.01379421 -0.1105231453 0.0004938962 -0.0001440895 0.0003856267 -2.87466e-05 0.0225312393 0.8446973199
800295200.0 -0.0153539442 -0.1100964037 0.0002310215 -0.0001505647 0.00017474 -0.000136493 0.0304974491 0.8437877768
805295170.0 -0.0166115161 -0.1096193395 0.0002486172 -0.0001025676 0.0003335507 -7.003e-07 0.0382185583 0.8435072015
810295140.0 -0.018048568 -0.1092973037 0.0003315732 1.78958e-05 0.0002776424 -4.10862e-05 0.046888599 0.8444882371
815295110.0 -0.0192413782 -0.1086632948 0.0004649754 -2.12839e-05 0.0005853936 -0.0001558244 0.0552697805 0.8434557945
820295080.0 -0.0206370972 -0.1085048762 0.0005066924 -0.0001666944 0.000339542 -0.0002062544 0.0633426466 0.8420881681
825295050.0 -0.0220202541 -0.1079631526 0.0001633352 -6.90754e-05 0.0004781676 -0.0001446315 0.0716984261 0.841781283
830295020.0 -0.0232511895 -0.1072254346 0.0001982055 -7.41797e-05 0.0004140215 -0.0001763714 0.0792518526 0.8410260072
835294990.0 -0.0245522036 -0.1066545522 0.0004004165 8.9584e-06 0.0004531356 -0.0001442662 0.0884291197 0.8399967083
840294960.0 -0.0258711412 -0.1065233323 0.00026553 -0.0002208805 0.0002889679 -0.0002468141 0.0959226045 0.839795116
845294930.0 -0.0272578968 -0.1057044888 0.0003528343 -7.95398e-05 0.0004655342 6.0603e-06 0.1044517547 0.8378208375
850294900.0 -0.0284678519 -0.104988874 0.0003398091 -3.53747e-05 0.0003068802 -0.0001198779 0.1126401429 0.8370988149
