!Created with skrf (http://scikit-rf.org).
# Hz S RI R 50.0 
!freq ReS11 ImS11 ReS21 ImS21 ReS12 ImS12 ReS22 ImS22
300000.0 -0.1014517868 -0.0662736869 0.6309277855 0.0628442943 0.624360268 0.0632494489 -0.1017808981 -0.0749170951
5299970.0 -0.1019707726 0.0132006896 0.6302733813 0.0101040489 0.6305540136 0.0102572875 -0.1007119725 0.0131434654
10299940.0 -0.0971362853 0.0293849312 0.6339602881 0.0149976463 0.6341572084 0.0156201246 -0.0957447516 0.030419949
15299910.0 -0.090006888 0.0425306149 0.6404907111 0.0204446807 0.6404708115 0.0206491819 -0.0886371402 0.0436926134
20299880.0 -0.0817327065 0.0531960712 0.648604995 0.024557969 0.6488392319 0.0240492745 -0.0798599278 0.0545961985
25299850.0 -0.0725887948 0.0622739316 0.6579569774 0.0253385123 0.6578277986 0.0255197695 -0.0697961408 0.0632797592
30299820.0 -0.0621465907 0.0688906593 0.6676525426 0.0242198649 0.6672438005 0.0242890106 -0.059721175 0.070079171
35299790.0 -0.0524497466 0.0736343221 0.6773415563 0.0213869177 0.6768230515 0.0214261631 -0.049854926 0.0748845515
40299760.0 -0.0433567895 0.0771572067 0.6861986052 0.0171038287 0.6867723076 0.0176334435 -0.0403105549 0.0774376998
45299730.0 -0.0339429 0.0793413933 0.6953154891 0.0118001418 0.6954619482 0.0120279647 -0.0312062926 0.079459329
50299700.0 -0.0255449231 0.0803126391 0.7039914501 0.0049311005 0.703124787 0.0052385328 -0.0224740231 0.0802586267
55299670.0 -0.0178673055 0.0806015853 0.7111883319 -0.0034824113 0.7106776272 -0.0026529522 -0.0146799788 0.0807849901
60299640.0 -0.0101573468 0.0801520212 0.7172373889 -0.0114639389 0.7175909063 -0.0110791725 -0.0078697704 0.079300677
65299610.0 -0.0037093208 0.078775042 0.7230396179 -0.0203632515 0.7233051871 -0.0198184068 -0.0009106259 0.0784699336
70299580.0 0.0027334332 0.0775698006 0.7286661318 -0.0300018367 0.7286150341 -0.0292277042 0.004996707 0.0765664667
75299550.0 0.0083461042 0.0758405679 0.7330648131 -0.0391363935 0.7328851527 -0.0389225399 0.0100907037 0.0747166289
80299520.0 0.0130710978 0.0734204926 0.736674203 -0.0491151876 0.7375824494 -0.0493044275 0.0149557796 0.0727814147
85299490.0 0.0178807477 0.0712899127 0.7401872722 -0.0580837286 0.7402015377 -0.0584741863 0.0193648424 0.0702439153
90299460.0 0.0216918094 0.0689562326 0.7425744641 -0.0694915975 0.7436804627 -0.0685480926 0.0236517645 0.0680602968
95299430.0 0.0258449078 0.0664404819 0.7454488114 -0.0788244201 0.7457241196 -0.0791219065 0.0276190841 0.0654290553
100299400.0 0.0290139699 0.0645628188 0.7465870936 -0.0890976634 0.7471398497 -0.0893948994 0.0312176824 0.0627705782
105299370.0 0.0322515185 0.0621579092 0.748569964 -0.1001384651 0.7492080293 -0.0989976173 0.0341069682 0.0606060813
110299340.0 0.034834078 0.0598811597 0.7501693193 -0.1091550728 0.7494998791 -0.1089148361 0.0361315504 0.0580157663
115299310.0 0.0374487667 0.0573377127 0.7506811284 -0.1195670949 0.7505414598 -0.1192179079 0.0388607709 0.0556118964
120299280.0 0.0398397155 0.0543966246 0.7510669185 -0.1293788145 0.7515293715 -0.1292017398 0.0414209325 0.0531070024
125299250.0 0.041779609 0.0523595177 0.7512810446 -0.1387972064 0.751519822 -0.1391464804 0.0429282906 0.050319274
130299220.0 0.0433785917 0.0502821789 0.751022252 -0.1489702588 0.7513571542 -0.1495363197 0.0452170239 0.0483957647
135299190.0 0.0454622756 0.0482210382 0.7511700107 -0.1586982772 0.7509075334 -0.158959732 0.0465813328 0.0460592745
140299160.0 0.046668541 0.0461497302 0.7506129219 -0.1686099242 0.7505558172 -0.1687008161 0.0478979356 0.0444128202
145299130.0 0.0481852262 0.0438935961 0.75020669 -0.1783622093 0.7496189901 -0.1782669395 0.0494350457 0.0421622912
150299100.0 0.0498492475 0.0420399546 0.748277563 -0.1878870352 0.7488308349 -0.1876385607 0.050891104 0.0403179406
155299070.0 0.0502731633 0.0396568565 0.7480303967 -0.1986073271 0.74749958 -0.1979192358 0.0516571536 0.0384301087
160299040.0 0.0520141088 0.0381204504 0.7460062934 -0.2077387024 0.7455210828 -0.2075052437 0.0523339018 0.0362112514
165299010.0 0.0521508157 0.0362894051 0.7443191407 -0.2170211751 0.7445612664 -0.2167140991 0.0536173749 0.0350210673
170298980.0 0.0533253466 0.0340530532 0.7430596904 -0.2265237195 0.7432620615 -0.2266088792 0.0540859548 0.0329295087
175298950.0 0.0535799393 0.0322145097 0.7413285759 -0.2354686977 0.7407089035 -0.2353145971 0.054759201 0.0314458132
180298920.0 0.0542423569 0.030523254 0.7389091085 -0.2446364266 0.7387753256 -0.2446878268 0.0554764165 0.0298012002
185298890.0 0.055622596 0.0287860297 0.7366179237 -0.2538056395 0.7364467307 -0.2538309652 0.0559320983 0.0284312454
190298860.0 0.0554295565 0.02734667 0.7342656219 -0.2631726263 0.7344262905 -0.2631884226 0.0563911165 0.0265074746
195298830.0 0.0558880975 0.0253119671 0.7317042665 -0.2721175298 0.7320862339 -0.2717673962 0.0571312924 0.0248994341
200298800.0 0.0564950808 0.0237691977 0.7285549164 -0.2809599481 0.7291648823 -0.2811452725 0.0566841013 0.0236172888
205298770.0 0.056852745 0.0227886474 0.726126007 -0.290234015 0.726373546 -0.2896528893 0.0570771039 0.0213378619
210298740.0 0.0571803261 0.0208761088 0.7228071687 -0.2984230042 0.7229455576 -0.2982448259 0.0576269049 0.0210628059
215298710.0 0.0569231341 0.0196166897 0.7207128248 -0.3070078081 0.7198456566 -0.3075831481 0.0577964233 0.0196698562
220298680.0 0.0576390752 0.0177299585 0.7163389607 -0.3155834062 0.7165103495 -0.3155374243 0.0572404401 0.01794695
225298650.0 0.0574852953 0.0163749819 0.7138648976 -0.3248469705 0.7136288976 -0.3247203333 0.0573944921 0.0163796557
230298620.0 0.0579463629 0.0158533359 0.7104672882 -0.3327704651 0.7108721657 -0.3330296399 0.0573543382 0.0149213596
235298590.0 0.0579310928 0.0144435743 0.7065176103 -0.341175745 0.7066866633 -0.3410070516 0.0576505235 0.0136351207
240298560.0 0.0580484405 0.0134644286 0.7033508679 -0.3500394538 0.7033336876 -0.3498691901 0.0574148192 0.0130809587
245298530.0 0.0575011154 0.011895022 0.6996807627 -0.3579302434 0.6995407413 -0.358171506 0.0583840867 0.0108291662
250298500.0 0.0586200417 0.0108911067 0.6948553755 -0.3662638872 0.6949578464 -0.3658994187 0.0579153456 0.0104071187
255298470.0 0.058351182 0.0094578248 0.6910075195 -0.3744124333 0.6917538213 -0.3742038064 0.0578321883 0.0091751128
260298440.0 0.0580592526 0.008273832 0.6871415204 -0.3830029761 0.6874745583 -0.382514272 0.0585792692 0.0079129198
265298410.0 0.0588519769 0.0075099816 0.6837470644 -0.3912114363 0.6837619432 -0.3903605334 0.0585426298 0.0070562554
270298380.0 0.0586962163 0.0061567914 0.6797034914 -0.3984917503 0.6799002382 -0.3983398925 0.0581059863 0.0055245643
275298350.0 0.0588647045 0.0050041713 0.6752199738 -0.4069611085 0.6758296321 -0.4070654467 0.0586272927 0.0039482363
280298320.0 0.0586130699 0.0041648725 0.6711294626 -0.414496274 0.6709918006 -0.4144618698 0.0585527316 0.0033175148
285298290.0 0.0585940704 0.0032379766 0.66676871 -0.4224779449 0.6662083924 -0.4225814629 0.0586085666 0.0021254864
290298260.0 0.0591323135 0.0020103409 0.6619185845 -0.4300568838 0.6618514163 -0.430316139 0.0584756613 0.0015596728
295298230.0 0.058979605 0.0006881119 0.6577064039 -0.4371860479 0.6575683091 -0.437826419 0.0594299004 0.0002963983
300298200.0 0.0582209014 -0.0002501039 0.6532588545 -0.4449895142 0.6532668861 -0.4454930094 0.0589746472 -0.0007414369
305298170.0 0.0588347986 -0.0014573209 0.6476168821 -0.4535122964 0.6481687358 -0.4529031515 0.0594430327 -0.0020413222
310298140.0 0.0582977986 -0.0025404185 0.6429807408 -0.4609154638 0.6435382785 -0.4608384118 0.0592798212 -0.0030447641
315298110.0 0.0583618805 -0.0041359529 0.6378567657 -0.4684072067 0.638284684 -0.4686153657 0.0587879213 -0.0040545046
320298080.0 0.0587067982 -0.004761013 0.6324212905 -0.4759112728 0.632645994 -0.4762047501 0.058828755 -0.0054086402
325298050.0 0.0579192733 -0.005955135 0.626993789 -0.4837847939 0.6270577823 -0.4836053697 0.0580729779 -0.0063668058
330298020.0 0.0573922139 -0.0076153892 0.6214570712 -0.4907920007 0.6218010377 -0.4907946216 0.057283062 -0.0074318621
335297990.0 0.0570905934 -0.0087938725 0.6159629024 -0.4976936437 0.6154087654 -0.4978977818 0.0566265325 -0.0078119741
340297960.0 0.0561687781 -0.0090723619 0.6094538184 -0.5047345822 0.6095866169 -0.5050604342 0.0570138918 -0.0085038989
345297930.0 0.0556912607 -0.0091409147 0.6040203911 -0.5119968513 0.6038809788 -0.5120864192 0.0563558507 -0.009990607
350297900.0 0.0553002014 -0.0106353948 0.5978886893 -0.5186562392 0.5979125691 -0.5188858826 0.0553142981 -0.0097157365
355297870.0 0.0549709203 -0.0107131406 0.592137115 -0.5254126483 0.5927052317 -0.5251585144 0.0553064034 -0.0104655312
360297840.0 0.054486854 -0.0115337886 0.5875645331 -0.531506402 0.5869682288 -0.5313796167 0.0547526139 -0.0113193595
365297810.0 0.054048861 -0.0120855431 0.5807506669 -0.5384721151 0.5812088226 -0.5384876581 0.054749159 -0.0119739017
370297780.0 0.0544896056 -0.0132980758 0.5747080816 -0.5446452597 0.5749726808 -0.5444897728 0.0542397801 -0.01229911
375297750.0 0.0539020112 -0.0138895361 0.568591825 -0.5516351478 0.5695785383 -0.5515230152 0.0543641411 -0.013080971
380297720.0 0.0537374729 -0.0143489187 0.5629844451 -0.5575957055 0.5628553824 -0.5571629601 0.0532062882 -0.0140981934
385297690.0 0.0528643502 -0.0151862996 0.5559082281 -0.5637252355 0.5563100115 -0.5638029333 0.0533672954 -0.0143948815
390297660.0 0.0529828737 -0.0152492557 0.5504163666 -0.5703395502 0.5503143662 -0.56984664 0.0526321866 -0.0149677429
395297630.0 0.0522420614 -0.0159456202 0.5438493435 -0.5757834486 0.5441282568 -0.5762033233 0.0532486637 -0.0155953975
400297600.0 0.0518234059 -0.0168356934 0.5368853445 -0.5828089579 0.5376392314 -0.5823041349 0.0522280118 -0.016240792
405297570.0 0.051321076 -0.0176586348 0.5310326466 -0.5874914119 0.531231725 -0.5878430629 0.0513838024 -0.0168008122
410297540.0 0.0514413364 -0.0183264132 0.5249131062 -0.594164791 0.5251791453 -0.5940206067 0.0511838474 -0.0171852427
415297510.0 0.0512619078 -0.0188429189 0.5176273724 -0.6000467338 0.5186347248 -0.6003207954 0.0510542509 -0.0178614195
420297480.0 0.0508641218 -0.0191572142 0.5114912442 -0.6059400511 0.5110608365 -0.6058773112 0.0504872042 -0.019239031
425297450.0 0.0501302382 -0.0207925398 0.5053164149 -0.6113265979 0.5051849073 -0.6116368665 0.049529263 -0.0187434153
430297420.0 0.0497412182 -0.0207767254 0.497970873 -0.6164268561 0.4979821603 -0.6160907152 0.0494590768 -0.0201702551
435297390.0 0.0495911705 -0.0214127778 0.4907678398 -0.6222159846 0.4905957226 -0.6221533863 0.0501383915 -0.0206186547
440297360.0 0.0493301773 -0.0217853914 0.4841119834 -0.627744133 0.4846039266 -0.6275571923 0.0488098464 -0.0215206983
445297330.0 0.0485305175 -0.0229460526 0.4778863384 -0.6333340938 0.4776978612 -0.6327193006 0.049022279 -0.0222986618
450297300.0 0.0486821027 -0.023233673 0.4705236519 -0.6386669701 0.4704065229 -0.6387231246 0.0482744938 -0.0227459946
455297270.0 0.0482179319 -0.0239374623 0.4635016202 -0.6437233995 0.4638684152 -0.6433872544 0.0483054694 -0.0232562702
460297240.0 0.0476168137 -0.0241976026 0.456486104 -0.6485483601 0.456428066 -0.6488720427 0.047599681 -0.0236261651
465297210.0 0.0476193196 -0.0251987781 0.4494388789 -0.6539896653 0.4493850054 -0.6543811693 0.0475270085 -0.0247634625
470297180.0 0.0470171565 -0.0257203214 0.4421293009 -0.6590570288 0.4418706108 -0.6587119298 0.0471639692 -0.02508365
475297150.0 0.0467487098 -0.0265362948 0.4348240362 -0.6631672141 0.4345971335 -0.6629242505 0.0471878458 -0.0258793536
480297120.0 0.0461593018 -0.0261037493 0.4276121104 -0.6686217846 0.4273617841 -0.668710876 0.0468896801 -0.025965439
485297090.0 0.0454393099 -0.0269471364 0.4198192766 -0.6729986789 0.4204575411 -0.6728453034 0.0465733442 -0.0272311267
490297060.0 0.0448220012 -0.0277119481 0.4128796398 -0.6782095611 0.4131696496 -0.6773863588 0.0460489385 -0.0265104161
495297030.0 0.0446220928 -0.0281865898 0.4051875885 -0.6819581746 0.4055581989 -0.6821262911 0.0452609273 -0.0277238662
500297000.0 0.043913807 -0.0288677442 0.39708053 -0.6858332329 0.3967724212 -0.6861135623 0.0447852302 -0.0271884096
505296970.0 0.0439104305 -0.0292791787 0.3902444208 -0.6906034835 0.3895960478 -0.6910182363 0.0444275328 -0.0280273265
510296940.0 0.043233388 -0.0294884052 0.382210442 -0.6953021157 0.3825799076 -0.6950318431 0.0444396359 -0.028350616
515296910.0 0.0423563123 -0.0296448006 0.3742704111 -0.6991728294 0.3748886823 -0.6991946946 0.0439221167 -0.0287205482
520296880.0 0.0421424115 -0.0306689651 0.3674954412 -0.703936522 0.3667517589 -0.7032080816 0.0431914314 -0.029511144
525296850.0 0.0418576518 -0.0314343559 0.3591237896 -0.7075754715 0.3599422595 -0.7073026733 0.0425628602 -0.0294046819
530296820.0 0.0416682704 -0.0313403033 0.3512856757 -0.7118769343 0.3514820088 -0.7115038154 0.0424188115 -0.0301803859
535296790.0 0.0404739321 -0.03169535 0.344283173 -0.7152422814 0.3439558974 -0.7146941944 0.0418305856 -0.0312184283
540296760.0 0.0399431595 -0.0319277456 0.335883401 -0.7193868457 0.3357542398 -0.7188976995 0.0408580461 -0.0304678733
545296730.0 0.039602572 -0.0328225752 0.3274315462 -0.7227794032 0.3276556262 -0.7221810451 0.0402230024 -0.0317772125
550296700.0 0.0397614148 -0.0326396906 0.3198643696 -0.7261922331 0.319887111 -0.7265811557 0.0397474174 -0.0315431193
555296670.0 0.0387345364 -0.0332586653 0.3124526781 -0.7295073991 0.3123624434 -0.7296361943 0.0392930696 -0.0317210424
560296640.0 0.0385599179 -0.0332134416 0.3034592562 -0.7331101883 0.3037492243 -0.7329106548 0.0388505911 -0.0324119022
565296610.0 0.0373476109 -0.0339518967 0.295307427 -0.7363056733 0.2958795339 -0.7362223568 0.0379111438 -0.0330843849
570296580.0 0.0372268871 -0.0341120782 0.2881928195 -0.7403025287 0.2870280143 -0.7395283429 0.0378583158 -0.0327495838
575296550.0 0.0364486316 -0.0343611134 0.2800062063 -0.7428772632 0.2798405495 -0.7427582505 0.0375794078 -0.0335048349
580296520.0 0.0362664058 -0.0348116249 0.2720759532 -0.7457502036 0.2718191637 -0.7459435847 0.0365682502 -0.0342046528
585296490.0 0.0354191077 -0.0359110078 0.263696463 -0.74849745 0.2637584218 -0.7487297927 0.0361080325 -0.0342228843
590296460.0 0.0354569876 -0.0353273879 0.2555382563 -0.7506946795 0.2553197364 -0.7513353357 0.0346693886 -0.0346183843
595296430.0 0.0348261504 -0.035635021 0.2467265589 -0.7545279703 0.2468036199 -0.7542792546 0.0350952491 -0.035320855
600296400.0 0.0336642216 -0.0364561 0.2386835954 -0.7568477841 0.2387062567 -0.7564780024 0.0341160922 -0.0354842493
605296370.0 0.0334158672 -0.036671666 0.2305998777 -0.7593703515 0.2309646283 -0.7591409032 0.0337217453 -0.0357914414
610296340.0 0.0329568589 -0.0369079609 0.2220033832 -0.7617322237 0.2225506711 -0.7623059021 0.0336347666 -0.0362948777
615296310.0 0.0329611816 -0.0377963361 0.2140495914 -0.7638660106 0.2135461285 -0.7646539739 0.0331090322 -0.036184457
620296280.0 0.0321158888 -0.0379059667 0.2058325498 -0.7666584382 0.2053279035 -0.7661438506 0.0320997458 -0.036892225
625296250.0 0.0309271992 -0.0385678225 0.1979438178 -0.7693107478 0.197443562 -0.7688779893 0.0326697221 -0.0370224863
630296220.0 0.0315907536 -0.0383810395 0.1882330426 -0.7708890208 0.1880187106 -0.7708802542 0.0314347125 -0.0371035544
635296190.0 0.0297737408 -0.0391944405 0.1804144983 -0.7723904229 0.1800871339 -0.7725967776 0.0309139305 -0.0372124976
640296160.0 0.0292900824 -0.0389877627 0.1713806604 -0.7744293877 0.1721224098 -0.7742663143 0.0302796368 -0.0378640201
645296130.0 0.0288949407 -0.0391296644 0.1630783591 -0.7760439723 0.1635621178 -0.7764773354 0.0300741417 -0.0378975856
650296100.0 0.0285397733 -0.039850781 0.1548391458 -0.7780806105 0.1550426566 -0.7779621407 0.0298909867 -0.0387795535
655296070.0 0.0274022987 -0.0400586203 0.1464303656 -0.7801001302 0.1465251716 -0.7798975262 0.029130921 -0.0387018213
660296040.0 0.0265796572 -0.0407045036 0.1379139386 -0.7817538825 0.1382523817 -0.7816062217 0.0287521671 -0.0388410186
665296010.0 0.0267480129 -0.0405917539 0.1287627305 -0.7824576525 0.1294189181 -0.7826999822 0.0283352768 -0.038419212
670295980.0 0.0248946095 -0.0403722595 0.1204777262 -0.7842251015 0.1204434761 -0.7842058201 0.0272285952 -0.0393395617
675295950.0 0.0250265284 -0.0403781394 0.1125907682 -0.7855092464 0.1124595034 -0.7846808781 0.0263306191 -0.0392104608
680295920.0 0.0238562478 -0.0410767554 0.103070102 -0.7863945052 0.10330044 -0.786975763 0.0262311261 -0.0384326638
685295890.0 0.0237465237 -0.0405127151 0.0950612025 -0.7874357228 0.0946202857 -0.7876845176 0.025476819 -0.0390631361
690295860.0 0.0234082476 -0.0406405287 0.0864460997 -0.7876834894 0.086242059 -0.7890763076 0.0249222884 -0.0385076122
695295830.0 0.0229299903 -0.0413299516 0.0786305774 -0.7891024513 0.0775249503 -0.7891723231 0.0242851856 -0.0389831965
700295800.0 0.0221968795 -0.0417967316 0.0687777358 -0.7901219323 0.0686181589 -0.7898368571 0.0237203006 -0.0385293074
705295770.0 0.0214798803 -0.0410205809 0.0600996648 -0.7908568877 0.0608016169 -0.7909931061 0.0227587745 -0.0389203658
710295740.0 0.0209563282 -0.041342242 0.0526268146 -0.7919896277 0.0528239233 -0.792113281 0.0224324811 -0.0398753799
715295710.0 0.0196514204 -0.0417409904 0.0439392692 -0.7921558592 0.0434069109 -0.7921206188 0.0221160666 -0.0397171691
720295680.0 0.0195748028 -0.041872477 0.0350896919 -0.7928204217 0.0349880774 -0.7923613498 0.0212405063 -0.0388171638
725295650.0 0.0192829662 -0.0417508072 0.0258543408 -0.7928180857 0.0260722266 -0.7930722921 0.0202721789 -0.0392358091
730295620.0 0.0186083977 -0.041688324 0.0179110149 -0.7925174796 0.0176546745 -0.7930923155 0.0195153851 -0.0398026699
735295590.0 0.0178369798 -0.0416037273 0.0088582795 -0.7930895259 0.0088378077 -0.7934204079 0.0187154864 -0.0396587668
740295560.0 0.0168141043 -0.0415900326 0.0004097094 -0.7929929947 0.0002720772 -0.7929010743 0.0187588114 -0.0395923395
745295530.0 0.0165846279 -0.0414844624 -0.0081696055 -0.7923370626 -0.0083945249 -0.7933016625 0.0180714716 -0.0400876885
750295500.0 0.0161813644 -0.0418979014 -0.0169648147 -0.7926432572 -0.0170254611 -0.7929079842 0.0172184718 -0.0400041641
755295470.0 0.0155880655 -0.0420675508 -0.0253255698 -0.7926252381 -0.0252460476 -0.7931759729 0.0173390284 -0.0406946931
760295440.0 0.0147697113 -0.0415334259 -0.0344999203 -0.7923594176 -0.0341563292 -0.7928620359 0.0164440016 -0.0403844108
765295410.0 0.013796926 -0.0419171652 -0.0428734057 -0.7919332387 -0.0433911604 -0.7917256007 0.0158694767 -0.040342446
770295380.0 0.0131227321 -0.0422429456 -0.0517023358 -0.7915893493 -0.0519004847 -0.7908689594 0.0150014935 -0.040950867
775295350.0 0.0126935134 -0.0427980382 -0.0602311519 -0.7902422144 -0.0600629253 -0.7906060438 0.0136815116 -0.0401576415
780295320.0 0.0122982798 -0.0424604647 -0.0681435807 -0.7897971773 -0.0685120518 -0.7901065787 0.0135375312 -0.0411635921
785295290.0 0.0113829349 -0.0431545911 -0.0777351843 -0.7890027934 -0.0770963149 -0.7888738192 0.0138764418 -0.0403949585
790295260.0 0.0113583073 -0.0417399843 -0.0853844455 -0.7878688818 -0.0847366998 -0.7879229784 0.0126632118 -0.0404223462
795295230.0 0.0106198273 -0.042580551 -0.0945114192 -0.7871285031 -0.09366281 -0.7871779072 0.0125361623 -0.0404123604
800295200.0 0.0094616723 -0.042017284 -0.103767786 -0.7857369712 -0.1031984568 -0.7861867443 0.0116984503 -0.0407847777
805295170.0 0.0091791404 -0.0421970452 -0.1115758719 -0.7845216178 -0.1117088227 -0.7853732657 0.0112274767 -0.0404134969
810295140.0 0.0079993459 -0.0428543979 -0.119735854 -0.7830729261 -0.1201945828 -0.7834399262 0.0110004785 -0.040052529
815295110.0 0.0080653276 -0.0429787731 -0.1283923656 -0.7823580785 -0.1280628135 -0.7822294153 0.0098434202 -0.0403203868
820295080.0 0.0066344064 -0.0418115843 -0.1367750994 -0.780542909 -0.1366096443 -0.7806216531 0.0094519572 -0.040370314
825295050.0 0.0069392715 -0.0419325109 -0.1449808234 -0.7788455371 -0.1452801451 -0.7794262499 0.0090797154 -0.0402197146
830295020.0 0.0059777663 -0.0416325996 -0.1541075707 -0.7770184572 -0.1535998283 -0.7770838359 0.0091396692 -0.0399376303
