!Created with skrf (http://scikit-rf.org).
# Hz S RI R 50.0 
!freq ReS11 ImS11 ReS21 ImS21 ReS12 ImS12 ReS22 ImS22
300000.0 -0.2118132861 -0.0793779056 -0.0016059936 0.0015124346 0.0005593191 0.0023559902 -0.7717324614 -0.1674841605
5299970.0 -0.213930516 0.0084989504 6.26416e-05 -0.0001144648 0.0001432106 -5.88285e-05 -0.7848846618 -0.0085933777
10299940.0 -0.2103419453 0.0212300552 -0.0002089724 0.0001249388 -0.0001380431 -5.64465e-05 -0.7883252514 -0.0050947518
15299910.0 -0.2055866539 0.0309292149 1.49134e-05 -0.0001208093 0.0001063545 0.0001034019 -0.7937435947 -0.0033451324
20299880.0 -0.1992940209 0.0391555827 2.4368e-05 -0.0001028115 8.80587e-05 0.0002109095 -0.8006161994 0.0016651427
25299850.0 -0.1929719817 0.0456911746 -8.88995e-05 -3.51094e-05 7.46906e-05 7.07999e-05 -0.8066789369 0.0076138633
30299820.0 -0.1862814306 0.0505775787 0.0002049229 0.0001007645 7.2994e-05 -7.33045e-05 -0.8129126475 0.0148287475
35299790.0 -0.1800174916 0.0545277102 0.0001394408 -7.5162e-06 -0.000125714 8.7549e-06 -0.8179580197 0.0238076398
40299760.0 -0.1739941823 0.0569909628 -0.0001420141 -0.0001981148 4.22277e-05 0.0001579393 -0.8222157085 0.0331083314
45299730.0 -0.1684638088 0.0596418339 9.11829e-05 -4.36938e-05 -0.000143919 0.0001520361 -0.8252246086 0.0423155625
50299700.0 -0.1628873674 0.0605645721 -0.000105851 -0.000162419 -0.0001299149 4.76217e-05 -0.8276602944 0.0529681047
55299670.0 -0.1583540233 0.0616093342 0.000182031 0.0001075202 -0.0002071618 0.0001428343 -0.8297763153 0.0630794381
60299640.0 -0.1538581681 0.0620946188 -0.0001865922 0.0001295264 -6.33837e-05 -1.368e-06 -0.8309633422 0.0732110009
65299610.0 -0.1501896754 0.0626872234 -0.0001823196 7.12171e-05 -0.0002314128 0.0001529915 -0.8317481196 0.0827197745
70299580.0 -0.1463190275 0.0625795621 -5.31087e-05 0.0002022568 9.82912e-05 -2.76931e-05 -0.8322672075 0.0931603954
75299550.0 -0.1431136458 0.0626114436 0.0002410441 0.000153832 -5.0643e-06 0.0002818579 -0.832519553 0.1023555169
80299520.0 -0.1404938558 0.062672091 0.0001393573 0.0001566889 -5.71212e-05 0.0001652434 -0.8321930424 0.1124894544
85299490.0 -0.137937529 0.0622553597 -1.04213e-05 -8.84762e-05 -0.0001641345 0.0002113629 -0.831535909 0.1214855495
90299460.0 -0.1356401202 0.0624115676 -6.43334e-05 -0.0002011057 -7.24002e-05 -3.49344e-05 -0.8308988821 0.1311022577
95299430.0 -0.1332216624 0.0618894786 -0.0001072305 0.0002120193 1.45737e-05 0.0001252504 -0.8297476768 0.1413724851
100299400.0 -0.1317269688 0.0621856077 8.50854e-05 0.0001053982 9.24358e-05 -5.05146e-05 -0.8293682493 0.149659172
105299370.0 -0.1298293008 0.0617258621 6.25766e-05 -5.62634e-05 7.30551e-05 -0.000144779 -0.8271419263 0.1593854364
110299340.0 -0.1285269652 0.061457709 0.000141374 8.5063e-06 -3.62407e-05 6.1791e-05 -0.8265312592 0.168291164
115299310.0 -0.1268122065 0.0610445708 0.000161882 -7.4668e-06 -7.15324e-05 3.8664e-06 -0.8248971685 0.1768468381
120299280.0 -0.1257426753 0.0613835419 5.55562e-05 0.0001487523 5.33803e-05 0.0001047986 -0.8233378274 0.1862370831
125299250.0 -0.1246241408 0.0607893856 -9.80714e-05 -3.83436e-05 8.38897e-05 -0.0001964694 -0.8216913155 0.195679252
130299220.0 -0.1234049052 0.06124892 1.91398e-05 8.62319e-05 0.0001091552 5.62976e-05 -0.8196470519 0.2043714622
135299190.0 -0.1224890417 0.0610673416 1.12774e-05 0.0001835822 0.0001303161 0.0001844747 -0.817906317 0.2126097888
140299160.0 -0.1217248201 0.0613983898 5.94947e-05 0.000235194 5.67129e-05 3.12389e-05 -0.8160372713 0.2214393194
145299130.0 -0.1204906369 0.0613887545 0.0002097579 3.83466e-05 3.67014e-05 0.0002559436 -0.8136144945 0.2296692048
150299100.0 -0.1200107026 0.0617383813 7.02275e-05 4.3031e-06 -0.0001988849 -5.6121e-06 -0.8115328186 0.2388917371
155299070.0 -0.1192027377 0.0621284453 8.9512e-06 -9.25428e-05 -1.12529e-05 0.0001449841 -0.8097461118 0.2472213629
160299040.0 -0.1187203601 0.0621972118 0.0001170475 2.95518e-05 0.0001231236 0.0002111706 -0.8075474746 0.2568953038
165299010.0 -0.1181121338 0.0627340682 0.0001292641 4.21745e-05 -7.14025e-05 -0.0001140271 -0.8040523992 0.2647325989
170298980.0 -0.1175893252 0.0626555289 -1.8563e-05 9.092e-05 5.35667e-05 5.3514e-05 -0.8020061777 0.2735335597
175298950.0 -0.1168012638 0.063474858 0.0001239732 0.0002155364 -9.07609e-05 -9.73394e-05 -0.7990628117 0.2819422088
180298920.0 -0.1164398235 0.0637135243 6.11129e-05 2.87289e-05 3.60763e-05 2.29872e-05 -0.7956034046 0.2903187625
185298890.0 -0.1159754686 0.0643103772 -4.54394e-05 0.0001138674 -0.0001127318 0.0001511005 -0.7934701186 0.2984013657
190298860.0 -0.1155549184 0.0647325005 0.0001000354 0.0002402912 2.57852e-05 5.17801e-05 -0.7899382383 0.3076058489
195298830.0 -0.1146514772 0.0649232952 8.23961e-05 -7.93938e-05 -0.0001620243 0.0002002883 -0.7869060401 0.3155184992
200298800.0 -0.1142940443 0.0659592968 8.18726e-05 -5.4647e-05 -7.92096e-05 2.3426e-06 -0.783703786 0.3236535709
205298770.0 -0.1138841265 0.0664637045 1.62252e-05 0.0003679069 7.8219e-05 0.0001486812 -0.7800334653 0.3317925207
210298740.0 -0.1131243253 0.0671200437 6.39779e-05 0.0002686306 0.0001610916 0.0003382667 -0.7768540811 0.3407379866
215298710.0 -0.1131119723 0.0679949215 -4.22014e-05 0.0001922776 0.000272205 -4.2182e-06 -0.7736327088 0.3482216293
220298680.0 -0.112570971 0.0684283621 0.0001406119 5.67708e-05 0.0002398191 1.93983e-05 -0.7698269753 0.3572971212
225298650.0 -0.1117448115 0.0692403102 6.11818e-05 6.19918e-05 0.0002073955 0.0002064065 -0.7663060127 0.3648649656
230298620.0 -0.1113674623 0.0700420657 0.0001599795 -1.05907e-05 6.38468e-05 7.0635e-05 -0.7618165897 0.3725409283
235298590.0 -0.1111015018 0.0707878854 -0.0001086104 8.9851e-05 0.0001232896 0.0001005614 -0.758051245 0.3806193774
240298560.0 -0.1108129601 0.0716733362 2.9109e-06 0.0001566634 0.0001779212 -1.79658e-05 -0.753992105 0.3886976016
245298530.0 -0.1099741378 0.0722540982 7.66998e-05 6.69756e-05 -4.7006e-05 0.0002282878 -0.750380356 0.3965784109
250298500.0 -0.109819663 0.0730248838 4.33946e-05 -0.0002026351 0.0001170998 7.64807e-05 -0.746069737 0.4048696887
255298470.0 -0.1091962173 0.0741675663 -6.35194e-05 0.0001133913 0.0001264394 8.17029e-05 -0.7412703436 0.4125646811
260298440.0 -0.1085468539 0.0747598556 0.0001483481 0.0001004976 -8.80872e-05 0.0001304307 -0.7369225214 0.4197250822
265298410.0 -0.1081676935 0.0758023972 7.19991e-05 5.20214e-05 3.61377e-05 -0.0001012329 -0.7325927709 0.4276701621
270298380.0 -0.1076274662 0.0765864798 0.0002676214 0.0002018464 1.97785e-05 1.5099e-06 -0.7275166248 0.4355154762
275298350.0 -0.1069287362 0.0777379737 -6.8845e-06 0.0003775671 0.000142227 -0.0001033261 -0.7230724573 0.4431917464
280298320.0 -0.1063887139 0.0786563195 3.82587e-05 0.0001286048 7.13111e-05 0.0001069414 -0.7183092732 0.4504382949
285298290.0 -0.1058391484 0.0795790895 -9.69186e-05 -0.0001578408 0.0001754169 0.0002532751 -0.7137373586 0.4581114654
290298260.0 -0.1053014812 0.0804330902 0.0001949851 0.0001701723 6.72869e-05 8.89356e-05 -0.7087762716 0.4655578871
295298230.0 -0.1048926764 0.0810793343 0.0001029202 0.0001549446 0.0001382234 0.000159469 -0.7034805502 0.4728296179
300298200.0 -0.1041822216 0.0819229089 5.9043e-06 -0.0001735068 0.0001514954 0.0001724697 -0.6988264709 0.4801400218
305298170.0 -0.1032342735 0.083103293 0.0001146663 5.64102e-05 5.41246e-05 0.0001060018 -0.6935568429 0.4876908993
310298140.0 -0.1029962876 0.0835842819 0.0001888865 1.83533e-05 0.0002329194 5.73566e-05 -0.6888426603 0.4953493496
315298110.0 -0.1026398458 0.0843949295 0.0004400249 0.0001269355 0.0003146486 -3.41328e-05 -0.6829685004 0.5021846718
320298080.0 -0.1016484902 0.0852960202 0.0002159252 6.79173e-05 7.28921e-05 -5.12236e-05 -0.6778770369 0.5094887536
325298050.0 -0.1012568635 0.0859793043 -0.0001257281 0.0002306399 1.31769e-05 0.0001161718 -0.6724347135 0.5161180976
330298020.0 -0.1009694776 0.0871512772 2.0025e-05 -1.29214e-05 6.50077e-05 0.0002078002 -0.6668812117 0.5232849692
335297990.0 -0.1003379157 0.0882717251 0.0002420614 -3.49778e-05 9.16307e-05 0.0001187371 -0.6614937395 0.5300920572
340297960.0 -0.0998249285 0.0893839095 9.565e-05 -1.88546e-05 0.0001030104 1.91831e-05 -0.6557146636 0.5366935408
345297930.0 -0.0993312145 0.0900949809 0.000321042 5.0334e-06 6.55534e-05 0.000114125 -0.6502374693 0.5439919079
350297900.0 -0.0984912107 0.0912878127 -9.20619e-05 0.0002696319 0.0001623885 -4.63667e-05 -0.6437923149 0.5508972509
355297870.0 -0.0982234942 0.0921982858 0.0001216285 0.0001339044 -8.77714e-05 0.0002291741 -0.6385943234 0.5575791132
360297840.0 -0.0972873161 0.0931714303 0.0001177286 0.0003099743 0.000161182 0.0001368231 -0.6326196916 0.563686623
365297810.0 -0.0965684504 0.0943523739 0.0002328024 0.0001408137 9.68543e-05 7.14203e-05 -0.626537734 0.5708441745
370297780.0 -0.0958557701 0.0952159297 0.0002466139 0.0001509645 0.0001862179 0.0002448006 -0.6206542013 0.5762351068
375297750.0 -0.0949753923 0.0963728555 0.000156097 0.0002243964 0.0002331309 -0.0001213891 -0.6140638662 0.5835120412
380297720.0 -0.0938460978 0.0969162454 7.61744e-05 -0.0001782818 0.0003147796 7.32224e-05 -0.6080770212 0.5900518426
385297690.0 -0.0935202374 0.0985425642 0.0002736733 0.0001212524 0.0003042542 0.0001149274 -0.6021127653 0.5959758166
390297660.0 -0.0927831902 0.0992610028 0.0001025615 0.0001323034 0.0001729247 -0.0001490431 -0.5957969736 0.6018702597
395297630.0 -0.0919327689 0.1004307451 0.0001128481 -2.2983e-05 0.0002989053 0.0001562931 -0.5891847598 0.6086057626
400297600.0 -0.0911240376 0.1015963823 4.09806e-05 0.0001407496 -2.72096e-05 0.0001365568 -0.5829960115 0.6141056731
405297570.0 -0.0902761502 0.1023284685 8.3829e-05 -0.0001471276 0.0001134376 0.0002100185 -0.5772266137 0.6201946915
410297540.0 -0.0895179866 0.103263864 4.5849e-05 7.5674e-06 3.9287e-05 9.84963e-05 -0.5700935902 0.6256653434
415297510.0 -0.0886765073 0.1041762253 0.0002781045 4.85645e-05 8.26301e-05 -3.61836e-05 -0.5639601122 0.6315831045
420297480.0 -0.0877558407 0.1050673164 7.86401e-05 0.0001792622 0.0001438942 -7.695e-07 -0.556848769 0.6366653011
425297450.0 -0.0869325467 0.1060528887 6.34046e-05 9.85255e-05 0.0001790267 0.0001382858 -0.5506542483 0.6431144004
430297420.0 -0.0862825156 0.1070565391 0.000277733 4.82583e-05 -0.0001485775 0.0002207552 -0.544426098 0.6486387631
435297390.0 -0.0851271211 0.1081538354 0.0002686625 2.66757e-05 7.69977e-05 2.1335e-06 -0.537295551 0.6532892238
440297360.0 -0.0840794565 0.1092612298 0.0002441208 0.000141554 -5.5398e-06 0.000230596 -0.5303383674 0.6584350051
445297330.0 -0.0833637065 0.1103998133 0.0001731625 0.0002146735 0.0001839072 8.84454e-05 -0.523624797 0.663983511
450297300.0 -0.0823811837 0.1105391117 -1.16639e-05 0.0001902053 1.90406e-05 -0.0001396164 -0.51732784 0.6697487612
455297270.0 -0.0815467614 0.1117721317 -6.78714e-05 -6.5004e-05 0.0001407733 -1.56176e-05 -0.5098798509 0.6750834622
460297240.0 -0.0804774277 0.1127031081 8.9348e-05 8.94216e-05 4.61638e-05 4.45379e-05 -0.5032060752 0.6806021024
465297210.0 -0.0792009991 0.1138503491 0.000269272 0.0002158759 2.57789e-05 0.0002411407 -0.4961771115 0.6846184828
470297180.0 -0.0784859677 0.1146304731 0.0001611109 6.8993e-05 9.11769e-05 0.0001699449 -0.4895228602 0.6898769235
475297150.0 -0.0775023782 0.1155465218 0.0002099914 0.0001523254 0.0001435629 4.16222e-05 -0.4821838085 0.6944179778
480297120.0 -0.0766534815 0.1162963324 0.0003620198 8.3051e-06 0.0003664824 -2.25886e-05 -0.4754111494 0.6997582787
485297090.0 -0.0755536669 0.1172003587 0.0002953106 0.0002007593 0.0002912502 6.09331e-05 -0.4680488908 0.7039142412
490297060.0 -0.0746535894 0.1181970901 0.0001040078 0.0002620011 0.0001231935 9.24536e-05 -0.4612739586 0.7084018368
495297030.0 -0.0734683956 0.1191429077 0.0002516551 7.19191e-05 0.0002327222 9.3433e-06 -0.4533323713 0.7127120985
500297000.0 -0.0724800251 0.1198361101 0.0002552775 0.000153868 0.0003362534 1.51495e-05 -0.4465790894 0.7175831158
505296970.0 -0.0715185019 0.1207505236 0.000209058 0.0002319219 0.0003293481 0.0001070941 -0.4402988589 0.721933129
510296940.0 -0.0704175237 0.1220200793 0.0002151688 -9.62112e-05 0.0001442651 -3.74335e-05 -0.4318569611 0.7264352902
515296910.0 -0.0693770331 0.1226007282 0.0001064765 -6.03297e-05 -1.46275e-05 -1.0042e-05 -0.4250035724 0.7306278179
520296880.0 -0.068305081 0.1233447207 0.0004305954 7.42847e-05 0.00028926 4.49598e-05 -0.4174703744 0.734819448
525296850.0 -0.0669700562 0.1240997852 0.0001446766 0.0001129516 0.0002728008 -0.0001113251 -0.4098758383 0.7393206555
530296820.0 -0.0659110008 0.1246468507 0.0002376991 0.0001988316 2.42059e-05 8.80724e-05 -0.403312685 0.742841737
535296790.0 -0.0647772205 0.1259510649 -5.8355e-05 0.0001784194 0.0001993856 2.73037e-05 -0.3953409461 0.7463988881
540296760.0 -0.0637458254 0.1265113019 0.0003231796 -6.9783e-06 0.0002262436 2.69394e-05 -0.3883152558 0.7506228379
545296730.0 -0.0625806609 0.1272640534 3.42717e-05 2.93206e-05 0.0002276967 6.8471e-05 -0.3808122648 0.7541532107
550296700.0 -0.0616281299 0.1281896367 0.0003610232 -0.0002585559 0.0002208864 -4.60116e-05 -0.3734030909 0.7582927588
555296670.0 -0.0599455583 0.1288288368 0.0001270885 9.04908e-05 9.64115e-05 7.0944e-06 -0.365561749 0.7619916814
560296640.0 -0.0590739423 0.1298197255 0.0002191117 4.24847e-05 0.0001606901 -0.0002339971 -0.3575670902 0.7653864307
565296610.0 -0.0580123065 0.1306339597 -1.00212e-05 -0.0001926276 0.0002756264 -8.26945e-05 -0.3509777161 0.7689772202
570296580.0 -0.0568037021 0.1310715489 1.7222e-05 6.79768e-05 0.0002272718 -8.42324e-05 -0.3436120897 0.7725380522
575296550.0 -0.055488294 0.1317535834 0.0003804962 -1.5562e-05 0.0001147115 -9.16671e-05 -0.3349063822 0.7756169999
580296520.0 -0.0541900419 0.1326353267 2.73709e-05 0.0001316993 0.0002637247 -1.71892e-05 -0.3273454486 0.7792673411
585296490.0 -0.0530191048 0.1334819146 0.0001208409 -0.0001098856 0.0001606567 -0.0002132592 -0.3198529934 0.781437683
590296460.0 -0.0521633394 0.1338293874 4.28192e-05 -2.53097e-05 0.0004401586 0.0001597235 -0.3115560064 0.7848401724
595296430.0 -0.05077383 0.1348251155 0.0004526679 1.5839e-06 0.0002151692 0.000204881 -0.3038472066 0.7877152102
600296400.0 -0.0494853502 0.1353545916 0.0003566353 -0.0002738926 0.0003293203 -0.0001171859 -0.2962038172 0.7907397019
605296370.0 -0.0479982922 0.1358378703 8.51427e-05 0.0001473868 0.0002042792 7.59379e-05 -0.288825964 0.7943879178
610296340.0 -0.046841657 0.1366633958 0.0002764628 7.93647e-05 0.0004060073 -4.7645e-05 -0.2800246537 0.7965511251
615296310.0 -0.0456451282 0.1373961343 0.0002327679 -0.0001466331 7.85265e-05 6.3354e-05 -0.2728658542 0.7993398106
620296280.0 -0.0442957487 0.1378918224 8.37026e-05 0.0002220594 6.48563e-05 9.22565e-05 -0.2649636672 0.8021391758
625296250.0 -0.0430637934 0.1383756246 -0.0001026194 -6.56604e-05 0.0002667554 -9.69769e-05 -0.2569414962 0.8049564347
630296220.0 -0.0417526183 0.1391463279 0.0004183574 -6.04345e-05 0.0001673677 -0.0001678311 -0.2487223665 0.8076524058
635296190.0 -0.0404791548 0.1397622402 8.88691e-05 -0.0001716822 -4.04518e-05 2.69707e-05 -0.2411009346 0.8093366947
640296160.0 -0.0390448798 0.1402371294 0.0002967441 5.75912e-05 8.19267e-05 -1.3526e-06 -0.2327052079 0.8117835349
645296130.0 -0.0379694912 0.1410119102 0.0001860181 5.20681e-05 0.0002446272 2.73791e-05 -0.2247348369 0.8139991858
650296100.0 -0.0365435928 0.141489636 0.0003019642 -0.0001342523 0.0001499988 3.26165e-05 -0.2170827513 0.8167799898
655296070.0 -0.0352638939 0.142077407 0.0003266769 -0.0002224375 0.0001156699 2.46043e-05 -0.2080978615 0.8182176842
660296040.0 -0.0343090351 0.1428132288 2.25525e-05 -0.0001125968 0.0002883433 0.0001364522 -0.2006362637 0.8202121122
665296010.0 -0.0324310317 0.1431281112 3.77493e-05 3.07887e-05 0.0004026198 -0.0002147525 -0.1929744346 0.8223616295
670295980.0 -0.0310652187 0.1436205915 0.0002160858 -5.63134e-05 0.0002934355 5.699e-06 -0.1850106902 0.8239605647
675295950.0 -0.0297334393 0.143987225 0.0003231607 1.26861e-05 0.0002926711 -8.69078e-05 -0.1759775856 0.8260307373
680295920.0 -0.0284159994 0.1449658258 0.0001390191 -0.0001995838 0.0003570085 4.37846e-05 -0.1682189783 0.8278578207
685295890.0 -0.0268880684 0.1454025046 0.0002880393 -3.28584e-05 5.65254e-05 -0.0001009897 -0.159533887 0.8290053604
690295860.0 -0.0255921189 0.1457602417 0.0001896462 5.22224e-05 0.00020248 -0.000186771 -0.1519920732 0.8303175911
695295830.0 -0.0242427559 0.1461665453 0.0002395847 2.24851e-05 0.0001532789 -1.90786e-05 -0.143836273 0.8322600789
700295800.0 -0.0230466201 0.146366382 0.000220573 8.31965e-05 0.0002211417 0.0001872304 -0.1353303981 0.8329827578
705295770.0 -0.0213545096 0.1470688311 0.0001845713 -6.85178e-05 0.000380897 3.11699e-05 -0.1272853935 0.8350853423
710295740.0 -0.0201621005 0.1471334449 0.0002586824 -0.0001142651 1.64975e-05 -0.0001475599 -0.1190302512 0.8363504414
715295710.0 -0.0193373102 0.1480569096 8.29244e-05 -2.62234e-05 0.0001186133 0.0002475003 -0.1106585141 0.8374540091
720295680.0 -0.0174536003 0.1478924169 0.0002542481 -0.0001020156 -9.9587e-06 -3.49393e-05 -0.1024533048 0.8382716294
725295650.0 -0.015757719 0.1485451244 0.0002469682 7.66304e-05 0.0002249779 -0.0001285578 -0.0942211372 0.8399546579
730295620.0 -0.0147484138 0.1489165919 0.0003616858 -0.0001234361 0.0002207576 9.24747e-05 -0.0851749447 0.8402804429
735295590.0 -0.0130486061 0.1490740241 0.0002429195 8.68499e-05 0.000101188 -7.37046e-05 -0.0770241803 0.8405558131
740295560.0 -0.0117409275 0.1499313812 0.0002595762 0.0001488846 0.0001741797 -5.26423e-05 -0.0693567118 0.8414892757
745295530.0 -0.0103904298 0.1499986866 0.0001843955 -0.0001948506 0.0002468328 -7.13424e-05 -0.0610481197 0.8421296063
750295500.0 -0.0089195242 0.1500899285 0.0002180524 -0.000153681 0.0004362885 6.52164e-05 -0.0522107549 0.842190063
755295470.0 -0.0071833144 0.1505732056 0.0002173215 -7.77909e-05 0.0001122964 -4.07658e-05 -0.0447219884 0.8433896608
760295440.0 -0.0061103003 0.1508262096 0.0002833009 -0.0001055001 0.0002813284 7.04625e-05 -0.036262173 0.8436305096
765295410.0 -0.0045638307 0.150822767 3.00315e-05 2.32092e-05 0.0003706318 -7.0689e-06 -0.0271186322 0.8442503883
770295380.0 -0.0028858647 0.1513873843 0.0002226986 0.0001557096 0.0002628814 4.4863e-06 -0.0188367609 0.8441360547
775295350.0 -0.0018523282 0.151662659 0.0002253574 -5.28686e-05 0.0001670459 -6.05146e-05 -0.0117049628 0.8443611391
780295320.0 -0.0001645755 0.15155655 0.0001599127 -0.0002230678 0.0003961463 7.85674e-05 -0.0026771858 0.8447399986
785295290.0 0.0013716773 0.1520395077 2.88817e-05 5.83893e-05 0.0001906989 -2.02352e-05 0.0048672464 0.8443021408
790295260.0 0.0028528495 0.1520713066 0.0004206555 -2.59507e-05 0.0001861451 0.0001498075 0.0144263054 0.8446625097
795295230.0 0.0042576718 0.1526105773 0.0004500555 -0.0002810382 0.0003745583 -4.39584e-05 0.0221239886 0.8447474149
800295200.0 0.0060219019 0.1525542029 0.0003351413 0.0001025608 0.000220679 -5.54002e-05 0.0303530231 0.8441534196
805295170.0 0.0072150108 0.1527079589 0.0003766909 -6.10402e-05 0.0001408756 -0.0001131298 0.0383132476 0.8433928377
810295140.0 0.0087013075 0.1528630136 0.000125049 -0.0002289054 0.0003427948 4.71289e-05 0.0468674954 0.8439381631
815295110.0 0.0101834777 0.1527583873 0.0002154346 -2.63169e-05 0.0004818829 -0.000234669 0.055141402 0.8430022103
820295080.0 0.0116937374 0.152903926 0.0001694896 9.98553e-05 0.0002624463 0.0002934381 0.0633738959 0.8421369665
825295050.0 0.0133095034 0.1532043847 0.0004174854 -7.23282e-05 0.0001311181 -0.0001807729 0.0717886511 0.8415813338
830295020.0 0.0149548651 0.153282098 0.0001680978 -0.0001437057 5.50642e-05 -0.0001219085 0.0794345789 0.8409248765
835294990.0 0.0160875474 0.1535476665 0.0002447816 1.54159e-05 0.0003509649 -8.21073e-05 0.0879985789 0.8401322689
840294960.0 0.0177436886 0.1532385427 0.0003238744 -0.0002576433 0.0001740266 0.0001199718 0.0959229293 0.8390446363
845294930.0 0.0190502774 0.1536145711 0.0002846397 -6.16083e-05 4.17963e-05 2.0912e-06 0.1044409315 0.8386386656
850294900.0 0.0205809838 0.1535020092 0.0001206392 0.0001826929 0.0004252624 -9.35307e-05 0.1124129471 0.8374211953
