!Created with skrf (http://scikit-rf.org).
# Hz S RI R 50.0 
!freq ReS11 ImS11 ReS21 ImS21 ReS12 ImS12 ReS22 ImS22
300000.0 -0.3228092747 -0.0836607088 0.3766699546 0.044331588 0.3728544851 0.042302223 -0.3203231555 -0.0989489492
5299970.0 -0.3263358783 0.0043414079 0.378400483 0.0026136323 0.3783937822 0.0027637401 -0.3242688976 0.0046093172
10299940.0 -0.3240813015 0.0134831079 0.379231423 0.0018898928 0.3797004946 0.0023420553 -0.3213942177 0.0160834111
15299910.0 -0.3214725588 0.0202973291 0.3818083989 0.0022343345 0.3818215312 0.002294335 -0.3183594179 0.0233909741
20299880.0 -0.3187981396 0.0262613811 0.3850211132 0.0017634018 0.3848033908 0.0013949134 -0.3146560364 0.0303373996
25299850.0 -0.3158742879 0.0314219484 0.3882486459 0.0002433589 0.3880578519 0.0001222121 -0.3107824684 0.0362218647
30299820.0 -0.3127785911 0.0358753613 0.3912180023 -0.0021144592 0.3913268031 -0.0024357714 -0.3071289466 0.0409501968
35299790.0 -0.309786268 0.0399782067 0.3946316188 -0.005626496 0.3949560402 -0.0052552062 -0.3035827582 0.0452868913
40299760.0 -0.3073321022 0.0435120488 0.3980854372 -0.0085998895 0.3978897141 -0.0088255224 -0.2999111783 0.0486361481
45299730.0 -0.3046041918 0.0468110206 0.4006799857 -0.0129876178 0.4008172266 -0.012843966 -0.2974243166 0.0519103359
50299700.0 -0.3023691775 0.0496081884 0.4036946004 -0.0172455855 0.4033745053 -0.0170909872 -0.2941186814 0.0546972286
55299670.0 -0.3003939606 0.0524200215 0.405556257 -0.0222472005 0.4055032633 -0.0220047704 -0.2914473633 0.0569117207
60299640.0 -0.2980881322 0.0549437985 0.4073445524 -0.0269958193 0.4075517942 -0.0266590068 -0.2892437081 0.0593914977
65299610.0 -0.2963766873 0.0574504565 0.4092406708 -0.0318685785 0.4091421814 -0.0319287458 -0.2870310621 0.0615209961
70299580.0 -0.2946415754 0.0602134524 0.410360251 -0.0371364275 0.4105108654 -0.0367691738 -0.28512669 0.0636680005
75299550.0 -0.2930470721 0.0623647445 0.4113069144 -0.0423145757 0.4111877298 -0.0421646648 -0.2831981433 0.0661718378
80299520.0 -0.2915096343 0.0647887279 0.4122342729 -0.047630433 0.4125406966 -0.0472851777 -0.281444839 0.0681126836
85299490.0 -0.2900104083 0.0669055864 0.4127736456 -0.0524893993 0.412951919 -0.0522330548 -0.2799387345 0.070043965
90299460.0 -0.2889119617 0.069602778 0.4131365804 -0.0578914612 0.4133829351 -0.0577320788 -0.278449258 0.0721042669
95299430.0 -0.2873116364 0.0715366939 0.4137040265 -0.0631617334 0.4131909085 -0.0633312994 -0.2766642674 0.0741342723
100299400.0 -0.2862050939 0.0739859433 0.4127919242 -0.0683444161 0.4134229903 -0.0681484812 -0.2751537106 0.0761252618
105299370.0 -0.2852749398 0.0763202673 0.4132703018 -0.0736712198 0.4134334621 -0.0737016289 -0.2737506017 0.0782826958
110299340.0 -0.2839553257 0.0789241091 0.4132454673 -0.078773484 0.413062537 -0.0787611928 -0.2729705207 0.0804341424
115299310.0 -0.2831411425 0.0808534497 0.413101152 -0.0835119885 0.4127240038 -0.0837532675 -0.2714711135 0.0826008532
120299280.0 -0.2819680604 0.0831274447 0.4124268845 -0.0888730235 0.412441645 -0.0888856931 -0.2704563778 0.0844195672
125299250.0 -0.2811102261 0.0854283811 0.4117676441 -0.0939037147 0.4122633492 -0.0935345285 -0.2697057771 0.0861481196
130299220.0 -0.2802369894 0.0881926977 0.4110802651 -0.0992017758 0.411050984 -0.0991010712 -0.2683148869 0.0887082042
135299190.0 -0.2791589641 0.0907285664 0.4105559895 -0.1038786495 0.4107773918 -0.1038109317 -0.2670494712 0.0910153209
140299160.0 -0.2784961679 0.0934177018 0.4098261477 -0.1090601899 0.4097511785 -0.1090867156 -0.2662190128 0.093681682
145299130.0 -0.2772876921 0.0956337278 0.4090123137 -0.1140859554 0.4087730047 -0.114175377 -0.265387764 0.0958085524
150299100.0 -0.2761627775 0.0982035348 0.4077454268 -0.1186944424 0.4078956336 -0.1185204893 -0.2644578558 0.0984525982
155299070.0 -0.2755359562 0.1007193827 0.4070310197 -0.1241621332 0.4064417004 -0.12376154 -0.2632896545 0.1008017409
160299040.0 -0.2746302876 0.1032592256 0.4053390132 -0.1286299725 0.4054271382 -0.1285838385 -0.2627345143 0.103003909
165299010.0 -0.2737974313 0.1062855857 0.4042712134 -0.1338544114 0.4043503597 -0.1337540086 -0.2613325385 0.105826659
170298980.0 -0.2729037237 0.1086236599 0.4027596379 -0.1387314124 0.4032580947 -0.1383044275 -0.2602514926 0.1083962823
175298950.0 -0.2720578037 0.1111749167 0.4017516361 -0.1432014158 0.4015209021 -0.1430999135 -0.2596413893 0.110711317
180298920.0 -0.270893926 0.1140446161 0.4000121349 -0.1478994188 0.4001548136 -0.1477269644 -0.2585056328 0.1133533366
185298890.0 -0.2695855881 0.1167324959 0.3985314887 -0.1526668884 0.3985423562 -0.1527394398 -0.2570551009 0.1157660774
190298860.0 -0.2685979131 0.1192307085 0.3968103796 -0.1574096293 0.3970690739 -0.1568237753 -0.256340056 0.1180926772
195298830.0 -0.2677865963 0.1215415423 0.3951798294 -0.161678129 0.3951437056 -0.1618723082 -0.2551572408 0.1212058712
200298800.0 -0.26624688 0.1245268262 0.3934237802 -0.1665159734 0.393352078 -0.1664650594 -0.2544657603 0.1233683876
205298770.0 -0.2654842204 0.1273789509 0.3914717876 -0.1717109241 0.391742031 -0.1709230428 -0.2530717271 0.125417548
210298740.0 -0.2645497888 0.1298398721 0.3900004312 -0.1753977722 0.3897968283 -0.1753411773 -0.2518330802 0.128598534
215298710.0 -0.2633113467 0.1330396641 0.3880190485 -0.1802746788 0.3879994962 -0.1806412048 -0.251116668 0.1309339536
220298680.0 -0.2619782234 0.1351857639 0.3857516611 -0.1844264978 0.3861057519 -0.1847296836 -0.2500226499 0.1336820522
225298650.0 -0.2609524805 0.1381099584 0.3836783394 -0.1890681516 0.3842594167 -0.1888224699 -0.2492538131 0.13600644
230298620.0 -0.2597294385 0.1409945297 0.3819213715 -0.1931709371 0.3825030708 -0.1931728852 -0.2478195883 0.1383528484
235298590.0 -0.2582232617 0.1435145002 0.3798098251 -0.1976744392 0.3800773793 -0.197454933 -0.2466935322 0.1412475538
240298560.0 -0.2571065707 0.1463279578 0.3778514333 -0.2025353906 0.3776076913 -0.2022970315 -0.245195854 0.144056659
245298530.0 -0.2559217114 0.1486628678 0.3758360463 -0.2063976827 0.3755945379 -0.2064711208 -0.2437727157 0.145852878
250298500.0 -0.2544084349 0.1516445429 0.372868906 -0.2110796759 0.372702185 -0.2105180272 -0.2427750177 0.148174778
255298470.0 -0.2528102998 0.153930137 0.370538685 -0.2146368571 0.3707052649 -0.2149965791 -0.2409381397 0.150898945
260298440.0 -0.2514042885 0.1567121807 0.368136618 -0.2190278602 0.3684178699 -0.2192553684 -0.2395271243 0.1537762446
265298410.0 -0.2501129632 0.1601038829 0.3659760809 -0.2237450978 0.3661460902 -0.2233077049 -0.2381336104 0.1560355472
270298380.0 -0.2489791991 0.1626610717 0.3638699238 -0.2273963707 0.3638240202 -0.2273616135 -0.2369722459 0.1585409253
275298350.0 -0.2469284147 0.1649073766 0.3611072337 -0.2313138594 0.3612503476 -0.2312724997 -0.2352040771 0.1611182316
280298320.0 -0.2451086023 0.1679173807 0.3588713644 -0.2360656469 0.358572776 -0.235775426 -0.2336088513 0.163444613
285298290.0 -0.2438374974 0.1707099304 0.3562077293 -0.239844074 0.3555073536 -0.2397217252 -0.2316032052 0.1660606522
290298260.0 -0.2417257423 0.1731130923 0.3532989056 -0.2434569215 0.3534364619 -0.2435245426 -0.2299704995 0.168716063
295298230.0 -0.2402868876 0.1754726876 0.3510403645 -0.2476542057 0.3508585118 -0.2476322704 -0.2282371727 0.1708822607
300298200.0 -0.2385762015 0.178384747 0.3481105347 -0.2514889134 0.3481729288 -0.2519040804 -0.2267259599 0.1735660215
305298170.0 -0.2364367448 0.1805818445 0.3447081195 -0.2557522982 0.3447704337 -0.2555521704 -0.2243834037 0.1757392683
310298140.0 -0.2348523467 0.1834120462 0.3423076568 -0.2594615258 0.3424216639 -0.2594380976 -0.2232927956 0.1782810005
315298110.0 -0.2329405532 0.1858122788 0.3394421747 -0.2633915555 0.3395394878 -0.2633006016 -0.2213919007 0.1806001524
320298080.0 -0.2312425927 0.1881448428 0.3362230678 -0.2677166911 0.3368155306 -0.2674878778 -0.2194690517 0.1832555722
325298050.0 -0.2293183163 0.1910571504 0.3332768682 -0.2714017321 0.3333996884 -0.2713224692 -0.2179327582 0.1854392955
330298020.0 -0.2274687589 0.1930519185 0.330074669 -0.2751353117 0.3304600104 -0.2747880722 -0.215926234 0.1878197391
335297990.0 -0.2258007534 0.1957281464 0.3271746505 -0.2783999436 0.3272332507 -0.2785232688 -0.2147215806 0.1908291975
340297960.0 -0.2239567638 0.1982272575 0.3238308173 -0.2822424137 0.3237703816 -0.2823250848 -0.2124008831 0.1929457614
345297930.0 -0.2221353002 0.2005387041 0.3206411215 -0.2857090989 0.3206590181 -0.286026929 -0.2104835222 0.195284415
350297900.0 -0.2204098949 0.2033567421 0.3169629618 -0.2897734079 0.3173807284 -0.289502644 -0.2088910807 0.1979646838
355297870.0 -0.2178477265 0.2062802842 0.3140985464 -0.2932466375 0.3147204493 -0.2928011239 -0.2071846176 0.2003288208
360297840.0 -0.216087123 0.2082790525 0.3111364562 -0.2958911913 0.3114748811 -0.2960904964 -0.2048328584 0.2026352126
365297810.0 -0.2141668113 0.2110808364 0.3078039144 -0.2996469237 0.308286065 -0.299655657 -0.2031350276 0.205168333
370297780.0 -0.2119641976 0.2133001311 0.3040834746 -0.3029672329 0.304758915 -0.3028882753 -0.2003969473 0.2075411829
375297750.0 -0.2094729273 0.2156251685 0.3009462112 -0.3067142579 0.3011481351 -0.3061954195 -0.1985097347 0.209444643
380297720.0 -0.2075259223 0.2180034718 0.2973542247 -0.3096402687 0.2978386843 -0.3092444215 -0.1971580813 0.211676222
385297690.0 -0.2053270454 0.2204653911 0.2938022159 -0.3127556334 0.2940534192 -0.3125889064 -0.1948294242 0.2141328616
390297660.0 -0.2031323759 0.2224766099 0.2908024217 -0.3161289458 0.2906309426 -0.3159057765 -0.1928570263 0.2162964965
395297630.0 -0.2008245138 0.2250506515 0.2872801103 -0.3190979334 0.2871493654 -0.3192842122 -0.1901282841 0.2187936428
400297600.0 -0.198680622 0.2276926408 0.283654398 -0.3229473712 0.2836625528 -0.322474739 -0.1877440178 0.2207561944
405297570.0 -0.1966528079 0.2298025895 0.2801610263 -0.3254862428 0.2802417686 -0.3252583646 -0.1862462131 0.2227422494
410297540.0 -0.1937211954 0.2316175373 0.2764242746 -0.328416062 0.2770158505 -0.328426816 -0.1839335972 0.2251249627
415297510.0 -0.1912112648 0.2338974876 0.2724633443 -0.33162782 0.273022583 -0.3317126957 -0.1813229223 0.2274708515
420297480.0 -0.1894561691 0.2364203778 0.2690002431 -0.3346792781 0.2691435627 -0.3344453811 -0.1792969443 0.2287381782
425297450.0 -0.1866062773 0.2381420922 0.2654976782 -0.3374353735 0.2656920218 -0.3377951953 -0.1775468424 0.2313228508
430297420.0 -0.1839278336 0.2402519677 0.261696469 -0.339702925 0.261618197 -0.3399021157 -0.1748572453 0.2330431911
435297390.0 -0.1818475869 0.2425474407 0.257852103 -0.3433650557 0.2577130644 -0.3429894616 -0.1718850679 0.2350846063
440297360.0 -0.1789395777 0.2446710705 0.2539253313 -0.345841233 0.2545765267 -0.345777864 -0.1698594517 0.2369692879
445297330.0 -0.1767237917 0.2466952827 0.2505507314 -0.3487714269 0.2503248663 -0.3482736013 -0.1673685576 0.2383063422
450297300.0 -0.1741123746 0.2484675868 0.2463276436 -0.3514235275 0.2465181156 -0.3515581497 -0.164883258 0.2404834463
455297270.0 -0.1716186763 0.2503802122 0.2422507226 -0.3540256501 0.2428569752 -0.3540178598 -0.1624102347 0.242119465
460297240.0 -0.1693123396 0.252564043 0.2386562787 -0.3567575678 0.2386419959 -0.3568394671 -0.1594416283 0.2445831108
465297210.0 -0.1664685187 0.2545270179 0.2347333389 -0.3591326484 0.2347908023 -0.3594242046 -0.1568220587 0.2460828758
470297180.0 -0.163685454 0.25631834 0.2303511777 -0.361650456 0.2307086031 -0.3619307078 -0.1540274389 0.2478804816
475297150.0 -0.161155306 0.2580242916 0.226334622 -0.3635877993 0.2270217572 -0.3638442921 -0.1517136659 0.2492882531
480297120.0 -0.1582485727 0.2601803342 0.2227933899 -0.3666217242 0.2226355268 -0.3668044649 -0.1488667671 0.2513681813
485297090.0 -0.1555957191 0.2617245045 0.2187295602 -0.3686426512 0.218839972 -0.3685985499 -0.1461060247 0.2531599313
490297060.0 -0.1532259243 0.2636496703 0.2149300457 -0.3712044081 0.2146850255 -0.3711821904 -0.1436125665 0.2550311206
495297030.0 -0.1504124541 0.2654204142 0.2104398104 -0.3734100646 0.2110103483 -0.3735662482 -0.1408343736 0.25683076
500297000.0 -0.1475113005 0.2672120743 0.2062813952 -0.3756843647 0.2061470296 -0.3752688697 -0.1381945167 0.2588046489
505296970.0 -0.144432784 0.2688388156 0.2021408645 -0.3776730605 0.2021790704 -0.3777012516 -0.1354111107 0.2601614999
510296940.0 -0.1418899963 0.2703647244 0.1982924874 -0.379972866 0.1980200732 -0.3802853005 -0.1328382807 0.2620890815
515296910.0 -0.1386368798 0.2718571706 0.1938448893 -0.3821820218 0.1941187673 -0.382148467 -0.1301750588 0.2636620598
520296880.0 -0.1361708375 0.2736779379 0.1897316468 -0.3843535391 0.1899745318 -0.384478174 -0.1272836913 0.2651385072
525296850.0 -0.133158699 0.2749948118 0.1854155245 -0.3862661736 0.1858955106 -0.3863888594 -0.1245871396 0.2663529754
530296820.0 -0.1301342908 0.2767498701 0.1808966595 -0.3885444081 0.1810917414 -0.3879888635 -0.1216184145 0.2678182327
535296790.0 -0.1277766836 0.2782371931 0.1775456054 -0.3902921893 0.1770006625 -0.3899155355 -0.1191010596 0.2693448098
540296760.0 -0.124736049 0.279957515 0.1726367029 -0.3923095725 0.1725628935 -0.3923388612 -0.1163226985 0.2710117036
545296730.0 -0.1216772985 0.2812832101 0.1681476319 -0.3935697492 0.168598556 -0.3936292384 -0.1137359038 0.2718307701
550296700.0 -0.1186998887 0.2829782842 0.1641433047 -0.3957596013 0.1640066841 -0.3956641183 -0.1108960282 0.2736854154
555296670.0 -0.1157706879 0.2838975274 0.159837851 -0.3975756624 0.160063776 -0.3975883319 -0.1081895228 0.2754054636
560296640.0 -0.1125490869 0.2856942683 0.1553072456 -0.3991664134 0.155240956 -0.3990862317 -0.1047863636 0.2763752364
565296610.0 -0.1101076424 0.2868853849 0.1508514988 -0.4009827224 0.1512194986 -0.4006685633 -0.1021157852 0.277467005
570296580.0 -0.1069102085 0.287700646 0.146684518 -0.4023780615 0.1464628082 -0.4025408596 -0.0996846421 0.2791856372
575296550.0 -0.1039805174 0.2897097448 0.1423804358 -0.4040687823 0.1421897317 -0.4039020059 -0.096417723 0.2800973212
580296520.0 -0.1007642355 0.2905823021 0.1376007008 -0.4056611003 0.1377531505 -0.4053507504 -0.0934808434 0.2810897152
585296490.0 -0.0978496021 0.2913937412 0.1334079168 -0.4064640731 0.1333221371 -0.4070034228 -0.090519861 0.2824360761
590296460.0 -0.0944789036 0.2929590267 0.1289441423 -0.4078783353 0.129417167 -0.408015378 -0.0880943432 0.2834928405
595296430.0 -0.0915120765 0.2941242862 0.1242614655 -0.4099214834 0.124595316 -0.4094338938 -0.0845224259 0.2839612052
600296400.0 -0.088840322 0.2950515659 0.1201285902 -0.4108432034 0.12027114 -0.4106880686 -0.0819814834 0.2852595276
605296370.0 -0.0857427157 0.2964298085 0.1154677794 -0.4120661631 0.1159101356 -0.4118508263 -0.0784443137 0.2862367687
610296340.0 -0.0821442675 0.2974681677 0.110582723 -0.4133954439 0.1111437907 -0.4132687298 -0.0754991657 0.2870743674
615296310.0 -0.0791012904 0.2982294628 0.1062225267 -0.4141972934 0.1064826937 -0.4146691488 -0.072506305 0.2877588284
620296280.0 -0.0761387497 0.2990649567 0.1016360809 -0.4151715559 0.1019820017 -0.4153146479 -0.0697215235 0.2890507215
625296250.0 -0.0729826295 0.2999392238 0.0976806461 -0.4163276337 0.0977167143 -0.416921276 -0.0663482275 0.2897184543
630296220.0 -0.0693595339 0.3011961352 0.0924345662 -0.4177068504 0.0926322644 -0.4175702345 -0.0632814247 0.2908467924
635296190.0 -0.0667521903 0.3018776989 0.0883159249 -0.4185512178 0.0884094203 -0.418469523 -0.0602781595 0.291348839
640296160.0 -0.0638180224 0.3025518229 0.0839993069 -0.4189563716 0.084136049 -0.419213049 -0.057195197 0.2919089899
645296130.0 -0.06061948 0.3034158492 0.0789606268 -0.4200127462 0.0798860972 -0.4201628004 -0.0541001615 0.2932516133
650296100.0 -0.0573996251 0.3042023938 0.0748245782 -0.4208244297 0.0746417332 -0.4207540612 -0.0506592668 0.2935355993
655296070.0 -0.0540866639 0.30475372 0.0699940997 -0.4215101432 0.0703102769 -0.4216766382 -0.0476466232 0.2944248066
660296040.0 -0.0512606317 0.3053860653 0.0659273973 -0.4226044279 0.0657968025 -0.4224601721 -0.0443405278 0.295084991
665296010.0 -0.0473161846 0.3061699538 0.0606059022 -0.4232287669 0.0611488998 -0.4230416907 -0.0410580711 0.296106759
670295980.0 -0.0452543096 0.3071805906 0.0565081272 -0.4233559281 0.0566226582 -0.4234396909 -0.0384684539 0.2963498214
675295950.0 -0.0414189918 0.3075440017 0.0519998925 -0.4238334977 0.0521640783 -0.4237798423 -0.0355848677 0.2971451174
680295920.0 -0.0382150849 0.3078174298 0.0472337417 -0.4241371893 0.0467475063 -0.4248136307 -0.0321965567 0.2978485701
685295890.0 -0.0349095292 0.3089365142 0.0427490806 -0.4253015472 0.0424777443 -0.4252340649 -0.0290372228 0.298214621
690295860.0 -0.0316234575 0.3091031669 0.0380563947 -0.4253855062 0.0380395954 -0.4257801665 -0.0259870923 0.2991633383
695295830.0 -0.0285129227 0.3096072598 0.0334667597 -0.4257506226 0.0331353421 -0.4259108815 -0.0224070118 0.2992795431
700295800.0 -0.0250442673 0.3099536097 0.0287465049 -0.4257197083 0.0287802755 -0.4259955682 -0.0200633213 0.3000427437
705295770.0 -0.0220348065 0.3106662945 0.0242596972 -0.4263046792 0.0244249122 -0.4264613265 -0.0167709774 0.3006264652
710295740.0 -0.0187784258 0.3108477934 0.0196505695 -0.426799206 0.0198113326 -0.4269290098 -0.0134707122 0.3001221256
715295710.0 -0.0156443642 0.310941447 0.0151280832 -0.4264482635 0.0146384291 -0.4267559776 -0.0104186168 0.3006518446
720295680.0 -0.0123337147 0.3113229982 0.0105026244 -0.4270204708 0.010628515 -0.4270678324 -0.0070515056 0.3011860887
725295650.0 -0.0090286669 0.3118805992 0.0056204626 -0.426927588 0.0058717216 -0.4272114279 -0.0046050085 0.3015566346
730295620.0 -0.0055016394 0.3121843818 0.0010019673 -0.4268309662 0.0012924082 -0.4267848639 -0.0011680339 0.3015966681
735295590.0 -0.0025052104 0.3124533297 -0.0033686944 -0.4270147568 -0.0038337224 -0.4269938251 0.0018444649 0.3014568003
740295560.0 0.0007182979 0.3125246952 -0.0082102777 -0.4265698014 -0.0082094356 -0.4268528127 0.0057437062 0.3020187139
745295530.0 0.0036495469 0.3126774033 -0.012766881 -0.4259838162 -0.0130496517 -0.4265512646 0.0084410983 0.3016983781
750295500.0 0.0075766892 0.3124250849 -0.0176302486 -0.4262331975 -0.0171678836 -0.4263692777 0.0115975477 0.3019094833
755295470.0 0.0107524724 0.3127033932 -0.0219725186 -0.4259683172 -0.0222016689 -0.4262779756 0.0149043447 0.3014025177
760295440.0 0.0135821381 0.3128140894 -0.026547228 -0.4258822153 -0.0266375859 -0.4259873012 0.0176741717 0.3014239418
765295410.0 0.0171159495 0.3126211008 -0.0312168855 -0.4253007983 -0.0314106043 -0.4258025229 0.0210866953 0.3020042664
770295380.0 0.0202866513 0.3125200693 -0.035839742 -0.4250035014 -0.0357355173 -0.4251997524 0.0240247172 0.3013393739
775295350.0 0.0232747806 0.3120575812 -0.0405828699 -0.4242918823 -0.0399126146 -0.4244366971 0.026992207 0.3011407536
780295320.0 0.0268535139 0.3125710383 -0.0451825796 -0.4238335881 -0.044634797 -0.4238331278 0.0302400027 0.3008913856
785295290.0 0.0296883481 0.3114840843 -0.0499931317 -0.4232619977 -0.0495982158 -0.423643252 0.0337490158 0.3006418962
790295260.0 0.0337765799 0.3120285265 -0.0537901797 -0.4226368482 -0.0536212083 -0.422738499 0.0369730825 0.3007576727
795295230.0 0.0367187391 0.311612049 -0.0585237981 -0.422131046 -0.0582702704 -0.4224752118 0.0404348913 0.3003803727
800295200.0 0.0395027699 0.3115366784 -0.0634889504 -0.4215245539 -0.0631164266 -0.4214551731 0.0435488885 0.3001608785
805295170.0 0.0432674034 0.3109790325 -0.0675769348 -0.4210138664 -0.0677159034 -0.4214112159 0.0465874789 0.299909969
810295140.0 0.0461459821 0.31052849 -0.0722562689 -0.4196016372 -0.0722969627 -0.4203803342 0.0500249831 0.2995828921
815295110.0 0.0494295297 0.3100796788 -0.0769351414 -0.4187783045 -0.076223875 -0.4192309861 0.0529575079 0.2990604874
820295080.0 0.0526304801 0.3102268609 -0.0812954134 -0.4181905113 -0.0809141163 -0.4182107321 0.056470503 0.2987647082
825295050.0 0.0563941179 0.3092663258 -0.0852517039 -0.4168148809 -0.085437381 -0.4171492097 0.0594714349 0.2982602309
830295020.0 0.0593032604 0.3089738939 -0.0904546576 -0.4162725924 -0.0903050542 -0.4160176363 0.0631792178 0.2974575761
