!Created with skrf (http://scikit-rf.org).
# Hz S RI R 50.0 
!freq ReS11 ImS11 ReS21 ImS21 ReS12 ImS12 ReS22 ImS22
300000.0 -0.0981611421 -0.0820950896 0.6252991047 0.0763136083 0.6248024661 0.0816194627 -0.0982033479 -0.0904843678
5299970.0 -0.1002261319 0.012998312 0.6310316109 0.0103331792 0.630597759 0.0108813798 -0.102127293 0.0116930218
10299940.0 -0.0951885416 0.029966373 0.6345481033 0.0151198202 0.6344618777 0.015943469 -0.0972850958 0.0290145297
15299910.0 -0.0886535107 0.0431236185 0.6404596524 0.0204550364 0.6403414007 0.020530673 -0.0901646006 0.0418430542
20299880.0 -0.0793794833 0.0542349274 0.6485785092 0.0242117505 0.6491453277 0.0244016394 -0.0819165531 0.0531756657
25299850.0 -0.069859539 0.0627073371 0.6580006782 0.0249314211 0.6577877176 0.0251405401 -0.0725571197 0.0619496081
30299820.0 -0.0596935869 0.069269222 0.6680776869 0.0248739183 0.6675699083 0.0243967481 -0.0626131085 0.068776576
35299790.0 -0.0495742083 0.0744885712 0.6776138919 0.0219390531 0.6774904186 0.0217844304 -0.0526602336 0.0734629112
40299760.0 -0.0396617131 0.0770774348 0.6869628549 0.0176777137 0.6869264126 0.017476708 -0.0437771076 0.0770979581
45299730.0 -0.0302248344 0.0793942085 0.6955626254 0.0117377619 0.695667877 0.0117509277 -0.0339567178 0.0790461853
50299700.0 -0.0216838026 0.0797407832 0.7035388254 0.0046405484 0.7037964203 0.0048574896 -0.0254587405 0.0800426022
55299670.0 -0.0143507025 0.0797936881 0.7105094008 -0.0031301529 0.7109856917 -0.002973717 -0.0179001618 0.0797784628
60299640.0 -0.0066442561 0.0789468436 0.717381953 -0.0116816864 0.717718301 -0.0114112852 -0.0102891766 0.0795401663
65299610.0 -0.0002242272 0.0779763674 0.7237145868 -0.0193558462 0.7235669298 -0.0199413366 -0.0039534872 0.0785598176
70299580.0 0.0058916393 0.0758040226 0.7288875786 -0.0290200425 0.7285670304 -0.029088089 0.0022691422 0.0769479987
75299550.0 0.0117554495 0.0741864516 0.7334053335 -0.0388728423 0.7329662772 -0.0392718607 0.0083166651 0.0757206613
80299520.0 0.0161622261 0.0723036368 0.7380269851 -0.0488203138 0.7378000497 -0.0489223775 0.0132446482 0.0727925836
85299490.0 0.0207292695 0.069460672 0.7407045368 -0.0587186874 0.7407424494 -0.0590206377 0.0173771323 0.0709539456
90299460.0 0.0244241339 0.0675168415 0.7436545202 -0.0689894528 0.7438751734 -0.0689313441 0.0220991 0.0688270671
95299430.0 0.0283988083 0.0652964622 0.7463588241 -0.0792799963 0.745804858 -0.0792008755 0.0250634044 0.0661232936
100299400.0 0.0314360856 0.062841958 0.7474202973 -0.0892717666 0.7473605718 -0.0891407234 0.0284445719 0.0641002273
105299370.0 0.0346549557 0.0598409924 0.7486567277 -0.0993714155 0.7489845596 -0.0992382537 0.0319435702 0.0615853038
110299340.0 0.0369846782 0.0576318756 0.7498662466 -0.108798467 0.7502146383 -0.1097322068 0.0347200113 0.0591424323
115299310.0 0.0395454391 0.0550116577 0.7509269958 -0.1187309576 0.7517065289 -0.1191694335 0.0375149314 0.0564251097
120299280.0 0.0413280863 0.0526903268 0.7512451874 -0.1294435907 0.7514010941 -0.1299209659 0.0388669999 0.0540878538
125299250.0 0.0432398206 0.0503561723 0.7519203319 -0.1393825545 0.7518142012 -0.1395670164 0.0416181292 0.051421555
130299220.0 0.0448926185 0.0477589593 0.7515580143 -0.1488260931 0.7517453653 -0.1494293079 0.0434245842 0.0492948495
135299190.0 0.0468560051 0.0454851715 0.7512731161 -0.1589504526 0.7510583623 -0.1589628142 0.044507977 0.0475790887
140299160.0 0.0475540946 0.0441937845 0.7504550613 -0.1688143488 0.751119472 -0.1686120048 0.0461517357 0.045234248
145299130.0 0.0491444338 0.0418334129 0.7500768764 -0.1788362541 0.7499951603 -0.1785686199 0.0472024876 0.0425647195
150299100.0 0.0505098591 0.0398344677 0.7491264404 -0.1879695741 0.7494560179 -0.1882919527 0.0488236723 0.0407880177
155299070.0 0.0512607646 0.0384336558 0.7478207965 -0.1983850641 0.7479522986 -0.1982491787 0.0494093869 0.0389761331
160299040.0 0.0523825827 0.0361263345 0.7461359143 -0.2071752289 0.7461634386 -0.2072519973 0.0505358149 0.0373865207
165299010.0 0.0529453586 0.0342607578 0.745474396 -0.2170215073 0.7451485434 -0.2170784733 0.0517678166 0.0348421078
170298980.0 0.0533962196 0.0327875516 0.7422585051 -0.2261574285 0.7428251774 -0.2263515821 0.0525646157 0.0329088929
175298950.0 0.0542626138 0.0306461269 0.741607935 -0.2351327362 0.7414491323 -0.2353025577 0.0531395863 0.0311275185
180298920.0 0.0554165509 0.0289694882 0.7391795989 -0.2450447025 0.739372665 -0.244195405 0.0537898981 0.0299172798
185298890.0 0.0560005079 0.0272270279 0.7363807433 -0.2540974303 0.7367917317 -0.2538107126 0.0541465785 0.0275681961
190298860.0 0.0561109817 0.0259836191 0.7346029818 -0.2631532419 0.7346166176 -0.2628106625 0.055659436 0.0260575748
195298830.0 0.0563134794 0.0242074109 0.7319527769 -0.2712923561 0.7318362425 -0.272078364 0.055698871 0.0241421893
200298800.0 0.0569526034 0.0227996304 0.7300781171 -0.2802651338 0.7292747752 -0.2802925711 0.0562462036 0.0233430795
205298770.0 0.0571812633 0.021341207 0.7269147734 -0.2894380823 0.7266159634 -0.2897100252 0.0563543333 0.0207025809
210298740.0 0.0569898711 0.0198550911 0.7239491921 -0.2989709988 0.7238951663 -0.2987716142 0.0569819176 0.0199727669
215298710.0 0.0580702687 0.0188258057 0.7209356624 -0.306937795 0.7206157808 -0.3068089394 0.056900272 0.01840072
220298680.0 0.0580848769 0.0173132402 0.7173568143 -0.3160065534 0.7174660645 -0.3157959369 0.0573607388 0.0172453798
225298650.0 0.0584316794 0.0162420374 0.7137655228 -0.3240716108 0.7138343433 -0.3243183945 0.0575450702 0.01593343
230298620.0 0.0580079291 0.014967219 0.7114904638 -0.3328548826 0.7110498107 -0.3333153314 0.0579331155 0.0142050607
235298590.0 0.0582627719 0.0131912588 0.7073070064 -0.3407305308 0.707969595 -0.3419062863 0.0580928586 0.0127155153
240298560.0 0.0582335193 0.0120233944 0.7038856838 -0.3495188598 0.7041902721 -0.3491662152 0.0580628167 0.0117050612
245298530.0 0.0589047103 0.0113385007 0.6992410449 -0.3580897304 0.6997733536 -0.3579825366 0.058167807 0.010718933
250298500.0 0.0582029234 0.0094757046 0.6963164513 -0.3655644961 0.6966554221 -0.3655095737 0.0587892774 0.0089773825
255298470.0 0.0581774948 0.008953615 0.6921074853 -0.3743281348 0.6922470732 -0.3742637447 0.0587206122 0.0076814526
260298440.0 0.0582971451 0.0077996528 0.6879422095 -0.3817236536 0.6886780989 -0.3828554405 0.0593383955 0.007026858
265298410.0 0.0588828214 0.0070361108 0.6842811757 -0.3905647646 0.6840881151 -0.3908501486 0.0587969911 0.0053825696
270298380.0 0.0591336532 0.0055401483 0.6795270548 -0.3982288554 0.6801767242 -0.3985030715 0.0587866696 0.0050143606
275298350.0 0.0584478595 0.0048263252 0.6755896867 -0.4067551458 0.6764478006 -0.4065895652 0.0590991628 0.0037253917
280298320.0 0.0586914695 0.0040190386 0.6709412197 -0.4136734822 0.6714831878 -0.4145372167 0.0594067488 0.0027350151
285298290.0 0.058811594 0.0030263789 0.6665368594 -0.4216989145 0.6666283784 -0.4222014795 0.0588725467 0.0017769268
290298260.0 0.0587506962 0.0018045307 0.6622589033 -0.429645955 0.6625177475 -0.4297862792 0.0596923802 0.0006139239
295298230.0 0.0586330319 0.0008456487 0.6577697823 -0.4373749063 0.6577056728 -0.4373002365 0.0597216269 -0.0003582829
300298200.0 0.0591189921 -3.12299e-05 0.6529557743 -0.4451948753 0.6530738719 -0.4458836287 0.0592923342 -0.0013167707
305298170.0 0.0588218512 -0.0013717246 0.6481882497 -0.4530359165 0.6486582128 -0.4532911105 0.0598478876 -0.0025182796
310298140.0 0.0595156971 -0.0023667149 0.6440233972 -0.4605827872 0.6437732766 -0.4611234943 0.0594474296 -0.0029454811
315298110.0 0.0586207798 -0.0032740442 0.6379415119 -0.4682782218 0.6385166449 -0.4687293105 0.0598700676 -0.0048511461
320298080.0 0.0587409723 -0.0043544309 0.6328842699 -0.4756478264 0.6334871199 -0.4757705085 0.0594900487 -0.0058883761
325298050.0 0.0581057066 -0.0055921663 0.6285293289 -0.483220811 0.6282255729 -0.4836132633 0.0593533063 -0.0069857246
330298020.0 0.057976291 -0.0065519436 0.6216955487 -0.4908116472 0.6219337563 -0.4908148751 0.0582463027 -0.008278682
335297990.0 0.0576809817 -0.0078595379 0.6166739336 -0.4979815695 0.6163875752 -0.4981540313 0.0580785638 -0.0087861867
340297960.0 0.0565244221 -0.0081620964 0.6102199683 -0.504885298 0.6107374696 -0.5042627382 0.057406089 -0.0094802384
345297930.0 0.0562784655 -0.008454486 0.6047336813 -0.5108017294 0.6048438608 -0.5114085415 0.0575488806 -0.0106583808
350297900.0 0.056536231 -0.0093769575 0.5989096647 -0.5175372363 0.5995698611 -0.5180244387 0.0566709383 -0.0105940696
355297870.0 0.0561331035 -0.0102592093 0.5928992719 -0.5242744996 0.5932708897 -0.5248279997 0.0561099887 -0.011074577
360297840.0 0.0560206263 -0.0106254112 0.5877181092 -0.5317740964 0.58719148 -0.5315210385 0.0565521555 -0.0119449283
365297810.0 0.0557566809 -0.0114132614 0.5813398483 -0.5378529516 0.581378651 -0.5379010375 0.055738653 -0.0123432338
370297780.0 0.055831378 -0.0123374677 0.5753276885 -0.5442482382 0.5758093521 -0.5449215341 0.055992502 -0.012831677
375297750.0 0.055071911 -0.0123378805 0.5703430025 -0.5508632198 0.5696011662 -0.5513174541 0.0557698529 -0.0134499811
380297720.0 0.0549539719 -0.0138302878 0.5634233649 -0.5567969925 0.5637690088 -0.5568642127 0.0552043796 -0.0142652074
385297690.0 0.0549659393 -0.0140058834 0.5572446212 -0.5631484499 0.5574935756 -0.5636107407 0.0551432813 -0.0143836071
390297660.0 0.0543773273 -0.0147442029 0.550715943 -0.5699674744 0.5510728295 -0.5704374735 0.0549735652 -0.0158889895
395297630.0 0.0546335677 -0.0157172324 0.5454971607 -0.5756807122 0.5448017809 -0.5758865758 0.0542407502 -0.0157415652
400297600.0 0.0538960547 -0.0159999877 0.5381629742 -0.5820724719 0.538854029 -0.5822406511 0.0534657919 -0.0171404894
405297570.0 0.0539194803 -0.016531958 0.5316441108 -0.5877337783 0.5322837974 -0.5881401004 0.0533908807 -0.0167734789
410297540.0 0.0535772539 -0.017511031 0.5248538078 -0.5934644593 0.5253712454 -0.5941182728 0.0531382981 -0.0177662881
415297510.0 0.0531769736 -0.0173263044 0.5188090193 -0.5988435216 0.5192772416 -0.5997477074 0.0526006241 -0.0179460609
420297480.0 0.052997729 -0.0189141068 0.5126847051 -0.6057318015 0.5124524002 -0.6054964966 0.0526531498 -0.0192063258
425297450.0 0.0533718822 -0.0195419594 0.5054906793 -0.6110842639 0.5063998102 -0.6112433416 0.0522523426 -0.0189149002
430297420.0 0.0523526678 -0.0198407798 0.4990332759 -0.6174889736 0.4994041462 -0.6166993068 0.0517289329 -0.0203030613
435297390.0 0.0523457637 -0.0208176676 0.4919701545 -0.6219394462 0.4924521942 -0.6222593524 0.0510719203 -0.0201064166
440297360.0 0.0524634371 -0.0215329421 0.4844748733 -0.6276830864 0.4850498109 -0.6282137224 0.0508146253 -0.0214581405
445297330.0 0.0525683776 -0.0221179318 0.4779063538 -0.6334725623 0.4785110275 -0.6330114891 0.0505306774 -0.0219097751
450297300.0 0.0518665853 -0.0225693884 0.4715873176 -0.6383298038 0.4712362464 -0.6387167032 0.0502580036 -0.0221588367
455297270.0 0.0509770127 -0.0235474675 0.4646815482 -0.6439554962 0.4650582216 -0.6435625143 0.0501182905 -0.0226767815
460297240.0 0.0503462188 -0.0237494055 0.4569592774 -0.6481994352 0.4569148266 -0.648689055 0.049608479 -0.0225126433
465297210.0 0.0506807835 -0.0246411223 0.4503454028 -0.6539451517 0.450544824 -0.6539139504 0.0488836235 -0.0239677949
470297180.0 0.0499667985 -0.0251918516 0.4430546734 -0.6586879437 0.4436547365 -0.6588098587 0.0479991448 -0.0241821223
475297150.0 0.0493983901 -0.0263234314 0.4353776571 -0.6632154556 0.4359545749 -0.6632787755 0.0484692911 -0.0247104997
480297120.0 0.0501511978 -0.0268808252 0.4284708212 -0.6680936496 0.4287091431 -0.6684322988 0.0477670472 -0.0244005215
485297090.0 0.0492673691 -0.0272792559 0.4214989465 -0.673018147 0.4210977253 -0.6734078745 0.0467719824 -0.0260108092
490297060.0 0.0489619658 -0.0279083402 0.4140256584 -0.6776385622 0.4141449891 -0.6779142596 0.0471127123 -0.0256920812
495297030.0 0.047788998 -0.0281336927 0.4062461797 -0.6819482625 0.405846945 -0.6820859976 0.046541885 -0.0262502382
500297000.0 0.0478782718 -0.0291489512 0.3985095433 -0.6869427485 0.3983446213 -0.6868360167 0.0453943919 -0.0269894567
505296970.0 0.0469409981 -0.029584281 0.3910047269 -0.6903332907 0.3907149742 -0.690882629 0.0449470182 -0.0269016118
510296940.0 0.0469091175 -0.0303287385 0.3835910253 -0.6954064415 0.383818511 -0.6955171531 0.0450794687 -0.0273188118
515296910.0 0.0463790319 -0.0302180317 0.3758268078 -0.6995276215 0.3757306903 -0.6997220263 0.0438748553 -0.0279642344
520296880.0 0.0456818567 -0.0313004242 0.36775232 -0.7034733421 0.3683070245 -0.7035914523 0.0441089386 -0.0284318522
525296850.0 0.0453335393 -0.0319731632 0.3602618736 -0.7077245054 0.3606055286 -0.7082412642 0.0439010267 -0.0291530503
530296820.0 0.0449974046 -0.0324475093 0.3531351409 -0.7106035411 0.3527303424 -0.7116886641 0.0425182928 -0.0299399746
535296790.0 0.0442812293 -0.0330091632 0.3448446381 -0.7152203113 0.3451355672 -0.715521473 0.0426499688 -0.0303071363
540296760.0 0.0440242102 -0.0337197658 0.3371109354 -0.719342436 0.3364505484 -0.7196113452 0.0417330184 -0.0300847837
545296730.0 0.0433273902 -0.0336059291 0.3287033114 -0.7222933299 0.3290640689 -0.723217612 0.0412400821 -0.0310402348
550296700.0 0.0426027539 -0.034660612 0.321436691 -0.7263859858 0.3216804773 -0.7268298916 0.0406983794 -0.030805565
555296670.0 0.0426438073 -0.0351937428 0.3138105281 -0.7300588298 0.3136342877 -0.7302835594 0.040360987 -0.0312519679
560296640.0 0.0418285846 -0.0353967489 0.3055606606 -0.7328782495 0.3054532875 -0.7330679855 0.0395625449 -0.0317659249
565296610.0 0.0406330177 -0.0363054208 0.2973988747 -0.7366643884 0.2969467966 -0.7368532142 0.0391242195 -0.0323990138
570296580.0 0.040992422 -0.0367322941 0.2891069719 -0.7395561701 0.2894717575 -0.7401274322 0.0387796388 -0.0315334333
575296550.0 0.0403364295 -0.036052293 0.2812710708 -0.7422169704 0.2813496758 -0.7425167882 0.0384734344 -0.0326318602
580296520.0 0.0395456659 -0.0372751553 0.273358995 -0.7457615254 0.272879889 -0.7460841322 0.0375979838 -0.0332981915
585296490.0 0.0391740256 -0.0377609033 0.2654164016 -0.7485765828 0.2648292298 -0.7487587879 0.0366827152 -0.033777645
590296460.0 0.0382942029 -0.0383654098 0.2567389092 -0.7523232745 0.2563771198 -0.7516223427 0.0366141527 -0.0334677144
595296430.0 0.0378155817 -0.0385983347 0.2484509226 -0.754991435 0.2481787331 -0.7550519459 0.0367127053 -0.0341438776
600296400.0 0.037052193 -0.0386989931 0.2405227152 -0.7572106111 0.2405564174 -0.7573835119 0.0353268427 -0.034181604
605296370.0 0.0366824447 -0.0387083115 0.2320918837 -0.7598137867 0.2323576534 -0.7597514991 0.0351534562 -0.0346617948
610296340.0 0.0360393331 -0.0392202265 0.2242298819 -0.7623878104 0.224098074 -0.7623299497 0.0343264171 -0.0344899341
615296310.0 0.0353321372 -0.0394861332 0.2149340647 -0.7643206423 0.2154036602 -0.7646044588 0.0342138594 -0.034976192
620296280.0 0.0348322827 -0.0398683412 0.2070335958 -0.7667495238 0.2074336438 -0.7671148411 0.0334803597 -0.0359596653
625296250.0 0.034342212 -0.0406012802 0.1983553291 -0.7694127458 0.1983609437 -0.7693522743 0.0327872936 -0.0354650449
630296220.0 0.033918292 -0.0403785914 0.1897550148 -0.7716410923 0.1905113103 -0.7715734577 0.0316758077 -0.0358919711
635296190.0 0.0332049132 -0.0408778261 0.181609348 -0.772894551 0.1817589168 -0.7730174027 0.0315686002 -0.0364283757
640296160.0 0.032249661 -0.0410086174 0.1735591224 -0.7749538955 0.1734682246 -0.7756148982 0.0316296855 -0.0363286614
645296130.0 0.0321369579 -0.0413083988 0.1649775328 -0.7775225923 0.1648989776 -0.7769844853 0.0295171202 -0.0374492386
650296100.0 0.0311347943 -0.0408738824 0.1570543533 -0.7786558792 0.1568109829 -0.7786061074 0.029639499 -0.0370982521
655296070.0 0.0305442117 -0.0420159818 0.1481436423 -0.7799677448 0.148043259 -0.7805319351 0.0300433068 -0.0368117188
660296040.0 0.0292470787 -0.0415632587 0.1394062929 -0.7812082701 0.1397200373 -0.7817743146 0.0286575807 -0.0378405788
665296010.0 0.0292266152 -0.0424091306 0.1310941901 -0.7833293849 0.1317584366 -0.783172209 0.0280315755 -0.0373372153
670295980.0 0.0292700304 -0.0423214297 0.1227903849 -0.7847890276 0.1229799023 -0.7848122482 0.0271474357 -0.0380640977
675295950.0 0.028382181 -0.0425132304 0.1135828318 -0.786174912 0.1142306307 -0.7865944872 0.0268095081 -0.0377694652
680295920.0 0.0275690447 -0.0426221707 0.1050809864 -0.7872521631 0.1053483269 -0.7875452411 0.0263944374 -0.0384224607
685295890.0 0.0267540168 -0.0427555568 0.0971504313 -0.7885420111 0.0968282988 -0.7886491924 0.0256468971 -0.0383226824
690295860.0 0.0264709838 -0.0430083831 0.0880178758 -0.7888643604 0.0877280652 -0.7888026674 0.0254251699 -0.0379308637
695295830.0 0.0261282743 -0.0436126872 0.0789751245 -0.7901155573 0.0792675827 -0.7904412928 0.0239850443 -0.0385856089
700295800.0 0.0256862111 -0.0435223136 0.0711801948 -0.7909912719 0.0705588674 -0.7916258293 0.0237146321 -0.0392852467
705295770.0 0.0245315534 -0.0435048142 0.0623390839 -0.791703281 0.0624545752 -0.7915795011 0.0230631994 -0.0392922146
710295740.0 0.0241283589 -0.0433823875 0.0532019138 -0.7921361695 0.053192706 -0.7921094166 0.0216019054 -0.0387328487
715295710.0 0.0235839893 -0.0438378053 0.0453228909 -0.7928072347 0.0451082747 -0.7931505232 0.0216740803 -0.0400442833
720295680.0 0.0226810383 -0.044155274 0.0362929697 -0.7928844561 0.0367169495 -0.7937870048 0.0217483367 -0.0392768528
725295650.0 0.0223648792 -0.044293865 0.0277484297 -0.7933212044 0.0273918766 -0.7935920776 0.0207730154 -0.0391044353
730295620.0 0.0211413562 -0.0444454848 0.0189482434 -0.7935914668 0.0190103316 -0.7941905895 0.0204809548 -0.0407059754
735295590.0 0.0213702809 -0.0443924722 0.0108151909 -0.7940168123 0.0106719282 -0.7940350215 0.0196280159 -0.0397685905
740295560.0 0.0202673653 -0.0442787207 0.001503187 -0.7936673205 0.0014553471 -0.7937497459 0.0194844892 -0.0396763993
745295530.0 0.0198885645 -0.0449580843 -0.0068463616 -0.7942506472 -0.0065587091 -0.7945043218 0.0179888549 -0.0397508722
750295500.0 0.0191022899 -0.0447329185 -0.0149767905 -0.7933042027 -0.0156648239 -0.7938964517 0.0182225593 -0.0404369234
755295470.0 0.0188954633 -0.0445188627 -0.0239123756 -0.7935907927 -0.0235893959 -0.793787545 0.0165723592 -0.0400189241
760295440.0 0.0176467761 -0.0444620282 -0.0327614475 -0.7926757445 -0.0328250445 -0.7937652366 0.0159198928 -0.0404554594
765295410.0 0.0170950804 -0.045154751 -0.0404733363 -0.7927117562 -0.0407084702 -0.7931607951 0.0167618466 -0.0396973084
770295380.0 0.0168406842 -0.044790484 -0.0502470648 -0.7919292598 -0.049767629 -0.7928836012 0.0157765301 -0.0397822235
775295350.0 0.0161133229 -0.0447280202 -0.0581639262 -0.7914813597 -0.0583531536 -0.7920162826 0.0147722942 -0.0409700408
780295320.0 0.0156067531 -0.0448117477 -0.0666728751 -0.7912811294 -0.0665493574 -0.7910857462 0.014630713 -0.0398264948
785295290.0 0.0146045731 -0.0444624544 -0.0756002185 -0.7891388647 -0.0760608 -0.7906437989 0.0129453889 -0.0403144923
790295260.0 0.0138285168 -0.0445874063 -0.0840909549 -0.7896956826 -0.0838065071 -0.789841354 0.0134421912 -0.040330395
795295230.0 0.0132769066 -0.0447801358 -0.0924204753 -0.7877246886 -0.0924023711 -0.7882278055 0.0125953015 -0.0393969297
800295200.0 0.0129715378 -0.0443539792 -0.1017347257 -0.7875690339 -0.1016848411 -0.7875920168 0.0120334753 -0.0400912523
805295170.0 0.0122375074 -0.0447715608 -0.1094149841 -0.7856135216 -0.110027666 -0.7862356021 0.0107905256 -0.0404152013
810295140.0 0.0117024548 -0.0448275686 -0.1177039323 -0.784558495 -0.1183696984 -0.7857568824 0.01048312 -0.0398834898
815295110.0 0.0108141172 -0.0444348308 -0.1272078122 -0.7832710713 -0.1272979637 -0.7834621595 0.0096713799 -0.0403254711
820295080.0 0.0104595041 -0.0448578588 -0.1349899349 -0.7827243431 -0.1356583867 -0.7822012075 0.0090133186 -0.0396880439
825295050.0 0.0095755217 -0.0447447398 -0.1438409016 -0.7806395663 -0.1440687576 -0.7803388428 0.0090410275 -0.0395745065
830295020.0 0.0088792651 -0.0439357344 -0.1525529109 -0.7785216907 -0.1528293099 -0.7795181391 0.0080299394 -0.0400752948
