!Created with skrf (http://scikit-rf.org).
# Hz S RI R 50.0 
!freq ReS11 ImS11 ReS21 ImS21 ReS12 ImS12 ReS22 ImS22
300000.0 -0.7737877077 -0.0987114827 -0.0004819514 -2.9154e-06 -0.0002761133 -0.0001692185 -0.0459482417 -0.0617663292
5299970.0 -0.7850943077 -0.0060768448 -6.3288e-05 -5.30995e-05 0.0001752657 7.51559e-05 -0.0458067547 0.0156702744
10299940.0 -0.787840275 -0.0040597313 3.6815e-05 5.16784e-05 -4.93686e-05 0.0001640577 -0.0398631125 0.0339164286
15299910.0 -0.7932013855 -0.0022117499 -2.65071e-05 3.9976e-05 -9.4946e-06 -0.000152795 -0.031433163 0.0480974659
20299880.0 -0.8001526951 0.0020784583 6.64461e-05 5.13923e-05 -9.50052e-05 -0.0002730066 -0.0213475989 0.0601553544
25299850.0 -0.8062117364 0.0076667609 -2.46857e-05 -0.0002346975 -0.0001080005 -5.69843e-05 -0.0096765215 0.0698593011
30299820.0 -0.8122807953 0.0150167377 -0.000175113 4.07999e-05 -1.15894e-05 0.0001730254 0.0019796544 0.0765387866
35299790.0 -0.8173566725 0.024985254 7.49078e-05 0.000115073 0.0001914395 1.03718e-05 0.0136121647 0.0817669818
40299760.0 -0.8214594239 0.0338179342 8.3018e-06 0.0003276889 4.39887e-05 0.0001790219 0.0246160503 0.0838677432
45299730.0 -0.8247527558 0.0430710859 0.0001138697 -0.0001455673 0.000271441 0.0002124829 0.0354613714 0.0856787401
50299700.0 -0.8271471015 0.0529671031 7.55146e-05 1.24729e-05 -5.3516e-06 3.41176e-05 0.0455084876 0.0854079968
55299670.0 -0.8295388929 0.0633439071 -8.48925e-05 1.05671e-05 -1.50446e-05 -0.000186007 0.0544693562 0.0844436159
60299640.0 -0.8302495277 0.0735089156 2.96262e-05 1.94995e-05 6.08313e-05 -4.60235e-05 0.0630036547 0.0823901578
65299610.0 -0.8311645452 0.083400753 7.97271e-05 0.0002111829 4.50592e-05 0.0001939001 0.0704519003 0.0803245757
70299580.0 -0.8318044801 0.0933042999 -0.0001214065 4.75872e-05 7.65309e-05 -0.0001174339 0.077513252 0.0771870434
75299550.0 -0.8319106061 0.1035122309 0.0001172617 8.09467e-05 -0.0001341257 3.70534e-05 0.0839744964 0.0736649527
80299520.0 -0.8320339658 0.11296417 -0.0001948167 -0.0001407645 -0.0001104284 7.4454e-05 0.0895827234 0.0706328232
85299490.0 -0.8312377249 0.1225276157 -5.36252e-05 -8.23877e-05 2.031e-07 3.19658e-05 0.0946188271 0.0664356035
90299460.0 -0.8298897268 0.132236853 0.000113531 7.7575e-06 2.8769e-06 0.0001039179 0.0989739678 0.0628910275
95299430.0 -0.8296710594 0.1420657348 -3.83317e-05 0.0001545859 -2.61851e-05 -3.01384e-05 0.1031736864 0.0592611018
100299400.0 -0.8279869603 0.1509356073 7.6272e-06 2.86733e-05 -5.6474e-06 0.0001139838 0.1070951423 0.0550367547
105299370.0 -0.826725853 0.1603138568 -7.8282e-06 0.000151726 5.63625e-05 -0.0001433975 0.1104646281 0.0510085117
110299340.0 -0.8255668639 0.1694104975 0.0001528101 0.000255248 4.20988e-05 1.95648e-05 0.1131129152 0.0469959349
115299310.0 -0.8238326277 0.1788991276 1.23172e-05 5.38107e-05 -7.94244e-05 8.89619e-05 0.1159567875 0.043464644
120299280.0 -0.8220437579 0.1871175008 4.92502e-05 1.32996e-05 -5.83198e-05 4.21272e-05 0.1181064012 0.0396623238
125299250.0 -0.8205949253 0.1958377782 6.29247e-05 2.5364e-05 0.0001660463 0.0001888315 0.1200384348 0.0354198965
130299220.0 -0.8183173768 0.2054479882 -1.6151e-05 0.0003148687 0.0001198105 7.08465e-05 0.1219586032 0.0317165802
135299190.0 -0.8165037823 0.2138425003 -0.0001128919 9.5516e-06 0.0001187212 7.07664e-05 0.1239081056 0.028254704
140299160.0 -0.8146480359 0.222959323 3.75681e-05 7.34205e-05 7.72945e-05 -7.73742e-05 0.1248076667 0.0250395002
145299130.0 -0.8124318719 0.232501121 0.0001069927 -2.44903e-05 0.0001774002 6.68308e-05 0.125851496 0.021456572
150299100.0 -0.810078075 0.2408153633 1.8454e-05 -2.86541e-05 -2.85853e-05 0.0002552068 0.1269993567 0.0185158413
155299070.0 -0.8078656361 0.2492283966 -0.0001687894 8.77685e-05 3.27697e-05 0.0001227243 0.1280683685 0.0154825122
160299040.0 -0.8050970964 0.2580459396 0.0002317378 0.0001428563 -8.29605e-05 0.0002079517 0.1284828343 0.0120005031
165299010.0 -0.8030809839 0.267132881 0.0002155282 0.0003896686 0.0001003867 6.60572e-05 0.1292669647 0.0090985686
170298980.0 -0.7999556684 0.2755531704 3.08086e-05 0.0001070517 5.89948e-05 0.0001697095 0.1296323392 0.0061038471
175298950.0 -0.7972666659 0.2842882801 5.82788e-05 0.000132731 8.08983e-05 9.88646e-05 0.1298035945 0.0032342482
180298920.0 -0.7945455705 0.2924887352 -1.93158e-05 0.0001250968 0.0001307118 8.54084e-05 0.1299160106 0.0004505847
185298890.0 -0.7914076641 0.3012405155 9.52559e-05 0.0002589484 -2.6031e-05 0.0001282182 0.1300816619 -0.0023307417
190298860.0 -0.7882908704 0.3093831587 6.5366e-06 0.0001204439 -8.47816e-05 -2.6472e-05 0.1303987388 -0.0047870473
195298830.0 -0.7850641326 0.3179017756 -0.0003210377 8.89549e-05 -7.6005e-06 0.0002327508 0.1304640726 -0.0077976442
200298800.0 -0.7817091916 0.326135727 -0.0001943462 -1.01991e-05 7.11006e-05 -7.40476e-05 0.1301214278 -0.0104017878
205298770.0 -0.7784899555 0.3344015379 -6.84513e-05 0.0001341684 -0.0001333849 0.0002205254 0.1300140329 -0.0129989129
210298740.0 -0.7744536352 0.3423409057 1.47143e-05 -8.64705e-05 0.0003172693 7.7962e-06 0.1296561144 -0.0153329073
215298710.0 -0.7719118091 0.3509434819 0.0001047457 4.27738e-05 -2.423e-06 0.0002276198 0.1288396602 -0.01776709
220298680.0 -0.7680045319 0.3587539067 0.0001571063 0.000186598 0.0001399037 0.0001191033 0.1282197624 -0.0202897216
225298650.0 -0.7641415201 0.3666005798 0.0003809124 -8.01967e-05 0.0002473052 0.0001207067 0.1283194601 -0.0225215266
230298620.0 -0.759897149 0.3750485588 0.0001558777 -4.8018e-06 0.0001522581 8.90062e-05 0.1275886867 -0.0248340621
235298590.0 -0.7561635052 0.382923931 0.00026323 0.0001200093 -2.0716e-05 -1.05983e-05 0.1271812151 -0.0272325816
240298560.0 -0.7523582563 0.3912978422 0.0001289201 0.0001623395 0.0001683378 -0.0001138425 0.1265687657 -0.029360881
245298530.0 -0.7483658329 0.3988670989 -9.51528e-05 0.0001914315 0.0001775617 7.8396e-06 0.1259342841 -0.0319001555
250298500.0 -0.7439335535 0.406764059 5.70676e-05 2.08664e-05 4.69911e-05 -0.000157231 0.1251644558 -0.0342559597
255298470.0 -0.7394238599 0.4139944355 9.1627e-06 -6.97644e-05 0.0001825712 3.70315e-05 0.1245885199 -0.0366370178
260298440.0 -0.7356455296 0.421769082 0.0001080804 -8.50875e-05 0.000248596 0.0001631202 0.1240510128 -0.0384882828
265298410.0 -0.7312195459 0.4301885395 0.0002202688 3.6593e-06 0.0002984452 7.96696e-05 0.1233278076 -0.0404991891
270298380.0 -0.7271323627 0.437755706 0.0004022405 0.0001444155 8.08671e-05 0.0001762739 0.1225288217 -0.0424085698
275298350.0 -0.7222879723 0.4448756993 0.0001700396 0.0002283364 1.6579e-05 5.08578e-05 0.122083679 -0.0443168832
280298320.0 -0.7167574802 0.4524471976 2.50257e-05 -7.67756e-05 0.0001551838 -9.04721e-05 0.1213714613 -0.046342467
285298290.0 -0.712877255 0.4598540104 -9.48698e-05 -3.48844e-05 0.0001077267 1.81027e-05 0.1207193107 -0.048015044
290298260.0 -0.7078536032 0.4677945411 -3.77588e-05 0.0001717017 0.0001082526 0.0002803546 0.1201709527 -0.0502444413
295298230.0 -0.7020855771 0.4745513753 -6.58799e-05 0.0002373712 0.0002522723 0.0001066797 0.1194106525 -0.0521005484
300298200.0 -0.6977561239 0.4820107911 6.5818e-05 0.0001449187 8.00553e-05 0.0001101993 0.1184642371 -0.0538910311
305298170.0 -0.6927813842 0.48871934 0.0001780799 6.56569e-05 1.87561e-05 3.36651e-05 0.1181904347 -0.0557664622
310298140.0 -0.687585997 0.4961244248 -8.41514e-05 0.000313079 2.87773e-05 0.0001400808 0.1168436476 -0.0575514557
315298110.0 -0.6826976395 0.5028864575 -9.46353e-05 0.0001658489 0.0001568189 6.17813e-05 0.1159004331 -0.0593428613
320298080.0 -0.6772288578 0.5101396083 0.0001505848 0.0001059858 0.0001269772 0.0002038333 0.1148788029 -0.0613578494
325298050.0 -0.6718695514 0.5176144294 4.68145e-05 0.0001951611 -7.42289e-05 0.0001175324 0.1136688685 -0.0629697838
330298020.0 -0.6664649409 0.5240565477 0.0002778276 0.0002870969 0.0001668062 -3.85961e-05 0.1125161091 -0.0645523275
335297990.0 -0.6609899584 0.5308524586 0.0003398087 0.0001744359 -5.39475e-05 0.0001005001 0.1112633443 -0.0654271362
340297960.0 -0.6558842297 0.5377488638 9.23597e-05 -2.07074e-05 0.0001347414 0.0001510597 0.110478986 -0.0670739901
345297930.0 -0.6497614663 0.5444809327 7.59267e-05 0.0001621386 0.0001416673 -3.37805e-05 0.1088140591 -0.0687307004
350297900.0 -0.6444735124 0.5508633147 0.0001551008 -7.27279e-05 -5.81282e-05 1.34002e-05 0.1076887798 -0.0693904054
355297870.0 -0.6379534357 0.5579586621 0.0002664123 0.000228171 0.0002978981 9.77083e-05 0.1064981422 -0.0709406737
360297840.0 -0.6322938497 0.5639003119 0.0002285464 -0.0001792384 0.0001152216 0.0001933938 0.1054246969 -0.072081015
365297810.0 -0.6269535904 0.5704806404 0.0002768023 0.0001383264 0.0002258605 0.0001516865 0.1041610283 -0.0733480637
370297780.0 -0.6207884875 0.5770769491 -6.70038e-05 0.0001576087 0.0002314022 2.14103e-05 0.1031512385 -0.0746060999
375297750.0 -0.6145785477 0.5834197129 0.0001458482 0.000231301 0.0001495972 0.0002496907 0.1014559946 -0.0758114502
380297720.0 -0.6089646039 0.589468478 0.0001600358 0.0004428626 -4.79892e-05 0.0002696344 0.0999264823 -0.0771112266
385297690.0 -0.6033943035 0.595532836 0.0001171043 -2.03141e-05 0.0002833238 0.0001092643 0.0993310928 -0.0785821951
390297660.0 -0.5965023436 0.6013150006 8.46194e-05 0.0001527409 0.0001596098 3.2444e-06 0.0977685589 -0.0792854498
395297630.0 -0.5897429181 0.6081004132 -0.0001721217 3.5628e-05 1.13233e-05 -0.0001386757 0.0968582814 -0.0804669107
400297600.0 -0.5839283265 0.6137977778 3.89343e-05 0.000160953 0.0002240141 0.000124675 0.0955487309 -0.0817215243
405297570.0 -0.5776848231 0.6197292517 7.57176e-05 1.0078e-05 8.58383e-05 0.0002649875 0.0941894947 -0.0831458902
410297540.0 -0.5710311175 0.6252518405 -0.0001157736 0.0002916776 0.0001862421 -4.93206e-05 0.0926449456 -0.0842854834
415297510.0 -0.563833427 0.6309488231 0.0001578821 -3.49328e-05 0.0001994676 0.0001275713 0.0915159451 -0.0853441798
420297480.0 -0.5591478096 0.63751633 0.0002548498 0.000219163 0.000190834 1.6022e-05 0.0902544385 -0.0865001796
425297450.0 -0.5511133912 0.6427875565 4.26783e-05 1.10535e-05 0.0003247557 0.0001882778 0.0892073968 -0.0875279107
430297420.0 -0.5451692456 0.6485344018 -2.05178e-05 6.03623e-05 0.0003335589 0.000155093 0.0875938183 -0.0886487644
435297390.0 -0.5385417871 0.6533710047 0.0004268815 0.0002021884 0.0005098171 9.27988e-05 0.0867480848 -0.0899343551
440297360.0 -0.5317193561 0.6593168174 0.0002714519 0.0001557394 0.0002406994 -9.56001e-05 0.0849382773 -0.0905789709
445297330.0 -0.52489612 0.6647902541 0.0003405965 7.33261e-05 0.0003565368 0.0001369525 0.0838323853 -0.0923340526
450297300.0 -0.5179259577 0.6692744476 9.07401e-05 3.94968e-05 0.0002561622 0.0001605186 0.0826675013 -0.0928687872
455297270.0 -0.5113153662 0.6745733334 0.0003976598 -8.1781e-06 0.0002449657 0.0001026381 0.0812823814 -0.093990705
460297240.0 -0.504983507 0.6797228383 -1.20998e-05 0.000143778 0.0002713532 6.34669e-05 0.0801461952 -0.0948194409
465297210.0 -0.4976733619 0.6855352319 0.0001715717 -6.5705e-05 0.0003257976 0.000171057 0.0788111949 -0.0956782807
470297180.0 -0.4899824975 0.6893702246 0.0001709447 -5.3369e-05 0.0002221774 0.0001303874 0.0776597107 -0.0960697323
475297150.0 -0.4834336244 0.6941882874 0.0002707601 0.0001363882 0.0001463323 -6.61635e-05 0.0765935339 -0.0975677232
480297120.0 -0.4764137582 0.6994489983 0.0003097331 7.39631e-05 0.000192429 -1.41328e-05 0.0753868078 -0.098154615
485297090.0 -0.4689727309 0.7041562598 0.0003358214 8.61814e-05 0.0003269744 0.000282405 0.0742494805 -0.0986197956
490297060.0 -0.4623981541 0.708904525 0.0002114424 0.0001876922 0.0002307408 9.33662e-05 0.0725887859 -0.0996618004
495297030.0 -0.4548069179 0.7132007086 0.0002889832 0.0001395234 0.0002472439 0.0003653951 0.0709929448 -0.1000979692
500297000.0 -0.447536713 0.7182384195 0.0003240638 0.0002271536 0.0004247845 -0.0001542458 0.0700350633 -0.1008767476
505296970.0 -0.4398750429 0.7223364301 0.0004199107 -1.02848e-05 0.0001641575 0.0001877936 0.0682752363 -0.101617839
510296940.0 -0.43323173 0.7267170069 9.85496e-05 -6.72468e-05 0.0003069562 2.07209e-05 0.0669905758 -0.1023926502
515296910.0 -0.4243468991 0.7307310985 0.0004187853 0.0001202694 0.0001160425 5.19706e-05 0.0656529171 -0.1027574494
520296880.0 -0.4180032833 0.7356771456 0.0003940417 -0.0001075387 0.0003083985 5.63148e-05 0.0640254241 -0.1034567983
525296850.0 -0.4099340825 0.7390693545 0.0004134776 0.0001226418 0.000348126 -2.01851e-05 0.0629107693 -0.1036365543
530296820.0 -0.40290169 0.7436845555 0.0002198506 -9.59483e-05 0.000276209 -7.3709e-06 0.0617086716 -0.1041529906
535296790.0 -0.395626656 0.7473390681 0.0003296496 1.2812e-05 0.0002224906 -0.0001096293 0.0595927756 -0.1050640972
540296760.0 -0.3880560797 0.7507302368 0.0003676329 -6.00817e-05 0.0004880332 0.0001309425 0.0587141532 -0.1053024869
545296730.0 -0.380320381 0.755036223 -2.16594e-05 4.63603e-05 0.0001590224 0.0001429247 0.0569791175 -0.1059234781
550296700.0 -0.3729297996 0.7592081284 0.0002674818 8.70314e-05 0.0002895034 0.0001311889 0.0551159586 -0.1064912501
555296670.0 -0.3649774977 0.7619569944 0.0004791464 4.83394e-05 0.0001882513 -9.89606e-05 0.0540845141 -0.1067701166
560296640.0 -0.3576014342 0.7663810334 0.000331851 4.18479e-05 0.0004151999 0.0001353749 0.0525495836 -0.1071806881
565296610.0 -0.3493083934 0.7696166186 0.0002398703 -2.88485e-05 0.0002762458 -6.4098e-05 0.0510450115 -0.1078479656
570296580.0 -0.3422929127 0.7722160881 0.0004036804 -9.53703e-05 3.1936e-06 3.8889e-05 0.0492841239 -0.10848051
575296550.0 -0.3343317736 0.7772507108 0.0001698009 -4.22779e-05 0.0001611141 0.0001922072 0.0480610001 -0.1085469484
580296520.0 -0.3255298978 0.7798098929 0.0003009028 0.0001873263 0.0001241869 3.07384e-05 0.0465934188 -0.1092848142
585296490.0 -0.3183605532 0.7826610528 0.0004748371 0.0001005104 0.0002853577 1.767e-06 0.0448418143 -0.1096807277
590296460.0 -0.3103016124 0.7858916595 0.0002528131 0.0001340529 0.0002522801 0.0001108947 0.0435214578 -0.1096455619
595296430.0 -0.3024818265 0.7881812935 0.0001490617 7.54413e-05 0.0003333505 -3.78001e-05 0.0419063494 -0.1105231554
600296400.0 -0.294672168 0.7924484458 0.0002317156 -1.99063e-05 0.0003874032 -2.9465e-06 0.040431441 -0.1111111109
605296370.0 -0.2874121547 0.794240025 0.0001733118 0.0002393611 0.0003467783 3.8456e-05 0.0392819547 -0.1112064905
610296340.0 -0.2787316787 0.7972462931 0.0002879045 0.0002835507 0.0002993496 0.0002488021 0.037972136 -0.1116408434
615296310.0 -0.2698433309 0.8002615358 0.0003858582 2.90226e-05 0.000191326 -1.99076e-05 0.0364836753 -0.1121053349
620296280.0 -0.2629069484 0.8022357068 0.0004459489 -1.93115e-05 0.0002940131 -0.0001323228 0.034750202 -0.1123949271
625296250.0 -0.2546375132 0.8050839511 0.0002102381 -9.60349e-05 0.0004035592 8.71736e-05 0.033825577 -0.1127646374
630296220.0 -0.2458776926 0.8079394946 0.0005569142 -6.3689e-06 0.0004074243 5.00913e-05 0.0321961043 -0.1124405005
635296190.0 -0.2384420694 0.8101736601 0.0002434862 -0.0001502159 0.0003926985 -0.000107538 0.0311197666 -0.1129755179
640296160.0 -0.2304664627 0.8126358653 0.000292514 0.0002044448 0.0004093154 0.0001159426 0.0294532628 -0.1134237446
645296130.0 -0.2221291955 0.8153682775 0.0003172203 1.72625e-05 0.000372608 -5.5021e-05 0.0283546297 -0.1132545714
650296100.0 -0.2141775751 0.816586131 0.0003701048 5.74788e-05 0.0002723233 9.3779e-05 0.0266930827 -0.1136389295
655296070.0 -0.2059972669 0.8190559907 0.0002374018 -5.54388e-05 0.0003433806 0.0001011904 0.0256198793 -0.1132518322
660296040.0 -0.1973438069 0.8205948014 0.0003712503 -0.0001189751 0.0003644256 6.34498e-05 0.0240175985 -0.1136988648
665296010.0 -0.1894586301 0.8220930596 0.0001806604 -5.83993e-05 0.0003545085 0.0001440479 0.0223914593 -0.1133659683
670295980.0 -0.1815380637 0.8244846137 0.0004778165 -4.36299e-05 0.0002286551 1.28898e-05 0.0208708968 -0.113433659
675295950.0 -0.1732913645 0.8262492595 0.0005152919 0.0002121232 0.0001755123 6.62229e-05 0.0192835395 -0.1137244402
680295920.0 -0.1642087411 0.8281102496 0.0001199581 -2.50438e-05 0.0003160291 -5.68729e-05 0.0184892695 -0.1131971365
685295890.0 -0.1562574376 0.8301217136 0.0002818787 -1.76602e-05 0.0003625035 0.0002616441 0.0167555625 -0.1135421996
690295860.0 -0.1486454457 0.8308132073 0.0003306973 0.0001088204 0.0005881439 -1.18908e-05 0.0152904703 -0.1126342115
695295830.0 -0.1404347255 0.8316697726 0.00042322 -6.71051e-05 0.0002531209 7.39606e-05 0.0135690246 -0.1127412689
700295800.0 -0.1311864583 0.8337563394 0.0003993523 -0.0001135273 0.0004332916 -3.53584e-05 0.0122963371 -0.1129878508
705295770.0 -0.1240254409 0.8356707937 0.0004886006 -5.5983e-05 0.0003082673 3.0019e-05 0.0109173162 -0.1123803183
710295740.0 -0.1158110569 0.8360633341 0.000245571 0.000283623 0.0004008184 -2.09362e-05 0.0093260678 -0.1126351403
715295710.0 -0.107003077 0.8370531335 0.0004697914 -1.88308e-05 0.000367232 -2.06511e-05 0.0079656042 -0.1124789599
720295680.0 -0.0986471466 0.8385164673 0.0003105903 2.01058e-05 0.0004639062 0.0003057156 0.0062962814 -0.1121754674
725295650.0 -0.0903709524 0.8396378384 0.0002927083 -0.0001071708 0.0001480804 -0.0001021238 0.0048199855 -0.1113993439
730295620.0 -0.0820007837 0.840503679 0.0004348158 -4.81051e-05 0.0004373239 -0.0001492262 0.0033119817 -0.1118101636
735295590.0 -0.0742953706 0.8414059876 0.0003664557 -0.0001796379 0.0006077499 -0.0002208933 0.0013870912 -0.1117778641
740295560.0 -0.0649950778 0.8415097109 0.0001654993 -6.39906e-05 0.0004689643 0.0002304056 0.0005898997 -0.111277972
745295530.0 -0.056798725 0.8427884354 0.0002002087 -0.0001898435 0.0002533662 -0.0001005869 -0.0011292486 -0.1112199137
750295500.0 -0.0485504114 0.8427803768 0.0003377209 -8.49287e-05 0.0004333177 -0.0001110576 -0.0027490373 -0.1111676811
755295470.0 -0.0400395891 0.84302224 0.0002748909 -0.0002339055 0.0002360112 0.0001308679 -0.0038999369 -0.1109094076
760295440.0 -0.0320882796 0.8433284473 5.62883e-05 -2.1577e-06 0.000268757 -0.0001477348 -0.0057471138 -0.1108229958
765295410.0 -0.0236942684 0.8437681544 0.0003619978 -0.0001558244 0.0004844306 -3.22288e-05 -0.0066551552 -0.1104460925
770295380.0 -0.015587126 0.8440416158 0.000446738 -7.11781e-05 0.0004418226 -2.93862e-05 -0.0083317255 -0.1103907949
775295350.0 -0.0074075981 0.8441980564 0.0006365428 -4.04409e-05 0.0004085221 -0.0001077474 -0.009749251 -0.1098423686
780295320.0 0.0012566528 0.8442075886 0.0002324738 -0.0001695063 0.0003802485 -7.53965e-05 -0.0110502434 -0.1097594476
785295290.0 0.0098785463 0.8433497028 0.0003307265 -0.0001188358 0.0001268286 -3.96663e-05 -0.0120869876 -0.109368961
790295260.0 0.0183579391 0.8435795057 0.0003006617 -0.0001157111 0.0003294944 0.0001094646 -0.0136058003 -0.1090367979
795295230.0 0.0259206894 0.8434224197 8.83603e-05 3.20646e-05 0.0005292594 -3.22778e-05 -0.0148559848 -0.1086567706
800295200.0 0.0344451255 0.8431265225 0.0004482803 -0.0001519081 0.0004025838 7.63136e-05 -0.016612264 -0.1082787714
805295170.0 0.0430698987 0.8426106803 0.0003268914 -0.0001051801 0.000328663 3.27592e-05 -0.0177623168 -0.1078035012
810295140.0 0.0513340266 0.8427724463 0.000474912 4.3155e-06 0.0003894918 -0.0001023337 -0.0185010854 -0.1074352627
815295110.0 0.0600865417 0.8417881143 0.0003471905 -0.0001013288 0.0002950289 -3.90723e-05 -0.019972213 -0.1067317917
820295080.0 0.0676746101 0.8412337792 0.0004333145 -1.97626e-05 0.0004149866 -7.4539e-05 -0.0212446067 -0.1062731207
825295050.0 0.0772578677 0.8402466363 0.0005427413 -0.0003820134 0.0004222423 -0.0001479711 -0.0221396406 -0.1062524672
830295020.0 0.0846863266 0.8396067484 0.0002786494 -0.0001698313 0.0003182644 -3.95962e-05 -0.023720007 -0.1055169302
835294990.0 0.092820208 0.8382910852 0.0001809902 -0.0002699327 0.0004034441 3.85623e-05 -0.024962228 -0.1047771624
840294960.0 0.1006339799 0.8378191339 0.0002362581 -0.0002486083 0.000315187 -7.14382e-05 -0.0261003611 -0.1040359562
845294930.0 0.1089445128 0.836283312 0.0004046825 -0.0004468372 0.0002335544 -8.3513e-05 -0.0277470155 -0.1035723787
850294900.0 0.1177561488 0.8359517255 0.00052193 -0.0001213311 0.0005726155 -0.0002219757 -0.0288129937 -0.1028495429
