!Created with skrf (http://scikit-rf.org).
# Hz S RI R 50.0 
!freq ReS11 ImS11 ReS21 ImS21 ReS12 ImS12 ReS22 ImS22
300000.0 -0.2384687149 -0.0951011478 0.4669636352 0.0639413118 0.468866173 0.0673976217 -0.2382968486 -0.1073167304
5299970.0 -0.2438949354 0.0069670831 0.4737940434 0.0051796665 0.4739001483 0.0059938246 -0.244207328 0.0059436005
10299940.0 -0.2403274916 0.0198574055 0.4760923739 0.0064411262 0.4760186319 0.0067845265 -0.2407522205 0.0181872295
15299910.0 -0.2360226627 0.0292452828 0.4794218001 0.007926853 0.479480954 0.0080664939 -0.2369674356 0.0274717158
20299880.0 -0.2305120424 0.0374539658 0.4842281109 0.0082504515 0.4840099898 0.0082582776 -0.2321820846 0.0356127604
25299850.0 -0.2246886305 0.0435227385 0.4895052769 0.0068753174 0.4894955263 0.0072949355 -0.2268094099 0.0418881846
30299820.0 -0.2187942409 0.0484162156 0.4949834928 0.00560582 0.4944140371 0.005481228 -0.2215472955 0.0468329209
35299790.0 -0.2131155782 0.0528985944 0.5004465573 0.0020982901 0.5007028543 0.0024204663 -0.2162937348 0.0510986319
40299760.0 -0.2073492151 0.0555740465 0.5053908482 -0.0014016907 0.505365393 -0.0017357948 -0.2114461034 0.054681742
45299730.0 -0.2026852915 0.0586425789 0.510459371 -0.0065196547 0.5101533596 -0.0063076764 -0.2066492376 0.0573117479
50299700.0 -0.1974970679 0.0599635668 0.5141416552 -0.0119625484 0.5145366076 -0.0123698166 -0.2020472712 0.059757657
55299670.0 -0.1937472189 0.0617818211 0.5176848955 -0.0180040337 0.5180548851 -0.0179821611 -0.1985051817 0.0612512014
60299640.0 -0.1895490009 0.0626104187 0.5211322939 -0.024352463 0.5214461799 -0.0240135 -0.1946391447 0.0632323077
65299610.0 -0.1862215 0.0640478571 0.5244134033 -0.0302994947 0.5248511182 -0.0304430131 -0.1911535129 0.0645332256
70299580.0 -0.1825115333 0.0643315343 0.5265153571 -0.0369314664 0.5267426931 -0.036836839 -0.1880487347 0.0653728356
75299550.0 -0.1796076385 0.0651789573 0.5287246306 -0.0438812137 0.5288587019 -0.0442381169 -0.1851692397 0.0670221382
80299520.0 -0.177354589 0.0657896117 0.530687618 -0.0511786456 0.5309628617 -0.0509874307 -0.182392383 0.067306556
85299490.0 -0.1745642899 0.0660417938 0.5322488832 -0.0579587463 0.5319549795 -0.057678451 -0.1804159669 0.0682709761
90299460.0 -0.1726411147 0.0665472206 0.5333576123 -0.0644890502 0.5331712182 -0.0648771389 -0.1775288661 0.0691458862
95299430.0 -0.1704735773 0.0672117964 0.534105668 -0.072015444 0.5340465741 -0.0717369202 -0.175755635 0.0702232628
100299400.0 -0.1687085884 0.0678319173 0.5343779929 -0.0785141228 0.5341753983 -0.0786539198 -0.1739749138 0.0706745021
105299370.0 -0.167059822 0.0679235738 0.5345767245 -0.0852639156 0.5348488268 -0.0855891329 -0.1719394291 0.0718670126
110299340.0 -0.1654502927 0.0688997207 0.5346990784 -0.0920814074 0.5348569677 -0.0923382019 -0.1706314774 0.0725743137
115299310.0 -0.1638789745 0.0686101001 0.5344563104 -0.0988018548 0.5352501085 -0.0990630695 -0.169092648 0.0731899635
120299280.0 -0.1628525174 0.0695710139 0.5346807365 -0.1060968258 0.5348725725 -0.1062680157 -0.1679981419 0.0744681668
125299250.0 -0.1615831508 0.0697303145 0.5344902599 -0.1125271931 0.5346558532 -0.1127011822 -0.1663591457 0.074722728
130299220.0 -0.1606655317 0.0705448313 0.5334920499 -0.118870795 0.5337922601 -0.1195833901 -0.1653182499 0.0757918767
135299190.0 -0.1593904386 0.0709419386 0.5330202725 -0.1257906037 0.5327309225 -0.1258148175 -0.163992969 0.076979197
140299160.0 -0.1585469053 0.0720855539 0.53231238 -0.1326474052 0.5325164247 -0.1329962777 -0.1627132028 0.0780227148
145299130.0 -0.1575434189 0.0727142056 0.5315113478 -0.1392495111 0.531152948 -0.1391372549 -0.1622898981 0.0787573938
150299100.0 -0.1566620088 0.0735103842 0.5303378188 -0.1455741459 0.5304367853 -0.1458662595 -0.160839218 0.0799177309
155299070.0 -0.1559484378 0.0748125316 0.5292922531 -0.1525798757 0.5288664803 -0.1526503526 -0.1599831616 0.0809096748
160299040.0 -0.1547761103 0.0752650463 0.5273728125 -0.1586818161 0.5279380049 -0.1591505805 -0.1588500154 0.0827571908
165299010.0 -0.1543332774 0.0761254321 0.5266337095 -0.1650663415 0.526592492 -0.1654291437 -0.1579316154 0.0831457018
170298980.0 -0.1536906419 0.0772496828 0.5236876876 -0.1715608741 0.5245060928 -0.1717030651 -0.156650623 0.0845062069
175298950.0 -0.1526895964 0.0781763619 0.5235312269 -0.1778383936 0.5231958931 -0.1777545454 -0.1557336753 0.0858369067
180298920.0 -0.1516003793 0.0790389838 0.5215913777 -0.1844381079 0.5212267315 -0.183684945 -0.1547869544 0.0871198924
185298890.0 -0.1509465704 0.0799330798 0.5196684598 -0.190438561 0.5196101604 -0.1904277534 -0.1539982145 0.0879350548
190298860.0 -0.1503983176 0.0811930609 0.5175272311 -0.1965405058 0.5180157049 -0.1966454107 -0.1527911457 0.0896506379
195298830.0 -0.1495922787 0.082032121 0.5153678361 -0.2022173055 0.5154060394 -0.2029686962 -0.1518704331 0.0903964131
200298800.0 -0.1490446269 0.0833970569 0.5138389261 -0.2083817761 0.5134703388 -0.2087461866 -0.15066466 0.092392692
205298770.0 -0.1481352813 0.0844356378 0.5112370163 -0.2143856137 0.5114133956 -0.2149040031 -0.1499469272 0.0931655948
210298740.0 -0.1475855489 0.0854812377 0.5090975581 -0.2207802893 0.5094273901 -0.2212831907 -0.1491632057 0.0950214334
215298710.0 -0.1466420981 0.0867934851 0.507092167 -0.2267246189 0.506836135 -0.2268510028 -0.148455752 0.0963505544
220298680.0 -0.1459209749 0.0880084775 0.5044104704 -0.2328842807 0.5046924693 -0.2326205037 -0.1469725909 0.0978301051
225298650.0 -0.1448947004 0.089603392 0.5017147237 -0.2382601703 0.5017756287 -0.2384728598 -0.1463926794 0.0989768978
230298620.0 -0.1445153474 0.0904755349 0.4996849587 -0.2449283074 0.4995769822 -0.2444139329 -0.1451360177 0.1005046003
235298590.0 -0.1436581657 0.0915745374 0.4968292396 -0.250225479 0.4968997336 -0.250366973 -0.143976032 0.1014499421
240298560.0 -0.1431139623 0.0930489199 0.4941109718 -0.2555748429 0.4945750009 -0.2557120139 -0.1429988748 0.1032858273
245298530.0 -0.1417076733 0.0942539418 0.4908927835 -0.2613857234 0.4913316577 -0.2613671094 -0.1418124609 0.1047422463
250298500.0 -0.1417754857 0.0953742774 0.4889226801 -0.2669843769 0.4890329006 -0.2666889822 -0.140621574 0.1062648452
255298470.0 -0.1406043654 0.0967657631 0.4855349832 -0.2729593577 0.4858786379 -0.2726504966 -0.1396010099 0.1073711371
260298440.0 -0.139700458 0.0980153207 0.4827986115 -0.2779160721 0.4827198604 -0.278458629 -0.1379649129 0.1088865687
265298410.0 -0.1386353874 0.0997213855 0.4792923607 -0.2839135329 0.4790867344 -0.2835144023 -0.1373018639 0.1099805433
270298380.0 -0.1376878278 0.1003735409 0.4760991347 -0.289000487 0.4766612177 -0.2893656003 -0.1360355231 0.1122141456
275298350.0 -0.137033189 0.1020183346 0.4733662517 -0.2948995907 0.4737647778 -0.2952181486 -0.1346410018 0.1134713087
280298320.0 -0.1361684066 0.103373431 0.4702477727 -0.2993373173 0.4697176545 -0.3001922233 -0.1337404541 0.1149046618
285298290.0 -0.135330256 0.1047745522 0.4669524147 -0.3053354049 0.4664163959 -0.3054702506 -0.1326147306 0.1161725927
290298260.0 -0.1341427569 0.1060917124 0.4637419529 -0.3107273891 0.4634420453 -0.3109601346 -0.1308554877 0.1181817142
295298230.0 -0.1330875483 0.1072467488 0.4605487897 -0.3158714814 0.4600109312 -0.3159534078 -0.1297017343 0.1196431519
300298200.0 -0.1320302422 0.1084173296 0.4565188673 -0.3210508033 0.4568515959 -0.3214510005 -0.1284466982 0.1208828266
305298170.0 -0.1308791279 0.1094469953 0.4532573835 -0.3261386402 0.4535452361 -0.3268853378 -0.12672953 0.1223737788
310298140.0 -0.129809744 0.110466608 0.4499319533 -0.3315968339 0.4501370006 -0.3319881223 -0.1253901447 0.1240733982
315298110.0 -0.1291125613 0.1119387665 0.4460184515 -0.3369241561 0.4462966383 -0.3370700108 -0.124169741 0.1248112535
320298080.0 -0.128070712 0.1132170658 0.4423565023 -0.3422403979 0.4422397157 -0.342167203 -0.1226792688 0.1262276405
325298050.0 -0.1273541989 0.1140244873 0.4390641734 -0.347240587 0.4389510911 -0.3471840003 -0.1216464915 0.1276703371
330298020.0 -0.1264540706 0.1154995465 0.4341636567 -0.3522860839 0.4341344917 -0.3523402241 -0.1205858408 0.1285733385
335297990.0 -0.1252628741 0.1163767117 0.4305249802 -0.3572216657 0.4308960716 -0.3575146354 -0.1191404383 0.1301831685
340297960.0 -0.1247864288 0.1181360534 0.4258922448 -0.3621479391 0.4264327694 -0.3616727019 -0.1179320816 0.1318406707
345297930.0 -0.1237280299 0.1193435493 0.4224518991 -0.3659395908 0.4217105367 -0.3665473981 -0.1162155563 0.1332903384
350297900.0 -0.1223247587 0.1207430338 0.418154074 -0.3704909534 0.4180508645 -0.3711068407 -0.1150687944 0.1346897985
355297870.0 -0.1216142333 0.1218171733 0.4139451943 -0.3750351843 0.4142904411 -0.3756357392 -0.1138742475 0.1363204923
360297840.0 -0.1201914562 0.1234677019 0.40968423 -0.3802211109 0.4097961051 -0.3802703201 -0.112419306 0.1379967322
365297810.0 -0.1191451035 0.1245636227 0.4054691718 -0.3844799032 0.4057524914 -0.3847086935 -0.1110753196 0.1392842688
370297780.0 -0.1179222004 0.1259061961 0.4010569509 -0.38893735 0.4013186734 -0.38930925 -0.1092397342 0.1404064378
375297750.0 -0.1168970219 0.1273603324 0.3975602741 -0.3934643874 0.3967791197 -0.3936842579 -0.1075585596 0.1420840222
380297720.0 -0.1153571816 0.1282582579 0.3927564065 -0.3978678419 0.3926239677 -0.3978010206 -0.1058811485 0.1435726084
385297690.0 -0.114136454 0.1298416873 0.3883018692 -0.4018101757 0.3880848045 -0.4022971082 -0.1045686817 0.1452685628
390297660.0 -0.1131547679 0.130983185 0.3834103761 -0.4063999419 0.3836442698 -0.4068307663 -0.1027418542 0.1464110845
395297630.0 -0.1116790986 0.1320923982 0.3794613431 -0.4103277584 0.3791153343 -0.4106896174 -0.1014540234 0.1479162285
400297600.0 -0.110793192 0.1337093098 0.3748027346 -0.4149641251 0.374847749 -0.4152157887 -0.1005037329 0.1488959703
405297570.0 -0.1092585986 0.1347874788 0.3700650209 -0.4187518738 0.3702651367 -0.4193274525 -0.0986478458 0.1506510009
410297540.0 -0.1078474705 0.135649647 0.3651234549 -0.4229143613 0.3651861642 -0.4228811203 -0.0967166285 0.1515999982
415297510.0 -0.1067133545 0.1371263604 0.3605374596 -0.426599015 0.3610591677 -0.4268656408 -0.0953564454 0.1533309749
420297480.0 -0.1053161292 0.137919699 0.3560035897 -0.4310059437 0.3559869957 -0.4305938669 -0.093133209 0.1541126193
425297450.0 -0.1037598799 0.1391042567 0.3513671159 -0.4350505082 0.3518328134 -0.4348112547 -0.0916003592 0.1558401883
430297420.0 -0.1027549731 0.1405822335 0.3467441364 -0.4385398614 0.3465492314 -0.4384817917 -0.0901587949 0.1567943302
435297390.0 -0.1012691674 0.1416766471 0.3417230387 -0.4422172434 0.3418846256 -0.4421515287 -0.0885744084 0.1580937235
440297360.0 -0.0998200427 0.1424319499 0.3367708839 -0.4458737747 0.3365675898 -0.4458904313 -0.0869531669 0.1587184013
445297330.0 -0.0981195052 0.1435699225 0.3313934352 -0.449804551 0.3319249788 -0.4494439543 -0.0850104938 0.1600926774
450297300.0 -0.0968049734 0.1446474458 0.326677593 -0.4532653463 0.3269864617 -0.4535249646 -0.0835150666 0.1616326324
455297270.0 -0.0957624077 0.1456115268 0.3222816132 -0.4567209115 0.3221299082 -0.4563605935 -0.0813929087 0.1627391115
460297240.0 -0.0944639145 0.1470445981 0.3168539359 -0.4598946262 0.3168265115 -0.4604712802 -0.0797760341 0.1642082067
465297210.0 -0.0925963662 0.1478833114 0.3118118397 -0.4636790472 0.3122237039 -0.4636783836 -0.0783024756 0.1647172838
470297180.0 -0.0915105921 0.148705193 0.3071240049 -0.4666755445 0.3072540741 -0.4665705139 -0.0767018844 0.166016065
475297150.0 -0.090156946 0.1495848338 0.3017146377 -0.4701655541 0.3020580959 -0.469918897 -0.074630433 0.1667850511
480297120.0 -0.0883569414 0.1505081832 0.2965949947 -0.4731852 0.2969909024 -0.4732396064 -0.0729176119 0.1684384874
485297090.0 -0.086830846 0.1517590669 0.291769732 -0.47704789 0.2916698143 -0.4767467853 -0.0713364181 0.169246571
490297060.0 -0.0853909961 0.1523143654 0.2866867803 -0.4795846972 0.2863360642 -0.4800545487 -0.0693343466 0.1701018402
495297030.0 -0.0840041213 0.1539911447 0.2810792841 -0.4828442619 0.280838017 -0.4827436948 -0.0674333385 0.1707262762
500297000.0 -0.0823465961 0.1543533702 0.2754997775 -0.4858678811 0.2757323768 -0.4857551355 -0.065984517 0.1717686251
505296970.0 -0.0810841699 0.155421863 0.2700728385 -0.4883831326 0.2701623102 -0.4885162368 -0.064303216 0.1731439943
510296940.0 -0.0795560893 0.1562821911 0.2649352156 -0.4918160975 0.2652692591 -0.4917949253 -0.0617348538 0.1739876367
515296910.0 -0.0783199359 0.1575528734 0.2596330532 -0.4940645509 0.2595610022 -0.4946501491 -0.0601704421 0.1747977257
520296880.0 -0.0765004409 0.1581044659 0.2542420483 -0.4973093147 0.2545006317 -0.4971666255 -0.0580481035 0.1756578062
525296850.0 -0.0752480329 0.1587477179 0.24901161 -0.4994765992 0.2490031542 -0.5000159555 -0.0561845362 0.1761827128
530296820.0 -0.0735261527 0.1598553301 0.2436543026 -0.5023329735 0.2433257752 -0.5025636709 -0.0547169981 0.1769280419
535296790.0 -0.0720262581 0.1606170692 0.237488999 -0.5050231467 0.238006071 -0.504725675 -0.0525447393 0.1775737237
540296760.0 -0.0703377676 0.1612778419 0.2325475483 -0.5078878695 0.2323679431 -0.5079269835 -0.0509874401 0.1787576303
545296730.0 -0.0689545483 0.1623094834 0.227022143 -0.5099291633 0.2269576935 -0.5103552089 -0.0491133409 0.1791205702
550296700.0 -0.067421115 0.1631163725 0.2212983764 -0.5124317962 0.2216919692 -0.5122969256 -0.0471633447 0.1802662613
555296670.0 -0.0652791667 0.1637851021 0.2158184288 -0.514946115 0.2157932926 -0.5145266998 -0.0454096841 0.1810931065
560296640.0 -0.0642195423 0.1645902358 0.2102701285 -0.5171110911 0.2104645585 -0.5170441061 -0.0432661561 0.1817808267
565296610.0 -0.0630453154 0.1649652517 0.2045893894 -0.5191914395 0.2043877592 -0.5194092188 -0.0413475951 0.181880735
570296580.0 -0.0606252899 0.16564593 0.1988527977 -0.5212531315 0.1990536821 -0.5218708495 -0.039076009 0.1829866412
575296550.0 -0.0592330906 0.1670382558 0.1932101116 -0.5234861246 0.1933846203 -0.5233370963 -0.0371774032 0.1831743332
580296520.0 -0.0579079646 0.1674642718 0.18814738 -0.5255355502 0.187456116 -0.5258217242 -0.0353485471 0.1837344419
585296490.0 -0.0559644562 0.1675545321 0.1820979511 -0.5277614247 0.181460147 -0.5272635786 -0.0336346725 0.1839360154
590296460.0 -0.0547645687 0.1685590336 0.1764025362 -0.5291745338 0.1762516486 -0.5299616352 -0.0313308622 0.1849251418
595296430.0 -0.0530083983 0.1692220181 0.1707574398 -0.5312460463 0.1701048506 -0.5313211596 -0.0291848414 0.1851554509
600296400.0 -0.0513972976 0.1699069651 0.1647521253 -0.5331063791 0.1648036093 -0.5334073793 -0.0274087457 0.1859957105
605296370.0 -0.0494763911 0.1710002114 0.158907693 -0.5346912048 0.1590277036 -0.5347808781 -0.0252446498 0.1864422991
610296340.0 -0.0479152573 0.1712032248 0.1530748571 -0.5365261009 0.1533371236 -0.5367684031 -0.0233192547 0.1868852792
615296310.0 -0.046305105 0.1718988565 0.1472981699 -0.5376933076 0.1472148535 -0.538004834 -0.0211961437 0.1872139515
620296280.0 -0.0445984737 0.1723997704 0.1415572157 -0.5393646544 0.141628367 -0.5396259648 -0.0197167313 0.1873174374
625296250.0 -0.042782549 0.1732244166 0.1353404992 -0.5413261476 0.1356426302 -0.5416538774 -0.0171727057 0.1881016259
630296220.0 -0.041187388 0.1733114764 0.1295914572 -0.5424325921 0.1301873843 -0.5427868185 -0.0157141243 0.1882594446
635296190.0 -0.0393928865 0.1742549682 0.1240094028 -0.5434670815 0.1236705472 -0.5438278333 -0.0132718416 0.1882945793
640296160.0 -0.0378692162 0.1747088198 0.1184390162 -0.5450918863 0.1178538514 -0.5451120563 -0.0109203508 0.1889139797
645296130.0 -0.0361093225 0.175358741 0.1118908053 -0.5463548849 0.1124336736 -0.5459929387 -0.009568395 0.1886523185
650296100.0 -0.0346425975 0.1763134491 0.1066480288 -0.5468469465 0.1062788205 -0.5472917377 -0.0072632521 0.1891643803
655296070.0 -0.0327680208 0.1761984824 0.100535953 -0.5482330911 0.100060006 -0.548340542 -0.004819864 0.1896474097
660296040.0 -0.031690704 0.1772873413 0.0944067205 -0.5493379368 0.0942036216 -0.5490454058 -0.003176483 0.1894602339
665296010.0 -0.0293565348 0.177065343 0.0885481612 -0.5505051622 0.0888888535 -0.5505344713 -0.0013965289 0.1901206363
670295980.0 -0.0271296556 0.1776458802 0.0828441978 -0.5511506879 0.0828649884 -0.5512516274 0.0008653649 0.1898718822
675295950.0 -0.025680305 0.1780799636 0.0764433923 -0.5519407704 0.077110642 -0.5526859856 0.0029697315 0.1905713928
680295920.0 -0.0243183303 0.1788685259 0.0707485883 -0.5528992722 0.0702882248 -0.5533852353 0.0054099896 0.1902206862
685295890.0 -0.0224106313 0.1788328991 0.0646944271 -0.5534596488 0.0643263182 -0.5538367385 0.0073108336 0.1904766139
690295860.0 -0.0202217182 0.1793044224 0.0586338186 -0.5539812656 0.0580829747 -0.5540749765 0.0098765421 0.190396359
695295830.0 -0.0184701623 0.1795892695 0.0519962133 -0.554649849 0.0525361115 -0.5551355455 0.0110824664 0.1907120306
700295800.0 -0.0168426228 0.1803372919 0.0464297499 -0.5554431093 0.0465987381 -0.5554946006 0.0134536272 0.1901539533
705295770.0 -0.014895064 0.1804422116 0.0405722204 -0.5558719833 0.0408787974 -0.5558899331 0.015063335 0.1906110801
710295740.0 -0.0132540601 0.1808986637 0.0345210363 -0.5561431519 0.0347733315 -0.5556445679 0.0169616295 0.1906621524
715295710.0 -0.0115915786 0.1808418738 0.0287529152 -0.5561515984 0.0288872234 -0.5567287035 0.0196903089 0.1900329526
720295680.0 -0.0101161623 0.1808520146 0.0224564724 -0.5560783164 0.0225145089 -0.5570144161 0.0219198199 0.1906527893
725295650.0 -0.008022822 0.1812838762 0.0165575645 -0.5564412636 0.0165726908 -0.5570049245 0.0237106023 0.1907737278
730295620.0 -0.0065712994 0.1816125873 0.0107856203 -0.5569724162 0.010584753 -0.5568157483 0.0262196735 0.1897168888
735295590.0 -0.0040454927 0.1817690099 0.0046300585 -0.5569432137 0.0049457499 -0.5572095289 0.0278456136 0.1901018724
740295560.0 -0.0025622 0.1822878181 -0.0015269665 -0.5565842408 -0.0012167286 -0.5570125636 0.0302087438 0.1896834007
745295530.0 -0.0007954602 0.1820960071 -0.007559683 -0.5567904796 -0.0071418913 -0.5571410233 0.0320910261 0.189808923
750295500.0 0.0008648471 0.1822989732 -0.0135731923 -0.5561634778 -0.0132940773 -0.556477053 0.0344115253 0.1888817977
755295470.0 0.0032106563 0.1826528855 -0.0192293091 -0.5564661491 -0.0189823088 -0.5568866552 0.036020381 0.1893213784
760295440.0 0.004326408 0.182598967 -0.0256762289 -0.5558282629 -0.0254993124 -0.5563223222 0.0377240452 0.1889227049
765295410.0 0.0060965776 0.1823808652 -0.0311081299 -0.5555701343 -0.0310192141 -0.55607236 0.0407058398 0.1889652866
770295380.0 0.0083226507 0.1829254354 -0.037472003 -0.5551545173 -0.0372374187 -0.5557617452 0.0427310976 0.1884452814
775295350.0 0.0102162612 0.1832002834 -0.0434286512 -0.5548223682 -0.0432944925 -0.5552360903 0.0445232442 0.1876047664
780295320.0 0.0119049152 0.1828636554 -0.049454023 -0.554431802 -0.0489312843 -0.5546857842 0.0463544156 0.1881100735
785295290.0 0.0136390015 0.1834445072 -0.0552001217 -0.5530384089 -0.0549015033 -0.5541951599 0.048121493 0.1873209705
790295260.0 0.0154251143 0.1830345261 -0.0608803999 -0.5534105973 -0.0609791527 -0.5536441538 0.0504245182 0.1869639879
795295230.0 0.017100581 0.1832805212 -0.0667448432 -0.5520178161 -0.0669637652 -0.5523398322 0.0526459468 0.187178069
800295200.0 0.0189506798 0.183377502 -0.0735404933 -0.552034492 -0.073729382 -0.5519335978 0.0548434805 0.1863470568
805295170.0 0.0204806004 0.1831924266 -0.0788199709 -0.5504318137 -0.0787235491 -0.5508166362 0.0563062355 0.1856467473
810295140.0 0.0225364932 0.1832098174 -0.0847894402 -0.5497887002 -0.0849603829 -0.5507547386 0.0588422445 0.1856556852
815295110.0 0.024333681 0.1829613687 -0.0907353294 -0.5486811283 -0.0909796967 -0.5488764445 0.0603525879 0.1847044067
820295080.0 0.0261658716 0.1828458491 -0.0967277692 -0.5479702308 -0.0965452219 -0.5482031987 0.0624959996 0.1845042572
825295050.0 0.0280171328 0.1828037322 -0.1025466707 -0.5465668469 -0.102481689 -0.5469004851 0.0648091027 0.1838570692
830295020.0 0.0295447204 0.1827297344 -0.1085672639 -0.5456708029 -0.1087274145 -0.5460073455 0.0664388396 0.1835605313
