!Created with skrf (http://scikit-rf.org).
# Hz S RI R 50.0 
!freq ReS11 ImS11 ReS21 ImS21 ReS12 ImS12 ReS22 ImS22
300000.0 -0.2421841395 -0.0839388623 0.4717528543 0.0568551127 0.4711296963 0.0517013187 -0.2406744519 -0.091577734
5299970.0 -0.2449446595 0.0066428946 0.4748838145 0.0049313313 0.4747043553 0.004812698 -0.2412220679 0.0077912173
10299940.0 -0.2417748058 0.0182825764 0.4768822108 0.0058437184 0.4768197991 0.0061298002 -0.2382149748 0.020651198
15299910.0 -0.2375372993 0.0268667154 0.4805544114 0.0073054967 0.4806072922 0.0073532372 -0.2335988586 0.0302582785
20299880.0 -0.2330960179 0.0340168197 0.4849757563 0.0084607461 0.4851443403 0.0079606104 -0.2282377998 0.0378940464
25299850.0 -0.2277155234 0.0403448531 0.4901932862 0.0066984686 0.4900445711 0.0071975822 -0.2222265463 0.0446057876
30299820.0 -0.2228527849 0.0449499134 0.4955684036 0.004853895 0.4954418578 0.0050080248 -0.2163668033 0.0499863661
35299790.0 -0.2176085743 0.0491765045 0.5008718386 0.001659089 0.5008708408 0.0016176984 -0.211126654 0.0542318012
40299760.0 -0.2127411652 0.0524462461 0.5057830797 -0.0019821563 0.5063066507 -0.0019567189 -0.2055669611 0.0570771302
45299730.0 -0.2077644159 0.0549463736 0.5103383646 -0.0071566798 0.5107541037 -0.0065906042 -0.2003590274 0.0599923473
50299700.0 -0.203858222 0.0565622991 0.5150191434 -0.0125130166 0.5151841545 -0.012356805 -0.1956569186 0.0624028889
55299670.0 -0.1999354585 0.0582945392 0.5186369392 -0.0188980448 0.5186142059 -0.0183645111 -0.1913335919 0.0636712033
60299640.0 -0.1961284447 0.0600533928 0.5217930384 -0.0249235355 0.5220104969 -0.0245449322 -0.18743487 0.0650664407
65299610.0 -0.1929186719 0.0610786331 0.5248455832 -0.0313196197 0.5246390393 -0.0309123167 -0.1838080719 0.0662554448
70299580.0 -0.1897300172 0.062117308 0.5269626633 -0.0375591266 0.5271471353 -0.037466288 -0.1805507843 0.0672538153
75299550.0 -0.1868953863 0.063106754 0.529405826 -0.0443990562 0.5291548564 -0.0443404412 -0.1775679502 0.0680945236
80299520.0 -0.1846925702 0.0637701024 0.5309799379 -0.0515514966 0.5311749921 -0.0513210582 -0.1750789392 0.0690270236
85299490.0 -0.1822612448 0.0639881191 0.5320333279 -0.058119069 0.5322057332 -0.0578771949 -0.1725861276 0.0693111673
90299460.0 -0.1801426623 0.0647279398 0.5327577593 -0.0654681275 0.5334658809 -0.0652834905 -0.1699896547 0.0705978935
95299430.0 -0.1779056528 0.0653939285 0.5341386157 -0.0721570305 0.5341512099 -0.0722122248 -0.1678853733 0.0710092482
100299400.0 -0.1766861729 0.066121425 0.5340804608 -0.0787425542 0.5344901555 -0.0789360184 -0.1657702674 0.0718185103
105299370.0 -0.1749434537 0.0666983036 0.5345671766 -0.0862157544 0.5350532781 -0.0857739074 -0.1640023965 0.0724797505
110299340.0 -0.173257332 0.0673524521 0.5349085196 -0.0927052329 0.5347912652 -0.0924388139 -0.1628187308 0.0730897458
115299310.0 -0.1720158481 0.0680651105 0.5349245569 -0.0994406669 0.5349730042 -0.0991278041 -0.1611462065 0.0738868114
120299280.0 -0.1705249808 0.0684410886 0.5343003025 -0.1061813698 0.5350258119 -0.1064923401 -0.1596951907 0.0747978732
125299250.0 -0.1696253556 0.0692136127 0.5343518208 -0.112552185 0.5346456652 -0.1127151173 -0.1587591756 0.0751070157
130299220.0 -0.1686039245 0.0703819484 0.5333238853 -0.1197043576 0.5332699324 -0.1192623593 -0.1567704351 0.0759531433
135299190.0 -0.1675194051 0.0711752613 0.5332187065 -0.1264624645 0.5329038414 -0.1257418067 -0.1557551661 0.0768884234
140299160.0 -0.1665128418 0.0723773098 0.531902815 -0.1333043678 0.5323693983 -0.13296686 -0.1549701109 0.0783649299
145299130.0 -0.1657060013 0.0729699523 0.5315520863 -0.139393697 0.5311465481 -0.1393047041 -0.1535174502 0.0791489857
150299100.0 -0.1643248174 0.0739637956 0.5300145288 -0.1457018125 0.5302321225 -0.1455175769 -0.1527627306 0.0803135472
155299070.0 -0.1639331553 0.0748831592 0.5286663535 -0.1531937546 0.5289701251 -0.1525444385 -0.1513702528 0.0814092065
160299040.0 -0.1630664985 0.0757546452 0.5273257316 -0.1588687657 0.5271679893 -0.1588025613 -0.1512262399 0.0824359159
165299010.0 -0.162076869 0.0766883394 0.5257870659 -0.1656102604 0.5263406369 -0.1655890913 -0.1498912067 0.0835938434
170298980.0 -0.1615916929 0.0777472605 0.5244407712 -0.1719958941 0.5250586747 -0.171634276 -0.1487998481 0.0847146047
175298950.0 -0.1609318095 0.0789591798 0.5232146562 -0.1779614707 0.5229931394 -0.1778178305 -0.1481073743 0.0860846154
180298920.0 -0.1603419679 0.0799099952 0.5210409176 -0.1843750967 0.5209644031 -0.1839022717 -0.1468159354 0.087192004
185298890.0 -0.1586547117 0.0809303793 0.5191608078 -0.1905288725 0.5192312533 -0.1901577146 -0.1460597381 0.0889100301
190298860.0 -0.1585372811 0.0824587006 0.517532116 -0.1967048976 0.5177886915 -0.1965746886 -0.1450995832 0.0895812434
195298830.0 -0.157875064 0.0832059371 0.5154398698 -0.2025815602 0.5153507695 -0.2026083049 -0.1439043713 0.0911989981
200298800.0 -0.1570761393 0.0847439221 0.5133785717 -0.2089718293 0.5137142762 -0.2093037745 -0.1432346381 0.0922352057
205298770.0 -0.1560932308 0.0859459452 0.510861213 -0.2156733413 0.5109872941 -0.2150163616 -0.1421799931 0.0930737813
210298740.0 -0.1554596504 0.0867916959 0.508940213 -0.2204377183 0.508771867 -0.2206061183 -0.1409739146 0.0950955997
215298710.0 -0.1548479046 0.0883399626 0.5062122444 -0.227359236 0.506566951 -0.2270484118 -0.1405612055 0.0964119135
220298680.0 -0.153984275 0.0891669722 0.5035673453 -0.2325102186 0.5038445523 -0.2326699003 -0.1397249717 0.0971815292
225298650.0 -0.1532633744 0.0906002454 0.5016259771 -0.2388070836 0.5018887218 -0.2386403454 -0.1388916682 0.0984608778
230298620.0 -0.1526763193 0.0923535021 0.4992628646 -0.2440585985 0.4999122168 -0.2442557433 -0.137979842 0.0999233447
235298590.0 -0.151584446 0.0935882178 0.4964788885 -0.2497939801 0.4965855436 -0.2495723913 -0.1367197989 0.1012130542
240298560.0 -0.1510569279 0.0951478535 0.4940716815 -0.2562777368 0.493952906 -0.2559317508 -0.1357996995 0.1029999544
245298530.0 -0.1502777137 0.0960345953 0.4913472649 -0.2615159851 0.4911635786 -0.2617063653 -0.1343386633 0.1040388185
250298500.0 -0.1491696639 0.0975530996 0.4875476332 -0.2670181727 0.4877321451 -0.2665651306 -0.1338017899 0.1054603519
255298470.0 -0.1485284297 0.0984736932 0.4845326942 -0.2720783947 0.4850733627 -0.272740101 -0.1322328346 0.1068957913
260298440.0 -0.147816378 0.0998067808 0.4822389397 -0.2783617998 0.4825657849 -0.2781515095 -0.1312456014 0.1083157653
265298410.0 -0.1465772998 0.101709754 0.479343691 -0.283698254 0.4795581244 -0.2835897178 -0.1305094379 0.1097388749
270298380.0 -0.1458227687 0.1026696986 0.4764220101 -0.288936346 0.4766328967 -0.2888901427 -0.1294261236 0.1111875783
275298350.0 -0.1450486192 0.1044587131 0.4731318953 -0.2948473535 0.4734106387 -0.2945648135 -0.1282266013 0.1123301607
280298320.0 -0.1437442427 0.1056967015 0.4701260864 -0.30007795 0.4699889295 -0.2999189968 -0.1266185668 0.1139067345
285298290.0 -0.143099851 0.1071842278 0.4670139306 -0.3052115509 0.4665961113 -0.3049876128 -0.125525084 0.1153532532
290298260.0 -0.1419548658 0.1083013481 0.4633648392 -0.3101779909 0.4635309544 -0.3107115495 -0.1243392423 0.1168949441
295298230.0 -0.1410248011 0.1095072684 0.4601257446 -0.3156722951 0.4601490005 -0.3156261887 -0.122711563 0.1178609015
300298200.0 -0.140504183 0.1110147901 0.456820436 -0.3205340323 0.4571763603 -0.32137079 -0.1220052976 0.1194007453
305298170.0 -0.1389007513 0.1122096654 0.4529554569 -0.3266069752 0.453372353 -0.3262616776 -0.1199555723 0.1205812581
310298140.0 -0.1382840581 0.1136916909 0.4498557557 -0.331396977 0.4498790062 -0.331658835 -0.1193610329 0.1219156487
315298110.0 -0.1372883311 0.1144521342 0.446054986 -0.3364666593 0.4460697522 -0.3363820217 -0.1180348559 0.1229397925
320298080.0 -0.1360329721 0.1158221059 0.4419189117 -0.341761679 0.4420765225 -0.3417431229 -0.1169853738 0.124271513
325298050.0 -0.1350412893 0.1171635909 0.4380815105 -0.3470019247 0.4384865705 -0.3469159907 -0.1157371968 0.1255117204
330298020.0 -0.134292391 0.1184396166 0.4337616501 -0.3518918146 0.4343311448 -0.3518458379 -0.1147310318 0.1265942859
335297990.0 -0.1331262302 0.1194946697 0.4299039705 -0.3564728727 0.4301402416 -0.3566903848 -0.113952677 0.1287873441
340297960.0 -0.1328007113 0.1212007929 0.4258005682 -0.3612895403 0.4259325747 -0.3613588304 -0.1118863606 0.1299301565
345297930.0 -0.1315709493 0.1228595466 0.4218594576 -0.3663966615 0.4216656286 -0.3660303895 -0.1108282913 0.1308770881
350297900.0 -0.1304972088 0.1237911085 0.4174792195 -0.3709840851 0.4178440472 -0.3705363883 -0.1100463125 0.1327308157
355297870.0 -0.1292203173 0.1256486834 0.4134959932 -0.3750965249 0.4138073521 -0.3750692496 -0.1087581602 0.1336948571
360297840.0 -0.1280588846 0.1268673319 0.4098137427 -0.3793537835 0.4099757574 -0.3797066735 -0.1069735486 0.135358817
365297810.0 -0.1273300108 0.1283685898 0.4054070543 -0.3842209745 0.4059958437 -0.3841365745 -0.1054067076 0.1367204864
370297780.0 -0.1257119544 0.1295887068 0.4009908379 -0.3889856484 0.4014327343 -0.388155226 -0.1043078245 0.137862351
375297750.0 -0.1245095141 0.1306904257 0.3969638456 -0.3928822014 0.397483242 -0.3928174656 -0.1026516024 0.1389583085
380297720.0 -0.123560449 0.1319934533 0.3923565265 -0.3973606236 0.3925098874 -0.3971646305 -0.101552509 0.1404603858
385297690.0 -0.1225674751 0.1336469232 0.388069348 -0.4013246766 0.3880263381 -0.4014470493 -0.0995877965 0.1414010549
390297660.0 -0.1212882717 0.1349621498 0.3840822892 -0.4060798571 0.3835852067 -0.4058470442 -0.0982103348 0.1428071349
395297630.0 -0.1199787531 0.1362438731 0.379148013 -0.4102585119 0.3793122829 -0.4103096551 -0.0961955303 0.1440562138
400297600.0 -0.1186618696 0.1377471373 0.3750346597 -0.4146497287 0.3749270158 -0.4142911519 -0.0950579165 0.1452426473
405297570.0 -0.1177734494 0.1387077989 0.3703036075 -0.4179597309 0.3700959834 -0.4181298729 -0.0933035996 0.1465953696
410297540.0 -0.1161145087 0.1399740558 0.3658838858 -0.4223867725 0.3658852245 -0.4226696726 -0.0921098182 0.1480131533
415297510.0 -0.1144321702 0.1409593791 0.360788062 -0.426495839 0.3615457981 -0.4265179339 -0.0904822382 0.1491415192
420297480.0 -0.1132744016 0.142865904 0.3558250084 -0.4304861274 0.3560774027 -0.4305559343 -0.0888284242 0.1498498028
425297450.0 -0.1120321111 0.1434061378 0.3517742141 -0.4341763438 0.3518212504 -0.4346829578 -0.0875354018 0.1515732977
430297420.0 -0.11067027 0.1447480451 0.3464493581 -0.4375982641 0.3465737413 -0.4379137974 -0.0858613658 0.152563626
435297390.0 -0.1095724246 0.1460484713 0.3420605847 -0.4416253308 0.3413805087 -0.4418672478 -0.0836268751 0.1536832047
440297360.0 -0.1079573271 0.1473634048 0.3368748606 -0.4452870438 0.3371692302 -0.44543582 -0.0823327973 0.1544233819
445297330.0 -0.1065491318 0.1481182619 0.3323260462 -0.4487714752 0.3324100406 -0.4488499633 -0.0804193031 0.1553898248
450297300.0 -0.1052348986 0.1493975579 0.3271829784 -0.452961849 0.3273894025 -0.4527727313 -0.0789616691 0.1562645307
455297270.0 -0.1039101057 0.1506795412 0.3224714406 -0.456163412 0.3228763966 -0.4563804569 -0.0774402916 0.1575824985
460297240.0 -0.1024883192 0.1517276576 0.3171714868 -0.4596684031 0.3173361875 -0.4596788748 -0.0755833629 0.1587174361
465297210.0 -0.1006379499 0.1529974382 0.3123137658 -0.4630858458 0.3123109054 -0.4632725917 -0.0735890582 0.1593863704
470297180.0 -0.0993667228 0.1539937665 0.3068049107 -0.4668401758 0.3073889457 -0.4665796913 -0.0716967807 0.1608542574
475297150.0 -0.0979262996 0.1548807289 0.301725813 -0.4693940867 0.3019921978 -0.4693662623 -0.069794988 0.1612111694
480297120.0 -0.0963888367 0.1566720659 0.2965679676 -0.4732564679 0.2970074315 -0.4733028483 -0.0680342211 0.1626447629
485297090.0 -0.0951905324 0.1575037107 0.2919168073 -0.4758957142 0.2920324946 -0.4758322101 -0.0662589107 0.1630751374
490297060.0 -0.0937933572 0.1586167095 0.2870523356 -0.4795823607 0.2868013046 -0.4791630395 -0.0644812625 0.1643477658
495297030.0 -0.0921048456 0.1595421433 0.2812192413 -0.4825755607 0.2817704229 -0.4821366699 -0.0628941434 0.1650477457
500297000.0 -0.0904352602 0.160688748 0.2760761873 -0.4850276775 0.2760721001 -0.4850520421 -0.0609794919 0.1665191337
505296970.0 -0.0888130101 0.1614015597 0.2704972086 -0.4880261041 0.2705853699 -0.488688116 -0.0593803666 0.1668748717
510296940.0 -0.0873314925 0.1622788058 0.2650367412 -0.4912165764 0.2652089112 -0.4914229041 -0.0574932997 0.1677159014
515296910.0 -0.0858913749 0.1635458414 0.2598562475 -0.4939901331 0.2600039162 -0.4938757474 -0.0553682313 0.1685507783
520296880.0 -0.084415011 0.1642486861 0.2546279947 -0.4968488299 0.2550435844 -0.4965455391 -0.0537926295 0.168998228
525296850.0 -0.0826860461 0.1648830747 0.248647426 -0.4992730512 0.2491828305 -0.4996000693 -0.051713738 0.1699031448
530296820.0 -0.080724434 0.1663779225 0.2435809528 -0.5025153846 0.2438635236 -0.5022720265 -0.0497774296 0.1709919055
535296790.0 -0.0795374369 0.1671375454 0.2382251795 -0.5050853328 0.2386017998 -0.5041822675 -0.047999619 0.1709471214
540296760.0 -0.0781909174 0.1679457854 0.2326513303 -0.5076115775 0.2327379738 -0.5074216056 -0.0466167956 0.1722129676
545296730.0 -0.0762646104 0.1688895536 0.2267792261 -0.5094598178 0.227204802 -0.5097258812 -0.0447421382 0.1725400907
550296700.0 -0.0741601049 0.1699968634 0.2216381481 -0.511923521 0.2218446868 -0.5122345592 -0.0430099709 0.1730553204
555296670.0 -0.073052207 0.1707625097 0.2162424554 -0.5146304447 0.2165892974 -0.5144204391 -0.0409229369 0.1740418117
560296640.0 -0.0711314126 0.1717161738 0.2103306743 -0.5171598869 0.2107548356 -0.5166602626 -0.0387490132 0.1745224635
565296610.0 -0.0699252977 0.1724735763 0.2044416852 -0.5189271476 0.2050716488 -0.519133044 -0.0371649986 0.1749993415
570296580.0 -0.0680732329 0.1731536545 0.1994209808 -0.5215479144 0.1988237767 -0.5214921458 -0.03516317 0.1762799197
575296550.0 -0.0665710641 0.1742449095 0.1938154462 -0.5234424727 0.1933152357 -0.523650135 -0.0326705144 0.1761231319
580296520.0 -0.0644293326 0.1749968332 0.1876602867 -0.5253960394 0.1883410845 -0.5255015723 -0.0310278921 0.1766241006
585296490.0 -0.0633712567 0.1753724259 0.1824313515 -0.5273132438 0.1822814641 -0.5272624778 -0.0290177772 0.1772928601
590296460.0 -0.0609626506 0.1762367465 0.1763397242 -0.5288577924 0.1766419847 -0.5291093061 -0.0275867568 0.1775705734
595296430.0 -0.059524574 0.1769551888 0.1705850003 -0.5310837095 0.1706104765 -0.5308755206 -0.0249813746 0.177839374
600296400.0 -0.0581755126 0.1776984891 0.1648869724 -0.5331894627 0.1649157643 -0.5325714118 -0.023237161 0.1785755412
605296370.0 -0.0562737017 0.1783997595 0.1592920989 -0.5342807222 0.15914131 -0.5343193322 -0.0211266529 0.1789517935
610296340.0 -0.0545612423 0.179349574 0.152628891 -0.5360310165 0.1532411038 -0.5362745657 -0.0187955227 0.1793177637
615296310.0 -0.0524612796 0.1795396623 0.1475680309 -0.5379729851 0.1473544211 -0.5383539759 -0.0169416993 0.1796914626
620296280.0 -0.0510015741 0.1801427998 0.1415917355 -0.5390967844 0.1416174823 -0.5392416956 -0.0150029468 0.1801692663
625296250.0 -0.0494132769 0.1807710535 0.1364420532 -0.5407315997 0.1359050116 -0.5410876883 -0.0127520517 0.1804017327
630296220.0 -0.0467688358 0.1815716109 0.1292111307 -0.5424771879 0.1298419402 -0.5422948522 -0.0107380817 0.180948206
635296190.0 -0.045715928 0.1820726161 0.1240436798 -0.5433657806 0.1238385844 -0.5437551569 -0.0087273462 0.1811303427
640296160.0 -0.0441755857 0.1824885388 0.1183062819 -0.5449337689 0.118569298 -0.5448532014 -0.0069896605 0.181463285
645296130.0 -0.0423113451 0.1834303043 0.1124281469 -0.5458084024 0.1127166326 -0.5461326905 -0.0047275627 0.1815870953
650296100.0 -0.0400804102 0.1839975431 0.1063709375 -0.546979128 0.1063382159 -0.5473234772 -0.0024915913 0.1813633393
655296070.0 -0.0386644301 0.1842327184 0.1004693542 -0.5483925242 0.1007808147 -0.5483078781 -0.0007086108 0.1819814667
660296040.0 -0.0371269878 0.1844997085 0.0947446532 -0.5492488868 0.0948758377 -0.5491776988 0.0014812545 0.1820470597
665296010.0 -0.0348610457 0.185169014 0.0880745904 -0.5502779344 0.0887601494 -0.5501962751 0.0034224677 0.1826724538
670295980.0 -0.0337032363 0.1859755008 0.0828825451 -0.5510937206 0.0824840053 -0.5511051042 0.005108467 0.1825046624
675295950.0 -0.0316322687 0.1862539968 0.0767357309 -0.5517289552 0.0770852247 -0.5514966385 0.0067253915 0.1827627078
680295920.0 -0.0298547452 0.1865686828 0.0705729959 -0.5524314301 0.0705688423 -0.553135597 0.0094148781 0.183411283
685295890.0 -0.028175166 0.1876932332 0.0647634409 -0.5530152512 0.0646802957 -0.553344353 0.0111817917 0.1827941071
690295860.0 -0.0259550457 0.1878226108 0.0584628058 -0.5537349943 0.0589149074 -0.5542053954 0.0127997156 0.1835010625
695295830.0 -0.024329826 0.1880982879 0.0532732089 -0.5546292335 0.0527991526 -0.5544384689 0.0151513741 0.183068711
700295800.0 -0.0226693531 0.1880696653 0.0468570385 -0.5549470618 0.0465642324 -0.5548047191 0.0169482687 0.1834474849
705295770.0 -0.0208156965 0.1890698207 0.0405718245 -0.5552990758 0.0410379288 -0.5557303918 0.0191339747 0.183463625
710295740.0 -0.0186982342 0.1893519816 0.0347261005 -0.5564942182 0.0352588297 -0.5560578315 0.0215003379 0.182631083
715295710.0 -0.0173771961 0.1894384151 0.0293019482 -0.5560183456 0.0286280633 -0.5561052273 0.0235130426 0.1825886619
720295680.0 -0.0153620068 0.1898566747 0.0227922606 -0.5563303896 0.0233231165 -0.5563517352 0.025367002 0.1829056488
725295650.0 -0.0132813546 0.1902324221 0.016799826 -0.5568183152 0.0170409628 -0.5570130877 0.0271391382 0.1828520295
730295620.0 -0.0114640159 0.1904906441 0.010986409 -0.5567232194 0.0112342959 -0.5565822045 0.0289256795 0.1821377813
735295590.0 -0.0097322548 0.1908146049 0.0051408497 -0.5572109042 0.0052006142 -0.5569718727 0.0308277723 0.1818515764
740295560.0 -0.0080231088 0.1908975643 -0.0009015955 -0.5570357082 -0.0008713145 -0.5568533124 0.0337201749 0.182071104
745295530.0 -0.0062033381 0.1913866631 -0.0069409022 -0.5566834626 -0.0074234119 -0.5567064815 0.035403182 0.1813944021
750295500.0 -0.0040609956 0.191355957 -0.0126656147 -0.5564020089 -0.0126677887 -0.5566587075 0.0373578425 0.1813637974
755295470.0 -0.002455004 0.1914330727 -0.0187919822 -0.55638681 -0.0189128226 -0.5566020364 0.0397604709 0.1809006576
760295440.0 -0.0007132378 0.1916034496 -0.024931985 -0.5563156153 -0.0249352539 -0.5564416659 0.0415162749 0.1806266038
765295410.0 0.0010694492 0.1918747003 -0.0310199076 -0.555459354 -0.0313516698 -0.5562469573 0.0436858392 0.1808020206
770295380.0 0.0030134534 0.191732901 -0.0370260661 -0.5554846019 -0.0369979195 -0.5555916602 0.0453174091 0.1802017016
775295350.0 0.0047703457 0.1915163358 -0.0432972558 -0.5544863031 -0.0423933512 -0.5548064802 0.04711057 0.1798991479
780295320.0 0.0072301151 0.191941035 -0.0490826707 -0.5539900014 -0.0484965723 -0.5544748355 0.04939016 0.1792032356
785295290.0 0.0084761636 0.1916565139 -0.0550431212 -0.5536009377 -0.0547118791 -0.5538483656 0.0517968415 0.1792739342
790295260.0 0.0108151752 0.1923233071 -0.060275211 -0.5530287664 -0.0599181764 -0.5532588649 0.0534910012 0.1787166608
795295230.0 0.012724817 0.1921363914 -0.0668595525 -0.5523454878 -0.0659157459 -0.5524702298 0.055455189 0.1786624284
800295200.0 0.0142885783 0.192224004 -0.0734399199 -0.5513619099 -0.0723295731 -0.5514307298 0.057383341 0.1779367719
805295170.0 0.0163748958 0.1920764654 -0.0787759777 -0.550984625 -0.0784465554 -0.5512338948 0.0594216074 0.17755512
810295140.0 0.0179054511 0.1918357075 -0.0843419026 -0.5499633659 -0.084283148 -0.5499714222 0.0619962338 0.1770804652
815295110.0 0.0199915807 0.191700571 -0.090376339 -0.5482136904 -0.0902890176 -0.5486788849 0.0631872504 0.1766169939
820295080.0 0.0216136456 0.1923216212 -0.0963342966 -0.5476263852 -0.095775686 -0.5477986427 0.0651287941 0.175916843
825295050.0 0.0242285051 0.1920246643 -0.1020002207 -0.5459957723 -0.1018407966 -0.5468183282 0.0676187035 0.1754423893
830295020.0 0.0257221057 0.1918345566 -0.1083787273 -0.5451761691 -0.1082054706 -0.5453263191 0.0702128125 0.1748737412
