!Created with skrf (http://scikit-rf.org).
# Hz S RI R 50.0 
!freq ReS11 ImS11 ReS21 ImS21 ReS12 ImS12 ReS22 ImS22
300000.0 -0.2421699372 -0.0922902671 0.4730438097 0.06122686 0.4706840036 0.0597706484 -0.2378892277 -0.1003730162
5299970.0 -0.2450782741 0.0065590154 0.4752469212 0.0051612434 0.4748967857 0.0048952998 -0.2408040354 0.0072741986
10299940.0 -0.2418046038 0.0179033464 0.4767070287 0.006297446 0.4767300301 0.006240885 -0.2378299001 0.0206649117
15299910.0 -0.2377016443 0.0268137607 0.4803868609 0.0074527366 0.4805798729 0.0071019811 -0.2330596473 0.029945957
20299880.0 -0.2328926114 0.0339890386 0.4852885587 0.0082636041 0.4849359176 0.0081691487 -0.2276501892 0.0380702478
25299850.0 -0.2275259694 0.0402155532 0.4901097007 0.0071248647 0.490099131 0.0072405381 -0.2219771611 0.0445312846
30299820.0 -0.2224500071 0.0451613869 0.4954133408 0.0049043926 0.4954622403 0.0048170896 -0.2160443591 0.0501169435
35299790.0 -0.2174162447 0.049364354 0.5007322158 0.0012528311 0.5008939293 0.0015489605 -0.2104972608 0.0545750877
40299760.0 -0.212535938 0.0525103084 0.5059756722 -0.0022885997 0.5061782411 -0.0022692989 -0.2051171657 0.0576035161
45299730.0 -0.2080119913 0.054813473 0.5104916018 -0.0068394608 0.5108854146 -0.0068771253 -0.2004262703 0.0605085511
50299700.0 -0.2037592428 0.0565632458 0.5150407095 -0.0125496544 0.5148066961 -0.0124874694 -0.1954605401 0.0622653051
55299670.0 -0.1999955462 0.0586227407 0.5187616374 -0.0190966022 0.5185407392 -0.0185723652 -0.1911773767 0.0640342565
60299640.0 -0.1960858717 0.0600630603 0.5220057889 -0.0252591746 0.5220822239 -0.0249408376 -0.1873615609 0.0654000565
65299610.0 -0.192911894 0.0609819179 0.5243993126 -0.0313269155 0.5246782439 -0.0311191832 -0.184197452 0.0664316914
70299580.0 -0.1899485628 0.0620435458 0.52683236 -0.0376783271 0.5271114971 -0.0378644656 -0.1808300513 0.067910151
75299550.0 -0.1871687194 0.0630857692 0.5291318576 -0.0445481792 0.5290477457 -0.0445265868 -0.1779730553 0.0683383352
80299520.0 -0.1847627725 0.0635532481 0.5309027329 -0.0517012964 0.5312109409 -0.0515581783 -0.1753617776 0.0691319407
85299490.0 -0.1823652073 0.0642096822 0.532070504 -0.0579957498 0.5320209195 -0.0581963347 -0.1727997032 0.0696416171
90299460.0 -0.1802925758 0.0647550409 0.5328571713 -0.0652349549 0.5333869432 -0.0654828334 -0.1707009395 0.0705709034
95299430.0 -0.1780713302 0.0651859427 0.5340103168 -0.0723950266 0.5340759909 -0.0726131626 -0.1682242338 0.0712888818
100299400.0 -0.1766748278 0.0663126319 0.5339165154 -0.0789760235 0.5342207988 -0.0792578421 -0.1660053358 0.0715826235
105299370.0 -0.174789323 0.0669882295 0.5344267008 -0.0864147387 0.5349770294 -0.0859190452 -0.1639098196 0.0723412279
110299340.0 -0.1732383125 0.0675429856 0.5349399608 -0.0925105373 0.534620583 -0.0923071151 -0.1625838014 0.0727418708
115299310.0 -0.1717941904 0.0681094226 0.5348117145 -0.099642772 0.5347433208 -0.0993385701 -0.1608466828 0.073592675
120299280.0 -0.1705042518 0.0684754038 0.5347331159 -0.1060694248 0.5342044317 -0.1062087018 -0.1594779901 0.074469184
125299250.0 -0.1694129083 0.0691865474 0.5341818505 -0.1126945639 0.5341561207 -0.112671477 -0.1584643321 0.0751136337
130299220.0 -0.1686402834 0.0703611567 0.5335658103 -0.1200807448 0.5336780788 -0.1198690726 -0.1569839181 0.0757530107
135299190.0 -0.1674618249 0.0713541781 0.532788206 -0.1264645369 0.53297437 -0.1261012548 -0.1557595627 0.0765959161
140299160.0 -0.1666896882 0.0721540607 0.5321370556 -0.1332407082 0.5321709118 -0.1332089218 -0.1546781195 0.0781528189
145299130.0 -0.1657491374 0.0729013154 0.5311320532 -0.1397909225 0.5307977326 -0.1389679671 -0.1532194156 0.0788192229
150299100.0 -0.1644166361 0.0736772299 0.5301567669 -0.1456955879 0.529778241 -0.1456248331 -0.1523114995 0.0802968888
155299070.0 -0.1637983857 0.0745753596 0.5290522186 -0.1531555662 0.5286492849 -0.1525917046 -0.1511986932 0.0811646502
160299040.0 -0.162703338 0.0757458847 0.5272835988 -0.1588956608 0.52694717 -0.1589714388 -0.1507607034 0.0823485478
165299010.0 -0.1622042028 0.0768373088 0.5258484278 -0.1660218002 0.5259356562 -0.1655522226 -0.1492534315 0.0837388933
170298980.0 -0.161471058 0.0778605142 0.5244406841 -0.1719681457 0.5245601633 -0.1718023486 -0.1482340906 0.0847567363
175298950.0 -0.1606066223 0.0789022263 0.5231132555 -0.1780620545 0.5225421562 -0.177899595 -0.1474460232 0.0862157524
180298920.0 -0.1602299455 0.0798729453 0.5209170055 -0.1845198599 0.5207877156 -0.1840092199 -0.146590517 0.0873505948
185298890.0 -0.1587873037 0.0810100999 0.5193048351 -0.1904517051 0.5189253217 -0.1902470095 -0.145479391 0.0885286381
190298860.0 -0.1586640816 0.0822531577 0.5176292942 -0.1968073316 0.5177661074 -0.196576508 -0.1448505337 0.089791377
195298830.0 -0.1576665255 0.0832619543 0.5152310948 -0.2028813436 0.5154107379 -0.2027232275 -0.1436619147 0.0912326892
200298800.0 -0.1567841284 0.0846382342 0.5131685093 -0.2088063898 0.5133661092 -0.2092754217 -0.1429284834 0.0925933655
205298770.0 -0.1561790218 0.0859824331 0.5107970883 -0.2154309595 0.5110900767 -0.2147891135 -0.1422564395 0.0930956943
210298740.0 -0.1554779188 0.087018805 0.5085854339 -0.220626086 0.5087526481 -0.2202483904 -0.1408779276 0.0952929233
215298710.0 -0.1548277365 0.0881829214 0.5063220638 -0.2268702446 0.5063746917 -0.2272089386 -0.1404785259 0.0965369046
220298680.0 -0.1541324822 0.0891206363 0.5034682377 -0.2324669665 0.5036491391 -0.2327619954 -0.1397952183 0.0974432442
225298650.0 -0.1533669186 0.090642069 0.5014430645 -0.238703501 0.5015303222 -0.2387703391 -0.1389183475 0.0987718686
230298620.0 -0.1527923866 0.0924202333 0.498896973 -0.2443155056 0.4993858424 -0.2441375778 -0.1379011808 0.10018094
235298590.0 -0.1517807608 0.0934606904 0.4963216828 -0.2502655657 0.496420351 -0.2496317717 -0.1368740679 0.1019458184
240298560.0 -0.1511259749 0.0949305641 0.4942963736 -0.2558726544 0.4940489409 -0.2560460974 -0.1357568648 0.1033970464
245298530.0 -0.150429177 0.0963901894 0.4913936781 -0.2616006366 0.490966899 -0.2617722326 -0.1345403687 0.1037826392
250298500.0 -0.1492465644 0.0974729533 0.4874362401 -0.2674700955 0.4876906451 -0.2670337735 -0.1340777191 0.1055836107
255298470.0 -0.1487246884 0.0986851468 0.4849705619 -0.2724909635 0.4849974492 -0.2725970027 -0.1326382349 0.1067452361
260298440.0 -0.1481354609 0.1001822342 0.4817442984 -0.2787775557 0.4821579813 -0.2783196737 -0.131465614 0.1083830699
265298410.0 -0.1467600373 0.1018932762 0.4791129162 -0.2840723244 0.4793502583 -0.2835884623 -0.1306881636 0.1097691178
270298380.0 -0.1460205352 0.1028817656 0.4760175046 -0.2886870782 0.476246664 -0.2890863812 -0.1295113537 0.1112261242
275298350.0 -0.1446829323 0.1042945893 0.4725000236 -0.295040579 0.4732181409 -0.2944211515 -0.1282622701 0.1122367281
280298320.0 -0.1441016941 0.105944735 0.4700026597 -0.3002583337 0.4699067172 -0.2999022042 -0.1265741524 0.1137223538
285298290.0 -0.1428668113 0.1071633348 0.4670650709 -0.305031247 0.4663877611 -0.3052314648 -0.1256784199 0.114818996
290298260.0 -0.1418964205 0.1084077921 0.4630101811 -0.3102655697 0.4633714653 -0.3104457711 -0.1245453324 0.1165126878
295298230.0 -0.1409199733 0.1093530266 0.4599518027 -0.3158493824 0.4599890511 -0.3158571167 -0.122637949 0.1177498554
300298200.0 -0.1401333854 0.1112941652 0.4570133975 -0.3209935145 0.4567519705 -0.3210564795 -0.1216705551 0.1191323
305298170.0 -0.1388518841 0.112147283 0.4525562914 -0.3264648287 0.4529300059 -0.3263201026 -0.1197644709 0.1204610064
310298140.0 -0.1382027176 0.1136459243 0.449533312 -0.3312721576 0.4496357586 -0.3317478144 -0.118991908 0.1216574912
315298110.0 -0.1368187256 0.1144595016 0.4458670691 -0.3366182564 0.4460427363 -0.3365869506 -0.1177230192 0.1225876394
320298080.0 -0.13583793 0.1157674496 0.4413483629 -0.3422481229 0.4419029239 -0.3418856073 -0.1164075402 0.1240733728
325298050.0 -0.1350134133 0.1172622945 0.4380250956 -0.3468450177 0.4381687062 -0.3467136767 -0.1153200092 0.1253228749
330298020.0 -0.1341380905 0.118414494 0.433676773 -0.3518130151 0.4343919608 -0.3517568256 -0.1143138147 0.126541686
335297990.0 -0.1331399669 0.1194061057 0.4300468027 -0.3565809469 0.4298849498 -0.3564690775 -0.1132776167 0.1284327344
340297960.0 -0.1323339417 0.1210371601 0.4256802025 -0.361247464 0.4252923713 -0.3615005102 -0.1114044269 0.1299531779
345297930.0 -0.1315689745 0.1228098784 0.4219213686 -0.3659144691 0.4216960071 -0.3660802385 -0.1104087126 0.1310316382
350297900.0 -0.1303607589 0.1237178388 0.4172511518 -0.3709622147 0.4175056042 -0.3708131604 -0.1095482653 0.1325808153
355297870.0 -0.1291288676 0.1256763484 0.4134200239 -0.3751889071 0.4138461021 -0.3748548433 -0.1082097222 0.1338044684
360297840.0 -0.12822658 0.1267863869 0.4100059671 -0.3793821489 0.4100317033 -0.3792868763 -0.1069593182 0.1355902043
365297810.0 -0.1271382217 0.1284853333 0.4053481957 -0.3844405983 0.4057845879 -0.3845933697 -0.1053268118 0.1366321285
370297780.0 -0.1258520055 0.1295137779 0.4008738991 -0.3885473015 0.4014674151 -0.3885400711 -0.1036907615 0.1385324389
375297750.0 -0.1245221378 0.1309537698 0.3966710876 -0.3929605558 0.3970123521 -0.3932436964 -0.1023437199 0.1391348023
380297720.0 -0.1236649259 0.1323095185 0.3923383843 -0.3976755561 0.3928588532 -0.3970048172 -0.1015482094 0.1406721586
385297690.0 -0.1224648517 0.1335095272 0.3877005401 -0.4016914819 0.3879066363 -0.401703407 -0.0995525423 0.1423139162
390297660.0 -0.1211590563 0.1350349786 0.383426727 -0.4061772629 0.383372425 -0.4053776968 -0.0982472047 0.1430845627
395297630.0 -0.119930169 0.1364854796 0.3792529715 -0.4105019695 0.3791712091 -0.4104993869 -0.096346261 0.1444027757
400297600.0 -0.1187822478 0.1377975146 0.3740402946 -0.4147390857 0.3742422873 -0.4145894539 -0.0947844985 0.1456611684
405297570.0 -0.1175807502 0.1386343036 0.3700490862 -0.4180969833 0.3699159965 -0.4182726928 -0.0936936028 0.1467615972
410297540.0 -0.1161890086 0.139873536 0.3653017744 -0.4221186452 0.3657412241 -0.4222124435 -0.0921279681 0.1483665641
415297510.0 -0.1145036142 0.1410422434 0.3605085065 -0.4264490133 0.3608886157 -0.4264048473 -0.0905225225 0.1493182795
420297480.0 -0.1133241129 0.1429749669 0.356054439 -0.4305470109 0.3558338763 -0.4304032131 -0.088992212 0.150088208
425297450.0 -0.1120515392 0.1435800704 0.3513959985 -0.4339263761 0.3519099392 -0.4343482852 -0.0875782715 0.1519206848
430297420.0 -0.1105808401 0.144826113 0.3466036687 -0.4372112545 0.3465889756 -0.4377280724 -0.0860252693 0.1523548199
435297390.0 -0.1096606209 0.1460744851 0.3412809991 -0.4418471663 0.3414346591 -0.4420292241 -0.0837457115 0.1535830227
440297360.0 -0.1080142075 0.1476727639 0.3369433938 -0.4451432269 0.3374305531 -0.4451854828 -0.0827952298 0.1542984147
445297330.0 -0.1066422221 0.1481266761 0.3323179499 -0.4489574133 0.3325765309 -0.4489137464 -0.0808035003 0.1550069278
450297300.0 -0.1050316048 0.1496948035 0.3270247736 -0.452705661 0.3274004957 -0.4527988022 -0.0792707549 0.1561673326
455297270.0 -0.1037622225 0.1506286817 0.3220614193 -0.4560914088 0.3225326088 -0.4563157931 -0.0773232366 0.1570624011
460297240.0 -0.1024507573 0.1518494598 0.3170804373 -0.4595905554 0.3171866723 -0.4599840102 -0.0755956666 0.1584971632
465297210.0 -0.1006530689 0.1530068532 0.3119725939 -0.4631564437 0.3122440829 -0.4636536078 -0.0736429417 0.1589738405
470297180.0 -0.0992479454 0.1536344785 0.3065458096 -0.4663834926 0.307040179 -0.4665881219 -0.0716468012 0.1603895937
475297150.0 -0.0977276147 0.1547508991 0.3018573384 -0.4691839089 0.3017985469 -0.4691166913 -0.0698474943 0.1609625531
480297120.0 -0.0964694654 0.1563334417 0.2964794922 -0.4731814853 0.2963946226 -0.4731383276 -0.0678858969 0.1619771662
485297090.0 -0.0948220616 0.157337237 0.2915083421 -0.4762091059 0.2917727961 -0.4758561446 -0.0661512882 0.1629331683
490297060.0 -0.0936148059 0.1583330709 0.2865601086 -0.4794596347 0.286626927 -0.4792161389 -0.0643851594 0.163959413
495297030.0 -0.0920545164 0.1595846959 0.2810560415 -0.4821978748 0.2815491857 -0.4820268512 -0.0627611886 0.1646386339
500297000.0 -0.0903331378 0.1603619468 0.2756379245 -0.4847453894 0.2758139739 -0.4846542166 -0.0608034617 0.1660950162
505296970.0 -0.0886988262 0.1614008645 0.2705324526 -0.4881526174 0.2708292161 -0.4883589734 -0.0592808873 0.166862133
510296940.0 -0.0872014501 0.1626388691 0.2651284434 -0.4911914181 0.265079023 -0.4915418314 -0.056892328 0.1677742253
515296910.0 -0.0855498906 0.1634123619 0.2591560251 -0.4943455196 0.2597778059 -0.494044291 -0.0552001915 0.1682394935
520296880.0 -0.0841626647 0.1644366945 0.2543249011 -0.4971123536 0.2545306844 -0.4967518578 -0.0533145732 0.1690330275
525296850.0 -0.0823482725 0.1651139779 0.2486188439 -0.4995254789 0.2494800897 -0.4993235647 -0.0515392092 0.1699647633
530296820.0 -0.0807891129 0.1661130716 0.243368035 -0.5023245042 0.2435938025 -0.5018489021 -0.0496309795 0.1705640058
535296790.0 -0.0796890721 0.1671731826 0.2380443017 -0.5047622124 0.2385148059 -0.5046202427 -0.0479644599 0.1713474606
540296760.0 -0.0778860962 0.1682039358 0.2326568801 -0.5074295909 0.2324752539 -0.5072582941 -0.0461773832 0.172307267
545296730.0 -0.0762328151 0.1692400962 0.2269718062 -0.5097061921 0.2270943423 -0.50972645 -0.0442460692 0.1728078289
550296700.0 -0.0747219852 0.1701427119 0.2214999189 -0.5121552069 0.2217865112 -0.5123732503 -0.0425643989 0.1735547188
555296670.0 -0.0730094471 0.1707573921 0.2160595719 -0.514451806 0.2160830698 -0.5147612222 -0.0404300055 0.1744833658
560296640.0 -0.0709816265 0.1720619983 0.2102396061 -0.516868845 0.2107963663 -0.5168005724 -0.0385606161 0.1748674303
565296610.0 -0.069734202 0.1727401925 0.2045273329 -0.5186938535 0.2047765789 -0.5188395577 -0.0369452663 0.1750850759
570296580.0 -0.0679474163 0.1731183529 0.1988478307 -0.5215553118 0.1987644485 -0.5211694848 -0.0350160952 0.1761993584
575296550.0 -0.0667871434 0.174346067 0.1933966142 -0.5234211035 0.1935231418 -0.5234006728 -0.0329540032 0.1766290031
580296520.0 -0.0647323677 0.1749255072 0.1876264809 -0.5257951525 0.1878425851 -0.5252739757 -0.0308240087 0.1770648531
585296490.0 -0.0631804948 0.1752261798 0.1820546877 -0.5269293469 0.1826050757 -0.5275824537 -0.0290855073 0.1772400428
590296460.0 -0.0610513129 0.1765561494 0.1761602113 -0.5289023896 0.1764549168 -0.5291288681 -0.0275329703 0.177634853
595296430.0 -0.0593577585 0.1772893771 0.1699251155 -0.5313291102 0.1705788298 -0.5310208337 -0.0253297543 0.1779936434
600296400.0 -0.0580290289 0.1777646617 0.1651688075 -0.5329229178 0.1650123575 -0.5326430996 -0.0235841519 0.1785495963
605296370.0 -0.0563600484 0.1786369605 0.1589996135 -0.5349786246 0.159114275 -0.5345345581 -0.0211719779 0.1790699048
610296340.0 -0.0544105752 0.1791154845 0.152709417 -0.5360235596 0.1533863346 -0.5363213667 -0.0190879029 0.1791963134
615296310.0 -0.0523009255 0.1796446238 0.1469309449 -0.5375190995 0.1472816169 -0.5380936083 -0.0169076641 0.1795398394
620296280.0 -0.0509565607 0.1801460166 0.1413265779 -0.5389701316 0.1415933389 -0.539230525 -0.0155208268 0.1801234684
625296250.0 -0.0492242686 0.1808190554 0.1362675793 -0.5406744046 0.1358055893 -0.541160292 -0.0126761515 0.1802124396
630296220.0 -0.0467973507 0.1815586818 0.1291796479 -0.5422833901 0.1296571521 -0.542132579 -0.0108087256 0.1804880274
635296190.0 -0.0459840448 0.181886239 0.123480657 -0.5433231723 0.1238609488 -0.5434256066 -0.0088513059 0.1807692605
640296160.0 -0.0440064238 0.1828192785 0.1178728179 -0.5447536368 0.1185697991 -0.5446463796 -0.0070121355 0.1807964414
645296130.0 -0.0421346701 0.1834710083 0.1116676449 -0.5457591274 0.1126907801 -0.5460409592 -0.0049423687 0.18121147
650296100.0 -0.040089604 0.1836843287 0.1061109027 -0.5469912817 0.1064084256 -0.5469907553 -0.0023572375 0.1807528203
655296070.0 -0.0387679847 0.1840640686 0.1000784371 -0.5483568183 0.1003878872 -0.5484729673 -0.0005234593 0.1814606356
660296040.0 -0.0370974861 0.1844447538 0.0944834223 -0.5491592838 0.0943098487 -0.5492056401 0.0019719055 0.1817818054
665296010.0 -0.0345547492 0.185094782 0.0878202868 -0.5502722678 0.0883099548 -0.5498968206 0.0038523841 0.1819277099
670295980.0 -0.033681795 0.1858819771 0.0823671113 -0.5513422917 0.0828512004 -0.5509732826 0.0054205791 0.1822006477
675295950.0 -0.0317310682 0.1864686937 0.0767973139 -0.5520402519 0.0770074679 -0.5514246201 0.0069936384 0.1822683149
680295920.0 -0.0298051096 0.1865487027 0.0707268149 -0.5526677912 0.0701986458 -0.5528589723 0.0096782457 0.1828614457
685295890.0 -0.0281195353 0.1875812091 0.0647297142 -0.5534319054 0.0642724744 -0.5537861983 0.0119025905 0.1827297316
690295860.0 -0.0259891355 0.1876710137 0.0582343458 -0.5534744154 0.0586543428 -0.5539634802 0.0134527983 0.183167269
695295830.0 -0.024012006 0.1879893361 0.0526917975 -0.5540213585 0.052522826 -0.5546786585 0.0155495754 0.1831439019
700295800.0 -0.0223834137 0.1880643996 0.0464820221 -0.5552798036 0.0466216242 -0.5547855376 0.0172700269 0.18373474
705295770.0 -0.0206226509 0.1890404607 0.0403212078 -0.5553816564 0.0409808398 -0.5555308588 0.0194066369 0.1832935291
710295740.0 -0.0186427405 0.1889862592 0.0349324736 -0.5559516664 0.0350040788 -0.5563315597 0.0215446478 0.1824737631
715295710.0 -0.0172321733 0.1892550543 0.0293350234 -0.5560969827 0.0285805008 -0.5561749721 0.0237383437 0.1827713451
720295680.0 -0.0152426651 0.1897256458 0.0231016116 -0.5564218656 0.0231915996 -0.5565145178 0.0255204251 0.1831263723
725295650.0 -0.0129347834 0.1900800977 0.0164453243 -0.5565040094 0.0171146827 -0.5569256867 0.0269615281 0.1833187658
730295620.0 -0.011307117 0.1906992616 0.0106400782 -0.5564661593 0.0110765614 -0.5567387294 0.0289892341 0.1826242358
735295590.0 -0.00959628 0.1907047103 0.0052304697 -0.5570169298 0.0047441206 -0.5569662643 0.0309298217 0.182195273
740295560.0 -0.0078881301 0.1912316276 -0.0014649171 -0.5568561003 -0.0013139547 -0.5571358816 0.0336040122 0.1821694401
745295530.0 -0.0059964115 0.1914755214 -0.0072644112 -0.556315568 -0.007684955 -0.5565946462 0.0354572967 0.1817032511
750295500.0 -0.0040072188 0.1916515336 -0.0131795823 -0.5564077106 -0.0129406421 -0.5565455873 0.0373263963 0.181724228
755295470.0 -0.0019037621 0.1914847122 -0.0191311616 -0.5563572752 -0.0188372363 -0.5563490746 0.0396055421 0.1808292885
760295440.0 -0.0002592589 0.1919221282 -0.0252906059 -0.5564532802 -0.0251769373 -0.5563557173 0.0413754705 0.1807772108
765295410.0 0.0013408517 0.1919881872 -0.0312572408 -0.5560292473 -0.0315063721 -0.5561235268 0.0436180578 0.1805670681
770295380.0 0.0032735249 0.1918508023 -0.0378274409 -0.5553749628 -0.0373799908 -0.5552573788 0.0453211641 0.1800334986
775295350.0 0.0049172423 0.1915571164 -0.0435666795 -0.5544468661 -0.0429354002 -0.5549632732 0.0467651471 0.1798112412
780295320.0 0.0068703335 0.1919237233 -0.0492423136 -0.5540493065 -0.0483521773 -0.5541788105 0.0489761242 0.1792482522
785295290.0 0.008468695 0.1915712512 -0.0553822994 -0.5533693884 -0.0546247943 -0.5537204802 0.0515271973 0.1789359665
790295260.0 0.0111589066 0.192564899 -0.0608393137 -0.5528810112 -0.0599724723 -0.5529025402 0.0535649138 0.1785855105
795295230.0 0.0126027479 0.1920685778 -0.0665558576 -0.5523850346 -0.0666725259 -0.5524035881 0.0554950316 0.178113366
800295200.0 0.0141281065 0.192245535 -0.0733108631 -0.5512882224 -0.072971663 -0.5513368902 0.057349283 0.1773879141
805295170.0 0.0162495636 0.1918550676 -0.078847054 -0.5504561546 -0.0788242708 -0.5508290438 0.0593727194 0.1773264887
810295140.0 0.0178275395 0.1916975167 -0.0844419768 -0.5494272549 -0.0843426737 -0.5499020612 0.0615248917 0.1769794756
815295110.0 0.0200201545 0.1916132571 -0.090666378 -0.5482951002 -0.0901031675 -0.5488387045 0.0635375711 0.1761555861
820295080.0 0.0213325655 0.192184635 -0.0959886902 -0.5472860825 -0.0960938515 -0.5476209297 0.0653725024 0.1754718954
825295050.0 0.0243325877 0.1916885265 -0.1018669774 -0.5464691884 -0.1022004814 -0.5467281558 0.067728537 0.1751699912
830295020.0 0.0254825247 0.1917020371 -0.1083154929 -0.5454545108 -0.1080856717 -0.5453371863 0.0703158286 0.1746580224
