!Created with skrf (http://scikit-rf.org).
# Hz S RI R 50.0 
!freq ReS11 ImS11 ReS21 ImS21 ReS12 ImS12 ReS22 ImS22
300000.0 -0.2411388817 -0.0986269738 0.4692181397 0.0649298698 0.4686895212 0.0693807598 -0.2358989753 -0.1082007356
5299970.0 -0.2437612656 0.0070406955 0.473767091 0.0053612266 0.4737100715 0.0059533767 -0.2438234522 0.0060108273
10299940.0 -0.2402152123 0.0199815523 0.4757589879 0.0063497932 0.4755912961 0.0064109818 -0.2408681676 0.0180178572
15299910.0 -0.2358298771 0.0294586487 0.4793891577 0.0076717012 0.4793651934 0.0079520796 -0.2366888519 0.0273685668
20299880.0 -0.2302993674 0.0374349607 0.4838925566 0.0081793999 0.4844519708 0.0085272411 -0.23212853 0.0356464072
25299850.0 -0.2246459462 0.043278497 0.4895302566 0.0072551375 0.4894584212 0.0074640867 -0.2271483193 0.0415132326
30299820.0 -0.2188685256 0.0483774367 0.4950199748 0.0054890834 0.4946896646 0.0053874482 -0.2217465665 0.0469796654
35299790.0 -0.2130859524 0.0527047189 0.5002343974 0.0021148017 0.500349137 0.0024029813 -0.2164569664 0.0509026322
40299760.0 -0.207371958 0.055676078 0.5053355376 -0.001454514 0.5056465533 -0.0016774014 -0.2116137956 0.0546273272
45299730.0 -0.2024754579 0.0586000791 0.5101361667 -0.0068790671 0.5103919772 -0.0065237908 -0.2067254713 0.0571487125
50299700.0 -0.1977518996 0.0601209732 0.5139636495 -0.0120695952 0.5146628934 -0.0120979192 -0.2022144215 0.059617028
55299670.0 -0.1936026057 0.0617619329 0.5176625914 -0.0183879504 0.5183784425 -0.0179957578 -0.1983799231 0.0614722006
60299640.0 -0.1896040223 0.0626491666 0.5212072792 -0.0245875807 0.521727669 -0.0239403716 -0.1947998501 0.0630509691
65299610.0 -0.1862499477 0.0640162622 0.5245180852 -0.0302957244 0.5243910304 -0.0304026726 -0.1910991408 0.0646310849
70299580.0 -0.1825582972 0.0641746342 0.5264905131 -0.0367158209 0.5266227662 -0.0372644225 -0.1878304574 0.0657761159
75299550.0 -0.179597933 0.0653284745 0.5286562361 -0.0439414768 0.528857181 -0.0440470148 -0.1850814011 0.066754282
80299520.0 -0.1771164686 0.0657675908 0.5306654904 -0.0511110167 0.5307572863 -0.0510158019 -0.1825304726 0.0673325573
85299490.0 -0.1744103887 0.0657835773 0.5319669847 -0.0580415739 0.531853002 -0.0577041211 -0.1802421754 0.0680904098
90299460.0 -0.1724274509 0.0665314891 0.5330416839 -0.0645839509 0.5333279881 -0.0649761997 -0.1778591424 0.0694145067
95299430.0 -0.1702983849 0.0673660432 0.5343701265 -0.0721858087 0.5344467853 -0.0717700422 -0.175730565 0.0702358751
100299400.0 -0.1686633038 0.067633511 0.5342528616 -0.0787795808 0.5341758544 -0.0786746063 -0.1743106976 0.0707645802
105299370.0 -0.1669310212 0.0679902371 0.5344198431 -0.0850438657 0.5347223192 -0.0856027958 -0.1719750607 0.0716932784
110299340.0 -0.1655291145 0.0684745858 0.534723772 -0.0920633551 0.5347836697 -0.0927520874 -0.1707310854 0.072607342
115299310.0 -0.1640213397 0.0687047678 0.5346932307 -0.0991040753 0.5350953375 -0.0987210855 -0.1691592857 0.0731382387
120299280.0 -0.1628833115 0.0691498314 0.5349266177 -0.1056179843 0.5348741402 -0.1060266319 -0.1678859848 0.074395545
125299250.0 -0.161648304 0.0697902485 0.5340371928 -0.1122427257 0.5343892201 -0.1131496233 -0.1661873452 0.0748053346
130299220.0 -0.1606907152 0.0706450601 0.5337103133 -0.1190242152 0.5337411024 -0.1195616038 -0.1649262827 0.0759144604
135299190.0 -0.1592827816 0.0708864143 0.5331874984 -0.1257297936 0.5326680468 -0.1257554789 -0.1642807617 0.0765802349
140299160.0 -0.158817929 0.0722124955 0.532365398 -0.1326504141 0.5322291694 -0.1329236568 -0.162974794 0.0779126668
145299130.0 -0.1576230571 0.0729459713 0.5317378366 -0.1393065731 0.5311794183 -0.1388627741 -0.1624651894 0.078627499
150299100.0 -0.1566699127 0.0736271993 0.5297309566 -0.1456649735 0.5303927326 -0.1456753185 -0.1609469207 0.0797509248
155299070.0 -0.1557519672 0.0748159593 0.5290919991 -0.1526175721 0.5291311519 -0.1525167983 -0.1602409097 0.08102837
160299040.0 -0.1548153026 0.0755904458 0.5272315277 -0.1586942858 0.5278438741 -0.1585277483 -0.1587413415 0.0826596761
165299010.0 -0.1546495427 0.0761959596 0.5266171108 -0.1649967686 0.5264091828 -0.1653113543 -0.1580465922 0.083099921
170298980.0 -0.1534439184 0.0771799605 0.5241921305 -0.1715782619 0.5247990593 -0.1715959732 -0.1568936704 0.0844499948
175298950.0 -0.1528297441 0.0782524078 0.523410096 -0.1777008698 0.5232715794 -0.1777797442 -0.1560531074 0.0856750039
180298920.0 -0.1516684645 0.0792074003 0.5214047577 -0.1842016108 0.5215656006 -0.1840903992 -0.1548769951 0.087400772
185298890.0 -0.1509808342 0.0801477414 0.5192898988 -0.1903412801 0.5198372769 -0.190321936 -0.154291876 0.088044282
190298860.0 -0.1504052202 0.0810740753 0.5172843496 -0.1967504466 0.5176857214 -0.196718326 -0.1527360917 0.0894944834
195298830.0 -0.1492495343 0.0820027102 0.5151523954 -0.2023559777 0.5155719469 -0.2030630542 -0.1520709009 0.0905865196
200298800.0 -0.1486888919 0.0836036811 0.513689306 -0.2082679584 0.5133485863 -0.2083904501 -0.1507695314 0.0921065352
205298770.0 -0.1480419105 0.0847265682 0.511295689 -0.2148112241 0.5119881021 -0.2149356146 -0.1502242246 0.0930258278
210298740.0 -0.1473482318 0.0856520115 0.5092316494 -0.220914205 0.509425414 -0.221096851 -0.1489973578 0.0946634854
215298710.0 -0.1465600533 0.0868358799 0.5069958105 -0.2264384081 0.5068186366 -0.2266313212 -0.148127649 0.0960442828
220298680.0 -0.1457832462 0.0880072262 0.504402738 -0.2326203407 0.5044101918 -0.2328034991 -0.1469723781 0.0977769566
225298650.0 -0.1450277729 0.089179834 0.5017789305 -0.2381891601 0.5019075703 -0.2383089945 -0.1464547872 0.0990685777
230298620.0 -0.144412162 0.0904317148 0.499617154 -0.244261968 0.49993417 -0.2443653449 -0.1450739954 0.1002356127
235298590.0 -0.143735118 0.0915945701 0.4970917076 -0.2497011843 0.496716899 -0.2503007729 -0.1439660107 0.1016912016
240298560.0 -0.1429769165 0.0931176756 0.4940661836 -0.255406638 0.4943232893 -0.25548201 -0.1430077264 0.1032176293
245298530.0 -0.1419929757 0.0941071987 0.4910168458 -0.2612302146 0.4910637221 -0.2614960361 -0.1419884416 0.1047206498
250298500.0 -0.1416047213 0.0952448514 0.4884912985 -0.26655386 0.4889562673 -0.2666896525 -0.1406224398 0.1062083195
255298470.0 -0.1405135067 0.096834873 0.4855461575 -0.2730614396 0.4856910715 -0.2726213809 -0.1396775709 0.1075235218
260298440.0 -0.1400051366 0.0979322787 0.4829775733 -0.2778980741 0.4828157737 -0.2783125563 -0.1382727706 0.1091796886
265298410.0 -0.138907242 0.0994907753 0.4795977174 -0.2840611338 0.4795493202 -0.2842548782 -0.1372412173 0.1104139548
270298380.0 -0.137523021 0.1006646147 0.4760850296 -0.2888820723 0.476264476 -0.2895438575 -0.1360025625 0.1119253376
275298350.0 -0.1372123448 0.1019938596 0.4729566764 -0.2948073191 0.4735735066 -0.2949369258 -0.1350166919 0.1135065182
280298320.0 -0.1363341323 0.1033399551 0.4701744831 -0.2996600701 0.4700784645 -0.3002922271 -0.1337643313 0.1149336772
285298290.0 -0.1350206513 0.1049771587 0.4667430906 -0.3055551517 0.4665527351 -0.3057039364 -0.1322821711 0.1162740492
290298260.0 -0.1343346794 0.1058330805 0.4637241778 -0.3108527354 0.4634621762 -0.3102937472 -0.1307822488 0.1178110313
295298230.0 -0.1332674139 0.1072513108 0.4604264326 -0.3160676999 0.4601260274 -0.316098553 -0.1295443801 0.1191705658
300298200.0 -0.1320335415 0.1083726748 0.4565255894 -0.3212124365 0.4567471329 -0.3213704125 -0.128516115 0.1208543495
305298170.0 -0.1313791333 0.1096560464 0.45393345 -0.3269379706 0.4533088865 -0.3265972689 -0.1265502193 0.1225255664
310298140.0 -0.1298098955 0.1105911286 0.4500512431 -0.3319417052 0.4497617705 -0.332269956 -0.1254644635 0.1240012733
315298110.0 -0.128988189 0.1119516923 0.4459527228 -0.3367976079 0.4462506842 -0.3371690475 -0.1240167714 0.1250607549
320298080.0 -0.1281428049 0.1131771073 0.4422327529 -0.3421598558 0.442695037 -0.3420864554 -0.1230328879 0.1259639321
325298050.0 -0.1271828105 0.114185774 0.439015192 -0.3470936075 0.4387997195 -0.3475902791 -0.1215029823 0.1275922157
330298020.0 -0.1264664683 0.1155465595 0.4341445087 -0.3521119914 0.4344313745 -0.3525355014 -0.1204437756 0.1287327154
335297990.0 -0.1252747139 0.1166171304 0.4306658193 -0.3569783203 0.4302422817 -0.3574777469 -0.1190819534 0.1300666768
340297960.0 -0.1246245453 0.1180860233 0.4261215435 -0.3618801739 0.426616242 -0.3617557223 -0.1180936556 0.1321459683
345297930.0 -0.1238833801 0.1195756064 0.4223326367 -0.3661162784 0.421820732 -0.3663473323 -0.1161691263 0.1332907915
350297900.0 -0.1220641906 0.1207754815 0.417927734 -0.3707054048 0.4184531745 -0.3710650585 -0.1152005671 0.134939722
355297870.0 -0.1216188315 0.1220672035 0.4138586037 -0.3753597399 0.4139803351 -0.3757515502 -0.1138708212 0.1364102349
360297840.0 -0.1204379403 0.1233133551 0.4099424131 -0.3801223009 0.4097308581 -0.3801580641 -0.1119597952 0.1379263686
365297810.0 -0.1190498472 0.1246553997 0.4051563437 -0.3847224243 0.4057247881 -0.3848258002 -0.110718355 0.1397830021
370297780.0 -0.1178479314 0.1258234737 0.4009657567 -0.3889387755 0.4014508245 -0.3896623626 -0.1093644272 0.1407783601
375297750.0 -0.1168264739 0.1274148556 0.3974373772 -0.3934620078 0.39739741 -0.3940835797 -0.1077579584 0.1423413381
380297720.0 -0.1153147961 0.1283789375 0.392417884 -0.3978524579 0.3924958957 -0.3979858347 -0.1061265433 0.1437081602
385297690.0 -0.1144360293 0.1298930422 0.3883526679 -0.4019742892 0.3879226687 -0.4020959638 -0.1044080418 0.1454272258
390297660.0 -0.1134485537 0.1309985058 0.3832499156 -0.406368247 0.3837146464 -0.406770739 -0.1029918933 0.1463880861
395297630.0 -0.1118772552 0.1319125156 0.3794627178 -0.4102127196 0.3795237094 -0.4105377455 -0.1017976632 0.1479144385
400297600.0 -0.110630047 0.1335934171 0.3748253912 -0.4147282141 0.3754173408 -0.4148677229 -0.1006667943 0.1488276531
405297570.0 -0.1094672918 0.1347909325 0.3706335568 -0.4188277564 0.3704802658 -0.4191098614 -0.0986930179 0.1506613442
410297540.0 -0.1078513308 0.135730029 0.3648154618 -0.4227229343 0.3654112386 -0.4231097645 -0.0967939756 0.1519362954
415297510.0 -0.1066258984 0.1371707737 0.3608152949 -0.4266772966 0.3612068495 -0.4270450212 -0.0952408904 0.1536593539
420297480.0 -0.1051345686 0.1378890589 0.3557091934 -0.4308059132 0.3562798627 -0.4307771794 -0.0933924038 0.1542660366
425297450.0 -0.1038083339 0.1390321218 0.3515296163 -0.4346845398 0.3518806363 -0.4343373997 -0.0915666472 0.1558775584
430297420.0 -0.1027735948 0.1407727356 0.3467336601 -0.438733341 0.3468356892 -0.4384107527 -0.0903593513 0.1564733157
435297390.0 -0.1011866208 0.141222269 0.3419951029 -0.4419085075 0.3420248395 -0.441998345 -0.0883665576 0.15839131
440297360.0 -0.0997419416 0.1424836823 0.336571713 -0.4454686384 0.3364788032 -0.4461861037 -0.0870045174 0.1589996209
445297330.0 -0.0980734916 0.1437438551 0.3315492536 -0.450137725 0.3317517193 -0.449702032 -0.0855677769 0.1602720933
450297300.0 -0.096701386 0.1448027386 0.3266987493 -0.4531203289 0.326943906 -0.453332249 -0.0834944421 0.1615999243
455297270.0 -0.0956147999 0.1456789268 0.3218446235 -0.4569977958 0.322604033 -0.4567650212 -0.0815452384 0.162855454
460297240.0 -0.0945551628 0.1469733388 0.3172781619 -0.4600203697 0.3168479622 -0.4603415721 -0.0795712606 0.1641452644
465297210.0 -0.0924712388 0.1478341323 0.312290514 -0.4636889434 0.3122785075 -0.4635003635 -0.0784743365 0.1648799017
470297180.0 -0.0913413837 0.1489157795 0.3071708538 -0.4666815654 0.3075636204 -0.4670626655 -0.0769967635 0.1658488794
475297150.0 -0.0900568757 0.1497415672 0.3014185736 -0.4701908938 0.3019215835 -0.4697535288 -0.0748290477 0.1670551488
480297120.0 -0.0883219134 0.150567748 0.2966922264 -0.4733629939 0.2970202525 -0.4734138267 -0.0730603398 0.1686265412
485297090.0 -0.0866018937 0.1518526822 0.2915633137 -0.4765148365 0.2915040245 -0.4765053793 -0.0713887406 0.1688912756
490297060.0 -0.0852538856 0.1522480177 0.2860772337 -0.4794222935 0.2865246602 -0.4798855539 -0.0694972271 0.1701607685
495297030.0 -0.0841731586 0.1538260545 0.2809426737 -0.4831019663 0.2809943257 -0.4826325076 -0.0673443304 0.1709359246
500297000.0 -0.0823756919 0.154483328 0.2756209346 -0.4861246078 0.2759112061 -0.4859025084 -0.0659735029 0.1719414112
505296970.0 -0.0810987348 0.1554357555 0.2700690599 -0.4885471861 0.2700698268 -0.488794817 -0.0642545458 0.1730609115
510296940.0 -0.0796304966 0.1565947812 0.2651208501 -0.4918727012 0.2653813894 -0.4918572394 -0.0618977744 0.1738980483
515296910.0 -0.0783383086 0.1572676326 0.2597391403 -0.4941612474 0.2596254438 -0.4944836425 -0.0603671243 0.1746645151
520296880.0 -0.0765580227 0.1582347897 0.2541124393 -0.4971609535 0.2546057876 -0.4973098792 -0.0579938221 0.1753835327
525296850.0 -0.0751708808 0.1586812708 0.2489585679 -0.4998214273 0.2488054809 -0.500125071 -0.05608302 0.1764331553
530296820.0 -0.0732503363 0.1596894827 0.2436680063 -0.5018094425 0.2433431268 -0.5023299419 -0.0550800883 0.1771185338
535296790.0 -0.0722142382 0.1605353779 0.2382342156 -0.5047396266 0.2380418197 -0.5050434482 -0.0527261008 0.1776339793
540296760.0 -0.0701793456 0.1612220843 0.2323535842 -0.5080870485 0.2320208131 -0.5079905003 -0.0512589193 0.1787631127
545296730.0 -0.0688243977 0.1621553874 0.2268271185 -0.5096902803 0.2271804899 -0.5103050073 -0.0491393203 0.178882962
550296700.0 -0.0675022902 0.1628526854 0.2213327293 -0.5122336219 0.2219061079 -0.5129404773 -0.0472209254 0.180306178
555296670.0 -0.0653785571 0.1634506205 0.2155473447 -0.5145130849 0.2162970759 -0.5148693162 -0.0453484392 0.1809007891
560296640.0 -0.0643258858 0.1644002917 0.2100839447 -0.5170328925 0.2105137447 -0.5168044802 -0.0432719442 0.1814221943
565296610.0 -0.0627541781 0.1649843865 0.2045684437 -0.5191266414 0.204345602 -0.5193018818 -0.0414122565 0.1819726077
570296580.0 -0.060829857 0.1656966568 0.1988881909 -0.5212390983 0.1991096361 -0.5218866211 -0.03950424 0.1830326086
575296550.0 -0.0592872212 0.1668189476 0.1930056621 -0.5231804542 0.1934857645 -0.5230980975 -0.0373843592 0.1833586601
580296520.0 -0.0577477402 0.1674035059 0.1876810781 -0.5256212148 0.187584491 -0.525408495 -0.0353758869 0.183885351
585296490.0 -0.0560341914 0.1678706124 0.1822190674 -0.5273582865 0.1820404993 -0.5273633698 -0.0335788837 0.183896141
590296460.0 -0.0547620073 0.1683103149 0.176524935 -0.5293755233 0.1761527265 -0.5297507548 -0.0311476009 0.1851414499
595296430.0 -0.0530026238 0.1695002754 0.1706793216 -0.5313656048 0.1699949946 -0.5314281043 -0.0295595772 0.1850789814
600296400.0 -0.0514414649 0.1700733348 0.1650410435 -0.5329892877 0.1651627662 -0.5335320611 -0.0274008308 0.1862129802
605296370.0 -0.0494960164 0.1708530882 0.1588949633 -0.5351026152 0.159197392 -0.5347208303 -0.0251383892 0.1863456135
610296340.0 -0.047996964 0.1714111732 0.1532136415 -0.5366009411 0.1532852811 -0.5366817134 -0.0234565268 0.1871252676
615296310.0 -0.0461165848 0.1719865755 0.1472048105 -0.5377747316 0.1473110603 -0.5380767927 -0.0211460202 0.1871685495
620296280.0 -0.0447727818 0.1725065936 0.1417245262 -0.5395836024 0.141742043 -0.5396263203 -0.0194592239 0.1872565053
625296250.0 -0.0428940408 0.17289159 0.135261074 -0.5412092045 0.1354735827 -0.5411683112 -0.0172191815 0.1880854696
630296220.0 -0.0410803632 0.1737438874 0.1299230337 -0.5428626299 0.1300316653 -0.5425733565 -0.0153990575 0.1883313051
635296190.0 -0.0394377144 0.1742820311 0.1235691723 -0.5431073851 0.1238113754 -0.5433253776 -0.0134148844 0.1887449031
640296160.0 -0.0379994758 0.1743597151 0.1184420798 -0.544708899 0.1177777333 -0.5450535265 -0.0107755098 0.1886321368
645296130.0 -0.0361405606 0.1754199505 0.1122057914 -0.5467398327 0.1123740897 -0.5463344852 -0.0095976742 0.1887575352
650296100.0 -0.034532574 0.1761535738 0.1066061494 -0.5474978159 0.106573687 -0.5473290248 -0.0071267724 0.1892179139
655296070.0 -0.0328201848 0.1760671613 0.1004596107 -0.5485238667 0.1002477743 -0.5484646126 -0.004844091 0.190007117
660296040.0 -0.0314104759 0.1771219976 0.0946620676 -0.5494626258 0.0949195045 -0.5491925421 -0.0032004728 0.1894803025
665296010.0 -0.0291381901 0.1770849616 0.0886093025 -0.5504521456 0.0889647957 -0.5504163774 -0.001318559 0.1896889173
670295980.0 -0.027274529 0.1778898362 0.0827217535 -0.5512466374 0.0830112726 -0.5513600935 0.0004941967 0.1899438354
675295950.0 -0.0254941303 0.178131503 0.0764259313 -0.5522672846 0.077075362 -0.5524960774 0.003100576 0.1903658976
680295920.0 -0.0241342583 0.1788584626 0.0707148882 -0.5528923571 0.0706039024 -0.5531832935 0.0053978707 0.1903304399
685295890.0 -0.0223544342 0.1789153771 0.0647689776 -0.5535247244 0.0640698425 -0.5540457756 0.0073435713 0.1905673998
690295860.0 -0.0199848801 0.1791978633 0.0583082971 -0.5539059871 0.0584030576 -0.5540524261 0.0095072462 0.1907793051
695295830.0 -0.0186866701 0.1792746485 0.0519690256 -0.554773284 0.0522344717 -0.5550480609 0.0113611582 0.1906744482
700295800.0 -0.0166234164 0.1798615141 0.0465660386 -0.555198092 0.04658501 -0.5555346186 0.0134221188 0.190391617
705295770.0 -0.0151012252 0.1804377057 0.0404890086 -0.5559715312 0.0409271876 -0.5556674515 0.0153967325 0.1904558701
710295740.0 -0.0133284837 0.1807517519 0.034693162 -0.556347356 0.0346434548 -0.5558127675 0.0169872987 0.1908400506
715295710.0 -0.0115286517 0.1811621301 0.0284324985 -0.5567628134 0.0289558857 -0.5564946067 0.0194294497 0.1903578329
720295680.0 -0.010064043 0.1807890994 0.0224027321 -0.5565544462 0.0227991 -0.5569070238 0.0219807477 0.1905915406
725295650.0 -0.0080244519 0.1813536873 0.0162424791 -0.5566113038 0.0166225459 -0.55679022 0.0238852943 0.1906144667
730295620.0 -0.0063615373 0.1815567298 0.0101523247 -0.5570098154 0.0105149527 -0.5570694884 0.0260133707 0.1897123609
735295590.0 -0.004302092 0.1817761373 0.0048420723 -0.5572127579 0.0047889637 -0.5571955535 0.0281986575 0.1901774255
740295560.0 -0.0027052063 0.1820079237 -0.001300587 -0.5565314855 -0.0011672804 -0.5568329722 0.0303517832 0.1896333497
745295530.0 -0.0008093296 0.1820706334 -0.0074619415 -0.5568743217 -0.0069551839 -0.5572117447 0.0320930647 0.1897401753
750295500.0 0.0008925704 0.1822147408 -0.0136790656 -0.556182238 -0.0135563352 -0.5568027034 0.0343084814 0.1892444628
755295470.0 0.0032437254 0.1826019666 -0.0192430562 -0.5562536674 -0.0190449896 -0.5569206142 0.0358664346 0.1896244893
760295440.0 0.0045973688 0.1826374691 -0.0257555534 -0.5558889675 -0.0249779625 -0.5562833252 0.0376676972 0.1888819277
765295410.0 0.006129327 0.1825548347 -0.0308756004 -0.5556222866 -0.0312669501 -0.5564722872 0.0405053697 0.1892123273
770295380.0 0.0082468442 0.1829588891 -0.0375058482 -0.5553639616 -0.0374223632 -0.5559775952 0.04278683 0.1887494484
775295350.0 0.0100844824 0.1830539575 -0.04337612 -0.5549364594 -0.0430983939 -0.5549471617 0.0442953013 0.1877890187
780295320.0 0.01175752 0.182897883 -0.049176043 -0.5544381255 -0.0491026696 -0.5548840726 0.046406429 0.1880599171
785295290.0 0.0136006329 0.1834040297 -0.0553534159 -0.5531383265 -0.0551259582 -0.5540261943 0.0479883795 0.1874603764
790295260.0 0.0151791502 0.183119056 -0.0608846397 -0.5533332222 -0.0611449086 -0.5534640867 0.0509038079 0.1869300275
795295230.0 0.0168997749 0.1832030152 -0.066585444 -0.552347473 -0.0667206593 -0.5526487088 0.0525789551 0.1872093818
800295200.0 0.0190430982 0.1836032238 -0.073234098 -0.5520891149 -0.0734143679 -0.5522688992 0.0544580963 0.1863526033
805295170.0 0.0203948735 0.1833607529 -0.0786552642 -0.550827949 -0.0787590469 -0.5510033352 0.056070094 0.1859446167
810295140.0 0.0226768774 0.1830531021 -0.0846212866 -0.5499805175 -0.084665938 -0.5505552462 0.0585278934 0.1856039807
815295110.0 0.0244992877 0.1829897288 -0.0911983629 -0.5487828199 -0.09117691 -0.548920166 0.0604539458 0.1849868115
820295080.0 0.0260943632 0.1824910681 -0.0965330357 -0.5480213443 -0.0965271158 -0.5484157752 0.0623802196 0.1845046177
825295050.0 0.0281163305 0.182612579 -0.1023857401 -0.5466978655 -0.1025603913 -0.5467492785 0.0645488164 0.184070478
830295020.0 0.029766133 0.1828656814 -0.1086006676 -0.5458446968 -0.1086730659 -0.5459342509 0.0663532283 0.1835897281
