!Created with skrf (http://scikit-rf.org).
# Hz S RI R 50.0 
!freq ReS11 ImS11 ReS21 ImS21 ReS12 ImS12 ReS22 ImS22
300000.0 -0.3178057307 -0.0815837393 0.3747642808 0.043095775 0.3711607174 0.0409220539 -0.318720301 -0.0961821605
5299970.0 -0.3264992376 0.0041471333 0.3782340839 0.0026325553 0.3784617553 0.0023866995 -0.3239524256 0.0049144859
10299940.0 -0.323908286 0.0132191517 0.379484594 0.0021263624 0.3791833482 0.0022291075 -0.3215349149 0.0161659588
15299910.0 -0.3215928062 0.0205146515 0.3818433858 0.0017994583 0.3819500463 0.0020783307 -0.3181257637 0.023704848
20299880.0 -0.3186693328 0.0261835374 0.3846593036 0.0018012615 0.3848876211 0.0015712001 -0.3145959165 0.0303568381
25299850.0 -0.3158182717 0.0316986591 0.3879034305 0.0003141295 0.3881155947 0.0001363628 -0.3105684383 0.0361022784
30299820.0 -0.3127565182 0.0358637256 0.3914337656 -0.0021398954 0.391406513 -0.0022971799 -0.3070064818 0.0409665755
35299790.0 -0.3098314732 0.0400506471 0.3948281704 -0.0056542374 0.3947661804 -0.0053891682 -0.3036995259 0.0450036711
40299760.0 -0.3071801644 0.0434792094 0.3978982382 -0.0087121853 0.3980782311 -0.008711066 -0.3003513836 0.0485680665
45299730.0 -0.304592716 0.0464399587 0.4006027079 -0.0128613316 0.4008759951 -0.0127653539 -0.2970726053 0.0518817155
50299700.0 -0.3024318077 0.0496006732 0.4035423467 -0.0173327436 0.4037216948 -0.017045375 -0.2945681478 0.0545233704
55299670.0 -0.3002464794 0.0521528756 0.4055823211 -0.0223129326 0.4057535678 -0.0220818546 -0.291763438 0.0571991245
60299640.0 -0.29795079 0.0547622346 0.4073858423 -0.0270576326 0.4078933091 -0.0269319611 -0.2891803892 0.0594006214
65299610.0 -0.2962222568 0.057482565 0.4091247698 -0.0318844521 0.4089858773 -0.0318275206 -0.2871336673 0.0616512985
70299580.0 -0.2946909462 0.060008908 0.4103552392 -0.0371196963 0.4102943131 -0.0374189535 -0.2849086824 0.0639776288
75299550.0 -0.2932330297 0.0625786766 0.4111403699 -0.0420684836 0.4112832118 -0.0421949172 -0.2831467324 0.0659175917
80299520.0 -0.2916031186 0.0648326476 0.4125643896 -0.0473369557 0.4125288382 -0.0476291393 -0.2812393926 0.0682660171
85299490.0 -0.2901845335 0.0668803944 0.4129770816 -0.0522957736 0.4128715297 -0.0523652906 -0.2801469146 0.0701072608
90299460.0 -0.2886856647 0.0694511969 0.4128789906 -0.058095338 0.4134677894 -0.0579665596 -0.2783595627 0.07206405
95299430.0 -0.2874583846 0.0717983012 0.4137237633 -0.0631011621 0.4134417068 -0.0632836413 -0.2767258398 0.074252887
100299400.0 -0.2863666985 0.0739332299 0.4133100697 -0.0681915741 0.4132529041 -0.0686677224 -0.2753408783 0.0761929576
105299370.0 -0.2853486625 0.0763286985 0.4134376329 -0.0736482876 0.413292724 -0.0738400427 -0.27371016 0.0783098873
110299340.0 -0.2839932782 0.0787988691 0.4132531002 -0.0785590709 0.4130948791 -0.0784960838 -0.2727788563 0.0805329198
115299310.0 -0.2829380548 0.0811397589 0.4129394479 -0.0837653491 0.412661277 -0.0836889669 -0.271390226 0.0825943041
120299280.0 -0.2819628198 0.0830803671 0.4124539863 -0.0891065426 0.4124400614 -0.0889290221 -0.2704191787 0.084373026
125299250.0 -0.281059317 0.0855056191 0.4119097294 -0.0940500033 0.4120591451 -0.0941750844 -0.269425218 0.0866721873
130299220.0 -0.2802138042 0.0883844696 0.4109921176 -0.0990962277 0.4112174237 -0.0991830128 -0.2683586054 0.0884937356
135299190.0 -0.27918968 0.0906833733 0.4106905925 -0.1041027129 0.4105514893 -0.1039398494 -0.2672333211 0.0908153042
140299160.0 -0.2784263472 0.0933252055 0.4099858815 -0.1093193774 0.4100502401 -0.1093597531 -0.2663507157 0.0935542705
145299130.0 -0.2776578346 0.0956615037 0.4092752541 -0.1141905996 0.4085127629 -0.1137833549 -0.2652349245 0.0957919605
150299100.0 -0.2763610741 0.0984357599 0.4075268589 -0.1188510001 0.4077967298 -0.1186901967 -0.2642512696 0.0985558648
155299070.0 -0.2756464361 0.1006881627 0.4068163345 -0.1241548247 0.4066055466 -0.124102963 -0.2631507322 0.1007138007
160299040.0 -0.2745505108 0.1033494196 0.4050938892 -0.1289196165 0.4052542784 -0.1286048176 -0.2625753034 0.1030557555
165299010.0 -0.2736054697 0.1059675539 0.4039658022 -0.1338815368 0.404315723 -0.1338869339 -0.2613799194 0.1056125512
170298980.0 -0.273008283 0.1084423872 0.4025011869 -0.1385090201 0.4031838835 -0.1384773789 -0.2601461671 0.1083373452
175298950.0 -0.2717137813 0.1110853951 0.4015911252 -0.1431338279 0.4011084998 -0.1431986441 -0.259476763 0.1108342333
180298920.0 -0.2710682765 0.1138129285 0.4000621418 -0.1476875162 0.399778588 -0.1475242863 -0.2582925838 0.1131203469
185298890.0 -0.2696056894 0.1161955926 0.3985537957 -0.1524700393 0.3982707134 -0.1523987495 -0.2571859266 0.11605965
190298860.0 -0.2687826576 0.1193365267 0.3971425841 -0.1574968702 0.397091321 -0.1575563035 -0.2563876143 0.1183484647
195298830.0 -0.2678383238 0.1217647777 0.3950124537 -0.1619532943 0.395282685 -0.1617407111 -0.254930836 0.1207760868
200298800.0 -0.2666074332 0.1246686728 0.3932414824 -0.1667641784 0.3936113317 -0.1666638927 -0.2547192671 0.1235449108
205298770.0 -0.2656306707 0.1272430867 0.3911838744 -0.1710902167 0.3918262153 -0.1712405769 -0.2531111911 0.1254997331
210298740.0 -0.2644669875 0.1297126784 0.3898847609 -0.1753349503 0.3898692664 -0.1756242873 -0.2519215752 0.1287941995
215298710.0 -0.2634249357 0.1328747197 0.388033664 -0.1804782746 0.3877683011 -0.1804916019 -0.2511779138 0.1309920357
220298680.0 -0.261846711 0.1349372319 0.385576047 -0.1843082474 0.3856472366 -0.184893275 -0.2499212147 0.1335103904
225298650.0 -0.2612183128 0.1377815237 0.3839994677 -0.1892000014 0.3841122275 -0.1889963834 -0.2493514864 0.1357785924
230298620.0 -0.2596932145 0.141007796 0.3818803027 -0.1934629788 0.3822203575 -0.1936881484 -0.2477918051 0.1385009998
235298590.0 -0.25829453 0.1436878985 0.3798789887 -0.197696595 0.3797465835 -0.1976630919 -0.2463689024 0.1412636711
240298560.0 -0.2570473231 0.1464792115 0.3776043312 -0.2025855615 0.3775127671 -0.2022457695 -0.2450354128 0.1438028274
245298530.0 -0.255906876 0.1488376121 0.375625642 -0.2066267314 0.3754791742 -0.2064219159 -0.2440261223 0.1455656114
250298500.0 -0.2540159361 0.152035495 0.3724532177 -0.2109353359 0.372661366 -0.2106032579 -0.2429290056 0.148554936
255298470.0 -0.2526748739 0.1541032761 0.3700593905 -0.2148913269 0.3705277952 -0.2147168761 -0.2413031521 0.1509895386
260298440.0 -0.2514822066 0.1568412513 0.3681886418 -0.2193823758 0.3681505166 -0.2192253691 -0.2398141878 0.1536789553
265298410.0 -0.2500277678 0.1599636407 0.3657869826 -0.2235967718 0.3661522679 -0.223481319 -0.2382757795 0.1563666727
270298380.0 -0.2484639439 0.1626105483 0.3635728188 -0.227403159 0.3636196826 -0.2274443335 -0.2366703007 0.1587007299
275298350.0 -0.2467544027 0.1653019292 0.3606969674 -0.2317640761 0.3610225291 -0.231652566 -0.2350030273 0.1608093592
280298320.0 -0.2449947111 0.1674336738 0.3586223166 -0.2359016993 0.3584177874 -0.2356692421 -0.2334009632 0.1634953041
285298290.0 -0.2434591276 0.1709466333 0.3559526262 -0.2398167966 0.3556878055 -0.2397580392 -0.2317397824 0.1661118141
290298260.0 -0.2417148384 0.1731382249 0.3530457079 -0.2436314556 0.3533542965 -0.2440370192 -0.2302468567 0.1687230087
295298230.0 -0.2398377574 0.1755934515 0.3504569937 -0.2477648231 0.3504441019 -0.2478231018 -0.2284135099 0.1707607265
300298200.0 -0.2386396974 0.1783954958 0.3478627796 -0.2516534519 0.3479236011 -0.2521392793 -0.2268062955 0.1733838769
305298170.0 -0.2367298692 0.180616473 0.3449650817 -0.2561004422 0.3447643109 -0.2558847803 -0.2244335119 0.1755834773
310298140.0 -0.2348940463 0.1835362322 0.3419404971 -0.2598139409 0.3423611316 -0.2598074458 -0.2230126354 0.1780560826
315298110.0 -0.2328322016 0.1858431175 0.3393295802 -0.2633612323 0.3392004903 -0.2636317906 -0.2212001993 0.1805164337
320298080.0 -0.231118045 0.1881562949 0.3359715185 -0.2674723207 0.3364339543 -0.2675436329 -0.2195237188 0.1831733541
325298050.0 -0.2294295161 0.1908037097 0.3332368126 -0.2713930257 0.333199995 -0.2711227671 -0.2177625579 0.1854597746
330298020.0 -0.2275283551 0.1931185528 0.3300618482 -0.2752423837 0.3303631369 -0.2748992143 -0.2161078346 0.18786268
335297990.0 -0.2256205012 0.1954282384 0.3269580589 -0.2785044751 0.3271240048 -0.2786283097 -0.2147410366 0.1907617919
340297960.0 -0.2244921163 0.1980976966 0.3239601594 -0.2821104054 0.3236164061 -0.2825806655 -0.2120572106 0.1928031322
345297930.0 -0.2221252498 0.2009046261 0.3204865529 -0.2857884742 0.3203732862 -0.2861257107 -0.2104203852 0.1950461107
350297900.0 -0.2202493011 0.2030873654 0.3171741665 -0.2895466393 0.3173082566 -0.2894087201 -0.2090274726 0.1980554573
355297870.0 -0.2177256473 0.2059938307 0.3139640397 -0.2930542792 0.314186244 -0.2929608549 -0.2067349077 0.1999952008
360297840.0 -0.2158883112 0.2082152967 0.3109503319 -0.2963825155 0.3112111861 -0.2962358073 -0.20529539 0.2027358761
365297810.0 -0.2142670571 0.2109997481 0.3075554932 -0.2997378966 0.3075174248 -0.3002366126 -0.2027921748 0.2047636701
370297780.0 -0.2117218154 0.2131001325 0.3038481066 -0.3028932694 0.3043202043 -0.3029108302 -0.2007743559 0.2074435643
375297750.0 -0.2091999052 0.2156710239 0.3009331278 -0.306475498 0.3010569759 -0.3066926876 -0.1986516844 0.2092419532
380297720.0 -0.2075576897 0.2177795743 0.297539732 -0.3096510314 0.2977072858 -0.3091819698 -0.1971771835 0.2116897611
385297690.0 -0.2053430094 0.2201168221 0.2940009127 -0.3127270211 0.293631942 -0.3130312704 -0.1946921734 0.2141267771
390297660.0 -0.2032456836 0.2226584901 0.2906309014 -0.3163387007 0.2905824312 -0.3158627259 -0.1924288566 0.2166120492
395297630.0 -0.2007667368 0.2249497719 0.2873297699 -0.3196186873 0.2869093302 -0.319530901 -0.1901983685 0.2186057261
400297600.0 -0.1983948656 0.2273990393 0.2831653161 -0.3226661453 0.2837256568 -0.3225764114 -0.1878891744 0.2207681891
405297570.0 -0.1965113937 0.2293652185 0.2797671038 -0.3254061606 0.2799351805 -0.3254678471 -0.1860289277 0.2231603347
410297540.0 -0.1939839387 0.2314795854 0.2764340756 -0.3283930249 0.2764367003 -0.3286252259 -0.1837199134 0.2251326315
415297510.0 -0.1911430607 0.2339775558 0.2725784967 -0.3318458676 0.2727947512 -0.3318698143 -0.1814598331 0.2272098582
420297480.0 -0.189198795 0.2362728803 0.2686959036 -0.3347022996 0.2689661833 -0.3347365489 -0.1792828967 0.2291902833
425297450.0 -0.1865002537 0.2379758588 0.2653444799 -0.3375418682 0.2655368704 -0.3375763128 -0.1770878856 0.2313441412
430297420.0 -0.1838346711 0.2401431536 0.2615529833 -0.3399991333 0.261624931 -0.340141152 -0.1747506959 0.2330180227
435297390.0 -0.1816669065 0.2425019634 0.2572983071 -0.3433334136 0.2572110726 -0.343282709 -0.1717737641 0.2349846216
440297360.0 -0.1791317902 0.2445248412 0.2535142227 -0.3460654796 0.2539963271 -0.3457529845 -0.1696421401 0.2369595192
445297330.0 -0.1764545751 0.2465629162 0.2502411433 -0.3487425619 0.2503654079 -0.348395405 -0.1668909652 0.2384482641
450297300.0 -0.1739367207 0.2482840542 0.2462235745 -0.3514376372 0.2460442603 -0.3515293633 -0.1648040987 0.2403394119
455297270.0 -0.1714561738 0.2502869622 0.2421057655 -0.354085777 0.2427147878 -0.3539906815 -0.1623823216 0.2422482754
460297240.0 -0.1690793005 0.2524718737 0.2382467181 -0.3564473778 0.2384614214 -0.3568843673 -0.159915702 0.2445187098
465297210.0 -0.1661027095 0.2542277729 0.2345113529 -0.3591153273 0.23419786 -0.3595719142 -0.1569612284 0.2460552676
470297180.0 -0.1636788926 0.2561412533 0.2303686841 -0.3618107863 0.2304365874 -0.3618591433 -0.1543602481 0.2478984005
475297150.0 -0.1610910566 0.2577471566 0.2262391229 -0.3637046032 0.2263967903 -0.3640737056 -0.1514056625 0.2495858208
480297120.0 -0.1584334261 0.2600208796 0.2221916612 -0.3668304267 0.2226025012 -0.3670231673 -0.1488339434 0.2516331049
485297090.0 -0.1557209067 0.2617919821 0.2190590477 -0.3690782089 0.2185281593 -0.3688179421 -0.1460772168 0.2530827298
490297060.0 -0.1529930375 0.2636979907 0.2146485254 -0.3714516122 0.2142958001 -0.3714218723 -0.143610557 0.2550379039
495297030.0 -0.1502275232 0.2651376324 0.2102848751 -0.3734072926 0.2106407539 -0.3736763862 -0.1408769458 0.2567565751
500297000.0 -0.1473201638 0.2671189349 0.205937724 -0.3756248641 0.205817445 -0.3756999399 -0.1378312495 0.258939538
505296970.0 -0.1444377999 0.2688535199 0.2021929645 -0.3780725551 0.2017418724 -0.3782946523 -0.1358072036 0.2601539425
510296940.0 -0.1417017902 0.2703806523 0.1977928624 -0.3799537302 0.1979494262 -0.380239493 -0.1328302129 0.2618297263
515296910.0 -0.1387903587 0.2719087682 0.1938434143 -0.3824134149 0.1937157458 -0.3822321755 -0.1301106761 0.2630820765
520296880.0 -0.1361408526 0.273464006 0.1895492137 -0.3846702197 0.1895269523 -0.3842407937 -0.1273152867 0.2647752047
525296850.0 -0.1328516825 0.2749175575 0.184810632 -0.3861986666 0.1853551378 -0.3866399202 -0.1245786573 0.2667181578
530296820.0 -0.1299944374 0.2767596908 0.1806505442 -0.3886851465 0.1813867834 -0.3884731717 -0.1218397827 0.2680053959
535296790.0 -0.1277237303 0.2782287523 0.1772204486 -0.3901984382 0.1771912044 -0.3899141808 -0.1191686392 0.2689408918
540296760.0 -0.1246037571 0.2796609596 0.1725182527 -0.3925171352 0.1724268529 -0.3924869805 -0.1162726185 0.2711399805
545296730.0 -0.1217044425 0.2812005786 0.1681011041 -0.3936994229 0.1682188317 -0.3940268122 -0.1134303521 0.2722124373
550296700.0 -0.1184085845 0.2831272411 0.1637911394 -0.3958194776 0.1637929586 -0.3959648755 -0.110827561 0.2738631359
555296670.0 -0.1157866947 0.2840235905 0.1597073402 -0.3974718285 0.1597769522 -0.3974405501 -0.1078610424 0.2752071939
560296640.0 -0.1125730696 0.2853252155 0.155380523 -0.3991991311 0.1554693912 -0.3995064967 -0.1050313434 0.2765898141
565296610.0 -0.1096870989 0.2867147044 0.1508099173 -0.4009654312 0.1510910322 -0.4008266081 -0.1021554282 0.2773257869
570296580.0 -0.1069712441 0.2880013759 0.1464861928 -0.4028840653 0.1460372444 -0.4022722199 -0.0993822138 0.2790664966
575296550.0 -0.1038578104 0.2894733385 0.1423187538 -0.4041494275 0.1419977428 -0.4042815606 -0.0964036669 0.2801068957
580296520.0 -0.1004414895 0.2905692397 0.1375704539 -0.4058200443 0.137758747 -0.405683306 -0.0934868496 0.2812264617
585296490.0 -0.0978509211 0.2916461565 0.1333058571 -0.4068389374 0.1333287164 -0.4072241593 -0.0903652071 0.2824341017
590296460.0 -0.0944143122 0.2927656155 0.1290124268 -0.4079864207 0.1287227014 -0.4082040885 -0.0879253335 0.2834918059
595296430.0 -0.0916161816 0.2938896696 0.1243770879 -0.409652743 0.1241372726 -0.4096660003 -0.0847722227 0.2839038648
600296400.0 -0.0885925702 0.2951507197 0.1196989897 -0.4111173155 0.1198207036 -0.4109132172 -0.0818235882 0.2851468278
605296370.0 -0.0856691343 0.295950759 0.1154688758 -0.4119892447 0.1154278127 -0.4120872673 -0.0784281178 0.2865775273
610296340.0 -0.0823483082 0.2971554171 0.1104928412 -0.413341583 0.11092768 -0.4134157149 -0.0758577466 0.2872803611
615296310.0 -0.0793700195 0.2978234113 0.1061015367 -0.4143517859 0.1062137653 -0.4149422015 -0.0722568225 0.2879825096
620296280.0 -0.0760617432 0.2987750911 0.1015166176 -0.4151465502 0.101728046 -0.4151349126 -0.0698035704 0.2890299454
625296250.0 -0.0732451774 0.2996859437 0.0978638805 -0.4165554747 0.0969985901 -0.4167418577 -0.0660684232 0.2895978895
630296220.0 -0.069337859 0.3009564915 0.0921899113 -0.4175659847 0.0925815229 -0.4172223306 -0.0634139605 0.2906911534
635296190.0 -0.0668515181 0.3017324377 0.0883140082 -0.4183811645 0.0880708311 -0.4187559682 -0.060035875 0.2913597367
640296160.0 -0.0636107821 0.3024645492 0.0835324452 -0.419148857 0.0836848096 -0.4193124463 -0.0572192823 0.2921036547
645296130.0 -0.0602689192 0.3035903284 0.0786347462 -0.4201288949 0.079150721 -0.4202209924 -0.0538199293 0.293190374
650296100.0 -0.0568540845 0.3041438896 0.0742294616 -0.421160152 0.0744650237 -0.4209395379 -0.0509357547 0.2932593164
655296070.0 -0.0543338457 0.3046659796 0.0703366285 -0.421338918 0.0700455321 -0.421847684 -0.0475348185 0.2942287464
660296040.0 -0.0508195187 0.3051894675 0.0654363011 -0.4223627991 0.0653338122 -0.4223827576 -0.0443096919 0.2949446042
665296010.0 -0.0473518147 0.3055443121 0.0607030855 -0.4231488924 0.0606546728 -0.4232984987 -0.0412908145 0.2958499396
670295980.0 -0.0448538516 0.3067389918 0.056477467 -0.4233497866 0.0562755088 -0.4233089213 -0.0382938978 0.2962082139
675295950.0 -0.0412812993 0.3072219732 0.0515052077 -0.4241952113 0.0518879516 -0.4235770677 -0.0353679333 0.2969567764
680295920.0 -0.0382746733 0.307737825 0.0469593157 -0.4241712535 0.0463787168 -0.4250777717 -0.0320405488 0.297692327
685295890.0 -0.0345829121 0.3089092586 0.042096004 -0.4250004875 0.0422335225 -0.4251556777 -0.0288860205 0.2982518389
690295860.0 -0.0314417873 0.3088295836 0.0376350135 -0.4247060964 0.0380330042 -0.4256226 -0.026082743 0.2991226434
695295830.0 -0.028453027 0.3091563408 0.0334864838 -0.4257336972 0.032721517 -0.4258258318 -0.0224209517 0.2991840799
700295800.0 -0.0250571181 0.3094598763 0.0281506916 -0.4257918371 0.0285344506 -0.4259903383 -0.0201327348 0.2997837298
705295770.0 -0.0221729337 0.3105036191 0.0237653522 -0.4264757208 0.0240957606 -0.4263915437 -0.0164360405 0.3005253062
710295740.0 -0.0186945122 0.3104092916 0.0194049082 -0.4267377599 0.019431875 -0.4267737708 -0.0131236978 0.3003109721
715295710.0 -0.0154616181 0.3106536763 0.0148657455 -0.4265091471 0.0142863423 -0.4267047053 -0.0099723581 0.3006735523
720295680.0 -0.0118911115 0.3110652388 0.0096258772 -0.4271148405 0.0101907471 -0.4271144567 -0.0066963295 0.3013566536
725295650.0 -0.0087153009 0.3114767645 0.0053550349 -0.4269012674 0.0054672187 -0.4271120208 -0.0041911471 0.3014046207
730295620.0 -0.0053851693 0.3119147296 0.0005907997 -0.4268095525 0.0010283076 -0.4268987732 -0.0013667028 0.3013279052
735295590.0 -0.0025826039 0.3120039667 -0.0036142917 -0.4271890227 -0.003969233 -0.4269704012 0.0019641331 0.3014763776
740295560.0 0.0008052444 0.3123549765 -0.0083645791 -0.4266064825 -0.0086059004 -0.4267222113 0.0057933023 0.3020134411
745295530.0 0.004224408 0.3125080282 -0.0135008485 -0.4261907484 -0.01333312 -0.4265268387 0.0085079782 0.301568316
750295500.0 0.0074279991 0.3121764311 -0.0174981753 -0.4261192168 -0.0177260176 -0.4264772064 0.0115019235 0.3019363817
755295470.0 0.0105855463 0.3124188763 -0.0218317242 -0.426129312 -0.0224927879 -0.4262215751 0.0151540393 0.3015703362
760295440.0 0.0136742278 0.312146799 -0.0269432093 -0.4261429967 -0.0272130013 -0.4259719471 0.0180647584 0.3016277938
765295410.0 0.0171598187 0.3125349575 -0.0314657068 -0.4254769743 -0.031751952 -0.4256036747 0.0208697259 0.3017208125
770295380.0 0.0203177832 0.3122746169 -0.0362160775 -0.4251820764 -0.0362570167 -0.4247380429 0.0239809851 0.3012465587
775295350.0 0.0233342391 0.3117901861 -0.0407203033 -0.423908373 -0.0405338222 -0.424269387 0.0268593234 0.3010853263
780295320.0 0.026994768 0.3118909861 -0.0455842636 -0.4236771549 -0.0449855009 -0.4240653316 0.0302041797 0.3008793717
785295290.0 0.0299849004 0.3114637246 -0.0502821125 -0.4232261687 -0.0499326149 -0.423517976 0.0341109153 0.3006933174
790295260.0 0.0338355243 0.3116452724 -0.0541874022 -0.4229526413 -0.0538515021 -0.4227274669 0.0370339478 0.3002761701
795295230.0 0.0365377622 0.3112489155 -0.0591316651 -0.4220156516 -0.0586045495 -0.4221680987 0.0404184093 0.300088305
800295200.0 0.0398773778 0.311222735 -0.0636629778 -0.421680091 -0.0633906521 -0.421348534 0.0436360122 0.2998164658
805295170.0 0.0430760078 0.3107508144 -0.0681505219 -0.4206446758 -0.0679674078 -0.4210260161 0.0464902441 0.2994134956
810295140.0 0.0462342124 0.3103068395 -0.072388244 -0.4197890092 -0.0726246668 -0.4201796842 0.0499753195 0.2994002632
815295110.0 0.0495350662 0.3097425659 -0.0771715922 -0.4187596878 -0.076928213 -0.4188146267 0.0529998192 0.2988527394
820295080.0 0.0526225516 0.3095840361 -0.081473692 -0.4178706547 -0.0814176879 -0.4179062445 0.0561744093 0.2985112456
825295050.0 0.0563712496 0.3090272188 -0.0857554688 -0.4169259619 -0.0857368712 -0.4171631589 0.0594159301 0.2979734227
830295020.0 0.059322704 0.308692793 -0.0906912562 -0.4159196943 -0.0906106241 -0.4160606089 0.0631114807 0.2975944624
