!Created with skrf (http://scikit-rf.org).
# Hz S RI R 50.0 
!freq ReS11 ImS11 ReS21 ImS21 ReS12 ImS12 ReS22 ImS22
300000.0 -0.7775706644 -0.0983825728 -0.0009261138 0.000379814 -0.0005079902 0.0004152914 -0.0491267498 -0.0588806132
5299970.0 -0.7850141285 -0.0056746806 7.56903e-05 3.8737e-05 -7.10137e-05 -6.29669e-05 -0.0499273348 0.0157629085
10299940.0 -0.7880269811 -0.0037073199 2.16759e-05 0.0001485191 -4.18381e-05 0.0001711142 -0.0441282545 0.0338018244
15299910.0 -0.7936365845 -0.0019703779 6.26112e-05 9.5908e-06 -7.99002e-05 1.25127e-05 -0.0353514673 0.048071057
20299880.0 -0.8001376895 0.0022562003 -5.03424e-05 -0.0001572115 0.0001572079 -0.0002206632 -0.0252580821 0.0598639198
25299850.0 -0.8064617439 0.0079661614 -9.73046e-05 7.21019e-05 5.2618e-05 -0.0002243689 -0.0140910835 0.0692965
30299820.0 -0.8121716992 0.0155879283 -0.0001374373 3.13648e-05 4.2336e-06 -0.0001865859 -0.0022856826 0.0759223371
35299790.0 -0.8173337159 0.0245327672 -0.0001320581 0.00011472 -4.2344e-06 -6.13068e-05 0.0092352622 0.0810810931
40299760.0 -0.8211568428 0.0336896634 6.7171e-05 0.0001135867 -3.78405e-05 8.18834e-05 0.0203380387 0.083631631
45299730.0 -0.8244453663 0.0433685692 0.0001028884 -3.14023e-05 -6.34081e-05 -5.07444e-05 0.0315658479 0.0848505345
50299700.0 -0.8271969062 0.0531437834 -0.0001247283 6.28798e-05 -5.32189e-05 0.0001018573 0.0415298005 0.0846708611
55299670.0 -0.8292119912 0.0628655859 0.0001569159 0.0001395448 0.0001130317 0.0001446916 0.0507093171 0.0835795824
60299640.0 -0.8302178188 0.0736990277 0.0001307747 0.0001210986 1.5692e-05 4.20486e-05 0.0598058838 0.0816757726
65299610.0 -0.8310827877 0.0836450324 0.0001648261 -2.11947e-05 -5.88065e-05 8.93721e-05 0.0667617295 0.0789480775
70299580.0 -0.8321239433 0.0935886664 0.000107374 7.70816e-05 -0.0001003313 -6.2841e-06 0.073833293 0.0759471445
75299550.0 -0.8316474747 0.1037923317 3.02775e-05 -0.0002193297 9.26e-06 5.05434e-05 0.0804094517 0.0722753155
80299520.0 -0.8320580334 0.1133983046 0.0001012259 4.07595e-05 -2.57916e-05 8.64921e-05 0.0859970376 0.068969798
85299490.0 -0.8312590916 0.1229642652 0.0002108758 0.0001360525 0.0001214566 8.24773e-05 0.090924526 0.0648324697
90299460.0 -0.8300154245 0.1324136763 9.7752e-05 8.69447e-05 4.2367e-06 0.0001221099 0.0958383317 0.0609020682
95299430.0 -0.8291579151 0.1419888184 0.0001006738 0.0002080575 7.00983e-05 -1.53326e-05 0.0995984128 0.0569840667
100299400.0 -0.828118247 0.1511609021 -0.000245514 7.88422e-05 5.61592e-05 -7.68054e-05 0.1035187552 0.052855068
105299370.0 -0.8272782904 0.1607925892 0.0001206272 -0.0001487605 5.25996e-05 -0.0001183779 0.1068347898 0.0484543361
110299340.0 -0.8258668635 0.16999402 -0.0001462943 0.0001401171 8.87793e-05 -9.55413e-05 0.1096455313 0.0446837853
115299310.0 -0.8236590117 0.1787755616 1.41198e-05 -6.95171e-05 -5.86357e-05 0.0001114114 0.1122608324 0.040687853
120299280.0 -0.8225443842 0.1876122141 4.66901e-05 9.76287e-05 2.78412e-05 -2.25229e-05 0.1143925535 0.0365344563
125299250.0 -0.8203235543 0.1964666611 4.11155e-05 2.00847e-05 7.70841e-05 0.0001045327 0.1164845437 0.0322951036
130299220.0 -0.8187878419 0.2057417968 2.01226e-05 3.87034e-05 -4.16851e-05 -9.46475e-05 0.1180838327 0.0285001706
135299190.0 -0.8168017899 0.2143496259 7.35465e-05 -0.0001095847 -0.000109274 -6.5112e-05 0.119720321 0.0250313993
140299160.0 -0.8146487532 0.2231355951 -9.3278e-06 4.12354e-05 0.0003450754 7.9902e-06 0.1210892289 0.0216037296
145299130.0 -0.8127268722 0.2325106522 -0.0001310301 2.60467e-05 -1.08526e-05 -2.42904e-05 0.1219696392 0.0180404596
150299100.0 -0.8096981212 0.2409574046 0.0001606 -8.28105e-05 -0.0001005661 0.0001557054 0.1229956908 0.0149616264
155299070.0 -0.8080862868 0.2495231723 0.0001158043 -4.51874e-05 -0.0001109253 3.29739e-05 0.1240049209 0.0110024622
160299040.0 -0.8048627322 0.2584810755 0.0001889609 -0.0001055333 0.0001806597 0.0001624192 0.1241928283 0.008145798
165299010.0 -0.8023795608 0.2672593649 0.0001478613 6.81238e-05 0.0003145771 0.0001978525 0.1251401987 0.0045636647
170298980.0 -0.8000179126 0.2754694153 -4.14588e-05 8.12346e-05 -2.43433e-05 0.0001927274 0.1251650056 0.0017626871
175298950.0 -0.797295244 0.2841686793 -4.761e-07 8.94096e-05 0.0001097644 8.81903e-05 0.1253387332 -0.001353712
180298920.0 -0.7948637469 0.2930572257 2.01848e-05 0.000247838 4.35307e-05 0.0001893782 0.1256725918 -0.0042250341
185298890.0 -0.7910759725 0.3010435119 -3.7668e-05 0.0002058215 3.68307e-05 -0.000261078 0.1255740055 -0.0073809006
190298860.0 -0.7885955255 0.3102641696 0.0001751629 5.23077e-05 -4.38488e-05 -0.0001127878 0.1257130264 -0.0102867965
195298830.0 -0.7853191196 0.318452534 -7.55053e-05 -2.15863e-05 -1.7375e-06 8.67202e-05 0.1252172702 -0.0128826933
200298800.0 -0.7814249988 0.3263165477 2.1693e-06 -5.86513e-05 -0.0001983538 -2.1215e-06 0.1246454077 -0.0158875317
205298770.0 -0.7783011448 0.3345648216 5.95872e-05 0.0001833463 0.0001278496 -7.96491e-05 0.1245803134 -0.0187750826
210298740.0 -0.7749723947 0.3426857692 1.7859e-05 -6.81803e-05 1.82169e-05 0.0001511135 0.1244453587 -0.0210291428
215298710.0 -0.771673226 0.3512579313 -0.0001067334 2.36536e-05 2.8658e-05 0.0001215944 0.1235204425 -0.0238661101
220298680.0 -0.7667968662 0.3586152254 0.0002577077 9.34542e-05 6.8014e-05 -6.84707e-05 0.122879267 -0.0265812948
225298650.0 -0.7643525247 0.3665436002 -0.0002568681 -0.0002867045 8.88301e-05 -2.90609e-05 0.1222053194 -0.0288214701
230298620.0 -0.7601074946 0.3748303018 -9.34011e-05 0.0001657514 0.0001221985 -8.69003e-05 0.1216472539 -0.0313870058
235298590.0 -0.7562365989 0.3834634518 5.00241e-05 7.421e-06 0.0001201298 6.45716e-05 0.1212501462 -0.0334301884
240298560.0 -0.7527457523 0.3916801579 -0.0002111279 2.92822e-05 0.0002446575 3.87929e-05 0.1201858533 -0.0359947544
245298530.0 -0.7484328606 0.3989094906 8.44187e-05 2.98701e-05 -2.16851e-05 8.2051e-06 0.119592643 -0.038277652
250298500.0 -0.7441858519 0.4073756608 0.0002341896 -2.952e-07 9.6213e-06 0.0001314045 0.1183628294 -0.0409264994
255298470.0 -0.739201403 0.4139749537 -2.07668e-05 -0.0001148403 -7.23707e-05 4.02775e-05 0.1178809916 -0.0434239627
260298440.0 -0.7355393357 0.4220257837 6.76255e-05 -0.0002010925 8.39741e-05 0.0001744588 0.1173192666 -0.0453916219
265298410.0 -0.7313327905 0.4302083509 -6.10648e-05 0.0001600578 0.0001145586 -3.2418e-06 0.1163154614 -0.0476466582
270298380.0 -0.7268507602 0.4373973627 4.12903e-05 -0.0001753894 0.0001353928 -4.18381e-05 0.1154345184 -0.0493019299
275298350.0 -0.7220775274 0.4454423179 -0.0001834304 7.72483e-05 0.0001258918 0.0002016445 0.1144214153 -0.0514640914
280298320.0 -0.7165007775 0.4527589018 3.97508e-05 6.89763e-05 -0.0001837687 -8.38663e-05 0.1137203937 -0.0534861179
285298290.0 -0.7125116567 0.4605089615 -8.2632e-06 0.000206064 0.0003436349 0.0001396004 0.1129479385 -0.0554816585
290298260.0 -0.7079386696 0.4681536557 0.0001287612 -0.0001233762 1.38523e-05 7.32722e-05 0.1120273525 -0.0573583803
295298230.0 -0.7023084125 0.4745159679 1.58134e-05 -0.0001269309 0.0001414312 4.71156e-05 0.1114466099 -0.0597267931
300298200.0 -0.6980369624 0.482039816 0.0001637672 0.0002070315 -8.14242e-05 0.0003219151 0.1102185383 -0.0615506321
305298170.0 -0.6925181949 0.4887045229 5.0991e-06 0.0002691421 0.00018753 8.00009e-05 0.1093120318 -0.0640628216
310298140.0 -0.6875261827 0.4963436092 0.0001854173 5.03636e-05 4.10493e-05 6.32224e-05 0.1079864683 -0.0657632407
315298110.0 -0.682491424 0.503408432 -2.30662e-05 1.36045e-05 0.000144418 -2.91025e-05 0.1070114612 -0.0677416225
320298080.0 -0.677269261 0.5102445363 0.000153854 -3.678e-06 -3.96543e-05 7.4185e-05 0.1057069343 -0.0692134361
325298050.0 -0.6717266777 0.5178024185 1.66013e-05 -6.44306e-05 0.0001086015 8.56755e-05 0.1041963352 -0.0710322583
330298020.0 -0.6658155675 0.5243684135 3.54534e-05 0.0002898569 -7.55493e-05 0.0001167275 0.10276866 -0.0726198045
335297990.0 -0.6605388576 0.5311377128 -0.000131729 0.000240123 -6.36832e-05 0.0001214765 0.1013779619 -0.0739104812
340297960.0 -0.6554931704 0.5383950602 7.8867e-06 0.0002186856 5.4815e-05 -0.0001750909 0.1004911456 -0.0750568354
345297930.0 -0.6501078444 0.5446702489 9.86041e-05 3.65718e-05 -6.21381e-05 8.40926e-05 0.0982930781 -0.0767719952
350297900.0 -0.6440116898 0.5514161912 0.0002069916 5.49095e-05 0.0001175615 -4.32274e-05 0.0972908276 -0.0777007402
355297870.0 -0.6377796504 0.5580736813 7.54e-05 -3.6421e-05 0.0001648384 -3.68392e-05 0.0957284646 -0.0793379103
360297840.0 -0.6325088889 0.5638319839 -5.12798e-05 1.95954e-05 0.0001340877 0.0001052066 0.0945207356 -0.0806641728
365297810.0 -0.6271198085 0.5709697512 0.0001992761 -0.000232708 0.0001561105 -8.2411e-06 0.0931200565 -0.0819771067
370297780.0 -0.6210302384 0.5770446166 -6.79957e-05 0.0001070153 0.0001723835 1.7657e-05 0.0918902928 -0.0829309888
375297750.0 -0.6143642473 0.5833528833 9.26327e-05 -0.0001190372 1.30824e-05 9.53158e-05 0.0901576699 -0.084711019
380297720.0 -0.6086928067 0.5895591908 -5.87128e-05 -6.2246e-06 -8.01911e-05 -7.1112e-06 0.0882861791 -0.0857986489
385297690.0 -0.6031578137 0.5956830632 8.3893e-06 8.59353e-05 0.000255124 4.69867e-05 0.087082189 -0.0869882494
390297660.0 -0.5966767222 0.601746164 -0.0001733823 2.42236e-05 -1.59588e-05 2.2817e-06 0.0855245932 -0.0881685525
395297630.0 -0.5902103734 0.6079678522 -3.56185e-05 0.0001986707 9.55499e-05 -9.92891e-05 0.0843661104 -0.0892945162
400297600.0 -0.5840553714 0.6137548094 0.0002719547 -0.0001179714 -9.34242e-05 -1.60864e-05 0.0830001677 -0.090408106
405297570.0 -0.57795936 0.6196110527 3.33787e-05 -7.44536e-05 -5.92917e-05 4.58836e-05 0.0811249317 -0.0916586795
410297540.0 -0.5709157579 0.6259324804 0.0001137168 -8.67593e-05 5.18968e-05 2.96486e-05 0.0796485845 -0.0926120289
415297510.0 -0.5642552844 0.6311409088 2.03914e-05 0.0003367947 9.72453e-05 0.0001050514 0.0782826827 -0.0939332526
420297480.0 -0.5589896014 0.6376692568 5.85766e-05 0.0001433284 0.0002710614 0.0001773238 0.0767921907 -0.0950404232
425297450.0 -0.5514534416 0.642935094 0.0001104014 8.62474e-05 0.00011394 -8.6432e-05 0.0751040428 -0.0961635449
430297420.0 -0.5453416266 0.6482941827 0.0002578415 -9.83834e-05 6.40613e-05 -6.38425e-05 0.0734579325 -0.097260841
435297390.0 -0.5386415402 0.6534061643 0.0001686152 4.42592e-05 5.04189e-05 -6.38594e-05 0.0722571665 -0.0984749695
440297360.0 -0.5315011551 0.6588264381 0.0001343855 -0.0002836835 3.55078e-05 3.9414e-05 0.0704529707 -0.0993787019
445297330.0 -0.5243738126 0.6645365972 1.71747e-05 -0.0002145126 7.94073e-05 -0.0002158618 0.0691002697 -0.100606506
450297300.0 -0.5179538463 0.670042309 0.0003109919 -0.0001322327 -4.23426e-05 0.0002227108 0.0675366523 -0.1013285208
455297270.0 -0.5113278089 0.6746525146 0.0003082414 0.0001028164 4.12079e-05 -4.65363e-05 0.0659622741 -0.1023385364
460297240.0 -0.5047041461 0.6797887097 9.75614e-05 3.41159e-05 0.0002466445 -1.92236e-05 0.0643734033 -0.1027453924
465297210.0 -0.4974430146 0.6850178296 0.0001451094 -4.03503e-05 0.0001182338 0.0001260337 0.062840534 -0.1039005893
470297180.0 -0.4904608107 0.6902335932 0.0002301684 -0.0001175507 4.84338e-05 -0.0001793233 0.0614143544 -0.1047997558
475297150.0 -0.483343875 0.6948212616 6.47845e-05 0.0001077146 0.0001180727 0.0002171389 0.0601563459 -0.1058773597
480297120.0 -0.4764480053 0.699399323 9.26172e-05 -4.61899e-05 0.0001944448 7.88008e-05 0.0584580129 -0.1060343041
485297090.0 -0.4687449385 0.7043504416 5.14087e-05 -0.0001517828 0.0001291049 -9.0564e-06 0.0567771359 -0.1066822255
490297060.0 -0.4618358484 0.7088863098 0.0001762012 0.0001460078 0.0005147718 0.0002814873 0.0553268064 -0.1077443367
495297030.0 -0.4546916408 0.7133867179 7.23305e-05 -3.34943e-05 3.48102e-05 -0.0002209029 0.0536632842 -0.1079466516
500297000.0 -0.4472994128 0.7179505207 -0.0001531112 -0.0001172479 0.0001670342 3.72555e-05 0.0523287156 -0.108501083
505296970.0 -0.4398230792 0.7227072683 0.000233713 9.2579e-06 8.138e-05 6.64931e-05 0.0505227636 -0.1094318567
510296940.0 -0.4329178365 0.7271550294 7.0237e-05 0.0001200818 0.0001514579 -1.1709e-06 0.0488772001 -0.1097826752
515296910.0 -0.4244017831 0.7305509636 -0.0001251891 -0.0001227141 0.0001651521 0.0001214759 0.0473879944 -0.1103709025
520296880.0 -0.4177578411 0.7356354236 8.75038e-05 0.0001548287 7.8605e-05 0.0001677881 0.0455792473 -0.1110682334
525296850.0 -0.4100356857 0.7393178677 0.0002206303 0.0001194757 0.0001202417 -7.54456e-05 0.0442854823 -0.1114172909
530296820.0 -0.4024567607 0.7436431734 0.0001934035 -3.9357e-05 6.99974e-05 -4.01581e-05 0.0424971474 -0.1114449795
535296790.0 -0.3954552774 0.747227303 0.0002293471 2.73518e-05 -8.34548e-05 -3.63647e-05 0.0401664449 -0.1123461529
540296760.0 -0.3879679845 0.7515556271 0.0003360188 0.0001621826 -1.17181e-05 0.000191151 0.0387354342 -0.1123989773
545296730.0 -0.3805541173 0.7549132286 -0.0001667218 0.0002241116 0.0002428333 -4.27252e-05 0.0371187359 -0.1132569421
550296700.0 -0.3726122417 0.7595077218 -7.33271e-05 -0.0001445645 -7.62979e-05 7.11029e-05 0.0353064773 -0.1133799069
555296670.0 -0.3647257732 0.7620481356 6.76844e-05 -2.76316e-05 0.0001727249 6.13793e-05 0.0337325581 -0.113645635
560296640.0 -0.3572581566 0.7666329649 0.0002309416 0.0002473885 1.60727e-05 -0.0001420725 0.031899683 -0.1139516561
565296610.0 -0.3494533471 0.7700794818 0.0002387518 0.0002982844 0.0001712352 -4.5907e-05 0.0300405056 -0.1143540392
570296580.0 -0.3415521649 0.7726498056 3.1211e-06 0.0001341934 9.25237e-05 0.0001451388 0.028483116 -0.1145952828
575296550.0 -0.3340544808 0.7764547937 1.54166e-05 1.0209e-05 2.23974e-05 -0.0001138566 0.0268441725 -0.1146624048
580296520.0 -0.3256449522 0.7797356592 0.0002321463 0.0001207062 0.0002080676 -0.0001345717 0.0249821812 -0.1153452828
585296490.0 -0.318458166 0.7826373593 -6.77065e-05 0.0001451304 7.1808e-06 1.14291e-05 0.0234750346 -0.1157918935
590296460.0 -0.3098812398 0.7857322363 0.0002845595 0.0002467582 -0.0001078428 3.3532e-05 0.0214041333 -0.1156515175
595296430.0 -0.3025041441 0.7884780404 0.000124293 -0.0001344542 9.40512e-05 6.96458e-05 0.0195102952 -0.1160775292
600296400.0 -0.2943145834 0.7925303259 4.53675e-05 -6.8958e-06 0.0002580427 0.0001328526 0.0182179933 -0.1163766053
605296370.0 -0.2870636901 0.7944266883 2.219e-06 8.70257e-05 0.0003143203 -7.12019e-05 0.0165301085 -0.1165113237
610296340.0 -0.2780478908 0.7976053233 0.0001327644 9.80925e-05 0.0002759652 -0.0001794973 0.014956219 -0.1164125173
615296310.0 -0.2698631959 0.800225299 -1.47048e-05 0.000230875 -6.18713e-05 -1.44595e-05 0.0129916654 -0.1166657145
620296280.0 -0.2619437183 0.8022233326 0.0003223758 1.29597e-05 0.0001781938 4.48481e-05 0.011472885 -0.1168227436
625296250.0 -0.2545594907 0.8056431799 2.17589e-05 0.0001475714 0.0002409673 -3.02411e-05 0.0100673743 -0.1169707219
630296220.0 -0.245770015 0.8075925311 6.65646e-05 -5.6097e-05 -2.25508e-05 -7.69421e-05 0.0080992643 -0.1170642226
635296190.0 -0.2381478352 0.8099472375 0.000246141 -6.13088e-05 0.0001342015 8.6455e-06 0.0065117391 -0.1170399586
640296160.0 -0.230469128 0.8121868402 0.0001444691 -2.66669e-05 0.0002227149 -0.0001962409 0.0051279627 -0.1171852416
645296130.0 -0.2223374894 0.8150797616 0.0002664603 -2.84759e-05 0.0001021628 3.79426e-05 0.003335069 -0.1167380884
650296100.0 -0.214055337 0.8169738804 -0.0001622943 -7.4974e-06 0.0002371003 0.0001690521 0.0018487026 -0.1171697059
655296070.0 -0.2056347244 0.818947708 0.0003198157 0.0001103043 -6.62687e-05 5.48709e-05 0.0004385336 -0.1164114062
660296040.0 -0.197472443 0.8206781696 0.0001409868 -7.86177e-05 -9.61356e-05 6.90103e-05 -0.001346127 -0.1166803564
665296010.0 -0.1889070991 0.8221974695 0.0001197375 1.51352e-05 0.0002649899 -0.0001759505 -0.003094097 -0.1161482323
670295980.0 -0.1814968971 0.8242469269 0.0002230405 2.13613e-05 2.76932e-05 1.13966e-05 -0.0050908123 -0.1164989857
675295950.0 -0.1728434066 0.8260393168 0.0001028954 -0.0001050884 0.0001215458 -8.67643e-05 -0.0063265252 -0.1157255068
680295920.0 -0.16448787 0.8283199792 7.56479e-05 -8.35833e-05 0.0002822653 5.31182e-05 -0.0076750364 -0.1154219912
685295890.0 -0.1560879382 0.8300506832 0.0003072155 7.76724e-05 0.0002869301 -0.0001135575 -0.0094320677 -0.1152428874
690295860.0 -0.1481133723 0.8311305364 6.21863e-05 5.85561e-05 0.0003475018 3.6816e-06 -0.011266699 -0.114396809
695295830.0 -0.1401559084 0.8323901592 0.0002376143 -4.81755e-05 0.0001732238 0.0001479001 -0.0126569112 -0.114513768
700295800.0 -0.1308864013 0.8338740719 2.15666e-05 -5.92531e-05 0.0003035366 -0.0001060666 -0.0144238606 -0.1142998653
705295770.0 -0.1239521511 0.8351093496 0.000137962 0.0002433221 8.81912e-05 -0.0001678995 -0.01631059 -0.1131621036
710295740.0 -0.1154807478 0.8358357412 9.32264e-05 -0.0001461442 9.08606e-05 0.0001247875 -0.0182921383 -0.1131946837
715295710.0 -0.1069477187 0.8373410271 0.0001249606 -0.000292291 0.000220088 -4.50602e-05 -0.0199296303 -0.1128417288
720295680.0 -0.0984197288 0.8382590948 0.0003288667 -0.0001372385 0.0002432338 -4.42994e-05 -0.0213439061 -0.1121328084
725295650.0 -0.0898274662 0.8394441417 0.00038067 5.44802e-05 0.0001929432 -5.21787e-05 -0.0232432539 -0.1118548009
730295620.0 -0.0814755789 0.8401771645 0.0002230379 0.000145067 0.0001555651 9.91303e-05 -0.0247874975 -0.1113985191
735295590.0 -0.073391917 0.841006766 -3.98773e-05 -0.0002321183 2.63113e-05 0.0001026308 -0.0269081957 -0.1112752733
740295560.0 -0.0651113248 0.8424864423 -2.62293e-05 -0.0001917309 -9.65406e-05 6.3948e-06 -0.0279356578 -0.1105368947
745295530.0 -0.0569647302 0.8425818819 9.16253e-05 -1.8155e-06 0.000105938 0.0001668675 -0.0299026592 -0.1101200816
750295500.0 -0.0485978602 0.8425543553 0.0002269708 -4.4141e-06 0.0002897112 8.23342e-05 -0.0312691426 -0.1094314027
755295470.0 -0.0397255339 0.8425162825 0.0002707705 -9.4105e-05 3.93034e-05 4.90398e-05 -0.0329313726 -0.1093905027
760295440.0 -0.0317442234 0.8431571925 0.0001912784 -3.5224e-05 0.000308126 -4.2016e-06 -0.0346728915 -0.1086354791
765295410.0 -0.0232786024 0.8441009193 5.94185e-05 5.48773e-05 7.17789e-05 -0.0001401487 -0.0363767868 -0.1081267754
770295380.0 -0.0153195185 0.8441243886 0.0003495093 -2.39378e-05 0.0001562355 0.0001243804 -0.0383893044 -0.1073006462
775295350.0 -0.0067601407 0.8438685582 0.0001106285 -4.37873e-05 0.0003258079 3.8975e-05 -0.03937119 -0.1067619128
780295320.0 0.0017648041 0.8443276372 0.000298273 1.93461e-05 0.0003439438 -0.0002394277 -0.0407213448 -0.1065288944
785295290.0 0.0096194695 0.8428494321 7.52581e-05 -0.0002754983 0.0002405498 -9.69142e-05 -0.0421699249 -0.1058300898
790295260.0 0.0185868686 0.843628828 0.0003654702 -6.2045e-05 -2.09869e-05 -2.76767e-05 -0.0435811407 -0.1050295798
795295230.0 0.0264022506 0.8434404013 5.03446e-05 6.98103e-05 0.0001201311 -0.0001400907 -0.0450949059 -0.1042214402
800295200.0 0.0348422483 0.8430052172 0.0002582921 5.40215e-05 0.0001104617 -0.0001650517 -0.0466323474 -0.1032947663
805295170.0 0.0435833688 0.8426961248 0.0001053148 -0.0001872668 0.0001882684 -0.0003373794 -0.0481377143 -0.10276465
810295140.0 0.0514494768 0.8419341961 9.96598e-05 -9.06807e-05 0.0003465532 0.0001507102 -0.0495380161 -0.1021901742
815295110.0 0.0600760704 0.8417700978 0.0002424939 4.57261e-05 0.0001128537 1.67045e-05 -0.0510161588 -0.1010247227
820295080.0 0.0680107738 0.8411315111 6.34685e-05 -0.0001429703 0.0002015084 7.84407e-05 -0.0523272336 -0.1007808957
825295050.0 0.0771474175 0.8400848668 0.0003456049 3.81272e-05 0.0002517484 -1.28771e-05 -0.0536768468 -0.0995361039
830295020.0 0.0844442651 0.8396116109 -6.49408e-05 -0.0001620847 0.0001992821 3.66317e-05 -0.0548144066 -0.098660784
835294990.0 0.0928266656 0.8388834713 -1.73132e-05 5.10007e-05 1.22207e-05 5.15003e-05 -0.056536275 -0.0978925199
840294960.0 0.100852337 0.8380733526 8.06346e-05 -0.0001234813 0.0001274505 -0.0001076394 -0.0576436794 -0.0969855314
845294930.0 0.1096208887 0.8367993173 0.0001395798 -7.18387e-05 -6.3053e-05 -5.87109e-05 -0.0594342256 -0.0962627998
850294900.0 0.1176423989 0.8361170257 -0.0002666655 7.41689e-05 -0.0001401164 -6.9993e-06 -0.0608801553 -0.0950586384
