!Created with skrf (http://scikit-rf.org).
# Hz S RI R 50.0 
!freq ReS11 ImS11 ReS21 ImS21 ReS12 ImS12 ReS22 ImS22
300000.0 -0.2305053925 -0.1369726257 0.464603875 0.0903235327 0.4663651639 0.0890337556 -0.2346377339 -0.136388756
5299970.0 -0.2418318351 0.0049335154 0.4749670905 0.0061442275 0.4756808393 0.0056072484 -0.2442870046 0.0047680179
10299940.0 -0.2385709532 0.0187500982 0.4771187522 0.0067905904 0.4772061002 0.0071647158 -0.2406560396 0.0171179055
15299910.0 -0.2337617333 0.0287612585 0.4807878518 0.0082450119 0.4806900639 0.0081089453 -0.2364420528 0.0263661252
20299880.0 -0.2284746087 0.0368681142 0.4851462928 0.0080128814 0.4856631701 0.0083233395 -0.2318138387 0.0338142708
25299850.0 -0.2225066484 0.0438190739 0.4905418353 0.0074959292 0.4911099097 0.0075210665 -0.2268514235 0.0401120719
30299820.0 -0.2171587553 0.0486949775 0.4959667108 0.005031799 0.4956711562 0.0049143792 -0.2211911784 0.0448656667
35299790.0 -0.2111487091 0.0531773156 0.5007186125 0.0023045821 0.5015529662 0.0018983558 -0.2167466964 0.0490503295
40299760.0 -0.2060444199 0.0559546825 0.5062780352 -0.0019677482 0.5066141796 -0.002028539 -0.2115760402 0.0520356492
45299730.0 -0.2011352433 0.0587615303 0.5112202692 -0.0066265548 0.5112870242 -0.0070289307 -0.2069067891 0.0546368266
50299700.0 -0.1960430213 0.0608910268 0.515150867 -0.0126093803 0.5151691684 -0.0127040909 -0.2023582651 0.0570556813
55299670.0 -0.1919489327 0.062679847 0.5190860054 -0.0179956826 0.5187631493 -0.0182831932 -0.1990320559 0.0584161675
60299640.0 -0.1876374219 0.064020305 0.5221731024 -0.0246927221 0.5221873952 -0.0245996662 -0.1950108171 0.0597222023
65299610.0 -0.1840559246 0.0649868195 0.5253131373 -0.0307078366 0.5254768077 -0.0310319356 -0.1916726617 0.0607427935
70299580.0 -0.1806381492 0.0657678967 0.5275272916 -0.0374300865 0.5275384636 -0.0376582165 -0.1889189819 0.0618868004
75299550.0 -0.1776671183 0.0666971191 0.5293068635 -0.0446174437 0.5296252609 -0.0446493488 -0.1859095362 0.0627945811
80299520.0 -0.175209138 0.0676474628 0.5311153101 -0.0517808579 0.5317921278 -0.0512824791 -0.1835668225 0.063955655
85299490.0 -0.1726932886 0.06829771 0.5328143364 -0.0584586037 0.5328267294 -0.0578833976 -0.1812583251 0.0638676424
90299460.0 -0.1703669402 0.069178979 0.5335933548 -0.0649744337 0.5334794766 -0.0648637608 -0.1790523275 0.0648555689
95299430.0 -0.1680694347 0.0696442567 0.5344972899 -0.0722041629 0.5348531289 -0.0724937474 -0.177236663 0.0656972478
100299400.0 -0.1656907051 0.0700272303 0.5346416439 -0.0789402944 0.5349917337 -0.0789462349 -0.1756540298 0.0665505206
105299370.0 -0.1639436834 0.0708720347 0.5350433788 -0.0858558096 0.5353077726 -0.0856516436 -0.1737273364 0.0666724611
110299340.0 -0.16212939 0.0715305367 0.5351210886 -0.0921327998 0.5356781433 -0.0922339487 -0.1726184425 0.0676057353
115299310.0 -0.1608459148 0.0724608775 0.5352852029 -0.0991752009 0.5352517892 -0.0991328991 -0.1712406476 0.0683169743
120299280.0 -0.1594509673 0.0732273109 0.5352070525 -0.1064222656 0.5350180001 -0.1063314489 -0.1699935096 0.0686214708
125299250.0 -0.1578562503 0.0740087423 0.5345808225 -0.1131871751 0.5348692258 -0.1127171265 -0.1686208778 0.0696852476
130299220.0 -0.1564540401 0.0745163397 0.5344467007 -0.1197900981 0.5339690076 -0.1201495554 -0.1673007554 0.0705666973
135299190.0 -0.1553076881 0.0757300987 0.5335839056 -0.125839061 0.5338288439 -0.1267328431 -0.1662935522 0.0711053923
140299160.0 -0.1542717227 0.07680832 0.5329593145 -0.1330901888 0.5327603608 -0.1327070561 -0.16605865 0.0718070198
145299130.0 -0.1533651254 0.0777514813 0.5316435014 -0.139383786 0.5318038495 -0.1393322863 -0.164582648 0.0728169614
150299100.0 -0.1520928389 0.0787979474 0.530512804 -0.146220756 0.5307356048 -0.1457978628 -0.1639032109 0.0739542461
155299070.0 -0.1509390357 0.0798817623 0.5288664 -0.1527046036 0.5296299493 -0.1525112574 -0.1630429285 0.0748869604
160299040.0 -0.1499253513 0.0812031986 0.5280443713 -0.1590979608 0.5281354942 -0.1593369547 -0.162221914 0.0760359046
165299010.0 -0.1488546627 0.0821604348 0.5267487646 -0.1656333077 0.5264475526 -0.1654533509 -0.1613089156 0.076740833
170298980.0 -0.1479944141 0.0833645127 0.5246215257 -0.1715033709 0.5250065616 -0.1715206522 -0.1608176217 0.0777360813
175298950.0 -0.1467760014 0.0845835798 0.5233902879 -0.1780370494 0.5238108544 -0.1785616589 -0.1600426547 0.0793840122
180298920.0 -0.1460343609 0.0860376086 0.5215992651 -0.184446716 0.5219766243 -0.184708577 -0.1593168778 0.0799914128
185298890.0 -0.1451972628 0.0872075278 0.5203679386 -0.1906351454 0.5197201305 -0.1905360465 -0.1584735355 0.081188149
190298860.0 -0.1435819427 0.0886667022 0.5174446586 -0.1967112335 0.518086096 -0.1967039312 -0.1576003424 0.082373643
195298830.0 -0.1430942464 0.0900748156 0.5162433378 -0.2025749932 0.5161358205 -0.203005249 -0.1569355111 0.0835891391
200298800.0 -0.1416482231 0.0909487893 0.5139696919 -0.2093151979 0.5142464891 -0.2091873781 -0.1560360683 0.0847321813
205298770.0 -0.1414034743 0.0924897492 0.5113936174 -0.2148474705 0.5117542819 -0.214469921 -0.1553771043 0.0859152204
210298740.0 -0.1405321341 0.0941670287 0.5099156083 -0.2208018406 0.5093989498 -0.22104071 -0.1550214761 0.0872082932
215298710.0 -0.1391035383 0.0952581525 0.5067743182 -0.2267290211 0.5072217353 -0.22706547 -0.1539327985 0.0885805884
220298680.0 -0.1380828325 0.0969960499 0.5043695107 -0.2327971238 0.504447454 -0.2329523972 -0.1529866046 0.0896419763
225298650.0 -0.1372293485 0.0982570316 0.5021279535 -0.238502867 0.5023054019 -0.238206525 -0.1525154003 0.0907720677
230298620.0 -0.1360075442 0.0998507854 0.4993785387 -0.2443831107 0.4998611019 -0.2445485898 -0.1517846479 0.0918588768
235298590.0 -0.1355814369 0.101212153 0.4974781321 -0.2508870546 0.4971865355 -0.2500035764 -0.1510787969 0.0934086968
240298560.0 -0.1343292892 0.1028864042 0.4945236559 -0.2558161215 0.4946818714 -0.25578413 -0.1505058086 0.0945380031
245298530.0 -0.1333960065 0.1040054401 0.4915180777 -0.2616203042 0.4917039999 -0.2615532073 -0.1494773248 0.0960464133
250298500.0 -0.1324985922 0.1055783698 0.489021646 -0.2665538758 0.4889291239 -0.267095081 -0.1487465643 0.0974870618
255298470.0 -0.1311713192 0.1069603331 0.4864899404 -0.2725762075 0.4864464901 -0.2731434822 -0.1476970928 0.0989817852
260298440.0 -0.1301317094 0.1082052184 0.482812945 -0.277482068 0.4830340214 -0.2779233569 -0.147301992 0.099963256
265298410.0 -0.1291982784 0.109911585 0.4799267794 -0.2840593349 0.4797971481 -0.2838384282 -0.1457505338 0.101189127
270298380.0 -0.1282796765 0.1114986236 0.4772739471 -0.2893495693 0.4770196161 -0.2893927922 -0.1450935409 0.1029014526
275298350.0 -0.1271055041 0.1129623798 0.4732368911 -0.2946668659 0.4736449005 -0.294573572 -0.1444241229 0.1046374086
280298320.0 -0.1263736136 0.1144017338 0.470710654 -0.2992767408 0.4708302446 -0.2998367262 -0.1431904191 0.105822756
285298290.0 -0.1248933441 0.1158932213 0.4671146074 -0.3049358198 0.4677359669 -0.304924895 -0.1424908765 0.1068956971
290298260.0 -0.1236871182 0.1172544457 0.4645400949 -0.3108245654 0.4642512994 -0.3107274078 -0.1414014367 0.1084103809
295298230.0 -0.1226826622 0.1184361904 0.460752596 -0.31639918 0.4611100969 -0.3161777635 -0.1406771283 0.1095445537
300298200.0 -0.121248899 0.1200115984 0.457392897 -0.3209631835 0.4576801243 -0.320921489 -0.1396187248 0.1108053974
305298170.0 -0.1200166063 0.1214086121 0.454086148 -0.3265089619 0.4541087811 -0.3262570027 -0.1383288593 0.1117532983
310298140.0 -0.1185503597 0.122557304 0.4504073812 -0.3313182348 0.45067181 -0.3313026739 -0.1374625788 0.1131214
315298110.0 -0.1175135289 0.123638556 0.4469757463 -0.3373002321 0.4467584249 -0.3369145952 -0.1362113901 0.1142188963
320298080.0 -0.1162825784 0.1251034731 0.4421808116 -0.3420276738 0.4435123691 -0.3421809594 -0.1356525752 0.1157366755
325298050.0 -0.1156364217 0.1258977376 0.4393516833 -0.3464240594 0.4396512318 -0.3469244949 -0.134178973 0.1169414881
330298020.0 -0.1148287637 0.1275946457 0.4350760117 -0.3519176279 0.4355681442 -0.3517557605 -0.1336976919 0.1178576709
335297990.0 -0.1135083517 0.1290204942 0.4315188744 -0.3565070581 0.4316435719 -0.356573778 -0.1329661619 0.1192331382
340297960.0 -0.1122788869 0.1303683534 0.4268045973 -0.3614830356 0.4273398716 -0.3612821484 -0.1320804256 0.1208878845
345297930.0 -0.1114406325 0.1314900502 0.4233412516 -0.3661234608 0.4230961642 -0.3663835558 -0.1308496801 0.1221134562
350297900.0 -0.1101993263 0.1327613623 0.4194995614 -0.3704938933 0.419400797 -0.3709392157 -0.1301628542 0.1234146096
355297870.0 -0.1089623695 0.1343428144 0.4149886088 -0.3752043015 0.4151261506 -0.3748273302 -0.1285858383 0.1248750603
360297840.0 -0.1075858701 0.1358400332 0.4105459168 -0.3798085043 0.4106975559 -0.3801352331 -0.1276795167 0.1261249053
365297810.0 -0.1062561344 0.1372554421 0.4069717614 -0.3843445578 0.4067074126 -0.3842099141 -0.1270277767 0.1274015063
370297780.0 -0.1047055069 0.1383239817 0.4017727445 -0.3888733456 0.4024782348 -0.3887865661 -0.1257456187 0.1288717883
375297750.0 -0.1033874017 0.1398922557 0.3981632156 -0.3933852718 0.3984604194 -0.3931071569 -0.1242695152 0.1299440893
380297720.0 -0.1019921679 0.1411857654 0.3943105952 -0.3979270835 0.3938188644 -0.3977714614 -0.1232631052 0.1318510503
385297690.0 -0.100776068 0.1421229981 0.389038256 -0.4017569377 0.3894401389 -0.4021843278 -0.1220115936 0.133156771
390297660.0 -0.0990781751 0.1433320714 0.384863079 -0.4054866869 0.3850920426 -0.4062078875 -0.1206531878 0.1341579197
395297630.0 -0.0973706453 0.1448443586 0.3807465483 -0.4103182267 0.3807149264 -0.4100660031 -0.1196566273 0.1354714291
400297600.0 -0.0963124871 0.145710995 0.3762634345 -0.4142624703 0.3765187353 -0.4142624194 -0.118184443 0.1368762322
405297570.0 -0.0951072559 0.1465706136 0.3716974015 -0.4179566796 0.3718530065 -0.418706601 -0.1164905823 0.13846866
410297540.0 -0.0934188533 0.1481692109 0.3669658491 -0.4227598291 0.367197869 -0.4224881934 -0.1154673775 0.1395476273
415297510.0 -0.0919279586 0.1492907522 0.3623712425 -0.4265309723 0.3626991005 -0.4267991767 -0.1138087593 0.1410145455
420297480.0 -0.0904088739 0.150122348 0.3575133077 -0.430219208 0.3577787489 -0.43039392 -0.112400253 0.1423769026
425297450.0 -0.0883252453 0.1511942948 0.3528968605 -0.4340839802 0.3526964685 -0.4345097267 -0.1114370284 0.1430356062
430297420.0 -0.0868790613 0.1524635736 0.3487144205 -0.438185802 0.348882117 -0.4378318972 -0.1097578729 0.144693107
435297390.0 -0.0853710447 0.153286107 0.3432897808 -0.4423114122 0.3434489652 -0.4420306613 -0.1088487933 0.1462131968
440297360.0 -0.0834850237 0.1544781158 0.3381893716 -0.4459682066 0.3383423793 -0.446021687 -0.1070806639 0.1472733593
445297330.0 -0.0818518103 0.1551553142 0.3338605725 -0.4491323581 0.3341103455 -0.4493940423 -0.1058731975 0.14823603
450297300.0 -0.0801036877 0.1562633684 0.3284394574 -0.4525858323 0.3288914458 -0.4530207146 -0.1041737578 0.1496692704
455297270.0 -0.0787698892 0.1572388057 0.3242496164 -0.4566666394 0.324015958 -0.4566266455 -0.1027014049 0.1507892715
460297240.0 -0.0763107871 0.1582800081 0.3189323397 -0.4606114955 0.3188718626 -0.4601644689 -0.1015469572 0.1518857845
465297210.0 -0.0750591836 0.1591373408 0.3138183493 -0.4634852978 0.313538426 -0.4636747936 -0.0997806038 0.1531056205
470297180.0 -0.0733791326 0.1602360384 0.3090046689 -0.4669644364 0.3086898276 -0.4669232136 -0.0983711293 0.1540269803
475297150.0 -0.071750126 0.1610142923 0.3035150531 -0.4703133279 0.3034891077 -0.4702706834 -0.0967099568 0.1548546675
480297120.0 -0.0693229531 0.1623113993 0.298139435 -0.4731389672 0.2987255949 -0.4738892244 -0.0958664169 0.1562226649
485297090.0 -0.0677880429 0.1625059119 0.293150933 -0.476892596 0.2932253239 -0.4765649706 -0.0939953929 0.1571321303
490297060.0 -0.0653030242 0.1637645848 0.2873810843 -0.4799728885 0.2880827129 -0.4802993309 -0.0923537735 0.1583698788
495297030.0 -0.0639993693 0.1644304982 0.2831737836 -0.483163945 0.282875245 -0.4831310536 -0.0904139712 0.159121893
500297000.0 -0.0622394505 0.1656191172 0.2776078087 -0.4857449719 0.2773351556 -0.4862334266 -0.0891533847 0.1605698625
505296970.0 -0.0599267511 0.1663005037 0.2723636813 -0.4893418614 0.2721819966 -0.4890046155 -0.0873252186 0.1612994169
510296940.0 -0.0580984147 0.1670227909 0.2667895629 -0.4925484512 0.2671126417 -0.4924082626 -0.085814851 0.1625741121
515296910.0 -0.0564562632 0.1680091993 0.2610644676 -0.4945931685 0.2609673841 -0.4947062967 -0.0838681081 0.1630028038
520296880.0 -0.0542663776 0.1686116759 0.2560390584 -0.497556552 0.2561404784 -0.4974732926 -0.0823147468 0.1644397488
525296850.0 -0.0524145767 0.169142809 0.2505352556 -0.5003270315 0.2500162287 -0.5001759424 -0.0808884164 0.1648142981
530296820.0 -0.0506561398 0.1698444449 0.2447912487 -0.503150161 0.2447121722 -0.5028298261 -0.0791840539 0.1657369262
535296790.0 -0.0479272929 0.1706406903 0.2392996236 -0.5054286155 0.2395543932 -0.5059276839 -0.0774767057 0.1673979318
540296760.0 -0.0463315027 0.1715963431 0.2338073105 -0.5081948852 0.2335582494 -0.5077840157 -0.0757930639 0.1676051638
545296730.0 -0.0447961848 0.1723344693 0.2283347891 -0.5104157442 0.228277415 -0.5103436778 -0.074026165 0.168680147
550296700.0 -0.0419973529 0.1729739151 0.2229767762 -0.5129421162 0.2224963351 -0.5133337381 -0.0722787752 0.1691663324
555296670.0 -0.0405376137 0.1733549682 0.2171824617 -0.5159617422 0.2170684721 -0.5154476387 -0.0708541221 0.1698518478
560296640.0 -0.0379172485 0.1737466401 0.2112256324 -0.517612897 0.211799245 -0.5177609225 -0.0691530862 0.171097269
565296610.0 -0.036511187 0.1746030795 0.2063974433 -0.5199041742 0.206051966 -0.5195174969 -0.067278376 0.1719361688
570296580.0 -0.0344752591 0.1755026133 0.2003180188 -0.5221746177 0.1999521874 -0.5220644875 -0.0656569777 0.172706405
575296550.0 -0.032064679 0.1755770587 0.195220637 -0.5242889887 0.1944813167 -0.5244823755 -0.0638056412 0.1733368857
580296520.0 -0.0300486554 0.1764369995 0.1890409397 -0.5262331967 0.1887771331 -0.5265904819 -0.0626424415 0.1739512106
585296490.0 -0.0280122575 0.1768091462 0.1835406453 -0.5280253889 0.1832342462 -0.5281079836 -0.0601963248 0.1747156454
590296460.0 -0.0255294817 0.1774710862 0.177533523 -0.5307098288 0.1776584753 -0.5304344178 -0.0589222907 0.1756061106
595296430.0 -0.0237794529 0.1778071433 0.1714796405 -0.5320779864 0.171061046 -0.5321137786 -0.0570560003 0.1761803508
600296400.0 -0.021501725 0.1785222613 0.165452376 -0.533559476 0.165495613 -0.5339525849 -0.0553300413 0.17691635
605296370.0 -0.0199060687 0.1789356982 0.1601132682 -0.5353334039 0.1598715422 -0.5357562652 -0.0538512007 0.1774443632
610296340.0 -0.017346919 0.1797770793 0.1543684165 -0.5368905991 0.1544531388 -0.5367999061 -0.0520283577 0.1782387737
615296310.0 -0.0152659853 0.1799995744 0.1483847423 -0.5387284831 0.1477449727 -0.5387359204 -0.0500080447 0.1791760247
620296280.0 -0.0133414622 0.1806554804 0.1423221137 -0.5402352744 0.1422382674 -0.5402330537 -0.0485927731 0.1798133363
625296250.0 -0.0115849951 0.1806549355 0.1366926398 -0.5420407386 0.1366934292 -0.5420873453 -0.0471432649 0.1799847668
630296220.0 -0.0089848726 0.1812971513 0.1303827617 -0.5435607318 0.1306873631 -0.5430184446 -0.0447367469 0.1807487686
635296190.0 -0.0073336935 0.1815921324 0.1251565279 -0.5445230143 0.1249433277 -0.5443469497 -0.0431068489 0.1811473615
640296160.0 -0.0053233754 0.1819280002 0.1188889741 -0.5460856469 0.1188996336 -0.5459816249 -0.0415267599 0.1815833278
645296130.0 -0.0028383616 0.1824748593 0.1130222603 -0.5472277384 0.1130356411 -0.5468382637 -0.0400280114 0.1819749337
650296100.0 -0.0011274169 0.1825355688 0.1073735753 -0.5482812165 0.1066725376 -0.5486590869 -0.0373157199 0.1826930068
655296070.0 0.0008994823 0.1830567696 0.1011459652 -0.5495769868 0.1012816157 -0.5492484407 -0.0365033661 0.183442147
660296040.0 0.0030574575 0.183193814 0.0954786649 -0.5504324678 0.0949844329 -0.5503722561 -0.0341993346 0.1836237592
665296010.0 0.004975724 0.1836716991 0.0891629431 -0.5511957571 0.0888778393 -0.5511127964 -0.0326186246 0.1841357758
670295980.0 0.0072052304 0.1837166914 0.0834203231 -0.5520881008 0.0830261007 -0.5519957079 -0.0312108107 0.1843753764
675295950.0 0.0092921064 0.1839339475 0.0770168218 -0.5527390426 0.0774136912 -0.5528146653 -0.0291714292 0.185320812
680295920.0 0.0111678072 0.1841741564 0.0716631818 -0.5534912025 0.0713421209 -0.5536672359 -0.0268766117 0.1852772157
685295890.0 0.013499747 0.1843158563 0.0651394474 -0.5547500009 0.0654026055 -0.5547891049 -0.0251812647 0.1861583693
690295860.0 0.0151831047 0.1844911741 0.0594864339 -0.5551050577 0.0590031653 -0.5550472281 -0.0235967795 0.1864541721
695295830.0 0.0172302459 0.1846866876 0.053897632 -0.5560417056 0.053273092 -0.5556758324 -0.0217324812 0.1868656896
700295800.0 0.0195899763 0.1846116516 0.0474862987 -0.5562731468 0.0478180308 -0.5561050565 -0.0198009293 0.1868933337
705295770.0 0.0213019397 0.1846726314 0.0414969467 -0.5571156534 0.0412079717 -0.5567105592 -0.0181767469 0.1877019481
710295740.0 0.0233561022 0.184651307 0.0357693948 -0.556971017 0.0351155845 -0.5574369694 -0.01631544 0.1880311101
715295710.0 0.0253904842 0.1847428202 0.0297646143 -0.5574179696 0.0294088377 -0.557741995 -0.0146116541 0.187920181
720295680.0 0.0278670375 0.1846080162 0.023146081 -0.557485164 0.0234310751 -0.5582389224 -0.0126899453 0.188131166
725295650.0 0.0293306226 0.1849686071 0.0178222399 -0.5577649769 0.0175671952 -0.5580014435 -0.0110952093 0.1889719577
730295620.0 0.0306773291 0.1847340484 0.0120506853 -0.5576166395 0.0115241055 -0.5575068213 -0.0092519663 0.1894411376
735295590.0 0.0331134316 0.1848316051 0.0054311832 -0.5583448286 0.0053356094 -0.5582085028 -0.0074784392 0.1891780032
740295560.0 0.0347450074 0.1843360658 -0.0003090284 -0.5580140618 2.3168e-05 -0.558189989 -0.0058003057 0.1896658772
745295530.0 0.0370398492 0.1845260219 -0.0062763631 -0.5574710877 -0.0054754497 -0.5579502783 -0.0044593934 0.1897816982
750295500.0 0.0387847405 0.1842228621 -0.0118152573 -0.5575503278 -0.0124603884 -0.5578125322 -0.0020480704 0.1901080326
755295470.0 0.0403433233 0.1840173156 -0.0177213466 -0.5578759349 -0.0185291364 -0.5579325196 -7.24603e-05 0.1907364619
760295440.0 0.042631315 0.1843893849 -0.0247451203 -0.5578699916 -0.0244267741 -0.557297564 0.0017561791 0.1896446309
765295410.0 0.044969451 0.18343435 -0.0303718283 -0.5568841055 -0.0298327374 -0.5571502935 0.003833571 0.1901973922
770295380.0 0.0465931225 0.183491601 -0.0358563678 -0.5563480975 -0.0362048753 -0.557227973 0.0051677917 0.1907702676
775295350.0 0.0483977373 0.1829019209 -0.0420870876 -0.5559960996 -0.0421393183 -0.5562020572 0.0073719322 0.1909399299
780295320.0 0.0505749433 0.1831484652 -0.0479086651 -0.5555446987 -0.0481939604 -0.5558390876 0.0094065179 0.1906626878
785295290.0 0.0522667447 0.1824112601 -0.053901579 -0.554981223 -0.0542709865 -0.5553260557 0.0104171438 0.1911276836
790295260.0 0.0541680257 0.1817353069 -0.060154105 -0.5546130125 -0.0593917169 -0.5548621265 0.0125878293 0.1912376158
795295230.0 0.0560310845 0.1817703119 -0.0658123153 -0.5542203349 -0.0657714271 -0.553988172 0.0146622956 0.1906872165
800295200.0 0.0576812112 0.1814759536 -0.0713321397 -0.5527267841 -0.0719557129 -0.5535739751 0.0159810261 0.1910302956
805295170.0 0.0596694251 0.1809651043 -0.0774785106 -0.5522396653 -0.0777299195 -0.5525313489 0.0185568219 0.1911866418
810295140.0 0.0619120239 0.1805847228 -0.0833564995 -0.5517293253 -0.0837043617 -0.5513734141 0.0200607244 0.1909478361
815295110.0 0.0634982774 0.1799587509 -0.0893588405 -0.5502901349 -0.089298797 -0.5506923162 0.0219775305 0.1911288529
820295080.0 0.0654328847 0.1796435299 -0.0947137043 -0.5492099294 -0.0952102328 -0.5498604834 0.0231893724 0.1915905429
825295050.0 0.0670972973 0.1788424617 -0.1012155382 -0.5486320694 -0.1010863412 -0.5486150656 0.0261356779 0.1912397182
830295020.0 0.069087006 0.1781645533 -0.106850441 -0.5469972867 -0.1070277561 -0.5473406428 0.0275310916 0.1905789375
