!Created with skrf (http://scikit-rf.org).
# Hz S RI R 50.0 
!freq ReS11 ImS11 ReS21 ImS21 ReS12 ImS12 ReS22 ImS22
300000.0 -0.2370262157 -0.1198428123 0.4671774852 0.0791996156 0.4669260064 0.0799001442 -0.2366711231 -0.1265947064
5299970.0 -0.2451218354 0.0055554938 0.4738863267 0.0055931789 0.4738772826 0.0056237659 -0.2438297368 0.0051578795
10299940.0 -0.2417886932 0.0186224639 0.4763118245 0.0067624427 0.4756758831 0.0071979476 -0.2400409921 0.0180501588
15299910.0 -0.2371120223 0.0284649241 0.4797815466 0.0083670877 0.4797937521 0.0085315824 -0.2363259425 0.0274246162
20299880.0 -0.2316674823 0.0364480936 0.4838293936 0.00842203 0.4845443317 0.0082163643 -0.2311735742 0.0353086276
25299850.0 -0.2256285556 0.0429070065 0.4897998786 0.0082919693 0.4898219503 0.0080298007 -0.2261825285 0.0418632524
30299820.0 -0.2200827313 0.0478904452 0.4949991216 0.0055300041 0.4952434495 0.0054859778 -0.2208832395 0.0469555202
35299790.0 -0.2143732135 0.0519141936 0.5002822478 0.0023817794 0.500347243 0.0023956017 -0.2160304649 0.0514163878
40299760.0 -0.209209911 0.054810632 0.5053243994 -0.0015140735 0.505860227 -0.0015451166 -0.210801037 0.0548391305
45299730.0 -0.2043838334 0.0568970425 0.5100431013 -0.0059761611 0.5106713854 -0.0063202739 -0.2056000447 0.0577124505
50299700.0 -0.1991125616 0.058953126 0.5145661923 -0.0117973274 0.514764539 -0.0119247987 -0.2011242889 0.0602724954
55299670.0 -0.1949291967 0.0603753226 0.5183886852 -0.0176223644 0.51802632 -0.0176814808 -0.1977493874 0.0618799397
60299640.0 -0.190776947 0.0619572906 0.521763074 -0.0241303976 0.5221027964 -0.0241535144 -0.193894654 0.0633300947
65299610.0 -0.1873627629 0.0627155331 0.5249983272 -0.0303970561 0.5248686001 -0.0304032683 -0.1900689469 0.0649155554
70299580.0 -0.1842018475 0.0629795333 0.5274087086 -0.0363163726 0.5271537671 -0.0368491571 -0.187184189 0.0659761565
75299550.0 -0.1809941624 0.0637152393 0.5286916691 -0.0438552291 0.5293801075 -0.0441534263 -0.1841400406 0.0671098042
80299520.0 -0.1783817594 0.0644084545 0.5310035402 -0.0507021421 0.5311816732 -0.0506531096 -0.181602523 0.0679395868
85299490.0 -0.1757879051 0.0648540341 0.5324162145 -0.0575704922 0.5323986487 -0.057502928 -0.1794474351 0.0685897578
90299460.0 -0.1733665748 0.0651112433 0.5332434251 -0.0648322281 0.5332222079 -0.0642822919 -0.1769702042 0.0698872926
95299430.0 -0.1715766466 0.0656364458 0.5343047124 -0.0713787453 0.5344806545 -0.0713068381 -0.1750267042 0.0705151811
100299400.0 -0.1695597748 0.0660157781 0.5347705867 -0.0782321008 0.534594598 -0.078363235 -0.1732581413 0.0719006216
105299370.0 -0.1675703949 0.0665186143 0.5352301761 -0.0852525967 0.5352635692 -0.0849565545 -0.1712354447 0.0721518202
110299340.0 -0.1658681651 0.0666665732 0.5350547994 -0.0917220914 0.5356405181 -0.09184646 -0.1698213875 0.0732097224
115299310.0 -0.1647126901 0.0676446496 0.535441477 -0.0984085654 0.5352592151 -0.0988114931 -0.1684610294 0.0740078477
120299280.0 -0.1634112104 0.068300603 0.5353103446 -0.105981882 0.5350614077 -0.1060752989 -0.1668379505 0.0746803025
125299250.0 -0.1620296685 0.0686364873 0.5347603839 -0.1124791154 0.5349796171 -0.1124319612 -0.1652111838 0.0759727777
130299220.0 -0.1605355672 0.0691586411 0.5341954937 -0.1193603481 0.5342181701 -0.1196332962 -0.1640844026 0.0771058386
135299190.0 -0.1595055544 0.0701839555 0.5333174731 -0.1258731221 0.5339036203 -0.1260843601 -0.163031953 0.0777605312
140299160.0 -0.1586961747 0.0708920747 0.5332002865 -0.1323764396 0.5327035163 -0.1323811332 -0.1623057134 0.0787895625
145299130.0 -0.1579076752 0.0717937646 0.5314339201 -0.1387137248 0.5318379816 -0.1392123177 -0.1607662776 0.0799456526
150299100.0 -0.1568737257 0.0723415691 0.5306683275 -0.1455004789 0.5305033757 -0.1458558056 -0.1602651126 0.0813639986
155299070.0 -0.1555316941 0.0733608199 0.5290215336 -0.1518566664 0.5293925301 -0.152614764 -0.1587695951 0.0822995362
160299040.0 -0.1548466195 0.0745071889 0.5279449926 -0.1587381188 0.528158364 -0.1588765151 -0.1580510662 0.0833747178
165299010.0 -0.1539534769 0.0753821814 0.5268397394 -0.1649501866 0.5265587916 -0.1653593424 -0.1566482096 0.0847947147
170298980.0 -0.1531252616 0.0763077851 0.5246737762 -0.1714210771 0.5250847965 -0.1714099173 -0.1563117621 0.0858391571
175298950.0 -0.1522614856 0.0771772686 0.5236303617 -0.177239339 0.5237513628 -0.1782646337 -0.1551596634 0.0871550353
180298920.0 -0.1519076288 0.0785626888 0.5218846275 -0.1843686855 0.5216293987 -0.1844043188 -0.1538008097 0.0882287833
185298890.0 -0.1507145821 0.0793542776 0.5204132878 -0.1902797771 0.5199968406 -0.1903112546 -0.1530341412 0.0897182297
190298860.0 -0.1497309974 0.0809377898 0.5176506726 -0.1968343151 0.5184185047 -0.1962933116 -0.1524175398 0.0909252687
195298830.0 -0.1492191903 0.0818392546 0.5163364178 -0.2026989998 0.5160925848 -0.2025963391 -0.1514570103 0.0923490563
200298800.0 -0.148126313 0.0827900718 0.5140687725 -0.2091321496 0.5140659255 -0.2089735813 -0.150105429 0.0935987673
205298770.0 -0.1479133904 0.0841096796 0.5115957237 -0.2149265969 0.511827823 -0.2145486668 -0.1492862466 0.0949452672
210298740.0 -0.1469671391 0.0853377567 0.5096713866 -0.2206785776 0.5090549883 -0.2210183839 -0.1486580007 0.0963383107
215298710.0 -0.1460428278 0.0868245884 0.506620138 -0.2266468216 0.5073458915 -0.2268199318 -0.1474372139 0.0976478685
220298680.0 -0.1450671281 0.087839988 0.5042037423 -0.2326452025 0.5044616486 -0.2327737019 -0.1464855411 0.0990630545
225298650.0 -0.1445266346 0.0891827497 0.5018010235 -0.2383204224 0.5022439423 -0.2382845347 -0.1454460198 0.1003991753
230298620.0 -0.1437425173 0.0905169566 0.4997571369 -0.2441529397 0.5000558738 -0.2446732129 -0.1446429749 0.1017414222
235298590.0 -0.1432544094 0.0917500272 0.4973989451 -0.2506055681 0.497420811 -0.2500190842 -0.1436227956 0.103356819
240298560.0 -0.1422702943 0.0932306959 0.4941598431 -0.2556503644 0.4945562287 -0.2557794434 -0.1425455927 0.104641785
245298530.0 -0.1417240213 0.0942224023 0.4917146127 -0.2618254885 0.4916370875 -0.2614389648 -0.1415830185 0.1064360674
250298500.0 -0.1411062327 0.0956822338 0.489315778 -0.2670029742 0.488669202 -0.2670918506 -0.1404572019 0.1077972975
255298470.0 -0.139663203 0.09738872 0.4859548251 -0.272540115 0.4863663011 -0.2728478695 -0.1395132731 0.1093101257
260298440.0 -0.1390586771 0.0982611536 0.4831517707 -0.2778873682 0.4829232455 -0.2782020979 -0.1385164904 0.1106253584
265298410.0 -0.1386713633 0.0997947267 0.4798799155 -0.2839481028 0.4798467814 -0.2839219247 -0.1367707024 0.1117882554
270298380.0 -0.137661177 0.1005618429 0.4765632666 -0.2892011772 0.4770762866 -0.2891992544 -0.1357831553 0.1135731937
275298350.0 -0.1368863808 0.1026134824 0.4733633337 -0.2942352998 0.4736641131 -0.2945855234 -0.13487993 0.1150956695
280298320.0 -0.1360886859 0.1037016191 0.470641886 -0.2995235884 0.4711399455 -0.2997899506 -0.1334858283 0.1163306769
285298290.0 -0.1350628874 0.1051207785 0.4670920426 -0.3049346406 0.467517704 -0.3049705952 -0.1329441111 0.1178540321
290298260.0 -0.1341167561 0.1064517722 0.4645076226 -0.3104664619 0.4642620022 -0.3105611588 -0.1314028958 0.1192590899
295298230.0 -0.1334551132 0.1073217463 0.4607935839 -0.3156911289 0.4609778152 -0.3161712438 -0.1300573891 0.1206434442
300298200.0 -0.1322931729 0.1091974313 0.4573152922 -0.3214077966 0.4576641727 -0.3207437243 -0.1287605005 0.1220205505
305298170.0 -0.131567085 0.1099344121 0.4538825749 -0.3261179195 0.4541574682 -0.3265767262 -0.1274538448 0.12300707
310298140.0 -0.1302081353 0.1113141368 0.4503595151 -0.3312931705 0.4504272458 -0.3313574957 -0.1258429261 0.1244189145
315298110.0 -0.1296238838 0.1123609387 0.4467673039 -0.336960229 0.4469497506 -0.3371917511 -0.1248292023 0.1261749366
320298080.0 -0.1286842103 0.1136741178 0.442425979 -0.342058431 0.4435236587 -0.3422943136 -0.1237310696 0.1272299536
325298050.0 -0.1281491716 0.1144872441 0.4387379022 -0.3465576105 0.4393735627 -0.3468812483 -0.1221499582 0.1283375926
330298020.0 -0.127606779 0.1162321315 0.4347488792 -0.3521569853 0.4354874542 -0.3520110183 -0.1213200604 0.1299415172
335297990.0 -0.1264391063 0.1173112803 0.4309667172 -0.3567246662 0.431439892 -0.3566723077 -0.1200340456 0.1310921889
340297960.0 -0.1257346338 0.1184680456 0.426656311 -0.3614026573 0.4268497369 -0.3619300094 -0.11870516 0.1330173608
345297930.0 -0.125089099 0.1200293181 0.4228909545 -0.3663934636 0.4230203143 -0.3665559128 -0.1172938244 0.1340441831
350297900.0 -0.1239812275 0.1213094777 0.4190587187 -0.3706271194 0.4192853666 -0.3709702218 -0.1161442833 0.1353308442
355297870.0 -0.123114802 0.1224141692 0.4151909546 -0.3750509573 0.4148025915 -0.3750652509 -0.1146345808 0.1367869298
360297840.0 -0.1220199544 0.1239611133 0.4106152556 -0.3799199339 0.4108131835 -0.3804961976 -0.113209616 0.1382887715
365297810.0 -0.121345531 0.1252183266 0.4064098669 -0.3843382043 0.4064123464 -0.3843710686 -0.1120826155 0.1394430744
370297780.0 -0.1199887326 0.1266053601 0.4018269824 -0.3888953537 0.402141614 -0.3889929644 -0.1105658714 0.1409366862
375297750.0 -0.1190893005 0.1280055773 0.3981127537 -0.3933184014 0.3981514668 -0.3932335671 -0.1090548227 0.1420392265
380297720.0 -0.1182326313 0.1292179399 0.3943154437 -0.3981130225 0.3935691254 -0.3976459384 -0.10752221 0.1437014891
385297690.0 -0.1171396974 0.1302699091 0.3890252218 -0.4020454858 0.3898100748 -0.4026648469 -0.1062857677 0.1451354178
390297660.0 -0.1156698172 0.1314124633 0.3845392065 -0.4057077598 0.3850346091 -0.406017456 -0.1041867706 0.1460672232
395297630.0 -0.1142668149 0.132608247 0.3805698207 -0.4099064331 0.38003109 -0.4103295469 -0.1028561715 0.147424822
400297600.0 -0.1134906947 0.1337816964 0.3760332578 -0.4146864171 0.376207404 -0.4145385198 -0.1013274267 0.148877983
405297570.0 -0.1123981548 0.1347979936 0.3713650295 -0.4181172569 0.3717013016 -0.4185856284 -0.0996779073 0.1504675254
410297540.0 -0.1110840413 0.136447336 0.3666732163 -0.4226197078 0.3669067457 -0.4229729 -0.0980326084 0.1513944355
415297510.0 -0.1098972932 0.1375815925 0.3618436836 -0.4265699485 0.3624664255 -0.4271152916 -0.0964026537 0.1527384482
420297480.0 -0.1088459252 0.1382164061 0.3573605762 -0.4305210729 0.3576592394 -0.4310769193 -0.0941836039 0.1544465885
425297450.0 -0.10721431 0.1395549574 0.3528635968 -0.4340028057 0.3524232194 -0.4346375585 -0.0926057715 0.1547134378
430297420.0 -0.1060863947 0.1407499713 0.3481541605 -0.4384863463 0.3483154339 -0.4380038538 -0.0910994138 0.1560263006
435297390.0 -0.104859963 0.1417357912 0.3434097079 -0.4426033206 0.3430884879 -0.4423237741 -0.0898236588 0.1576959368
440297360.0 -0.1030789725 0.1426666121 0.338330604 -0.4459737518 0.3381799412 -0.4460035363 -0.0877190514 0.1586933576
445297330.0 -0.1019075295 0.1434315873 0.3331330676 -0.4490578982 0.3336049296 -0.4496513596 -0.0860630949 0.1599172346
450297300.0 -0.1008696055 0.1448278894 0.328456597 -0.4528971301 0.3291126909 -0.4530823955 -0.0839056738 0.1608024411
455297270.0 -0.099415398 0.1457352705 0.323440576 -0.4564129381 0.323612885 -0.4569122681 -0.0820547459 0.162027898
460297240.0 -0.0978536427 0.1469780399 0.3186901428 -0.4605181242 0.3184948081 -0.4604669411 -0.0808135722 0.1628334719
465297210.0 -0.0963441415 0.1480436967 0.3129483495 -0.4641385598 0.3130235174 -0.4637293627 -0.0784350905 0.1644218336
470297180.0 -0.095295166 0.1488602868 0.3082164089 -0.4667566094 0.3084442212 -0.467060552 -0.0767554442 0.1653601362
475297150.0 -0.0939572986 0.1499970581 0.3029988269 -0.4700797239 0.303420352 -0.4703818165 -0.0749950525 0.1658395847
480297120.0 -0.0920322862 0.1512628438 0.297833186 -0.473395193 0.2986399604 -0.4736648586 -0.0734823041 0.1670179686
485297090.0 -0.0906762605 0.151796025 0.2927691052 -0.4771873164 0.2927169527 -0.4766384135 -0.0714398398 0.1682114708
490297060.0 -0.0886192141 0.1530759189 0.2871777433 -0.4802895143 0.2872738651 -0.4803467797 -0.0693199376 0.1689646814
495297030.0 -0.0876858399 0.1536264411 0.2824973486 -0.4834040137 0.2823403895 -0.4835863997 -0.0674344226 0.1696394311
500297000.0 -0.0860949973 0.1548501642 0.2770042721 -0.486097748 0.2769748959 -0.4865215912 -0.0655969941 0.170856657
505296970.0 -0.0840492838 0.1559573325 0.2718276692 -0.4892810373 0.2716531065 -0.4891957114 -0.0638397415 0.1712424281
510296940.0 -0.0825986795 0.1566032243 0.2664054884 -0.4927305207 0.2669135617 -0.4926658293 -0.0614030524 0.1724664988
515296910.0 -0.0813722929 0.1579018147 0.2605473643 -0.4949654584 0.2608754664 -0.494856513 -0.0599027743 0.1728105106
520296880.0 -0.0794026257 0.1588995231 0.2554560462 -0.4974609038 0.2553562235 -0.4977152936 -0.0573377673 0.174157457
525296850.0 -0.0779277033 0.1593655443 0.2497364512 -0.500530822 0.2495824053 -0.5003487636 -0.0556375504 0.174653069
530296820.0 -0.0767419967 0.1604975039 0.2446655047 -0.5031188044 0.2447439133 -0.5029137141 -0.0537468864 0.1752287769
535296790.0 -0.074318262 0.161157886 0.2391735944 -0.5051796814 0.239219743 -0.5059164098 -0.0513858748 0.1764516739
540296760.0 -0.0729485652 0.1620795429 0.2333051638 -0.508492598 0.2333328176 -0.5083347393 -0.0497463582 0.1766144243
545296730.0 -0.0717948945 0.1634003606 0.2280284147 -0.5108060052 0.2275899782 -0.5103335336 -0.0478206174 0.1773305282
550296700.0 -0.0692690328 0.1641748087 0.22234339 -0.5133571643 0.2221090169 -0.5135909816 -0.0456377788 0.177966676
555296670.0 -0.068015409 0.1650294954 0.2168804399 -0.5158085516 0.2165427439 -0.5153798903 -0.0438264585 0.1782848487
560296640.0 -0.0659606233 0.1654143256 0.2108547886 -0.5177946048 0.2111938282 -0.5179719563 -0.0417065974 0.1795744173
565296610.0 -0.064654294 0.1666357945 0.2056803895 -0.5203121759 0.2054734358 -0.5196627116 -0.0394571706 0.1799802124
570296580.0 -0.0630584994 0.1672853725 0.1996369542 -0.5224545066 0.1995346124 -0.5226954648 -0.037570382 0.1804666051
575296550.0 -0.0608382404 0.1679676386 0.1943256231 -0.5245394958 0.1941116408 -0.5246177254 -0.0356506626 0.1809303252
580296520.0 -0.0595843491 0.169009195 0.1885473333 -0.5265709412 0.1884815039 -0.5266522741 -0.0337429864 0.1815334943
585296490.0 -0.0577706455 0.169878916 0.183037294 -0.528499687 0.182439956 -0.5283587527 -0.0312111031 0.1822590628
590296460.0 -0.0553556652 0.1705922609 0.1769366326 -0.5306862194 0.1771112704 -0.5306361749 -0.0296213564 0.1826190974
595296430.0 -0.0539876324 0.1712244806 0.1707524875 -0.5320185489 0.1705779142 -0.5321633333 -0.0273658358 0.1828056168
600296400.0 -0.0520576417 0.1720860999 0.1647757893 -0.5340159995 0.1650831716 -0.5336728087 -0.0253440546 0.183079431
605296370.0 -0.0508822882 0.1727650888 0.160094119 -0.5356536308 0.1590549131 -0.5357776194 -0.0229098198 0.1839007571
610296340.0 -0.0485939625 0.1738669873 0.1539343909 -0.5370520466 0.1538413102 -0.5374091902 -0.0213785572 0.1841080851
615296310.0 -0.0466805234 0.1742760115 0.1477663794 -0.5390306179 0.1472954247 -0.5391465631 -0.0190705447 0.1849373029
620296280.0 -0.0452343987 0.1752427284 0.1415840846 -0.5406337201 0.1416167006 -0.5403310732 -0.0170809537 0.1852937033
625296250.0 -0.0438543295 0.1755875161 0.1361274802 -0.5419747909 0.1362949845 -0.5422107782 -0.0154839629 0.1852110981
630296220.0 -0.0419580355 0.1764398688 0.1296853358 -0.5436170594 0.1301701293 -0.5434985507 -0.0130354887 0.1858671442
635296190.0 -0.0402641316 0.1771453652 0.1244039586 -0.5447078818 0.1242603896 -0.5443448426 -0.0111445627 0.1856142234
640296160.0 -0.0384325856 0.1778290694 0.1182969417 -0.5462702973 0.1181230812 -0.5462085606 -0.0092454685 0.1862655631
645296130.0 -0.0362344109 0.1787748258 0.1123347255 -0.5475308831 0.1123296257 -0.5469732926 -0.0071329321 0.1860467245
650296100.0 -0.0345804974 0.1789172588 0.1066322108 -0.5488885993 0.1062856435 -0.5484452538 -0.0044398547 0.1863015787
655296070.0 -0.0329288111 0.1797304056 0.1003519122 -0.5496555467 0.1005819319 -0.5491107151 -0.003047538 0.1868105508
660296040.0 -0.0312250279 0.1803106627 0.0949896212 -0.5505980601 0.094263431 -0.5508415433 -0.0005796225 0.1869644908
665296010.0 -0.0291773252 0.1809690969 0.0882220085 -0.5511229143 0.0883881125 -0.5513646653 0.0012691031 0.1868841678
670295980.0 -0.027602502 0.181574999 0.0823846952 -0.5526645386 0.0822610903 -0.5521626043 0.0032888434 0.1869945518
675295950.0 -0.0260272539 0.1820430898 0.0763735207 -0.5528366689 0.0767022622 -0.5529965712 0.0052613706 0.18719765
680295920.0 -0.0242843392 0.1824529692 0.0710141959 -0.553389767 0.070551017 -0.5536428311 0.0078427727 0.1867533574
685295890.0 -0.0221477036 0.1833302263 0.0648437422 -0.5543538319 0.0644770803 -0.5548679791 0.009831982 0.187538349
690295860.0 -0.0207396941 0.1836439951 0.0587731277 -0.5552895011 0.0583020407 -0.5553792033 0.0118191122 0.1876170163
695295830.0 -0.0187219507 0.1840395344 0.0529174868 -0.5558294495 0.0526073643 -0.5558957455 0.0136943431 0.1875298181
700295800.0 -0.0170013007 0.1846107822 0.0472203216 -0.5561637767 0.0468160141 -0.5565651954 0.0159127911 0.1877412548
705295770.0 -0.0152399397 0.1849945156 0.0409547942 -0.5570968837 0.0408543068 -0.5567252203 0.0177887088 0.1876404591
710295740.0 -0.0136358705 0.1852959843 0.0348268645 -0.5569085106 0.0347147146 -0.5573069993 0.0198789114 0.1876141474
715295710.0 -0.0116963033 0.1860266239 0.0290832974 -0.5578331635 0.028632396 -0.5579755614 0.0218077084 0.1873210595
720295680.0 -0.0094861305 0.1862485744 0.0223294627 -0.5576281631 0.0230256442 -0.5579713979 0.0238770304 0.1870816894
725295650.0 -0.008334291 0.1866177932 0.0169035725 -0.5580705024 0.0169480835 -0.5580576072 0.0258514584 0.1876055887
730295620.0 -0.0072611639 0.1866401074 0.0110981623 -0.5576698311 0.0108198414 -0.5578200112 0.0278334687 0.1875303828
735295590.0 -0.0047237076 0.1873458708 0.0045522216 -0.558405766 0.0048840456 -0.5579100191 0.030201858 0.1867671491
740295560.0 -0.0033803904 0.1872817084 -0.001258905 -0.5576868654 -0.0009464702 -0.5582034788 0.0320822752 0.1868820249
745295530.0 -0.0016909093 0.1878476447 -0.0067366517 -0.5573944335 -0.0066247 -0.5581091852 0.0336868188 0.186537705
750295500.0 -0.0001382168 0.1881230153 -0.012577679 -0.5575546995 -0.0131773757 -0.5579399803 0.0358263228 0.1862721225
755295470.0 0.0016293435 0.1885057333 -0.0190230037 -0.5578551172 -0.0191674633 -0.5583646145 0.0380333273 0.1866212272
760295440.0 0.0033787903 0.1888651262 -0.0252784934 -0.5575553992 -0.0254483236 -0.5572155126 0.0402919551 0.1854764433
765295410.0 0.0054386709 0.1884570535 -0.0308561033 -0.5564094536 -0.0307296981 -0.557274985 0.0423027333 0.1855272894
770295380.0 0.0069760145 0.1891626589 -0.0367520817 -0.5563536605 -0.037082501 -0.5568350312 0.0444296374 0.1854457481
775295350.0 0.0088751949 0.1889983394 -0.0431206953 -0.5563386989 -0.0429281065 -0.5559607916 0.0464455377 0.1850972543
780295320.0 0.0103726117 0.1895390153 -0.0485585816 -0.5552736579 -0.0487407589 -0.5555363996 0.0486350843 0.1845049026
785295290.0 0.0120105688 0.1894407483 -0.05482583 -0.5553486977 -0.0548241568 -0.5553497884 0.0501467004 0.1844024395
790295260.0 0.0140481798 0.1893368889 -0.0608737331 -0.5543118934 -0.0606122519 -0.5550071024 0.0522900804 0.1844252416
795295230.0 0.0156156443 0.1895856859 -0.0665691158 -0.5538810688 -0.0669488651 -0.5541224634 0.0543946293 0.1832597046
800295200.0 0.0171658037 0.1895360945 -0.0718924423 -0.55253799 -0.072575031 -0.5531766312 0.0558535223 0.1830848332
805295170.0 0.0188495781 0.1897137491 -0.0783915618 -0.5521961226 -0.0783368226 -0.5524683858 0.0589223096 0.1826910594
810295140.0 0.0207172468 0.1900300339 -0.0842164433 -0.5510685658 -0.0846891729 -0.551314694 0.0607357423 0.182331872
815295110.0 0.0224461859 0.1899604892 -0.0904671334 -0.5500975694 -0.0901025717 -0.5503791342 0.0622630151 0.1815475301
820295080.0 0.024151123 0.1897475057 -0.0959246251 -0.5489584034 -0.0960122034 -0.5495258426 0.063818478 0.181731979
825295050.0 0.0256271061 0.1894765536 -0.1020323694 -0.5483230021 -0.1019943193 -0.5483798024 0.0665293452 0.1809128692
830295020.0 0.0274300658 0.1896018737 -0.1078868479 -0.5470278895 -0.1077931032 -0.5473117428 0.0685660391 0.1800685712
