!Created with skrf (http://scikit-rf.org).
# Hz S RI R 50.0 
!freq ReS11 ImS11 ReS21 ImS21 ReS12 ImS12 ReS22 ImS22
300000.0 -0.7752473527 -0.1473108444 0.0004242355 -0.0004624635 -1.59704e-05 2.42535e-05 0.8603207255 -0.0018291497
5299970.0 -0.7851617571 -0.0077647425 0.0001082711 -0.0001014836 -0.0001718485 -4.59757e-05 0.8589400931 -0.0104150783
10299940.0 -0.787592997 -0.0040946489 -2.78883e-05 2.89312e-05 -4.0801e-05 1.1561e-05 0.8584804237 -0.0189428573
15299910.0 -0.7933569898 -0.0013531695 -9.55591e-05 5.31856e-05 0.0002726238 4.94214e-05 0.8567576753 -0.0274793411
20299880.0 -0.8000604978 0.0027237886 -0.0002212621 -0.0001092453 0.0001664463 3.08e-06 0.8567514578 -0.0361878768
25299850.0 -0.8064149183 0.0082680263 -6.36e-07 -0.0001681652 -4.0397e-05 0.0002220338 0.8552795452 -0.0436329167
30299820.0 -0.8119195481 0.016131939 0.0001853762 -0.0001488584 -2.18348e-05 -0.0001713041 0.8553299957 -0.0521138994
35299790.0 -0.8167747314 0.024845096 8.92737e-05 -5.14072e-05 2.4204e-05 -2.14842e-05 0.8542606925 -0.0604114805
40299760.0 -0.821467382 0.0342238296 -0.0001941098 -0.0001312032 0.0001544203 -1.26605e-05 0.8532647886 -0.0688977961
45299730.0 -0.8246172794 0.0444080595 -4.69424e-05 -8.08165e-05 8.555e-07 -5.27947e-05 0.8528211339 -0.0766934473
50299700.0 -0.8265847978 0.0543690667 0.0001219217 -1.06999e-05 7.25882e-05 3.94229e-05 0.8516446006 -0.0847367541
55299670.0 -0.828656944 0.0641670165 0.0001301446 -3.70119e-05 0.0001104994 -0.0001649117 0.8501839955 -0.0933689192
60299640.0 -0.8302746031 0.0743823081 0.0001376961 0.0002447807 -9.123e-05 -0.0001336538 0.8495863322 -0.1019283209
65299610.0 -0.8310876151 0.0845717836 -0.0001887536 -7.7812e-06 0.0001670476 4.02331e-05 0.848646709 -0.1102068498
70299580.0 -0.8313120008 0.0948806975 7.90906e-05 8.55602e-05 -5.22878e-05 6.35504e-05 0.8475990757 -0.1184168237
75299550.0 -0.8315279345 0.1048187014 5.21072e-05 -5.23724e-05 1.23581e-05 0.0003088179 0.8468486758 -0.1266247113
80299520.0 -0.8313157243 0.1145815752 0.0001825754 2.77513e-05 9.06485e-05 -9.77004e-05 0.8450551187 -0.1350002465
85299490.0 -0.8306105884 0.1238215844 7.58969e-05 3.68713e-05 0.0001501984 -9.6006e-06 0.8434532221 -0.1426515666
90299460.0 -0.8302259404 0.1343431619 1.68792e-05 -0.0001114835 -0.0001033896 0.0001197169 0.8421218999 -0.1516314492
95299430.0 -0.8289020253 0.143821327 2.89875e-05 -8.45537e-05 6.99912e-05 -4.34756e-05 0.8403617408 -0.1592831463
100299400.0 -0.828191867 0.1530091403 2.64061e-05 -6.17565e-05 1.75737e-05 0.0001651166 0.8386251529 -0.167731461
105299370.0 -0.8267287585 0.162124006 7.64684e-05 -3.541e-07 0.0001211355 0.0001380224 0.8366972198 -0.17568203
110299340.0 -0.8253557718 0.1708463343 -8.12374e-05 0.0001435897 -0.0001269109 -0.0001052407 0.8356354844 -0.1838280058
115299310.0 -0.824011797 0.1805863996 5.52506e-05 -5.20278e-05 0.0001032865 0.0001080554 0.8333262246 -0.1924431112
120299280.0 -0.8222222391 0.1895294074 6.82531e-05 -5.68238e-05 -3.50399e-05 6.76774e-05 0.8313752902 -0.2001387687
125299250.0 -0.820706711 0.1983938307 -0.0001568965 9.91857e-05 -0.0001167953 3.76121e-05 0.8289952058 -0.2087059321
130299220.0 -0.8185608831 0.2076015131 4.44168e-05 5.47471e-05 5.84416e-05 -2.87939e-05 0.8270876386 -0.2164181602
135299190.0 -0.8169371602 0.216560455 5.0988e-06 -3.06144e-05 0.0001349455 -4.93338e-05 0.8253070018 -0.224551253
140299160.0 -0.814962034 0.2259841546 -9.34894e-05 0.000210449 0.0001956386 0.0001243194 0.8225400932 -0.2324048504
145299130.0 -0.8128253485 0.2347822414 -1.31544e-05 -0.0001271674 0.0001114093 0.0001672209 0.8198391696 -0.2408288644
150299100.0 -0.8103270517 0.243327169 -0.0001089184 2.75868e-05 0.0001599576 -0.0001222588 0.8175409419 -0.2483561556
155299070.0 -0.807590256 0.2525140885 -0.0001557171 -5.00622e-05 7.9704e-06 -6.37039e-05 0.8151632285 -0.2563535115
160299040.0 -0.8049975818 0.2613543664 0.00014895 0.0002024919 0.0001083272 -0.0001745711 0.8129240029 -0.2648155379
165299010.0 -0.8020287796 0.2701524918 0.0001140409 -0.0001989393 -3.9531e-06 7.9716e-06 0.8105827167 -0.2728004429
170298980.0 -0.7995555453 0.2780454447 -2.59293e-05 3.52721e-05 1.21881e-05 1.12731e-05 0.8073597507 -0.2799188214
175298950.0 -0.7975521927 0.2870078384 -7.77859e-05 0.0001233354 -5.1241e-06 -0.000228706 0.804882446 -0.2883182881
180298920.0 -0.7936688969 0.2950698105 -2.75018e-05 -5.13052e-05 3.69612e-05 2.78802e-05 0.8019258689 -0.2962310778
185298890.0 -0.7908332697 0.3045088239 -5.22746e-05 6.45622e-05 -4.26701e-05 -1.48182e-05 0.798550296 -0.3045630899
190298860.0 -0.7872905717 0.3123537574 0.0001045199 -0.0001634777 -3.80088e-05 -4.3071e-06 0.796303968 -0.311452432
195298830.0 -0.7840323629 0.3201959207 -2.03318e-05 -5.9534e-06 0.0002786004 -0.0001622156 0.7930654561 -0.3192211788
200298800.0 -0.7812709357 0.3297035426 -0.000109343 -9.66057e-05 -3.02648e-05 2.59983e-05 0.7901309437 -0.3279293041
205298770.0 -0.777020909 0.3373386208 4.56672e-05 -1.29423e-05 8.22644e-05 2.38135e-05 0.7864809402 -0.3344441164
210298740.0 -0.7737070628 0.3457899338 -6.45217e-05 -3.33279e-05 4.37092e-05 -0.0001784426 0.7835851371 -0.3426853404
215298710.0 -0.7704839315 0.3543193311 -5.1997e-06 1.27504e-05 4.53616e-05 -5.47096e-05 0.7800133711 -0.3502723062
220298680.0 -0.7673623434 0.3623385261 -5.74446e-05 -8.17939e-05 0.0001209351 5.03918e-05 0.7770479445 -0.3573030284
225298650.0 -0.7626073203 0.3713706938 0.000113942 0.0002412032 2.41375e-05 0.0001476839 0.7727463153 -0.3652675402
230298620.0 -0.7584955644 0.3783648915 3.3944e-06 -0.0001225486 8.04448e-05 -0.000105548 0.7694841729 -0.3729260909
235298590.0 -0.7549756725 0.3872718026 -3.667e-07 2.45465e-05 -1.15071e-05 -0.0001895968 0.7661176767 -0.3796608046
240298560.0 -0.7512419663 0.3949622624 -0.0001775914 0.00014951 3.27399e-05 -5.9761e-05 0.7619092228 -0.3877170311
245298530.0 -0.7465461607 0.4029562063 -0.0003164468 9.80151e-05 -0.0001462454 0.0001864805 0.7576626379 -0.3948725182
250298500.0 -0.7422466603 0.4106100542 -0.0001212016 0.0001355857 -0.0001573647 -2.9024e-05 0.7548126582 -0.4022864246
255298470.0 -0.7379010672 0.4187892796 -6.3352e-06 -9.08714e-05 -8.31935e-05 7.19233e-05 0.7508085452 -0.4096606688
260298440.0 -0.7337329598 0.4260732184 0.0001228514 3.65361e-05 -5.15537e-05 -9.20701e-05 0.7463407458 -0.4162919609
265298410.0 -0.7291529538 0.4342474316 0.0002219487 5.02922e-05 -7.26081e-05 3.62266e-05 0.7431375541 -0.4242586898
270298380.0 -0.7243758892 0.441666415 -0.0001058225 7.94029e-05 -0.0002503836 -0.0002554945 0.7392365785 -0.4306320043
275298350.0 -0.7195998479 0.4493586934 -0.0001146985 -8.90976e-05 6.73249e-05 7.3611e-05 0.7346199063 -0.4377124296
280298320.0 -0.7147041635 0.4570574891 0.000153438 9.96467e-05 -2.5926e-05 -2.0226e-06 0.7307838823 -0.4451445804
285298290.0 -0.7098922446 0.4647987021 -1.53016e-05 -7.61185e-05 -0.0001572013 0.0001468971 0.726022637 -0.4521754532
290298260.0 -0.7053137913 0.4719815239 0.0002383165 0.0002114791 -0.0001951981 -5.87894e-05 0.7221733865 -0.458833842
295298230.0 -0.7008144358 0.4792648698 6.50483e-05 0.0001443939 -6.3849e-06 -0.0001928113 0.717908528 -0.4662352683
300298200.0 -0.6951766042 0.4868192213 -0.0001035502 -0.0001059123 -0.0002612812 -0.0001139212 0.7136959393 -0.4730608181
305298170.0 -0.690173849 0.4942175094 0.0001820843 0.0002179586 4.71625e-05 -0.0001633726 0.7098370129 -0.4796503765
310298140.0 -0.6842869451 0.5010356491 -5.0336e-06 0.0003326497 -8.67675e-05 9.82102e-05 0.7053986784 -0.4866229332
315298110.0 -0.679833266 0.5084525044 0.0002874392 -0.0002049219 -0.0001119145 7.77206e-05 0.7004908476 -0.4947037874
320298080.0 -0.674178236 0.5160125623 -3.70358e-05 -2.86922e-05 4.71888e-05 -2.15027e-05 0.6962777662 -0.5017307304
325298050.0 -0.6683375382 0.5218519726 -1.28872e-05 8.35377e-05 -0.0001500696 -0.0001490511 0.691076169 -0.5094823017
330298020.0 -0.662719981 0.5287851096 9.25328e-05 -5.17392e-05 -0.0001053038 -9.17493e-05 0.685510426 -0.5167220186
335297990.0 -0.6568647072 0.5363003028 7.39249e-05 -5.40978e-05 -4.55268e-05 -6.85434e-05 0.6796698422 -0.5235920363
340297960.0 -0.6519029589 0.5428734023 0.0002141761 6.33489e-05 0.0001193253 -0.0001257661 0.6742664693 -0.5302162658
345297930.0 -0.6460564723 0.5488708579 9.72155e-05 -1.8554e-06 6.56558e-05 0.0002909484 0.6685998119 -0.5359101164
350297900.0 -0.6408028933 0.5560695238 -0.0001711213 -7.94849e-05 -9.79283e-05 -3.30484e-05 0.6630496337 -0.5417872783
355297870.0 -0.634216806 0.5628042215 7.58591e-05 1.60986e-05 4.34539e-05 -0.0001923994 0.6571052193 -0.5484309439
360297840.0 -0.6286996491 0.5693230912 0.0002066063 0.0001534618 -0.0001494738 -8.54526e-05 0.6517247753 -0.5540572128
365297810.0 -0.6220146051 0.5763684485 -0.0002185036 -0.0001218501 -5.40396e-05 2.3296e-05 0.6467220844 -0.5604326193
370297780.0 -0.6161293113 0.5818334481 -0.0001409448 -8.02256e-05 0.0001507214 7.0791e-06 0.640878091 -0.5662691229
375297750.0 -0.6093711368 0.5886096652 3.9216e-06 6.30536e-05 9.28387e-05 7.88566e-05 0.6352330028 -0.5722497941
380297720.0 -0.604069817 0.5948401642 -0.000153066 -0.0002705746 -5.88036e-05 6.13866e-05 0.6301473108 -0.5778868439
385297690.0 -0.5980126785 0.6004311892 -1.52023e-05 8.9069e-05 -3.86011e-05 5.77284e-05 0.6236114798 -0.5839971938
390297660.0 -0.5910366344 0.6068487553 -0.0001781987 -8.28506e-05 -7.89357e-05 -0.0001572462 0.6185854352 -0.5903668096
395297630.0 -0.5851824624 0.6131315152 4.71224e-05 6.10583e-05 -0.0002405642 2.2566e-06 0.6124790183 -0.5958231506
400297600.0 -0.5793247854 0.6195181117 0.0001105225 -3.1074e-05 -6.16878e-05 0.0002833037 0.6065561169 -0.6011844623
405297570.0 -0.5726753853 0.6252594662 0.0001593306 5.95277e-05 8.26609e-05 1.24751e-05 0.6009105067 -0.6069136142
410297540.0 -0.5655552784 0.6306910432 -3.17802e-05 -0.0003207227 -0.0002324588 -0.0001689519 0.594839481 -0.6127394889
415297510.0 -0.5590631819 0.636201177 -5.11634e-05 -3.51855e-05 -0.000121622 -5.4582e-06 0.5886711247 -0.6184818379
420297480.0 -0.5519212628 0.6422011609 -0.0001370564 0.000364958 -2.1293e-06 0.0001524142 0.5823116773 -0.6246203827
425297450.0 -0.5456783266 0.6475811271 3.44357e-05 3.20254e-05 -7.62601e-05 0.0001335507 0.576770653 -0.6290833668
430297420.0 -0.5397274277 0.6535493429 0.0001245392 -0.0001064446 -4.18576e-05 -5.26167e-05 0.5708436207 -0.6349073717
435297390.0 -0.5322812721 0.6589332437 -0.000149095 -2.61133e-05 9.85983e-05 4.36144e-05 0.5638959991 -0.64004208
440297360.0 -0.525141968 0.6644721632 -9.0775e-05 -6.60206e-05 0.0001767651 -0.0001023602 0.5578278638 -0.6457989411
445297330.0 -0.5183249288 0.6701305836 5.02013e-05 0.0002637744 7.172e-06 2.91406e-05 0.55166171 -0.6517262233
450297300.0 -0.5115511958 0.6745387966 -0.0002302533 0.0001515652 -0.0002075627 2.2032e-06 0.5449093673 -0.6566909537
455297270.0 -0.5045082397 0.680198813 -0.0001916531 4.48116e-05 4.33109e-05 8.74319e-05 0.5382453273 -0.6619397329
460297240.0 -0.4974598171 0.6855046083 7.8879e-05 -0.0001190548 -1.15253e-05 0.000185147 0.532962551 -0.6669770972
465297210.0 -0.4901724043 0.6902525011 9.58265e-05 -0.0001125893 -1.79195e-05 0.000179015 0.5250319217 -0.6724331724
470297180.0 -0.4831972482 0.6947832729 -5.20164e-05 -0.0001879704 -4.2007e-05 -0.0002409587 0.5179789709 -0.6775489191
475297150.0 -0.4761648946 0.7000610995 -0.0002236629 -9.31519e-05 0.0001575752 -2.77914e-05 0.5120193077 -0.681850469
480297120.0 -0.4687705664 0.7048129798 0.0002427332 9.06008e-05 -0.0002246327 9.6218e-06 0.5047172781 -0.6868546199
485297090.0 -0.4613485548 0.7094721286 -5.54992e-05 -0.0001620225 0.0001490619 0.0001590768 0.4985188818 -0.6921742975
490297060.0 -0.4542540876 0.7143244801 2.65247e-05 -0.0001510664 -8.08876e-05 0.0001622931 0.4913846632 -0.6965277277
495297030.0 -0.4468926595 0.7188299686 2.41718e-05 4.03871e-05 -1.3989e-05 -1.83268e-05 0.484982122 -0.7017544947
500297000.0 -0.4380634823 0.7238162238 -5.8039e-06 -0.0001257753 -9.73197e-05 0.0001374383 0.4771590711 -0.7064165945
505296970.0 -0.4313453236 0.7273952839 -0.0001755647 -0.0001372338 0.0001581416 -0.0001108589 0.4702165645 -0.710894981
510296940.0 -0.424476592 0.7321314445 7.75798e-05 -7.50517e-05 6.19037e-05 0.0001591951 0.463081425 -0.7149161869
515296910.0 -0.4169959055 0.736136842 -3.8085e-05 -6.22955e-05 8.13121e-05 -1.99622e-05 0.4559775872 -0.7193976908
520296880.0 -0.4089574482 0.7405908178 -0.0002556932 3.15053e-05 -0.0001111353 0.0002404479 0.4493273026 -0.7243523326
525296850.0 -0.4019070655 0.7444830083 0.0001529901 0.0002848701 -0.0001196191 0.0001141973 0.4418746588 -0.7279891784
530296820.0 -0.3941108945 0.7483877951 -9.10361e-05 4.97561e-05 0.0001154501 -5.88094e-05 0.4341648174 -0.7328495386
535296790.0 -0.385791574 0.7524856256 -7.57106e-05 0.0001247001 4.23975e-05 -6.08134e-05 0.4271152889 -0.7376049594
540296760.0 -0.3778304295 0.7564618722 1.05063e-05 -0.0002316517 3.99636e-05 0.0002863349 0.4193267201 -0.7408663223
545296730.0 -0.3708532809 0.7599843877 3.91288e-05 -0.0002478328 6.61032e-05 -0.0002185449 0.4122401121 -0.7454573122
550296700.0 -0.3630616322 0.7634909987 -0.000253578 -0.0002056239 0.0002064618 -0.0003337226 0.4050289132 -0.7494711653
555296670.0 -0.3547364339 0.7675722638 6.47125e-05 -9.66074e-05 0.0001790934 3.4484e-05 0.3967600406 -0.7527532571
560296640.0 -0.3467814015 0.7706590644 0.0002349232 -5.68e-05 0.0001255673 5.586e-07 0.3899499408 -0.7568188383
565296610.0 -0.3394246555 0.7740949189 -1.91963e-05 7.52223e-05 -0.000158841 3.02097e-05 0.3819627997 -0.7603430776
570296580.0 -0.331895858 0.7773882053 -5.80022e-05 2.87106e-05 2.76502e-05 9.45e-06 0.3745461453 -0.7639077406
575296550.0 -0.3237296083 0.7810650331 -1.94328e-05 7.3951e-05 -2.40819e-05 -5.3307e-05 0.3666239513 -0.7676841463
580296520.0 -0.3156472734 0.7842667004 -1.01061e-05 -6.27717e-05 0.0001193363 5.77285e-05 0.3585667963 -0.7704316445
585296490.0 -0.3081977592 0.7863923914 -3.5417e-06 7.26594e-05 0.0002469047 5.18003e-05 0.3514234616 -0.7754473396
590296460.0 -0.2992779831 0.7899587076 -5.46557e-05 2.09925e-05 5.72653e-05 5.02485e-05 0.3436308816 -0.7777197113
595296430.0 -0.2914831246 0.7930501106 -8.55824e-05 -7.33825e-05 5.5476e-05 -7.41369e-05 0.3352503518 -0.7808737955
600296400.0 -0.2833694769 0.7955422807 0.0001119152 3.55821e-05 -0.0001581889 2.50348e-05 0.3280241208 -0.7841460197
605296370.0 -0.2750638595 0.7985596673 8.70388e-05 -0.0001511693 7.56316e-05 0.0002790241 0.3199274207 -0.7880184166
610296340.0 -0.2676183773 0.8012650391 -4.50454e-05 -0.0001820982 -0.0001556728 -7.76819e-05 0.3115821539 -0.7899065363
615296310.0 -0.2592783926 0.8046933991 -0.0003007878 -6.25601e-05 -0.000231529 -3.45925e-05 0.3044258705 -0.7938890131
620296280.0 -0.25046324 0.8062757823 0.0001760967 0.0001464382 6.38505e-05 4.22836e-05 0.2964701121 -0.7966945369
625296250.0 -0.2419130263 0.8094005704 -2.14466e-05 6.85951e-05 -3.9341e-05 -0.0001741828 0.2880300287 -0.7986486265
630296220.0 -0.2343038196 0.8117100817 1.05697e-05 0.0001442837 4.30241e-05 2.36173e-05 0.280094616 -0.801387303
635296190.0 -0.2263074237 0.8142615762 -0.0002467002 0.0002050356 1.65163e-05 8.58136e-05 0.2722665077 -0.8038672587
640296160.0 -0.217890064 0.8151093019 -0.0001891997 -8.23054e-05 -2.84496e-05 2.26495e-05 0.2637575367 -0.8069215324
645296130.0 -0.2098027926 0.818138825 0.0001320436 -2.91035e-05 1.57636e-05 -8.89894e-05 0.2562182181 -0.8090387445
650296100.0 -0.2016459436 0.8203280436 -5.09155e-05 3.23275e-05 -0.0001350994 8.57613e-05 0.2477417923 -0.8112272111
655296070.0 -0.1930586123 0.8221263599 0.0001498844 -2.40795e-05 -2.26227e-05 -6.77715e-05 0.2394422863 -0.8136546437
660296040.0 -0.1851997115 0.824531707 -0.0001390334 -3.64654e-05 -7.79793e-05 -0.0001076411 0.2312095745 -0.8159615612
665296010.0 -0.1766939581 0.8261942639 0.0002063162 -6.5002e-06 1.51101e-05 8.7875e-05 0.2234505175 -0.8174889195
670295980.0 -0.1675782483 0.8277685681 -6.93737e-05 -4.76399e-05 0.0001163529 -0.0002172757 0.2152658965 -0.8197981123
675295950.0 -0.1600378031 0.8284265335 6.71151e-05 1.8461e-05 -5.2743e-05 -7.17966e-05 0.2072717927 -0.8217805856
680295920.0 -0.1517188248 0.8303346782 4.59547e-05 5.44606e-05 -3.55481e-05 -0.0001821099 0.198422373 -0.8240859862
685295890.0 -0.1428048061 0.831981062 -1.35971e-05 -7.26891e-05 4.62627e-05 0.0002732757 0.191166335 -0.8254317312
690295860.0 -0.1349535789 0.8339386946 9.0022e-06 -9.4152e-06 7.2378e-05 9.07126e-05 0.1826438936 -0.827059692
695295830.0 -0.1260849737 0.8346300555 -4.17523e-05 0.0002690401 -2.2109e-05 -4.40864e-05 0.1737612432 -0.8293280771
700295800.0 -0.1182167192 0.8357274297 0.0002051798 -8.57462e-05 0.0001586309 -3.38556e-05 0.1658799452 -0.8302964028
705295770.0 -0.1092244705 0.8375439456 9.99345e-05 -3.56079e-05 0.000224664 0.0001673063 0.1568385631 -0.8311127464
710295740.0 -0.1010914898 0.8388615412 1.65544e-05 2.58079e-05 0.000148601 -0.000331661 0.148333937 -0.8326926681
715295710.0 -0.0927912307 0.8391947507 8.98516e-05 0.0001204657 -0.0002167337 7.1355e-05 0.1402286827 -0.8339926423
720295680.0 -0.0844176027 0.8395019413 -0.000176558 0.0001081492 2.48551e-05 -5.90854e-05 0.1319320899 -0.8357528561
725295650.0 -0.0743911511 0.8410850922 0.0001973486 0.0001971486 0.0001132041 -9.88242e-05 0.1238815407 -0.8368550313
730295620.0 -0.06731206 0.8416198046 0.000221651 -2.45024e-05 7.53892e-05 -9.34966e-05 0.1157837816 -0.8381115591
735295590.0 -0.0579751365 0.841613084 9.56905e-05 -1.77602e-05 0.0001039098 -0.0001097844 0.1073675562 -0.8388946944
740295560.0 -0.0503902372 0.8432115263 0.0001661088 -0.0001049024 1.60068e-05 6.50184e-05 0.0990471619 -0.8403471638
745295530.0 -0.0421702152 0.8430400731 1.09698e-05 3.5104e-05 -0.0001374479 -0.0001668065 0.0899707771 -0.8406490117
750295500.0 -0.0329287175 0.8430165874 5.8202e-05 -0.0001014 6.10579e-05 -6.93334e-05 0.0821335049 -0.8419179925
755295470.0 -0.0238021511 0.8437136614 1.2626e-06 0.0001080487 0.0001595588 0.0002436911 0.0728769857 -0.8413529086
760295440.0 -0.0155397781 0.8437759096 -1.97403e-05 -5.89333e-05 -2.9763e-06 3.72201e-05 0.0648353631 -0.8427243111
765295410.0 -0.0078646692 0.843913724 0.0002195649 4.02667e-05 5.13464e-05 -0.0001116971 0.0563231533 -0.8419986634
770295380.0 0.0008631664 0.8448683976 -9.198e-05 9.12148e-05 -6.036e-07 0.000147906 0.0487696983 -0.8427092776
775295350.0 0.0086656949 0.84382974 2.38454e-05 -3.96171e-05 4.13772e-05 4.28561e-05 0.0399101288 -0.8449303446
780295320.0 0.0180087632 0.8430978514 -0.0001363842 5.7629e-06 0.0001369321 0.0001191312 0.0314725001 -0.843360432
785295290.0 0.0263372042 0.8436794487 -0.0001248906 5.28286e-05 -0.0001456613 -6.795e-07 0.0226476416 -0.8439043737
790295260.0 0.03469792 0.8428682543 4.14631e-05 5.54054e-05 0.0001470543 -8.7418e-05 0.0148972647 -0.8439507007
795295230.0 0.0432221493 0.8430601118 1.93354e-05 0.0001501062 -5.39893e-05 9.46657e-05 0.0059794849 -0.8439902403
800295200.0 0.0515541909 0.8430407299 2.93693e-05 1.78974e-05 -0.0001122273 -0.0002360662 -0.0026766127 -0.8442902439
805295170.0 0.0600119867 0.8420392153 1.4203e-05 6.31857e-05 -8.09877e-05 5.42383e-05 -0.0108054108 -0.8434030227
810295140.0 0.0681405745 0.8411056372 0.0001336552 4.84192e-05 1.3542e-06 0.0001411109 -0.0194405126 -0.8425291827
815295110.0 0.0768322742 0.8405218166 -0.0002716874 0.0001329242 -1.87559e-05 -3.20271e-05 -0.0279457244 -0.8426418639
820295080.0 0.0853744615 0.8391278484 0.0001121488 7.0403e-05 -7.11549e-05 -2.50446e-05 -0.0367630858 -0.8430355714
825295050.0 0.0940901632 0.8383736325 5.03872e-05 0.0001184094 3.31154e-05 8.035e-06 -0.0443521288 -0.8418407059
830295020.0 0.1019622503 0.8379735351 2.43188e-05 -3.0167e-05 -2.3021e-06 0.0001027294 -0.0534166112 -0.8417915258
835294990.0 0.1100672461 0.8363630181 -0.0001894854 1.28841e-05 8.51627e-05 8.01725e-05 -0.0614992236 -0.8410214681
840294960.0 0.1186910515 0.8350640949 -1.87117e-05 0.0001344176 -3.34022e-05 2.16171e-05 -0.0702296477 -0.8395055234
845294930.0 0.1272071682 0.834457546 0.0001905105 9.0348e-06 3.31611e-05 0.0001332521 -0.0779913054 -0.838824506
850294900.0 0.1356541113 0.8329285076 3.28593e-05 5.05677e-05 -5.51381e-05 -1.59925e-05 -0.0863843691 -0.8378702556
