!Created with skrf (http://scikit-rf.org).
# Hz S RI R 50.0 
!freq ReS11 ImS11 ReS21 ImS21 ReS12 ImS12 ReS22 ImS22
300000.0 -0.7770364111 -0.0811062525 0.0007916819 0.001813601 0.0014392343 0.0023946509 -0.7740585488 -0.1158674709
5299970.0 -0.7848080671 -0.0055627687 -0.0001969943 6.43561e-05 1.34921e-05 0.0001482111 -0.7855550617 -0.0063612947
10299940.0 -0.7879967351 -0.0039467593 7.77389e-05 7.36924e-05 2.36668e-05 8.22563e-05 -0.7883479908 -0.0034666824
15299910.0 -0.793812824 -0.0018704485 9.6167e-06 0.0001110567 4.13778e-05 -0.0001173551 -0.7947859097 -0.0016307959
20299880.0 -0.8003547466 0.0019342491 -1.16351e-05 -2.52349e-05 6.3307e-06 -0.0001022379 -0.8009359143 0.0021915628
25299850.0 -0.8062853889 0.00734871 -4.62734e-05 1.65856e-05 -9.60441e-05 -0.0001348121 -0.806833318 0.0080418329
30299820.0 -0.812721315 0.0147745041 -3.07724e-05 1.006e-05 6.60562e-05 -7.64439e-05 -0.8126534305 0.0161495272
35299790.0 -0.8174034311 0.0240303833 0.0001310455 0.0002100449 -8.9015e-06 5.78561e-05 -0.8179792039 0.0246762228
40299760.0 -0.8211811612 0.033799066 -0.0001159629 -9.2495e-06 0.000233552 -3.5966e-05 -0.8213925665 0.0338453666
45299730.0 -0.8247191647 0.0425225928 -3.64828e-05 2.15772e-05 8.53944e-05 9.71325e-05 -0.8258214356 0.0436838711
50299700.0 -0.8272031112 0.053045663 -4.44333e-05 3.31742e-05 -7.71913e-05 0.000115331 -0.8277747981 0.0534288185
55299670.0 -0.829658046 0.0630288951 0.0001118549 -2.30342e-05 0.0001336899 3.06765e-05 -0.8291767806 0.0641328886
60299640.0 -0.8303425615 0.0732232612 7.87404e-05 9.89171e-05 -2.52142e-05 0.0001445058 -0.8305598904 0.0740494786
65299610.0 -0.8313426932 0.0829537149 -9.27717e-05 9.88147e-05 7.13109e-05 -9.5089e-06 -0.8318328058 0.0835869677
70299580.0 -0.8317248596 0.0931395366 0.00017473 4.87148e-05 -2.87085e-05 -4.53151e-05 -0.8316245974 0.0937756821
75299550.0 -0.8316479562 0.1034236424 -9.8963e-05 0.000178161 -8.48006e-05 -9.95978e-05 -0.8323730887 0.1037990384
80299520.0 -0.8318150999 0.1130584389 0.0002474593 -1.76623e-05 -0.0002413382 0.0001454806 -0.8320339791 0.1132788105
85299490.0 -0.8306658231 0.1223906301 -3.28556e-05 -0.0001457597 6.28451e-05 -1.574e-07 -0.8314770691 0.1233715569
90299460.0 -0.8298732196 0.1322789322 2.1517e-05 -2.82406e-05 5.17106e-05 8.0063e-05 -0.8308586363 0.1328236125
95299430.0 -0.8291812631 0.1416826732 2.83389e-05 9.6719e-06 -2.45345e-05 -0.0001214367 -0.8290308705 0.1425930982
100299400.0 -0.8280034326 0.1507941697 0.0001723662 7.59e-06 -8.90792e-05 -0.0001384093 -0.828391081 0.1519937016
105299370.0 -0.8269006936 0.1604501412 5.22178e-05 -9.2848e-05 -7.8193e-06 3.0289e-05 -0.8270113773 0.1609882242
110299340.0 -0.8253615058 0.1690412625 6.64826e-05 0.0001398417 -6.7273e-05 -0.0001151137 -0.8258049405 0.1705026315
115299310.0 -0.8241118656 0.1781352393 -8.53183e-05 -2.68684e-05 -4.49e-07 0.0002274641 -0.8245404198 0.1797168948
120299280.0 -0.8220274541 0.1867359823 3.40425e-05 0.0001182739 2.11636e-05 -5.7427e-05 -0.8225826638 0.1888462712
125299250.0 -0.8203476252 0.1958576249 2.44771e-05 3.3924e-06 -3.21247e-05 0.0001562796 -0.8216441175 0.1979876244
130299220.0 -0.818922235 0.2051730222 9.81012e-05 8.46577e-05 7.70832e-05 -0.0002132535 -0.819446901 0.2066172718
135299190.0 -0.8168797722 0.2134233475 -7.42917e-05 -0.0001603088 -0.0001164232 -5.77727e-05 -0.817327707 0.2162193569
140299160.0 -0.8147373501 0.2228160271 -2.67469e-05 0.0002088803 0.0001840228 -6.90952e-05 -0.8151352367 0.2250583571
145299130.0 -0.8126243075 0.2321317632 0.0002035823 8.87269e-05 2.60316e-05 0.0001216237 -0.8133396199 0.2337319563
150299100.0 -0.8104317043 0.2407017652 0.0001576267 0.0001157165 -0.0001005684 -4.0124e-06 -0.8114061805 0.2431351751
155299070.0 -0.8080292762 0.2490647288 -0.0001084385 0.0001593626 0.0001512301 -7.93395e-05 -0.8085267346 0.2520004013
160299040.0 -0.8053588761 0.2578793335 -4.94428e-05 -0.0001374828 4.53813e-05 6.13026e-05 -0.8061488045 0.2602330558
165299010.0 -0.8031339661 0.2662301525 -7.13275e-05 -3.72796e-05 5.7896e-05 1.2721e-06 -0.8035116766 0.2693156202
170298980.0 -0.7999660829 0.2748115497 0.0001415562 0.0001157915 0.0001507423 -6.83937e-05 -0.8005048685 0.2780343262
175298950.0 -0.7972696299 0.2842107686 -4.36894e-05 0.0001953532 2.03298e-05 -2.22002e-05 -0.7983271058 0.2865441673
180298920.0 -0.7949232683 0.2922198494 2.24219e-05 -7.9987e-05 -0.0001553361 7.12104e-05 -0.7947982283 0.2945405047
185298890.0 -0.7913957648 0.300543755 3.05059e-05 8.8603e-05 9.06967e-05 3.36854e-05 -0.7912867652 0.3039873888
190298860.0 -0.7887741611 0.3094028769 0.0001308772 0.0002053695 3.15704e-05 2.00908e-05 -0.7889523739 0.3117300971
195298830.0 -0.7861094523 0.3176483621 -9.30751e-05 -8.7846e-06 -6.40134e-05 -0.0002627652 -0.78528763 0.3208593043
200298800.0 -0.7815828305 0.3259524489 -2.61915e-05 0.0001028518 9.44017e-05 2.39428e-05 -0.7829260465 0.3287989064
205298770.0 -0.7787427232 0.3342555523 -2.77065e-05 5.24642e-05 -0.0002135766 4.8707e-05 -0.7783618073 0.3370505371
210298740.0 -0.7753283073 0.3418974624 0.0001175948 -0.0001229576 -5.55052e-05 0.0001316565 -0.7752242335 0.3449407475
215298710.0 -0.7719148663 0.3501478666 -7.18292e-05 0.0001811933 1.1523e-05 5.42565e-05 -0.7716973623 0.3533288773
220298680.0 -0.7678387312 0.3581228205 6.69604e-05 -0.0001045354 9.147e-05 9.7998e-06 -0.7677595919 0.3616973444
225298650.0 -0.7646568973 0.3658285396 0.0001591434 2.89662e-05 -1.69944e-05 9.2976e-05 -0.764047377 0.3699561261
230298620.0 -0.7602290349 0.3742273372 -3.84166e-05 -2.00611e-05 0.0001001662 3.77613e-05 -0.759678381 0.3779924021
235298590.0 -0.7570276019 0.3831970003 5.88524e-05 -0.0001179225 8.49044e-05 -0.000292273 -0.7562732477 0.3863908801
240298560.0 -0.7528953276 0.3906106255 -4.36827e-05 9.3532e-06 -7.01891e-05 -1.50681e-05 -0.7517493034 0.3941758474
245298530.0 -0.748935018 0.3982289785 -0.0001028048 -0.0002030657 -1.9095e-05 -2.3742e-06 -0.7478956886 0.4016044001
250298500.0 -0.7442239486 0.4067635369 4.5575e-06 0.000121937 2.81669e-05 -5.70543e-05 -0.7436349347 0.4093447953
255298470.0 -0.7401246676 0.4134061489 -2.91196e-05 3.0745e-05 -0.0002136623 -3.23073e-05 -0.7391474296 0.4175906043
260298440.0 -0.7356071055 0.4208433683 0.0001214593 -5.31639e-05 -0.0001804761 -4.32273e-05 -0.7350949845 0.4257273805
265298410.0 -0.7316104097 0.4294741567 9.33533e-05 0.0001175159 -5.55426e-05 6.16881e-05 -0.7304710595 0.4330321275
270298380.0 -0.727219962 0.4370759214 0.0001196366 0.000106836 8.33309e-05 -0.0001592635 -0.7260606391 0.4409672629
275298350.0 -0.7230146605 0.4446334669 -0.000160244 2.75405e-05 -1.10846e-05 -3.78096e-05 -0.7214310562 0.4485725915
280298320.0 -0.7170697911 0.4521302365 7.15064e-05 -0.0001224759 2.70287e-05 2.44736e-05 -0.7161199805 0.4555089084
285298290.0 -0.7130760925 0.4595715516 -8.0529e-05 -0.0001400275 -1.81255e-05 0.0002074573 -0.7114779463 0.4635851062
290298260.0 -0.7080872965 0.4669625565 0.0001970401 -1.9307e-06 5.09851e-05 -0.0001641833 -0.7066212598 0.4712065076
295298230.0 -0.7027419757 0.4741350208 5.95838e-05 0.0001243176 2.95657e-05 7.19898e-05 -0.7016780748 0.4783664416
300298200.0 -0.6979853775 0.481479745 -0.0002079857 0.0001206571 8.90797e-05 -0.0001522626 -0.6964940504 0.4858530638
305298170.0 -0.6929243257 0.4873303386 0.0001246832 -4.52181e-05 -6.8333e-05 6.41808e-05 -0.6913300973 0.4935195325
310298140.0 -0.687659252 0.4957299438 3.3576e-06 -0.0001499181 5.08656e-05 -4.56568e-05 -0.686693359 0.5004603726
315298110.0 -0.6832035477 0.5032478781 9.08304e-05 8.36102e-05 -0.0001532283 -0.0001640046 -0.6811126202 0.507300451
320298080.0 -0.6778997541 0.5098738968 -9.20729e-05 -2.4696e-05 -9.9155e-05 0.0001242256 -0.675577123 0.5149007009
325298050.0 -0.6720962865 0.5168337727 -0.0001543203 0.0002269947 -2.186e-05 2.71416e-05 -0.6701528851 0.5214364944
330298020.0 -0.6667332485 0.5239872483 4.93471e-05 3.63728e-05 -1.63024e-05 -8.07875e-05 -0.6646509466 0.528796929
335297990.0 -0.6615532706 0.5302576524 -0.0001068001 3.65509e-05 -0.0001257258 4.1472e-06 -0.6601007703 0.5356575674
340297960.0 -0.6564941918 0.5377127107 -8.6365e-05 -4.4926e-05 -4.79749e-05 -9.96389e-05 -0.6537676883 0.543031134
345297930.0 -0.6500662212 0.5437289428 0.0001366782 3.04334e-05 5.37737e-05 -0.0001223924 -0.6484716614 0.5488735331
350297900.0 -0.644754565 0.5508494579 -8.0419e-05 -5.83292e-05 -0.0003077212 3.79191e-05 -0.642602338 0.5552528516
355297870.0 -0.638295414 0.5580936521 -5.97437e-05 -4.2528e-05 1.5889e-05 -0.0001209815 -0.6364768421 0.5619026207
360297840.0 -0.63301342 0.5634969135 5.77958e-05 0.0002799641 -9.39056e-05 0.0001430156 -0.6309914363 0.5685608228
365297810.0 -0.6280904393 0.5700535997 -5.39361e-05 -6.75135e-05 1.4028e-05 7.6558e-06 -0.6238485841 0.5754871821
370297780.0 -0.6212231711 0.5765255679 5.43536e-05 2.69093e-05 4.79844e-05 -2.504e-06 -0.6182147357 0.5818843088
375297750.0 -0.6153701993 0.5830597719 -4.67592e-05 4.43627e-05 0.0001532554 2.04338e-05 -0.6124233325 0.5878555814
380297720.0 -0.6087392152 0.5887060692 0.0002972669 -8.44352e-05 -4.53929e-05 0.0001173429 -0.6063937759 0.5937731774
385297690.0 -0.604228855 0.5944789443 5.37851e-05 -7.74978e-05 -1.32973e-05 0.0001176759 -0.6000490371 0.6002203093
390297660.0 -0.5970735079 0.6010281669 2.31723e-05 -4.04081e-05 -0.0002205918 7.03842e-05 -0.5938849267 0.6062016395
395297630.0 -0.5908725033 0.6076606093 0.0002050558 7.757e-05 -8.56789e-05 0.0002321758 -0.586491284 0.6126776791
400297600.0 -0.5844977757 0.6135714602 0.0001525345 1.13832e-05 -8.5779e-06 0.0001925358 -0.5815017948 0.6182110893
405297570.0 -0.5786204676 0.6191255206 -5.75286e-05 -4.94885e-05 -4.33276e-05 5.79659e-05 -0.574332463 0.6241451728
410297540.0 -0.5717075304 0.62480999 0.0001168376 2.36336e-05 -9.18918e-05 -8.4775e-05 -0.5682355928 0.6304122919
415297510.0 -0.5648936921 0.6309642858 -0.0002148205 1.39622e-05 -6.77138e-05 -7.75252e-05 -0.5613449 0.6355591136
420297480.0 -0.5595040784 0.6372596545 3.75237e-05 9.86696e-05 8.68239e-05 -2.70494e-05 -0.5551647069 0.6420665926
425297450.0 -0.5525639966 0.6420626934 -0.0001074353 -7.76165e-05 -0.0001224563 9.01304e-05 -0.548332453 0.6478179755
430297420.0 -0.5461280663 0.6479821377 3.01084e-05 -0.0002353116 -0.0001816976 -9.88396e-05 -0.541630647 0.6525675997
435297390.0 -0.5391091232 0.6529729303 0.0001720635 7.87556e-05 -3.222e-06 -7.7683e-06 -0.5343497601 0.6581743253
440297360.0 -0.5327179369 0.6589732975 0.0001397522 0.0001628629 9.17695e-05 -9.68566e-05 -0.5281520146 0.6637411604
445297330.0 -0.525732768 0.6642787502 0.0002158196 2.78701e-05 -0.0001297237 -2.7762e-05 -0.5211726246 0.6685650908
450297300.0 -0.5186950931 0.6690406345 9.86145e-05 8.95174e-05 0.0001398013 0.000104637 -0.5141868415 0.674470406
455297270.0 -0.5118688277 0.6744299772 7.88055e-05 -0.0001913179 1.88678e-05 1.21302e-05 -0.5067397042 0.67873862
460297240.0 -0.5055435325 0.6796307516 4.09418e-05 -4.3923e-06 -0.0001225849 2.84597e-05 -0.5006446479 0.6845538679
465297210.0 -0.4984854795 0.6841897281 -9.60941e-05 0.0001189201 4.21818e-05 9.80135e-05 -0.4929540339 0.6891232215
470297180.0 -0.4911561119 0.6895685927 7.98323e-05 7.94249e-05 -6.79878e-05 0.000325627 -0.4856653897 0.6951464806
475297150.0 -0.4840919678 0.6941945346 0.0001165889 -4.71414e-05 -0.000103535 -6.77608e-05 -0.4786225855 0.699144731
480297120.0 -0.4770507864 0.6992715471 4.53262e-05 4.12213e-05 -0.0001168566 4.08126e-05 -0.4711937787 0.7041806531
485297090.0 -0.4695414128 0.7039966536 0.000200099 0.0001866133 0.0002048417 2.28469e-05 -0.4638085783 0.708833247
490297060.0 -0.4628266211 0.7086831133 -0.000294347 0.0002344116 9.6734e-05 3.11659e-05 -0.4567657138 0.7133568732
495297030.0 -0.4554963946 0.7128231028 7.97603e-05 1.62021e-05 7.65224e-05 0.0003792048 -0.4496553493 0.7183123955
500297000.0 -0.4487024825 0.7180486078 -0.0001849432 -2.21878e-05 0.0001174662 9.06426e-05 -0.4419483487 0.7237051402
505296970.0 -0.4409605737 0.7227183686 -1.17509e-05 -0.0002674412 -1.90792e-05 0.0001174973 -0.4347978575 0.7271035166
510296940.0 -0.4338578938 0.7264492125 -8.87272e-05 -0.0001216088 -1.24273e-05 -2.23119e-05 -0.4267937414 0.7315497789
515296910.0 -0.4252919324 0.7301943262 -4.34289e-05 -2.4018e-05 -1.51331e-05 1.54733e-05 -0.4197215478 0.7359338388
520296880.0 -0.4187672584 0.7355724667 -6.03454e-05 4.73856e-05 -4.05696e-05 6.03962e-05 -0.4119917546 0.7397790217
525296850.0 -0.4109774765 0.7397364563 -0.0002404699 0.0002117092 -0.0001195124 -0.0002198633 -0.4048521089 0.7440999905
530296820.0 -0.403396563 0.7431911001 9.93914e-05 -2.43802e-05 8.27897e-05 -6.40647e-05 -0.3975790644 0.7478259874
535296790.0 -0.3965857326 0.7468579034 4.78392e-05 0.000109796 -2.16544e-05 -2.3519e-05 -0.3902195183 0.7512991699
540296760.0 -0.3884764659 0.7505492496 7.309e-07 8.51552e-05 8.74009e-05 0.00014945 -0.3813646625 0.7553652987
545296730.0 -0.3814665627 0.7547510431 8.25178e-05 -8.38947e-05 -2.47355e-05 -6.60411e-05 -0.3742888531 0.7592855143
550296700.0 -0.3736326401 0.7588063866 -2.36804e-05 -1.23866e-05 -2.61555e-05 -4.188e-06 -0.3665521313 0.7630486081
555296670.0 -0.3653906954 0.7616309968 0.0001173682 4.61446e-05 0.0002271308 1.45123e-05 -0.3589071617 0.7673511811
560296640.0 -0.3579624555 0.7661421597 0.0001282457 -0.0001478354 0.0001720902 -6.49111e-05 -0.3506931961 0.7708904805
565296610.0 -0.3504200977 0.7693924394 5.30853e-05 -0.0002342563 0.000121739 2.8282e-06 -0.3433383648 0.7736438239
570296580.0 -0.3432541377 0.7720320135 0.000253983 7.20189e-05 -0.000106104 2.66404e-05 -0.3354064854 0.7775312685
575296550.0 -0.3346624934 0.776750784 -0.0001389689 2.8105e-06 0.0001489458 0.000143048 -0.3274094173 0.7804031053
580296520.0 -0.3267438032 0.779800244 -9.75774e-05 -1.7653e-05 -6.98814e-05 -9.35779e-05 -0.3187837069 0.7838274658
585296490.0 -0.3189055087 0.7823787133 -9.00506e-05 7.07753e-05 -0.0001731315 5.37287e-05 -0.3111428116 0.7874567081
590296460.0 -0.3115829187 0.7856115338 7.2155e-06 3.4e-08 -0.0001589239 0.0002802317 -0.3036837105 0.7899296433
595296430.0 -0.3032464424 0.7883151175 -8.97482e-05 0.0001401026 1.86099e-05 -8.86655e-05 -0.295352691 0.792408809
600296400.0 -0.2957090601 0.7917055296 8.60523e-05 3.45407e-05 0.0001013467 3.24709e-05 -0.2872956839 0.7953881119
605296370.0 -0.2883818878 0.7942306684 -6.61203e-05 0.0001717243 7.31725e-05 -3.98084e-05 -0.2786774049 0.799090693
610296340.0 -0.2795799816 0.7971395395 0.0001341332 0.0001214005 6.31244e-05 6.44698e-05 -0.2711070177 0.8014572709
615296310.0 -0.2708721043 0.8001241345 7.51445e-05 0.0002499887 -9.35655e-05 -0.0001509407 -0.2620131095 0.8037535093
620296280.0 -0.2635208772 0.8019569089 -6.87227e-05 5.91996e-05 -0.0001309273 -0.0003105025 -0.2551644696 0.8066924784
625296250.0 -0.2549260861 0.8055898651 0.0001188827 2.41569e-05 2.14591e-05 0.0001440627 -0.2456974233 0.8084480902
630296220.0 -0.2470255063 0.8077066163 6.124e-06 7.5766e-06 0.0001775909 -0.0001871009 -0.2382819161 0.8118105362
635296190.0 -0.2395029893 0.8105101411 -2.10565e-05 -0.0001013523 2.40721e-05 9.84287e-05 -0.2305381684 0.8134329374
640296160.0 -0.2318450219 0.8123601088 -0.0002543542 0.0002179037 -0.0001732127 -6.09678e-05 -0.2219460192 0.8166936332
645296130.0 -0.2233879554 0.8153954924 0.0001343033 0.0001574805 2.18169e-05 -5.58971e-05 -0.2143211608 0.8184389875
650296100.0 -0.2151844483 0.8167043292 -5.31926e-05 7.70421e-05 9.81907e-05 1.4006e-06 -0.205865273 0.81959842
655296070.0 -0.2065660207 0.8192844242 8.28644e-05 7.9954e-05 -0.0001848414 6.43867e-05 -0.196992197 0.8216634044
660296040.0 -0.1988248796 0.8204454676 -1.84042e-05 -0.000227169 -0.0001623486 -1.22431e-05 -0.1885019203 0.8239484806
665296010.0 -0.1898909432 0.8224752157 -5.95886e-05 6.78706e-05 9.22432e-05 -9.64437e-05 -0.1803977212 0.8263731914
670295980.0 -0.1826882172 0.8244639084 -6.9472e-06 8.2047e-05 -3.5495e-06 0.0002643661 -0.1725554234 0.8276412319
675295950.0 -0.174106696 0.8263323652 1.53524e-05 0.0001201469 -0.000188936 0.00011624 -0.1647869218 0.830084877
680295920.0 -0.1655831745 0.8277889186 -7.6523e-06 -5.58451e-05 -8.02936e-05 -4.54368e-05 -0.1560443116 0.8316162933
685295890.0 -0.1571017907 0.8301431342 -0.000145196 0.0002363452 -5.45917e-05 -0.0001820185 -0.1468732609 0.8321325133
690295860.0 -0.1495887833 0.8309592031 4.96508e-05 -0.0001394532 -0.0001557093 -9.34018e-05 -0.1393274325 0.8337774002
695295830.0 -0.1409660669 0.8329107155 8.04856e-05 -0.0001601619 0.0001279083 -0.0002180496 -0.1300861259 0.8352349003
700295800.0 -0.1324082147 0.8340881901 -0.0001369512 1.65299e-05 6.78971e-05 0.0001797912 -0.1233066292 0.8365185984
705295770.0 -0.1248848846 0.8353706332 4.37512e-05 5.78598e-05 0.0001115997 0.0001158079 -0.1148413846 0.8383827872
710295740.0 -0.1163221063 0.8366882639 -4.20237e-05 -0.000103669 -5.72464e-05 -3.37389e-05 -0.1056805621 0.838627634
715295710.0 -0.1080845881 0.8376684991 -0.0001220493 -0.0001033872 7.77805e-05 0.0001174053 -0.0975658871 0.8395300565
720295680.0 -0.0993721209 0.8387795706 -4.42443e-05 -3.73279e-05 -2.552e-05 -6.25482e-05 -0.0888705754 0.8409305964
725295650.0 -0.0912914089 0.8398293377 -2.5771e-06 0.0001387837 5.1963e-06 2.75021e-05 -0.0810581566 0.84194619
730295620.0 -0.0828072798 0.8405241432 -0.0002543598 2.76767e-05 1.1425e-06 7.2953e-06 -0.0725943831 0.8417872809
735295590.0 -0.0753602844 0.8411443731 -0.0002288112 -3.3974e-06 -0.0001292803 2.28265e-05 -0.0641525649 0.842123585
740295560.0 -0.0664504513 0.8423000651 -9.03725e-05 -8.89e-06 6.55973e-05 6.49096e-05 -0.0549198815 0.8437399585
745295530.0 -0.0582177808 0.8426524176 -1.4208e-06 2.567e-07 -3.28179e-05 1.60311e-05 -0.0466576982 0.8443130466
750295500.0 -0.0492515757 0.8425486565 0.000116414 2.50257e-05 1.31877e-05 1.04681e-05 -0.0387598967 0.8445029545
755295470.0 -0.0409219402 0.843336871 -0.0002452171 -1.7199e-06 6.52807e-05 3.91216e-05 -0.0294856827 0.8442113309
760295440.0 -0.0335451216 0.8434284292 9.91978e-05 0.0002896453 -0.0001197158 -2.72172e-05 -0.0210812173 0.8444857243
765295410.0 -0.0250735694 0.843823181 8.96124e-05 8.12256e-05 5.06112e-05 0.0001420213 -0.0128638947 0.8452286092
770295380.0 -0.016800779 0.8444368961 -8.31332e-05 3.49417e-05 7.3602e-05 0.0001555598 -0.0047009409 0.8451955499
775295350.0 -0.0087961545 0.8442409214 -0.0001038128 0.0001478559 1.21926e-05 -3.98268e-05 0.003253104 0.8446536667
780295320.0 0.0001540616 0.8443196573 7.7504e-06 -0.0001295753 1.56166e-05 -3.61581e-05 0.0117514903 0.8447194934
785295290.0 0.0084696802 0.8436628559 1.14918e-05 -0.0002224504 5.99144e-05 0.0002288657 0.020813866 0.8453160603
790295260.0 0.01694053 0.8438687813 8.53832e-05 0.0003389908 -2.46687e-05 5.75502e-05 0.0292643295 0.8452114229
795295230.0 0.0248738651 0.843883216 9.72496e-05 -5.7188e-06 0.0001890262 3.8446e-06 0.0379646069 0.844048207
800295200.0 0.033359419 0.8432502374 -0.0002150249 0.0001095006 -8.35495e-05 -8.92508e-05 0.0465097704 0.8437160832
805295170.0 0.0415692251 0.8433179237 -2.69476e-05 -0.0001548626 -0.0002615108 0.000128733 0.0547438173 0.8443048119
810295140.0 0.0501757657 0.8429753834 -9.50552e-05 6.59901e-05 2.20258e-05 -7.26459e-05 0.0629336444 0.8425799804
815295110.0 0.0586783238 0.8420689757 -0.0001184018 9.30928e-05 -7.52428e-05 -1.31306e-05 0.0713551717 0.8421958277
820295080.0 0.0665712117 0.8419651705 0.0001808509 4.0252e-05 0.0002378909 3.7857e-06 0.0796939491 0.8414750731
825295050.0 0.0761423347 0.8405602376 8.56076e-05 -9.81329e-05 4.5327e-06 -0.0002611543 0.0882489554 0.8409717801
830295020.0 0.0832739375 0.8398261593 -0.0002285977 -7.7896e-06 9.40469e-05 -0.000102722 0.096891668 0.8396933828
835294990.0 0.0914430548 0.8392850298 -3.63073e-05 -0.0001804388 0.0001123801 0.0001889396 0.1050301249 0.8394690267
840294960.0 0.0996895455 0.8385328595 -0.0001109584 4.85166e-05 0.0001057944 0.0001482717 0.1132937459 0.8379460574
845294930.0 0.1078090986 0.8369344455 -1.43605e-05 4.06708e-05 1.49956e-05 -7.24786e-05 0.1203593909 0.8358438968
850294900.0 0.1163975428 0.8362582077 -0.0001145911 -2.46001e-05 0.0001851718 1.02585e-05 0.129267491 0.8346010523
