!Created with skrf (http://scikit-rf.org).
# Hz S RI R 50.0 
!freq ReS11 ImS11 ReS21 ImS21 ReS12 ImS12 ReS22 ImS22
300000.0 -0.3187324492 -0.1037900665 0.37164913 0.0518558049 0.3732600941 0.0548108856 -0.3174649768 -0.1109728793
5299970.0 -0.3237342809 0.0048741645 0.3787477016 0.0026499345 0.3784517861 0.0032097993 -0.3262391633 0.0029850425
10299940.0 -0.3209892949 0.0156046085 0.3798881855 0.0024237744 0.3797789218 0.0023224234 -0.3242344807 0.0126940194
15299910.0 -0.3178154996 0.0234851165 0.3819693479 0.0022574917 0.3820104287 0.0024061187 -0.3215517915 0.0195858695
20299880.0 -0.3142625283 0.0301177155 0.3850333486 0.0016579543 0.3850544036 0.001591896 -0.3188472803 0.0261357469
25299850.0 -0.3105510563 0.0360127666 0.3882979382 -9.51817e-05 0.3884797402 0.0003529211 -0.31570024 0.0309417333
30299820.0 -0.306720591 0.0405263057 0.3919296586 -0.0021219076 0.3916970112 -0.0022511357 -0.3127807937 0.0355369586
35299790.0 -0.3029503549 0.0447676229 0.3950780609 -0.0052693274 0.3951407488 -0.0053427137 -0.3099661399 0.039358962
40299760.0 -0.2996051974 0.0480538369 0.3982578491 -0.0089369091 0.398412364 -0.0087137028 -0.3072385086 0.0430717089
45299730.0 -0.2964187857 0.0518253452 0.4011892549 -0.0130908811 0.4014975287 -0.0126037725 -0.3045967261 0.0462098196
50299700.0 -0.2932537623 0.0543105255 0.4033144575 -0.0172981507 0.4036866066 -0.0171201314 -0.3023280736 0.0490824481
55299670.0 -0.2907602105 0.056835501 0.4055708274 -0.0219185312 0.4058975597 -0.0219509675 -0.3003823559 0.0519254685
60299640.0 -0.2880537161 0.0588999766 0.4073972824 -0.026954803 0.4078489139 -0.0267603977 -0.2981051456 0.0545345078
65299610.0 -0.2859977362 0.0617949597 0.409330919 -0.0316082343 0.4097566803 -0.0315478504 -0.2963439412 0.0575169125
70299580.0 -0.2838377536 0.0636954958 0.4107681765 -0.0366890966 0.4105090652 -0.0368793261 -0.294711963 0.0594639297
75299550.0 -0.2817108415 0.0658566217 0.4114214241 -0.0417927166 0.4117857319 -0.0423567357 -0.2930952373 0.0619823524
80299520.0 -0.2801229352 0.0679399095 0.4125646632 -0.0474885816 0.4126198515 -0.0474573884 -0.2915314198 0.0637374406
85299490.0 -0.2786276822 0.0697281603 0.4131723331 -0.0527165582 0.4132237961 -0.0527819982 -0.2905605673 0.0663546529
90299460.0 -0.2771456485 0.0719488098 0.4136143118 -0.0574560118 0.4138454763 -0.0578637544 -0.2886780137 0.0687769034
95299430.0 -0.2755940687 0.0740995656 0.4138469752 -0.0633203993 0.4141395401 -0.0632544283 -0.2875643056 0.0710604346
100299400.0 -0.2744393332 0.0763441738 0.4138621617 -0.0683745752 0.4137860818 -0.0685238412 -0.2866403422 0.0731144391
105299370.0 -0.2731636829 0.0783547403 0.4134855836 -0.0733466893 0.4138608712 -0.0738818189 -0.2850341076 0.0757495344
110299340.0 -0.2719692322 0.0804145492 0.413412506 -0.0786684466 0.4135926983 -0.0787412402 -0.2846871964 0.0779592802
115299310.0 -0.270715838 0.0823113158 0.4130905868 -0.0835314112 0.4134324142 -0.0836022812 -0.2831107781 0.0801591505
120299280.0 -0.2699555993 0.0846710068 0.4131489151 -0.088720743 0.4129831363 -0.0889239862 -0.2824227631 0.0825847188
125299250.0 -0.2690876204 0.0867834776 0.4121732596 -0.0937806397 0.4126074421 -0.0940577111 -0.2811775036 0.0847987871
130299220.0 -0.2677311312 0.0891568681 0.4115764505 -0.0987841341 0.4117439264 -0.0989327967 -0.2808286831 0.0872980395
135299190.0 -0.2668833589 0.0910322836 0.411193134 -0.1037912094 0.4108301782 -0.1039785405 -0.2797117227 0.089674443
140299160.0 -0.2659297621 0.0935913327 0.41027199 -0.109099677 0.4102399991 -0.1090892927 -0.2785438636 0.0918654142
145299130.0 -0.2647311726 0.0960010582 0.4094080754 -0.1143491969 0.4092018103 -0.1137774026 -0.2779283748 0.0945547941
150299100.0 -0.2637164109 0.0980679831 0.4080863424 -0.1193066611 0.4081468722 -0.1189374402 -0.2769609807 0.097041961
155299070.0 -0.263145822 0.1008214871 0.4074742513 -0.1239002982 0.4072961999 -0.1241302196 -0.2761516781 0.09968026
160299040.0 -0.2618049075 0.1031493928 0.4056622461 -0.1284865828 0.4060452104 -0.1285839645 -0.2751305815 0.1021416856
165299010.0 -0.2611848462 0.1052755794 0.404663563 -0.1337332205 0.4046741189 -0.1337021225 -0.2743073354 0.1044671879
170298980.0 -0.2600441186 0.1078863821 0.4026316323 -0.1384193715 0.4033395979 -0.1382059991 -0.2728703194 0.1071507108
175298950.0 -0.2591381633 0.1103626164 0.4022045292 -0.1429759536 0.4021730602 -0.1429467022 -0.2722286276 0.1096350965
180298920.0 -0.2578814234 0.1126957223 0.400292942 -0.1481979095 0.4004742688 -0.1477132995 -0.2709689336 0.1125965867
185298890.0 -0.2568312521 0.1154453355 0.3986536872 -0.1527736263 0.399070047 -0.1527979546 -0.2704208522 0.114678921
190298860.0 -0.2559301096 0.1176344863 0.3973531174 -0.1571619664 0.3976542052 -0.1573940697 -0.2687207831 0.1176068551
195298830.0 -0.2544122829 0.1202350148 0.3955841248 -0.1616158695 0.3961518689 -0.161963929 -0.2680411776 0.1199887295
200298800.0 -0.2535771291 0.1225437134 0.3938610597 -0.1661944817 0.3940981615 -0.1665470874 -0.2667613009 0.1229620622
205298770.0 -0.2527572866 0.1253568992 0.3926372834 -0.1710072048 0.3923353083 -0.1712284156 -0.2656399321 0.1253164562
210298740.0 -0.2513923282 0.1276794297 0.3904342107 -0.1756332422 0.3906434548 -0.1758840509 -0.2646919753 0.1282849444
215298710.0 -0.2503548342 0.1304303778 0.3885505829 -0.1801965437 0.3885991848 -0.1800640915 -0.2639207152 0.1309193375
220298680.0 -0.249028425 0.1328597182 0.3863203696 -0.1846598184 0.3869369062 -0.184544524 -0.2621678502 0.1338215963
225298650.0 -0.2477723874 0.1355499427 0.384466217 -0.1887313975 0.3844398003 -0.1888980617 -0.2611589022 0.1363926169
230298620.0 -0.2468815998 0.1382578384 0.3829055443 -0.1937085079 0.3826300845 -0.1936253241 -0.2596519155 0.1389505727
235298590.0 -0.2453173753 0.1405115162 0.3803561627 -0.1975150414 0.3804317627 -0.1979010268 -0.2583309905 0.1411859163
240298560.0 -0.2442166938 0.1432087124 0.378100566 -0.2020255737 0.3783396138 -0.2020703542 -0.2572619931 0.1445173413
245298530.0 -0.2428054691 0.1458622867 0.3759966681 -0.2066445877 0.3759927373 -0.2063734589 -0.2556958172 0.1470004769
250298500.0 -0.2414358664 0.1485672656 0.3734893869 -0.2108557915 0.373950431 -0.2102841307 -0.2540046538 0.1499405714
255298470.0 -0.2401933069 0.15109649 0.3713410872 -0.2153297939 0.3713756642 -0.2150739005 -0.2528322382 0.1524575391
260298440.0 -0.2385970762 0.1534868397 0.3690810289 -0.2191301112 0.3691244378 -0.219142037 -0.2509615664 0.1550296703
265298410.0 -0.2371338802 0.1559397195 0.3666122078 -0.2234952663 0.3667370241 -0.2235093087 -0.2498659294 0.1576626488
270298380.0 -0.2356459753 0.1585186271 0.3637212069 -0.2274990494 0.364422525 -0.2276434869 -0.2480280247 0.1606004759
275298350.0 -0.2341133854 0.1612722392 0.3615785642 -0.2319649359 0.3618776581 -0.2317987518 -0.2464308305 0.1632226093
280298320.0 -0.23255177 0.1637120169 0.3588296377 -0.2353816921 0.3590241115 -0.2358419838 -0.2447837226 0.1658204927
285298290.0 -0.2309576089 0.1663675092 0.3565001693 -0.2394949883 0.3562262184 -0.2398921269 -0.2431643664 0.1684853719
290298260.0 -0.2294713774 0.1689328769 0.3539337549 -0.243973003 0.354177778 -0.2439849763 -0.2412133084 0.1712855964
295298230.0 -0.2278099793 0.1712830406 0.351431478 -0.2478293179 0.3512346553 -0.2478210767 -0.2395499906 0.1739077049
300298200.0 -0.2255608031 0.1737963596 0.3481895276 -0.2519347979 0.3487049735 -0.251997109 -0.2379060683 0.1768388667
305298170.0 -0.2240622999 0.1764284812 0.3460145073 -0.2562593469 0.3458789286 -0.2560442958 -0.235744003 0.1794679784
310298140.0 -0.2220515849 0.1784555126 0.3428199704 -0.259791695 0.343164609 -0.2601967743 -0.2341555345 0.182072683
315298110.0 -0.2207130927 0.1809786655 0.3400477356 -0.2640923515 0.3403100459 -0.2637792274 -0.2321048478 0.1843707309
320298080.0 -0.2185925507 0.1834108112 0.3369965735 -0.2677326394 0.3371615034 -0.2679275487 -0.230373847 0.1867387765
325298050.0 -0.217081254 0.1853657824 0.3344082114 -0.2716202392 0.3343042143 -0.2716291415 -0.2285903615 0.1892853137
330298020.0 -0.2150793194 0.18817808 0.3301966289 -0.275499758 0.3307212156 -0.27529541 -0.2266089607 0.1919707363
335297990.0 -0.2131599827 0.1902756937 0.3276505902 -0.2791979087 0.3275935905 -0.2790808391 -0.2247832021 0.1941831262
340297960.0 -0.2120248877 0.1924751457 0.3245043238 -0.2826425195 0.3247662119 -0.282610643 -0.2228104543 0.1970127151
345297930.0 -0.2100618128 0.1950220462 0.3212314892 -0.2860645394 0.3208976086 -0.2859542408 -0.2207180279 0.1995660585
350297900.0 -0.207735591 0.1976344366 0.3182625883 -0.2894023335 0.3182842486 -0.2899480249 -0.2190436522 0.2022299841
355297870.0 -0.2059004436 0.1998616196 0.3145336105 -0.2930670877 0.3147405369 -0.293331746 -0.2168714587 0.204773238
360297840.0 -0.2038019143 0.2022017004 0.3115813662 -0.2970337585 0.3114134514 -0.2965872398 -0.2147338936 0.2074358725
365297810.0 -0.2016643909 0.2046705105 0.308063287 -0.3000745895 0.3081462197 -0.30022518 -0.2126538241 0.2101237579
370297780.0 -0.1996705833 0.2067502686 0.3046653995 -0.303166313 0.3049800301 -0.3034926893 -0.2104273252 0.212264278
375297750.0 -0.1974708306 0.2093527159 0.301850669 -0.3068610994 0.3015662524 -0.3068082586 -0.2081947963 0.2147862869
380297720.0 -0.1950652569 0.2113715567 0.2980691416 -0.3100773183 0.2979596758 -0.3099415852 -0.2057519078 0.2175089961
385297690.0 -0.1930142468 0.2138939711 0.29463055 -0.3131656997 0.2944362572 -0.3131588701 -0.2037615024 0.2197216646
390297660.0 -0.1910367936 0.215980451 0.2913040248 -0.3168840771 0.2907685449 -0.316611772 -0.2013936694 0.2218143908
395297630.0 -0.188634366 0.2179342692 0.2876557806 -0.3194260586 0.2873816846 -0.3197341239 -0.1991960074 0.2244851647
400297600.0 -0.1864457006 0.2202189083 0.2839953216 -0.3229206855 0.2843294507 -0.3229576417 -0.1970299677 0.2264734971
405297570.0 -0.1843250828 0.2223662087 0.2804795174 -0.3259031598 0.2803504818 -0.3262970285 -0.1944650214 0.2292131171
410297540.0 -0.1816337445 0.2245157141 0.2764158857 -0.3288554579 0.2768128527 -0.3289317544 -0.1923490304 0.2312942624
415297510.0 -0.1795648817 0.2266926669 0.2733719113 -0.3320381217 0.2732188219 -0.3319400656 -0.189684128 0.2338584808
420297480.0 -0.1773208003 0.2284664685 0.2694084827 -0.3352996967 0.2694032786 -0.3349300674 -0.1875655609 0.2357885592
425297450.0 -0.1746769972 0.2304082588 0.265617347 -0.3375876113 0.2662687829 -0.3379548517 -0.1851496567 0.2384176033
430297420.0 -0.1724469993 0.2326667076 0.2621136974 -0.34122366 0.2623006838 -0.3407000867 -0.1827586264 0.2403624973
435297390.0 -0.1701081468 0.2346846009 0.2583362396 -0.3435368509 0.2585676025 -0.3432879681 -0.1800470043 0.24242527
440297360.0 -0.1672254537 0.2366101115 0.253888424 -0.3463567817 0.2542248592 -0.3459638395 -0.1777960275 0.2440320552
445297330.0 -0.1647808052 0.2387287578 0.2503775536 -0.3489196881 0.2507272686 -0.3491077514 -0.1752185701 0.2466072313
450297300.0 -0.1622419079 0.2400362928 0.2463023734 -0.3516716314 0.2466709856 -0.3519156426 -0.1727846008 0.2489387481
455297270.0 -0.1601577578 0.2422709697 0.2430089844 -0.3545288533 0.243002085 -0.3542766865 -0.169903447 0.250759968
460297240.0 -0.1574617043 0.2440224371 0.2386733719 -0.3567712703 0.2386605205 -0.3571015315 -0.1672067502 0.253263106
465297210.0 -0.1544915375 0.2461372728 0.2350090328 -0.3596630191 0.2350904997 -0.3596898277 -0.165221192 0.2547477433
470297180.0 -0.1521023027 0.2477866907 0.2307965896 -0.36219241 0.2311956507 -0.3619553145 -0.1629670107 0.2567005997
475297150.0 -0.1498535556 0.2490934181 0.2268834663 -0.3641336958 0.2273390962 -0.3641257007 -0.160013707 0.2585529823
480297120.0 -0.1469276866 0.2508619628 0.2228325935 -0.3668970188 0.2230992948 -0.3669973347 -0.1569094681 0.2608304755
485297090.0 -0.1444697475 0.2527351391 0.2190530913 -0.3693756018 0.2191233573 -0.3691808007 -0.1543675889 0.2626745949
490297060.0 -0.1417447287 0.2542219861 0.2148688501 -0.3716522852 0.2149416083 -0.3716690924 -0.1518880144 0.2641805771
495297030.0 -0.1390237784 0.2562331717 0.2105809718 -0.3737704364 0.2104887152 -0.3738486234 -0.1488648864 0.265748759
500297000.0 -0.1362787524 0.2576264936 0.2064995484 -0.376056265 0.2066540684 -0.3758599642 -0.1465791575 0.2677082879
505296970.0 -0.1337184293 0.2591179421 0.2021011436 -0.3779452075 0.2022573622 -0.3783061325 -0.1440568631 0.2696383508
510296940.0 -0.1307437276 0.2609225448 0.1979766985 -0.3809000716 0.1986471084 -0.3804843424 -0.1407827064 0.2713660088
515296910.0 -0.1284235679 0.262736055 0.1939051119 -0.3825062107 0.194410154 -0.3824760106 -0.1382715054 0.2727889891
520296880.0 -0.1252309242 0.2638939133 0.1897632803 -0.3845119581 0.1901206467 -0.3845508524 -0.1353153193 0.2745579105
525296850.0 -0.1227677926 0.2652257908 0.1855892023 -0.3865720382 0.1858070952 -0.3866422966 -0.1322722238 0.2762375172
530296820.0 -0.1198648552 0.2666469344 0.1817197197 -0.3878034266 0.1814518099 -0.3884171798 -0.1297079756 0.2774475631
535296790.0 -0.1168373058 0.2681469045 0.1773486536 -0.3903844278 0.1773636462 -0.3901427854 -0.1268112519 0.2788888723
540296760.0 -0.1143970645 0.269415739 0.1730122023 -0.3923436252 0.1726529965 -0.3925070057 -0.1243045055 0.2807288878
545296730.0 -0.1111894079 0.2708619861 0.1686884847 -0.3938013961 0.1685600772 -0.3942027606 -0.1212991051 0.2819072687
550296700.0 -0.1087460805 0.2722032977 0.1644978249 -0.3960277425 0.164642329 -0.3962154567 -0.1185793789 0.2837074399
555296670.0 -0.1052438452 0.2731336768 0.1598635959 -0.3976412696 0.1603635098 -0.3975034872 -0.115631351 0.284985263
560296640.0 -0.1029752456 0.2745055325 0.1558408551 -0.3990001365 0.1559981261 -0.3991480311 -0.1124434145 0.2862353579
565296610.0 -0.0999624395 0.2757957046 0.1514380498 -0.4008342278 0.1512368658 -0.4010657898 -0.1096495962 0.2876875262
570296580.0 -0.096826714 0.2768318101 0.1465438659 -0.4022134538 0.1469898959 -0.4027666107 -0.1065576804 0.2893275099
575296550.0 -0.0939362396 0.2782418785 0.1427139766 -0.4036983836 0.1427426885 -0.4037734374 -0.1035784838 0.2900777606
580296520.0 -0.0910282532 0.2792689366 0.1384163808 -0.4052303959 0.1380844425 -0.4053653601 -0.1008321418 0.2916381254
585296490.0 -0.0882815011 0.2801127303 0.1342797389 -0.4069267159 0.1338238257 -0.4067261438 -0.0975469389 0.292424507
590296460.0 -0.0855720452 0.2812729237 0.1290074509 -0.4081464001 0.1290929405 -0.4085309186 -0.0946134719 0.2939743924
595296430.0 -0.0824738291 0.2825274626 0.1250141055 -0.4099416584 0.1249284339 -0.410064605 -0.0916140532 0.29473151
600296400.0 -0.079464166 0.2833494155 0.120600482 -0.410750774 0.1206883204 -0.4108866219 -0.0884487443 0.2961756791
605296370.0 -0.0762210246 0.2846690025 0.1160548771 -0.4123078798 0.1161484934 -0.4122175695 -0.0856739528 0.2973080705
610296340.0 -0.0736274812 0.2855393397 0.1117833743 -0.4131889129 0.1117822036 -0.4140076096 -0.0820593469 0.2987584248
615296310.0 -0.0700675925 0.2865825218 0.1066534694 -0.414772358 0.1070612791 -0.4146611472 -0.0792302576 0.2994665773
620296280.0 -0.0673818597 0.287183816 0.1026498303 -0.4154148589 0.1024964235 -0.415410683 -0.0764075198 0.2999934446
625296250.0 -0.0640825259 0.2880604051 0.0976904249 -0.4167443192 0.0979471099 -0.4171719325 -0.0732996941 0.3011563767
630296220.0 -0.0609899025 0.2889162609 0.0935296488 -0.4180304317 0.0936388098 -0.4178813316 -0.0700878324 0.3022763454
635296190.0 -0.0580234729 0.289864755 0.0888361186 -0.4184816058 0.0891109258 -0.4183402533 -0.067150186 0.3030510764
640296160.0 -0.0549072924 0.2905671238 0.0842293373 -0.4195583553 0.0844391292 -0.4196448866 -0.0634965538 0.3038449146
645296130.0 -0.0518652402 0.2912424562 0.0794873587 -0.4204563503 0.0800269431 -0.4202995868 -0.0611820061 0.3042441363
650296100.0 -0.0491293551 0.2922961363 0.0753750981 -0.4212131635 0.0753182688 -0.4209574439 -0.0577284937 0.3054951494
655296070.0 -0.0458190239 0.2926212319 0.0705811941 -0.4216098842 0.0704210296 -0.4219234909 -0.0541840091 0.3062368903
660296040.0 -0.0430727277 0.2933846227 0.0660631213 -0.4222286851 0.0663163087 -0.4223467512 -0.0514796036 0.3068557298
665296010.0 -0.0398306145 0.2939260946 0.0618344567 -0.4232827795 0.0620702968 -0.4231345238 -0.0482987087 0.3071946543
670295980.0 -0.0362097565 0.2945755657 0.0566858592 -0.4238718307 0.0575284117 -0.42371093 -0.0453960142 0.308057971
675295950.0 -0.0334163196 0.2950582365 0.0520444716 -0.4242894997 0.0527375754 -0.424728913 -0.0416986444 0.3087378591
680295920.0 -0.0302324411 0.2958652882 0.0475746274 -0.4248077636 0.0475046237 -0.4251545785 -0.0386416993 0.3093239357
685295890.0 -0.0270256554 0.2960754737 0.0431126052 -0.4253452068 0.0430099735 -0.4255475792 -0.0352912886 0.3096718839
690295860.0 -0.0237704544 0.2963782493 0.0384807871 -0.4251986869 0.0382171247 -0.4256615493 -0.0317425657 0.3104763292
695295830.0 -0.0205119763 0.2965673517 0.0333444473 -0.4257682231 0.0335132284 -0.426378778 -0.028890814 0.3113387703
700295800.0 -0.017704928 0.2969221335 0.0291950056 -0.4260955391 0.0294847985 -0.426673961 -0.0259336539 0.3113341442
705295770.0 -0.0142280797 0.2975249096 0.0245151238 -0.4268036988 0.0249729734 -0.4268239234 -0.0228068938 0.3115934101
710295740.0 -0.0111827495 0.2980141212 0.020022621 -0.4269550525 0.0202395364 -0.4268204283 -0.0198631107 0.3122252779
715295710.0 -0.0084037263 0.298084405 0.0152479328 -0.4270162517 0.0156688896 -0.4270642576 -0.0164638814 0.3122351552
720295680.0 -0.0052097698 0.2981745974 0.0107420697 -0.4265952335 0.0109899057 -0.4271852989 -0.0128078363 0.3125653271
725295650.0 -0.001595546 0.298577582 0.0057972575 -0.4268732804 0.0060938026 -0.4271566458 -0.0097214048 0.3131886055
730295620.0 0.001222635 0.298468314 0.0014457807 -0.4271899336 0.0014319563 -0.4270607867 -0.0060902001 0.3130409559
735295590.0 0.0045804331 0.2986536055 -0.0028814777 -0.426823783 -0.002752093 -0.4273812708 -0.0030063163 0.3133513304
740295560.0 0.0076488023 0.2989659708 -0.0077128637 -0.4265196791 -0.0077946805 -0.4270130792 0.0006231111 0.3133513296
745295530.0 0.0106993484 0.2988080275 -0.0124464032 -0.4267138245 -0.0121187485 -0.4271377582 0.0034160074 0.3138642073
750295500.0 0.0139273242 0.2988617047 -0.0167666143 -0.4263489161 -0.0168108167 -0.4262283369 0.0068311258 0.3135639432
755295470.0 0.0174756311 0.2991125875 -0.0214725629 -0.426159335 -0.0211971349 -0.4264184396 0.0097798944 0.3139217943
760295440.0 0.0202753825 0.2988842228 -0.026170651 -0.4256629384 -0.0261441514 -0.4259312173 0.0127994645 0.3139215827
765295410.0 0.0230951109 0.298724104 -0.0303996867 -0.4255437001 -0.0306074199 -0.4260492808 0.0168310974 0.314251875
770295380.0 0.0266457957 0.2987289018 -0.035415266 -0.4247164933 -0.0353496962 -0.4254387885 0.0199774695 0.3141340505
775295350.0 0.0296117426 0.2990896067 -0.0399620126 -0.4247264565 -0.0399992589 -0.4250818568 0.0227898682 0.3136436901
780295320.0 0.0331856287 0.2981037349 -0.0444398438 -0.4242302229 -0.0443982205 -0.424450929 0.0261119057 0.3138844631
785295290.0 0.0361726651 0.2984124634 -0.0491124752 -0.4234244185 -0.049014964 -0.4237589126 0.0291987211 0.3138815285
790295260.0 0.0392921715 0.2980349862 -0.0535944435 -0.4231255783 -0.0537746486 -0.4235752236 0.0327860333 0.3135137788
795295230.0 0.0422665662 0.2981039797 -0.0577504624 -0.4222981483 -0.058038558 -0.4227443884 0.0358841531 0.313551615
800295200.0 0.0460628347 0.2975261208 -0.0628776642 -0.4220019947 -0.062810687 -0.4221632841 0.0392954082 0.3131520123
805295170.0 0.0487864994 0.2969699367 -0.06734957 -0.4207703904 -0.0670786599 -0.4207669926 0.041816073 0.312578629
810295140.0 0.0520048592 0.2968193191 -0.0719450654 -0.420339198 -0.0713362493 -0.420825574 0.0455322232 0.3128678649
815295110.0 0.0551261351 0.2964716109 -0.0765623122 -0.4192013205 -0.0763356261 -0.4197008157 0.0485220166 0.3122351956
820295080.0 0.0583721355 0.2956890711 -0.0808651459 -0.4189075176 -0.0808456784 -0.4189014323 0.0519061994 0.3117784038
825295050.0 0.0615664805 0.2952567381 -0.0850526165 -0.4170304685 -0.0850856122 -0.4178452032 0.0552957558 0.3117038898
830295020.0 0.0643824428 0.2949526586 -0.0897055166 -0.4165558798 -0.0902777659 -0.4167406478 0.0583254061 0.3107088479
