!Created with skrf (http://scikit-rf.org).
# Hz S RI R 50.0 
!freq ReS11 ImS11 ReS21 ImS21 ReS12 ImS12 ReS22 ImS22
300000.0 -0.323984895 -0.0791995116 0.3767215568 0.041416037 0.3755247235 0.0389492654 -0.3213280884 -0.0930076398
5299970.0 -0.3266576367 0.004616135 0.3784765814 0.0024970376 0.3780816437 0.0024908702 -0.3241174505 0.0048872146
10299940.0 -0.3243012773 0.0132587798 0.3797282162 0.0019233986 0.3796341279 0.0022942761 -0.3217232129 0.0161161544
15299910.0 -0.3216647996 0.0204777324 0.3817526867 0.00200897 0.381997589 0.0020908592 -0.3186997461 0.0238903877
20299880.0 -0.3188263268 0.0261940525 0.3847952964 0.0018420181 0.3849237045 0.0017447314 -0.3147454524 0.0302753593
25299850.0 -0.3157696258 0.0313853521 0.3880167887 0.0001208299 0.3880696285 2.03568e-05 -0.3110939153 0.0358571927
30299820.0 -0.312818775 0.0360790182 0.3912952702 -0.0023862224 0.3915484288 -0.0020805288 -0.307212515 0.0410358531
35299790.0 -0.309794564 0.0396321581 0.3948383285 -0.0054573094 0.3949344782 -0.0052853567 -0.3040122416 0.0449657626
40299760.0 -0.3073333921 0.0436244239 0.3978600307 -0.0086086013 0.3978767452 -0.0089792854 -0.3001321613 0.048540869
45299730.0 -0.3045813142 0.0465366875 0.4006297103 -0.012762389 0.4010358002 -0.0126039521 -0.2975052512 0.051784715
50299700.0 -0.3023261727 0.0494606965 0.4034415382 -0.0172337612 0.4033610374 -0.0171745897 -0.2944827649 0.0542347854
55299670.0 -0.3003727572 0.0521795976 0.4058556257 -0.0223997058 0.4054604343 -0.0221070741 -0.2916794539 0.0570892519
60299640.0 -0.2977421916 0.0552182389 0.4073159538 -0.0273845873 0.4078076918 -0.0266871274 -0.2891516184 0.0591664441
65299610.0 -0.2964322514 0.0573311139 0.4093281416 -0.0318596483 0.4091805185 -0.0317715243 -0.2870081987 0.0615317362
70299580.0 -0.2946992891 0.0598874597 0.4102061257 -0.0367899926 0.410449232 -0.0367288359 -0.2853253873 0.0639181699
75299550.0 -0.2929943763 0.0626716471 0.4110916693 -0.0422614785 0.4112486246 -0.0424790233 -0.2831386645 0.065904604
80299520.0 -0.2916341201 0.0645918849 0.4125801612 -0.0473361155 0.4124334563 -0.0472544134 -0.2815071781 0.0681712181
85299490.0 -0.2902192676 0.06711798 0.4127993528 -0.0523625217 0.4128034444 -0.0522490287 -0.279733893 0.0700837543
90299460.0 -0.2884916398 0.0690885191 0.4130177798 -0.0577534426 0.4133622329 -0.0580696505 -0.278362386 0.0722034575
95299430.0 -0.2872674803 0.0714626034 0.4136896404 -0.0631824251 0.4136966619 -0.063403465 -0.2767388174 0.07434378
100299400.0 -0.2862841763 0.0740965251 0.4131552967 -0.0682512541 0.4133434103 -0.0682952853 -0.2752666821 0.0760946173
105299370.0 -0.2852471611 0.0761919818 0.413340349 -0.0733288871 0.4134954678 -0.073800378 -0.2735289532 0.078203507
110299340.0 -0.2839981827 0.0788436186 0.4133324366 -0.0787146303 0.4130623899 -0.0784414499 -0.2729514442 0.0804144401
115299310.0 -0.2829166899 0.0810621444 0.4130918424 -0.0839498307 0.412887862 -0.0835996677 -0.2715234739 0.0827456985
120299280.0 -0.2820828382 0.0830546461 0.4126470644 -0.0890237952 0.412403332 -0.0889770386 -0.2705807738 0.0845879795
125299250.0 -0.2810465079 0.0851337569 0.4121281082 -0.0934012122 0.4119887909 -0.0936293513 -0.2697573026 0.0864402016
130299220.0 -0.2803669 0.0883049147 0.4109440962 -0.0989340152 0.4109586713 -0.0990108531 -0.2685028173 0.08860362
135299190.0 -0.2794235017 0.0909209883 0.4106019715 -0.1039803934 0.4103911547 -0.1038869762 -0.2673161548 0.0908885581
140299160.0 -0.2783748105 0.0932559892 0.4098251517 -0.1093298776 0.4098384396 -0.1094684767 -0.266172502 0.0936466034
145299130.0 -0.2772270223 0.0957322609 0.4089868749 -0.1139618538 0.408744777 -0.1137307577 -0.2656626539 0.0959659361
150299100.0 -0.2763071919 0.0982269171 0.4075867022 -0.118501677 0.4079156669 -0.1186281928 -0.2644385353 0.0986508032
155299070.0 -0.2758144324 0.1006254185 0.4067125933 -0.1243529976 0.4066915314 -0.1239340872 -0.2635623206 0.1010469873
160299040.0 -0.2745864913 0.1034076094 0.4051145154 -0.1288991577 0.4053857957 -0.1286477978 -0.2630412652 0.103230234
165299010.0 -0.273780429 0.106160369 0.4039982536 -0.1339535888 0.4045570721 -0.1336999967 -0.2613834975 0.1058916242
170298980.0 -0.2726710352 0.1084987451 0.4026248162 -0.1384321132 0.4027260776 -0.1386798237 -0.2603959066 0.108187366
175298950.0 -0.271871174 0.1114568599 0.4018882051 -0.1428086554 0.4012625184 -0.143213107 -0.259763275 0.1104369899
180298920.0 -0.2708837711 0.114119317 0.4000383428 -0.1481922504 0.4001024375 -0.1478912248 -0.2589784548 0.1133866491
185298890.0 -0.2695050314 0.1164673989 0.3983823778 -0.1527018424 0.3983070659 -0.1523354717 -0.2573001753 0.1155300416
190298860.0 -0.2688353506 0.119233871 0.3972177413 -0.1572490432 0.3971263772 -0.157293355 -0.2564806903 0.1180742845
195298830.0 -0.268096779 0.1218701638 0.3953264456 -0.1621238508 0.3952132846 -0.1619842849 -0.2554339818 0.1205467377
200298800.0 -0.2663980871 0.1244938014 0.3934756697 -0.1666453137 0.3938711902 -0.1664027807 -0.2548474406 0.1234139475
205298770.0 -0.2655383861 0.1272386433 0.3916722261 -0.1712075926 0.3918526553 -0.1710479269 -0.2531886343 0.12559381
210298740.0 -0.2644339853 0.1298270449 0.3895165262 -0.1754581138 0.389876933 -0.175518353 -0.2520822056 0.1286628
215298710.0 -0.2633051753 0.1326345076 0.3881523584 -0.1800710217 0.3878506245 -0.1805249558 -0.2511014985 0.1308404441
220298680.0 -0.262171469 0.1351572901 0.3855976877 -0.184612862 0.3857241393 -0.184562276 -0.2498436791 0.133284818
225298650.0 -0.2607922757 0.1381658082 0.3835487258 -0.1890386584 0.3841792436 -0.1891132065 -0.2491482959 0.1357738523
230298620.0 -0.2597256097 0.1410830077 0.3819845435 -0.1931591819 0.3824187992 -0.1931949207 -0.2481186149 0.1382767398
235298590.0 -0.2585836614 0.1438232385 0.3798389919 -0.1979686207 0.3797012899 -0.1976634199 -0.2461780553 0.1410753448
240298560.0 -0.257101298 0.1464325041 0.378037719 -0.2024227743 0.3779695358 -0.2025635037 -0.2452474464 0.143928426
245298530.0 -0.2560397464 0.1486723243 0.3759793331 -0.2065448161 0.3754047268 -0.2068774718 -0.2439268232 0.1457712708
250298500.0 -0.2541117508 0.1518713409 0.3725834654 -0.2109559152 0.3728124927 -0.2107423967 -0.2428703757 0.1484839158
255298470.0 -0.2530508071 0.1543393212 0.370588577 -0.2149935017 0.370916777 -0.214894921 -0.2411281583 0.1509101396
260298440.0 -0.2517905763 0.1568070053 0.3687250605 -0.2195210702 0.3684930904 -0.2193309311 -0.2395971486 0.1536726367
265298410.0 -0.2496761027 0.1598796117 0.3659057921 -0.22344971 0.3662043751 -0.2232019982 -0.2380537457 0.1562558331
270298380.0 -0.248303514 0.1625471994 0.3634845105 -0.2272161646 0.3637993161 -0.2273941185 -0.2368754426 0.158646914
275298350.0 -0.246714706 0.1649759969 0.3609466865 -0.2316300719 0.3612192817 -0.2317317451 -0.2351836507 0.1612777744
280298320.0 -0.2448863269 0.16807805 0.3588942257 -0.2358670842 0.3587906231 -0.2357840135 -0.2331308155 0.1637585257
285298290.0 -0.2436296399 0.170656102 0.356245238 -0.2398343867 0.3561000142 -0.23996735 -0.2321265371 0.1664069045
290298260.0 -0.2418139433 0.1728705847 0.3534121414 -0.2437591147 0.3534317235 -0.2438508871 -0.2305882815 0.1690108409
295298230.0 -0.2400477237 0.175561409 0.3507253407 -0.2476131163 0.3506271942 -0.2477184146 -0.2282475184 0.1709017997
300298200.0 -0.2386943032 0.1785236567 0.3482811253 -0.2516754046 0.3480981218 -0.2519250427 -0.2267082732 0.1735410097
305298170.0 -0.2366570975 0.1806600258 0.3451270776 -0.2557530037 0.3451246012 -0.2559947442 -0.2246502898 0.1759104736
310298140.0 -0.2349708536 0.1838297323 0.3423109573 -0.2596349337 0.3424864123 -0.2594687908 -0.222974427 0.1780793255
315298110.0 -0.2331234887 0.1858405466 0.3395689659 -0.2635968549 0.3395551481 -0.263263046 -0.2215346425 0.1805363471
320298080.0 -0.2310821482 0.1883890484 0.3360940753 -0.2674436711 0.3366067263 -0.267247165 -0.2196998208 0.1831523431
325298050.0 -0.229128414 0.1907906874 0.3332320722 -0.2712661345 0.3332133519 -0.2713819144 -0.2179814461 0.1853217819
330298020.0 -0.2277766781 0.1929923186 0.3305058958 -0.275060196 0.3303534742 -0.2751338191 -0.2163429274 0.1879634988
335297990.0 -0.2258533375 0.195731043 0.3269707868 -0.2787343224 0.3270573125 -0.2789292874 -0.214678549 0.1908535268
340297960.0 -0.2239324725 0.1980674003 0.323779469 -0.2821790101 0.3237917584 -0.282449431 -0.2124444218 0.193256719
345297930.0 -0.2221643591 0.200935971 0.3204770103 -0.2859575728 0.3203902111 -0.2862586769 -0.2105170731 0.1953281516
350297900.0 -0.220181928 0.2032586974 0.3173107598 -0.2895307747 0.3171995863 -0.2894139336 -0.2091400904 0.1978500625
355297870.0 -0.2183254426 0.2060919377 0.3140980695 -0.2929247586 0.3141739644 -0.2928482201 -0.2069607932 0.2002597524
360297840.0 -0.2161208115 0.2081820493 0.3114093566 -0.2960637431 0.3113380968 -0.2962044361 -0.2049833038 0.2026352426
365297810.0 -0.2141942037 0.2110487487 0.307535308 -0.2996598713 0.3078316299 -0.2996105785 -0.2028384112 0.2049291729
370297780.0 -0.2116267634 0.2131625033 0.3040887271 -0.3029385833 0.3044403303 -0.3030932059 -0.2004974742 0.2074394862
375297750.0 -0.2091571345 0.2155523196 0.3010778371 -0.3064393487 0.3013760396 -0.3067825254 -0.1988414706 0.2095266033
380297720.0 -0.2074277746 0.2179438293 0.297413766 -0.310030358 0.2979548429 -0.3090301127 -0.1970313896 0.2117230229
385297690.0 -0.2058222659 0.2201133445 0.2941941945 -0.3129006845 0.2939934846 -0.312659441 -0.1946607407 0.2140618917
390297660.0 -0.20334147 0.2226029465 0.2906309247 -0.3160525858 0.2906681191 -0.3157880853 -0.1928654283 0.2162892604
395297630.0 -0.2006577671 0.2250157379 0.2873417946 -0.31958297 0.2871563989 -0.3191841637 -0.1900131845 0.2183922435
400297600.0 -0.1985725233 0.2275526993 0.2832032534 -0.322886348 0.2833169968 -0.3226008251 -0.1880484152 0.2205655998
405297570.0 -0.1966044622 0.2294891286 0.2798460728 -0.3254819306 0.2800830555 -0.3251476677 -0.1862038228 0.2226718741
410297540.0 -0.1937203932 0.2316370896 0.2763733514 -0.328450027 0.2768444868 -0.3284317939 -0.1837392889 0.2249155197
415297510.0 -0.1914233013 0.23356401 0.2726383236 -0.3313656942 0.2730900346 -0.3316084886 -0.1814402335 0.2272198956
420297480.0 -0.1893587543 0.2363197877 0.2688374555 -0.3342942448 0.2689681641 -0.3345991671 -0.1795456003 0.2292275207
425297450.0 -0.1866119343 0.2382005193 0.2657282634 -0.3377232502 0.265817899 -0.3375908806 -0.1768548222 0.2314467865
430297420.0 -0.1844702173 0.2401869891 0.2618358963 -0.3398875264 0.2618065102 -0.3401921565 -0.1749133989 0.2330396196
435297390.0 -0.181973575 0.242399141 0.2576470399 -0.3427849447 0.2575558758 -0.3431443692 -0.1716761653 0.2351885404
440297360.0 -0.1791793051 0.2446356841 0.2538359872 -0.3458971536 0.254265313 -0.3459341998 -0.1697505405 0.2369718382
445297330.0 -0.1765201574 0.24630463 0.2503041536 -0.3487456453 0.2503704415 -0.3482101575 -0.1672726489 0.2386648171
450297300.0 -0.1739524291 0.2481918328 0.2460219006 -0.3510381245 0.2463996118 -0.3514091876 -0.1647571051 0.2406217986
455297270.0 -0.1714109993 0.2505757416 0.2421048914 -0.3538800674 0.2424539099 -0.3540079116 -0.1620822397 0.2420289149
460297240.0 -0.1693911479 0.2524140349 0.2385045382 -0.3566585357 0.2384484249 -0.3568564117 -0.1596717948 0.2445212026
465297210.0 -0.1661999677 0.2543622767 0.2348070968 -0.359007951 0.2346499587 -0.3592245735 -0.1570852739 0.2461236324
470297180.0 -0.1637907374 0.2561140158 0.2306176612 -0.3615986101 0.2310597309 -0.3620148578 -0.1544261755 0.2483026063
475297150.0 -0.1611014645 0.2579096981 0.2265229222 -0.3640078025 0.2265866968 -0.3635689588 -0.1517570034 0.249429004
480297120.0 -0.1580632664 0.2602871915 0.2227944286 -0.3667742884 0.2227289038 -0.3666834104 -0.1489309759 0.2515948871
485297090.0 -0.1556090123 0.2619147154 0.2185767764 -0.3687826335 0.2188301536 -0.3687167321 -0.1463761094 0.2533151243
490297060.0 -0.1530605773 0.2635176164 0.2150031751 -0.3714208533 0.214574349 -0.3710729958 -0.1436783019 0.2550035279
495297030.0 -0.1503574047 0.2654241525 0.2101264071 -0.3736261223 0.2108168378 -0.3735116761 -0.1411805568 0.2567288529
500297000.0 -0.1473422401 0.2672754658 0.206361606 -0.3753864818 0.2062294002 -0.3755528564 -0.1383187735 0.2588799013
505296970.0 -0.1443752757 0.2686913614 0.2021116325 -0.3777202123 0.2020029947 -0.3781563271 -0.1356045995 0.2603974338
510296940.0 -0.1420651347 0.2702276411 0.1979201113 -0.3801019574 0.1980083571 -0.3803664757 -0.1327802806 0.2619637156
515296910.0 -0.1389671889 0.2718803439 0.1937748939 -0.3820814478 0.193771179 -0.3821436806 -0.129986863 0.2634305028
520296880.0 -0.1361602952 0.2736122866 0.1894899019 -0.3845518636 0.189786397 -0.3842352769 -0.1272608177 0.264795627
525296850.0 -0.1329682439 0.2748913307 0.1853108928 -0.386487189 0.1858910502 -0.3865799654 -0.1247506687 0.2666167629
530296820.0 -0.1301304564 0.276805177 0.181074388 -0.3882675131 0.1811755016 -0.3883729599 -0.1218328406 0.267734951
535296790.0 -0.1276388011 0.278127179 0.1770027916 -0.3903369406 0.1769481095 -0.3897836255 -0.1193270949 0.2691714279
540296760.0 -0.1247859103 0.2797708959 0.1730150464 -0.3922450629 0.1725991772 -0.3921715869 -0.1164673963 0.2709248731
545296730.0 -0.1217165513 0.2811497079 0.1683304404 -0.3938567516 0.1683168692 -0.393709438 -0.1137863925 0.2722900193
550296700.0 -0.1185850304 0.2828222045 0.1640251585 -0.3958563674 0.1642188408 -0.3960470335 -0.1112442627 0.2735021242
555296670.0 -0.1157984808 0.2836724693 0.1598758786 -0.3971979661 0.1599695707 -0.3974853242 -0.1078885006 0.2752411704
560296640.0 -0.1127022785 0.2858902345 0.1553501964 -0.3994734286 0.155531785 -0.3990760097 -0.1048506748 0.2763599119
565296610.0 -0.1098207179 0.2870169207 0.1508071381 -0.4006116798 0.1512395973 -0.4006594303 -0.1021747774 0.2773298313
570296580.0 -0.1070214258 0.2879967747 0.1465574197 -0.4026931039 0.1463753864 -0.4026232993 -0.0993693667 0.279092232
575296550.0 -0.1039597178 0.2897650477 0.1424180169 -0.4045372798 0.1424129507 -0.4039705488 -0.0965870771 0.2798399766
580296520.0 -0.1007072449 0.2907343019 0.137715865 -0.4058246608 0.137800196 -0.4054447769 -0.0935127646 0.2810710979
585296490.0 -0.0979502077 0.2914564473 0.1336529212 -0.4068523585 0.1336042859 -0.4067982643 -0.090477813 0.2820122063
590296460.0 -0.0946174025 0.2928604411 0.128859384 -0.4079158586 0.1291103001 -0.4081635264 -0.0878811863 0.2835589039
595296430.0 -0.0916097236 0.2938543212 0.1244145908 -0.4096704556 0.1243146549 -0.4093045648 -0.0848145158 0.283939309
600296400.0 -0.0885956136 0.2952308478 0.1199155788 -0.4109505545 0.1201140288 -0.4106773894 -0.0817984175 0.285223225
605296370.0 -0.0855776115 0.2963348684 0.115751233 -0.4118646163 0.1158859369 -0.4118915446 -0.0785823162 0.2863059359
610296340.0 -0.0823724953 0.2972731424 0.1105104932 -0.4134643745 0.1111197285 -0.4130941724 -0.0754254924 0.2870394844
615296310.0 -0.0789583297 0.2982053878 0.1061126371 -0.4141145906 0.1061382421 -0.4149252048 -0.0722155709 0.2882275108
620296280.0 -0.0761516176 0.2987319106 0.1019344194 -0.4150988929 0.101638235 -0.4155563035 -0.0697566351 0.2890975149
625296250.0 -0.0731587498 0.2997518362 0.0978240962 -0.4165922617 0.0975954516 -0.416745353 -0.0662421362 0.2896896575
630296220.0 -0.0695535768 0.3008967418 0.092727614 -0.417806355 0.0926378557 -0.417623893 -0.0632982111 0.2910667658
635296190.0 -0.0670057858 0.3018204888 0.0884491577 -0.418182021 0.0883009382 -0.4185602468 -0.0603628275 0.2916532681
640296160.0 -0.0638074152 0.3023856428 0.083767025 -0.4193291716 0.0839768058 -0.4191618029 -0.0571092294 0.2924693883
645296130.0 -0.0602952869 0.3035360933 0.0792944896 -0.4198262165 0.0791672159 -0.4203221965 -0.0540891984 0.2932648896
650296100.0 -0.0573358217 0.3042108207 0.0744678859 -0.4207331911 0.0750271368 -0.4211508322 -0.0508514772 0.293687681
655296070.0 -0.0540433301 0.304963216 0.0700042941 -0.421456142 0.070301179 -0.4218202675 -0.0477046303 0.294452663
660296040.0 -0.0509399968 0.3055185549 0.0654391641 -0.4222886668 0.0655639641 -0.4225702808 -0.0442989112 0.2951949318
665296010.0 -0.0472259242 0.305854157 0.0603779727 -0.4229270428 0.0606997838 -0.4230982088 -0.0411852672 0.2962317792
670295980.0 -0.044822061 0.3070304823 0.0563564198 -0.4234528607 0.0563101011 -0.423278972 -0.039082735 0.2962831667
675295950.0 -0.0412846539 0.3075541935 0.0522711626 -0.4239407095 0.052060424 -0.4236233478 -0.0356675169 0.2971561702
680295920.0 -0.0380119071 0.307845865 0.0471591905 -0.4242949227 0.0468254542 -0.4248566845 -0.0321879803 0.2980385852
685295890.0 -0.0346599409 0.3089446669 0.042593827 -0.425116341 0.0425908296 -0.4253505185 -0.028915983 0.2981708592
690295860.0 -0.0317784428 0.3093601893 0.0383259463 -0.4251375945 0.0378007334 -0.4258371029 -0.0259011458 0.2991851508
695295830.0 -0.0286873329 0.3098219583 0.033704676 -0.4258924867 0.0332555634 -0.4258084316 -0.0228184447 0.2993743682
700295800.0 -0.0251247322 0.3098469644 0.0285983522 -0.4261363732 0.0284076833 -0.4262016683 -0.0200789693 0.2998533804
705295770.0 -0.0222472553 0.3109369651 0.0241949378 -0.4266345895 0.0241496688 -0.4262921874 -0.0166931057 0.3003895273
710295740.0 -0.0184220456 0.3107999942 0.0193754171 -0.4266825069 0.0193754542 -0.4266690347 -0.0135516479 0.3003453491
715295710.0 -0.0157662205 0.3110904171 0.015310273 -0.4268538333 0.0148430859 -0.4266908877 -0.0102314058 0.3006188734
720295680.0 -0.0123775818 0.3112161777 0.0105089275 -0.4270805833 0.0103594581 -0.4269530948 -0.0068962571 0.3014344258
725295650.0 -0.0087638792 0.3113815055 0.0055897653 -0.4267299798 0.005611353 -0.4270528647 -0.0044227781 0.3017744561
730295620.0 -0.0052693769 0.3120734125 0.0006860241 -0.4267736691 0.0012134754 -0.4268053661 -0.0013988007 0.3011984801
735295590.0 -0.0024793009 0.3122567049 -0.0035860423 -0.4269647305 -0.0036066714 -0.4269761436 0.0017583041 0.3018472406
740295560.0 0.0005594062 0.3123870866 -0.0080677237 -0.4266207791 -0.0082767254 -0.4268980169 0.0054476392 0.301854342
745295530.0 0.0037930813 0.3124522791 -0.0131871655 -0.4263063573 -0.013055264 -0.4267917386 0.00852174 0.3017825345
750295500.0 0.0074320609 0.3126186305 -0.017355535 -0.4261750112 -0.0170770272 -0.4264816835 0.0115011783 0.3016552998
755295470.0 0.0105357398 0.3125092099 -0.0216402496 -0.425954148 -0.022166154 -0.426148594 0.0148898322 0.3014180533
760295440.0 0.0136554048 0.3123848829 -0.0264543335 -0.4259965943 -0.0267855971 -0.4262302399 0.0176908803 0.3015221455
765295410.0 0.0169791078 0.3124044396 -0.0314320052 -0.425624323 -0.0316825295 -0.4256321225 0.0213749844 0.3015059231
770295380.0 0.0199607694 0.3123091581 -0.0357579807 -0.4252650094 -0.0360312688 -0.4248530219 0.0240777498 0.3013845001
775295350.0 0.0232128584 0.3120112366 -0.0403058656 -0.4242818678 -0.0401950709 -0.4247410616 0.0270530004 0.3016029711
780295320.0 0.0267093431 0.3118221165 -0.0448007128 -0.4236809034 -0.0447789834 -0.424081764 0.0302582507 0.3008954565
785295290.0 0.0297821616 0.3115551242 -0.0496446746 -0.4234594725 -0.0495070726 -0.4233779495 0.03397425 0.3009737566
790295260.0 0.0335527573 0.3119150949 -0.0541538699 -0.4231527658 -0.0536537585 -0.4230255213 0.0367888703 0.3006331374
795295230.0 0.0363456616 0.3115492523 -0.0589093892 -0.4221345321 -0.0585798065 -0.422538366 0.0405877676 0.3005893985
800295200.0 0.0396701599 0.3112576453 -0.0637856551 -0.4214953356 -0.0631891497 -0.4215480656 0.043696339 0.3003164663
805295170.0 0.0434118456 0.3107010924 -0.0680074984 -0.4204821714 -0.0681231903 -0.4211130041 0.0465355748 0.2998001832
810295140.0 0.046281063 0.3106011155 -0.0722267454 -0.4199397898 -0.0724910899 -0.4202045295 0.0500918789 0.2993536769
815295110.0 0.0494610459 0.3100839351 -0.0770813318 -0.418789376 -0.07681372 -0.4191101913 0.0530756601 0.2990239149
820295080.0 0.0525167383 0.3100826349 -0.0809344977 -0.41813024 -0.0809327518 -0.4179473536 0.0561662731 0.2987178556
825295050.0 0.0562160295 0.3092132807 -0.085813645 -0.4169502863 -0.0857937309 -0.4174153634 0.0596628992 0.2980015449
830295020.0 0.0591376517 0.3088531111 -0.0907756505 -0.4161806654 -0.0901199641 -0.4162836958 0.0630986771 0.2979153166
