!Created with skrf (http://scikit-rf.org).
# Hz S RI R 50.0 
!freq ReS11 ImS11 ReS21 ImS21 ReS12 ImS12 ReS22 ImS22
300000.0 -0.3233874958 -0.0858513097 0.3766142135 0.0444942229 0.3756882437 0.041386529 -0.322130428 -0.0957386693
5299970.0 -0.3265400991 0.0037545229 0.378601091 0.002462549 0.3783539891 0.0027127502 -0.3240013933 0.004878334
10299940.0 -0.3241936548 0.0134122496 0.379364537 0.0020944114 0.3795322815 0.002282371 -0.3214598034 0.0158687606
15299910.0 -0.3213078217 0.0204161241 0.3816745042 0.0020507652 0.381784319 0.0020601246 -0.3183782369 0.0238140887
20299880.0 -0.3184983425 0.0262483049 0.3845216961 0.0017424321 0.3847001202 0.0014549816 -0.3145980823 0.0302558471
25299850.0 -0.3155203864 0.0314893561 0.3880706132 5.92804e-05 0.3880622087 0.0001538928 -0.3107186262 0.0358582305
30299820.0 -0.3127436417 0.0358166737 0.3911900886 -0.002240175 0.391357464 -0.0021195909 -0.307061877 0.040769654
35299790.0 -0.3097973232 0.0397242412 0.3948276269 -0.0053833503 0.3947317795 -0.0054331507 -0.3035809199 0.0451979591
40299760.0 -0.3071569745 0.0433759221 0.3980885751 -0.0087687186 0.3980659768 -0.0088141999 -0.3000460771 0.0484738564
45299730.0 -0.3045460663 0.0465919305 0.4006387411 -0.0125834579 0.4009531838 -0.0125849015 -0.2973578057 0.0517450428
50299700.0 -0.3024355276 0.0494555308 0.4036141798 -0.0173207219 0.4032854637 -0.0171941244 -0.2940686355 0.0546065933
55299670.0 -0.3004255981 0.05222099 0.4056967912 -0.0221829587 0.405549566 -0.022182546 -0.291585517 0.0571161075
60299640.0 -0.297862091 0.0551084337 0.4074432331 -0.0272238109 0.4076213661 -0.0266569028 -0.289117883 0.0594527715
65299610.0 -0.296141887 0.057228408 0.4088166383 -0.0318627766 0.4092798921 -0.0317921423 -0.2873534877 0.061411979
70299580.0 -0.2945558127 0.060147206 0.4103382811 -0.0371453762 0.410377533 -0.0368074349 -0.2846523042 0.0639526374
75299550.0 -0.2929347201 0.0624290455 0.411297968 -0.0425005341 0.4112141362 -0.042285894 -0.283271344 0.0656308911
80299520.0 -0.2910824388 0.0648428255 0.4120868501 -0.0474713992 0.4123009217 -0.0474897022 -0.281351817 0.0678865817
85299490.0 -0.2901342004 0.0669956929 0.4127977361 -0.0523195385 0.4129837377 -0.0523937073 -0.2799009023 0.0699602855
90299460.0 -0.2890257425 0.0695540863 0.4130356928 -0.0578922566 0.4134929959 -0.0580002147 -0.2779794773 0.0722695285
95299430.0 -0.2872870313 0.0716011141 0.4136561843 -0.0632253799 0.4136107519 -0.0629247754 -0.276805791 0.0740558353
100299400.0 -0.2866956 0.0740853323 0.4131238592 -0.068489434 0.4130507207 -0.0681998693 -0.275270676 0.0761623085
105299370.0 -0.2851452784 0.0762904217 0.4133200469 -0.0737752899 0.4140030699 -0.073529517 -0.2741689795 0.0782370719
110299340.0 -0.2839568803 0.0786184635 0.4132521253 -0.0786623228 0.4133376615 -0.078288084 -0.2731060219 0.0803373347
115299310.0 -0.2830122179 0.0812445837 0.4128165785 -0.0837474354 0.4128968758 -0.0834816643 -0.271550761 0.0825872131
120299280.0 -0.2820797628 0.0832626044 0.4122616824 -0.0890648072 0.4122941874 -0.0888630777 -0.2704000029 0.0848324227
125299250.0 -0.280800615 0.0856263038 0.4116498735 -0.0935526715 0.4121871396 -0.0938417482 -0.2697620922 0.0863596288
130299220.0 -0.2802027036 0.0883086752 0.4108571103 -0.0993447614 0.4109923288 -0.0989201057 -0.2685666577 0.0887770647
135299190.0 -0.2792925082 0.090648918 0.4109753649 -0.104018848 0.4103370263 -0.1040309998 -0.2673205798 0.090886136
140299160.0 -0.2784434906 0.0933037848 0.4096501345 -0.1092988545 0.4097735707 -0.1094167652 -0.2664356056 0.0934739466
145299130.0 -0.2776102901 0.095520529 0.4093307483 -0.1141843369 0.4086449205 -0.1137797386 -0.2650376715 0.0958237205
150299100.0 -0.2762329519 0.0983736021 0.4077567415 -0.1187256073 0.4076213122 -0.1187600296 -0.2643498699 0.0985205952
155299070.0 -0.2756215959 0.1006681525 0.4071193571 -0.1242536103 0.406601655 -0.1237132056 -0.2631225549 0.1006586884
160299040.0 -0.2746527666 0.103463315 0.4053351549 -0.1284250328 0.4049752845 -0.128776432 -0.2625328202 0.1029688098
165299010.0 -0.2736925807 0.1061713707 0.4040616803 -0.1338715579 0.4044543951 -0.1336131081 -0.2613376641 0.1057258841
170298980.0 -0.2729844789 0.1084527456 0.4030248181 -0.1384941865 0.4030401751 -0.1384887459 -0.2602321456 0.1084356788
175298950.0 -0.2717216381 0.1112724504 0.4015943292 -0.1431940342 0.401394055 -0.1431500233 -0.2596772939 0.1106907055
180298920.0 -0.270957494 0.1138275488 0.4000130395 -0.1479798113 0.3998916129 -0.147626548 -0.2584023758 0.1133765779
185298890.0 -0.269539646 0.116196414 0.3984181357 -0.1520060916 0.3979992451 -0.1522643481 -0.2570037729 0.1162441553
190298860.0 -0.2685915595 0.1192357654 0.39703116 -0.1574075641 0.3971803837 -0.1570685312 -0.2564901147 0.1183282096
195298830.0 -0.2676690577 0.1215482933 0.3950659587 -0.1618192404 0.3952102704 -0.1618630963 -0.2550935038 0.1210039868
200298800.0 -0.2666302445 0.1243326525 0.3934977165 -0.1665937162 0.3935903468 -0.1664818518 -0.2543242967 0.1232848422
205298770.0 -0.2654939057 0.1273452217 0.391562162 -0.1715250095 0.3916765108 -0.1711850941 -0.2530564897 0.1255609753
210298740.0 -0.2639742398 0.1298864302 0.3896209747 -0.1752533089 0.3898208296 -0.17529927 -0.2518263956 0.1284753191
215298710.0 -0.2631813647 0.1330470508 0.388135996 -0.1800794279 0.3878450073 -0.1803668138 -0.2511001667 0.1310237819
220298680.0 -0.262202791 0.1352120168 0.3854966408 -0.1843862616 0.3858890086 -0.1845003106 -0.2498937004 0.1332989569
225298650.0 -0.2611959482 0.1377339814 0.3838649463 -0.1888752213 0.3837850371 -0.1891167121 -0.2489260386 0.1360131793
230298620.0 -0.2596761887 0.140768459 0.3820090123 -0.1935109791 0.3823285393 -0.1934138783 -0.2480947331 0.1384399397
235298590.0 -0.2583997463 0.1438491626 0.3801016731 -0.1978975671 0.3796800584 -0.1973288281 -0.2462018037 0.1411418246
240298560.0 -0.2571715165 0.1462013881 0.3778319369 -0.2021432422 0.3776272933 -0.2022584919 -0.245240289 0.1440229698
245298530.0 -0.2558400047 0.1491033426 0.3757235292 -0.2070066979 0.3755584484 -0.2064363508 -0.244077282 0.1457222076
250298500.0 -0.2541834051 0.1518744578 0.3725442573 -0.2109626877 0.3728764903 -0.2104426079 -0.2428001291 0.1486522594
255298470.0 -0.252776822 0.1543125507 0.3704801354 -0.2147773043 0.370912339 -0.2147026384 -0.2412395075 0.1509056863
260298440.0 -0.2516286538 0.1570125729 0.3683243572 -0.2193222807 0.3682105636 -0.2193859478 -0.2395014883 0.1536206925
265298410.0 -0.2501393795 0.1598854628 0.3658735598 -0.2233362275 0.3660099456 -0.2233943367 -0.2382571832 0.1564404198
270298380.0 -0.2485755927 0.1622616766 0.3638330418 -0.2273785406 0.3636736473 -0.2274771304 -0.2367496258 0.1586980299
275298350.0 -0.2469239373 0.1649960799 0.3609349409 -0.2314309983 0.3613161107 -0.2315362251 -0.2350866504 0.1607105728
280298320.0 -0.2450781269 0.1678513774 0.3584835854 -0.2357868655 0.3583648406 -0.2354771576 -0.2333424568 0.1635658855
285298290.0 -0.2435412972 0.1707006276 0.3560934985 -0.2398619433 0.3559314557 -0.2397845614 -0.2320766852 0.1658875374
290298260.0 -0.2418221217 0.1731787876 0.353055698 -0.2434192845 0.3534997462 -0.2438065797 -0.2300182409 0.1687727503
295298230.0 -0.2399172958 0.1754598737 0.3504724038 -0.2478091247 0.3506460194 -0.247774582 -0.2282542835 0.1710569837
300298200.0 -0.2384654501 0.1786994682 0.3479419944 -0.251817313 0.3480900484 -0.2517177556 -0.2268600361 0.1734326562
305298170.0 -0.236591421 0.1804550438 0.3448740756 -0.2556541711 0.345205207 -0.255636821 -0.2245095043 0.1756090554
310298140.0 -0.234882574 0.1836455072 0.3419585943 -0.2594641625 0.3422295492 -0.2595177829 -0.2230071713 0.1779731481
315298110.0 -0.2329084817 0.1858175035 0.3392937867 -0.2632476724 0.3395346173 -0.2633557902 -0.2214745841 0.1802707744
320298080.0 -0.231096883 0.1882310853 0.3360600956 -0.267563007 0.3365048086 -0.2674365022 -0.2193605529 0.1827764828
325298050.0 -0.2292579207 0.190808923 0.3336398956 -0.2715974929 0.3334204471 -0.2710997457 -0.2178110174 0.1856181862
330298020.0 -0.2277088916 0.1929076892 0.3301156559 -0.2748135503 0.3306295866 -0.2748115146 -0.2162681799 0.1878501307
335297990.0 -0.2257378781 0.195671388 0.3270372366 -0.2785389501 0.327255119 -0.278571957 -0.2145503406 0.1906472283
340297960.0 -0.224072742 0.1980931668 0.3234425931 -0.2822071396 0.3235302119 -0.2824954064 -0.2122166337 0.1928482323
345297930.0 -0.2220652812 0.2010066171 0.3207117033 -0.2860906422 0.3206020219 -0.2859207673 -0.2106682982 0.1950539714
350297900.0 -0.2199525105 0.2027529922 0.3169041277 -0.289281648 0.317314526 -0.2893619047 -0.2092264577 0.1979636289
355297870.0 -0.2180885222 0.2058995823 0.314159347 -0.2927167683 0.3144938043 -0.2925032654 -0.2071228697 0.2003377718
360297840.0 -0.2160310008 0.2084590261 0.3113369193 -0.2961592668 0.3112904617 -0.2959673073 -0.205141071 0.2027340181
365297810.0 -0.2142444033 0.2109724879 0.3074455878 -0.2997265012 0.3078041059 -0.2998023006 -0.2026483788 0.2051551466
370297780.0 -0.2118616295 0.2132382387 0.303924535 -0.3030829717 0.3046040273 -0.3026122054 -0.201130574 0.2074967809
375297750.0 -0.2094293083 0.2157428074 0.3009220962 -0.3064267199 0.3011918575 -0.3062966896 -0.1989548251 0.2096245325
380297720.0 -0.2074373096 0.2179188817 0.2974463679 -0.3098663545 0.2975379234 -0.3092514213 -0.1970857697 0.2118917485
385297690.0 -0.2053860567 0.2204290989 0.2938611059 -0.3131654458 0.2936713342 -0.3125451772 -0.1946755906 0.2139118849
390297660.0 -0.2027526696 0.2227745172 0.2903903485 -0.31617092 0.2904820595 -0.3159239962 -0.1925070647 0.2160585466
395297630.0 -0.2007200271 0.2250881496 0.2872518669 -0.3193301758 0.2870061568 -0.3191734227 -0.1900100877 0.2184689397
400297600.0 -0.1982600347 0.2272229009 0.2832486585 -0.3226199189 0.2839063024 -0.3226599698 -0.1878925773 0.2207070553
405297570.0 -0.1961268405 0.2293534303 0.279699863 -0.3254788447 0.2801620832 -0.3250562623 -0.1862859978 0.2227992147
410297540.0 -0.1937207396 0.2316087507 0.2763643848 -0.3287238147 0.2768452851 -0.3285557105 -0.1840252553 0.2254932685
415297510.0 -0.1913645102 0.2337046871 0.272727741 -0.3314998493 0.2728663894 -0.3317681481 -0.1814048134 0.2271200075
420297480.0 -0.189033987 0.2365197323 0.2688514145 -0.3347206245 0.2688051434 -0.3348150232 -0.1793054542 0.229385426
425297450.0 -0.186598293 0.2381030675 0.2655193673 -0.3372899298 0.2659124872 -0.3372924073 -0.1772535522 0.2311068074
430297420.0 -0.1840629389 0.2401589859 0.2616619747 -0.3399013756 0.261660773 -0.3399265756 -0.1748875531 0.232892845
435297390.0 -0.1819272611 0.2426571128 0.2575639149 -0.3431178517 0.2573817912 -0.3430184093 -0.1715571649 0.2349531473
440297360.0 -0.179008394 0.2444970283 0.2537756854 -0.345496017 0.2541439925 -0.3458283825 -0.1697450373 0.2368162083
445297330.0 -0.1765968565 0.2463960588 0.2504603108 -0.3485003501 0.2502853214 -0.3484433909 -0.1670250856 0.2383543423
450297300.0 -0.174135425 0.2481932652 0.2464912248 -0.3511739201 0.2462284957 -0.351491697 -0.1644684118 0.2403312966
455297270.0 -0.1714709585 0.2505491642 0.2423557787 -0.353809043 0.2424412269 -0.3540596298 -0.1618624292 0.2423348548
460297240.0 -0.169263654 0.2523859228 0.2383395945 -0.3562880285 0.2387344804 -0.3565975378 -0.1599214952 0.2444167415
465297210.0 -0.1661936303 0.2545018286 0.2344921447 -0.3593289383 0.2347166069 -0.3595188305 -0.1569656369 0.2459895762
470297180.0 -0.1635128029 0.2561120784 0.230392299 -0.3616519941 0.2306945865 -0.3616003283 -0.1542359109 0.2479489835
475297150.0 -0.1609176908 0.2577705131 0.2262834684 -0.3635561703 0.2267492435 -0.3636392059 -0.1515004348 0.2492570976
480297120.0 -0.1583991325 0.259926572 0.2226322876 -0.3663874654 0.2226135105 -0.366915551 -0.148740952 0.2515974237
485297090.0 -0.1555047946 0.2616057731 0.2188125109 -0.3686553582 0.2181330879 -0.3685285071 -0.14620329 0.2531430851
490297060.0 -0.1532871498 0.2637981361 0.2148825263 -0.3710259381 0.2145938725 -0.3712807717 -0.1434837858 0.2548226981
495297030.0 -0.150291454 0.2651849025 0.2103366687 -0.3734447636 0.2106997034 -0.3733725509 -0.1409902247 0.256614044
500297000.0 -0.1472990515 0.2670398244 0.2062432407 -0.3756930745 0.2064406321 -0.3754933708 -0.1383413836 0.2589073227
505296970.0 -0.1444256817 0.2687234323 0.2021708772 -0.3776064168 0.202162509 -0.3778213599 -0.1349369034 0.2599217683
510296940.0 -0.1416678043 0.270416643 0.1981208403 -0.3802131893 0.1979106902 -0.380438395 -0.1327111366 0.2617543623
515296910.0 -0.1386240021 0.2718890358 0.1934840626 -0.382205699 0.1937636816 -0.3821967492 -0.1297977238 0.2632019298
520296880.0 -0.1362647455 0.2736145436 0.18973285 -0.3844927042 0.1897348523 -0.3840547591 -0.1276426407 0.2647903739
525296850.0 -0.1328163805 0.2750208789 0.1849587774 -0.3860467144 0.1856418943 -0.3862330247 -0.1245736569 0.2663226753
530296820.0 -0.1302918479 0.2767262085 0.181129751 -0.3881155513 0.1810497966 -0.3881878722 -0.121727588 0.2680386522
535296790.0 -0.1276726892 0.2784308357 0.1774313275 -0.3904326115 0.1771209889 -0.3898414559 -0.1192822337 0.2689958482
540296760.0 -0.12481112 0.2795652308 0.1728424207 -0.3923287284 0.1725944581 -0.392191473 -0.1165167366 0.2707404757
545296730.0 -0.1219156903 0.2813529998 0.168441043 -0.3938619372 0.1681988421 -0.3940479537 -0.1138121198 0.2721738892
550296700.0 -0.1184680886 0.2828234451 0.1639872106 -0.3958753431 0.1642552648 -0.3956746449 -0.1109507234 0.2733888144
555296670.0 -0.1158205227 0.2838703897 0.1598910893 -0.397202671 0.1597941806 -0.3973284235 -0.1081469592 0.275216792
560296640.0 -0.1124634349 0.2855661336 0.1551927429 -0.3996574645 0.1554351561 -0.3992446039 -0.1050387457 0.2765044105
565296610.0 -0.1096917918 0.2870158804 0.1507565958 -0.4007625664 0.1512461242 -0.4006304319 -0.1024618377 0.2769500593
570296580.0 -0.1070637467 0.2877399459 0.1468427572 -0.4026275862 0.1463899728 -0.4024650003 -0.0995731325 0.2792596938
575296550.0 -0.1041535407 0.2897853816 0.1423683554 -0.4041328639 0.1419465124 -0.4039174421 -0.0960989465 0.2799741902
580296520.0 -0.1008793683 0.2905499862 0.1379494201 -0.4056703574 0.137953239 -0.4051901685 -0.0935821775 0.2807924574
585296490.0 -0.0980612829 0.2916181077 0.1336517484 -0.406641468 0.1333691495 -0.4065354373 -0.0906589946 0.28217602
590296460.0 -0.0946530807 0.2928885939 0.1290242996 -0.4079833076 0.1290848048 -0.4080569928 -0.0880449659 0.2834505741
595296430.0 -0.0915929408 0.2939900282 0.1240955309 -0.4097682859 0.1244344632 -0.4093729556 -0.0849382289 0.2837074776
600296400.0 -0.0886245083 0.2951910446 0.1199896143 -0.4109061158 0.1200738283 -0.4106255482 -0.0818502996 0.2850964057
605296370.0 -0.0857703112 0.296091392 0.1153262378 -0.4118139318 0.1157115364 -0.4118844249 -0.0786780928 0.2861302119
610296340.0 -0.0824102052 0.2971737676 0.110808768 -0.4131315819 0.1112084101 -0.4132029178 -0.0756779889 0.2870751769
615296310.0 -0.0790697696 0.2979146065 0.1063325826 -0.414267311 0.1062774979 -0.4148689814 -0.0722329169 0.2879784841
620296280.0 -0.0760559574 0.2986870723 0.1019964529 -0.4151892982 0.1020117 -0.4153673706 -0.0699448684 0.2890230676
625296250.0 -0.0730835911 0.2996936726 0.0977750295 -0.4162975641 0.097639452 -0.4165386939 -0.0662061217 0.2896337048
630296220.0 -0.0692128507 0.300961665 0.0921511018 -0.4172807189 0.0928944809 -0.4174808783 -0.0635120748 0.2908288384
635296190.0 -0.0669568921 0.3016211456 0.0886993529 -0.4180743467 0.0882055395 -0.4183958795 -0.0600956288 0.2913881726
640296160.0 -0.0633387249 0.3025667424 0.0836657007 -0.4188075999 0.0840773309 -0.4196026302 -0.0571357775 0.2918256472
645296130.0 -0.0603863865 0.3036966477 0.0789690754 -0.4200969173 0.0793772123 -0.4200819042 -0.0540146205 0.2930610359
650296100.0 -0.0571903094 0.3040350243 0.0745246153 -0.4206736046 0.0746838779 -0.4209449807 -0.0508735066 0.293178585
655296070.0 -0.0540310305 0.3049551954 0.0700908231 -0.4217298673 0.0701604229 -0.4215742739 -0.0476887593 0.2940917864
660296040.0 -0.0512297698 0.3053049458 0.0656635414 -0.4221312822 0.0655280019 -0.4223052922 -0.0443831202 0.2949024229
665296010.0 -0.0473748039 0.3059021052 0.0604424003 -0.4230503837 0.0610685973 -0.4229536236 -0.0414157571 0.2960172159
670295980.0 -0.0451407958 0.306752312 0.0564564813 -0.4232737832 0.0565470724 -0.4235864409 -0.0383914665 0.2963503316
675295950.0 -0.0416790011 0.3074441753 0.0518120509 -0.4239070261 0.0520536407 -0.4235571206 -0.0357842318 0.2969949525
680295920.0 -0.0381352177 0.3079996965 0.0471223655 -0.4244920899 0.0467660782 -0.4252234225 -0.0316123492 0.2981244755
685295890.0 -0.0348412795 0.3090077804 0.0426673449 -0.4248281215 0.0425187796 -0.4249983844 -0.0288690936 0.2977320898
690295860.0 -0.0316170803 0.3093308329 0.0380036868 -0.4248945706 0.0380529145 -0.4257649865 -0.0260891184 0.2992104102
695295830.0 -0.0284528033 0.3094939134 0.0336012071 -0.4255862052 0.0331720857 -0.4258636116 -0.0228208908 0.2992413415
700295800.0 -0.0250136819 0.3097082436 0.0283782366 -0.4258620211 0.0284464082 -0.4260905154 -0.0198597125 0.3000953156
705295770.0 -0.0222416458 0.310520323 0.0237584635 -0.4264172245 0.0243569362 -0.4262708078 -0.0166072553 0.3004950085
710295740.0 -0.0185740749 0.3109904372 0.0196772012 -0.4270236578 0.0195243213 -0.4267863955 -0.0134949628 0.3001597486
715295710.0 -0.0155671219 0.3110603083 0.0152538146 -0.4264844323 0.0146728933 -0.4267788914 -0.01010735 0.3007627193
720295680.0 -0.0121507292 0.3113264852 0.0102781395 -0.4269775882 0.0104286327 -0.427138044 -0.0069485999 0.3013820803
725295650.0 -0.008984117 0.3119153585 0.0056201459 -0.4268947708 0.0056553264 -0.4272817391 -0.0041360379 0.3018637236
730295620.0 -0.0056493389 0.3122346597 0.0007498573 -0.4267010277 0.0011074864 -0.4267318896 -0.0012647441 0.3016104075
735295590.0 -0.0023826748 0.3118302253 -0.003389987 -0.4268135422 -0.003647163 -0.4267588283 0.0018328234 0.3013869919
740295560.0 0.0006015464 0.3125229691 -0.0080994366 -0.426584489 -0.008450343 -0.4267327938 0.0055660555 0.3019990867
745295530.0 0.0041741934 0.3125365838 -0.0129019843 -0.4262649349 -0.0128312052 -0.426550948 0.0084641504 0.3015609778
750295500.0 0.007520044 0.3126670761 -0.0173695837 -0.4263250226 -0.0173078912 -0.4264238658 0.0115647331 0.3017176931
755295470.0 0.0107149383 0.3119708603 -0.0217398756 -0.425763133 -0.021943179 -0.4261586575 0.0149911983 0.3015662864
760295440.0 0.0136848678 0.312503248 -0.0264378537 -0.4258806304 -0.0265343502 -0.425904942 0.0178671931 0.3010756737
765295410.0 0.0173317763 0.3124270411 -0.031679306 -0.4252778898 -0.0315716054 -0.425992857 0.0209258218 0.3016459372
770295380.0 0.0200420124 0.3123160323 -0.0357324052 -0.4249886341 -0.0362111005 -0.4246631674 0.0242388002 0.3011124773
775295350.0 0.0234175559 0.3120220678 -0.0407353501 -0.4241247023 -0.0401575751 -0.4245352688 0.0267724007 0.3011246146
780295320.0 0.0267367341 0.3120707875 -0.0453057293 -0.4238918276 -0.0444832539 -0.4236470996 0.0304064037 0.300728235
785295290.0 0.029731139 0.3116545759 -0.0498198778 -0.4228095907 -0.0497328856 -0.4237850265 0.0339335727 0.3006908658
790295260.0 0.0335344682 0.3120022062 -0.0540481024 -0.4228617763 -0.0536163766 -0.4225663501 0.0369868977 0.300608414
795295230.0 0.0366247419 0.311491251 -0.0584726503 -0.4216482287 -0.0585088726 -0.422413493 0.0405832671 0.3003618392
800295200.0 0.0395358984 0.3113003578 -0.0638154114 -0.4215050845 -0.0633563877 -0.4213543444 0.0435652467 0.3001698804
805295170.0 0.0429927071 0.3108326171 -0.0675894698 -0.4208037599 -0.0677742358 -0.4206765079 0.0462696888 0.2999136344
810295140.0 0.0461464236 0.3103384932 -0.0719745873 -0.4193838592 -0.072291026 -0.4199500702 0.0503109927 0.2994727176
815295110.0 0.0494920008 0.3098087702 -0.0770574225 -0.4186038365 -0.0767467621 -0.4192371227 0.0529273039 0.2989538067
820295080.0 0.0525033858 0.30985427 -0.0812849394 -0.4180223217 -0.0807887907 -0.4180398537 0.0563100267 0.2987354394
825295050.0 0.0564507074 0.3089694483 -0.0856375286 -0.4167424661 -0.0856456094 -0.4171605419 0.0594271686 0.2981224516
830295020.0 0.0591893602 0.3090353134 -0.0902445034 -0.4162080363 -0.0904588785 -0.4159643627 0.0631990266 0.297659775
