!Created with skrf (http://scikit-rf.org).
# Hz S RI R 50.0 
!freq ReS11 ImS11 ReS21 ImS21 ReS12 ImS12 ReS22 ImS22
300000.0 -0.2407989763 -0.088699735 0.4721229442 0.0593379164 0.4697543117 0.055697675 -0.2388673836 -0.0977918663
5299970.0 -0.2450763846 0.0067276894 0.4752567974 0.0050221002 0.4751927357 0.0048820838 -0.2410445504 0.0072106819
10299940.0 -0.2416759113 0.0179829033 0.4769620547 0.0058256266 0.4767325258 0.0061797229 -0.2376959924 0.0206836851
15299910.0 -0.2373251986 0.0268544771 0.4809429892 0.0073660616 0.480541391 0.0075506675 -0.2331072801 0.0301409371
20299880.0 -0.2329438593 0.0340845368 0.4848457939 0.0082993167 0.4852642515 0.0078733552 -0.2279257047 0.0380892225
25299850.0 -0.2275547685 0.0401678344 0.4903163443 0.007023708 0.4900402634 0.0070629412 -0.2215928648 0.044703677
30299820.0 -0.2224860544 0.0452743719 0.4959823771 0.0048871928 0.4955118848 0.0048738175 -0.2161782978 0.0499323804
35299790.0 -0.2175118621 0.0490066821 0.5007112911 0.0014642884 0.501089299 0.0015300685 -0.210921793 0.0544357966
40299760.0 -0.2126122255 0.0523994615 0.5059463123 -0.0021100747 0.5059250765 -0.0021088242 -0.2052663046 0.0574091138
45299730.0 -0.2080621102 0.0546634459 0.5105352157 -0.0066322272 0.5106844843 -0.0069187393 -0.2002911564 0.0602498468
50299700.0 -0.2036550974 0.0569169032 0.5150099327 -0.0126440359 0.515003709 -0.0124051037 -0.1954997269 0.0623421755
55299670.0 -0.1998135632 0.0586006302 0.5189460056 -0.0190781683 0.5188470694 -0.0183279675 -0.191411335 0.0641096932
60299640.0 -0.1962104332 0.0599327565 0.521622599 -0.0249726362 0.5223295216 -0.0249471631 -0.187429638 0.0654953385
65299610.0 -0.1930206306 0.0609994247 0.5247796357 -0.0310472645 0.5247663793 -0.0311535247 -0.1840038373 0.0665849285
70299580.0 -0.189860457 0.0621004648 0.5270011666 -0.0382913128 0.5268619568 -0.0377697802 -0.1806818595 0.0676994958
75299550.0 -0.1871228621 0.0629022502 0.5287353358 -0.0445610005 0.5290654613 -0.0446747055 -0.1779105318 0.0685435423
80299520.0 -0.1846272934 0.0637283969 0.5306644567 -0.0513694425 0.5311203148 -0.05178984 -0.1752167161 0.0691965182
85299490.0 -0.1825655446 0.0644347564 0.5320176868 -0.0583498348 0.5322082162 -0.0579880846 -0.1728478756 0.0696738397
90299460.0 -0.1804258476 0.0646318241 0.5328463439 -0.0655920344 0.5333609064 -0.0653816879 -0.1704485417 0.070421292
95299430.0 -0.178178045 0.0652334788 0.5343519394 -0.0722751507 0.5340263925 -0.07232709 -0.1680678635 0.0712076385
100299400.0 -0.1765390318 0.0662096542 0.5340607122 -0.0789698416 0.5341448968 -0.0790075901 -0.1658637729 0.071321522
105299370.0 -0.1749620012 0.0666784497 0.5345619592 -0.0861314527 0.5351262944 -0.0863032039 -0.1643859278 0.0724292149
110299340.0 -0.1733222964 0.0674278116 0.534668338 -0.0925549375 0.5346505532 -0.0924636373 -0.1627566054 0.0731970233
115299310.0 -0.1719790485 0.06820267 0.5350417844 -0.0995653923 0.5351604141 -0.099652897 -0.1612479097 0.0735729734
120299280.0 -0.1706179854 0.0684776552 0.5342227644 -0.1060510563 0.5344715461 -0.1062878906 -0.1594790819 0.0744676685
125299250.0 -0.1696555443 0.0692101239 0.5342491421 -0.1127276255 0.5343203933 -0.1129171149 -0.1585389068 0.0748089808
130299220.0 -0.1686063042 0.0702719014 0.5334743258 -0.1198980179 0.5333910063 -0.1198000498 -0.1569546103 0.0759918083
135299190.0 -0.1674636221 0.0711795245 0.5329857819 -0.1266322162 0.5329201642 -0.1264658264 -0.1558245337 0.0766850655
140299160.0 -0.1667245227 0.0721317207 0.5322513627 -0.1329933322 0.5321525511 -0.1332824633 -0.1547077152 0.0780969646
145299130.0 -0.1654281731 0.073001987 0.5309887682 -0.139860595 0.531278391 -0.1396851088 -0.1534469989 0.07896933
150299100.0 -0.1644330128 0.0738850599 0.5298220641 -0.1456955916 0.5300113378 -0.1458959752 -0.1523314112 0.0802430763
155299070.0 -0.1639228544 0.0748262079 0.529077244 -0.1531732351 0.5285289408 -0.1524814089 -0.1512327508 0.0813295041
160299040.0 -0.1628775592 0.0758823924 0.5275447293 -0.1593550212 0.5270992234 -0.1593835092 -0.1507165584 0.0821151288
165299010.0 -0.1621522241 0.0769825892 0.5259131033 -0.1658948773 0.5261833682 -0.1656822973 -0.1493272763 0.0838041091
170298980.0 -0.1612957555 0.0776518215 0.5239796534 -0.1718924713 0.5243239692 -0.1715952712 -0.1482202234 0.0847942265
175298950.0 -0.1606383167 0.0787579958 0.5228601344 -0.1779740099 0.522437306 -0.1780798868 -0.1475086917 0.0858759151
180298920.0 -0.1602377107 0.0801750686 0.5212083421 -0.1844387863 0.5208663947 -0.1842564378 -0.1464561598 0.0871796425
185298890.0 -0.1588380585 0.0810488831 0.5191940574 -0.1903812498 0.5187721219 -0.1904923817 -0.1456131914 0.0887415423
190298860.0 -0.1583364502 0.0823882556 0.5172889236 -0.1970481193 0.5178005596 -0.1966962854 -0.1447745866 0.0898736033
195298830.0 -0.1577690642 0.0832094487 0.5151496873 -0.2028127995 0.5155109358 -0.2027857008 -0.143703164 0.0914432097
200298800.0 -0.1567340481 0.0845755432 0.5132937623 -0.2093374014 0.5135001803 -0.2093356813 -0.1430952328 0.0923809869
205298770.0 -0.1562293457 0.0859598628 0.5107081518 -0.215566482 0.5109222053 -0.2148394854 -0.1420170019 0.0935958817
210298740.0 -0.1555039659 0.0869231029 0.5083990109 -0.2207439813 0.5087271525 -0.220846847 -0.1409075182 0.0953068938
215298710.0 -0.155136739 0.0884575005 0.5066026022 -0.2271469783 0.5064971671 -0.2272469293 -0.1403080001 0.0964799458
220298680.0 -0.1540670705 0.0892074504 0.5037016565 -0.2323295171 0.5038138052 -0.232918887 -0.1398443105 0.0973303285
225298650.0 -0.1533258712 0.0906557805 0.50137712 -0.2390717055 0.5015844802 -0.2387597609 -0.138795311 0.09875146
230298620.0 -0.1528005524 0.0921797281 0.4989765387 -0.2443671451 0.4994108627 -0.2443894545 -0.1381938721 0.1003141436
235298590.0 -0.1515588297 0.09342517 0.4962722979 -0.2501331185 0.4962368958 -0.2500735343 -0.1368429563 0.1016081281
240298560.0 -0.1511379211 0.0947877942 0.4938384093 -0.2561835746 0.4935126995 -0.2562826172 -0.1362447711 0.1032193334
245298530.0 -0.1503521721 0.0961168133 0.4910548182 -0.2619475155 0.4911213032 -0.2619529846 -0.1348465162 0.1036765838
250298500.0 -0.1494447041 0.097738381 0.4878724908 -0.2673995932 0.4875117003 -0.2671803882 -0.134093811 0.1054400239
255298470.0 -0.1485443836 0.0984658715 0.4847115998 -0.2724303806 0.4849434091 -0.2727417366 -0.1329300572 0.1067963022
260298440.0 -0.148199921 0.0996880379 0.4823395153 -0.2786630871 0.481853306 -0.2786007628 -0.1313959767 0.1087132175
265298410.0 -0.1466474943 0.101807449 0.478597314 -0.2841862803 0.479333811 -0.2836739338 -0.1305137341 0.1099241815
270298380.0 -0.1458961322 0.1031755453 0.476000968 -0.2891649467 0.4759929494 -0.2892223269 -0.1295273948 0.1110544647
275298350.0 -0.1448637981 0.104612568 0.4727354497 -0.2947710301 0.4728718755 -0.29461052 -0.1282143019 0.1123327338
280298320.0 -0.144094285 0.1057039109 0.4698838908 -0.2999042048 0.4695454546 -0.2997499193 -0.1268430385 0.1137115336
285298290.0 -0.1428301278 0.1073352587 0.4666147533 -0.3053897191 0.4662481981 -0.3055549659 -0.1258363651 0.1149723003
290298260.0 -0.1420091162 0.1084576226 0.4630954245 -0.3105113315 0.4634606404 -0.3108136226 -0.1244457588 0.1167726357
295298230.0 -0.1411980807 0.1097295824 0.4598311743 -0.3159229799 0.459674835 -0.315859205 -0.1230631598 0.1177195519
300298200.0 -0.1401525623 0.111061081 0.4563105549 -0.3210845998 0.4566191813 -0.3211804066 -0.1219081628 0.1191571103
305298170.0 -0.1390715588 0.1121464905 0.452329024 -0.3267329906 0.4527680967 -0.3264628596 -0.1200729649 0.1203083131
310298140.0 -0.1380018406 0.1137122555 0.4493413197 -0.331781761 0.4494526931 -0.3315344485 -0.1188161394 0.1214375267
315298110.0 -0.1370080523 0.1144234175 0.4457635089 -0.3366211611 0.4457132039 -0.336716005 -0.1176793053 0.1226291959
320298080.0 -0.136038751 0.1162183326 0.4410722535 -0.3427226489 0.44185212 -0.342141686 -0.1166764756 0.1242231072
325298050.0 -0.1351228261 0.1171260788 0.4381987516 -0.3470930042 0.4380607302 -0.346729076 -0.1155117289 0.1253788757
330298020.0 -0.1341607288 0.1181973882 0.4340855497 -0.3520855701 0.43395701 -0.3517651775 -0.1141364232 0.1265824673
335297990.0 -0.1329208213 0.1191761283 0.4297613156 -0.3567490358 0.4297074649 -0.3567581293 -0.1132595164 0.1285075165
340297960.0 -0.132659486 0.1212198588 0.4259196659 -0.3615482973 0.4255079527 -0.3614206411 -0.1116041081 0.1296445456
345297930.0 -0.1315391615 0.1228002661 0.4213782426 -0.3665698757 0.4213811862 -0.3664097787 -0.1103330627 0.1307327385
350297900.0 -0.1305601935 0.1236602353 0.417424376 -0.3709975267 0.4173824753 -0.3708917749 -0.1095828742 0.1328447966
355297870.0 -0.1293242303 0.1253304143 0.4134083026 -0.3756002543 0.4137353113 -0.3756448429 -0.1081924852 0.1340486387
360297840.0 -0.1281888083 0.1268568256 0.4098607868 -0.3799490708 0.4097273612 -0.38001793 -0.1068785258 0.1357331887
365297810.0 -0.1273997395 0.128258887 0.4051538009 -0.3845952105 0.4053943271 -0.3844212555 -0.1051908338 0.1366663407
370297780.0 -0.1257680225 0.1295263787 0.4006962352 -0.3890431644 0.4013513422 -0.3885107191 -0.1040048183 0.1381960459
375297750.0 -0.1246785549 0.1306346705 0.3964599005 -0.3932020901 0.3970261452 -0.3936577346 -0.1026293087 0.1393341372
380297720.0 -0.1236140958 0.1321385059 0.392470153 -0.3978055422 0.3923185336 -0.3969444358 -0.1012341927 0.1403218036
385297690.0 -0.1223368078 0.1335633226 0.3877507881 -0.4020021834 0.3880126522 -0.4017942287 -0.0998548675 0.1419160366
390297660.0 -0.1214398528 0.1348479457 0.3836255548 -0.4061347206 0.3832102321 -0.4057465414 -0.0983459628 0.1430276075
395297630.0 -0.1197772618 0.136514618 0.3790900647 -0.4103088177 0.3789238817 -0.4102217761 -0.0962641724 0.1444286427
400297600.0 -0.1186061555 0.1374063496 0.3742394993 -0.4148328079 0.3746667396 -0.4145095762 -0.0948880702 0.1457622316
405297570.0 -0.1177523344 0.1387609302 0.3698406641 -0.4185440365 0.369926743 -0.4183098569 -0.0937028891 0.1468478895
410297540.0 -0.1160290547 0.1399041197 0.3655363815 -0.4225935028 0.3656614748 -0.422555457 -0.0920392508 0.1483883151
415297510.0 -0.1146070348 0.1411105545 0.3605343116 -0.4267284545 0.3609518682 -0.4269469401 -0.0908523841 0.1493486436
420297480.0 -0.1136696734 0.1425968336 0.3557128453 -0.4304848862 0.3559379038 -0.4306229922 -0.0892599699 0.1501587647
425297450.0 -0.1119994994 0.1437168181 0.3511947658 -0.4342882296 0.3516931395 -0.4344896517 -0.0876401859 0.1518241718
430297420.0 -0.1107810898 0.1445294683 0.3464862787 -0.4377147492 0.3467157245 -0.4380331638 -0.0862156267 0.1523626106
435297390.0 -0.1095478964 0.1461806948 0.3411942794 -0.4421601979 0.3413290837 -0.4418618774 -0.0836384523 0.1533820062
440297360.0 -0.1080405854 0.1473422685 0.3368615999 -0.4455035152 0.3368223943 -0.4452575726 -0.0825668932 0.1544982488
445297330.0 -0.1068085173 0.1482455679 0.3320185764 -0.4493063939 0.331745054 -0.449142411 -0.0804419431 0.1554216023
450297300.0 -0.1050723901 0.1496409818 0.3270642512 -0.4528551406 0.3268695355 -0.4531147593 -0.079302734 0.1562750753
455297270.0 -0.1037075758 0.1508601586 0.3219374385 -0.4563633548 0.3222689783 -0.4564389589 -0.0772137045 0.1572551497
460297240.0 -0.1023626646 0.1517365641 0.3167030538 -0.4596821223 0.3171250083 -0.4597779078 -0.0757520033 0.1586025661
465297210.0 -0.1009347532 0.1526503604 0.3124414822 -0.4632704861 0.3121921357 -0.4634737555 -0.073445688 0.1591183687
470297180.0 -0.0991172926 0.1537955196 0.3065327033 -0.4665256729 0.3066449624 -0.466475778 -0.0719108427 0.1602962828
475297150.0 -0.0978008923 0.1547782008 0.3013239905 -0.4694080176 0.3017604474 -0.4694689295 -0.0697161214 0.1608045781
480297120.0 -0.0962951664 0.1562452717 0.2964583542 -0.4734360269 0.2964960825 -0.473351995 -0.0678543309 0.1622009625
485297090.0 -0.0950116689 0.1571319123 0.2912756207 -0.4760038242 0.2915886792 -0.4760045946 -0.0661762814 0.1631051803
490297060.0 -0.0938920168 0.1582658413 0.2870231876 -0.4795042063 0.2863400205 -0.4791986085 -0.0644105508 0.1639352249
495297030.0 -0.0919964777 0.1593674561 0.2807843624 -0.4823558738 0.2817301892 -0.4823910316 -0.0629772678 0.1645589964
500297000.0 -0.0904454866 0.160256676 0.2755468238 -0.4852389964 0.2753916243 -0.4853227882 -0.0609924387 0.1661921255
505296970.0 -0.088855219 0.1610457548 0.2705853675 -0.4881794047 0.2706929389 -0.4883561193 -0.0592889599 0.1666442109
510296940.0 -0.0873085291 0.1622827945 0.2652935084 -0.4914244191 0.2645700593 -0.4918584367 -0.05702103 0.1677348076
515296910.0 -0.0855606717 0.1632495733 0.2591505473 -0.4940570023 0.2593594789 -0.4938767798 -0.055032571 0.1683436678
520296880.0 -0.084092789 0.1644078745 0.2544479055 -0.4971588856 0.2543465641 -0.4967628709 -0.0533540828 0.1690590766
525296850.0 -0.0823468163 0.1645992717 0.2483585228 -0.4993248842 0.2490012864 -0.4996626127 -0.0517848117 0.169878987
530296820.0 -0.0809002147 0.1663812068 0.243176015 -0.5023847726 0.2433801501 -0.5025084887 -0.0497595428 0.170874459
535296790.0 -0.0795503683 0.1670901329 0.2381610966 -0.5047843878 0.2380561667 -0.5045464189 -0.0478193592 0.1709668286
540296760.0 -0.0779788301 0.1681173815 0.2324303704 -0.5077064856 0.232323042 -0.5076353592 -0.0461978712 0.1723214272
545296730.0 -0.0764302787 0.1686130033 0.2267605777 -0.5094605005 0.226659637 -0.5100929679 -0.0444556179 0.1726740143
550296700.0 -0.074087839 0.1700977099 0.2212906428 -0.5123986467 0.2214358786 -0.5122079699 -0.0428877409 0.1734056846
555296670.0 -0.0729923819 0.1707106907 0.2157084374 -0.5144211501 0.216070203 -0.5146272142 -0.0407389253 0.1744710636
560296640.0 -0.0707796542 0.1718715534 0.2098522682 -0.5171611751 0.2101385007 -0.5166930629 -0.038389646 0.174758785
565296610.0 -0.0700565182 0.1721564822 0.2043054497 -0.5189716692 0.204310396 -0.5191557284 -0.0366880998 0.1751471453
570296580.0 -0.0683407171 0.1731012383 0.1992745819 -0.5216807622 0.1982692178 -0.5214435712 -0.0350122643 0.176311914
575296550.0 -0.0665654532 0.1741638905 0.1936064015 -0.5238895435 0.1930614598 -0.523435573 -0.0329077316 0.1763284158
580296520.0 -0.0646947302 0.1748250734 0.1877874228 -0.5256660262 0.1876065559 -0.5257599219 -0.0311205946 0.1768446826
585296490.0 -0.06304677 0.175365734 0.1821446037 -0.5272825393 0.1818995025 -0.5276771824 -0.0292072603 0.1774004438
590296460.0 -0.0612727481 0.1761879716 0.1760889558 -0.5287698537 0.176090761 -0.5293116318 -0.0277193909 0.1779131873
595296430.0 -0.0594915446 0.1770417156 0.1699182001 -0.5315045405 0.1703866329 -0.5310776928 -0.0255113855 0.1781228437
600296400.0 -0.0578161401 0.1775295197 0.1642853385 -0.5326442303 0.164266768 -0.5327059632 -0.0235402869 0.1782224373
605296370.0 -0.0563839744 0.178437454 0.1588405635 -0.5345396742 0.159036435 -0.5345573437 -0.0214142636 0.1790556537
610296340.0 -0.0543116878 0.1791155975 0.1524416455 -0.536179513 0.1531032185 -0.5364772271 -0.0194444582 0.1792996331
615296310.0 -0.0522835556 0.1795021767 0.1471196007 -0.5378969162 0.1468924227 -0.5383909445 -0.0169315836 0.1797875441
620296280.0 -0.0510527506 0.1802340642 0.1414057319 -0.5393216256 0.1409999414 -0.5390759168 -0.0153671525 0.1800985648
625296250.0 -0.0492777497 0.1805424334 0.1356996125 -0.5411759096 0.1352042147 -0.5411089879 -0.0126914685 0.1801730723
630296220.0 -0.0469210519 0.181481842 0.1289175081 -0.5425292123 0.1289523391 -0.5422496798 -0.0110097776 0.1806668493
635296190.0 -0.0460465692 0.1815396227 0.1241126447 -0.5434950913 0.1234601402 -0.5434506203 -0.0089382143 0.1808094007
640296160.0 -0.0441436563 0.1825920458 0.1180377597 -0.5447608126 0.1178706489 -0.5451789705 -0.0071228862 0.1808007231
645296130.0 -0.0422062494 0.1831620106 0.1117262305 -0.5457749685 0.1120897535 -0.5459912803 -0.0051465692 0.1812551995
650296100.0 -0.0401484847 0.1836518437 0.1057480903 -0.5465667383 0.1058267961 -0.5474165982 -0.0025375204 0.1809447129
655296070.0 -0.0386160556 0.184053933 0.1001094306 -0.5484839605 0.1001201607 -0.5481445166 -0.0006903269 0.1814109696
660296040.0 -0.037353721 0.1843796048 0.0943160537 -0.5489940859 0.0946017296 -0.5494637334 0.0017681245 0.1816360755
665296010.0 -0.0349175459 0.1848383543 0.0881131506 -0.550419598 0.0883885313 -0.5504650863 0.0036354608 0.1822845539
670295980.0 -0.0339006183 0.1855373668 0.0823727769 -0.5511615876 0.082221432 -0.5510664182 0.0050616817 0.1819549556
675295950.0 -0.0317590429 0.1862359537 0.0764463803 -0.5518913286 0.0768476135 -0.5512518388 0.0067536163 0.1823069662
680295920.0 -0.0300103918 0.1865799152 0.0700882132 -0.5527164569 0.0701482881 -0.5531343233 0.0091574186 0.1829801141
685295890.0 -0.0279482593 0.1873632742 0.0643018667 -0.5534387885 0.0638109983 -0.5534404434 0.0115431033 0.1826904581
690295860.0 -0.0260285297 0.1873696654 0.0584490588 -0.5535850084 0.0583263489 -0.5543920798 0.0133484595 0.1833849067
695295830.0 -0.024400765 0.1878642337 0.0527694247 -0.5544183098 0.0520965522 -0.5546428724 0.0153078805 0.183110649
700295800.0 -0.0224791178 0.1878976287 0.046324653 -0.5548302152 0.046321928 -0.554935004 0.0174442435 0.1834114299
705295770.0 -0.0209145703 0.1889164178 0.0401622474 -0.555597563 0.0407279431 -0.5557308679 0.0193723829 0.1834366487
710295740.0 -0.0189831049 0.1890777867 0.0348839653 -0.5563889509 0.0349126575 -0.5563588483 0.0213918292 0.1824899243
715295710.0 -0.0174274022 0.1893937684 0.0289583834 -0.5564067735 0.0280791684 -0.5562967939 0.0236856986 0.1826566369
720295680.0 -0.015273942 0.1894616919 0.0225531078 -0.5564465153 0.0224739192 -0.5565032109 0.0256810003 0.1831051265
725295650.0 -0.0130625156 0.1897718652 0.0162104144 -0.5567777746 0.0165688295 -0.5568858727 0.026920534 0.1830851434
730295620.0 -0.0111378035 0.190320674 0.010703159 -0.5566704655 0.0106566508 -0.5567636203 0.0289599079 0.1824504056
735295590.0 -0.0095882638 0.190575614 0.0043765862 -0.5572913439 0.0044645345 -0.5568154036 0.0309408191 0.1821297451
740295560.0 -0.0080915077 0.190952232 -0.0015919712 -0.5567208434 -0.001208929 -0.5569160515 0.0333057786 0.1823325017
745295530.0 -0.0062021968 0.191062919 -0.0071455523 -0.5564200169 -0.0077630873 -0.5567009388 0.0353284114 0.1816580545
750295500.0 -0.0041287087 0.1912531418 -0.0131213408 -0.5564321481 -0.0136182122 -0.556613716 0.0374383506 0.1817356403
755295470.0 -0.0021615894 0.1911550626 -0.0191385853 -0.5562961356 -0.0194901185 -0.5564979516 0.0396059755 0.1810767787
760295440.0 -0.0005095391 0.1916743511 -0.0255430059 -0.5566691634 -0.0255734405 -0.5563433314 0.041211591 0.1808347744
765295410.0 0.0012915885 0.1918649059 -0.0315129501 -0.5560573766 -0.031806808 -0.5560086967 0.0435106543 0.1810471031
770295380.0 0.0028120653 0.1915649912 -0.0376019645 -0.5550831435 -0.0378043274 -0.5554734199 0.0452654735 0.1800869975
775295350.0 0.0047806012 0.1915197711 -0.0436268948 -0.5545494561 -0.0433246316 -0.5548737716 0.0466752908 0.1799958407
780295320.0 0.0069656211 0.1917413451 -0.0496553951 -0.5540415334 -0.048807267 -0.55445102 0.0490044755 0.1790868929
785295290.0 0.0087377545 0.1915391971 -0.0557747386 -0.5533351901 -0.0553372578 -0.5533382296 0.0514966912 0.1787124562
790295260.0 0.0109684019 0.1919387061 -0.0611090975 -0.5528588551 -0.0606582054 -0.5524671072 0.053564711 0.1784371945
795295230.0 0.0125654524 0.1917746964 -0.0670400733 -0.5521069766 -0.0671887227 -0.5524372947 0.0555118388 0.1780544458
800295200.0 0.014257773 0.1921169994 -0.0735629236 -0.5513302669 -0.0733384795 -0.5513841366 0.0576346047 0.1774476282
805295170.0 0.0160569225 0.1917491285 -0.0792160482 -0.5503137533 -0.0790477112 -0.5506923325 0.0596073877 0.1770477314
810295140.0 0.018025493 0.1914527336 -0.0849203669 -0.5491645106 -0.0850850203 -0.5500045151 0.0621823146 0.1767419291
815295110.0 0.0198680942 0.191457548 -0.090629651 -0.5483513149 -0.0908023412 -0.5486077771 0.0634421195 0.1760795562
820295080.0 0.0212577584 0.1920982846 -0.096549152 -0.5476488965 -0.096438574 -0.5472575927 0.0655437022 0.1755734195
825295050.0 0.0240011534 0.1915902552 -0.1023790437 -0.5461495268 -0.1026004732 -0.5466040247 0.0676796026 0.1750653351
830295020.0 0.0256489819 0.1916443972 -0.1086780799 -0.5451915911 -0.10856588 -0.5453957499 0.0701836551 0.1744266732
