!Created with skrf (http://scikit-rf.org).
# Hz S RI R 50.0 
!freq ReS11 ImS11 ReS21 ImS21 ReS12 ImS12 ReS22 ImS22
300000.0 -0.7769100231 -0.1444305277 -0.0004450594 0.0002037484 0.000105095 0.0003297571 0.8607930407 -0.0018651284
5299970.0 -0.7854259582 -0.0071412538 5.10403e-05 -0.0001742476 8.21097e-05 -8.615e-07 0.8590205088 -0.0106264968
10299940.0 -0.7878875213 -0.0041393575 -3.48658e-05 9.41082e-05 0.0001394485 -0.0002009327 0.8587019851 -0.0188283527
15299910.0 -0.7933223496 -0.0015781579 1.32036e-05 7.32536e-05 0.0001641045 5.811e-05 0.8573101117 -0.0277555645
20299880.0 -0.7999726322 0.0024060694 0.000140002 1.58712e-05 -6.19159e-05 -4.75545e-05 0.8571439441 -0.0362620696
25299850.0 -0.8062044452 0.0080930111 0.0002083115 -3.53649e-05 -0.0001647459 -5.20062e-05 0.8553584978 -0.0438100358
30299820.0 -0.812157815 0.0163154408 -6.21509e-05 -1.77906e-05 2.89292e-05 1.58307e-05 0.8555181175 -0.0525408557
35299790.0 -0.8168654334 0.0253537421 5.1094e-05 -6.11147e-05 -0.0001797152 -0.0001061102 0.854504125 -0.0609787275
40299760.0 -0.8212796366 0.0339473366 0.0001049946 -7.30731e-05 -7.28078e-05 7.3886e-05 0.8534907757 -0.0690906694
45299730.0 -0.8248502109 0.043927766 9.12001e-05 -0.0001281252 4.13792e-05 3.19539e-05 0.8531029537 -0.0767611442
50299700.0 -0.8269840407 0.0541840552 -3.58843e-05 -0.0003043917 0.0001689632 -0.0001661559 0.8513187141 -0.0856585626
55299670.0 -0.8291222313 0.0643688065 0.0001093052 0.0001391063 -0.0001081478 1.46595e-05 0.8506287368 -0.0933258702
60299640.0 -0.8296096399 0.0745155652 -5.82691e-05 3.35695e-05 -0.000229266 0.0001308068 0.8498936197 -0.1022679261
65299610.0 -0.8312501428 0.0852888205 -7.8678e-05 0.0001168095 -0.0001476141 4.12679e-05 0.848665107 -0.1104851583
70299580.0 -0.8312829084 0.0947107111 0.0001317534 3.44968e-05 -7.53502e-05 -0.0001043695 0.847297369 -0.1185020655
75299550.0 -0.8314772516 0.1044862736 -3.36203e-05 -4.4301e-06 0.0001228743 0.0002850777 0.8471424053 -0.1266465224
80299520.0 -0.8312968827 0.1147576997 0.0001361718 7.123e-07 -0.000127325 -0.0001043931 0.8451358777 -0.1345101606
85299490.0 -0.8302427575 0.1240930049 2.30795e-05 -3.93915e-05 -1.66136e-05 6.72399e-05 0.843360677 -0.1425980143
90299460.0 -0.8299395822 0.134007485 -1.02192e-05 -2.97467e-05 -6.67718e-05 -3.51083e-05 0.8424759948 -0.1515959176
95299430.0 -0.8287249785 0.1433172386 3.238e-07 -0.0002092353 -4.02036e-05 -5.09795e-05 0.83997037 -0.1593261969
100299400.0 -0.8278925925 0.1529684361 -6.51605e-05 2.27984e-05 0.0001211471 -5.92823e-05 0.838771836 -0.1680618558
105299370.0 -0.8268789562 0.1621468391 8.95749e-05 -1.83794e-05 3.04588e-05 -0.0001245138 0.8368488053 -0.1757694191
110299340.0 -0.8254310866 0.1712626575 -1.69e-08 -7.92763e-05 2.69651e-05 7.16962e-05 0.8353278379 -0.1833744519
115299310.0 -0.8238073538 0.1805562586 2.61297e-05 -1.05504e-05 -0.0001470151 5.92372e-05 0.833083063 -0.1923024897
120299280.0 -0.8220591475 0.1895078864 -5.37692e-05 -2.2345e-06 2.20957e-05 -0.000127507 0.8309228383 -0.199646656
125299250.0 -0.8202209473 0.198913584 -0.00010334 5.02647e-05 0.0002017071 0.0001400708 0.8296781883 -0.2088522708
130299220.0 -0.8185791461 0.2079085603 5.61321e-05 -0.000138467 -0.0001433551 -5.39048e-05 0.8269092656 -0.2163176437
135299190.0 -0.8164777962 0.2166504206 -4.52562e-05 3.59338e-05 6.57097e-05 0.0001034975 0.8252146949 -0.2243994757
140299160.0 -0.8143824639 0.2254025405 -0.0002659868 -0.0002373771 -4.31307e-05 5.64136e-05 0.8230603232 -0.2324969217
145299130.0 -0.8124733528 0.2340017917 -4.5342e-06 -9.93854e-05 -2.76181e-05 9.10656e-05 0.820314606 -0.2406440635
150299100.0 -0.8102668757 0.2428119147 0.0001519401 -0.0001607266 5.76822e-05 1.89613e-05 0.8179682871 -0.2488022059
155299070.0 -0.8084724712 0.2523017937 -7.64126e-05 9.85877e-05 -1.50963e-05 -6.6794e-06 0.8153530335 -0.2561280641
160299040.0 -0.804920693 0.2614213383 -5.36288e-05 -0.0003377959 2.91601e-05 -2.12412e-05 0.8134426492 -0.264571323
165299010.0 -0.8022900819 0.2694878959 -5.94211e-05 0.0002448103 0.000156191 -1.36068e-05 0.8106359595 -0.272586392
170298980.0 -0.7996580346 0.2780827126 -1.56033e-05 -0.0001185943 0.0001616843 -0.0001254237 0.8078160348 -0.2803442822
175298950.0 -0.7969285055 0.2871242911 -0.0001058514 -0.0001138984 -3.09832e-05 -3.02602e-05 0.8048255152 -0.287825281
180298920.0 -0.7937089299 0.2950515516 5.77827e-05 -5.9888e-06 -0.000178749 0.0001771229 0.8020780577 -0.296133122
185298890.0 -0.7903953842 0.3042829708 2.91394e-05 -7.82536e-05 0.0001157538 5.14744e-05 0.7989822544 -0.303907064
190298860.0 -0.7875961886 0.3125656284 -4.85291e-05 0.0001765722 -4.62852e-05 4.72621e-05 0.7964370517 -0.3116563483
195298830.0 -0.7839310231 0.3212250232 -4.47143e-05 0.0001330911 -4.7086e-06 -0.0001787368 0.7930129295 -0.3193021592
200298800.0 -0.7812604639 0.3292328505 -0.0003090971 -0.0001272992 -0.0002300415 -2.15393e-05 0.7906521181 -0.3279756025
205298770.0 -0.777901965 0.3373678482 -4.62905e-05 -0.0003120133 -1.69e-06 -2.84963e-05 0.7861265161 -0.3346638226
210298740.0 -0.7732067992 0.3459947073 -1.83202e-05 -1.83634e-05 0.000127793 2.981e-07 0.7839719763 -0.3427369609
215298710.0 -0.7707671269 0.3543739827 7.68934e-05 -4.70097e-05 0.0001457558 -0.000140173 0.7796865944 -0.3507943732
220298680.0 -0.7672940136 0.3621720741 -0.0001489925 -7.97e-07 -1.07448e-05 1.02028e-05 0.7764375209 -0.3571867558
225298650.0 -0.7628589258 0.3713301118 -0.0002151458 0.0002418214 1.18448e-05 3.75871e-05 0.7725648856 -0.3652169826
230298620.0 -0.7589358949 0.3791865669 6.94019e-05 -3.12642e-05 0.0001142017 -7.63168e-05 0.7692060659 -0.372360141
235298590.0 -0.7550664369 0.3868775626 0.0001173161 -0.0001247754 0.0001565567 8.64303e-05 0.7666123147 -0.3791309418
240298560.0 -0.7511052372 0.3949849534 6.9025e-06 0.0002539226 0.0001251709 0.0003140725 0.7623209966 -0.3873650357
245298530.0 -0.746489756 0.4030020437 -0.0001513933 8.0067e-06 -3.76981e-05 -0.0002387517 0.7584533967 -0.3946663974
250298500.0 -0.742269924 0.4108854767 4.865e-07 0.0001007791 -2.98552e-05 5.79738e-05 0.7544243904 -0.4022494547
255298470.0 -0.7374368774 0.4189786186 3.80909e-05 1.59682e-05 1.20074e-05 7.59636e-05 0.7503700091 -0.4091183228
260298440.0 -0.7337646244 0.426084205 0.0002264574 9.20618e-05 0.00012351 7.92232e-05 0.7465599379 -0.4165151262
265298410.0 -0.7289735233 0.4342143192 -0.0001585719 3.31464e-05 -6.99789e-05 -0.0002284931 0.7429841606 -0.4242500412
270298380.0 -0.7248063288 0.4416480238 7.16337e-05 -4.61941e-05 9.61943e-05 -1.26187e-05 0.7391219934 -0.4307168391
275298350.0 -0.7197192983 0.4496068298 1.80974e-05 -6.26446e-05 0.0001668134 0.0001466591 0.7342579296 -0.4375988415
280298320.0 -0.7154589352 0.4567034092 0.0001253806 -0.0001457035 3.07962e-05 -0.0001530814 0.7313543739 -0.4450722481
285298290.0 -0.7103276027 0.4645274353 -7.54449e-05 1.46614e-05 -3.89682e-05 -0.0001406524 0.7265457155 -0.451754042
290298260.0 -0.7057816979 0.4721415538 0.0001423018 -0.0001256615 -1.1247e-05 7.20649e-05 0.722248875 -0.4591957082
295298230.0 -0.7003082709 0.4794581669 -0.000127383 9.90483e-05 2.36305e-05 -3.00018e-05 0.7181506508 -0.4660440312
300298200.0 -0.6946898108 0.4870417286 8.39682e-05 6.95784e-05 -0.0001172727 3.38932e-05 0.7137177138 -0.4731234486
305298170.0 -0.6901959909 0.4942683374 -8.0888e-05 -2.1673e-06 -6.84006e-05 8.9959e-06 0.7098786636 -0.4797214875
310298140.0 -0.6843535485 0.5010019771 0.0001506718 -6.61953e-05 -6.26625e-05 8.01314e-05 0.7053295432 -0.4870144937
315298110.0 -0.6795239794 0.5084823336 -3.23084e-05 -0.0002062407 6.27412e-05 -0.0001335702 0.7008304284 -0.4941836336
320298080.0 -0.6742828429 0.5156999432 -5.92456e-05 -9.80374e-05 1.62924e-05 -0.0002252294 0.6960005775 -0.5016544538
325298050.0 -0.6682982211 0.5216996277 3.09602e-05 4.6195e-06 0.0001767009 -8.84838e-05 0.6908493748 -0.5098235162
330298020.0 -0.6632420821 0.529390481 -2.14572e-05 -7.566e-06 1.58921e-05 8.95731e-05 0.6857392156 -0.5167664781
335297990.0 -0.6568305558 0.5364960981 -2.77432e-05 -7.73178e-05 0.0001089695 -7.56853e-05 0.6802462865 -0.523523218
340297960.0 -0.6524327839 0.5425532242 6.001e-06 -5.644e-06 0.0001066076 -0.0001085265 0.6744952398 -0.5295903166
345297930.0 -0.6464525125 0.5489129992 -8.2061e-06 -4.37768e-05 -2.951e-07 3.82458e-05 0.6684078412 -0.5356378942
350297900.0 -0.6404370961 0.5562271035 3.10901e-05 -0.0001552128 -2.89464e-05 3.82016e-05 0.6632876157 -0.5415711572
355297870.0 -0.6344093417 0.5626553179 4.9849e-05 3.27232e-05 -0.0001239889 0.000103105 0.6571079251 -0.5479298472
360297840.0 -0.6287616904 0.5689964148 -0.0002070678 0.0001197126 0.0001478327 4.53793e-05 0.6519795013 -0.5539914139
365297810.0 -0.6227211053 0.5758331958 8.06775e-05 0.0001246216 -2.4765e-06 -4.27156e-05 0.6466969819 -0.5602677418
370297780.0 -0.616425348 0.581876126 0.0001266704 2.7291e-05 2.978e-06 0.0002879824 0.6409313607 -0.5657861605
375297750.0 -0.6106463383 0.5879814702 -9.04905e-05 -0.0003092226 -5.46718e-05 -6.12859e-05 0.6351082879 -0.5720526644
380297720.0 -0.604215989 0.5948548327 0.0001239912 -8.9884e-05 -0.0001107071 -5.46683e-05 0.630050092 -0.5778044073
385297690.0 -0.5978817636 0.6010506019 -0.0001021945 4.96803e-05 3.43834e-05 -1.41329e-05 0.6240992852 -0.5833353052
390297660.0 -0.5909308489 0.6073315412 -3.77741e-05 -2.63256e-05 3.56648e-05 5.25605e-05 0.6186519477 -0.5901472072
395297630.0 -0.5855338101 0.6135652778 -8.14e-08 1.66074e-05 -7.37423e-05 -0.0001099195 0.612794458 -0.5955487524
400297600.0 -0.5797936059 0.6191344406 -8.97472e-05 0.0001862838 -5.45729e-05 -4.86461e-05 0.607000145 -0.6018845346
405297570.0 -0.5723014865 0.6254744002 -0.0001565592 0.0001398466 -0.0002048249 -2.69665e-05 0.6013299199 -0.6069834898
410297540.0 -0.5657155497 0.6312157981 -0.0001880533 -5.03132e-05 7.383e-07 6.24992e-05 0.595156837 -0.6130328665
415297510.0 -0.559414687 0.6365794036 -0.0001037925 6.5319e-06 -3.4789e-05 0.0001995003 0.5890362028 -0.6184931486
420297480.0 -0.5517683202 0.6418629879 -0.0001202941 -0.0001837683 -5.89642e-05 0.0001327385 0.5829177145 -0.6246253407
425297450.0 -0.5455624059 0.6478382517 -5.16781e-05 4.60669e-05 -3.93893e-05 4.08644e-05 0.5769159597 -0.6294133297
430297420.0 -0.5394927699 0.6534615543 2.21905e-05 0.000129615 -4.7207e-05 0.0001557772 0.5708653615 -0.6350882104
435297390.0 -0.5319491718 0.6593198424 6.24361e-05 0.000159801 7.77563e-05 -9.04898e-05 0.564410492 -0.640414929
440297360.0 -0.5255939698 0.6646332026 1.51996e-05 -0.0001573134 -0.000207046 -9.64263e-05 0.5579485879 -0.6460256773
445297330.0 -0.5181587815 0.669911313 0.0001291944 -0.0001435166 -6.12248e-05 3.03835e-05 0.5517148542 -0.6513765751
450297300.0 -0.5110322702 0.6751633348 -0.0002586827 -0.0003434085 -1.93594e-05 2.40316e-05 0.5447192185 -0.6567504735
455297270.0 -0.5043572058 0.6801446523 -9.95616e-05 0.0002104172 0.0001151598 3.21831e-05 0.5388026369 -0.6620920827
460297240.0 -0.4971419033 0.6852156205 1.09892e-05 -8.95589e-05 -2.7594e-05 0.0001079977 0.5328379358 -0.6669639588
465297210.0 -0.4899253976 0.6905128506 -1.82549e-05 -0.0002093031 1.75715e-05 -0.0001021029 0.5255805111 -0.6719969727
470297180.0 -0.4830013057 0.6948993804 5.80525e-05 -0.0001405961 -0.0001387572 -0.0001602894 0.5185596822 -0.6772688272
475297150.0 -0.4756608479 0.6997118004 -1.77286e-05 0.0001029145 -0.0001937275 0.0001035958 0.5120265968 -0.6818970571
480297120.0 -0.4691161138 0.7046791007 -1.22088e-05 1.71261e-05 4.01395e-05 -0.0001040312 0.5054584787 -0.6868355883
485297090.0 -0.4611953524 0.7096642638 -3.71372e-05 6.05583e-05 -5.45397e-05 -4.56315e-05 0.4982709604 -0.6918599979
490297060.0 -0.4536580322 0.7143573121 0.0001700298 -0.0002134582 -4.28101e-05 6.33606e-05 0.492023817 -0.6965013188
495297030.0 -0.4472176397 0.7183949227 -9.91606e-05 0.0003629803 -7.06091e-05 0.0001208234 0.4851427332 -0.7017144035
500297000.0 -0.4388039513 0.7234005051 -3.94087e-05 -1.3286e-06 0.0001540294 1.14846e-05 0.4779466528 -0.7060933012
505296970.0 -0.4315013668 0.7272959192 -0.0001516443 9.55521e-05 7.81434e-05 0.0001903566 0.4707361964 -0.7105652327
510296940.0 -0.4244959823 0.7319711025 8.69875e-05 -4.15252e-05 -0.0001722324 3.29349e-05 0.4634166073 -0.7144188109
515296910.0 -0.4170432185 0.7362098473 0.0001453195 2.74781e-05 -0.0001678248 1.71126e-05 0.4558828594 -0.7189996844
520296880.0 -0.4091393449 0.7401560137 -2.3029e-06 3.57831e-05 9.11068e-05 2.35242e-05 0.4497470493 -0.7241235619
525296850.0 -0.4017835 0.74489683 -6.55175e-05 -5.32668e-05 -1.4476e-06 0.0001345232 0.4424828885 -0.7279203463
530296820.0 -0.3944350203 0.7482648951 -7.89233e-05 -9.62428e-05 0.0001588216 -2.0986e-06 0.4345575793 -0.7326626424
535296790.0 -0.3859695465 0.7523857248 -8.18591e-05 0.0002640546 4.4567e-06 -5.88801e-05 0.4271113743 -0.737565543
540296760.0 -0.3781275221 0.7559491242 -2.74456e-05 5.90756e-05 -3.78549e-05 5.37511e-05 0.4195982667 -0.7405456102
545296730.0 -0.3710549181 0.7600855387 -6.34073e-05 -7.59996e-05 -8.3331e-06 9.258e-07 0.4126740132 -0.7450537375
550296700.0 -0.3629226785 0.7642362448 3.46057e-05 -3.87616e-05 -2.02723e-05 -2.723e-06 0.4051116056 -0.7491708641
555296670.0 -0.3549606329 0.7669039747 -0.0001632529 9.20015e-05 9.20643e-05 2.85709e-05 0.3974492077 -0.7526522676
560296640.0 -0.3472933466 0.7709166156 2.6992e-05 9.43981e-05 -3.62735e-05 2.68419e-05 0.3900267279 -0.7570249542
565296610.0 -0.3398453817 0.7739174867 9.07642e-05 0.0001111632 0.0001296325 1.14629e-05 0.3822030426 -0.7604696113
570296580.0 -0.3316262495 0.7775980261 -1.15311e-05 -1.07329e-05 -6.9535e-06 0.0001100341 0.3741455196 -0.7639337321
575296550.0 -0.3234285928 0.7804664559 8.81597e-05 -0.0002475881 -0.0001024467 7.7383e-06 0.3668215478 -0.7675755082
580296520.0 -0.3156243552 0.7840077716 6.44025e-05 2.3981e-05 7.12611e-05 0.0001130692 0.3589867826 -0.7711402218
585296490.0 -0.3074907174 0.7867458771 5.14483e-05 -7.28619e-05 1.85401e-05 -9.94577e-05 0.3516577769 -0.7751242693
590296460.0 -0.2998212619 0.7899522505 0.0002302606 -3.9479e-06 7.5544e-06 -9.45205e-05 0.3440993717 -0.7775150434
595296430.0 -0.29191272 0.7936502854 4.80359e-05 -2.6752e-06 6.49599e-05 -0.0001905282 0.3355772114 -0.7808696778
600296400.0 -0.2837218289 0.7957420789 0.0001824932 0.0001190146 7.4692e-06 -2.99047e-05 0.3276026383 -0.784052234
605296370.0 -0.2758078693 0.7990073157 -0.0002772257 4.7952e-05 6.20956e-05 -4.11415e-05 0.3201613536 -0.7878889182
610296340.0 -0.2673518042 0.8014508748 7.10499e-05 -6.65195e-05 -0.0001487565 5.00279e-05 0.3118329974 -0.7902269588
615296310.0 -0.2592411731 0.8044674846 7.52576e-05 0.0002374296 9.12815e-05 -4.0654e-06 0.3046084591 -0.7937304362
620296280.0 -0.2506010214 0.8065011386 0.0001710412 1.74845e-05 8.2513e-06 6.9056e-06 0.2966995874 -0.7966970297
625296250.0 -0.2429532916 0.809272734 6.39113e-05 2.53105e-05 0.0001649061 -2.13358e-05 0.2882998484 -0.7985894467
630296220.0 -0.2342444476 0.8119532606 1.6217e-06 7.95633e-05 -0.0003035564 0.0001510933 0.2803572265 -0.8014807564
635296190.0 -0.22659683 0.8141640133 0.0001698221 0.000152939 0.0001275479 0.0001322391 0.2723147179 -0.8036515667
640296160.0 -0.2178528022 0.8155033646 0.0001745989 -6.65043e-05 5.54817e-05 8.46422e-05 0.2641242184 -0.8066682536
645296130.0 -0.2098170934 0.8181947615 0.0001203988 0.0001767034 0.0001220178 4.10521e-05 0.2562800651 -0.8094126282
650296100.0 -0.201463722 0.8203789973 8.61386e-05 7.48319e-05 -8.7756e-06 -0.0001927737 0.2477875589 -0.81161653
655296070.0 -0.1935586968 0.8219598949 -1.6401e-06 -2.88961e-05 0.000201428 -5.77403e-05 0.2394694662 -0.8133108534
660296040.0 -0.1854688124 0.82433753 -0.0002195354 -9.15024e-05 -5.02934e-05 -3.86907e-05 0.2315173036 -0.816423937
665296010.0 -0.1769152146 0.825783317 3.2578e-06 -4.327e-07 -0.0001421481 -5.95359e-05 0.2236790981 -0.8179663608
670295980.0 -0.1676324901 0.8272188802 -0.0002351242 -0.0001421448 3.71331e-05 -0.0002448177 0.2157339391 -0.8198479511
675295950.0 -0.1600069572 0.8289698198 -0.0001135683 -9.29777e-05 -0.0001147256 0.0002155521 0.2073303259 -0.822295477
680295920.0 -0.1516546711 0.8307915243 0.000259419 8.83787e-05 -2.9603e-06 -2.47612e-05 0.1986003861 -0.8241965704
685295890.0 -0.1432327196 0.8321965997 -9.25756e-05 7.63668e-05 0.0001032404 -9.60513e-05 0.1907235858 -0.8260811665
690295860.0 -0.1339840945 0.833579025 -7.57238e-05 -0.0001137191 6.16457e-05 -2.76955e-05 0.1825764411 -0.8270551399
695295830.0 -0.1257641256 0.8344856725 4.75402e-05 4.4158e-05 7.20378e-05 0.0001183658 0.1740691175 -0.8290438379
700295800.0 -0.1175948678 0.8353577529 7.209e-05 2.59621e-05 -6.82227e-05 1.665e-06 0.1656416216 -0.830278908
705295770.0 -0.1090004747 0.8370630901 -0.0001035542 0.0002085656 -7.8615e-06 0.0001213219 0.1574611139 -0.8312842283
710295740.0 -0.1007190608 0.8381104036 -3.06152e-05 -2.90461e-05 -2.93773e-05 -0.0001724611 0.1488234387 -0.8326231169
715295710.0 -0.0928946142 0.8395812139 -0.0001739904 5.06931e-05 6.8242e-06 -5.29275e-05 0.1408349067 -0.8345984034
720295680.0 -0.0840630754 0.8395338668 -8.41624e-05 0.0001671333 8.25879e-05 -7.57499e-05 0.1325209571 -0.8353778678
725295650.0 -0.0747577586 0.8413050767 0.0001921623 0.0001731726 4.78472e-05 -9.88395e-05 0.1244576042 -0.8364730486
730295620.0 -0.0675283479 0.841673774 7.4153e-06 -0.0001744608 1.57564e-05 4.27273e-05 0.1161590192 -0.8380657329
735295590.0 -0.0581850147 0.8415677499 3.26444e-05 -5.06667e-05 -3.4771e-05 -3.11436e-05 0.1075566173 -0.8388248852
740295560.0 -0.050314348 0.8426290604 -5.76274e-05 -3.04351e-05 -0.0001092137 -0.0001446222 0.0989806096 -0.840438536
745295530.0 -0.0420590212 0.8426978004 -4.67821e-05 0.0002624606 -7.29223e-05 2.2491e-05 0.0902660837 -0.8408236009
750295500.0 -0.0334427993 0.8431681394 -5.3913e-05 -0.0001186881 0.0001814091 -6.60925e-05 0.0824415641 -0.8416866344
755295470.0 -0.0242424824 0.8433967027 0.0001523622 -2.80802e-05 1.27778e-05 0.0001933757 0.0734114969 -0.8416213701
760295440.0 -0.0164527661 0.8438229413 0.0001014057 3.60568e-05 -4.40017e-05 -1.84193e-05 0.0653140304 -0.8429489654
765295410.0 -0.0078551095 0.8434177292 0.0001264733 -3.10894e-05 3.45189e-05 -6.9115e-06 0.0570862236 -0.8428102549
770295380.0 0.0006193648 0.8444905818 7.20569e-05 -0.0001054504 -0.0002062911 -6.10295e-05 0.0490086779 -0.8430041623
775295350.0 0.0091672515 0.8441991035 -6.7133e-05 2.56016e-05 -7.4544e-06 -0.0001213908 0.0404310957 -0.8448208751
780295320.0 0.0178759166 0.8435789573 -0.000177178 0.0001288489 -3.66652e-05 3.1902e-06 0.0316929568 -0.8434315134
785295290.0 0.0264663762 0.843596819 -0.0001692129 -0.0001882381 -0.0001344728 -3.64761e-05 0.0235567392 -0.8440865426
790295260.0 0.0343039267 0.8433504907 0.0001845323 0.0001026312 -7.8308e-05 0.0001202578 0.0154154665 -0.8442504071
795295230.0 0.0430347453 0.8430806557 -8.64632e-05 -7.2217e-06 -2.90812e-05 0.0001306562 0.0061959546 -0.8439050028
800295200.0 0.0517297803 0.8424529719 0.0002754805 -0.0001127217 -0.0001529682 4.93535e-05 -0.0014682064 -0.8441295965
805295170.0 0.0602498692 0.8423670098 3.95956e-05 -5.8123e-05 -2.55907e-05 -1.77151e-05 -0.0104182124 -0.8438599643
810295140.0 0.0683671442 0.8413176014 0.0001095349 7.3103e-06 -8.08737e-05 7.1721e-06 -0.0191553223 -0.8431234274
815295110.0 0.0771924729 0.8399052546 0.000174771 0.0001493201 -4.01632e-05 7.27029e-05 -0.0275553887 -0.8434100776
820295080.0 0.0855024401 0.8392610555 -6.3463e-06 -8.87324e-05 -1.85218e-05 -0.0002464277 -0.0364701758 -0.8426476756
825295050.0 0.0940206624 0.8383177227 1.95666e-05 7.85709e-05 -0.0001428034 -1.79951e-05 -0.0436120612 -0.8424123664
830295020.0 0.1021001389 0.8375364068 9.65333e-05 7.75773e-05 -8.8772e-05 0.0003318532 -0.0533396061 -0.8416905413
835294990.0 0.1101692909 0.8371353444 -0.0001296176 -5.20816e-05 5.07935e-05 -7.32483e-05 -0.060942006 -0.8410418563
840294960.0 0.1189078459 0.8353801089 -6.4349e-05 0.0001085339 -5.62048e-05 -0.0001342552 -0.0701776218 -0.839346515
845294930.0 0.1265562135 0.8344497028 8.79788e-05 -0.0001401941 7.03784e-05 5.77563e-05 -0.0771512674 -0.8388694317
850294900.0 0.134918928 0.8328432797 1.16359e-05 1.74759e-05 0.000138563 -9.90013e-05 -0.086444611 -0.8374624189
