!Created with skrf (http://scikit-rf.org).
# Hz S RI R 50.0 
!freq ReS11 ImS11 ReS21 ImS21 ReS12 ImS12 ReS22 ImS22
300000.0 -0.7738398465 -0.1745244747 -0.0001709333 0.0005543902 -0.0003199246 -0.0005661819 -0.2063338494 -0.1097396361
5299970.0 -0.7864832563 -0.009770894 -0.0002795067 -8.79998e-05 0.0002598628 0.0001981408 -0.2159800438 0.0060309917
10299940.0 -0.7890807949 -0.0059756714 8.36649e-05 6.23638e-05 -3.22442e-05 -1.35244e-05 -0.2121246213 0.0185179246
15299910.0 -0.7943110128 -0.0038092831 -0.000121571 -2.91406e-05 -0.0001539175 0.0001379917 -0.2073332638 0.028129247
20299880.0 -0.8006795043 0.0004894336 0.0001200836 -3.1205e-06 -0.0001427516 0.0001157106 -0.2023480476 0.0359610731
25299850.0 -0.8075860809 0.0068955806 -8.20668e-05 -0.0003214557 -0.0001507781 -9.36197e-05 -0.1966592405 0.0418379679
30299820.0 -0.8138457807 0.013742656 0.0001640239 -1.86199e-05 5.57064e-05 -0.0002313696 -0.1906647399 0.0465783615
35299790.0 -0.8190123625 0.0230600827 -6.498e-07 1.977e-06 -0.0002156274 1.55478e-05 -0.1852875879 0.0507054252
40299760.0 -0.8236706046 0.0319953925 -4.18534e-05 -6.9219e-06 7.53755e-05 -0.0001799527 -0.179728762 0.0532543023
45299730.0 -0.8267918041 0.0417136143 2.86373e-05 -2.76809e-05 6.60363e-05 -7.41564e-05 -0.1743453493 0.0554521504
50299700.0 -0.8291881084 0.051887519 -3.9693e-05 7.89741e-05 -9.46782e-05 -9.8881e-06 -0.1696421628 0.0572048656
55299670.0 -0.8313385441 0.0613229982 9.84373e-05 2.15581e-05 3.97773e-05 -0.0001346582 -0.1653104348 0.0579981915
60299640.0 -0.8325079553 0.0717211408 3.1454e-05 -0.000127635 -6.12078e-05 -5.6956e-06 -0.161499284 0.0585573576
65299610.0 -0.833277719 0.0818689313 -1.66155e-05 5.51137e-05 -0.0001793117 -2.64109e-05 -0.1575939417 0.0593229267
70299580.0 -0.8334526395 0.0917961019 6.4935e-05 4.81675e-05 0.000176818 0.0002489565 -0.1545228754 0.0596280005
75299550.0 -0.8339777952 0.1014787149 -0.0001512474 0.0001858363 -0.0001167601 8.23072e-05 -0.1512377409 0.0598578972
80299520.0 -0.8336005627 0.1123576575 -4.20332e-05 6.13134e-05 0.0002115226 1.99856e-05 -0.148702541 0.0599419779
85299490.0 -0.8326459531 0.1211622925 0.0002300783 0.0003886861 -2.51384e-05 -0.0001948736 -0.1462385971 0.0599621342
90299460.0 -0.8319035605 0.131424607 4.75192e-05 -8.1366e-05 -0.0001370498 0.0001110518 -0.143987329 0.0596214858
95299430.0 -0.8315797659 0.1405708796 0.0001216109 0.0001535973 3.73426e-05 1.88261e-05 -0.1420264529 0.059970395
100299400.0 -0.8305177545 0.1503374946 0.0001013189 9.58672e-05 -2.01787e-05 0.0001160786 -0.1402978333 0.060363628
105299370.0 -0.8287005044 0.1594664262 -0.0001546453 0.0001073739 0.0001761614 5.73689e-05 -0.1387002153 0.0599456666
110299340.0 -0.8276070634 0.1685969359 -8.89447e-05 -8.2709e-06 -5.4372e-06 3.5266e-06 -0.1374743112 0.0596779435
115299310.0 -0.8261477849 0.177764873 3.46396e-05 -7.14601e-05 2.61942e-05 0.0003857841 -0.1360887716 0.0599673572
120299280.0 -0.8250955553 0.186710883 3.1845e-05 -1.95873e-05 0.0001175714 0.000134421 -0.1348993912 0.0599303473
125299250.0 -0.8224094784 0.1958701933 -2.17823e-05 0.0002573412 6.54331e-05 6.82711e-05 -0.1336728465 0.0600130381
130299220.0 -0.8209985176 0.2054595661 -0.0001309083 6.01384e-05 1.41247e-05 0.0001089302 -0.1325069047 0.0601211521
135299190.0 -0.8189652462 0.2145292209 9.98578e-05 -0.0001076682 0.0001711475 9.01224e-05 -0.1317779826 0.0605478577
140299160.0 -0.8173180737 0.2233658571 6.60847e-05 -6.48028e-05 -0.0001656651 0.0001639623 -0.1311904212 0.0608127038
145299130.0 -0.8149821413 0.2321294668 3.62076e-05 -8.47642e-05 0.0002094856 3.16355e-05 -0.1304184729 0.0609961317
150299100.0 -0.8121743924 0.2410976303 -6.84496e-05 9.3695e-05 0.0001397939 9.65365e-05 -0.1297257159 0.0613926048
155299070.0 -0.8099064269 0.2497382338 2.0378e-05 3.39453e-05 0.0001146165 0.0002387999 -0.1289174867 0.0621597902
160299040.0 -0.8077486997 0.2590023506 -7.91632e-05 -4.84808e-05 0.0001592066 7.25549e-05 -0.128250841 0.0623084051
165299010.0 -0.8045461187 0.267441799 2.25572e-05 -0.000113756 0.0002310938 -6.5948e-05 -0.1275602972 0.0625870694
170298980.0 -0.8016236218 0.2761018917 1.56981e-05 7.07599e-05 3.17621e-05 6.14853e-05 -0.1273638781 0.0633137454
175298950.0 -0.7990378338 0.2845491763 0.0002352244 8.875e-05 -2.31835e-05 -6.46843e-05 -0.1264259722 0.064352483
180298920.0 -0.7961033831 0.2935836257 0.000114572 5.15498e-05 1.64356e-05 0.000270729 -0.1259881814 0.064298157
185298890.0 -0.7928605744 0.3021120295 0.0001098944 0.0002160449 0.0001720618 6.88896e-05 -0.1254365149 0.0648260593
190298860.0 -0.7891929803 0.3107913942 -3.681e-07 -2.1867e-06 0.0002635853 8.15964e-05 -0.1249537756 0.0657551241
195298830.0 -0.7866258392 0.3190170661 5.50389e-05 3.33762e-05 8.47611e-05 -2.458e-05 -0.1247198309 0.0665067335
200298800.0 -0.7827864638 0.328046345 8.1378e-05 0.0001312164 0.0001297852 1.01086e-05 -0.1240442501 0.0672674681
205298770.0 -0.779371543 0.3366702844 0.0001638831 1.90375e-05 8.69736e-05 -1.70671e-05 -0.1236258161 0.0678408218
210298740.0 -0.7758777024 0.3448126066 -1.0817e-06 6.23624e-05 -0.0001337711 -3.94618e-05 -0.1230703941 0.0685968984
215298710.0 -0.7719514168 0.3533133032 0.0002729139 6.1089e-06 -3.30942e-05 0.0001593874 -0.1228862706 0.0691900786
220298680.0 -0.7683013899 0.3605366531 7.81496e-05 0.0001194695 0.0001922386 0.0001912688 -0.1219232784 0.0702185569
225298650.0 -0.7649515344 0.3694106283 -8.9313e-06 0.0002001834 -8.13e-08 8.43182e-05 -0.1217616088 0.0711232724
230298620.0 -0.7611532474 0.3776750131 0.0002718134 5.32614e-05 0.0001836851 8.52086e-05 -0.1214449523 0.0718343104
235298590.0 -0.7570111792 0.3858248392 0.0001781043 9.4031e-06 0.0002306745 5.29474e-05 -0.1208969551 0.0730016315
240298560.0 -0.7526838944 0.3933447342 -0.0001152258 -0.0001148422 0.0002334058 0.00030162 -0.1204469427 0.0736127715
245298530.0 -0.748587261 0.4013103709 3.25402e-05 9.30862e-05 9.53122e-05 9.90071e-05 -0.120124288 0.0744141492
250298500.0 -0.7445456605 0.4093834026 0.0001313175 0.0001704522 -7.33717e-05 9.03044e-05 -0.1196737832 0.0758026898
255298470.0 -0.7406553132 0.4174165441 -0.000106112 3.36141e-05 -6.5052e-06 0.000110057 -0.1190555271 0.0761578005
260298440.0 -0.7362950592 0.4251280442 -3.613e-06 8.93938e-05 0.0001436284 1.52015e-05 -0.1187010422 0.0773048864
265298410.0 -0.7320082838 0.4327251147 3.42034e-05 1.49995e-05 0.0001712722 0.0002339777 -0.1178329964 0.0783672222
270298380.0 -0.7269876998 0.4404394223 -2.88191e-05 0.00016266 0.0001983743 0.0002981463 -0.1174042055 0.079362962
275298350.0 -0.7231733233 0.4477430962 8.12045e-05 0.0001434874 0.0002126491 -3.8733e-05 -0.1167799141 0.0804152158
280298320.0 -0.7183556665 0.455767171 5.19316e-05 1.2188e-05 0.0002163676 -1.3936e-06 -0.1166910242 0.0810953974
285298290.0 -0.713858491 0.4632709333 0.0001627231 2.94502e-05 0.0002296652 1.57742e-05 -0.1158775553 0.0824806106
290298260.0 -0.7082387358 0.4706957877 -6.29425e-05 -8.44373e-05 0.0002040513 9.3009e-05 -0.1153451888 0.0834490653
295298230.0 -0.7038552452 0.4778054896 0.0002099734 9.82581e-05 0.0002492001 -2.91485e-05 -0.1148974548 0.0843081917
300298200.0 -0.6995590425 0.4851147594 0.0001928629 9.86763e-05 4.49677e-05 0.0001030981 -0.1141254299 0.0853004699
305298170.0 -0.694448524 0.4927059705 -3.04788e-05 0.0001273647 0.0003291094 6.35036e-05 -0.1132499783 0.0864114
310298140.0 -0.6888231903 0.4999433775 -2.49815e-05 0.0002800009 0.0001878337 0.0001366773 -0.1128003937 0.0875995142
315298110.0 -0.6846267053 0.5063659563 0.000248928 -1.15919e-05 5.98543e-05 8.32466e-05 -0.1119348835 0.0885761006
320298080.0 -0.6786800399 0.5145121903 -8.47381e-05 0.000122657 0.0001212963 0.0001145304 -0.1115709056 0.0895536511
325298050.0 -0.6734363577 0.5211315629 0.0001090044 0.0001714305 0.0001521771 3.88056e-05 -0.1107137572 0.0903525031
330298020.0 -0.6685086584 0.5280344 0.0002278937 3.75234e-05 0.0002794778 0.0001445296 -0.1102826028 0.0912836102
335297990.0 -0.6632077828 0.5350172826 4.11566e-05 -1.24851e-05 0.0001492636 -6.2083e-05 -0.1095282575 0.0926255641
340297960.0 -0.657800591 0.54126127 0.0003075134 -0.0001195029 0.0001124206 -0.0001387636 -0.1091342767 0.0934728743
345297930.0 -0.6518826065 0.5476254131 9.62434e-05 -8.1798e-06 0.0002626877 1.7407e-06 -0.1085570068 0.0945313333
350297900.0 -0.6458968345 0.5544645907 0.0001808228 4.7548e-06 0.0001822585 0.0001641405 -0.1081545819 0.0953637767
355297870.0 -0.6408653734 0.5608509982 0.0001842311 -1.3576e-05 2.71869e-05 0.0001819001 -0.1069702852 0.0968569393
360297840.0 -0.6348802202 0.5676874409 9.30802e-05 1.18086e-05 0.000188195 0.0001417577 -0.1064685562 0.0975778807
365297810.0 -0.6293480715 0.5747864945 0.0002794943 0.0001485389 0.0002099058 0.0002319618 -0.1058303819 0.0985623275
370297780.0 -0.6238074097 0.5807318045 0.0003231131 -9.08739e-05 0.0001786043 0.000273005 -0.104954858 0.0999423826
375297750.0 -0.6175062917 0.5871505158 9.74647e-05 0.0002723464 0.0001932809 0.0001888768 -0.1042225478 0.1011251173
380297720.0 -0.6121893171 0.5936786909 0.0002846392 0.0003403126 0.0002033041 7.74312e-05 -0.1031720818 0.1021728497
385297690.0 -0.6056379963 0.5993628588 0.0002674096 -4.9989e-06 1.87009e-05 -2.00132e-05 -0.1026824998 0.1031507783
390297660.0 -0.5982586881 0.6055717449 0.0001645907 0.0001582907 8.6418e-06 8.43677e-05 -0.1016942154 0.1043293719
395297630.0 -0.5931569035 0.6125699515 0.000145172 6.7498e-06 0.0001665402 0.0002590097 -0.1009330342 0.1053418802
400297600.0 -0.5866616132 0.6181741791 0.0001063897 -4.35026e-05 5.35854e-05 -7.21025e-05 -0.1004237227 0.1061473653
405297570.0 -0.5805116046 0.6225747542 -2.20833e-05 -4.68608e-05 0.0003569388 3.67182e-05 -0.0993458966 0.1072951644
410297540.0 -0.5735292115 0.6297201761 0.0004202371 5.99273e-05 0.0003797795 -9.87197e-05 -0.0986243521 0.1087809623
415297510.0 -0.5678560167 0.6354586474 -3.46882e-05 2.90591e-05 0.0001698297 0.0002081051 -0.0976978693 0.1095431063
420297480.0 -0.5607065189 0.6404891091 -9.9099e-06 -3.33202e-05 0.0001047746 0.0001883175 -0.0963620566 0.1108975962
425297450.0 -0.5542505409 0.6465725326 5.09881e-05 0.0001990921 0.0001167469 7.491e-06 -0.0957434244 0.1114840505
430297420.0 -0.5478076655 0.6515261568 8.3538e-06 -9.65929e-05 6.10898e-05 -6.03981e-05 -0.0946118164 0.112829508
435297390.0 -0.540671715 0.6577432798 0.0003085436 0.0001931144 0.0002400169 0.0001533163 -0.0942163486 0.1139622299
440297360.0 -0.5341597186 0.6627968586 0.0002698827 6.988e-07 0.000237941 -0.0001723837 -0.0931552426 0.1147622338
445297330.0 -0.5268920952 0.6680512064 8.39459e-05 0.0002138964 3.56948e-05 -0.0001088648 -0.0918489119 0.1163931384
450297300.0 -0.5202886663 0.6733246661 0.000223818 -6.09336e-05 3.65462e-05 0.0001724051 -0.0909482109 0.1168028694
455297270.0 -0.5138600344 0.6782632918 0.0001756349 0.0001511355 0.0002228675 8.82359e-05 -0.0899830204 0.1179798157
460297240.0 -0.505819104 0.6840904313 0.0001708474 0.0002201548 -8.75685e-05 -2.27645e-05 -0.0889609545 0.1188161907
465297210.0 -0.4995563287 0.6894043772 0.0002962912 0.0001927766 0.0002066756 6.42755e-05 -0.0878191827 0.1200873871
470297180.0 -0.4917169441 0.6942391766 0.0001384577 0.000117524 3.81071e-05 0.0002826553 -0.0870854602 0.1207973305
475297150.0 -0.4849882585 0.6984068588 9.57116e-05 7.6732e-05 0.000312766 -0.0002035535 -0.085894877 0.122049407
480297120.0 -0.4768454144 0.7036124191 0.000206219 0.0001719522 0.0001982274 -6.62149e-05 -0.0850882489 0.1231425282
485297090.0 -0.4701050411 0.7082154927 0.0002247733 0.0001046155 1.19721e-05 7.3494e-05 -0.0840574072 0.1240494008
490297060.0 -0.4619995154 0.7135333844 0.0001628525 0.0002485473 0.0002628977 -5.02438e-05 -0.0829021114 0.1247604626
495297030.0 -0.4543927217 0.7184073797 0.0003257071 0.0001075852 0.0004506391 -0.0001170499 -0.0817238067 0.1258202321
500297000.0 -0.4474161269 0.7220780842 0.0002606023 2.88038e-05 0.0001410461 3.85415e-05 -0.0806100306 0.1268067885
505296970.0 -0.4395725932 0.7271409634 0.0002159783 -0.0001364567 0.000207733 -9.0894e-06 -0.0793673057 0.1278085644
510296940.0 -0.4321815859 0.7310977708 0.0003482922 0.0001894243 0.000206513 0.0001901245 -0.0780488829 0.1286769324
515296910.0 -0.4241723182 0.735753507 0.0002550078 -9.40107e-05 3.23202e-05 0.0001029834 -0.0773852179 0.1294733032
520296880.0 -0.416594174 0.7397198139 0.0002103576 1.16532e-05 0.0002400573 0.0003204805 -0.0757976003 0.1305587899
525296850.0 -0.4091776469 0.7440287332 0.0002881775 3.0255e-05 0.0002317352 0.0002260472 -0.0748676933 0.1313000865
530296820.0 -0.4015563184 0.7480629355 0.0002473484 -7.73928e-05 0.000355374 1.23236e-05 -0.0736175964 0.1319071235
535296790.0 -0.3928234551 0.7517573554 0.0001725219 -9.7674e-05 0.0004376692 0.0001342192 -0.0723239362 0.1331742071
540296760.0 -0.3847851453 0.7561060989 0.0001363473 9.8486e-06 7.971e-05 6.14301e-05 -0.0713593533 0.1337203409
545296730.0 -0.3774863081 0.759965277 0.0002190542 0.0002189341 0.0003325822 0.000306858 -0.0701380792 0.1346051849
550296700.0 -0.3693380335 0.7638524978 0.0001625611 -4.29423e-05 0.0005015801 0.0001507839 -0.0689826717 0.1354080248
555296670.0 -0.3612914632 0.7673747047 7.87544e-05 0.0001455519 0.000148519 -1.16794e-05 -0.067832371 0.1362174017
560296640.0 -0.353210829 0.7704222931 0.0002041622 6.58423e-05 0.0001792012 0.0002992028 -0.0666712149 0.1371688061
565296610.0 -0.3456932321 0.7743132618 3.85537e-05 0.0001083231 0.0004236396 6.75062e-05 -0.0651414216 0.1380995025
570296580.0 -0.3372790947 0.7777779169 0.0001250003 1.09142e-05 0.0002649437 1.14862e-05 -0.0643824364 0.1386998669
575296550.0 -0.3284258486 0.7812805725 0.0003123381 -0.0001789604 0.0002905832 7.81319e-05 -0.0627530781 0.1394774294
580296520.0 -0.3214194481 0.7844899046 0.0003155409 -3.36345e-05 0.0002985137 5.1189e-06 -0.061622193 0.1402811203
585296490.0 -0.3122656349 0.787552335 -7.599e-06 0.0001361799 0.0003218076 0.0001375787 -0.0602076156 0.1410811924
590296460.0 -0.3040468791 0.7905450832 0.0003254571 0.000175234 0.0002682139 7.53597e-05 -0.0591862108 0.141757558
595296430.0 -0.2959146424 0.7941394156 0.0002070415 -6.5934e-05 0.0001886971 -6.78259e-05 -0.0579386132 0.1425740147
600296400.0 -0.2881186208 0.7970350759 0.0001464488 -0.0001293329 0.0002487872 -3.29805e-05 -0.0562295765 0.1434059504
605296370.0 -0.2799284861 0.7999014723 7.03515e-05 0.0001562858 6.88599e-05 7.86059e-05 -0.0551147298 0.144044286
610296340.0 -0.271694249 0.8031996099 0.0001414984 -0.0001539677 0.0002824193 0.0001373685 -0.0539914621 0.1447547967
615296310.0 -0.2628262532 0.8051747665 9.94458e-05 -0.0001319949 0.0002747305 0.0002119022 -0.0521992868 0.1455501419
620296280.0 -0.2551239653 0.8083475918 5.83226e-05 -6.76303e-05 0.0002828023 6.2479e-06 -0.0508699173 0.1463448567
625296250.0 -0.2476978866 0.809993713 0.0001223049 0.0001815242 7.26023e-05 -6.79388e-05 -0.0497688965 0.1470604362
630296220.0 -0.2387143942 0.8135102616 0.0004650368 0.000127524 -6.9104e-06 2.34331e-05 -0.0485261796 0.1476141622
635296190.0 -0.2307625207 0.8156433147 4.09323e-05 1.95408e-05 0.0001923162 0.0001308115 -0.0474840972 0.1482196514
640296160.0 -0.2215111081 0.8176596409 0.0001514706 3.74953e-05 0.0004547411 -0.000197676 -0.0458605196 0.1488596165
645296130.0 -0.2141061451 0.8200722078 0.0001234509 0.0001910177 0.0002326764 -6.5947e-06 -0.0444767547 0.1493849061
650296100.0 -0.2059190811 0.8225636638 0.0003500905 0.0002840192 0.0002691074 5.38048e-05 -0.0431860223 0.1500252497
655296070.0 -0.1974880871 0.8245909927 0.0001350249 0.0002121721 0.0003765343 0.0001915702 -0.0418924528 0.1507271169
660296040.0 -0.1893085771 0.8261423017 0.0001859583 -7.35507e-05 0.0004928399 5.0073e-06 -0.0403123106 0.1510903131
665296010.0 -0.1814673866 0.8281943857 -3.15906e-05 0.0001586473 0.0003063582 8.89388e-05 -0.038948715 0.1514985623
670295980.0 -0.1730899335 0.830681457 9.04764e-05 1.803e-07 0.0006214118 0.0001702754 -0.0375977782 0.1523250467
675295950.0 -0.1634730406 0.8318258687 0.0003069098 4.29049e-05 0.0004578165 -5.3111e-05 -0.0359030583 0.1530349133
680295920.0 -0.1564732843 0.8339335677 0.0002428092 -5.97531e-05 0.0002552731 -5.35583e-05 -0.03473338 0.1534473226
685295890.0 -0.1474089638 0.8352320551 0.0004043681 0.0001193695 0.0002891785 5.7251e-06 -0.0331893092 0.1541223226
690295860.0 -0.1393042061 0.8363859889 0.0003134027 -2.17359e-05 0.000360765 8.4056e-06 -0.0318384487 0.1546141152
695295830.0 -0.130850505 0.8384411505 0.0003065846 -0.000143119 0.0001045057 5.94621e-05 -0.0305370201 0.1551257926
700295800.0 -0.1229350318 0.8397499761 0.0004072356 -9.56734e-05 0.0003964479 8.8092e-06 -0.0288761813 0.1554381122
705295770.0 -0.1150282689 0.8409897284 -8.76691e-05 0.0002719039 0.0004686024 0.0001123453 -0.0277792745 0.1562280044
710295740.0 -0.1069494555 0.8421652535 0.0002942291 0.0001264525 0.0002815892 8.20529e-05 -0.0259585981 0.1564442974
715295710.0 -0.0976290193 0.8433564384 0.0002354182 5.30754e-05 0.0003221261 -7.54516e-05 -0.0244700323 0.156668674
720295680.0 -0.0891317137 0.8444479444 -1.06197e-05 4.17129e-05 0.0003742699 -4.11e-06 -0.0231605406 0.1571973096
725295650.0 -0.0813233027 0.8455341062 0.0003514587 4.29152e-05 4.31564e-05 4.32507e-05 -0.0218733756 0.1577983837
730295620.0 -0.0735106215 0.8462236564 0.0001887814 4.1466e-05 0.0002307181 -5.39662e-05 -0.0203195614 0.1584900219
735295590.0 -0.0658273427 0.8476372591 0.0003054526 -0.0003229951 0.0001300067 -4.91196e-05 -0.0186590033 0.1585532953
740295560.0 -0.0575321678 0.8476918995 7.08589e-05 -0.0003979911 0.0002207358 7.41523e-05 -0.0170585962 0.1591313803
745295530.0 -0.0491246431 0.8489300524 0.0001646727 -8.37532e-05 0.0003133186 -0.0001170779 -0.015822518 0.15946483
750295500.0 -0.0409510261 0.8491604007 0.0003704919 -9.57421e-05 0.000434394 -3.3842e-06 -0.0141359408 0.1595938405
755295470.0 -0.0322718826 0.8497523296 0.0003335384 -0.0001192747 0.0002838659 8.181e-06 -0.012732136 0.1603784085
760295440.0 -0.0236440283 0.8508125547 0.0001853807 -6.64617e-05 0.0003566421 -0.0002812434 -0.0111094572 0.1602146816
765295410.0 -0.0163715995 0.8504256008 0.0004696013 -0.0001115124 0.0004718318 -2.28409e-05 -0.0097852993 0.1607359261
770295380.0 -0.0087356497 0.8509176282 0.0004541445 -0.000134239 0.0001417855 2.48927e-05 -0.0084857967 0.1608725456
775295350.0 -0.0001880463 0.8512233628 0.0002170857 -0.0001095745 0.0004312467 -0.0001165608 -0.0066062133 0.1613390581
780295320.0 0.0082959424 0.8515074136 0.0003454686 -7.66128e-05 9.31376e-05 -0.0001349403 -0.0049070351 0.1614795139
785295290.0 0.0168527533 0.8507597653 0.0003451848 1.52078e-05 0.0003436843 -2.51852e-05 -0.0037007124 0.1620027758
790295260.0 0.0247863905 0.8504869911 0.0003093658 3.14978e-05 0.0002003234 -3.56612e-05 -0.0021437794 0.1622546616
795295230.0 0.0328435811 0.8507617537 0.0001915106 -6.37713e-05 0.0002613013 -9.5638e-05 -0.0008168691 0.1619153536
800295200.0 0.0412387109 0.8505643675 0.000381315 -0.000200555 0.0001892474 -0.0001241348 0.0006574179 0.1622659507
805295170.0 0.049097658 0.8503012107 0.0003546836 -0.0001076975 0.0003686272 9.96914e-05 0.002358136 0.1623387761
810295140.0 0.0579312167 0.8504068024 0.0001165551 -0.0001655103 0.0003033747 -0.0002146363 0.0040923176 0.1626549559
815295110.0 0.0654983129 0.8495532081 9.39851e-05 -0.0001274202 0.0001977027 -2.03336e-05 0.0052969805 0.1627090214
820295080.0 0.0734277153 0.8490644762 0.0002335843 -0.0001053428 0.0003051148 -2.21391e-05 0.0064788463 0.1632490379
825295050.0 0.081734229 0.8482748615 0.0002337895 -4.9537e-05 0.0002252874 1.69259e-05 0.0087672992 0.1632554284
830295020.0 0.0904904858 0.8475630529 0.0004018957 6.04793e-05 0.0001540232 -9.9007e-05 0.0100757423 0.1631065686
835294990.0 0.0976611261 0.8463786972 0.0002443071 -0.0003303752 0.0003657268 -0.0001733574 0.0119866163 0.163560425
840294960.0 0.1065610612 0.8452499117 0.0002551984 -0.000102207 0.0003046021 -0.0001466669 0.0134007537 0.163627325
845294930.0 0.1142633964 0.8446335788 0.0003703538 -0.0001586143 0.0003457726 9.42879e-05 0.0148861608 0.1638055782
850294900.0 0.1240116427 0.8432356584 0.0002877055 -0.0001520131 -3.20177e-05 -0.0001452244 0.0163047044 0.1638347171
