!Created with skrf (http://scikit-rf.org).
# Hz S RI R 50.0 
!freq ReS11 ImS11 ReS21 ImS21 ReS12 ImS12 ReS22 ImS22
300000.0 -0.3155157379 -0.1095921184 0.3724740273 0.0560969116 0.3722325309 0.0584843742 -0.3175322065 -0.1152490284
5299970.0 -0.3237240283 0.0048447185 0.378580368 0.0026788889 0.3784640111 0.003254363 -0.3260529605 0.0030004363
10299940.0 -0.3209270778 0.0156259162 0.3796640307 0.0022904664 0.3798905578 0.0023413529 -0.3242740711 0.0127056478
15299910.0 -0.318177677 0.023298778 0.3817343939 0.002272712 0.3818868817 0.0024610492 -0.3214337601 0.0196610548
20299880.0 -0.3145446358 0.0299723058 0.3848794238 0.0018063098 0.3851752341 0.001708843 -0.318595005 0.0259812202
25299850.0 -0.3107117414 0.0357604469 0.388492358 -8.66592e-05 0.3884260672 -7.11222e-05 -0.31565695 0.0310812535
30299820.0 -0.3068044162 0.0403518802 0.3919849124 -0.0019318018 0.3917584352 -0.002060824 -0.312660488 0.0357681347
35299790.0 -0.3027495218 0.0447282344 0.3949897765 -0.0049728039 0.3951015193 -0.0051466703 -0.3095783646 0.0394552758
40299760.0 -0.2995557204 0.047804071 0.3983913051 -0.0083491812 0.3985451781 -0.0089756765 -0.3071199807 0.0431236938
45299730.0 -0.2964526149 0.0514963001 0.4010098333 -0.0128872373 0.4012350173 -0.0126184783 -0.3046800019 0.0459512763
50299700.0 -0.293227309 0.0539042826 0.4033168158 -0.0168575965 0.4036085498 -0.0172320778 -0.302095349 0.0492054336
55299670.0 -0.2908891212 0.0567384511 0.4054281128 -0.0220696026 0.4057333091 -0.0218738059 -0.3002525263 0.0518083556
60299640.0 -0.2881843847 0.0590640857 0.4075236914 -0.0271611159 0.407667073 -0.0270888755 -0.2980176177 0.0545092067
65299610.0 -0.2861102857 0.0613506344 0.4094102245 -0.0314994912 0.4092647388 -0.0318115273 -0.2962129511 0.057274157
70299580.0 -0.2837173434 0.0636342821 0.4104418697 -0.0366974308 0.4105442843 -0.0369871078 -0.294677985 0.0595092095
75299550.0 -0.2818348355 0.065687438 0.4114398907 -0.042037241 0.411707257 -0.0421536349 -0.2931282242 0.0619296651
80299520.0 -0.2801673141 0.0677062512 0.4126304017 -0.0474385098 0.4127031867 -0.047180955 -0.291791856 0.0641197911
85299490.0 -0.2784425925 0.0700291694 0.4130755032 -0.0526238175 0.4133389072 -0.0527756118 -0.2904759512 0.06655928
90299460.0 -0.2769812282 0.0725268041 0.4133262831 -0.0579123841 0.4137334762 -0.0577893957 -0.2887155192 0.0687660063
95299430.0 -0.275583456 0.0741298627 0.4138122434 -0.0633199722 0.413823413 -0.0630639536 -0.2875006686 0.070990697
100299400.0 -0.2742895518 0.0764251068 0.4136766602 -0.0685163592 0.4138276471 -0.0684085649 -0.2863997955 0.0733853697
105299370.0 -0.2728508696 0.0782088553 0.4133867786 -0.0732602451 0.4137612932 -0.0735433195 -0.2849704691 0.0756188208
110299340.0 -0.27195178 0.0801052933 0.4133694192 -0.0782723638 0.4133852382 -0.0789049884 -0.2842049075 0.0779543348
115299310.0 -0.2707329928 0.0823578837 0.4128748907 -0.0834899528 0.4133672534 -0.0835957765 -0.2833222303 0.0801558731
120299280.0 -0.2696738967 0.0847783627 0.4130542142 -0.0889935441 0.4126571095 -0.0891355606 -0.282059475 0.0826446499
125299250.0 -0.268726866 0.0867380771 0.4123496066 -0.0937990687 0.4125231214 -0.0939809697 -0.2811856417 0.0848244309
130299220.0 -0.2676179281 0.0888412783 0.4114462685 -0.0987978945 0.4116255552 -0.0991928964 -0.2807125972 0.0873167165
135299190.0 -0.2667375258 0.0912168292 0.4107396257 -0.1037725119 0.4108722805 -0.103902431 -0.2797405995 0.0897421257
140299160.0 -0.2658380098 0.093701672 0.4100451049 -0.1089754094 0.4103333244 -0.1091197949 -0.2787313577 0.0919839781
145299130.0 -0.2646203652 0.0961715495 0.4095365411 -0.1141964506 0.4092041586 -0.1137287987 -0.2781283865 0.0948116897
150299100.0 -0.2637695871 0.0980558738 0.408055238 -0.1191430566 0.4082283558 -0.1189507972 -0.2770318161 0.0968509694
155299070.0 -0.2629425092 0.1008330844 0.4068960113 -0.1240057336 0.4072686885 -0.1243011459 -0.2762404945 0.0995477315
160299040.0 -0.2619147419 0.1030087487 0.4060313981 -0.128675675 0.4060000065 -0.1288580525 -0.2750888443 0.1023841251
165299010.0 -0.2608437923 0.1054691173 0.404481067 -0.1339872197 0.4051924912 -0.1336897235 -0.2741638175 0.1047131003
170298980.0 -0.260140254 0.10780913 0.4028828739 -0.1384478436 0.4031035263 -0.1385439342 -0.2729702909 0.1074133606
175298950.0 -0.259029509 0.1105941487 0.4024361667 -0.1429916413 0.4021054211 -0.1433272168 -0.2722320578 0.1098297045
180298920.0 -0.2577212014 0.1128356634 0.4001850417 -0.1482446486 0.4006011213 -0.1477016914 -0.2710045648 0.112687881
185298890.0 -0.2567951017 0.1152036886 0.3984876299 -0.1524922889 0.3991953112 -0.1526658 -0.270497944 0.1147386182
190298860.0 -0.2558792256 0.1176539924 0.3972544182 -0.157398341 0.3974182808 -0.1574155854 -0.268832062 0.1177369832
195298830.0 -0.2543944209 0.1201538305 0.3958099755 -0.1618628991 0.3958455966 -0.1621076678 -0.2680856823 0.1200572442
200298800.0 -0.2539201989 0.1229378477 0.3940772148 -0.1663723301 0.3938737986 -0.1665395804 -0.2665867201 0.1227317053
205298770.0 -0.2526402785 0.1253356666 0.3921846765 -0.1712791954 0.392174678 -0.171306626 -0.2656442068 0.1252474225
210298740.0 -0.2514545892 0.1276338264 0.3903567443 -0.1757364687 0.3906834516 -0.1759002475 -0.2642883429 0.1281215553
215298710.0 -0.2504879448 0.1303590517 0.388673091 -0.1799852901 0.3884956884 -0.1801873965 -0.2637108279 0.1309017339
220298680.0 -0.2490691667 0.1330286584 0.3862748177 -0.1850070408 0.386763521 -0.1846200022 -0.2622562232 0.1335962561
225298650.0 -0.2472774708 0.1354370028 0.3843684603 -0.188900284 0.3844718212 -0.1887039156 -0.2609168176 0.136206725
230298620.0 -0.2467648292 0.1382369127 0.3825413442 -0.1937298238 0.3825287682 -0.1934320897 -0.2595088488 0.1389993601
235298590.0 -0.2453552045 0.1408041644 0.3801727773 -0.1978616147 0.3802830256 -0.198067801 -0.2581034636 0.1414144383
240298560.0 -0.2441558097 0.1433973655 0.3785404674 -0.2019301177 0.3782552188 -0.2019044551 -0.2569192101 0.1446540637
245298530.0 -0.2426496108 0.145575898 0.3754917828 -0.2066777027 0.376114012 -0.2065455655 -0.2558959523 0.1472244516
250298500.0 -0.2413628728 0.1482576946 0.3738437223 -0.2106642523 0.3740068573 -0.2102317671 -0.2541414576 0.1497104765
255298470.0 -0.2400770934 0.1511156825 0.3712869095 -0.2153109754 0.3713457375 -0.2149681944 -0.2528018013 0.1521231932
260298440.0 -0.2386841667 0.1532503672 0.3692041512 -0.2191016799 0.3690035916 -0.219300272 -0.2510478411 0.1552246364
265298410.0 -0.237016778 0.1562245894 0.3665971493 -0.2237109773 0.3666650911 -0.223701549 -0.24982146 0.1575446817
270298380.0 -0.2353783366 0.1585728682 0.3635805706 -0.2274201256 0.3640111099 -0.2279417025 -0.2478931945 0.1605811216
275298350.0 -0.2339806737 0.1612272092 0.3615358123 -0.2319872054 0.3618912613 -0.2319166549 -0.2461975938 0.1630845444
280298320.0 -0.2326105464 0.163845604 0.3591575256 -0.2356525334 0.3590795053 -0.2356852838 -0.2446474563 0.1657674343
285298290.0 -0.2309954106 0.1663411499 0.3563351777 -0.2395942926 0.3566111149 -0.239962882 -0.2431857794 0.1684845592
290298260.0 -0.229358695 0.1687832055 0.3542437096 -0.2438800847 0.3539209702 -0.2438432542 -0.2414678972 0.1714887716
295298230.0 -0.2275993041 0.1713001473 0.3514300564 -0.2479093969 0.3508595514 -0.2481000662 -0.2396966898 0.1738055398
300298200.0 -0.2257927825 0.1735691177 0.3481557621 -0.25185987 0.3488491165 -0.2519256307 -0.2379443623 0.1764459615
305298170.0 -0.224026274 0.1759628843 0.3457510563 -0.2559262996 0.3458089261 -0.2562883012 -0.2356389797 0.1793942758
310298140.0 -0.2219838895 0.1780692511 0.3428053337 -0.2597599257 0.3431410575 -0.2601453764 -0.2342012924 0.1821928867
315298110.0 -0.2206159823 0.1811768033 0.3402892376 -0.2639110825 0.3403491239 -0.2639368183 -0.2318709235 0.1843074825
320298080.0 -0.2185674472 0.1833751577 0.337006368 -0.2677677638 0.3371422914 -0.2677111789 -0.2303374715 0.1867582077
325298050.0 -0.2168668067 0.1854839157 0.3342643578 -0.2715163967 0.3343104171 -0.2717420553 -0.2284914956 0.1894586772
330298020.0 -0.2152518793 0.1878666654 0.3307629379 -0.275151931 0.3308007887 -0.2753022842 -0.226551167 0.1916411481
335297990.0 -0.2132892054 0.19033049 0.3277622929 -0.2789303462 0.3276660006 -0.2789409946 -0.2247120529 0.1946171853
340297960.0 -0.2117809413 0.1927124255 0.3243441905 -0.282567756 0.3247027801 -0.2824410514 -0.2228235469 0.1969349142
345297930.0 -0.2098945574 0.1952796935 0.3213086125 -0.285786252 0.3211280565 -0.2860548119 -0.2207817248 0.199312551
350297900.0 -0.2074424463 0.1975472556 0.3178428493 -0.2894191915 0.317895616 -0.2898269203 -0.2186580989 0.2025456041
355297870.0 -0.2057716087 0.1998571338 0.3143894405 -0.2929762264 0.31507756 -0.2932381609 -0.2168797558 0.2047142894
360297840.0 -0.2038058965 0.2024456255 0.3113000374 -0.2965343933 0.3114671967 -0.2965370146 -0.2146788804 0.2076026877
365297810.0 -0.2015434658 0.2043914436 0.3080154092 -0.3000482816 0.3081754186 -0.3000738287 -0.2125079441 0.2098456257
370297780.0 -0.1997132234 0.2066030767 0.3048081215 -0.3032548995 0.3047807116 -0.30375408 -0.2105799181 0.2122867005
375297750.0 -0.1973446556 0.2094612538 0.3017614953 -0.3070464537 0.3014864604 -0.3070695213 -0.2080314756 0.2150450107
380297720.0 -0.1954653653 0.2110724426 0.2980009696 -0.3097150109 0.2978821126 -0.3100242645 -0.2055752729 0.2173431682
385297690.0 -0.193323305 0.2139206419 0.2944780683 -0.3132481186 0.2944901752 -0.3131956537 -0.2035706791 0.220131771
390297660.0 -0.1911560503 0.2157201692 0.2912447029 -0.3166149234 0.2908441092 -0.3167558118 -0.2016729312 0.2219489312
395297630.0 -0.1885275712 0.2180365856 0.2873888977 -0.3195736106 0.2876620149 -0.3196787338 -0.1991624813 0.2245177326
400297600.0 -0.1864561297 0.2203603965 0.2840026318 -0.3228006568 0.2842611101 -0.322899897 -0.1970342136 0.2266183006
405297570.0 -0.1842210192 0.2225014557 0.2804019213 -0.3258634176 0.2804510421 -0.3259311017 -0.1946512655 0.2290024773
410297540.0 -0.1815605646 0.2244425532 0.2762234167 -0.3288320948 0.2766026271 -0.3288335585 -0.1923731738 0.2313701941
415297510.0 -0.1792717323 0.2268756057 0.2732367915 -0.3320414938 0.2729530432 -0.3318071399 -0.1897987825 0.2339469748
420297480.0 -0.17711916 0.2283071406 0.2691408176 -0.3350470118 0.2694662911 -0.3349991199 -0.1876369228 0.2359088145
425297450.0 -0.174837138 0.2304697636 0.2658105512 -0.3376873793 0.2662005513 -0.3379119909 -0.1850350237 0.2382282519
430297420.0 -0.1724160311 0.2325955766 0.2618506012 -0.3407645025 0.2622001995 -0.340743935 -0.182884641 0.2402384609
435297390.0 -0.1696062824 0.2346324459 0.2580296203 -0.3432446001 0.2583193087 -0.3433644996 -0.1802309585 0.2425529968
440297360.0 -0.1676407373 0.2364726783 0.2542546421 -0.3460458719 0.2539753934 -0.3462157878 -0.1776676487 0.2441592699
445297330.0 -0.1649186499 0.2385733823 0.2500762255 -0.3492580523 0.2504572908 -0.3488878058 -0.1754055239 0.2464529229
450297300.0 -0.16217683 0.2402600509 0.2462078916 -0.3518122015 0.2467753119 -0.3517090669 -0.1725790217 0.2485342225
455297270.0 -0.1601505534 0.242482864 0.2428940518 -0.3544864829 0.2429979586 -0.3542104258 -0.169808766 0.2508284568
460297240.0 -0.1576303417 0.2442171361 0.2389341 -0.3569533991 0.2385140801 -0.3572269794 -0.1672255724 0.2531660889
465297210.0 -0.1544151978 0.2457084455 0.234920684 -0.3597100461 0.2352250664 -0.3598437953 -0.1651358084 0.2547902416
470297180.0 -0.1522826586 0.247398747 0.2311475041 -0.3619349854 0.23128218 -0.3621714717 -0.1627548758 0.2568066048
475297150.0 -0.1497608033 0.2492529132 0.2267893122 -0.3641066657 0.2270855956 -0.3641323437 -0.1595284418 0.2585068819
480297120.0 -0.1469071461 0.2508347722 0.2225632125 -0.3662057893 0.2229611841 -0.3668487047 -0.1571553729 0.260780877
485297090.0 -0.1441480318 0.2525687743 0.2190226327 -0.3691142616 0.2189319743 -0.3691731783 -0.1546843455 0.2622201748
490297060.0 -0.1415489674 0.2543446387 0.2148335248 -0.3718057163 0.2149255848 -0.3717327199 -0.1518811351 0.2642430519
495297030.0 -0.1394523881 0.2561521546 0.2110902776 -0.373796322 0.2106140879 -0.3739246761 -0.1489967628 0.2657861169
500297000.0 -0.1361898665 0.2576178442 0.2063260218 -0.3761495781 0.2069744637 -0.3758897893 -0.1465838642 0.267717203
505296970.0 -0.1337623943 0.2590999629 0.2022882462 -0.3777946355 0.2021945886 -0.378192655 -0.1440210221 0.2696584141
510296940.0 -0.1308802319 0.2609291512 0.1980281768 -0.3806730561 0.1985008699 -0.380376541 -0.1408247291 0.2712884355
515296910.0 -0.1281763458 0.2626299365 0.1939953201 -0.382513025 0.1939993834 -0.3824826407 -0.1380561194 0.2727484476
520296880.0 -0.125153734 0.2638934697 0.1898449132 -0.3844971081 0.1899514591 -0.3845045671 -0.135135197 0.2742938811
525296850.0 -0.1227099685 0.2652560401 0.1856968042 -0.3866520526 0.1858216457 -0.3867662067 -0.1320553404 0.2764519665
530296820.0 -0.1198109337 0.2662953189 0.1814919944 -0.3879034401 0.1814517437 -0.388304482 -0.1300078199 0.277340578
535296790.0 -0.1168807356 0.2680643432 0.1773617052 -0.3899163245 0.1775070812 -0.3900829635 -0.1270928165 0.2789811014
540296760.0 -0.1141835479 0.2691692979 0.1729787273 -0.3924756539 0.17294921 -0.3926532233 -0.1241019057 0.2806765352
545296730.0 -0.1114297596 0.2707476345 0.1685892664 -0.3939992658 0.1689036136 -0.3943095662 -0.1216330395 0.2816579366
550296700.0 -0.1086908082 0.2719973225 0.1645809844 -0.3956833276 0.1647633132 -0.3958013823 -0.1182376921 0.2834004027
555296670.0 -0.1054789883 0.2731503209 0.1597273082 -0.3975740461 0.160211586 -0.3976647259 -0.1155188564 0.2849755481
560296640.0 -0.1027862384 0.2745310563 0.1555728848 -0.3991850651 0.1560210355 -0.3991778281 -0.1123217811 0.2864289292
565296610.0 -0.0998762338 0.2757445824 0.1510626357 -0.4006714142 0.1511805522 -0.4010610863 -0.1098622382 0.2877571542
570296580.0 -0.0968677634 0.2768951037 0.1468059101 -0.4022441435 0.1471182797 -0.4028359651 -0.1066944649 0.2892905832
575296550.0 -0.0941962083 0.2783130258 0.142451438 -0.4037686865 0.1428607481 -0.4038527377 -0.1032947435 0.2903186707
580296520.0 -0.0912602069 0.2794830058 0.1383286835 -0.405436633 0.1381862485 -0.4055430029 -0.1005114591 0.291649078
585296490.0 -0.0879670191 0.2803335074 0.1337211399 -0.4070665382 0.1337100977 -0.4067362793 -0.0975611445 0.292302168
590296460.0 -0.0854628513 0.2813869565 0.1291334299 -0.4083024983 0.128992799 -0.4085926019 -0.0945567132 0.2939163231
595296430.0 -0.0824363599 0.2825483177 0.1251878317 -0.4096623734 0.1247327935 -0.4097834343 -0.091571796 0.2946541778
600296400.0 -0.0794803624 0.2834592431 0.1203071524 -0.4109259897 0.1209891177 -0.4109948966 -0.0886752637 0.2959456015
605296370.0 -0.0762748032 0.2847860793 0.1160945792 -0.4122929942 0.1161683912 -0.4121655655 -0.0856088044 0.2973286274
610296340.0 -0.0731610397 0.2855827038 0.1115791954 -0.4135710499 0.1116653509 -0.4135605091 -0.0824082852 0.2985240177
615296310.0 -0.0700292559 0.2864795321 0.1066635694 -0.4144460289 0.1071390304 -0.4143477731 -0.0791508612 0.2990549858
620296280.0 -0.0671179559 0.2872918074 0.1024730819 -0.4154056784 0.1025173613 -0.4154566092 -0.0762409756 0.2998734434
625296250.0 -0.0641463279 0.288008441 0.0976350782 -0.4166914831 0.0977017025 -0.4168112676 -0.0731209167 0.3009728037
630296220.0 -0.0606704498 0.2892116031 0.0929360848 -0.4177454862 0.0940693788 -0.4178362112 -0.0702556199 0.3022314896
635296190.0 -0.0584299184 0.289886585 0.0891409443 -0.4180200438 0.0887581934 -0.4184316211 -0.0667771791 0.3029156085
640296160.0 -0.0551748069 0.2907661884 0.0843546237 -0.4192341877 0.0844175872 -0.4193466187 -0.0636271535 0.3037622765
645296130.0 -0.0519283959 0.2913650406 0.0794130478 -0.4203662814 0.0801897493 -0.4204702463 -0.0610972082 0.3046453587
650296100.0 -0.049019014 0.2922798419 0.0754814706 -0.4207164818 0.07557526 -0.4210654981 -0.0580304892 0.3051153486
655296070.0 -0.0457393446 0.2926698785 0.070574631 -0.4218678064 0.070375383 -0.4218457644 -0.0540457551 0.3062410469
660296040.0 -0.0431381911 0.2935181481 0.0664969053 -0.4221913627 0.0663136634 -0.42255173 -0.05164692 0.3068220694
665296010.0 -0.0394711947 0.2940834403 0.061755395 -0.4232605852 0.062039714 -0.423076095 -0.0484970701 0.3074993606
670295980.0 -0.0362375456 0.2945911838 0.057107384 -0.4238563696 0.0575757285 -0.4237896496 -0.0455126065 0.3080015281
675295950.0 -0.0335599193 0.2948019845 0.0524102551 -0.4243263069 0.0526051121 -0.424863087 -0.0418306103 0.3087642421
680295920.0 -0.0303172637 0.2957215072 0.0477730605 -0.4248735382 0.047638463 -0.424743968 -0.0383508425 0.3089600582
685295890.0 -0.0270484614 0.2959066094 0.0433570909 -0.4250420659 0.0431484753 -0.4253580574 -0.035399289 0.3100704167
690295860.0 -0.0236709299 0.2964807857 0.0387602138 -0.42547415 0.0381720566 -0.4254578823 -0.0320920743 0.3105223737
695295830.0 -0.0205435193 0.2966339522 0.0329906511 -0.4260777592 0.0338548985 -0.4261869339 -0.0291826119 0.3112241077
700295800.0 -0.017579675 0.2970496616 0.0291106892 -0.4261093273 0.029225222 -0.4263968249 -0.0256007023 0.3111227241
705295770.0 -0.0141850471 0.2976376468 0.0246152459 -0.4267518593 0.0247557393 -0.4266036534 -0.0225196434 0.3119144198
710295740.0 -0.01127303 0.2978843925 0.0198788681 -0.4269209817 0.0202231101 -0.4268582799 -0.0197825296 0.3125264265
715295710.0 -0.0082335509 0.2981757387 0.0152609239 -0.4268094125 0.0157699206 -0.4268885881 -0.0162635273 0.3123492604
720295680.0 -0.0053631833 0.2980834189 0.0106603361 -0.4266649243 0.0106959131 -0.4275575734 -0.0129531887 0.3128555626
725295650.0 -0.0016007253 0.2985851647 0.0057859545 -0.4269269615 0.006202482 -0.4271199685 -0.0095341025 0.3131004709
730295620.0 0.0013683013 0.2987903453 0.0014540592 -0.4270421616 0.0014206845 -0.4270648168 -0.0063177736 0.312983242
735295590.0 0.0048326217 0.2988071475 -0.0031924355 -0.4269731235 -0.0025572222 -0.4271000548 -0.0031983052 0.3136461098
740295560.0 0.0075154544 0.2991397361 -0.0078023869 -0.4266796532 -0.0076363984 -0.4268822698 0.0002021776 0.3133954636
745295530.0 0.0109151128 0.2989210384 -0.0125820068 -0.4265061589 -0.012108799 -0.4270368788 0.0032258095 0.3136773962
750295500.0 0.0138470415 0.2989089752 -0.0168546823 -0.4263084413 -0.016789193 -0.4265464259 0.0064550248 0.3134369255
755295470.0 0.0176756816 0.2990259149 -0.0216191086 -0.4261287468 -0.0213532157 -0.4266444248 0.009777017 0.3139998115
760295440.0 0.0203386772 0.2991088785 -0.0260780575 -0.425854627 -0.0261934269 -0.4263130641 0.0125232356 0.31409264
765295410.0 0.0235724792 0.2989217224 -0.0300695707 -0.4254892939 -0.0304196268 -0.4256515434 0.0165339179 0.3143289507
770295380.0 0.026938466 0.2990167413 -0.0352307049 -0.4251041285 -0.0354859515 -0.4254530263 0.0198760363 0.3140060506
775295350.0 0.02952952 0.2987544234 -0.0395186762 -0.4243775523 -0.0396480661 -0.4249665606 0.0227219872 0.3134416505
780295320.0 0.0332698131 0.2984113747 -0.0443503484 -0.4244582102 -0.0443653409 -0.4248927912 0.0260204184 0.3140250284
785295290.0 0.0361967236 0.2985273934 -0.0489656383 -0.4232668187 -0.0491389219 -0.4240618599 0.0289900853 0.3138560918
790295260.0 0.039301032 0.2983126298 -0.053429911 -0.4231190744 -0.053704513 -0.4234116946 0.0327937652 0.3133577153
795295230.0 0.0421894883 0.2982684391 -0.0576240485 -0.4226515611 -0.0577859365 -0.4226505502 0.0358438603 0.3137702291
800295200.0 0.0456049083 0.2974620386 -0.062811052 -0.4222056095 -0.062896067 -0.422104345 0.0388373428 0.3129391497
805295170.0 0.048643404 0.2972510342 -0.0673273452 -0.4209451199 -0.0670801222 -0.4210213148 0.0419397046 0.3124510274
810295140.0 0.0518552632 0.296949578 -0.0715800081 -0.4202182248 -0.0717143657 -0.4207118934 0.0455405117 0.3127119361
815295110.0 0.0553673803 0.2966095785 -0.0764496396 -0.4192187167 -0.0762330245 -0.4197289383 0.0485726112 0.3122258151
820295080.0 0.0582893999 0.2953680255 -0.080729077 -0.4186105375 -0.080884509 -0.4192281696 0.0518804818 0.3117534507
825295050.0 0.0613972553 0.2952537612 -0.0852931412 -0.4170911753 -0.0853536752 -0.4177343657 0.0554584041 0.3114966077
830295020.0 0.0644686461 0.2953620062 -0.0896777911 -0.4164644609 -0.0899052189 -0.4171815844 0.0583557014 0.3109937498
