!Created with skrf (http://scikit-rf.org).
# Hz S RI R 50.0 
!freq ReS11 ImS11 ReS21 ImS21 ReS12 ImS12 ReS22 ImS22
300000.0 -0.2356496012 -0.1140822923 0.4674715789 0.0742854874 0.4691517167 0.077230872 -0.2363755359 -0.1167858599
5299970.0 -0.2407523212 0.0069251914 0.4754331733 0.0052841292 0.4749834769 0.0054482529 -0.2442279691 0.0054642312
10299940.0 -0.237330382 0.0200528099 0.4776347416 0.006329535 0.4769619509 0.0066435376 -0.2418087324 0.0177082736
15299910.0 -0.2327734476 0.0297795704 0.4803428149 0.0076139863 0.4805789196 0.0076740737 -0.2371811571 0.0262859502
20299880.0 -0.2272954208 0.0377967717 0.485059919 0.0082145385 0.4855130866 0.0080546735 -0.232663674 0.0340437449
25299850.0 -0.2216610963 0.0443882472 0.4906481271 0.0065647461 0.4904442838 0.0072909269 -0.2275898133 0.0402160806
30299820.0 -0.2158054552 0.0494089384 0.4962504188 0.0052171869 0.4958630837 0.0047703656 -0.2227345424 0.0451595771
35299790.0 -0.2100969709 0.0539588496 0.5013747042 0.001668233 0.5010669086 0.0016798406 -0.2170088303 0.048781042
40299760.0 -0.2045672711 0.0569562711 0.5065260274 -0.0017706658 0.506434048 -0.0020874422 -0.2126048599 0.0521129802
45299730.0 -0.1994857958 0.0599787077 0.5111747147 -0.0074147741 0.5110186495 -0.0071904566 -0.2078396948 0.0547959034
50299700.0 -0.1945361623 0.0620425602 0.5153923869 -0.0124540206 0.5149340743 -0.0129315843 -0.2033266837 0.0566837276
55299670.0 -0.1905359664 0.0638225685 0.5184977341 -0.0185804018 0.5187726787 -0.0186752252 -0.1997955044 0.0581305803
60299640.0 -0.1864340809 0.0649001791 0.5215583762 -0.0250318127 0.5218403034 -0.0249399945 -0.1961360797 0.0597217701
65299610.0 -0.1830715554 0.0663201259 0.5251023257 -0.0311630601 0.5250494201 -0.0310076067 -0.1927809582 0.0607512386
70299580.0 -0.1796134652 0.066964447 0.5273578367 -0.0374940869 0.5271653461 -0.0378285893 -0.1897947835 0.0618125893
75299550.0 -0.1765378376 0.0682627095 0.5291622501 -0.0446096665 0.52901849 -0.0447056331 -0.1870982194 0.0628110686
80299520.0 -0.1741197013 0.0687115579 0.5311712498 -0.051582391 0.5311953105 -0.0515920144 -0.184750942 0.0628981847
85299490.0 -0.1713320504 0.0693774012 0.5323401553 -0.0585267564 0.5323611382 -0.0583591434 -0.1825727465 0.0637518072
90299460.0 -0.1692226445 0.0702759568 0.5334440091 -0.0651737834 0.5336709937 -0.0653190598 -0.1802662242 0.0643393377
95299430.0 -0.1670546271 0.0710650759 0.5345548667 -0.0729016459 0.5346524051 -0.0722152399 -0.1787803814 0.0651637815
100299400.0 -0.1652953823 0.071634161 0.5347455438 -0.0790908354 0.53434441 -0.0792488124 -0.1767357995 0.0656770113
105299370.0 -0.1634398698 0.0726644092 0.5346795706 -0.0857995927 0.5350812887 -0.0861070899 -0.1751437616 0.0664320589
110299340.0 -0.1618845662 0.0730214634 0.5349633032 -0.0926976158 0.5349976003 -0.0930841864 -0.1738034653 0.0668286472
115299310.0 -0.1602940414 0.0735229446 0.5350115293 -0.0994838046 0.5356447402 -0.0993516579 -0.172312644 0.0673130623
120299280.0 -0.1590774729 0.0744306596 0.5350115191 -0.1062182536 0.5349286455 -0.1063616259 -0.1712504189 0.0681448876
125299250.0 -0.1579567665 0.0750455143 0.5343496253 -0.1129802949 0.5347796441 -0.1133087356 -0.1699048482 0.0684226705
130299220.0 -0.1565132207 0.0761010166 0.5339728087 -0.1193255425 0.5338339084 -0.1198685112 -0.1689681723 0.0693774728
135299190.0 -0.154874561 0.0767913192 0.5330141501 -0.1262235662 0.5332057991 -0.1262297769 -0.1681182285 0.0702602763
140299160.0 -0.1543484665 0.0782499374 0.5325173409 -0.1332893869 0.5322641435 -0.1330661548 -0.1667724445 0.071194306
145299130.0 -0.1533491741 0.0788881266 0.5317608275 -0.1396460361 0.5310753021 -0.1391647677 -0.1660606199 0.0716277289
150299100.0 -0.1521042767 0.0798855554 0.530266382 -0.1463245832 0.5303822924 -0.1462733509 -0.1651363334 0.072516292
155299070.0 -0.1512410151 0.0811025668 0.529538184 -0.1528813408 0.5290677753 -0.1528227238 -0.1645520547 0.0734095479
160299040.0 -0.1500569892 0.0820072472 0.5278046805 -0.1587377684 0.5281562605 -0.1590390382 -0.1636701531 0.0745189596
165299010.0 -0.1492512594 0.0833585187 0.5265668813 -0.1660988506 0.5262721359 -0.165477767 -0.1626193574 0.0752037063
170298980.0 -0.1482417808 0.0846209952 0.5240697201 -0.1717946389 0.5245594025 -0.1721298795 -0.1616656033 0.0765539925
175298950.0 -0.1472989701 0.0856335269 0.5237995652 -0.177890328 0.5233663719 -0.1779478465 -0.161084307 0.0773885994
180298920.0 -0.1461378396 0.086769138 0.5213946306 -0.1847734048 0.5216250072 -0.1844062971 -0.1602655291 0.0789800257
185298890.0 -0.1451646861 0.0878375738 0.5190775662 -0.1907265195 0.519187673 -0.1904384673 -0.1597557131 0.079325586
190298860.0 -0.1443725305 0.0891467535 0.5175992985 -0.1966343169 0.5174910702 -0.1971543716 -0.158234802 0.0809117148
195298830.0 -0.1433531365 0.0903334314 0.5156965257 -0.2026385882 0.5159032941 -0.2029950581 -0.1580092169 0.0815850733
200298800.0 -0.142704689 0.0918100184 0.5140138749 -0.2085660951 0.5135179923 -0.2089982853 -0.1569095185 0.0832483347
205298770.0 -0.1419449007 0.0931624106 0.512006935 -0.2153592431 0.5115902911 -0.2149761708 -0.1563242725 0.0838512632
210298740.0 -0.1410849659 0.0942017241 0.5094901286 -0.2215073457 0.5093468857 -0.2214690366 -0.155750179 0.085386895
215298710.0 -0.1398065175 0.0957549763 0.5070915845 -0.2269914476 0.5072324276 -0.2267830175 -0.1551599837 0.0863746422
220298680.0 -0.1386468239 0.0970544193 0.5043877978 -0.2330726633 0.5043626048 -0.2327878948 -0.1541773181 0.088294429
225298650.0 -0.1375003801 0.0982792993 0.501740328 -0.2382148088 0.5017744413 -0.238618857 -0.1534310475 0.0892043007
230298620.0 -0.1369565679 0.0996428635 0.4996501435 -0.2444891431 0.4998755689 -0.2444806584 -0.1523930161 0.0905766505
235298590.0 -0.1358329529 0.1009959053 0.4968567048 -0.2501942621 0.4971445967 -0.2505140719 -0.1514981737 0.0912573788
240298560.0 -0.1351465155 0.1026011106 0.4943134826 -0.2555714433 0.4942574024 -0.255557614 -0.151093199 0.0929117431
245298530.0 -0.1338255395 0.1038374449 0.4910418357 -0.2615540901 0.4912004897 -0.2614676885 -0.1497862023 0.094473951
250298500.0 -0.1330633332 0.1051406538 0.488318704 -0.2670560947 0.4888832397 -0.266657996 -0.1491190639 0.0955404778
255298470.0 -0.1318555254 0.1066699775 0.4855451931 -0.2734448462 0.4858239348 -0.2729851529 -0.1479374119 0.0966930114
260298440.0 -0.1310278581 0.1083545602 0.4829293569 -0.2783209906 0.4828781143 -0.2782551663 -0.1469187684 0.0983078955
265298410.0 -0.1296138436 0.1097941671 0.4798917919 -0.2846585693 0.4796835985 -0.283858788 -0.146295247 0.0995062834
270298380.0 -0.128099445 0.1111704962 0.4762338905 -0.2891853403 0.476351145 -0.289149685 -0.1452004263 0.1010812379
275298350.0 -0.1275007365 0.1124093463 0.4736255625 -0.2946247267 0.4738439285 -0.2948874403 -0.1444414109 0.1022327774
280298320.0 -0.126112398 0.1138032747 0.4702652927 -0.2996062606 0.4701728026 -0.300179561 -0.1432126584 0.1036858538
285298290.0 -0.124724681 0.1155207626 0.4666254955 -0.3055694031 0.4671046551 -0.3052071348 -0.1424518413 0.1049846023
290298260.0 -0.1238220808 0.116796074 0.4638986248 -0.3108262811 0.4635321192 -0.3107880105 -0.1410475914 0.1067882741
295298230.0 -0.1223605167 0.1180164588 0.460667292 -0.3162065915 0.4601195904 -0.3159571585 -0.1402220465 0.1078042046
300298200.0 -0.1207379776 0.1195552182 0.4568539803 -0.3214485981 0.4568867308 -0.3215304862 -0.1390956779 0.1094457975
305298170.0 -0.1196473027 0.1207052481 0.4536338057 -0.3267264924 0.4538378647 -0.3265558108 -0.1376215759 0.1107624859
310298140.0 -0.1182602939 0.1218696166 0.4500907809 -0.3319753871 0.4499432036 -0.3319628252 -0.1366523924 0.1124126709
315298110.0 -0.1172261466 0.1233754817 0.4464269282 -0.3371163856 0.4466552312 -0.3371220357 -0.135515436 0.1134250971
320298080.0 -0.115821858 0.1245378255 0.4424941831 -0.3425298922 0.4426733279 -0.3419534377 -0.1348716027 0.1145447435
325298050.0 -0.1147521264 0.1254100811 0.4389708972 -0.3471296621 0.4386387476 -0.346970261 -0.1339151489 0.1157904257
330298020.0 -0.1133850987 0.1269875055 0.4340856489 -0.3523273124 0.4339376203 -0.3523985033 -0.1328231894 0.1171210998
335297990.0 -0.112312194 0.1281601761 0.4306488055 -0.3573422331 0.4308700548 -0.3568297866 -0.1320858065 0.1184411436
340297960.0 -0.1115165833 0.1297799888 0.4265319635 -0.3619678125 0.4266619177 -0.3618127167 -0.1310530374 0.1200307461
345297930.0 -0.1102564893 0.1309706806 0.4227550419 -0.3658483681 0.4221350139 -0.3661581784 -0.1296906596 0.1212853257
350297900.0 -0.1084067317 0.1323523003 0.4181816357 -0.3705143067 0.418480697 -0.3708422743 -0.1289115443 0.1228643019
355297870.0 -0.1072677711 0.1339866962 0.4139147568 -0.3755890487 0.4140873081 -0.3758817637 -0.1278845933 0.1245365632
360297840.0 -0.1054775339 0.1353328665 0.4103336315 -0.3804273413 0.4099242191 -0.3803553835 -0.1265415287 0.1258696877
365297810.0 -0.1041146923 0.1365633424 0.4055725866 -0.38483639 0.4057658784 -0.3844621076 -0.12564277 0.1276509046
370297780.0 -0.1025241516 0.1374789632 0.4009000488 -0.3887648929 0.4016057487 -0.389200274 -0.124351615 0.1287705039
375297750.0 -0.1013474184 0.1393753591 0.3976533693 -0.3939033358 0.3972473892 -0.3937394885 -0.122958465 0.1303766837
380297720.0 -0.0997791023 0.1401800228 0.3927418598 -0.3974053474 0.392813006 -0.3975045625 -0.1218926246 0.1316992411
385297690.0 -0.0982363257 0.1417493027 0.3882426552 -0.4015350532 0.388203877 -0.4020400409 -0.1206105275 0.1331947766
390297660.0 -0.0966371153 0.1427318426 0.3838691015 -0.4065206568 0.3837894068 -0.4066954553 -0.1190152572 0.134158813
395297630.0 -0.0949653853 0.1441195233 0.3798857241 -0.4104111638 0.3794905399 -0.4106046752 -0.1181996953 0.1360671451
400297600.0 -0.0936362024 0.1453716582 0.37504061 -0.4147557298 0.3753236442 -0.4147870698 -0.1174000765 0.1367288406
405297570.0 -0.0916740205 0.146569842 0.370696548 -0.4188802884 0.3704766097 -0.4190294775 -0.1156573373 0.1388393659
410297540.0 -0.0900652103 0.1475371443 0.3652145871 -0.4226909001 0.3654763442 -0.4227804841 -0.1143044291 0.1396614588
415297510.0 -0.0885408022 0.1488635623 0.3612119062 -0.4266048184 0.3610308627 -0.4268722398 -0.1132347397 0.1413716903
420297480.0 -0.0868909691 0.1498389118 0.3565075993 -0.4309250102 0.356337798 -0.4306490339 -0.1116389576 0.1421068178
425297450.0 -0.0847693102 0.1508308357 0.3514266306 -0.4346392083 0.3519024244 -0.4344937429 -0.1101621058 0.1440022986
430297420.0 -0.0838160376 0.1521438813 0.3470834046 -0.4387422061 0.3471193788 -0.4386717055 -0.1091100174 0.1450883849
435297390.0 -0.0815549427 0.1530429909 0.3421503302 -0.4421773486 0.3422978046 -0.4419134487 -0.1077583843 0.1463766837
440297360.0 -0.0801367132 0.1539233863 0.3370837538 -0.4457595554 0.3368399322 -0.4459816315 -0.1064003824 0.1472351928
445297330.0 -0.0781088405 0.155188097 0.3320176056 -0.4498866798 0.3320184004 -0.4495896467 -0.104986327 0.1487111093
450297300.0 -0.0763193469 0.1556775283 0.3271919762 -0.4530985659 0.3275473811 -0.4531160825 -0.1035226648 0.1500468503
455297270.0 -0.0745683306 0.1570865725 0.3226791513 -0.4567063426 0.3225474921 -0.4565224772 -0.1018750152 0.1510004537
460297240.0 -0.0733825266 0.1580057923 0.317245721 -0.459861528 0.3169995692 -0.4603376904 -0.1006069534 0.1525959871
465297210.0 -0.0710254478 0.1589723898 0.312394643 -0.4634664782 0.3125282674 -0.4636055576 -0.0993234139 0.1533699066
470297180.0 -0.0694759911 0.1598486917 0.3072062197 -0.4666668745 0.3074885903 -0.4669854574 -0.098599865 0.1546723524
475297150.0 -0.0678094096 0.160456634 0.3020710034 -0.470119056 0.3025803944 -0.4697177224 -0.096764609 0.1558143525
480297120.0 -0.0657813246 0.1613144583 0.2966575675 -0.4734981132 0.29742227 -0.4733682726 -0.0952520556 0.1573995425
485297090.0 -0.0640994098 0.1623732158 0.292406388 -0.4763471116 0.2917255752 -0.4768916215 -0.094058335 0.1578900249
490297060.0 -0.0620269199 0.1628673218 0.2869043926 -0.4797191445 0.2867093423 -0.4797455667 -0.0922100756 0.1590918936
495297030.0 -0.0606756809 0.1642502743 0.2813166857 -0.482517987 0.2809715701 -0.4828523687 -0.0905338074 0.1601133412
500297000.0 -0.0583582149 0.1643964107 0.2756029693 -0.4856337372 0.2760602473 -0.4858172985 -0.0896044243 0.1610460011
505296970.0 -0.0568608658 0.1652165263 0.2704017269 -0.4882683134 0.2704423559 -0.4886775758 -0.0883501346 0.1624957693
510296940.0 -0.0548137154 0.1661957069 0.2652545568 -0.4918373023 0.2652791142 -0.4917075203 -0.0861097419 0.163684515
515296910.0 -0.0530503418 0.1672242782 0.2599955309 -0.4941738667 0.2600902678 -0.4945103578 -0.0849063089 0.1643258498
520296880.0 -0.0510318261 0.1676496583 0.254706485 -0.4969152171 0.2544648612 -0.4971223845 -0.0829638821 0.1651765498
525296850.0 -0.0495726326 0.1681342031 0.2493303385 -0.4997661558 0.2493330139 -0.5002123185 -0.0812328247 0.1663758678
530296820.0 -0.0475738601 0.1690004515 0.2440650033 -0.5020671699 0.2436838047 -0.5021379241 -0.0803339416 0.1670369095
535296790.0 -0.0457048486 0.1696931142 0.238413604 -0.5045150185 0.2383381448 -0.5048050898 -0.0785023498 0.1678603161
540296760.0 -0.0439113684 0.1700500667 0.2329009461 -0.5080428329 0.2324896771 -0.5078659137 -0.077153041 0.1691440462
545296730.0 -0.0417913971 0.1712582613 0.227147148 -0.5100869927 0.227477596 -0.5102565483 -0.0756775003 0.1696608326
550296700.0 -0.0400598173 0.1714662263 0.2215481992 -0.5125152989 0.2220609387 -0.51269189 -0.0739593035 0.1710810646
555296670.0 -0.0377684309 0.1719611105 0.2164600211 -0.5146865122 0.2163289596 -0.5146306639 -0.0724977239 0.1719225115
560296640.0 -0.0362328023 0.1724135774 0.2107787355 -0.5171093918 0.2107925156 -0.5166074532 -0.0706559715 0.1726858755
565296610.0 -0.0345321848 0.1728758714 0.205063524 -0.5191723277 0.2047725468 -0.5194939432 -0.0690113715 0.1735830058
570296580.0 -0.0322997616 0.1733977927 0.1993010866 -0.5212434181 0.1996821095 -0.5216890993 -0.06712223 0.174843901
575296550.0 -0.0304435393 0.1743521376 0.1940326115 -0.5233952735 0.1937565109 -0.5233890869 -0.0655413504 0.1752202976
580296520.0 -0.0285890438 0.1744142913 0.188214649 -0.5253620289 0.1878922281 -0.5256416716 -0.0639274375 0.175916775
585296490.0 -0.0264604567 0.1747607042 0.1825738896 -0.5274937651 0.1819308335 -0.5276776351 -0.0626452618 0.1763232681
590296460.0 -0.0247837832 0.1752653672 0.1764215653 -0.5292312596 0.1765131899 -0.5292695716 -0.0605633005 0.1777735091
595296430.0 -0.0225312019 0.175810406 0.1710269313 -0.5312244012 0.1707776792 -0.5314319126 -0.0589593183 0.1778991268
600296400.0 -0.0206674913 0.1760599732 0.1649729025 -0.5329940576 0.1656198955 -0.5333908756 -0.0571175334 0.1794271823
605296370.0 -0.0185593526 0.1767361173 0.1595256343 -0.5346115255 0.159348848 -0.5345638401 -0.0552845725 0.1797944028
610296340.0 -0.0170438486 0.1768080657 0.1540096225 -0.536204048 0.153686088 -0.5364699562 -0.054129035 0.1806022288
615296310.0 -0.0147270844 0.1777318756 0.1478011766 -0.5382545769 0.147627841 -0.5381630468 -0.0520917166 0.1809501098
620296280.0 -0.0128424921 0.1774277197 0.1424168534 -0.5396366305 0.1417142386 -0.5394655046 -0.0504339415 0.1813897276
625296250.0 -0.0107320954 0.1778227237 0.1359413997 -0.5411819036 0.1357220382 -0.5410144581 -0.0486109314 0.1824084675
630296220.0 -0.0086893335 0.1783286577 0.1297156068 -0.5426921198 0.1309960504 -0.5425957877 -0.0472775839 0.1832014075
635296190.0 -0.0067884222 0.1786330399 0.1242249782 -0.5434219216 0.1242827204 -0.543541465 -0.0453837908 0.1834059421
640296160.0 -0.0049872509 0.1786098871 0.1188027323 -0.5450503928 0.1184727603 -0.5451947328 -0.0431502263 0.1839864457
645296130.0 -0.0028788512 0.1792195789 0.1125188157 -0.546652737 0.112819005 -0.546259667 -0.0423706727 0.1843856319
650296100.0 -0.001142561 0.17961456 0.1072335396 -0.5474627342 0.1072028716 -0.5472191956 -0.0402873293 0.1854323627
655296070.0 0.0009555365 0.1790285687 0.1008627556 -0.5485017905 0.1007899077 -0.5487858979 -0.0377859164 0.1861821544
660296040.0 0.0027493634 0.1796718338 0.0948793972 -0.5494094617 0.0949939785 -0.5492259454 -0.0366360835 0.1861992986
665296010.0 0.0051185684 0.1794307397 0.0890544796 -0.5505800745 0.0897549784 -0.5503999215 -0.0349860054 0.1870581013
670295980.0 0.0070947132 0.1797921367 0.0829311601 -0.5512226617 0.0834672407 -0.5511710723 -0.0335415775 0.1872899805
675295950.0 0.0090679526 0.1797345759 0.0771267308 -0.5524936272 0.0772337416 -0.5523813994 -0.0310515938 0.1880471806
680295920.0 0.0111260688 0.1798784779 0.0710334063 -0.552868788 0.0708972515 -0.5533006634 -0.0292989989 0.1882299548
685295890.0 0.0130844255 0.1799983328 0.0655196353 -0.553717492 0.0650871537 -0.5541499244 -0.0274701993 0.188775397
690295860.0 0.0153629038 0.1798724207 0.0590261372 -0.5540536521 0.0587740291 -0.5540829775 -0.0255971022 0.1893723159
695295830.0 0.0176930847 0.1796344778 0.0525616956 -0.5551151753 0.0528247528 -0.5549006912 -0.0244217541 0.1897864064
700295800.0 0.0195531671 0.1799480185 0.0471239353 -0.5554376584 0.0470914214 -0.5556881133 -0.022283702 0.1896366871
705295770.0 0.0214313477 0.1798662915 0.0411305253 -0.5558782834 0.0412019842 -0.5557280946 -0.0209380093 0.190116889
710295740.0 0.0231392278 0.1799839748 0.0352777538 -0.5564129635 0.0349832596 -0.556262665 -0.0193021554 0.1909733919
715295710.0 0.0255037087 0.1798367093 0.0288090089 -0.556632216 0.0295980492 -0.5566183589 -0.017138175 0.1909316678
720295680.0 0.0271971202 0.1793597316 0.0230661343 -0.5565666124 0.0231433058 -0.5570323395 -0.0147066375 0.1912711764
725295650.0 0.0295001158 0.1792855758 0.016555428 -0.5568552521 0.0171011223 -0.556779315 -0.0132288344 0.1916741316
730295620.0 0.0313216542 0.1789591052 0.0109240403 -0.5568693993 0.0109273176 -0.557111786 -0.011318052 0.1915754539
735295590.0 0.0339712986 0.1787796076 0.005365509 -0.5572134212 0.0055785431 -0.5572835852 -0.0094821318 0.1921745073
740295560.0 0.0354960505 0.1789632705 -0.0009827301 -0.5570869429 -0.0007307162 -0.5565971685 -0.007546199 0.1920977725
745295530.0 0.0373809796 0.1784325589 -0.0072233463 -0.5570838427 -0.0066855904 -0.5574352418 -0.0060164695 0.1924928071
750295500.0 0.039522725 0.1780812328 -0.0130157617 -0.5566456056 -0.0127519525 -0.5568037705 -0.0038980537 0.1923499763
755295470.0 0.0420299353 0.1780682228 -0.0185319518 -0.5564873363 -0.0184089125 -0.5568011983 -0.0025902754 0.1928454852
760295440.0 0.0432786207 0.1779389273 -0.024919741 -0.556284505 -0.0247932192 -0.5565991404 -0.0009109054 0.1929663517
765295410.0 0.0452636258 0.17706158 -0.0303476496 -0.5557677062 -0.0303694849 -0.5561738102 0.0018884263 0.1933067857
770295380.0 0.0475707507 0.1768963193 -0.0367426701 -0.5555189656 -0.0364882998 -0.5560075233 0.0035562008 0.1933511545
775295350.0 0.0495359736 0.1766540787 -0.0428489371 -0.5550385437 -0.0424788561 -0.5549780008 0.0049278589 0.1928868337
780295320.0 0.0515995773 0.1759048781 -0.0485819534 -0.5547089109 -0.0484120803 -0.5546622265 0.006899035 0.1934745317
785295290.0 0.053566955 0.1760138209 -0.0548387544 -0.5533759344 -0.0545672573 -0.5540824809 0.008735891 0.1935198464
790295260.0 0.0553247629 0.1753486976 -0.0608698631 -0.553600968 -0.0603535853 -0.5538685769 0.0107823914 0.1935776882
795295230.0 0.0572813892 0.1749245836 -0.0661278053 -0.552489328 -0.0663711269 -0.5527475213 0.012856909 0.1940910026
800295200.0 0.0593817517 0.1746586527 -0.0726051608 -0.5519442881 -0.0728154819 -0.5523660784 0.0145750805 0.1937135377
805295170.0 0.0612656231 0.1740922598 -0.0782373199 -0.5509957655 -0.078481085 -0.5510852082 0.0159934031 0.1933392825
810295140.0 0.0632018317 0.173490469 -0.0840274986 -0.5504534112 -0.0841506554 -0.5508859555 0.0182820352 0.193993873
815295110.0 0.0650960513 0.1729160149 -0.0902349543 -0.5491906701 -0.0904953084 -0.5494168007 0.0200000103 0.1935609693
820295080.0 0.0671363944 0.1719746136 -0.0959520217 -0.5482096268 -0.0960145621 -0.5486573682 0.0215465521 0.1936171012
825295050.0 0.0691097141 0.1715103734 -0.1018084297 -0.5468457325 -0.1018632773 -0.5469203872 0.02384938 0.1935292033
830295020.0 0.0709146903 0.1711315316 -0.1079273442 -0.5460784862 -0.1083224889 -0.5462199576 0.0254354182 0.1934418315
