!Created with skrf (http://scikit-rf.org).
# Hz S RI R 50.0 
!freq ReS11 ImS11 ReS21 ImS21 ReS12 ImS12 ReS22 ImS22
300000.0 -0.1012499062 -0.0727799366 0.6313139318 0.0663381131 0.6256946038 0.0664276774 -0.1019973101 -0.0775329601
5299970.0 -0.1020281123 0.0127358099 0.6306416396 0.0100509893 0.6303535317 0.0106559352 -0.1006663134 0.0129461194
10299940.0 -0.0971820678 0.029181248 0.6339387518 0.0152728604 0.6341422779 0.015687273 -0.0958521395 0.0303725206
15299910.0 -0.0898914371 0.0424555163 0.6404179819 0.020596932 0.6406907928 0.0208688591 -0.0885197361 0.0437839745
20299880.0 -0.0816675434 0.0529756607 0.6484995059 0.0245795563 0.6489833026 0.0241836019 -0.0797018587 0.0547378376
25299850.0 -0.0723464509 0.0624059467 0.6576532159 0.0251840413 0.657529846 0.025808697 -0.0695671957 0.0635224239
30299820.0 -0.0621518289 0.0687670563 0.6674274927 0.0242307015 0.6670891224 0.0243819927 -0.0598389563 0.0701262457
35299790.0 -0.0523269859 0.0739371694 0.6772053742 0.0212192302 0.6771715407 0.0216729555 -0.0500128847 0.0749519531
40299760.0 -0.0433423672 0.077115732 0.6862308632 0.0169887565 0.6865560696 0.0176758095 -0.0400784316 0.0774725694
45299730.0 -0.0338898019 0.0792074311 0.6946888548 0.0118468889 0.6950655841 0.0119149467 -0.0311500508 0.0797175824
50299700.0 -0.0258851396 0.0803186693 0.7036067895 0.0050702402 0.7033733006 0.0054015837 -0.0224435086 0.0805199157
55299670.0 -0.0176861926 0.0802839555 0.7111299722 -0.0034301607 0.7107604849 -0.0027388115 -0.0149338641 0.0807494365
60299640.0 -0.0100477517 0.0801347807 0.7169722513 -0.0113434874 0.7173644845 -0.0112197562 -0.0077533214 0.0795236162
65299610.0 -0.0035555222 0.0788028848 0.7233218122 -0.0203665316 0.7230596611 -0.0196269823 -0.0012271469 0.0787113107
70299580.0 0.0025119531 0.0776726678 0.7287631546 -0.0295532557 0.7285579143 -0.0292345664 0.0047018127 0.0765476978
75299550.0 0.0080515738 0.0757369193 0.7327186459 -0.0389759518 0.7327564604 -0.0391174888 0.0102477398 0.0750220699
80299520.0 0.0131290276 0.0737142119 0.7369908235 -0.0490359126 0.7375234554 -0.0488922093 0.0150374634 0.0726804298
85299490.0 0.0177993459 0.0715729318 0.7401182836 -0.0584508182 0.7404931534 -0.0581368538 0.0194618863 0.0699193291
90299460.0 0.0218081339 0.0691414225 0.7422452443 -0.0692303271 0.7435041427 -0.0686562466 0.0235121908 0.0679596937
95299430.0 0.0259115179 0.0666648496 0.7460594789 -0.0787247309 0.7457999751 -0.0791617954 0.0274134301 0.0651017398
100299400.0 0.0289441574 0.0647737596 0.7467697507 -0.0887034113 0.7470974661 -0.0887888308 0.031102879 0.0625541598
105299370.0 0.0323778242 0.0622676493 0.7485127383 -0.0995036114 0.7493298631 -0.0991725159 0.0339477798 0.0607123977
110299340.0 0.0349233814 0.0598304157 0.7503029937 -0.1091765312 0.7493250563 -0.1088589174 0.0361833823 0.0581349663
115299310.0 0.0375862494 0.0572009607 0.750962894 -0.1191956744 0.7506911627 -0.11938344 0.0388153806 0.0555564044
120299280.0 0.0397882009 0.0548078773 0.7506408765 -0.1295085514 0.7512242644 -0.1294833544 0.0412613675 0.052900095
125299250.0 0.0418924809 0.0524935994 0.7517849961 -0.1385374676 0.7513879664 -0.1388219675 0.0429269477 0.0503712622
130299220.0 0.0434978298 0.0500975922 0.7510300534 -0.1489871583 0.7516411364 -0.1490810278 0.0448794322 0.0480898922
135299190.0 0.0453100988 0.0484180871 0.7512668789 -0.158654409 0.7513230001 -0.1584751271 0.0466764666 0.0462898438
140299160.0 0.046673869 0.0463352758 0.7509363283 -0.1689989941 0.75062718 -0.168860777 0.0477969322 0.0443538797
145299130.0 0.0482738117 0.0439110677 0.7501227334 -0.1785949325 0.7496746417 -0.1783961515 0.0495376865 0.0420560163
150299100.0 0.049875607 0.0420106671 0.7489431292 -0.1871966088 0.7487052334 -0.1876956006 0.0508164035 0.0399452262
155299070.0 0.0501724648 0.0398714308 0.7483420589 -0.1977335431 0.7475656414 -0.1979898259 0.0517020467 0.0383060075
160299040.0 0.0519881739 0.0381303651 0.7461314373 -0.2072252818 0.7454711398 -0.2076778814 0.0519719844 0.0361980975
165299010.0 0.0522672275 0.0362836987 0.7446250072 -0.2171663609 0.744960758 -0.2169751453 0.0534762583 0.0350329676
170298980.0 0.0532462274 0.0340649846 0.7424863482 -0.2260696813 0.7431218533 -0.226046349 0.0546704311 0.0329423393
175298950.0 0.0537523621 0.0323659118 0.7416425387 -0.2350230962 0.7404773608 -0.2349612052 0.0547767144 0.0314887799
180298920.0 0.0542809401 0.0305293778 0.7392183715 -0.2445996969 0.7389912915 -0.2442854542 0.0555954017 0.0298247719
185298890.0 0.0556141258 0.0289924252 0.7362615038 -0.2537049169 0.7362352656 -0.2537914764 0.0562636342 0.0286283235
190298860.0 0.0555404675 0.0273811427 0.7345031997 -0.2633883361 0.7342400448 -0.2626431019 0.0564706228 0.0262661919
195298830.0 0.0562933649 0.0252070623 0.7316324197 -0.2717043199 0.7319861952 -0.2715902656 0.0572140104 0.025075505
200298800.0 0.0564060131 0.024072034 0.7289412375 -0.2809794258 0.7291814264 -0.2808333134 0.056736716 0.0236589378
205298770.0 0.056861338 0.022993895 0.7259371722 -0.2901091944 0.7260379037 -0.2894845222 0.0573805962 0.0215074463
210298740.0 0.0571835581 0.0210222118 0.7237502037 -0.2982880496 0.7233304236 -0.2975584092 0.0578398306 0.0215529262
215298710.0 0.0568712654 0.0200864298 0.7202264903 -0.3072815725 0.7203964615 -0.3073650284 0.0578650984 0.0195920375
220298680.0 0.0575225025 0.0179437836 0.7165908485 -0.3157038153 0.7167324962 -0.3157492139 0.0574991823 0.0180704057
225298650.0 0.0577602684 0.0164648159 0.7139085485 -0.3248633677 0.714010966 -0.3248423754 0.0573810863 0.0165617676
230298620.0 0.0579354882 0.0158211697 0.7107064155 -0.3327251663 0.710870248 -0.3330221524 0.0576344964 0.0150560808
235298590.0 0.0580312667 0.014702339 0.7069362071 -0.341626413 0.7066725285 -0.3410325971 0.0578280015 0.0140756111
240298560.0 0.0581494863 0.0135078569 0.7035897786 -0.3498620896 0.70329145 -0.3498137991 0.0577903363 0.0129037884
245298530.0 0.0578409741 0.0120157057 0.700107198 -0.3580058313 0.7000380107 -0.3578085615 0.0581697359 0.0109007271
250298500.0 0.058525167 0.0110319269 0.694555468 -0.3664592154 0.6947015961 -0.3656793439 0.0580436517 0.0104467384
255298470.0 0.0583706095 0.0094480911 0.6910186155 -0.3737279197 0.6915789221 -0.3740379413 0.0582753618 0.0089946617
260298440.0 0.0579357142 0.008166131 0.6872949001 -0.3830244877 0.6878419654 -0.3822755423 0.0585646668 0.0080527779
265298410.0 0.0589743854 0.0079657682 0.6835524016 -0.3907658515 0.6839930929 -0.3901868934 0.0583846041 0.0067665988
270298380.0 0.0584650929 0.0061749638 0.6799699314 -0.3983858484 0.6797787411 -0.39828942 0.057989772 0.005774369
275298350.0 0.0590394915 0.005345407 0.6752721927 -0.4066595146 0.6755054324 -0.4068450814 0.0582946881 0.0044464125
280298320.0 0.0586107354 0.0044095465 0.6712850444 -0.4145972963 0.6709119755 -0.4146691666 0.0588078251 0.0033309113
285298290.0 0.0586503395 0.0034379866 0.666315246 -0.4222783627 0.6660183433 -0.4222183076 0.0585246459 0.0021743889
290298260.0 0.0592244789 0.0021514885 0.6619630202 -0.4298469565 0.6622297707 -0.4299707392 0.0585614979 0.001556154
295298230.0 0.0588128343 0.0010263426 0.6572841082 -0.4372977679 0.6572230581 -0.4374476875 0.0590962188 0.0002776332
300298200.0 0.0582863069 -0.0002925298 0.6530751924 -0.4451708388 0.6529451052 -0.4458149636 0.0587388591 -0.001024004
305298170.0 0.0586636954 -0.0012747793 0.6473897866 -0.4537593306 0.6480059368 -0.4531038215 0.059527161 -0.0020955475
310298140.0 0.0583771072 -0.0022176457 0.6434436584 -0.4610140271 0.6434711885 -0.4608118744 0.0592936466 -0.002886437
315298110.0 0.0585392187 -0.0043541554 0.6381473154 -0.469087023 0.6384167326 -0.4684737335 0.0590461538 -0.0044783763
320298080.0 0.0587623333 -0.0048490303 0.6324073011 -0.4762162939 0.632731655 -0.4754271459 0.0585213676 -0.0052071252
325298050.0 0.0577381062 -0.0062159345 0.6269730005 -0.4837219773 0.6271633026 -0.4829930689 0.0579382634 -0.0063779393
330298020.0 0.0575569451 -0.0074747416 0.6212780324 -0.4905932372 0.6214994989 -0.4911268553 0.0577637326 -0.0077298487
335297990.0 0.0570522989 -0.0085017048 0.6159217008 -0.4978782535 0.6156656924 -0.4976654022 0.0567264383 -0.0077316505
340297960.0 0.0564250217 -0.0091261454 0.6095315028 -0.504849872 0.6098642799 -0.5048250273 0.0571155005 -0.0085427224
345297930.0 0.0558663291 -0.0094887051 0.6041980462 -0.5117511571 0.6044921452 -0.5122308338 0.0566298944 -0.0097718158
350297900.0 0.0551864781 -0.0106763058 0.5977076335 -0.5190054979 0.5980182423 -0.5182879018 0.0556043468 -0.0098437332
355297870.0 0.0548395138 -0.0105356244 0.5922976942 -0.5256445673 0.5930455175 -0.5247787151 0.055114212 -0.0107058942
360297840.0 0.0547246213 -0.0115617678 0.5873311388 -0.5318052416 0.5876218658 -0.531464859 0.0549802542 -0.0111121454
365297810.0 0.0539849288 -0.0118519778 0.5804552951 -0.5383167534 0.5817362307 -0.5382291785 0.0546294728 -0.0116587108
370297780.0 0.0544213544 -0.01317478 0.5747939036 -0.5446737861 0.5752226012 -0.5442329975 0.05423789 -0.0123963578
375297750.0 0.0539939069 -0.0137534017 0.5688954762 -0.551702616 0.5695327469 -0.5510832556 0.0541966395 -0.0129959162
380297720.0 0.0534905334 -0.0142847374 0.5624439941 -0.5577578111 0.5628919829 -0.5569457505 0.0532245386 -0.0138099696
385297690.0 0.0527707968 -0.0150239552 0.556551236 -0.5639232532 0.5563167304 -0.5632247437 0.0535274916 -0.0142167225
390297660.0 0.0530364155 -0.015325611 0.5506338492 -0.5699760133 0.5503431038 -0.5696583789 0.0528070069 -0.0152225706
395297630.0 0.0522820281 -0.015918483 0.5439883575 -0.5756891039 0.5440232001 -0.5758670872 0.0532516099 -0.0157769661
400297600.0 0.0518243741 -0.0167462251 0.5372436466 -0.5827898043 0.5376375313 -0.5822939708 0.0522915138 -0.0161155752
405297570.0 0.0512051836 -0.017346794 0.5313717079 -0.5874137618 0.5310913486 -0.5877355113 0.0516991705 -0.0168136379
410297540.0 0.0516594883 -0.0179047726 0.5246427665 -0.5937318762 0.5253424283 -0.5938935312 0.0514470374 -0.0170203335
415297510.0 0.0516161498 -0.0186946153 0.5179395884 -0.6001372476 0.5184031409 -0.5996168177 0.05108787 -0.0179527208
420297480.0 0.0509520838 -0.0189011039 0.5115350758 -0.60589289 0.5113205753 -0.6059745189 0.0504002006 -0.0186845361
425297450.0 0.0502358918 -0.0206089132 0.5052252144 -0.6115059735 0.5051632733 -0.6110552914 0.0498606547 -0.018685063
430297420.0 0.0498096249 -0.0207953182 0.4978236434 -0.6163843852 0.4980302716 -0.6160811228 0.0496871843 -0.0199223399
435297390.0 0.0496558217 -0.021122776 0.4907965225 -0.622247848 0.4911216552 -0.6222354373 0.0499248678 -0.0205088335
440297360.0 0.0495509535 -0.0217713712 0.4841695144 -0.6273086836 0.4846676995 -0.6273727281 0.048979196 -0.021239151
445297330.0 0.0487804584 -0.022724572 0.4778446513 -0.6328962092 0.4776317114 -0.6322929126 0.049050382 -0.0221006268
450297300.0 0.0489055936 -0.0231328659 0.4709154342 -0.6380445487 0.4704610235 -0.6383911362 0.0485114316 -0.0230780069
455297270.0 0.0483888132 -0.0236588547 0.463692457 -0.6431867814 0.4640200542 -0.6435719203 0.048159738 -0.0232399041
460297240.0 0.0476917617 -0.0243536569 0.4563674834 -0.6488438233 0.4564554442 -0.6486928552 0.0476698888 -0.0236829713
465297210.0 0.0478453203 -0.0247534359 0.4495825676 -0.6539004178 0.4491928728 -0.6542215852 0.0475655339 -0.0249080203
470297180.0 0.0471435038 -0.025645598 0.441784499 -0.6584569734 0.442055991 -0.6588634655 0.0469670871 -0.0248407627
475297150.0 0.0469346597 -0.0264362393 0.4345207817 -0.6625301192 0.4349211256 -0.6631890199 0.0472271161 -0.0260125783
480297120.0 0.0462689066 -0.026277141 0.4276782452 -0.6685702231 0.4275329195 -0.6688427635 0.0469130049 -0.0260969955
485297090.0 0.0454617492 -0.0269652504 0.4203713782 -0.6724703635 0.4201624862 -0.6725850986 0.0465290701 -0.0270669368
490297060.0 0.0448258501 -0.0278269389 0.4130771266 -0.6784282231 0.4130335415 -0.676992412 0.0460275318 -0.0265863075
495297030.0 0.0447243252 -0.0279325362 0.4051207316 -0.6823227688 0.4055357993 -0.6817449262 0.045210587 -0.0276025524
500297000.0 0.0442125142 -0.0288317473 0.3976102383 -0.686222516 0.3970060023 -0.6857934191 0.0450390561 -0.0274126847
505296970.0 0.0443822731 -0.029260771 0.3904999602 -0.6906916751 0.3900785441 -0.690911553 0.0448622848 -0.0283248303
510296940.0 0.043541075 -0.0294144947 0.3826241068 -0.6953614877 0.3826433367 -0.6954553339 0.0445748582 -0.0283148084
515296910.0 0.0426868937 -0.0298612928 0.3741181455 -0.6991682558 0.3747445906 -0.6991822551 0.0441816128 -0.0290115617
520296880.0 0.0424099795 -0.0302930713 0.3672763726 -0.7038948573 0.3672294738 -0.7030869752 0.0433490636 -0.0295762712
525296850.0 0.0420808914 -0.0312445361 0.35924827 -0.7075012731 0.3597878793 -0.7072045682 0.0428180349 -0.0298390839
530296820.0 0.0415626803 -0.031385617 0.3518947549 -0.711266831 0.3520821493 -0.7114846749 0.0427445419 -0.0301106808
535296790.0 0.0405335894 -0.0315818396 0.3445313088 -0.7153886082 0.344635153 -0.7144953891 0.0419299683 -0.0308072667
540296760.0 0.0400939022 -0.0317260416 0.336020104 -0.7193403383 0.3359103642 -0.7188802503 0.0408123328 -0.0304458814
545296730.0 0.0397169905 -0.032519981 0.3275765547 -0.7228680283 0.3277630055 -0.722273291 0.0403534765 -0.0314395889
550296700.0 0.0399342028 -0.0322925501 0.3202792667 -0.7259430058 0.3201430792 -0.726590237 0.039741857 -0.031432888
555296670.0 0.0387278224 -0.0328893863 0.3123131584 -0.7293545609 0.3124196896 -0.7292406249 0.0395603348 -0.0319185713
560296640.0 0.0386485432 -0.0329248369 0.3039482173 -0.7330420032 0.3042403201 -0.7330593311 0.0389800514 -0.0323588877
565296610.0 0.0376410047 -0.0336782239 0.2955388855 -0.7362545782 0.2966032079 -0.7363492748 0.0380761902 -0.0332010689
570296580.0 0.0370813152 -0.033893378 0.2882504863 -0.7398581961 0.2871237155 -0.7394886389 0.0377280846 -0.0329646088
575296550.0 0.0364947706 -0.0342827678 0.279903984 -0.7427399125 0.2804635631 -0.742808257 0.0372589775 -0.0338335101
580296520.0 0.0363537491 -0.0346151041 0.2715607646 -0.745543746 0.2722125593 -0.745762191 0.0365385636 -0.033869138
585296490.0 0.0355148922 -0.0360174887 0.2640011021 -0.7481761294 0.2643936382 -0.7482990499 0.0362233339 -0.0341282796
590296460.0 0.0355493218 -0.0353904377 0.2554642809 -0.7501721452 0.2556844716 -0.7514723636 0.0348487892 -0.0346060534
595296430.0 0.0351012999 -0.0355018804 0.2466872168 -0.7548959317 0.2471765261 -0.7539992274 0.0352284357 -0.0352539647
600296400.0 0.0342222475 -0.0365276051 0.2390672828 -0.7569170266 0.2396944275 -0.7564948173 0.0343309562 -0.0354791419
605296370.0 0.0335931474 -0.036658547 0.2301730606 -0.759038173 0.2311625817 -0.759799418 0.0338184727 -0.0356745727
610296340.0 0.033312619 -0.0368415912 0.222315492 -0.7615828407 0.2228681738 -0.762138537 0.0334108976 -0.0363825971
615296310.0 0.0327751803 -0.0376158595 0.2139739406 -0.7641032171 0.2139443149 -0.7644064583 0.033357522 -0.0363550133
620296280.0 0.0321933114 -0.0378103156 0.2058942441 -0.7663665589 0.2058141154 -0.7660067532 0.0322704422 -0.0372566707
625296250.0 0.0311862621 -0.0385693895 0.1982575597 -0.7689198181 0.1974806816 -0.7689095554 0.032378278 -0.0372475821
630296220.0 0.0319781792 -0.0381757002 0.188461447 -0.7707294982 0.1885679218 -0.7705438517 0.031472682 -0.0374302001
635296190.0 0.0296041334 -0.0389521286 0.1806814794 -0.773095911 0.1808666912 -0.7729041291 0.0315029444 -0.0375974749
640296160.0 0.0295991809 -0.038785942 0.171917379 -0.774216599 0.1723580821 -0.7744752749 0.0304613452 -0.0380947087
645296130.0 0.0292659566 -0.0391432738 0.1630912259 -0.7760478904 0.164246398 -0.7769228617 0.0302622282 -0.0381301945
650296100.0 0.0287820277 -0.039514422 0.1550748602 -0.77802505 0.1554873537 -0.7783695324 0.0301455423 -0.0391529619
655296070.0 0.0273621105 -0.0399708887 0.1462659995 -0.7801762584 0.1470225527 -0.779895854 0.029337164 -0.0388697694
660296040.0 0.0266819345 -0.0405428718 0.1379408748 -0.7816664584 0.1385138494 -0.7812460853 0.0291949099 -0.0388365324
665296010.0 0.0269409293 -0.0404489262 0.1290211056 -0.78297067 0.1300606806 -0.7825311774 0.0286601997 -0.0386036953
670295980.0 0.0249571388 -0.0403436953 0.1207817981 -0.7839788928 0.1210525122 -0.7836193412 0.0274759807 -0.0392638756
675295950.0 0.0250770843 -0.0402544761 0.112338914 -0.785421052 0.112986161 -0.7849966355 0.0265901591 -0.0394844207
680295920.0 0.0242665171 -0.041076239 0.1037940791 -0.7865773161 0.1034005907 -0.7867870138 0.02632053 -0.0389640411
685295890.0 0.0238879746 -0.0402300786 0.0949836281 -0.7872399338 0.0951354571 -0.7878711314 0.0258452288 -0.0392183729
690295860.0 0.0238085229 -0.0404978301 0.0870754115 -0.787740175 0.086549178 -0.7886728324 0.0249774357 -0.0384601132
695295830.0 0.0230476265 -0.0414944516 0.0785310698 -0.7895856505 0.0777015295 -0.7892364818 0.0241046973 -0.0390368007
700295800.0 0.0224686761 -0.0417910235 0.0695366233 -0.7902309004 0.0690973854 -0.7897290616 0.0236671577 -0.0384486402
705295770.0 0.0213043777 -0.0406119529 0.0608714061 -0.7904701034 0.0611193584 -0.7908245533 0.0227544155 -0.0387872929
710295740.0 0.0213710083 -0.041120432 0.0525472533 -0.7923373048 0.0532994241 -0.79206794 0.0227722753 -0.0396004568
715295710.0 0.0198957323 -0.0414102576 0.0437834189 -0.7920367001 0.0433176159 -0.7922147723 0.0223946406 -0.0394936278
720295680.0 0.0197777424 -0.0416305711 0.0349547237 -0.7928790294 0.0355848739 -0.7920380189 0.0213918316 -0.0389827547
725295650.0 0.0194228077 -0.0413612456 0.0265616056 -0.7928648615 0.0263854174 -0.7929309278 0.020391169 -0.0394014531
730295620.0 0.0191559348 -0.0414498548 0.017631835 -0.7924325784 0.0177294821 -0.7935701158 0.0195062563 -0.0397998171
735295590.0 0.0180124253 -0.0410688879 0.0092149254 -0.7934034283 0.0091458948 -0.7930368577 0.0190755596 -0.0402794747
740295560.0 0.0172810827 -0.0414964992 0.0006974954 -0.7935097395 0.0008486628 -0.7935273097 0.0188742653 -0.0399254415
745295530.0 0.0167741248 -0.0416330549 -0.0081253838 -0.7924936016 -0.0084487526 -0.7936122728 0.0181694197 -0.0403725789
750295500.0 0.0163607114 -0.0415761183 -0.0162921818 -0.7928242845 -0.0166546053 -0.7933089603 0.0173175964 -0.0400772773
755295470.0 0.0158524122 -0.0420555455 -0.0248708506 -0.7930351789 -0.0250064922 -0.7929622459 0.0176277401 -0.0407447593
760295440.0 0.0150712722 -0.0419834262 -0.0338648029 -0.7931006904 -0.0338853353 -0.7928369154 0.0164835916 -0.040435222
765295410.0 0.0141483761 -0.0418450165 -0.0426590431 -0.7919694652 -0.0429624061 -0.7925619224 0.0160204535 -0.0404440505
770295380.0 0.0132661198 -0.042368635 -0.0521077356 -0.7911507411 -0.0510244845 -0.7915512194 0.0150942372 -0.0410850813
775295350.0 0.012808375 -0.0428416303 -0.059975424 -0.790395166 -0.0594665867 -0.7902944045 0.0140180357 -0.0402928431
780295320.0 0.0126019728 -0.0424244451 -0.0684045444 -0.7897442619 -0.0675563943 -0.7900560634 0.0132994343 -0.0412212112
785295290.0 0.0116400792 -0.0429082155 -0.0773531161 -0.7887698629 -0.0765480606 -0.7890028328 0.0137833908 -0.0406843006
790295260.0 0.0117162695 -0.0418097266 -0.0848710778 -0.7880475779 -0.0845412698 -0.7881099333 0.0124921693 -0.0412197982
795295230.0 0.0109229653 -0.0424737781 -0.0942199497 -0.7866491101 -0.0936116159 -0.7879004764 0.0125242572 -0.0404192663
800295200.0 0.0094527978 -0.0416694512 -0.1036366658 -0.7860296099 -0.1022064835 -0.7859369836 0.0119955145 -0.041224509
805295170.0 0.0090626476 -0.0423898925 -0.1113806328 -0.7848347863 -0.1108946505 -0.7851409282 0.0111849869 -0.0407522312
810295140.0 0.0081215805 -0.0428214647 -0.1190134607 -0.7835970016 -0.1193760167 -0.7840976668 0.0113139316 -0.040422512
815295110.0 0.0080434439 -0.0427686485 -0.1278179129 -0.7819444734 -0.1277790273 -0.7820994032 0.0101140307 -0.0404733744
820295080.0 0.0065893735 -0.0417238825 -0.136535677 -0.7803738936 -0.1361031599 -0.7810305221 0.0093429904 -0.0406801913
825295050.0 0.0069047361 -0.0419855334 -0.1444264869 -0.7793560878 -0.1447641571 -0.7796011715 0.0094317775 -0.0404968501
830295020.0 0.0061786047 -0.041816953 -0.153694117 -0.7772998086 -0.1531038399 -0.7770977108 0.0093643823 -0.0400453058
