!Created with skrf (http://scikit-rf.org).
# Hz S RI R 50.0 
!freq ReS11 ImS11 ReS21 ImS21 ReS12 ImS12 ReS22 ImS22
300000.0 -0.2397081889 -0.0866390961 0.4725766716 0.058267376 0.4703437038 0.0546587656 -0.2406741492 -0.0931511032
5299970.0 -0.2450290833 0.0068237795 0.4750261574 0.0050755918 0.4747202647 0.004934327 -0.2414336004 0.0075515289
10299940.0 -0.2418138125 0.0181051272 0.4767367933 0.0059201609 0.477063371 0.006141042 -0.2380187711 0.0206270622
15299910.0 -0.2375735703 0.0271087114 0.4802669637 0.0075035065 0.48055482 0.0074852802 -0.2334483678 0.0302716331
20299880.0 -0.2329037019 0.0339611498 0.4848068816 0.0080296975 0.4852426746 0.0080616261 -0.22804275 0.0379777103
25299850.0 -0.2277873481 0.0403197397 0.4902507796 0.0070828191 0.4902912505 0.0072153114 -0.2221564077 0.0443251989
30299820.0 -0.2223677855 0.0451866649 0.4955440706 0.0049517043 0.4954663031 0.00491519 -0.2162484422 0.0499626245
35299790.0 -0.2174225239 0.0493699704 0.5011223187 0.0015327227 0.5010227077 0.0015667775 -0.2108434384 0.0544413155
40299760.0 -0.2126439018 0.0522228745 0.5057355321 -0.0022139889 0.5061397808 -0.0023533214 -0.2054590441 0.057233193
45299730.0 -0.2080089433 0.054985467 0.5104156194 -0.0070745706 0.5108343916 -0.007052771 -0.2006150179 0.0604134916
50299700.0 -0.2040294796 0.0568377376 0.5150024735 -0.0124383645 0.5153049012 -0.0122816213 -0.1954786268 0.0620203696
55299670.0 -0.1996629463 0.0583688026 0.518882039 -0.0188482665 0.5187198482 -0.018385321 -0.191610787 0.0641548559
60299640.0 -0.195789766 0.0598145222 0.5217940372 -0.0248905515 0.5221971187 -0.0245524591 -0.1872812396 0.0652962933
65299610.0 -0.1929203385 0.0610654489 0.5246580166 -0.0312361912 0.5245049482 -0.0308419456 -0.183846741 0.0662215578
70299580.0 -0.1901905405 0.0620751401 0.5273402709 -0.0375610459 0.5272972965 -0.0373934215 -0.1808719462 0.0673822747
75299550.0 -0.1872224555 0.0630334243 0.5288392879 -0.0449458353 0.5287974789 -0.0444158166 -0.1779120924 0.0679935785
80299520.0 -0.1846096213 0.0636932037 0.5309897554 -0.051395349 0.5308018772 -0.0514547846 -0.1749022281 0.0691598076
85299490.0 -0.1823159028 0.0642575091 0.5320559411 -0.0581519931 0.5322587681 -0.0578709209 -0.1725979823 0.0696989451
90299460.0 -0.1800675234 0.0646251489 0.532968839 -0.0650470622 0.5332046346 -0.0649154452 -0.1702118051 0.0704742815
95299430.0 -0.1779389011 0.0652502894 0.5343711002 -0.0721684476 0.5341977026 -0.0723432694 -0.1680130992 0.0712338608
100299400.0 -0.1765608284 0.0661954418 0.5342207287 -0.0786855996 0.5341733911 -0.0787443871 -0.1658405801 0.0714548673
105299370.0 -0.1749783182 0.0667628532 0.5344193403 -0.0861624419 0.5349470202 -0.0861329085 -0.1641893756 0.0726557254
110299340.0 -0.1734451606 0.0676445271 0.5350320633 -0.0925718522 0.5344791805 -0.0924313932 -0.1628230381 0.0732525466
115299310.0 -0.1720419642 0.0680136632 0.535125203 -0.0991430614 0.5348091794 -0.099351778 -0.1611298413 0.0739114719
120299280.0 -0.1706980356 0.0686094967 0.5342625565 -0.1067024176 0.5343296961 -0.1063879921 -0.1593490054 0.0747988246
125299250.0 -0.1695406511 0.0692106926 0.534215017 -0.1124067633 0.5340517888 -0.1128126627 -0.1586652233 0.075321173
130299220.0 -0.1688950734 0.0701357378 0.5334268563 -0.1198466988 0.5334805434 -0.1199389186 -0.1572009436 0.0759798023
135299190.0 -0.1674664687 0.0709481314 0.5332562627 -0.1261301997 0.5329460676 -0.126141041 -0.1559488679 0.0770193039
140299160.0 -0.1667805379 0.0724096013 0.5321124532 -0.1330645046 0.5323493077 -0.1330242206 -0.1547179452 0.0781304183
145299130.0 -0.1652652378 0.0728747812 0.5312391078 -0.1395430324 0.5311131526 -0.1392419733 -0.1537552448 0.0793090973
150299100.0 -0.16446057 0.0739184459 0.5299158522 -0.1454878206 0.5303300264 -0.1454728302 -0.1526347058 0.0803810836
155299070.0 -0.1637541014 0.0744412988 0.5287440159 -0.1530855636 0.5286793915 -0.1524151595 -0.1515754811 0.0815788328
160299040.0 -0.1630198825 0.0759698399 0.5274655174 -0.1589741603 0.5275418457 -0.1589917885 -0.1509176971 0.0823222631
165299010.0 -0.1621474858 0.0768795053 0.525890659 -0.1655954238 0.5262586453 -0.1656131072 -0.1495544736 0.0835632721
170298980.0 -0.1614594709 0.0779920527 0.5247221757 -0.1717196625 0.5246992685 -0.1719083951 -0.1485746853 0.0846449901
175298950.0 -0.1609967491 0.0790385786 0.5234170064 -0.1778664593 0.5225914853 -0.178072262 -0.1480414797 0.0860073368
180298920.0 -0.1602807755 0.0801535873 0.5211585803 -0.1844798228 0.5212520582 -0.18389698 -0.1467962533 0.0874566666
185298890.0 -0.1589934764 0.0809908596 0.5192162934 -0.1904747207 0.5193265464 -0.1902842457 -0.145925443 0.0886187359
190298860.0 -0.1584554826 0.0824400589 0.5176650344 -0.1967955706 0.5179761467 -0.1964452612 -0.1450299769 0.0896277127
195298830.0 -0.1578792677 0.0833916001 0.5156731497 -0.2026358565 0.5156738164 -0.2025941076 -0.1438321733 0.0908753902
200298800.0 -0.1569170293 0.0844145559 0.5132279944 -0.2088831927 0.5133770805 -0.2092290167 -0.1434691386 0.0922865181
205298770.0 -0.1559718093 0.0858832947 0.5109734125 -0.2151562274 0.5111345539 -0.2147330525 -0.1422900583 0.0929246036
210298740.0 -0.1556421933 0.0869629796 0.5090490673 -0.2208509024 0.5090113855 -0.2205350588 -0.1411627698 0.0954086222
215298710.0 -0.155202387 0.0883610978 0.5069535992 -0.2270809249 0.5064681272 -0.2268566746 -0.1404398938 0.0961369557
220298680.0 -0.1540316645 0.0891462241 0.5036411642 -0.2328802464 0.5042763044 -0.2326759976 -0.1398499294 0.0975024786
225298650.0 -0.1535564482 0.0906462152 0.5014021648 -0.2387556905 0.501573956 -0.2385019674 -0.1388528146 0.0988311005
230298620.0 -0.1524219882 0.0922125684 0.4992016829 -0.2441537611 0.4997602176 -0.2443408181 -0.1381086713 0.0997747834
235298590.0 -0.1516292293 0.0935125624 0.4961376981 -0.2499298816 0.4965248785 -0.2497375401 -0.1366776256 0.10149394
240298560.0 -0.1510043254 0.0947813534 0.4939035238 -0.2557962225 0.4941728549 -0.2558486919 -0.1358938664 0.1031010891
245298530.0 -0.150380785 0.0961109336 0.4913872929 -0.2615604613 0.4911902008 -0.2618231599 -0.1345805035 0.1037729514
250298500.0 -0.1492304082 0.0973199522 0.4873272635 -0.2671696224 0.4878735048 -0.2667213635 -0.133934159 0.1051774728
255298470.0 -0.1488005894 0.0986671534 0.484716305 -0.272438077 0.4851271774 -0.2724810129 -0.1327275713 0.1068347424
260298440.0 -0.147821912 0.099736744 0.482124612 -0.2780300602 0.482406855 -0.2777455075 -0.1312107736 0.108240504
265298410.0 -0.146886011 0.1015637126 0.4793363296 -0.284121704 0.4795880157 -0.2832791984 -0.1303606277 0.1098407257
270298380.0 -0.1460156768 0.1028689746 0.4763083674 -0.2888372081 0.4766820127 -0.2890035413 -0.129500436 0.11129388
275298350.0 -0.1448709355 0.1041652036 0.4729721797 -0.2946222501 0.4732589307 -0.2948334341 -0.1282083572 0.112689448
280298320.0 -0.144004356 0.105673442 0.470061914 -0.3000125137 0.4701529766 -0.2998715772 -0.1269319554 0.1136494633
285298290.0 -0.14292342 0.1072152199 0.4668244991 -0.3053351172 0.4667937068 -0.3050610954 -0.1256765058 0.1149995525
290298260.0 -0.1418000747 0.1084697959 0.4633025206 -0.3100854381 0.4634564768 -0.3106723305 -0.1243205627 0.1169295379
295298230.0 -0.1407856799 0.1094904503 0.4598548062 -0.3158540313 0.4597602 -0.3156445638 -0.1230323299 0.1179601977
300298200.0 -0.1402692985 0.1110108048 0.4573634633 -0.3207423654 0.4568018404 -0.3210903649 -0.1219039818 0.1195403479
305298170.0 -0.1389726961 0.1118237597 0.4527561524 -0.3263621741 0.4534843118 -0.3260029089 -0.1201349385 0.1204262357
310298140.0 -0.1382956576 0.1136697211 0.449926153 -0.3312775978 0.4496545868 -0.3310914946 -0.1190074373 0.1218495348
315298110.0 -0.1370639722 0.1145026707 0.4459490099 -0.3366966518 0.4459274003 -0.3363004969 -0.1179712266 0.12313821
320298080.0 -0.1359296039 0.1160133954 0.4416856675 -0.3418953247 0.4423200738 -0.3414832081 -0.1165609858 0.1244381273
325298050.0 -0.1351135981 0.1171711957 0.4385847743 -0.3469321555 0.4381355788 -0.3466096184 -0.1157145645 0.1256983894
330298020.0 -0.1340397891 0.1181998369 0.4339258041 -0.3513571327 0.4344315407 -0.3518429577 -0.1148695487 0.1269879016
335297990.0 -0.1331743988 0.1196696988 0.4303448209 -0.3563986946 0.4299009881 -0.3570840244 -0.1135010098 0.1286567176
340297960.0 -0.1327526484 0.1212636023 0.4258186551 -0.3612641365 0.4258594075 -0.3617524084 -0.1116639951 0.130015029
345297930.0 -0.1315803154 0.1228391688 0.4219754201 -0.366356374 0.4216970107 -0.366431107 -0.1105161851 0.1311069265
350297900.0 -0.1303497279 0.1235126468 0.4171771381 -0.3708671146 0.4177103606 -0.3704051018 -0.1096617796 0.1327728677
355297870.0 -0.1290331515 0.1257205485 0.4134323712 -0.3751800252 0.4138617559 -0.3748613008 -0.1083192438 0.1339546407
360297840.0 -0.1283019337 0.1268990277 0.4100307297 -0.3795046554 0.4104196392 -0.3794351716 -0.1071504401 0.1354808464
365297810.0 -0.1275348763 0.1285844396 0.4054187526 -0.3848042047 0.4056625188 -0.3846753459 -0.1054477498 0.13671495
370297780.0 -0.1259419701 0.1293050828 0.4008983268 -0.3885089761 0.4012957729 -0.3883161478 -0.1039041554 0.1380622595
375297750.0 -0.1245019582 0.130964783 0.3969020812 -0.3933028415 0.3971913888 -0.3929336987 -0.1025255217 0.1389678925
380297720.0 -0.123248507 0.132395847 0.3922667502 -0.3979280256 0.3929941237 -0.3967394228 -0.1018068723 0.1403324688
385297690.0 -0.1226361834 0.133471094 0.388272281 -0.4018663385 0.3879652294 -0.401689656 -0.099571439 0.1415850001
390297660.0 -0.121183976 0.1348196986 0.3835554378 -0.4060284696 0.3836737569 -0.4056579236 -0.0984974186 0.1430560282
395297630.0 -0.1199798037 0.1363743851 0.3788808881 -0.4102148578 0.3794314718 -0.410328978 -0.0962832153 0.1443779884
400297600.0 -0.118692774 0.1376671856 0.3740275501 -0.4146555387 0.3749583095 -0.4142458219 -0.0953638983 0.1456290793
405297570.0 -0.1177299092 0.138306012 0.3699777036 -0.4180324817 0.3701590094 -0.4181806455 -0.0939186115 0.1466848379
410297540.0 -0.1157758734 0.1399522795 0.3655238966 -0.4227185131 0.3658820058 -0.4224908784 -0.0921646104 0.1481379724
415297510.0 -0.1146518821 0.1411817297 0.3608498142 -0.4265451608 0.3608658032 -0.4266497159 -0.0905181795 0.1491164085
420297480.0 -0.1133612719 0.1429523954 0.3560220865 -0.4303732546 0.3561855158 -0.4306101094 -0.0892304699 0.1502086806
425297450.0 -0.1120952995 0.1433339388 0.3516901825 -0.434067746 0.3518560864 -0.4344994499 -0.0875095392 0.1517089006
430297420.0 -0.1108520327 0.1448288515 0.3464976553 -0.4373055781 0.3469747355 -0.4376965691 -0.0859358123 0.1521791682
435297390.0 -0.1095761032 0.1461308399 0.3418154233 -0.4418910515 0.3415149226 -0.4416821329 -0.0835226186 0.1533867198
440297360.0 -0.10789397 0.1473320954 0.3366370805 -0.4452814962 0.3372979571 -0.4454723201 -0.0826924345 0.1544349655
445297330.0 -0.1067526546 0.1482655983 0.3322558624 -0.449175116 0.3322949019 -0.4487923473 -0.0804321103 0.1553607894
450297300.0 -0.1053317621 0.1493947232 0.3272598591 -0.4526731583 0.3274953508 -0.4531820166 -0.0789952652 0.1561460336
455297270.0 -0.1037611688 0.150834279 0.3222078186 -0.4560652096 0.3225090078 -0.4564143643 -0.0772545036 0.157492935
460297240.0 -0.1025204795 0.1517495009 0.3171587812 -0.4596608429 0.3173674239 -0.4599063678 -0.0755335388 0.1586457446
465297210.0 -0.1009032416 0.1529359788 0.3126855116 -0.4632028324 0.3123040451 -0.4634211418 -0.0734950482 0.1592153447
470297180.0 -0.0993225741 0.1538382336 0.3068248283 -0.4664546845 0.3071308977 -0.4663393644 -0.0718389768 0.1603964931
475297150.0 -0.0979914781 0.1548649502 0.3017810092 -0.4694079111 0.3022572795 -0.4694608787 -0.0697824997 0.1611685766
480297120.0 -0.0965177637 0.1566635327 0.2970759979 -0.4733989115 0.2971677522 -0.4733296262 -0.0677971993 0.1622752101
485297090.0 -0.0950307379 0.1572196838 0.2920208808 -0.4758545927 0.2917478638 -0.4760585154 -0.0662560659 0.163178821
490297060.0 -0.094104883 0.1583856752 0.2871133453 -0.4794026529 0.2867975561 -0.4788628256 -0.0646024174 0.1642811765
495297030.0 -0.0921501034 0.1594348691 0.2810753477 -0.482480394 0.2813479021 -0.4822247461 -0.0628771918 0.1650204957
500297000.0 -0.0903060138 0.1605491687 0.275505006 -0.4852183459 0.2756602811 -0.4849122149 -0.0607632658 0.1663489682
505296970.0 -0.0886481937 0.1614533338 0.2707162215 -0.4878283543 0.2706562472 -0.488394895 -0.0592202126 0.1668500343
510296940.0 -0.0873015485 0.1624188679 0.2654649657 -0.4911521844 0.2653908128 -0.4917246335 -0.0570504837 0.1677266432
515296910.0 -0.0858452714 0.16343181 0.2596240299 -0.4941447037 0.2601417874 -0.4937973041 -0.0552279811 0.1687828382
520296880.0 -0.0842659806 0.1645749603 0.2545103996 -0.4973532138 0.2549458532 -0.4964983011 -0.0537367079 0.1689288595
525296850.0 -0.0825919303 0.1650020482 0.2490997636 -0.4995240728 0.2493953906 -0.4992772956 -0.0518158501 0.1700751223
530296820.0 -0.0807137581 0.1663168507 0.2435761176 -0.5024314375 0.243582257 -0.5022225426 -0.0498200698 0.1709292876
535296790.0 -0.0795241725 0.1671618423 0.2384490669 -0.5046825821 0.2385141463 -0.5043958195 -0.0480741281 0.1712274267
540296760.0 -0.0778488699 0.1683119629 0.2327611642 -0.5074520488 0.2326335009 -0.507526439 -0.046725665 0.1720832727
545296730.0 -0.0762471909 0.1691433138 0.2269510639 -0.5093143567 0.2274248674 -0.5098490467 -0.0445138934 0.1726529839
550296700.0 -0.0743186754 0.1699433574 0.2215163791 -0.5119001287 0.2221030722 -0.5120346456 -0.0426267188 0.1736207348
555296670.0 -0.0730338902 0.1705041863 0.2162181888 -0.5145937958 0.2161386022 -0.5144866993 -0.0408748208 0.1743440664
560296640.0 -0.0711672794 0.1718060151 0.2102104575 -0.5168313512 0.2106330701 -0.5169460422 -0.0386784427 0.1746498113
565296610.0 -0.0697992632 0.1725869071 0.2046153215 -0.5192210912 0.2049931252 -0.519039857 -0.0367743497 0.1746854096
570296580.0 -0.0682514966 0.1733370722 0.1993263798 -0.5217080055 0.1992416621 -0.5211656543 -0.0350750914 0.1761453386
575296550.0 -0.0666000559 0.1741776011 0.1937749095 -0.5233601343 0.1935068088 -0.523211558 -0.0328892388 0.1764438352
580296520.0 -0.0644835855 0.1750344975 0.1877369762 -0.525823512 0.1877672012 -0.5255969555 -0.0308505021 0.1770106946
585296490.0 -0.0632948919 0.1753453747 0.1820943927 -0.527289864 0.182545132 -0.5276177988 -0.0289547817 0.1774574121
590296460.0 -0.0611451798 0.1764954267 0.1766497079 -0.5288586957 0.1768058175 -0.5294695437 -0.027542845 0.1780404542
595296430.0 -0.0593598277 0.1768950978 0.1703165998 -0.5311830476 0.1706452834 -0.5311312171 -0.0250108108 0.1779556625
600296400.0 -0.0581773904 0.1778142333 0.1650149953 -0.53301646 0.1650301052 -0.5329256837 -0.0232677681 0.1784884438
605296370.0 -0.0563487508 0.1785922834 0.1592451929 -0.5342450343 0.1595051927 -0.5348373491 -0.0212287295 0.179083476
610296340.0 -0.0544055285 0.1793340994 0.1529168981 -0.5362279319 0.1534866566 -0.5362215785 -0.0191039911 0.1792964562
615296310.0 -0.052578414 0.1797357898 0.1472286372 -0.5379224485 0.1474310577 -0.5379163446 -0.0170926865 0.1794540283
620296280.0 -0.0509099119 0.180115831 0.141495034 -0.5392713765 0.1415460304 -0.5390443635 -0.0153501375 0.1800202436
625296250.0 -0.0492965054 0.1805029353 0.1362836161 -0.5409554763 0.1357928569 -0.5414283384 -0.0125258958 0.1801262155
630296220.0 -0.0467207931 0.1815694843 0.1292399461 -0.5421564529 0.1297778324 -0.542113343 -0.0109006373 0.1808538515
635296190.0 -0.0460174132 0.1819054902 0.1241331763 -0.5432707425 0.1239981659 -0.5435719356 -0.0089212797 0.1810931573
640296160.0 -0.0440173798 0.1830147947 0.118299468 -0.5444503289 0.1186006051 -0.545040714 -0.0070040014 0.1814819873
645296130.0 -0.042145904 0.1834082767 0.1121644383 -0.5458132712 0.112675779 -0.5461854203 -0.0045289829 0.1815555056
650296100.0 -0.0403419472 0.183744131 0.106255465 -0.5475078948 0.1064704816 -0.5472972523 -0.0024014646 0.181494878
655296070.0 -0.0389250478 0.1843327084 0.1005598754 -0.5481934465 0.1006076955 -0.5486603164 -0.0005192414 0.1818451667
660296040.0 -0.0371887743 0.1844630704 0.0950778836 -0.5493753451 0.0948238892 -0.5493207146 0.0013798352 0.1822753829
665296010.0 -0.0350077433 0.1851572762 0.0884056628 -0.5503000434 0.0883543886 -0.5504432311 0.0036148789 0.1826103793
670295980.0 -0.034127223 0.1858867752 0.0831087627 -0.5509453026 0.0828509635 -0.5509932877 0.0048810176 0.1825392936
675295950.0 -0.0317637353 0.1861734083 0.0767189631 -0.5518921319 0.0771045327 -0.5514251256 0.006957042 0.1824563989
680295920.0 -0.030013755 0.1865466374 0.0706200076 -0.5526252562 0.0703349435 -0.5531564654 0.0094483315 0.1832303138
685295890.0 -0.0279924589 0.1875777295 0.0647139988 -0.5535817624 0.0649898143 -0.5535155069 0.0112287354 0.182880047
690295860.0 -0.0257531982 0.1875633447 0.0587624967 -0.5536989642 0.0588816374 -0.5542324445 0.0131294747 0.183485659
695295830.0 -0.0243260503 0.1879388247 0.0531090322 -0.5541571984 0.0527668178 -0.5544404272 0.015239189 0.183249958
700295800.0 -0.0224372189 0.1880364254 0.0467449741 -0.5552677519 0.0467846156 -0.5547520873 0.0168944233 0.1833288534
705295770.0 -0.0208113029 0.1893171721 0.0406928425 -0.5554379643 0.0410108821 -0.5555972471 0.0191481024 0.1834087572
710295740.0 -0.0189522078 0.1891621364 0.0352541392 -0.5562004907 0.0353794325 -0.5560126898 0.0212159008 0.1826431425
715295710.0 -0.0172588559 0.1893059659 0.0291064623 -0.5561698908 0.0286214743 -0.5561417809 0.0236244666 0.1826360023
720295680.0 -0.0155505589 0.1897108696 0.0228123203 -0.5566702501 0.0231435464 -0.5568050382 0.0254538961 0.1831217322
725295650.0 -0.013152171 0.1898999062 0.0166825889 -0.5562153711 0.0171801708 -0.5571959795 0.0269220474 0.1831923543
730295620.0 -0.0111711876 0.1905109692 0.010781561 -0.5560702625 0.0108606432 -0.5568473478 0.0289662204 0.1822871264
735295590.0 -0.0098452513 0.1909048283 0.0050873626 -0.5571229236 0.0051923314 -0.556945886 0.0307750262 0.1821353614
740295560.0 -0.0078437682 0.1909202779 -0.0011451576 -0.5563414393 -0.0012147604 -0.5570235762 0.0334839848 0.1820236511
745295530.0 -0.0061978382 0.191138127 -0.0072136751 -0.5561302357 -0.006883637 -0.5568186192 0.0354670544 0.1814199998
750295500.0 -0.0038808738 0.1911846446 -0.0129999113 -0.5564322179 -0.0128104542 -0.5568977247 0.0370549798 0.1815348867
755295470.0 -0.0022214676 0.1914352388 -0.0188317932 -0.5568458062 -0.0190306726 -0.5563419927 0.0397499328 0.1806301239
760295440.0 -0.0004516866 0.1917552408 -0.0250617215 -0.5568406037 -0.0249543317 -0.5564579444 0.041555366 0.1807605127
765295410.0 0.0012143879 0.1919112084 -0.0309761317 -0.556060758 -0.0313872837 -0.5562529481 0.0434980315 0.1806580247
770295380.0 0.0029901966 0.1917205122 -0.0370424297 -0.555812252 -0.0373643213 -0.5553768139 0.0455233246 0.1803118671
775295350.0 0.0050087221 0.1916849076 -0.0435130052 -0.5545339571 -0.0426433124 -0.5552425034 0.0469042082 0.1800792855
780295320.0 0.0068959825 0.1919954866 -0.0490723214 -0.554331395 -0.0482990384 -0.5544342441 0.0493218579 0.1790974935
785295290.0 0.0084717833 0.1916833689 -0.0553765719 -0.5533235384 -0.0547669393 -0.5540074901 0.0518866719 0.1790118301
790295260.0 0.011022359 0.1921594984 -0.0606503667 -0.5530145823 -0.0599314113 -0.5530359085 0.0534755916 0.178560885
795295230.0 0.0124736683 0.1923034598 -0.0667774964 -0.5520764052 -0.0663809513 -0.5528241934 0.0559659265 0.1782832254
800295200.0 0.0142671026 0.1923989692 -0.0733404725 -0.5512319274 -0.0728064643 -0.5515100543 0.0576903116 0.1777736056
805295170.0 0.0162872112 0.1920095058 -0.0788089337 -0.5507764018 -0.0783869591 -0.5510492001 0.0595260839 0.177394369
810295140.0 0.0180525203 0.191723733 -0.0844781193 -0.5501261148 -0.0844420543 -0.5500863126 0.0618991034 0.1770773659
815295110.0 0.0199264494 0.1917657243 -0.0904032097 -0.5484977465 -0.0899883057 -0.5489496834 0.0633340666 0.1763882977
820295080.0 0.0215345215 0.1921753952 -0.0962080792 -0.5472056017 -0.0956422832 -0.5481938367 0.0655364003 0.17617458
825295050.0 0.0240494077 0.1919221852 -0.1021116481 -0.5463061804 -0.1021258421 -0.5469358499 0.0677806722 0.1753637947
830295020.0 0.0255431973 0.1919286152 -0.1083737921 -0.5452299773 -0.107947999 -0.5454298677 0.0700267841 0.1746264318
