!Created with skrf (http://scikit-rf.org).
# Hz S RI R 50.0 
!freq ReS11 ImS11 ReS21 ImS21 ReS12 ImS12 ReS22 ImS22
300000.0 0.8595443402 -0.0023260162 0.0004056308 -0.0002226993 -0.0002565349 0.0011471037 -0.777866789 -0.1376612416
5299970.0 0.8592814587 -0.0097921111 0.0002652923 2.95936e-05 -0.0001373886 -7.42245e-05 -0.7842667553 -0.0073741665
10299940.0 0.8586825222 -0.0187687959 -0.0001470006 4.15912e-05 1.39146e-05 -7.30389e-05 -0.7874390149 -0.0036357133
15299910.0 0.857025667 -0.0272098435 -0.0001008364 -9.1349e-06 6.3632e-05 -8.94794e-05 -0.793241578 -0.0015953496
20299880.0 0.856522 -0.0352703479 3.44673e-05 -9.29736e-05 -1.30756e-05 -3.29489e-05 -0.7994763079 0.0019152881
25299850.0 0.8556822058 -0.0438384081 -0.0001937876 -0.000137962 -8.3567e-06 -2.0519e-06 -0.8058109557 0.0082877703
30299820.0 0.8549561101 -0.0524243917 -0.0002432285 0.0003107628 2.55701e-05 -7.07196e-05 -0.8121112893 0.0164326477
35299790.0 0.8541272255 -0.060303226 5.28173e-05 4.4773e-05 8.56772e-05 0.0001033431 -0.8173088051 0.0250056576
40299760.0 0.8530112413 -0.0690457996 -2.71641e-05 -2.7868e-06 0.0002419725 -0.0001253027 -0.8214724225 0.0345306611
45299730.0 0.8529963732 -0.0771052925 4.70046e-05 -5.55921e-05 9.5004e-06 -7.82903e-05 -0.8248302821 0.0439601518
50299700.0 0.8522520736 -0.0855051126 0.0001893874 -2.90096e-05 8.94676e-05 7.94993e-05 -0.8274586742 0.0539068242
55299670.0 0.8507423848 -0.0934309566 -0.0001842385 -1.29447e-05 -2.07902e-05 -9.92908e-05 -0.8292229182 0.0644912483
60299640.0 0.8495256788 -0.1012544639 -9.46491e-05 0.0002019648 2.29805e-05 -1.48986e-05 -0.8305469465 0.0744954862
65299610.0 0.8482960175 -0.1101754953 3.51735e-05 -9.1067e-05 2.30928e-05 3.52228e-05 -0.8322151029 0.0842595983
70299580.0 0.8475757657 -0.1185851602 -2.94843e-05 -5.58926e-05 -0.0001273182 0.0001002696 -0.8317266813 0.0947962922
75299550.0 0.8463769092 -0.126797663 -9.45316e-05 -7.8366e-05 -6.52141e-05 3.74447e-05 -0.8324659576 0.1042921976
80299520.0 0.844421646 -0.1349475091 8.82591e-05 -7.7884e-06 0.0001958126 5.04848e-05 -0.8323831247 0.1139097578
85299490.0 0.8432463249 -0.142929142 3.92794e-05 -4.29854e-05 -0.0001475036 -0.0002015685 -0.8315254438 0.1233669571
90299460.0 0.8412970946 -0.1514181126 -0.000195847 -4.31235e-05 -0.000181371 -7.1047e-06 -0.8308501081 0.1336727383
95299430.0 0.8398531665 -0.159866719 -0.0001045821 -0.0002426082 1.0395e-06 8.86339e-05 -0.8293978325 0.1434438216
100299400.0 0.8381228262 -0.16741725 0.0001453289 0.0001323425 -3.56311e-05 -3.97304e-05 -0.8287336236 0.1525711771
105299370.0 0.8373946715 -0.1759481876 -0.0002193904 -0.0002247997 -0.0001484181 0.0002110745 -0.8272023864 0.1609181717
110299340.0 0.8352174592 -0.184439287 1.74525e-05 -1.66123e-05 -5.2833e-06 0.0001195037 -0.8256582432 0.1704536645
115299310.0 0.8328926939 -0.1921447933 -2.82415e-05 -0.0001205163 -3.72399e-05 -2.26136e-05 -0.8239673623 0.1799615187
120299280.0 0.8318029753 -0.2000439874 8.49772e-05 0.0001510633 -5.21222e-05 6.23519e-05 -0.8224208052 0.1889866264
125299250.0 0.829506226 -0.2086315301 1.96158e-05 0.0001035657 -1.49494e-05 -0.0001325072 -0.8206493922 0.1974496104
130299220.0 0.8273864393 -0.2163356087 0.0001028194 0.0001268507 2.83019e-05 -3.906e-07 -0.8190707865 0.2069162913
135299190.0 0.8249618813 -0.2244761076 4.83298e-05 0.0002431952 0.0001089731 3.25345e-05 -0.8165626392 0.2159377603
140299160.0 0.8231238843 -0.2325183888 -2.11881e-05 0.0002348193 -6.63481e-05 -0.0001497731 -0.8142128292 0.2251763468
145299130.0 0.8201928978 -0.2409509479 3.29373e-05 -0.0001777077 0.0002892851 8.87037e-05 -0.812424965 0.2340040109
150299100.0 0.8178615832 -0.2487717757 0.0002476418 -0.0002678452 -0.0002896369 -0.0001624675 -0.8103553041 0.2428625501
155299070.0 0.8150763404 -0.2567210038 -0.0001307141 7.78032e-05 0.0001311315 -0.0001426635 -0.8072191051 0.2518593967
160299040.0 0.8129309619 -0.2647466097 -4.69803e-05 -5.4203e-05 -8.69341e-05 8.62458e-05 -0.8047835273 0.2605033139
165299010.0 0.8105009746 -0.2728474648 6.00266e-05 0.0002815058 -4.48745e-05 -3.33199e-05 -0.8023417555 0.2697023028
170298980.0 0.8074681323 -0.2807019546 8.18963e-05 -3.22122e-05 -2.94297e-05 6.45593e-05 -0.7992216807 0.2778436595
175298950.0 0.8048112323 -0.2882699223 -1.85816e-05 0.000115206 -0.0002375232 -0.000157659 -0.7970058865 0.2867320866
180298920.0 0.8020279741 -0.2957823223 2.52567e-05 5.05766e-05 -0.0002184236 -6.0309e-06 -0.7936174035 0.2949995248
185298890.0 0.798712022 -0.3041310345 -6.84863e-05 -4.71442e-05 0.0001355896 -3.32707e-05 -0.7905519002 0.3045480918
190298860.0 0.7958626031 -0.3115705434 -8.50394e-05 -0.0001691778 -0.0001233112 -0.0003839264 -0.7879675147 0.3125791364
195298830.0 0.7928040228 -0.319359034 0.000211992 -0.0002007397 -1.55306e-05 0.0001284173 -0.7840516766 0.3214706806
200298800.0 0.7893069326 -0.3265633313 4.73913e-05 3.95634e-05 -0.0001047198 -1.7309e-05 -0.7816708094 0.329451836
205298770.0 0.7861243248 -0.334460573 -9.3929e-05 5.3356e-05 -0.0001868573 9.7806e-05 -0.7778721185 0.3371546596
210298740.0 0.7823454479 -0.3421558667 0.0001111077 2.85607e-05 8.013e-06 -0.0001710597 -0.7742547456 0.3461509382
215298710.0 0.7795580813 -0.3502570367 -9.4121e-06 -3.29753e-05 7.43228e-05 1.12871e-05 -0.7707398514 0.3537365194
220298680.0 0.7756680246 -0.3578908219 0.0001117601 5.58224e-05 4.78857e-05 -8.07278e-05 -0.7672249632 0.3620995875
225298650.0 0.7724857699 -0.365965302 -4.9287e-05 3.29832e-05 -2.92822e-05 1.81402e-05 -0.7634441365 0.3700232991
230298620.0 0.7681869083 -0.3726605017 -8.60345e-05 -6.17828e-05 5.1055e-05 -9.8291e-05 -0.7594192674 0.3788293697
235298590.0 0.7648590828 -0.3802669899 -8.85542e-05 2.5522e-06 -1.84918e-05 -1.76e-05 -0.755645359 0.3870539496
240298560.0 0.7615210354 -0.3878388898 2.54392e-05 -0.0001131254 0.0001591725 0.000208119 -0.751070768 0.3950613218
245298530.0 0.7569666981 -0.3955486746 -6.65865e-05 -7.86081e-05 -7.66534e-05 -7.3073e-05 -0.748171768 0.4023528104
250298500.0 0.7535402397 -0.4023717077 6.80355e-05 -5.58827e-05 -0.0001650945 -6.49344e-05 -0.7438105468 0.4102772853
255298470.0 0.7486766865 -0.4098587346 -2.98996e-05 3.08303e-05 -2.2091e-05 1.32578e-05 -0.7386887946 0.4178542678
260298440.0 0.744996487 -0.4169811276 6.82965e-05 -2.19333e-05 -1.49816e-05 -0.0001559762 -0.7346001963 0.4260811389
265298410.0 0.7413334758 -0.424569918 0.0002088689 4.30307e-05 7.93935e-05 -6.35729e-05 -0.7301425248 0.4335978589
270298380.0 0.7367279818 -0.4315325562 2.94657e-05 0.0001028282 -0.0001684074 2.5179e-06 -0.7256602405 0.441218463
275298350.0 0.7325992625 -0.4391768792 -0.0001773633 5.6948e-06 -1.20535e-05 2.22757e-05 -0.7210837079 0.4485942411
280298320.0 0.7281931408 -0.4458039866 0.0001138527 -5.89337e-05 -7.00941e-05 1.81054e-05 -0.7157390171 0.4559695334
285298290.0 0.7240288914 -0.4532267683 -2.37912e-05 7.92992e-05 0.0001428657 -0.0001433227 -0.7106011944 0.4638543323
290298260.0 0.7200314867 -0.4599001295 3.91914e-05 3.57585e-05 3.27506e-05 -0.0001457654 -0.7059430895 0.471303692
295298230.0 0.7154549311 -0.4670657459 0.0001898101 -0.0001969895 -9.39761e-05 0.0001075745 -0.7011633364 0.4776976441
300298200.0 0.7114643373 -0.4745876411 -0.0001896566 7.1688e-06 -9.2803e-06 0.0001874779 -0.6959109 0.4854371475
305298170.0 0.7069558989 -0.4813868281 -8.4877e-05 6.41364e-05 -3.88427e-05 4.4132e-05 -0.6901811758 0.4932297258
310298140.0 0.7022580164 -0.488850654 0.0002359203 -0.0001561308 3.26279e-05 -0.0002699824 -0.6854681409 0.4995520528
315298110.0 0.6974791232 -0.4959621472 -5.25769e-05 -1.798e-07 -0.0001102365 4.60251e-05 -0.6803056236 0.5069571069
320298080.0 0.6928839163 -0.5037931771 0.0002793808 -0.0001014812 0.0001203771 0.0002082216 -0.6746835874 0.5142134964
325298050.0 0.6877257318 -0.5106980503 0.0002042113 -0.0001920512 -0.0001487326 -0.0001871466 -0.6689048701 0.5208811125
330298020.0 0.6821826032 -0.5186123154 3.38781e-05 0.000204195 9.89948e-05 -9.10477e-05 -0.6637455283 0.5285519141
335297990.0 0.6755830199 -0.5251135407 0.000144 -0.0001347706 9.37634e-05 3.37393e-05 -0.658424247 0.5353901742
340297960.0 0.6694724083 -0.5325091901 -0.0001620315 -6.24218e-05 0.000228921 3.6897e-06 -0.652076368 0.5423864844
345297930.0 0.6631735532 -0.5380005275 3.3905e-05 2.07075e-05 5.0497e-05 -0.0001458711 -0.6465423554 0.5486673924
350297900.0 0.6580025195 -0.5439507325 1.83616e-05 -0.0001868969 0.000111617 0.0001280445 -0.6411246328 0.5554542023
355297870.0 0.6527956801 -0.5504711586 -6.97152e-05 -0.0001287026 1.55334e-05 0.0002188255 -0.635727228 0.5624069243
360297840.0 0.647231477 -0.5564228843 0.0001221741 0.0001662767 4.3894e-06 9.27056e-05 -0.6294819686 0.5692249269
365297810.0 0.6409916345 -0.5624703228 -0.0001638038 2.23932e-05 -0.0002683087 7.09142e-05 -0.6229788316 0.5753583492
370297780.0 0.635647644 -0.5692803936 5.73511e-05 0.000247704 -1.52281e-05 -1.23488e-05 -0.6173792765 0.5816408428
375297750.0 0.6292722455 -0.5747330666 -8.43353e-05 -0.0001159034 -0.00019216 0.0001273882 -0.6114780597 0.5878408622
380297720.0 0.6243202741 -0.5811312259 -0.0001659668 0.0001006997 -0.0001481085 0.0003299071 -0.6055355697 0.5941900519
385297690.0 0.6180492206 -0.5865934933 0.0001774945 0.0001191946 -2.92302e-05 0.0001331699 -0.5987514541 0.6008496352
390297660.0 0.6122697798 -0.5922693286 -1.5331e-05 -0.0001336987 -1.5327e-06 -5.6252e-06 -0.5934553658 0.6069995965
395297630.0 0.6063106192 -0.5985394627 -5.97487e-05 9.1016e-06 8.90283e-05 0.0001154633 -0.5865834071 0.6129687402
400297600.0 0.6001072205 -0.6044706664 0.0001249321 -0.0001233159 0.0002085754 0.0001266438 -0.5803241121 0.6191466352
405297570.0 0.5943686905 -0.6095487441 -0.000289077 7.69186e-05 -0.0001541889 0.0001503685 -0.5737219254 0.6248494686
410297540.0 0.5880737056 -0.6159780655 9.34355e-05 -6.6341e-05 -4.13474e-05 8.29e-06 -0.5677616124 0.6309194701
415297510.0 0.5819727287 -0.6217250304 0.0001305899 6.5544e-05 0.0001472991 8.47424e-05 -0.5611917427 0.6364587389
420297480.0 0.576002615 -0.6265729943 -6.87227e-05 0.0001994993 -8.79915e-05 2.79977e-05 -0.5544767348 0.6425013866
425297450.0 0.5689092977 -0.6325871839 9.36625e-05 0.0001348129 -8.64701e-05 8.14301e-05 -0.5477929403 0.6477676207
430297420.0 0.5632823586 -0.6378640017 -8.12392e-05 3.68523e-05 -1.4021e-05 0.0002034974 -0.5411718631 0.6527583416
435297390.0 0.5575086235 -0.6435536339 2.75499e-05 -3.2113e-06 4.82808e-05 -0.0001085642 -0.5340648165 0.6587809759
440297360.0 0.5503571992 -0.6494910761 -0.0001381079 0.0003328321 -7.13398e-05 5.8807e-05 -0.5270805094 0.6636928266
445297330.0 0.544177419 -0.6541849423 0.0004151398 0.0001191014 0.0001021567 -0.0001351983 -0.5202944993 0.6687205185
450297300.0 0.5380141317 -0.6592877035 8.27297e-05 1.89239e-05 0.0001460682 6.02278e-05 -0.5132635694 0.6741103122
455297270.0 0.5311022537 -0.6645593739 4.80519e-05 -0.0001446933 9.46263e-05 -0.0002354183 -0.5063955949 0.6786789623
460297240.0 0.5241209616 -0.6697853046 -9.13062e-05 -0.0001697593 -7.00566e-05 1.61157e-05 -0.4992318032 0.6840060606
465297210.0 0.5172662186 -0.6753411953 3.89872e-05 -0.0002181758 8.17025e-05 -2.97692e-05 -0.4918663501 0.6889371631
470297180.0 0.5108456612 -0.6795770158 -1.69325e-05 -0.0004117085 0.0001345173 0.0001148147 -0.4846910202 0.6940534924
475297150.0 0.5042059208 -0.68533865 9.99156e-05 8.28155e-05 5.72732e-05 -6.70054e-05 -0.4774553893 0.6984473534
480297120.0 0.4969129595 -0.6896383882 -0.0001586365 7.81853e-05 0.0001032257 -1.0991e-05 -0.4703053715 0.7034620997
485297090.0 0.4906349611 -0.6942713859 -0.000135305 8.10889e-05 -2.78403e-05 7.58254e-05 -0.4630086364 0.7080704598
490297060.0 0.4831338939 -0.699063083 -9.90253e-05 -0.0001402278 -3.52966e-05 5.90614e-05 -0.4558490514 0.7124814546
495297030.0 0.4757942941 -0.7036561579 6.91574e-05 0.0001594834 -0.0002260897 0.000123149 -0.44834219 0.7176371342
500297000.0 0.4691292311 -0.7079352818 -0.0001203045 2.90769e-05 -0.0001837805 -8.36068e-05 -0.4407982732 0.7221175993
505296970.0 0.4629132959 -0.7131359701 -0.0001105367 0.0002965643 0.0001493934 -2.274e-05 -0.4332856336 0.7266454529
510296940.0 0.4553016519 -0.7172322629 0.0001245229 0.0001057662 -0.0002027121 -0.0001019737 -0.4257314501 0.7307839716
515296910.0 0.448698556 -0.7215717521 4.19133e-05 0.0003179665 -4.60714e-05 3.31726e-05 -0.4186757587 0.7350142876
520296880.0 0.4406662255 -0.7259134413 -1.00048e-05 0.0001743934 -6.81323e-05 0.0001625097 -0.4108463279 0.7389845684
525296850.0 0.4336835365 -0.7300328938 -6.3195e-05 0.0002981366 -7.99216e-05 0.000364119 -0.4040053857 0.7440550228
530296820.0 0.4263880799 -0.7340185811 -7.27539e-05 -9.58044e-05 -0.0002223526 9.46167e-05 -0.3961335014 0.7478328262
535296790.0 0.4190463703 -0.7385575099 6.04959e-05 -1.76207e-05 5.10237e-05 9.8839e-05 -0.3891402937 0.7514486627
540296760.0 0.4111858447 -0.7422290537 -0.0001914265 -7.39649e-05 -2.0004e-06 3.52608e-05 -0.380585373 0.7552923407
545296730.0 0.4038701856 -0.7461989839 3.38428e-05 -0.0001350533 -0.0001103528 -0.0001171267 -0.3733456079 0.7594373426
550296700.0 0.3970019787 -0.7492607657 -3.42546e-05 -0.0001499952 -0.0001579556 2.71424e-05 -0.36532701 0.7632906222
555296670.0 0.3889795887 -0.7537777501 -0.0001809599 -3.23327e-05 5.6408e-06 3.1308e-06 -0.3580642128 0.7668244754
560296640.0 0.3818169947 -0.7570689287 -0.0001772634 -0.0001484839 8.07399e-05 5.41783e-05 -0.3498790172 0.7714067724
565296610.0 0.3737277002 -0.7605962955 9.24033e-05 0.000183729 -2.21532e-05 0.0001058743 -0.3416462687 0.773992654
570296580.0 0.3664501412 -0.7644579924 7.4352e-06 0.0002008243 4.90303e-05 -3.63199e-05 -0.3347231164 0.7777258214
575296550.0 0.3586631844 -0.7672625077 8.83436e-05 0.000226113 5.42763e-05 -3.82673e-05 -0.3266638427 0.7812196537
580296520.0 0.3514137876 -0.7714097592 0.0002418731 -5.58354e-05 -0.0001478212 -9.62655e-05 -0.3183674266 0.78356993
585296490.0 0.3430582768 -0.7752524848 0.0001371653 7.59378e-05 7.80839e-05 3.34893e-05 -0.3100053914 0.7878039334
590296460.0 0.3362707106 -0.7776021558 7.44958e-05 -0.0001605913 0.0001268877 6.32698e-05 -0.3026152723 0.7902088358
595296430.0 0.3276585677 -0.7812425027 8.9215e-06 0.0001305359 2.58505e-05 -3.77645e-05 -0.2948129269 0.7924598823
600296400.0 0.3199300369 -0.7839873954 -6.60744e-05 5.10492e-05 -1.83778e-05 -9.6162e-06 -0.2863689362 0.7953780898
605296370.0 0.3122924407 -0.7870889649 8.98881e-05 4.43649e-05 -0.0003707282 -2.56694e-05 -0.2780892463 0.7985413254
610296340.0 0.3042292376 -0.7899827817 -8.0964e-05 -0.0001303118 -6.57803e-05 -0.0001428539 -0.2702509797 0.8009484328
615296310.0 0.2966063461 -0.7933548833 -3.22735e-05 0.000263705 3.00606e-05 8.85223e-05 -0.261427997 0.8033246709
620296280.0 0.2891515149 -0.7958204255 -0.0003146161 0.0002885017 -3.24609e-05 9.20112e-05 -0.254108263 0.8062879449
625296250.0 0.280647085 -0.7988143606 3.17045e-05 -3.62671e-05 0.0002939834 -0.0001564196 -0.2448726907 0.808265319
630296220.0 0.272665073 -0.8014576181 9.86904e-05 -4.542e-05 -0.0001511965 3.70897e-05 -0.2373957492 0.8109041773
635296190.0 0.2645138333 -0.8040448419 -5.96452e-05 -7.3393e-06 0.0001781124 -0.0001765718 -0.2289709109 0.8126613828
640296160.0 0.2563672267 -0.8066892632 -0.000304832 4.96396e-05 -5.37915e-05 3.25172e-05 -0.2212982899 0.8150004238
645296130.0 0.2485603564 -0.8084902976 -4.55427e-05 -4.63279e-05 0.0002696054 -2.96049e-05 -0.2129955039 0.8172499705
650296100.0 0.2400939168 -0.8108784246 -9.78e-06 -0.0002262019 -0.00014312 8.84591e-05 -0.2047445857 0.8188403649
655296070.0 0.2320600034 -0.813561748 -0.0001423903 0.0001251153 0.0001659034 -6.97511e-05 -0.1959505183 0.8208749563
660296040.0 0.2242959481 -0.8159323731 -3.6733e-06 -0.0001630713 -9.59503e-05 -2.85753e-05 -0.1871856895 0.822799085
665296010.0 0.2163057592 -0.8174270915 -0.0001014405 -0.0001108275 -8.48294e-05 -8.15128e-05 -0.1793065769 0.82488674
670295980.0 0.2079070379 -0.8198057345 0.0001624297 -0.0001135814 8.70018e-05 0.0001451475 -0.1714683063 0.8266483144
675295950.0 0.1997601819 -0.8210096194 -4.31956e-05 -3.81365e-05 -0.000118713 -6.22236e-05 -0.1630554791 0.8289068391
680295920.0 0.1915171571 -0.8229806608 0.0001767011 9.15271e-05 4.50459e-05 -3.74482e-05 -0.1542512809 0.8303867321
685295890.0 0.1838371271 -0.8242061915 -8.8592e-05 -0.0001386569 0.0001289016 -9.2471e-06 -0.1457291054 0.8317045792
690295860.0 0.1749229645 -0.826409315 -0.0002051171 1.92713e-05 5.30248e-05 -4.69493e-05 -0.1378573943 0.8340744121
695295830.0 0.1670756518 -0.8279231936 0.0001378781 0.0001136095 4.26104e-05 -6.7649e-05 -0.1290009476 0.8348656453
700295800.0 0.1586415651 -0.8298551631 -2.40997e-05 -6.62463e-05 -9.09815e-05 -1.71232e-05 -0.1216667589 0.8360948129
705295770.0 0.1503224625 -0.8306780441 5.48746e-05 -0.0002769087 0.0002281587 -5.66588e-05 -0.1131706603 0.8379962305
710295740.0 0.1414353389 -0.8319318508 0.000128827 -0.0001394497 0.0002796657 5.27292e-05 -0.1045591007 0.8390574227
715295710.0 0.133650259 -0.8340996365 9.67657e-05 1.65187e-05 -0.0003512457 -3.66691e-05 -0.0958556714 0.8395735811
720295680.0 0.1257438685 -0.8347034356 -4.17045e-05 0.0001979026 5.06992e-05 0.0001913156 -0.0875077917 0.8409399477
725295650.0 0.1167675578 -0.8354602676 -1.49787e-05 5.57083e-05 5.22104e-05 5.1853e-05 -0.079761372 0.8419340774
730295620.0 0.1085400219 -0.8361824368 -8.5764e-06 -0.0001260318 -0.0002264811 4.33424e-05 -0.071726902 0.8421482911
735295590.0 0.1001579045 -0.8369697098 6.2845e-06 -0.0001651576 -9.04504e-05 -0.0002598898 -0.0629337358 0.8427992666
740295560.0 0.0917665619 -0.8374855871 -1.03395e-05 -4.45679e-05 -0.0001817055 -2.69796e-05 -0.054105997 0.8441317945
745295530.0 0.0830324426 -0.8385216548 2.63126e-05 1.80259e-05 -4.45934e-05 0.0001114547 -0.0453541161 0.8439023511
750295500.0 0.0751795905 -0.839537222 4.51248e-05 9.8011e-06 -0.0001357083 1.8708e-06 -0.0377820062 0.8440423336
755295470.0 0.0665412201 -0.8398934595 -0.0002041079 -0.0003229126 -0.0001471468 4.5207e-06 -0.0288603451 0.8439116683
760295440.0 0.0585681768 -0.8403970855 0.0001540236 -0.0001855053 -7.26832e-05 -1.8448e-05 -0.0212558448 0.8444398487
765295410.0 0.0501108913 -0.8411074993 0.0003250942 3.66863e-05 -4.63843e-05 1.05512e-05 -0.012176516 0.8448183718
770295380.0 0.0416308507 -0.8411006611 -0.0003135326 -0.0001829843 0.0001622923 0.0001031841 -0.0041330853 0.8444249275
775295350.0 0.0327666388 -0.8417681528 -4.60569e-05 -0.0002238329 7.21444e-05 5.81999e-05 0.0039613732 0.8444450846
780295320.0 0.0249688337 -0.8413594497 0.0002680489 -1.36444e-05 -0.0001331977 -3.4544e-05 0.0125049872 0.8441597674
785295290.0 0.0167095406 -0.8416508363 0.0002995654 8.67779e-05 0.0001559875 -1.05041e-05 0.0211813656 0.8432438337
790295260.0 0.0075943349 -0.8415838865 2.21561e-05 0.0002251975 1.56377e-05 0.0001737219 0.0303467749 0.8442022608
795295230.0 -0.0009634138 -0.8414117763 0.0001601193 -3.4469e-06 0.0001395546 0.0001200616 0.0390338016 0.8427612254
800295200.0 -0.0091565868 -0.8410448222 -0.0001332346 -1.94524e-05 -6.51022e-05 -0.0001503153 0.047200601 0.8431736333
805295170.0 -0.017300483 -0.8411467484 -0.0001134211 -0.0002312387 0.0001700385 -3.28835e-05 0.0554366295 0.8425839199
810295140.0 -0.0263089393 -0.8405209276 -0.0002142698 0.0001841024 4.018e-07 1.9195e-05 0.0643280986 0.8413495918
815295110.0 -0.0340532085 -0.840538588 -0.0001334964 4.15697e-05 0.0001822028 -9.32304e-05 0.0722222059 0.8408204314
820295080.0 -0.0420990961 -0.8390101393 -5.25341e-05 -0.0001773712 3.46243e-05 5.33992e-05 0.0807815205 0.8401666115
825295050.0 -0.0507234861 -0.8390764689 -0.0004060866 -6.50115e-05 7.3244e-06 0.0001556308 0.0889424503 0.8398371888
830295020.0 -0.0590811965 -0.8384919989 -0.0001385437 0.0001108929 0.0001197217 0.0001091341 0.0980058548 0.8386645893
835294990.0 -0.0675848236 -0.8370381116 0.0001467532 -5.36532e-05 -2.26853e-05 0.0001408902 0.1057889795 0.8376050327
840294960.0 -0.0757605625 -0.8363274187 6.65118e-05 -0.0002429831 1.75468e-05 7.99058e-05 0.1145161933 0.8361927932
845294930.0 -0.084356716 -0.8357175438 9.25778e-05 0.0001060167 3.79767e-05 3.89823e-05 0.1219707166 0.8349838078
