!Created with skrf (http://scikit-rf.org).
# Hz S RI R 50.0 
!freq ReS11 ImS11 ReS21 ImS21 ReS12 ImS12 ReS22 ImS22
300000.0 -0.7790057687 -0.0950060068 0.0008304256 0.00146202 -0.0004981975 0.0007640592 -0.0448131454 -0.0609500688
5299970.0 -0.7845812114 -0.0055776547 -2.38831e-05 6.86041e-05 0.0001351143 1.41248e-05 -0.0453540352 0.0154954159
10299940.0 -0.7876221716 -0.003821429 -9.42203e-05 0.0001199257 2.02787e-05 -1.10624e-05 -0.0401498258 0.0337679052
15299910.0 -0.7934008323 -0.002120426 3.74907e-05 -7.7691e-06 -0.0001508217 7.8543e-06 -0.0314791186 0.0482837167
20299880.0 -0.8003118675 0.0017073647 -7.38708e-05 -3.7671e-06 -3.08228e-05 -1.7255e-05 -0.0212896873 0.0598323509
25299850.0 -0.8064066697 0.0077286606 -7.904e-06 -9.0735e-06 2.92232e-05 0.0001297255 -0.0098477687 0.069813309
30299820.0 -0.8127254462 0.0149944811 -2.69424e-05 0.0002008874 -2.05008e-05 -8.63692e-05 0.0017528026 0.076410492
35299790.0 -0.8174527943 0.0246193177 -9.1533e-06 -0.0001074274 2.67334e-05 -1.534e-05 0.0133126823 0.0817531481
40299760.0 -0.8214958773 0.0335922388 -5.96164e-05 -8.57207e-05 7.69173e-05 -9.2709e-06 0.0245845906 0.0838279734
45299730.0 -0.8250272388 0.0426096186 5.2472e-05 0.0001316321 -8.8528e-06 -0.0001620961 0.0353027825 0.0854844828
50299700.0 -0.8274112187 0.0531453771 -6.2517e-06 0.0001862351 0.0001021992 -1.38869e-05 0.0451767443 0.0850446173
55299670.0 -0.8288690369 0.0632063128 0.0002790805 3.16281e-05 8.03165e-05 -0.0001165588 0.0545381511 0.0842960088
60299640.0 -0.8296247613 0.0737974751 -5.50992e-05 -0.0002112016 -0.0001071179 7.18736e-05 0.0631199111 0.0823842564
65299610.0 -0.8313264888 0.0831972471 8.10711e-05 -0.0001241375 0.0001051043 -0.0001009462 0.0706400188 0.0798852818
70299580.0 -0.831826656 0.0937095217 -0.0002231958 -8.58472e-05 6.1731e-06 0.0001506145 0.0776929945 0.0771248683
75299550.0 -0.8320815797 0.1040634748 2.50101e-05 -0.0001119626 2.32005e-05 -8.2594e-06 0.0842474273 0.073763483
80299520.0 -0.8320417028 0.1134490709 -0.0001719154 -9.99389e-05 0.0001013194 0.0002689113 0.089497797 0.0706021151
85299490.0 -0.8311387178 0.1223408217 0.0001666862 -5.19072e-05 -4.20354e-05 -7.03416e-05 0.0946362457 0.0665388489
90299460.0 -0.8302274587 0.1318993681 2.34893e-05 -3.90643e-05 1.11485e-05 -3.96754e-05 0.0994924466 0.0630198536
95299430.0 -0.8291189783 0.141759607 3.11654e-05 -5.99386e-05 0.0001396775 4.71155e-05 0.1031123667 0.0591480375
100299400.0 -0.8276964238 0.1510527766 -0.0001974205 -0.0001001769 -0.0001095688 4.95381e-05 0.1071007332 0.0550365712
105299370.0 -0.8269542095 0.1603664227 -0.0001364327 4.30269e-05 3.55951e-05 6.15186e-05 0.1105583401 0.0511191148
110299340.0 -0.8254504744 0.1694733768 1.76614e-05 -0.0001397996 -2.2836e-06 0.0001065808 0.1132616831 0.0473760236
115299310.0 -0.8239136049 0.1788782044 0.0001769355 7.23988e-05 -0.000114695 0.0001116509 0.1158758701 0.0434277374
120299280.0 -0.8224326944 0.1871191968 0.0002500856 -2.12514e-05 -4.65436e-05 0.000102061 0.1181306413 0.0394150129
125299250.0 -0.8206653933 0.1962952527 -8.95676e-05 -9.63308e-05 -7.27674e-05 -4.95208e-05 0.1201023977 0.0355639557
130299220.0 -0.8188331963 0.2053583393 1.77678e-05 0.0003656511 -7.31322e-05 4.01784e-05 0.1223092959 0.0317815832
135299190.0 -0.8166983681 0.214182356 2.51995e-05 -1.43053e-05 0.0002144594 0.0001930721 0.1238578883 0.0283560165
140299160.0 -0.8147293681 0.2231456856 -0.0001821539 -2.10346e-05 5.372e-06 0.0001508515 0.1249185506 0.0250551174
145299130.0 -0.8126238099 0.2320382129 -4.30613e-05 0.0002498273 0.0001024293 0.000198705 0.1258586134 0.0218566284
150299100.0 -0.8100079445 0.2408010676 -3.82234e-05 0.0001557671 3.79765e-05 -5.03401e-05 0.1271118014 0.0187737519
155299070.0 -0.8079151484 0.249696121 0.0001159849 2.26302e-05 2.0295e-06 0.0001846398 0.1281270568 0.015266015
160299040.0 -0.8051902049 0.2579832449 -1.2216e-05 0.0001196035 -9.18372e-05 7.6189e-06 0.1283510879 0.0125848879
165299010.0 -0.8028676973 0.2672117933 0.0004657562 6.70121e-05 -0.0001011446 -5.63822e-05 0.1291854357 0.00880402
170298980.0 -0.8002570973 0.2753907975 6.10283e-05 0.0001130934 -8.649e-05 0.0003319798 0.1296779096 0.0063146388
175298950.0 -0.7968889859 0.2840290832 -0.0001724702 2.6407e-05 3.67554e-05 0.0001880476 0.1296127344 0.003350535
180298920.0 -0.7938219035 0.2926719725 9.09908e-05 0.000227701 -6.44518e-05 1.19558e-05 0.1299819911 0.0004016365
185298890.0 -0.7912501363 0.3013220046 -2.9281e-05 6.0222e-05 7.31355e-05 -4.23046e-05 0.1304942266 -0.0023834261
190298860.0 -0.7885445021 0.3098867956 9.70473e-05 0.0003684443 5.056e-06 -4.65989e-05 0.1304088747 -0.0049243966
195298830.0 -0.7850656257 0.3179253706 0.0002465081 0.0001438794 8.81304e-05 0.0003891254 0.1300704626 -0.0075862111
200298800.0 -0.781445775 0.3259805053 3.29524e-05 5.90996e-05 -0.0001145436 1.03684e-05 0.1299261353 -0.0104746704
205298770.0 -0.7787532223 0.3342456657 0.0002486323 0.0001467056 0.0001919209 0.0001058985 0.1296477772 -0.0129459496
210298740.0 -0.7748645845 0.3424855212 0.0001757336 0.0001519016 0.0001505329 0.0001621164 0.1295899865 -0.0153768618
215298710.0 -0.7716024226 0.3503416905 -4.01038e-05 7.73993e-05 0.0001761246 0.0001554029 0.1288980954 -0.018058158
220298680.0 -0.7679465561 0.3587405247 1.72307e-05 -2.9245e-05 0.0001733344 0.0002296766 0.1283336028 -0.0203487532
225298650.0 -0.7642276622 0.3667759961 4.70472e-05 -4.76965e-05 0.0001849997 8.294e-07 0.1281679303 -0.0228468622
230298620.0 -0.7600685925 0.3746499687 0.0001327219 -8.18746e-05 9.36576e-05 0.0001747312 0.1275190143 -0.0249564128
235298590.0 -0.7559304024 0.3827040585 -0.0002302244 -0.0001521197 0.0001272309 0.0002665669 0.1273175219 -0.0271576299
240298560.0 -0.7526056435 0.3910123097 -1.53304e-05 0.0001027778 -2.16002e-05 2.40682e-05 0.1267004041 -0.0295658479
245298530.0 -0.7485303439 0.3986433087 -5.73e-05 -7.0063e-05 -0.0001140581 8.14309e-05 0.1258977762 -0.0320184591
250298500.0 -0.7443831504 0.4069298756 0.0001322638 5.123e-05 0.0002062655 0.0001181457 0.1251877557 -0.0339595425
255298470.0 -0.7397140627 0.4138467629 -6.2385e-05 0.000118503 6.73294e-05 6.20304e-05 0.1244650888 -0.0365594021
260298440.0 -0.7358995324 0.4218685638 8.19532e-05 8.06996e-05 7.4856e-06 0.0003612326 0.1242386331 -0.0383302687
265298410.0 -0.7315269903 0.4295876791 0.0001589123 -4.24073e-05 0.0002782219 6.33045e-05 0.1238071444 -0.040311454
270298380.0 -0.7265621271 0.4373280075 2.60287e-05 0.0002224889 5.20049e-05 9.81971e-05 0.1228421379 -0.0422917721
275298350.0 -0.722150455 0.4450402003 0.0001148634 7.6547e-06 6.1036e-05 4.16204e-05 0.1221726532 -0.0443132801
280298320.0 -0.7171293719 0.4523205295 -7.40781e-05 8.96197e-05 0.0001692009 8.47234e-05 0.1215418047 -0.0460613245
285298290.0 -0.7123836349 0.460030403 0.0001216375 9.07874e-05 8.24438e-05 0.0003062236 0.1209031513 -0.0480753042
290298260.0 -0.7076433406 0.4674821935 0.0003020146 -7.00837e-05 0.0001745074 -2.46497e-05 0.1200887986 -0.0499208648
295298230.0 -0.7025175557 0.4744069017 0.000104628 0.0001158697 -7.2779e-06 3.99594e-05 0.1197776627 -0.0518441388
300298200.0 -0.6976329802 0.4814679252 -1.09749e-05 -1.20964e-05 -3.76116e-05 0.0001878444 0.1182512231 -0.0534645116
305298170.0 -0.6926994071 0.4884054609 1.64872e-05 0.0002251216 0.0001096035 0.0001809464 0.1183690587 -0.0558249911
310298140.0 -0.6873533739 0.4962593146 -0.0001188031 -0.0001063083 0.0002306124 0.0003297702 0.1168868642 -0.0575286715
315298110.0 -0.682719483 0.5029459368 0.0004027403 5.19838e-05 0.0001194383 1.12332e-05 0.115794623 -0.0592450672
320298080.0 -0.6774659182 0.5099181747 -3.05836e-05 8.66051e-05 0.0001397273 0.0002230165 0.1151015211 -0.0611804437
325298050.0 -0.6717911762 0.517226238 7.78924e-05 -0.0001188603 0.0001308128 -6.87053e-05 0.1137513148 -0.0628731119
330298020.0 -0.6666286671 0.5242517209 8.88107e-05 6.0598e-05 0.0002618282 3.8885e-06 0.1122964264 -0.0643654672
335297990.0 -0.6607944986 0.5300979584 0.0001007303 0.0002518382 0.0001881874 0.0002213174 0.1109652141 -0.0652543358
340297960.0 -0.6555472413 0.537607797 3.40206e-05 3.54088e-05 0.0001993585 -1.56723e-05 0.1102982618 -0.0673310289
345297930.0 -0.6499663331 0.5440552856 3.85079e-05 8.2673e-05 0.0001541923 5.9929e-05 0.1090569514 -0.0686159401
350297900.0 -0.644526954 0.5511314851 0.0002250479 0.0002070205 2.18081e-05 0.0003229044 0.107685767 -0.0693108468
355297870.0 -0.6378643032 0.5580545707 4.25776e-05 -0.0001076146 9.36576e-05 0.000159501 0.1063531547 -0.0711254161
360297840.0 -0.6323736696 0.5635803293 -4.7781e-06 -0.0003048417 0.0003175996 0.0002407247 0.1052160969 -0.0720100832
365297810.0 -0.6273152833 0.5705002609 6.2733e-05 0.0002646071 0.0002159421 0.0002351973 0.1042008244 -0.0738377292
370297780.0 -0.621231441 0.5771883507 -8.46784e-05 -2.8618e-06 9.8468e-05 0.0002766091 0.1032735059 -0.0748152224
375297750.0 -0.6144531157 0.5832413445 0.0002443728 0.0001511398 0.000172099 0.0002492093 0.1015519296 -0.0764193347
380297720.0 -0.6088247186 0.5891463956 0.0001867221 0.0001509002 0.0001972098 0.0002103211 0.1003460401 -0.0773307879
385297690.0 -0.6034161914 0.5952756105 0.0003731054 -8.95805e-05 0.0002164672 0.0001233926 0.0991973695 -0.078161382
390297660.0 -0.5969177066 0.6013420389 0.0003890448 9.31688e-05 0.0001283891 0.0001347089 0.0976572631 -0.0796616154
395297630.0 -0.5901195686 0.6081586235 9.74525e-05 -3.4814e-05 0.0001886714 0.0004898361 0.0970296775 -0.0806069666
400297600.0 -0.5842710135 0.6138361634 0.0001591563 0.0001550156 0.0004056681 -5.9112e-06 0.0953859148 -0.0817350437
405297570.0 -0.5777863411 0.6200421828 0.0001686786 5.00474e-05 0.0001526182 -9.7524e-05 0.0940158879 -0.0830178977
410297540.0 -0.5712693843 0.6254932531 0.0001267231 0.0002691845 0.0003406909 0.0002129222 0.0930465389 -0.0841734248
415297510.0 -0.5643194241 0.6310414382 8.65786e-05 0.0001166583 0.0001561568 -6.95242e-05 0.0916724174 -0.0855193206
420297480.0 -0.5590672573 0.6373626467 0.0002492004 4.45686e-05 -3.99965e-05 0.0001913095 0.0903147934 -0.0865026385
425297450.0 -0.5518133584 0.6422486376 0.000120939 3.40148e-05 8.016e-07 0.0001727948 0.089286976 -0.0877519293
430297420.0 -0.5454769517 0.6485203174 0.0003669543 1.27964e-05 0.0001783818 -2.0899e-05 0.0876013825 -0.0888106932
435297390.0 -0.5390028664 0.6532831636 0.0003888697 0.0001763084 0.0002174443 0.0001449244 0.0865806619 -0.0896493369
440297360.0 -0.531589235 0.6592112398 0.0001226459 0.0001687677 0.0004217917 9.463e-05 0.0854980172 -0.0906326432
445297330.0 -0.5246291535 0.6644920344 0.0003504136 0.0001383109 0.0002753581 -0.0001400095 0.0843285499 -0.0921426438
450297300.0 -0.518368321 0.6692376828 0.0001107124 -0.0002105696 0.0001779019 0.0002832705 0.0826866587 -0.0925293728
455297270.0 -0.5112004913 0.6747402607 0.0001811086 1.86497e-05 4.88667e-05 0.0002770715 0.0813238418 -0.0939801228
460297240.0 -0.5052059909 0.6795424068 0.0001973598 0.0002011043 0.0001521422 0.0001566622 0.0800510924 -0.0944661469
465297210.0 -0.497207502 0.6853007079 9.1271e-06 -4.26868e-05 0.0002751073 6.07045e-05 0.0788456267 -0.0954574521
470297180.0 -0.4901788499 0.6896043728 0.0001370823 1.82678e-05 0.0001165428 0.0002929495 0.0776336837 -0.0960261039
475297150.0 -0.4834967104 0.6947280516 0.0001420443 0.0001083066 0.0003159055 0.0001614858 0.0763598111 -0.0973073305
480297120.0 -0.4764281677 0.6997529037 5.15592e-05 -1.13616e-05 9.88553e-05 0.0002984126 0.0752955774 -0.0979122916
485297090.0 -0.4694106909 0.7042199344 0.0002747882 -0.0001474809 0.0001409121 5.39841e-05 0.0742314729 -0.098509208
490297060.0 -0.4619459656 0.7085585325 0.0003347937 0.0001173865 0.0003286189 6.18189e-05 0.072537698 -0.099577529
495297030.0 -0.4553945955 0.7126493544 0.0003918511 0.0003239952 0.0003988258 0.0001818076 0.0710987316 -0.0998092707
500297000.0 -0.44756095 0.7179287364 0.000324075 -7.82935e-05 7.61411e-05 0.0001055756 0.0700413257 -0.1005999641
505296970.0 -0.4399620163 0.722445539 0.0002998162 0.0001059589 0.0001346437 -1.43072e-05 0.0683416077 -0.1016811988
510296940.0 -0.4328167089 0.7267693539 0.0003155105 0.0001101782 0.0002562225 5.56348e-05 0.0667868878 -0.1021398565
515296910.0 -0.4242368878 0.7301370485 0.0004250288 -7.74479e-05 0.0002956271 8.86666e-05 0.065724581 -0.1023880246
520296880.0 -0.4183412663 0.7357741063 0.0003169778 -2.61492e-05 0.0001393935 0.0002168446 0.0642461604 -0.1034098553
525296850.0 -0.4101892181 0.7391860131 8.68673e-05 -2.66947e-05 0.0003054478 0.0001576683 0.0629194422 -0.1036892133
530296820.0 -0.4027299351 0.7433284914 0.0004161386 0.0001757184 0.0002940716 0.0001087065 0.0614344695 -0.1045133434
535296790.0 -0.3959438069 0.7467451167 0.0003460694 3.97057e-05 0.0001704036 5.85571e-05 0.0597813999 -0.1050451752
540296760.0 -0.3877514217 0.7510730381 0.0001085043 0.0002119084 0.0001213955 0.0001034636 0.0583678779 -0.1053675424
545296730.0 -0.3805645197 0.755106709 8.98525e-05 0.0001054227 0.0002951766 0.0002407172 0.0568933831 -0.1061135638
550296700.0 -0.3730942124 0.7589202785 0.0002287693 0.0003931697 0.0002475453 -0.000121163 0.055218137 -0.1065035786
555296670.0 -0.364973888 0.7611976411 0.0002656941 -2.49338e-05 0.0004328787 9.52932e-05 0.0539607332 -0.1067429575
560296640.0 -0.3569598451 0.7657541638 0.0003697967 0.0002366951 0.0001615529 0.0001749256 0.0524736909 -0.107503741
565296610.0 -0.3497489455 0.7697464875 0.0001291564 4.59501e-05 0.0001601303 0.0001855854 0.0510296515 -0.1080078159
570296580.0 -0.3422624861 0.7725619681 7.90839e-05 0.0003475382 0.0003602776 1.61049e-05 0.0494432351 -0.1085082984
575296550.0 -0.3344289421 0.7767046078 0.0002307495 0.0003433352 0.0001618206 4.9761e-06 0.0479185729 -0.1087386293
580296520.0 -0.3258420229 0.7796153983 0.0005188632 -1.2772e-05 0.0003891285 0.0002274712 0.0466462581 -0.1093290836
585296490.0 -0.3183083644 0.7823213587 0.0003958319 -1.61208e-05 0.0002617252 -1.88786e-05 0.0453602735 -0.1097579433
590296460.0 -0.3107637642 0.7859971161 0.0001246515 5.4439e-05 0.0002292259 -1.18608e-05 0.0430995143 -0.1097714923
595296430.0 -0.30263586 0.7886405577 0.0001080785 -0.000101008 0.0003175956 0.0001344321 0.0420136516 -0.1105426491
600296400.0 -0.2946591089 0.7914410339 0.0003336929 -5.81506e-05 0.0003477763 0.0001632657 0.0407511897 -0.1111578376
605296370.0 -0.287663634 0.7945792712 0.0003643505 0.0001408177 0.0003133026 -1.97839e-05 0.0392120198 -0.1114218509
610296340.0 -0.2788855337 0.7972585336 0.0002939869 9.8729e-06 0.0003027137 0.0001495219 0.0378393161 -0.1115132731
615296310.0 -0.2703212408 0.7999667215 0.0004436642 0.0001462191 0.0001629255 0.0001204354 0.036582905 -0.1120951443
620296280.0 -0.2629401163 0.8018848293 0.0003894661 -5.49526e-05 0.0003503409 -3.50739e-05 0.0350970335 -0.1122010451
625296250.0 -0.2551109032 0.8054329819 0.0003377154 3.39623e-05 7.79684e-05 0.0001775704 0.033749403 -0.1126253378
630296220.0 -0.2457780155 0.8079210011 0.0004561839 0.0002165386 0.0003393777 3.59331e-05 0.0323989454 -0.1125327512
635296190.0 -0.2384949358 0.8101617735 0.000292839 6.55934e-05 0.0001825363 2.38995e-05 0.0307854654 -0.1129057858
640296160.0 -0.2310591954 0.812007228 0.0002977584 8.361e-05 3.22802e-05 0.0002532181 0.0295461294 -0.1133899613
645296130.0 -0.2221738807 0.8150599563 0.0003962523 0.0001105198 0.0005957957 0.0001145374 0.0281052097 -0.1129656868
650296100.0 -0.2141342125 0.8166259746 0.0003198458 0.000146879 0.0003829473 0.0001733375 0.0266456828 -0.1133915702
655296070.0 -0.2059853552 0.8186922256 0.0004850799 -2.3425e-06 0.0003449093 0.0001563122 0.0255144447 -0.1132646993
660296040.0 -0.1978979304 0.8204658233 0.0004537469 4.16072e-05 0.0002048975 4.00014e-05 0.0240275793 -0.1134482351
665296010.0 -0.1895541512 0.8220872273 0.0004026941 8.03149e-05 0.0004290406 -0.0001305943 0.022609889 -0.1136089331
670295980.0 -0.1815071186 0.8248319352 0.0005928103 -2.8811e-06 0.0003124059 -5.5583e-05 0.0210349143 -0.1133159592
675295950.0 -0.1730322065 0.8263175339 0.0004810287 0.0001144612 0.0002679441 -1.80599e-05 0.0192854313 -0.1131516677
680295920.0 -0.1649740812 0.8276774848 0.0002389962 0.0002048556 0.000234447 0.000156629 0.0184339934 -0.1132844126
685295890.0 -0.1564028588 0.8296812115 0.0002174405 5.1517e-06 0.0002070575 0.0001224537 0.0168345117 -0.1132607842
690295860.0 -0.1490667843 0.8308119657 0.0002782287 -8.0127e-06 0.0003536946 4.59404e-05 0.0150787053 -0.1129798166
695295830.0 -0.1406188814 0.8320615166 0.000377403 0.0001617623 0.0002497675 6.37546e-05 0.0136933046 -0.1126919754
700295800.0 -0.132197746 0.8337999009 0.0003492712 3.18309e-05 0.0004170672 7.45859e-05 0.0121376213 -0.1128886008
705295770.0 -0.1239563763 0.8351611571 0.0003817829 -2.48349e-05 0.0004561138 1.28934e-05 0.0110117429 -0.1122222555
710295740.0 -0.115419095 0.8365478072 0.0002632381 -7.41924e-05 0.0002364211 -0.0001693396 0.0090324433 -0.112552789
715295710.0 -0.1071584219 0.8370965156 0.0003766796 1.44875e-05 0.0002142168 5.48723e-05 0.0077011433 -0.1125321671
720295680.0 -0.0989747158 0.8382000419 0.0003953891 1.31532e-05 0.0005139619 0.0001466341 0.0066199984 -0.1122913052
725295650.0 -0.0905564784 0.839085712 0.0004250719 0.0001900472 0.0003608793 -0.0002622839 0.004827317 -0.1116551727
730295620.0 -0.0820823415 0.8404701936 0.0006502014 -4.21643e-05 0.000500787 -5.03708e-05 0.0031486788 -0.1119359094
735295590.0 -0.0744508608 0.8409579174 0.0001396898 0.0001932039 0.0003594889 8.6081e-05 0.0014342514 -0.1121542355
740295560.0 -0.0653301756 0.8419743438 0.0003367465 -0.0001675339 0.0003721074 -0.0001108691 0.0004415953 -0.1113492014
745295530.0 -0.0575004673 0.8425007354 0.0002058136 0.000106633 0.0007054727 -0.0002148578 -0.0010936136 -0.1114726239
750295500.0 -0.0485041534 0.842439698 0.000238881 5.96501e-05 0.000348259 -0.0001130443 -0.0024288765 -0.1109836159
755295470.0 -0.0404814334 0.8431490041 0.000508989 -4.75656e-05 0.0001726924 0.0002004705 -0.0038672021 -0.1114868644
760295440.0 -0.0322504572 0.8431609257 0.000455192 -0.0001924596 0.000528961 -0.000133022 -0.0052699449 -0.1111269477
765295410.0 -0.0237934903 0.8439529479 0.000406744 -0.0002185572 0.0002451358 -4.2643e-05 -0.0063932484 -0.1103896509
770295380.0 -0.0156744248 0.8440668288 0.0003198925 -3.9166e-06 0.0002639789 -7.97339e-05 -0.008311878 -0.1101644984
775295350.0 -0.0071354476 0.8437064674 0.0003732842 8.45845e-05 0.000615283 -8.75471e-05 -0.0098930566 -0.1099751881
780295320.0 0.0011774908 0.8439550381 0.0004509186 -0.0001174782 0.0003907247 -0.0001118208 -0.0109692649 -0.1095502523
785295290.0 0.0092278732 0.8434771346 0.0005630142 1.70765e-05 0.0001673712 -0.0001542295 -0.01172734 -0.1093929508
790295260.0 0.0184437047 0.8434070255 0.0004448462 -0.0003104985 0.0003052252 -0.0002574223 -0.013463985 -0.1091443797
795295230.0 0.0259988602 0.843618356 0.000141566 -0.0001158884 0.0002378429 -0.0003020543 -0.0147911947 -0.1085647052
800295200.0 0.0344178472 0.8430696545 0.0003526408 -0.0001551498 0.0003337141 -0.0001692435 -0.0164433006 -0.1077713213
805295170.0 0.04292774 0.8429582693 0.0004034251 -0.0001046273 0.0003477628 -0.0001582015 -0.017540072 -0.1078792874
810295140.0 0.0514083503 0.842422858 0.0004679308 -0.0003474045 0.0004055896 5.82263e-05 -0.0183320231 -0.1074507602
815295110.0 0.0590536279 0.8418090907 0.0002920074 -8.66392e-05 0.0004763069 3.75575e-05 -0.0196881409 -0.1072202063
820295080.0 0.0674768382 0.8414307922 0.000400042 -8.80942e-05 0.0001709954 -0.0001486408 -0.0207956749 -0.1063682888
825295050.0 0.0768440344 0.840518758 0.0003406344 1.38023e-05 0.000453291 -0.0002986976 -0.0224706024 -0.1062771874
830295020.0 0.0844843349 0.84002409 0.0004070578 -9.54155e-05 0.0003868216 -0.0001755511 -0.0234060428 -0.1052963221
835294990.0 0.092215522 0.8388310567 0.0005675578 1.23749e-05 0.0004008602 -7.63086e-05 -0.0251059411 -0.1047124048
840294960.0 0.1004374643 0.8376738708 0.0003557215 -0.0002252221 0.0003470851 -0.0001896965 -0.0262915389 -0.1042391838
845294930.0 0.1090737714 0.8370086495 0.00050848 -7.07055e-05 0.0004373812 -7.76543e-05 -0.0275238708 -0.1035729935
850294900.0 0.1169819256 0.8363236751 0.0002688666 -0.0002734609 0.0003844858 8.7842e-05 -0.0290625618 -0.102441654
