!Created with skrf (http://scikit-rf.org).
# Hz S RI R 50.0 
!freq ReS11 ImS11 ReS21 ImS21 ReS12 ImS12 ReS22 ImS22
300000.0 -0.243023284 -0.0910498418 0.472888802 0.0603293831 0.4702290279 0.0570911646 -0.2388294382 -0.0970935471
5299970.0 -0.2449546586 0.0062759677 0.4749616916 0.0051153592 0.4749796318 0.0053303423 -0.241256137 0.0073552799
10299940.0 -0.2417805846 0.0178543061 0.4769610252 0.0060769905 0.4766684624 0.0062076133 -0.2377913169 0.0204208207
15299910.0 -0.2372041633 0.0265513184 0.4801414516 0.007416905 0.4807307307 0.0075021654 -0.233132328 0.0301168871
20299880.0 -0.2329597027 0.0340152858 0.4852287651 0.0078826669 0.4851103612 0.007858838 -0.227969455 0.0382080519
25299850.0 -0.2279410689 0.0402266425 0.4902865179 0.0070070929 0.4898002687 0.0071590761 -0.2220318127 0.0447334056
30299820.0 -0.222425175 0.0450628116 0.4953975256 0.0049036458 0.4954221401 0.0049079063 -0.2159000144 0.0500925153
35299790.0 -0.2176800746 0.0490173915 0.5009881489 0.0016207817 0.5009745873 0.0016754007 -0.210372748 0.054607762
40299760.0 -0.2128191152 0.0523706934 0.5056927245 -0.0023049773 0.505924176 -0.002177616 -0.2054601476 0.0571803599
45299730.0 -0.2080460293 0.0548441334 0.5102984534 -0.007006364 0.5108877523 -0.0066952528 -0.2001405012 0.060411152
50299700.0 -0.2041212797 0.0568605396 0.5153042904 -0.0128181874 0.5150140193 -0.0121788397 -0.1956029286 0.0625753382
55299670.0 -0.1999610183 0.0582897233 0.5183516579 -0.0189158316 0.5184008058 -0.0183858451 -0.1913622035 0.064167646
60299640.0 -0.1963131906 0.0598403366 0.521825329 -0.0245078565 0.5219625044 -0.0244767863 -0.1873813904 0.0652093143
65299610.0 -0.193016374 0.0610891737 0.5246781329 -0.0313474101 0.5251090712 -0.0307676864 -0.1841929786 0.066889788
70299580.0 -0.1898756518 0.0621059405 0.52723579 -0.0381065966 0.5270336003 -0.0376999544 -0.180820701 0.0675983997
75299550.0 -0.1871763325 0.0631176556 0.5289228942 -0.0447442453 0.5287902354 -0.0446871256 -0.1780350088 0.0682309662
80299520.0 -0.1848312722 0.0637775534 0.5310555397 -0.0511474886 0.5309404642 -0.0512435212 -0.1750358678 0.0690682896
85299490.0 -0.1823948806 0.0643493185 0.5322048783 -0.0580233352 0.531968958 -0.0580589657 -0.172685462 0.0697795024
90299460.0 -0.1804233977 0.0647625079 0.5328762875 -0.0651790908 0.5333546672 -0.0653129267 -0.1703788636 0.0704571183
95299430.0 -0.1778920486 0.0652198651 0.5340909318 -0.072263223 0.5340120861 -0.0722366258 -0.1679996818 0.0713667773
100299400.0 -0.1766536877 0.0663456098 0.5340300459 -0.0788570474 0.5342643273 -0.079383761 -0.166092809 0.0716832852
105299370.0 -0.1749703045 0.066861672 0.5342456831 -0.0858640363 0.5347033805 -0.085944195 -0.1639860056 0.0724921602
110299340.0 -0.1733846901 0.0673020397 0.5351906838 -0.0925732789 0.5347206178 -0.0923514032 -0.1629594647 0.0730148761
115299310.0 -0.1719405011 0.0682557772 0.5348823287 -0.0996622917 0.5346699464 -0.0995612623 -0.1609644806 0.0737537949
120299280.0 -0.1705978336 0.0685914536 0.5344381427 -0.1065787319 0.534860176 -0.106367063 -0.1597024979 0.0743229477
125299250.0 -0.1696422646 0.0693421755 0.5342105117 -0.1128620237 0.5341781423 -0.1127294961 -0.1584094035 0.0751833088
130299220.0 -0.1686327806 0.0703097141 0.5332014752 -0.1197549657 0.5333129429 -0.1195010639 -0.1569584653 0.0757368645
135299190.0 -0.1676049914 0.0713454505 0.5329897332 -0.1266014262 0.53311185 -0.1260611052 -0.1557260688 0.0769620506
140299160.0 -0.1669262145 0.0720607739 0.5321404945 -0.1330405503 0.5321438197 -0.1332291409 -0.1545595777 0.0782782342
145299130.0 -0.1657118287 0.0728708399 0.5311047349 -0.1394081989 0.530878462 -0.1392246264 -0.1535119968 0.0790121485
150299100.0 -0.1645419739 0.0739444323 0.5298290333 -0.1455962912 0.5298141999 -0.14561955 -0.1523819095 0.0802826445
155299070.0 -0.1639805509 0.0745510962 0.5293031727 -0.1530035404 0.5287751801 -0.1526115689 -0.1513097145 0.0813422744
160299040.0 -0.1629609125 0.076027625 0.5273144837 -0.1592517147 0.5275308914 -0.1591628572 -0.1508195162 0.0824442179
165299010.0 -0.162320253 0.0768456027 0.5261720437 -0.1656480644 0.5258896146 -0.1657131671 -0.1494180967 0.0834364687
170298980.0 -0.1612468516 0.0778420518 0.5240878603 -0.1717846064 0.5243758587 -0.1716226556 -0.1483306961 0.0846803021
175298950.0 -0.1607498985 0.0791315896 0.523239135 -0.1777673423 0.5227683679 -0.177899725 -0.1478130311 0.0860173707
180298920.0 -0.1602128104 0.0800340332 0.5213542886 -0.1842489233 0.5208292898 -0.1840950527 -0.1464512696 0.0871684739
185298890.0 -0.1589324251 0.0810640092 0.5191158897 -0.1904367132 0.5189813274 -0.1906183007 -0.1456387545 0.0886248086
190298860.0 -0.1584383391 0.0823983591 0.517618005 -0.197258319 0.5176114488 -0.1966141982 -0.1450286986 0.0897464805
195298830.0 -0.1577782425 0.0834068785 0.5153519869 -0.2029481637 0.5154392963 -0.202942698 -0.143696677 0.0910143562
200298800.0 -0.1566423169 0.0846216112 0.5129702673 -0.2095076355 0.5134907731 -0.2091329443 -0.1432837248 0.0925395357
205298770.0 -0.1558269525 0.0858885089 0.5107369865 -0.2153479574 0.5108724921 -0.2146664006 -0.14219116 0.0932301773
210298740.0 -0.1553595933 0.0869035987 0.5087188399 -0.2205481703 0.5087842836 -0.2205751972 -0.140732254 0.0953095374
215298710.0 -0.1552127848 0.088411251 0.5067146271 -0.226925615 0.5064480846 -0.2270020597 -0.1405482041 0.0965202258
220298680.0 -0.1539917645 0.0893197613 0.5038118297 -0.2326823298 0.5039410349 -0.2329610243 -0.1397148968 0.0974260529
225298650.0 -0.1533633121 0.0909090552 0.5015456377 -0.2387325674 0.5016840588 -0.2385736477 -0.1389930507 0.0988252671
230298620.0 -0.1525896962 0.0923398593 0.4990977366 -0.2442201029 0.4996129888 -0.2443251302 -0.1380072529 0.1001923052
235298590.0 -0.1515263004 0.0937723467 0.496287118 -0.2503247091 0.4965861876 -0.2496607289 -0.1368287027 0.1015224505
240298560.0 -0.1511527023 0.0951218799 0.4939052241 -0.2558666492 0.493943368 -0.2563125956 -0.1357293457 0.1034983249
245298530.0 -0.1503751733 0.0963061061 0.4913509137 -0.2615132673 0.4909796658 -0.2614190289 -0.1347414076 0.1040674567
250298500.0 -0.1492733445 0.09771389 0.4876135895 -0.2675191748 0.4875777117 -0.2667743004 -0.1340892194 0.1055848253
255298470.0 -0.1486079532 0.0985814183 0.484729969 -0.2722922958 0.4850787269 -0.2725865465 -0.132838353 0.1066729823
260298440.0 -0.147813012 0.0999908883 0.4821702771 -0.2784354202 0.4826063906 -0.2781727133 -0.1315853563 0.1083648188
265298410.0 -0.1466713796 0.1017254019 0.47914667 -0.284031009 0.4796841446 -0.2835211117 -0.1303850265 0.1096330106
270298380.0 -0.1458606371 0.1029972947 0.4764026051 -0.2888869486 0.4761554287 -0.2892023711 -0.129646966 0.1112774868
275298350.0 -0.1448803555 0.1043426866 0.4729526751 -0.2945032335 0.4733451335 -0.2944565426 -0.1280953709 0.1122574296
280298320.0 -0.1438947061 0.1058543143 0.4698774356 -0.3003698815 0.4701104348 -0.2997474478 -0.1269925081 0.1133748835
285298290.0 -0.1432172617 0.1073401069 0.4667461258 -0.3054912214 0.4664726399 -0.3051023222 -0.1255928726 0.1149995364
290298260.0 -0.1420181596 0.1084805571 0.4628626815 -0.310348763 0.4636742103 -0.3104350793 -0.1242846184 0.1165920726
295298230.0 -0.140974193 0.1097604962 0.4599942838 -0.3158431863 0.4601504336 -0.3156016318 -0.1227827791 0.1178451833
300298200.0 -0.1403051148 0.1110903227 0.4565709558 -0.3205530072 0.4568285714 -0.3212725277 -0.1216440006 0.1191656493
305298170.0 -0.1389533029 0.1121615 0.4527596652 -0.3264980231 0.4527572443 -0.3265540122 -0.119979369 0.1204891932
310298140.0 -0.1382139468 0.1136103797 0.4495458717 -0.3313313973 0.4498070663 -0.3313411074 -0.1189086986 0.121564191
315298110.0 -0.1371018725 0.1146244794 0.4458452433 -0.3364108713 0.4459288901 -0.336862699 -0.1175934109 0.1227030588
320298080.0 -0.1357804111 0.1161383938 0.4413745114 -0.3421301594 0.4419864499 -0.3416159302 -0.116451589 0.124180946
325298050.0 -0.1350672533 0.1170655006 0.4378899553 -0.346911215 0.4382679975 -0.3465179111 -0.115323103 0.125566163
330298020.0 -0.1341744975 0.1181697304 0.4338916187 -0.3516622842 0.4344895194 -0.351910032 -0.1142248612 0.126645556
335297990.0 -0.1330517416 0.1192953962 0.4300943087 -0.3562373259 0.4299532428 -0.3568857268 -0.113393461 0.1285795471
340297960.0 -0.1325946186 0.1212071505 0.4261885034 -0.3611935118 0.4257890142 -0.3616356193 -0.1115146721 0.1298469769
345297930.0 -0.1315711398 0.1227601379 0.4218199909 -0.3659016622 0.4218631925 -0.3661092674 -0.1103149724 0.1307853722
350297900.0 -0.130720199 0.1238339796 0.417570623 -0.3705848369 0.4176214127 -0.3705064197 -0.1096832589 0.132587431
355297870.0 -0.1294211863 0.1256265111 0.4133213662 -0.3755861401 0.4138833466 -0.3751911762 -0.1083058273 0.1338026176
360297840.0 -0.1280394196 0.1268230879 0.4097310566 -0.3797840325 0.4101441513 -0.3797055057 -0.1066647362 0.1357268983
365297810.0 -0.1274270817 0.1285910011 0.4055380132 -0.3843923088 0.4056893513 -0.3846424919 -0.1051895074 0.1367212822
370297780.0 -0.1258969033 0.1296209343 0.4004804788 -0.388889671 0.4012737969 -0.3883735737 -0.1038263084 0.1381059672
375297750.0 -0.1243803436 0.1306661251 0.3964778265 -0.3931239116 0.3975621942 -0.3930100536 -0.1026202304 0.1392842247
380297720.0 -0.1234631302 0.1322232998 0.3921785064 -0.3978984363 0.3928761426 -0.3968387362 -0.1015342411 0.1406024831
385297690.0 -0.1225083422 0.1334919837 0.3875457195 -0.4015690608 0.3878455907 -0.4015636442 -0.0997643366 0.1420392182
390297660.0 -0.1212352514 0.1349906059 0.3836064508 -0.4061523389 0.3834864794 -0.405485861 -0.0984829172 0.1430387216
395297630.0 -0.1199883069 0.1363299099 0.3791625516 -0.4103891248 0.3789112312 -0.4102043866 -0.0961340506 0.1438613394
400297600.0 -0.118705799 0.1377026337 0.3740217875 -0.4149556446 0.3748209501 -0.4145593525 -0.0950288603 0.1457573825
405297570.0 -0.1176896252 0.1388434366 0.3700033346 -0.4179917215 0.3699689238 -0.4177950818 -0.093519968 0.1467992866
410297540.0 -0.1162090923 0.1401217192 0.3656202691 -0.4223250935 0.3658373093 -0.4220444369 -0.0921299449 0.1482066499
415297510.0 -0.1144474665 0.1412090618 0.3603905661 -0.426650337 0.361121336 -0.4263118158 -0.0905943297 0.1494777879
420297480.0 -0.1135438389 0.1427867079 0.3560757007 -0.4303838237 0.3560694921 -0.4302344692 -0.0889490019 0.1502975549
425297450.0 -0.1119497986 0.1438762551 0.3515059648 -0.4340528598 0.3516562733 -0.4342393256 -0.0876350292 0.1514990282
430297420.0 -0.1107683883 0.1447270438 0.3466148567 -0.4373782731 0.3470395683 -0.4378450138 -0.0861372835 0.1523792764
435297390.0 -0.1095772487 0.1459484056 0.3414302098 -0.4417759512 0.3415295314 -0.4418273335 -0.08346067 0.1536979973
440297360.0 -0.107691981 0.1476097896 0.3370465535 -0.4456580514 0.3371432209 -0.4452753694 -0.0823200553 0.1545572872
445297330.0 -0.1064766176 0.1482669334 0.3321716835 -0.4490014565 0.3322189761 -0.4489827837 -0.0807737924 0.1551724574
450297300.0 -0.1050955412 0.1493784633 0.327191816 -0.4525477687 0.3270548595 -0.4530602696 -0.0791533099 0.155899119
455297270.0 -0.1039452153 0.1505180436 0.3219322029 -0.4561086522 0.3221303035 -0.4559548997 -0.0771956399 0.1573175211
460297240.0 -0.1023258985 0.1518115961 0.3172586585 -0.4596543229 0.3172688488 -0.4594778127 -0.0754718853 0.1583348429
465297210.0 -0.1006924088 0.1532354506 0.3122917032 -0.4632159073 0.312274388 -0.4633561415 -0.0733616567 0.158840097
470297180.0 -0.0991734811 0.1540663547 0.3068732846 -0.4667932871 0.3067487047 -0.466417557 -0.0717757657 0.160322621
475297150.0 -0.0977738473 0.1550564013 0.3018831733 -0.4691696196 0.3020587569 -0.4691901185 -0.0695907472 0.1608634991
480297120.0 -0.0962451052 0.1564285391 0.2969366633 -0.4729455945 0.2966506373 -0.4733196653 -0.0677701658 0.1621535908
485297090.0 -0.0949766114 0.157339548 0.2919563124 -0.4761085628 0.2916982673 -0.4759555202 -0.066105375 0.1629689318
490297060.0 -0.0938899856 0.1584608956 0.2866748039 -0.4793436854 0.2869768416 -0.4789117966 -0.0643511889 0.1640581058
495297030.0 -0.0922035574 0.1596771656 0.2811482148 -0.4821346017 0.2816132925 -0.4821564812 -0.0628407487 0.1648575929
500297000.0 -0.0904412166 0.1603004641 0.2758795106 -0.4847977191 0.2756181011 -0.4850870227 -0.0604915851 0.1662027805
505296970.0 -0.0888151429 0.1612116559 0.2706620752 -0.4881314649 0.2704253685 -0.4883266674 -0.0589813533 0.1666644346
510296940.0 -0.0872568337 0.1623549041 0.2651014181 -0.4912430127 0.2650994938 -0.4911055408 -0.0568548491 0.1678354038
515296910.0 -0.0856725988 0.1635107002 0.259610357 -0.4940391618 0.2600232137 -0.4939388018 -0.0550321241 0.1685337423
520296880.0 -0.0843377085 0.1644917656 0.2545584012 -0.4969316672 0.2544589551 -0.4963911246 -0.0534200825 0.1692897078
525296850.0 -0.0823407261 0.1650165994 0.249007878 -0.4991434358 0.2494572043 -0.4992517413 -0.0515949288 0.169972216
530296820.0 -0.0808707035 0.166312348 0.2436192007 -0.5020643737 0.2436597344 -0.5023633027 -0.0495696849 0.1709822114
535296790.0 -0.0797546627 0.1673825481 0.2385181195 -0.5047810583 0.2384935567 -0.5042369346 -0.0480515631 0.1711443604
540296760.0 -0.07784303 0.1682687163 0.2328637107 -0.5077619046 0.2329682182 -0.5075716054 -0.0463454626 0.172348992
545296730.0 -0.0762544512 0.1690808896 0.2270579148 -0.5096661407 0.2272828354 -0.5095581372 -0.0444158082 0.172619105
550296700.0 -0.0742370472 0.1701073831 0.2211654157 -0.5119060489 0.2215258218 -0.5123971958 -0.0427292852 0.173745628
555296670.0 -0.0728429979 0.1706145425 0.2159961412 -0.5146144852 0.2162096325 -0.514359811 -0.040440314 0.1743158599
560296640.0 -0.0709722974 0.1718287661 0.2104264048 -0.5168943523 0.2106641495 -0.5167906213 -0.0387882407 0.1747601263
565296610.0 -0.0699648508 0.1724425596 0.2046912325 -0.5189565364 0.2049752047 -0.518725577 -0.0367825107 0.1750683906
570296580.0 -0.0682361135 0.1732439665 0.1990040986 -0.521797025 0.198919876 -0.5211588417 -0.0349444909 0.1763454957
575296550.0 -0.0665308334 0.1743817736 0.1934591744 -0.5233830636 0.1933252948 -0.5234353573 -0.032911387 0.1763696162
580296520.0 -0.0646728226 0.1753059203 0.1878137727 -0.5257840115 0.1878964333 -0.5256977624 -0.0309634605 0.1768999168
585296490.0 -0.0631074891 0.1754973641 0.1821664957 -0.5271858709 0.1825112554 -0.5274868341 -0.0291257312 0.1774671098
590296460.0 -0.0614474652 0.1765434203 0.1764325511 -0.5288996341 0.1764518608 -0.5292242165 -0.02759585 0.1778253122
595296430.0 -0.0590753678 0.1772970946 0.170129977 -0.5314283689 0.1708280884 -0.5306846051 -0.0254343618 0.1779443699
600296400.0 -0.0580800545 0.1777270723 0.1647987717 -0.533263993 0.1647605114 -0.5324579436 -0.0233622362 0.17834093
605296370.0 -0.0562076577 0.1785486835 0.1588113326 -0.5347527651 0.1592061445 -0.5346770664 -0.0212164827 0.1788949967
610296340.0 -0.0545114885 0.1791971472 0.1527167428 -0.5362499845 0.1532983717 -0.5364851153 -0.0191369767 0.1791846849
615296310.0 -0.0521682487 0.1797328767 0.1469906398 -0.5374736233 0.1472112629 -0.5380552679 -0.0168954193 0.1793953583
620296280.0 -0.0509705505 0.1802669406 0.1415189429 -0.5393873482 0.1413690248 -0.5394180757 -0.0154742301 0.1799772199
625296250.0 -0.0493545081 0.1808163992 0.1360895226 -0.5412106009 0.1357220695 -0.5409844955 -0.0127489547 0.1801842051
630296220.0 -0.0465521082 0.1814486503 0.1292841727 -0.5424122743 0.1292998426 -0.5423650738 -0.0110320544 0.1807545235
635296190.0 -0.0457951112 0.181993326 0.1239852958 -0.5434780513 0.1240891188 -0.5436782463 -0.0088883503 0.180745818
640296160.0 -0.0443389915 0.182809003 0.1182255739 -0.5451299722 0.1182999209 -0.5448864473 -0.0067850824 0.1810023357
645296130.0 -0.0422045286 0.1834213433 0.111950513 -0.5459035324 0.1127453273 -0.5458935109 -0.0046604898 0.1814392781
650296100.0 -0.0402839436 0.1836930797 0.1060821084 -0.547061995 0.1064680679 -0.54689413 -0.0025679967 0.180771846
655296070.0 -0.0389012419 0.1843767161 0.1005094806 -0.5483608279 0.1005278727 -0.5484294258 -0.0006179645 0.1814434731
660296040.0 -0.037143057 0.184480209 0.0943179571 -0.5490468327 0.0946172423 -0.5496737686 0.0017383304 0.1815678727
665296010.0 -0.0347617216 0.1850028928 0.0881296252 -0.5500783702 0.0886127654 -0.5501970597 0.0035791062 0.1823795032
670295980.0 -0.0340581798 0.1857966362 0.082826612 -0.5508761455 0.08281413 -0.5507973809 0.0052815283 0.182334621
675295950.0 -0.0317523004 0.1864754679 0.0770020484 -0.5516713511 0.0767621939 -0.5516361932 0.007318234 0.1824846454
680295920.0 -0.0299845642 0.1864536052 0.0702128945 -0.5523399792 0.0701237264 -0.5532357865 0.0096044322 0.1829400894
685295890.0 -0.0281016915 0.187643578 0.0648841618 -0.5535180419 0.0646987768 -0.553344544 0.0112266155 0.1826788322
690295860.0 -0.026082261 0.1878330892 0.0588859065 -0.5537196076 0.0585801639 -0.554383953 0.0136260847 0.1833126136
695295830.0 -0.024139953 0.1880828916 0.0534575327 -0.554513642 0.0527274454 -0.554543153 0.0152586808 0.1830672336
700295800.0 -0.0222946399 0.1880983474 0.046415757 -0.554682434 0.0465351657 -0.5549237836 0.0171414736 0.1832471421
705295770.0 -0.0207893906 0.1891669058 0.0404246504 -0.5551409697 0.0409247075 -0.5555881809 0.0193800993 0.1834548611
710295740.0 -0.0188215965 0.1893165485 0.0347882498 -0.5564162588 0.0353241837 -0.5563200513 0.0215281803 0.1827828422
715295710.0 -0.0173632051 0.1892849684 0.0290502724 -0.5564216518 0.0284417091 -0.5560818196 0.0234764375 0.1829741142
720295680.0 -0.0155480717 0.1897869692 0.0229535496 -0.5567218944 0.0231926871 -0.5562506856 0.0255530854 0.1829761105
725295650.0 -0.0134247642 0.190002153 0.0168534966 -0.5566375895 0.0170061804 -0.5570242555 0.0267774137 0.1831144788
730295620.0 -0.0111126172 0.1906716085 0.0103910897 -0.5563844698 0.0110552193 -0.5568630786 0.0288534439 0.1823661452
735295590.0 -0.0095427101 0.1911379885 0.0049356984 -0.5569461764 0.0046888055 -0.5565519594 0.0311212532 0.1821231281
740295560.0 -0.0078219042 0.1911054975 -0.0012883226 -0.5569405623 -0.0009689854 -0.5569530926 0.0334295716 0.1824436329
745295530.0 -0.0060380763 0.1914812738 -0.0075765579 -0.5562688066 -0.0071490404 -0.55698498 0.0350340261 0.1816517335
750295500.0 -0.003858396 0.1914949594 -0.0131768069 -0.5561828452 -0.0130622859 -0.5564649382 0.0373371422 0.1814679575
755295470.0 -0.0020355674 0.1914884738 -0.0188453239 -0.5563652115 -0.019097834 -0.5563674468 0.0397918277 0.1808932311
760295440.0 -0.0003690212 0.191935262 -0.0247608884 -0.5566949698 -0.0250690136 -0.5565154316 0.0413335234 0.1805662752
765295410.0 0.0013894123 0.1920296191 -0.0314518548 -0.5557949885 -0.0313522038 -0.5557755219 0.0436231586 0.1805878805
770295380.0 0.0030961101 0.1917548643 -0.0373755723 -0.5554160368 -0.0369022913 -0.5552241634 0.0454524751 0.1800201314
775295350.0 0.0047441486 0.1917537175 -0.043439364 -0.5546588062 -0.0428165368 -0.5550366941 0.046682598 0.1797671404
780295320.0 0.0069085997 0.1920482314 -0.0494452061 -0.5539267827 -0.0486009293 -0.5540725826 0.0489003466 0.1790016645
785295290.0 0.0082793675 0.1915660555 -0.0554490652 -0.5531805768 -0.0550842059 -0.5539168362 0.0514756725 0.17895136
790295260.0 0.0109989291 0.192406703 -0.0605118875 -0.5532174742 -0.060124012 -0.5525949352 0.0534608252 0.1783246517
795295230.0 0.0126272281 0.1921192143 -0.0666859955 -0.5524231767 -0.0664407377 -0.55250656 0.0556835055 0.1782256119
800295200.0 0.0141238901 0.1923915099 -0.073373112 -0.5512793893 -0.0728714914 -0.5514202928 0.0574241105 0.177472294
805295170.0 0.0163421523 0.1919797451 -0.0787381009 -0.550532361 -0.0786678325 -0.5509268236 0.0595776747 0.177179773
810295140.0 0.0180417596 0.1918170474 -0.0846452151 -0.5496627606 -0.0843458883 -0.549675625 0.0619443492 0.1766151126
815295110.0 0.0199911992 0.1915923194 -0.0906715855 -0.5482750337 -0.089969654 -0.5486885297 0.0635606915 0.1764863304
820295080.0 0.0216564324 0.192229799 -0.0962670452 -0.5477707218 -0.0959240402 -0.5476479999 0.0654366555 0.1757123163
825295050.0 0.0242302403 0.1918636871 -0.1018709998 -0.5465909914 -0.1022351675 -0.5468688056 0.0677719919 0.1750600379
830295020.0 0.0256695006 0.1920175008 -0.1085253786 -0.5453920937 -0.1081765311 -0.5453487542 0.0699464487 0.1744910707
