!Created with skrf (http://scikit-rf.org).
# Hz S RI R 50.0 
!freq ReS11 ImS11 ReS21 ImS21 ReS12 ImS12 ReS22 ImS22
300000.0 -0.7698166967 -0.1797173236 -5.8738e-05 0.0002433758 -0.0005462748 0.0008621899 0.8590783162 -0.0022551567
5299970.0 -0.7861875345 -0.009196862 -4.0904e-06 -4.42357e-05 1.11297e-05 9.70757e-05 0.8593632452 -0.0098842769
10299940.0 -0.7890382366 -0.0059740906 6.6727e-06 -0.000156413 -2.66721e-05 -0.0002330702 0.8581742912 -0.0190354985
15299910.0 -0.7942861708 -0.0029968543 -4.209e-07 -4.547e-07 0.0001358932 2.27655e-05 0.8574866732 -0.0274434939
20299880.0 -0.8010994788 0.0009948543 -0.0001116038 4.27135e-05 -2.17627e-05 0.0002156607 0.8562487354 -0.035532184
25299850.0 -0.8081801009 0.0065833156 8.11563e-05 5.50532e-05 5.65945e-05 0.0001594372 0.8558123154 -0.044120116
30299820.0 -0.8137871482 0.0138501281 -0.0002110816 -3.19877e-05 -0.0001773528 -2.905e-07 0.8549387856 -0.0524747075
35299790.0 -0.8182203733 0.0231698247 2.5498e-06 -9.008e-06 -0.0001377237 -1.97631e-05 0.8545758636 -0.0608646152
40299760.0 -0.8235708455 0.0321045291 1.67166e-05 -1.5982e-06 -2.6202e-06 -0.0001795464 0.8536889167 -0.0682705559
45299730.0 -0.82653196 0.0416075149 6.91122e-05 -4.2326e-05 3.79653e-05 -0.0001496966 0.8522570401 -0.0772238087
50299700.0 -0.8293435826 0.0518704437 -0.000174107 -3.4399e-06 0.0001144867 5.98952e-05 0.8522753024 -0.0855129389
55299670.0 -0.8312980156 0.0616162419 3.2626e-06 -2.93232e-05 -1.11526e-05 5.08302e-05 0.8507540135 -0.0937533553
60299640.0 -0.832850719 0.0714992062 -6.0063e-06 -0.0001020957 -0.0001503603 0.0001066577 0.8497894978 -0.1020232749
65299610.0 -0.8334304402 0.0811894301 8.16883e-05 -2.8813e-06 -3.95464e-05 -4.13896e-05 0.8489152863 -0.1105482472
70299580.0 -0.8336635348 0.0916502125 8.57787e-05 -5.5734e-05 4.62721e-05 4.8088e-05 0.847277633 -0.1187572821
75299550.0 -0.8341231894 0.1014228317 4.55381e-05 7.05511e-05 4.61549e-05 0.000119007 0.8461573151 -0.1266554626
80299520.0 -0.8338679886 0.1123352824 -4.66727e-05 -0.0002030125 0.0001446047 2.76592e-05 0.844556815 -0.1355483747
85299490.0 -0.8329148523 0.1213529064 4.64556e-05 -2.22396e-05 0.000151837 -1.81551e-05 0.8439696517 -0.1433742348
90299460.0 -0.8322408161 0.1313409405 0.0002002848 -0.0002287912 1.68996e-05 5.6727e-05 0.8424953671 -0.1514873337
95299430.0 -0.8312881652 0.1403876296 0.0001245909 -1.15274e-05 1.40661e-05 -6.23995e-05 0.8405068954 -0.1601452667
100299400.0 -0.8305522681 0.1500542732 -9.14188e-05 -0.0003008236 2.09482e-05 5.26687e-05 0.8394431419 -0.1684157143
105299370.0 -0.8284617051 0.1590948584 -3.54784e-05 -9.01295e-05 -6.9149e-05 -5.1148e-05 0.8376298999 -0.1763375604
110299340.0 -0.8273232671 0.1686490999 3.4592e-05 -0.0002118505 5.29116e-05 -3.31323e-05 0.8351916256 -0.1842746388
115299310.0 -0.8258672591 0.1778676453 -0.0001239965 -0.0001317764 -0.0001249194 -2.87768e-05 0.8336690206 -0.1922983338
120299280.0 -0.8244893911 0.1865957937 -3.35199e-05 -0.0001418901 -5.07673e-05 0.0001290095 0.8318061466 -0.2008772418
125299250.0 -0.8225482036 0.1951922623 0.0001579011 -0.0001762126 -2.16251e-05 -6.34504e-05 0.8294587912 -0.2093922057
130299220.0 -0.8207768977 0.2051059665 9.78921e-05 6.9851e-05 -6.06239e-05 -0.0003134962 0.8277067687 -0.2169412734
135299190.0 -0.8185890342 0.2142384267 1.2793e-05 -2.83163e-05 -4.08559e-05 -9.26059e-05 0.825399991 -0.2251187125
140299160.0 -0.8174747237 0.2232813834 8.43627e-05 8.53301e-05 -0.0001673589 9.05157e-05 0.8232560567 -0.2330281128
145299130.0 -0.8144855421 0.2323513718 -4.0762e-05 -0.0001279165 -2.19582e-05 -8.1315e-06 0.8206513535 -0.2416974817
150299100.0 -0.8119973151 0.2410613648 1.81931e-05 8.2807e-05 1.80184e-05 0.0001774878 0.818345016 -0.24918959
155299070.0 -0.8099716772 0.2503317326 -0.0001121855 -4.29855e-05 7.1342e-06 1.16778e-05 0.8155714439 -0.257778142
160299040.0 -0.8075235351 0.2594274278 -0.0002089125 -0.000293181 0.0002783887 -0.0001130382 0.8130916699 -0.2652110974
165299010.0 -0.8045109376 0.2674969027 -7.01734e-05 0.0001480927 -7.68018e-05 -7.75804e-05 0.8105188662 -0.2729845406
170298980.0 -0.8016323654 0.2764404889 0.0001359444 -0.0001215938 -0.0001115431 1.05692e-05 0.8075885397 -0.2816585064
175298950.0 -0.7992254251 0.2843772322 -3.2632e-06 3.90256e-05 -4.1115e-05 0.0001972833 0.8048197987 -0.2889576945
180298920.0 -0.796325373 0.2934423021 -8.49411e-05 -0.0002049212 7.491e-07 9.12646e-05 0.8023021834 -0.2964843606
185298890.0 -0.7928929883 0.3022954184 3.23101e-05 -0.0001124499 -6.3995e-06 3.34264e-05 0.7994953023 -0.3044501397
190298860.0 -0.789630086 0.3110908711 -8.96911e-05 -6.24531e-05 -0.0001144775 4.5445e-06 0.7954033118 -0.3123799018
195298830.0 -0.7866482881 0.3196076066 -1.76797e-05 -1.26142e-05 1.71614e-05 -7.34709e-05 0.7928860605 -0.3201615899
200298800.0 -0.7827061892 0.3277834619 8.89395e-05 -8.18901e-05 2.73233e-05 0.0001115075 0.7895724615 -0.3279537159
205298770.0 -0.7793486603 0.3363433776 3.28876e-05 5.40813e-05 -4.67045e-05 -6.34554e-05 0.7864508997 -0.3361903454
210298740.0 -0.7760303983 0.3449499549 7.73119e-05 -0.0001575791 -0.0001615634 -0.0001862221 0.7830523092 -0.3435199598
215298710.0 -0.7723893026 0.3532225455 0.0001450928 -7.67324e-05 4.35879e-05 -5.37028e-05 0.7794181341 -0.351438422
220298680.0 -0.7686216843 0.3609232223 -0.0001655672 4.38791e-05 2.61169e-05 -0.0001243804 0.7760595042 -0.358261931
225298650.0 -0.7642461817 0.3699356256 0.0001402192 4.67227e-05 4.84731e-05 9.02748e-05 0.7724776028 -0.3667256083
230298620.0 -0.7609243452 0.3781891859 0.0001496065 2.21257e-05 -0.0001290791 -1.49258e-05 0.7683777096 -0.3732621579
235298590.0 -0.7573408254 0.3861054893 -0.0001586086 -6.03908e-05 0.0001216664 7.25673e-05 0.7647162437 -0.3809176037
240298560.0 -0.7526832364 0.3937437819 -0.0001281901 4.95836e-05 0.0001528912 0.0001194362 0.7610457546 -0.3885532687
245298530.0 -0.7483868357 0.4015153303 -6.91503e-05 -0.0001800694 -5.19917e-05 7.77556e-05 0.7571042415 -0.3958864653
250298500.0 -0.7445936103 0.4088652643 0.0001402985 6.38477e-05 0.0001629871 -2.03236e-05 0.753476798 -0.4029332523
255298470.0 -0.7406924713 0.4173968304 0.0001850556 -0.0001613851 6.21368e-05 -4.55974e-05 0.7499363769 -0.4106686389
260298440.0 -0.7367607655 0.4247688919 -2.55646e-05 -5.23148e-05 7.11457e-05 -3.3282e-05 0.7450429458 -0.4181036874
265298410.0 -0.7318575895 0.4327590845 -1.83807e-05 -0.0001228171 -3.07758e-05 0.0001003519 0.7416056485 -0.4250460811
270298380.0 -0.7274642691 0.440382832 -4.91678e-05 -0.0001111076 -5.27476e-05 0.0001485621 0.7376824444 -0.4325770318
275298350.0 -0.7237153869 0.4482823783 -0.0001044726 0.0002099041 -8.53945e-05 1.97362e-05 0.7325469493 -0.4399494404
280298320.0 -0.7183190112 0.4556871466 -6.23405e-05 -0.000116492 7.1334e-06 0.0001165492 0.7286567546 -0.4465792916
285298290.0 -0.7138512559 0.4634132087 -5.92055e-05 1.44338e-05 -1.51358e-05 0.0001569908 0.7244046602 -0.454225916
290298260.0 -0.7084921314 0.4707386328 -0.0001379069 -0.000156298 -7.96478e-05 7.4358e-06 0.720128104 -0.4607763471
295298230.0 -0.7040620678 0.4780714524 -0.0001133956 -0.0001079733 -0.0001228825 -1.81641e-05 0.7156441221 -0.4675960687
300298200.0 -0.6990679391 0.4853274697 4.21189e-05 -2.25738e-05 6.33317e-05 -5.272e-06 0.7113897432 -0.475106482
305298170.0 -0.6946046856 0.4929476799 0.0001030277 2.87048e-05 0.0001089365 -4.1479e-06 0.7063442159 -0.481987926
310298140.0 -0.6887307779 0.4997916895 -0.0001025069 -5.96553e-05 0.0001986698 -4.2459e-06 0.7025218239 -0.4895456541
315298110.0 -0.684072565 0.5066723916 -4.45567e-05 8.57435e-05 -0.0001005388 -1.10814e-05 0.6977540003 -0.4967413696
320298080.0 -0.6792051202 0.514559033 1.76228e-05 -0.0001193339 0.0001230732 0.0001962048 0.6920305489 -0.5041660073
325298050.0 -0.6733572743 0.5210144626 -0.0002684694 5.28605e-05 8.98645e-05 1.13414e-05 0.6877903251 -0.5118160368
330298020.0 -0.6680431628 0.5281247745 -0.0001835402 0.0001240223 -6.69086e-05 -2.4934e-05 0.6823325422 -0.5196884574
335297990.0 -0.6629855177 0.5347744768 -9.99886e-05 0.0002593302 -1.68407e-05 -0.0001233548 0.6761447669 -0.5255138026
340297960.0 -0.6577751133 0.5412336507 0.0002609564 0.000114506 1.94458e-05 3.519e-07 0.670060771 -0.5324357678
345297930.0 -0.6519513789 0.5481901913 -9.24741e-05 -0.000262545 0.000131859 -0.0001097615 0.664333275 -0.5387710649
350297900.0 -0.6466625467 0.5549722533 -4.30345e-05 -3.08524e-05 -1.85147e-05 0.0001183788 0.6585190988 -0.54513153
355297870.0 -0.6412543371 0.561317661 -0.0001009787 5.5039e-06 -9.05279e-05 0.0001423377 0.6528457161 -0.551197592
360297840.0 -0.635073608 0.5687795568 9.59541e-05 0.0001662596 -0.0001249056 6.6399e-05 0.6468478713 -0.5572020971
365297810.0 -0.6293814755 0.5749675136 -3.67614e-05 -4.53641e-05 -0.0001075508 3.5157e-05 0.6411941949 -0.5632553986
370297780.0 -0.6229333334 0.58047741 9.0492e-06 -0.0001966834 9.50218e-05 0.0002709198 0.6355047258 -0.5693999046
375297750.0 -0.617828004 0.5872803093 1.14627e-05 -0.000240479 -0.000199284 7.71059e-05 0.6299614437 -0.5757929644
380297720.0 -0.6121129234 0.5933605917 -0.0001699634 -0.0002850552 -0.0002460704 -0.0001543403 0.6245014201 -0.5812970297
385297690.0 -0.6061273287 0.5994177181 -0.000109087 9.4548e-06 0.0001190438 -2.36035e-05 0.6179499064 -0.5874791636
390297660.0 -0.5984750366 0.605500603 2.68055e-05 -0.0001415376 -0.0001260118 -4.6664e-05 0.6122722223 -0.5935712197
395297630.0 -0.5929438211 0.6121680227 0.0003770534 -4.90946e-05 0.0001336386 -2.74191e-05 0.6064991062 -0.5993967052
400297600.0 -0.5865427904 0.6182407964 -0.0001768828 -7.74582e-05 9.8039e-06 -0.0001252353 0.6004572455 -0.6048716374
405297570.0 -0.5804771227 0.6235053721 -0.0001248185 -3.47268e-05 0.0001193279 -0.0001655143 0.5937922216 -0.6108749162
410297540.0 -0.573608869 0.6293718394 4.02275e-05 -0.0002217078 9.59733e-05 8.8968e-06 0.5883644617 -0.6164470146
415297510.0 -0.5679367196 0.6353143765 -0.0001866697 8.92272e-05 -0.0003072133 3.3937e-05 0.5822586099 -0.6223244788
420297480.0 -0.5606565486 0.6409533579 -0.0002026537 2.24837e-05 -0.0002329011 8.67473e-05 0.5763839528 -0.627202656
425297450.0 -0.5544913055 0.6467082436 -7.67931e-05 -0.0001149213 6.35556e-05 -4.9678e-05 0.569986033 -0.6341761276
430297420.0 -0.5479542967 0.6521412114 1.51421e-05 -0.0001439081 -9.998e-05 -2.18773e-05 0.5641581698 -0.6393631947
435297390.0 -0.5411506224 0.6573882263 0.0001971724 -1.4194e-05 -8.57838e-05 -4.75175e-05 0.5566857125 -0.6447680344
440297360.0 -0.5345275343 0.6627742044 8.0343e-06 0.0001074117 8.65971e-05 -0.0001942243 0.5510164268 -0.6497245084
445297330.0 -0.5269487323 0.6678571656 -1.39973e-05 0.0001031915 2.87749e-05 9.1708e-06 0.5438680493 -0.6544405347
450297300.0 -0.52036226 0.6734551655 -2.54263e-05 -5.52317e-05 2.92949e-05 -0.0002479994 0.5376506264 -0.6599402238
455297270.0 -0.5136727501 0.6785953158 -0.0001917568 3.30258e-05 -0.0001203918 5.30512e-05 0.5312048803 -0.6653463834
460297240.0 -0.505940209 0.6839736548 -8.42812e-05 9.40757e-05 6.77072e-05 9.96763e-05 0.5239832618 -0.6707156807
465297210.0 -0.4994735841 0.6895325826 -0.0001699856 2.08214e-05 -4.44733e-05 -8.75829e-05 0.5178335122 -0.6750106649
470297180.0 -0.4912191102 0.6937236611 3.76856e-05 9.4559e-05 6.53135e-05 -0.0002403419 0.5107206466 -0.6802731671
475297150.0 -0.4846167589 0.6986000478 4.78763e-05 0.0001104834 6.38211e-05 -8.19925e-05 0.5050080878 -0.6852835381
480297120.0 -0.4767031323 0.7043349163 0.0001477765 -3.93757e-05 0.000117679 0.0001950716 0.4972088157 -0.6904099139
485297090.0 -0.4698410095 0.7083045747 8.66022e-05 -0.0001300087 0.0001256146 -2.21115e-05 0.4912905928 -0.6953003769
490297060.0 -0.4619771913 0.713698474 0.0001016296 1.25702e-05 1.40949e-05 -9.29672e-05 0.4837768257 -0.6995869851
495297030.0 -0.4544194442 0.7176290056 0.0001279508 5.12104e-05 -1.5882e-05 9.50552e-05 0.4769428905 -0.7045665322
500297000.0 -0.4473943858 0.7219657121 -1.15474e-05 9.94185e-05 -0.0003070604 -0.0001540389 0.4699625296 -0.7087557156
505296970.0 -0.4395823715 0.7271110975 0.0001664312 -5.06409e-05 2.61626e-05 4.48403e-05 0.4621901722 -0.7132316602
510296940.0 -0.43230718 0.7312931693 0.0001053465 5.70084e-05 9.75746e-05 -0.000189706 0.4545296676 -0.7178508349
515296910.0 -0.4238764988 0.7352186278 0.0001673736 -0.0001870421 -0.0002053867 -4.25508e-05 0.4480238049 -0.7226843833
520296880.0 -0.4161639057 0.7399236507 -6.01872e-05 -0.0001824166 -2.35893e-05 -0.0001571687 0.4413054767 -0.7269560241
525296850.0 -0.4087167852 0.7443521768 0.0001957404 1.76639e-05 9.30455e-05 0.0001447601 0.4337440329 -0.7309323275
530296820.0 -0.4012678635 0.7477128865 0.0001757023 0.0001421312 -0.0002349883 0.0002347556 0.4269445945 -0.735626959
535296790.0 -0.3928158929 0.7519230836 -0.0002062446 -5.5834e-05 -5.46691e-05 -1.64475e-05 0.4194396584 -0.7386360363
540296760.0 -0.3855153059 0.756048662 -6.45702e-05 -0.0001391677 7.65427e-05 -0.000177467 0.4125060104 -0.7427979441
545296730.0 -0.3774206064 0.7601582335 1.10184e-05 -8.4519e-06 0.0002075136 0.0001729358 0.4042557852 -0.74688324
550296700.0 -0.3694536267 0.7638272511 0.0001948608 -9.32398e-05 -0.0002509898 -9.74358e-05 0.3973150639 -0.7507780608
555296670.0 -0.3611554652 0.7673973773 -1.77096e-05 7.49181e-05 -0.0002293161 9.49648e-05 0.3896573593 -0.755290155
560296640.0 -0.3537939732 0.7706706531 4.44151e-05 -0.0001094728 -0.000161727 7.931e-05 0.3818551344 -0.7586739631
565296610.0 -0.3454795426 0.7745763372 4.74262e-05 5.4185e-06 0.00018413 0.0001402747 0.3744196903 -0.7619902723
570296580.0 -0.3368894567 0.777839201 0.0001318297 -0.0003110472 -3.07373e-05 -0.000303153 0.3669239733 -0.7664421024
575296550.0 -0.3278098268 0.7812553475 2.0355e-05 0.0003120043 8.0003e-05 1.07749e-05 0.3591686619 -0.7692064973
580296520.0 -0.3211133676 0.7845341006 -6.94605e-05 -0.0003167577 6.97489e-05 4.37352e-05 0.3514170256 -0.7727485272
585296490.0 -0.3124526115 0.7879872501 0.0001054093 -0.0001576687 6.75802e-05 -9.44607e-05 0.3438558298 -0.7752899537
590296460.0 -0.3038228945 0.7908259788 -0.0002293719 8.99385e-05 4.78859e-05 -1.99405e-05 0.3356884322 -0.7792097832
595296430.0 -0.2962569819 0.7938069437 -9.60116e-05 3.66776e-05 0.0001053364 -3.0102e-05 0.3283875568 -0.7821636787
600296400.0 -0.2877892203 0.7964919905 -4.80456e-05 -6.80198e-05 4.53612e-05 7.3353e-05 0.3205129637 -0.7852700088
605296370.0 -0.2800201145 0.7995825746 -5.5098e-06 -0.0001326773 -2.29e-08 7.46855e-05 0.3123114563 -0.7882559585
610296340.0 -0.2715833641 0.8031590223 -7.83793e-05 5.76698e-05 -0.0001732002 -6.67708e-05 0.3042442527 -0.7912038665
615296310.0 -0.2625888968 0.8052965025 -7.44729e-05 -0.0001452453 -1.055e-06 -0.0001117321 0.2961503484 -0.7937954471
620296280.0 -0.2551119086 0.8083807048 -0.0001897902 -9.77288e-05 -6.15923e-05 3.59271e-05 0.2886966684 -0.7965086655
625296250.0 -0.2478117303 0.8097552811 -0.0001690126 0.0002437247 8.78368e-05 9.26996e-05 0.2805087046 -0.7998448645
630296220.0 -0.2389423682 0.8129689588 0.0003630987 5.85129e-05 3.77847e-05 5.52783e-05 0.2727927258 -0.8018761867
635296190.0 -0.2306846006 0.8152011457 -0.0001171277 0.0002102526 0.0001506372 -7.99639e-05 0.2648526215 -0.8048332278
640296160.0 -0.2212946823 0.8176045803 -0.0001747542 -2.21178e-05 3.70506e-05 0.0001163954 0.2564330506 -0.8072235951
645296130.0 -0.2138058029 0.8202365146 -0.0002522052 0.0001561094 -1.64645e-05 -0.0001543599 0.2483126182 -0.8093161516
650296100.0 -0.2055694888 0.8218091641 1.41718e-05 -1.2623e-05 0.0001826344 -5.9198e-05 0.2406909639 -0.8115540612
655296070.0 -0.1975038996 0.8239683395 -5.8247e-06 -6.76341e-05 3.25932e-05 8.08991e-05 0.2325079824 -0.8144173006
660296040.0 -0.1891992348 0.8267489834 -6.89462e-05 -0.0001445004 2.92394e-05 -0.0001867758 0.2246145997 -0.816734521
665296010.0 -0.1805849216 0.8283401107 -0.0002846861 -0.0001498316 -3.63901e-05 9.09094e-05 0.2170834282 -0.8177006541
670295980.0 -0.1728895214 0.8303053322 5.62602e-05 3.67838e-05 -2.38718e-05 -6.4753e-06 0.2078343403 -0.8201658104
675295950.0 -0.1639919191 0.8318341053 -9.81157e-05 -8.32473e-05 -2.18123e-05 2.98983e-05 0.1998769668 -0.8220247545
680295920.0 -0.1566217232 0.8334873276 -0.0001266088 -0.000235087 -0.0001192783 -4.10735e-05 0.1918554992 -0.8240383293
685295890.0 -0.1478084556 0.8355570873 0.000201062 -1.21316e-05 0.0002786281 -3.903e-05 0.1842129621 -0.8258505578
690295860.0 -0.139228266 0.8366708455 -0.0001476726 -2.25617e-05 -0.0001079664 -9.0841e-05 0.1750500623 -0.8274441041
695295830.0 -0.1311253057 0.8387595 -2.34002e-05 4.0955e-06 0.0001480945 -3.27345e-05 0.1672711536 -0.828432446
700295800.0 -0.122212191 0.8399210399 0.0002614657 -5.72974e-05 -0.0001708016 0.0001938919 0.1588305651 -0.8296873758
705295770.0 -0.1149796646 0.841406791 0.0001855441 7.47933e-05 -8.92993e-05 -7.85405e-05 0.1499963896 -0.8316581499
710295740.0 -0.1067786969 0.8418642086 -4.80262e-05 0.000128603 5.49227e-05 -3.5322e-06 0.1424228828 -0.8326805715
715295710.0 -0.0977443496 0.8433738905 7.6262e-06 -2.49501e-05 2.87019e-05 0.0001991303 0.134340156 -0.8347117276
720295680.0 -0.0891570073 0.8441491647 5.27818e-05 -0.0001063359 0.0001301548 -3.54759e-05 0.1257291713 -0.8355141844
725295650.0 -0.0813632226 0.8455890285 2.35354e-05 -0.0001033799 -0.0001872718 7.19817e-05 0.1171605127 -0.8363936481
730295620.0 -0.0736403634 0.8470965125 -2.50863e-05 0.0001737996 -8.04546e-05 -4.68172e-05 0.1090750909 -0.8373243145
735295590.0 -0.0653864011 0.8476066031 -6.48926e-05 4.91794e-05 6.08865e-05 -0.000163392 0.1011536973 -0.8379768395
740295560.0 -0.0574214083 0.8475902326 6.9201e-06 7.4165e-05 7.4196e-05 9.57021e-05 0.092404615 -0.8382983133
745295530.0 -0.0493342241 0.8489854363 -0.0001274995 -3.23864e-05 -6.08206e-05 -0.0001113574 0.0833457804 -0.8395840364
750295500.0 -0.041005465 0.8487521651 0.000102915 3.75681e-05 0.0001959489 4.3396e-06 0.0750004622 -0.8405796388
755295470.0 -0.0322749806 0.849777958 7.6591e-06 4.9411e-05 0.0001660717 -4.18305e-05 0.0670372188 -0.840313567
760295440.0 -0.0242554414 0.8508839237 -8.5136e-05 -0.0002765081 -1.83696e-05 -1.14175e-05 0.0586382796 -0.8409514421
765295410.0 -0.0159612501 0.8502148965 2.72477e-05 2.731e-05 -0.0001359011 -4.51297e-05 0.0501958801 -0.8416847231
770295380.0 -0.0079421741 0.8514158735 3.1756e-06 -0.0002084808 -2.6432e-06 8.01008e-05 0.0417379244 -0.8421465274
775295350.0 0.0001215099 0.8511754112 -0.0002877459 0.0002075579 -2.975e-05 -4.98417e-05 0.0342975997 -0.8425542184
780295320.0 0.0086237763 0.8509196517 3.77245e-05 0.0001723091 0.000132319 -4.88658e-05 0.0250605937 -0.8426431901
785295290.0 0.0167950434 0.8507117706 -6.7531e-05 -0.0001772753 9.34341e-05 0.0001239756 0.0161668552 -0.8425251877
790295260.0 0.0251410299 0.8511041328 -0.0001780552 -7.38047e-05 9.62994e-05 -0.000248982 0.0087664969 -0.8421788965
795295230.0 0.0328219433 0.8508550579 8.49979e-05 -5.34203e-05 2.73828e-05 -1.632e-06 -0.0004241771 -0.8435563708
800295200.0 0.0414693709 0.8504458886 8.8284e-06 -0.000131843 7.27717e-05 -0.0001282507 -0.0083813277 -0.842698446
805295170.0 0.0493087845 0.8505801376 7.98395e-05 -0.0001659375 -1.92193e-05 -0.0002925332 -0.0162941238 -0.8424474443
810295140.0 0.0573326737 0.850426787 0.0002552218 7.4077e-05 -1.0259e-06 0.0003149246 -0.0252340302 -0.8414620496
815295110.0 0.0652490595 0.8497186084 1.54135e-05 -0.0002870256 -1.25819e-05 8.77346e-05 -0.0340557021 -0.841049621
820295080.0 0.0738893231 0.8490703175 -7.08337e-05 -0.0002252359 -5.1807e-06 -3.3604e-06 -0.0429207223 -0.8398731282
825295050.0 0.0815788587 0.8481889014 3.99855e-05 -0.0001900838 -2.31269e-05 7.26237e-05 -0.0507016356 -0.8404142082
830295020.0 0.0906758305 0.8472478089 7.26948e-05 -1.32952e-05 -0.0001430291 4.98698e-05 -0.0597106243 -0.8393609778
835294990.0 0.0977737147 0.8466249749 -0.0002190623 -0.0001287425 5.11539e-05 5.20262e-05 -0.067505067 -0.8387040993
840294960.0 0.1069698884 0.8450983257 -0.0001715168 -3.84234e-05 -9.65982e-05 -8.76485e-05 -0.0759100067 -0.8374815719
845294930.0 0.1146364829 0.8447096844 -4.33034e-05 0.0001205328 -0.0001388817 -0.0001077216 -0.0839769778 -0.836165798
