!Created with skrf (http://scikit-rf.org).
# Hz S RI R 50.0 
!freq ReS11 ImS11 ReS21 ImS21 ReS12 ImS12 ReS22 ImS22
300000.0 -0.776523811 -0.0825286991 -0.0006749885 0.0014798162 0.0001439193 0.0006761181 -0.7792224434 -0.1252573649
5299970.0 -0.7850275045 -0.0057461652 0.0002240456 0.0001715778 2.26954e-05 0.0001092267 -0.7854130246 -0.0071644784
10299940.0 -0.787748236 -0.003815206 -5.5952e-06 6.88287e-05 -0.0001025598 6.44661e-05 -0.7882421505 -0.0038216444
15299910.0 -0.7929611107 -0.0021183778 -3.45485e-05 0.0001275249 0.0001384076 -8.58382e-05 -0.7936842209 -0.0016981078
20299880.0 -0.800096906 0.0019627249 9.74297e-05 -9.9973e-05 5.60978e-05 -1.00016e-05 -0.8008687828 0.0024230576
25299850.0 -0.8064393302 0.0074963443 -0.0002190926 -1.7618e-05 -4.2249e-05 5.54708e-05 -0.8068388781 0.0083156854
30299820.0 -0.8127724385 0.0150322379 6.99156e-05 -8.5314e-06 -5.51125e-05 6.02694e-05 -0.8127966259 0.0158661923
35299790.0 -0.8172710973 0.0243300296 3.7232e-06 0.0001774087 -0.0001904034 0.0001036485 -0.8172022533 0.0245516832
40299760.0 -0.8209883404 0.0336133419 -8.03288e-05 7.96173e-05 -0.0003593367 6.12258e-05 -0.8216001591 0.0340908653
45299730.0 -0.8245434404 0.0425904303 0.000178569 -3.5312e-05 0.0001628245 -7.28941e-05 -0.82531717 0.0442357066
50299700.0 -0.8270248459 0.0532820747 0.0001662566 0.0001549202 -6.66098e-05 -0.0001622725 -0.8275333627 0.053732622
55299670.0 -0.8290805799 0.062873193 -4.742e-05 4.57004e-05 3.40511e-05 4.65127e-05 -0.8296880184 0.0640966555
60299640.0 -0.829772514 0.0726929443 9.50882e-05 -7.54418e-05 -0.0001393027 -0.0001157672 -0.8303265671 0.0737503193
65299610.0 -0.8311898154 0.0830777592 -0.0001745715 -0.0001420304 -0.0002410107 3.00727e-05 -0.8317426247 0.0840232938
70299580.0 -0.8318251687 0.0935279714 0.0001434095 4.63606e-05 -1.40165e-05 0.0001171076 -0.8317308809 0.0941285764
75299550.0 -0.8319998818 0.1033186348 3.34113e-05 3.6227e-05 -4.84356e-05 3.17364e-05 -0.8323369401 0.1034350443
80299520.0 -0.8318982278 0.1132331731 -3.11463e-05 -4.10379e-05 -0.0001420144 -2.23695e-05 -0.8319298903 0.1137526847
85299490.0 -0.8310082927 0.1221851982 5.2123e-05 6.08854e-05 7.84418e-05 1.05835e-05 -0.8317378626 0.1236656256
90299460.0 -0.8298371823 0.1320167116 0.0001985151 5.3294e-05 0.0001591609 0.0001317096 -0.8306803906 0.1334869668
95299430.0 -0.82968299 0.1415791519 1.11754e-05 0.0001005141 -3.51363e-05 0.0001235836 -0.8289047194 0.142710731
100299400.0 -0.8279399853 0.1504054448 -0.0001371339 1.09209e-05 -8.50884e-05 -0.0001115929 -0.8281428511 0.1518037354
105299370.0 -0.8266005205 0.1599746423 5.2228e-05 -0.0001786471 -2.69195e-05 -3.44267e-05 -0.8272212853 0.1605584844
110299340.0 -0.8254483662 0.1691715595 -0.0002410442 -0.0002574093 -1.26112e-05 -0.0001526358 -0.8257551804 0.1709669922
115299310.0 -0.8238578713 0.1782674479 7.73233e-05 -1.75203e-05 0.0001191424 -0.0001622236 -0.8245631438 0.1800156443
120299280.0 -0.822228775 0.1867034056 0.0002615918 -9.87421e-05 -0.0001211807 2.70023e-05 -0.8225723264 0.189021017
125299250.0 -0.8201602302 0.1958116931 7.42703e-05 2.82121e-05 -2.78239e-05 0.0001146443 -0.8212359689 0.1977504518
130299220.0 -0.8187824362 0.2049023918 3.5727e-05 -0.0001502207 2.87503e-05 -0.0001544109 -0.8192412013 0.2068770407
135299190.0 -0.8168954702 0.2137513312 0.0001771646 -3.8502e-05 1.88565e-05 -5.71163e-05 -0.8170046426 0.2159279933
140299160.0 -0.8145390959 0.2232863817 0.0002299641 4.19428e-05 1.63629e-05 -7.45746e-05 -0.8149865801 0.2247295948
145299130.0 -0.8123722868 0.2323060556 -0.000213481 -0.0002918737 -3.11865e-05 -0.0001218553 -0.8128163205 0.2340749221
150299100.0 -0.8101566808 0.2412170386 -0.000116453 1.34542e-05 0.0001101198 0.0001463995 -0.8112311901 0.2428102019
155299070.0 -0.8078071307 0.2491612471 -0.0001251033 -5.90897e-05 0.0001098791 5.03297e-05 -0.8078396223 0.2519526465
160299040.0 -0.805144548 0.2575852788 -0.0001305117 0.0002263778 -9.05879e-05 -0.0001533446 -0.8060461656 0.2604847471
165299010.0 -0.8027421681 0.2663534492 -5.8685e-05 6.86337e-05 -0.0002693268 0.0001311765 -0.8030372245 0.2692521121
170298980.0 -0.7999931496 0.2751200642 -0.0001490698 -4.8549e-05 2.39883e-05 5.65144e-05 -0.8002901897 0.2782066243
175298950.0 -0.7969863809 0.2841979114 9.73082e-05 5.27054e-05 0.0001329793 -1.28965e-05 -0.797567112 0.286843382
180298920.0 -0.7946403354 0.2925042917 4.53413e-05 -7.66029e-05 -0.0001171531 0.0002385392 -0.7944645772 0.2951578035
185298890.0 -0.7915230372 0.3006370272 0.0001740453 7.1619e-06 0.000121425 0.0002060941 -0.7909061126 0.3038402268
190298860.0 -0.7886789258 0.3091907909 -0.0001161989 -0.0001300889 0.000122733 6.40752e-05 -0.7885775786 0.3124778631
195298830.0 -0.7852686427 0.3179141447 4.82294e-05 -6.30442e-05 -0.0001825349 0.0001713258 -0.7851931612 0.3210500482
200298800.0 -0.781325821 0.3254300877 5.43739e-05 -0.000285689 7.03878e-05 9.27212e-05 -0.7821484734 0.3286725818
205298770.0 -0.7785505495 0.3339985395 1.61439e-05 7.06699e-05 5.00183e-05 -1.85128e-05 -0.7780985019 0.3369010953
210298740.0 -0.7748511844 0.3424033312 -6.93027e-05 -3.88859e-05 -0.0002470945 0.0001937128 -0.7748997078 0.3455348143
215298710.0 -0.7713392043 0.3501999459 6.36329e-05 6.56823e-05 -8.90141e-05 -0.0001287868 -0.771161751 0.3536778825
220298680.0 -0.7676149424 0.3583065134 -9.84012e-05 -0.0002341572 0.0002444329 -2.42072e-05 -0.767768258 0.3617829269
225298650.0 -0.7640024058 0.366545517 6.89619e-05 -0.0002133571 4.2901e-05 0.0001831656 -0.763918532 0.3694274082
230298620.0 -0.7598384772 0.3744536057 7.11572e-05 6.9823e-05 -0.0001398019 3.3887e-06 -0.7601350797 0.3781932448
235298590.0 -0.7563659636 0.3830786662 0.0001196778 -2.27841e-05 -7.04369e-05 0.0001285355 -0.7559186704 0.3868969581
240298560.0 -0.7523703273 0.390819107 -0.0001619636 -0.0002525843 0.0001551627 0.0001173614 -0.7515428125 0.3943222104
245298530.0 -0.7484102874 0.398393993 0.0001189129 -1.79069e-05 6.3031e-06 -3.76603e-05 -0.7477519833 0.4023919797
250298500.0 -0.7442837594 0.4065350283 8.4326e-05 5.27495e-05 0.0001101992 2.6918e-06 -0.7432314129 0.4098261181
255298470.0 -0.7393072134 0.4137681906 0.0001105316 7.21233e-05 5.55905e-05 -2.1807e-06 -0.7387550017 0.4177745513
260298440.0 -0.7354686972 0.4215464135 -9.30356e-05 3.85045e-05 -3.9588e-06 -0.0001444658 -0.7346195786 0.4262115266
265298410.0 -0.7316936398 0.4297509897 -2.5963e-06 0.0002651375 0.0001281047 -8.84955e-05 -0.730413224 0.4330490475
270298380.0 -0.7269529371 0.4371161107 -1.95345e-05 7.72023e-05 0.0001148191 3.80519e-05 -0.7258701678 0.440667391
275298350.0 -0.7220564999 0.4447604772 -0.0002579365 0.0001115594 4.27671e-05 -1.59762e-05 -0.7210660129 0.4485837505
280298320.0 -0.7168106749 0.4524285614 -4.8525e-06 -8.99505e-05 -9.26106e-05 -4.66646e-05 -0.7160187134 0.456382592
285298290.0 -0.7129470614 0.4596349246 -0.0001076446 1.0661e-06 9.1797e-06 -0.0001186039 -0.7110563279 0.4634421682
290298260.0 -0.7080513853 0.4672747763 9.56605e-05 -0.0002643161 -2.177e-07 0.0001107485 -0.7064617144 0.4708784377
295298230.0 -0.7023367109 0.474196347 0.0001057184 -7.03778e-05 -0.0001067179 0.0001436066 -0.7017201597 0.477983287
300298200.0 -0.6979148659 0.4814545262 -0.0002563798 0.0002508495 5.80934e-05 6.37367e-05 -0.6961796189 0.4854587834
305298170.0 -0.6927257137 0.4880611186 4.60229e-05 -0.0001570715 4.2841e-06 5.41222e-05 -0.6907737153 0.4933158461
310298140.0 -0.6877948159 0.4961533885 -6.40786e-05 0.0001318946 0.0001945083 -3.3205e-05 -0.6862967338 0.4999433172
315298110.0 -0.6831560183 0.502814324 1.29075e-05 -8.48753e-05 4.66576e-05 2.46844e-05 -0.6809138544 0.5069346995
320298080.0 -0.677334956 0.5098695442 8.61045e-05 -0.0001308568 -4.62502e-05 0.0001474424 -0.6755876555 0.5148214386
325298050.0 -0.6719477279 0.5167122819 -9.25693e-05 -0.0001234227 -8.6966e-05 0.0001466075 -0.669746044 0.5215165006
330298020.0 -0.6665680945 0.5239936393 -9.93487e-05 -0.0001571415 6.98244e-05 5.90034e-05 -0.6643292467 0.5286523344
335297990.0 -0.6610215663 0.5302967567 9.78548e-05 0.0001326376 0.000133879 0.0001718625 -0.6593080177 0.5357098881
340297960.0 -0.6560358286 0.5376047021 -0.0001170032 -0.0002218546 -8.76626e-05 -0.0001344737 -0.6534955656 0.5424953858
345297930.0 -0.6504271997 0.5440149911 -0.0001590632 -1.42315e-05 4.38706e-05 0.00019022 -0.6473454667 0.5486179056
350297900.0 -0.6446965435 0.5509403911 -5.1451e-05 0.0002430369 5.48919e-05 7.5386e-06 -0.6419977603 0.5557244268
355297870.0 -0.6383741983 0.5575507519 -0.0001569105 -4.30437e-05 -6.73565e-05 -0.0001588397 -0.6368552763 0.5616120974
360297840.0 -0.6328641892 0.5637077437 0.0001431041 -6.29278e-05 0.000133375 2.723e-07 -0.6303719635 0.5688101002
365297810.0 -0.6275400967 0.5705861309 4.12728e-05 -8.78799e-05 -0.0001701647 5.98041e-05 -0.6236833353 0.5744689777
370297780.0 -0.6212746744 0.5769510078 6.59772e-05 -5.41471e-05 0.0001512277 6.24809e-05 -0.617922056 0.5815961051
375297750.0 -0.6150857768 0.582997648 1.3407e-06 6.54998e-05 -0.0001134805 -0.0002002359 -0.612100285 0.5870075281
380297720.0 -0.6090137107 0.5886311636 -6.701e-07 -3.62417e-05 -4.77523e-05 -0.0002251085 -0.6061737315 0.5944162761
385297690.0 -0.6033425099 0.5950123369 9.10669e-05 -9.8946e-06 -9.739e-05 3.27394e-05 -0.5995542424 0.6004178023
390297660.0 -0.5970734544 0.6009693025 -4.59255e-05 -0.0001787627 5.94818e-05 2.86124e-05 -0.5937536764 0.606322772
395297630.0 -0.5903865993 0.6074839243 0.0003451661 -3.42104e-05 6.00678e-05 -6.3267e-06 -0.587024543 0.613205997
400297600.0 -0.584255512 0.6136958738 6.28621e-05 4.04809e-05 7.74508e-05 -5.13185e-05 -0.5808931049 0.6187076931
405297570.0 -0.5777017 0.6196205131 3.37731e-05 -2.87019e-05 2.83636e-05 4.58337e-05 -0.5741265584 0.6244526617
410297540.0 -0.5711592163 0.6245559544 2.40614e-05 -0.0001268315 -2.07315e-05 -8.1015e-06 -0.5675400558 0.6303887135
415297510.0 -0.564794863 0.6309486476 -3.0935e-05 0.0002749412 -5.87301e-05 2.32177e-05 -0.5617428939 0.6364226596
420297480.0 -0.5591483917 0.6371632156 -0.0001409994 0.0001392859 -0.0001559444 0.0001132444 -0.5549748303 0.6420759027
425297450.0 -0.5518141389 0.6423607263 -0.0001121841 5.6733e-06 -0.0001913877 0.0001011555 -0.5484459978 0.6478102455
430297420.0 -0.5455028796 0.6479898535 6.1981e-06 0.0002170627 -9.97675e-05 3.47468e-05 -0.5414691437 0.6529796268
435297390.0 -0.5384965842 0.652918886 -2.43542e-05 1.13644e-05 -7.7008e-05 0.0002150665 -0.5340815797 0.65850485
440297360.0 -0.5322940353 0.658674153 0.0001857552 0.0001290532 -1.11312e-05 0.0001330247 -0.5275647591 0.6635610508
445297330.0 -0.52524461 0.6641747608 6.9437e-05 -9.82991e-05 -5.15267e-05 9.63001e-05 -0.520708089 0.6685510882
450297300.0 -0.5184492804 0.6691134403 9.2225e-05 4.50075e-05 1.89733e-05 4.90291e-05 -0.5134137448 0.6743275248
455297270.0 -0.5117927817 0.6744455102 -3.37827e-05 -0.0001234319 -0.0001681263 0.0001683349 -0.5068908563 0.6786724169
460297240.0 -0.5053949211 0.6797698865 -1.73915e-05 2.90983e-05 -0.0001272911 3.91616e-05 -0.5001446529 0.6845251042
465297210.0 -0.498177954 0.68462752 7.19093e-05 0.000146577 -3.18523e-05 -6.22403e-05 -0.4921994387 0.6893595487
470297180.0 -0.4904423006 0.6890460214 0.000140529 -9.46749e-05 9.15973e-05 9.8958e-05 -0.4853900812 0.6950608608
475297150.0 -0.483760871 0.6943145868 -0.0001265804 -0.0001498137 -0.0001451736 6.7773e-05 -0.4780014727 0.6987145402
480297120.0 -0.4765803102 0.6993676162 -6.17248e-05 3.08219e-05 6.57079e-05 -9.02854e-05 -0.4708166002 0.704217718
485297090.0 -0.4696506534 0.7037553835 0.0002776053 3.33434e-05 0.0001020408 -7.26713e-05 -0.4636439843 0.7086411605
490297060.0 -0.4622214373 0.7081424943 -2.75257e-05 0.0001209287 -2.28244e-05 -0.0001451329 -0.456998844 0.7131002158
495297030.0 -0.4551821278 0.7130169501 0.0001274921 0.0001694821 -1.83354e-05 -1.21655e-05 -0.4492841428 0.718084223
500297000.0 -0.4479605504 0.7178620484 -9.83099e-05 -0.0002098949 0.000134143 -1.72776e-05 -0.441619887 0.7228847736
505296970.0 -0.440632763 0.722465162 1.39441e-05 -4.26159e-05 -0.0001166394 -2.7776e-05 -0.434354674 0.7264067992
510296940.0 -0.4333152565 0.7267080083 2.48384e-05 -0.0001015365 -0.0001139595 -0.0001534207 -0.4267245633 0.7308764312
515296910.0 -0.4249224059 0.7307412943 -7.0056e-06 -0.0002463869 -7.10923e-05 -1.76453e-05 -0.4193793771 0.7353614312
520296880.0 -0.418507204 0.7351853219 9.33795e-05 -4.24997e-05 6.93075e-05 4.32722e-05 -0.4118260336 0.7395143665
525296850.0 -0.4106916525 0.738795755 0.0001075397 0.0002092127 2.93464e-05 9.64408e-05 -0.4048086352 0.7438050238
530296820.0 -0.4024817046 0.7428572154 0.0001282297 -0.0001765332 6.67158e-05 -0.0001554512 -0.3966395014 0.748046686
535296790.0 -0.3962085288 0.747023138 -9.82288e-05 2.04479e-05 0.0001032941 9.69054e-05 -0.3896787043 0.7513284662
540296760.0 -0.3883387081 0.750762558 -7.39409e-05 -0.0001160477 -0.0001439742 -0.0001618547 -0.3817323952 0.7554835987
545296730.0 -0.380886435 0.7550005639 -0.0001434559 3.32602e-05 0.0001155762 0.0001036955 -0.3738018888 0.7596359088
550296700.0 -0.3730157227 0.7590123243 4.3225e-05 0.0001236612 9.83527e-05 0.0001726224 -0.3662304104 0.7631461816
555296670.0 -0.3656848742 0.7617368548 0.0001203353 -5.32608e-05 -0.0001072451 -6.6043e-05 -0.3584354324 0.7670512833
560296640.0 -0.3578555393 0.765962841 3.84884e-05 -9.22627e-05 -0.000120353 0.0001241883 -0.3502729801 0.7706238583
565296610.0 -0.3496158166 0.7698249578 3.7193e-06 5.05141e-05 -0.0001736743 0.0004591967 -0.3425297208 0.7732984516
570296580.0 -0.3426808862 0.7720125309 0.0001076984 -7.66591e-05 0.0001535219 2.57239e-05 -0.3356907515 0.7774111307
575296550.0 -0.3344803093 0.7765792082 3.96327e-05 0.0001361156 0.0001210089 -6.56117e-05 -0.3273752593 0.7804919322
580296520.0 -0.3261675573 0.7792341643 -0.0002001002 -6.31397e-05 3.8069e-06 5.8515e-05 -0.3188203113 0.7837285254
585296490.0 -0.318641014 0.7821858363 -1.88567e-05 -4.797e-07 0.0001276864 9.81585e-05 -0.3107514354 0.7871012649
590296460.0 -0.3110768639 0.7855377691 1.17421e-05 6.20147e-05 6.10735e-05 -0.0001417791 -0.3032351764 0.7899341541
595296430.0 -0.3032649884 0.7885485335 -1.40026e-05 -6.645e-05 1.35621e-05 -3.29088e-05 -0.2951881254 0.7925216552
600296400.0 -0.2946917752 0.7919902687 5.50232e-05 4.88485e-05 -3.76741e-05 -0.0001666681 -0.2871332931 0.7956802675
605296370.0 -0.2879541377 0.794142411 -3.36804e-05 -0.0001711103 -0.0001069068 -2.3555e-05 -0.2787749295 0.7988389767
610296340.0 -0.2792437287 0.797381675 5.44292e-05 2.77669e-05 5.50382e-05 6.15716e-05 -0.2708287642 0.8011697496
615296310.0 -0.270593625 0.8001797855 1.46651e-05 -7.68543e-05 5.07032e-05 0.0001221841 -0.2622437617 0.8034757789
620296280.0 -0.2629877575 0.8018960465 -1.30666e-05 -8.64041e-05 -0.0001077593 -9.151e-06 -0.2546143907 0.8065124406
625296250.0 -0.2552197876 0.8052466384 -0.0001151653 2.43692e-05 -0.0001030406 -6.02264e-05 -0.2458007816 0.8088746629
630296220.0 -0.2463579735 0.807836839 8.54914e-05 8.20184e-05 8.63383e-05 6.69302e-05 -0.2379309872 0.8113694031
635296190.0 -0.238696247 0.8102468415 6.19348e-05 -3.36767e-05 -0.0003314384 0.0001286226 -0.2298403726 0.8137103182
640296160.0 -0.2309152076 0.8121472946 -8.48161e-05 4.8663e-05 -1.12652e-05 0.0001567342 -0.2216944896 0.8163856173
645296130.0 -0.2227613661 0.8155268243 6.08011e-05 -0.0001746114 -6.10198e-05 3.14818e-05 -0.2138355788 0.8183082502
650296100.0 -0.2145738811 0.8163894621 6.80974e-05 0.0001976013 -0.0001524686 1.04919e-05 -0.2055773778 0.819409927
655296070.0 -0.2067881222 0.819094679 -8.04343e-05 -8.91428e-05 6.16666e-05 -0.000181838 -0.1967080922 0.8212042324
660296040.0 -0.1983626243 0.8202611547 6.67403e-05 1.76064e-05 -6.99825e-05 4.41831e-05 -0.1880458671 0.8240032771
665296010.0 -0.1893763635 0.8224804988 -3.18535e-05 0.0001709163 -0.0001410321 4.35057e-05 -0.1798579165 0.8260008924
670295980.0 -0.181950956 0.8247373743 -0.0001754826 4.97717e-05 -0.0002094203 6.16598e-05 -0.1726920598 0.8273037713
675295950.0 -0.1736426944 0.8254506692 0.0001329914 9.2044e-05 0.000117463 -0.0001838692 -0.1643547821 0.8289239702
680295920.0 -0.1656263622 0.8278942224 7.7417e-06 8.41064e-05 5.6367e-05 9.39304e-05 -0.1554552433 0.8317419586
685295890.0 -0.1569633004 0.8300085476 -1.04788e-05 7.5702e-06 -0.0001623771 0.0001148744 -0.1465911412 0.8321965245
690295860.0 -0.1488639502 0.8305665657 -6.6654e-05 -0.0001499415 1.15724e-05 0.0002252895 -0.1393412781 0.8342861207
695295830.0 -0.1405771246 0.8320644983 -0.00018466 -5.09955e-05 7.58943e-05 -5.67687e-05 -0.1296820862 0.8350674431
700295800.0 -0.1321476285 0.8331739178 -0.0001193281 3.46148e-05 -2.0583e-05 -4.35814e-05 -0.1224847454 0.8372522037
705295770.0 -0.1244520541 0.8359631005 -9.23262e-05 -6.32163e-05 -9.877e-07 -0.0001737105 -0.1140192539 0.8383679883
710295740.0 -0.1161520771 0.836323728 9.4781e-06 0.0001170004 -3.0675e-06 -4.40701e-05 -0.1053795411 0.8380894844
715295710.0 -0.1079834528 0.8372485913 0.0002881312 -1.7731e-05 8.53221e-05 0.000125828 -0.0967986091 0.8397859144
720295680.0 -0.0995766032 0.8385747228 2.09388e-05 5.05545e-05 -0.0001782017 0.0002234488 -0.0888421903 0.8407325779
725295650.0 -0.0915144382 0.8391159303 -0.0003038804 -7.55018e-05 -0.0001323703 9.11094e-05 -0.080358642 0.841669208
730295620.0 -0.0825652848 0.840115701 7.73034e-05 -0.0002608167 5.13209e-05 -7.20028e-05 -0.0723615364 0.8419462266
735295590.0 -0.0751266854 0.8409563001 -3.48381e-05 -0.0001874899 0.0001671531 6.60761e-05 -0.0640096492 0.8423013741
740295560.0 -0.0666710885 0.8421173287 -0.0002435539 -2.1055e-06 0.0001498051 -0.0001092768 -0.0541832902 0.8437375966
745295530.0 -0.0578187342 0.8420758786 -1.93668e-05 0.0001189221 0.0001627229 1.251e-05 -0.0464061302 0.8437322072
750295500.0 -0.0488469263 0.8426365182 -2.49597e-05 2.9548e-06 4.28954e-05 6.4211e-06 -0.0383533173 0.8440563158
755295470.0 -0.0409351689 0.8427775889 0.0001877327 6.2148e-05 5.7111e-06 -4.771e-07 -0.0288934058 0.8440929142
760295440.0 -0.032849255 0.8429033938 -3.56766e-05 -0.0001775506 -8.31164e-05 0.0001006468 -0.0210101125 0.8444872351
765295410.0 -0.0245731384 0.8443537845 8.29177e-05 7.75063e-05 -0.0001294464 -2.15722e-05 -0.0127055988 0.8451377733
770295380.0 -0.0160067302 0.8440460712 -1.57781e-05 1.5317e-06 -0.0001014936 -0.0001093112 -0.0043965841 0.8447290714
775295350.0 -0.0078388878 0.8438395036 3.33914e-05 -0.0001501942 -1.58844e-05 -5.63997e-05 0.0035185607 0.8448261534
780295320.0 0.0009498569 0.8440613384 7.12656e-05 -0.0001293181 -5.03132e-05 -0.0001771416 0.0122689501 0.8450006177
785295290.0 0.0086118942 0.8432622936 2.66796e-05 9.8102e-06 0.0001674616 -7.33619e-05 0.0209147608 0.8440364535
790295260.0 0.017537491 0.843734402 -4.4276e-06 -0.0002150858 -3.83222e-05 -0.0001394071 0.0298403362 0.8442831432
795295230.0 0.0252447071 0.8434107694 2.17081e-05 3.84588e-05 -5.86622e-05 0.0001068905 0.038083388 0.8432250623
800295200.0 0.0340165925 0.8428684496 2.90514e-05 -3.3545e-05 -4.72821e-05 0.0001780667 0.0467071593 0.8431983803
805295170.0 0.0427494524 0.8426579491 0.0001422517 -8.06703e-05 0.0001210328 4.42317e-05 0.0546108757 0.8430829169
810295140.0 0.0510573443 0.8422296613 -0.0001413273 -1.5718e-06 3.91037e-05 2.34015e-05 0.0633120982 0.8425307999
815295110.0 0.0590980995 0.8415890394 -9.12218e-05 0.0001133217 9.72894e-05 -3.54665e-05 0.0718531545 0.8417382412
820295080.0 0.0671075809 0.8412721789 -8.99064e-05 -3.34934e-05 8.08207e-05 -0.0001025838 0.0797605238 0.8409080092
825295050.0 0.0764605867 0.8406772238 6.83838e-05 -0.0001513878 -0.0001330272 -6.68444e-05 0.087951134 0.8403857034
830295020.0 0.0839952484 0.8400090721 3.94681e-05 -8.96818e-05 -0.0001618569 -3.96341e-05 0.0971566045 0.8394586399
835294990.0 0.0917627323 0.8391311091 -0.0001404168 0.0002397573 -8.58573e-05 0.0001952345 0.1052464735 0.838459031
840294960.0 0.1001657701 0.8383360399 2.00119e-05 -0.0004199524 -6.17086e-05 -0.0001033641 0.1129763132 0.8367841364
845294930.0 0.1081479156 0.8366326792 -0.0001265937 -0.0001847829 7.22041e-05 8.67253e-05 0.120957541 0.8363605058
850294900.0 0.1170777412 0.8360014748 0.0003180745 0.0001028136 8.24999e-05 0.0003233752 0.1294226449 0.8343707229
