!Created with skrf (http://scikit-rf.org).
# Hz S RI R 50.0 
!freq ReS11 ImS11 ReS21 ImS21 ReS12 ImS12 ReS22 ImS22
300000.0 -0.0955400021 -0.0841965597 0.6211459755 0.0796006538 0.6236223396 0.0840612775 -0.0957719578 -0.0941384365
5299970.0 -0.1002362935 0.0127306874 0.6309491039 0.0107464482 0.6306223673 0.0115887827 -0.1022298959 0.0117021083
10299940.0 -0.0953015787 0.0297019185 0.6346653318 0.0158783828 0.6342184123 0.0157685192 -0.0971275629 0.0288285439
15299910.0 -0.0883827188 0.0431841805 0.6403980918 0.0203318306 0.6401785763 0.0212304057 -0.0900749605 0.0419195303
20299880.0 -0.079353723 0.0543388626 0.6490559183 0.0238317955 0.6491492744 0.023821063 -0.0816433712 0.0534292457
25299850.0 -0.0695955132 0.0628396912 0.6579323731 0.0251189648 0.6581262341 0.0251252018 -0.072396862 0.0621139166
30299820.0 -0.0596314446 0.0691760691 0.6680509632 0.0249523289 0.6674201185 0.024353403 -0.06275946 0.0687791277
35299790.0 -0.0493256492 0.0743112616 0.6772826607 0.0219721012 0.677395187 0.0218136019 -0.0523325015 0.0733902611
40299760.0 -0.0394383046 0.0769072902 0.6867546688 0.0178803378 0.6863291404 0.0177052857 -0.0434772352 0.0772680813
45299730.0 -0.030373977 0.0793094567 0.69585746 0.012014997 0.6957242082 0.0120950944 -0.0341278468 0.0792220653
50299700.0 -0.0216210453 0.0797279691 0.7035056003 0.0051067202 0.7033572471 0.0043684908 -0.0252143905 0.0801740882
55299670.0 -0.0141665944 0.079738893 0.7101311528 -0.0032847101 0.7109056208 -0.0029960601 -0.0177509966 0.0799778446
60299640.0 -0.006673883 0.0786190237 0.7171974888 -0.0115583865 0.7173812841 -0.0112775173 -0.0104807883 0.0799237364
65299610.0 -2.31505e-05 0.0779610489 0.7235017218 -0.0197567436 0.7238136186 -0.0201340919 -0.0035493658 0.0785024949
70299580.0 0.006131956 0.0758240833 0.7285964418 -0.0291750062 0.7285263197 -0.0292953641 0.0025224193 0.0772338169
75299550.0 0.0117261528 0.0742885961 0.7325650646 -0.0386868979 0.732725751 -0.0393891761 0.0081894866 0.0757000293
80299520.0 0.0160580505 0.0720315887 0.7379905455 -0.0491009823 0.7375947056 -0.0488445798 0.0132811621 0.0727510658
85299490.0 0.0207225751 0.0695256635 0.7409535648 -0.0588381534 0.7405980441 -0.059038744 0.0175308939 0.0710900131
90299460.0 0.0246264004 0.0672858096 0.7433382748 -0.0687342168 0.7435933169 -0.0689825882 0.0219493778 0.0689459746
95299430.0 0.0283559291 0.0652041567 0.7459735707 -0.0794156264 0.746151099 -0.0790097919 0.0252604395 0.0664750893
100299400.0 0.031475195 0.0625582363 0.7474806709 -0.0891408246 0.7473523068 -0.0894813048 0.0285960957 0.0639765805
105299370.0 0.0345015298 0.0599893356 0.7485336286 -0.0990266865 0.7490814804 -0.0992492183 0.0319699626 0.0619353121
110299340.0 0.0368684201 0.057684945 0.7498940356 -0.1090542359 0.7500216225 -0.1098333241 0.0347267601 0.0594884934
115299310.0 0.0395510038 0.0547755737 0.7511108645 -0.1188044699 0.751121531 -0.118926743 0.0369819191 0.0564077651
120299280.0 0.0412671023 0.0527257922 0.7516148983 -0.1299792828 0.7513157206 -0.1298107522 0.0388203893 0.0542739343
125299250.0 0.0432582705 0.0502374927 0.7519532697 -0.1394434311 0.7515151658 -0.1394171476 0.0413274073 0.0511696526
130299220.0 0.0451687887 0.0478988569 0.7517009494 -0.1488175815 0.7515696145 -0.1495252147 0.043148253 0.0494935018
135299190.0 0.0467538165 0.0454179412 0.751340722 -0.1591681925 0.7508287393 -0.1586974163 0.0443637851 0.0475178247
140299160.0 0.047911303 0.0441581979 0.750609879 -0.1691491272 0.7508138757 -0.1687101088 0.0462421979 0.0453808213
145299130.0 0.0489491353 0.041912038 0.7505018121 -0.1788661191 0.7500494075 -0.1785132473 0.0471925076 0.0426155011
150299100.0 0.0504894303 0.03980477 0.7489705226 -0.1888005274 0.7486242551 -0.1879620709 0.04841491 0.0409811437
155299070.0 0.0510651963 0.0382976309 0.7480061499 -0.1986695449 0.7477018777 -0.1983361218 0.0493300219 0.0386691892
160299040.0 0.0524494827 0.0361240681 0.7459548183 -0.2070660931 0.7464914456 -0.2074416327 0.0506071808 0.0372534221
165299010.0 0.0528693053 0.0341156168 0.7447510557 -0.2168550128 0.7449572786 -0.2170040362 0.0512362355 0.034967353
170298980.0 0.0532290341 0.0324812915 0.7421109587 -0.2258861726 0.7428094093 -0.2260963609 0.0526869003 0.0327529878
175298950.0 0.0545160832 0.0306621427 0.7414086586 -0.2350628221 0.7412944687 -0.2351994473 0.0533077138 0.0311352816
180298920.0 0.0550424456 0.0291061016 0.739135712 -0.2453065675 0.7389278842 -0.2444172113 0.0534210175 0.0297639507
185298890.0 0.0560970126 0.02729588 0.7364982748 -0.2538349612 0.7368172125 -0.253712427 0.0542519705 0.0274028073
190298860.0 0.0561732586 0.025703454 0.7344444423 -0.2630666579 0.7349192302 -0.2632889468 0.055385842 0.0260036779
195298830.0 0.0562857312 0.0240239402 0.7318512058 -0.2714855823 0.7320489902 -0.2723840133 0.0556691244 0.0241968695
200298800.0 0.0568316686 0.0226900812 0.7295075136 -0.2802326869 0.7293296048 -0.2804221089 0.0562710368 0.0231690634
205298770.0 0.0571259081 0.0212532114 0.7264553651 -0.2893855982 0.7265419436 -0.2898170259 0.0563495165 0.0207438269
210298740.0 0.0570667928 0.0196632044 0.7238925643 -0.2989826951 0.7234790344 -0.299071415 0.0564921076 0.019784747
215298710.0 0.0578126752 0.0185379401 0.7209583823 -0.3069430939 0.720730781 -0.3070522692 0.0569887584 0.0182146283
220298680.0 0.0582119786 0.0170738485 0.7174781829 -0.316020064 0.7175149476 -0.3157970354 0.0573762342 0.0173790469
225298650.0 0.0585054317 0.016057228 0.713946191 -0.323908686 0.7137866015 -0.3242098717 0.0575251624 0.015583987
230298620.0 0.0581759628 0.0149169275 0.7110310281 -0.3330568671 0.7111008764 -0.3330066712 0.0577440524 0.0140754948
235298590.0 0.058682122 0.0134271421 0.7073333193 -0.3405928693 0.7072695359 -0.3414973712 0.0580131682 0.0126473509
240298560.0 0.0581662837 0.0120729584 0.7034248348 -0.349347768 0.7038463431 -0.3492290321 0.0583750533 0.0115834188
245298530.0 0.0588998511 0.0112217164 0.699271669 -0.3577815699 0.6998430392 -0.3576562764 0.0584116701 0.0107222502
250298500.0 0.0582717521 0.0095761588 0.6958500314 -0.3656340762 0.6964800402 -0.3659477587 0.05883424 0.0088663557
255298470.0 0.0581229512 0.0088057196 0.6911442106 -0.3745812209 0.6924009729 -0.3739908176 0.0589386433 0.0074039137
260298440.0 0.0583896008 0.0078153814 0.6884231635 -0.3822911594 0.6883943463 -0.3825304309 0.0597321998 0.0068625017
265298410.0 0.059079153 0.0071761957 0.684082717 -0.3908752241 0.6835921441 -0.3911551876 0.0589536001 0.0049446797
270298380.0 0.059382924 0.0053560032 0.6792964235 -0.3986067376 0.6798147422 -0.3980341558 0.0591656704 0.0051375107
275298350.0 0.0584159535 0.0047952729 0.6755357916 -0.406829746 0.675710789 -0.4068297752 0.0589154406 0.0032257162
280298320.0 0.0588052617 0.0039232914 0.6712032638 -0.4134578729 0.6709178346 -0.4140654878 0.059469973 0.0025431528
285298290.0 0.0587231024 0.0031274802 0.6662818404 -0.4214301016 0.6662174558 -0.4222276288 0.0586580005 0.0014539948
290298260.0 0.0587871782 0.0018394249 0.6620294525 -0.4297377172 0.661930716 -0.4295821631 0.0597576606 0.0007110342
295298230.0 0.0587605929 0.0008361582 0.6577087122 -0.4372283231 0.6576655927 -0.4373138267 0.0597700804 -0.0003458286
300298200.0 0.059313237 -9.89922e-05 0.6531097591 -0.4451890244 0.6527674722 -0.4457086419 0.0593996692 -0.0014509649
305298170.0 0.0590318298 -0.0013757286 0.6481769226 -0.4532291537 0.6486573178 -0.4529285275 0.0600401126 -0.0023143498
310298140.0 0.0594730209 -0.0025261892 0.6435415846 -0.4605170537 0.6430842814 -0.4611665053 0.0596892797 -0.0031601571
315298110.0 0.0588290767 -0.0035110408 0.6381653955 -0.4681750645 0.6388842227 -0.4683194539 0.0597993586 -0.0045958909
320298080.0 0.0587936851 -0.0043313286 0.6333135669 -0.4758899677 0.6333476874 -0.4757835039 0.0594874051 -0.0058374572
325298050.0 0.0582102549 -0.0059490643 0.6288067579 -0.4834540418 0.6281935926 -0.4834446382 0.0590670632 -0.0069777508
330298020.0 0.0579242827 -0.0066559603 0.6213105591 -0.4907000803 0.6216519878 -0.4907148773 0.0584701345 -0.0082768124
335297990.0 0.0575535629 -0.0078521728 0.6162386249 -0.4978408697 0.6164721537 -0.4981194112 0.0581968882 -0.0091685807
340297960.0 0.0567086531 -0.0079976537 0.6100651233 -0.5045026838 0.6109746304 -0.50464026 0.0575575867 -0.0096411606
345297930.0 0.0561501477 -0.0084438898 0.6053892147 -0.5107164288 0.6044249034 -0.5108976104 0.0574145474 -0.0106570273
350297900.0 0.0565770322 -0.0093590248 0.5986915946 -0.5178550021 0.5990898238 -0.5179110335 0.0566703621 -0.010822301
355297870.0 0.0559926211 -0.0102752061 0.5931184975 -0.5242426278 0.592938478 -0.5250433063 0.0564190162 -0.0113862388
360297840.0 0.0560482834 -0.0107273061 0.5871258087 -0.531417419 0.5874490288 -0.5314798223 0.056099538 -0.0116126988
365297810.0 0.0557874703 -0.0114976428 0.5813680438 -0.53762005 0.5812526017 -0.5380875618 0.0557861671 -0.0124031729
370297780.0 0.0556471293 -0.0124919984 0.5753818187 -0.5445013267 0.5757616255 -0.5447236368 0.0561594685 -0.0128984948
375297750.0 0.0550422947 -0.0123233885 0.5701512035 -0.55118245 0.569739818 -0.5510090606 0.0556119196 -0.0134083872
380297720.0 0.0551588416 -0.013912888 0.5634174833 -0.5568093792 0.5635547473 -0.5572062636 0.0552811279 -0.0144734235
385297690.0 0.0549160551 -0.0140108877 0.5574191948 -0.5628001198 0.5572236997 -0.5634456888 0.0547488682 -0.0147868706
390297660.0 0.0544302347 -0.0150634823 0.5508811099 -0.5701517849 0.5510502609 -0.5703330149 0.054933571 -0.0158059362
395297630.0 0.0543352515 -0.0157494017 0.544905919 -0.5753882476 0.5449333586 -0.5756847429 0.0542539767 -0.0156893148
400297600.0 0.0534636366 -0.0160111111 0.5379979655 -0.5819337543 0.5386351193 -0.5823100094 0.0534711548 -0.0168247289
405297570.0 0.0536180192 -0.0166489442 0.5318086615 -0.5879352899 0.5319635171 -0.5883505827 0.0533210851 -0.0168151956
410297540.0 0.0535773597 -0.0176127927 0.5251366568 -0.5935256335 0.5251845814 -0.5939663621 0.0531110319 -0.017935079
415297510.0 0.0531437891 -0.0173442759 0.5188899631 -0.5996331734 0.5185345432 -0.5994011155 0.0526210957 -0.0180821405
420297480.0 0.0528688853 -0.0187528821 0.5118676203 -0.6057771745 0.5123384475 -0.6056320344 0.0528180949 -0.0192857669
425297450.0 0.0532202527 -0.0193972321 0.5056618958 -0.6111272102 0.506362316 -0.611077254 0.0516160913 -0.0190495648
430297420.0 0.0524120602 -0.019563604 0.4988927754 -0.6169703797 0.4987959288 -0.6172241406 0.0515059634 -0.0201594502
435297390.0 0.0523597025 -0.0208604406 0.4922638766 -0.622067966 0.4923773422 -0.6219001528 0.0511965569 -0.0201328089
440297360.0 0.0521435953 -0.0215891936 0.484723536 -0.6274981493 0.4842716514 -0.6279325335 0.0510269273 -0.0215609964
445297330.0 0.0522663317 -0.02212205 0.4776304254 -0.6332333883 0.4779882775 -0.6331675334 0.0506939193 -0.0220494031
450297300.0 0.0518582133 -0.0226643596 0.4714371016 -0.63792696 0.4713232675 -0.638912973 0.050174113 -0.0222976194
455297270.0 0.0509214671 -0.0234369368 0.4643797971 -0.6437554553 0.4647767681 -0.6434368142 0.0504145404 -0.0228514979
460297240.0 0.0506084104 -0.0239345423 0.4569006341 -0.6488200796 0.4568278335 -0.6483361506 0.0496598531 -0.0225698975
465297210.0 0.0506210471 -0.0246606777 0.4498414506 -0.6540709777 0.4503786228 -0.6538526994 0.0489151688 -0.0236114149
470297180.0 0.0496421366 -0.0252079749 0.4428593605 -0.6584663324 0.4433071632 -0.6589105814 0.0480346588 -0.0241271958
475297150.0 0.0494355476 -0.0264788416 0.4354841764 -0.6636392391 0.4355874461 -0.6627564558 0.0478899841 -0.0247088546
480297120.0 0.049913232 -0.026797962 0.4285280084 -0.6679939285 0.428975871 -0.6684139261 0.0474996595 -0.0246077843
485297090.0 0.0493669992 -0.0273500896 0.421313502 -0.6726710657 0.4211572168 -0.6734248053 0.047110558 -0.0258406354
490297060.0 0.0489555747 -0.0283034461 0.4134614316 -0.6776071644 0.4138479659 -0.6777916613 0.0466690828 -0.0255414069
495297030.0 0.0479605008 -0.0282136906 0.406289192 -0.6823710956 0.4060364266 -0.6826484302 0.0465698343 -0.0265239999
500297000.0 0.0480599889 -0.0292990786 0.3986656517 -0.686470589 0.3988648644 -0.6869267274 0.0451414708 -0.0271071572
505296970.0 0.0472103019 -0.029492577 0.3904943328 -0.6906470493 0.3907835807 -0.6909584445 0.0447304526 -0.0274503684
510296940.0 0.0468828651 -0.0303089151 0.3834112115 -0.6957089888 0.3833612475 -0.6954630237 0.0449679488 -0.0272151459
515296910.0 0.0462017977 -0.0304361104 0.3751688495 -0.6989559028 0.3749414567 -0.699758482 0.0438039545 -0.0283959822
520296880.0 0.0458433236 -0.0314937416 0.3676751862 -0.7035004274 0.3684051279 -0.7033998352 0.0443583289 -0.0285261967
525296850.0 0.0451427736 -0.0321443521 0.3602140909 -0.7077843624 0.3601834123 -0.707911734 0.0436684779 -0.028871404
530296820.0 0.044871614 -0.0322169357 0.3531910084 -0.7107476938 0.3524398179 -0.7117619086 0.0427350789 -0.0301715874
535296790.0 0.0441124279 -0.0330630902 0.3445428538 -0.7148333443 0.3451410871 -0.714921821 0.0424254437 -0.0303790359
540296760.0 0.0438702254 -0.0339941572 0.3367836047 -0.7194408073 0.3363346146 -0.7192538964 0.0413884708 -0.03006494
545296730.0 0.0433031915 -0.0335323006 0.3286147579 -0.7222741463 0.3287867642 -0.7229556882 0.0411741997 -0.0313676278
550296700.0 0.0424436067 -0.0345205292 0.3213780712 -0.726286589 0.3218491681 -0.7269259308 0.0404490955 -0.0307032139
555296670.0 0.0423911892 -0.0351653371 0.3136881903 -0.7299165644 0.3130744009 -0.7299874114 0.0400380777 -0.0315117879
560296640.0 0.0419153637 -0.035658271 0.3055975677 -0.733296135 0.3055002382 -0.7327386039 0.0397549846 -0.0315891186
565296610.0 0.0407541144 -0.0359900475 0.2969582915 -0.7367625811 0.2968579867 -0.7363781548 0.038784014 -0.0321752476
570296580.0 0.0410065788 -0.03669618 0.2894380828 -0.7395793613 0.2894721255 -0.7397139568 0.0386633053 -0.0317601816
575296550.0 0.0402136789 -0.0362533813 0.2809385125 -0.7425407875 0.2814034194 -0.7426473859 0.038286521 -0.0327307663
580296520.0 0.0394037949 -0.0371509747 0.2731737854 -0.746183316 0.2725070556 -0.7464834663 0.0374831905 -0.0334955054
585296490.0 0.03913795 -0.038022165 0.2651565907 -0.7489129565 0.2645306799 -0.7490746092 0.0368574948 -0.0341842496
590296460.0 0.0381532362 -0.0387675132 0.2567677145 -0.7516756084 0.2561562187 -0.7519108517 0.0369036668 -0.0334060136
595296430.0 0.0374949683 -0.038576506 0.2483146219 -0.7546704575 0.2483924333 -0.7547179319 0.0363916027 -0.0338368072
600296400.0 0.0371746228 -0.0384649478 0.2400289456 -0.7571434993 0.2405132689 -0.7572547662 0.0354269511 -0.0344952546
605296370.0 0.0367325514 -0.0386287692 0.2319882998 -0.7596352991 0.2319119377 -0.7595155329 0.0351051919 -0.034996103
610296340.0 0.0359018646 -0.0393626882 0.2239125092 -0.7623554602 0.2234617378 -0.7625225333 0.0345739037 -0.034660738
615296310.0 0.0351152359 -0.0396419441 0.2148268146 -0.7646445207 0.2149855573 -0.764382911 0.0340936455 -0.0352220846
620296280.0 0.0345469481 -0.0401288977 0.2071767989 -0.7668195231 0.207030152 -0.7669274729 0.0336234932 -0.0355305987
625296250.0 0.0343627269 -0.0401957885 0.1981519637 -0.7694915416 0.1984107946 -0.7693600641 0.0331389072 -0.0355045267
630296220.0 0.0335280281 -0.0407614793 0.1899015308 -0.7714056262 0.1903771968 -0.7713962525 0.0318707403 -0.0359015911
635296190.0 0.0329860546 -0.0409420876 0.1816658372 -0.772743017 0.181166882 -0.7726196021 0.0314721954 -0.036457884
640296160.0 0.0321012164 -0.0412349162 0.173178935 -0.7746934994 0.1730179051 -0.7752744112 0.0316873048 -0.0366667386
645296130.0 0.0319122667 -0.0411673042 0.1651158097 -0.7772300593 0.1645760202 -0.7765747156 0.0296205449 -0.0371203088
650296100.0 0.0310658706 -0.0407890838 0.1563971282 -0.7788918598 0.156794257 -0.7784150505 0.0297934981 -0.0373979957
655296070.0 0.0303627837 -0.0421710917 0.1477960278 -0.7805175087 0.1473264311 -0.7803101113 0.0299018663 -0.0368756847
660296040.0 0.0291195405 -0.041887366 0.1392226554 -0.7817809217 0.1392840322 -0.7814580723 0.0284940535 -0.0378062158
665296010.0 0.0292774355 -0.0422807071 0.1311188203 -0.7830712489 0.1316795894 -0.7836115035 0.0279695942 -0.03735267
670295980.0 0.0290648495 -0.0422734848 0.1226812123 -0.7847091824 0.1225059634 -0.7848788123 0.0270141721 -0.0380547008
675295950.0 0.0282282823 -0.0424527982 0.1140886064 -0.7860120198 0.1137224342 -0.7866009828 0.02694393 -0.0379408684
680295920.0 0.0274189291 -0.0424929216 0.1047397442 -0.7872762928 0.1051890992 -0.787377302 0.0265207202 -0.0385270979
685295890.0 0.0264665925 -0.042763718 0.0968852651 -0.7881112863 0.0957144212 -0.7883171815 0.0256444725 -0.0381326166
690295860.0 0.0265020582 -0.0432153754 0.087745874 -0.7887022827 0.0871336048 -0.7890019626 0.0256290638 -0.0382470502
695295830.0 0.0262673893 -0.0434976114 0.0786228428 -0.7903863048 0.0788176475 -0.7903979885 0.0241945311 -0.038547988
700295800.0 0.0254857919 -0.0433492854 0.0710330176 -0.7907974403 0.0705172655 -0.7911337347 0.0236802699 -0.0392880574
705295770.0 0.0247696408 -0.0434844622 0.0617649082 -0.7915772702 0.0619055671 -0.7918373403 0.0227071355 -0.0390900039
710295740.0 0.0241376637 -0.0430655701 0.0529388403 -0.7922779395 0.0527639487 -0.7920195385 0.0214697612 -0.0389225943
715295710.0 0.0236237954 -0.0437768596 0.0445739534 -0.7923731678 0.0451543585 -0.7928468566 0.0218420085 -0.0399448477
720295680.0 0.0228758453 -0.0442116967 0.0358392143 -0.7930323105 0.0363448268 -0.7936637577 0.021456162 -0.0393208521
725295650.0 0.0224247973 -0.0442867437 0.0269929304 -0.7930942102 0.0272671804 -0.7932373773 0.0207833205 -0.0390834938
730295620.0 0.021101861 -0.0443989427 0.0187136274 -0.7935463893 0.0186043575 -0.7938049043 0.0205944113 -0.0403459612
735295590.0 0.0214511711 -0.0443443656 0.0104772222 -0.7940996828 0.0106254001 -0.7939509472 0.0193019469 -0.0392749375
740295560.0 0.0201718386 -0.044156017 0.0013473541 -0.7934730091 0.0015418223 -0.7937034514 0.0195791773 -0.0398209031
745295530.0 0.0198039932 -0.0448562806 -0.0065640033 -0.7941249491 -0.0067572058 -0.793931085 0.0179538639 -0.0399029682
750295500.0 0.0192922193 -0.0448588378 -0.0157352514 -0.7929918339 -0.0155185722 -0.7932481677 0.0181409507 -0.0404905767
755295470.0 0.0189098936 -0.0444209036 -0.0243541655 -0.7934210602 -0.0241736093 -0.7935826814 0.016760344 -0.0401178329
760295440.0 0.0177022733 -0.0444978587 -0.0328827473 -0.7930206006 -0.0333062983 -0.7936414468 0.015806001 -0.0405336587
765295410.0 0.0169616629 -0.0450142625 -0.0408801773 -0.7923244529 -0.0412007047 -0.7928494023 0.0162644928 -0.0397252713
770295380.0 0.0166776623 -0.0448906955 -0.0500356513 -0.7922301212 -0.0499909499 -0.7925190415 0.0156602111 -0.0400095763
775295350.0 0.0160136725 -0.0446666524 -0.0585239855 -0.7913124397 -0.0584784094 -0.7917378022 0.0144556369 -0.0409834758
780295320.0 0.0155360917 -0.0449173587 -0.0666539074 -0.7909553204 -0.0664011673 -0.7906491906 0.0139502767 -0.0401387314
785295290.0 0.0148638523 -0.0446660176 -0.0755846129 -0.789137909 -0.0761806773 -0.79007898 0.0132203603 -0.0403193298
790295260.0 0.0140775875 -0.0446488366 -0.084136668 -0.7896554069 -0.0843376344 -0.7893078225 0.0130931003 -0.0403056278
795295230.0 0.0133488599 -0.0447904757 -0.0922762596 -0.7879009488 -0.0924989134 -0.7878073206 0.0122745859 -0.0394603441
800295200.0 0.0130587971 -0.0444655902 -0.101825409 -0.7870720421 -0.1021223932 -0.7875896846 0.0119031597 -0.0402680614
805295170.0 0.0118624314 -0.0449208872 -0.1099849647 -0.7855785764 -0.1101350056 -0.7854272888 0.0107212133 -0.0404779669
810295140.0 0.0116160284 -0.0447606566 -0.1183943946 -0.7845395249 -0.1182668116 -0.7851335747 0.0105079898 -0.0398225118
815295110.0 0.0108095788 -0.0443865885 -0.1274676733 -0.7830888516 -0.1278468574 -0.7833537496 0.0093457111 -0.0405763734
820295080.0 0.0101854762 -0.0447987462 -0.1355632062 -0.7817473289 -0.1356615729 -0.7822098547 0.0089303664 -0.0401031075
825295050.0 0.0096019239 -0.0446485149 -0.1439647984 -0.7800917343 -0.1440236614 -0.7802679142 0.0087235984 -0.0398156772
830295020.0 0.0087251078 -0.0442431516 -0.1529041888 -0.7790417944 -0.1529364923 -0.7792921856 0.0081660909 -0.0400514683
