!Created with skrf (http://scikit-rf.org).
# Hz S RI R 50.0 
!freq ReS11 ImS11 ReS21 ImS21 ReS12 ImS12 ReS22 ImS22
300000.0 -0.2390919965 -0.1014755446 0.46606559 0.0664803764 0.4681383311 0.070570346 -0.2350785028 -0.1100996383
5299970.0 -0.2436187709 0.0071644689 0.4738732055 0.0054349486 0.473893526 0.0060254646 -0.2442473901 0.0057294498
10299940.0 -0.2403858614 0.0196093218 0.4760114753 0.0065856654 0.4757574578 0.0065300279 -0.2413160549 0.0181520535
15299910.0 -0.2362116172 0.0294164144 0.47960627 0.0076070313 0.4797857772 0.0081627873 -0.2368558923 0.0274380953
20299880.0 -0.2306738662 0.0370929085 0.4845437588 0.0083213133 0.4845017567 0.0085836081 -0.2323901565 0.0354117175
25299850.0 -0.2247965574 0.0436013851 0.4894250867 0.0071003739 0.4895443415 0.0072620901 -0.2271633172 0.0415596724
30299820.0 -0.2190032996 0.0484391897 0.4952612991 0.0054124656 0.4948049236 0.0052010484 -0.2217048685 0.046838578
35299790.0 -0.212918044 0.0527788099 0.5000301334 0.0023869928 0.5002589437 0.0021584526 -0.216087325 0.0510077113
40299760.0 -0.2075486814 0.055647863 0.5054307606 -0.0013969922 0.5056495303 -0.0013619031 -0.2114341289 0.0546764543
45299730.0 -0.2026036861 0.0586646202 0.5104882085 -0.0065483604 0.5104407777 -0.0063820037 -0.2067298879 0.0572648018
50299700.0 -0.197816697 0.0601144431 0.5144151536 -0.0118565237 0.5145676301 -0.012018012 -0.2020611039 0.0595571793
55299670.0 -0.1938009457 0.0617197408 0.5181067957 -0.0183475776 0.5180661533 -0.0179584321 -0.1985035023 0.0612975626
60299640.0 -0.1895092203 0.0627312369 0.5209304679 -0.0243846341 0.5214784294 -0.0242624525 -0.1947048948 0.0630933474
65299610.0 -0.1864146284 0.0640256587 0.524739449 -0.030087314 0.5249384965 -0.0304910717 -0.1911249146 0.0646964218
70299580.0 -0.1827561204 0.0643390745 0.5268690769 -0.0368525092 0.5270193919 -0.0375189058 -0.1878954589 0.0656583061
75299550.0 -0.1798517227 0.0653488311 0.528853958 -0.0436821377 0.5287652162 -0.0437720286 -0.185226818 0.0668400559
80299520.0 -0.1775179952 0.0656731957 0.5307555175 -0.0507296392 0.5308877836 -0.0509948476 -0.18242122 0.0672478184
85299490.0 -0.174693679 0.0660084345 0.5322291127 -0.0577156531 0.5321653063 -0.0580729333 -0.1804056353 0.0685471567
90299460.0 -0.1726597236 0.0666061331 0.5327657305 -0.0643571205 0.5333307838 -0.0646530804 -0.1778740788 0.0691489395
95299430.0 -0.1705659525 0.0673181893 0.5343517638 -0.0721665869 0.5342750848 -0.0713688026 -0.1761381262 0.0701691996
100299400.0 -0.1688773995 0.0675748022 0.534627195 -0.0787054062 0.5346991092 -0.0786806826 -0.1744899785 0.0709316225
105299370.0 -0.166992295 0.0683143231 0.5348133158 -0.0856018787 0.5347947737 -0.0850361491 -0.1723982078 0.0715126351
110299340.0 -0.1655503559 0.0685247103 0.5347754993 -0.0919248551 0.5348070506 -0.0925868374 -0.1705104075 0.072525802
115299310.0 -0.1638466722 0.0686679676 0.5345957113 -0.0986791214 0.5348848313 -0.0986907469 -0.16888927 0.0728970652
120299280.0 -0.1629227119 0.0696528663 0.5348748481 -0.1060932015 0.534689083 -0.1062386105 -0.1680260956 0.0742169161
125299250.0 -0.1617374509 0.0698928474 0.5343305724 -0.1125716252 0.5347175999 -0.1126043315 -0.1663522165 0.0747298966
130299220.0 -0.1606798393 0.070564081 0.5337747881 -0.1184992271 0.5335330404 -0.1194510664 -0.1654124567 0.0758466827
135299190.0 -0.1591169363 0.0710437399 0.5331164996 -0.1257369268 0.5326474696 -0.125905534 -0.1643337862 0.0769789824
140299160.0 -0.1586684787 0.0723813571 0.5323600089 -0.1326534049 0.5326669699 -0.1328372432 -0.1629560098 0.0781082648
145299130.0 -0.1574636184 0.0727846289 0.5317688507 -0.1392543171 0.5313757216 -0.1390499106 -0.1621902023 0.0788198764
150299100.0 -0.1564312424 0.0736264334 0.5301415953 -0.1460416158 0.5302911732 -0.145643275 -0.160904064 0.0798432797
155299070.0 -0.1557555099 0.0747567123 0.5290988857 -0.1523566609 0.5291463584 -0.1526628932 -0.1600197542 0.0811897029
160299040.0 -0.1549469955 0.0752883345 0.5274391907 -0.1582874675 0.5281682411 -0.1590166871 -0.1591091368 0.0826701188
165299010.0 -0.1542818083 0.0761838465 0.5266903389 -0.1654956801 0.526173562 -0.165195398 -0.1578535353 0.0835571024
170298980.0 -0.1536456686 0.0773384405 0.5241871594 -0.1715301446 0.5246766184 -0.1717186024 -0.1567611553 0.0846220181
175298950.0 -0.1527054437 0.0780967269 0.5234748438 -0.1775041938 0.5235572033 -0.1777358075 -0.1559375517 0.0855427145
180298920.0 -0.1516106843 0.0793932569 0.5216784887 -0.1844330373 0.5217134586 -0.1837768338 -0.1548688324 0.0870185169
185298890.0 -0.1509897568 0.0801067723 0.5192316082 -0.1905247989 0.5196673337 -0.1904605174 -0.1539819954 0.0883805233
190298860.0 -0.1501832542 0.0812086777 0.5174587647 -0.1966195025 0.518154027 -0.1967957531 -0.1527972818 0.0895532859
195298830.0 -0.1495930899 0.081958446 0.515565877 -0.2020834353 0.5158816952 -0.2029096563 -0.1517571521 0.0905153619
200298800.0 -0.1488106051 0.0834519678 0.5136285694 -0.2081640042 0.5138529621 -0.2085648005 -0.1508917728 0.0922625522
205298770.0 -0.1481509705 0.0845329155 0.5113125154 -0.2147928885 0.5116268981 -0.2148664692 -0.1501476136 0.0932804159
210298740.0 -0.1476899192 0.0855298109 0.5095415422 -0.2207052216 0.509535108 -0.2209184983 -0.1492443094 0.0948236333
215298710.0 -0.1466755297 0.0867353512 0.5070995052 -0.2269801578 0.5069182102 -0.2265533372 -0.1482733038 0.096193988
220298680.0 -0.1459609108 0.0880522554 0.504428648 -0.2327848866 0.5046492835 -0.2329677456 -0.1472380019 0.0978982388
225298650.0 -0.1450927685 0.0894064723 0.5019445211 -0.2378991496 0.5017064622 -0.2383087432 -0.1466928611 0.0991649568
230298620.0 -0.1447000612 0.0907680324 0.4993446378 -0.2443595822 0.4997079021 -0.2443160565 -0.1450660801 0.1005015482
235298590.0 -0.1437140739 0.0916195732 0.4971544391 -0.2497618713 0.4972274756 -0.2505256617 -0.1440675702 0.1016333782
240298560.0 -0.1429464287 0.0930553609 0.4942286689 -0.2560525701 0.4942203246 -0.2554560481 -0.1432197052 0.103289156
245298530.0 -0.1419821983 0.0942511666 0.4908847945 -0.2613362939 0.4915174958 -0.2616194385 -0.1419105858 0.1050843991
250298500.0 -0.1413737277 0.0954526508 0.4884638336 -0.266691611 0.4888576458 -0.2666551204 -0.1408738852 0.1062336838
255298470.0 -0.1409434608 0.0967288071 0.4854549349 -0.2727653333 0.4857513468 -0.2726299427 -0.1395755748 0.107581536
260298440.0 -0.139902961 0.0979135718 0.4829000596 -0.2778251736 0.482716631 -0.2783389039 -0.1379077437 0.1090763806
265298410.0 -0.1386463513 0.0994139254 0.4796313086 -0.2841485148 0.4795002776 -0.283816063 -0.1376070265 0.1101850618
270298380.0 -0.1376903429 0.1006872904 0.4763011431 -0.2892279663 0.4768411072 -0.2889799575 -0.1363125588 0.112189141
275298350.0 -0.1371843316 0.1020764369 0.4733849873 -0.2947481664 0.4740472304 -0.294973001 -0.1349025797 0.1135082518
280298320.0 -0.136256181 0.103454384 0.4700453858 -0.2993380563 0.4701181531 -0.3004906726 -0.1334044995 0.114974348
285298290.0 -0.1352304026 0.1049222951 0.4671138606 -0.3049271653 0.4670354004 -0.3053566244 -0.1326092548 0.1164702041
290298260.0 -0.1343170874 0.1056818543 0.4635869131 -0.3105105584 0.4635680952 -0.3106158837 -0.1309048224 0.1179859577
295298230.0 -0.1333716892 0.1071566414 0.4604665058 -0.3157379876 0.4600925048 -0.3161401571 -0.129456147 0.119150031
300298200.0 -0.1319778974 0.108245489 0.4564071106 -0.3213184493 0.4573371012 -0.3210515137 -0.1282088012 0.1207875869
305298170.0 -0.1312561567 0.1096145986 0.4536564581 -0.3265003152 0.4538782673 -0.3264253172 -0.1269673378 0.1223858202
310298140.0 -0.1298144872 0.1106206151 0.4498624645 -0.3317143542 0.4500787378 -0.3320523416 -0.1257952882 0.124059105
315298110.0 -0.1293436826 0.1119603987 0.4462635186 -0.3369837872 0.4465865743 -0.3370822 -0.1239646175 0.1251753915
320298080.0 -0.1280383347 0.113264983 0.4425585077 -0.3421485702 0.4425553622 -0.3422883006 -0.1227267657 0.1264913375
325298050.0 -0.1274945889 0.1142376545 0.4392606443 -0.3472359755 0.4389800468 -0.3472665265 -0.1213215925 0.1276231804
330298020.0 -0.1263083341 0.1155159083 0.4340967509 -0.3521064269 0.4344706817 -0.3522439433 -0.1203009858 0.1288647778
335297990.0 -0.1254665248 0.1166934572 0.4306160894 -0.3573505098 0.4303873519 -0.3571378878 -0.1191775584 0.1302875812
340297960.0 -0.124811405 0.1181979043 0.426209754 -0.3616342408 0.4266579208 -0.3613928391 -0.1181666025 0.1317480013
345297930.0 -0.1237938158 0.1196743856 0.4223000413 -0.3661327906 0.4223003161 -0.366084765 -0.1163619522 0.1331251654
350297900.0 -0.1223489517 0.120935729 0.4180204285 -0.370407527 0.4181806735 -0.3712326079 -0.1150594978 0.1350972487
355297870.0 -0.1215891519 0.1222219867 0.4139426777 -0.3753668466 0.4138655385 -0.375892765 -0.1135493976 0.1363958911
360297840.0 -0.120173335 0.1232890013 0.4100227582 -0.3802231812 0.4097175675 -0.3801504334 -0.112166655 0.1379788502
365297810.0 -0.1190612374 0.1247344253 0.4054295933 -0.3844747695 0.40566347 -0.3846862667 -0.111007006 0.1395460688
370297780.0 -0.1177596853 0.1258361117 0.4008978482 -0.388825452 0.4016499315 -0.3893394323 -0.1093482779 0.1407682316
375297750.0 -0.1167592897 0.1275673275 0.3978487637 -0.3939999163 0.3969350676 -0.3939056939 -0.1076188653 0.142496937
380297720.0 -0.1154677169 0.1283677974 0.3926353172 -0.3975774638 0.3928472639 -0.3978385981 -0.1061208898 0.1437485662
385297690.0 -0.1141153523 0.1298798904 0.388083713 -0.401856752 0.388503873 -0.4019864106 -0.1044509837 0.1450609178
390297660.0 -0.1131941935 0.1312088337 0.383764392 -0.4067337196 0.383845008 -0.4065098793 -0.1030337054 0.1463278935
395297630.0 -0.1117753084 0.1323649819 0.3795695013 -0.4105414286 0.3794391291 -0.4102518729 -0.1015437367 0.1478375954
400297600.0 -0.1107140142 0.1335329783 0.3745683192 -0.4146269414 0.3749417295 -0.414914779 -0.1000524144 0.1490340961
405297570.0 -0.1093008423 0.1346300385 0.3704292736 -0.418822601 0.370344523 -0.4191377181 -0.0983186542 0.1507696426
410297540.0 -0.1077954553 0.1358793309 0.3653637868 -0.4225338055 0.3653799367 -0.422654634 -0.0969381154 0.151782617
415297510.0 -0.1067243715 0.1373703127 0.3607543291 -0.4266868469 0.361142742 -0.4267133169 -0.0952593882 0.1533564735
420297480.0 -0.1053745253 0.1382932648 0.3562247861 -0.431069573 0.3561987447 -0.4306831083 -0.0935991205 0.1544932797
425297450.0 -0.1038485779 0.1391905275 0.3517149713 -0.4343466134 0.3518276078 -0.4347811219 -0.0917138431 0.1559073408
430297420.0 -0.102930725 0.1405672875 0.3468602741 -0.438964536 0.3467017536 -0.4387576414 -0.0901844333 0.1570047406
435297390.0 -0.1011015637 0.1416884709 0.3418839704 -0.4419892091 0.341843471 -0.4420257195 -0.0883258941 0.1583036442
440297360.0 -0.09980884 0.1425718846 0.3367414841 -0.4457941591 0.3368601683 -0.4457374191 -0.0866568774 0.1590326596
445297330.0 -0.0981586341 0.1436046893 0.3317462597 -0.4498020838 0.3320920398 -0.4494989196 -0.0853283752 0.1603663172
450297300.0 -0.0967804026 0.1447117928 0.3269728968 -0.453110042 0.327486677 -0.4532953657 -0.0836863494 0.1617527655
455297270.0 -0.0956546322 0.1457501921 0.3223891355 -0.4568657947 0.3225715383 -0.4566185734 -0.0813018698 0.1625997224
460297240.0 -0.094526448 0.1468883437 0.3169845069 -0.459807651 0.3167511244 -0.460040888 -0.0794946891 0.1641428927
465297210.0 -0.0925302986 0.1479127434 0.3124485249 -0.4633683476 0.3122834451 -0.4634122839 -0.0782687798 0.1647218842
470297180.0 -0.0912995104 0.1489065565 0.3071553652 -0.4669759359 0.3072648656 -0.466947422 -0.0768573613 0.1658546983
475297150.0 -0.0901936786 0.1498546135 0.301853558 -0.4699045241 0.3021051165 -0.4695970944 -0.0742136602 0.166929395
480297120.0 -0.0883247597 0.150571742 0.2966467144 -0.4733243379 0.2974561184 -0.473254418 -0.0728348444 0.1686703861
485297090.0 -0.086671656 0.1516850864 0.2915986683 -0.4766178018 0.2914777185 -0.476446191 -0.0711674749 0.1690614868
490297060.0 -0.0852304827 0.1525341716 0.2861268736 -0.4797600361 0.28667332 -0.4799846202 -0.0692259128 0.1701004904
495297030.0 -0.0842098301 0.1537171309 0.2813721329 -0.4826029298 0.280663792 -0.4825250273 -0.0674799 0.1708448556
500297000.0 -0.0824406502 0.1545118064 0.2759800113 -0.4857409779 0.2757304199 -0.4855189112 -0.0658126917 0.1722329022
505296970.0 -0.081018807 0.1553066781 0.2701853929 -0.4881867379 0.2703944355 -0.4886426553 -0.0643236853 0.1729953712
510296940.0 -0.0797919394 0.1565531408 0.265392515 -0.4919183986 0.2652148826 -0.4914878855 -0.0618095151 0.1739821764
515296910.0 -0.0782675986 0.1575162211 0.2597592531 -0.4944144546 0.259900735 -0.4942566938 -0.0602938918 0.1748478199
520296880.0 -0.0765662048 0.1580391756 0.25430828 -0.4970344037 0.2546361535 -0.4972666265 -0.0582432301 0.1754379709
525296850.0 -0.0753033867 0.158707632 0.2490889583 -0.4997629475 0.2491965172 -0.5003079693 -0.0560341436 0.1764777762
530296820.0 -0.073569637 0.1596328558 0.244036776 -0.5018522958 0.243722593 -0.5023765982 -0.0546295306 0.1768164589
535296790.0 -0.0720402507 0.1607048923 0.2378612711 -0.5047049046 0.2384292231 -0.5046799977 -0.0527118606 0.177674783
540296760.0 -0.070429772 0.1611067541 0.232351563 -0.5079484343 0.2324364488 -0.5077935423 -0.0511940616 0.1787953676
545296730.0 -0.0689339192 0.1623853255 0.2269852441 -0.5098576852 0.2268485476 -0.5103177237 -0.0492599423 0.1792907733
550296700.0 -0.0674984142 0.1628952076 0.2216809901 -0.5124270079 0.2222593473 -0.5132378674 -0.0472358838 0.1804438096
555296670.0 -0.0652737377 0.1634737746 0.2156946519 -0.5146105136 0.2159632794 -0.5147603126 -0.0450888504 0.1810753017
560296640.0 -0.0643520634 0.164342112 0.2108619808 -0.5167863046 0.2104613283 -0.5170936395 -0.0431774343 0.1814104606
565296610.0 -0.0628319728 0.1651451567 0.2044448053 -0.5189591051 0.2047359566 -0.5193836921 -0.0415749801 0.1819317006
570296580.0 -0.0604994482 0.1658265704 0.1987142197 -0.5210720937 0.1995132649 -0.521573288 -0.0394356351 0.1833484722
575296550.0 -0.0593818147 0.1668280014 0.1934421724 -0.5234218164 0.1940654305 -0.5234060678 -0.037327103 0.1833931892
580296520.0 -0.0578082176 0.1674561164 0.187943325 -0.5256203454 0.1879462045 -0.5257849777 -0.0356388461 0.1838096881
585296490.0 -0.0560501716 0.1680837976 0.1821631057 -0.5273528267 0.182199093 -0.5276350786 -0.0335060536 0.1844843578
590296460.0 -0.0545504695 0.1684454148 0.1761845185 -0.5292844951 0.1763984059 -0.5296708238 -0.0317396114 0.1850325288
595296430.0 -0.05300899 0.1695006931 0.1708212791 -0.5313457842 0.1705918831 -0.5317430898 -0.0296221838 0.1855718346
600296400.0 -0.0514885964 0.1702398256 0.1652366086 -0.5334022175 0.1652821737 -0.533056622 -0.027650842 0.1861648078
605296370.0 -0.0493775498 0.170997405 0.1592809799 -0.535238937 0.1591414208 -0.5348809729 -0.0252729177 0.1862645718
610296340.0 -0.0479059047 0.171201954 0.1537551857 -0.5364544183 0.1537935032 -0.536424842 -0.0234084804 0.1871892974
615296310.0 -0.0464156603 0.1722385907 0.1476302662 -0.5382833046 0.1472669931 -0.538289792 -0.0215973483 0.1874755731
620296280.0 -0.0446154214 0.1726175578 0.1415956788 -0.5395155892 0.1419160297 -0.5394807566 -0.0197393588 0.1872829076
625296250.0 -0.042966879 0.1732872509 0.1356035078 -0.541430059 0.1357236471 -0.5416653861 -0.0171473666 0.1881196312
630296220.0 -0.0412219674 0.1738835716 0.1298510314 -0.5427481936 0.1304456979 -0.5429309066 -0.0153882344 0.1884770562
635296190.0 -0.039560259 0.1743776811 0.1239882147 -0.5437165086 0.1241791588 -0.5434437879 -0.0135961017 0.1889421772
640296160.0 -0.0376850892 0.1745725086 0.1183936883 -0.544790122 0.1183404243 -0.545112141 -0.0112724318 0.1891303577
645296130.0 -0.0360907116 0.1754359579 0.1123477369 -0.5462553299 0.1124065568 -0.5461288725 -0.0099168505 0.188868896
650296100.0 -0.0345080739 0.1761920402 0.1068556814 -0.5474698707 0.1065322295 -0.5471277922 -0.007134554 0.1893670552
655296070.0 -0.0327762313 0.1760996061 0.1006707233 -0.5480012616 0.1005970403 -0.5487264519 -0.0053006729 0.1900596079
660296040.0 -0.0314745027 0.1770955806 0.094655362 -0.5491119883 0.0945333398 -0.5494757666 -0.0033490074 0.1896780507
665296010.0 -0.0292259482 0.1771094224 0.088683483 -0.5502430665 0.0892819894 -0.5502565321 -0.0015312417 0.1901726716
670295980.0 -0.027302231 0.1777788663 0.082936066 -0.5515867785 0.0831672891 -0.5510243842 0.0005604395 0.1900539575
675295950.0 -0.025563706 0.1781686534 0.0767483185 -0.5520845252 0.0770967227 -0.5526650001 0.003029968 0.1903877952
680295920.0 -0.0241472786 0.1788271298 0.0706935201 -0.5530544355 0.0707926564 -0.5532073937 0.0052488212 0.1903537537
685295890.0 -0.0224653337 0.1791008638 0.0651976412 -0.5535733271 0.0649541758 -0.5540946149 0.0073390609 0.1907870892
690295860.0 -0.0204856766 0.179230112 0.0589718847 -0.5536430018 0.0586389978 -0.5543271117 0.0093377128 0.1911335495
695295830.0 -0.0184677542 0.1794162342 0.052223383 -0.5544248799 0.052894823 -0.5549934364 0.011059369 0.1908465528
700295800.0 -0.0166115749 0.1800670307 0.046415675 -0.5554659604 0.0468827237 -0.5557160331 0.0134097925 0.1902739871
705295770.0 -0.0150610617 0.1801990991 0.0404913798 -0.555379214 0.0410826491 -0.5557194626 0.0153710166 0.1906963776
710295740.0 -0.0133498154 0.1805726241 0.0345791323 -0.556125297 0.0350753318 -0.5561415371 0.0166918089 0.1909501703
715295710.0 -0.0116684054 0.180979695 0.0286249174 -0.5564227631 0.0293131993 -0.5566281622 0.0194663066 0.1901852296
720295680.0 -0.0099189638 0.1808966386 0.022893645 -0.5564606658 0.0229798258 -0.557281806 0.0217784462 0.1906292051
725295650.0 -0.0079286885 0.1815750553 0.0163655623 -0.5568359352 0.0169285508 -0.5568387607 0.0237987906 0.1904990348
730295620.0 -0.0062956482 0.1813253834 0.0105305283 -0.5568549228 0.0108628289 -0.5570732482 0.0261138267 0.1900112546
735295590.0 -0.0040380817 0.1815320759 0.0049464982 -0.5565318973 0.0050372388 -0.5574271355 0.0280558366 0.1903419387
740295560.0 -0.00279848 0.1821893699 -0.001242411 -0.5567968168 -0.0012531699 -0.5571173543 0.030168385 0.1899246576
745295530.0 -0.0010165556 0.1818508209 -0.0071041237 -0.5567267578 -0.0065194184 -0.5573542797 0.0320518093 0.1900230768
750295500.0 0.0007158388 0.1822063559 -0.0128695695 -0.5566667442 -0.0130614261 -0.556788815 0.0343873781 0.1890409618
755295470.0 0.0029774377 0.182639049 -0.0191213337 -0.5562580316 -0.0185439514 -0.5567567467 0.0358283964 0.1894347485
760295440.0 0.0043190776 0.1827854676 -0.025155807 -0.5561781862 -0.025325935 -0.5563988003 0.0378090312 0.1890118136
765295410.0 0.0060283123 0.1826240147 -0.0308109075 -0.5556373133 -0.0308563394 -0.556408275 0.040716821 0.1893200583
770295380.0 0.0083863701 0.1832234134 -0.0372517483 -0.5554763459 -0.0369721959 -0.5560681771 0.042665517 0.1890887144
775295350.0 0.0099347102 0.183009029 -0.0431552522 -0.5548048807 -0.0430390326 -0.5549680136 0.0442457768 0.1876097656
780295320.0 0.0117681862 0.182862255 -0.049124349 -0.5545893885 -0.0487290574 -0.5545923266 0.0464704955 0.1880363356
785295290.0 0.0134532701 0.1833297825 -0.0546390068 -0.5536667489 -0.0548516232 -0.5540086255 0.0482826126 0.1876132423
790295260.0 0.0151165312 0.1830929931 -0.0608384869 -0.5536265899 -0.0606263918 -0.5539458169 0.0506782979 0.187329512
795295230.0 0.0172832032 0.1832500734 -0.0664496355 -0.552431039 -0.0665848273 -0.552813558 0.0525526868 0.187451188
800295200.0 0.0190552497 0.1832471656 -0.073042635 -0.5519065607 -0.0729482174 -0.5521896466 0.0546604033 0.1866764234
805295170.0 0.0205421375 0.183259894 -0.0787624655 -0.5504876977 -0.078351513 -0.551084285 0.0562771428 0.1858757643
810295140.0 0.0226037251 0.1831169555 -0.084584767 -0.5498399131 -0.0845595571 -0.5507026947 0.0585132624 0.1857996575
815295110.0 0.0242942907 0.1829759052 -0.0905188842 -0.5485853863 -0.0907297845 -0.5490395443 0.0604582339 0.185052837
820295080.0 0.0262437069 0.182640306 -0.0963381614 -0.5478546134 -0.0961894633 -0.5482439236 0.0623998961 0.1846238902
825295050.0 0.0280466838 0.1828535751 -0.102054615 -0.5460408719 -0.1021153183 -0.5470960862 0.0645853715 0.1842330017
830295020.0 0.0298139307 0.1830342105 -0.1082984177 -0.545750116 -0.108490716 -0.5459347219 0.066403957 0.1831870705
