!Created with skrf (http://scikit-rf.org).
# Hz S RI R 50.0 
!freq ReS11 ImS11 ReS21 ImS21 ReS12 ImS12 ReS22 ImS22
300000.0 -0.0973937613 -0.0774841838 0.6241696262 0.0731753442 0.6240095153 0.0772579725 -0.0963772412 -0.0854346502
5299970.0 -0.1001454344 0.0133216883 0.6301821193 0.0104194891 0.630628667 0.0105837833 -0.1021998 0.0120841233
10299940.0 -0.0954219248 0.0300825149 0.6348107076 0.0154606001 0.6340713266 0.0157365406 -0.0973425583 0.0288698523
15299910.0 -0.088448225 0.0432220247 0.6405537766 0.0205194211 0.6401131314 0.0206392388 -0.0900261392 0.0423332604
20299880.0 -0.0793174387 0.0543126981 0.6483406456 0.0243538839 0.6486314592 0.0239764284 -0.081769268 0.0535000305
25299850.0 -0.0695941929 0.0629286177 0.6576519147 0.0247833182 0.6578645954 0.0254250873 -0.0725250894 0.0617938134
30299820.0 -0.0594540139 0.0693713382 0.667844561 0.0239861069 0.6672447975 0.0242701221 -0.0625772346 0.0688791767
35299790.0 -0.049333344 0.0741244656 0.6770337726 0.0209792737 0.6772969108 0.0217997261 -0.0525144092 0.0732077907
40299760.0 -0.0396080541 0.0771158153 0.6866290397 0.0176440377 0.686714935 0.0175044598 -0.043387697 0.0770522727
45299730.0 -0.0301517549 0.0795568097 0.6958725238 0.0115171231 0.6956092489 0.0118936007 -0.034336593 0.0791783221
50299700.0 -0.0217952107 0.079749298 0.7034229574 0.0050303762 0.7035512658 0.0048208064 -0.0252822237 0.0800982632
55299670.0 -0.0140849992 0.0798790312 0.7104922782 -0.0035001473 0.7111202772 -0.0028325916 -0.0178015946 0.0798249866
60299640.0 -0.0065803813 0.0790162677 0.7169768146 -0.0118552025 0.7173329419 -0.0114407505 -0.0100624048 0.0797253762
65299610.0 -0.0001857396 0.0780423969 0.7234305477 -0.019818834 0.7239343803 -0.0199150858 -0.0035178853 0.0786301802
70299580.0 0.0061172312 0.0759933913 0.728687278 -0.0293835987 0.7288691171 -0.0295314204 0.0025192124 0.0774313174
75299550.0 0.0118358255 0.0744647932 0.7325247397 -0.0385513957 0.7330532475 -0.0394722546 0.0080971908 0.0761377176
80299520.0 0.016286519 0.0719468396 0.7376635014 -0.0491309001 0.7374350457 -0.0487544735 0.0130424648 0.0728422509
85299490.0 0.0210543356 0.0693523123 0.7403293043 -0.0590971589 0.7404482672 -0.0586216915 0.0176875385 0.0706711561
90299460.0 0.0244968563 0.0671589769 0.7429025664 -0.0686478566 0.743874287 -0.0690036656 0.0222298566 0.0686848848
95299430.0 0.0280365758 0.0651972828 0.7459467883 -0.0790818888 0.7458372427 -0.0789026932 0.0253770628 0.0661891891
100299400.0 0.0315723774 0.0626422513 0.7474080199 -0.0893736882 0.7475617687 -0.0894007361 0.0283851747 0.0638865668
105299370.0 0.0346169991 0.0599617321 0.7486127799 -0.0989928794 0.7487867914 -0.0993295114 0.0320895207 0.0615268774
110299340.0 0.0369885567 0.0578158829 0.7496530954 -0.1088489172 0.7502631058 -0.1095034657 0.0347088717 0.059296171
115299310.0 0.0397930536 0.0548507916 0.750909507 -0.1193138123 0.7510463599 -0.1190657312 0.0374125243 0.0563201825
120299280.0 0.0413940912 0.0527325122 0.751718996 -0.1297601441 0.7513164216 -0.1296315555 0.0390260736 0.0542318463
125299250.0 0.0432335676 0.0503037801 0.7517007047 -0.1395330339 0.7518258099 -0.1395075167 0.041375888 0.0511166824
130299220.0 0.0450498898 0.0479025629 0.7518793623 -0.1489535146 0.7516981749 -0.1495451309 0.0433054373 0.0496701703
135299190.0 0.046758211 0.0454630304 0.7512804841 -0.1587901788 0.7509338678 -0.1590417651 0.0444454174 0.0475276078
140299160.0 0.0477098696 0.0440865998 0.7507427834 -0.168983151 0.7509040377 -0.1685316227 0.0463745594 0.0453680816
145299130.0 0.0492984397 0.0416648021 0.7506814543 -0.1785581599 0.7502471284 -0.178356232 0.0471024989 0.0426448678
150299100.0 0.0507799543 0.0398769982 0.7490034322 -0.1884164775 0.7489990018 -0.188131671 0.0486009976 0.041011668
155299070.0 0.0512802711 0.0382332668 0.7476596203 -0.1978108732 0.7475328444 -0.1982367087 0.0496426373 0.0388063032
160299040.0 0.0523176748 0.0358910861 0.7458427934 -0.2070525858 0.7464461357 -0.2074598254 0.0509346007 0.037102184
165299010.0 0.0530736142 0.0341741065 0.7453096588 -0.2170215911 0.744989809 -0.2171529919 0.051460264 0.0348628186
170298980.0 0.0536211563 0.0325744733 0.7420035131 -0.2262667147 0.7426058771 -0.2261584134 0.0528647063 0.0328565086
175298950.0 0.0544968137 0.0305646522 0.7414807217 -0.2352732635 0.7411603543 -0.235663719 0.0534466202 0.0312022337
180298920.0 0.0553965744 0.0290390799 0.7391953223 -0.2449460616 0.7389473741 -0.244490993 0.0539082781 0.0299662573
185298890.0 0.0560610525 0.0271041148 0.7361003769 -0.2541247203 0.736945252 -0.2537150716 0.0542977419 0.0277039742
190298860.0 0.0562401927 0.0257807893 0.7341450011 -0.2631378558 0.734775078 -0.2631048627 0.0554072881 0.0262313721
195298830.0 0.0562497609 0.0236636619 0.7320148479 -0.2718424527 0.7318728236 -0.2721736263 0.0557226577 0.0241846545
200298800.0 0.0570133589 0.0224720318 0.7295768816 -0.2803150743 0.7290509017 -0.2805201457 0.0561340235 0.0234232713
205298770.0 0.0572828095 0.0212304322 0.7271888161 -0.2894315542 0.7266253028 -0.2894159777 0.0563431652 0.0209652742
210298740.0 0.0569479318 0.0196740073 0.7236735999 -0.2986968979 0.7231965951 -0.2990238548 0.0568105749 0.0199340853
215298710.0 0.0577929203 0.0184221294 0.7204009448 -0.3070936709 0.720462952 -0.3071986379 0.0567517021 0.0181184534
220298680.0 0.0579372384 0.0170916461 0.717075665 -0.3162341096 0.7176226034 -0.3159187855 0.0573727399 0.017492523
225298650.0 0.0585538649 0.0161689644 0.7132767749 -0.3238963877 0.7136713603 -0.3242116997 0.057530738 0.0155353191
230298620.0 0.058021458 0.0148838248 0.7111238852 -0.3332745369 0.7106573837 -0.3328262907 0.0575485874 0.0142364213
235298590.0 0.0583584865 0.0132137727 0.7072665596 -0.3405710528 0.7076521419 -0.3420718153 0.0579211095 0.0127699296
240298560.0 0.0583067167 0.0118988175 0.7037492051 -0.3496558499 0.7035855444 -0.3492129365 0.0579082533 0.011998726
245298530.0 0.0589504381 0.0111945397 0.6990949594 -0.3584360364 0.6997650488 -0.3580748781 0.0582988517 0.0107951192
250298500.0 0.0585506386 0.009723447 0.6962272936 -0.366120672 0.6962378213 -0.3658932036 0.0586393882 0.0091480225
255298470.0 0.0583143228 0.008739896 0.6917239085 -0.3745921896 0.691952955 -0.374631466 0.058515405 0.0076756322
260298440.0 0.0583517268 0.0075785268 0.6879900938 -0.3821487842 0.688356926 -0.3828315158 0.0590877018 0.0069840294
265298410.0 0.0588516936 0.0068990166 0.6836790293 -0.3911209689 0.6835442017 -0.3909276134 0.0585076446 0.0052909583
270298380.0 0.0593186064 0.0054929751 0.6792540048 -0.3982226377 0.6794085967 -0.3987428213 0.058763696 0.0049828904
275298350.0 0.0585132749 0.0049306486 0.6754992111 -0.4070781816 0.6756946368 -0.4068694254 0.0587038844 0.0038024507
280298320.0 0.0586274669 0.0038848241 0.6708042644 -0.4139592486 0.6711062309 -0.4145014228 0.0592341488 0.0028455416
285298290.0 0.0586834612 0.0032130715 0.6663404284 -0.422201675 0.6666899644 -0.422025439 0.0587955748 0.0015122464
290298260.0 0.0585263856 0.0016999902 0.6619440999 -0.4299354825 0.6623258798 -0.4301179257 0.0595037225 0.000672997
295298230.0 0.0587829069 0.0005928665 0.6575630206 -0.4377945677 0.6572924546 -0.4377670462 0.0592314899 -0.0004395433
300298200.0 0.0591562294 -0.0001922688 0.652806885 -0.4455502647 0.652716177 -0.4454960749 0.0588303695 -0.0014288497
305298170.0 0.0587895807 -0.0015888454 0.6483706934 -0.4531724538 0.6483987437 -0.4533544325 0.0594390797 -0.0024123423
310298140.0 0.0596139518 -0.0026862163 0.6438267905 -0.4607553669 0.6430147127 -0.4611397064 0.0594536736 -0.0027566175
315298110.0 0.0585874011 -0.0035658471 0.6380687249 -0.4684185403 0.6383373647 -0.4685243369 0.059795154 -0.0048176212
320298080.0 0.0585339115 -0.0046120168 0.6331040568 -0.4757695533 0.6330535327 -0.4762426286 0.0590480395 -0.0062525153
325298050.0 0.0583190502 -0.0057821708 0.6282579523 -0.4837233798 0.6277429792 -0.4841996814 0.0590339802 -0.0071375845
330298020.0 0.0578726909 -0.0066754021 0.6212853685 -0.4903639577 0.6217002501 -0.4909738114 0.0582417124 -0.0084203441
335297990.0 0.0573347493 -0.0077867419 0.6159691711 -0.4977725099 0.6164742855 -0.4980300819 0.0579414234 -0.0091288432
340297960.0 0.0565259227 -0.0080133493 0.6101057854 -0.5048716849 0.6106515465 -0.5049311959 0.0570596839 -0.0098466316
345297930.0 0.0562808637 -0.0087784173 0.6049554311 -0.511053694 0.6045084515 -0.5114966478 0.0575793555 -0.0112234638
350297900.0 0.0563238482 -0.0094643614 0.5982126055 -0.5175065812 0.5988507377 -0.5183367437 0.0566146341 -0.0106752707
355297870.0 0.0558663429 -0.0102740343 0.5928916615 -0.5243902899 0.5928328781 -0.5249215481 0.0560279445 -0.0117770215
360297840.0 0.055996768 -0.0108345853 0.5876534883 -0.5316033283 0.5869996317 -0.5317670481 0.0560458764 -0.0123161837
365297810.0 0.0557826991 -0.0115969157 0.5811498778 -0.5381878078 0.5813027502 -0.5381578336 0.0555523739 -0.0125528894
370297780.0 0.0554768773 -0.0124238589 0.5750886864 -0.544136355 0.5755640368 -0.5448260447 0.055719983 -0.0131071122
375297750.0 0.0551549409 -0.0125407623 0.5699859239 -0.5515613426 0.569288638 -0.5519036747 0.0554710686 -0.0138070991
380297720.0 0.0550722074 -0.0139998363 0.5633389058 -0.5573401671 0.5630653753 -0.5569208394 0.0551582865 -0.0148053048
385297690.0 0.0547075564 -0.0142693571 0.5573043329 -0.5629165645 0.5571167696 -0.563622003 0.0548184085 -0.0150878695
390297660.0 0.0542398786 -0.0149923602 0.5511164414 -0.5698149186 0.55083628 -0.5707991348 0.0549878611 -0.0158656272
395297630.0 0.054084372 -0.0158371344 0.5448455133 -0.5757001369 0.5441785086 -0.5763267312 0.0544236907 -0.016206284
400297600.0 0.0536454125 -0.016069615 0.5376881245 -0.582098976 0.5383355896 -0.5820996323 0.0533562047 -0.0173374646
405297570.0 0.0540580394 -0.0166610183 0.5316065324 -0.5881429102 0.5317566932 -0.5882535502 0.0535602605 -0.0169046269
410297540.0 0.0535463221 -0.0171958166 0.5250235787 -0.5934331205 0.5249922929 -0.5937805217 0.0532921733 -0.0181920744
415297510.0 0.0531741898 -0.0172963208 0.5188137324 -0.5994338524 0.5188309631 -0.6000314913 0.0528777079 -0.0182608904
420297480.0 0.0527191403 -0.0191372884 0.5118448156 -0.6057111078 0.5119420359 -0.60552811 0.0526704137 -0.0195213843
425297450.0 0.0531657919 -0.0198555102 0.5054245216 -0.6112161171 0.506006938 -0.6114046042 0.0523048906 -0.0192017942
430297420.0 0.0523101452 -0.019605453 0.4986780471 -0.6170576185 0.4988723886 -0.6171934072 0.0519258341 -0.0207609053
435297390.0 0.052210757 -0.0208248664 0.4915052239 -0.6221164306 0.4918495725 -0.6216127748 0.0511933208 -0.0204296197
440297360.0 0.0520439606 -0.021445967 0.4844499139 -0.6278405033 0.4847210591 -0.6279932068 0.0510380446 -0.0217183305
445297330.0 0.052168797 -0.0221522419 0.4781312368 -0.6330884378 0.4777430856 -0.6331882761 0.0507884447 -0.0217936124
450297300.0 0.0516583923 -0.0226006583 0.471061128 -0.6382800428 0.4710957477 -0.6389811056 0.0503690295 -0.0221863135
455297270.0 0.0509846409 -0.0233713868 0.464412324 -0.6435496836 0.4647769368 -0.6435692983 0.0504577756 -0.0228562555
460297240.0 0.0504463403 -0.0238353537 0.4565873712 -0.6486646436 0.4568225071 -0.6488474045 0.0497496737 -0.0227354865
465297210.0 0.0507042325 -0.0248073079 0.4495348649 -0.6541542502 0.4505618959 -0.6541099591 0.0486542682 -0.0237971616
470297180.0 0.0497388743 -0.0253420569 0.4428364985 -0.6587202915 0.4428754418 -0.6593195931 0.0481400058 -0.0242131941
475297150.0 0.0494969025 -0.0263548463 0.4350428676 -0.6633989923 0.4357708361 -0.6631606339 0.0483464684 -0.0245691665
480297120.0 0.0496572541 -0.0268627834 0.4282746176 -0.668333949 0.4282611131 -0.6681512125 0.0477028369 -0.0245260178
485297090.0 0.0491698179 -0.0272484358 0.4214478592 -0.6731444402 0.4205983128 -0.6731327433 0.046922308 -0.0256852791
490297060.0 0.0489665776 -0.0280295243 0.4139558718 -0.6777943768 0.4135840863 -0.6778058383 0.0469155247 -0.0256043906
495297030.0 0.0478881184 -0.0280947633 0.4058247963 -0.6818630724 0.4057862718 -0.6823105225 0.0466399989 -0.0262569567
500297000.0 0.0476732347 -0.0292478529 0.3986592405 -0.6863196433 0.3982031988 -0.6869307409 0.0454359307 -0.0269267827
505296970.0 0.0470480771 -0.0295915421 0.3904740057 -0.6907412736 0.3903743337 -0.6911895284 0.0450082291 -0.0270458028
510296940.0 0.0467915147 -0.0300506998 0.3831880108 -0.6957714942 0.383176068 -0.6952807171 0.0451308518 -0.0271790862
515296910.0 0.0459632822 -0.0305030952 0.3750660004 -0.698932611 0.3753231224 -0.69932128 0.0441990825 -0.0279348705
520296880.0 0.0459893501 -0.0314218495 0.3682211151 -0.7038568194 0.3677601868 -0.7040533706 0.0440129604 -0.0283801254
525296850.0 0.0452123385 -0.0321880426 0.3600376091 -0.7077049111 0.3604561135 -0.7075139072 0.0437161944 -0.0289709451
530296820.0 0.0450168868 -0.0324448121 0.3526869261 -0.710735919 0.3519207598 -0.7115617527 0.0426724904 -0.029798467
535296790.0 0.0441554174 -0.0329896902 0.3444753267 -0.7151692106 0.3450500219 -0.7151048019 0.042827471 -0.0302859265
540296760.0 0.0438711438 -0.0337702188 0.3368650152 -0.7194913848 0.336145173 -0.7197122352 0.0412568151 -0.030100886
545296730.0 0.0434415418 -0.0333867852 0.3287633035 -0.7221924707 0.328848795 -0.7234961934 0.0412405529 -0.0308681519
550296700.0 0.0425622365 -0.034553627 0.3215317941 -0.7261459132 0.3214634752 -0.7268094495 0.0406616499 -0.0305147449
555296670.0 0.0425318683 -0.0352714979 0.3131569422 -0.7299407969 0.3130515475 -0.7301116584 0.0401435375 -0.0310808418
560296640.0 0.041646642 -0.0357138044 0.3052023992 -0.7330182959 0.3049806112 -0.7325996139 0.0394448629 -0.0312650243
565296610.0 0.0406541884 -0.0360770537 0.2968924194 -0.7367196407 0.2964916473 -0.7368395019 0.0388415128 -0.0324152127
570296580.0 0.0409230085 -0.0365499416 0.2889721035 -0.7400702261 0.2892284269 -0.7398729545 0.0387210202 -0.0316430083
575296550.0 0.0401124047 -0.036312172 0.280755625 -0.742092493 0.2812401256 -0.7425080366 0.0384754949 -0.0324065184
580296520.0 0.0394940927 -0.0372786503 0.2725422013 -0.746018013 0.2722760114 -0.7461174591 0.037472277 -0.0332009191
585296490.0 0.039319707 -0.0378872384 0.2646666665 -0.7494608948 0.2643641675 -0.7486750934 0.0366774779 -0.0336454905
590296460.0 0.0380509902 -0.0385244842 0.2565003821 -0.7519039624 0.2556089818 -0.7518361101 0.0365148767 -0.0337127382
595296430.0 0.0376519809 -0.0385178018 0.2483191424 -0.7545187952 0.2479348191 -0.7550287272 0.0361868208 -0.0340576388
600296400.0 0.0371111909 -0.0389133001 0.2398835447 -0.7577732644 0.2401064048 -0.7570559065 0.0351269287 -0.0342163583
605296370.0 0.0367454179 -0.0386944767 0.2315968876 -0.7600433649 0.2316537137 -0.7595509232 0.0345912135 -0.0347958954
610296340.0 0.0359365832 -0.039576374 0.2231503382 -0.7624888631 0.2237012411 -0.7624570471 0.0342048709 -0.034284148
615296310.0 0.0352012453 -0.0393569646 0.214240593 -0.7640895155 0.2148859283 -0.7645677055 0.0340327987 -0.0349228912
620296280.0 0.0347100891 -0.0400792117 0.2067091388 -0.7665829067 0.2068670408 -0.7672743633 0.0331277779 -0.0360028706
625296250.0 0.034385567 -0.04043442 0.197800563 -0.7691435991 0.1976398283 -0.7693345411 0.0328013251 -0.0355118145
630296220.0 0.0335510063 -0.0405223075 0.1895200593 -0.7715280802 0.190084644 -0.7716330117 0.0316057019 -0.0360413531
635296190.0 0.0328432428 -0.0410721621 0.1815401331 -0.7727081559 0.1811615017 -0.7724301998 0.0310067716 -0.0362965416
640296160.0 0.0321974344 -0.0411041019 0.173296541 -0.7746612412 0.1726971282 -0.7754471413 0.0312294385 -0.0366192993
645296130.0 0.0317783354 -0.0413484175 0.1644894632 -0.777200489 0.164278773 -0.7770804488 0.0293089523 -0.0373823425
650296100.0 0.030723307 -0.041074012 0.1562643953 -0.7784827257 0.1562493037 -0.778531586 0.0293616679 -0.0374280271
655296070.0 0.0301981293 -0.0420037057 0.147608566 -0.7805677352 0.1478722211 -0.7802560038 0.0295865846 -0.0369162904
660296040.0 0.0292518019 -0.0416008282 0.1393047253 -0.781510694 0.1392809329 -0.7817565201 0.0280400933 -0.0377981901
665296010.0 0.0292452515 -0.0425013357 0.1308938585 -0.7831841697 0.1311627445 -0.78331852 0.0272614984 -0.0373407228
670295980.0 0.0289855568 -0.0421564761 0.1221317351 -0.7843712379 0.1221355604 -0.7845938981 0.0265295825 -0.0382059448
675295950.0 0.0282897384 -0.042440557 0.1129022581 -0.7857980627 0.1137741524 -0.7861243155 0.0267262609 -0.0377841317
680295920.0 0.0272944836 -0.0423905775 0.1051776527 -0.7872075417 0.1047524436 -0.7873682226 0.0262920087 -0.0386580619
685295890.0 0.0266139755 -0.042782803 0.0963959105 -0.7882158776 0.0962037673 -0.7881744925 0.0253548604 -0.0382835793
690295860.0 0.0264474575 -0.0431755904 0.0874740941 -0.7888987899 0.0867916412 -0.7885834512 0.0253588092 -0.0384697215
695295830.0 0.0260117018 -0.0436237164 0.0782777253 -0.7898051386 0.0786447646 -0.790122644 0.0237892719 -0.0388377422
700295800.0 0.0255498441 -0.0434298769 0.0703406477 -0.7909873508 0.0699380336 -0.7909729432 0.0234224809 -0.0394545494
705295770.0 0.0246062659 -0.0436990422 0.0615190571 -0.7913059882 0.0616744562 -0.7915057553 0.0226509082 -0.0394566151
710295740.0 0.0237628306 -0.0434418132 0.0533946365 -0.7918357213 0.0528817642 -0.7918745346 0.0215179112 -0.0389748239
715295710.0 0.0234616187 -0.043835122 0.0448276494 -0.7928667932 0.0443051919 -0.7927112678 0.0216506657 -0.0402766066
720295680.0 0.0224527684 -0.0442345328 0.0352703684 -0.7932052652 0.035879142 -0.7936471695 0.021565224 -0.0395441946
725295650.0 0.0224440182 -0.044105534 0.0271021204 -0.7934789335 0.0271383279 -0.7929937989 0.0208965039 -0.0395374797
730295620.0 0.0211489977 -0.0443897786 0.0181871687 -0.7941026911 0.0184289715 -0.7942579636 0.0203038828 -0.0408187634
735295590.0 0.0213376801 -0.0442012038 0.0105374588 -0.7938024768 0.0103193891 -0.7937518973 0.0191748681 -0.0398463108
740295560.0 0.0201859706 -0.0444359408 0.0011875832 -0.793113494 0.001225393 -0.7940002589 0.0190898421 -0.0404362959
745295530.0 0.019654099 -0.0446659733 -0.0071500354 -0.7939200406 -0.0074197204 -0.7939928382 0.0180904003 -0.0399279619
750295500.0 0.0191355761 -0.0447165732 -0.0157422885 -0.7932258545 -0.015493587 -0.7932512867 0.0180413591 -0.0406424434
755295470.0 0.0190474919 -0.0442218199 -0.0242581688 -0.79318278 -0.0245380762 -0.7939171582 0.0164992215 -0.040628706
760295440.0 0.0178189278 -0.0444911676 -0.0330992504 -0.7930469742 -0.0331331438 -0.7929705534 0.0157537096 -0.0406654758
765295410.0 0.0167703722 -0.0450098534 -0.0413319431 -0.7924094672 -0.0413295379 -0.7927431785 0.0164753048 -0.039775051
770295380.0 0.0166931426 -0.0447322119 -0.0504285571 -0.791676178 -0.0504996762 -0.7922630012 0.0157789949 -0.0401267412
775295350.0 0.0161050802 -0.0444621018 -0.0587416243 -0.7911663025 -0.0589045286 -0.7914319766 0.0146689901 -0.0411131692
780295320.0 0.0157213367 -0.04472568 -0.0671775352 -0.7904333477 -0.0673516943 -0.790706377 0.0142038171 -0.0401691704
785295290.0 0.0146061144 -0.0443507943 -0.0760548755 -0.7893504468 -0.0762034699 -0.7901937601 0.0128788699 -0.0407788899
790295260.0 0.0142176015 -0.0445272557 -0.0844076183 -0.7891333216 -0.0847659852 -0.7896043485 0.0130825072 -0.0408656739
795295230.0 0.0135673846 -0.0446215009 -0.0925848921 -0.78764945 -0.0929354972 -0.7876290644 0.0123425186 -0.0396736624
800295200.0 0.0129530044 -0.0444356063 -0.1026738459 -0.7868535665 -0.102679518 -0.7873736278 0.0120676587 -0.0401788008
805295170.0 0.0118224339 -0.0447347651 -0.1102685017 -0.785164797 -0.1102161147 -0.7855226249 0.0109226409 -0.0406384168
810295140.0 0.0115591542 -0.0447032849 -0.1189190719 -0.7848971634 -0.1186576798 -0.7853433878 0.0108407069 -0.0400078429
815295110.0 0.0110108585 -0.0443336926 -0.1275607062 -0.7828036055 -0.1279791441 -0.7830374988 0.0096119056 -0.0406116158
820295080.0 0.0101081365 -0.0447110403 -0.136178754 -0.7822555624 -0.1361414872 -0.7820621765 0.0090741664 -0.0398037482
825295050.0 0.009487322 -0.0448516432 -0.1441104727 -0.7800355738 -0.1444775493 -0.7799553162 0.0090521571 -0.0396952816
830295020.0 0.0091488695 -0.044419476 -0.153283894 -0.7784045771 -0.1533989184 -0.7789167916 0.0081944803 -0.040073457
