!Created with skrf (http://scikit-rf.org).
# Hz S RI R 50.0 
!freq ReS11 ImS11 ReS21 ImS21 ReS12 ImS12 ReS22 ImS22
300000.0 -0.0980634807 -0.0842268009 0.6233733043 0.077658526 0.6255360677 0.0817484939 -0.0974089342 -0.0906283014
5299970.0 -0.1001213343 0.0129211 0.6306412767 0.0105873345 0.6306428968 0.0108974265 -0.1020992415 0.0120060492
10299940.0 -0.0952260214 0.0296497128 0.6341931578 0.0155144895 0.6341877759 0.0160425522 -0.0970664938 0.0288852556
15299910.0 -0.0884445484 0.0430319148 0.6408354157 0.020512612 0.6402079326 0.0208612487 -0.0901125256 0.0421473172
20299880.0 -0.0795016359 0.054204859 0.6487131047 0.0243887768 0.6489447954 0.024329011 -0.0818221265 0.0533601286
25299850.0 -0.0697340252 0.0626392771 0.6579195998 0.0251331252 0.6578198883 0.0251486805 -0.072520283 0.061918396
30299820.0 -0.0595745409 0.0690695213 0.6676719498 0.0247471469 0.6674280864 0.0244867223 -0.0624777387 0.0685578989
35299790.0 -0.0495154717 0.0742649485 0.6773719846 0.0215815947 0.6774907244 0.02183964 -0.0523729436 0.0735652651
40299760.0 -0.0394990435 0.0770722517 0.6868186699 0.0180149592 0.6866913448 0.0174492957 -0.0437022739 0.0770880602
45299730.0 -0.0302092445 0.0794160336 0.6957432548 0.0119520967 0.695959 0.0118782801 -0.0338326846 0.0789553219
50299700.0 -0.0216358185 0.0797463958 0.7032860874 0.0044664298 0.7035780516 0.00458599 -0.0254829653 0.0802566899
55299670.0 -0.0144222204 0.0797727594 0.7105104373 -0.0024749585 0.7112075441 -0.0027525946 -0.017768641 0.0799315956
60299640.0 -0.0066817288 0.0788537568 0.7171900883 -0.0115023172 0.7179589374 -0.0113461981 -0.0101007306 0.0796299359
65299610.0 -0.0003954842 0.0781431174 0.723815577 -0.0189468596 0.7236118213 -0.0201286154 -0.0035820619 0.0784487876
70299580.0 0.0061252319 0.0758783842 0.7289672314 -0.0289434407 0.7288114822 -0.029220986 0.0023968682 0.077152097
75299550.0 0.0115095178 0.0743405899 0.7329829574 -0.0388598282 0.7328142609 -0.0388831558 0.0081468513 0.075535978
80299520.0 0.0161450842 0.0720871425 0.7379565513 -0.0489785466 0.7380041367 -0.048940744 0.0130552103 0.0730083241
85299490.0 0.0207793116 0.0694355701 0.7406407949 -0.0590935362 0.7407386475 -0.0588848865 0.0174861592 0.0709941736
90299460.0 0.0245048584 0.0673098986 0.7430171839 -0.0690344956 0.7438774756 -0.0687107134 0.022270703 0.0689392593
95299430.0 0.0280849044 0.0652719155 0.7460479938 -0.0793093985 0.7461594824 -0.079031838 0.0254074706 0.0662906712
100299400.0 0.0315251816 0.0627361843 0.7471189834 -0.0891172418 0.7475057744 -0.0893865382 0.0284107007 0.0638785084
105299370.0 0.0348810381 0.0599646839 0.7489219745 -0.0987958456 0.7491437472 -0.0989827809 0.0317839594 0.0618870355
110299340.0 0.0372557608 0.0575393796 0.7496874798 -0.1089192307 0.7500205858 -0.1095073414 0.0346880863 0.0591135716
115299310.0 0.0398989119 0.054791281 0.7502126348 -0.1190103786 0.7513095193 -0.1193142646 0.0372089743 0.0562530773
120299280.0 0.0413991006 0.0527120143 0.7517445597 -0.129788013 0.7513073972 -0.1296587886 0.0389577419 0.0542772615
125299250.0 0.0431446482 0.0503143015 0.751792616 -0.1390925811 0.7522877336 -0.1393492016 0.0414147975 0.0510513428
130299220.0 0.0451017876 0.0478234512 0.7516416419 -0.1486229482 0.7514898531 -0.1493741971 0.0432534003 0.0493110921
135299190.0 0.0467095501 0.0455358757 0.7510376205 -0.1590085285 0.7509263544 -0.1586928921 0.044539976 0.0472557112
140299160.0 0.0478927309 0.0440924768 0.7504136375 -0.1688476939 0.7510105154 -0.1690049023 0.0461795152 0.0453916733
145299130.0 0.0492520675 0.0418326912 0.7502844803 -0.1789374296 0.7497888995 -0.1781293096 0.0471157186 0.0426885222
150299100.0 0.0506656997 0.0398506953 0.7490232205 -0.1886063287 0.748985544 -0.1880934932 0.0485081043 0.0408037088
155299070.0 0.0512971082 0.038100746 0.7481305852 -0.1980727265 0.7475984655 -0.1985166729 0.0494983673 0.0387341491
160299040.0 0.0523751431 0.0358674162 0.7460832933 -0.2068401335 0.7465459341 -0.2076047767 0.0508734626 0.0371371869
165299010.0 0.0528970774 0.0343286254 0.745422642 -0.2170638306 0.7449329812 -0.216645674 0.0516904551 0.0346054819
170298980.0 0.0533377786 0.0326317595 0.742387166 -0.225830363 0.7429110622 -0.2260107003 0.0526482442 0.0328461212
175298950.0 0.0544785103 0.03055549 0.7414633812 -0.2355189003 0.7413559809 -0.235357487 0.0532932388 0.0311274893
180298920.0 0.0555850996 0.0290941326 0.7390591141 -0.2445518742 0.7393546391 -0.2444297207 0.0536079845 0.0297772123
185298890.0 0.0560844252 0.027352128 0.7363470172 -0.2542173712 0.7368201544 -0.2535089224 0.0539880316 0.0276145209
190298860.0 0.0562264479 0.025894281 0.734308935 -0.2632453229 0.734640191 -0.2630855673 0.0555077352 0.0259967602
195298830.0 0.0563323033 0.0239547429 0.7318827403 -0.2711089612 0.7320884485 -0.2722834722 0.0558319871 0.0241408601
200298800.0 0.0570223795 0.0227512135 0.7297930854 -0.2801435199 0.7289645849 -0.280530709 0.0560026265 0.0231053397
205298770.0 0.0570812047 0.0212618723 0.7268649562 -0.2894037902 0.7266370556 -0.2895785792 0.0565577151 0.0207665643
210298740.0 0.0572490204 0.0196060358 0.7242105242 -0.2988780581 0.723872087 -0.2987903438 0.0566385423 0.0199352039
215298710.0 0.0579537284 0.0186873082 0.7204293247 -0.306732593 0.7206518122 -0.3070254656 0.0570313841 0.0183544081
220298680.0 0.0582265674 0.0172728197 0.7172281599 -0.316067601 0.71740276 -0.3160776328 0.0575409084 0.0172954495
225298650.0 0.0585950751 0.0160308823 0.7138423483 -0.3242453257 0.7139926108 -0.3241480735 0.0577007685 0.015705329
230298620.0 0.0581355419 0.0150161853 0.7112072968 -0.3326811616 0.7110251585 -0.3331303095 0.0578055348 0.0141258362
235298590.0 0.0586332358 0.0134103557 0.7075306172 -0.3409441385 0.7079895142 -0.3415989473 0.0580128353 0.0125541952
240298560.0 0.0584010565 0.0119370007 0.7038671935 -0.349345109 0.7037537279 -0.3493382816 0.0580970292 0.0118325401
245298530.0 0.0587477637 0.0113507231 0.6990559714 -0.3582596229 0.6997596589 -0.3581354845 0.0581365576 0.0105648841
250298500.0 0.0586713706 0.009442275 0.6960630022 -0.3654137034 0.6965588238 -0.3651456385 0.0589443553 0.0090246002
255298470.0 0.0582436764 0.008708668 0.6916221509 -0.3744683272 0.6923204154 -0.3744885486 0.0588970823 0.0076236885
260298440.0 0.058357524 0.007593087 0.6881692537 -0.3819489096 0.6885779882 -0.3828211349 0.0594647287 0.0069569388
265298410.0 0.0591147447 0.0071205735 0.6839963694 -0.3910115822 0.6836840033 -0.3905284248 0.0587905794 0.0055401711
270298380.0 0.0592270615 0.0053913636 0.6792225302 -0.3984078136 0.6802385604 -0.3985387404 0.0590735747 0.0049429507
275298350.0 0.0585847635 0.0046542648 0.6753750697 -0.407409733 0.6757058086 -0.4063201836 0.0587426471 0.0034333063
280298320.0 0.0587929871 0.0039925526 0.6707722402 -0.4133962469 0.6707710963 -0.414152841 0.0593745101 0.0025825806
285298290.0 0.0587969202 0.0031646715 0.6663680563 -0.4219320968 0.666517491 -0.4223391296 0.059096423 0.001670568
290298260.0 0.0587718969 0.0018310012 0.6623715076 -0.4298297973 0.6619584795 -0.4299064387 0.059345634 0.0004237565
295298230.0 0.0586927226 0.0006006627 0.6579058814 -0.4373598355 0.6578392993 -0.4372326578 0.0598784609 -0.0002780072
300298200.0 0.0593226937 2.95016e-05 0.6526463718 -0.4454467482 0.6532329574 -0.4456256374 0.0591611548 -0.0013854957
305298170.0 0.0590051181 -0.0014668362 0.6483830862 -0.4527169401 0.6487981507 -0.4532113688 0.0597683705 -0.002262304
310298140.0 0.0592379448 -0.0025114743 0.6433807968 -0.4607435712 0.6438854405 -0.4606147103 0.0598086168 -0.0026341446
315298110.0 0.0589180635 -0.0034923353 0.6379312474 -0.4683849644 0.6385133454 -0.4680310386 0.0597818964 -0.0045765308
320298080.0 0.0585405288 -0.0046097792 0.633093092 -0.4755897535 0.6332195206 -0.4760690823 0.0593160482 -0.0057769967
325298050.0 0.0583271768 -0.0059062701 0.6281873756 -0.4836245322 0.6277587501 -0.4838335302 0.059207396 -0.0070658912
330298020.0 0.0578730421 -0.0068606301 0.6213270179 -0.4907275809 0.6219635378 -0.4905704494 0.0585964353 -0.0082808521
335297990.0 0.0575080782 -0.0078347569 0.6163004761 -0.4978980415 0.6164681795 -0.4977067155 0.0580277356 -0.0091339869
340297960.0 0.0567318365 -0.0081755987 0.6101164592 -0.5048606252 0.6108599275 -0.5046509156 0.0574845878 -0.0096171862
345297930.0 0.0560222445 -0.0084926348 0.6050667603 -0.5107155142 0.6045116894 -0.5111357953 0.0576327096 -0.0108964245
350297900.0 0.0565088913 -0.0092601063 0.5987463164 -0.5176888854 0.5991289538 -0.517955644 0.0568361287 -0.0105469695
355297870.0 0.0560928094 -0.0101368313 0.5929569181 -0.5244942064 0.5931193729 -0.525304574 0.0564525066 -0.011234593
360297840.0 0.0560819368 -0.0107059149 0.5876807875 -0.5316409419 0.5874080905 -0.5312232817 0.0562954057 -0.0118096201
365297810.0 0.0558231999 -0.0118601468 0.5813867603 -0.5381017011 0.5814103013 -0.5381755161 0.0560844566 -0.0124587214
370297780.0 0.0556104804 -0.0122473908 0.5752322752 -0.5436243705 0.5759408307 -0.544385599 0.0558410604 -0.0130246012
375297750.0 0.0549107793 -0.0123791775 0.57016994 -0.5507365757 0.5695006325 -0.551515117 0.0556556163 -0.0135567831
380297720.0 0.0548946335 -0.0137613164 0.563483664 -0.5570693598 0.5634208632 -0.5571251464 0.0552353101 -0.0144127525
385297690.0 0.0546373656 -0.0143008343 0.5572361354 -0.5627852163 0.5572047271 -0.5634825655 0.054923365 -0.0147606852
390297660.0 0.0541899275 -0.0150341717 0.5506414391 -0.5700627458 0.5510337268 -0.5701681943 0.0548664082 -0.0156569228
395297630.0 0.0545929576 -0.0159391071 0.5447341065 -0.5754479377 0.5447166368 -0.5756799377 0.0543513868 -0.0158900253
400297600.0 0.0536695057 -0.0159409367 0.5381422652 -0.5819889296 0.5388381726 -0.5822890539 0.0535585147 -0.017118984
405297570.0 0.0538835172 -0.0166507974 0.53219056 -0.5882030483 0.5319949452 -0.5879909728 0.0535506892 -0.0169785751
410297540.0 0.0537336433 -0.0172515166 0.5250374362 -0.5935893595 0.5253586527 -0.5938335297 0.0531456676 -0.0180411606
415297510.0 0.0530603044 -0.0172911821 0.5188313865 -0.5987901757 0.5193288774 -0.5994005272 0.0525651654 -0.018270276
420297480.0 0.0529537447 -0.0189601747 0.5119964374 -0.605534167 0.5125430267 -0.6056144419 0.0526111356 -0.0194180296
425297450.0 0.0531258327 -0.0195834178 0.505422009 -0.6111245539 0.506112181 -0.6107093866 0.0522078325 -0.0188752857
430297420.0 0.0525742465 -0.0197570647 0.4987777826 -0.6168768554 0.4992426882 -0.6168853043 0.0518427879 -0.0205786891
435297390.0 0.0522756707 -0.0208122094 0.49225022 -0.621901502 0.4925695179 -0.6222297531 0.0509562895 -0.0202469574
440297360.0 0.0520031443 -0.0214974172 0.4847848522 -0.6274136274 0.4845349085 -0.6283228925 0.0509865026 -0.0213579336
445297330.0 0.0524516741 -0.0221509252 0.4778385132 -0.633343261 0.4784399217 -0.6333712345 0.050643365 -0.0219805809
450297300.0 0.0518036217 -0.0227518616 0.471513173 -0.6383051415 0.4713450677 -0.6385103955 0.0503935534 -0.0220240408
455297270.0 0.05097041 -0.0234316471 0.4643977476 -0.6434945125 0.464922905 -0.6435181906 0.0502519989 -0.0223456811
460297240.0 0.0504983774 -0.0238784988 0.4573966437 -0.6484503275 0.4565899251 -0.6488565463 0.0497128894 -0.0223820361
465297210.0 0.0506164726 -0.0246236744 0.4502261459 -0.6538257374 0.4507415114 -0.6540766158 0.0487678709 -0.0236699103
470297180.0 0.0498301458 -0.0255298878 0.4427584344 -0.6588449852 0.4433416379 -0.6590174165 0.0480542073 -0.0240919663
475297150.0 0.0492614956 -0.0263262267 0.4354047934 -0.6629502231 0.4359853158 -0.6634372583 0.048111436 -0.0244981822
480297120.0 0.0498770948 -0.0267668113 0.4283065287 -0.6679777052 0.4288467297 -0.668121977 0.047598942 -0.0244689756
485297090.0 0.0494171832 -0.0271956864 0.4214561571 -0.6730536135 0.4214496417 -0.67287617 0.0472062951 -0.0257153975
490297060.0 0.048907868 -0.0281698276 0.4139800538 -0.6778494454 0.4135765592 -0.6781390716 0.0468486418 -0.0256282485
495297030.0 0.0482090083 -0.0281366665 0.4064725793 -0.6823928277 0.4057863625 -0.6825611824 0.0463809939 -0.0263190958
500297000.0 0.0479836895 -0.0290664358 0.3989687662 -0.686401573 0.3985204882 -0.6869602516 0.0452840456 -0.0267860675
505296970.0 0.0469509514 -0.0295204739 0.3907002593 -0.6904036397 0.390896435 -0.6908031113 0.0447247546 -0.0271765931
510296940.0 0.046936333 -0.0301759432 0.3839513464 -0.6953920591 0.3838591023 -0.6954662101 0.0451374058 -0.0270264603
515296910.0 0.0461448919 -0.0304623326 0.3753864592 -0.6993053608 0.3756003281 -0.6994601052 0.044180273 -0.0280293655
520296880.0 0.0461039958 -0.031552786 0.3681071553 -0.7035460627 0.3684603326 -0.7037785856 0.0439854596 -0.02855684
525296850.0 0.0452059887 -0.0321564698 0.3602830092 -0.7073839821 0.3603149342 -0.7081243593 0.0438762652 -0.0286403888
530296820.0 0.044829486 -0.0323935101 0.3530009359 -0.7106878572 0.3525556336 -0.711620752 0.0427804171 -0.030178505
535296790.0 0.0443166931 -0.0330945967 0.3446590431 -0.7153519943 0.3454342173 -0.7151165481 0.0427174098 -0.0300400291
540296760.0 0.043972462 -0.0335937454 0.3371760712 -0.7193078516 0.336211993 -0.7192958066 0.0414914406 -0.0300771547
545296730.0 0.0434449807 -0.0335979057 0.329328053 -0.7224135779 0.3291123363 -0.7232784767 0.0414276229 -0.0311411926
550296700.0 0.0426030742 -0.0345036075 0.3212881451 -0.7264588192 0.3216417929 -0.7264459819 0.0405827673 -0.0304471731
555296670.0 0.042445562 -0.0353863378 0.3131318265 -0.7302512471 0.312871417 -0.7300246224 0.0398389166 -0.0311197255
560296640.0 0.0416832522 -0.0357246448 0.3057418267 -0.7330106762 0.3052712092 -0.7329679754 0.0395001912 -0.031575912
565296610.0 0.0406194124 -0.0360968793 0.2973568232 -0.7366977781 0.2969037995 -0.7365749902 0.0389354843 -0.0325956452
570296580.0 0.041015192 -0.0367215946 0.2893408261 -0.7394068654 0.2895492384 -0.7397264791 0.038705672 -0.0315541953
575296550.0 0.0401704107 -0.0362282023 0.2810078886 -0.7422496122 0.2818097629 -0.7423201956 0.0383130119 -0.0328798819
580296520.0 0.0395189401 -0.0371449083 0.2732281133 -0.7457970625 0.2726156917 -0.7459868957 0.0374535107 -0.0333893158
585296490.0 0.0389722754 -0.0379794809 0.2657490838 -0.7489376376 0.2645091895 -0.7485259313 0.0368026978 -0.033973323
590296460.0 0.0378372362 -0.0387430338 0.2563652997 -0.751732374 0.2563511802 -0.7515191905 0.0366983975 -0.0335528198
595296430.0 0.0376172369 -0.0386749813 0.2485718284 -0.7547097468 0.2482011565 -0.7548063988 0.0362981629 -0.0341395006
600296400.0 0.0372671833 -0.0385723409 0.240089554 -0.7568084068 0.2409969012 -0.7572484804 0.0352971223 -0.0341982641
605296370.0 0.0369063065 -0.0386265344 0.2320903181 -0.76005233 0.2319568382 -0.7594755505 0.0350129066 -0.0349896452
610296340.0 0.0358120994 -0.039382637 0.224183106 -0.7621919036 0.2236590463 -0.7623360663 0.0344163661 -0.0345414044
615296310.0 0.0351821352 -0.039371898 0.2150596856 -0.7641604336 0.2149127601 -0.7643672321 0.0340735639 -0.0353361595
620296280.0 0.03462585 -0.0401383278 0.207037297 -0.766802295 0.2068809576 -0.7671230438 0.0334898193 -0.0359093219
625296250.0 0.0345215008 -0.0403743283 0.1984325789 -0.7693315339 0.19844112 -0.7694551529 0.0328883568 -0.035383522
630296220.0 0.0336932296 -0.0406182209 0.1900420138 -0.7719448504 0.1901075886 -0.7714398546 0.0319467023 -0.035816499
635296190.0 0.0331913921 -0.0410378074 0.1818523867 -0.7731580706 0.181073888 -0.7727576445 0.0314794564 -0.0366016466
640296160.0 0.0323343273 -0.0410695861 0.1737877514 -0.77490235 0.1735184488 -0.7754215055 0.0316185825 -0.0368254018
645296130.0 0.031995108 -0.0411172608 0.1648747349 -0.7770417316 0.1650120988 -0.7770763995 0.0296869448 -0.0372997983
650296100.0 0.0309217097 -0.040873328 0.157105332 -0.7784656484 0.1568410431 -0.7785296365 0.0297806479 -0.0371397173
655296070.0 0.0302968266 -0.0420568727 0.1478253575 -0.7800747843 0.1476806034 -0.7804948441 0.0299036893 -0.0369332134
660296040.0 0.0292676701 -0.0417251875 0.1392332299 -0.781467067 0.1393239395 -0.7813511456 0.0285261306 -0.038062376
665296010.0 0.0294865802 -0.0425621888 0.1310493344 -0.7833206353 0.1313544772 -0.783488365 0.0276181737 -0.0374373801
670295980.0 0.0293160947 -0.0422392675 0.1223097543 -0.7841717018 0.1225746418 -0.784610868 0.0272181139 -0.037970608
675295950.0 0.0283955181 -0.0425715808 0.1136652305 -0.7858781695 0.1143628887 -0.7864384426 0.0269390343 -0.0378548451
680295920.0 0.0274121494 -0.042604134 0.1050836174 -0.7871538451 0.1046788544 -0.7873081274 0.026454577 -0.0386417299
685295890.0 0.0266030281 -0.0429379891 0.0968758882 -0.7883918144 0.0965305164 -0.7883363718 0.0257244466 -0.0381878388
690295860.0 0.0265601999 -0.0432132748 0.0879125439 -0.7889503765 0.0878643623 -0.7886346975 0.0254833612 -0.0381449126
695295830.0 0.0263615032 -0.0433956699 0.0785918677 -0.7901027654 0.0787182647 -0.7903612529 0.0239097219 -0.0385112149
700295800.0 0.0256850299 -0.043374512 0.0706251721 -0.7911401502 0.0707917217 -0.7912810674 0.0236404396 -0.0393124231
705295770.0 0.0247105067 -0.0435700709 0.0622668464 -0.7915258368 0.0626295221 -0.7914896693 0.0228403098 -0.0392465841
710295740.0 0.0240771928 -0.0435279325 0.0535826086 -0.7917729347 0.053671141 -0.792292065 0.0216390511 -0.038847409
715295710.0 0.0235344144 -0.04372775 0.0448711964 -0.7927354226 0.0451172653 -0.7929987502 0.0217283319 -0.039712942
720295680.0 0.0225609681 -0.044153683 0.0362912285 -0.7932167414 0.0361425605 -0.7934965727 0.0216029228 -0.0394745478
725295650.0 0.0224466634 -0.0441603868 0.0275290243 -0.7927851643 0.0281946861 -0.7933162548 0.0208687983 -0.0395031486
730295620.0 0.0213621464 -0.0445063251 0.0189294206 -0.7943665844 0.0186268467 -0.7938914343 0.0204900711 -0.0406682899
735295590.0 0.0212932989 -0.0443542918 0.0108220324 -0.7935433652 0.0106721761 -0.7939952124 0.0195730897 -0.0394882656
740295560.0 0.0202044592 -0.0442917357 0.0016180279 -0.7937110548 0.0015082876 -0.7938084728 0.0194195487 -0.0399214981
745295530.0 0.0196635875 -0.0446790809 -0.0069333828 -0.7941476078 -0.0067916298 -0.7940506322 0.0183104028 -0.0399527471
750295500.0 0.0192352202 -0.0448338886 -0.0156589332 -0.7933992829 -0.0154279966 -0.7934418575 0.0179924826 -0.0406719148
755295470.0 0.0191495028 -0.0445279293 -0.0242327924 -0.7935559076 -0.0239978958 -0.793996571 0.016468101 -0.0401674897
760295440.0 0.0177989835 -0.0445010908 -0.0332403024 -0.7928086101 -0.0330727536 -0.793605259 0.015720246 -0.0404560686
765295410.0 0.0166351792 -0.0450283758 -0.0408472714 -0.7929040372 -0.0410103441 -0.7933163041 0.0166300031 -0.0398527086
770295380.0 0.0169563582 -0.0448415709 -0.050199464 -0.7922059812 -0.0500477175 -0.79258824 0.015793758 -0.0400432127
775295350.0 0.0163072072 -0.0448577549 -0.0579737667 -0.7911611862 -0.0584998012 -0.7914823354 0.0145314282 -0.04102638
780295320.0 0.0157932215 -0.0448587668 -0.0663887111 -0.7909263576 -0.0665394219 -0.7910335674 0.0141243081 -0.0399396265
785295290.0 0.0147165986 -0.0445078277 -0.0754954641 -0.7891395458 -0.0757331258 -0.7903283695 0.0132233327 -0.0404986242
790295260.0 0.0140014329 -0.0444207367 -0.0838193473 -0.7888430829 -0.0842935977 -0.7898682014 0.0130884398 -0.0402024573
795295230.0 0.0133430346 -0.0446702206 -0.0921875957 -0.7883199889 -0.0924398935 -0.7884630241 0.0123483967 -0.0393429901
800295200.0 0.0126453354 -0.0445112636 -0.1018884199 -0.7874638977 -0.1013758068 -0.7876969998 0.0117893837 -0.04008941
805295170.0 0.0118240678 -0.0447456114 -0.1098231049 -0.7851203235 -0.1100723639 -0.7857891311 0.0110366394 -0.0403766794
810295140.0 0.0114286427 -0.044773854 -0.1181515137 -0.7843807777 -0.118077191 -0.7853695048 0.0105242497 -0.0398077499
815295110.0 0.0107160277 -0.0444545945 -0.1272551239 -0.7830388891 -0.1274031062 -0.7833708244 0.0098339673 -0.0406347158
820295080.0 0.0103382394 -0.0446706897 -0.1349684418 -0.781994987 -0.1357455371 -0.7819748407 0.0089915256 -0.0400036066
825295050.0 0.0096073656 -0.0449283942 -0.144383233 -0.7800209411 -0.144176891 -0.7802476158 0.0087724144 -0.0395084877
830295020.0 0.0088389776 -0.044133621 -0.1530214885 -0.7785767872 -0.1531356791 -0.7788109551 0.0080238971 -0.0400187906
