!Created with skrf (http://scikit-rf.org).
# Hz S RI R 50.0 
!freq ReS11 ImS11 ReS21 ImS21 ReS12 ImS12 ReS22 ImS22
300000.0 -0.7803105999 -0.0852353772 -0.000567519 0.0006394518 0.0002115524 0.0012841065 -0.0471072563 -0.0581234554
5299970.0 -0.7848288543 -0.0051209578 0.0001827915 0.0001764106 -0.0001485162 -9.5875e-06 -0.0462984924 0.0156159335
10299940.0 -0.7877114628 -0.0037768067 0.000181291 -9.8907e-06 8.338e-05 0.0001214672 -0.0401961066 0.0340013318
15299910.0 -0.7930985817 -0.0021096806 0.0001573891 0.0001859539 0.0001417261 1.63751e-05 -0.0316808972 0.0480850789
20299880.0 -0.7998074816 0.0020596421 1.5499e-06 0.0002364106 0.0002624919 -2.99937e-05 -0.0215536519 0.0596850923
25299850.0 -0.8063961996 0.0079273355 7.0797e-06 9.57427e-05 3.66813e-05 0.0001414063 -0.0099422802 0.069367298
30299820.0 -0.8121529589 0.0149259834 -0.0001446191 -0.0001317571 2.49406e-05 -3.21778e-05 0.0017566792 0.0761822559
35299790.0 -0.8173157459 0.024276202 4.82564e-05 0.0001238544 -0.0001916558 -4.35548e-05 0.0130185452 0.0812959796
40299760.0 -0.821056195 0.0338877829 -0.0002104021 -0.0001552863 -6.28964e-05 4.90819e-05 0.0243922603 0.083726613
45299730.0 -0.8242200131 0.0422609723 0.0001903214 -7.8703e-06 0.0001247218 -1.54812e-05 0.0353896836 0.0850794964
50299700.0 -0.8272266726 0.0525638282 4.80599e-05 0.000167124 8.40276e-05 0.0001174299 0.045374244 0.0852579465
55299670.0 -0.8294897013 0.0628456105 8.29516e-05 -0.000176765 0.0001445551 1.27268e-05 0.0546219239 0.084259985
60299640.0 -0.8303467619 0.0727115274 -0.0001506427 0.0003416759 -1.26327e-05 7.68962e-05 0.0633205965 0.082286413
65299610.0 -0.8309406492 0.083066361 -0.0001181545 -7.11453e-05 -4.84131e-05 -1.35051e-05 0.0708348472 0.079925574
70299580.0 -0.8314807418 0.0930001649 0.0002732662 0.0001535227 -8.65993e-05 -9.16845e-05 0.0777879964 0.0769025135
75299550.0 -0.8318107048 0.1034679804 8.67713e-05 6.22423e-05 -8.8618e-06 0.0001179622 0.0846025098 0.0735242795
80299520.0 -0.831819642 0.1129324366 -7.27913e-05 -5.28171e-05 0.0001259365 9.31044e-05 0.0899650735 0.0704716791
85299490.0 -0.8309069569 0.1228990861 0.0001823817 0.0001298909 -0.0002189748 -7.08018e-05 0.0949976326 0.06661946
90299460.0 -0.8299655974 0.1317096899 9.4296e-05 5.97576e-05 -8.2159e-06 4.5827e-05 0.0996077919 0.0630190424
95299430.0 -0.8291156613 0.1415675382 9.92036e-05 0.0001253377 -0.0002665185 -0.0001493156 0.103616473 0.0592416601
100299400.0 -0.8278690956 0.1499266833 0.00013665 -7.27965e-05 -2.72531e-05 1.45299e-05 0.1076483532 0.055074992
105299370.0 -0.8265382863 0.1599020736 -1.93047e-05 0.0001944191 0.0001669174 -4.81426e-05 0.110761258 0.0514714872
110299340.0 -0.825263778 0.1690568443 0.0002083873 0.0001597108 5.153e-06 -0.0001779646 0.1135736927 0.0475788513
115299310.0 -0.8242983983 0.1782874021 -0.0002123386 2.82509e-05 -5.4379e-06 0.0001061553 0.1160832756 0.0436032444
120299280.0 -0.8223131057 0.1871095267 -0.0001244069 0.0001099926 -8.59522e-05 0.000129577 0.1183888143 0.0400276456
125299250.0 -0.8202037174 0.1959518068 -6.88997e-05 0.0002567839 -7.84456e-05 0.0001888591 0.1204204087 0.0360443134
130299220.0 -0.8184143835 0.2051370465 8.34277e-05 2.90049e-05 -5.50077e-05 -6.66047e-05 0.1220413144 0.0322173947
135299190.0 -0.817083487 0.2139317826 -0.0001867102 -0.0001198935 -0.0001357764 1.30178e-05 0.1237168522 0.0290749562
140299160.0 -0.8150640805 0.2224937401 8.00129e-05 1.71294e-05 9.01043e-05 -4.8236e-05 0.1248315215 0.02548712
145299130.0 -0.8127765759 0.2319568907 0.0001587094 8.37034e-05 7.59266e-05 0.0001262324 0.1258502006 0.0220724242
150299100.0 -0.8099890541 0.2410452836 0.0001730022 5.2409e-06 3.90242e-05 -1.70238e-05 0.1268888309 0.0188630206
155299070.0 -0.8080823662 0.2492313772 -1.6582e-06 0.0002602423 1.60288e-05 -4.84877e-05 0.1278994657 0.0158918366
160299040.0 -0.8051955745 0.2579792268 0.0002697301 0.0001551513 0.0003212299 -0.0001226056 0.1281775224 0.0127356582
165299010.0 -0.8030160044 0.266866963 0.0001247985 -8.03636e-05 3.44101e-05 -7.04027e-05 0.1289565123 0.0094667589
170298980.0 -0.800126418 0.2749460466 9.5826e-06 0.0001092579 8.51972e-05 0.0002639236 0.1291998046 0.0059155463
175298950.0 -0.7971625251 0.2840094903 -0.0002303193 0.0002976565 4.73545e-05 0.0001785999 0.1292987198 0.0034951179
180298920.0 -0.7946129428 0.2927751502 -7.01915e-05 0.0002104674 0.0001149628 -4.1273e-06 0.1294669477 0.0006978687
185298890.0 -0.7914008933 0.3004628195 -0.0001525053 8.24525e-05 -8.47752e-05 8.37565e-05 0.1300071463 -0.002467113
190298860.0 -0.7883277097 0.3095193504 -0.0002023036 -1.59026e-05 6.69244e-05 4.79453e-05 0.1298932491 -0.0049087583
195298830.0 -0.7849770251 0.3173572682 0.000190922 3.73613e-05 0.0001369702 8.65716e-05 0.1300532263 -0.0079813731
200298800.0 -0.781261539 0.3258736386 4.36355e-05 -0.0001156715 6.23491e-05 8.88332e-05 0.1297819555 -0.010638011
205298770.0 -0.7779007701 0.3337940301 9.8934e-06 0.0001585961 5.644e-07 -6.31401e-05 0.1297715478 -0.0131835071
210298740.0 -0.7748215142 0.3421261517 -3.87741e-05 1.9425e-06 -3.57728e-05 0.0001008359 0.1294881503 -0.0156913244
215298710.0 -0.7714948144 0.3508487685 4.79891e-05 8.23165e-05 0.0001290888 0.0001554973 0.1288673238 -0.0182028072
220298680.0 -0.7675997909 0.3588408329 -5.13942e-05 0.0001814132 -2.00903e-05 0.0003234864 0.1285677729 -0.0206761338
225298650.0 -0.7644764679 0.3661638841 0.0001717161 0.0001993601 7.99516e-05 0.0002050799 0.1281400189 -0.0227559493
230298620.0 -0.7604161846 0.3742387176 0.0002789715 0.0001626202 -6.91058e-05 0.0002569735 0.1279865579 -0.0254287432
235298590.0 -0.7562027737 0.382863941 8.94523e-05 0.0002292464 0.0001701929 9.4042e-06 0.12750952 -0.0274743762
240298560.0 -0.7523007614 0.3910209552 0.0003170896 0.0002513791 0.0003347253 6.38368e-05 0.1267619514 -0.0296456026
245298530.0 -0.7483028286 0.3978226107 6.48391e-05 0.0001965968 0.0004275804 9.23254e-05 0.126569303 -0.0320605378
250298500.0 -0.7440269114 0.4060296054 -1.544e-07 5.75092e-05 0.0002048869 -8.93295e-05 0.12577008 -0.0340115496
255298470.0 -0.7395767035 0.4135441613 6.56646e-05 0.0003544104 -0.0001297063 1.41805e-05 0.1250206313 -0.0365791124
260298440.0 -0.735417199 0.4210934565 6.6571e-05 2.93851e-05 -1.23651e-05 0.0001181822 0.1244006878 -0.0381686507
265298410.0 -0.7309513634 0.4295500211 -9.1779e-05 -2.57649e-05 -8.15477e-05 0.0003226816 0.1237000474 -0.0399849257
270298380.0 -0.7268190379 0.4371460945 -5.61667e-05 -0.0001013685 -2.98355e-05 0.0001850025 0.1231529507 -0.0422840748
275298350.0 -0.7224281152 0.4441000785 0.0003574296 0.0002465078 -8.54932e-05 0.0002504218 0.1225026511 -0.0437997381
280298320.0 -0.7177109334 0.4519606151 0.000105654 0.0001909926 0.0002944154 -1.53536e-05 0.1220104652 -0.0459608211
285298290.0 -0.7128656622 0.4597131844 0.0001643385 0.0001395318 0.0002181707 -1.7316e-06 0.1208141318 -0.0477492498
290298260.0 -0.7079195043 0.4673022386 0.0001023748 9.934e-06 0.0001335028 0.0002310505 0.1202856299 -0.0497106287
295298230.0 -0.7022984842 0.4740874404 0.0001170712 -9.5901e-06 0.0002300172 4.9964e-05 0.119554834 -0.051498383
300298200.0 -0.6983626349 0.4815106143 8.3474e-05 -1.65067e-05 5.48912e-05 2.53052e-05 0.1189880987 -0.053377479
305298170.0 -0.6924441175 0.4881125959 -0.0001424275 6.89127e-05 5.13519e-05 0.0003020543 0.1181523286 -0.0553531777
310298140.0 -0.6874952563 0.4960884113 4.98253e-05 0.0001247383 0.0001801003 0.0001125368 0.1165953298 -0.0570365538
315298110.0 -0.682987855 0.502749124 1.87942e-05 0.0003108278 0.000103636 2.81192e-05 0.115470101 -0.0591471503
320298080.0 -0.6777336772 0.509480047 0.0001156832 0.0001847566 0.0002068446 1.17487e-05 0.1150028225 -0.0607039777
325298050.0 -0.6719455392 0.5170543956 0.0001121486 0.000103757 0.0001757152 -1.68021e-05 0.1134577405 -0.0626564955
330298020.0 -0.666466393 0.5240038187 0.0001709239 0.000170486 5.73275e-05 0.0001483994 0.1123346303 -0.0641726365
335297990.0 -0.6614533859 0.5305472363 0.0002005474 0.0003034198 0.0001731922 5.23834e-05 0.1108696089 -0.0647611912
340297960.0 -0.656139138 0.5372285663 0.0001390786 0.0002006567 0.000194844 0.0001937147 0.1102188421 -0.0667442728
345297930.0 -0.6504812793 0.5436735705 0.0001095763 0.0002926381 -9.5793e-05 0.0003392379 0.1084849825 -0.0682884914
350297900.0 -0.6446192447 0.5507508069 0.0001145765 0.0002672922 0.0001375505 0.0001710926 0.1074020216 -0.0690360459
355297870.0 -0.6381944621 0.5576603594 2.80958e-05 0.0001381269 0.0001691008 -0.0001709194 0.1058609481 -0.0708786627
360297840.0 -0.6331211312 0.5637570905 0.0001195931 0.0002376444 4.3189e-05 0.0002500198 0.1051357607 -0.072325495
365297810.0 -0.6277143354 0.5702166765 0.0004263901 -6.17702e-05 0.0001839642 3.09111e-05 0.1040088468 -0.0736875868
370297780.0 -0.6208007544 0.5761909236 0.0002133642 -3.48711e-05 0.0002057449 0.0001795412 0.1028874597 -0.0748074678
375297750.0 -0.6149984853 0.5835502864 -3.295e-06 0.0001001957 -7.16589e-05 0.0002484941 0.1015623339 -0.0761534893
380297720.0 -0.6089899965 0.5887830255 0.0001856742 1.99289e-05 0.0003859194 0.0001741059 0.100295815 -0.0772869329
385297690.0 -0.6030604686 0.5950404944 0.0002300125 0.0001425981 0.000380663 -1.26322e-05 0.0994228534 -0.0786047884
390297660.0 -0.5972521476 0.6007985602 0.0002061395 0.0001324556 0.000194676 0.0001456625 0.0979069555 -0.0797592859
395297630.0 -0.5903693066 0.6074948494 6.26204e-05 0.0004019116 0.0003521997 6.27e-07 0.097013294 -0.0810553528
400297600.0 -0.5839503849 0.6130245311 0.0001855358 -7.5427e-05 0.0002516452 0.0001706753 0.0958818959 -0.0820900785
405297570.0 -0.578018801 0.6195008429 0.000198063 6.7047e-06 0.0003133065 6.38534e-05 0.0943884938 -0.0834622729
410297540.0 -0.5712447875 0.6242565456 0.0001742844 -0.0001139561 -3.3329e-06 6.30365e-05 0.0934385739 -0.0843849979
415297510.0 -0.5646707534 0.6308916457 0.0001770259 2.41634e-05 9.49677e-05 8.71782e-05 0.092088755 -0.0856429551
420297480.0 -0.5591139797 0.6368515321 5.1636e-05 0.0001529382 0.0003482813 0.0002886117 0.0907783304 -0.0863637588
425297450.0 -0.5519080772 0.6427376036 6.298e-06 0.0002142655 0.0002173082 0.0001122135 0.0894539924 -0.0875895133
430297420.0 -0.5455434315 0.6477521197 0.0001411499 0.0001820634 0.0002006857 1.90299e-05 0.0882892499 -0.0886652703
435297390.0 -0.5388813426 0.6531715044 0.0002353383 0.0003515977 0.0001304165 0.0001853931 0.0869534696 -0.0897343179
440297360.0 -0.5317407732 0.6583794512 0.0001487589 -9.43277e-05 9.56912e-05 0.0001858187 0.0857907251 -0.0905559252
445297330.0 -0.5252893802 0.6644943428 0.0002482487 0.0001442763 0.0003822131 0.0001085042 0.0844999542 -0.0920947493
450297300.0 -0.5186307859 0.6692685278 0.0004292309 0.0001616669 0.0001560365 5.53126e-05 0.0833519728 -0.0924960366
455297270.0 -0.5117012929 0.6742618072 0.0001399805 -1.50733e-05 0.0002133388 0.0001348583 0.0817480349 -0.0935737974
460297240.0 -0.5051460839 0.6795428478 0.0001335006 9.32057e-05 5.52964e-05 0.0001594953 0.0805711724 -0.0941490729
465297210.0 -0.497960851 0.6845827645 0.0001852272 5.74464e-05 0.0003565495 0.0001474873 0.079139443 -0.0952831919
470297180.0 -0.4904406378 0.6896467324 6.41234e-05 1.51047e-05 0.000288706 0.0001411488 0.0777129191 -0.0959541692
475297150.0 -0.4838732489 0.6941384057 0.0001323534 7.10714e-05 0.0002029218 5.80295e-05 0.0765333455 -0.0969364989
480297120.0 -0.4766797455 0.6992683085 0.0001529169 0.0002726599 0.0002472679 5.02296e-05 0.0753195734 -0.0973688842
485297090.0 -0.4692022171 0.7039921299 4.67313e-05 -9.5378e-05 0.0002943649 -5.62744e-05 0.0741382739 -0.0984697099
490297060.0 -0.4624751822 0.7082790699 7.24329e-05 0.0001232424 0.0001877011 -2.8567e-06 0.0725753707 -0.0992280842
495297030.0 -0.455301497 0.7129039094 -3.57139e-05 9.55111e-05 7.20228e-05 0.0001940169 0.0711005482 -0.0995590338
500297000.0 -0.4477310665 0.7179263109 2.5181e-05 0.0001878909 0.000159107 8.41362e-05 0.0696118254 -0.1000974359
505296970.0 -0.4403336671 0.72226509 7.59743e-05 0.0001126976 -3.14168e-05 6.94111e-05 0.068114956 -0.1010702299
510296940.0 -0.4330666192 0.726738982 0.0003973742 0.0002886491 0.0001823658 0.000271385 0.0667906506 -0.1019374673
515296910.0 -0.4247498737 0.7297007671 0.0002691789 0.0003143067 -2.43462e-05 2.29759e-05 0.0653645156 -0.1028329477
520296880.0 -0.4182858326 0.7347921676 9.06313e-05 -1.29218e-05 0.0002343209 -1.35855e-05 0.0641648627 -0.1033348395
525296850.0 -0.4103813493 0.7387537851 0.0001138776 0.0001722358 0.0002506648 -4.59425e-05 0.0628062507 -0.1035799901
530296820.0 -0.4031910258 0.7429322804 0.0002828043 0.0002707775 0.000229027 6.64318e-05 0.0612583412 -0.1042447513
535296790.0 -0.3962099956 0.7467581257 0.0001332697 0.0002715267 4.82172e-05 2.7105e-06 0.0592887973 -0.1053290624
540296760.0 -0.3884990964 0.7501918759 0.0001625263 -4.99995e-05 0.0002718084 0.0002012227 0.05802432 -0.1055233166
545296730.0 -0.3807648635 0.7551765356 0.0004093259 -3.8883e-05 0.0002960972 0.0002192934 0.0570313851 -0.1065787682
550296700.0 -0.3733210605 0.7582874484 0.0002196704 0.0003042194 0.000198173 0.0001452183 0.0555658545 -0.1068085247
555296670.0 -0.3648526507 0.761539607 0.0003016779 0.0001015751 0.0004308229 -0.0001087416 0.0540104837 -0.1067746309
560296640.0 -0.3579343114 0.765832265 0.0002362945 7.44783e-05 0.0001485416 5.69903e-05 0.0525043154 -0.107493804
565296610.0 -0.349860327 0.7696664094 0.0001420813 0.0001137594 0.0002721754 1.05286e-05 0.0512272733 -0.108051921
570296580.0 -0.3430049302 0.7722770152 0.0005213483 0.0001389345 0.0002224259 -2.43606e-05 0.0497055926 -0.1089010975
575296550.0 -0.3347718044 0.7761448088 0.0003764981 0.0001793975 0.0001891398 0.0001614659 0.0483497125 -0.1091059126
580296520.0 -0.3264756105 0.7796348174 0.0004151631 0.0001123666 0.0002776494 -0.0001860982 0.0471990215 -0.1096846138
585296490.0 -0.3192543936 0.7827632365 8.87132e-05 -1.56782e-05 0.0004223426 -9.63739e-05 0.0457113223 -0.1101363624
590296460.0 -0.3113978746 0.7855254915 0.0002234205 0.0001970859 0.0002892131 0.0001224736 0.0438899814 -0.1100134403
595296430.0 -0.3027568179 0.7874113894 0.0001490766 -0.000196857 0.0003930545 8.02015e-05 0.0423885862 -0.1109117678
600296400.0 -0.2951300337 0.7917587799 8.03054e-05 -3.00106e-05 0.0003701173 0.0001441439 0.0408470322 -0.1110936134
605296370.0 -0.2879242799 0.7942234359 0.0002089969 0.000247233 0.0002687116 5.20445e-05 0.0398477225 -0.1112963189
610296340.0 -0.279489408 0.7969177079 0.0004094095 -7.23708e-05 0.0003242656 -6.22295e-05 0.0384623602 -0.1113212955
615296310.0 -0.2704602218 0.8002353438 0.000331387 -4.7173e-06 0.0002205817 -4.12281e-05 0.0368090752 -0.1120743715
620296280.0 -0.2628583533 0.8019049292 0.0003537014 9.48251e-05 0.0003199366 0.0003438646 0.0354318356 -0.1118089682
625296250.0 -0.2549273332 0.8049445348 0.0003952836 2.38277e-05 0.0004142944 5.77452e-05 0.0344525692 -0.1123483222
630296220.0 -0.2467556725 0.8079149482 0.0001365202 -8.0474e-05 0.0002049348 1.61686e-05 0.0326437228 -0.112476708
635296190.0 -0.2390966416 0.8101931429 0.0003428527 3.91872e-05 0.0003960474 7.7827e-06 0.0315428453 -0.1124314008
640296160.0 -0.2314041863 0.8123711737 6.98007e-05 4.37624e-05 4.79029e-05 -6.97817e-05 0.029754211 -0.1127062455
645296130.0 -0.2231545242 0.8151244958 0.0002148726 -0.0001809306 0.0004220131 3.96929e-05 0.0283375684 -0.1126783675
650296100.0 -0.2147458527 0.8164514039 0.0001819261 0.0001858501 0.000215962 -3.03356e-05 0.0270575451 -0.1130785231
655296070.0 -0.2065417171 0.8188030495 0.0003610072 -6.23382e-05 0.0002766696 7.4824e-05 0.0256828681 -0.1126627854
660296040.0 -0.1984817629 0.8204326651 0.0002329898 1.47678e-05 6.34068e-05 0.0001652917 0.0242184687 -0.1131202833
665296010.0 -0.1896652879 0.8220498983 0.0003838346 0.0001067799 0.0003135982 -2.82766e-05 0.02252813 -0.1129801856
670295980.0 -0.1823446499 0.8247491965 0.0005317661 -2.74899e-05 0.000130301 0.0001234723 0.0207853316 -0.1132499758
675295950.0 -0.1733372944 0.8263360398 0.0004901674 3.34379e-05 0.0003201622 -0.0001245123 0.0193697423 -0.1129664572
680295920.0 -0.1654118745 0.8281631246 0.0002431376 0.0002297738 0.0003824634 -3.68809e-05 0.0179902313 -0.1129847268
685295890.0 -0.157080773 0.8305767162 0.0002006784 1.17988e-05 0.0004221712 0.0001222481 0.0164409459 -0.1129618669
690295860.0 -0.1488552223 0.8305884827 0.0004158715 -0.0001256825 0.000176997 0.0002870394 0.0151499333 -0.1125402687
695295830.0 -0.1412640056 0.8320967654 0.0002978258 2.83807e-05 0.0001175195 -0.0001563347 0.0133777972 -0.1129476448
700295800.0 -0.1318344979 0.8333010035 0.0001760139 0.0001925412 0.0003137058 -3.4311e-05 0.0120886207 -0.1128307101
705295770.0 -0.1243222932 0.8351392091 0.0001795449 -0.0003260074 0.0005744183 -0.0002040842 0.0108456643 -0.1122750512
710295740.0 -0.1159039711 0.836105774 0.0001405156 -0.0002012078 0.0001959503 0.0001407132 0.0088193519 -0.112570089
715295710.0 -0.1076129556 0.8375600572 0.0005430134 -0.0001646347 0.000372373 0.0001089313 0.0075714341 -0.1125806735
720295680.0 -0.1000816893 0.8382367505 0.0004036654 0.0001138772 0.0004496971 0.0002049381 0.0063416337 -0.1125447576
725295650.0 -0.0909220561 0.8396844074 0.000431265 4.87318e-05 0.0002377956 -0.0001640969 0.0048580061 -0.1120521366
730295620.0 -0.0826308225 0.840403499 0.0005121574 -8.61156e-05 0.000300631 6.26369e-05 0.0033385828 -0.1118441248
735295590.0 -0.0748402702 0.8411362237 0.000272342 3.2442e-05 0.0003299875 9.44337e-05 0.0018202648 -0.1122455667
740295560.0 -0.0663925981 0.8417893233 0.0001078915 -0.0001019592 0.0002667318 -0.0001012747 0.0006992807 -0.1118731029
745295530.0 -0.0581788394 0.8425640324 0.0003135221 -0.0001098671 0.0004055008 -0.0001216465 -0.0008333045 -0.1118376083
750295500.0 -0.0492683847 0.842481714 0.0004396672 -4.93106e-05 0.000557489 -3.3484e-05 -0.0020649315 -0.1111800937
755295470.0 -0.0410680151 0.8430331438 0.0004662751 -0.000122179 0.0005136278 -4.67263e-05 -0.0034161885 -0.1113304172
760295440.0 -0.0326937892 0.8434414069 0.0005616203 -5.12507e-05 0.0004424987 -2.36806e-05 -0.0048557961 -0.1109764206
765295410.0 -0.0246664141 0.8435097924 0.000464577 -9.78217e-05 0.000376162 -6.0805e-06 -0.0062389379 -0.1107678955
770295380.0 -0.016158204 0.8444751097 0.0003949856 5.60369e-05 0.0005405998 -5.90084e-05 -0.0079599724 -0.1105599864
775295350.0 -0.007936083 0.8440120779 0.0004045532 -0.0001820455 0.0003967241 -0.0002574865 -0.0093302723 -0.1099899948
780295320.0 0.0007315423 0.8444646712 0.0003051205 -0.0002654165 0.000356981 -0.0002411307 -0.0104572683 -0.1097232674
785295290.0 0.0083723563 0.8431479286 0.0005007552 4.35236e-05 0.0003244823 9.80096e-05 -0.0115214104 -0.1093926757
790295260.0 0.0176987801 0.8440319526 0.0003770938 -4.7476e-05 0.0004686936 5.478e-06 -0.0127881043 -0.1090644806
795295230.0 0.0252954834 0.843585451 0.0005558544 -0.0003123298 0.0004893334 -0.0002184398 -0.0143514508 -0.1085305473
800295200.0 0.0335739446 0.8429845253 0.0003296539 -0.0002367854 0.0004994644 -0.0003730997 -0.0158528243 -0.1080936669
805295170.0 0.0429783088 0.8427409517 0.0004861093 -0.0001378959 0.0003300617 -0.0001103925 -0.0169560135 -0.1073988361
810295140.0 0.050635996 0.8424491839 0.000188504 -0.0001799137 0.0003062902 4.3901e-06 -0.0181694789 -0.1073322017
815295110.0 0.0584748133 0.8414521953 0.0005182297 -4.14209e-05 0.0004112822 3.02804e-05 -0.0197623547 -0.106825073
820295080.0 0.0670589416 0.8415407789 0.0003214159 -3.17324e-05 0.0003231767 -0.000250928 -0.0209517201 -0.1061293953
825295050.0 0.0765186987 0.8401721648 0.000436402 -0.0002049557 0.0003368666 -0.0002857468 -0.0222443899 -0.105498712
830295020.0 0.0834519427 0.839830913 0.0005059286 -6.83097e-05 0.0002793575 -0.0001257766 -0.0233507544 -0.1050929681
835294990.0 0.0922241974 0.838838953 0.0004525531 7.7044e-06 0.0005888674 -0.000330079 -0.0249715605 -0.1044805574
840294960.0 0.100001092 0.838341206 0.0004973617 3.72667e-05 0.0003916912 -2.53928e-05 -0.0262446422 -0.1037654512
845294930.0 0.1088294176 0.8368042746 0.000317172 -0.0001319446 0.0004304949 -0.0003026094 -0.0276538099 -0.103583887
850294900.0 0.1164346082 0.8363618521 0.000362598 1.58312e-05 0.0003432538 -8.7361e-05 -0.0292381581 -0.1028835019
