!Created with skrf (http://scikit-rf.org).
# Hz S RI R 50.0 
!freq ReS11 ImS11 ReS21 ImS21 ReS12 ImS12 ReS22 ImS22
300000.0 -0.2419484863 -0.0857612701 0.4726573821 0.0578411029 0.4711206419 0.0547555143 -0.2400746325 -0.0969779191
5299970.0 -0.2449750758 0.0063737533 0.4749008254 0.0053427673 0.4746620949 0.0048921633 -0.2410573187 0.007310538
10299940.0 -0.2419215037 0.0180560494 0.4765746296 0.0058150239 0.4767608828 0.006408521 -0.2376189206 0.0205673293
15299910.0 -0.2375419501 0.0269209297 0.480479351 0.0071334265 0.4806629057 0.007412759 -0.2330868337 0.0303031727
20299880.0 -0.2326624021 0.0341875976 0.484865492 0.0080881026 0.485149365 0.0076956519 -0.2276705564 0.0381053248
25299850.0 -0.2278750111 0.0403188435 0.4900583819 0.0069798356 0.4901145356 0.0072535302 -0.2218719836 0.0445865225
30299820.0 -0.2223118076 0.0448458221 0.4953019198 0.0046803543 0.4953838433 0.0048211031 -0.2160020664 0.0501427746
35299790.0 -0.217486876 0.0489395818 0.5006753424 0.001460197 0.5006844288 0.0012762223 -0.2104835141 0.0544320845
40299760.0 -0.2127987391 0.0523746432 0.5055164636 -0.0021938703 0.5062625668 -0.0024889275 -0.2053044647 0.0574958651
45299730.0 -0.2079466354 0.0548107498 0.5103300965 -0.0068043682 0.5108387418 -0.0072601046 -0.2003166886 0.0606333088
50299700.0 -0.2037535133 0.0569489111 0.5148721148 -0.0127827424 0.5149263389 -0.0122523299 -0.1956739588 0.0627485619
55299670.0 -0.1998605829 0.0585896259 0.5186031928 -0.0189612737 0.5186174583 -0.018560072 -0.1914700676 0.0642579612
60299640.0 -0.1960432638 0.0599286523 0.5217292499 -0.0247973827 0.5222751074 -0.0246706147 -0.1875758879 0.065242539
65299610.0 -0.1929947134 0.0610497334 0.5250047677 -0.0313131444 0.5249267127 -0.031234945 -0.1841450333 0.0666044556
70299580.0 -0.1898034721 0.0620565546 0.5268268033 -0.0380871161 0.5267402946 -0.03771204 -0.180561784 0.0675121574
75299550.0 -0.1870971792 0.0632694882 0.5291769492 -0.0442578279 0.5285685105 -0.0449233961 -0.1779071971 0.0683054464
80299520.0 -0.1846768163 0.0637506313 0.5311186606 -0.0515391671 0.5309846085 -0.0513986083 -0.1751215701 0.0692527754
85299490.0 -0.1825465154 0.0640045431 0.5322123562 -0.0579968113 0.5321063006 -0.0579496271 -0.1727717671 0.0695595089
90299460.0 -0.1803761771 0.0647254414 0.5327713325 -0.0658392139 0.5333403239 -0.0650630234 -0.1704663248 0.070175423
95299430.0 -0.1780606051 0.0656215291 0.5339986354 -0.0721433168 0.5336681725 -0.0723679001 -0.1679245902 0.0710911609
100299400.0 -0.1766942845 0.0661738004 0.5340552601 -0.078706673 0.5344008336 -0.0788636832 -0.1659332496 0.0714615023
105299370.0 -0.1750198201 0.0668174839 0.5347571885 -0.0862749285 0.53473958 -0.086194153 -0.1636680748 0.072358399
110299340.0 -0.1734403003 0.0674879615 0.5348359959 -0.0926457164 0.5349147631 -0.0924316168 -0.1629469263 0.0730574566
115299310.0 -0.171953919 0.0682626848 0.5348610931 -0.0998467842 0.5347833527 -0.0996787027 -0.161212387 0.0736505868
120299280.0 -0.1708769797 0.0684859304 0.5344646077 -0.106588799 0.5345058876 -0.1064965492 -0.1595607565 0.0747220179
125299250.0 -0.1694761209 0.0692449822 0.533906307 -0.1126891131 0.5341789995 -0.1129683385 -0.1584887207 0.0747909467
130299220.0 -0.1686085195 0.0703001178 0.5333019638 -0.1198888808 0.5329918621 -0.1197253634 -0.1570563318 0.0756440069
135299190.0 -0.167729429 0.07115016 0.5329231771 -0.1265036119 0.5330112305 -0.1261075749 -0.1557622319 0.0768596798
140299160.0 -0.1667381488 0.0719132861 0.5326688697 -0.1330062913 0.5323276683 -0.1332242197 -0.1547263451 0.0780158366
145299130.0 -0.1656643272 0.0730478315 0.5315396073 -0.140224736 0.5308884191 -0.139855052 -0.1534522264 0.0788415741
150299100.0 -0.1645117568 0.0741097331 0.5301634443 -0.1458727672 0.5301283064 -0.1458141067 -0.1524223957 0.0801419828
155299070.0 -0.1639802492 0.0747862022 0.5289303157 -0.1530281454 0.528753482 -0.1530003609 -0.1511932852 0.0811192095
160299040.0 -0.1628230378 0.0759113622 0.5270346804 -0.1588963925 0.5272151117 -0.1592658258 -0.1506616934 0.0822160853
165299010.0 -0.162175276 0.0768317019 0.5261427847 -0.165833825 0.5261648867 -0.1657683431 -0.149322571 0.0836726895
170298980.0 -0.1616020265 0.077768502 0.5242816645 -0.1717203677 0.5244352156 -0.1718199642 -0.1484199886 0.084792753
175298950.0 -0.1607147278 0.0789244949 0.5229017305 -0.1781359191 0.522365715 -0.1781568019 -0.1475638238 0.0857730543
180298920.0 -0.1600510741 0.0802271697 0.5208844848 -0.1847678277 0.5210781049 -0.1841292599 -0.1463264195 0.0872250467
185298890.0 -0.1587380321 0.0810018737 0.5189671908 -0.190389489 0.5189682403 -0.1905211584 -0.145428927 0.0887438087
190298860.0 -0.1585333157 0.0823496342 0.5172293609 -0.1971986974 0.5177273154 -0.1969940994 -0.1444470682 0.0897384593
195298830.0 -0.1577970357 0.0832598739 0.5153434964 -0.2029650647 0.5156376101 -0.2027675702 -0.143502566 0.0911029113
200298800.0 -0.1567544074 0.0847206985 0.5131080915 -0.2093213578 0.5131614808 -0.2093028556 -0.1429204003 0.0926702408
205298770.0 -0.1560947556 0.0860163615 0.5108010256 -0.2154243645 0.5108333461 -0.214959601 -0.1420792117 0.0930372288
210298740.0 -0.1556157284 0.0866992046 0.5086161285 -0.2209585459 0.5086594857 -0.2206752798 -0.1408583678 0.0954668441
215298710.0 -0.1551167495 0.0881157407 0.5065668139 -0.2268639814 0.5066053073 -0.227308277 -0.1405253817 0.0967316157
220298680.0 -0.1540811733 0.0891064346 0.5035628148 -0.2325909284 0.5040557475 -0.2328223171 -0.1397995314 0.0976193182
225298650.0 -0.1534776304 0.0906644272 0.5015936875 -0.2388387813 0.5017072695 -0.238870804 -0.1385289382 0.0987698115
230298620.0 -0.1526642759 0.0920306862 0.4991277953 -0.2442134915 0.4995096661 -0.2443854636 -0.1380695297 0.1002801061
235298590.0 -0.1516811985 0.0937261982 0.4959353616 -0.2504218117 0.4963029959 -0.2496202774 -0.1368439104 0.10143831
240298560.0 -0.1509576911 0.0950061681 0.4935858906 -0.2561032499 0.4938537144 -0.2564221203 -0.136135076 0.1033051242
245298530.0 -0.1503578344 0.0961426369 0.4910811279 -0.2615464193 0.4908591206 -0.2619337097 -0.134748745 0.1041865013
250298500.0 -0.1493807063 0.0974415703 0.4875332212 -0.2676224405 0.4876252691 -0.2670943754 -0.1340944235 0.1056347218
255298470.0 -0.1485704973 0.098495548 0.4844012557 -0.2725485649 0.4848911577 -0.2725118572 -0.1327889176 0.1067740667
260298440.0 -0.1480892442 0.0998868859 0.4820366758 -0.2788712108 0.4822456995 -0.2782994833 -0.1313191721 0.1083548965
265298410.0 -0.1467182176 0.1017203605 0.4790882035 -0.2842144473 0.4792451591 -0.283748993 -0.130463992 0.1099282335
270298380.0 -0.1461808124 0.1028565167 0.4763475773 -0.288880591 0.4760423803 -0.2893585158 -0.1295552891 0.110884616
275298350.0 -0.145003892 0.1043172611 0.473135924 -0.2948237748 0.4727557757 -0.2945096526 -0.1280375593 0.1123627549
280298320.0 -0.1438945914 0.1059924636 0.4699131455 -0.3004995741 0.469779493 -0.2999946261 -0.1266599868 0.1136647465
285298290.0 -0.1426286173 0.1072317541 0.4663850814 -0.3051938135 0.4660609555 -0.3054775429 -0.1256213043 0.1150914834
290298260.0 -0.1418410858 0.1084079965 0.4630637927 -0.3105319939 0.4630366099 -0.3105891153 -0.1246104392 0.1163811581
295298230.0 -0.1408189941 0.1094275146 0.4595986221 -0.3160184982 0.4598031694 -0.3156999744 -0.1226674951 0.1175012428
300298200.0 -0.1400733303 0.1109822111 0.456470587 -0.3204513916 0.4564224602 -0.3216330524 -0.1219888971 0.1193002162
305298170.0 -0.1390266439 0.1121495568 0.4526304703 -0.3267714846 0.4525837985 -0.3262433976 -0.1198247385 0.1202002749
310298140.0 -0.1382125997 0.1135901742 0.449596881 -0.331786937 0.4494722044 -0.3313239955 -0.1186761372 0.1213188839
315298110.0 -0.1369344644 0.114732033 0.4457963234 -0.3369674761 0.4456107036 -0.3367201468 -0.1174556769 0.122924698
320298080.0 -0.1359591242 0.1159779258 0.441196006 -0.3420896785 0.4417275774 -0.341944592 -0.1163547524 0.1243620958
325298050.0 -0.1352134242 0.1171804567 0.4379551175 -0.3469180825 0.4380023392 -0.3469053992 -0.1153918028 0.1252482626
330298020.0 -0.1338244048 0.1181546338 0.433347435 -0.352058504 0.4340985078 -0.3517700801 -0.1140043056 0.1265471956
335297990.0 -0.1331030643 0.1192204437 0.4299845948 -0.3562397437 0.4300707867 -0.3569120004 -0.1135913976 0.1285631272
340297960.0 -0.1323897331 0.121053636 0.4257390682 -0.3613556697 0.4254796236 -0.3618436813 -0.1113802074 0.1295444012
345297930.0 -0.1313901699 0.1228352832 0.4214293944 -0.3668041044 0.4215455367 -0.3665939955 -0.1103073756 0.1306899131
350297900.0 -0.1308164051 0.1237390344 0.4170880739 -0.3707776254 0.4174821081 -0.3705823672 -0.1095051122 0.1326670188
355297870.0 -0.1293883407 0.1256206018 0.4134272926 -0.3753649821 0.4134879874 -0.3752719571 -0.1081862675 0.133698539
360297840.0 -0.1280376749 0.1267801012 0.4095871191 -0.3796982904 0.4097525588 -0.3796758497 -0.1067752689 0.13540118
365297810.0 -0.1272330354 0.1283065651 0.405279857 -0.3846620223 0.405398353 -0.3848978928 -0.1050089893 0.1369074052
370297780.0 -0.1259376887 0.1293115853 0.4008113142 -0.3885490247 0.4010383841 -0.3883466938 -0.1037856113 0.1381787087
375297750.0 -0.1245916836 0.1306518557 0.3965360599 -0.3934242601 0.3971333171 -0.3933304445 -0.1023935147 0.1393444403
380297720.0 -0.1234041442 0.1320781493 0.3919837416 -0.3976612398 0.3923009697 -0.39693116 -0.1012429097 0.1404188048
385297690.0 -0.1224525644 0.1335076001 0.3875939799 -0.4020386523 0.3877740107 -0.4017495229 -0.0994766362 0.1420827221
390297660.0 -0.1208519788 0.1350168406 0.3831922867 -0.4063837556 0.3832856919 -0.4058329848 -0.0984220105 0.1430775279
395297630.0 -0.1197994529 0.1362725858 0.3790879632 -0.4101458633 0.3788738343 -0.4101792914 -0.0957823438 0.1443551105
400297600.0 -0.1187114279 0.1375427184 0.3744924245 -0.4148692125 0.3745951296 -0.4145178133 -0.0953206693 0.1456793047
405297570.0 -0.1175567818 0.1388272453 0.3697240601 -0.4186220481 0.3698950241 -0.4184073432 -0.0938437259 0.1469658261
410297540.0 -0.1161992098 0.1399910719 0.365490859 -0.4225616357 0.3655979351 -0.4226927315 -0.0920554903 0.147982476
415297510.0 -0.1145722842 0.1409441805 0.3603960592 -0.4267882065 0.3608010389 -0.4268709161 -0.0908473131 0.1491291692
420297480.0 -0.113446661 0.1427094705 0.3557308544 -0.4308820558 0.3555133241 -0.430633245 -0.088899161 0.1500395209
425297450.0 -0.1120546358 0.1436890136 0.3514127642 -0.4345683804 0.35150007 -0.4344928834 -0.0878415992 0.1517428752
430297420.0 -0.1108748631 0.1446090111 0.3463015731 -0.4375892832 0.3465900501 -0.4378093142 -0.086274593 0.1523380601
435297390.0 -0.1094681437 0.1462485929 0.3412225061 -0.4419585807 0.3409933802 -0.4418404158 -0.0837003487 0.153580135
440297360.0 -0.1077684234 0.1473075933 0.336837336 -0.4454692133 0.3367285148 -0.4453107702 -0.0825764839 0.1542264228
445297330.0 -0.1065836333 0.1480826271 0.3322612342 -0.4490955915 0.331888546 -0.4489042369 -0.0806542786 0.1552185694
450297300.0 -0.105135308 0.1494069311 0.326747861 -0.452857742 0.32680083 -0.4527850533 -0.078989713 0.1561070244
455297270.0 -0.1037237882 0.1507239827 0.3215417776 -0.4562472296 0.3221979689 -0.4564736718 -0.0775278535 0.1574987858
460297240.0 -0.1023462761 0.1517048383 0.3168113178 -0.4595744386 0.3168082181 -0.4598144236 -0.0756328434 0.1585891974
465297210.0 -0.1007379769 0.1529158752 0.3121077015 -0.4631954101 0.3120706055 -0.4634793748 -0.0738211415 0.1590881775
470297180.0 -0.0993046499 0.1537611219 0.3061619348 -0.4664206493 0.3068171206 -0.4665459436 -0.0718248029 0.16037807
475297150.0 -0.0978960878 0.1547905066 0.3014679626 -0.4692133862 0.3014856051 -0.4695401564 -0.0697332512 0.1607654758
480297120.0 -0.0964393234 0.1563098081 0.2965897473 -0.4733512128 0.2964708738 -0.4734349065 -0.0679531322 0.1621566249
485297090.0 -0.0950543172 0.157142251 0.2914659491 -0.4760413484 0.2914913961 -0.4759760218 -0.0661244285 0.1628018135
490297060.0 -0.0936136935 0.1582866957 0.286355292 -0.4796194067 0.2864502706 -0.4793483388 -0.0646067356 0.1637272251
495297030.0 -0.0919905079 0.1593311049 0.2809387605 -0.4822812099 0.2810899176 -0.4823629127 -0.0627207173 0.1647344352
500297000.0 -0.0902847401 0.1601215201 0.2755287668 -0.4848895616 0.2752127071 -0.485116842 -0.0608756283 0.1664205259
505296970.0 -0.0886712865 0.1614614446 0.2703132362 -0.4883091944 0.2702065478 -0.4882727195 -0.0592202539 0.1669268807
510296940.0 -0.0871798389 0.1625367953 0.2648991635 -0.4916858613 0.2650343527 -0.4915113981 -0.0572371136 0.1677872893
515296910.0 -0.0857302489 0.1633392025 0.259463447 -0.4942428175 0.2594184093 -0.4940647218 -0.0551636779 0.1685053147
520296880.0 -0.084229983 0.1641749352 0.254182491 -0.4970032481 0.2544352488 -0.4966238753 -0.0532721667 0.1692501049
525296850.0 -0.0824361209 0.1646370511 0.2485331628 -0.4994136772 0.2489856413 -0.4996241519 -0.051645924 0.1700117547
530296820.0 -0.0809346067 0.1660420662 0.2434593294 -0.50233694 0.2431592712 -0.5021523771 -0.0495251288 0.1707369712
535296790.0 -0.0795895904 0.16704414 0.2379921624 -0.504533591 0.2380532313 -0.5045739779 -0.0480027597 0.1709960093
540296760.0 -0.0778933299 0.1677229118 0.2323196343 -0.5074845665 0.2323780739 -0.5078391923 -0.0460031962 0.1724658849
545296730.0 -0.0762673068 0.1690248869 0.2265199354 -0.5096207964 0.2267863674 -0.5097477591 -0.0446154377 0.1725758356
550296700.0 -0.0742525988 0.1698329468 0.2211945667 -0.5122491061 0.2213234408 -0.5122626855 -0.0426359293 0.173562729
555296670.0 -0.0729994875 0.170706805 0.2156781293 -0.5148586874 0.2160343004 -0.5147647946 -0.0406551201 0.1743302223
560296640.0 -0.0711602651 0.17187128 0.2100575761 -0.5170817104 0.2097903826 -0.516954499 -0.0383756118 0.1748898764
565296610.0 -0.0698420703 0.172390075 0.203951177 -0.5192480918 0.2048798477 -0.5187995404 -0.036799955 0.1749279584
570296580.0 -0.0682545444 0.1732079018 0.1988962711 -0.5218482246 0.1980877183 -0.5212887041 -0.0349932568 0.1764259997
575296550.0 -0.0664147618 0.1743927457 0.193330639 -0.523599354 0.1931604475 -0.523707649 -0.0327304752 0.176517685
580296520.0 -0.0646436517 0.1749498118 0.1870575038 -0.5260710587 0.187396132 -0.5254135892 -0.0307463631 0.1767960298
585296490.0 -0.0631755974 0.1751104431 0.1819520828 -0.5274012754 0.1820978753 -0.5276254514 -0.0290372837 0.1774343613
590296460.0 -0.0610742362 0.176275855 0.1761108647 -0.5289546563 0.175814297 -0.5294002065 -0.0278217747 0.1779419364
595296430.0 -0.0595346921 0.1770247025 0.1699518902 -0.5312923361 0.1700693342 -0.5315168086 -0.0253401223 0.1781888854
600296400.0 -0.0578091544 0.1779874637 0.164298433 -0.5328820051 0.1644116013 -0.5329508753 -0.0236837948 0.1783003641
605296370.0 -0.0561625199 0.1783194149 0.1587866657 -0.5349301215 0.1588302825 -0.534301624 -0.0213627395 0.1789918931
610296340.0 -0.0547273922 0.179282584 0.1526858184 -0.5368686371 0.1530625189 -0.5364477039 -0.0193712763 0.1791771219
615296310.0 -0.0523769576 0.1795192012 0.1468915941 -0.5375151177 0.1469970818 -0.5384913263 -0.0169103167 0.1795050645
620296280.0 -0.0509359794 0.1799228648 0.1413614981 -0.539269471 0.1412807394 -0.5390093815 -0.0152969255 0.1796325992
625296250.0 -0.0495856442 0.1803300672 0.1364129397 -0.5411475057 0.1355491881 -0.5411680581 -0.0128450672 0.1801509772
630296220.0 -0.0468676227 0.1814766644 0.1293742833 -0.5421591029 0.1290911705 -0.5420961144 -0.0111238499 0.1808288946
635296190.0 -0.0458290386 0.1818469975 0.123800204 -0.5435295646 0.1237413441 -0.5434231734 -0.0088403064 0.1807848334
640296160.0 -0.0440545345 0.1824092068 0.117971151 -0.5446893105 0.1181517111 -0.5449577214 -0.0068928458 0.1807913454
645296130.0 -0.0421122447 0.1834657959 0.1115677471 -0.5460983036 0.1123093031 -0.5460858497 -0.0050096177 0.1811697198
650296100.0 -0.0402987562 0.1836215422 0.1056743212 -0.5468040392 0.105987988 -0.5470442686 -0.0027226883 0.1810986713
655296070.0 -0.0388032101 0.184028131 0.1000721091 -0.5482564965 0.1002753268 -0.5480285296 -0.0005823364 0.1815150299
660296040.0 -0.0372362102 0.1843313547 0.0945238298 -0.5493307813 0.0942522563 -0.5492942382 0.0014853902 0.1816979205
665296010.0 -0.0349301658 0.1848166752 0.0880407156 -0.5502496592 0.0883851802 -0.5500143949 0.0034324104 0.1821736952
670295980.0 -0.0339259467 0.1856993163 0.0824335584 -0.5508968619 0.0823068574 -0.5512246817 0.0052311717 0.1822135813
675295950.0 -0.0317045331 0.1860981166 0.0763339662 -0.5518915648 0.0763845344 -0.5515283372 0.0073194407 0.1822670982
680295920.0 -0.0301479688 0.1865020353 0.0703011538 -0.5523976249 0.0700416387 -0.5527600992 0.0092381238 0.1829765991
685295890.0 -0.0279944856 0.1874674664 0.0643267478 -0.5535319841 0.0642233471 -0.553546048 0.0114221802 0.1826085717
690295860.0 -0.0259141206 0.1873855411 0.0584403337 -0.5536821539 0.0584495607 -0.5539157593 0.0132824157 0.183242779
695295830.0 -0.0241557622 0.1876577103 0.0528997306 -0.5543042429 0.052503594 -0.5544915747 0.0153895258 0.1832896459
700295800.0 -0.0224016719 0.1879575801 0.0465421626 -0.5549182808 0.046115245 -0.5546582522 0.0170315592 0.1835356219
705295770.0 -0.0209136059 0.1888320271 0.0402852114 -0.5552468841 0.0408722863 -0.5555977576 0.0191610758 0.1833451204
710295740.0 -0.0185104784 0.1890575977 0.0344020261 -0.5564255214 0.0347585714 -0.5562065229 0.0213193138 0.1824317507
715295710.0 -0.017314548 0.1891472062 0.0288020801 -0.5562110443 0.0283204095 -0.5561904054 0.0236228848 0.1829817016
720295680.0 -0.0152530556 0.189526354 0.0224346726 -0.5565346698 0.0227170081 -0.5563254629 0.025624595 0.1831169062
725295650.0 -0.0131880775 0.1898447249 0.0162543021 -0.5567763106 0.0165393225 -0.5569649233 0.0271975047 0.1830449774
730295620.0 -0.0112917236 0.1904493686 0.01022595 -0.5565529175 0.0107469416 -0.5567349509 0.028737553 0.1824196276
735295590.0 -0.0096630254 0.1905247922 0.0045870071 -0.5572042989 0.0043619271 -0.5566279643 0.0309315513 0.181969256
740295560.0 -0.0079654434 0.1909074765 -0.0015698922 -0.5566316464 -0.0017082947 -0.5569636073 0.0337858705 0.1824174575
745295530.0 -0.0059829714 0.191135475 -0.0077146825 -0.556307183 -0.0078122704 -0.5564627657 0.0356994333 0.1817433382
750295500.0 -0.0042563013 0.1913677767 -0.0131619102 -0.5564846705 -0.0134751772 -0.5564175812 0.0370587875 0.1815406762
755295470.0 -0.0019700159 0.191218597 -0.0193398698 -0.5561600566 -0.0196704078 -0.5565846016 0.0394766107 0.1809184225
760295440.0 -0.0003725831 0.1914484941 -0.0252948014 -0.5561360016 -0.0255597444 -0.5566511846 0.0411564401 0.1807981282
765295410.0 0.0014425405 0.1917682186 -0.0314283688 -0.5560151145 -0.0320406252 -0.555964141 0.0437076658 0.1809290007
770295380.0 0.0031511165 0.1918404259 -0.037760984 -0.5553455315 -0.0376839307 -0.5550788552 0.0449439544 0.179954134
775295350.0 0.0049637304 0.1912340022 -0.043578597 -0.5542382384 -0.0431725133 -0.5542894919 0.046613846 0.1796727789
780295320.0 0.0069819525 0.1916515675 -0.0495546162 -0.5540825195 -0.0489469575 -0.5543277201 0.0491091838 0.1790764562
785295290.0 0.0085290194 0.1912985498 -0.0554291634 -0.5532940903 -0.0551479219 -0.5537258102 0.0514391673 0.1789811261
790295260.0 0.0109050025 0.1919975663 -0.0607974792 -0.5531489743 -0.0607921231 -0.5530122778 0.0535082196 0.1781435382
795295230.0 0.0125589103 0.1918143737 -0.0672220031 -0.5521006514 -0.0669904818 -0.5523646694 0.0557904624 0.1781686324
800295200.0 0.0141124662 0.1921869897 -0.0738596849 -0.551345421 -0.0732420631 -0.5516379839 0.0573408371 0.1775378357
805295170.0 0.0164428051 0.1914969238 -0.0793169386 -0.5506623083 -0.0793531328 -0.5508367828 0.0593336742 0.1771498911
810295140.0 0.0179551425 0.1917057077 -0.0849308874 -0.5494075606 -0.0849886897 -0.5497185997 0.0619461274 0.1767826231
815295110.0 0.0199616382 0.1913469916 -0.0906958085 -0.5480244453 -0.0904095373 -0.548665645 0.06363243 0.1762219455
820295080.0 0.0214155309 0.1918063867 -0.0966266403 -0.5473041228 -0.0964371981 -0.5476192786 0.0654340231 0.1755649028
825295050.0 0.0239158297 0.1915845986 -0.1019809281 -0.5465115153 -0.1025428613 -0.5464795299 0.0677062496 0.1749908806
830295020.0 0.0253481662 0.1916937212 -0.1086373352 -0.5452807497 -0.1085624997 -0.5451192343 0.0703060298 0.1747092316
