!Created with skrf (http://scikit-rf.org).
# Hz S RI R 50.0 
!freq ReS11 ImS11 ReS21 ImS21 ReS12 ImS12 ReS22 ImS22
300000.0 -0.778423334 -0.1177171519 -1.60574e-05 -0.000735077 -0.0005251113 0.0002543836 0.8589942654 -0.0031439618
5299970.0 -0.7852307343 -0.006896899 0.0001557467 0.0001023055 -1.19856e-05 8.5269e-06 0.859274231 -0.0097875108
10299940.0 -0.788036356 -0.0042007451 5.6694e-06 -6.83192e-05 2.11537e-05 -0.0001295372 0.8586620275 -0.0184915423
15299910.0 -0.7930368929 -0.0021814803 3.39843e-05 -0.0001185041 1.23001e-05 2.14648e-05 0.8575493238 -0.0271308346
20299880.0 -0.7999283394 0.0018315137 -6.86654e-05 -4.46307e-05 -5.93104e-05 9.43663e-05 0.8565362569 -0.0351683083
25299850.0 -0.8062097026 0.007716011 5.67756e-05 -1.98248e-05 7.46033e-05 5.7773e-05 0.8562340929 -0.0433956931
30299820.0 -0.8121160092 0.0149771888 3.93889e-05 0.0001851739 -4.57622e-05 0.0001140315 0.8554027582 -0.0518602715
35299790.0 -0.8174597479 0.0244279785 2.49277e-05 -8.62908e-05 -9.68604e-05 -4.01122e-05 0.8546054977 -0.0596193677
40299760.0 -0.821298969 0.0335518846 0.0001244154 7.38882e-05 -1.07537e-05 3.17551e-05 0.8539122167 -0.0679717942
45299730.0 -0.8244125025 0.0429642241 -8.46829e-05 -0.0001629599 -8.7529e-06 1.89057e-05 0.8525079485 -0.0762782864
50299700.0 -0.8268449309 0.0530504156 -9.38444e-05 5.24721e-05 8.3622e-05 0.0001984744 0.8522500399 -0.0847198362
55299670.0 -0.8295570518 0.0627114304 -7.32732e-05 0.0001322276 -5.4186e-05 -0.0001933919 0.8511824126 -0.0930454974
60299640.0 -0.8302981139 0.0733706502 -0.0001699648 0.0002886447 1.00685e-05 -4.46248e-05 0.8499052763 -0.1007618942
65299610.0 -0.8307894201 0.0831887389 -0.0002335308 -8.7068e-05 -0.0001263445 -0.0002447723 0.8489742665 -0.1087659718
70299580.0 -0.8311036641 0.0931696891 -1.87044e-05 -9.25909e-05 -6.746e-06 0.0001285464 0.8480873238 -0.1174878654
75299550.0 -0.8317280033 0.1033395229 -0.0001246661 -5.23552e-05 -0.0001235414 0.0001167002 0.8462251654 -0.1255677153
80299520.0 -0.8319744082 0.1130978635 -9.96034e-05 -0.0001204979 3.8889e-05 -9.59394e-05 0.8457355436 -0.1339399656
85299490.0 -0.8311166441 0.1225774684 7.88368e-05 -8.96476e-05 -0.0001463551 -4.01332e-05 0.8444894522 -0.1417555911
90299460.0 -0.8297797448 0.1318108931 -1.76416e-05 0.0001766184 -4.26479e-05 -0.0001540334 0.8424878546 -0.1501799672
95299430.0 -0.8292050336 0.1413072249 -2.64846e-05 -5.46122e-05 -5.17996e-05 -0.0001017396 0.8407920502 -0.1580969429
100299400.0 -0.8279947767 0.150311028 4.42132e-05 0.0001246557 2.1058e-06 7.42443e-05 0.8395765621 -0.1667122758
105299370.0 -0.8266906343 0.1601812314 -0.0002935805 -0.0001348426 4.94685e-05 4.28677e-05 0.8381187266 -0.1747356144
110299340.0 -0.8252075813 0.1696426496 -1.37792e-05 -0.0001335361 3.7022e-06 -0.0001240193 0.8361407442 -0.1823176013
115299310.0 -0.8233555317 0.1781887366 3.21129e-05 -3.16618e-05 -4.05794e-05 -9.44103e-05 0.8343488044 -0.1903229707
120299280.0 -0.8220097811 0.1870211396 -0.0001791204 0.0003170158 3.81202e-05 5.18764e-05 0.8328197662 -0.1993268533
125299250.0 -0.8202431628 0.1954483817 -6.01054e-05 -9.10405e-05 0.0001296345 5.15446e-05 0.8310798175 -0.2066351411
130299220.0 -0.8184896192 0.2050159788 -4.46345e-05 -2.25483e-05 -7.5859e-06 9.75305e-05 0.8291202422 -0.2147666501
135299190.0 -0.816747365 0.2140561031 -7.6638e-05 -6.90631e-05 0.0001204069 -7.4803e-05 0.8264164944 -0.2224812271
140299160.0 -0.8143885835 0.2228977395 0.0001294928 -6.33248e-05 0.000207139 -7.85336e-05 0.8243305861 -0.2308103797
145299130.0 -0.8126255324 0.2322039313 -0.0001130037 -8.54933e-05 -9.87038e-05 -0.0001249519 0.8218996889 -0.2385100681
150299100.0 -0.8101136615 0.2408406643 -0.000101695 1.30066e-05 0.0001451379 0.0001809583 0.8197720765 -0.2466576929
155299070.0 -0.8077745415 0.249378866 3.31253e-05 7.5018e-05 0.0001204022 6.9633e-06 0.8169327059 -0.2546754007
160299040.0 -0.805397165 0.2578589195 -2.96265e-05 -5.63513e-05 3.25439e-05 -2.46136e-05 0.8147305844 -0.2620156954
165299010.0 -0.8025912616 0.2665414718 8.41128e-05 -6.02258e-05 0.0001011547 2.70658e-05 0.8116507935 -0.2704229626
170298980.0 -0.8002994927 0.2753342496 -0.000166871 7.7129e-06 5.18785e-05 -6.0923e-06 0.8089460877 -0.2780198387
175298950.0 -0.797429775 0.2840730891 -7.27388e-05 -7.46296e-05 7.54322e-05 0.0002620662 0.8065101654 -0.2859799996
180298920.0 -0.7946052453 0.2925103562 -0.000155497 0.0001878082 -1.79321e-05 -3.78301e-05 0.8034358202 -0.2943016491
185298890.0 -0.7914334087 0.3005057697 0.0002261153 -7.0105e-05 0.00010872 0.000162226 0.8004728691 -0.3016282689
190298860.0 -0.7887472007 0.3097282455 -8.58181e-05 -3.85e-07 -0.0001020614 5.81135e-05 0.7977011962 -0.3086213213
195298830.0 -0.7851143064 0.3173096887 -5.7167e-05 -1.60492e-05 -1.79713e-05 -8.191e-07 0.7949275911 -0.3165491741
200298800.0 -0.7811536215 0.3256019755 -0.0001228552 -1.52009e-05 2.2196e-05 -3.65187e-05 0.7917988823 -0.324465342
205298770.0 -0.7781661647 0.3335589533 1.17292e-05 -0.0002739043 6.30356e-05 1.94681e-05 0.7882222789 -0.3318555606
210298740.0 -0.7746264364 0.342360921 -8.70194e-05 0.0001178898 2.40955e-05 -9.1833e-05 0.7849422899 -0.3392111684
215298710.0 -0.7717460642 0.3502895687 7.22236e-05 6.34129e-05 5.55196e-05 -0.0001564609 0.7820643831 -0.3468043859
220298680.0 -0.7674027999 0.3586606001 -2.9345e-06 8.15573e-05 1.06447e-05 7.62318e-05 0.7778311874 -0.3545994458
225298650.0 -0.7644428419 0.3663175063 0.0002115619 0.0001431602 6.14874e-05 -1.50248e-05 0.7740635056 -0.3622841581
230298620.0 -0.7600718068 0.3743367177 -4.10205e-05 -7.64324e-05 0.0001711357 6.12314e-05 0.7713514032 -0.3692163142
235298590.0 -0.7559050855 0.3828073426 9.99759e-05 -9.16001e-05 0.000105896 -7.75845e-05 0.7671299128 -0.377030553
240298560.0 -0.7522546073 0.3910117685 1.77645e-05 4.82625e-05 6.03149e-05 0.0001152092 0.7635698205 -0.3845788418
245298530.0 -0.7487283637 0.3985550766 -0.0001106236 2.43858e-05 0.0001019745 -2.88332e-05 0.7601010843 -0.3919217167
250298500.0 -0.7440505784 0.4064945595 -2.08443e-05 -0.0002775309 5.08128e-05 -0.0001480683 0.7556043618 -0.3995848759
255298470.0 -0.7393334087 0.4137495822 0.0001515892 0.0002789227 0.0001863188 8.25379e-05 0.7520908794 -0.4070989261
260298440.0 -0.7350950538 0.4216191087 8.55493e-05 -0.0001743179 5.26443e-05 0.0001295101 0.7479977208 -0.4135349901
265298410.0 -0.7311176127 0.429772824 -2.56681e-05 1.38206e-05 -0.0001582618 -0.0001451701 0.7445654969 -0.4213036004
270298380.0 -0.7267275287 0.4370479812 -8.7035e-06 4.9299e-05 0.0001780531 -9.70563e-05 0.7399635661 -0.4277834719
275298350.0 -0.7221604631 0.4446566809 6.91834e-05 7.6277e-06 -8.4655e-06 -0.0001032384 0.7360280942 -0.435272386
280298320.0 -0.7171694825 0.4519807735 0.000159621 3.0062e-06 -6.59002e-05 -4.74934e-05 0.7325678102 -0.4430374026
285298290.0 -0.7130056859 0.4598496978 -0.0002611914 0.0001044553 0.0001148941 0.0001736469 0.7279564055 -0.449484149
290298260.0 -0.707791269 0.4672365743 0.0001338593 0.0001535457 4.29283e-05 -0.0002038775 0.723892789 -0.4568194585
295298230.0 -0.7026043245 0.47407953 0.0001264995 0.0001352048 -2.70572e-05 -8.04051e-05 0.7201880023 -0.4636679546
300298200.0 -0.6981076958 0.4820414638 4.30776e-05 -0.0001792309 7.45788e-05 -0.0001217119 0.7155808624 -0.4710721892
305298170.0 -0.6927104221 0.4880504902 1.33801e-05 2.98419e-05 -0.0001263406 3.0694e-06 0.7111571397 -0.4790354258
310298140.0 -0.6875808099 0.4962520068 5.34172e-05 -6.59674e-05 2.31104e-05 -0.0002369843 0.7065320935 -0.4870122979
315298110.0 -0.6826793775 0.5030606403 -0.0001512382 -0.0001868097 -0.0001480973 9.61328e-05 0.7017115716 -0.4938691999
320298080.0 -0.6771458272 0.5101499737 0.0001961855 -1.71291e-05 3.46172e-05 9.75201e-05 0.6959003076 -0.5013167685
325298050.0 -0.6724709186 0.5169208696 -2.19123e-05 5.60909e-05 0.0002174767 0.0001942047 0.6905733673 -0.5085300373
330298020.0 -0.6664262793 0.5235224548 -9.34548e-05 -0.0001164561 7.72942e-05 3.68242e-05 0.6837308081 -0.5148892107
335297990.0 -0.6607757947 0.5306017283 -0.0001708309 0.0002180731 -0.0001039357 6.8227e-06 0.6789192805 -0.5211650839
340297960.0 -0.6559796166 0.5375164894 -6.63423e-05 2.41666e-05 -4.92493e-05 -6.84933e-05 0.6736941916 -0.5272470912
345297930.0 -0.6504029974 0.5442329891 4.17668e-05 2.37646e-05 5.0501e-06 9.82447e-05 0.6677871413 -0.5340007337
350297900.0 -0.644753837 0.5508139315 -0.0001274106 0.0001436255 9.72076e-05 0.0001370431 0.6622605603 -0.5392959596
355297870.0 -0.6375877698 0.557770548 -8.35354e-05 -0.0001072109 -0.0001658559 0.0001022367 0.6568534212 -0.545890905
360297840.0 -0.6325739753 0.5635645782 0.000140781 4.7448e-05 7.56961e-05 -0.0002151542 0.6513975745 -0.55241609
365297810.0 -0.6269287256 0.5702685464 5.36852e-05 4.9482e-06 0.0002002083 -7.64777e-05 0.6463376246 -0.5589149406
370297780.0 -0.6207157017 0.5762882191 -0.0003373252 7.5856e-06 9.46416e-05 -2.94092e-05 0.6407975961 -0.564054712
375297750.0 -0.6145182463 0.5830894448 6.04171e-05 -2.71995e-05 4.65575e-05 5.4953e-05 0.6350237476 -0.5701069678
380297720.0 -0.6083906313 0.5889842363 3.83407e-05 7.85997e-05 -0.0001954362 9.65936e-05 0.6282983705 -0.5764466961
385297690.0 -0.6030645871 0.5944733191 7.16819e-05 7.03245e-05 -4.90791e-05 -9.2126e-05 0.6235180819 -0.5822425246
390297660.0 -0.5972234969 0.6011542179 -0.0001087294 4.87087e-05 5.3614e-06 -0.0001169381 0.6173518796 -0.5882839351
395297630.0 -0.5905158149 0.6073901768 -5.93699e-05 -5.70931e-05 -5.80185e-05 4.32017e-05 0.6117093259 -0.5937619745
400297600.0 -0.5841361333 0.6137249372 -9.67458e-05 -0.0001848726 -3.17045e-05 5.589e-07 0.605482301 -0.5993845964
405297570.0 -0.5778049612 0.6189270776 -0.0001121237 -0.0002510529 0.0001000328 -4.4212e-05 0.5995247552 -0.6063545522
410297540.0 -0.5707140167 0.6248309085 0.0002385811 1.14497e-05 -1.39207e-05 0.0001623494 0.5939080293 -0.6116872043
415297510.0 -0.5638210628 0.6303577023 -9.50548e-05 0.0002763542 0.0002661935 -3.02266e-05 0.5879676078 -0.6176223818
420297480.0 -0.5592059173 0.6368500748 0.0002175578 -0.0002280842 0.0001075482 -0.0001688248 0.5823989543 -0.622663959
425297450.0 -0.5512722941 0.6422507736 0.000359397 7.95105e-05 8.76526e-05 7.73177e-05 0.5760358885 -0.6286480217
430297420.0 -0.545323976 0.6480290948 -1.87957e-05 -0.0001259526 -0.0003464937 4.45947e-05 0.569592868 -0.6350078494
435297390.0 -0.5388813949 0.6528826911 -0.0001534555 6.87412e-05 4.81742e-05 6.27002e-05 0.5635622249 -0.6398917818
440297360.0 -0.5318349291 0.6588117698 0.0001370272 3.19595e-05 -1.73917e-05 0.0001642879 0.5574037018 -0.6446902435
445297330.0 -0.524928898 0.6639619964 -5.67293e-05 9.75144e-05 -6.54941e-05 5.81307e-05 0.5508444057 -0.6509302372
450297300.0 -0.5180727128 0.6691402113 -0.0001543044 5.0229e-05 9.87144e-05 2.4322e-06 0.5445996428 -0.6550855106
455297270.0 -0.5113939226 0.6739088622 1.01946e-05 -2.56229e-05 0.0001482417 -8.50873e-05 0.5380359981 -0.6607929885
460297240.0 -0.5049271929 0.6792246573 0.000142761 3.92593e-05 8.93488e-05 3.503e-05 0.5312925584 -0.6659804801
465297210.0 -0.4978053114 0.6848830577 9.71035e-05 0.0001467804 -2.66898e-05 7.47241e-05 0.5246633439 -0.6710815078
470297180.0 -0.4901881241 0.6900819168 0.0001684264 5.11744e-05 -0.0002314437 3.15045e-05 0.517865445 -0.6762166035
475297150.0 -0.4832882474 0.6937628296 -0.000172762 7.52372e-05 4.44526e-05 -0.0001080228 0.5114003954 -0.68130899
480297120.0 -0.4768576113 0.6989357751 6.56474e-05 1.02492e-05 -0.000145516 -1.5542e-06 0.5049486933 -0.6856390317
485297090.0 -0.4691319266 0.703849563 2.15013e-05 0.0001077619 7.67683e-05 -3.41716e-05 0.4984242079 -0.6905248301
490297060.0 -0.4626573485 0.7083787288 -8.23253e-05 -0.0001019497 8.39694e-05 9.47134e-05 0.4912525363 -0.6957135864
495297030.0 -0.4549099427 0.7125788476 6.85293e-05 -0.00012767 -2.21797e-05 3.9885e-06 0.4838413767 -0.6999874183
500297000.0 -0.4475600493 0.7175093677 0.0001565727 0.000189543 7.98625e-05 2.7268e-05 0.4775217076 -0.7048687603
505296970.0 -0.4402871896 0.7224795761 1.96586e-05 -5.73074e-05 -6.6409e-05 -4.38697e-05 0.4704277934 -0.7094854266
510296940.0 -0.4326699606 0.7265835997 -2.5699e-05 0.0001348206 -0.0001483454 -6.31088e-05 0.4632184514 -0.7141548249
515296910.0 -0.4246076066 0.7302218134 5.99865e-05 0.0001312233 -9.8615e-05 -1.49406e-05 0.4562409699 -0.7182412932
520296880.0 -0.4181155713 0.7354715835 -3.673e-06 0.0002055381 2.54899e-05 -7.01549e-05 0.4488459285 -0.723194239
525296850.0 -0.4102242304 0.7386970775 2.75265e-05 4.90414e-05 -0.0001016642 -0.0001295253 0.4418775689 -0.7263142772
530296820.0 -0.4028445104 0.7430215471 -5.38619e-05 -0.0002080648 0.0001153301 9.78676e-05 0.434981938 -0.730417597
535296790.0 -0.3961323665 0.7470318519 -0.0001253403 1.83642e-05 -0.0001636118 -3.38259e-05 0.4271718705 -0.7356846635
540296760.0 -0.3880870555 0.7507338979 -6.04305e-05 -0.0001450355 7.13529e-05 -1.84646e-05 0.4199630907 -0.7389660687
545296730.0 -0.380627927 0.7547381964 -0.0002282846 -5.2268e-06 1.25746e-05 -4.85795e-05 0.4129523961 -0.7435799871
550296700.0 -0.3731647044 0.7587271442 0.0001344211 -4.31607e-05 1.84702e-05 7.72092e-05 0.4053317715 -0.7480122252
555296670.0 -0.3651141299 0.7617438355 -7.1045e-05 1.4229e-06 0.0002616826 -0.0001634863 0.398365324 -0.7509608559
560296640.0 -0.3578503823 0.765592947 -0.0002027401 0.0001866891 -7.09869e-05 0.0002178188 0.3903514687 -0.7543981298
565296610.0 -0.3494692172 0.7697481267 -0.0002644185 -0.0001412982 -0.0001661486 -0.0001184984 0.3827813043 -0.758242714
570296580.0 -0.3423882786 0.771990918 4.05497e-05 -0.0001973562 -0.0001473266 0.000199194 0.3754203087 -0.7624450187
575296550.0 -0.3348724649 0.7768028842 -0.0001828486 0.0003180762 -0.0003603406 -0.0001362136 0.3680516187 -0.7653668918
580296520.0 -0.3263038687 0.7796361415 -7.8977e-06 1.31977e-05 0.0001116497 -7.01468e-05 0.3606849009 -0.7690285555
585296490.0 -0.3185515598 0.782244956 2.89008e-05 -1.76672e-05 0.0001342375 0.0002312893 0.353308406 -0.7726702564
590296460.0 -0.3106421905 0.785833591 0.0001533339 0.0001687723 -8.88571e-05 -0.0001772578 0.344567341 -0.7758273092
595296430.0 -0.3032807149 0.7877239267 0.0001076985 -7.45851e-05 -4.44935e-05 5.56359e-05 0.3368681839 -0.7790828993
600296400.0 -0.2951141782 0.7916852449 2.34472e-05 -6.9321e-05 -0.0001864982 2.0499e-05 0.3300620991 -0.7827456345
605296370.0 -0.2878197686 0.7944337725 0.000143645 -0.0001737231 3.74718e-05 7.51468e-05 0.3220941077 -0.7859846322
610296340.0 -0.2795387794 0.7971312461 -3.90303e-05 0.0001746866 6.3788e-05 2.49202e-05 0.3147356358 -0.7883349839
615296310.0 -0.2703320046 0.7995576605 -0.0001786202 -0.0001024985 -0.000265653 0.0001068275 0.3071286925 -0.7915380999
620296280.0 -0.2632038099 0.8020426368 -2.09082e-05 -4.28701e-05 6.37219e-05 -4.5189e-05 0.2995012049 -0.7939194595
625296250.0 -0.2551667017 0.8050886119 -8.53273e-05 -9.66255e-05 -5.30459e-05 0.0001509775 0.2916053377 -0.7966451978
630296220.0 -0.2462366326 0.8077507941 0.0001706856 2.83419e-05 -0.0001135976 6.9072e-06 0.2830018311 -0.7995136203
635296190.0 -0.2388613928 0.8100303692 -0.0001816632 8.31443e-05 -8.30264e-05 0.0001112598 0.2756617072 -0.8024380125
640296160.0 -0.2314306998 0.8120904093 0.0001015777 0.0001027425 0.0001977449 -0.0001373784 0.2673450622 -0.8051422437
645296130.0 -0.2222958133 0.814934836 9.45572e-05 -3.72833e-05 0.0001958427 -5.91614e-05 0.2591561176 -0.8072524866
650296100.0 -0.2146801772 0.8165878826 -8.70516e-05 -6.1378e-06 8.1663e-06 0.0001339161 0.2519369321 -0.8105839359
655296070.0 -0.2060581174 0.818773234 4.46599e-05 -0.0001400359 3.77852e-05 2.09637e-05 0.244601549 -0.8115755106
660296040.0 -0.1980182462 0.8204468788 -9.07292e-05 9.10089e-05 -0.0002300789 -0.0001698 0.2363423274 -0.8148421381
665296010.0 -0.1897579459 0.8221717535 -5.18754e-05 0.0001407707 -0.0001865756 5.00511e-05 0.2275991762 -0.8164346927
670295980.0 -0.1818763265 0.8242368119 5.56821e-05 -1.62484e-05 -0.0001768025 -0.0001511964 0.2191016323 -0.8191190497
675295950.0 -0.1733326777 0.8257074885 -3.7369e-06 -0.0001515124 6.39213e-05 -2.17386e-05 0.211139028 -0.8203397574
680295920.0 -0.1652144738 0.8279219744 5.7304e-05 -0.0001603353 3.73214e-05 -7.82378e-05 0.203309933 -0.822443351
685295890.0 -0.1566807887 0.829454488 -8.79292e-05 0.0001675333 2.2729e-06 0.0001359473 0.1949505893 -0.8243390294
690295860.0 -0.1492103948 0.8306255766 0.0001909975 -6.44314e-05 7.48753e-05 0.0001439132 0.1866458863 -0.8256186031
695295830.0 -0.1404431931 0.8322745092 -4.65937e-05 8.36548e-05 4.89906e-05 -0.000149308 0.1787782226 -0.8273158224
700295800.0 -0.1322364882 0.8334058043 -0.0001549945 -0.0001268312 -0.0001315663 -1.61511e-05 0.1703303066 -0.8295505588
705295770.0 -0.1241760502 0.8352594731 -9.72887e-05 -2.02228e-05 -1.29392e-05 -7.26034e-05 0.1618053939 -0.8301103517
710295740.0 -0.1159054782 0.8358963574 0.0001541475 -9.39659e-05 -5.11435e-05 0.0002617321 0.153580728 -0.8317862394
715295710.0 -0.1076422501 0.836822233 -0.0001896781 -5.89409e-05 0.0001261116 -7.43671e-05 0.1457167233 -0.8334552457
720295680.0 -0.0992030644 0.8383171079 0.0001008513 0.0001074999 -9.02431e-05 -4.89272e-05 0.1373499118 -0.8344505089
725295650.0 -0.0904793451 0.8395579378 0.0002041417 4.26369e-05 -0.0001039396 5.69922e-05 0.1287551809 -0.8353712027
730295620.0 -0.0822583852 0.8404168336 0.0001370183 0.0002827034 9.3168e-05 -9.95259e-05 0.1202447891 -0.8368033426
735295590.0 -0.0747544744 0.8410474693 -3.89049e-05 1.31805e-05 8.02489e-05 0.0001160472 0.1124856182 -0.8387610783
740295560.0 -0.06617499 0.8418368678 0.0001823617 -3.29388e-05 7.26201e-05 -7.43198e-05 0.1036800358 -0.8388309186
745295530.0 -0.0579143557 0.842260773 0.0002212685 -2.57056e-05 0.0001481023 -4.68103e-05 0.0959887106 -0.8398685846
750295500.0 -0.0487090562 0.842670535 -0.0001265486 4.07945e-05 -6.15281e-05 -0.0001872139 0.0876911451 -0.8400465636
755295470.0 -0.0409405667 0.8428234145 -0.0001686397 0.000209894 -6.76456e-05 -0.0001287128 0.0790038943 -0.8415679047
760295440.0 -0.032874767 0.8430238133 0.0002302162 -1.4307e-05 -8.71886e-05 -7.87477e-05 0.0710402069 -0.8418858464
765295410.0 -0.024598921 0.8440906629 -0.0001014207 7.18281e-05 0.0001007729 -3.2472e-05 0.0627395572 -0.8425353667
770295380.0 -0.0162231485 0.8440338846 -4.08848e-05 9.16538e-05 1.48905e-05 9.73181e-05 0.0540269523 -0.843692255
775295350.0 -0.0076306967 0.8440505663 -0.0004252243 -3.76594e-05 -8.53917e-05 -0.0001016041 0.0450318385 -0.8433318849
780295320.0 0.0005618287 0.844208297 0.000120711 7.07778e-05 -1.44047e-05 -6.73717e-05 0.0377555674 -0.8433466308
785295290.0 0.0091682302 0.8436829997 -0.00011102 -0.0001703389 0.0001003049 0.000135341 0.0295867742 -0.8436857457
790295260.0 0.0176719604 0.8435668978 5.83487e-05 -3.5832e-06 7.72457e-05 0.0002005735 0.0216118534 -0.8443751423
795295230.0 0.0254290692 0.8430566695 -4.115e-07 -8.09802e-05 -9.05668e-05 -0.0001384063 0.0124902714 -0.8443192652
800295200.0 0.033910734 0.8431285182 -0.0001292968 7.49169e-05 -9.66321e-05 -0.0001238138 0.0041204211 -0.8435685977
805295170.0 0.042911685 0.842758972 3.28359e-05 3.3203e-06 3.61306e-05 -4.32897e-05 -0.0043568886 -0.8432369126
810295140.0 0.0503874625 0.8423934341 8.38106e-05 -6.39274e-05 4.0914e-05 3.9356e-06 -0.0122296619 -0.8438407053
815295110.0 0.0591916269 0.8418569259 4.83169e-05 -0.0001272942 -9.9872e-05 -8.55358e-05 -0.0210277952 -0.8432889078
820295080.0 0.067433329 0.8409544007 -4.43566e-05 -3.59647e-05 -2.50175e-05 -2.29015e-05 -0.0289370356 -0.8423497784
825295050.0 0.0763669378 0.8399594187 0.000103078 4.75681e-05 -0.0001334867 5.16475e-05 -0.0372282915 -0.8426883999
830295020.0 0.0838939196 0.8398808961 2.79981e-05 5.17857e-05 9.72192e-05 4.07167e-05 -0.0453743277 -0.8415896981
835294990.0 0.0924246191 0.839309378 -0.000145932 0.0002256236 4.45518e-05 -9.19381e-05 -0.0541053034 -0.8412873828
840294960.0 0.099718929 0.8384655098 6.17461e-05 3.89486e-05 -6.44175e-05 0.0001437979 -0.0620375455 -0.840501846
845294930.0 0.1083697902 0.8366589754 -0.0002006388 -0.0001923023 -0.0001157843 -2.85678e-05 -0.0709005622 -0.838786683
850294900.0 0.116384492 0.8355528824 7.97189e-05 0.0002426383 7.99515e-05 4.96248e-05 -0.079551682 -0.8386129967
