!Created with skrf (http://scikit-rf.org).
# Hz S RI R 50.0 
!freq ReS11 ImS11 ReS21 ImS21 ReS12 ImS12 ReS22 ImS22
300000.0 -0.2379591079 -0.0988185573 0.4670521688 0.0654344232 0.4676375232 0.0696211392 -0.2354390655 -0.1091981771
5299970.0 -0.2438448582 0.0072858554 0.4739624958 0.0051450258 0.4737304042 0.0057356685 -0.243984495 0.0059252995
10299940.0 -0.2402555167 0.0198964181 0.4758427726 0.0065541521 0.4756657977 0.0066398458 -0.2410306153 0.0183679982
15299910.0 -0.2360834377 0.0292810924 0.4795892547 0.0079031684 0.4794678012 0.0081554535 -0.2365764859 0.0275302025
20299880.0 -0.2304550414 0.0373032669 0.4841623339 0.0085095713 0.4839013883 0.0084314845 -0.232311948 0.035300635
25299850.0 -0.2245342636 0.0433242927 0.4894748906 0.0072567946 0.4894985364 0.0073501143 -0.2270363859 0.0416612328
30299820.0 -0.2188236308 0.0484354531 0.4952567421 0.0056588862 0.4946710298 0.0052089875 -0.2217724107 0.0469444467
35299790.0 -0.2129651656 0.0527367543 0.5000387648 0.0020152473 0.5004607143 0.0022916071 -0.2164042484 0.0512382826
40299760.0 -0.2075448684 0.0554451588 0.5053557047 -0.0015293816 0.505443925 -0.0017549909 -0.2116710898 0.054562417
45299730.0 -0.2024785977 0.0583882333 0.5102653596 -0.006668183 0.5104356198 -0.0065245548 -0.206734863 0.0573005963
50299700.0 -0.1976567874 0.0600839558 0.5143182484 -0.0120066688 0.5144744144 -0.0122005362 -0.202270068 0.0599127039
55299670.0 -0.1937462154 0.0617100357 0.5178605808 -0.0176663524 0.5182956622 -0.0179920486 -0.1982276289 0.0615055482
60299640.0 -0.1892715223 0.0628174202 0.5210045288 -0.0243832128 0.5216197046 -0.0239962097 -0.194373518 0.0631830698
65299610.0 -0.186196258 0.0636833567 0.5245111654 -0.0302430299 0.5243455272 -0.0303477306 -0.1909060096 0.0644260998
70299580.0 -0.1826341697 0.0643081238 0.5268180948 -0.0370549124 0.5266529226 -0.0373264814 -0.1879686197 0.0655659075
75299550.0 -0.1796362753 0.0651330094 0.5285166783 -0.043732401 0.5286872902 -0.0441523756 -0.1851743019 0.0669278065
80299520.0 -0.1773132751 0.0658999912 0.530991398 -0.0507893794 0.5308867847 -0.0510571469 -0.1825340098 0.0672462469
85299490.0 -0.1746591869 0.0658328452 0.5320772541 -0.0576235996 0.5323386193 -0.0576676859 -0.1804016592 0.0683131159
90299460.0 -0.1723658647 0.0666380135 0.5328184658 -0.0646773016 0.5329823203 -0.0647707701 -0.1777346639 0.0690051569
95299430.0 -0.1704471544 0.0670204858 0.5340203438 -0.0721559934 0.5340069492 -0.0716614049 -0.1758339598 0.0701310262
100299400.0 -0.1686070509 0.0678708371 0.5345628272 -0.0788656644 0.5345300761 -0.0786993455 -0.1743757172 0.0709879523
105299370.0 -0.1670307202 0.0679613902 0.5344376975 -0.0854391313 0.5348111092 -0.0856495473 -0.1721193005 0.0721375287
110299340.0 -0.1657321031 0.0683756966 0.5346048844 -0.0919495214 0.5348539026 -0.0926302961 -0.1707587308 0.0727034824
115299310.0 -0.1641733281 0.0688904252 0.5347800323 -0.0987918748 0.534988896 -0.0990459377 -0.1690116683 0.0729759054
120299280.0 -0.1628436905 0.0693413223 0.5348862052 -0.1060164454 0.5346921298 -0.1059921871 -0.1679909913 0.0739987137
125299250.0 -0.1617479814 0.0698896647 0.5342508388 -0.1125500685 0.5345551902 -0.1125404333 -0.1664612973 0.0746677451
130299220.0 -0.1603470107 0.0705039515 0.5336413377 -0.1188551769 0.5338310906 -0.1194214011 -0.1653647569 0.0759124959
135299190.0 -0.1594511308 0.0710870001 0.5331073776 -0.1257476438 0.5329428396 -0.1256775996 -0.1642561572 0.077004357
140299160.0 -0.158835675 0.0720914915 0.5324152461 -0.1327417037 0.5323691603 -0.1326962481 -0.1628978314 0.0780407576
145299130.0 -0.1575010788 0.0728308781 0.5317390801 -0.139132659 0.5314233185 -0.1391901172 -0.1621567181 0.0787828798
150299100.0 -0.1565508549 0.0733601685 0.5304091578 -0.1458384023 0.5302319535 -0.1455971168 -0.1607572706 0.0796028848
155299070.0 -0.1559864457 0.0748414687 0.5291172546 -0.1527074658 0.5289529423 -0.1526373167 -0.1604058171 0.0808975101
160299040.0 -0.15489784 0.0753536211 0.5274004009 -0.1582503265 0.5276392838 -0.1589261151 -0.1588180719 0.0824431153
165299010.0 -0.1541810272 0.0762355052 0.5264682523 -0.1650444333 0.5266310476 -0.1652478045 -0.1581294995 0.0832846382
170298980.0 -0.1535110576 0.0772187389 0.5241871284 -0.171448388 0.5248003117 -0.1716730671 -0.1569481775 0.084572433
175298950.0 -0.152515158 0.0782376821 0.5232404864 -0.1775626117 0.523463751 -0.1779783781 -0.1559633124 0.0855243411
180298920.0 -0.1516850837 0.0790552721 0.5211652905 -0.1845861906 0.5214382829 -0.1839230378 -0.1547176705 0.086931396
185298890.0 -0.1508860001 0.0801955941 0.5192591103 -0.1908813219 0.5196598237 -0.1903133094 -0.1543978036 0.0880858357
190298860.0 -0.1504207745 0.0811668272 0.5176657676 -0.1968137305 0.5174973623 -0.1966168943 -0.1524742142 0.089484406
195298830.0 -0.149546592 0.0819953173 0.5156990372 -0.2023469273 0.5157381355 -0.2027873441 -0.1518496308 0.0906486917
200298800.0 -0.1488004194 0.0833575815 0.5141379365 -0.2083539608 0.513567603 -0.2085469867 -0.150742944 0.092005975
205298770.0 -0.1482954987 0.0846325884 0.5117368695 -0.2144015108 0.5116347011 -0.2146768878 -0.1500741033 0.0933107445
210298740.0 -0.1476622969 0.0855938732 0.5095253704 -0.2207346911 0.5092204727 -0.2208021265 -0.1490370799 0.0946051662
215298710.0 -0.1465822536 0.0867751215 0.5072130231 -0.22653307 0.5068407889 -0.2265660404 -0.1482436374 0.0959423387
220298680.0 -0.1459755447 0.0880218112 0.504592525 -0.2329035559 0.5043861098 -0.2328487135 -0.1472752107 0.0976626299
225298650.0 -0.1449872247 0.0895322866 0.5017054097 -0.2382859979 0.5021034372 -0.2385408011 -0.1462504085 0.09907881
230298620.0 -0.1444936226 0.090702438 0.4994704894 -0.2442178265 0.499469113 -0.2446687299 -0.1450245188 0.1004692822
235298590.0 -0.1436733219 0.091495348 0.4970228787 -0.2499951229 0.4968365704 -0.25043291 -0.144262681 0.1015859218
240298560.0 -0.1431339984 0.0929656069 0.4942796813 -0.2556824115 0.494418962 -0.2553711053 -0.1432760404 0.1031279686
245298530.0 -0.1419370841 0.0939436911 0.4908288146 -0.2615309283 0.4913239053 -0.2613059919 -0.1417657631 0.1048585455
250298500.0 -0.1415362195 0.0954132889 0.4884873637 -0.2670596875 0.4889740238 -0.2666892369 -0.1405539403 0.1059598482
255298470.0 -0.1407547903 0.0968521325 0.4855238759 -0.2729493102 0.48573705 -0.272747421 -0.1396510242 0.1074418544
260298440.0 -0.1398080479 0.0981746211 0.4828946695 -0.2781891571 0.4824942731 -0.278396986 -0.1381168908 0.1090525382
265298410.0 -0.1388027654 0.0994481675 0.4797202493 -0.2840484779 0.4795851254 -0.2838565254 -0.1373290766 0.1104822972
270298380.0 -0.1375323922 0.1006193319 0.4761078468 -0.289159116 0.4765797167 -0.2892380641 -0.136206852 0.1121109986
275298350.0 -0.1372671577 0.1019270951 0.4734169767 -0.2952040063 0.4734583169 -0.2951069097 -0.1347706883 0.1135169108
280298320.0 -0.1362715771 0.1033627665 0.470287744 -0.2996023356 0.4699372516 -0.3001654724 -0.1334707303 0.1149128441
285298290.0 -0.135343238 0.1047502541 0.4668839263 -0.3054743718 0.4667291037 -0.3053966239 -0.132292112 0.1165343003
290298260.0 -0.1343339895 0.1059720042 0.4638709706 -0.3106674749 0.4636439448 -0.3108267469 -0.1310485541 0.1179371748
295298230.0 -0.1334653842 0.1071764382 0.4607119717 -0.3157807256 0.4598966341 -0.3158792947 -0.1295827225 0.1191886798
300298200.0 -0.1318156353 0.1083610702 0.4566709887 -0.3211466678 0.456541519 -0.3211472175 -0.1284412221 0.1209139498
305298170.0 -0.1309316247 0.1095396962 0.4534814059 -0.3268249805 0.4535444162 -0.3267948705 -0.1265420255 0.1223043252
310298140.0 -0.1298094098 0.1105128418 0.4498318243 -0.3320893233 0.4499964823 -0.3323735684 -0.1254295972 0.1240063822
315298110.0 -0.1292987429 0.1120151383 0.4461913521 -0.3371361406 0.4462666899 -0.3372918268 -0.1243321565 0.1249432684
320298080.0 -0.1281182919 0.1131668539 0.4424224833 -0.3421386221 0.4424056599 -0.342118922 -0.1227461747 0.1263764768
325298050.0 -0.127241324 0.1140768291 0.4387745698 -0.3474787496 0.4385666159 -0.3474177706 -0.1214121911 0.1274540911
330298020.0 -0.1261373883 0.1156572041 0.4340673332 -0.3521454908 0.4345172886 -0.3521317189 -0.1204265821 0.1289116604
335297990.0 -0.1252224836 0.1166143734 0.4303202002 -0.3573594529 0.4305182787 -0.3574982576 -0.1189904046 0.1303820629
340297960.0 -0.1248158555 0.1181265962 0.4261482642 -0.362506471 0.4261567435 -0.3618980755 -0.1179665265 0.1319494596
345297930.0 -0.1237849076 0.1194648417 0.4224559722 -0.3664534354 0.4216093412 -0.3662077376 -0.1161626381 0.1330957225
350297900.0 -0.1223576659 0.1207770018 0.4178412367 -0.3707946337 0.4182830626 -0.3709090308 -0.115120954 0.1348755457
355297870.0 -0.1211684376 0.122000122 0.4136152607 -0.3755384605 0.4137625849 -0.3755860301 -0.1138883023 0.1362594586
360297840.0 -0.1202587945 0.1233773896 0.4100134037 -0.3810055756 0.4097272243 -0.3805189681 -0.1123696825 0.1379770446
365297810.0 -0.1190874179 0.1244868578 0.4050955016 -0.3845605881 0.4055528979 -0.3849210844 -0.1108285173 0.1395750805
370297780.0 -0.1179212743 0.1261105812 0.4011980106 -0.3892330909 0.4012135099 -0.3892869425 -0.1092633445 0.1406546408
375297750.0 -0.1168650083 0.1275894466 0.3972710639 -0.3936994577 0.3968631438 -0.3936081564 -0.1076720675 0.1422190633
380297720.0 -0.1153742223 0.1283218423 0.3929115857 -0.3978964038 0.3926655453 -0.3977609843 -0.1060447308 0.143839167
385297690.0 -0.1142090901 0.1297293964 0.3883073701 -0.401880079 0.3879459824 -0.4022283227 -0.1045622313 0.1454458616
390297660.0 -0.1134852402 0.1310128255 0.3837001051 -0.4065812322 0.383529894 -0.4066672402 -0.102560706 0.1459510524
395297630.0 -0.1115832266 0.1320951367 0.37952774 -0.4103282908 0.3793278736 -0.4107033225 -0.1017075858 0.1478883037
400297600.0 -0.1108460911 0.1335162752 0.3746172651 -0.4151239868 0.3750729904 -0.4148480096 -0.100388399 0.1488570379
405297570.0 -0.1092739941 0.1348175282 0.3698860314 -0.4187937968 0.3699588872 -0.4195134339 -0.0983839627 0.1508336249
410297540.0 -0.107932065 0.1358823678 0.3646796248 -0.4228244542 0.3652011762 -0.4227746057 -0.0966767444 0.1516917947
415297510.0 -0.1069192466 0.1373518131 0.3606676073 -0.4266305305 0.3609516481 -0.4267078742 -0.095226403 0.1534248263
420297480.0 -0.105238913 0.1380259321 0.3557785971 -0.4314072564 0.3559858228 -0.4308754604 -0.0931289426 0.1540799993
425297450.0 -0.1038970847 0.1391086476 0.3514402863 -0.4349671316 0.3516161812 -0.4349396964 -0.0919755711 0.1560683969
430297420.0 -0.1028364576 0.1403918937 0.346872357 -0.4389445141 0.3468694958 -0.4387204827 -0.0904414951 0.1566730157
435297390.0 -0.1011909601 0.1414096146 0.3415703632 -0.4419300266 0.3419538964 -0.441967168 -0.0887280924 0.1581680589
440297360.0 -0.099873936 0.1423331547 0.3363229377 -0.4457399491 0.3364731937 -0.4460116612 -0.0869763538 0.158829516
445297330.0 -0.098343666 0.1436848824 0.331631565 -0.4500655776 0.3315001169 -0.4498352569 -0.0850729995 0.1603139827
450297300.0 -0.096776224 0.1446409033 0.3267211 -0.453104126 0.3269839967 -0.4532289333 -0.0834950894 0.1616274903
455297270.0 -0.0956873566 0.1455941808 0.3224126161 -0.4564822101 0.3225094657 -0.4565779261 -0.0814878119 0.1626196408
460297240.0 -0.0945919407 0.14703668 0.316851144 -0.4598224406 0.3168761127 -0.4602062928 -0.0798115362 0.1637492779
465297210.0 -0.0925793059 0.1478825344 0.3119356403 -0.4637527327 0.3122165535 -0.4636813623 -0.0784187477 0.1647863099
470297180.0 -0.0916339775 0.1488543974 0.3070032058 -0.4672690099 0.3071849449 -0.4670166799 -0.0770783984 0.1659902357
475297150.0 -0.0901117021 0.1494993252 0.3015018653 -0.4699043822 0.302096979 -0.4697538341 -0.0743513385 0.1669008323
480297120.0 -0.0884705734 0.1505061377 0.2965172967 -0.4732594073 0.2967455557 -0.4734382883 -0.0729417704 0.1684204437
485297090.0 -0.0867608808 0.1516448539 0.2916861223 -0.4763786211 0.291754358 -0.4766700594 -0.0712911931 0.1690560397
490297060.0 -0.0852944729 0.1523234795 0.2863624987 -0.4797468915 0.2862524596 -0.4798873116 -0.0692392775 0.1701237056
495297030.0 -0.0841313453 0.153680662 0.2809001919 -0.4831498833 0.2805668903 -0.4830804195 -0.0673993004 0.1708451939
500297000.0 -0.0824171138 0.1543637255 0.2753572485 -0.4856757444 0.2755920338 -0.4862014287 -0.0660412006 0.1720582821
505296970.0 -0.0813510588 0.1553372817 0.27003262 -0.4884452932 0.2700189622 -0.4886962876 -0.0647298657 0.1727978249
510296940.0 -0.0794077619 0.1563862551 0.2650411511 -0.4919281898 0.2651040155 -0.4917951666 -0.061920218 0.1739991688
515296910.0 -0.0782423301 0.1575070168 0.2593698593 -0.4942743658 0.2595983325 -0.4948518893 -0.060362202 0.1749042105
520296880.0 -0.0764969522 0.1581592133 0.2543185125 -0.4974168251 0.2542722393 -0.4970829882 -0.0582356304 0.1756023526
525296850.0 -0.0751217752 0.1588725159 0.2487703031 -0.4999583256 0.2486953573 -0.5002120425 -0.0561427675 0.1766160965
530296820.0 -0.0735493332 0.1597180384 0.2433861689 -0.502417744 0.243203822 -0.5026098067 -0.0546542372 0.1767059157
535296790.0 -0.0720646437 0.1602910659 0.2374935812 -0.5044054577 0.2382589681 -0.5045295933 -0.0527462478 0.177380233
540296760.0 -0.0704906118 0.1611898596 0.2324253034 -0.5076372283 0.2321874014 -0.5077882122 -0.0511740276 0.178545099
545296730.0 -0.0687687404 0.1621928885 0.2268740742 -0.5099280062 0.2269178432 -0.5101119473 -0.0491292883 0.1788036712
550296700.0 -0.0674324843 0.1628382351 0.2212156929 -0.5125126142 0.2217193579 -0.512762974 -0.0474995488 0.1800801288
555296670.0 -0.0655043564 0.1637942226 0.2157966142 -0.515218996 0.2157062344 -0.5150096673 -0.0452213304 0.180892057
560296640.0 -0.0641869248 0.1643178644 0.2102364213 -0.5170174818 0.2103072351 -0.5171092689 -0.0430033942 0.181337779
565296610.0 -0.0628444889 0.165077389 0.2045874325 -0.5194102153 0.2043745302 -0.5194778999 -0.0416681076 0.1816723605
570296580.0 -0.0609171946 0.1657987011 0.1985740123 -0.5211896124 0.1992598588 -0.5217454166 -0.0393336105 0.1828902408
575296550.0 -0.0594344063 0.1668000792 0.1934098867 -0.5233289771 0.1933580419 -0.5233469372 -0.0370191385 0.1831135907
580296520.0 -0.0578786763 0.1673615372 0.1878808715 -0.52581558 0.1876483344 -0.525414976 -0.035502231 0.183783925
585296490.0 -0.0559155651 0.1678688375 0.1821147924 -0.5276194284 0.1816315215 -0.527544964 -0.0332787459 0.1839544902
590296460.0 -0.0546688115 0.1684183305 0.1764250842 -0.5293504674 0.1761042634 -0.5295405425 -0.0311950911 0.1849026654
595296430.0 -0.0526842741 0.1695860936 0.1702144643 -0.5313076461 0.1702238258 -0.531537989 -0.0292536213 0.1850529001
600296400.0 -0.0512073415 0.1702042039 0.1645130603 -0.5332819598 0.1650930087 -0.5331539831 -0.0274270135 0.1858448679
605296370.0 -0.0493713394 0.1708929593 0.159065277 -0.5352985422 0.1587901166 -0.5348682797 -0.0251785884 0.1859801351
610296340.0 -0.0479424117 0.1713551303 0.1534573307 -0.5365502155 0.1532432073 -0.5366632945 -0.0233031141 0.1871147854
615296310.0 -0.0461747229 0.1720705109 0.1470792254 -0.5374771652 0.147317627 -0.5382403605 -0.0210317355 0.1871854168
620296280.0 -0.0445932275 0.1723001136 0.1418069041 -0.5394895651 0.1416304205 -0.5396243737 -0.0193677376 0.187251001
625296250.0 -0.0428627288 0.1732165549 0.1351543449 -0.5413711488 0.1354081829 -0.541134987 -0.017105429 0.1878976624
630296220.0 -0.0410475663 0.1737151761 0.1292605921 -0.542773298 0.1299748999 -0.5425930876 -0.0152008058 0.1882803024
635296190.0 -0.0395414003 0.174325194 0.1237812303 -0.5438308454 0.123595677 -0.5433352943 -0.0134648619 0.1883455255
640296160.0 -0.0378428247 0.1745469854 0.1180188976 -0.5450081305 0.1179302961 -0.5454241637 -0.0107218729 0.1888439036
645296130.0 -0.0359261921 0.1754577901 0.1119861149 -0.5465557325 0.1120506247 -0.5464801661 -0.0096023955 0.1889525972
650296100.0 -0.0346915626 0.1762246506 0.1066575729 -0.5474277718 0.1064853439 -0.547147581 -0.0073696386 0.1892437931
655296070.0 -0.032732532 0.1763790236 0.1005043273 -0.5485370303 0.1002086078 -0.5483171705 -0.004525055 0.1897118855
660296040.0 -0.0316309506 0.1771408843 0.0945819868 -0.549348525 0.0947092273 -0.5493617066 -0.0032943236 0.1895254771
665296010.0 -0.0291489645 0.1770648399 0.0883965478 -0.5502783146 0.0892491273 -0.5504901541 -0.0012943951 0.1903986784
670295980.0 -0.0273564253 0.177582734 0.0826662201 -0.5509974163 0.0824999134 -0.5511396983 0.0007280828 0.189966943
675295950.0 -0.0257290375 0.1779919826 0.076386283 -0.5519893675 0.0768639213 -0.5526906651 0.0030694465 0.1905745705
680295920.0 -0.0239709576 0.1787095708 0.0699921596 -0.5532054641 0.0702977866 -0.5531800148 0.0052898189 0.1903411837
685295890.0 -0.0223957694 0.1792130762 0.0645630954 -0.5538395747 0.0647538887 -0.5539407575 0.0071517631 0.1906509961
690295860.0 -0.0202231554 0.1791428366 0.0585267717 -0.5538203099 0.0583330168 -0.5538242475 0.009362161 0.1905926785
695295830.0 -0.018292514 0.1792554866 0.0520156355 -0.5548628731 0.0521894515 -0.5550358786 0.011237082 0.1907833673
700295800.0 -0.0167169877 0.1799603627 0.0461370187 -0.5554624567 0.0463203069 -0.5554932027 0.0136499728 0.1905010866
705295770.0 -0.0149509416 0.1804337912 0.0405109407 -0.5554540809 0.0408157393 -0.5559604954 0.015084351 0.1906085894
710295740.0 -0.0134320338 0.1809917581 0.034512723 -0.555875959 0.0344496527 -0.5558073395 0.0170851966 0.1907667107
715295710.0 -0.0117922624 0.1811509357 0.028458132 -0.556575011 0.0287084014 -0.5566166691 0.0196705491 0.190574983
720295680.0 -0.009896082 0.1809890119 0.0224183802 -0.5565632554 0.0227610478 -0.5572284303 0.0216786446 0.1903601694
725295650.0 -0.007936404 0.1813587901 0.0162562287 -0.5565646386 0.0164687549 -0.5565922254 0.0239257336 0.1903735569
730295620.0 -0.0065240854 0.1812875322 0.0104481808 -0.5563950963 0.0105502683 -0.5569925738 0.0259861524 0.1896726077
735295590.0 -0.0041936734 0.1817642544 0.0049217585 -0.5569168403 0.004793535 -0.557058014 0.0279806062 0.1900354371
740295560.0 -0.0026429187 0.1821706928 -0.0015876337 -0.5567410359 -0.0014552761 -0.5568685911 0.0301091515 0.1896141888
745295530.0 -0.0010408768 0.1820908172 -0.0072863282 -0.5567427073 -0.0072191374 -0.5571543843 0.031869772 0.1898398063
750295500.0 0.0009802196 0.182452896 -0.0131234786 -0.5563545456 -0.0133076328 -0.5567727596 0.034144605 0.189186651
755295470.0 0.0030581688 0.1825661011 -0.0193041778 -0.5563766004 -0.0194992244 -0.5566083826 0.0359163927 0.189371003
760295440.0 0.0045465728 0.1825648714 -0.0254219507 -0.5560490295 -0.0253577459 -0.5561730158 0.0375080447 0.1891095803
765295410.0 0.0062495832 0.1825745948 -0.0311727002 -0.5556535238 -0.0311984547 -0.5560283702 0.040751042 0.1888600093
770295380.0 0.0080650816 0.1829355304 -0.0375785716 -0.5551575796 -0.037495465 -0.5557491218 0.0426882963 0.1884116442
775295350.0 0.0096726197 0.1829974439 -0.0434388363 -0.555160661 -0.0433852409 -0.5551101848 0.0440967135 0.1878574202
780295320.0 0.0119346372 0.1829270169 -0.0491706543 -0.5543749488 -0.0491487178 -0.5545147578 0.0464114878 0.1880288618
785295290.0 0.0136493142 0.1833966456 -0.0551859998 -0.5533004247 -0.0553351156 -0.5540466415 0.048114148 0.1874378251
790295260.0 0.0152817066 0.1831997248 -0.0612951673 -0.5532414674 -0.0611499401 -0.5533296731 0.0508218495 0.1869900887
795295230.0 0.0172063214 0.1830722745 -0.0668159911 -0.55234458 -0.0667974433 -0.5530061602 0.0527602164 0.1870793466
800295200.0 0.0189299386 0.1832793478 -0.0733586586 -0.5519558815 -0.0734744473 -0.5518033034 0.0545920748 0.1863677469
805295170.0 0.0203916874 0.1831509346 -0.078823602 -0.5508380348 -0.0787894628 -0.5507443258 0.0563975918 0.1857904386
810295140.0 0.0223476821 0.1829878604 -0.084576785 -0.5499940207 -0.0850544671 -0.5503969974 0.0587123559 0.185835129
815295110.0 0.0244456743 0.1831372289 -0.0909455524 -0.5485898264 -0.091145071 -0.5488623387 0.0604181274 0.184721377
820295080.0 0.0262910114 0.1825905785 -0.0966730653 -0.5479372127 -0.0967840617 -0.548300558 0.0625319408 0.1844245198
825295050.0 0.027901662 0.1826612643 -0.1027637409 -0.5464226597 -0.102522911 -0.5469016482 0.0646904283 0.1839442592
830295020.0 0.0297722716 0.1828333193 -0.1088417247 -0.5454914802 -0.1090670893 -0.546024763 0.0666211547 0.1832204214
