!Created with skrf (http://scikit-rf.org).
# Hz S RI R 50.0 
!freq ReS11 ImS11 ReS21 ImS21 ReS12 ImS12 ReS22 ImS22
300000.0 -0.2329819003 -0.1260802708 0.4653119823 0.0831723371 0.4676329428 0.0819563926 -0.232703722 -0.1262993446
5299970.0 -0.2418145293 0.0055060078 0.4749111367 0.0059440028 0.4755469459 0.0057063276 -0.2445822603 0.0048935395
10299940.0 -0.2386492588 0.0188740264 0.4774270217 0.0066800701 0.4770672178 0.0072155458 -0.2408888994 0.0170724844
15299910.0 -0.2336745942 0.0289453043 0.4806702668 0.0083117615 0.4808256347 0.0081554413 -0.2370089195 0.0264600786
20299880.0 -0.2285709768 0.0369220353 0.4855522719 0.0077820233 0.4855892375 0.0082557571 -0.2320155045 0.0338260081
25299850.0 -0.2225493621 0.0435641832 0.4907796959 0.0079156 0.490825169 0.0075371978 -0.2271863152 0.0401742311
30299820.0 -0.2172214726 0.0486450165 0.4962608379 0.0052073071 0.4960496191 0.0047927618 -0.2219060076 0.0448612245
35299790.0 -0.2112550297 0.0528959954 0.5010458518 0.00196125 0.5014702115 0.0017596175 -0.2169106588 0.0490785648
40299760.0 -0.2061191324 0.0560577956 0.5064707844 -0.0021641673 0.506633082 -0.002241768 -0.21192392 0.0522854669
45299730.0 -0.2012381927 0.0589263014 0.5113301615 -0.0067608159 0.5115980574 -0.0071549857 -0.207334491 0.0550538855
50299700.0 -0.1959507106 0.0607308284 0.5153032658 -0.012468821 0.515324291 -0.0126808691 -0.2029560434 0.057010296
55299670.0 -0.1919356214 0.0625976838 0.5192220278 -0.017955859 0.5189591498 -0.0179934344 -0.199207003 0.0583812949
60299640.0 -0.1881281329 0.0640508533 0.5227324133 -0.0246991114 0.5226085747 -0.0248887365 -0.1952961302 0.0597563157
65299610.0 -0.184507626 0.0652665952 0.525972414 -0.0308328311 0.5254115693 -0.0311164061 -0.1921187893 0.0608047786
70299580.0 -0.1809138388 0.0658395566 0.5273026659 -0.037372591 0.528147378 -0.0374956709 -0.1895710312 0.0621292342
75299550.0 -0.1778274367 0.0668714056 0.5291888152 -0.0449318609 0.5297959206 -0.0445147839 -0.1861986548 0.0627297182
80299520.0 -0.175334933 0.0676866789 0.5312710276 -0.0512992641 0.5314828731 -0.0513491792 -0.1837409581 0.0635316341
85299490.0 -0.1724775581 0.068345031 0.5326459453 -0.058134616 0.5326878319 -0.0583156602 -0.1815990232 0.0638218374
90299460.0 -0.1705657982 0.0691883319 0.5339024586 -0.0652028125 0.5337616423 -0.0651383812 -0.1792757275 0.0648704464
95299430.0 -0.1681711002 0.0697555933 0.534619385 -0.0721361241 0.5349925078 -0.0721292544 -0.1778847167 0.0655581036
100299400.0 -0.1661692213 0.0702454585 0.5349826838 -0.0787262778 0.5351102513 -0.0789537313 -0.1760126753 0.0666008773
105299370.0 -0.164254289 0.0708874088 0.534947767 -0.0853588913 0.535467536 -0.0856693318 -0.1741411159 0.0667404935
110299340.0 -0.162529399 0.0713230316 0.5355299457 -0.0919174719 0.5359789447 -0.0924095182 -0.1728468786 0.0676254839
115299310.0 -0.1608862885 0.072256394 0.5353758032 -0.0991171163 0.5353139322 -0.0994314581 -0.1717148461 0.0684186653
120299280.0 -0.1593631354 0.0733692214 0.5353758308 -0.1062791189 0.5351398826 -0.1064537524 -0.1702402358 0.068597056
125299250.0 -0.1580249564 0.0738807965 0.5346209552 -0.1128513971 0.5347336554 -0.1126670772 -0.1687583902 0.0698307939
130299220.0 -0.1568641597 0.0750774766 0.5344137848 -0.1198055033 0.534142462 -0.1201796078 -0.1678019528 0.0703763733
135299190.0 -0.155483782 0.075933172 0.5335796208 -0.1262344309 0.533837761 -0.1266645905 -0.1669344324 0.0709506168
140299160.0 -0.1543973621 0.0768221929 0.5332210884 -0.1331823307 0.5328157555 -0.1326890998 -0.1662699662 0.0717527678
145299130.0 -0.1536250231 0.0777446193 0.5317252115 -0.139179649 0.5321049651 -0.1396310367 -0.1650510237 0.0726949237
150299100.0 -0.1520350079 0.0789732586 0.5306795703 -0.146377806 0.5308420311 -0.1459362996 -0.1640574741 0.0739408299
155299070.0 -0.1509632925 0.0800956964 0.5292798001 -0.1527528067 0.5300409496 -0.1525971933 -0.1633114645 0.074731395
160299040.0 -0.1500810022 0.0814490154 0.5281334569 -0.1587511142 0.5284110843 -0.1592391768 -0.1626310951 0.0757759927
165299010.0 -0.1487141376 0.0822040629 0.5266452904 -0.1651379321 0.5267094264 -0.1656915443 -0.1617321962 0.0766068608
170298980.0 -0.1479619102 0.0832286187 0.5249116878 -0.1714148015 0.5251497867 -0.1715830567 -0.1609750248 0.0777019286
175298950.0 -0.1469689258 0.0846985473 0.5239103038 -0.1783162944 0.5237361027 -0.1782484252 -0.1602823276 0.079005796
180298920.0 -0.1461368686 0.0860352889 0.5216697565 -0.1843680648 0.5214835602 -0.184297605 -0.159465626 0.0801244448
185298890.0 -0.1451616357 0.0874235842 0.5204861242 -0.1906240988 0.5200806294 -0.1904584337 -0.158622762 0.0810792407
190298860.0 -0.1440544305 0.0887785568 0.5176435881 -0.1967215015 0.5179850364 -0.1969499775 -0.1579204171 0.0825175438
195298830.0 -0.1431702931 0.0901172131 0.5163807794 -0.2029410604 0.5161949033 -0.2029106629 -0.1572875491 0.083532584
200298800.0 -0.1420050089 0.090816857 0.514000187 -0.2093947177 0.5139500669 -0.2090988665 -0.1563122211 0.0845259104
205298770.0 -0.1414021741 0.0923010918 0.5113027072 -0.2149769886 0.5118692685 -0.2148941257 -0.1557498201 0.0857266846
210298740.0 -0.1403661985 0.0941110042 0.5097908863 -0.2208364948 0.5094791975 -0.2209055748 -0.1552319788 0.0870075975
215298710.0 -0.1393395942 0.0957006936 0.5071085962 -0.2265030251 0.5072383392 -0.2271737663 -0.1543027604 0.088174792
220298680.0 -0.1384333849 0.0967566278 0.5044814132 -0.2328130449 0.5045751995 -0.232943716 -0.1533651172 0.0896901834
225298650.0 -0.1371555665 0.0981906452 0.5019430954 -0.238458625 0.5023586896 -0.238381224 -0.1526301147 0.0906115829
230298620.0 -0.136013615 0.1001434913 0.4995709236 -0.2445415616 0.4999949862 -0.2445520906 -0.1519162577 0.0917025033
235298590.0 -0.1354396982 0.101469934 0.4974467849 -0.2504645621 0.4973178984 -0.2505450727 -0.1510569431 0.0932069995
240298560.0 -0.1342632913 0.1027960469 0.4943171496 -0.2555988069 0.49438395 -0.2558853483 -0.1505730014 0.0943706021
245298530.0 -0.1333667897 0.1040880019 0.4915208233 -0.2616645021 0.4915655274 -0.2618968358 -0.1499366469 0.0959574988
250298500.0 -0.1324779378 0.1056603023 0.4890085211 -0.2672991816 0.4888030654 -0.2669537751 -0.1489596002 0.0974497448
255298470.0 -0.131224735 0.1073364526 0.4862955678 -0.2722157029 0.4865507775 -0.2728941911 -0.1481705439 0.0987724699
260298440.0 -0.1301104268 0.1083207193 0.4836688434 -0.2776179374 0.4835918067 -0.277902225 -0.14753446 0.0999013957
265298410.0 -0.1294172374 0.1100659657 0.4802014646 -0.2839826533 0.4799004203 -0.2842660656 -0.1458197248 0.1010165639
270298380.0 -0.1283513392 0.1113641955 0.4770850602 -0.289250388 0.4771564831 -0.2891184788 -0.1452957744 0.1024020274
275298350.0 -0.1270399452 0.1131582488 0.4734037648 -0.2943798442 0.4734051093 -0.2942025988 -0.1443713106 0.1036980166
280298320.0 -0.1261080983 0.114392568 0.4707837335 -0.2996076581 0.4711842848 -0.2998696297 -0.143551257 0.1053743188
285298290.0 -0.1248589071 0.1159888633 0.46736594 -0.3051131929 0.4673979967 -0.304817168 -0.1427638614 0.106763431
290298260.0 -0.1238641441 0.1174956342 0.4648286879 -0.3103771918 0.4644109826 -0.3103877129 -0.1417297006 0.108038616
295298230.0 -0.1224828609 0.1185247474 0.4608155809 -0.3158419632 0.4614141118 -0.3163103127 -0.1409922465 0.1093711374
300298200.0 -0.1213426027 0.1202868722 0.4574836755 -0.3210066257 0.4576128286 -0.3208840719 -0.1399765218 0.1107639725
305298170.0 -0.1203007851 0.1211980794 0.4542183175 -0.3264587674 0.4541242315 -0.3263724729 -0.1387246526 0.1114889666
310298140.0 -0.1185278403 0.1226908461 0.4504640719 -0.3314152589 0.4509456063 -0.3311580887 -0.1378841766 0.1129291278
315298110.0 -0.117657044 0.1235735774 0.4466632056 -0.3369835573 0.4471279384 -0.3368093116 -0.1365910776 0.1143129336
320298080.0 -0.1165645962 0.1251381528 0.4425357259 -0.341721073 0.4434623965 -0.3420695633 -0.1356888617 0.1153648252
325298050.0 -0.1157216674 0.1261501831 0.4392248636 -0.3466099429 0.4397151635 -0.3467867007 -0.13464555 0.1164774571
330298020.0 -0.1149488267 0.1279657627 0.4357465814 -0.3520435243 0.4358912593 -0.3518932472 -0.1340649444 0.1179267685
335297990.0 -0.1134776638 0.1289497359 0.4317778208 -0.3564705916 0.4315891574 -0.3567701494 -0.132928092 0.119339332
340297960.0 -0.1125845706 0.1301616067 0.426862887 -0.3615246531 0.4270065215 -0.3615303589 -0.1319897596 0.1208554086
345297930.0 -0.1114101421 0.1315279477 0.4231771724 -0.3660877595 0.4229118146 -0.3663098024 -0.130925847 0.1220364716
350297900.0 -0.1103271977 0.1329641838 0.4196989601 -0.3705704739 0.4195955178 -0.3706717305 -0.130115743 0.1229890888
355297870.0 -0.1089541313 0.134219962 0.4150403258 -0.3749074847 0.4151473514 -0.3749145014 -0.1289268119 0.1248014325
360297840.0 -0.1076230633 0.1354835004 0.4107801384 -0.3797230593 0.4110349388 -0.3801904346 -0.1279091232 0.1262692256
365297810.0 -0.1063315306 0.136890482 0.4066252719 -0.3839993204 0.4068646136 -0.3845075472 -0.1272396159 0.1273576509
370297780.0 -0.1047753572 0.1385420128 0.4021701965 -0.3890607217 0.4025549882 -0.3890210644 -0.125785456 0.1285407203
375297750.0 -0.1033356874 0.1397740541 0.3980401172 -0.3930993262 0.3983115754 -0.3933130414 -0.1242557556 0.1299353086
380297720.0 -0.1022330315 0.1410259868 0.3942919213 -0.3977462508 0.3940098909 -0.3976239508 -0.1233587195 0.1315776761
385297690.0 -0.1007880848 0.1419485329 0.3894591013 -0.4015743005 0.3897474315 -0.4022528539 -0.1220738887 0.1328731721
390297660.0 -0.099040318 0.143319894 0.3847014063 -0.4058831206 0.3850963203 -0.4061443046 -0.1206464697 0.1339969679
395297630.0 -0.0976643307 0.1446648578 0.3805834136 -0.409827957 0.3807020845 -0.4101213163 -0.1195957125 0.1352973454
400297600.0 -0.0964235784 0.1458482182 0.3761437619 -0.4141981977 0.3765215924 -0.4144211328 -0.1184372305 0.1368775169
405297570.0 -0.0947708389 0.1467784905 0.3718909183 -0.4185191569 0.371940507 -0.4185747482 -0.1170291826 0.1381413228
410297540.0 -0.0934923736 0.1481893902 0.3672541097 -0.4226324583 0.3673245844 -0.4228054064 -0.1156290979 0.1394032792
415297510.0 -0.0916819345 0.1493565482 0.3620453975 -0.4266278976 0.3626163117 -0.4270086324 -0.1142130855 0.1408643169
420297480.0 -0.0901017367 0.1501508992 0.357682153 -0.4306945167 0.3582813497 -0.4308418696 -0.1125374516 0.1422094545
425297450.0 -0.0882681216 0.1515649674 0.3533130641 -0.4345333031 0.3530395939 -0.4342979275 -0.1115185517 0.1427669812
430297420.0 -0.0870986099 0.1525692003 0.348782676 -0.4380990336 0.3484842073 -0.4379886279 -0.1098037051 0.1444621911
435297390.0 -0.0854602242 0.1533582807 0.3432564519 -0.442153334 0.3433623394 -0.4419594542 -0.1090093631 0.1458513657
440297360.0 -0.0833521789 0.1541752599 0.3381267239 -0.4459151004 0.3383599208 -0.445748618 -0.1073777241 0.1468461152
445297330.0 -0.081693054 0.1551199983 0.3341116792 -0.448954125 0.3337895654 -0.4496401084 -0.105745716 0.1484190272
450297300.0 -0.0801250834 0.1563824599 0.3288076093 -0.4526544895 0.3290540875 -0.4529828869 -0.1041976136 0.1494501181
455297270.0 -0.0786220377 0.1571789639 0.3242272053 -0.4563449863 0.3239980844 -0.4568706424 -0.1026733238 0.1502256876
460297240.0 -0.0765380095 0.1583206386 0.3188412085 -0.4606555786 0.3187046751 -0.46029248 -0.1013893854 0.1515257004
465297210.0 -0.0749819145 0.1591741571 0.3135848442 -0.4635108301 0.3130281884 -0.4637681882 -0.0995820513 0.1531496015
470297180.0 -0.0731249576 0.1599418657 0.3084760764 -0.4666249019 0.3090650248 -0.4668071048 -0.0983646955 0.1536845801
475297150.0 -0.0717858492 0.1612942801 0.3036502848 -0.4700669512 0.3037483639 -0.4708135169 -0.0970781438 0.1551824383
480297120.0 -0.0691456634 0.162381678 0.2983924587 -0.4741351359 0.2984524838 -0.4736392033 -0.0955949944 0.1560301064
485297090.0 -0.0679105468 0.1628161443 0.2931608388 -0.476738419 0.2934370987 -0.4765729487 -0.0942205476 0.1570561656
490297060.0 -0.0653214923 0.1639966466 0.2876884005 -0.4801889211 0.2879960405 -0.4799757535 -0.0924111114 0.1579824181
495297030.0 -0.0641050625 0.1643322855 0.2827761673 -0.4829031107 0.2828107497 -0.4830975211 -0.0905316468 0.1590398
500297000.0 -0.062043574 0.1654840255 0.277205475 -0.4858502916 0.2776467922 -0.4864926807 -0.0891280266 0.1603112573
505296970.0 -0.0598611821 0.1665076426 0.2721936012 -0.4893114779 0.2722574275 -0.4889985936 -0.0873984656 0.1608777668
510296940.0 -0.0579405288 0.1670532615 0.2669247327 -0.4926401562 0.2672763493 -0.4924168518 -0.0856368508 0.1621104367
515296910.0 -0.0562740508 0.168050412 0.2608738497 -0.4949514824 0.2612543752 -0.4948824649 -0.0843829872 0.1627933544
520296880.0 -0.0543747791 0.1686625168 0.2561406459 -0.4977019374 0.2558448972 -0.4976637803 -0.0824245493 0.1641844393
525296850.0 -0.0524778654 0.169287444 0.2505221118 -0.5002955723 0.2503201515 -0.5003557428 -0.0808059229 0.1652128861
530296820.0 -0.0506599707 0.1699661582 0.2447335684 -0.503180458 0.2453921446 -0.5027868487 -0.0793855855 0.1653287574
535296790.0 -0.0480711396 0.1707738869 0.2393706508 -0.5052153469 0.2392994261 -0.5057984766 -0.0773128895 0.1667685499
540296760.0 -0.0463344422 0.1716537227 0.2341737715 -0.5082343418 0.2337524127 -0.5078556147 -0.0757533056 0.1674784073
545296730.0 -0.0447436066 0.1724810711 0.2286560157 -0.5105683512 0.2284354312 -0.5101137894 -0.074183328 0.1682700152
550296700.0 -0.0421923452 0.172703674 0.2229525429 -0.5129486981 0.2228726041 -0.5132923092 -0.0724437441 0.1692730793
555296670.0 -0.0402587774 0.1734932487 0.2177112035 -0.5154639655 0.2172978536 -0.515761779 -0.0709849049 0.1695659647
560296640.0 -0.0378785617 0.1740004678 0.2114883307 -0.5176588237 0.2117878438 -0.5176648326 -0.0690934481 0.1710336382
565296610.0 -0.0366003744 0.174808382 0.2061488967 -0.5201557102 0.205929977 -0.5197697899 -0.0672585892 0.1717464913
570296580.0 -0.0344162215 0.1754704904 0.2001783976 -0.5220108225 0.2001051415 -0.5220160842 -0.0655571453 0.1722228565
575296550.0 -0.0322525197 0.175821236 0.1951489486 -0.5243961487 0.1948752833 -0.5245732905 -0.0640301653 0.1731181934
580296520.0 -0.0300351992 0.1766723603 0.1887684599 -0.5261940133 0.188747708 -0.5262380016 -0.0624552406 0.1736392473
585296490.0 -0.0280124482 0.1772932622 0.1841042961 -0.5280557126 0.1830604561 -0.5282761008 -0.060249957 0.1748779643
590296460.0 -0.0254299366 0.1777074383 0.1772190619 -0.5304689625 0.1774967157 -0.5305197583 -0.0593569053 0.1753927578
595296430.0 -0.0239646031 0.1781233361 0.1713370427 -0.5321395518 0.1710073414 -0.5320416746 -0.0570665746 0.1759581642
600296400.0 -0.0213606082 0.1784208306 0.1656829537 -0.533490746 0.1658946268 -0.5339352012 -0.0555466574 0.1763761712
605296370.0 -0.0198678267 0.1790878441 0.1605620541 -0.5355127212 0.1598267797 -0.535756231 -0.0536618363 0.1772937379
610296340.0 -0.0175714185 0.1800214799 0.1543745712 -0.5368621951 0.1543242584 -0.5369981468 -0.0521311837 0.1781771386
615296310.0 -0.0151247623 0.180078113 0.1483994734 -0.5394038999 0.1478668187 -0.5390940843 -0.0499691071 0.1787080414
620296280.0 -0.0136342033 0.1808630051 0.1425285953 -0.540513352 0.1422616989 -0.5403690339 -0.0483377169 0.1795280145
625296250.0 -0.0115214983 0.1807248364 0.1364217294 -0.5420566243 0.1366559465 -0.5424396048 -0.0470109884 0.1800511807
630296220.0 -0.0094274808 0.1815210019 0.1307681692 -0.5436668133 0.1305908247 -0.5435024022 -0.0449463706 0.1804268452
635296190.0 -0.0076136494 0.1817335924 0.1251258694 -0.5446277359 0.1249784306 -0.5447773144 -0.0432365065 0.1812356378
640296160.0 -0.005381211 0.1820803834 0.1189743023 -0.5460280511 0.1190122905 -0.5458382365 -0.0416980037 0.1814851562
645296130.0 -0.0030793314 0.1827577387 0.1133291112 -0.5473763141 0.1131176014 -0.5469598555 -0.0399956493 0.181684963
650296100.0 -0.0014356179 0.182745765 0.1076083702 -0.5485800612 0.1068984917 -0.5485869377 -0.0375061658 0.1824828954
655296070.0 0.0006321091 0.1831271733 0.101184298 -0.5494881981 0.1012374802 -0.5491918023 -0.0362811662 0.183260346
660296040.0 0.0029784915 0.1832660826 0.0953941428 -0.5507218621 0.0955200493 -0.5507899461 -0.0343082302 0.1834998407
665296010.0 0.0051638259 0.1834354535 0.0887534137 -0.5511922622 0.0892297295 -0.5513537145 -0.0324256514 0.184272307
670295980.0 0.0071373624 0.183941338 0.0832423796 -0.5525931516 0.0833053617 -0.5520274736 -0.0309378475 0.1842584136
675295950.0 0.0093924137 0.1838204473 0.0772368919 -0.5531252172 0.0772962165 -0.5529259877 -0.0288970661 0.1849526549
680295920.0 0.0107515576 0.1843422417 0.0714900864 -0.5538124432 0.0716692411 -0.5539946712 -0.0272433696 0.1850183415
685295890.0 0.0132366941 0.184382741 0.065245564 -0.5550237542 0.0653528316 -0.5546852638 -0.0252808234 0.1861403998
690295860.0 0.0152957756 0.1846461746 0.0596842644 -0.5552500547 0.0593262335 -0.555350136 -0.0236781123 0.1861204094
695295830.0 0.0174063021 0.1843632919 0.0535890978 -0.5559137129 0.0534475699 -0.5557676452 -0.0217033369 0.1865955684
700295800.0 0.019288656 0.1847882817 0.0480146961 -0.5560424644 0.0475493036 -0.5563145644 -0.0197963752 0.1869697951
705295770.0 0.0209378811 0.184919604 0.0416440407 -0.5575291699 0.0413756161 -0.5567480469 -0.0179421347 0.1874212503
710295740.0 0.0229756921 0.184764036 0.0353616698 -0.557077176 0.0356485233 -0.5573909749 -0.0161391862 0.1875659896
715295710.0 0.0252746096 0.1849925602 0.0296179586 -0.5573830683 0.0294043146 -0.5577451266 -0.0145175585 0.188008386
720295680.0 0.0275814224 0.1846811413 0.0235178591 -0.55748595 0.0235720937 -0.5581251209 -0.0127834467 0.18847001
725295650.0 0.0289198869 0.1849130487 0.0179248328 -0.5581012229 0.0176657328 -0.5580541447 -0.0110136985 0.1889179974
730295620.0 0.0304556647 0.1846169902 0.0117914911 -0.5579429009 0.0115435843 -0.5576230215 -0.0091814299 0.1894439023
735295590.0 0.0330697747 0.1848848205 0.0055153442 -0.5586040863 0.0053838731 -0.5583276094 -0.0072293708 0.1891488632
740295560.0 0.0346603975 0.1843397162 -0.0003268298 -0.5580731943 -0.0003185424 -0.5583437909 -0.0057356102 0.1895580195
745295530.0 0.0367409334 0.1844298206 -0.0065422036 -0.5576438311 -0.0055633789 -0.5579065557 -0.0038617823 0.1896044763
750295500.0 0.0386892973 0.1843007299 -0.0118898957 -0.5579693638 -0.0124685845 -0.5580429833 -0.0023203287 0.1898741185
755295470.0 0.0406168537 0.1842379076 -0.0177886785 -0.5582095245 -0.0180056612 -0.5579244945 -2.37503e-05 0.1905112306
760295440.0 0.042583791 0.184163503 -0.0246349249 -0.5574105736 -0.0244620816 -0.5572523035 0.0020290335 0.1896379696
765295410.0 0.0447549306 0.1836572526 -0.0301712524 -0.5571768985 -0.0298165403 -0.5573649621 0.0037515035 0.19037948
770295380.0 0.0467323521 0.1836109673 -0.0361026376 -0.5564172034 -0.0358285545 -0.5570169557 0.0054292843 0.1902954124
775295350.0 0.0480396663 0.1832365142 -0.0420551267 -0.5567856788 -0.0421450808 -0.5558587837 0.0077121956 0.1905813651
780295320.0 0.0504796142 0.1831890166 -0.0478856029 -0.5556732971 -0.0477571812 -0.555726386 0.0096668057 0.1904323447
785295290.0 0.0522782492 0.1826816519 -0.0537833446 -0.5552809783 -0.0539906558 -0.555147342 0.0107908557 0.1912017121
790295260.0 0.0542087817 0.1819800016 -0.0597730874 -0.5546016678 -0.0597419482 -0.5549614763 0.0128254037 0.1913759892
795295230.0 0.0559612491 0.1817796685 -0.0658584737 -0.5539721848 -0.0659455677 -0.5544410675 0.0145867257 0.1904656601
800295200.0 0.0576028374 0.1814053334 -0.0710454121 -0.5528705269 -0.0719726874 -0.553489077 0.0162702093 0.1908879438
805295170.0 0.0594936627 0.1810553111 -0.0778235869 -0.5527311425 -0.077648376 -0.5524286747 0.01892522 0.1910046078
810295140.0 0.0619985962 0.1805313179 -0.0835819064 -0.5515717623 -0.0836944159 -0.5514637692 0.0204229847 0.1908414523
815295110.0 0.0636850302 0.1801941831 -0.0893471565 -0.5502804604 -0.0890585672 -0.5509757165 0.0219959802 0.1910942796
820295080.0 0.0655628407 0.1793855001 -0.0948606899 -0.5492501844 -0.0950324811 -0.5497842571 0.0232097388 0.1912748379
825295050.0 0.0672409716 0.1790526019 -0.1012281745 -0.5492739853 -0.1014734946 -0.5486093542 0.0261113337 0.1911012579
830295020.0 0.0689716162 0.17858167 -0.1073506064 -0.5474258344 -0.1072456539 -0.5476744863 0.027488578 0.1905371961
