!Created with skrf (http://scikit-rf.org).
# Hz S RI R 50.0 
!freq ReS11 ImS11 ReS21 ImS21 ReS12 ImS12 ReS22 ImS22
300000.0 -0.2308420697 -0.1368299131 0.4650056422 0.0894582422 0.4669854369 0.0883975824 -0.233340689 -0.1348904533
5299970.0 -0.2418625305 0.0050400655 0.4747989657 0.0063776164 0.4756591919 0.0059594814 -0.2442397834 0.0044940311
10299940.0 -0.2387348989 0.0184927608 0.4774379344 0.007006502 0.4772042878 0.0069845881 -0.2407639261 0.0174013063
15299910.0 -0.2337886549 0.0285825942 0.4806142416 0.0082131128 0.4807788585 0.0082258495 -0.2366962943 0.0261682308
20299880.0 -0.2284497461 0.0369509532 0.4853278725 0.0080374016 0.4858415505 0.0081921911 -0.2318398031 0.0339283749
25299850.0 -0.2225161515 0.0434617637 0.4907746418 0.0075062549 0.4909264379 0.0074625046 -0.2268108776 0.039953777
30299820.0 -0.2172569004 0.0487076627 0.4961403982 0.0050647748 0.4961358341 0.0047713153 -0.2214409017 0.0448609068
35299790.0 -0.2111629065 0.0529466706 0.500839083 0.0020068391 0.5015629476 0.0021619748 -0.2166330087 0.0491557386
40299760.0 -0.2059255676 0.0561393071 0.5061562369 -0.0019033348 0.5064709117 -0.002344798 -0.2116503283 0.0522958246
45299730.0 -0.2011314186 0.0587389672 0.5109075415 -0.0068304625 0.5116631765 -0.0068930766 -0.207148329 0.0549316385
50299700.0 -0.1958708557 0.060708422 0.5153028605 -0.0124625838 0.5152746237 -0.0128671477 -0.2025911845 0.0570215831
55299670.0 -0.1917855263 0.0624513719 0.5188134153 -0.0179955202 0.5188512039 -0.0184282862 -0.1989589303 0.058429044
60299640.0 -0.1879255349 0.063950674 0.5226202998 -0.0245753739 0.5223800972 -0.0248504477 -0.1953085679 0.0597150538
65299610.0 -0.184026738 0.065088166 0.5251028772 -0.0308221502 0.5251676544 -0.0311137499 -0.191645052 0.0608776919
70299580.0 -0.180790313 0.0659610211 0.5275224542 -0.0372692387 0.5277694984 -0.0373773699 -0.1891536573 0.0618507634
75299550.0 -0.1778595235 0.066646718 0.5291025171 -0.0448317453 0.5300660116 -0.0445072508 -0.1858946589 0.0628118995
80299520.0 -0.1753338939 0.0677758347 0.5313834593 -0.0515277094 0.5318226519 -0.0513613558 -0.1834615641 0.0635259518
85299490.0 -0.1724717084 0.068321163 0.5328909639 -0.0582326291 0.5329231586 -0.0582296535 -0.1811552951 0.0642327196
90299460.0 -0.1702460212 0.0692039445 0.5336847447 -0.0652148548 0.5337837064 -0.0649432025 -0.1794238142 0.0651316002
95299430.0 -0.168110539 0.0696695536 0.5347158532 -0.0718903631 0.5347693984 -0.0724441532 -0.1772354463 0.0656263488
100299400.0 -0.1658600908 0.0701886889 0.534824965 -0.0787340615 0.5351586421 -0.0789059826 -0.175924798 0.0665713451
105299370.0 -0.1640680625 0.0708043432 0.5349655832 -0.0855267688 0.5356945632 -0.0858227036 -0.1736744029 0.0668448312
110299340.0 -0.1621287888 0.0714023009 0.535519322 -0.0921411354 0.5357572186 -0.0925533316 -0.1726580411 0.0674124731
115299310.0 -0.1608522853 0.0722858196 0.5354949055 -0.0990430234 0.5354872079 -0.0994421141 -0.1713903043 0.0685570407
120299280.0 -0.1594718312 0.0732377016 0.5353159066 -0.1062966854 0.5348135751 -0.1068123697 -0.1698764219 0.0687192437
125299250.0 -0.1579413252 0.0737731712 0.5346725797 -0.1129278667 0.5350755829 -0.112779622 -0.1686387982 0.069791232
130299220.0 -0.1564495358 0.0746091752 0.5342220563 -0.1196482725 0.5341913395 -0.1204274104 -0.1675328635 0.0708939781
135299190.0 -0.1555589132 0.075793483 0.5338322793 -0.1258963354 0.5339157532 -0.1263382847 -0.1665269643 0.071266597
140299160.0 -0.1541482062 0.0767697015 0.5329329332 -0.1331684247 0.532725139 -0.1327394077 -0.1660230656 0.0720667611
145299130.0 -0.1534955771 0.0779758492 0.5318043487 -0.1394300423 0.531824502 -0.1394894102 -0.1647706557 0.0730875498
150299100.0 -0.1521687451 0.0786734865 0.5305974026 -0.1459153728 0.5307241846 -0.1461020559 -0.1640210124 0.0742500905
155299070.0 -0.1506665997 0.079748005 0.5287446373 -0.1523812196 0.529681645 -0.1525920132 -0.1629386364 0.0749804054
160299040.0 -0.1498461831 0.081094252 0.5281801135 -0.1590791739 0.5281385402 -0.1589848633 -0.1626318047 0.07584916
165299010.0 -0.1486914833 0.0820296223 0.5268399433 -0.1649702151 0.5266105996 -0.1655347678 -0.1613001027 0.0767366776
170298980.0 -0.147960658 0.0833187434 0.5246357949 -0.1714923099 0.5253180458 -0.1717991615 -0.1609849079 0.0779003718
175298950.0 -0.1468186453 0.0845308979 0.5239021158 -0.1780914323 0.5238348953 -0.1782974727 -0.1599392789 0.0791410349
180298920.0 -0.1458480612 0.085979135 0.5216098916 -0.1842343302 0.5218011128 -0.1846901728 -0.1591918527 0.0802522164
185298890.0 -0.1449889567 0.0871599777 0.5202574485 -0.1903215983 0.5199513227 -0.1907092404 -0.1582513253 0.0814868508
190298860.0 -0.1435922956 0.0889011012 0.5174439403 -0.1966184341 0.5181159948 -0.196832468 -0.1574079622 0.0825081273
195298830.0 -0.1430540716 0.0899510518 0.5162362007 -0.2030426952 0.5164162408 -0.202783604 -0.1570008752 0.08372819
200298800.0 -0.1417606688 0.0911165339 0.5140134138 -0.2096362163 0.5139308245 -0.2091878426 -0.1561813617 0.0848436191
205298770.0 -0.1413493272 0.0923482567 0.5114917792 -0.2150256346 0.5120842041 -0.214803711 -0.1552460056 0.0861328839
210298740.0 -0.1404884794 0.0940266228 0.5095757324 -0.2208029391 0.5094866354 -0.220905567 -0.1547902996 0.0869986175
215298710.0 -0.1395088468 0.0951879757 0.5073477057 -0.2265074091 0.5073677094 -0.2269324534 -0.1541421211 0.0887449629
220298680.0 -0.1382115937 0.0968974381 0.5042851769 -0.2328863683 0.5046724558 -0.2329682705 -0.1530591599 0.0894127251
225298650.0 -0.1373978625 0.0983318508 0.5020688398 -0.2382114848 0.5020410774 -0.2381769651 -0.1524642301 0.0907054311
230298620.0 -0.1359145223 0.0997950305 0.4996962838 -0.244355414 0.4999077806 -0.2445359987 -0.1519195234 0.0917626278
235298590.0 -0.1353880188 0.1011163439 0.4970969655 -0.2506598668 0.4974955758 -0.2504173348 -0.1509193868 0.0934904672
240298560.0 -0.1343022713 0.1027774875 0.4945286274 -0.2556459882 0.494288213 -0.255701584 -0.1502979666 0.0943623365
245298530.0 -0.1331842985 0.1036700379 0.4914592114 -0.2614055467 0.4916171074 -0.2616472062 -0.1493632003 0.096057403
250298500.0 -0.132287668 0.1053523061 0.4891183249 -0.2669370466 0.4888932062 -0.2668046889 -0.1488935447 0.0975436611
255298470.0 -0.1312018484 0.1072650339 0.4860697623 -0.2725919141 0.486626906 -0.2729829619 -0.1477284489 0.0990898666
260298440.0 -0.1301154609 0.1085502334 0.4832901388 -0.2777648297 0.4834201469 -0.2779118538 -0.147316916 0.0999599767
265298410.0 -0.1293635208 0.1101657011 0.4799022405 -0.2840666106 0.4800861307 -0.2841664491 -0.1456387658 0.1013717204
270298380.0 -0.1282275916 0.1112055502 0.4765606355 -0.2892943577 0.4773131126 -0.289015411 -0.1451997619 0.1027497914
275298350.0 -0.126829912 0.112962675 0.4729870051 -0.2942653811 0.4738980849 -0.2943905209 -0.144650618 0.1041853488
280298320.0 -0.1261848116 0.1143019467 0.4706668232 -0.2996488902 0.4711711132 -0.3001263384 -0.1433334457 0.1054572484
285298290.0 -0.1249329814 0.1158754156 0.4673419193 -0.3051384793 0.4677920449 -0.3051114795 -0.142577502 0.1070270849
290298260.0 -0.1236434302 0.1174691675 0.4646594274 -0.3105417028 0.4643709555 -0.3105300684 -0.1414097501 0.1085190287
295298230.0 -0.122531418 0.1185756186 0.4609907058 -0.3160552948 0.46070938 -0.3161675221 -0.1405516913 0.1094497223
300298200.0 -0.1214570777 0.1201407183 0.4574850684 -0.3204548913 0.4575750231 -0.3206670635 -0.139579383 0.1108029503
305298170.0 -0.1201709044 0.1211544591 0.4543708559 -0.3261440086 0.4541228965 -0.3262496715 -0.1386781258 0.1116102097
310298140.0 -0.118617632 0.1226086942 0.4503936494 -0.3315751086 0.4508588087 -0.3312016855 -0.1372978779 0.1131416858
315298110.0 -0.1176523502 0.1239028909 0.4470721446 -0.3369921591 0.4469163576 -0.336691888 -0.1361929186 0.1145684464
320298080.0 -0.1163671884 0.1251472391 0.4429712734 -0.3419467279 0.4434100118 -0.3418289506 -0.1357918084 0.1156558996
325298050.0 -0.1156664229 0.1259342163 0.4389735059 -0.3466655416 0.4397332698 -0.3469028405 -0.1344369112 0.11650452
330298020.0 -0.1150261934 0.1277946026 0.4352267541 -0.3518587551 0.4357897337 -0.3522012184 -0.1338546167 0.1179556045
335297990.0 -0.1135963048 0.1290497972 0.4310320692 -0.3564454199 0.4316920904 -0.3567952336 -0.1330744569 0.1195149558
340297960.0 -0.1124295542 0.1303044248 0.4269900475 -0.361572456 0.4271839646 -0.3613810288 -0.1321076266 0.1212629473
345297930.0 -0.1111930003 0.1318413027 0.4231911323 -0.3661405874 0.4231438264 -0.3662383446 -0.1308740356 0.1219380628
350297900.0 -0.1101132456 0.1328718641 0.4192808771 -0.3704613754 0.419385332 -0.3706370241 -0.1300782773 0.1234437637
355297870.0 -0.1088890552 0.1343197211 0.4149566507 -0.3747517224 0.415224355 -0.3749869767 -0.128649172 0.1248525103
360297840.0 -0.1074504443 0.1358341622 0.4105290083 -0.3798092686 0.4111075435 -0.3800034473 -0.1278583753 0.1262746339
365297810.0 -0.1060749153 0.1371159647 0.4063181244 -0.3845100585 0.4068716548 -0.3842698899 -0.1271729333 0.1275122083
370297780.0 -0.1046993776 0.1385299796 0.4018174468 -0.3886853481 0.4027483972 -0.3888666765 -0.1258728702 0.1289220083
375297750.0 -0.1034639853 0.1396962362 0.3984809292 -0.3931163574 0.3982265125 -0.3933461789 -0.1240607768 0.1306730385
380297720.0 -0.1022093547 0.1411680612 0.3940374788 -0.3981305957 0.393820002 -0.3977258642 -0.1231482996 0.1316939498
385297690.0 -0.1009543032 0.1421667153 0.389303909 -0.4016575976 0.3896023732 -0.4021723795 -0.1218887001 0.1333162441
390297660.0 -0.0990427905 0.1433651522 0.3844627528 -0.4057735329 0.3852200225 -0.4062661867 -0.1204180104 0.1341015167
395297630.0 -0.0974768706 0.1447412562 0.3806675271 -0.409805978 0.3807337646 -0.4099225301 -0.1194016014 0.1357147529
400297600.0 -0.0965545473 0.1461247406 0.376709569 -0.4144422576 0.3763916343 -0.4146015805 -0.1181214206 0.1371951384
405297570.0 -0.0947199096 0.1466555428 0.3717323832 -0.41820435 0.3717105149 -0.4183549838 -0.1164161547 0.1384193747
410297540.0 -0.0931385384 0.1481506787 0.367133418 -0.4223542162 0.3671590708 -0.4222129847 -0.1154883635 0.1395559854
415297510.0 -0.0918051926 0.1493545668 0.3623024612 -0.4268302686 0.362910541 -0.426760384 -0.1139873479 0.1410541254
420297480.0 -0.090341862 0.1498408047 0.3574391252 -0.4304044413 0.3581987042 -0.4306954867 -0.1127707353 0.1424087264
425297450.0 -0.0882986988 0.1514306035 0.3528320163 -0.4341125251 0.3529456071 -0.4342047089 -0.1113874056 0.1430790216
430297420.0 -0.0868153803 0.1524235301 0.3485542082 -0.4380013786 0.3487756167 -0.4378372604 -0.1098332329 0.1446666681
435297390.0 -0.0855062149 0.1534428874 0.3433496478 -0.4426034625 0.3436197176 -0.4419488547 -0.1092352407 0.1459933826
440297360.0 -0.0837307195 0.1543692293 0.3385506752 -0.4457328465 0.3385863998 -0.4457483585 -0.1073771644 0.1472138277
445297330.0 -0.0817806294 0.1551311402 0.3338564355 -0.4492737727 0.3339230713 -0.4496665839 -0.1056948428 0.1484465054
450297300.0 -0.080143673 0.156269519 0.3289780517 -0.4529876436 0.3289984803 -0.4530243687 -0.1042865697 0.1497414117
455297270.0 -0.0788506828 0.1573675202 0.3237880303 -0.4565372055 0.3238745485 -0.4564278069 -0.1028763031 0.1506523296
460297240.0 -0.0765439224 0.1582951636 0.3191228263 -0.4602702582 0.3191681916 -0.4604096078 -0.1014746632 0.1517271734
465297210.0 -0.0749580736 0.1592497039 0.3133474334 -0.4636819403 0.313505013 -0.4638394987 -0.0995310551 0.153336906
470297180.0 -0.0732232965 0.1602632247 0.3084114718 -0.4665276352 0.3088774701 -0.4667505982 -0.0984431257 0.1539305368
475297150.0 -0.0717650884 0.161293069 0.303622891 -0.470279665 0.3037383736 -0.4704630076 -0.0968822916 0.155041099
480297120.0 -0.0694681642 0.1622905119 0.2983814224 -0.4732391351 0.2984373985 -0.4733605732 -0.0955916686 0.1562116325
485297090.0 -0.0675904602 0.1624366708 0.2928948533 -0.4767660751 0.2933200983 -0.4768612989 -0.0941572695 0.1575716525
490297060.0 -0.0652957496 0.1638045353 0.2876116058 -0.4800493902 0.287990705 -0.4799403881 -0.0924561614 0.1579152557
495297030.0 -0.0640618783 0.1642709658 0.2830260852 -0.4831592027 0.282968306 -0.4832318433 -0.0905336176 0.1593566598
500297000.0 -0.0621213909 0.1654511269 0.2776597915 -0.4860530582 0.2778307629 -0.4863102739 -0.0892895672 0.1604248747
505296970.0 -0.0602011811 0.1661260328 0.2722873472 -0.4888320319 0.2720905254 -0.4888859325 -0.0872946883 0.1610696615
510296940.0 -0.057832789 0.1666982666 0.2668840451 -0.4926011485 0.2669362671 -0.492772703 -0.0856060084 0.162493726
515296910.0 -0.0564529343 0.1678264731 0.261137464 -0.4949127855 0.2608765916 -0.4949508591 -0.0841985012 0.163334848
520296880.0 -0.0544847498 0.1684348751 0.2562260566 -0.4974481651 0.2560792285 -0.4971855847 -0.0823003566 0.1642841253
525296850.0 -0.0524243828 0.1691005654 0.2504997992 -0.500238975 0.2504798545 -0.5004667147 -0.0808863998 0.165240633
530296820.0 -0.0506772332 0.1697835389 0.2449632381 -0.5028681346 0.2450337092 -0.5029327936 -0.0791852219 0.1657782336
535296790.0 -0.0480059056 0.1706769591 0.2395782767 -0.5057101441 0.2397075793 -0.5055826822 -0.0771023844 0.16724322
540296760.0 -0.0463238132 0.1714532991 0.2338784834 -0.5078048723 0.2336594234 -0.5079969019 -0.0756930511 0.1673314064
545296730.0 -0.0445540206 0.1725616392 0.2287128914 -0.5106548387 0.2281483512 -0.5103337713 -0.0739988364 0.1688644046
550296700.0 -0.0419822841 0.1728250598 0.2227738485 -0.5130162798 0.2224881352 -0.5133858036 -0.0723162566 0.1693361596
555296670.0 -0.0404534402 0.1734128338 0.2172407952 -0.5157836447 0.2173808439 -0.5151310661 -0.0710957653 0.1697074587
560296640.0 -0.0377734026 0.1738208128 0.2117820516 -0.5175739347 0.2118145934 -0.51762932 -0.0691791169 0.171208655
565296610.0 -0.0365615488 0.1747416069 0.2065371423 -0.5201364786 0.2062634055 -0.5193573404 -0.0671527011 0.1720051507
570296580.0 -0.0343674983 0.1751903279 0.2000668321 -0.5221800374 0.2004251674 -0.5224522786 -0.0658397706 0.1726291626
575296550.0 -0.0321977832 0.1758516598 0.1950781734 -0.5242200009 0.194461097 -0.5242667813 -0.0640984928 0.1736147207
580296520.0 -0.0300228628 0.1766680166 0.1893828047 -0.5264387356 0.1891247194 -0.5261329679 -0.0625827982 0.1742056384
585296490.0 -0.0281853617 0.1770595151 0.1837145496 -0.528237275 0.1830371637 -0.528341092 -0.0603593853 0.1750252262
590296460.0 -0.0252935384 0.1774712367 0.1777565221 -0.5300432304 0.1775947823 -0.530685115 -0.0590791122 0.1755573674
595296430.0 -0.0236736991 0.1780527564 0.1714724397 -0.5323573334 0.1713400393 -0.5320664093 -0.0571355524 0.175881552
600296400.0 -0.021081136 0.1784138131 0.1656289983 -0.5336891404 0.1657663392 -0.5338157516 -0.0553631628 0.1766805452
605296370.0 -0.0199579295 0.1787970996 0.160552866 -0.5351476561 0.1596999899 -0.5358789895 -0.0535902957 0.1776146046
610296340.0 -0.0174538772 0.1799769443 0.1543199757 -0.5366929291 0.1547251672 -0.5369509736 -0.0521950447 0.1783289111
615296310.0 -0.0151072854 0.1798735908 0.1487335354 -0.5389727951 0.1483148357 -0.5390524618 -0.0500519889 0.1790887425
620296280.0 -0.0133512382 0.1807273268 0.1426004491 -0.5404066411 0.1425539216 -0.5405911721 -0.0487285724 0.1797224528
625296250.0 -0.011342573 0.1808218274 0.1368173544 -0.5419464791 0.1368011701 -0.5419633611 -0.046922617 0.1798648078
630296220.0 -0.009362125 0.1814218384 0.1308071455 -0.543418808 0.1307099674 -0.5433366729 -0.0449492985 0.1807548259
635296190.0 -0.0074755347 0.1816771527 0.1253944934 -0.5445626057 0.1248276522 -0.5444523072 -0.0432415338 0.181150254
640296160.0 -0.0050836537 0.1820040913 0.1192649073 -0.5461206071 0.1187550894 -0.5460726011 -0.0414230368 0.1819046907
645296130.0 -0.002993593 0.1825972233 0.1131047326 -0.5466802156 0.1130602022 -0.5471801347 -0.0399084515 0.1819812026
650296100.0 -0.0010941381 0.1825745495 0.1072517908 -0.5487092247 0.1071512964 -0.5485856171 -0.037457696 0.1828226732
655296070.0 0.0012279985 0.1829291033 0.1010568961 -0.5488359453 0.1010686203 -0.5491186213 -0.0362498758 0.1835702094
660296040.0 0.0030445405 0.183187226 0.0953039479 -0.5502351604 0.0952168396 -0.5504381846 -0.0342825024 0.1837973036
665296010.0 0.0049672579 0.1837068076 0.0894927923 -0.5509919275 0.0891001341 -0.5513219992 -0.0325660801 0.184105539
670295980.0 0.0071518342 0.1839245435 0.0833431053 -0.5522327041 0.083209003 -0.5518276467 -0.0312236005 0.1845777827
675295950.0 0.0090766526 0.1839233396 0.0774733826 -0.5530037794 0.0773332253 -0.553446073 -0.0291147028 0.1852916062
680295920.0 0.0109861955 0.1842323835 0.0713847942 -0.5534661761 0.0712469669 -0.5537064493 -0.0269773081 0.1855623731
685295890.0 0.0133921854 0.1843112169 0.0653842902 -0.5546509271 0.0653235 -0.5545918214 -0.0253989904 0.1860994244
690295860.0 0.0151746367 0.1845861702 0.0596151706 -0.5553786159 0.059029094 -0.5552130515 -0.0234063866 0.1863722537
695295830.0 0.0176129245 0.1843652917 0.0538479261 -0.55583209 0.0533140879 -0.5559735128 -0.0217257988 0.1870110032
700295800.0 0.0197234804 0.1848122538 0.0476913174 -0.5565291085 0.0472821248 -0.5562933001 -0.0198468255 0.1871601381
705295770.0 0.0210904255 0.1848062435 0.0417607507 -0.5570245928 0.0414329414 -0.5566061396 -0.0180347546 0.1878674023
710295740.0 0.0231136743 0.1845770823 0.0361215166 -0.5571205973 0.0351693507 -0.5572078128 -0.0161318349 0.1881714209
715295710.0 0.0251868604 0.1848617736 0.0300414801 -0.5576675825 0.0295990892 -0.557789426 -0.0144890179 0.1882482927
720295680.0 0.027742105 0.184672674 0.0234936736 -0.5575006166 0.0237047665 -0.5581710166 -0.0127093576 0.1881115686
725295650.0 0.0289990257 0.1850871126 0.0180629203 -0.5577996611 0.0176617002 -0.5583955866 -0.011344955 0.1890926854
730295620.0 0.0307892088 0.1846990071 0.0116893693 -0.5574546986 0.0113350624 -0.5578341369 -0.0092216254 0.189789745
735295590.0 0.0332430427 0.1847967949 0.0057800177 -0.558025229 0.0054672692 -0.5583048023 -0.0073362321 0.1892297888
740295560.0 0.0350114057 0.1842567989 -0.0003712263 -0.5581486289 4.93694e-05 -0.5582408604 -0.0056592861 0.1896785394
745295530.0 0.0370055084 0.1844050015 -0.0062666917 -0.5575216879 -0.0057244855 -0.5580347123 -0.0042978565 0.1899550379
750295500.0 0.03874853 0.1843053827 -0.0119552254 -0.5579169114 -0.0125848545 -0.5582265104 -0.0021996737 0.1901614265
755295470.0 0.0403986539 0.1840792593 -0.0178404837 -0.5580434006 -0.018185203 -0.5579319156 -0.0001017103 0.1907108988
760295440.0 0.0427055369 0.1844635372 -0.024783825 -0.5574815333 -0.0246296931 -0.557387184 0.0017506507 0.1897023764
765295410.0 0.0448776644 0.1833585066 -0.0300449855 -0.557065331 -0.030105996 -0.5572447695 0.0035396967 0.1905322494
770295380.0 0.0464732874 0.1838531372 -0.0357816109 -0.556458444 -0.0359356215 -0.5569915631 0.0047998191 0.1906173033
775295350.0 0.0484514203 0.1831528559 -0.041845954 -0.5565239275 -0.0420195285 -0.5560876397 0.0073344071 0.1908688807
780295320.0 0.0503471558 0.1828008409 -0.0479629827 -0.5556834949 -0.0477815103 -0.5558791402 0.0092374496 0.1907850455
785295290.0 0.0521960398 0.1824191418 -0.0542572185 -0.5552924683 -0.0537948769 -0.555616941 0.0105952321 0.1912609085
790295260.0 0.0540943809 0.181926805 -0.0599551678 -0.5547474317 -0.0599301588 -0.5552272384 0.0125945268 0.1914570416
795295230.0 0.055975265 0.1814078235 -0.0656877046 -0.5540107207 -0.0657141768 -0.5541861552 0.0143578251 0.190661291
800295200.0 0.0577598632 0.1815898434 -0.0714499347 -0.552988835 -0.0717866628 -0.5534852344 0.0161072727 0.190891765
805295170.0 0.0596058199 0.1809835842 -0.0777996483 -0.5523588133 -0.0778155731 -0.5526912607 0.0185380671 0.1911685018
810295140.0 0.0620040293 0.1806473672 -0.0835888514 -0.551668899 -0.0834677869 -0.5515243615 0.0201893812 0.1909765653
815295110.0 0.0633294397 0.1800372509 -0.0893615656 -0.5509604872 -0.0893587307 -0.550488103 0.0217651525 0.1909519264
820295080.0 0.0652447472 0.1794739337 -0.0947767323 -0.5492411825 -0.0949199505 -0.5497116388 0.0232157975 0.1915392282
825295050.0 0.0671184874 0.1787899528 -0.1010430382 -0.548192981 -0.1014553423 -0.5483822714 0.0256684218 0.1914528038
830295020.0 0.0689624504 0.178186011 -0.107016961 -0.5471772259 -0.1071855157 -0.547433632 0.0273579561 0.1906875598
