!Created with skrf (http://scikit-rf.org).
# Hz S RI R 50.0 
!freq ReS11 ImS11 ReS21 ImS21 ReS12 ImS12 ReS22 ImS22
300000.0 -0.1017047861 -0.0683197694 0.6312532478 0.0634965666 0.6235504271 0.0641950297 -0.0987634309 -0.0752229617
5299970.0 -0.1021783272 0.0132392426 0.6308215671 0.0097766309 0.6307303188 0.0105215838 -0.1007625558 0.0133248028
10299940.0 -0.0971923779 0.0292708989 0.6340550873 0.0150496234 0.6341842652 0.0152840869 -0.095813196 0.0302713361
15299910.0 -0.0901795562 0.0427617524 0.6404763112 0.0204818485 0.6409711711 0.0204653034 -0.0885389284 0.0436085394
20299880.0 -0.0817350628 0.052943538 0.6484718012 0.0243277749 0.6485138791 0.0241837646 -0.0798181784 0.0545921892
25299850.0 -0.0723661573 0.0625903502 0.6583110467 0.0250067523 0.6578008026 0.0249484663 -0.0697446155 0.0633207517
30299820.0 -0.0621607428 0.0687264802 0.6673345218 0.0243227049 0.6673800344 0.0245717831 -0.059950558 0.0702305401
35299790.0 -0.0524293643 0.073818697 0.6775684219 0.0214919663 0.6774775174 0.0214423907 -0.0499363499 0.0749734658
40299760.0 -0.0432206027 0.0774246198 0.6860539367 0.0171011219 0.6865157694 0.0175300381 -0.0402462165 0.0775236975
45299730.0 -0.0340350127 0.0792908251 0.6952178654 0.0117130267 0.6955801556 0.012053376 -0.0314486402 0.0797806973
50299700.0 -0.0256689882 0.0801780387 0.7035315205 0.0048768365 0.7030765893 0.0053054112 -0.0227563414 0.0805105401
55299670.0 -0.0176782622 0.0804384169 0.7109451341 -0.0032925303 0.710798807 -0.002748916 -0.0146733383 0.080568162
60299640.0 -0.0097435092 0.0800317846 0.7173781472 -0.0114613381 0.7173770012 -0.0111420792 -0.0077743536 0.0794351847
65299610.0 -0.0038599117 0.0787434073 0.7233773855 -0.0200680913 0.7236296077 -0.0200766925 -0.0012742227 0.0784676965
70299580.0 0.0025756113 0.0775760715 0.7286191034 -0.0294771131 0.7283810609 -0.0293807395 0.0045903352 0.0765886827
75299550.0 0.0081996717 0.0759394433 0.7329199773 -0.039122359 0.7329986209 -0.0389748743 0.0102348578 0.0747774474
80299520.0 0.0127917705 0.0734554605 0.7369964592 -0.0490544793 0.7375218117 -0.0491718105 0.0152697896 0.0724936806
85299490.0 0.0178429733 0.0713584771 0.739945354 -0.0585507422 0.7406143164 -0.058535486 0.0194584509 0.0698605539
90299460.0 0.0218518 0.0689683244 0.7424204996 -0.0694330868 0.7431059803 -0.0691310775 0.0235796827 0.0682608065
95299430.0 0.0258571563 0.0666028701 0.7455480291 -0.0789858548 0.7455518938 -0.0791831883 0.0274742833 0.0652357144
100299400.0 0.0289789136 0.0645159242 0.746101766 -0.0893797551 0.7467932038 -0.089347293 0.0311170791 0.0625008466
105299370.0 0.0322786778 0.0622500692 0.7482134441 -0.0996454244 0.748879612 -0.0993500753 0.0340817738 0.0608580254
110299340.0 0.0349945943 0.0595592962 0.7499044462 -0.109293048 0.749647761 -0.1090714057 0.0360705036 0.0575825129
115299310.0 0.0375117559 0.0573571528 0.7504098365 -0.1194960767 0.7506949686 -0.1192850409 0.039065703 0.0555128726
120299280.0 0.039997863 0.0543791074 0.7510695588 -0.1293858275 0.7516191486 -0.1294750282 0.041059709 0.0531121337
125299250.0 0.0417246353 0.052260017 0.7515614063 -0.1391627184 0.751690444 -0.1389395268 0.0429960596 0.050567651
130299220.0 0.0435412181 0.0502886908 0.7513940377 -0.1489806073 0.7510533107 -0.1493417761 0.0449355004 0.0480921157
135299190.0 0.0453744727 0.0482181954 0.751532938 -0.1588684874 0.7509406811 -0.1591096643 0.046568907 0.045928579
140299160.0 0.0467448651 0.0464750762 0.7508982725 -0.16911247 0.7505414855 -0.1691287412 0.0479885149 0.0445058055
145299130.0 0.0482124512 0.0437604124 0.74982164 -0.1783536247 0.7497554833 -0.1782682815 0.0495549148 0.0418922817
150299100.0 0.049762044 0.0420601591 0.7486134901 -0.18755777 0.7490864079 -0.1878876451 0.0507036164 0.0400254698
155299070.0 0.0500347115 0.039763237 0.7476493137 -0.1982879714 0.7474641901 -0.198047989 0.0515940926 0.0382701081
160299040.0 0.0519577181 0.0379560746 0.746038334 -0.2077626137 0.7453801999 -0.2075308832 0.0519024212 0.036080226
165299010.0 0.052403492 0.0363282655 0.7444987389 -0.2170443525 0.7448816389 -0.217481063 0.053563548 0.0346987456
170298980.0 0.0532172708 0.0340968033 0.742867242 -0.2264775067 0.7426987824 -0.2262926065 0.0540076471 0.0331924026
175298950.0 0.0536290903 0.0320700826 0.7410121412 -0.2354890062 0.7407858162 -0.2355577975 0.0550018803 0.0313115909
180298920.0 0.0544180499 0.0304612527 0.7385546541 -0.2446425899 0.7387134844 -0.2449459394 0.0552970488 0.0298821506
185298890.0 0.055481567 0.0287126363 0.7365955541 -0.253907308 0.7361496898 -0.2538615836 0.0558439053 0.0282294174
190298860.0 0.0554419191 0.0272331318 0.7342934605 -0.2628435572 0.7344145822 -0.2631675718 0.0565285606 0.026539732
195298830.0 0.0560268313 0.0251482025 0.7313973422 -0.272096881 0.7321204365 -0.2717122155 0.0570963518 0.0252153134
200298800.0 0.0562661697 0.0239793134 0.7285988731 -0.2814527931 0.7290156461 -0.2807440335 0.0565824606 0.0237088396
205298770.0 0.0569415141 0.0226970266 0.7256560282 -0.2899255182 0.7259718625 -0.2899889099 0.0573595822 0.0213401068
210298740.0 0.0572320874 0.0207829409 0.7233494012 -0.2981917354 0.7232203395 -0.2981609434 0.0578174667 0.0214028947
215298710.0 0.0569236045 0.0195647931 0.7200589098 -0.3077578793 0.7201228626 -0.3075730122 0.0577274612 0.0196351217
220298680.0 0.0576206403 0.0177056114 0.7168436311 -0.3159182166 0.7169373886 -0.3162012227 0.0577821172 0.0179943535
225298650.0 0.0577362964 0.0165075722 0.7138838656 -0.3252866891 0.7135235941 -0.3244166973 0.0574421237 0.0162490115
230298620.0 0.0578225798 0.0155755173 0.7105029137 -0.3328294971 0.7105484158 -0.3332229445 0.0573511652 0.01501776
235298590.0 0.0578871445 0.0145632502 0.7063733839 -0.34147973 0.7067174873 -0.3408651211 0.0575976754 0.0137306977
240298560.0 0.0579384916 0.0133352547 0.7039188139 -0.3503842208 0.7031939851 -0.3499488769 0.0576843713 0.0129197334
245298530.0 0.0580308701 0.0119963519 0.6998591181 -0.3585659759 0.6999464926 -0.3581744871 0.0584401002 0.0108265114
250298500.0 0.058446439 0.0109933767 0.6950961033 -0.3663646905 0.694887982 -0.3660305094 0.0577501916 0.0104873947
255298470.0 0.0584150441 0.0092182463 0.6912537636 -0.3742521143 0.6918637611 -0.3742707046 0.0583953211 0.0091127703
260298440.0 0.0576933733 0.0082119347 0.6874241857 -0.3831173276 0.6872539851 -0.3825316864 0.05841806 0.0079200609
265298410.0 0.058608879 0.0076411081 0.6834880575 -0.3913067706 0.6840158012 -0.3908852744 0.0580649428 0.0068490817
270298380.0 0.058298206 0.0059659753 0.6794380675 -0.3986609647 0.6792836113 -0.398393467 0.0577299428 0.0055900068
275298350.0 0.0591037049 0.0050086076 0.674930907 -0.4067524088 0.6757140569 -0.4066559422 0.0583427251 0.004337076
280298320.0 0.0587077376 0.0043322044 0.6709275574 -0.4145224669 0.6708683444 -0.4141802138 0.0585990103 0.0034940057
285298290.0 0.0586938713 0.0028134757 0.6668054134 -0.422445522 0.6662444292 -0.4227490477 0.0584052323 0.0022189909
290298260.0 0.0590305549 0.0020313712 0.661604949 -0.4297731381 0.6618185983 -0.430403496 0.0587801471 0.0017050243
295298230.0 0.0588795979 0.00084729 0.6572720467 -0.4376573794 0.6571658124 -0.4379380476 0.0590387908 0.0005269308
300298200.0 0.0581854276 -0.0003979532 0.65280776 -0.4452278668 0.6532358589 -0.446140629 0.0586831775 -0.0008326953
305298170.0 0.058931808 -0.0014469757 0.6473244228 -0.4535105728 0.6477954189 -0.4532296063 0.0590269382 -0.0020482496
310298140.0 0.0583837737 -0.0025916353 0.6428619511 -0.4607721233 0.6433996622 -0.4606934536 0.0593067758 -0.0027918547
315298110.0 0.058345798 -0.0043904806 0.6378179643 -0.4686183138 0.6382726238 -0.4685990889 0.0587066944 -0.0045678522
320298080.0 0.058665126 -0.0051445407 0.6320739361 -0.476440013 0.6324458491 -0.4757561646 0.0584125255 -0.0054102608
325298050.0 0.0578944794 -0.0064223846 0.6269968321 -0.4839410556 0.6267117936 -0.4834243952 0.0576097643 -0.006434929
330298020.0 0.0574064509 -0.0074507915 0.6207734356 -0.4907737764 0.6215095701 -0.4909387614 0.0574211416 -0.0077472844
335297990.0 0.0571412877 -0.0088855581 0.6155902994 -0.4974876708 0.6152509623 -0.4978934902 0.0564001908 -0.0076399134
340297960.0 0.0563086573 -0.009132129 0.6096491999 -0.5048626037 0.6092519047 -0.5051105724 0.0568796742 -0.0087152906
345297930.0 0.0557420945 -0.009424139 0.6039739658 -0.5124890435 0.6042546274 -0.5121282717 0.0563456617 -0.0097439009
350297900.0 0.0551224185 -0.0111113955 0.5978080066 -0.5184134116 0.5975297398 -0.5186245263 0.0553233204 -0.010107921
355297870.0 0.0547132988 -0.0107090207 0.5919487865 -0.5250678004 0.5926986937 -0.5250639589 0.0552160126 -0.0108116731
360297840.0 0.0545500974 -0.0115924895 0.5870857658 -0.5316968373 0.5874062546 -0.5314069611 0.0548571062 -0.0110991362
365297810.0 0.0539546825 -0.0122198473 0.580389568 -0.5384227769 0.581136389 -0.5384633816 0.0549021978 -0.0115537315
370297780.0 0.0542714493 -0.0132461821 0.5744409363 -0.5449777138 0.5747769203 -0.544053307 0.0539552925 -0.0125549651
375297750.0 0.0539155744 -0.0137275581 0.5689177366 -0.5512411808 0.5697705584 -0.5514945705 0.0541830001 -0.0128722272
380297720.0 0.0535579435 -0.0143269808 0.5628412372 -0.5574707089 0.5629946371 -0.556896918 0.0533385515 -0.014133905
385297690.0 0.0529222402 -0.0153827476 0.5564281529 -0.5636689641 0.556145861 -0.5637267124 0.0531116119 -0.0143594287
390297660.0 0.0528966346 -0.0154320756 0.5502072727 -0.5703023227 0.5499476602 -0.5694038912 0.0525817781 -0.0150932945
395297630.0 0.0521845573 -0.0162621097 0.5433916766 -0.5762090439 0.5440862205 -0.5763935758 0.0531896459 -0.0155109011
400297600.0 0.0517430051 -0.0167196556 0.5369486541 -0.582814153 0.5376131744 -0.5825518025 0.0519854712 -0.0161933181
405297570.0 0.0512505439 -0.0175563906 0.5308458313 -0.5876672912 0.5309299856 -0.5878198311 0.0517613418 -0.0168376099
410297540.0 0.0512367538 -0.0182899918 0.5250779044 -0.5938723935 0.5249083052 -0.5941979042 0.0508887962 -0.0171847683
415297510.0 0.0510663041 -0.0188773219 0.5174389521 -0.6002351773 0.5181224324 -0.6002341843 0.0510506763 -0.017954632
420297480.0 0.0506166849 -0.0191382111 0.5112121251 -0.6060551419 0.5109338597 -0.6060247452 0.0501677638 -0.0190322824
425297450.0 0.0499956568 -0.0204774766 0.5043740254 -0.6115263657 0.5048233609 -0.6113002203 0.0494073055 -0.0187343993
430297420.0 0.0497459718 -0.0208966568 0.4975459837 -0.6162095901 0.4974803487 -0.6165663361 0.0495460945 -0.0201183763
435297390.0 0.049173195 -0.0215732528 0.4905978866 -0.6225308043 0.4908009695 -0.622324801 0.0501316486 -0.0206055108
440297360.0 0.0494016315 -0.0217515933 0.4841811376 -0.6277475526 0.4844210387 -0.627800454 0.0488592416 -0.0216181098
445297330.0 0.0484100012 -0.0230412775 0.4777013676 -0.6338210481 0.4776861516 -0.6326758556 0.049123668 -0.0220085047
450297300.0 0.0486612523 -0.0232687965 0.4703281654 -0.6383074294 0.4705042251 -0.6391823895 0.048226482 -0.0231929498
455297270.0 0.0483989403 -0.0239561888 0.4630900115 -0.643890379 0.463048365 -0.6434614787 0.0481057292 -0.0232136656
460297240.0 0.0474233592 -0.0244213762 0.4559763596 -0.6487789223 0.4560023041 -0.6490302779 0.0476322012 -0.023556226
465297210.0 0.0477528539 -0.0250484676 0.4494026204 -0.6540322806 0.4490792981 -0.6546594131 0.0474231491 -0.0246441291
470297180.0 0.0469273149 -0.0255704492 0.4414650521 -0.6588490724 0.4417062171 -0.6589614981 0.0471037016 -0.0249955183
475297150.0 0.0469603379 -0.0264348237 0.434135938 -0.6625241975 0.4342840218 -0.662975836 0.0470783502 -0.0258802044
480297120.0 0.0460660433 -0.0263767574 0.4269547691 -0.6682273177 0.4268855105 -0.6686663794 0.0467078851 -0.0260308163
485297090.0 0.0454174176 -0.0272843614 0.4198302377 -0.6725171968 0.4195847967 -0.672953672 0.0460692811 -0.0270477494
490297060.0 0.0445399673 -0.0277404607 0.412502091 -0.6778686126 0.4128024369 -0.6777539646 0.04602644 -0.0266798269
495297030.0 0.044547779 -0.0281224486 0.4046395041 -0.6825684023 0.4049480858 -0.6818566468 0.0448383387 -0.027612588
500297000.0 0.0439494823 -0.0289701467 0.3972635357 -0.6866243962 0.3969624791 -0.685931366 0.0449977017 -0.027405197
505296970.0 0.0438266331 -0.0295409034 0.3898375593 -0.6906260682 0.3893813025 -0.690848784 0.0443507367 -0.0282204404
510296940.0 0.0431562192 -0.0295841613 0.3821624372 -0.6950791038 0.3821137652 -0.6951868997 0.0441247351 -0.0284301595
515296910.0 0.0423928775 -0.0297430384 0.3746200244 -0.6996419835 0.3745855008 -0.6992941499 0.0435806698 -0.028795587
520296880.0 0.0418962148 -0.03041473 0.3672274255 -0.7037937996 0.3666752547 -0.703021518 0.0432216162 -0.0295187691
525296850.0 0.0418958127 -0.0317281591 0.3584650317 -0.7074047287 0.3594416076 -0.7073667986 0.042272973 -0.0298948818
530296820.0 0.0412534715 -0.0313743919 0.3514135947 -0.7115237313 0.3513339307 -0.7113845358 0.042489847 -0.0301975346
535296790.0 0.0400882273 -0.0318275846 0.3438072837 -0.7149546692 0.343875322 -0.7147408908 0.0416926041 -0.0311203903
540296760.0 0.0399147811 -0.0320253406 0.3353371486 -0.719502203 0.3359104289 -0.7189271619 0.0406661902 -0.0304797685
545296730.0 0.0394121451 -0.0328670898 0.3271147563 -0.722552159 0.3273296293 -0.7225914867 0.0403893777 -0.0313943579
550296700.0 0.0395649029 -0.0329720133 0.3195692335 -0.7259681463 0.319467917 -0.7263562489 0.0398478066 -0.0315794378
555296670.0 0.0385507695 -0.0332583905 0.3122914611 -0.729837147 0.3123169368 -0.7296636671 0.039274685 -0.0316502899
560296640.0 0.0383587998 -0.033022297 0.3036006903 -0.7329225619 0.3037437788 -0.7332129187 0.038914343 -0.0324679525
565296610.0 0.0373616297 -0.0341554343 0.2951036063 -0.736287743 0.2958556596 -0.7365533582 0.0379502319 -0.0328607894
570296580.0 0.0370500806 -0.0341448694 0.2877460084 -0.7400203695 0.2875368455 -0.7395972404 0.0375783542 -0.0325733221
575296550.0 0.0360896538 -0.0346990299 0.2793737205 -0.7425171606 0.2793286358 -0.7430437021 0.0374824894 -0.0336398966
580296520.0 0.0360881385 -0.034776117 0.2710608159 -0.7459534324 0.2718277724 -0.7458703472 0.0368278897 -0.0340010513
585296490.0 0.0353060261 -0.0359624645 0.2637166828 -0.7483643397 0.2636753364 -0.7486639345 0.0362204047 -0.0340407668
590296460.0 0.0352666612 -0.0355936253 0.2549875117 -0.7505881756 0.2551842175 -0.7514358794 0.0349360666 -0.0343818193
595296430.0 0.0349165935 -0.0357901003 0.2465613345 -0.7545277068 0.2465211425 -0.7539888151 0.0350403775 -0.0351096427
600296400.0 0.0337948816 -0.0366684695 0.2385180185 -0.7573427246 0.2385115803 -0.7563046686 0.034242906 -0.0353434557
605296370.0 0.0332538814 -0.036699144 0.2301561991 -0.7595003694 0.230486752 -0.7591074574 0.0336699075 -0.0357990524
610296340.0 0.0329123552 -0.0368663783 0.2216411938 -0.7618121197 0.2221238087 -0.7619418321 0.033211965 -0.0361279042
615296310.0 0.0327407626 -0.03781624 0.213824055 -0.7641901047 0.213702515 -0.7645233586 0.0329760345 -0.0363762696
620296280.0 0.0318210684 -0.038145546 0.2055239993 -0.7666611017 0.2049768334 -0.7660844861 0.0319172316 -0.0369294846
625296250.0 0.0310778223 -0.0386947075 0.1978180684 -0.7687906682 0.1972083327 -0.7690912445 0.0325089653 -0.0370418609
630296220.0 0.0317248299 -0.0383952927 0.1879491177 -0.7709225123 0.1878414678 -0.7709111166 0.0314410658 -0.0370271226
635296190.0 0.0295649418 -0.0392304919 0.1798183717 -0.7726771167 0.1800915292 -0.7726561008 0.0313585855 -0.0375315269
640296160.0 0.0293374574 -0.0390152208 0.1719878792 -0.7741876645 0.1720196034 -0.7748489864 0.0301826168 -0.0378232633
645296130.0 0.028896314 -0.0393758705 0.162874578 -0.7762842282 0.1633281836 -0.77678462 0.0298278313 -0.0381856746
650296100.0 0.0284819227 -0.0396473482 0.15427241 -0.7779106659 0.1550792646 -0.7785272067 0.0302378797 -0.0390324844
655296070.0 0.0275550141 -0.0401102113 0.1459794475 -0.7798170673 0.146585868 -0.7799291185 0.0290050042 -0.0384563169
660296040.0 0.0264489216 -0.0406552461 0.1379320744 -0.7817317091 0.13778033 -0.7817878139 0.0289251613 -0.0391123676
665296010.0 0.026617291 -0.0405666594 0.1287919382 -0.7825855866 0.1288883331 -0.7823982856 0.0282412541 -0.0384317216
670295980.0 0.024829642 -0.040696549 0.1202601722 -0.7842119283 0.1205485559 -0.7842171008 0.0270939728 -0.0387888615
675295950.0 0.0248061697 -0.0405137641 0.1124325995 -0.7854830337 0.1121102278 -0.7845792191 0.0264006291 -0.0390706503
680295920.0 0.0238226561 -0.0411199659 0.1033738107 -0.786803383 0.1025968281 -0.7869102541 0.0260071493 -0.0386848656
685295890.0 0.0236652292 -0.0405206714 0.0945399291 -0.7876273132 0.0947794262 -0.7877248651 0.0253928274 -0.0390878408
690295860.0 0.0233654688 -0.0408710568 0.0862159666 -0.7879950815 0.0860876352 -0.7893065453 0.0250371342 -0.0385458731
695295830.0 0.0228718835 -0.0414381015 0.0784029811 -0.7892873425 0.0773757155 -0.789306683 0.0240502202 -0.0390834179
700295800.0 0.0221302174 -0.0417295346 0.0693408461 -0.7904750618 0.0685308746 -0.7895306054 0.023316024 -0.038694742
705295770.0 0.0211962051 -0.0408440369 0.0599879256 -0.7905350934 0.060927708 -0.7909357284 0.0227434649 -0.0389822488
710295740.0 0.0210916601 -0.0412989623 0.0520885682 -0.7921310839 0.0524883259 -0.7921363954 0.022628954 -0.0400431512
715295710.0 0.0196790527 -0.041610662 0.0442719281 -0.7920307005 0.0430225771 -0.7920593687 0.0220137583 -0.0396025472
720295680.0 0.0195355509 -0.0417651994 0.0348437749 -0.7925904617 0.0349767626 -0.7921756339 0.0211629286 -0.0391386538
725295650.0 0.0191656772 -0.0417509649 0.0257792825 -0.792363275 0.0261230594 -0.7930056414 0.0198951181 -0.0390184447
730295620.0 0.01878099 -0.0414972745 0.0175389474 -0.7928627986 0.0174366992 -0.7928331577 0.0194539761 -0.0400264624
735295590.0 0.0178947388 -0.0415761651 0.0090052956 -0.7933440309 0.0086611507 -0.7930135594 0.0189685656 -0.0402067562
740295560.0 0.0169175271 -0.0417871701 -1.60399e-05 -0.792785182 0.0002078306 -0.7929802712 0.0189680804 -0.039724307
745295530.0 0.016580717 -0.0415523177 -0.0082764418 -0.7922556902 -0.0087755058 -0.7927983461 0.0183969207 -0.0402467192
750295500.0 0.0161199839 -0.04196464 -0.0169667823 -0.7922796331 -0.0174388831 -0.7930565226 0.0174007256 -0.0404256965
755295470.0 0.0155974741 -0.0421387316 -0.0253285284 -0.7925845653 -0.0256378272 -0.7930063426 0.0173674286 -0.0405575652
760295440.0 0.0148211742 -0.0419091578 -0.0338715413 -0.7926603253 -0.0344453542 -0.7930768313 0.0163403879 -0.0407730746
765295410.0 0.01399813 -0.0421701455 -0.0427563183 -0.7921520133 -0.0435723727 -0.7919321321 0.0158369568 -0.0402332768
770295380.0 0.0132077319 -0.0422784805 -0.0521034296 -0.7914537526 -0.0515618695 -0.790895948 0.0151121146 -0.0408122841
775295350.0 0.0128175301 -0.0429035509 -0.0604660807 -0.7907241316 -0.0599881577 -0.7903796817 0.0135775251 -0.040221614
780295320.0 0.0124242282 -0.0423280605 -0.0686405967 -0.7895814241 -0.0681615048 -0.7897730404 0.0133303494 -0.0408544407
785295290.0 0.0113034124 -0.0428969147 -0.0775403416 -0.7888275909 -0.0774296797 -0.7889214965 0.0136441036 -0.0402885386
790295260.0 0.0115822232 -0.0417653211 -0.0853810349 -0.7883871552 -0.0852469576 -0.7880496988 0.0125866417 -0.040974251
795295230.0 0.0105351943 -0.0426640134 -0.0945328672 -0.7868161691 -0.0940585636 -0.7872106186 0.0123871572 -0.0400583764
800295200.0 0.0094179777 -0.0421425109 -0.1039398647 -0.78636571 -0.1028783721 -0.7858668464 0.011527726 -0.0408784436
805295170.0 0.0089618307 -0.0425192618 -0.1116890513 -0.7847989442 -0.1113100477 -0.7850160785 0.011246057 -0.0404896166
810295140.0 0.0079692637 -0.0428300462 -0.1199238736 -0.782919862 -0.1200092839 -0.7836767122 0.0111172008 -0.040224655
815295110.0 0.0078600501 -0.0429203971 -0.1284939063 -0.781973409 -0.1281178682 -0.7822032478 0.010117972 -0.0403725725
820295080.0 0.006597081 -0.0417830806 -0.1370888947 -0.7802027325 -0.1368689464 -0.7802220735 0.0093313223 -0.0403040859
825295050.0 0.007009083 -0.0421181826 -0.1444911065 -0.7787602523 -0.145519754 -0.7791368439 0.0092135641 -0.0402344983
830295020.0 0.0058473534 -0.0421479599 -0.1540450077 -0.7773747075 -0.153727235 -0.7772107893 0.0093026734 -0.0401689108
