!Created with skrf (http://scikit-rf.org).
# Hz S RI R 50.0 
!freq ReS11 ImS11 ReS21 ImS21 ReS12 ImS12 ReS22 ImS22
300000.0 -0.7775471343 -0.0931916619 -0.0008767376 0.0011193721 -0.0010992108 0.0004619514 -0.0532991702 -0.0587424504
5299970.0 -0.7846577713 -0.0055786918 0.0001233122 0.0001081723 0.000116182 -0.0001846863 -0.0504365566 0.0155617042
10299940.0 -0.7878962065 -0.003720074 -6.32123e-05 -0.0002062969 -3.12226e-05 -0.0001036578 -0.0443680263 0.0337663647
15299910.0 -0.7936081957 -0.0023057342 0.0001016802 5.70323e-05 -7.98734e-05 -0.0001091908 -0.0360568782 0.0480579635
20299880.0 -0.800182396 0.0017561048 -0.0001569534 8.4077e-06 -2.31296e-05 1.35032e-05 -0.0257189713 0.059811111
25299850.0 -0.8065545341 0.0076309553 -0.0001341718 -6.93196e-05 0.0001058591 -0.0001541152 -0.0142862276 0.0691902241
30299820.0 -0.8128370725 0.0150785143 9.76702e-05 -0.0001030593 -0.0001753249 3.85077e-05 -0.0024308932 0.0759317005
35299790.0 -0.8174196741 0.024257635 -2.81843e-05 9.3787e-05 0.0001032578 0.0001456124 0.0090604932 0.0807799059
40299760.0 -0.821230643 0.03364539 6.8297e-05 -0.0001366561 -0.0001297374 -0.0002391691 0.0203726378 0.0829176018
45299730.0 -0.8246737365 0.0425293752 -0.0001106656 -0.0001065325 -6.01693e-05 0.0001692245 0.0313153881 0.0849979184
50299700.0 -0.827141208 0.0526229519 -5.3034e-05 4.25332e-05 -2.83946e-05 9.27904e-05 0.0414679396 0.0844668074
55299670.0 -0.8295573216 0.0630131087 -8.91714e-05 0.0001711126 0.0001658665 -3.71142e-05 0.0508932769 0.083407934
60299640.0 -0.8301701507 0.0732373885 0.0002149024 1.26731e-05 5.51074e-05 3.34343e-05 0.0596451913 0.0815695997
65299610.0 -0.8312451955 0.0835696844 8.86669e-05 0.0001262718 -8.66001e-05 4.53776e-05 0.0672202593 0.0792013774
70299580.0 -0.8320599641 0.0929481611 4.34534e-05 0.0001383715 9.69956e-05 2.78606e-05 0.0743403125 0.0759382664
75299550.0 -0.8315801782 0.1032383825 3.28515e-05 -6.89426e-05 4.13688e-05 0.0001960726 0.0806644103 0.0723614697
80299520.0 -0.8322876152 0.1133637818 9.70831e-05 -0.0001084368 0.0001321522 -7.62731e-05 0.0863360514 0.0689128275
85299490.0 -0.8309957698 0.1221799402 0.0001903974 -3.61015e-05 8.22507e-05 0.0001603504 0.0912058298 0.0651725141
90299460.0 -0.8304070907 0.1318669099 -5.79036e-05 2.23679e-05 -0.0001688696 9.34331e-05 0.0960365573 0.0610059157
95299430.0 -0.8292107586 0.1415775637 1.53308e-05 0.0002440806 9.5774e-05 -0.000120042 0.0998931304 0.0571207
100299400.0 -0.8282716486 0.1511341574 4.71988e-05 -0.00015964 7.41034e-05 -0.0001116511 0.1038080855 0.0530173523
105299370.0 -0.8266972119 0.159904623 8.2845e-05 0.0001424599 8.2231e-06 0.0001635932 0.1072301997 0.0488964665
110299340.0 -0.8255038697 0.1689792777 7.0831e-06 9.32708e-05 0.0002894668 -0.0001496505 0.1099478398 0.044860537
115299310.0 -0.8238869954 0.1787558976 7.14875e-05 5.90609e-05 0.000164745 5.6476e-06 0.1122311233 0.0410058256
120299280.0 -0.8218741458 0.1870342033 6.49551e-05 2.11122e-05 -4.86529e-05 -5.38367e-05 0.1145735294 0.0370949911
125299250.0 -0.8202544716 0.1958727976 5.28515e-05 -6.10283e-05 0.0002077385 6.81837e-05 0.1165425599 0.0329400667
130299220.0 -0.8188964038 0.2052801266 0.0001600979 5.03395e-05 1.28292e-05 3.91849e-05 0.118140591 0.0290361614
135299190.0 -0.816945278 0.214159233 0.0002190479 -2.70146e-05 0.0001853 9.134e-06 0.1199470469 0.025472199
140299160.0 -0.8148673731 0.2226786111 2.8074e-06 0.0002255785 -3.45344e-05 2.71569e-05 0.1211270533 0.0219127519
145299130.0 -0.812984139 0.2321401774 0.0003053378 9.5132e-06 -0.0002076866 -5.24745e-05 0.1217532815 0.0180895981
150299100.0 -0.8102179529 0.2409917528 -0.0001989229 0.0001913635 7.2402e-06 6.25938e-05 0.1227103946 0.0154206037
155299070.0 -0.8079038975 0.249060288 -0.0001390356 0.0002471488 0.0001299685 0.0001457374 0.1237370254 0.0116391823
160299040.0 -0.8056700816 0.2577468151 -0.0001363019 8.92323e-05 -3.76617e-05 6.31547e-05 0.1238331152 0.008347615
165299010.0 -0.8028642044 0.2668828088 -4.3196e-06 8.63606e-05 0.0001028381 4.6301e-05 0.1244596174 0.0047510212
170298980.0 -0.8001984473 0.2753074393 9.84348e-05 0.0002128082 -7.788e-07 5.27161e-05 0.1248654735 0.0014250721
175298950.0 -0.7975538067 0.2839244339 -7.52676e-05 -1.94891e-05 -3.32601e-05 0.0001690261 0.1249765028 -0.0013385175
180298920.0 -0.795399595 0.292564973 0.0001181371 -5.52312e-05 9.1373e-06 -2.14238e-05 0.1252270211 -0.0044214692
185298890.0 -0.791269164 0.300598665 0.000133619 -0.0002021985 4.41501e-05 -2.21444e-05 0.1252119984 -0.0072980321
190298860.0 -0.7887109666 0.3098813824 5.40281e-05 -5.99869e-05 -6.25055e-05 -8.40634e-05 0.1250882536 -0.0099492265
195298830.0 -0.7851881926 0.3175197902 8.0768e-06 -0.0002024339 -8.05679e-05 7.24953e-05 0.1250217032 -0.0128379023
200298800.0 -0.781453402 0.3260532338 -0.0001872853 0.0001698172 -0.0002042446 2.266e-06 0.1245041335 -0.0159855449
205298770.0 -0.7785745382 0.3341129947 0.0001529047 1.2059e-06 6.86651e-05 8.98685e-05 0.1245069266 -0.0186663206
210298740.0 -0.7747315639 0.3423152487 2.20214e-05 0.0001087415 7.2446e-05 0.0001164435 0.1241669922 -0.0212437283
215298710.0 -0.7717958938 0.3511161838 -1.92799e-05 0.00011347 -0.000123467 0.0001097232 0.1235027197 -0.0240576709
220298680.0 -0.7679136043 0.3584352553 5.89063e-05 4.46241e-05 5.14706e-05 -9.17212e-05 0.1227966775 -0.0264198627
225298650.0 -0.764329154 0.366227643 -0.0001100452 6.19059e-05 5.84529e-05 6.7396e-06 0.1221831533 -0.0290327776
230298620.0 -0.7600870773 0.3745608712 0.0002726801 0.0002360877 0.000157892 7.82079e-05 0.1217348015 -0.0313298329
235298590.0 -0.7564479615 0.3833467397 6.37833e-05 -1.19135e-05 -5.45761e-05 -0.0001391384 0.1212798279 -0.0338760993
240298560.0 -0.7527827832 0.3906569143 4.5959e-06 0.0001940133 8.77168e-05 -7.31546e-05 0.1205138946 -0.0361069678
245298530.0 -0.7485439647 0.3988221734 0.0001517738 8.906e-06 7.1055e-06 0.0002354791 0.1200300794 -0.038807265
250298500.0 -0.7443171947 0.4068303816 -6.544e-05 -0.0001073981 -7.11555e-05 0.0002785035 0.1188313168 -0.0409405043
255298470.0 -0.7400671315 0.4134498015 3.11146e-05 9.77751e-05 0.0001198157 0.00016806 0.1182993163 -0.0434182845
260298440.0 -0.7358132562 0.4209804676 6.47073e-05 0.0003329655 0.0001000678 0.0001987489 0.1174333627 -0.0451879182
265298410.0 -0.7315575788 0.4295710974 0.0001000755 -8.17947e-05 0.0002817161 0.0001254274 0.1169778372 -0.0473186736
270298380.0 -0.7271147496 0.437298142 0.0002150848 0.0001317368 6.50449e-05 -0.0001115876 0.1158204198 -0.0490253563
275298350.0 -0.7222705987 0.4445091857 6.06235e-05 6.96293e-05 0.0002791452 -3.35964e-05 0.1149781623 -0.0512117563
280298320.0 -0.7170277585 0.452060343 -1.391e-05 -4.64748e-05 -0.0001337342 5.13991e-05 0.1140641218 -0.0534003759
285298290.0 -0.7129072472 0.4596503569 0.0001397443 -2.35047e-05 7.00497e-05 6.3834e-06 0.1134643833 -0.0551826502
290298260.0 -0.7079771071 0.4673406944 -0.0001574084 4.97244e-05 -4.95299e-05 0.0001179626 0.1124419371 -0.0568248909
295298230.0 -0.7023519912 0.4743562395 3.66765e-05 -6.45471e-05 9.07088e-05 -0.0001575692 0.1114607982 -0.0592783908
300298200.0 -0.6980709899 0.4816455983 7.27158e-05 3.4682e-06 -0.0001141205 0.0001078259 0.1105033034 -0.0609142357
305298170.0 -0.693262713 0.4878730916 0.0001728929 4.21553e-05 7.56546e-05 -5.6461e-06 0.109692727 -0.0632200394
310298140.0 -0.6880430404 0.4963484341 0.0001584172 0.0001668991 0.000133918 -0.000104717 0.1080288738 -0.0652232696
315298110.0 -0.6831382509 0.5030479285 0.0001268444 6.48874e-05 4.01368e-05 -2.54999e-05 0.1068454822 -0.0671614691
320298080.0 -0.6778052291 0.5099938681 -4.96368e-05 7.31799e-05 -0.00012368 -0.000152242 0.1058796669 -0.0690538148
325298050.0 -0.6723398717 0.51770104 -3.85576e-05 0.0001813151 4.35623e-05 -2.862e-06 0.1039883557 -0.0709104213
330298020.0 -0.6667341535 0.5238605425 3.82151e-05 0.0001465038 0.0002349599 0.000176267 0.1023234962 -0.0725494769
335297990.0 -0.6609537689 0.530685565 -0.0002013697 1.72849e-05 6.97146e-05 0.0002526731 0.1013490018 -0.0732722832
340297960.0 -0.656099696 0.537657167 4.40805e-05 6.50929e-05 0.0002148473 -5.21615e-05 0.1003513296 -0.0750664108
345297930.0 -0.6505050979 0.5442595679 -2.96598e-05 5.70949e-05 0.0001402693 -4.76599e-05 0.0981729238 -0.0767214862
350297900.0 -0.6446060582 0.5508303421 2.42622e-05 7.06315e-05 0.0001871926 0.0001165729 0.097030909 -0.077541576
355297870.0 -0.6385578255 0.5577164778 -1.48517e-05 -0.0001304521 0.0001632272 3.69087e-05 0.0955268018 -0.0790205248
360297840.0 -0.6329462715 0.5637472893 0.0002257112 0.0002573177 -1.7324e-05 0.0002042509 0.094202602 -0.0804083128
365297810.0 -0.6276431543 0.5704955429 8.20228e-05 0.0001531757 9.61302e-05 1.62118e-05 0.092773808 -0.0822051909
370297780.0 -0.6213802034 0.5769504343 -0.0001663836 5.78577e-05 4.01284e-05 -1.82086e-05 0.0919890531 -0.0830315821
375297750.0 -0.6151646445 0.582845448 0.0001135226 0.0002147705 6.94626e-05 -4.5738e-06 0.0899908177 -0.0845904149
380297720.0 -0.6090115574 0.5889999292 0.0002118437 -7.1829e-05 0.0003164491 9.56728e-05 0.088299905 -0.0858519063
385297690.0 -0.6039602245 0.5953516105 0.0002526757 0.0001428334 0.0001339672 0.0001355603 0.0871647045 -0.0870780266
390297660.0 -0.5969386547 0.6008388358 -2.70066e-05 -7.083e-07 0.0002609689 -0.0001476215 0.0854313917 -0.0881393793
395297630.0 -0.5904414277 0.6076317045 0.0001631833 -8.04084e-05 6.20423e-05 5.20679e-05 0.0844939551 -0.0893267287
400297600.0 -0.5841058863 0.6135637985 7.35983e-05 -6.77199e-05 2.49238e-05 -4.6203e-06 0.0832705502 -0.0904744442
405297570.0 -0.5781981486 0.61906758 0.000187182 -6.6666e-05 7.95295e-05 0.0001804397 0.0811962065 -0.0918854091
410297540.0 -0.571555987 0.6246883489 0.0003989661 -2.32575e-05 0.0001022559 0.0001484514 0.080355158 -0.0927504872
415297510.0 -0.5651566317 0.6309080243 0.0001586154 0.0001229086 -0.0001994054 0.0002717268 0.0786044797 -0.0940546662
420297480.0 -0.5589170934 0.6369932384 0.0002271028 0.0001589381 0.000139799 0.0002214469 0.077017722 -0.0951445154
425297450.0 -0.5520644011 0.6419944404 -1.98111e-05 -7.68418e-05 4.41719e-05 0.0001872411 0.0757452611 -0.0959988767
430297420.0 -0.5454347431 0.648143591 0.0001490636 -2.76867e-05 8.68043e-05 0.0002711621 0.0737152241 -0.0972788032
435297390.0 -0.5388747059 0.652783713 4.41657e-05 -9.17991e-05 0.0001301703 -8.6257e-05 0.0724433292 -0.0985077373
440297360.0 -0.5320259611 0.6587468478 0.0001572461 -0.0001149595 0.0003191121 -5.2634e-06 0.0711030189 -0.0991129246
445297330.0 -0.5252296626 0.6641928711 7.0712e-05 0.000131868 0.0001190352 -0.0001759715 0.0695737711 -0.1003022208
450297300.0 -0.5181548777 0.6687962657 0.0001195705 -0.0002050089 0.0001424659 -2.88116e-05 0.0678920186 -0.100963166
455297270.0 -0.5117269878 0.6744416849 9.78664e-05 -6.94767e-05 -0.000100257 -9.39077e-05 0.0664617817 -0.101650211
460297240.0 -0.50544416 0.6795744012 0.0003497126 0.0002494792 3.9657e-05 6.38685e-05 0.0648393498 -0.1025992766
465297210.0 -0.4983578424 0.685111641 0.0001087384 1.86325e-05 9.1665e-05 6.56669e-05 0.0631157911 -0.1034180194
470297180.0 -0.4904267612 0.6892340764 0.0001670447 -3.45562e-05 0.0002880686 -9.15514e-05 0.0619030103 -0.104300213
475297150.0 -0.484101611 0.6941053971 0.0002867524 -1.92373e-05 -6.94217e-05 -1.85623e-05 0.0601225455 -0.1051221765
480297120.0 -0.4770819657 0.6998799174 0.0001392472 -6.14745e-05 0.0001180146 1.87036e-05 0.0588784156 -0.1056180047
485297090.0 -0.4698932054 0.7040091054 0.0002414915 0.0001924152 0.0003249236 3.6926e-05 0.0572098869 -0.1062634831
490297060.0 -0.4627368721 0.7087109801 -1.26642e-05 0.0001132269 6.07906e-05 4.40822e-05 0.0551653513 -0.107089679
495297030.0 -0.4553547183 0.7131163701 6.85346e-05 6.59669e-05 0.0001460558 2.01273e-05 0.0534425136 -0.1076966777
500297000.0 -0.4477643028 0.718137042 6.89599e-05 3.5634e-05 7.2183e-05 0.0001039576 0.0520337123 -0.1083063755
505296970.0 -0.4402461494 0.7227606287 -0.0001637434 -5.31906e-05 0.0001294542 5.831e-05 0.0505545745 -0.1090414162
510296940.0 -0.4330629879 0.7264975942 0.0002491623 8.87844e-05 6.45986e-05 3.56256e-05 0.0487190168 -0.1096446157
515296910.0 -0.4253807527 0.7308779373 -9.57976e-05 -4.88447e-05 0.0001595005 -0.0001670139 0.0473629944 -0.1104291474
520296880.0 -0.4189871711 0.7350399214 0.0002556057 -0.000164986 -0.0001333459 5.17912e-05 0.0454087722 -0.1107980088
525296850.0 -0.4100747055 0.738991841 0.0001754397 4.30332e-05 4.99977e-05 0.0001528299 0.0442270486 -0.1109735711
530296820.0 -0.4029801436 0.7428043535 6.73991e-05 -4.5826e-05 -0.0001196309 9.29389e-05 0.0423993196 -0.1115953574
535296790.0 -0.3959414821 0.7466573607 0.0001577127 -8.95293e-05 -1.02093e-05 -7.02709e-05 0.040184787 -0.1123876744
540296760.0 -0.3883736476 0.7505419321 -0.0002617096 0.000253288 0.0001202859 8.00514e-05 0.0388260463 -0.1127194916
545296730.0 -0.3814336669 0.7549238018 0.0002697968 -2.94889e-05 0.0001352732 -3.87743e-05 0.0370299688 -0.1131277329
550296700.0 -0.3736894411 0.758791438 8.04899e-05 4.99245e-05 0.0001455947 0.0001068286 0.0353059956 -0.1136444036
555296670.0 -0.3656244497 0.7617645224 0.0001505314 -0.0001096073 7.07986e-05 -0.0001790841 0.0337678497 -0.1136752632
560296640.0 -0.3575623482 0.7656038834 0.0001874751 -5.01738e-05 0.0002488271 -0.0001026312 0.0320186633 -0.1142491765
565296610.0 -0.3502131616 0.7695865593 0.0002167061 0.0001593171 0.0001010462 0.0001872618 0.0302333757 -0.1148011548
570296580.0 -0.3424628498 0.7719760123 0.000460487 -5.15114e-05 -2.61995e-05 -7.10645e-05 0.0286021755 -0.1147619516
575296550.0 -0.3345409512 0.7769533576 0.0001616546 -0.0001166802 -2.15623e-05 -0.000171811 0.0270989798 -0.1149660089
580296520.0 -0.3263412552 0.779382261 0.0002048973 -1.5192e-06 0.0002174634 -7.7972e-06 0.0253022478 -0.1154870316
585296490.0 -0.3192678229 0.7824861271 9.80599e-05 -0.0002271502 9.41096e-05 -0.0002149137 0.0238570813 -0.115863468
590296460.0 -0.3114557108 0.7855998787 0.0003063552 5.64846e-05 0.0001188009 9.03546e-05 0.0214684164 -0.1156994974
595296430.0 -0.3035316675 0.7882485666 -7.57823e-05 -0.0003689359 0.0001270586 0.0001120437 0.0200896722 -0.1161465655
600296400.0 -0.2951442185 0.7917943788 0.0001956065 7.195e-07 1.20573e-05 -0.0001103274 0.0188246984 -0.1162967464
605296370.0 -0.2877637285 0.794701401 0.0002481771 0.0002165371 0.000165 0.0001445382 0.0173216328 -0.1163157044
610296340.0 -0.279498323 0.7971959665 0.0003068343 -9.83843e-05 -0.0001007973 -1.52452e-05 0.0152929721 -0.1165107681
615296310.0 -0.270575396 0.8004499257 0.0001115946 0.0001448109 7.31205e-05 -0.0001683967 0.0137451611 -0.116386102
620296280.0 -0.2635208698 0.8025391712 0.0001527287 -2.63502e-05 0.0001631418 -0.0001329857 0.0118272944 -0.1165535164
625296250.0 -0.2554638846 0.8053303091 0.0001408889 -2.1418e-06 -2.04457e-05 6.1354e-06 0.0105680539 -0.1167731651
630296220.0 -0.2466969685 0.8076484016 0.0002363524 1.28149e-05 -1.81419e-05 -1.85878e-05 0.0085457806 -0.1164022716
635296190.0 -0.2392504468 0.8107060704 0.0002777292 1.2365e-05 0.0002820274 0.0001373191 0.0071796342 -0.1167518602
640296160.0 -0.2310223581 0.8120451091 -5.70163e-05 -0.0001155251 0.0001186199 2.99998e-05 0.0052413431 -0.1168997439
645296130.0 -0.2228183409 0.8150300242 6.8578e-05 -9.27854e-05 0.0002763216 9.52721e-05 0.0036562991 -0.1164584962
650296100.0 -0.2146020214 0.8170326184 0.0003052053 -0.0001263372 0.0001515266 8.08391e-05 0.0021018096 -0.1167335753
655296070.0 -0.206577263 0.8191236296 0.0003312902 -0.0001479808 0.0002005163 1.35888e-05 0.000281224 -0.116329135
660296040.0 -0.198532094 0.8204927199 0.0001307896 -0.0001463087 1.8577e-05 -0.0001323033 -0.0008289886 -0.1162854113
665296010.0 -0.1897436422 0.8225115306 0.0001788432 8.45771e-05 -2.63331e-05 8.2998e-05 -0.0030528434 -0.1157395483
670295980.0 -0.182458763 0.8244046156 5.13184e-05 -8.38097e-05 0.0001272894 -0.0001569254 -0.0047763626 -0.1158824756
675295950.0 -0.1738880416 0.8263807426 0.0002448544 2.53719e-05 0.0002383152 4.22734e-05 -0.0062849667 -0.1153383589
680295920.0 -0.1654356408 0.8280947624 0.0003107868 5.97472e-05 0.0001206402 -1.3601e-06 -0.0077228639 -0.1151467485
685295890.0 -0.1567104996 0.8303671601 4.25778e-05 -0.0001355786 0.0001930575 -6.43927e-05 -0.0096556852 -0.1151054931
690295860.0 -0.148852457 0.8308216251 -2.92734e-05 5.02889e-05 1.73047e-05 -0.0001041135 -0.011409281 -0.1142816157
695295830.0 -0.1412228184 0.8321646817 0.0001545078 9.82009e-05 0.0002472818 2.78675e-05 -0.0130434119 -0.1143290089
700295800.0 -0.1318850501 0.8342121528 0.000289895 -6.1539e-05 2.09902e-05 -0.0001580637 -0.0148440931 -0.1140143727
705295770.0 -0.123939385 0.8357617816 9.04699e-05 -0.0001230403 0.0001469141 -6.66547e-05 -0.0164908444 -0.1133925339
710295740.0 -0.116016951 0.8364098496 0.000107456 -0.0002648672 0.0001016617 -8.48983e-05 -0.0185071038 -0.1135205938
715295710.0 -0.1077347869 0.8374153344 -1.27619e-05 -1.0371e-05 5.07151e-05 0.0001150795 -0.0197358898 -0.1131085102
720295680.0 -0.0995951488 0.8383996039 0.000145116 -2.5401e-06 0.0001774995 7.1487e-06 -0.021278186 -0.1123716472
725295650.0 -0.0911560473 0.8396542801 0.0003962662 1.89382e-05 -7.35597e-05 -0.0001801006 -0.0232353685 -0.1119131912
730295620.0 -0.0824543193 0.8403862897 0.0003838312 0.0002327124 0.0002732947 0.0001196341 -0.0250024033 -0.1117111728
735295590.0 -0.0752671255 0.841338743 0.00014767 0.000155371 6.19617e-05 4.46995e-05 -0.026464376 -0.1116564691
740295560.0 -0.0660359011 0.8428089009 0.0001254459 0.0002054988 0.000382156 -0.0002088247 -0.0276858364 -0.1106607662
745295530.0 -0.0575900639 0.8429703648 0.0002001039 -0.0001023184 0.0001781389 -0.0001489506 -0.0294298461 -0.1102322463
750295500.0 -0.0488563098 0.8430333893 8.14274e-05 0.0001465628 0.0001648921 -0.0001521568 -0.0309430071 -0.1097078773
755295470.0 -0.0413426268 0.8432467556 9.11907e-05 -0.000100662 0.0003233604 -5.84573e-05 -0.0326319214 -0.1098734426
760295440.0 -0.0331200025 0.843473633 0.000284213 9.76208e-05 3.86898e-05 6.40183e-05 -0.0341129876 -0.1089265203
765295410.0 -0.0245131064 0.8439301619 9.14324e-05 -0.0001322251 5.46997e-05 8.76331e-05 -0.0355536188 -0.1083810747
770295380.0 -0.0163045715 0.8444783935 -8.45082e-05 -0.0001483641 4.07836e-05 -6.48638e-05 -0.0375164283 -0.1078974026
775295350.0 -0.0080997453 0.8444167246 0.0001386609 -0.000123848 -0.0001343426 -9.29434e-05 -0.0392156151 -0.1067672861
780295320.0 0.0006050058 0.8443820761 0.0001853356 -0.0001118486 0.0001007037 9.53791e-05 -0.0403504397 -0.1061988508
785295290.0 0.0088256508 0.8434991162 0.0003239023 0.0001711 0.0001283294 0.000167569 -0.0417545178 -0.1054757274
790295260.0 0.0171853677 0.8441994524 0.0002260583 -0.000134775 6.5422e-06 3.8813e-05 -0.0428426529 -0.1049510474
795295230.0 0.0258490277 0.843694015 0.0002633802 -0.0001370622 0.0002730679 0.0002866259 -0.0447003859 -0.1042311536
800295200.0 0.0336047165 0.8433777715 0.0001976938 -0.0001146058 0.0001146197 -0.0001597536 -0.0460837294 -0.1032771484
805295170.0 0.0426023435 0.8430315209 0.000144088 -0.00012421 0.0001443906 -6.05792e-05 -0.0478102463 -0.1022973099
810295140.0 0.0506001254 0.8427726279 0.0001631201 0.0001501508 7.39651e-05 -0.0001063026 -0.0489313634 -0.1021326719
815295110.0 0.0589820991 0.842078668 6.90421e-05 2.25394e-05 2.77956e-05 -0.0001075678 -0.0505461034 -0.1009065263
820295080.0 0.0670357541 0.8414968517 -2.72781e-05 0.0001470334 6.73275e-05 -7.94445e-05 -0.0518329981 -0.1001896667
825295050.0 0.0762538462 0.8404501531 9.27459e-05 -0.0002271548 8.52767e-05 -0.0002492959 -0.0534123032 -0.0993457259
830295020.0 0.0836849384 0.8399617362 0.0001481593 -0.0002824229 0.0001999422 -8.41255e-05 -0.0546480035 -0.0985772411
835294990.0 0.0919687546 0.8391056521 0.0001741284 9.10829e-05 0.0001895811 -0.0001411017 -0.0564382492 -0.0975497761
840294960.0 0.0997686295 0.8385659358 0.000337453 0.0001608291 0.0002222643 -9.26826e-05 -0.0578950648 -0.0963629306
845294930.0 0.1083675715 0.8375037856 4.02538e-05 -0.00023737 0.0001650373 -0.0001582087 -0.0594735036 -0.0955836855
850294900.0 0.1164141359 0.8367175784 0.0002033112 0.0001829808 0.0001325791 -0.0002716069 -0.0607711841 -0.0946976425
