!Created with skrf (http://scikit-rf.org).
# Hz S RI R 50.0 
!freq ReS11 ImS11 ReS21 ImS21 ReS12 ImS12 ReS22 ImS22
300000.0 -0.3195999388 -0.1107304116 0.373009541 0.0572931908 0.3763492145 0.0594746122 -0.3190746335 -0.1189156508
5299970.0 -0.3237685752 0.0046681093 0.3785885095 0.002773195 0.3785649329 0.0032127852 -0.3261140453 0.0023738943
10299940.0 -0.3209861667 0.0155896599 0.3798993088 0.0022888372 0.3797526418 0.0024934306 -0.3238487403 0.0126709892
15299910.0 -0.3180711073 0.0235148639 0.3820161357 0.0022328372 0.3820274984 0.002328674 -0.3211549108 0.019683349
20299880.0 -0.3141029113 0.0302409201 0.3847987568 0.0016349729 0.3852447618 0.0017969996 -0.3185224075 0.0261023601
25299850.0 -0.3104831366 0.0358521522 0.3880425507 -0.0002780412 0.3885559078 5.56195e-05 -0.3156775525 0.0310647224
30299820.0 -0.3066457812 0.0405812487 0.3920302966 -0.0022372741 0.3917551588 -0.0023593908 -0.3129048193 0.0355938577
35299790.0 -0.3028983258 0.0448317986 0.3950428272 -0.0051146185 0.3952146024 -0.005238461 -0.3095301819 0.0394418785
40299760.0 -0.2994864082 0.0478621917 0.3982588641 -0.0083462127 0.398124915 -0.0087680645 -0.3071032158 0.0433002534
45299730.0 -0.2961244879 0.0515224858 0.4010793374 -0.0130751053 0.4009586914 -0.0126861503 -0.3045573166 0.0460391353
50299700.0 -0.293141896 0.0540819621 0.4034604749 -0.0174597322 0.4037851184 -0.0174918297 -0.3020317483 0.0493860524
55299670.0 -0.2907647212 0.0567208227 0.4053571058 -0.0218377284 0.4058955836 -0.02203555 -0.3001947153 0.0521169645
60299640.0 -0.2878991591 0.0592168516 0.4074427597 -0.0272377719 0.4079509481 -0.0270077114 -0.2979410206 0.0546860067
65299610.0 -0.2859295362 0.0618116958 0.4094067795 -0.031735658 0.4093548927 -0.031978258 -0.2959746811 0.0572490225
70299580.0 -0.2836429251 0.0635941466 0.410608614 -0.0367516697 0.4105679298 -0.0370571293 -0.2945284975 0.0598739154
75299550.0 -0.2817203259 0.065971282 0.4115012024 -0.0419623309 0.4116723661 -0.0423449245 -0.2929944114 0.0618905451
80299520.0 -0.2800608428 0.0678899644 0.4127261521 -0.0473779069 0.4125436491 -0.0474690397 -0.2913412787 0.0640160267
85299490.0 -0.2786264566 0.0698479239 0.4133796875 -0.0527460086 0.4130141527 -0.0529431184 -0.2902495515 0.066732675
90299460.0 -0.2768071028 0.0723863572 0.4135024187 -0.0576987033 0.4135688279 -0.057987043 -0.2887250254 0.0691724803
95299430.0 -0.2755803988 0.0744020299 0.4139475076 -0.063388187 0.4139139392 -0.0631374568 -0.2876773209 0.0713739283
100299400.0 -0.2745027919 0.0766060811 0.4136471667 -0.0685568345 0.4136851818 -0.0685305898 -0.2865689243 0.0734943656
105299370.0 -0.2727367034 0.0784418408 0.4136806543 -0.0733151721 0.4135711406 -0.0734414943 -0.284869954 0.075484077
110299340.0 -0.2721134014 0.080503475 0.4133809037 -0.0787103071 0.4132038446 -0.079086085 -0.2844318327 0.0783490066
115299310.0 -0.270663213 0.0824174901 0.4130877963 -0.0833681789 0.4133545555 -0.0836237323 -0.2833636188 0.0801204124
120299280.0 -0.2699151369 0.0845985161 0.4129837688 -0.088872005 0.4129975456 -0.0888280538 -0.2824674711 0.0826233452
125299250.0 -0.2689583032 0.086585692 0.4125310181 -0.093683203 0.4125509287 -0.0942429202 -0.2814580658 0.0847878962
130299220.0 -0.2678360962 0.0890126388 0.4117686318 -0.098515984 0.411512867 -0.0991123001 -0.2804881479 0.0874594364
135299190.0 -0.2666872086 0.0909704858 0.4108278495 -0.1038598972 0.4104475627 -0.103941411 -0.2800282602 0.0895719319
140299160.0 -0.2657557778 0.0935156403 0.4102062196 -0.1091080442 0.4100273377 -0.1090668611 -0.2788684894 0.0923722065
145299130.0 -0.2648990671 0.0958627353 0.4096775471 -0.1136690458 0.4091818819 -0.113772496 -0.2779327316 0.0942200287
150299100.0 -0.263880718 0.0984358563 0.4083727772 -0.1193014969 0.4081987358 -0.1188679315 -0.2770565512 0.0969145895
155299070.0 -0.2630139826 0.1009830591 0.4068124192 -0.1242122479 0.4071528506 -0.1240758971 -0.2763553366 0.0995533129
160299040.0 -0.261996542 0.1031332052 0.4056988896 -0.1282825697 0.4059107091 -0.1288713243 -0.2752743031 0.1020530902
165299010.0 -0.2610018813 0.1054260518 0.4046009776 -0.1338676393 0.4047092499 -0.1336578355 -0.2742173559 0.1043562192
170298980.0 -0.2600073307 0.1077941142 0.4028342887 -0.1384368592 0.4033239512 -0.1382996921 -0.273245903 0.107125033
175298950.0 -0.2588142062 0.1105287649 0.4023148606 -0.1431025896 0.4021324609 -0.1430792605 -0.2724429689 0.1096795141
180298920.0 -0.2578851636 0.1126355724 0.4002811466 -0.1479016242 0.4005922144 -0.1480026569 -0.2710925726 0.1122532341
185298890.0 -0.2568590799 0.1154872439 0.3986872911 -0.1527799302 0.398884529 -0.152301876 -0.2703576473 0.1148115984
190298860.0 -0.2555686674 0.1176172385 0.3971956885 -0.1575054631 0.3976123243 -0.1575364418 -0.2688832682 0.1173285062
195298830.0 -0.2543190644 0.1200251424 0.3955940018 -0.1618333737 0.3957368933 -0.1620840323 -0.2682868442 0.1199629915
200298800.0 -0.2535733747 0.1228862649 0.3940908295 -0.1661980968 0.3938449123 -0.1665047378 -0.2664743305 0.1228202864
205298770.0 -0.2527888338 0.1254923722 0.3924828575 -0.1706136354 0.3920999482 -0.1710364906 -0.2657230029 0.1249498222
210298740.0 -0.251521755 0.1277620783 0.3908515492 -0.1757311418 0.3905301667 -0.1757907035 -0.2644732968 0.128327637
215298710.0 -0.2504083579 0.1304651392 0.3885442409 -0.1802543272 0.3884485904 -0.1800028064 -0.2638522533 0.1306838976
220298680.0 -0.2493637407 0.1329514245 0.3865755993 -0.184589212 0.3867080983 -0.1847149833 -0.2619695072 0.1335368482
225298650.0 -0.2476384008 0.1354375577 0.384300794 -0.1886816778 0.3845804762 -0.1889232724 -0.2611875612 0.1361993634
230298620.0 -0.2467531735 0.1381165937 0.3824680136 -0.1936324481 0.382730702 -0.1935738367 -0.25948675 0.1386179837
235298590.0 -0.2452748753 0.1406494973 0.3803639304 -0.1978133766 0.3804174399 -0.1981362563 -0.2583309614 0.1412130097
240298560.0 -0.2443260429 0.1433420657 0.37841082 -0.201832133 0.378673624 -0.2019224884 -0.2571347557 0.1440293266
245298530.0 -0.2424498011 0.1457054573 0.3752997047 -0.2065912213 0.3760312413 -0.206787359 -0.2556131803 0.1468538637
250298500.0 -0.2415992652 0.1480888244 0.3735407684 -0.2103546013 0.3738662385 -0.2104497339 -0.2539431105 0.149678334
255298470.0 -0.2401133434 0.1508691827 0.3714080087 -0.2152514804 0.3716663127 -0.214922669 -0.2525543119 0.1520406216
260298440.0 -0.2386705333 0.153723303 0.3693090045 -0.2192490034 0.3687991923 -0.2195300002 -0.2507908425 0.1550320428
265298410.0 -0.2372615136 0.156256373 0.3664612845 -0.2234912329 0.3664558128 -0.2234626591 -0.2495124851 0.1576910027
270298380.0 -0.2355943838 0.1585123749 0.3638610591 -0.227408174 0.3642178818 -0.2277114822 -0.2478926249 0.1603124468
275298350.0 -0.2341317852 0.1612954711 0.3616095359 -0.231980773 0.3618779553 -0.2320031562 -0.2463707743 0.162859424
280298320.0 -0.2325985783 0.1638874795 0.3590875644 -0.2355071717 0.3587602757 -0.236020973 -0.2445991169 0.165683399
285298290.0 -0.2307174529 0.1664252891 0.3561292876 -0.2396169677 0.3563154714 -0.2397536955 -0.2429821061 0.168410167
290298260.0 -0.22919607 0.169040746 0.3540557548 -0.2438729522 0.3539168629 -0.2438641393 -0.2408728229 0.1714723255
295298230.0 -0.2276966896 0.1712019079 0.351294305 -0.2478813089 0.3510730146 -0.2478224372 -0.2393495994 0.1735971783
300298200.0 -0.2256870892 0.173560578 0.3485029782 -0.251861862 0.3485461424 -0.2520359946 -0.2377314836 0.1765772301
305298170.0 -0.2235655823 0.1761171552 0.3457813974 -0.2559624331 0.3459027401 -0.2560885122 -0.2356138711 0.1795326093
310298140.0 -0.2220778074 0.178418257 0.3429297893 -0.2600081585 0.3428012316 -0.2601109538 -0.2339243575 0.1818849959
315298110.0 -0.2205490142 0.180853002 0.3399152056 -0.2637812656 0.3400064216 -0.2640819417 -0.2315320746 0.1842613494
320298080.0 -0.2187647329 0.1834670261 0.3370038504 -0.2680132198 0.3370336041 -0.2674945341 -0.2297773345 0.1868008182
325298050.0 -0.2170469837 0.1854057109 0.3345578231 -0.2714248031 0.3342652216 -0.2716742859 -0.2281439259 0.1894812631
330298020.0 -0.2151249841 0.1882552021 0.3307481205 -0.275620447 0.3307734907 -0.2753138592 -0.2264685223 0.1918497056
335297990.0 -0.2133617647 0.1903222705 0.3278118075 -0.279295527 0.3274488984 -0.2788993808 -0.224738454 0.1942383891
340297960.0 -0.2120406358 0.1928316529 0.3246438624 -0.2825417216 0.3245997379 -0.2825861939 -0.2225229534 0.1972447225
345297930.0 -0.2101604791 0.1951047785 0.321305728 -0.2859634218 0.3209119923 -0.2858526971 -0.2205624739 0.1992878866
350297900.0 -0.2074295799 0.1975501593 0.3176641024 -0.2892880012 0.318362611 -0.2898595006 -0.2186555116 0.2024499162
355297870.0 -0.2060684282 0.199810606 0.3146941861 -0.2931377268 0.3146165711 -0.2933313487 -0.2167041987 0.2048731959
360297840.0 -0.2038001404 0.2022626351 0.3114850669 -0.2969399682 0.3113516688 -0.296780507 -0.2145567094 0.2073896715
365297810.0 -0.2017061876 0.2045674296 0.3080846261 -0.3001434201 0.3079182297 -0.3001496128 -0.2121851519 0.2102511628
370297780.0 -0.1997466233 0.2066595572 0.3046068165 -0.3032908846 0.30481366 -0.3036254828 -0.2102761217 0.2123274657
375297750.0 -0.1976582318 0.2095662584 0.3019636922 -0.3069279886 0.3013950519 -0.3069162413 -0.2080643378 0.2147169955
380297720.0 -0.1953566001 0.2110559253 0.2978458231 -0.3096146952 0.2980152817 -0.3101696681 -0.2057841588 0.2177190432
385297690.0 -0.1929641671 0.2135700548 0.2945787059 -0.3130061854 0.2945387671 -0.3133484559 -0.2034080596 0.2199303444
390297660.0 -0.1909532652 0.2160163797 0.291081428 -0.3165270884 0.2909994232 -0.3168319519 -0.2010542109 0.2220090734
395297630.0 -0.1886045209 0.2181558336 0.2878228938 -0.3196737974 0.2875121663 -0.3197058329 -0.1990630492 0.2248017649
400297600.0 -0.1865434494 0.2203105458 0.2839125738 -0.323069308 0.2841374537 -0.3229016428 -0.1972005138 0.226648058
405297570.0 -0.1843553474 0.2224546155 0.2805068573 -0.3259770649 0.2805099365 -0.3262592441 -0.1949487212 0.2296880139
410297540.0 -0.1818234961 0.2244667281 0.2763193685 -0.3287007633 0.2763901242 -0.3289649564 -0.1920790973 0.2315442902
415297510.0 -0.1793367853 0.2266114738 0.2728758069 -0.3318636158 0.2732770376 -0.3320191736 -0.1900664833 0.2341774573
420297480.0 -0.1770500323 0.2284506241 0.2689935966 -0.3351734214 0.2694639024 -0.3349490934 -0.1873979709 0.2357960702
425297450.0 -0.1747135511 0.2307594135 0.2654788369 -0.3380065851 0.2659353001 -0.3377408254 -0.1847685146 0.2384412929
430297420.0 -0.172527368 0.2327434325 0.2618808278 -0.341120335 0.2619582383 -0.3407665038 -0.1825281264 0.2401292214
435297390.0 -0.1697877131 0.2347717787 0.2581781713 -0.3435037465 0.258189606 -0.3432796964 -0.1800707205 0.2427061585
440297360.0 -0.1675280103 0.2365913752 0.2541926231 -0.3459391593 0.2539493228 -0.3461440113 -0.1776972596 0.2443341317
445297330.0 -0.1647623564 0.2385239273 0.2501987919 -0.3491536977 0.2502678131 -0.3491830043 -0.1753282557 0.2465284234
450297300.0 -0.1626026539 0.2403198518 0.246617287 -0.351512878 0.2467083787 -0.3516859467 -0.172863184 0.2485892286
455297270.0 -0.1598230527 0.2422271759 0.2429281995 -0.3547135388 0.243045985 -0.3542167892 -0.1701228372 0.2506403979
460297240.0 -0.1576768565 0.2440763676 0.2389237701 -0.3568073953 0.2382894597 -0.3574451423 -0.1675031127 0.2531851127
465297210.0 -0.1543288177 0.245752287 0.2344544368 -0.3597397017 0.2351141266 -0.3596087138 -0.1653901246 0.2546554909
470297180.0 -0.1520898888 0.2478241501 0.2310457155 -0.3618191293 0.2311352657 -0.3621697855 -0.1629036196 0.2570385888
475297150.0 -0.1497987253 0.2497168738 0.2267850616 -0.3645406664 0.2270104065 -0.364107375 -0.1594875593 0.2585367058
480297120.0 -0.1469372759 0.2505912619 0.2227979762 -0.3665342603 0.2229943831 -0.3668576428 -0.1572214108 0.260655529
485297090.0 -0.1439754327 0.2525406285 0.218738418 -0.369176001 0.2190961596 -0.3692885511 -0.1547783527 0.2620013638
490297060.0 -0.1413612859 0.2542291904 0.2147556348 -0.3717540855 0.2147639916 -0.3715039579 -0.1518831986 0.2639464218
495297030.0 -0.1391620747 0.2561940182 0.2104916433 -0.3741511005 0.2104663382 -0.3736412073 -0.1492922739 0.2654567463
500297000.0 -0.1359543497 0.2575511258 0.206230945 -0.3761500473 0.2066596059 -0.3763757581 -0.1465351219 0.2677071375
505296970.0 -0.1337018382 0.259270072 0.2021214672 -0.3780056468 0.2023136706 -0.3783134631 -0.1440510451 0.2695401716
510296940.0 -0.130878845 0.2609874651 0.1983124229 -0.3804309188 0.1984185111 -0.3806000325 -0.1408659694 0.2713243617
515296910.0 -0.1283885157 0.2624514476 0.1940706169 -0.3825254337 0.1941404074 -0.3824464076 -0.1380803002 0.2730039478
520296880.0 -0.1251562721 0.2639345228 0.1896252929 -0.3844881709 0.1898654205 -0.3840965166 -0.1350783922 0.2741822456
525296850.0 -0.1228264582 0.2655303003 0.185659605 -0.3865087978 0.1856970284 -0.386951254 -0.1322887103 0.2759214775
530296820.0 -0.119844449 0.2666159333 0.1815494766 -0.3879376479 0.1814145777 -0.3881894036 -0.1300017542 0.2772162527
535296790.0 -0.1168220241 0.2679962289 0.176811684 -0.3901148417 0.1771785306 -0.3900997337 -0.126916771 0.2789025622
540296760.0 -0.1140879564 0.2691334797 0.1727721647 -0.3922732793 0.1728982244 -0.3925797008 -0.1240406334 0.2807151434
545296730.0 -0.1116743425 0.2708328497 0.1687816396 -0.3940296765 0.1687285239 -0.394326741 -0.1212515464 0.2816526796
550296700.0 -0.1085739276 0.2719385872 0.1640082386 -0.3957942937 0.1647168913 -0.3959606492 -0.1183926482 0.2833522685
555296670.0 -0.1051684604 0.2735388976 0.1599449571 -0.3976061821 0.1602749963 -0.3975129877 -0.1156843582 0.2847178996
560296640.0 -0.1028203468 0.2747007089 0.1557058969 -0.3991925919 0.1558062553 -0.3990969236 -0.1122768338 0.2862096191
565296610.0 -0.1001553437 0.2758556885 0.1513437914 -0.4010013962 0.1512862436 -0.4008832749 -0.1096851879 0.2875123283
570296580.0 -0.096740846 0.2770879408 0.1467276979 -0.4025380291 0.1471317029 -0.4025422245 -0.1065081481 0.2891679694
575296550.0 -0.0938651837 0.2783473465 0.1426914359 -0.4038331902 0.142593475 -0.4037405219 -0.1030408736 0.2897576082
580296520.0 -0.0912278595 0.2795032364 0.138165171 -0.4052588876 0.1379758088 -0.4054955784 -0.1005726212 0.291355197
585296490.0 -0.0880780543 0.2800001097 0.1340400893 -0.4068777832 0.1339799059 -0.4065832144 -0.0977912783 0.2920687496
590296460.0 -0.0852842714 0.2814150001 0.1293208104 -0.4080698727 0.1293016992 -0.4084137915 -0.0944090753 0.2936694133
595296430.0 -0.0822817493 0.2826697501 0.1249716726 -0.409718981 0.1247271537 -0.4098069893 -0.0913780197 0.2945537112
600296400.0 -0.0792933327 0.283539625 0.1205677189 -0.4109632968 0.1204484864 -0.4109572042 -0.0883138776 0.2960013194
605296370.0 -0.0761310969 0.284736654 0.1157603677 -0.4122642193 0.1161604648 -0.4120423337 -0.0853269982 0.297053787
610296340.0 -0.0733102856 0.285548483 0.1116987519 -0.4133300322 0.1117457728 -0.4137139676 -0.0822204623 0.2985612488
615296310.0 -0.0701376531 0.2867782102 0.1068412165 -0.4144399699 0.106788963 -0.4146193335 -0.0789183627 0.2990556885
620296280.0 -0.0671759874 0.2874166739 0.1024485387 -0.4156986327 0.1023554098 -0.4155462473 -0.0760618696 0.2998810988
625296250.0 -0.064189027 0.2881100605 0.0977029749 -0.4168988993 0.0977913325 -0.4169434815 -0.0728127273 0.3012635398
630296220.0 -0.0609725 0.2888989069 0.0932738805 -0.4176546092 0.0939514836 -0.417588273 -0.0700346133 0.3021986139
635296190.0 -0.0582011143 0.2897179766 0.0887454775 -0.4181606287 0.0887604364 -0.4183303021 -0.0670143398 0.3028854825
640296160.0 -0.0548304171 0.2903651035 0.0844755762 -0.4194522953 0.08434398 -0.4196614538 -0.0634495713 0.3037183999
645296130.0 -0.05204451 0.2915062979 0.0795690653 -0.4206030751 0.0797292241 -0.4204011791 -0.0607268718 0.3043090993
650296100.0 -0.0489013781 0.2924070661 0.075440982 -0.4210598367 0.0755237057 -0.4209923844 -0.0578352376 0.3053636702
655296070.0 -0.046060906 0.292565334 0.0708717743 -0.4218103749 0.0706903599 -0.421911462 -0.0539017749 0.3064134296
660296040.0 -0.0428524108 0.293590805 0.0661144601 -0.4223300794 0.0661250986 -0.4222462958 -0.0511231637 0.3065414621
665296010.0 -0.0396379079 0.2939902522 0.0618534602 -0.4230985922 0.0621999232 -0.4231771452 -0.0483037854 0.307540757
670295980.0 -0.0362210008 0.2944991231 0.0566746725 -0.4236468367 0.0571284753 -0.423744365 -0.0451205453 0.3079649055
675295950.0 -0.0330507481 0.2950752398 0.052115567 -0.42429706 0.0527450723 -0.4245945766 -0.0416226843 0.3088625914
680295920.0 -0.0302899577 0.2959503079 0.0476217697 -0.4249497898 0.0476841873 -0.424800341 -0.038574702 0.3093306602
685295890.0 -0.0270895569 0.2960284124 0.0430898445 -0.4253505587 0.0429548434 -0.4254183238 -0.0351293792 0.3099026926
690295860.0 -0.023891175 0.2967072198 0.0383652972 -0.4254114066 0.0384997589 -0.4255022242 -0.0317884578 0.3105612728
695295830.0 -0.0205735736 0.2968564028 0.0332824082 -0.4260345009 0.0338737766 -0.426088663 -0.0292142654 0.3110532219
700295800.0 -0.0176453903 0.2970707392 0.0290071283 -0.4263764923 0.0292925659 -0.4268155099 -0.0256567201 0.311221787
705295770.0 -0.0143920478 0.297880187 0.0245153012 -0.4265317545 0.0246045133 -0.4265808388 -0.0228152648 0.3116075602
710295740.0 -0.0113309144 0.298176452 0.0200848381 -0.426904862 0.0203254743 -0.4267202392 -0.0200048434 0.3125995527
715295710.0 -0.008220682 0.2982407853 0.0154162003 -0.4268682029 0.0155616729 -0.4268883475 -0.0163145914 0.3121011712
720295680.0 -0.0051883844 0.2982463196 0.0105672913 -0.4266951133 0.0110698046 -0.4274371649 -0.0126616238 0.3129706649
725295650.0 -0.0016186485 0.2986752161 0.0057230701 -0.4272249113 0.005888632 -0.4269759537 -0.0095666569 0.3131819891
730295620.0 0.0014241226 0.2985296858 0.0012223729 -0.4270937233 0.0011010321 -0.4269484488 -0.0062799111 0.3131398476
735295590.0 0.0047791568 0.2988357943 -0.0031637933 -0.4271899515 -0.0028189732 -0.4272802833 -0.0029546214 0.3135690908
740295560.0 0.0077115539 0.2993004813 -0.0077364201 -0.4265837265 -0.0079184362 -0.4267592258 0.0001472968 0.3133467533
745295530.0 0.0107783545 0.2989056393 -0.0123797882 -0.4264842327 -0.0120863282 -0.4269077102 0.0034528554 0.3138052166
750295500.0 0.0139416136 0.2991414626 -0.0169571711 -0.4265294573 -0.0171459752 -0.4263788847 0.0066020734 0.3137035042
755295470.0 0.0175455509 0.2989656873 -0.0212774726 -0.4265496494 -0.0213797745 -0.4265346307 0.0095235074 0.3139692628
760295440.0 0.0203622361 0.2991385576 -0.0263293027 -0.4260685691 -0.0261692942 -0.4257676209 0.0125926795 0.3136257395
765295410.0 0.0232747458 0.2989735891 -0.0304594514 -0.4257715482 -0.0308031364 -0.4258237842 0.0169827624 0.3141589309
770295380.0 0.0268295441 0.2989242694 -0.0356727531 -0.4251460031 -0.0354304153 -0.4255397977 0.0198264598 0.3141210967
775295350.0 0.0298975694 0.298679236 -0.0398051147 -0.4244682187 -0.0399554142 -0.4249421982 0.022604064 0.3133740657
780295320.0 0.033450145 0.2985053542 -0.0445814792 -0.4246148139 -0.04429116 -0.4245959277 0.0260174414 0.3138269704
785295290.0 0.0361521169 0.2984751679 -0.0486813674 -0.4232273918 -0.0487790157 -0.4238759169 0.0289670881 0.3137850015
790295260.0 0.0393436613 0.2982649032 -0.0533279167 -0.4231038765 -0.0538752033 -0.4236156873 0.0325930151 0.3135449604
795295230.0 0.0422498305 0.2981519749 -0.0578282012 -0.4222085664 -0.0579549255 -0.422899174 0.0354987461 0.3135690326
800295200.0 0.0458863476 0.2976356901 -0.0630012005 -0.4216357717 -0.0629994397 -0.4220796123 0.0390760023 0.3127419356
805295170.0 0.0486950423 0.2969548611 -0.0666548975 -0.4206952545 -0.0672612758 -0.4207830995 0.0421268508 0.312496309
810295140.0 0.0520830139 0.2966460249 -0.0717221755 -0.4203679071 -0.0719601715 -0.4209492059 0.0456943306 0.3126393669
815295110.0 0.0553368013 0.2965155803 -0.0768014792 -0.419338394 -0.0767340813 -0.4195009482 0.0485377157 0.3119894517
820295080.0 0.0581795752 0.2953608892 -0.0806567107 -0.4185872707 -0.0807909571 -0.4185671466 0.0516614589 0.3113533331
825295050.0 0.0616067026 0.2953852907 -0.0854405106 -0.4172142176 -0.0852237321 -0.4177157999 0.0554443403 0.3112361485
830295020.0 0.0646202345 0.2950510838 -0.0900069088 -0.4166274399 -0.0901468696 -0.4165076199 0.0579815716 0.3104851192
