!Created with skrf (http://scikit-rf.org).
# Hz S RI R 50.0 
!freq ReS11 ImS11 ReS21 ImS21 ReS12 ImS12 ReS22 ImS22
300000.0 -0.0958113252 -0.0958921486 0.6241021552 0.0902588808 0.6228225732 0.0911027026 -0.0992459966 -0.1051954699
5299970.0 -0.1014660566 0.0115072053 0.6302170346 0.0113142389 0.6312670544 0.0110914066 -0.1017492493 0.0111685909
10299940.0 -0.0970009812 0.0289727167 0.6346650271 0.0158540803 0.6341069422 0.0163770845 -0.0964708245 0.0283801215
15299910.0 -0.0892319027 0.0424360395 0.6403245358 0.0214057392 0.6405985478 0.0212381471 -0.0898036663 0.0419878909
20299880.0 -0.0803336847 0.0536461714 0.6486263443 0.0241482236 0.6491815095 0.0242735464 -0.0809369077 0.0529933005
25299850.0 -0.0704200186 0.0623577322 0.6583788222 0.0257295266 0.6584555868 0.0255096738 -0.0716133464 0.0619106558
30299820.0 -0.0610121587 0.0687331618 0.6681366638 0.0244862379 0.6677076593 0.0243760109 -0.061882218 0.0682519094
35299790.0 -0.0507089381 0.0734847929 0.677245896 0.0224305206 0.6775981404 0.021770598 -0.0522700165 0.0736134113
40299760.0 -0.0412831967 0.0762680705 0.6869604216 0.0175881651 0.6871352131 0.0175278544 -0.0427028477 0.0769191158
45299730.0 -0.0319840471 0.0786386477 0.6960812209 0.0123388936 0.6960615284 0.0119650575 -0.0332988182 0.0793286567
50299700.0 -0.0229791651 0.0789863425 0.7034562705 0.0056473046 0.7039449698 0.0048779335 -0.0245043194 0.0801645534
55299670.0 -0.0149916243 0.0789322271 0.7115597071 -0.0024626605 0.7106190336 -0.0024828045 -0.0171750549 0.0804726467
60299640.0 -0.0076816885 0.0785698018 0.7179581136 -0.0112343098 0.7174387915 -0.0111732202 -0.00961415 0.0793912128
65299610.0 -0.001337481 0.077285383 0.7239350702 -0.0197568808 0.7242734518 -0.0198462838 -0.0028064491 0.0787872766
70299580.0 0.0051394645 0.0751555137 0.7289621906 -0.0288088244 0.7291015528 -0.0288485302 0.0033237053 0.077101129
75299550.0 0.010421057 0.0734144605 0.7330350443 -0.039279094 0.7333654155 -0.0390490747 0.0086989112 0.0753298241
80299520.0 0.0155217165 0.0715392718 0.7376742174 -0.0485430919 0.7377982601 -0.0486155238 0.0137975612 0.0735529595
85299490.0 0.020071046 0.0690409537 0.740838294 -0.0588668992 0.7412474122 -0.0584004992 0.0180890523 0.0711108324
90299460.0 0.0240522787 0.0665059359 0.7432505815 -0.069091155 0.7435738536 -0.0683070957 0.0222790599 0.0692357334
95299430.0 0.0279790112 0.0641113389 0.7463654202 -0.078638546 0.7460574787 -0.0789805697 0.0256908853 0.0664179761
100299400.0 0.0313568189 0.0617517754 0.7481000477 -0.0890275772 0.7476800666 -0.0891212386 0.0290931902 0.0645492658
105299370.0 0.0343130627 0.0591994667 0.7490236907 -0.0988080676 0.7497554 -0.0988296806 0.0327361253 0.0616724216
110299340.0 0.0371781352 0.0563499151 0.7505679308 -0.1085328578 0.7509963018 -0.1085563292 0.0349383592 0.0595333687
115299310.0 0.0394954879 0.0543400229 0.7512712794 -0.1186632657 0.7511598518 -0.1188127039 0.0373750952 0.0575639116
120299280.0 0.0417069118 0.0519993927 0.7519962061 -0.1295117038 0.7517579021 -0.1291864738 0.0399277531 0.0544165266
125299250.0 0.043807026 0.0496244238 0.7522735429 -0.1387355908 0.7521441213 -0.138467338 0.0420241292 0.0528139283
130299220.0 0.0455918529 0.0469168712 0.7522862696 -0.1490757406 0.751792434 -0.1492843791 0.0437807651 0.0505146714
135299190.0 0.0467472145 0.0453061828 0.7520839599 -0.1584594233 0.7520580096 -0.1588057277 0.0454683849 0.0478992698
140299160.0 0.0487856514 0.0433504544 0.7518799051 -0.1690891121 0.7509531083 -0.1682392899 0.046142251 0.0453475965
145299130.0 0.0492978451 0.041310567 0.7506536858 -0.1783155086 0.7505787604 -0.1779773551 0.0480418551 0.0438624883
150299100.0 0.0506218122 0.0392548493 0.7493639991 -0.1879463235 0.7494412454 -0.1881491054 0.0491484382 0.042024036
155299070.0 0.0526789574 0.0371080239 0.7474953778 -0.1972921711 0.7483646318 -0.1976036169 0.0505892262 0.0394127856
160299040.0 0.0531487163 0.0356846429 0.7466878555 -0.206890238 0.7463600209 -0.2070098354 0.0508750078 0.0382595216
165299010.0 0.0543609255 0.0334482235 0.7453940381 -0.2164457639 0.7446999211 -0.216547221 0.0522161573 0.0355725364
170298980.0 0.0550327878 0.0320074812 0.7431421419 -0.2259316552 0.7434448195 -0.226007692 0.0526937277 0.0338476957
175298950.0 0.0559591944 0.030376549 0.7419105497 -0.2351002464 0.7420563813 -0.2354563747 0.0535316968 0.0325611487
180298920.0 0.0562251929 0.0289292952 0.7393974993 -0.2445608268 0.7393079734 -0.2448053367 0.054033712 0.0308548274
185298890.0 0.0568214359 0.027076008 0.7380756692 -0.2533560407 0.7372531432 -0.253311796 0.0550274028 0.028749978
190298860.0 0.0578653156 0.0256136841 0.7343169394 -0.2627345203 0.7347658709 -0.2622947418 0.0550482188 0.0271608792
195298830.0 0.0576867029 0.0243326646 0.7324930719 -0.271824271 0.7324649045 -0.2718422729 0.0554752067 0.0258653447
200298800.0 0.0585681492 0.0225509295 0.7300811897 -0.2815207901 0.7299245613 -0.2807776496 0.0562591659 0.0238872771
205298770.0 0.0581546093 0.0204642999 0.7266348715 -0.2895557731 0.7272372274 -0.2889999171 0.0569104002 0.0224905126
210298740.0 0.0587575848 0.0199574797 0.7242993182 -0.2982441994 0.7234375257 -0.2983265478 0.0565505229 0.0208818659
215298710.0 0.0593342934 0.0186507648 0.720640856 -0.3064982307 0.720930536 -0.3071325327 0.0573590326 0.0197301005
220298680.0 0.0597118253 0.0174034418 0.7172678181 -0.3160141103 0.7173096206 -0.3157236574 0.0574550696 0.018108705
225298650.0 0.0595534517 0.0161079907 0.7140569714 -0.3243504987 0.7147063682 -0.3236474156 0.0575830463 0.0163504655
230298620.0 0.0603085117 0.0151809217 0.7112892873 -0.3327161037 0.7113263913 -0.333207625 0.057303182 0.0150679537
235298590.0 0.0599139225 0.014025058 0.7079921732 -0.3419240524 0.7081987581 -0.3415450303 0.0578839766 0.0141538887
240298560.0 0.0602966845 0.0126197434 0.7041319828 -0.3493092236 0.7042576419 -0.3494094361 0.057724203 0.012791761
245298530.0 0.0601747606 0.011400035 0.7002967992 -0.3586418314 0.7001755621 -0.35820654 0.0579872741 0.01170147
250298500.0 0.0601035643 0.01040088 0.696843568 -0.3662242659 0.6965004541 -0.366028175 0.0575449284 0.0106830407
255298470.0 0.0604596413 0.0096289057 0.6929619527 -0.3741109513 0.6930184888 -0.3745698114 0.0579688388 0.0096718396
260298440.0 0.0605302308 0.0081520635 0.6891417488 -0.3820010001 0.6888041383 -0.3823087501 0.0579085079 0.0079341073
265298410.0 0.0598593394 0.0074478193 0.6844226533 -0.3904504436 0.6847311022 -0.3908512118 0.0585382204 0.0065959404
270298380.0 0.0601937825 0.0061173497 0.6807272923 -0.3984169199 0.6804391089 -0.3982731969 0.0581162908 0.0058165227
275298350.0 0.0603785631 0.0056089209 0.675489968 -0.4058179428 0.6754783293 -0.4061924499 0.0579348149 0.0048286823
280298320.0 0.0597354776 0.0043761035 0.6717179751 -0.4141588101 0.6724914422 -0.4143249025 0.0583631484 0.0038152041
285298290.0 0.0599846142 0.003448988 0.6668705022 -0.421998669 0.6671790378 -0.4216230696 0.0579650555 0.0024410395
290298260.0 0.0598181797 0.0026024496 0.6631874454 -0.4295226623 0.6628829166 -0.4295637376 0.0579305435 0.0014660828
295298230.0 0.0598935983 0.0011839743 0.6586190589 -0.4382696747 0.6582043268 -0.4381005359 0.0577871724 0.0003346859
300298200.0 0.0602138003 0.0008789886 0.6540523072 -0.4453533931 0.6535385203 -0.445062507 0.0577864985 -0.0010455321
305298170.0 0.0600962757 -0.0008027746 0.6495436946 -0.4533024954 0.6485963826 -0.4534294369 0.0575099617 -0.0021836998
310298140.0 0.0602286377 -0.0017584641 0.6441303932 -0.4606143405 0.6442635582 -0.4602197946 0.0578817373 -0.0036882566
315298110.0 0.0596278596 -0.0030224584 0.6396871169 -0.4683616938 0.6392347515 -0.4684535208 0.0576593457 -0.004746797
320298080.0 0.0595235219 -0.0039401096 0.6330854002 -0.4756790921 0.6341318055 -0.4761153671 0.0572155879 -0.0059240109
325298050.0 0.0584040465 -0.0053759297 0.627922467 -0.4830537083 0.6290367595 -0.4829288727 0.0567280547 -0.0070434148
330298020.0 0.0573153867 -0.0058570112 0.6225464047 -0.4909477663 0.6233544081 -0.4909387037 0.0559171168 -0.007936307
335297990.0 0.0576090089 -0.0067506835 0.6172742522 -0.4979862381 0.6173609795 -0.4976522727 0.0555694577 -0.0087599358
340297960.0 0.0568769085 -0.0075507813 0.6107280943 -0.5047676447 0.6109493464 -0.5047967054 0.055167627 -0.009368708
345297930.0 0.0563797609 -0.0085381912 0.6055921115 -0.5120531998 0.6053530525 -0.5114853093 0.0547746163 -0.0105537456
350297900.0 0.0556662444 -0.009168494 0.6000261806 -0.5177934126 0.6001064758 -0.5180188746 0.0546713369 -0.0114649139
355297870.0 0.0556207697 -0.0095747468 0.594203424 -0.5245362313 0.5943966698 -0.5245338448 0.0544493254 -0.0123385169
360297840.0 0.0554802217 -0.0105521851 0.5880573472 -0.5315181524 0.5882064247 -0.531995229 0.05331915 -0.0124345049
365297810.0 0.054559453 -0.0107222118 0.5823189009 -0.5376700709 0.5821736286 -0.5379974159 0.0530710799 -0.0132151793
370297780.0 0.0545999164 -0.0116331805 0.5758902618 -0.5447109336 0.5760859178 -0.544524996 0.052829436 -0.0142910008
375297750.0 0.0543971227 -0.0120202127 0.5706284683 -0.5507102883 0.5704255594 -0.5511742519 0.052937085 -0.0147945924
380297720.0 0.0534663293 -0.0128270705 0.5643323924 -0.5578465393 0.5638277576 -0.5575281463 0.0522488228 -0.0152534066
385297690.0 0.0530243421 -0.0134739606 0.5577617123 -0.5633870758 0.5581187592 -0.5642428199 0.0521408448 -0.0156772228
390297660.0 0.0529776815 -0.0143681693 0.5519154634 -0.569241011 0.5525249274 -0.5698604832 0.0521082578 -0.0167441395
395297630.0 0.0530160212 -0.0148974444 0.5461278329 -0.5752559035 0.5456013797 -0.5751549902 0.0514082723 -0.0172900625
400297600.0 0.0519162961 -0.0159017363 0.5391072392 -0.5821680292 0.539675416 -0.5815939097 0.0515491178 -0.0177436334
405297570.0 0.0519751621 -0.0164810212 0.5333734979 -0.5877856027 0.5329003241 -0.5876218017 0.0510675311 -0.0181467896
410297540.0 0.0514864088 -0.0165986028 0.5266681777 -0.5937687826 0.5266866454 -0.5938587772 0.0504196681 -0.0190025274
415297510.0 0.0509720427 -0.0175241005 0.5199181598 -0.5992311845 0.520266398 -0.5996300198 0.0505713286 -0.0192238773
420297480.0 0.0505349726 -0.0183720735 0.5133556306 -0.6058685075 0.5137085202 -0.6055274759 0.0502744869 -0.0195667312
425297450.0 0.050796114 -0.0190183374 0.5068728553 -0.6110303036 0.5067500117 -0.6110672946 0.0495760141 -0.0210350657
430297420.0 0.0499186137 -0.0193637889 0.5004942957 -0.6168311983 0.5004741711 -0.616187895 0.0499200426 -0.0210530216
435297390.0 0.0496783493 -0.0201872523 0.492899972 -0.6235805069 0.493322481 -0.6221819087 0.0486443007 -0.0214692407
440297360.0 0.0495178116 -0.0209135093 0.4860246185 -0.627926007 0.4860642813 -0.6276102418 0.0487683969 -0.0220796705
445297330.0 0.0491627852 -0.0219886909 0.4798350533 -0.6330485461 0.4791525872 -0.6331650442 0.0483778015 -0.0222749567
450297300.0 0.0488822214 -0.0222186325 0.4724024779 -0.6382092081 0.4724388013 -0.6375691295 0.0482816838 -0.0229571641
455297270.0 0.0481073143 -0.0228787619 0.4661615405 -0.6435358673 0.4660188557 -0.6435643403 0.04751266 -0.0236406231
460297240.0 0.0480432846 -0.0233116485 0.4589013671 -0.649399359 0.4583735476 -0.6490303504 0.0474648927 -0.0242734387
465297210.0 0.0475026187 -0.0240660184 0.4508073068 -0.6532838091 0.4510006585 -0.6539730699 0.0475278398 -0.0241449497
470297180.0 0.047202618 -0.024870185 0.4438433192 -0.6584349806 0.4445059816 -0.6586088907 0.0471565756 -0.0253935527
475297150.0 0.0465290609 -0.0248719151 0.4366573951 -0.6636969507 0.4370103491 -0.6634614828 0.0464559469 -0.0258491953
480297120.0 0.0466101452 -0.0251692004 0.4292857833 -0.668474388 0.4297174369 -0.6683904079 0.0460090194 -0.0264076029
485297090.0 0.0460738584 -0.0270484161 0.4217892015 -0.6734670069 0.4218992498 -0.6733718499 0.045755628 -0.0266849618
490297060.0 0.0462002307 -0.0267613962 0.4143786733 -0.677621 0.4145752094 -0.6783998027 0.045196648 -0.0273283643
495297030.0 0.0450939564 -0.0277696514 0.4077919305 -0.6823495473 0.4073312833 -0.6825810322 0.0454334336 -0.0281352511
500297000.0 0.0447253561 -0.0276780461 0.3997546065 -0.686576341 0.399901203 -0.6870783603 0.0447224803 -0.0281807951
505296970.0 0.0448819955 -0.0282780712 0.3925754294 -0.6914792427 0.3923160063 -0.6910574347 0.044262281 -0.0294397045
510296940.0 0.0442723577 -0.0291745639 0.3849603239 -0.6964204614 0.3851891306 -0.6964595685 0.0444156324 -0.0293133544
515296910.0 0.0437259753 -0.0288179776 0.3762933749 -0.6995121928 0.3764927297 -0.699952171 0.0437145584 -0.0304178285
520296880.0 0.0433520343 -0.0294709826 0.3692072302 -0.7036648435 0.368825355 -0.7036404696 0.0438816636 -0.0300916372
525296850.0 0.0433742128 -0.0299850981 0.3617831635 -0.7077112475 0.3619470302 -0.7079924712 0.0437876045 -0.0308797853
530296820.0 0.0424431681 -0.0310320892 0.3539253372 -0.7117152108 0.3539404239 -0.7120621712 0.0428645725 -0.0317373835
535296790.0 0.0427659446 -0.0311942014 0.3459290724 -0.7155246936 0.3461902962 -0.7157869616 0.0430992484 -0.0316864898
540296760.0 0.042088845 -0.0313023804 0.3380865193 -0.7193594365 0.3378077205 -0.719224817 0.0421322741 -0.032533566
545296730.0 0.0408150861 -0.0319248476 0.3302177332 -0.7233902965 0.330215851 -0.7233102982 0.0419369069 -0.0326106287
550296700.0 0.041342313 -0.0322554011 0.3225383924 -0.7270133552 0.3222771413 -0.7264248657 0.0416569394 -0.033493844
555296670.0 0.0407603189 -0.0325695489 0.3142091981 -0.7305470197 0.3145479008 -0.7303205491 0.0409910226 -0.0342633863
560296640.0 0.0409272468 -0.0331552006 0.3061778655 -0.7334061018 0.3068838586 -0.7339253619 0.0401605707 -0.0337478579
565296610.0 0.0397968451 -0.0331840096 0.2984834835 -0.7371425054 0.2987506882 -0.7366222268 0.0402044693 -0.0342263895
570296580.0 0.0390943501 -0.0335517344 0.2901016348 -0.7397848187 0.2906657307 -0.7404612913 0.0395164895 -0.0352433275
575296550.0 0.0391110213 -0.0341036573 0.2826923942 -0.743867639 0.2825522808 -0.743297378 0.0390306075 -0.0352702904
580296520.0 0.0385424975 -0.0342336231 0.2738514991 -0.747154546 0.2737670415 -0.7465244922 0.0381602611 -0.0359372822
585296490.0 0.0378965918 -0.0346928894 0.2660262043 -0.7489665875 0.2657028879 -0.7492107287 0.0385988717 -0.0359612727
590296460.0 0.0383674439 -0.0348646944 0.2578886372 -0.7517989005 0.2578333161 -0.7527211481 0.0372478185 -0.0363478857
595296430.0 0.0376890158 -0.0351575194 0.24878773 -0.7553148041 0.2491175382 -0.7548794244 0.0372149418 -0.0372795634
600296400.0 0.0374118719 -0.0354585573 0.2403584499 -0.7579376708 0.2410585147 -0.7577024687 0.037170825 -0.0377510341
605296370.0 0.0358329476 -0.0358664482 0.2331592524 -0.7604888171 0.2325380152 -0.7605622687 0.0362685168 -0.0374854633
610296340.0 0.0364304411 -0.0357156147 0.2242078012 -0.762408488 0.2249463237 -0.7622790793 0.0353436399 -0.0379691317
615296310.0 0.0360614641 -0.0363565673 0.2161864081 -0.7655839128 0.2160608691 -0.7650409493 0.0355882258 -0.0379931352
620296280.0 0.0351563925 -0.0360818858 0.2075195063 -0.7676250678 0.207312716 -0.7674124748 0.0345052821 -0.0383584418
625296250.0 0.0345045611 -0.0366836159 0.1991209495 -0.7702099578 0.1993615265 -0.7698918784 0.0334740674 -0.0389668355
630296220.0 0.0343657378 -0.0365301525 0.1907362931 -0.772138389 0.190662515 -0.7716466231 0.0337871824 -0.0392427007
635296190.0 0.0330462308 -0.0364107177 0.182200334 -0.773668148 0.1823173938 -0.7738672504 0.0328456662 -0.0395164112
640296160.0 0.0326504333 -0.037038795 0.1737320409 -0.7759561127 0.1738526928 -0.7759702432 0.0320185448 -0.0400423584
645296130.0 0.0328468054 -0.0366015956 0.1647358512 -0.7778741082 0.1653611362 -0.7771367618 0.0315907312 -0.0406416603
650296100.0 0.0319330358 -0.0370437815 0.1570737812 -0.7797389549 0.1567334808 -0.7797861205 0.0320657464 -0.0406814635
655296070.0 0.0316052867 -0.0375186448 0.1481986586 -0.7814021356 0.1480375447 -0.7807486417 0.0302777229 -0.0403686785
660296040.0 0.0308680637 -0.0372885443 0.1399561379 -0.7826267614 0.1395623878 -0.7831368765 0.029951289 -0.0416524029
665296010.0 0.0306664637 -0.0378034367 0.1300792457 -0.7841879031 0.1309451917 -0.7840256074 0.0295038154 -0.0412396113
670295980.0 0.0302325655 -0.0377115319 0.1223637587 -0.7852912018 0.1222875931 -0.785070086 0.0282927294 -0.0417451821
675295950.0 0.0291384505 -0.0380792825 0.1138597939 -0.786429384 0.1139190931 -0.7870182227 0.0278606312 -0.0416716107
680295920.0 0.0287428227 -0.0378801037 0.1054300495 -0.7881498433 0.1057749286 -0.7876583528 0.0277785598 -0.0423478168
685295890.0 0.0282736342 -0.0377564137 0.0964383551 -0.7892688836 0.0970332844 -0.7890726088 0.0270206777 -0.0418814079
690295860.0 0.02723673 -0.0378921121 0.0880162895 -0.7895933558 0.0881347655 -0.7903492162 0.0260628207 -0.0425189831
695295830.0 0.02701438 -0.0382928311 0.0800422386 -0.7911928822 0.0795852423 -0.7907182879 0.0255878039 -0.0424393847
700295800.0 0.026664504 -0.0380674742 0.0711880111 -0.7920025489 0.0716928567 -0.7917817648 0.0247586526 -0.0423217604
705295770.0 0.0257330916 -0.0382683259 0.0622226408 -0.792865825 0.0621669614 -0.7921454237 0.0245621411 -0.0424028718
710295740.0 0.0253214289 -0.0384924452 0.0539743813 -0.7931577395 0.0537873782 -0.793449857 0.0239326212 -0.0425263744
715295710.0 0.0246344154 -0.038030918 0.0455756162 -0.7941351722 0.045530107 -0.7939980557 0.0231556774 -0.0429338141
720295680.0 0.0245032931 -0.0380942272 0.0361011301 -0.7939322539 0.0365010513 -0.7943155405 0.0224904653 -0.042909062
725295650.0 0.0231865514 -0.0379889555 0.028578732 -0.7940709304 0.0283615091 -0.7944477649 0.0214769939 -0.0424552491
730295620.0 0.0220936714 -0.0386856093 0.019236995 -0.7945593833 0.0198099199 -0.7940220346 0.0208225679 -0.0424417533
735295590.0 0.0225114481 -0.0385638318 0.0103791503 -0.794719711 0.0108234563 -0.7946988267 0.0201135229 -0.0433317629
740295560.0 0.0216337944 -0.0388054883 0.0020904262 -0.7952578573 0.002527305 -0.7947282154 0.0194940768 -0.0427167003
745295530.0 0.0208569837 -0.0383290136 -0.0061221653 -0.7945423933 -0.0053760804 -0.7944969701 0.0177475324 -0.0431004755
750295500.0 0.0198941546 -0.0381759145 -0.0147120872 -0.7946902249 -0.0152668851 -0.7945467387 0.0180183979 -0.0427940534
755295470.0 0.0193512421 -0.0381556586 -0.0233600826 -0.7949637887 -0.0233894462 -0.7947506607 0.0173531826 -0.0424862265
760295440.0 0.0189811289 -0.037760627 -0.0331610477 -0.7942591751 -0.032297314 -0.7934032879 0.0170523817 -0.0440393806
765295410.0 0.0188640507 -0.0386608873 -0.0408339326 -0.7933873082 -0.0399843241 -0.7937007673 0.0161647157 -0.0433239338
770295380.0 0.0175638532 -0.037924679 -0.0491629517 -0.7921561725 -0.0494370699 -0.7934859843 0.0151301299 -0.0429089278
775295350.0 0.016939179 -0.0382010158 -0.0581805294 -0.7926630278 -0.0579503995 -0.7917757364 0.0150034771 -0.0429051024
780295320.0 0.0164924623 -0.037698468 -0.0665776863 -0.7913064576 -0.0664063241 -0.7914254589 0.0148515165 -0.0431666656
785295290.0 0.0157671401 -0.0382679513 -0.0752070137 -0.7913568041 -0.0751201405 -0.7902056898 0.0131368206 -0.0425143721
790295260.0 0.0153749127 -0.0383588196 -0.0831958012 -0.790094986 -0.0835361684 -0.7904238552 0.0124513988 -0.0419872822
795295230.0 0.0146911411 -0.0382986303 -0.0921622458 -0.7891872308 -0.092679265 -0.7895099858 0.012047142 -0.0430473617
800295200.0 0.0134260908 -0.0377015325 -0.0999851024 -0.7871963031 -0.100835242 -0.7880761045 0.0112314257 -0.0425242099
805295170.0 0.0128166726 -0.0379231186 -0.1096003573 -0.787253566 -0.1090241374 -0.7869710633 0.0114030892 -0.0423980261
810295140.0 0.0128894167 -0.0379278669 -0.1180907451 -0.7857123479 -0.11777494 -0.7856796199 0.0103492614 -0.0424616075
815295110.0 0.0118582108 -0.037662417 -0.1261721849 -0.7845480068 -0.125548391 -0.7845240114 0.0095448873 -0.042400812
820295080.0 0.0114753705 -0.0374507015 -0.1343802153 -0.7823920289 -0.1343094096 -0.7831270724 0.0082227481 -0.0412780276
825295050.0 0.0104979519 -0.0376824429 -0.1431572217 -0.7813789684 -0.1427652779 -0.7808062897 0.008697133 -0.041217151
830295020.0 0.0097882244 -0.0373168393 -0.1513556202 -0.7799770891 -0.1513337215 -0.779937386 0.0077287519 -0.0418809569
