!Created with skrf (http://scikit-rf.org).
# Hz S RI R 50.0 
!freq ReS11 ImS11 ReS21 ImS21 ReS12 ImS12 ReS22 ImS22
300000.0 -0.7746897935 -0.1512309912 -0.0008545625 0.0008153283 0.0002602831 0.0006358293 0.8602538902 -0.002126811
5299970.0 -0.7853119931 -0.0073996902 -6.44121e-05 -7.73029e-05 7.54819e-05 -8.90578e-05 0.8587710362 -0.0105633689
10299940.0 -0.7875039285 -0.0040989497 -1.40536e-05 4.60432e-05 7.43262e-05 4.3129e-05 0.8583010805 -0.018816659
15299910.0 -0.7933313084 -0.0017668652 5.84218e-05 5.37416e-05 0.0001254648 -3.90298e-05 0.8572235409 -0.0273279956
20299880.0 -0.7997058715 0.0022147673 3.41768e-05 -9.89596e-05 -0.0001349171 0.0002623328 0.8565883558 -0.0362157753
25299850.0 -0.8061967688 0.0078822672 9.23327e-05 2.8452e-05 5.15492e-05 -0.0001225399 0.8556983983 -0.0436120166
30299820.0 -0.8119424653 0.0158450077 -0.0001527152 3.88912e-05 -0.0001084905 -2.57901e-05 0.8548472474 -0.0526512969
35299790.0 -0.816723703 0.0252257282 7.8172e-06 5.20968e-05 0.0001933351 0.0001455634 0.8541906902 -0.0603598811
40299760.0 -0.8214890884 0.034241491 4.81524e-05 -0.0001166105 8.5039e-05 -3.70998e-05 0.8540314523 -0.0690951668
45299730.0 -0.8246203625 0.0440717902 -7.5011e-06 2.83642e-05 0.0001669405 -8.41255e-05 0.8523721856 -0.0765055925
50299700.0 -0.8266134652 0.0541220035 -1.76772e-05 -2.04609e-05 -0.0001307191 0.0001309753 0.8518548031 -0.0853579931
55299670.0 -0.8286356392 0.0645446906 0.0001408792 0.000167909 0.0001846914 -5.8338e-05 0.8509010326 -0.0932113116
60299640.0 -0.8297179987 0.0743979946 -1.02885e-05 3.32698e-05 0.0001014754 0.0001249096 0.8496927429 -0.1015681221
65299610.0 -0.8310539965 0.0850323575 -0.000128838 2.23444e-05 5.91627e-05 -0.0001101509 0.8486854343 -0.1101075539
70299580.0 -0.8311078863 0.0946302685 -6.61186e-05 2.18221e-05 5.80792e-05 -0.0001374065 0.84772857 -0.118766926
75299550.0 -0.8314543772 0.1048031218 6.19261e-05 -0.0002517449 0.000140967 1.9234e-05 0.8470419313 -0.1266915395
80299520.0 -0.8319056394 0.1147049221 -7.89847e-05 4.79503e-05 -5.272e-06 3.2926e-06 0.8448730729 -0.1345719252
85299490.0 -0.8309543722 0.1239976466 5.97217e-05 0.0001311223 -0.0001332726 -0.0001598048 0.8437526317 -0.1429092261
90299460.0 -0.8298077318 0.1335759001 0.0001630053 0.0002430567 -6.5509e-05 0.0001345801 0.8422984601 -0.1509458719
95299430.0 -0.8285108933 0.1433882402 0.0001264671 5.94422e-05 7.08101e-05 -9.6844e-06 0.8406165612 -0.1592518048
100299400.0 -0.8275628801 0.1531646953 -8.25945e-05 1.60489e-05 -2.389e-05 0.0002684244 0.8389613702 -0.1674265875
105299370.0 -0.8264550625 0.1617577687 0.0002127734 -0.0001126284 -0.0001916117 6.409e-06 0.8371817863 -0.1754620345
110299340.0 -0.8251354377 0.1707065284 -0.0001174298 0.000171303 0.0001199303 -0.0001204187 0.8354477841 -0.1836475864
115299310.0 -0.8234832366 0.1805509811 -0.0001178327 -0.0001662027 0.0001201242 8.99111e-05 0.8334498514 -0.1921092704
120299280.0 -0.8216763168 0.1894755551 -0.0001633657 0.0001028436 2.03942e-05 -0.0001868299 0.8311342369 -0.2000010567
125299250.0 -0.8203093218 0.198968364 0.0001571183 -4.17419e-05 -0.0002126694 4.66401e-05 0.8295121605 -0.2082527376
130299220.0 -0.8184426312 0.2075781822 -0.0001079956 0.0001231833 0.0001378526 -0.0001774203 0.8273182539 -0.216395659
135299190.0 -0.816649958 0.2167069744 7.37658e-05 -4.2861e-06 -0.0001268512 9.87442e-05 0.825621391 -0.2242387349
140299160.0 -0.8144993554 0.2252715394 -7.81015e-05 5.45043e-05 5.54125e-05 5.68373e-05 0.8232435441 -0.2322713141
145299130.0 -0.8122168697 0.2338683204 9.70366e-05 -6.87788e-05 -0.0001990761 -5.78845e-05 0.8208593413 -0.2406891457
150299100.0 -0.8102064134 0.2428799048 -0.0001362121 -0.0001265013 -9.22392e-05 9.05915e-05 0.8184367729 -0.2486779946
155299070.0 -0.8076010632 0.2522420451 0.0001619718 3.60234e-05 0.0001149558 9.82277e-05 0.815581363 -0.2560744966
160299040.0 -0.8048952173 0.261258049 0.0001174641 -7.93834e-05 0.0002602179 0.0001288249 0.8129795733 -0.2643277815
165299010.0 -0.8019540045 0.2693241852 4.35013e-05 0.0002096705 -0.0001978333 -2.19052e-05 0.81081187 -0.2725199355
170298980.0 -0.7994007004 0.2782151246 0.0001266941 -4.54188e-05 -2.76687e-05 -5.6435e-05 0.8079675483 -0.2801286973
175298950.0 -0.7969363985 0.28722313 0.0001207471 -0.000124165 6.68539e-05 -8.71648e-05 0.80499745 -0.288270866
180298920.0 -0.7938926875 0.2951927473 0.0001008922 -0.0001502452 -3.79496e-05 3.52679e-05 0.8021394742 -0.2963549587
185298890.0 -0.7905157947 0.3043171954 0.0001664832 0.0001078434 5.92017e-05 -0.0001539358 0.7993913917 -0.3044698716
190298860.0 -0.787647421 0.3127100133 -0.0003482052 -0.0002131363 -2.80229e-05 -0.0001161542 0.7968085017 -0.3116041814
195298830.0 -0.7837744026 0.3206344683 7.71733e-05 0.0002517073 5.78619e-05 -1.29675e-05 0.7935217911 -0.3191669289
200298800.0 -0.7809056873 0.3294508897 -0.0001152857 0.0001320035 8.68247e-05 -0.0001109198 0.7905719384 -0.3275179216
205298770.0 -0.7772527153 0.3375339732 8.87152e-05 9.80756e-05 -0.0001097911 0.0001080428 0.7869755839 -0.3343381541
210298740.0 -0.7734638905 0.3458728427 -5.84002e-05 0.0001353541 1.34897e-05 -0.0002084514 0.7838706558 -0.3426557706
215298710.0 -0.7702688829 0.3544253791 5.41066e-05 -6.49404e-05 -2.289e-06 -5.53991e-05 0.7800511127 -0.3496980688
220298680.0 -0.7667346605 0.3620938229 0.0001132395 -0.0001094252 -4.52422e-05 4.91759e-05 0.7768334328 -0.3573643254
225298650.0 -0.7624742293 0.370769136 -0.0001971899 8.05462e-05 0.0002214729 -0.0001358128 0.7728523392 -0.3647277011
230298620.0 -0.7590638099 0.378641128 -9.37215e-05 1.50292e-05 3.47503e-05 9.44824e-05 0.7701120829 -0.3726130262
235298590.0 -0.7552656209 0.3868014841 0.0001543493 -0.0001969939 7.7641e-06 -0.0001410946 0.7659956338 -0.3794363164
240298560.0 -0.7511367227 0.3955241832 2.31347e-05 -4.45507e-05 0.000126687 2.14303e-05 0.7624611762 -0.3873479508
245298530.0 -0.7461165404 0.4025929788 6.68487e-05 0.0001159833 -7.67638e-05 -0.0001392015 0.7579287225 -0.3946591412
250298500.0 -0.7421479327 0.4103098853 -0.0001365526 -6.05717e-05 3.8121e-06 0.0002149811 0.7547116083 -0.4020531853
255298470.0 -0.7377249311 0.4186654176 0.0002003155 -1.69379e-05 4.28748e-05 3.94176e-05 0.7513884644 -0.408766613
260298440.0 -0.733686474 0.4257584366 3.32137e-05 -0.0001813394 5.273e-06 0.0001054353 0.7469613038 -0.4163509441
265298410.0 -0.7293481122 0.4341783291 0.0001061214 -2.362e-05 -9.10879e-05 1.45582e-05 0.7429735191 -0.4236528521
270298380.0 -0.7244416143 0.4415863958 -4.06818e-05 9.2323e-06 -0.0001157793 -5.31978e-05 0.739300333 -0.4302789895
275298350.0 -0.7194591555 0.4488332516 3.46294e-05 -3.9116e-05 -6.95199e-05 0.0001061153 0.7350178711 -0.4372604049
280298320.0 -0.7148243183 0.4571709072 -7.18752e-05 -7.48358e-05 -3.265e-06 -0.0001175168 0.731231491 -0.4447221456
285298290.0 -0.7102790144 0.4642935106 -3.82945e-05 3.40129e-05 -9.31838e-05 3.6777e-06 0.7268802892 -0.4515866045
290298260.0 -0.7057004157 0.4714803365 -5.18342e-05 -2.6562e-06 -7.21183e-05 -0.0001195136 0.7224412288 -0.4585097257
295298230.0 -0.7005547672 0.4792232797 -4.11477e-05 5.02425e-05 0.0001425168 0.000324384 0.7182113652 -0.4656843492
300298200.0 -0.6950903446 0.4868734729 -0.0001026328 0.0001625308 -3.65481e-05 -0.0001575514 0.7138517884 -0.473195395
305298170.0 -0.6898802643 0.4940713347 -2.3303e-06 0.0001424563 -5.794e-05 5.178e-06 0.7107455554 -0.4796714526
310298140.0 -0.684790448 0.501115227 2.4073e-06 -0.0001427622 1.32404e-05 -0.000131037 0.7055900692 -0.4868536113
315298110.0 -0.6800365087 0.5080231876 -0.0001177536 1.62314e-05 6.95242e-05 6.92395e-05 0.7006117967 -0.4934726531
320298080.0 -0.6739784061 0.5156193738 0.0001282592 -0.0001657734 -0.0001894442 5.3411e-06 0.6964857818 -0.5013359515
325298050.0 -0.6688087422 0.522116468 -0.0002831576 0.0001683812 -8.90512e-05 -9.54104e-05 0.6911819869 -0.5092418573
330298020.0 -0.6627942095 0.5288886387 -9.25819e-05 0.0001229295 -0.0001260418 -2.49535e-05 0.6860038097 -0.5163236032
335297990.0 -0.6573166091 0.5360085418 -0.0001226356 0.0001318343 0.0001162905 6.26746e-05 0.6804085779 -0.523214609
340297960.0 -0.6518775493 0.542661382 -0.0002309693 0.0001474431 -0.0001830242 -7.9452e-06 0.6748607257 -0.5295901379
345297930.0 -0.6458322381 0.5488098716 2.9615e-06 9.94545e-05 5.10624e-05 -1.35438e-05 0.6687048848 -0.5355640967
350297900.0 -0.6403845295 0.5561416718 4.62017e-05 -0.0002022124 -4.72016e-05 0.0001138224 0.6635263644 -0.5413250592
355297870.0 -0.6344300386 0.5624094443 -0.0002517697 6.70747e-05 0.0002900684 -8.43671e-05 0.6576125485 -0.5481099305
360297840.0 -0.6283572174 0.5692925643 3.10468e-05 6.22949e-05 3.26436e-05 -6.50205e-05 0.6527099106 -0.553508735
365297810.0 -0.6224864192 0.5755441057 -0.0002141902 -0.0001306295 0.0001034946 -0.0001365212 0.6471233303 -0.559868402
370297780.0 -0.6160281729 0.582150354 0.0002507632 -0.0004032215 -0.0002374447 2.8213e-06 0.6415955576 -0.5661366978
375297750.0 -0.6101284448 0.5884885808 0.0001999562 -0.0001067784 -1.94844e-05 6.67666e-05 0.6360321063 -0.5721923639
380297720.0 -0.6040865479 0.5949581527 -0.000364188 0.000187425 1.24654e-05 2.62786e-05 0.6302670684 -0.5775060353
385297690.0 -0.5979447938 0.6005202432 5.78192e-05 5.52783e-05 -0.000216598 4.00864e-05 0.6246764656 -0.5834068837
390297660.0 -0.5916773359 0.6071803894 8.21012e-05 -5.64411e-05 -3.62184e-05 -6.4844e-05 0.6191016481 -0.5897045353
395297630.0 -0.5847948131 0.6131917858 0.0001347442 0.0001631578 -3.75839e-05 0.000122008 0.6133737126 -0.5955407565
400297600.0 -0.5787161577 0.6190495901 0.0002024367 -2.57799e-05 1.95481e-05 1.2222e-06 0.607507174 -0.6011500213
405297570.0 -0.5724755255 0.625117826 2.0665e-06 -8.40501e-05 -0.0001451077 8.984e-06 0.6019576332 -0.6070695128
410297540.0 -0.5655645381 0.6304027739 -6.1055e-05 3.05649e-05 -9.73432e-05 -0.0001116728 0.5955253721 -0.6126896489
415297510.0 -0.559574205 0.6360827043 -8.77242e-05 -3.47799e-05 -0.0003845935 0.0001332753 0.5894192067 -0.618516753
420297480.0 -0.5519572912 0.6419881721 8.6165e-06 1.57214e-05 -2.28923e-05 4.69457e-05 0.5834468668 -0.6242174323
425297450.0 -0.5454288002 0.6474669634 0.0001181358 3.01361e-05 4.75139e-05 0.0002250015 0.5778833849 -0.6291580553
430297420.0 -0.5392816306 0.6531103097 -6.48671e-05 1.16139e-05 0.0001151821 0.0002588678 0.5714487285 -0.6348132436
435297390.0 -0.5321393633 0.6589811718 4.15851e-05 -7.49777e-05 -9.4149e-05 -0.0001748921 0.5649452577 -0.6402697689
440297360.0 -0.5251015104 0.6641175356 0.000249607 -7.73525e-05 0.0001165683 0.0001047995 0.5585361011 -0.64537377
445297330.0 -0.5185389063 0.6699729507 4.91986e-05 0.0001290722 -0.000146126 -9.94545e-05 0.5522861672 -0.6510272936
450297300.0 -0.5116823845 0.674542465 5.86379e-05 -3.58592e-05 9.30213e-05 -6.79449e-05 0.5455576912 -0.6566898723
455297270.0 -0.504673586 0.6798914888 4.45369e-05 -0.0002177218 -3.61332e-05 -3.32586e-05 0.5395175873 -0.662008723
460297240.0 -0.4972830182 0.6850947301 6.10039e-05 -2.08158e-05 -3.44175e-05 -0.0002690498 0.5333899162 -0.6667204438
465297210.0 -0.4902665516 0.6901694866 -0.0001233638 -0.000190676 0.00017572 -2.00082e-05 0.5260944371 -0.6723908604
470297180.0 -0.4832708662 0.6943023021 -2.87614e-05 -0.0002118456 -5.18055e-05 8.67375e-05 0.5191181986 -0.6766522589
475297150.0 -0.4760089743 0.7001072316 -0.0002235985 5.73815e-05 0.0002008339 -0.0001093553 0.5131191331 -0.6816807783
480297120.0 -0.4691943053 0.7045471647 -9.55242e-05 4.77917e-05 0.0001869001 0.0002881628 0.5057821005 -0.6863502044
485297090.0 -0.4614193509 0.7092579846 -0.0002581879 0.0001232314 2.88033e-05 -5.75944e-05 0.4990710287 -0.6920006316
490297060.0 -0.454326914 0.7142465571 -2.87164e-05 -0.0001072494 3.8683e-05 1.78562e-05 0.4925220662 -0.6968103149
495297030.0 -0.4472447421 0.7187057652 -0.0003241498 -2.83432e-05 0.00010872 -0.0001812049 0.4859810608 -0.7015070573
500297000.0 -0.4390505473 0.7228195924 8.7399e-06 0.0002059545 -0.0001109983 0.0001536585 0.478574396 -0.7056156176
505296970.0 -0.431927108 0.7271216116 3.94373e-05 2.55821e-05 -0.0001185585 -1.92101e-05 0.4707430707 -0.7106125984
510296940.0 -0.4243779694 0.7321909326 7.1888e-05 -4.30573e-05 0.0001260837 7.53559e-05 0.4639610897 -0.714117974
515296910.0 -0.4172912181 0.7363084963 5.21194e-05 -0.0001520801 4.33026e-05 1.73721e-05 0.4569103997 -0.7190701749
520296880.0 -0.4089019277 0.740340788 3.73192e-05 -0.0001581068 0.0001302085 8.53286e-05 0.4494753638 -0.7243096932
525296850.0 -0.4018043305 0.7445446507 1.16919e-05 -4.17061e-05 0.0001516947 0.0001369668 0.4426503936 -0.7285406502
530296820.0 -0.3941178444 0.7479749316 -3.22985e-05 5.22337e-05 -0.0001445528 2.73913e-05 0.4347265812 -0.7325923455
535296790.0 -0.3859691327 0.7524979165 -0.0001517121 9.5506e-05 -6.36234e-05 0.0001905005 0.4279971556 -0.7373884877
540296760.0 -0.3781597445 0.7562089707 -0.0001350641 8.6802e-06 -0.000129423 -0.0001364347 0.4199316742 -0.7400442446
545296730.0 -0.371016448 0.7590946193 1.99924e-05 -0.0002308932 1.78408e-05 -0.0001880086 0.4130345782 -0.7450125207
550296700.0 -0.3637605372 0.7635175455 -0.0001957935 -8.3642e-05 -0.0001003264 0.0001111926 0.4060559328 -0.7495548614
555296670.0 -0.3547718355 0.7671497682 -3.58687e-05 1.05683e-05 0.0001242275 3.98536e-05 0.3978248439 -0.7530214815
560296640.0 -0.3474754638 0.7710510762 -4.27403e-05 0.0001862907 -5.13644e-05 -4.26572e-05 0.390168431 -0.7563542318
565296610.0 -0.3402527231 0.7738585915 6.23586e-05 -0.0001404974 5.84938e-05 6.90313e-05 0.3829446368 -0.7598338803
570296580.0 -0.3315242433 0.7775351006 -3.3357e-05 -9.56062e-05 0.0002126041 4.46034e-05 0.3752684587 -0.7632437778
575296550.0 -0.3241472047 0.7806853055 0.0001511405 -6.58529e-05 0.0001751162 2.356e-06 0.3678147971 -0.7676236704
580296520.0 -0.3160096327 0.7838577375 8.63827e-05 5.1199e-05 5.20558e-05 9.19454e-05 0.3596610437 -0.771003811
585296490.0 -0.307673105 0.7865723473 7.49964e-05 2.955e-07 0.0001113206 0.0001928464 0.3525883418 -0.7752833499
590296460.0 -0.3000424178 0.7896478975 -3.04023e-05 4.30781e-05 6.92839e-05 -0.000174159 0.3442899156 -0.7776704742
595296430.0 -0.2916728469 0.7934437708 5.05109e-05 -5.18291e-05 -9.24081e-05 0.0002861495 0.3363956873 -0.7809379002
600296400.0 -0.2839659496 0.7955700706 3.13632e-05 0.0001035967 -5.08633e-05 -1.08951e-05 0.3287142595 -0.783989675
605296370.0 -0.2753660609 0.7987691417 0.0002986948 6.2072e-05 -0.0001486206 -4.19061e-05 0.320310927 -0.7873350407
610296340.0 -0.2676610194 0.8012494678 -0.0003065218 -0.0001652036 0.000127345 2.14226e-05 0.3127019804 -0.7896692181
615296310.0 -0.2596780185 0.8041791482 -8.73843e-05 0.0001452157 6.86527e-05 -0.0001330478 0.3052612808 -0.793802523
620296280.0 -0.2507867519 0.8061433944 -5.13096e-05 0.0001147702 3.8527e-06 -6.60359e-05 0.297583105 -0.7964815395
625296250.0 -0.2431578123 0.8090008491 3.58299e-05 -9.18805e-05 0.0001761163 8.14185e-05 0.2890744549 -0.7986487501
630296220.0 -0.2344910686 0.8112849568 -5.13145e-05 8.03327e-05 -6.89517e-05 1.37942e-05 0.2808738037 -0.8010741426
635296190.0 -0.2267497835 0.8142141167 -1.10629e-05 8.65587e-05 -1.32089e-05 9.35e-06 0.2731122515 -0.8039724687
640296160.0 -0.2179359259 0.8148988876 -2.29546e-05 -0.0001037563 0.0001450414 -0.0001076098 0.2647774608 -0.8067891893
645296130.0 -0.2101458115 0.8178817512 -0.0003413695 0.0001345867 -0.0001136024 2.00733e-05 0.2569450194 -0.8091611278
650296100.0 -0.2018980934 0.8204735934 3.81693e-05 5.77836e-05 -2.65657e-05 -9.91214e-05 0.2487081453 -0.8116119267
655296070.0 -0.1933974656 0.8219462375 -0.0002086989 -0.0001865501 2.20536e-05 0.0001609582 0.2403553672 -0.813615756
660296040.0 -0.1851211703 0.8243320178 -2.64644e-05 -2.9811e-05 6.89777e-05 0.0002722334 0.2319817082 -0.8162510736
665296010.0 -0.1767974376 0.825807193 -1.59361e-05 0.0001089703 -0.0001202618 4.81394e-05 0.2243501345 -0.8179289185
670295980.0 -0.1681324611 0.8275011275 0.0001583181 0.0002075269 -5.75628e-05 -1.14357e-05 0.2163815013 -0.8198225341
675295950.0 -0.1604680224 0.8289020189 0.000111764 -0.0001427306 4.64086e-05 -2.66749e-05 0.2085611807 -0.8221568017
680295920.0 -0.1517758256 0.8313375137 0.0001347574 -1.8471e-06 -0.0002085088 2.69799e-05 0.1999521908 -0.824283562
685295890.0 -0.1431893582 0.8319868841 2.72068e-05 -0.0002251725 0.0001555736 0.0001070108 0.1920256357 -0.8260848599
690295860.0 -0.1346287934 0.8333673397 -2.97929e-05 2.77389e-05 -7.84645e-05 -3.2573e-06 0.1839774296 -0.8268887718
695295830.0 -0.1267941742 0.834149906 8.994e-06 3.20545e-05 -1.28101e-05 -8.70725e-05 0.1746575962 -0.8291552217
700295800.0 -0.117840286 0.8356361597 5.9801e-06 -0.0001789146 -1.23442e-05 7.77127e-05 0.1661960278 -0.8307126585
705295770.0 -0.1090192229 0.8376904586 -6.4827e-05 0.000267281 -0.0002569078 -9.00196e-05 0.1584035958 -0.8316488409
710295740.0 -0.1012199682 0.8381056082 0.0001306721 0.0002435982 -0.0001092575 0.0001329176 0.1493509317 -0.8326345839
715295710.0 -0.0936645789 0.8390922626 0.0001143594 -0.0001157526 3.82964e-05 -1.9789e-06 0.1418908859 -0.8344551351
720295680.0 -0.0842816366 0.839613028 -0.000122349 4.35808e-05 -4.74977e-05 1.46696e-05 0.1333740558 -0.8356340364
725295650.0 -0.0749329492 0.841011908 1.42658e-05 7.5339e-05 3.00519e-05 0.0002443143 0.1254535275 -0.8366081476
730295620.0 -0.0678094665 0.8413384771 -3.52388e-05 7.72225e-05 6.85358e-05 -3.46642e-05 0.1166798102 -0.837899174
735295590.0 -0.0583476182 0.8417055721 -0.00011085 -4.58198e-05 4.26642e-05 0.0001340659 0.1080851668 -0.8387270367
740295560.0 -0.050176645 0.8424244507 0.000182644 0.0001225137 -1.58054e-05 0.0001570435 0.1000781142 -0.8403885331
745295530.0 -0.0416020175 0.8427022976 -0.0001465297 6.35634e-05 0.00013814 -0.0001126539 0.0911556963 -0.8407233912
750295500.0 -0.0339871513 0.8432031238 -0.0001780951 -4.07261e-05 -8.00675e-05 1.36029e-05 0.0834238468 -0.8413196162
755295470.0 -0.024905589 0.8435867905 -9.681e-07 -9.61049e-05 -0.0001142145 -0.0001228535 0.074375691 -0.8417737889
760295440.0 -0.0168298903 0.8432296368 4.22661e-05 -1.82892e-05 -7.09025e-05 1.9962e-05 0.0659980547 -0.8427714844
765295410.0 -0.0078389077 0.8439326695 2.39174e-05 -7.47817e-05 -3.10188e-05 3.82718e-05 0.0584411273 -0.8426305031
770295380.0 0.0004271249 0.8443244321 7.80105e-05 -2.33e-08 0.0001158145 -8.74727e-05 0.0502033776 -0.8431895915
775295350.0 0.0086798158 0.8437972634 6.2622e-06 0.0003098406 -8.58554e-05 -4.152e-05 0.0413380991 -0.8448565812
780295320.0 0.017741658 0.8435589036 -3.52271e-05 8.51503e-05 -8.92066e-05 7.19725e-05 0.0322826074 -0.8435854331
785295290.0 0.0259173219 0.843807613 5.1535e-06 -0.0002827352 -7.0568e-05 -5.20362e-05 0.024534362 -0.8439135196
790295260.0 0.0343942922 0.8427764465 0.0001917593 1.58931e-05 -0.0002001401 0.0001235618 0.0160596278 -0.8445095164
795295230.0 0.0428719499 0.8430461706 0.0001169214 4.40534e-05 -1.84856e-05 -0.0001244031 0.0073594162 -0.8443239455
800295200.0 0.0510925743 0.8426642355 -4.71381e-05 8.0355e-06 0.0001295209 9.36516e-05 -0.0010093775 -0.8441421769
805295170.0 0.0594649907 0.842195644 9.7918e-05 -1.16347e-05 -2.6138e-06 4.71888e-05 -0.0097563053 -0.8440974237
810295140.0 0.0677011941 0.8412318465 0.0001244042 7.65895e-05 0.000154071 -0.0002833531 -0.0178115852 -0.8428877455
815295110.0 0.0770669897 0.8399977458 -3.36353e-05 0.0002225567 -9.4373e-06 4.1533e-06 -0.0273969738 -0.8429933725
820295080.0 0.0851440222 0.8385758218 3.49387e-05 2.04083e-05 9.4451e-05 0.000105396 -0.0356144587 -0.8430551743
825295050.0 0.0939054148 0.8386302395 2.71055e-05 -7.51085e-05 -9.88428e-05 0.0002158229 -0.0431633962 -0.8421274566
830295020.0 0.1020950216 0.8378644647 9.07888e-05 4.7492e-05 7.37091e-05 6.29954e-05 -0.0521567986 -0.8413635398
835294990.0 0.1095805708 0.8367901586 -8.33419e-05 1.07595e-05 1.74439e-05 6.8654e-06 -0.0604777465 -0.8409438958
840294960.0 0.1184616799 0.8352146499 5.24586e-05 -6.90978e-05 -5.94797e-05 4.24728e-05 -0.0690697306 -0.839552742
845294930.0 0.1265473138 0.8343767684 1.04489e-05 7.48353e-05 8.33501e-05 -1.87704e-05 -0.0769810694 -0.8390184743
850294900.0 0.1353122819 0.8327452476 0.0001140707 -6.33e-05 1.79683e-05 -1.91575e-05 -0.085397117 -0.8377350499
