!Created with skrf (http://scikit-rf.org).
# Hz S RI R 50.0 
!freq ReS11 ImS11 ReS21 ImS21 ReS12 ImS12 ReS22 ImS22
300000.0 -0.2368450463 -0.1145256117 0.4683158207 0.0764178195 0.4665941631 0.0773415134 -0.2376071943 -0.1222264875
5299970.0 -0.2450084783 0.0055169023 0.4734322569 0.005781254 0.4740331278 0.0058234442 -0.2436306782 0.0054267829
10299940.0 -0.2419124836 0.0184885365 0.4760133984 0.0067835795 0.4759378861 0.0071356745 -0.240236202 0.0183456231
15299910.0 -0.2369725184 0.0283351712 0.479139847 0.0083779325 0.4796242393 0.0079579816 -0.235976264 0.0275728124
20299880.0 -0.2315277942 0.0362867792 0.4840722992 0.0085077646 0.4845823598 0.0085897561 -0.231213961 0.0353497508
25299850.0 -0.2255530584 0.0429443391 0.4894343074 0.0080424081 0.489756206 0.0076072485 -0.2262859533 0.0417602513
30299820.0 -0.2202384542 0.0477785331 0.4947173972 0.0053337502 0.4952267607 0.0053690797 -0.2208648873 0.0468215747
35299790.0 -0.2142414882 0.0519147575 0.5001011593 0.0025950193 0.5001874712 0.0021902498 -0.2158494293 0.0514397093
40299760.0 -0.209177523 0.054834611 0.505456191 -0.0016153331 0.5056601906 -0.0015636727 -0.2106297489 0.0547341563
45299730.0 -0.2042970314 0.0572990068 0.5103958332 -0.0062068536 0.5107072511 -0.0064876768 -0.2058099861 0.0575340943
50299700.0 -0.1993684927 0.0590849945 0.5147757682 -0.0118780249 0.5143677305 -0.0117553113 -0.2013017797 0.0600860918
55299670.0 -0.1948651772 0.0604758599 0.5182803577 -0.017427319 0.5181829409 -0.0177826675 -0.19744084 0.062091095
60299640.0 -0.1908606428 0.0620175583 0.5218149505 -0.0242543022 0.5218925723 -0.0241511637 -0.1936807856 0.0634266309
65299610.0 -0.1874113067 0.0627287241 0.5252751408 -0.0302149813 0.5250551966 -0.0305877474 -0.1900635189 0.0647743195
70299580.0 -0.1837212217 0.0632422732 0.526973407 -0.0368641426 0.527436839 -0.0368878261 -0.1874471768 0.0656536258
75299550.0 -0.1811583678 0.0638224063 0.5287288669 -0.0440100942 0.5292579781 -0.0440678365 -0.1840154996 0.0669467541
80299520.0 -0.178280548 0.064674407 0.5311448502 -0.051175722 0.5310399762 -0.050939031 -0.1816512185 0.0679372708
85299490.0 -0.1757235115 0.0648707608 0.5321334885 -0.0577749533 0.5323583624 -0.0575708685 -0.1795110689 0.0686237794
90299460.0 -0.1736646951 0.0654359982 0.5333558858 -0.0645786953 0.5333439783 -0.064388124 -0.1770823022 0.069646352
95299430.0 -0.1713520102 0.0658902645 0.5340984261 -0.0714056573 0.5344496859 -0.0718572265 -0.1748641994 0.0706645707
100299400.0 -0.1694701267 0.0660661885 0.534620465 -0.0781724676 0.5347218223 -0.0787115903 -0.1731613545 0.0718116904
105299370.0 -0.1675472761 0.066380952 0.5346275752 -0.0850123884 0.5351290485 -0.0850527142 -0.1711476161 0.0720195542
110299340.0 -0.1660409772 0.0668410046 0.5354951344 -0.0914722517 0.5354313592 -0.0921096542 -0.1700008186 0.073029984
115299310.0 -0.1645568659 0.0677786141 0.5350778421 -0.0986671652 0.5351964698 -0.0991439763 -0.1681706967 0.0741071267
120299280.0 -0.1631624761 0.0682626312 0.535082062 -0.1060167707 0.5348978966 -0.106291712 -0.1669084065 0.0747169531
125299250.0 -0.1619949401 0.0684808824 0.534670295 -0.1124054369 0.534684855 -0.1122344227 -0.1654200454 0.0759600356
130299220.0 -0.1606110975 0.0691919026 0.5342724067 -0.1192599774 0.5341155385 -0.1197214096 -0.1639770439 0.077069571
135299190.0 -0.1596141404 0.070090637 0.5336507868 -0.1255853758 0.5336916342 -0.1261020022 -0.1629767343 0.0777856266
140299160.0 -0.1586976827 0.0710148559 0.5331871495 -0.1331883489 0.5330020159 -0.1324137315 -0.1624317904 0.0785372255
145299130.0 -0.1577337566 0.0718553572 0.5314035533 -0.1391997521 0.5319878298 -0.1392879371 -0.1608234208 0.0798153706
150299100.0 -0.1566018089 0.0724001331 0.5307338381 -0.1455748551 0.5304180311 -0.1459315453 -0.1600968664 0.0812281116
155299070.0 -0.1554631004 0.0736108673 0.5291178584 -0.1524412545 0.5294154355 -0.1520926407 -0.1589042268 0.08197775
160299040.0 -0.1548398628 0.0744869291 0.5280702147 -0.1587696615 0.5283418746 -0.1592333835 -0.1580178821 0.0835424305
165299010.0 -0.1538198734 0.0754372122 0.5268662132 -0.1654287713 0.5263173723 -0.1653584677 -0.156702534 0.0842624337
170298980.0 -0.1531290907 0.0762858855 0.5245328065 -0.1714263243 0.5251545088 -0.1717766309 -0.1561265946 0.0855225252
175298950.0 -0.1522519363 0.0774096787 0.5233704311 -0.1780157906 0.5240283056 -0.1782203139 -0.1551115958 0.0871114405
180298920.0 -0.1516238013 0.0784912358 0.5213384078 -0.1841454534 0.5217023923 -0.1844685382 -0.154192339 0.0882662685
185298890.0 -0.1507889981 0.0796133222 0.5202000207 -0.190443484 0.5198673175 -0.1901200486 -0.1529017272 0.0894187502
190298860.0 -0.1496810496 0.080729958 0.5173396277 -0.1966338091 0.5183086056 -0.196200937 -0.1524730133 0.09105248
195298830.0 -0.1490947812 0.0819923165 0.5163432367 -0.2025759305 0.5160564663 -0.2028130928 -0.1512881674 0.0922258394
200298800.0 -0.1479729133 0.0826321525 0.5137746067 -0.2090307443 0.5139901085 -0.2089769192 -0.1502456385 0.0937791751
205298770.0 -0.1481683741 0.0840214716 0.5114885905 -0.2149220172 0.5117534578 -0.2147207373 -0.149007568 0.0950605644
210298740.0 -0.1470670983 0.0853477174 0.5091349293 -0.220806536 0.5091027357 -0.2209054085 -0.1487209599 0.0960669716
215298710.0 -0.1462386708 0.086625443 0.5068243037 -0.2265453496 0.5070525941 -0.2270043165 -0.1476512557 0.0976049207
220298680.0 -0.1452708102 0.0880290653 0.5042636277 -0.2328900999 0.5044117012 -0.2331375683 -0.1463673188 0.0990900527
225298650.0 -0.1447674439 0.089157191 0.5019281456 -0.2389536344 0.5020940533 -0.2381202847 -0.1454387094 0.1003982749
230298620.0 -0.1436303146 0.0907520756 0.4994485213 -0.2444105247 0.4999782073 -0.2443246818 -0.1448144632 0.1016217978
235298590.0 -0.143344488 0.0918361353 0.4971010399 -0.2507519367 0.4969664704 -0.2502265705 -0.1434690561 0.1031052761
240298560.0 -0.1424872688 0.0931389551 0.4943595719 -0.2554725887 0.4946308629 -0.2557826267 -0.1428244368 0.1043939388
245298530.0 -0.1415211217 0.0942188049 0.4911834214 -0.2614300257 0.4915769988 -0.2617580047 -0.1418091483 0.1060523873
250298500.0 -0.140967414 0.0956598781 0.4888941276 -0.266908758 0.4887787508 -0.2671093319 -0.1406240496 0.1077201538
255298470.0 -0.1401184039 0.0970884758 0.4861920886 -0.2723833924 0.486527113 -0.2729542039 -0.1395987402 0.109388415
260298440.0 -0.1390758953 0.0983186703 0.4832245763 -0.2778868356 0.4833333091 -0.27811446 -0.1385625696 0.1104177242
265298410.0 -0.138535558 0.0996515274 0.4798378473 -0.2836463609 0.4797831594 -0.2844003671 -0.1369643632 0.1118146574
270298380.0 -0.1377571429 0.1009391934 0.4769802472 -0.2896611193 0.4769554985 -0.2893150127 -0.1359865521 0.1132712381
275298350.0 -0.1366115108 0.1024894257 0.473103332 -0.2945745545 0.473497428 -0.2946095045 -0.1348205082 0.114979827
280298320.0 -0.1361152677 0.1034769789 0.4706053366 -0.2998406314 0.4706662789 -0.3000159849 -0.1335281558 0.1161942647
285298290.0 -0.1353125293 0.1050944222 0.4671258662 -0.3052006807 0.4673501781 -0.3049949831 -0.1328782309 0.1178449622
290298260.0 -0.1340712475 0.106492618 0.4643684357 -0.3105550737 0.4641011636 -0.3106202661 -0.1312684399 0.1191413837
295298230.0 -0.1336661732 0.1074594905 0.460893614 -0.3159714488 0.4608039481 -0.3161609379 -0.1302714931 0.1203347969
300298200.0 -0.1324693953 0.1092213994 0.4572415844 -0.3212084068 0.4574836898 -0.3209544376 -0.1288845609 0.1217949485
305298170.0 -0.1314916521 0.1101431943 0.4539680059 -0.3265765966 0.4541176003 -0.3263523549 -0.1276883018 0.1230881023
310298140.0 -0.1302526289 0.1112680882 0.4502799912 -0.331256896 0.4504030744 -0.3313237167 -0.1257160312 0.1241114555
315298110.0 -0.129652133 0.1123894926 0.4466898548 -0.3375223684 0.4468126396 -0.3369457134 -0.1248816245 0.1257401002
320298080.0 -0.1285676909 0.113824414 0.4425982046 -0.3422551438 0.4434404726 -0.3422189133 -0.1237999214 0.1272305233
325298050.0 -0.1281231076 0.1142486079 0.4389653626 -0.3466966664 0.4390848792 -0.3470542438 -0.1220954609 0.1282164455
330298020.0 -0.1275689058 0.116038291 0.4348670906 -0.3518560201 0.4357802985 -0.3522047718 -0.1215750847 0.1296072536
335297990.0 -0.1265943453 0.1174028838 0.4313785205 -0.3565692689 0.4312134339 -0.3569636872 -0.1199860188 0.131041829
340297960.0 -0.1256348456 0.1186590965 0.4266106785 -0.361856997 0.4268592591 -0.3617334386 -0.1187200291 0.1327715397
345297930.0 -0.1250109597 0.1199123181 0.4228685629 -0.366540854 0.422791855 -0.3666767205 -0.1174070465 0.1337839819
350297900.0 -0.1241789896 0.1211472702 0.4189925399 -0.370558126 0.4188856155 -0.3706674845 -0.115766608 0.1351106745
355297870.0 -0.1232352624 0.1226317916 0.4147601634 -0.3751396486 0.4145896048 -0.3748790013 -0.1143144573 0.1365364897
360297840.0 -0.1221301118 0.1238552864 0.410315209 -0.3796639323 0.4106433305 -0.3801265947 -0.1134294387 0.138044547
365297810.0 -0.1212865537 0.1252709268 0.4067850354 -0.3844999569 0.4065410141 -0.3842502336 -0.1122812181 0.139284873
370297780.0 -0.1198337946 0.1265386572 0.4014958196 -0.3893378006 0.4020850629 -0.3890777593 -0.1105866019 0.1406602371
375297750.0 -0.1189215098 0.1276776521 0.3977174508 -0.3933150723 0.3978118625 -0.3933026437 -0.1092339299 0.1417928177
380297720.0 -0.1179452666 0.1289091111 0.3934146661 -0.3979490123 0.3933058141 -0.3981394215 -0.107460319 0.1436608037
385297690.0 -0.1170327795 0.130258121 0.3888145856 -0.4016450831 0.3891489382 -0.4024737381 -0.1063391955 0.1451035868
390297660.0 -0.1155077655 0.131156521 0.3843538005 -0.4057449652 0.3849108756 -0.4064862516 -0.1043511257 0.1458937786
395297630.0 -0.1142146389 0.1327248666 0.3801301313 -0.4101373197 0.3802472116 -0.4099467506 -0.1030142369 0.1470121958
400297600.0 -0.1133824058 0.1337780184 0.3755849256 -0.4142210176 0.3760966985 -0.4144084911 -0.1011691066 0.1490489752
405297570.0 -0.112247299 0.1346848698 0.3712024127 -0.4182141225 0.3715826022 -0.4185554403 -0.0992932306 0.1499378024
410297540.0 -0.111123497 0.1364065457 0.3663587453 -0.4231065304 0.3667397116 -0.4227702283 -0.0978350801 0.1512290604
415297510.0 -0.1097929636 0.1376073548 0.3618276028 -0.4271796651 0.3622775664 -0.4268603172 -0.0962364615 0.1521298488
420297480.0 -0.1088300406 0.1381259654 0.357364219 -0.4306227308 0.3577510687 -0.4309051102 -0.0941415874 0.154113825
425297450.0 -0.1071488644 0.1393380361 0.3528211316 -0.4341823355 0.3524362565 -0.4344279937 -0.0930492567 0.1548133645
430297420.0 -0.1059738505 0.1408003855 0.3483940895 -0.4388063589 0.3482134577 -0.4377780863 -0.0912083678 0.155931107
435297390.0 -0.1047393693 0.1416053283 0.3426476376 -0.4424264881 0.3430022628 -0.4419515348 -0.0898993863 0.1573348302
440297360.0 -0.1032086011 0.1429507687 0.3377561976 -0.4461533528 0.3380660252 -0.4458664104 -0.0879290788 0.1586207512
445297330.0 -0.1020151849 0.1436187725 0.3334355602 -0.4487043214 0.3330376221 -0.4497918581 -0.0858277737 0.1596862378
450297300.0 -0.1005264347 0.1447681113 0.3281878031 -0.4532457332 0.3283653392 -0.4529709195 -0.0840352852 0.1606179048
455297270.0 -0.0997094211 0.1459506957 0.3231418764 -0.4568918445 0.3235329411 -0.45666691 -0.0822329651 0.1617143905
460297240.0 -0.0978577788 0.1469282932 0.318833769 -0.4603665051 0.3184174986 -0.4604268042 -0.0807737921 0.1627727281
465297210.0 -0.0964014854 0.1479564359 0.3130335791 -0.4639257919 0.3129401749 -0.464096787 -0.0785104878 0.1642057439
470297180.0 -0.0949647437 0.1489595342 0.308116384 -0.4669531882 0.3083028987 -0.4667646121 -0.0768590225 0.1644424922
475297150.0 -0.0937395592 0.1501430681 0.3029076778 -0.4702293953 0.3030116331 -0.470481529 -0.07496652 0.1659751416
480297120.0 -0.0917967053 0.1514158275 0.2974270284 -0.4737476807 0.2980841453 -0.4735311825 -0.0734467211 0.167142491
485297090.0 -0.0906726213 0.1519504928 0.2925128474 -0.4772451524 0.292444766 -0.4767361892 -0.0711055151 0.1676113646
490297060.0 -0.088571788 0.153114605 0.2868907708 -0.4802162851 0.2877077418 -0.4800662621 -0.06979547 0.1685194986
495297030.0 -0.0875909456 0.1537707599 0.2824956905 -0.4831754764 0.2823397546 -0.4833849438 -0.0673752032 0.1694243148
500297000.0 -0.0860062019 0.155019464 0.2766359011 -0.4856512003 0.276588639 -0.4863384721 -0.065366333 0.1705952141
505296970.0 -0.0840504842 0.1557649192 0.2716530229 -0.489199248 0.2717065262 -0.4890096553 -0.0637439306 0.1708923055
510296940.0 -0.0827585555 0.1566623189 0.2664316238 -0.4927733853 0.2667465607 -0.4924735558 -0.0615822588 0.1724656227
515296910.0 -0.0810855782 0.157919819 0.2602819581 -0.4949023173 0.2602057947 -0.4946506628 -0.0598177632 0.172268546
520296880.0 -0.0793467468 0.1586883238 0.2554298679 -0.4978868223 0.2551560722 -0.4978835243 -0.0576473792 0.1743440722
525296850.0 -0.0779407535 0.159369282 0.2500363758 -0.5001801195 0.2492420154 -0.5006521528 -0.0556221391 0.1744241892
530296820.0 -0.0769106016 0.1604049801 0.2442837844 -0.5032223334 0.2445749372 -0.5032851163 -0.053654036 0.1751735502
535296790.0 -0.0743339653 0.1612832074 0.2388836316 -0.505848413 0.2391409698 -0.5061122337 -0.0515151088 0.1764245117
540296760.0 -0.0730637158 0.1622342513 0.2329378314 -0.5082606409 0.2332105461 -0.5081171237 -0.04989522 0.1763163329
545296730.0 -0.0717235808 0.1633693076 0.2281669676 -0.5107511072 0.2275046403 -0.5106992707 -0.0474454884 0.1774326203
550296700.0 -0.0693696489 0.1641372079 0.222287377 -0.5132303167 0.2220405347 -0.5132563834 -0.0454978487 0.177768481
555296670.0 -0.0679123469 0.164983382 0.2162793518 -0.5156276211 0.2166656318 -0.5154636068 -0.043772909 0.1780638817
560296640.0 -0.0659652648 0.1654019279 0.2107013472 -0.5179666095 0.2111701927 -0.517849643 -0.0417480172 0.1793347481
565296610.0 -0.0650982394 0.1665892382 0.2054619104 -0.5202517789 0.2053833188 -0.519909872 -0.0394900642 0.1801217299
570296580.0 -0.0629333958 0.1675000228 0.1994192292 -0.5222208289 0.1997712034 -0.5223527008 -0.0378308108 0.1801559677
575296550.0 -0.061288915 0.1678742503 0.1942727072 -0.5242597686 0.1938122123 -0.5240578532 -0.035360196 0.1806265936
580296520.0 -0.0594604071 0.1690785133 0.1884404739 -0.5266938282 0.188084156 -0.5266781049 -0.0335478134 0.1812610819
585296490.0 -0.0577776964 0.1698574879 0.1827927712 -0.5284827719 0.182054657 -0.5285233815 -0.0310845038 0.1819745377
590296460.0 -0.0553409764 0.1705504349 0.1767700651 -0.5304669746 0.1767228713 -0.5305130961 -0.0296496688 0.1822968794
595296430.0 -0.0538445194 0.1715010504 0.1707331995 -0.532218258 0.1708026186 -0.5324634393 -0.027589568 0.1826400051
600296400.0 -0.052285881 0.172039446 0.1647895659 -0.5337119203 0.1648864534 -0.5338589913 -0.0253082104 0.1830084857
605296370.0 -0.050949713 0.1728605769 0.1596546543 -0.5354977162 0.1591787328 -0.535794639 -0.0234646526 0.183803406
610296340.0 -0.0487141701 0.1737903449 0.1534754154 -0.5366909376 0.1541025854 -0.5368589108 -0.0215272183 0.1838920065
615296310.0 -0.0466579687 0.1742870409 0.1477084384 -0.5393612073 0.1471950462 -0.5393162848 -0.0190569896 0.1846516354
620296280.0 -0.0453418107 0.1752461961 0.1412424685 -0.5406497633 0.1414212055 -0.5405274078 -0.01719739 0.1852281244
625296250.0 -0.0437165896 0.1753014821 0.1358837981 -0.5419522855 0.1362226865 -0.5421838252 -0.0155263939 0.1847330778
630296220.0 -0.0419201946 0.176369574 0.1297207965 -0.5435885502 0.1295355752 -0.543224278 -0.0125860535 0.1853338496
635296190.0 -0.0403143083 0.1773976531 0.1241348496 -0.544455137 0.1243137291 -0.5445212604 -0.0110154323 0.1856121129
640296160.0 -0.0384119648 0.1777419664 0.1180105275 -0.546135393 0.1178190961 -0.5460505638 -0.0092070569 0.1859190968
645296130.0 -0.0363559867 0.1787578823 0.1118582192 -0.5473448088 0.1120227503 -0.5467653673 -0.0068474024 0.1857673888
650296100.0 -0.0347545122 0.1789585009 0.1067549597 -0.5485750681 0.1060333637 -0.5485236692 -0.0044706588 0.1862206787
655296070.0 -0.0329981952 0.1797769785 0.1000799748 -0.5497246361 0.100192656 -0.5494179772 -0.0030255535 0.1865937892
660296040.0 -0.0311809252 0.1805047946 0.0947619101 -0.5509628281 0.0944760929 -0.5502188649 -0.0007951978 0.18640481
665296010.0 -0.0293636661 0.1806104215 0.0878674417 -0.5509930345 0.0877238536 -0.5510705117 0.001444877 0.1868023506
670295980.0 -0.0277425635 0.1814110346 0.0826355709 -0.5526505683 0.0819431101 -0.5519334196 0.0033367204 0.1866785585
675295950.0 -0.0258601207 0.1819745429 0.0763472445 -0.5525241163 0.0764901392 -0.5529184323 0.0052580665 0.1871312529
680295920.0 -0.0244386932 0.1826865454 0.0710026179 -0.5535166057 0.0703532918 -0.5537656728 0.0076475519 0.1868605586
685295890.0 -0.0221231511 0.1831978579 0.0642584793 -0.5545773412 0.0644575096 -0.5548786023 0.0096497088 0.187484074
690295860.0 -0.0208228201 0.1836034206 0.0581670015 -0.5550720282 0.0582486138 -0.5551862807 0.0115500966 0.1872075378
695295830.0 -0.0189237763 0.1837996485 0.0527125168 -0.5557967128 0.0525346016 -0.5558709865 0.0136430425 0.1874965093
700295800.0 -0.0170802005 0.184390094 0.0469568303 -0.5563205786 0.0467679833 -0.5561442629 0.0159319186 0.1871761843
705295770.0 -0.0153163031 0.184866567 0.0405579465 -0.5569946527 0.0402595632 -0.5565590508 0.0178233393 0.1873447783
710295740.0 -0.0137466099 0.1851197875 0.0346265583 -0.5569435888 0.0341585206 -0.5574675757 0.020117638 0.1873580872
715295710.0 -0.0118351997 0.1860161642 0.028796404 -0.5576883118 0.0285129434 -0.5575133026 0.0220738832 0.1869491859
720295680.0 -0.0096435611 0.186176975 0.0226457663 -0.5572742421 0.0225201712 -0.5574824375 0.0241402204 0.1868018688
725295650.0 -0.0083812633 0.1866614487 0.0168178794 -0.55789818 0.0165519753 -0.5579114082 0.0256854988 0.1871990172
730295620.0 -0.0072639737 0.186650518 0.0105865917 -0.5575192007 0.010566756 -0.557779777 0.0278032131 0.1874640532
735295590.0 -0.0049944385 0.1871042116 0.0050053791 -0.5583007091 0.004521968 -0.5579885969 0.0298614181 0.1864874931
740295560.0 -0.0035921045 0.1875015813 -0.0015234042 -0.5580936549 -0.0011977525 -0.5584898241 0.0319195932 0.1868904196
745295530.0 -0.0015934784 0.1877307145 -0.007324761 -0.5572642475 -0.0066725555 -0.5576918869 0.0336570957 0.1864098624
750295500.0 -2.25e-05 0.1880572722 -0.013255261 -0.5575379508 -0.013641277 -0.5575601046 0.0361668043 0.1862185724
755295470.0 0.001717973 0.1882699044 -0.0190957626 -0.5577521934 -0.019238449 -0.5581781237 0.0381097673 0.1864771003
760295440.0 0.0035943886 0.1888163952 -0.0257112824 -0.5575272328 -0.0254152648 -0.5568865862 0.0404398627 0.1851845699
765295410.0 0.0056858727 0.1885527402 -0.0311916016 -0.55699163 -0.0309546155 -0.557074431 0.0424603111 0.1851927386
770295380.0 0.0071506487 0.1890330646 -0.0370218742 -0.5563224183 -0.0373012211 -0.5567667963 0.0441385887 0.1852346741
775295350.0 0.0090386794 0.1889468787 -0.0431412686 -0.5559423927 -0.0430306942 -0.5558448917 0.0464787114 0.1849103931
780295320.0 0.0104313423 0.1893376402 -0.0488547183 -0.554997166 -0.0491949844 -0.5554479831 0.0486952092 0.1842744374
785295290.0 0.0122144649 0.1890401818 -0.0547043474 -0.5548254506 -0.054958316 -0.5550002955 0.0499947064 0.1842810846
790295260.0 0.013901388 0.1891311469 -0.060507835 -0.5543778781 -0.0608930793 -0.5546146065 0.052219004 0.184231438
795295230.0 0.0156256596 0.1892574037 -0.0669265845 -0.5537133386 -0.0668465514 -0.5540060411 0.0542528769 0.1833022797
800295200.0 0.0170034274 0.1896880838 -0.0721778606 -0.5523858999 -0.0730041014 -0.5529899214 0.0561631074 0.1826631671
805295170.0 0.0187034222 0.1895784537 -0.0785155413 -0.5523063344 -0.0785038486 -0.5521856917 0.0588072053 0.1824671726
810295140.0 0.0209895218 0.1897008913 -0.0845047269 -0.5512500773 -0.084866361 -0.5510228742 0.0606268267 0.181774327
815295110.0 0.0225393743 0.1900134793 -0.0902696143 -0.5503848349 -0.0900228234 -0.5505833435 0.0621314552 0.181481064
820295080.0 0.0240715889 0.1895582499 -0.0958898636 -0.5490795485 -0.0961214688 -0.5493287949 0.0635835284 0.181554363
825295050.0 0.0258878079 0.1894992018 -0.1023399999 -0.5482946098 -0.1023546648 -0.5481839934 0.0665839234 0.1808609525
830295020.0 0.0275240693 0.1897161214 -0.1078515297 -0.5470540239 -0.1081920991 -0.5470595557 0.0682550933 0.1795220645
