!Created with skrf (http://scikit-rf.org).
# Hz S RI R 50.0 
!freq ReS11 ImS11 ReS21 ImS21 ReS12 ImS12 ReS22 ImS22
300000.0 -0.7756557972 -0.1432413905 -0.0017977026 -0.0007037402 -0.0008592183 0.0016404934 -0.2109995441 -0.0903176534
5299970.0 -0.7850835825 -0.0073402362 -2.09022e-05 -9.29868e-05 1.78524e-05 0.0001498265 -0.2166337283 0.006906496
10299940.0 -0.7876598652 -0.0040920842 -9.55343e-05 0.0001305971 3.00866e-05 -0.0001724039 -0.2133803105 0.0188367245
15299910.0 -0.7935279534 -0.0012309344 0.0002363028 0.000163318 -4.3581e-06 -0.0001168605 -0.2084682796 0.0278386992
20299880.0 -0.7995277023 0.0022746405 -5.02852e-05 -4.8593e-06 -0.0001425645 -4.55422e-05 -0.2034562305 0.035602996
25299850.0 -0.8066750979 0.008248267 0.0002546696 -0.0001778881 -7.69973e-05 0.0001758072 -0.1978227347 0.0414991159
30299820.0 -0.8119676794 0.0163306254 -9.19211e-05 -6.01523e-05 -6.4258e-06 9.49421e-05 -0.1918912219 0.0462841171
35299790.0 -0.8170690769 0.0251415689 0.0001872869 9.35018e-05 -0.0001507326 -0.0001273858 -0.185967177 0.0499216899
40299760.0 -0.8214883447 0.0344540482 -0.000118802 -0.0001576437 -2.35862e-05 -3.0306e-05 -0.1806829726 0.0528050724
45299730.0 -0.8247604939 0.044076833 6.20735e-05 4.64592e-05 -5.26909e-05 -7.46956e-05 -0.1759463194 0.0550434727
50299700.0 -0.8267553111 0.054246067 7.3398e-06 4.61281e-05 0.0002433625 3.15763e-05 -0.1706687186 0.0565816875
55299670.0 -0.8289073188 0.0640325028 -3.3085e-06 0.0001199262 -1.31975e-05 -5.91212e-05 -0.1663707204 0.0577094517
60299640.0 -0.8300400033 0.0747562816 3.74697e-05 -0.000151383 0.0002441597 6.80449e-05 -0.1624445339 0.0584561246
65299610.0 -0.8310450622 0.0848695691 0.0001536822 9.9641e-06 -2.47311e-05 0.0001230662 -0.1589566652 0.058926829
70299580.0 -0.8312982707 0.0944534835 0.000211193 7.27788e-05 0.0001448555 3.25611e-05 -0.1554898043 0.0592465454
75299550.0 -0.8312819379 0.1044200279 1.89612e-05 0.0001550426 0.0002323871 7.94068e-05 -0.1528821488 0.0592883144
80299520.0 -0.8311616978 0.1144196062 4.87e-07 -0.0001108616 2.13777e-05 -7.70856e-05 -0.1504055358 0.0592246215
85299490.0 -0.831161708 0.1242888615 0.0001432819 -5.24245e-05 2.00192e-05 1.36047e-05 -0.1476745779 0.0593666428
90299460.0 -0.8300404628 0.134222542 -6.84906e-05 -0.0001831015 0.000105867 8.76784e-05 -0.1451617805 0.0594126264
95299430.0 -0.8285691573 0.1435510948 4.88826e-05 -2.57658e-05 -0.0001289297 -1.0192e-05 -0.1434145114 0.0592916543
100299400.0 -0.8279553658 0.1528903822 1.51201e-05 -9.95445e-05 2.78798e-05 8.89545e-05 -0.1419165418 0.0590715883
105299370.0 -0.8267367826 0.1621334975 -2.5219e-06 -6.74651e-05 -1.92092e-05 0.000102533 -0.1398754556 0.0591958387
110299340.0 -0.8251894951 0.1713934718 5.28765e-05 4.90963e-05 -4.57405e-05 0.0001654544 -0.13870428 0.0593641572
115299310.0 -0.8236496143 0.1805757648 0.0002101695 5.46107e-05 6.59318e-05 3.86732e-05 -0.1372565738 0.0591413054
120299280.0 -0.8224329095 0.1896177148 0.000120643 0.0001213588 0.0001171774 9.83126e-05 -0.1362100057 0.0592942733
125299250.0 -0.8202698032 0.1984809942 0.0001144904 0.0001078957 0.0001525494 -3.0232e-06 -0.134837323 0.0596153452
130299220.0 -0.8185127153 0.2076351279 -2.69105e-05 -0.0001939773 -0.0001876789 6.08996e-05 -0.1342928805 0.0596230343
135299190.0 -0.8167021849 0.2164374193 -7.49485e-05 9.71492e-05 0.00020477 -0.0001759766 -0.1328764631 0.0597557954
140299160.0 -0.8145120443 0.2256287941 4.64957e-05 8.8026e-05 -1.60375e-05 9.69952e-05 -0.1320088871 0.0599986068
145299130.0 -0.8124977229 0.2341853695 -7.99049e-05 0.0002380563 -0.0001298961 -6.91169e-05 -0.1318682054 0.0603504696
150299100.0 -0.8097255928 0.2434436617 0.0001283506 0.0001058445 -0.0001049637 -1.358e-07 -0.1308550694 0.0603699829
155299070.0 -0.807876336 0.2526569504 -2.03106e-05 4.1849e-05 -2.57217e-05 -1.09971e-05 -0.1302614039 0.0609219945
160299040.0 -0.8048503356 0.2612665713 3.08298e-05 -0.0001107526 7.34667e-05 3.43737e-05 -0.1296387283 0.0613540628
165299010.0 -0.801901245 0.2695128957 1.17311e-05 0.0001959548 -8.94048e-05 6.90555e-05 -0.1288083595 0.061380157
170298980.0 -0.7995962108 0.2782967257 0.000269255 0.000165257 -6.23927e-05 -2.35061e-05 -0.1283492614 0.0623908944
175298950.0 -0.7968304488 0.286961203 8.1377e-06 0.0002993716 6.69612e-05 -6.1441e-06 -0.128031236 0.0626177884
180298920.0 -0.7939069963 0.2948130779 -6.58307e-05 -7.60007e-05 0.0001527034 7.395e-07 -0.1268692426 0.0635737057
185298890.0 -0.7905074005 0.304337084 3.90355e-05 5.61097e-05 0.0001742044 -0.0001623034 -0.1267901142 0.0637621192
190298860.0 -0.7874243245 0.3126060163 -0.000128413 0.0001175954 0.0001748297 2.99965e-05 -0.1258892659 0.0645380631
195298830.0 -0.7842732963 0.3208076874 2.55307e-05 0.0003166497 0.0001771907 1.79056e-05 -0.1258390802 0.0650734056
200298800.0 -0.7812978569 0.3294875 6.63974e-05 2.64447e-05 0.0001307076 0.0001078107 -0.1249694108 0.0656755285
205298770.0 -0.7776323556 0.3372362458 0.0002917786 7.7692e-05 -1.10362e-05 0.0001088712 -0.1244702648 0.0665996952
210298740.0 -0.77351527 0.3453515033 0.0001043656 9.36368e-05 1.05593e-05 -1.4827e-06 -0.1241552945 0.0672264079
215298710.0 -0.770523239 0.3541318863 -7.84825e-05 1.89281e-05 9.26772e-05 0.0001739733 -0.1241980145 0.0679341065
220298680.0 -0.7672674203 0.3623742099 0.0001279809 9.9279e-05 0.0001616404 3.84686e-05 -0.1228749028 0.0690210887
225298650.0 -0.7629368993 0.3707161381 -0.0001486309 -2.95373e-05 0.0001342093 0.0001400591 -0.123180243 0.0701497309
230298620.0 -0.7585980611 0.3789023698 4.40529e-05 8.5698e-05 0.0001520752 7.749e-06 -0.1222451755 0.0705424819
235298590.0 -0.7548632841 0.3870765185 -0.000126966 4.10493e-05 0.0001483412 0.0001441398 -0.1218000302 0.0711869003
240298560.0 -0.7510292914 0.3953138698 6.1721e-06 -0.0001326094 0.0001855271 0.0003624738 -0.1214054593 0.0725614695
245298530.0 -0.7465466494 0.402939984 -4.64457e-05 -9.82736e-05 4.91312e-05 7.07717e-05 -0.1208665756 0.073288764
250298500.0 -0.7421643854 0.4103531012 7.8117e-05 0.0003755401 0.0001120783 0.0001236353 -0.1199890178 0.074478456
255298470.0 -0.7374950372 0.4192290981 -5.55063e-05 9.78106e-05 9.82144e-05 -0.0001677593 -0.119753748 0.0750420773
260298440.0 -0.7335456692 0.4263047953 -8.79448e-05 0.0001543992 1.7919e-06 3.7841e-06 -0.1191563481 0.0759555631
265298410.0 -0.7290205361 0.4342933155 -0.0001251235 8.62079e-05 0.0002815733 -2.41768e-05 -0.1183850965 0.0770545989
270298380.0 -0.7251651697 0.4415791122 8.1523e-06 0.0001602331 -7.5264e-05 0.0001432464 -0.1178070675 0.0775805308
275298350.0 -0.7192697979 0.4491564444 8.0801e-05 0.000260679 -2.54845e-05 0.0002192053 -0.1170365121 0.0789609389
280298320.0 -0.7153798868 0.4562690308 6.83342e-05 0.0001732164 -1.6249e-05 -8.58667e-05 -0.1167084208 0.0799211344
285298290.0 -0.7102797373 0.4644078603 -6.64715e-05 9.09796e-05 2.05102e-05 0.0001511579 -0.1162252734 0.0809713254
290298260.0 -0.7051079803 0.4714751905 0.0001746721 0.0001137514 0.0001868567 -0.0001675665 -0.1153258181 0.0822849824
295298230.0 -0.7004632726 0.4791430567 -0.0002629136 -3.20835e-05 9.4721e-05 0.0002716062 -0.1149355573 0.0827782271
300298200.0 -0.6950367061 0.4865627367 0.0001265196 6.5587e-05 0.000101802 7.85671e-05 -0.1140118007 0.0842366965
305298170.0 -0.6898710085 0.4935092464 -6.8941e-05 -5.72992e-05 0.0001931035 0.0004068435 -0.1130266147 0.0853578365
310298140.0 -0.6843863051 0.5011652771 0.0001048173 0.0003197129 6.22555e-05 -4.70786e-05 -0.1128166902 0.0862339835
315298110.0 -0.6800029874 0.5077115942 0.0003370437 0.0001430596 0.0001422845 0.0003187929 -0.1118540584 0.0874636405
320298080.0 -0.6742481525 0.5156747151 5.632e-07 -0.0001641135 0.0001323195 1.30676e-05 -0.1110459131 0.0881460901
325298050.0 -0.6682597048 0.5217028802 4.39024e-05 0.0002465671 7.6629e-06 9.65519e-05 -0.1104616433 0.0890648433
330298020.0 -0.6628625388 0.5296120747 0.0001609045 -3.97283e-05 7.58977e-05 7.85305e-05 -0.1099691284 0.0902619971
335297990.0 -0.6571818542 0.536051938 7.75514e-05 -9.57287e-05 4.74893e-05 6.9229e-05 -0.1094861954 0.091176754
340297960.0 -0.652441247 0.5426347055 0.0001583454 0.0001030978 0.0004332989 0.0002053913 -0.1086451274 0.0924167308
345297930.0 -0.6460403674 0.5492638531 8.14352e-05 0.0001453011 0.0001684266 0.0001324583 -0.1083638762 0.0934899952
350297900.0 -0.6403036742 0.5561363625 0.0001112901 -6.01957e-05 0.0001411872 -2.25791e-05 -0.1070064723 0.094938834
355297870.0 -0.6339799289 0.5629390939 0.0002477428 0.0001051823 7.70689e-05 0.0003375449 -0.1068052531 0.0958731253
360297840.0 -0.6279772558 0.5690719825 3.5591e-05 0.0001890585 0.0001387885 0.0001181822 -0.1059847698 0.0971858814
365297810.0 -0.6224192021 0.5757260539 8.38749e-05 -3.67262e-05 0.0001128194 0.0001702025 -0.1051349356 0.0985700473
370297780.0 -0.6162272494 0.581238378 0.0001118067 0.0001040039 9.3911e-05 0.0001197076 -0.1043016486 0.0992700364
375297750.0 -0.6098461796 0.5883489135 0.0001828401 -2.56799e-05 5.52391e-05 1.51064e-05 -0.1037626433 0.1006477222
380297720.0 -0.6041902006 0.5943941299 0.0002429466 7.22288e-05 -2.685e-07 -1.0933e-05 -0.1030750763 0.1017983069
385297690.0 -0.5977786866 0.6006752015 0.00011482 0.0001244715 0.0001912386 3.85589e-05 -0.101937688 0.1033474855
390297660.0 -0.591225279 0.6075136861 5.32496e-05 6.34063e-05 0.0003001308 0.0001939221 -0.1009768228 0.1039740652
395297630.0 -0.5850785121 0.6129927247 -3.04999e-05 4.25478e-05 0.0002730896 5.41502e-05 -0.1001808381 0.1055498503
400297600.0 -0.5787045151 0.6189036283 0.0001987718 7.81834e-05 0.0002400179 0.0001670608 -0.0996570781 0.1067188346
405297570.0 -0.5727016241 0.6248934967 0.0002525153 -6.27188e-05 7.9966e-06 0.0001275377 -0.0987616213 0.1073800678
410297540.0 -0.5654688862 0.6302810541 0.0002684772 0.0001007491 2.1274e-05 0.0001376195 -0.0977691613 0.1088137148
415297510.0 -0.5592117714 0.6358417098 -5.895e-07 0.0001929134 0.0002770092 0.0001200032 -0.0970104303 0.1101943157
420297480.0 -0.5517945595 0.6420183664 0.0001916656 -0.0001830936 0.0001362895 0.0001699603 -0.0960343656 0.1109418478
425297450.0 -0.5458608695 0.647846299 0.0002874613 0.0001680173 0.0003649654 -7.70835e-05 -0.0947818603 0.1122309971
430297420.0 -0.5397752475 0.6530463168 -9.7361e-06 -0.0001755503 3.13481e-05 0.0001826984 -0.0941718062 0.1134247012
435297390.0 -0.5314330586 0.6589203245 5.56346e-05 6.91858e-05 1.54755e-05 -0.0002389093 -0.0929263102 0.1146423896
440297360.0 -0.52545426 0.6639600811 0.0004519208 1.97704e-05 8.23878e-05 6.81878e-05 -0.0920203129 0.1156669401
445297330.0 -0.51829849 0.6699631331 0.0002107803 0.0001388089 0.00012819 8.6316e-05 -0.0914270823 0.1166371842
450297300.0 -0.5109840009 0.6747315034 5.76015e-05 0.0001499846 0.0001730105 0.0002199129 -0.0906347681 0.1179946366
455297270.0 -0.5045286828 0.680198037 5.12112e-05 0.0002174015 0.0002718627 8.4677e-05 -0.0892093312 0.1189622779
460297240.0 -0.497974529 0.6848070188 0.0001148951 0.0002323999 0.0002316119 -3.52608e-05 -0.0883491268 0.1201580139
465297210.0 -0.48983411 0.6903015886 0.0001951268 4.08576e-05 9.36981e-05 0.0001586821 -0.0876628187 0.1208767753
470297180.0 -0.4828787546 0.6945309568 8.29201e-05 0.0001733033 0.0001634256 3.74825e-05 -0.0868692136 0.1221529566
475297150.0 -0.4761008832 0.7001774436 0.000176145 0.000188608 0.000303828 0.0001020886 -0.0855888597 0.1230845546
480297120.0 -0.4691767626 0.7044596231 0.0001692371 8.55777e-05 0.0001940506 -6.42206e-05 -0.0845678476 0.1243258138
485297090.0 -0.4608933825 0.709286256 0.0001959673 -9.8235e-06 0.0001963494 0.0002557608 -0.0836182234 0.125270524
490297060.0 -0.4541431945 0.7137646786 0.0002345394 0.0001066443 7.3609e-06 -0.0001119676 -0.0826344317 0.1262885295
495297030.0 -0.4472651334 0.7185063903 0.0002136032 -4.0361e-06 0.0002097772 0.0001005097 -0.0816303558 0.1270731498
500297000.0 -0.4385866945 0.7234415298 0.0003138914 -6.3465e-06 0.0001329522 -6.08906e-05 -0.0804136715 0.1282741292
505296970.0 -0.431207479 0.7270069457 0.0002573496 4.15608e-05 0.0001988114 0.00016687 -0.0796807022 0.1294289157
510296940.0 -0.424477371 0.7321598922 7.17845e-05 -0.000106381 0.0001153471 0.0001031529 -0.0779949937 0.1301823617
515296910.0 -0.417200771 0.7362791282 0.0001352965 -5.51699e-05 0.0001253403 0.0002620619 -0.0773018671 0.1312833152
520296880.0 -0.4091880436 0.7407087674 0.0003231268 -4.10479e-05 0.0001792373 -2.03201e-05 -0.0760739612 0.1321754827
525296850.0 -0.4017586645 0.7444241645 0.0002086486 5.803e-06 0.000320028 -1.97946e-05 -0.0747692358 0.1329930674
530296820.0 -0.3947032929 0.7481220859 0.0001801558 0.0002118302 0.0002711789 0.0001339672 -0.0741242474 0.1341485197
535296790.0 -0.3863337208 0.7523230091 0.0001726993 -8.08831e-05 0.0004413299 -7.44948e-05 -0.0729735071 0.1345508153
540296760.0 -0.3783307076 0.7559111381 0.0001536267 -5.00325e-05 6.62869e-05 0.0002052044 -0.0718213139 0.1357905047
545296730.0 -0.3714257712 0.7598501693 0.0003906223 0.0002018254 0.0001087064 -4.0971e-06 -0.0708525933 0.1364032839
550296700.0 -0.3635847798 0.7636289355 8.04593e-05 -0.0001937412 -5.51988e-05 5.96626e-05 -0.0693829624 0.1371923782
555296670.0 -0.3550561022 0.7673910039 0.0003385735 5.17187e-05 0.000161522 -1.3927e-05 -0.0685647299 0.1384303229
560296640.0 -0.3470456015 0.7708754031 0.0003988074 0.0001693813 0.000282261 -7.44093e-05 -0.0672642139 0.1391933595
565296610.0 -0.3400327523 0.7740519356 5.13795e-05 0.0001375374 0.0002327659 8.29824e-05 -0.0660603662 0.1401154148
570296580.0 -0.3315425616 0.7776429908 0.0004922199 0.0001452884 0.000248386 -5.38796e-05 -0.0646401207 0.1411151302
575296550.0 -0.3235383259 0.7812031268 0.0001241286 -7.50437e-05 0.0001488238 -5.135e-06 -0.0635902023 0.1418817833
580296520.0 -0.3158075655 0.7838398957 -0.0001453495 -8.54856e-05 0.0002957017 -4.73963e-05 -0.0623082819 0.1425791328
585296490.0 -0.3074987023 0.7868299151 0.0004645749 8.75332e-05 0.0002901023 -1.26778e-05 -0.0610760232 0.1427410386
590296460.0 -0.2997605084 0.7892784932 0.0001050463 8.159e-07 0.0002887535 -0.0001549289 -0.0598958865 0.1439331929
595296430.0 -0.2918126469 0.7932273074 0.0001226291 3.32572e-05 0.0001530166 -5.57737e-05 -0.0585706371 0.1446490633
600296400.0 -0.2840296661 0.7957212705 0.0002388689 -0.0001188204 0.0002121468 0.0001487299 -0.0571494631 0.1455858874
605296370.0 -0.2756859416 0.7990074722 0.0002592186 0.0003106896 0.0002510991 -2.02424e-05 -0.056052516 0.1461642487
610296340.0 -0.2674824128 0.801627787 9.46225e-05 8.37347e-05 0.0002382636 0.0001307172 -0.0550822221 0.1470444869
615296310.0 -0.259283518 0.803959624 0.0003470382 0.0001250131 0.0003279895 0.0001023143 -0.0535844306 0.1474296449
620296280.0 -0.2510719479 0.806040482 0.0001826146 -5.35027e-05 9.75934e-05 5.75422e-05 -0.0526584042 0.1483838507
625296250.0 -0.242344716 0.8092071725 0.0001587763 -4.26237e-05 6.93577e-05 0.0001609463 -0.0512944667 0.149090889
630296220.0 -0.2347682755 0.8115971297 0.0002123616 -0.00010589 0.0001584067 0.0002148827 -0.0499052002 0.1497141866
635296190.0 -0.226346 0.8135866386 0.0005660732 0.0001785932 0.0002507511 -5.06863e-05 -0.048341581 0.1502848959
640296160.0 -0.2178232746 0.8158782202 0.0002239279 -2.70114e-05 -1.6794e-05 -1.6923e-05 -0.0469610785 0.1506402844
645296130.0 -0.210156819 0.8179696269 0.0002122361 4.5358e-05 9.16522e-05 -5.324e-07 -0.0461746747 0.1514565224
650296100.0 -0.2017816475 0.8202389462 0.0002767924 2.13838e-05 0.0001160418 0.0001491918 -0.0444966711 0.1521491241
655296070.0 -0.1934452329 0.8222294655 0.000387477 0.0002280889 0.0003279734 8.91293e-05 -0.0428362358 0.1528895514
660296040.0 -0.1850736394 0.8239232717 0.0004700518 -0.0003345416 0.000464906 3.97434e-05 -0.0412490732 0.1537129789
665296010.0 -0.1771372205 0.8250771811 0.0002576053 9.84782e-05 4.31971e-05 0.0001553876 -0.0404281508 0.1539852698
670295980.0 -0.1682244686 0.8273916417 0.0003892857 4.5622e-05 0.0001041311 0.0001070548 -0.0392175759 0.1545632985
675295950.0 -0.1600046689 0.8286587459 0.0003758177 0.0002060262 0.0004319954 2.18342e-05 -0.0372114522 0.1550109059
680295920.0 -0.151731089 0.8307617869 0.0002421955 -7.38062e-05 0.0003201679 8.35756e-05 -0.0360761816 0.1557667212
685295890.0 -0.1433436158 0.8317490359 0.0004501986 0.0001185872 0.0002968917 6.44273e-05 -0.0345360471 0.1564327121
690295860.0 -0.1342352314 0.8338278519 0.0001079384 0.0001104421 0.0001827824 3.67226e-05 -0.032992938 0.156978959
695295830.0 -0.1259703485 0.8343807548 0.0002399517 -1.20039e-05 0.0004609834 -0.0001732643 -0.0317633627 0.1575078147
700295800.0 -0.1180216604 0.8361107386 0.0002592316 5.69887e-05 0.000336672 8.96243e-05 -0.0300136073 0.1574316885
705295770.0 -0.1087779235 0.8376941043 0.0004187025 -9.47904e-05 0.0002168112 0.0001271016 -0.0288197709 0.1585605995
710295740.0 -0.1011073119 0.8379612174 0.0004407705 -6.87521e-05 0.0003750295 -4.11801e-05 -0.0278918552 0.1590106694
715295710.0 -0.0931601736 0.8390524136 0.0003268454 2.19365e-05 0.0004051033 -3.15881e-05 -0.0262604408 0.1591739385
720295680.0 -0.084421007 0.8393173941 0.0003023637 0.0001228619 0.0001560449 -0.0002232883 -0.0244308889 0.159678061
725295650.0 -0.0754832593 0.8409430398 0.0002121635 0.0002243107 0.0002895628 -0.0001496186 -0.0230625937 0.1602614399
730295620.0 -0.067165148 0.841068556 0.0002854656 2.57572e-05 0.0002988652 -3.55401e-05 -0.0218667209 0.1604709562
735295590.0 -0.0587582652 0.8417262534 0.0001184284 -0.0002795383 0.000343306 9.29933e-05 -0.0200158611 0.1608679738
740295560.0 -0.050239959 0.8424573997 0.000313268 -0.0001933548 0.0001790837 9.14914e-05 -0.0188816825 0.1613258879
745295530.0 -0.0423333975 0.8427937999 0.0002853285 0.0001428137 0.0003153998 -6.95951e-05 -0.0174444365 0.1620669276
750295500.0 -0.033997676 0.8428341693 0.0002758006 -0.0001639348 0.00031221 -4.58275e-05 -0.0159804836 0.1620363551
755295470.0 -0.0243472892 0.843327549 0.0002785238 7.34366e-05 0.0003405595 -4.24688e-05 -0.0144657986 0.1627417577
760295440.0 -0.0165084104 0.8434089576 0.0001863779 -0.0003148728 0.0001713371 -1.70867e-05 -0.0130430187 0.1627693895
765295410.0 -0.0082795253 0.8440443749 0.0001087795 -7.79719e-05 0.000266675 -4.87402e-05 -0.0110770663 0.1635817578
770295380.0 0.0002699094 0.8440096773 0.0002305397 -7.95181e-05 0.0002439219 6.88745e-05 -0.0095196652 0.1635142077
775295350.0 0.0088649972 0.8444001792 0.0001874512 2.286e-05 0.0001984874 -9.72148e-05 -0.0086740861 0.1636593152
780295320.0 0.0174740564 0.8431358792 0.0003313997 -0.0001962475 0.0002709679 -0.0001094093 -0.0069227492 0.1644076275
785295290.0 0.0259035016 0.8440117145 0.0003009448 3.43737e-05 0.0002477566 -0.0001711355 -0.0056088858 0.1647788314
790295260.0 0.0342544461 0.8429089744 0.0001695021 -7.41547e-05 0.0002806471 6.7833e-06 -0.0038511748 0.1645685513
795295230.0 0.0425474142 0.8427936715 0.000476872 0.0001205626 0.0002711139 0.0001503374 -0.0021631711 0.1653940532
800295200.0 0.0513392659 0.8426909991 0.0003307385 -0.0002317791 0.0002093234 -0.0001746877 -0.0007164372 0.1653134139
805295170.0 0.059434259 0.8419487622 0.0001300107 -0.000123509 0.0003508014 -0.0001761094 0.0004515284 0.1651752413
810295140.0 0.0676557048 0.8411545514 0.0002186048 6.7631e-06 0.0002377694 -8.23245e-05 0.0025186532 0.1659038696
815295110.0 0.0763003894 0.8402541312 0.0002276505 -0.0001571933 0.0003368198 -0.0001816628 0.003779074 0.1659504693
820295080.0 0.0849237873 0.8390384372 0.0002371162 -4.33396e-05 0.0004687716 -0.0001613835 0.0050384481 0.1659163238
825295050.0 0.0937574292 0.8382671666 0.0004680954 -4.99435e-05 0.0002650881 -0.0001212042 0.0067111373 0.1662140624
830295020.0 0.1019691126 0.8380459612 0.0003103868 -0.0001972416 0.0003258895 -0.0001381262 0.0081678812 0.1665957527
835294990.0 0.1097142129 0.8371287637 0.0004554287 -0.0001490623 0.0002260535 -0.0001538033 0.0100821217 0.1663401855
840294960.0 0.1187488685 0.8353832986 0.0003579673 -3.15039e-05 0.0002962151 -9.03561e-05 0.0112392105 0.1671365471
845294930.0 0.1270027692 0.8341401228 0.0003600676 -0.0002539599 0.0002451913 -6.14207e-05 0.012826128 0.166903048
850294900.0 0.1351438643 0.8331013718 0.0004443953 -6.89295e-05 0.0002566342 -0.0002052485 0.0145614863 0.1669451718
