!Created with skrf (http://scikit-rf.org).
# Hz S RI R 50.0 
!freq ReS11 ImS11 ReS21 ImS21 ReS12 ImS12 ReS22 ImS22
300000.0 -0.0446259442 -0.0568460736 -0.0003435385 0.0005553222 0.0007735381 0.0006411606 -0.7658911618 -0.1633303687
5299970.0 -0.0448023417 0.0159796076 0.0002440089 -0.0001446724 -6.77303e-05 1.4834e-06 -0.784611394 -0.0087078002
10299940.0 -0.0390345404 0.0335302009 0.0001392471 -0.0001027565 -6.49842e-05 -9.16466e-05 -0.788308536 -0.0048152126
15299910.0 -0.0307912635 0.0483136137 -0.0001212936 0.000366011 -9.97951e-05 -0.0001140235 -0.7930757899 -0.0031764324
20299880.0 -0.0205744765 0.0600254276 0.000135744 0.0001658268 2.10405e-05 0.0001768083 -0.8004910118 0.0017332632
25299850.0 -0.0088962716 0.0694240233 -0.0001924169 -7.46359e-05 -0.000257957 0.0002106433 -0.8066707553 0.0074448249
30299820.0 0.0026297719 0.0759928375 0.0003204987 0.0002456633 -1.77906e-05 5.8411e-06 -0.8123085383 0.0154092865
35299790.0 0.0144065782 0.0808617255 -4.16687e-05 0.0003655828 6.9496e-06 3.72638e-05 -0.8175381214 0.0238177907
40299760.0 0.0258404646 0.0835402355 2.21461e-05 -0.0001628692 1.26501e-05 0.0001362951 -0.8213062319 0.0333219332
45299730.0 0.0362942525 0.0852209954 -0.0001019973 -3.61029e-05 -2.19619e-05 3.18823e-05 -0.8251765861 0.0419662098
50299700.0 0.0466979614 0.0851597808 -1.23e-05 -0.0001502165 -2.5018e-06 -4.96452e-05 -0.8276735426 0.0528299398
55299670.0 0.0556695976 0.0840086662 -1.78836e-05 -0.0001579321 3.18504e-05 -1.91919e-05 -0.8297095343 0.0631551274
60299640.0 0.0645302762 0.0821395886 -0.0002275635 -0.0002003903 1.24752e-05 8.38974e-05 -0.8311225563 0.0732005895
65299610.0 0.0722032255 0.0799722115 -3.90124e-05 -6.05975e-05 -0.0001788009 0.0004001042 -0.8311377346 0.0833643948
70299580.0 0.0792407905 0.0770732735 0.0002262696 0.0001008044 3.62887e-05 5.11645e-05 -0.8322002105 0.0926876558
75299550.0 0.0857049632 0.0734695976 0.0001857479 0.00017324 -0.0002986462 9.62558e-05 -0.8322660763 0.1023650979
80299520.0 0.0911103221 0.0703659874 -6.4335e-06 0.0001040562 2.22277e-05 -5.41431e-05 -0.8320701912 0.1122040566
85299490.0 0.0965005652 0.0663361248 8.24462e-05 1.42968e-05 0.0002127313 -7.24291e-05 -0.8317003965 0.1219345288
90299460.0 0.1008024808 0.0628684079 8.79194e-05 2.33505e-05 0.0001376162 0.0001510708 -0.8303922182 0.1313759565
95299430.0 0.1050120625 0.0586336187 3.45351e-05 8.26352e-05 2.62706e-05 6.96695e-05 -0.8302129245 0.1416939278
100299400.0 0.1085985984 0.0552253233 0.0001789539 0.0001283078 -0.00013076 -2.41627e-05 -0.8293310764 0.1495564831
105299370.0 0.1118507299 0.051158967 0.0001186347 0.0002222849 -6.2815e-06 4.28405e-05 -0.8272252017 0.1591810552
110299340.0 0.1145322427 0.0472608648 5.52068e-05 0.0001652132 6.11204e-05 0.0001107734 -0.8262386318 0.1684826003
115299310.0 0.1173032733 0.043132646 9.90353e-05 7.63526e-05 -3.74624e-05 -7.93027e-05 -0.8248571301 0.1771742564
120299280.0 0.1194240233 0.0395328344 -1.03445e-05 9.52197e-05 0.0001635423 -1.18162e-05 -0.8233698026 0.1861625208
125299250.0 0.1210913286 0.0357183799 9.52957e-05 -8.1497e-05 -0.0002394172 7.88377e-05 -0.8219071621 0.1951860872
130299220.0 0.1233224126 0.0323375267 4.81852e-05 0.0002139914 9.09133e-05 0.0001154034 -0.8200465739 0.204159061
135299190.0 0.1246736352 0.0283993422 -3.09294e-05 6.4581e-05 0.0001668274 7.57003e-05 -0.8178604069 0.2127289457
140299160.0 0.1259675277 0.024967809 -0.0001906195 0.000189103 -0.0001045797 7.21205e-05 -0.8158295521 0.221422797
145299130.0 0.1270156362 0.0215915934 0.0001016484 -4.44221e-05 6.92364e-05 0.0001130982 -0.813521859 0.2300570025
150299100.0 0.1277639222 0.0178114601 2.19234e-05 0.0002968887 4.683e-07 0.0001564725 -0.8116844838 0.2387068237
155299070.0 0.1288514084 0.0147256318 5.41188e-05 0.0001785541 2.70235e-05 7.78725e-05 -0.8096736184 0.2480654389
160299040.0 0.1293793259 0.0114638951 4.70208e-05 0.000162886 0.0001358372 -9.56705e-05 -0.8073222453 0.2567059528
165299010.0 0.129850921 0.0085949208 2.96995e-05 3.54248e-05 0.0001145693 0.0002108008 -0.8044088184 0.2650288938
170298980.0 0.130085848 0.0055007549 5.07406e-05 7.90965e-05 0.000210325 -0.0001322271 -0.8017245158 0.2735859258
175298950.0 0.1308995664 0.0026493881 -3.54871e-05 0.0001397065 0.0001151414 0.0001210276 -0.7992533818 0.2820860585
180298920.0 0.1307766259 -0.0003579747 5.01024e-05 -0.000155191 4.76845e-05 -4.8099e-05 -0.7956025682 0.290750747
185298890.0 0.1310654714 -0.0032089887 0.0001899752 0.0002141422 1.54736e-05 -7.03479e-05 -0.7932001067 0.2983406712
190298860.0 0.1310189256 -0.0061883841 0.0001279763 -2.88247e-05 -1.40152e-05 2.09584e-05 -0.7890590873 0.3072017722
195298830.0 0.1312489088 -0.0088463751 -4.39383e-05 0.0001188692 0.000143897 0.0001817617 -0.7868003946 0.3153893451
200298800.0 0.1307111622 -0.011650884 9.79299e-05 3.89616e-05 0.0001626629 0.0001466001 -0.7832676925 0.3242916245
205298770.0 0.1306010084 -0.0141117836 9.85813e-05 0.0001551889 3.57991e-05 3.41523e-05 -0.7800941922 0.3319938255
210298740.0 0.1305463347 -0.0164507632 0.0001941327 0.0001120424 0.0002448596 0.0001258997 -0.776662559 0.3408302313
215298710.0 0.1301638534 -0.0192230263 -9.94088e-05 -2.4994e-05 0.0001647934 0.0002060286 -0.7734995718 0.34829896
220298680.0 0.1299357334 -0.0217771466 9.1506e-05 8.21626e-05 1.54637e-05 0.0001354683 -0.7697171698 0.3572546931
225298650.0 0.1294304671 -0.0240947074 -3.15826e-05 0.0002639951 0.0001218723 0.0002422184 -0.7661331953 0.3645605708
230298620.0 0.1290194042 -0.0263767152 0.0001772638 0.0001044196 -5.63458e-05 0.0002395045 -0.7616236609 0.3725911268
235298590.0 0.1284709629 -0.0287295197 9.78934e-05 2.14606e-05 0.000167601 0.0001985198 -0.7576084668 0.3805968406
240298560.0 0.1278973148 -0.0308989556 0.0001122426 -0.0001973667 3.70367e-05 0.0001667588 -0.7540525493 0.3884463272
245298530.0 0.1276255339 -0.0328380267 8.82543e-05 0.0002049006 0.0001297276 0.0001703754 -0.7497409613 0.3969352088
250298500.0 0.1268279614 -0.0352617846 0.0001511818 0.0003761716 8.92087e-05 0.0001539596 -0.7453445087 0.4044364073
255298470.0 0.1263389992 -0.0372934268 0.0001748398 0.0001126423 -0.0001308767 4.40859e-05 -0.740800254 0.4122708893
260298440.0 0.1256226975 -0.039105387 2.25559e-05 -6.00921e-05 0.0001195658 -8.7663e-06 -0.7367245842 0.4199330882
265298410.0 0.1248559154 -0.0412473452 0.0001028012 0.0002436535 0.0001544352 0.0001616291 -0.7321383616 0.4276211629
270298380.0 0.124404284 -0.0430420988 0.0001178578 1.48455e-05 4.21827e-05 0.0003031544 -0.7280403548 0.4354231579
275298350.0 0.1237399631 -0.0451681862 1.14159e-05 4.3928e-06 9.90032e-05 0.0002195022 -0.7228181434 0.4430172585
280298320.0 0.1227343246 -0.0469458959 2.81923e-05 8.00305e-05 1.48103e-05 4.67165e-05 -0.7185015014 0.4498677083
285298290.0 0.1219430964 -0.0487591757 0.0001325925 -1.8413e-05 0.0001653934 -8.20378e-05 -0.7129687357 0.4577766863
290298260.0 0.1213344094 -0.0504888798 6.16077e-05 2.47296e-05 0.0001117554 0.0001400532 -0.708739088 0.4654542711
295298230.0 0.1204483913 -0.0526759258 0.0001122744 -1.24646e-05 7.21115e-05 0.0001646617 -0.7038655636 0.4729933819
300298200.0 0.1195732007 -0.0545498769 7.6966e-05 0.0001214968 -2.384e-07 6.96352e-05 -0.6985307567 0.4800117047
305298170.0 0.1190955779 -0.0563616986 9.36275e-05 1.73271e-05 5.89628e-05 0.0001526958 -0.6928805325 0.4880062153
310298140.0 0.1179359571 -0.0585948795 0.0003389633 0.0001479103 3.00419e-05 3.19777e-05 -0.6885507468 0.4954339627
315298110.0 0.1168198142 -0.0602370562 3.81964e-05 5.35264e-05 0.0001222313 9.34145e-05 -0.6833831997 0.5022696765
320298080.0 0.1158840766 -0.0619409483 0.0001288724 7.78447e-05 0.0003252566 0.0001675234 -0.6778059249 0.5090774741
325298050.0 0.1146412809 -0.0639664905 9.42738e-05 0.0001143311 0.0001450489 3.0107e-05 -0.6722973461 0.516766936
330298020.0 0.1131848777 -0.0654188837 9.47738e-05 0.0002450902 0.0001276168 0.0001304918 -0.6667533224 0.5232770078
335297990.0 0.1118770298 -0.0667438899 0.000394839 0.0001147186 0.0001663408 -2.1794e-06 -0.6612286983 0.530052148
340297960.0 0.1105643483 -0.0681113632 4.10363e-05 8.55197e-05 0.0003445038 0.0001347901 -0.655616021 0.5370211506
345297930.0 0.1092831675 -0.0697458795 5.4527e-05 0.0002504427 0.0002213466 0.0003038829 -0.6499849772 0.5436608862
350297900.0 0.1084075578 -0.0710303974 0.0002310108 0.0001799175 6.38283e-05 0.0002779292 -0.6439826291 0.550992419
355297870.0 0.107024758 -0.0723733752 0.0002585421 0.0001109639 4.85194e-05 0.0003958472 -0.6384344416 0.5573469709
360297840.0 0.1060073306 -0.0740593139 9.87085e-05 4.24839e-05 0.0002540998 6.01536e-05 -0.6325071428 0.5641159818
365297810.0 0.1050202004 -0.075148805 0.0001655859 -7.86189e-05 -2.91612e-05 0.0002425919 -0.6263012142 0.5707804855
370297780.0 0.1035946944 -0.0762985129 0.0001486881 7.10106e-05 0.0001991755 0.0001817923 -0.6205622645 0.5761667138
375297750.0 0.1024789916 -0.0777174487 0.0001863877 9.82212e-05 0.000113886 5.71686e-05 -0.6140170943 0.5835005829
380297720.0 0.1015661404 -0.078889062 9.45332e-05 0.0001679839 0.0003568192 0.0001361267 -0.6081795985 0.590197069
385297690.0 0.1001743558 -0.0799028715 0.00016464 0.0001230041 0.0002198833 0.0001539616 -0.6019251708 0.5961781979
390297660.0 0.0990886868 -0.0813231998 0.0001342733 -2.06577e-05 0.0003225137 0.0001542835 -0.5954246679 0.6014693116
395297630.0 0.0977114517 -0.0827598898 0.0001805027 0.0002553595 0.0001819771 0.0003100086 -0.5890910388 0.6085816752
400297600.0 0.0965169845 -0.0835160869 0.0002232812 9.65782e-05 0.0002692349 -2.73954e-05 -0.5828975363 0.6137052772
405297570.0 0.0955773377 -0.0848401293 0.0002742966 6.51477e-05 2.6581e-05 0.0003583681 -0.57719093 0.6201141706
410297540.0 0.0941525848 -0.0861019601 0.0002677611 8.22248e-05 0.0002196587 4.73033e-05 -0.5699170294 0.625642052
415297510.0 0.0931076496 -0.0870320775 0.000224144 0.0001452951 2.51393e-05 6.49138e-05 -0.5634983662 0.6320746571
420297480.0 0.0915277395 -0.0883021674 0.0001973514 0.0002033307 0.0004988425 0.0001885317 -0.5568894271 0.636626946
425297450.0 0.0904088081 -0.0893521982 7.93575e-05 0.0001450836 0.0003736336 0.0001114429 -0.5500908776 0.6431981565
430297420.0 0.0890439152 -0.0901713258 0.0002634408 3.06695e-05 0.0002550249 0.0002835093 -0.5437492161 0.6487145132
435297390.0 0.0879275754 -0.0909792244 0.0001860338 7.4243e-06 0.0001531009 0.0001341303 -0.5366251249 0.6541039208
440297360.0 0.086766108 -0.0920666987 0.0003218903 6.48544e-05 0.0002478736 0.0001360223 -0.5298945742 0.6592709767
445297330.0 0.0850890686 -0.0929636248 0.0001894723 0.0002087164 0.0001568308 0.0002654587 -0.5236237446 0.6642637863
450297300.0 0.0840144682 -0.0943462324 0.00013347 0.0002545626 0.0003300077 0.0001641445 -0.516928436 0.669568555
455297270.0 0.0823786084 -0.0950947661 0.0001526395 0.0003837244 0.0002803206 0.0001912283 -0.5097728143 0.6749572975
460297240.0 0.0808733468 -0.0957000529 0.0001587539 9.41597e-05 2.65264e-05 7.53516e-05 -0.5024377565 0.6801020978
465297210.0 0.0799403278 -0.096876419 0.0002209057 -4.2663e-05 0.000137878 7.48961e-05 -0.4961332347 0.6849013891
470297180.0 0.0787636731 -0.0975299501 9.5083e-05 0.0002467148 0.0003405661 0.0002330319 -0.4892749908 0.6891090947
475297150.0 0.0772803819 -0.0985031237 0.0002367241 1.81776e-05 0.0002641913 0.000248164 -0.4819713315 0.6942120617
480297120.0 0.0757469435 -0.0996603685 0.0001809739 -4.44865e-05 0.0002700196 0.0001795361 -0.4751207222 0.700128623
485297090.0 0.074494182 -0.100065277 0.000267955 6.8525e-05 0.0001077672 4.26363e-05 -0.4678265483 0.7039569769
490297060.0 0.0733778568 -0.1009743632 0.0001383888 2.705e-06 0.0001093498 0.0001036195 -0.4605244046 0.7087005643
495297030.0 0.0717697604 -0.101645177 0.0002026169 0.0002666227 9.35722e-05 7.57809e-05 -0.453342319 0.7127122149
500297000.0 0.0705389434 -0.1025144967 0.0001846845 5.75017e-05 5.18757e-05 -5.92348e-05 -0.4464725317 0.717794225
505296970.0 0.0687462029 -0.1031168555 0.0003668695 0.0001493679 0.000370293 8.29591e-05 -0.4401678556 0.7220548861
510296940.0 0.067536075 -0.1037380367 0.0002580592 0.0001387318 0.0002263377 0.0002088085 -0.4318972711 0.7262173491
515296910.0 0.0658952348 -0.1043986549 0.0002066167 0.0001012534 0.0001792424 3.69462e-05 -0.4243246424 0.7306908597
520296880.0 0.0647872877 -0.1051884665 0.0001988736 -9.60478e-05 0.0002875546 1.27329e-05 -0.4170777646 0.7348709201
525296850.0 0.0635066751 -0.1055385596 2.36688e-05 3.5728e-06 0.0001811632 -9.51443e-05 -0.4094851346 0.7393550861
530296820.0 0.0617968511 -0.1064023781 0.0003762121 7.50145e-05 0.0001138583 0.0001613502 -0.4027463824 0.742782223
535296790.0 0.0607214277 -0.1069443326 0.000375849 7.71487e-05 0.0001705042 6.9859e-05 -0.3953045484 0.7463138797
540296760.0 0.0589422864 -0.1077246363 0.0001358432 0.0002819243 5.57515e-05 0.0001926236 -0.3879558261 0.7510340347
545296730.0 0.0575865549 -0.1081660935 0.0002859877 0.0003138638 0.0004169816 0.0002228673 -0.3804759508 0.7542639927
550296700.0 0.0562900456 -0.1083184909 0.0004284092 -8.09203e-05 0.0002033102 0.00012212 -0.3725848976 0.7581463263
555296670.0 0.0548084351 -0.1090722365 0.0003566573 0.0001608056 0.0003484936 0.0002118967 -0.3649248979 0.7616100506
560296640.0 0.0535646185 -0.1096724179 0.0001719697 1.55368e-05 0.0003410542 0.000300188 -0.3576500427 0.7653586158
565296610.0 0.0519794169 -0.1098088374 0.0004304312 0.0002480133 9.59747e-05 0.0003241498 -0.3496934833 0.7691690611
570296580.0 0.0504765662 -0.1107238439 0.0002870766 0.000107013 0.0003970013 8.9024e-06 -0.3433479456 0.7720602335
575296550.0 0.0492619177 -0.1107081591 0.000201954 -4.30271e-05 0.0004279086 8.09995e-05 -0.3342307521 0.7757219474
580296520.0 0.0477700882 -0.1112486523 0.000303469 -2.866e-07 0.0001640903 2.78482e-05 -0.3271555646 0.7790207222
585296490.0 0.0459774364 -0.1116666795 0.0003568795 0.0001166872 0.0003521035 -2.90362e-05 -0.3189791611 0.7814398851
590296460.0 0.0443574259 -0.1117873136 0.0001531185 -2.38286e-05 4.16878e-05 0.0001158834 -0.3114418342 0.7844999499
595296430.0 0.0433993432 -0.1123693658 0.000320726 0.0001155012 0.0001376311 0.0001027895 -0.3036659728 0.7875194447
600296400.0 0.042007261 -0.1127173693 0.0003891558 0.0001743266 0.0003549904 9.62712e-05 -0.2959214219 0.7911377514
605296370.0 0.0404608803 -0.1130364745 0.0002665282 -0.0001226007 0.0002084312 -0.0001385607 -0.2881777252 0.7941076766
610296340.0 0.0389471975 -0.113277753 0.000481372 9.5088e-05 0.0004088065 -0.000234886 -0.2800329642 0.796801195
615296310.0 0.0375556356 -0.1133314094 0.0001675457 8.78769e-05 0.0003907539 1.65383e-05 -0.2725404186 0.7996201666
620296280.0 0.0362773796 -0.1139461202 0.000186817 -2.46638e-05 0.0005119981 -5.15927e-05 -0.2637351063 0.8015794425
625296250.0 0.0344679055 -0.1141406231 0.0003005807 4.95326e-05 0.0004972504 -1.52528e-05 -0.256468806 0.8043782953
630296220.0 0.0331645384 -0.1142718276 0.000508366 1.44646e-05 0.0003854596 3.98514e-05 -0.2481231621 0.8074095984
635296190.0 0.0316743936 -0.1146418777 0.0002610668 -2.6128e-06 0.0003692122 -0.0001790195 -0.2407691479 0.8090335675
640296160.0 0.0301806296 -0.1148166691 0.0002658596 -0.0001923522 0.0003255177 0.0001317966 -0.2321804727 0.8117438499
645296130.0 0.028596283 -0.1146978168 0.000467187 0.0001026094 0.0003119888 0.0001509312 -0.2246859071 0.8140141735
650296100.0 0.0271965009 -0.1145807764 0.0004728653 6.05913e-05 0.0002613189 0.0001115124 -0.2164854555 0.8165296336
655296070.0 0.025801058 -0.1152544706 0.0004135471 2.46138e-05 0.0003329183 5.60201e-05 -0.2086702523 0.8183644304
660296040.0 0.024306617 -0.1149210058 0.0002880998 -1.76691e-05 0.0002955228 9.3318e-06 -0.2002923896 0.8202116453
665296010.0 0.0228514689 -0.1153473808 0.0002041029 0.0001419991 0.000652979 8.67484e-05 -0.1924187209 0.8219732546
670295980.0 0.0215137132 -0.1155135821 0.000270371 -2.34588e-05 0.0005307626 0.000156358 -0.1855421639 0.8241638521
675295950.0 0.020052573 -0.1153992156 0.0002132874 -4.97397e-05 0.0003731643 -2.97893e-05 -0.175984991 0.826116121
680295920.0 0.0183692332 -0.1152135061 0.0002229397 0.000157188 0.0004038579 7.81609e-05 -0.167574171 0.8276602441
685295890.0 0.0170180737 -0.1153165723 0.0003616624 8.70468e-05 0.0002996594 5.98478e-05 -0.1596170627 0.8292177869
690295860.0 0.0160323177 -0.1151703118 0.0003286033 -7.68381e-05 0.0005021516 1.52148e-05 -0.1511829378 0.8305954499
695295830.0 0.0142036888 -0.1153340088 0.0002350938 9.25999e-05 0.0004198748 -2.23109e-05 -0.14310652 0.8322033887
700295800.0 0.0127835315 -0.1151024526 0.0001590112 -7.90872e-05 0.0003286428 -7.4775e-05 -0.1348753858 0.8331918601
705295770.0 0.0115429987 -0.1150346855 0.0004815754 -0.0001143827 0.0001630997 -8.77825e-05 -0.1271451095 0.835488043
710295740.0 0.0099836583 -0.1150676686 0.0001934661 -6.48884e-05 0.0002889848 -2.36516e-05 -0.1191484979 0.8363932795
715295710.0 0.0083534323 -0.114907619 0.0003011778 -9.70319e-05 0.0002583554 -2.0044e-05 -0.1104657233 0.837484351
720295680.0 0.0070149101 -0.114793113 0.0003785786 -1.72641e-05 0.0003481779 -9.82876e-05 -0.1023069357 0.8385163616
725295650.0 0.005746049 -0.1145280509 0.0004541432 -8.82227e-05 0.0003623414 5.49148e-05 -0.0935935949 0.839437187
730295620.0 0.0040961367 -0.1145759368 0.0004684579 -0.0001689765 0.0002508752 0.0001074079 -0.0854910539 0.8403728894
735295590.0 0.0028612814 -0.1145344782 0.0002290646 -9.0185e-05 0.0004020124 -3.22794e-05 -0.076538712 0.8407153868
740295560.0 0.0014325075 -0.114108078 0.000336134 -0.0002269384 0.0003720084 -9.18088e-05 -0.0686718698 0.8411118544
745295530.0 -0.0001743432 -0.1139821026 0.000364037 -0.0003803286 0.0001689525 -7.30378e-05 -0.0603174802 0.8418232652
750295500.0 -0.0014713261 -0.113551442 0.0002619142 -9.04447e-05 0.0004270706 -7.5219e-06 -0.0520432728 0.8421913708
755295470.0 -0.0027302166 -0.1133630268 0.0004372989 -4.97007e-05 0.0005181775 -2.63421e-05 -0.0442989234 0.8434547951
760295440.0 -0.0042624679 -0.1131313157 0.0001790556 -0.00014931 0.0003745512 0.000130452 -0.0361870095 0.8437462115
765295410.0 -0.005873109 -0.1131479249 0.0004541116 2.84893e-05 0.0001832924 -6.49494e-05 -0.027068929 0.8444058575
770295380.0 -0.0071158578 -0.1124953118 0.0004049222 0.0001863467 0.0003308632 -2.66026e-05 -0.0185929394 0.8442355135
775295350.0 -0.008579873 -0.1122325872 0.0002965623 -0.0002148148 0.0004897461 -7.2055e-06 -0.0110619869 0.8439542246
780295320.0 -0.0103343405 -0.1119628107 0.0003200882 -0.0002249527 0.0004490878 -0.0001390899 -0.0025677598 0.8443707964
785295290.0 -0.011357287 -0.111608943 3.41408e-05 -0.0001257908 0.0002419876 5.38841e-05 0.0052904582 0.8445473115
790295260.0 -0.0128553016 -0.1112071485 0.0001940186 -0.0001792015 0.0003085134 -0.0001823648 0.0144929072 0.8442324299
795295230.0 -0.0139796475 -0.1107743377 0.0003543383 -7.3138e-05 0.0003473493 -9.84955e-05 0.0226496703 0.8442929093
800295200.0 -0.0153670445 -0.1101614309 0.0004409978 -7.32789e-05 0.0004128379 -3.24772e-05 0.0305555496 0.8435057101
805295170.0 -0.0167653266 -0.1098207286 0.0003207623 -6.88478e-05 0.0004064712 -6.82823e-05 0.0386381913 0.8429138952
810295140.0 -0.0181588433 -0.1094217989 0.0005096866 -0.0002006841 0.0004549808 -0.0001907511 0.0472348309 0.8441155023
815295110.0 -0.0194111364 -0.1089282344 0.0003832546 -0.0003997917 0.0001606323 -0.0001146659 0.0554993569 0.8425274728
820295080.0 -0.0207616315 -0.1084890638 0.0003207666 -0.0001348088 0.0003262044 -0.0001060977 0.0638348235 0.8423818921
825295050.0 -0.0219499997 -0.108175492 0.0003763471 3.3551e-06 0.00053292 -0.0001222925 0.0723003628 0.841510737
830295020.0 -0.0231664841 -0.1074270127 0.0003988413 -0.0003491299 0.0004097575 -2.54685e-05 0.079901668 0.8399275305
835294990.0 -0.0246084239 -0.1067136411 0.0003138739 3.0973e-06 0.0005316698 -0.0002409887 0.0885878089 0.8394901369
840294960.0 -0.0258486702 -0.1065227962 0.0004122053 -0.0002678055 0.0002395254 -0.0002629109 0.0963974378 0.8389670152
845294930.0 -0.0273517859 -0.105612753 0.000407969 -0.0001101784 0.0004162977 -0.0002821345 0.1046145489 0.8380725729
850294900.0 -0.0286129296 -0.10516906 0.0003068007 3.78465e-05 0.0003594476 -0.0001746886 0.1132603705 0.8371308084
