!Created with skrf (http://scikit-rf.org).
# Hz S RI R 50.0 
!freq ReS11 ImS11 ReS21 ImS21 ReS12 ImS12 ReS22 ImS22
300000.0 -0.0988506744 -0.086470593 0.624748957 0.0804575411 0.6248190819 0.0844757834 -0.0971033072 -0.0945120362
5299970.0 -0.1001133119 0.0123797041 0.6307797574 0.0107393983 0.6305104323 0.011004635 -0.1020914386 0.011998162
10299940.0 -0.0954456877 0.0296835882 0.6346894312 0.0156999716 0.6342994076 0.0163040178 -0.0973411004 0.0288800625
15299910.0 -0.0884021503 0.0431841597 0.6400995563 0.0207393618 0.6404816377 0.0212351859 -0.0900400747 0.0420993453
20299880.0 -0.079377431 0.0543008412 0.648902591 0.0243468387 0.6487793335 0.0240926766 -0.0818092319 0.0535362467
25299850.0 -0.0695682261 0.0627284873 0.6578031167 0.0247584071 0.6582458056 0.0254177432 -0.0725858412 0.0620653361
30299820.0 -0.0596440354 0.0691074556 0.6681954414 0.0250410695 0.6677687307 0.0243827252 -0.0625058645 0.0687011784
35299790.0 -0.0495498425 0.0742868048 0.6775694875 0.0218167623 0.6778137685 0.0219603416 -0.0524461123 0.0734091887
40299760.0 -0.0397978238 0.0767494139 0.6868537792 0.0177582503 0.6868458445 0.0178464003 -0.043760927 0.077222915
45299730.0 -0.030325972 0.0795384359 0.6955967286 0.0117149977 0.696274628 0.01208977 -0.0343029614 0.0793353995
50299700.0 -0.021630743 0.0799384034 0.7033604745 0.0048580674 0.7035034034 0.0049174014 -0.0256418765 0.0800493109
55299670.0 -0.0140570176 0.0798600185 0.7105512411 -0.0029263942 0.7106932812 -0.0030464503 -0.0179652566 0.0798358417
60299640.0 -0.0067046446 0.0787067117 0.7170549385 -0.0114974353 0.7172654421 -0.0111965288 -0.0104394281 0.0796646502
65299610.0 -0.0002937662 0.0781540399 0.72344209 -0.0196028541 0.723995199 -0.0201179563 -0.0034500839 0.0786517338
70299580.0 0.0062228908 0.0756945351 0.7287022484 -0.0294738038 0.7287735993 -0.0294502759 0.002238869 0.077068004
75299550.0 0.0117177817 0.0745378386 0.7329477297 -0.0383044032 0.7331608406 -0.0387732108 0.0079054224 0.0757507409
80299520.0 0.016214956 0.0722055215 0.7374895934 -0.0494455793 0.738007896 -0.0489394007 0.0131100308 0.0731933028
85299490.0 0.0209485656 0.0695225797 0.7405250024 -0.0587955778 0.7408914767 -0.0586729622 0.0173736392 0.0709793805
90299460.0 0.0246266776 0.0675063021 0.7436027548 -0.0687972828 0.7436120563 -0.0691445478 0.0220111592 0.0690586674
95299430.0 0.0281810423 0.0653363704 0.7457337949 -0.079419751 0.7460667093 -0.0791033198 0.025361535 0.0667380972
100299400.0 0.03157885 0.0627325876 0.7473582051 -0.0892169939 0.7474827115 -0.0892495876 0.028125922 0.0640576703
105299370.0 0.0345711786 0.0601081894 0.7483676694 -0.09910553 0.7492553717 -0.0992271174 0.031643512 0.0617178515
110299340.0 0.0371433391 0.0578393078 0.750032577 -0.1089147276 0.7500377305 -0.1094559234 0.0347948672 0.0591746082
115299310.0 0.0397712623 0.055102438 0.7508111007 -0.1188590542 0.7511677882 -0.1187968528 0.0371700971 0.0564841265
120299280.0 0.0414122562 0.0526357243 0.7517208191 -0.129719019 0.7516969852 -0.1299161114 0.0386798152 0.0541362331
125299250.0 0.0432400207 0.0503149117 0.751743125 -0.1388073638 0.7519320873 -0.139492065 0.0412093847 0.0513155114
130299220.0 0.0450764221 0.0478890268 0.7514173 -0.1487521583 0.7514324142 -0.149237636 0.0432049303 0.0493041575
135299190.0 0.0468539231 0.0453848826 0.7511290499 -0.1586896971 0.7509390817 -0.1589932635 0.0442989883 0.0475369311
140299160.0 0.0478797707 0.0442712307 0.7506211313 -0.1685462004 0.7511872893 -0.1687127617 0.0461836018 0.0453863712
145299130.0 0.049085756 0.0417482572 0.750933156 -0.1787684304 0.7496638454 -0.1781416198 0.0471588133 0.0428188096
150299100.0 0.0505590191 0.039650568 0.7487943774 -0.1884221459 0.7488835203 -0.1880846431 0.0485235112 0.0407917085
155299070.0 0.0512772758 0.0386121644 0.7481181615 -0.1976149767 0.7480027682 -0.1984595317 0.0491817194 0.038756204
160299040.0 0.0522798204 0.0359627471 0.7460319136 -0.2069318735 0.7463137949 -0.2070554113 0.0507099112 0.0373540319
165299010.0 0.0531114768 0.0343102848 0.7453556551 -0.2171289324 0.7448521931 -0.2168071179 0.0514694483 0.0346726369
170298980.0 0.053473853 0.0327353464 0.7420006227 -0.2259482388 0.743118334 -0.2262168404 0.052565459 0.0330362083
175298950.0 0.0541123941 0.030745384 0.7417081679 -0.2344851508 0.7415617287 -0.235592525 0.0531581727 0.0312023096
180298920.0 0.0552060557 0.0292537935 0.7392174506 -0.2446477404 0.7389671093 -0.244332661 0.0536148565 0.029759445
185298890.0 0.0561419235 0.0273046069 0.7367126424 -0.2536876776 0.7368861731 -0.253778487 0.05394175 0.0276573443
190298860.0 0.0561900806 0.0258323189 0.7348367607 -0.2631558801 0.7351082931 -0.2630850194 0.0553028112 0.0262955459
195298830.0 0.0565553039 0.0242376663 0.7320611799 -0.2711485131 0.7320544273 -0.2723167602 0.0557378918 0.024082017
200298800.0 0.0568847178 0.022522087 0.7293378885 -0.2807388857 0.7292281415 -0.2802497896 0.0563531749 0.0230892721
205298770.0 0.0569586776 0.0213450095 0.7270812209 -0.2890684571 0.7267841457 -0.2896301097 0.0561982816 0.0209542241
210298740.0 0.0572475622 0.0196289549 0.7239777213 -0.2987421591 0.7237315363 -0.2986501568 0.0567662753 0.0198350536
215298710.0 0.057776136 0.0189140314 0.7208528301 -0.3068467831 0.7207378331 -0.3068188322 0.0569427748 0.0183878204
220298680.0 0.0581329104 0.0171715195 0.7176672893 -0.315855605 0.7174187918 -0.315462163 0.0574221003 0.0175000479
225298650.0 0.0585675372 0.0162541745 0.7143472614 -0.3236694565 0.7139702254 -0.3238853233 0.0575182776 0.0157551138
230298620.0 0.0579319349 0.0149394434 0.7108887211 -0.3328311787 0.7113405787 -0.3328503968 0.0576687982 0.0142197706
235298590.0 0.0587247184 0.0133176596 0.7077967153 -0.3408689463 0.7074844724 -0.3414126023 0.0581807272 0.0125961614
240298560.0 0.058180123 0.0121049948 0.7037745078 -0.3493842771 0.7040117579 -0.3491056458 0.0583694434 0.01159698
245298530.0 0.0588326705 0.011267548 0.6993474371 -0.3579164042 0.6999244456 -0.3579883721 0.0585006344 0.0107359578
250298500.0 0.0583728738 0.0097950739 0.6959401248 -0.3657569359 0.6965415383 -0.3656113555 0.0586415969 0.0087594872
255298470.0 0.0582955297 0.0090614936 0.6919090512 -0.374548806 0.6924313778 -0.3745300944 0.0586236279 0.0075890364
260298440.0 0.0585206396 0.0079122141 0.6884178692 -0.3823015875 0.6886787857 -0.3823636184 0.0594807692 0.0067894517
265298410.0 0.0589811603 0.0069560923 0.684332004 -0.3904825011 0.6839041828 -0.390710911 0.0588452582 0.0054453413
270298380.0 0.0591069451 0.0055097165 0.6794530671 -0.3979544583 0.67998354 -0.3985284105 0.0590397154 0.0051683804
275298350.0 0.0583652772 0.0047358209 0.6753657879 -0.4067887129 0.6759715901 -0.4067763007 0.0591324691 0.0035848308
280298320.0 0.05854623 0.00398557 0.6707506338 -0.4135901561 0.6713672539 -0.4143139927 0.0595008541 0.0027903818
285298290.0 0.0588357819 0.00292939 0.6664944988 -0.4217002957 0.6668158441 -0.4219924685 0.0591203409 0.0017671673
290298260.0 0.0587853364 0.0016812269 0.662332587 -0.4295456346 0.6622289076 -0.4293842922 0.0596753461 0.0006644228
295298230.0 0.0587610866 0.0008909305 0.6577910621 -0.4377809648 0.6572627615 -0.4373917537 0.0597076399 -0.0002034115
300298200.0 0.0591725521 0.0001523573 0.6527183413 -0.4445715045 0.6533405111 -0.4451910092 0.0592713459 -0.0012691689
305298170.0 0.0589919096 -0.0012862566 0.6486671031 -0.453113347 0.6489358902 -0.4530515306 0.0600929469 -0.002131597
310298140.0 0.0592538343 -0.00233823 0.6434727767 -0.4604407203 0.6434884953 -0.4611161666 0.0598224624 -0.0031294043
315298110.0 0.0587874723 -0.0033920698 0.6380893637 -0.4681126839 0.6388690835 -0.4680114603 0.06014494 -0.0045542429
320298080.0 0.058899171 -0.0043770571 0.6328245503 -0.475738703 0.6332734104 -0.4758090696 0.059655086 -0.0059843895
325298050.0 0.0582957884 -0.0059183515 0.628006219 -0.4834540629 0.6281869015 -0.4836619005 0.0590249313 -0.0070112842
330298020.0 0.0580794252 -0.0065521105 0.6214695598 -0.4901593564 0.6219948685 -0.4906252637 0.0584020295 -0.0081613766
335297990.0 0.0575711681 -0.0079000441 0.6166214637 -0.4972057411 0.6165236404 -0.4979175307 0.0582301781 -0.0090374075
340297960.0 0.0566861339 -0.0079532938 0.6102777215 -0.5049663963 0.6111706219 -0.5046609429 0.0577447519 -0.0094401903
345297930.0 0.0561940309 -0.0085061866 0.6049906562 -0.5111289748 0.6046913541 -0.5110840651 0.0578489243 -0.0106605923
350297900.0 0.0565158196 -0.0093663689 0.5992106582 -0.5179260495 0.5995408943 -0.5176354775 0.0569009171 -0.0107497178
355297870.0 0.0559852438 -0.0100874186 0.5930532265 -0.5246249232 0.5931216871 -0.5249265283 0.0564617012 -0.0114902084
360297840.0 0.0558242932 -0.0109077864 0.5875435878 -0.5313923525 0.5870934264 -0.5316532083 0.05658608 -0.0119050489
365297810.0 0.0559625815 -0.0115955006 0.5815390646 -0.5374518117 0.5814997661 -0.5377664441 0.0560178377 -0.0121645997
370297780.0 0.0556246959 -0.0122060104 0.5757801007 -0.5441728473 0.5759286273 -0.544777565 0.0563509774 -0.0126690348
375297750.0 0.0551725562 -0.0122649876 0.5702052917 -0.5509616031 0.5698860447 -0.5510855636 0.0554306956 -0.0133509533
380297720.0 0.0549690121 -0.0136977665 0.5636205435 -0.5566551873 0.563602275 -0.5570651513 0.0554939523 -0.0144044714
385297690.0 0.0546378114 -0.0138572953 0.5571429592 -0.5631935242 0.5571960115 -0.5634466647 0.0549207461 -0.0146467501
390297660.0 0.0543708669 -0.0148625279 0.5509798835 -0.5697970568 0.5513393909 -0.5707479469 0.0549403773 -0.0155271763
395297630.0 0.0546655446 -0.0157103932 0.5450533828 -0.5757061808 0.5452240947 -0.5753463739 0.0544042921 -0.0157454054
400297600.0 0.0537998653 -0.0158756699 0.5383446748 -0.5820599757 0.5387907448 -0.5820813558 0.0533635965 -0.0168655852
405297570.0 0.0539953757 -0.0162980519 0.5316678947 -0.5877673052 0.5321367209 -0.5878881405 0.053748125 -0.0167893956
410297540.0 0.0538935909 -0.0172966924 0.5249799884 -0.5933776199 0.5255233938 -0.5935353535 0.0532074018 -0.017898425
415297510.0 0.0532741605 -0.0172904123 0.5191876708 -0.599333993 0.5194749339 -0.5995296715 0.0525998354 -0.0181049835
420297480.0 0.053025176 -0.0188780585 0.512255765 -0.6057950509 0.5126321771 -0.6053326526 0.0529587186 -0.0190727195
425297450.0 0.0533561471 -0.0194916826 0.5060410763 -0.6109963221 0.5063844339 -0.6109833913 0.0523362405 -0.0188870751
430297420.0 0.0524143687 -0.0198391796 0.4989676916 -0.6169266344 0.4992080845 -0.6171265421 0.051342658 -0.0203596983
435297390.0 0.0525778832 -0.0206465231 0.4922241021 -0.621571114 0.4922077352 -0.6220794685 0.0512790693 -0.0198777124
440297360.0 0.0523351719 -0.0215126129 0.4852611548 -0.6276570339 0.4847620448 -0.6281256098 0.0509284463 -0.021374496
445297330.0 0.0521993344 -0.0220464142 0.478354566 -0.6332427265 0.478395156 -0.6334775579 0.0506128223 -0.0215780401
450297300.0 0.0518402855 -0.0224089576 0.4714791474 -0.6377690672 0.4711445209 -0.638788392 0.0503020339 -0.0218369414
455297270.0 0.0510658735 -0.0232964284 0.4649927418 -0.6435966923 0.4652213809 -0.6435381521 0.050061293 -0.0223973327
460297240.0 0.0507349511 -0.0236978948 0.4574677484 -0.648345558 0.4565602932 -0.6488031692 0.0495780365 -0.0224138842
465297210.0 0.050592482 -0.0247685592 0.4505072478 -0.6538546649 0.4508388463 -0.6539978765 0.0487112967 -0.0238192527
470297180.0 0.0500252386 -0.0251498344 0.4428104465 -0.6586399248 0.4438804089 -0.6591031475 0.0480019435 -0.02412109
475297150.0 0.0492995594 -0.0263680977 0.4353842887 -0.6636334604 0.4361131516 -0.6631691075 0.0480583417 -0.0245368361
480297120.0 0.049804395 -0.0269717085 0.4284793605 -0.6680910873 0.4289168827 -0.668406564 0.0475600435 -0.0245956901
485297090.0 0.0494579063 -0.0274358663 0.4213862859 -0.6728174666 0.4212074629 -0.6733742336 0.0468661762 -0.0257074531
490297060.0 0.048843387 -0.0279660459 0.4139995842 -0.6775967007 0.4139593122 -0.6776617031 0.0472126493 -0.0256304037
495297030.0 0.048120597 -0.0280581918 0.4060893012 -0.6819629031 0.4061745989 -0.6824201229 0.0464154631 -0.0264494537
500297000.0 0.047930053 -0.0293525109 0.3991706066 -0.6865098926 0.3986456057 -0.6867492191 0.0455580977 -0.026853439
505296970.0 0.0471347802 -0.0296892806 0.3911182227 -0.690492846 0.3910359165 -0.6909075796 0.0448395512 -0.0272751786
510296940.0 0.0469826426 -0.0299479297 0.3837968598 -0.6954742476 0.3836541518 -0.6950985803 0.0448431136 -0.0267972002
515296910.0 0.0461153219 -0.0304565895 0.3759465686 -0.698938402 0.375898674 -0.699357414 0.0440151894 -0.0280096402
520296880.0 0.0460268059 -0.0313508058 0.3680608647 -0.7035383068 0.3684944591 -0.7035282072 0.0442045914 -0.0283783165
525296850.0 0.0451899201 -0.0322209302 0.3607797332 -0.707451518 0.3610394387 -0.7080685404 0.0439842778 -0.0291093994
530296820.0 0.0451372491 -0.0325126514 0.353298845 -0.7107113095 0.3529624859 -0.711051593 0.04278158 -0.0297990425
535296790.0 0.0444967059 -0.032940687 0.3446234384 -0.7140287693 0.3453710091 -0.7153070568 0.0426828924 -0.0301573985
540296760.0 0.0439467715 -0.0339114747 0.3371322676 -0.7192427898 0.3364044832 -0.7194854118 0.0414879476 -0.0300752649
545296730.0 0.0434783496 -0.0334243647 0.3291414305 -0.7220668416 0.3292229892 -0.7231562796 0.0409303874 -0.0310196317
550296700.0 0.042457455 -0.0343557011 0.3215950633 -0.7262451587 0.3217481968 -0.7263974544 0.0405546677 -0.0303801516
555296670.0 0.0426807616 -0.0353747652 0.3134749527 -0.7299388285 0.3133680277 -0.7301857476 0.0403388684 -0.0310642063
560296640.0 0.0418328817 -0.0356560731 0.3055081929 -0.7325435695 0.3055010527 -0.7328369121 0.0398012621 -0.0315089225
565296610.0 0.040710933 -0.0362027433 0.2971835374 -0.7364182695 0.2966217102 -0.7366492712 0.0388821235 -0.03248626
570296580.0 0.0415034715 -0.0366981644 0.2898109212 -0.7399569401 0.2896227007 -0.7398373435 0.0388391406 -0.0316992891
575296550.0 0.0403008442 -0.036203576 0.2809553536 -0.7421738505 0.2817512683 -0.7427004581 0.038384991 -0.0326984049
580296520.0 0.039500275 -0.0371264679 0.2734441007 -0.7462083402 0.2728736187 -0.7461523899 0.0375716186 -0.0335637799
585296490.0 0.0394208953 -0.0377758048 0.2650878898 -0.7491944307 0.2647408833 -0.7488447626 0.0368996573 -0.0337170783
590296460.0 0.0378367414 -0.0384290024 0.2564056742 -0.751620313 0.2568065079 -0.7516732065 0.0367071372 -0.033544233
595296430.0 0.037645479 -0.0384406412 0.2491627291 -0.7543083404 0.2485087703 -0.7550784491 0.0364258351 -0.0339187269
600296400.0 0.0371056464 -0.0385188515 0.239993975 -0.7568842213 0.2404442662 -0.7569275195 0.0356256156 -0.0337192155
605296370.0 0.0369128073 -0.0386227096 0.232331047 -0.7599551837 0.232066421 -0.7596124493 0.0351146156 -0.034791404
610296340.0 0.035873441 -0.0391619788 0.2243767103 -0.7618883668 0.2239359466 -0.7623800341 0.0343347992 -0.0343835974
615296310.0 0.0352621427 -0.039528994 0.215139765 -0.7643440933 0.2153471347 -0.7647078162 0.0342405262 -0.0350709448
620296280.0 0.0346436129 -0.0401821307 0.2073245232 -0.7668752501 0.2075165682 -0.7667463435 0.0334636041 -0.0356656247
625296250.0 0.034555205 -0.0404709494 0.1984830444 -0.7694319945 0.1986032619 -0.769515786 0.0329447206 -0.0355954373
630296220.0 0.0336529727 -0.0404403502 0.1902850782 -0.7713667031 0.1907247721 -0.771267003 0.031975352 -0.035952043
635296190.0 0.0332362942 -0.0409302609 0.1815900301 -0.772769077 0.1816361951 -0.7729664593 0.0315719377 -0.0366275748
640296160.0 0.0324138394 -0.0412510416 0.1737837385 -0.7752003732 0.1731572083 -0.7751142225 0.0316366833 -0.036383118
645296130.0 0.0321451678 -0.0411602233 0.1649060493 -0.7768253709 0.1649923501 -0.7770101293 0.0298064388 -0.0370490939
650296100.0 0.031028608 -0.0408383076 0.1568438563 -0.7785270349 0.1568840535 -0.7785638496 0.0297408576 -0.0371429225
655296070.0 0.0302365919 -0.0418446267 0.1478249954 -0.7802301966 0.1475977212 -0.7802494848 0.0298571075 -0.0367979774
660296040.0 0.02928943 -0.0418637181 0.1395494395 -0.7816823895 0.1398949266 -0.7814906511 0.0285864679 -0.0379126714
665296010.0 0.0293873978 -0.0423938876 0.1310457428 -0.7830863043 0.1318723064 -0.783197073 0.0279120676 -0.0373148331
670295980.0 0.0293909575 -0.0423128603 0.1228835414 -0.7846563131 0.1226295826 -0.7845582259 0.0272324911 -0.0378804671
675295950.0 0.0284369462 -0.0423766597 0.1139159183 -0.7858178184 0.1143060091 -0.7864097234 0.0272550651 -0.037832575
680295920.0 0.0275676184 -0.042467003 0.1053350961 -0.7869967165 0.1057107136 -0.787105 0.0264335927 -0.0383926406
685295890.0 0.0266195141 -0.0427037685 0.0973677571 -0.7883990611 0.096512391 -0.7882257598 0.0255822518 -0.0383975508
690295860.0 0.0266535485 -0.0431381383 0.0882854902 -0.7888262319 0.0877229571 -0.7887082978 0.0255782961 -0.0381148973
695295830.0 0.0262514085 -0.0435132744 0.078731814 -0.7899493148 0.0793745812 -0.7901664527 0.0242971384 -0.0385396245
700295800.0 0.0258829228 -0.043465115 0.0709113838 -0.7912136276 0.070674275 -0.7913725149 0.0238419795 -0.0393780904
705295770.0 0.0248507595 -0.0437402808 0.0623326875 -0.7917079255 0.0623295875 -0.7916681284 0.0230288725 -0.0390980134
710295740.0 0.0240124143 -0.0431959942 0.053949305 -0.7920224022 0.0532645357 -0.7920138231 0.0215367033 -0.0390413108
715295710.0 0.0237075335 -0.0437855889 0.0451915136 -0.7929448691 0.045516465 -0.7931594183 0.0219154003 -0.0400239783
720295680.0 0.0229315795 -0.0443290049 0.0364017528 -0.7926746771 0.0367250751 -0.7936232929 0.0215850889 -0.0393656301
725295650.0 0.0226155093 -0.0438639587 0.0272508026 -0.7924831986 0.0275867406 -0.793449022 0.0209469102 -0.0391652155
730295620.0 0.0212041626 -0.0445136211 0.0186727383 -0.7939694272 0.0195401315 -0.7943581151 0.0203940563 -0.0403810115
735295590.0 0.0213242829 -0.0443771964 0.0109992683 -0.7941270053 0.011276866 -0.7943673556 0.019631849 -0.0396049299
740295560.0 0.0202654131 -0.0442140941 0.0017857108 -0.7935282538 0.0019602481 -0.7938495483 0.0195967581 -0.0399460136
745295530.0 0.0199747803 -0.0447632512 -0.0066419369 -0.793969693 -0.0066108421 -0.7945783583 0.0182594566 -0.039667571
750295500.0 0.0192437848 -0.0447920721 -0.0152957492 -0.7935093932 -0.0147601498 -0.793770962 0.0183046913 -0.0404400853
755295470.0 0.0191930614 -0.0445138674 -0.0235324744 -0.793636507 -0.0238006494 -0.7938620448 0.0168265964 -0.0401177204
760295440.0 0.0179705637 -0.0446676338 -0.032561843 -0.7930741348 -0.0329792981 -0.7931727541 0.0157827989 -0.0401915419
765295410.0 0.0171164025 -0.0449871605 -0.0408919289 -0.7925537429 -0.0407676562 -0.7932699788 0.0167154654 -0.039645227
770295380.0 0.0169493811 -0.0448840318 -0.0497558077 -0.7919934227 -0.0496551367 -0.793041499 0.0158139974 -0.0398392519
775295350.0 0.0161479528 -0.0447015555 -0.0581249097 -0.7913086678 -0.0579501144 -0.7917672639 0.0146835504 -0.0409264654
780295320.0 0.0155798448 -0.0448402652 -0.0669810373 -0.7909962395 -0.0664513753 -0.7912809476 0.014319294 -0.0400023447
785295290.0 0.014704955 -0.0442958992 -0.0754521712 -0.7892938549 -0.0757823284 -0.7904564302 0.0129822405 -0.0404426807
790295260.0 0.0141916605 -0.0445041807 -0.0838588054 -0.7890067993 -0.083817929 -0.7902229895 0.0134622405 -0.0405166226
795295230.0 0.0133004993 -0.0447176873 -0.0917438443 -0.7878353304 -0.092398236 -0.7884115336 0.0126881333 -0.0396858762
800295200.0 0.0128471904 -0.0444511851 -0.1017308709 -0.7876282002 -0.1016406838 -0.7876840877 0.0119370496 -0.0403515707
805295170.0 0.0119171141 -0.0450011624 -0.1092770698 -0.7856541068 -0.109201136 -0.78597305 0.0110763738 -0.0401038163
810295140.0 0.0115994326 -0.0446681069 -0.1181940661 -0.7848358874 -0.1183611258 -0.7857104986 0.0108369311 -0.0399903912
815295110.0 0.0108395609 -0.0445845156 -0.1266881029 -0.78303463 -0.1271396507 -0.7834887924 0.0095890906 -0.0405218671
820295080.0 0.0101235566 -0.0448596178 -0.1350057417 -0.7821488834 -0.1352392137 -0.7825257755 0.0090881258 -0.0400918755
825295050.0 0.0095577215 -0.0448892962 -0.1438838647 -0.7800377686 -0.1434881647 -0.7801318333 0.0089448324 -0.0397346117
830295020.0 0.008778673 -0.044176272 -0.152371681 -0.7786249008 -0.1526406271 -0.7790135976 0.0083572679 -0.0399736575
835294990.0 0.0081240184 -0.0443443468 -0.1608034848 -0.7768133989 -0.1602897102 -0.7774684568 0.0081815113 -0.0400888382
