!Created with skrf (http://scikit-rf.org).
# Hz S RI R 50.0 
!freq ReS11 ImS11 ReS21 ImS21 ReS12 ImS12 ReS22 ImS22
300000.0 -0.2371601771 -0.1094101307 0.4692091658 0.0706099359 0.4697364539 0.073734481 -0.2382256716 -0.1123417634
5299970.0 -0.2404680079 0.006881853 0.4750887752 0.0056483352 0.4753420428 0.0058158559 -0.2451172855 0.0056308008
10299940.0 -0.2370719197 0.0199570612 0.4774534619 0.0064784234 0.4771359301 0.0064036065 -0.2417107093 0.0173141009
15299910.0 -0.2328840182 0.0296449455 0.4808135363 0.0075813912 0.4805379063 0.0078190924 -0.237438472 0.0264025424
20299880.0 -0.2274193933 0.0379460992 0.4850772877 0.0081783132 0.4855022747 0.0080998072 -0.232899038 0.0341044699
25299850.0 -0.2217310149 0.044307275 0.4903950672 0.0070371088 0.490634284 0.0069261399 -0.2279169169 0.0400193983
30299820.0 -0.2157122205 0.0495049266 0.4960892207 0.0048921691 0.4958940344 0.005043191 -0.2225845121 0.0449970508
35299790.0 -0.2101453261 0.0539944405 0.5012415251 0.0017141867 0.5016597821 0.0017513563 -0.2172265979 0.0486379026
40299760.0 -0.2045651796 0.0569042032 0.5064011857 -0.0021140154 0.5063061897 -0.0021330965 -0.2128040155 0.0521818206
45299730.0 -0.1995290221 0.0602225974 0.5113021337 -0.0073146622 0.510913064 -0.0070492304 -0.2079908632 0.0543832954
50299700.0 -0.1945266524 0.0619688107 0.5149269083 -0.0127944166 0.5155219105 -0.0129334113 -0.2038670732 0.0565718855
55299670.0 -0.190660378 0.0637727662 0.5183368619 -0.018700391 0.5190326027 -0.0187502124 -0.1999813431 0.0582338697
60299640.0 -0.186406678 0.0648361914 0.5216359183 -0.0250397991 0.5220266279 -0.0247311879 -0.196483626 0.0592200992
65299610.0 -0.1832998259 0.0665605506 0.5251321901 -0.0307983341 0.5252920352 -0.0311840245 -0.1931424098 0.0608072951
70299580.0 -0.1797607563 0.0670370887 0.527473426 -0.0374242878 0.5271734395 -0.0377646257 -0.1900394254 0.0613902355
75299550.0 -0.1764110764 0.068033498 0.5293425348 -0.0446047333 0.5294725092 -0.0446528243 -0.1873016582 0.0625774284
80299520.0 -0.1742074124 0.0688670034 0.5314640986 -0.0512844151 0.5313339938 -0.0515848167 -0.1849016604 0.0628383765
85299490.0 -0.1713872714 0.0693279848 0.5324308997 -0.0585112745 0.5322695992 -0.0584990461 -0.1825170877 0.0637668052
90299460.0 -0.1693211244 0.0701493373 0.5335261315 -0.0649351905 0.5337966196 -0.0653896155 -0.1801221087 0.0643650295
95299430.0 -0.167154835 0.0710249583 0.5345153283 -0.0722696247 0.5343567101 -0.0724148924 -0.1782992017 0.0649661759
100299400.0 -0.1652632414 0.0719469372 0.5343263384 -0.0793308036 0.5347592044 -0.0791741927 -0.1768094129 0.0654334598
105299370.0 -0.1635547158 0.0723756611 0.5349299402 -0.0854810885 0.5350008169 -0.0859516439 -0.1749615493 0.0660973448
110299340.0 -0.1618815471 0.073278948 0.535079646 -0.0922616225 0.5350534736 -0.0930190887 -0.174001945 0.0669201979
115299310.0 -0.1601353385 0.073597528 0.5352030061 -0.0992677846 0.5355382793 -0.0989104159 -0.1722164027 0.0673126484
120299280.0 -0.1591117883 0.0744520866 0.5350350464 -0.1064156005 0.5349863683 -0.1064774196 -0.1711048428 0.0680109008
125299250.0 -0.1578730356 0.0750744117 0.5344124344 -0.1126945262 0.5351490445 -0.1130983588 -0.1701571809 0.0681893605
130299220.0 -0.1563271124 0.0761366419 0.5338927224 -0.1195184709 0.5341548697 -0.1198575716 -0.1688714246 0.0693678073
135299190.0 -0.1553687641 0.0766077178 0.5334179694 -0.1261949502 0.533060681 -0.1265213815 -0.1679271109 0.0704043876
140299160.0 -0.1543782432 0.0781156717 0.5325574685 -0.133050415 0.5327066047 -0.13314562 -0.16679416 0.070944097
145299130.0 -0.1531278014 0.0789637738 0.532311689 -0.1398707484 0.5312694291 -0.1392709283 -0.1659077011 0.0717444343
150299100.0 -0.1519820201 0.0798528022 0.5304155207 -0.1460990471 0.5304556946 -0.1461294934 -0.1653768874 0.0725035204
155299070.0 -0.1509966426 0.0814220575 0.5289476437 -0.1532209894 0.5292497468 -0.1528733932 -0.1646345419 0.0735223851
160299040.0 -0.1500289755 0.0821571111 0.5276558016 -0.1587701183 0.5278186575 -0.158983241 -0.1636405994 0.0746171787
165299010.0 -0.1491401302 0.08317357 0.5266128321 -0.1657721026 0.5266614056 -0.1656579617 -0.1627025714 0.0753810529
170298980.0 -0.148541642 0.0845087978 0.5242224808 -0.1721950614 0.524917946 -0.17205438 -0.1616295054 0.0766469893
175298950.0 -0.1474804055 0.0856678239 0.523354966 -0.1781233984 0.5234608609 -0.1782699719 -0.1610254551 0.0774696613
180298920.0 -0.146409253 0.0865434969 0.5215694342 -0.1846621788 0.5216218792 -0.1842921873 -0.1601863495 0.0788786596
185298890.0 -0.1451705865 0.0880716346 0.5196580315 -0.1906420858 0.5197887989 -0.1906359477 -0.1597256423 0.079845636
190298860.0 -0.1445584537 0.0892425958 0.5174691665 -0.1969620555 0.5177141631 -0.1968843259 -0.1585536183 0.0811228715
195298830.0 -0.1436976919 0.0900553599 0.5154678531 -0.2025889818 0.5159326331 -0.2031095513 -0.1581462372 0.0816937232
200298800.0 -0.1426419713 0.0918187905 0.5139934498 -0.2085878047 0.5137057436 -0.2088313913 -0.1568078436 0.0832048379
205298770.0 -0.1416159907 0.0929015666 0.5116232921 -0.214639056 0.5117155898 -0.2152286224 -0.1564174825 0.0841924718
210298740.0 -0.1411503321 0.094355717 0.5094652409 -0.2209431272 0.5096979861 -0.2212315716 -0.1556364533 0.0853920751
215298710.0 -0.1398853924 0.0956248513 0.5069480891 -0.2265228689 0.5072844362 -0.2270149342 -0.1553847387 0.0865825953
220298680.0 -0.1387489149 0.0971329002 0.5046652261 -0.2330821831 0.5048181947 -0.2329755954 -0.1541364716 0.088250946
225298650.0 -0.1376030022 0.0984648909 0.5016190444 -0.238378013 0.5019650491 -0.238459025 -0.1535931052 0.0896613578
230298620.0 -0.1371250238 0.0998925016 0.5000617448 -0.2444995993 0.5001548971 -0.2446949875 -0.1523866472 0.0906012342
235298590.0 -0.1362762262 0.100934956 0.4974173569 -0.2501001329 0.4970978031 -0.2504578153 -0.1519328575 0.0916621822
240298560.0 -0.1351263908 0.1026639477 0.494518637 -0.255647402 0.4945639476 -0.2555150675 -0.1508436499 0.0932897504
245298530.0 -0.1337961092 0.103655312 0.4909946173 -0.2616159589 0.4915438712 -0.2616305654 -0.1499216849 0.0946839215
250298500.0 -0.1328981255 0.1052104305 0.4886935589 -0.2665247465 0.4889915651 -0.2667520441 -0.1489038032 0.0956694747
255298470.0 -0.1321023412 0.1068715572 0.485459892 -0.27307148 0.4857074488 -0.2727073281 -0.1480828741 0.0969273514
260298440.0 -0.1311300073 0.1080227861 0.4828672569 -0.2773551623 0.4830092483 -0.2783362834 -0.147104746 0.0983966793
265298410.0 -0.1297232889 0.1099966153 0.4796920623 -0.2841937575 0.4794780288 -0.283930202 -0.1464885625 0.0997625307
270298380.0 -0.1282282657 0.1110250707 0.4763151993 -0.2891130893 0.4764568978 -0.2892708249 -0.1452703783 0.1011598528
275298350.0 -0.1274728869 0.1124507207 0.4733963269 -0.2947098317 0.4736949612 -0.2952278268 -0.1445017777 0.1024063474
280298320.0 -0.1262110942 0.1138586778 0.4701018674 -0.299497222 0.4701440806 -0.300170122 -0.1432281828 0.1039100602
285298290.0 -0.1247544483 0.1154892966 0.4668244095 -0.305020037 0.4666939882 -0.3057395279 -0.1423816747 0.105048812
290298260.0 -0.1234999588 0.1163747384 0.4637233677 -0.309947547 0.4636289574 -0.310864164 -0.141311153 0.1066782227
295298230.0 -0.1225854448 0.1180715484 0.4607112403 -0.315781146 0.4602258617 -0.3160078372 -0.1403914742 0.1081851284
300298200.0 -0.1208019884 0.1194379823 0.4566782487 -0.3211581512 0.4572286035 -0.3214520085 -0.1396137137 0.1094733519
305298170.0 -0.1197060623 0.1208578515 0.4537205404 -0.3264281309 0.4539564962 -0.3264950593 -0.1380908011 0.1106752313
310298140.0 -0.1181456157 0.1218916578 0.449963474 -0.3322731155 0.4500907534 -0.3319954458 -0.1372455152 0.1126574733
315298110.0 -0.1172067756 0.1232519004 0.4466806006 -0.3368203049 0.4467045658 -0.3372938729 -0.1357615789 0.113353681
320298080.0 -0.1161064532 0.1244847548 0.4428039163 -0.3422769377 0.4428366525 -0.3419746066 -0.1350881625 0.1146143053
325298050.0 -0.1147207957 0.125797351 0.4390006373 -0.3472993964 0.4391171537 -0.347379603 -0.1340292082 0.1159571853
330298020.0 -0.113440487 0.1270666428 0.4345582282 -0.3522280262 0.4347099691 -0.3523189739 -0.1332742455 0.1170205729
335297990.0 -0.1123256586 0.1281136855 0.4307782416 -0.3569624163 0.4307908481 -0.3571699499 -0.1322771634 0.1182665512
340297960.0 -0.1113860654 0.1297707507 0.4266646922 -0.3617699193 0.4270368569 -0.3617958709 -0.1311620973 0.1199851484
345297930.0 -0.11022216 0.1311016385 0.4225826131 -0.365870156 0.4223173034 -0.3661149099 -0.1299256828 0.1212060972
350297900.0 -0.1081004279 0.1325447412 0.4180570836 -0.3704257487 0.4188219663 -0.3713058479 -0.1289461993 0.1231723151
355297870.0 -0.1072495238 0.1337470408 0.4139242716 -0.3754961178 0.4140927 -0.3756939166 -0.1277500665 0.1243466718
360297840.0 -0.1055230419 0.1351967399 0.4100550963 -0.380430563 0.4097497418 -0.3804603876 -0.1265398207 0.1257531264
365297810.0 -0.1038978601 0.1364665014 0.4056961304 -0.3848438172 0.4058196143 -0.3845347601 -0.1256119388 0.1273492935
370297780.0 -0.1024255787 0.1377684539 0.4014504904 -0.3892100905 0.4020263163 -0.3895522519 -0.1243785111 0.1288216136
375297750.0 -0.1014105589 0.1393425184 0.397837024 -0.3937625351 0.3972152043 -0.3935585434 -0.1228361225 0.1300874656
380297720.0 -0.099492289 0.1400623642 0.3928018404 -0.3974161523 0.3930709362 -0.3979090343 -0.1217129471 0.1317219807
385297690.0 -0.098050771 0.1418367728 0.3885988147 -0.4022024828 0.3882874251 -0.4022967145 -0.1208839486 0.1335304919
390297660.0 -0.0966577404 0.1427861153 0.383738839 -0.406187078 0.3841492918 -0.4067508362 -0.1190354665 0.1343033533
395297630.0 -0.0948800296 0.1438639849 0.3797533549 -0.4100971554 0.3797102788 -0.4107685217 -0.1182252815 0.1357959718
400297600.0 -0.0936511163 0.1451470001 0.3751552671 -0.4145616039 0.3754347286 -0.4149465348 -0.1173991207 0.1368216111
405297570.0 -0.0918065962 0.1465695295 0.3706275409 -0.4185926342 0.3705588456 -0.419104273 -0.1158251424 0.1384781458
410297540.0 -0.0900555379 0.147813047 0.3654613576 -0.422528833 0.365544465 -0.4226978864 -0.1143527123 0.1398078968
415297510.0 -0.0887635021 0.1490907805 0.3614201075 -0.4266596166 0.3615727973 -0.4267499721 -0.1134247389 0.141191232
420297480.0 -0.0866962289 0.1496973419 0.3561500657 -0.4305219371 0.3565470604 -0.4308713344 -0.111902782 0.142486635
425297450.0 -0.0849692701 0.1506764209 0.3518002808 -0.4341081807 0.3519928997 -0.4345958535 -0.1102597959 0.1438939751
430297420.0 -0.0834393993 0.1520051881 0.3469328825 -0.4387439718 0.3474035025 -0.4388237047 -0.1091523398 0.1449844603
435297390.0 -0.0815029337 0.1530569059 0.3422617091 -0.4418797601 0.342261466 -0.442501628 -0.1076030076 0.1465898109
440297360.0 -0.0795865255 0.1539893505 0.337255091 -0.4455054471 0.3368292916 -0.4457555181 -0.1064040209 0.1469895267
445297330.0 -0.0780448936 0.154933093 0.3322176468 -0.4496894709 0.3324437306 -0.4495390541 -0.1051351126 0.1484724228
450297300.0 -0.0762137279 0.155990928 0.3275147937 -0.4530223716 0.3274815468 -0.4531831751 -0.1037253642 0.1501468746
455297270.0 -0.0747271191 0.1568574479 0.3225739076 -0.4564032426 0.3229139765 -0.4566860189 -0.1019060477 0.150968175
460297240.0 -0.0734361282 0.1581014428 0.3174168791 -0.4598467586 0.3171832575 -0.4603118606 -0.1005093509 0.152579259
465297210.0 -0.0710792021 0.1590313323 0.3126873425 -0.4635817883 0.3126443923 -0.4633865611 -0.0993875131 0.1532772177
470297180.0 -0.069491679 0.1597905039 0.3077026506 -0.466796865 0.307679381 -0.4671031205 -0.0985526754 0.1543572228
475297150.0 -0.0680340279 0.1605835956 0.3020497015 -0.4700263405 0.302481044 -0.4698120953 -0.0964007384 0.1557484441
480297120.0 -0.0657796487 0.1610953901 0.2969106768 -0.4732218005 0.2974464136 -0.4733995516 -0.095131255 0.1572744467
485297090.0 -0.0641917069 0.1621531846 0.2922269914 -0.4766468024 0.2924139484 -0.4763533349 -0.093967127 0.157830153
490297060.0 -0.062061114 0.1630427212 0.2866443747 -0.4796759541 0.2869991579 -0.4796007381 -0.092062679 0.159487368
495297030.0 -0.0606576296 0.1639795716 0.2816131952 -0.4823816169 0.2811473034 -0.4827790568 -0.0906240603 0.1602564083
500297000.0 -0.0583783066 0.1645847196 0.275870027 -0.4856069913 0.2764084892 -0.4858348156 -0.0895777116 0.1614035917
505296970.0 -0.0568494115 0.1654064301 0.2703958983 -0.4881808797 0.2706928258 -0.4884050774 -0.0881652028 0.1626080251
510296940.0 -0.0548617913 0.1661165354 0.2655148428 -0.4916079061 0.2657067045 -0.4917565326 -0.0859727115 0.1638633095
515296910.0 -0.0534552775 0.1669799404 0.2600295737 -0.4942427807 0.2598719474 -0.4946148121 -0.0847334302 0.1647226008
520296880.0 -0.0512634959 0.1678131059 0.2549707849 -0.4969155303 0.2549311194 -0.4972942629 -0.0829538701 0.1653980565
525296850.0 -0.0496748211 0.1683469248 0.249255562 -0.4998281091 0.2494708525 -0.4998671305 -0.0813265762 0.1664302692
530296820.0 -0.0477467753 0.1691903466 0.2443940899 -0.5019693436 0.2439213887 -0.5023421625 -0.0803835118 0.1670688446
535296790.0 -0.0455169197 0.1697012545 0.2383071654 -0.5050540176 0.2387085949 -0.5049320467 -0.0784123281 0.1679196622
540296760.0 -0.0439122047 0.1701435395 0.2330145494 -0.5076485654 0.2327306195 -0.5077015642 -0.0769901374 0.1690319779
545296730.0 -0.0417909187 0.1713681883 0.2271583052 -0.5099536574 0.2273755501 -0.5100661679 -0.0753865885 0.1699584479
550296700.0 -0.0405320426 0.171532891 0.2220789167 -0.5121157823 0.2224075325 -0.5130306887 -0.0742926214 0.17134167
555296670.0 -0.0377140363 0.1716834356 0.2161089147 -0.5148677927 0.2163293762 -0.5150583943 -0.0724240598 0.1721713049
560296640.0 -0.0360614994 0.1726578867 0.2108125745 -0.5169066 0.2110070602 -0.5170238312 -0.0706861269 0.1726962061
565296610.0 -0.0346162689 0.173214016 0.2055140805 -0.5191055641 0.2051209911 -0.5195728481 -0.0692481422 0.1735474402
570296580.0 -0.0320832828 0.1737632413 0.199415116 -0.5211693254 0.1996941291 -0.5215520136 -0.0675939286 0.1750408591
575296550.0 -0.0303627323 0.1741598803 0.1941997159 -0.5231858824 0.1939584338 -0.5230489683 -0.0656727797 0.1755060956
580296520.0 -0.0285527133 0.1745787395 0.1880736832 -0.5252657119 0.1881899798 -0.5254330279 -0.0640498828 0.1759284881
585296490.0 -0.0262589259 0.1749943733 0.1825034183 -0.5278466412 0.1824194507 -0.5276701797 -0.0624883224 0.1764008819
590296460.0 -0.0248538665 0.1749654696 0.1766728974 -0.5291666119 0.1766518277 -0.5297827603 -0.060751111 0.1776866308
595296430.0 -0.022703372 0.1760374174 0.171194605 -0.531354947 0.1708036933 -0.5316866948 -0.0588783705 0.1782909407
600296400.0 -0.020997632 0.1764664047 0.1654291911 -0.5327672582 0.1656321006 -0.5331979829 -0.0573642001 0.1791060697
605296370.0 -0.0185378259 0.1770418747 0.159927977 -0.5348241877 0.1600177712 -0.5346093793 -0.0556951799 0.1797451011
610296340.0 -0.0167663867 0.1772797091 0.1543084509 -0.536461456 0.154082332 -0.5367653845 -0.0540561254 0.1809286618
615296310.0 -0.014809578 0.1775190458 0.1478563264 -0.5381698015 0.1479289884 -0.5382419512 -0.052154606 0.1812872827
620296280.0 -0.0128690245 0.1776740038 0.1419680778 -0.5394962482 0.1423640466 -0.5398136887 -0.0506980195 0.1816768558
625296250.0 -0.010870616 0.1782335906 0.1362166038 -0.541408896 0.1360426205 -0.5414597997 -0.0485593177 0.1827647443
630296220.0 -0.0087008699 0.1783119278 0.130149743 -0.5427538765 0.1306273027 -0.5425318957 -0.0474429331 0.1833807468
635296190.0 -0.0068022156 0.1786735778 0.1245503845 -0.5436723965 0.1246428647 -0.5433187249 -0.0455799457 0.1833075167
640296160.0 -0.0049119207 0.1787806143 0.1186028996 -0.5450472862 0.1187204188 -0.5448686718 -0.0431882753 0.1841347696
645296130.0 -0.0025801628 0.1788189873 0.1125950155 -0.5464061909 0.1128351185 -0.5464632418 -0.0421998272 0.1846560103
650296100.0 -0.0010669653 0.1795150683 0.1075021716 -0.547160495 0.1069210198 -0.5475682663 -0.0400030018 0.1853082025
655296070.0 0.0010868696 0.1792565348 0.1009874529 -0.5483659886 0.1009959237 -0.5484165917 -0.0380920447 0.1861122392
660296040.0 0.0026918816 0.179747939 0.0949694015 -0.5491867967 0.0953792932 -0.5494287345 -0.0367178746 0.1861905222
665296010.0 0.0050801446 0.1795680643 0.0893951204 -0.5505756642 0.0897246515 -0.550806394 -0.0349994114 0.1872427586
670295980.0 0.0075146828 0.1798812827 0.0834035674 -0.5514582809 0.0838406162 -0.5516491861 -0.0335890562 0.1874574725
675295950.0 0.0093982762 0.1799072506 0.0771603992 -0.5523511963 0.0773636645 -0.5525888321 -0.031163432 0.1883837868
680295920.0 0.0110532284 0.1800641833 0.0712422551 -0.5533745838 0.0712437292 -0.553210011 -0.0294161947 0.1882978138
685295890.0 0.0131893209 0.1798373183 0.0655041216 -0.5536751257 0.0652520153 -0.5541194977 -0.0277450332 0.1886669993
690295860.0 0.0153478194 0.1798844909 0.0594549021 -0.5537628734 0.0590609643 -0.5539568946 -0.0257500845 0.1894591357
695295830.0 0.0176141602 0.1798421828 0.0524751249 -0.5548999143 0.053038759 -0.5551054728 -0.0243058289 0.1896021485
700295800.0 0.0194948776 0.1797202127 0.0469941548 -0.5554574578 0.047232147 -0.5556602658 -0.0224301381 0.1895356904
705295770.0 0.0217703649 0.1798570778 0.0413079502 -0.5556402365 0.041527228 -0.5556331875 -0.0206775274 0.1904044264
710295740.0 0.0234758968 0.1799470475 0.0352405037 -0.5557605054 0.0354234497 -0.556455805 -0.0193556165 0.1909098077
715295710.0 0.0254334063 0.1796798949 0.028825972 -0.5563830537 0.0294509639 -0.5564594955 -0.0168223271 0.1907210212
720295680.0 0.0273889098 0.1793474329 0.0232413642 -0.556794466 0.0235041416 -0.5573230426 -0.0148939197 0.1913963068
725295650.0 0.0295709285 0.1793243237 0.0168773685 -0.5571938822 0.01750111 -0.5570496822 -0.0133063632 0.1917302967
730295620.0 0.0313255615 0.1791507369 0.0112227438 -0.5570250245 0.0113502952 -0.5574378966 -0.0112805349 0.1913006486
735295590.0 0.0337187472 0.1789475981 0.0055824655 -0.5573446545 0.0058274347 -0.5572313879 -0.0096221867 0.1921148862
740295560.0 0.035318827 0.1788837077 -0.0006967007 -0.557008865 -0.0006854179 -0.55710307 -0.0076379583 0.1921358449
745295530.0 0.0374054676 0.1782742238 -0.0066898568 -0.5568439986 -0.0062834488 -0.5575125374 -0.0060553996 0.1928227134
750295500.0 0.0395136134 0.1781659761 -0.0126493854 -0.5566021591 -0.0126818142 -0.5569966864 -0.0038903177 0.1923817609
755295470.0 0.0419824741 0.1780863801 -0.0186198426 -0.5566104355 -0.0182824586 -0.5571026175 -0.0023887279 0.1929523607
760295440.0 0.0434685498 0.1778701016 -0.0247941202 -0.5564556241 -0.0248374486 -0.5569090818 -0.0007969771 0.1929774954
765295410.0 0.045207268 0.1770418228 -0.0298908032 -0.5556796263 -0.0304180149 -0.5566163649 0.0019178728 0.1935791901
770295380.0 0.0475569575 0.1770798988 -0.0367488413 -0.5553608156 -0.0364751067 -0.5560484716 0.0035982145 0.1933055997
775295350.0 0.0494793293 0.1767684105 -0.042506527 -0.5552229761 -0.0423503883 -0.5553773325 0.0052098002 0.1930537463
780295320.0 0.0516649133 0.1760340138 -0.048457773 -0.5548483727 -0.048218223 -0.5550202794 0.0070821154 0.1937571129
785295290.0 0.0533929566 0.1758716627 -0.0545625366 -0.5535002397 -0.0543765718 -0.5544845849 0.0087452939 0.1940120983
790295260.0 0.0554444261 0.1755655083 -0.060300016 -0.5538280084 -0.0603687364 -0.5536321325 0.011270474 0.1936558482
795295230.0 0.0572716203 0.1752357197 -0.0656606931 -0.5527045488 -0.0661791121 -0.5531915935 0.012707876 0.1942835761
800295200.0 0.0594771421 0.1746061413 -0.0727454449 -0.552164278 -0.0726016675 -0.5526727002 0.0148606015 0.1940066213
805295170.0 0.0609753931 0.1740637394 -0.0779750204 -0.5507311278 -0.0779783419 -0.5510961618 0.0161492506 0.1936224472
810295140.0 0.0632700084 0.1734921506 -0.0836895995 -0.5502868867 -0.0838404715 -0.5509773959 0.0182366423 0.1941205907
815295110.0 0.0652588144 0.1730173842 -0.090216005 -0.5494658181 -0.0903266671 -0.549393377 0.0202038069 0.1937424786
820295080.0 0.0671032775 0.1721739048 -0.0958287764 -0.5478931003 -0.0959452289 -0.5484277168 0.0217529436 0.1938317925
825295050.0 0.069435695 0.1718559819 -0.1013503333 -0.5471897124 -0.1018448326 -0.5474810589 0.023797203 0.194131273
830295020.0 0.0710449788 0.1712881296 -0.1076430317 -0.5459502204 -0.1077168884 -0.5460363537 0.0253154262 0.1936317295
