!Created with skrf (http://scikit-rf.org).
# Hz S RI R 50.0 
!freq ReS11 ImS11 ReS21 ImS21 ReS12 ImS12 ReS22 ImS22
300000.0 -0.0458540458 -0.0702836204 -0.0001048012 -0.0005788588 -0.0005065526 -0.0001067583 -0.7675649044 -0.1911518024
5299970.0 -0.0503236786 0.0141161648 -0.0001810937 -0.0001614079 0.0001143437 -0.0001910704 -0.7848619648 -0.0092688185
10299940.0 -0.04455563 0.0327835032 0.0001027055 -7.80045e-05 3.24929e-05 3.8584e-05 -0.7879816008 -0.0054318149
15299910.0 -0.0360789203 0.0473010495 0.000147455 8.07567e-05 0.0001147292 -6.1704e-06 -0.7930017312 -0.0028361517
20299880.0 -0.025771568 0.059128704 6.06856e-05 -2.33296e-05 3.91486e-05 2.77723e-05 -0.7999111634 0.0013144351
25299850.0 -0.0144129461 0.0684098799 -0.0001610025 -0.0002962624 -0.0001003032 -5.514e-06 -0.8062264634 0.0079724945
30299820.0 -0.0028225913 0.075519094 -0.0001855677 -4.40581e-05 2.73836e-05 0.000142883 -0.8123235847 0.0157763119
35299790.0 0.0089285105 0.079629302 -1.97758e-05 -4.36946e-05 -8.52765e-05 -0.0001262889 -0.8171685866 0.024641887
40299760.0 0.0206715239 0.0825014591 0.0001639733 2.4971e-05 -9.69461e-05 -0.0001401627 -0.8214343044 0.0340912758
45299730.0 0.0312658167 0.0835101828 0.000149659 -2.51914e-05 -0.0001323513 0.0001687401 -0.8244679292 0.0438805228
50299700.0 0.0414530989 0.0835176281 -0.0001663391 -1.90975e-05 -2.65763e-05 0.0001327397 -0.8266753218 0.0539786579
55299670.0 0.0511425778 0.0827967959 0.000101783 1.64625e-05 0.000331014 -0.000197961 -0.8289382705 0.0636664889
60299640.0 0.0596280658 0.0805891976 -5.5381e-06 -0.0001210194 -3.27791e-05 9.98378e-05 -0.830010798 0.0743973618
65299610.0 0.0677947631 0.078253614 1.75701e-05 -5.2087e-06 0.0001264257 -0.0001015078 -0.8307081512 0.0840917464
70299580.0 0.0744028 0.0749285277 -0.0001457666 4.14177e-05 0.0001280258 -3.6488e-06 -0.8316026825 0.0933427998
75299550.0 0.0807998067 0.071681354 -3.91077e-05 -6.3586e-06 5.11163e-05 8.40725e-05 -0.8310266365 0.104012086
80299520.0 0.0866788021 0.0678219984 -1.2281e-06 1.02321e-05 0.0001563292 -3.43251e-05 -0.8311791497 0.1138574917
85299490.0 0.0919444029 0.0637911168 0.000171303 0.0001214537 -0.0001967571 -9.2927e-05 -0.8303513353 0.1232046753
90299460.0 0.0968632295 0.0600962452 7.97335e-05 -7.61968e-05 -0.0002638337 6.53394e-05 -0.8293604726 0.1328125977
95299430.0 0.1009356503 0.0562436056 6.9598e-06 1.90483e-05 5.45821e-05 -0.0001017262 -0.8284985422 0.1424838013
100299400.0 0.1046707529 0.0519690793 9.93619e-05 -9.28925e-05 -1.09521e-05 -0.0001527148 -0.8275390962 0.1518953372
105299370.0 0.1078839407 0.0479182325 5.45918e-05 1.28699e-05 -1.76852e-05 -4.80293e-05 -0.8263419538 0.1608673644
110299340.0 0.1110456583 0.0437601254 0.0001767666 7.70977e-05 6.90392e-05 7.27387e-05 -0.8245769268 0.1699933157
115299310.0 0.113289865 0.0399682551 -0.0002380059 4.39567e-05 5.07685e-05 5.36337e-05 -0.8230898734 0.1791877634
120299280.0 0.1157255976 0.0360704065 0.0002147763 0.0002059936 -5.48089e-05 2.21877e-05 -0.820966372 0.1881781072
125299250.0 0.1174502354 0.0317593442 0.0001686272 0.0001783122 -2.22425e-05 -0.0001621719 -0.8197051452 0.1973039662
130299220.0 0.1191754194 0.0280602593 -0.000120502 -6.5164e-05 6.6243e-05 -0.0001113991 -0.8176767375 0.2058887635
135299190.0 0.1210668419 0.0246145108 0.0002670576 3.62442e-05 0.000117993 0.0001312012 -0.816194104 0.2152139642
140299160.0 0.1219816681 0.0206635263 -8.30372e-05 0.0002548615 8.07952e-05 -2.32899e-05 -0.8141928153 0.2235417102
145299130.0 0.1233722509 0.0172266085 0.0002682722 -0.0002229705 -0.0001147152 -0.0001934399 -0.811802129 0.2324715904
150299100.0 0.1242320323 0.0136831737 0.0001149642 0.0001166087 1.8993e-06 9.19717e-05 -0.8099220442 0.2412573901
155299070.0 0.1250027089 0.0105822833 0.0001066661 0.0001175453 0.0001759031 -5.49599e-05 -0.8069791588 0.2502792616
160299040.0 0.1257026406 0.0073995084 2.11575e-05 4.2758e-05 4.4193e-05 9.5825e-05 -0.804616278 0.2590170304
165299010.0 0.126188309 0.0042748049 1.26084e-05 0.0003048791 0.0001757478 5.27451e-05 -0.8020649823 0.267447306
170298980.0 0.1264758966 0.0007525627 -9.58196e-05 0.0001492339 -0.0001006211 -0.0001030022 -0.800037846 0.2754741948
175298950.0 0.1268185684 -0.0022498196 1.2006e-05 0.0001433415 -0.0001367142 -2.32345e-05 -0.796342063 0.2846542771
180298920.0 0.1269013612 -0.0053059745 7.491e-07 -7.72676e-05 0.0002198106 -3.75379e-05 -0.7930622249 0.2928590017
185298890.0 0.1270621884 -0.0082705619 0.000149073 0.0001501337 -1.42569e-05 -5.24436e-05 -0.7904799703 0.3016754705
190298860.0 0.1271181069 -0.0110755402 -6.28446e-05 2.9775e-05 -2.38151e-05 -4.18524e-05 -0.7869473427 0.3096559896
195298830.0 0.1270263935 -0.0135389636 -9.08357e-05 0.0001005589 0.0001413227 0.000227878 -0.7841226496 0.3179185325
200298800.0 0.1269551802 -0.016421757 0.0001331786 0.0002070243 5.0899e-06 2.37801e-05 -0.7808614405 0.3267138157
205298770.0 0.1262570124 -0.0191989039 -0.0001297114 0.0001967435 0.0001162335 -6.34451e-05 -0.7777726648 0.3349960448
210298740.0 0.1264511179 -0.0217283779 0.0001443225 0.0001260285 -2.43902e-05 0.0002651542 -0.7742925903 0.3437337488
215298710.0 0.1255080536 -0.0244133362 0.0003172423 4.35429e-05 0.0001046939 0.0001736539 -0.7707614312 0.3515959957
220298680.0 0.1253534548 -0.0269091536 -9.69287e-05 -8.78136e-05 4.6711e-05 6.10942e-05 -0.7670910965 0.3596330666
225298650.0 0.124926906 -0.029296565 0.0002050749 -5.02524e-05 0.0001444813 6.71275e-05 -0.7630846258 0.3679083329
230298620.0 0.124066357 -0.0314489275 -2.59042e-05 0.0001143436 5.1558e-06 3.81619e-05 -0.7592662299 0.3752850446
235298590.0 0.1234828014 -0.0338732945 4.90428e-05 0.0001611284 0.0001390438 0.0001416826 -0.7547954799 0.3834277768
240298560.0 0.1228822537 -0.0361680761 0.0001363163 0.0001246801 0.0002374048 -0.0001181696 -0.7513285171 0.3909071034
245298530.0 0.1218012535 -0.038421647 0.0001260144 1.48942e-05 -0.000174215 1.89444e-05 -0.7475540459 0.3990922508
250298500.0 0.1215126204 -0.0405801652 0.0002283715 0.0001281522 2.41417e-05 5.91634e-05 -0.7430803618 0.4073762387
255298470.0 0.1206063529 -0.0425937412 0.0001425014 -4.72313e-05 7.51556e-05 6.69366e-05 -0.7387769304 0.4152698351
260298440.0 0.1197697863 -0.0449982992 2.24216e-05 -2.20562e-05 0.0002607369 0.0001161183 -0.7344393269 0.4217522148
265298410.0 0.1187655303 -0.0467285854 -9.82533e-05 5.36239e-05 -3.56045e-05 9.59715e-05 -0.730359676 0.430299993
270298380.0 0.1179115531 -0.0492212327 2.64818e-05 0.0001640151 4.8805e-06 -2.90682e-05 -0.7253184467 0.4384196778
275298350.0 0.1169771809 -0.0505224742 9.5812e-05 5.12024e-05 5.41463e-05 -7.1077e-06 -0.7205596728 0.4455574822
280298320.0 0.1159696454 -0.0525624322 2.8181e-06 0.00019112 9.12604e-05 0.0001703613 -0.7163401001 0.4530237828
285298290.0 0.1148890185 -0.0547342731 3.22915e-05 -7.34185e-05 3.05359e-05 3.59665e-05 -0.7117750705 0.460753947
290298260.0 0.1138842181 -0.0564701382 7.69629e-05 9.77142e-05 -5.69345e-05 3.4697e-06 -0.7067454901 0.4674929676
295298230.0 0.1128847234 -0.0586409694 -0.0001738508 0.0001899458 -6.0987e-06 0.0001177649 -0.701447477 0.4747702704
300298200.0 0.1119932057 -0.0602417338 -8.8626e-06 -1.66765e-05 8.90226e-05 4.591e-06 -0.6968310912 0.4824862935
305298170.0 0.1108247968 -0.0623799136 0.0001395614 6.54293e-05 7.57242e-05 4.812e-07 -0.6918726175 0.4894376888
310298140.0 0.1098210405 -0.0644812478 -1.3053e-05 4.2452e-06 8.58583e-05 -5.43303e-05 -0.6869479817 0.4968349382
315298110.0 0.1083506969 -0.0662692159 -0.0001086132 -1.90052e-05 -0.0002271245 0.0001277097 -0.6813877916 0.5039790274
320298080.0 0.1068861456 -0.0681322094 -7.18779e-05 0.0002207644 5.60464e-05 0.0003385799 -0.6762893512 0.5102297019
325298050.0 0.1052195371 -0.0702136693 -0.0001707172 -3.17405e-05 7.97113e-05 -1.4382e-06 -0.6702155123 0.5179174296
330298020.0 0.1038674945 -0.0715009626 -9.44179e-05 0.0001265212 6.17359e-05 0.0001397488 -0.665110777 0.5245762933
335297990.0 0.1022982832 -0.0729576165 8.52295e-05 0.0003728004 0.0001514496 0.0001320217 -0.6598625692 0.5317018768
340297960.0 0.1009185234 -0.0742858483 1.20629e-05 0.000145914 -7.651e-07 -1.72881e-05 -0.6541296039 0.5385504927
345297930.0 0.0995122775 -0.0760710498 0.0001571809 -1.89985e-05 -0.000112301 8.01599e-05 -0.6483306701 0.5449423893
350297900.0 0.0982090586 -0.077525944 0.0002052711 0.0001794635 -5.85312e-05 -3.52936e-05 -0.6433190499 0.5513922614
355297870.0 0.0967924586 -0.0788505029 8.38961e-05 5.00638e-05 0.0001064071 -0.0001111569 -0.637457983 0.5584779093
360297840.0 0.0953288886 -0.0799480204 0.0002105065 -2.072e-06 -0.0001060953 -3.856e-07 -0.6303601325 0.5648372821
365297810.0 0.0941062745 -0.0816975629 0.0002812436 5.88188e-05 -0.0001506336 1.5595e-05 -0.6265461559 0.5706310986
370297780.0 0.0924555496 -0.0830686168 -0.0001757825 -2.31056e-05 7.53965e-05 0.0001273681 -0.6197439653 0.5773989824
375297750.0 0.0912921831 -0.0842602199 7.78377e-05 7.2056e-05 5.97897e-05 7.20037e-05 -0.6130655732 0.5840659897
380297720.0 0.0896315033 -0.0850872818 8.49595e-05 -3.819e-06 6.70528e-05 8.37689e-05 -0.606775499 0.5904290172
385297690.0 0.0881582694 -0.0866409292 -0.0001172712 -9.3804e-06 -0.0001326491 -0.0001786404 -0.6011470344 0.596707266
390297660.0 0.0867379051 -0.0883945692 0.0001725191 0.000194986 9.02378e-05 3.06367e-05 -0.5941494103 0.6020156066
395297630.0 0.0853378463 -0.0892497368 0.0001400976 0.0001233775 0.0002546584 5.6601e-06 -0.5885285077 0.6079147218
400297600.0 0.0835610566 -0.090577514 5.99016e-05 2.7256e-06 0.0003242379 7.64674e-05 -0.5828909614 0.6141023248
405297570.0 0.0822573555 -0.0919425475 0.0001221792 8.41315e-05 0.0002087055 -9.4341e-05 -0.5759448492 0.6197817045
410297540.0 0.0810670662 -0.0928521019 -0.0001642372 -0.0001192839 0.000119561 8.15846e-05 -0.5690876137 0.626070279
415297510.0 0.0792643935 -0.0939857812 8.47365e-05 0.0001770062 0.0001612103 5.72353e-05 -0.5628882771 0.6319398975
420297480.0 0.0779133889 -0.0954192075 0.0001140927 -4.64934e-05 5.84788e-05 3.66595e-05 -0.556472727 0.6378377249
425297450.0 0.0768170454 -0.0963480473 -0.0001218617 -8.14021e-05 5.97615e-05 8.75054e-05 -0.5497508985 0.6424089657
430297420.0 0.0746635438 -0.097702021 -6.45841e-05 -1.20175e-05 3.90628e-05 -2.07987e-05 -0.5433897515 0.6486985581
435297390.0 0.0734020724 -0.09867618 0.0001501533 9.7869e-06 -7.0883e-06 0.0001204988 -0.5370426454 0.654203754
440297360.0 0.0718793085 -0.099508726 9.87484e-05 -2.71953e-05 5.1306e-05 -6.20883e-05 -0.53009481 0.6596674153
445297330.0 0.0702787095 -0.1006661947 1.20133e-05 0.0001075505 0.0002979578 2.72951e-05 -0.5227190752 0.6649708562
450297300.0 0.0687837408 -0.1018257616 -9.33646e-05 4.54963e-05 4.16441e-05 -6.82298e-05 -0.5156676554 0.6699785826
455297270.0 0.0671746084 -0.1028585683 0.0001327053 0.000100397 -0.0001490657 1.48743e-05 -0.5088512143 0.6749276788
460297240.0 0.0660046544 -0.1035656742 -1.95859e-05 -3.85416e-05 -6.07736e-05 6.52319e-05 -0.5021660409 0.6800648469
465297210.0 0.0644472109 -0.1043418594 0.0001705685 -2.64328e-05 0.0001192002 6.948e-07 -0.4951254436 0.6857493875
470297180.0 0.0627257643 -0.1050601485 -7.9505e-06 0.0001712912 9.52684e-05 0.0001006379 -0.4879873182 0.6904078153
475297150.0 0.0609471194 -0.1060220237 2.968e-05 -1.1543e-05 -0.0001075467 9.48277e-05 -0.4809378869 0.6951060455
480297120.0 0.059672928 -0.1069508529 -4.50609e-05 0.0001516526 2.64619e-05 0.0002068169 -0.474623012 0.6999897536
485297090.0 0.0576408841 -0.1076727791 0.0001055653 0.0001061756 0.0001301996 0.000266282 -0.467492258 0.7049141394
490297060.0 0.0568929806 -0.1084379428 0.0001085612 2.11381e-05 0.0004221426 -3.39697e-05 -0.4595944446 0.708964377
495297030.0 0.0550985225 -0.1093768279 0.0001692446 0.0001845226 0.0001647135 -2.80972e-05 -0.4528095117 0.713758226
500297000.0 0.0534661923 -0.1098760963 0.0001821517 3.43285e-05 5.70558e-05 -8.95456e-05 -0.4447737327 0.7183866065
505296970.0 0.0520065248 -0.1108750665 6.2491e-05 1.93671e-05 2.45288e-05 3.68343e-05 -0.4375422825 0.7226755898
510296940.0 0.05051096 -0.1114527349 3.24682e-05 9.94228e-05 -4.5183e-06 3.72855e-05 -0.4298666852 0.7272833664
515296910.0 0.0487435535 -0.1117411231 5.59801e-05 0.0001630847 0.0002401538 -0.0002207785 -0.4233031588 0.73132328
520296880.0 0.0472777628 -0.1124836764 1.11423e-05 -2.474e-07 3.55247e-05 5.8672e-06 -0.4155225913 0.7362894594
525296850.0 0.0458196826 -0.1134737475 0.0002072702 4.535e-07 0.0002019242 0.0001076526 -0.4083685368 0.7394739161
530296820.0 0.0438482395 -0.1133423914 2.39041e-05 5.89637e-05 2.56176e-05 -1.01352e-05 -0.40052462 0.7437243179
535296790.0 0.0427717011 -0.1141452184 0.0001374065 3.6078e-05 0.0003175873 -5.83547e-05 -0.3930840203 0.7481377251
540296760.0 0.0411011431 -0.1144977641 0.0001308333 2.10484e-05 6.10623e-05 5.29575e-05 -0.3853676198 0.7513856898
545296730.0 0.0392096645 -0.1145224335 1.2611e-05 0.0001781568 0.0002945647 0.0001022169 -0.3779245632 0.7558461183
550296700.0 0.0381069131 -0.1151592829 0.0001167834 0.0001535156 9.99158e-05 -0.0001042937 -0.3697490857 0.7592120085
555296670.0 0.0362735212 -0.115527464 -2.26667e-05 0.0001010723 9.57542e-05 0.000103485 -0.3628378984 0.7621138021
560296640.0 0.0348948376 -0.1159677915 0.0002346283 0.0002202936 0.0001924648 3.95138e-05 -0.3545675148 0.7664374675
565296610.0 0.0329183658 -0.1165618655 6.65551e-05 -0.0001226841 6.31811e-05 -2.04281e-05 -0.3464666105 0.7698890178
570296580.0 0.0314474608 -0.1163378788 8.19508e-05 0.0001372452 0.0001297934 -1.9706e-05 -0.3391660012 0.7730751301
575296550.0 0.0297630577 -0.1169102132 0.0001181075 -4.55032e-05 0.0001683776 -0.0003372354 -0.3310574903 0.776149077
580296520.0 0.0284087471 -0.1169815954 0.000150907 0.0001754267 0.0002055934 5.37185e-05 -0.3232384332 0.7794834294
585296490.0 0.0267984913 -0.1170268077 0.0001079845 -6.46772e-05 5.42014e-05 9.88549e-05 -0.3160610549 0.7835839689
590296460.0 0.0254357454 -0.1172391384 0.0001795668 0.0002495861 0.0001840514 -0.0001092866 -0.307283503 0.7858380513
595296430.0 0.0234967748 -0.1174831053 5.67837e-05 -3.81252e-05 0.0001007042 6.64628e-05 -0.300380448 0.7896307155
600296400.0 0.0220345562 -0.1175984377 0.0001482547 0.0002314781 0.0002750637 3.54036e-05 -0.2922552939 0.7918357074
605296370.0 0.0201436311 -0.11748829 0.0002332423 -4.41333e-05 0.0001636505 0.0001218175 -0.283944932 0.7955445487
610296340.0 0.0186178455 -0.1176959086 0.0002443803 0.0001562659 -2.7312e-05 9.06311e-05 -0.276387229 0.7976181687
615296310.0 0.0171250838 -0.1177731164 0.0001407359 -4.6148e-05 0.0002583757 -0.0002779964 -0.2677016859 0.8004964198
620296280.0 0.0154957075 -0.1173173881 0.0002024517 0.0001037855 0.0001171679 -5.46389e-05 -0.2601486981 0.8029448857
625296250.0 0.0134695975 -0.1177093902 9.3878e-06 8.54825e-05 4.46639e-05 2.87812e-05 -0.2519671452 0.8051274421
630296220.0 0.0120045068 -0.1174188571 0.0001704136 -0.0002008166 2.94773e-05 1.25796e-05 -0.2435912143 0.8084138623
635296190.0 0.0103227368 -0.1173373149 4.83712e-05 0.0002268057 -0.0001031706 3.91731e-05 -0.2350747561 0.8098892104
640296160.0 0.0087712991 -0.1173271567 -3.10146e-05 0.000278514 0.000108181 2.64731e-05 -0.227663682 0.812533372
645296130.0 0.0074554676 -0.1170394607 0.0001790512 2.68964e-05 3.09483e-05 -0.0002049213 -0.2193323942 0.8144432487
650296100.0 0.0053509284 -0.1168530904 0.0003241502 0.0001295462 0.0002263243 -0.0002261356 -0.2104181863 0.8168943324
655296070.0 0.0039190414 -0.1167043661 -7.37573e-05 4.93491e-05 0.0002111967 1.91849e-05 -0.2029619052 0.8192032971
660296040.0 0.0020913071 -0.1166071172 4.23938e-05 -1.01584e-05 -6.34812e-05 -5.66534e-05 -0.1946416267 0.8207072418
665296010.0 0.0005045698 -0.1158045446 2.01745e-05 -7.10364e-05 2.1762e-06 -1.96407e-05 -0.1860483581 0.8226429474
670295980.0 -0.001296213 -0.1158102467 0.0002648516 -6.91478e-05 5.02582e-05 3.44435e-05 -0.1784013996 0.824377108
675295950.0 -0.0032126692 -0.1158151901 0.0001379732 -9.16611e-05 0.0001870529 2.10944e-05 -0.16974704 0.8266529636
680295920.0 -0.0049429282 -0.115440078 0.0001763879 -3.39992e-05 0.000104621 -6.28993e-05 -0.1611621636 0.8278049191
685295890.0 -0.0060819791 -0.1149026319 0.0003098411 -5.53504e-05 0.000299116 9.9777e-06 -0.1533541158 0.8297402667
690295860.0 -0.0079693308 -0.1144551923 0.0001591053 4.6247e-06 0.0002624076 -5.0561e-06 -0.14518791 0.8308688789
695295830.0 -0.0097177714 -0.1143486212 0.0001723712 -9.35574e-05 2.21703e-05 -7.79284e-05 -0.1366739066 0.832973428
700295800.0 -0.0115385718 -0.1139934162 0.0002965257 -7.01953e-05 0.0001268626 -0.000101508 -0.1283650218 0.8337025763
705295770.0 -0.0129456348 -0.1134646227 0.0003780066 -0.0001147086 0.0002313509 -9.56122e-05 -0.1202257069 0.8354573171
710295740.0 -0.014643576 -0.1129184387 -6.40711e-05 -6.53357e-05 0.0002001913 0.0002968234 -0.1118124041 0.8365577221
715295710.0 -0.0163914776 -0.1124098259 8.35747e-05 -7.13869e-05 0.0003132639 1.2787e-06 -0.1031120822 0.8368270719
720295680.0 -0.0181003623 -0.112157021 0.0001461722 6.03462e-05 -7.57784e-05 -9.45034e-05 -0.0947338418 0.8380305922
725295650.0 -0.0198569011 -0.1116038431 -4.87265e-05 -0.0001442584 0.0001723016 -5.47427e-05 -0.087581446 0.8394049963
730295620.0 -0.0216238429 -0.1110739922 0.0002397287 -0.0003031488 -6.362e-07 -3.01363e-05 -0.07878114 0.840197067
735295590.0 -0.0231017128 -0.1102941457 6.97269e-05 4.82891e-05 0.0002403007 4.59857e-05 -0.0698913968 0.8407707089
740295560.0 -0.0250389192 -0.1098440203 0.0001034451 -8.31663e-05 0.0003300715 -6.86616e-05 -0.0617346039 0.8416565981
745295530.0 -0.0264948482 -0.1090000175 0.0002120182 5.29617e-05 0.0001632954 4.60371e-05 -0.0537908845 0.8419197897
750295500.0 -0.0284176777 -0.108649699 0.0004051558 -8.4337e-06 0.0001914034 -4.38588e-05 -0.0446639017 0.8426100709
755295470.0 -0.0300779126 -0.1080199086 0.0001431291 -2.7499e-06 0.0001295209 -0.0001695884 -0.0367846621 0.8429633318
760295440.0 -0.0314999702 -0.1073162427 0.0001973731 -6.23656e-05 0.0002667247 5.18194e-05 -0.0278961867 0.8430773318
765295410.0 -0.033006071 -0.1070538752 0.0001535788 6.1365e-06 0.0001430814 -0.0001218118 -0.0194806283 0.8434949818
770295380.0 -0.0346012383 -0.1061818436 0.0002051471 5.46254e-05 0.0001610833 -6.37531e-05 -0.0114098087 0.8434142644
775295350.0 -0.0364593631 -0.1054112564 0.0003749865 -0.0001095019 0.0002873 -3.97863e-05 -0.0035356629 0.8429973658
780295320.0 -0.0381879113 -0.1048810542 0.0002511545 -0.0001350948 0.0002006433 -5.11937e-05 0.005163802 0.8436382815
785295290.0 -0.039736851 -0.1042670874 0.0001541445 2.81598e-05 0.0001438994 -4.4324e-05 0.0135117879 0.8438403613
790295260.0 -0.0414459065 -0.10358242 0.0001014161 3.59218e-05 0.000259014 3.80826e-05 0.0221567744 0.8434108764
795295230.0 -0.0429384236 -0.102811426 0.0001667502 -2.71607e-05 0.0002266864 -2.51254e-05 0.0298366974 0.8427860682
800295200.0 -0.044733858 -0.1020900028 0.0002948964 -7.97708e-05 -3.2011e-06 -3.13323e-05 0.0381140863 0.8421509031
805295170.0 -0.0461993639 -0.101258785 0.0001530315 0.0001415454 0.00010008 0.0001513418 0.0470993084 0.8421750728
810295140.0 -0.0475580897 -0.1002371212 0.0002467293 9.07092e-05 0.0001637007 -1.38634e-05 0.0555081697 0.8417205797
815295110.0 -0.0494481766 -0.0996155024 -7.19836e-05 4.0872e-06 2.45771e-05 -5.36496e-05 0.063250271 0.8411556231
820295080.0 -0.0508054251 -0.0986129345 0.0001548896 9.56925e-05 0.0001269322 -7.27912e-05 0.071336618 0.8404283217
825295050.0 -0.0526470638 -0.0981907776 9.12964e-05 5.36629e-05 0.0001961556 -0.0001110698 0.079880978 0.8396000217
830295020.0 -0.0539547737 -0.0971079566 0.0004545623 5.99384e-05 5.11562e-05 6.73166e-05 0.0882395981 0.8383749437
835294990.0 -0.0556707945 -0.0965620959 6.91699e-05 -1.55183e-05 0.0001453659 -0.0001839435 0.0967934181 0.8379460138
840294960.0 -0.0570037873 -0.0957622388 8.15334e-05 1.29047e-05 0.00017208 4.52748e-05 0.1055278518 0.8371759694
845294930.0 -0.0585325472 -0.0944007669 0.0004026509 -0.0001128751 0.000245184 7.42577e-05 0.1135617088 0.8356870767
850294900.0 -0.0597944484 -0.0940204805 8.83641e-05 -7.18139e-05 0.0001110101 -3.15596e-05 0.1213258648 0.8351717053
