!Created with skrf (http://scikit-rf.org).
# Hz S RI R 50.0 
!freq ReS11 ImS11 ReS21 ImS21 ReS12 ImS12 ReS22 ImS22
300000.0 -0.2306565363 -0.127577737 0.464646685 0.0853604752 0.4675692951 0.0839004674 -0.2352825105 -0.1297040995
5299970.0 -0.241920213 0.0053154645 0.4750270354 0.0060163679 0.4756685784 0.005772799 -0.2442659027 0.0048071587
10299940.0 -0.2386700495 0.0188900748 0.4775250302 0.0068679054 0.4771121954 0.0070609591 -0.2411086692 0.0171472743
15299910.0 -0.2337433233 0.0286687712 0.4806951011 0.0082891076 0.4807239297 0.0080927946 -0.2368948596 0.0263039676
20299880.0 -0.2284060314 0.0370648987 0.4852862629 0.0079307331 0.4853452092 0.0083182189 -0.232087737 0.0339402797
25299850.0 -0.2225365106 0.0437048618 0.490564456 0.0073182597 0.4907809862 0.0072936167 -0.2270383425 0.0401007293
30299820.0 -0.21708732 0.0487183847 0.4963200195 0.0050917913 0.4960900399 0.0050289175 -0.2216156587 0.0448675787
35299790.0 -0.2111943966 0.053006575 0.5008320131 0.0019634098 0.5016339245 0.001724613 -0.2168197439 0.0492906988
40299760.0 -0.2061235325 0.0563319489 0.5066564218 -0.0022249219 0.5065320714 -0.0022046845 -0.2116687536 0.0520592248
45299730.0 -0.2012051932 0.0587842782 0.5112197312 -0.0065562931 0.5113939862 -0.0071002124 -0.2069010805 0.0549191238
50299700.0 -0.1961071094 0.0609365459 0.5152865366 -0.0125548281 0.5156313305 -0.0124148223 -0.2028367173 0.0571826206
55299670.0 -0.1917963629 0.0627019606 0.5190949734 -0.018162006 0.5188628369 -0.0184412086 -0.1991965783 0.0585478439
60299640.0 -0.1876917247 0.0640135732 0.5223269626 -0.0248478749 0.5226434207 -0.0247787935 -0.1953364528 0.059789017
65299610.0 -0.1840196037 0.0651630853 0.5256620014 -0.030591152 0.5255316867 -0.0309492644 -0.191899902 0.0608904683
70299580.0 -0.1806938402 0.0658505277 0.5273823688 -0.0371071105 0.5279959066 -0.0376637396 -0.1893674975 0.0618246468
75299550.0 -0.1779734735 0.0667721187 0.5292635415 -0.0447840834 0.5298189731 -0.0446688437 -0.1862122904 0.0629435463
80299520.0 -0.1752582163 0.0677947816 0.5313271347 -0.0514604052 0.531525504 -0.051415625 -0.1836307566 0.0638355498
85299490.0 -0.1726193675 0.0682500915 0.5326445645 -0.0584767027 0.5328877357 -0.0580695978 -0.181522972 0.0640139325
90299460.0 -0.1701116689 0.0691470561 0.5335380383 -0.0657009704 0.5337002856 -0.064930979 -0.1792723349 0.0650155912
95299430.0 -0.1680982464 0.0698102627 0.5347663057 -0.072357112 0.5348746833 -0.0722205578 -0.1774937224 0.0657400003
100299400.0 -0.1657956953 0.0702694463 0.5349030686 -0.0787182445 0.535031123 -0.0791899716 -0.1757840508 0.0664117426
105299370.0 -0.1639790595 0.0710525082 0.5352193846 -0.0857142725 0.5355875275 -0.0857150657 -0.1738248485 0.0667139056
110299340.0 -0.1621806791 0.0716211887 0.5350909553 -0.0920461495 0.5358209292 -0.092380921 -0.1726195779 0.0670896006
115299310.0 -0.1609258671 0.0723545263 0.5354915562 -0.0989096391 0.5356885241 -0.0992914063 -0.1715117923 0.0682239848
120299280.0 -0.1592363102 0.0733666069 0.5352614998 -0.106411925 0.535138606 -0.1063127159 -0.1699883439 0.068731452
125299250.0 -0.1580422878 0.0736908286 0.5346744206 -0.1130475057 0.53481859 -0.1124491134 -0.1687454805 0.0694580235
130299220.0 -0.1564855305 0.0747599163 0.5344426987 -0.1197976392 0.5342573442 -0.12021665 -0.1676966705 0.070567678
135299190.0 -0.1555610017 0.0760266526 0.5340643231 -0.1258888973 0.5336161382 -0.1268954441 -0.1668192188 0.0710064539
140299160.0 -0.1543544577 0.0769868961 0.5328490473 -0.1331449138 0.5327330966 -0.1328094874 -0.1660640004 0.0717340398
145299130.0 -0.153393511 0.0780190464 0.5316203349 -0.1395042423 0.5313901997 -0.1396098844 -0.164961943 0.0728018029
150299100.0 -0.1522800389 0.0787584408 0.5309524913 -0.1462012068 0.5306594552 -0.1461922098 -0.1643109536 0.0737957289
155299070.0 -0.1506077844 0.0801012986 0.5292193163 -0.1525695184 0.5294582214 -0.1526231037 -0.1632395496 0.074688886
160299040.0 -0.1501007632 0.0810893732 0.5283111174 -0.1588351323 0.527906653 -0.1591477024 -0.162753871 0.0758708804
165299010.0 -0.1489571508 0.0822223598 0.5273944943 -0.1652207807 0.5261708612 -0.1653820964 -0.1614001195 0.0765732669
170298980.0 -0.1480005049 0.0836973817 0.5249300113 -0.1718249453 0.5250853372 -0.1719272325 -0.1611499115 0.0776767578
175298950.0 -0.1468792904 0.0846152947 0.5237274791 -0.1778284721 0.5238985048 -0.1787108475 -0.1601681211 0.0789858324
180298920.0 -0.1461933016 0.086290764 0.5217634023 -0.1845300122 0.5219547339 -0.1844942373 -0.1594555574 0.0798923833
185298890.0 -0.1449862586 0.0872520724 0.5201217524 -0.1905602037 0.5198780437 -0.1909874816 -0.1584749547 0.0812167586
190298860.0 -0.1438246995 0.0889329181 0.5174523243 -0.1967584945 0.5179995495 -0.1968015497 -0.1577985729 0.0823192758
195298830.0 -0.1429595182 0.090042201 0.5161855245 -0.2025834592 0.5161343852 -0.2030028573 -0.1571402395 0.0835647099
200298800.0 -0.1420123731 0.0910769229 0.5140663023 -0.2091898755 0.5141714595 -0.2093362482 -0.156109397 0.0846053508
205298770.0 -0.1415414407 0.0925219547 0.5114892517 -0.2148987352 0.511850226 -0.2148510449 -0.1553981019 0.0859106182
210298740.0 -0.1403125319 0.094022479 0.5096349462 -0.2206662632 0.5090954936 -0.2209299475 -0.1550948253 0.0869476854
215298710.0 -0.1391849708 0.0955609509 0.5066236541 -0.2264746297 0.5072494327 -0.2268730027 -0.1541684429 0.0881941037
220298680.0 -0.1381363333 0.0968366805 0.5045846129 -0.2327107696 0.5044763313 -0.2329656523 -0.1529908888 0.0894352491
225298650.0 -0.1372239249 0.0981946223 0.5018698854 -0.238209119 0.502317351 -0.2379974632 -0.1528549462 0.0907656907
230298620.0 -0.1361579775 0.0999078252 0.4998757517 -0.2443927533 0.5000753363 -0.244713786 -0.1520128737 0.091769663
235298590.0 -0.1355008556 0.1012959129 0.4969813638 -0.2505610173 0.4974604199 -0.2502854467 -0.1511157515 0.0933128263
240298560.0 -0.1342099682 0.102915948 0.4945246035 -0.2558301434 0.4942618882 -0.2559191587 -0.1503756583 0.0942648063
245298530.0 -0.1335048346 0.1040851066 0.4916335175 -0.2617060933 0.4917892322 -0.2615506321 -0.1496695449 0.0958826003
250298500.0 -0.1324696189 0.1055258352 0.4891895613 -0.2671047606 0.4890879582 -0.2668710632 -0.148909134 0.0973511986
255298470.0 -0.131056416 0.1071619764 0.4863535801 -0.2725058548 0.4864324274 -0.2728713933 -0.1482074758 0.0986620877
260298440.0 -0.1300410596 0.1084678713 0.4829382242 -0.2780871686 0.4834187306 -0.278105097 -0.1474765799 0.1000035135
265298410.0 -0.1293013369 0.1100977058 0.4801301874 -0.2840433161 0.4800165626 -0.2839788834 -0.1460657403 0.1009335742
270298380.0 -0.1280198011 0.1113378982 0.4770287067 -0.2890869035 0.4768490649 -0.2891185149 -0.1452003384 0.1024961548
275298350.0 -0.1269226901 0.1132295311 0.4729649589 -0.2946189412 0.4736140888 -0.2944803227 -0.1443915587 0.1040989524
280298320.0 -0.1263884692 0.1142877459 0.4705588425 -0.299621837 0.470694472 -0.299684484 -0.1433308351 0.1052557499
285298290.0 -0.125027543 0.1158286132 0.4672841524 -0.3053505293 0.4675678525 -0.30497865 -0.1426182733 0.10687684
290298260.0 -0.1235176258 0.1172888839 0.4645779221 -0.3105699858 0.4643889052 -0.3105301419 -0.1417127008 0.1083156451
295298230.0 -0.1226793151 0.118358067 0.4607801661 -0.3159243869 0.4612508811 -0.3162626828 -0.1407369969 0.1093791786
300298200.0 -0.1214538636 0.1200423719 0.4578265505 -0.320810601 0.457202109 -0.3208385095 -0.1399246516 0.1105132364
305298170.0 -0.1201992569 0.1212726277 0.4541613205 -0.3266229096 0.454714566 -0.3265754215 -0.1388238886 0.1117055465
310298140.0 -0.1186872324 0.1225865323 0.4506789824 -0.3312416917 0.4506943505 -0.3309382301 -0.1370962304 0.1127424598
315298110.0 -0.117922897 0.1237711305 0.4473905467 -0.3368736992 0.4472484257 -0.3367563115 -0.1366279236 0.1142254657
320298080.0 -0.1163527482 0.1250476545 0.4428660028 -0.3418866124 0.4435730952 -0.3420774046 -0.1359373589 0.1153940845
325298050.0 -0.1155865163 0.1257963776 0.4389655339 -0.3464715799 0.4396460597 -0.3470032654 -0.1343929244 0.1165694418
330298020.0 -0.1146944197 0.127934341 0.4352923898 -0.3519298575 0.4359333739 -0.3518638617 -0.1343938114 0.1177759759
335297990.0 -0.1134865797 0.1290265292 0.4311816537 -0.3563184751 0.4313230769 -0.3568787984 -0.1330106872 0.1194122618
340297960.0 -0.1125769687 0.1302309224 0.426741014 -0.361383608 0.4269171899 -0.3615060685 -0.1318538945 0.1209305303
345297930.0 -0.1112399044 0.1314610329 0.4234014603 -0.3665178418 0.4230995916 -0.3662191979 -0.1309492327 0.1217606679
350297900.0 -0.1101445086 0.1329982946 0.4191773715 -0.3703585082 0.4194970884 -0.3707777656 -0.1301698894 0.1228652543
355297870.0 -0.1090618677 0.1339530955 0.4151893757 -0.3748930009 0.4153277269 -0.3749346233 -0.1285491438 0.1246965966
360297840.0 -0.1073812716 0.1358502783 0.4105794836 -0.3800959807 0.411196119 -0.380017906 -0.127912959 0.1263600379
365297810.0 -0.1060500004 0.1370604156 0.406338712 -0.3844496867 0.4069058096 -0.3844176234 -0.127109513 0.1272730066
370297780.0 -0.1046542959 0.1386643553 0.4021288601 -0.3888611477 0.4025081193 -0.3889136036 -0.1257136957 0.1286214217
375297750.0 -0.103085226 0.1398025542 0.3983450666 -0.393192654 0.3981791842 -0.3934047457 -0.1242423103 0.1299135532
380297720.0 -0.1022918249 0.141272628 0.3940663387 -0.3982376774 0.3939659136 -0.3975651219 -0.1234381597 0.131532743
385297690.0 -0.1009419738 0.1421929501 0.3896416122 -0.4014250201 0.3896273862 -0.4025138243 -0.1219518154 0.1331007028
390297660.0 -0.0989743195 0.1433658074 0.3848312973 -0.4059459753 0.385185958 -0.405877172 -0.1204968185 0.1339422607
395297630.0 -0.0974707352 0.1446226147 0.380521355 -0.4098196244 0.3805254674 -0.4098783554 -0.1194647234 0.1349819866
400297600.0 -0.096358866 0.1458841413 0.3761005866 -0.4144430981 0.3764424657 -0.4147483414 -0.1179951945 0.1371156832
405297570.0 -0.0948367675 0.1467810933 0.3717819656 -0.4182845437 0.3717624043 -0.4182560071 -0.1167302218 0.1379351311
410297540.0 -0.0934803192 0.1480969834 0.3671493628 -0.4226814339 0.3671227216 -0.4224713597 -0.1156128852 0.1393792671
415297510.0 -0.0920177043 0.1491745743 0.3625515331 -0.4260813673 0.3626903712 -0.4268733361 -0.1140452519 0.1405849578
420297480.0 -0.0903453115 0.1502523771 0.3576922523 -0.4305472978 0.3577433525 -0.4307467967 -0.1124053576 0.1421886322
425297450.0 -0.0883256337 0.1510202069 0.3530721024 -0.4342733868 0.3527196713 -0.4343455669 -0.1112684788 0.1429257017
430297420.0 -0.086713886 0.1524536173 0.3484011119 -0.4383246058 0.3487077364 -0.4379309729 -0.1099766658 0.1444583119
435297390.0 -0.085183882 0.1533750248 0.3430270698 -0.4426689885 0.3437677462 -0.4421052075 -0.1090078303 0.1460087401
440297360.0 -0.0833910443 0.1542620453 0.3381386246 -0.4458405698 0.3382950194 -0.4459832688 -0.1074746831 0.1470352296
445297330.0 -0.0815078632 0.155075503 0.3334916733 -0.4490418054 0.333734167 -0.4497582795 -0.1057380833 0.1484014289
450297300.0 -0.0800395488 0.1564861003 0.3288802189 -0.4528509532 0.3288121174 -0.4528668155 -0.1042923901 0.1493934859
455297270.0 -0.0788156011 0.1571226245 0.3239145026 -0.4565997957 0.3238908276 -0.4568568703 -0.1027243764 0.1506117538
460297240.0 -0.0766089912 0.1582733304 0.3192967155 -0.4605673366 0.318629255 -0.4600659109 -0.1015055116 0.1514390551
465297210.0 -0.0749346181 0.1592843974 0.3135434585 -0.4634236389 0.3134731842 -0.4641320176 -0.0996548437 0.1533566042
470297180.0 -0.0731804699 0.1598695775 0.3086383853 -0.4668110862 0.3087122095 -0.467010366 -0.0983885853 0.1538301817
475297150.0 -0.0717056507 0.1610449741 0.3034924834 -0.4700234825 0.3036163431 -0.4703591736 -0.0970855262 0.1549697344
480297120.0 -0.0692679119 0.1623082372 0.2980558271 -0.4733793844 0.2986758422 -0.473350355 -0.0956186396 0.1560652214
485297090.0 -0.0677449885 0.162620198 0.2926812232 -0.4769477285 0.2929455891 -0.4770483875 -0.0938504096 0.1574891571
490297060.0 -0.0652687615 0.1637330895 0.2872362307 -0.4798111351 0.2879533236 -0.4802001358 -0.0923455974 0.1581974477
495297030.0 -0.0640542154 0.1643163653 0.2829668802 -0.4830216523 0.2831512646 -0.4832737071 -0.0907043472 0.1589744186
500297000.0 -0.0621607018 0.1655043859 0.27741324 -0.4859354602 0.2775509474 -0.4862558977 -0.0890887291 0.1605011959
505296970.0 -0.059675057 0.1660403118 0.2718324071 -0.4894165993 0.2721721791 -0.4888443954 -0.0876151633 0.160818587
510296940.0 -0.0581152071 0.1669548003 0.2670703925 -0.4926327049 0.2671323393 -0.4922427233 -0.0858261391 0.1622805831
515296910.0 -0.0563088087 0.1678786044 0.2609588913 -0.4950237935 0.2612410572 -0.4948596007 -0.0843086081 0.1626296411
520296880.0 -0.0545542684 0.1687832946 0.2559931807 -0.4974569423 0.2556499929 -0.4974065355 -0.08219376 0.1642431201
525296850.0 -0.0524426148 0.169146275 0.2504548552 -0.5004055051 0.2502143693 -0.5002228159 -0.0807483305 0.16470428
530296820.0 -0.0507704102 0.1698622237 0.245015088 -0.5034232315 0.2447695839 -0.5030290746 -0.0791367206 0.1654485989
535296790.0 -0.0479845854 0.1706317225 0.2395479438 -0.5056136911 0.2394347695 -0.5056564888 -0.0772766291 0.1666305012
540296760.0 -0.0463103237 0.1716415861 0.2337946474 -0.5081493271 0.233909961 -0.508010654 -0.0759377544 0.1670929081
545296730.0 -0.0449356328 0.1726555693 0.2283342871 -0.5103688683 0.2284474784 -0.5099186502 -0.0741628657 0.1680830332
550296700.0 -0.0421322386 0.1731286659 0.2228547668 -0.5131395854 0.2224478946 -0.5134667598 -0.0721863304 0.1693536782
555296670.0 -0.040453858 0.1733610112 0.2174431053 -0.5155626449 0.2172101405 -0.5153652111 -0.0708496562 0.1695045747
560296640.0 -0.0379628561 0.1738949379 0.2113546787 -0.5178623094 0.2116006985 -0.5178195024 -0.0691556247 0.171132264
565296610.0 -0.0363998565 0.1745929594 0.2062203362 -0.5201325775 0.2059100471 -0.5194934141 -0.0672677892 0.171862613
570296580.0 -0.0345727362 0.1752874941 0.2000149189 -0.522024316 0.2004593144 -0.5221482941 -0.066024389 0.1722324479
575296550.0 -0.0321796177 0.1757275398 0.1950224856 -0.5243064594 0.1944854618 -0.524165101 -0.0638116642 0.1730974044
580296520.0 -0.0301759293 0.176696349 0.1892867718 -0.5264469245 0.1889105681 -0.5263708439 -0.0625560509 0.1738068011
585296490.0 -0.0282199986 0.1769761287 0.1834893028 -0.5277672735 0.182745976 -0.528029512 -0.0602069891 0.1747482111
590296460.0 -0.025406449 0.1775120484 0.1775914563 -0.5304831629 0.1776963641 -0.5306233028 -0.0591039715 0.1751490756
595296430.0 -0.0236962216 0.1777156812 0.1710201042 -0.5322269653 0.1713659313 -0.5322210583 -0.0571049987 0.1758143865
600296400.0 -0.0216741019 0.1786306071 0.1656042803 -0.5337197906 0.1655199412 -0.5339919231 -0.0553113289 0.1766754531
605296370.0 -0.0200204433 0.1790059417 0.160225624 -0.5352589982 0.1596285181 -0.5358854836 -0.053573289 0.1773884748
610296340.0 -0.0172453702 0.1798303036 0.1540407706 -0.5364911797 0.1543847007 -0.5370087719 -0.0521714784 0.1779550187
615296310.0 -0.0152728072 0.1799135024 0.1483153359 -0.5389714142 0.1478394413 -0.5393109188 -0.0499759271 0.178858524
620296280.0 -0.0135163698 0.180726734 0.1424350973 -0.5403070653 0.1423072905 -0.5403506899 -0.0486868995 0.1794916509
625296250.0 -0.0117664809 0.180543484 0.1366337926 -0.5416231639 0.1367160124 -0.5421358018 -0.0468818974 0.179911135
630296220.0 -0.0093771532 0.1813070561 0.1304871664 -0.5431822733 0.1304158765 -0.5433498145 -0.0448675984 0.180561799
635296190.0 -0.0076526856 0.1816237662 0.125224359 -0.5447682539 0.1249325971 -0.5446861198 -0.04340343 0.180967104
640296160.0 -0.0052447493 0.1818756967 0.1188475526 -0.5460840233 0.1188715983 -0.5461265213 -0.0416101989 0.181580078
645296130.0 -0.002970312 0.1825971633 0.1128902396 -0.547039384 0.1129933021 -0.5469735634 -0.0398033212 0.1816527854
650296100.0 -0.0012092783 0.1826688294 0.1073960592 -0.5483229459 0.10664331 -0.5486061648 -0.0374574506 0.1827002608
655296070.0 0.0006988223 0.1829870129 0.1010131259 -0.5494277015 0.1011378203 -0.549199325 -0.0365172726 0.1830618696
660296040.0 0.0030499213 0.1833706852 0.0955523626 -0.5506548815 0.0952593045 -0.5503057573 -0.0343426425 0.1832125545
665296010.0 0.0051380827 0.1834840705 0.0888845802 -0.5511509344 0.0889827334 -0.551019814 -0.0325389345 0.1838826601
670295980.0 0.0069957088 0.1838176682 0.0833014031 -0.5520479092 0.083162021 -0.5519217585 -0.0309443254 0.1843531232
675295950.0 0.0088710958 0.183763117 0.0772808048 -0.5529273858 0.0770053588 -0.5533586011 -0.0289783396 0.1851891621
680295920.0 0.0108911683 0.1842891887 0.0713233068 -0.5537354879 0.0713260915 -0.5538069955 -0.0270780547 0.1850578945
685295890.0 0.0133830132 0.1844779188 0.0650906609 -0.55462923 0.0653622443 -0.554732141 -0.0254356252 0.185917773
690295860.0 0.014861252 0.1845661747 0.0596640437 -0.555245031 0.0588973142 -0.5551201563 -0.0233798452 0.1857172884
695295830.0 0.0172869753 0.1843900169 0.054205253 -0.5555513666 0.0533548781 -0.5558398497 -0.0218525722 0.1865599896
700295800.0 0.019276377 0.1846870019 0.0478344553 -0.5561128463 0.0474770476 -0.5562264519 -0.0200587192 0.1869316808
705295770.0 0.0212122791 0.18492186 0.0414723382 -0.5567700057 0.0417057239 -0.5564928241 -0.0182566149 0.1874558915
710295740.0 0.0233140402 0.1844667112 0.0354244388 -0.5571056863 0.0352354455 -0.5574606467 -0.0162304925 0.1878911857
715295710.0 0.0251731884 0.1847484873 0.0299130596 -0.5576830307 0.0293012532 -0.5573170947 -0.0145871346 0.1879046338
720295680.0 0.0275409001 0.1845897567 0.0235659371 -0.5574018267 0.0232278598 -0.5580263604 -0.0125719511 0.1880421101
725295650.0 0.0290748334 0.1849577239 0.017697845 -0.5581081576 0.0173416581 -0.5580415186 -0.0110954169 0.1887409176
730295620.0 0.030656746 0.1844498297 0.0117597582 -0.5576795723 0.0113967261 -0.5576766489 -0.0090334013 0.1894187948
735295590.0 0.0329999736 0.1845495574 0.0055171595 -0.5580627776 0.0053411131 -0.5583088428 -0.0071986738 0.1889241855
740295560.0 0.0347454262 0.1840889014 -0.0004825248 -0.5581602114 -0.0003442661 -0.5584737827 -0.0055973574 0.1895547888
745295530.0 0.036962738 0.1842352558 -0.0060341403 -0.5575628136 -0.0058072518 -0.5578564118 -0.0040876509 0.1898839772
750295500.0 0.0385720277 0.184469207 -0.012244054 -0.5581393422 -0.0125318093 -0.5580750293 -0.0019965469 0.1897057252
755295470.0 0.0405892756 0.1840485596 -0.0179430811 -0.557877591 -0.0182866605 -0.5580905966 -3.71107e-05 0.1904804406
760295440.0 0.0422693702 0.1845563671 -0.0247524738 -0.5576128689 -0.0247839005 -0.557022891 0.0020206406 0.1894164186
765295410.0 0.0447637274 0.1833971352 -0.0302533114 -0.5574163033 -0.0296741749 -0.5574175307 0.0034281199 0.1902320771
770295380.0 0.0465601406 0.183934533 -0.0356717085 -0.5564977839 -0.0362022999 -0.5572441992 0.0051825566 0.1904135581
775295350.0 0.0484628972 0.1828606423 -0.0420571336 -0.5566026335 -0.0422449718 -0.5560238223 0.0073738582 0.1904786003
780295320.0 0.0500496172 0.1829100482 -0.047910419 -0.5552118403 -0.0481870394 -0.5556914806 0.0093338483 0.190419441
785295290.0 0.0522928798 0.1822223608 -0.0541413319 -0.555008697 -0.0542490366 -0.555163693 0.0105987699 0.1910111852
790295260.0 0.0543676167 0.1818580496 -0.0600439059 -0.5542155678 -0.0597449544 -0.5550219434 0.0126349286 0.1912171977
795295230.0 0.0561487175 0.1815431298 -0.0656716701 -0.5540306978 -0.066274872 -0.5543411773 0.0147354664 0.1905805786
800295200.0 0.0578275448 0.1815598536 -0.0716047599 -0.5529092472 -0.0722047735 -0.5530238602 0.0163838191 0.1908643088
805295170.0 0.0595979419 0.1810179178 -0.0779685784 -0.552175891 -0.0779699832 -0.5526204353 0.0186820257 0.1908631001
810295140.0 0.0617238669 0.1804420817 -0.0836176993 -0.5511086806 -0.083363629 -0.5515697085 0.0203406316 0.1906243175
815295110.0 0.0636284797 0.1802178566 -0.0894367294 -0.5507736628 -0.089337855 -0.5507611786 0.0219725899 0.1906846161
820295080.0 0.0653648727 0.179538623 -0.0947402016 -0.5493835128 -0.0954224058 -0.5495887522 0.0231266799 0.1912281372
825295050.0 0.0670175258 0.1789026825 -0.1012571437 -0.5487803431 -0.1014615193 -0.5486890142 0.0259170687 0.1911727125
830295020.0 0.0691060161 0.1781418604 -0.1070644296 -0.5473927328 -0.1070713899 -0.5474134817 0.0273663903 0.1907051462
