!Created with skrf (http://scikit-rf.org).
# Hz S RI R 50.0 
!freq ReS11 ImS11 ReS21 ImS21 ReS12 ImS12 ReS22 ImS22
300000.0 -0.0940969091 -0.1021063412 0.6218196497 0.0934835936 0.619799097 0.0947367153 -0.0937624017 -0.1045597853
5299970.0 -0.1014118637 0.0114319324 0.6303762168 0.0113860004 0.6314021696 0.0114227658 -0.1016187742 0.0111763554
10299940.0 -0.0967493436 0.028744188 0.6346336133 0.0162762248 0.634189235 0.0164293048 -0.0965277398 0.0283616238
15299910.0 -0.0891918248 0.0423128251 0.6406177326 0.021426904 0.6406145619 0.0215390271 -0.0897061042 0.0418242671
20299880.0 -0.0803839116 0.0533550073 0.6485476503 0.0243383395 0.648978344 0.0243913163 -0.0809211935 0.0528841497
25299850.0 -0.0700721076 0.0623669088 0.658493201 0.0258238279 0.6580468353 0.0257565636 -0.0714390254 0.0617926279
30299820.0 -0.0607793655 0.0688320134 0.6683203205 0.0246700268 0.6677673509 0.0245711617 -0.0618188015 0.0683056959
35299790.0 -0.050625812 0.0736442124 0.6771519898 0.022200076 0.6774046701 0.0215798578 -0.0525156422 0.0734769012
40299760.0 -0.041344429 0.0763214838 0.6869781883 0.0178404841 0.6873250243 0.0172233313 -0.0428061832 0.0769733747
45299730.0 -0.0318195985 0.078305537 0.6958620617 0.0122544424 0.6961756692 0.0122503591 -0.0331375687 0.0789801834
50299700.0 -0.0228325419 0.0791232862 0.7037708906 0.0053725041 0.7037128534 0.0050277648 -0.0244962648 0.0804322652
55299670.0 -0.0150606014 0.0791418972 0.711190915 -0.0022358184 0.711170685 -0.0024126858 -0.0170538187 0.0804805644
60299640.0 -0.007723881 0.0787540067 0.718055281 -0.0108164338 0.7178643314 -0.0113860223 -0.0096813466 0.0795079705
65299610.0 -0.0010100957 0.0772301253 0.7237046458 -0.01966485 0.7244197308 -0.0195965873 -0.002633279 0.0787246028
70299580.0 0.0052560388 0.0753373199 0.7291054443 -0.0285537646 0.7292803887 -0.0289905399 0.0030829281 0.0770902045
75299550.0 0.0104738841 0.0731983971 0.7332242387 -0.0388473861 0.7334852206 -0.0388014369 0.0086962523 0.0753944887
80299520.0 0.0156308798 0.0713867621 0.7376722993 -0.0484564589 0.7377176152 -0.04887776 0.0140590032 0.0734729872
85299490.0 0.0201162692 0.0691631232 0.74095715 -0.0588341874 0.7410217549 -0.0583171766 0.0180020026 0.0709163364
90299460.0 0.0241583555 0.0665787911 0.7433334808 -0.0682318522 0.7433414447 -0.0681256503 0.0226888351 0.0691620112
95299430.0 0.0279532174 0.0642082902 0.7459871684 -0.0790297464 0.7465207181 -0.0790714226 0.0259143998 0.066570481
100299400.0 0.0314494321 0.061532589 0.7475570786 -0.0887022622 0.7477373405 -0.0888347692 0.0291009944 0.0643271984
105299370.0 0.0344582119 0.0591731566 0.7494352286 -0.0985852136 0.7500112384 -0.0987520514 0.0327926225 0.0618122157
110299340.0 0.0374732 0.0562548843 0.7505974778 -0.1086419444 0.7507858157 -0.1085631854 0.0348014502 0.0593269415
115299310.0 0.0395556312 0.0542335368 0.7512173854 -0.1185828003 0.7511231815 -0.1184594138 0.0376048011 0.0574894977
120299280.0 0.0415614509 0.0519364079 0.7523881756 -0.129865902 0.7520080444 -0.1294389121 0.0399275479 0.0544042836
125299250.0 0.0437466697 0.0494633771 0.752215079 -0.1387153253 0.7525276485 -0.1382146617 0.0421141183 0.0531709045
130299220.0 0.0458643982 0.0470301018 0.7522066682 -0.1494607052 0.7521336382 -0.1492083901 0.0436280259 0.0507036935
135299190.0 0.0468197394 0.0455084522 0.7521239213 -0.1584485181 0.7523191078 -0.1589399301 0.0455208962 0.0480757332
140299160.0 0.0490386086 0.0431082159 0.7516134865 -0.1688199822 0.7511760956 -0.1683122716 0.0464695038 0.0454167965
145299130.0 0.0493333857 0.0411534683 0.7503665468 -0.1780893156 0.7507488738 -0.1783978974 0.0481243973 0.0438790448
150299100.0 0.0508671141 0.0391608289 0.7496706918 -0.1877557202 0.749598156 -0.1877474117 0.0491957502 0.0421513116
155299070.0 0.0524838439 0.0370069302 0.7477715997 -0.197679762 0.7483476792 -0.1975434222 0.0505529977 0.0397123423
160299040.0 0.0534107546 0.0352829152 0.746697048 -0.2069441412 0.7465491356 -0.2069474204 0.0507806425 0.0381365385
165299010.0 0.0544166197 0.0333342442 0.7452976251 -0.2162722246 0.7450353804 -0.2166996502 0.0521415289 0.0361842253
170298980.0 0.0550302643 0.0319310461 0.743324012 -0.2257127942 0.7434867939 -0.2258782036 0.0526316171 0.0342084852
175298950.0 0.0559531468 0.0304273577 0.7418916291 -0.235046458 0.7422198628 -0.2358980438 0.0534049219 0.0328644251
180298920.0 0.0564480522 0.0288289337 0.7396747312 -0.2446142685 0.7398205431 -0.2445439604 0.0540001284 0.0305956082
185298890.0 0.0568716252 0.0272664906 0.7377206899 -0.2534221018 0.7373973922 -0.2532858244 0.0551096432 0.0290200822
190298860.0 0.0579005546 0.0257606508 0.7345129022 -0.2625971616 0.7348848091 -0.2627218088 0.0552509517 0.0274133222
195298830.0 0.057772897 0.0242000647 0.7324544253 -0.2712993643 0.7328359741 -0.2714965876 0.0557122521 0.0260196406
200298800.0 0.0584162878 0.0224066444 0.7295187477 -0.2806412777 0.7301680073 -0.2807864141 0.0564604904 0.0242687566
205298770.0 0.0582700597 0.0209679324 0.7273975566 -0.2893117392 0.7270240834 -0.2894338566 0.0567906903 0.0225847329
210298740.0 0.0589017655 0.0200043412 0.724364882 -0.2984604697 0.7235002817 -0.2983531805 0.0565579278 0.0209369871
215298710.0 0.0594953047 0.0186348358 0.7207589235 -0.3068398177 0.7210290527 -0.3068022806 0.0571720238 0.0200303424
220298680.0 0.0595661749 0.0175468809 0.7179996911 -0.3153883965 0.7174760237 -0.31603037 0.0571238091 0.0181636424
225298650.0 0.0599471853 0.0162245113 0.7144439093 -0.324108223 0.7143623177 -0.3238969173 0.0576039759 0.0163990579
230298620.0 0.0602734717 0.0151565009 0.7112995567 -0.3326680973 0.711248118 -0.332756682 0.057138546 0.0152897451
235298590.0 0.0598595588 0.0137513284 0.7079733632 -0.3414698192 0.7078292265 -0.3413445149 0.0577804791 0.0141282241
240298560.0 0.0603956821 0.0128472331 0.7046296001 -0.3492106301 0.7041752966 -0.3495879593 0.0578202392 0.0128555371
245298530.0 0.0602694296 0.0114050513 0.7004195387 -0.3576613869 0.7001658369 -0.3578407249 0.0576603981 0.011721604
250298500.0 0.0600827982 0.0102168643 0.696978591 -0.3661216842 0.6967481828 -0.3660369994 0.057960582 0.0106354924
255298470.0 0.0607694434 0.0097658582 0.6932460776 -0.374341762 0.6932111552 -0.3741416354 0.0580764789 0.0096572384
260298440.0 0.0603709341 0.0081830529 0.689330055 -0.3815021949 0.6890524496 -0.3822814653 0.057664927 0.0077700188
265298410.0 0.0602331869 0.0076564009 0.6845127229 -0.3908853317 0.6849567241 -0.3907095138 0.0587424996 0.0067720895
270298380.0 0.0600910465 0.0062775183 0.6805551424 -0.3988394716 0.68093854 -0.3980676818 0.0583097802 0.0062749864
275298350.0 0.0604230629 0.0056810445 0.6756127227 -0.4058971898 0.6754674038 -0.4058490495 0.0579877964 0.0046798646
280298320.0 0.0598063079 0.0044541828 0.671916976 -0.4139489942 0.6718785384 -0.4140793406 0.0583362319 0.0038535839
285298290.0 0.0598688548 0.0034162919 0.6671674703 -0.4220999954 0.6678755229 -0.4216913056 0.0582245437 0.0026756404
290298260.0 0.0598061428 0.0027697859 0.663560084 -0.4295641428 0.6632585988 -0.4292371933 0.058306457 0.0016134664
295298230.0 0.0599112079 0.0014192669 0.6583951741 -0.4377222892 0.6582641427 -0.4376418661 0.0578567074 0.0004777146
300298200.0 0.0603306979 0.0008358117 0.6542994254 -0.4449488658 0.6539884412 -0.4451004727 0.0579961523 -0.000728531
305298170.0 0.0602712351 -0.0007550654 0.6492859682 -0.4535803343 0.649247031 -0.452990802 0.0577533061 -0.002091134
310298140.0 0.0604156974 -0.0013917716 0.6443387037 -0.4603584501 0.644585013 -0.4601429638 0.0582894553 -0.0036045462
315298110.0 0.0597503313 -0.0031225631 0.6393429956 -0.4688086777 0.638948094 -0.468356406 0.057567593 -0.0043314374
320298080.0 0.0598200728 -0.0036990347 0.6337505019 -0.4758790729 0.6346189655 -0.4759207483 0.0570145015 -0.0057980183
325298050.0 0.0587664808 -0.0052291946 0.6287805923 -0.4829024061 0.628608633 -0.483425477 0.0569995769 -0.0069526842
330298020.0 0.0577997045 -0.0059662365 0.6230779115 -0.4904156685 0.6234259749 -0.490556484 0.0561816489 -0.0079474496
335297990.0 0.0576069386 -0.0065108898 0.617318609 -0.4975031182 0.6174658975 -0.4978275292 0.0558849455 -0.0087085993
340297960.0 0.057108249 -0.0076275429 0.6112061967 -0.5049515539 0.6111386756 -0.5045487122 0.055273518 -0.0091455076
345297930.0 0.0565003614 -0.0085433923 0.6060179275 -0.511937688 0.605878463 -0.5117967818 0.0552902505 -0.0101706599
350297900.0 0.0558985449 -0.0089064315 0.6008326493 -0.5178965603 0.6004351379 -0.518071338 0.0545742083 -0.0114339091
355297870.0 0.0556063246 -0.0097787809 0.5942081483 -0.5244539585 0.5941219426 -0.5244962049 0.0545680298 -0.0117959958
360297840.0 0.0551927706 -0.0102379946 0.5885921853 -0.531054143 0.5883541353 -0.5314761734 0.0535250107 -0.0122912332
365297810.0 0.0545884375 -0.0109735197 0.5821481771 -0.5378307813 0.5824737897 -0.5382011279 0.0527715179 -0.0129923695
370297780.0 0.0546251755 -0.0114916429 0.5758977776 -0.5440884909 0.5763907819 -0.5442932417 0.0530095741 -0.0140519189
375297750.0 0.0542402254 -0.0123147967 0.5703570657 -0.5509095316 0.5706977802 -0.5513325574 0.0529141899 -0.0146189075
380297720.0 0.0534576843 -0.0127098934 0.5651159534 -0.5574282554 0.5644019078 -0.557529417 0.0524359962 -0.0150082005
385297690.0 0.0531489176 -0.0135660659 0.5578892048 -0.5634232482 0.5585144944 -0.5641913788 0.0522264547 -0.015554555
390297660.0 0.052972536 -0.0143655329 0.5524067889 -0.5691300579 0.5520318658 -0.5697148285 0.0523296431 -0.0166944695
395297630.0 0.0528231814 -0.0148738599 0.5464623572 -0.57508438 0.5459752484 -0.5758541527 0.0515942873 -0.016932324
400297600.0 0.0521961266 -0.0157287095 0.5398556247 -0.5818155383 0.539823533 -0.5820461175 0.0513874901 -0.0174730401
405297570.0 0.0521623704 -0.0167279225 0.5331989453 -0.5874790964 0.5335169781 -0.5877701072 0.0506617687 -0.0178706419
410297540.0 0.0513504711 -0.0167776168 0.5264624399 -0.5936701377 0.526832655 -0.5933306992 0.050350753 -0.0187129987
415297510.0 0.0508735257 -0.017493017 0.5199755067 -0.599441362 0.5208075506 -0.5998373159 0.0506983413 -0.0191565821
420297480.0 0.0507848773 -0.0185114248 0.513146102 -0.6051940138 0.5139010345 -0.6052682165 0.0501022651 -0.0197118707
425297450.0 0.0510085406 -0.0187639196 0.5073015186 -0.6108920303 0.5069462517 -0.6110055822 0.0499554704 -0.0207262009
430297420.0 0.0500284791 -0.0193286063 0.5004785997 -0.6163922858 0.5006557945 -0.6162057309 0.0499920939 -0.0209020537
435297390.0 0.0498269554 -0.0203840404 0.4931751068 -0.6227192226 0.4936643431 -0.6221996495 0.0487593486 -0.0213936212
440297360.0 0.0496173137 -0.0211484981 0.4861933068 -0.6276533561 0.4863147735 -0.6277612588 0.0485765759 -0.0218799225
445297330.0 0.0494788223 -0.0220880217 0.4803014899 -0.6326938866 0.4798029165 -0.6331049729 0.0479962096 -0.0219336727
450297300.0 0.0490395692 -0.0222601134 0.472934645 -0.6380762899 0.4733406023 -0.6380321342 0.0479964331 -0.0229353821
455297270.0 0.0481165402 -0.0228944543 0.4658240221 -0.6434699781 0.4659338134 -0.6434530079 0.0478005088 -0.023454244
460297240.0 0.048247492 -0.0233172365 0.4584114447 -0.6493456666 0.4587419093 -0.6489005891 0.0474149973 -0.0242785843
465297210.0 0.0478272858 -0.0240371045 0.4513842245 -0.6537441757 0.4511247128 -0.6538735292 0.0475922205 -0.023926488
470297180.0 0.047209697 -0.0250067728 0.4438785528 -0.6584800207 0.44481544 -0.6588985042 0.0472463708 -0.0252737393
475297150.0 0.0465289589 -0.0250659276 0.4374620893 -0.6637184833 0.4372283429 -0.6639580677 0.0467991732 -0.0256540802
480297120.0 0.0467567418 -0.0250347478 0.4297543254 -0.668680855 0.4296875211 -0.6680786925 0.0460147363 -0.026161078
485297090.0 0.0462021342 -0.0267268273 0.4220685018 -0.6731626636 0.4223888078 -0.67279315 0.0456140148 -0.0262779122
490297060.0 0.0461666472 -0.0266854504 0.4141399716 -0.6774597885 0.4149356536 -0.6777464681 0.0453851815 -0.0271924221
495297030.0 0.045110506 -0.0276829726 0.4077020698 -0.6827098129 0.4075290871 -0.6823872446 0.0455619634 -0.0277789946
500297000.0 0.0445934292 -0.0276399202 0.400546991 -0.6866360143 0.3995952883 -0.6870252455 0.0449210237 -0.0276858857
505296970.0 0.045114267 -0.0283476175 0.3929744023 -0.6914734756 0.3928484586 -0.6911931226 0.044404876 -0.0292184824
510296940.0 0.0441877815 -0.0292476088 0.3851449716 -0.6964634864 0.385488556 -0.6964229992 0.0444550569 -0.0287843661
515296910.0 0.0436063327 -0.0290874801 0.3771495612 -0.6998664689 0.376818814 -0.6997730207 0.0438356283 -0.0303240289
520296880.0 0.0434342097 -0.0294869566 0.3695989933 -0.7031137285 0.3693018915 -0.7035250628 0.0438692425 -0.0298117937
525296850.0 0.0433588522 -0.0303028581 0.3614452192 -0.7077422282 0.3616570355 -0.707792187 0.0435486418 -0.030641169
530296820.0 0.0424453638 -0.0310329115 0.3533129213 -0.7119882503 0.353955677 -0.7117921442 0.0431677295 -0.0314215855
535296790.0 0.0430577231 -0.0314385515 0.3464870633 -0.7153839255 0.3464983463 -0.7158832571 0.0429572465 -0.0312774596
540296760.0 0.0421678706 -0.0313602789 0.338327534 -0.719317224 0.3385882398 -0.7194533844 0.0424198081 -0.0323245209
545296730.0 0.0408045313 -0.0318707914 0.3305043598 -0.7230776575 0.3304291269 -0.7231529865 0.0421591587 -0.0323283197
550296700.0 0.0416113191 -0.0323486895 0.3223728593 -0.7265304565 0.3222283215 -0.7273415895 0.0418988885 -0.0329831418
555296670.0 0.0409018582 -0.032845658 0.3141589228 -0.7307406663 0.314498325 -0.7305618208 0.0410320511 -0.0340088309
560296640.0 0.0410696071 -0.0329503499 0.3061483079 -0.7335964786 0.3066069899 -0.7333639548 0.0405684026 -0.0337365471
565296610.0 0.0397737186 -0.0336390908 0.2988897055 -0.7372424785 0.2986357889 -0.7366122447 0.04044262 -0.0341760435
570296580.0 0.0395177466 -0.0336888591 0.2901453277 -0.7407830238 0.2908137122 -0.7400563549 0.0397231712 -0.0351007207
575296550.0 0.0390902584 -0.0342943228 0.2824933169 -0.7431965496 0.2822450647 -0.743295779 0.0392470407 -0.0351966577
580296520.0 0.0387606402 -0.0344699247 0.2743990714 -0.746311393 0.2742535104 -0.746679786 0.0382930244 -0.0355216992
585296490.0 0.0384647599 -0.0346255983 0.266244674 -0.749590628 0.2662849149 -0.7495213551 0.0386825867 -0.035789414
590296460.0 0.0385079026 -0.0349587121 0.2581995251 -0.7521036215 0.2577457271 -0.7522375981 0.0376093117 -0.0360123213
595296430.0 0.0379004788 -0.0353941838 0.2492022522 -0.7546041716 0.2494077466 -0.7549385543 0.03753622 -0.03714028
600296400.0 0.0376665114 -0.0357411785 0.2407263587 -0.757298397 0.2408583059 -0.7579284949 0.03698901 -0.0372134718
605296370.0 0.0364463965 -0.0358349884 0.2334839701 -0.7600451462 0.232663997 -0.7606049595 0.0363196571 -0.0373237243
610296340.0 0.0366203013 -0.0358395912 0.2245211351 -0.7620121969 0.2254548489 -0.7625017226 0.0355578376 -0.0377846867
615296310.0 0.0362284234 -0.0364501455 0.2159915769 -0.7656709919 0.2157456536 -0.7655256832 0.0354695196 -0.0377277499
620296280.0 0.0350186299 -0.0361679303 0.2071884906 -0.7673311008 0.2074111344 -0.7674288981 0.0346341257 -0.0381267768
625296250.0 0.0348289887 -0.0367226603 0.1994729873 -0.7699091427 0.1992696636 -0.7697382873 0.033695447 -0.0386374344
630296220.0 0.0342321802 -0.0367630564 0.1904873567 -0.7725757872 0.1910252898 -0.7720319009 0.0336872649 -0.0390218646
635296190.0 0.0333240436 -0.0369779084 0.1825985868 -0.7736814453 0.1827785939 -0.7738115818 0.0329806515 -0.0392749837
640296160.0 0.0332139047 -0.0369969045 0.1738543601 -0.7760664916 0.1739807518 -0.7759775824 0.0322606758 -0.0399212288
645296130.0 0.0328983075 -0.0368604524 0.1652855763 -0.778152722 0.1654401877 -0.7779480255 0.0316106844 -0.0404427475
650296100.0 0.0320478177 -0.0371210665 0.1575220004 -0.7794039407 0.1570651275 -0.7798252749 0.0321212703 -0.0405528187
655296070.0 0.0315741845 -0.0374394149 0.1483889419 -0.7812671835 0.1483548276 -0.7811501339 0.0304311839 -0.0403468622
660296040.0 0.0312493649 -0.0374581559 0.1397179271 -0.7826818675 0.1400994367 -0.7832244453 0.0299442359 -0.0412201208
665296010.0 0.0306822643 -0.0379400234 0.130881775 -0.7838262168 0.13128908 -0.7839140402 0.0294508523 -0.0409236923
670295980.0 0.0302931257 -0.0377729184 0.1224993116 -0.786097242 0.1227266164 -0.7851996675 0.0285932997 -0.0416428948
675295950.0 0.029512461 -0.0382223577 0.1142721737 -0.7865974763 0.1140854337 -0.7866284167 0.0279822803 -0.0411835139
680295920.0 0.0289602772 -0.0379825778 0.1057524156 -0.7876842404 0.1062602327 -0.7880362375 0.028026402 -0.0420408244
685295890.0 0.0284213205 -0.0380763829 0.0964402697 -0.7893398982 0.0974596847 -0.7890378458 0.0272862897 -0.0417319757
690295860.0 0.0273845705 -0.0379761363 0.0882511139 -0.7899099569 0.0882731556 -0.7901905775 0.026414733 -0.042130646
695295830.0 0.0274124571 -0.0383686573 0.0807019826 -0.7915299578 0.0799194523 -0.7912525584 0.0258192629 -0.0424067565
700295800.0 0.0269800506 -0.0381441266 0.0720028892 -0.7919250626 0.0718843879 -0.7917416697 0.0250083556 -0.0422919514
705295770.0 0.0259819419 -0.0381705539 0.0625138748 -0.7928624586 0.0627496716 -0.7918294584 0.0244807779 -0.042330162
710295740.0 0.0255061202 -0.0385454972 0.0538196108 -0.7929791145 0.0540158675 -0.7933386437 0.0241190327 -0.0424069595
715295710.0 0.0247382368 -0.0383757391 0.0453712734 -0.7943588861 0.0458762366 -0.794285662 0.0232177564 -0.0427886874
720295680.0 0.0248441919 -0.0384675494 0.0368825135 -0.7938789334 0.036786488 -0.7946550352 0.0225494469 -0.0429958088
725295650.0 0.0234191081 -0.0382683838 0.0288895779 -0.7947172658 0.0279304815 -0.7946532749 0.0215578583 -0.0423565842
730295620.0 0.0222921004 -0.0387753322 0.0196161903 -0.7944919244 0.0195015275 -0.7941291139 0.0209730361 -0.0422172758
735295590.0 0.0225272461 -0.0384544132 0.0111129225 -0.7950607687 0.0110657289 -0.7946966434 0.0202540635 -0.0431629803
740295560.0 0.0219237468 -0.0389742295 0.0022859385 -0.7951603143 0.0024240044 -0.7948839576 0.019233207 -0.0425623526
745295530.0 0.0210628853 -0.0386063342 -0.0063871112 -0.7942218829 -0.0051005529 -0.7949016252 0.01807188 -0.0431115093
750295500.0 0.019885561 -0.0384001512 -0.0141918107 -0.7948354167 -0.0150394661 -0.7945101443 0.0177784403 -0.0427463605
755295470.0 0.0191811461 -0.0383578207 -0.0232312975 -0.7951739946 -0.0231910107 -0.7947492672 0.0175383636 -0.0420377514
760295440.0 0.018753164 -0.037830908 -0.033194032 -0.7945060074 -0.0321492797 -0.7940030164 0.0171094271 -0.0436547693
765295410.0 0.0188266383 -0.0383422538 -0.0408076976 -0.7937589308 -0.039741434 -0.7942809565 0.0160961281 -0.0432988879
770295380.0 0.0178125109 -0.0379452621 -0.048722648 -0.7926484023 -0.0491925891 -0.793590167 0.0149895283 -0.0427810173
775295350.0 0.017248147 -0.0383923461 -0.0578203725 -0.7928988537 -0.0573217098 -0.792031065 0.015212322 -0.0426722311
780295320.0 0.0161859156 -0.0379299115 -0.0661325442 -0.7913907583 -0.0659966526 -0.7917335712 0.0146453352 -0.0429859384
785295290.0 0.0156974935 -0.0383205849 -0.0746847205 -0.7907714085 -0.0742705106 -0.7913672248 0.0130430241 -0.0424236149
790295260.0 0.0153980489 -0.0383992681 -0.0834069602 -0.7905848489 -0.0830490521 -0.7905155843 0.0125891976 -0.042018711
795295230.0 0.0145410887 -0.0384216309 -0.0921728202 -0.7901247566 -0.0919432928 -0.7899023865 0.012292946 -0.0432024141
800295200.0 0.0135082262 -0.0380114991 -0.099871562 -0.787217017 -0.1003066349 -0.7887051589 0.0113163498 -0.0423696758
805295170.0 0.0128027809 -0.0382630433 -0.1088624646 -0.7868448563 -0.1084743658 -0.7867556291 0.0117197573 -0.0418754786
810295140.0 0.012767434 -0.0380916829 -0.1169895467 -0.7857829576 -0.1173223785 -0.7857825447 0.0107169982 -0.042326511
815295110.0 0.0119134913 -0.0377814057 -0.1259246148 -0.7842196179 -0.1250350637 -0.7846353739 0.0097065961 -0.0423397294
820295080.0 0.0115794258 -0.0376912538 -0.1338439051 -0.7823115957 -0.1341377107 -0.7828707706 0.0079681405 -0.0410715296
825295050.0 0.0105806763 -0.0378965213 -0.1429864896 -0.7816538156 -0.1427900574 -0.7812792658 0.0088138178 -0.0412275299
830295020.0 0.0098045854 -0.037866641 -0.1512886015 -0.7799158099 -0.1514425654 -0.7800407843 0.0077322168 -0.0420266103
