!Created with skrf (http://scikit-rf.org).
# Hz S RI R 50.0 
!freq ReS11 ImS11 ReS21 ImS21 ReS12 ImS12 ReS22 ImS22
300000.0 -0.780332546 -0.0936285194 -0.0010669887 -0.0005527613 -0.0007748109 0.0009577841 -0.0492086338 -0.0593965592
5299970.0 -0.7856419071 -0.0055694755 -7.27903e-05 -2.41982e-05 -0.0001535751 3.64653e-05 -0.0498571103 0.015840877
10299940.0 -0.7880699597 -0.0038234885 7.65565e-05 4.10347e-05 -5.91733e-05 -1.3637e-06 -0.0441782473 0.0337176062
15299910.0 -0.793367478 -0.0022312226 7.10737e-05 1.96326e-05 0.0001581011 -3.08474e-05 -0.0357730324 0.0482724511
20299880.0 -0.8002477077 0.002134324 -9.00676e-05 -0.0002627114 0.0001460515 8.09854e-05 -0.0257420869 0.0597925677
25299850.0 -0.8063727693 0.0076519116 2.83186e-05 0.0001325261 -6.22735e-05 -9.31266e-05 -0.0143489639 0.0692073496
30299820.0 -0.8123966684 0.0152517976 1.01223e-05 4.009e-07 -5.35792e-05 -2.65265e-05 -0.002440418 0.0758206917
35299790.0 -0.8176521195 0.0244225973 -2.51803e-05 0.000177611 0.0001374488 1.45841e-05 0.0090595894 0.0808501679
40299760.0 -0.8216249713 0.0334742952 0.0001612091 3.8882e-06 -1.35395e-05 6.76745e-05 0.0207484563 0.0832051971
45299730.0 -0.8248555629 0.0427190551 4.81978e-05 -9.34982e-05 -8.70564e-05 -6.16966e-05 0.0311923418 0.0851373996
50299700.0 -0.8270564117 0.0525489336 6.64428e-05 -8.12478e-05 7.23837e-05 0.0001387375 0.0415205948 0.0848424257
55299670.0 -0.8293431494 0.0625802296 0.0001006898 4.90741e-05 -4.40575e-05 -0.0001753262 0.0509629308 0.0832257203
60299640.0 -0.8303092868 0.0735295791 -0.0001194134 4.47929e-05 0.0001142608 1.26541e-05 0.0595056926 0.0813525654
65299610.0 -0.8315748166 0.0831461412 0.0001317231 0.0002060974 -5.37278e-05 3.37309e-05 0.066962925 0.0788868623
70299580.0 -0.832043931 0.0930817403 -0.0001893475 -0.0001564096 0.0001252821 -7.36637e-05 0.0740604373 0.0759057666
75299550.0 -0.8317222745 0.1037768761 -2.89381e-05 6.01988e-05 2.22533e-05 -9.05415e-05 0.0805487736 0.0720669122
80299520.0 -0.8319697387 0.1134410005 5.39195e-05 -9.7243e-05 -3.08685e-05 2.13641e-05 0.0861756241 0.0690256252
85299490.0 -0.8312906236 0.1226189263 0.0001029695 0.0002325284 0.0001974694 0.000183846 0.0911650517 0.0649930802
90299460.0 -0.8305171512 0.1318289244 0.0001682031 -0.000321483 -3.59175e-05 3.12899e-05 0.0959991537 0.0609836778
95299430.0 -0.829646443 0.1417497964 1.25913e-05 6.93877e-05 8.2269e-06 2.65164e-05 0.1000615391 0.0568529069
100299400.0 -0.8282553646 0.1507236056 -3.25607e-05 0.0001329439 -4.59978e-05 -0.000135205 0.1038877972 0.0528367148
105299370.0 -0.8269561932 0.1603212551 -0.0002452577 0.0001794566 -0.0001253322 6.42394e-05 0.1069783334 0.0487855229
110299340.0 -0.8259971399 0.1690924807 7.9907e-06 -2.8934e-06 2.58479e-05 5.86757e-05 0.1098865063 0.0448101653
115299310.0 -0.8241648012 0.1785814341 -0.0001318596 -0.0001306899 2.02355e-05 -2.44004e-05 0.1124991751 0.0408322506
120299280.0 -0.8222301084 0.1870405003 0.0001946536 9.03197e-05 -1.53484e-05 0.0001034873 0.1146274886 0.0369693387
125299250.0 -0.8203228746 0.1961436399 -0.0001009183 -0.0001497904 2.76872e-05 -6.8387e-06 0.1163003688 0.032754066
130299220.0 -0.8192366844 0.205197581 0.0001190904 -9.20276e-05 -5.49876e-05 -0.0001444444 0.1182874236 0.0289238517
135299190.0 -0.8175338898 0.2142063717 8.55028e-05 0.0003171273 1.7658e-05 0.0001976274 0.1196814112 0.0253400152
140299160.0 -0.8147284957 0.2231350741 0.0001400918 -4.39863e-05 0.0002508205 -6.76153e-05 0.1207744561 0.0220033781
145299130.0 -0.8128161162 0.2321243688 0.0001642218 0.0001651363 -4.43716e-05 0.0003456875 0.1218955852 0.0183594366
150299100.0 -0.8106429103 0.2413059156 -0.000157962 -1.17501e-05 5.4842e-06 -6.95742e-05 0.1228743605 0.0150194437
155299070.0 -0.8078027235 0.2493646062 -9.01587e-05 -4.57705e-05 -3.52028e-05 6.26185e-05 0.1239063523 0.0114753789
160299040.0 -0.8050057204 0.2578864382 0.0001781953 0.0001276214 -0.0002559822 -3.02905e-05 0.1239979979 0.0083152372
165299010.0 -0.8030999346 0.2668941912 4.80329e-05 -0.0001033438 -0.0001883976 3.07807e-05 0.1245154324 0.0049913062
170298980.0 -0.8005082792 0.2750983042 9.65538e-05 5.3499e-05 0.0001036656 8.77219e-05 0.1250986349 0.0013502078
175298950.0 -0.7978879919 0.2842079085 0.000203594 8.07015e-05 0.0001587547 -0.0001981439 0.125030897 -0.0012930953
180298920.0 -0.7947972777 0.2928264916 9.6737e-06 -0.0001877148 -6.73662e-05 0.0002424521 0.1251313993 -0.0042275063
185298890.0 -0.7914450334 0.3007452116 -6.76057e-05 -5.68458e-05 -0.0001061421 0.0001355779 0.1251298138 -0.0072812156
190298860.0 -0.7884459002 0.3091890078 8.20506e-05 0.0001335164 0.0001324701 0.0001685149 0.125313953 -0.0099764254
195298830.0 -0.7857419631 0.317824288 -0.0002176851 3.68375e-05 0.0001761109 2.50222e-05 0.1247485681 -0.0129611155
200298800.0 -0.7815553312 0.3257705685 1.77414e-05 3.87979e-05 -6.79751e-05 0.0001405876 0.1245320279 -0.0159858938
205298770.0 -0.7788336899 0.3340737858 -6.79145e-05 0.0002284353 9.17195e-05 0.0002189074 0.1241309686 -0.018787381
210298740.0 -0.7756971634 0.3421889693 0.0001994871 -5.70266e-05 6.19925e-05 -9.72503e-05 0.1242726629 -0.0212641431
215298710.0 -0.7718508519 0.3508155352 -3.16186e-05 9.04388e-05 -8.68088e-05 -0.0001571808 0.1231815176 -0.0235428186
220298680.0 -0.7677819432 0.358958329 0.0001528546 0.0002011473 -8.84516e-05 -4.88797e-05 0.1229054269 -0.0264808114
225298650.0 -0.7645724971 0.3660701142 -4.30547e-05 -9.93281e-05 -0.0001051674 -0.000150127 0.1223159888 -0.0289551022
230298620.0 -0.7604687802 0.3742943744 2.07692e-05 0.0001540678 -0.0002263076 -2.38535e-05 0.1218268729 -0.0315313212
235298590.0 -0.7569138169 0.3830845224 -3.94554e-05 -0.000128968 -0.0001063263 -6.97388e-05 0.1211381228 -0.0339013395
240298560.0 -0.7523576924 0.390567198 3.4095e-06 0.0003679137 0.0001073576 -0.000210133 0.1204266654 -0.0361886051
245298530.0 -0.7493084134 0.3986002716 -2.5559e-06 3.55977e-05 -2.97568e-05 5.75177e-05 0.1199675472 -0.0386446792
250298500.0 -0.7447496191 0.4066120109 0.0001255344 3.48094e-05 -5.79193e-05 -1.01374e-05 0.1188310388 -0.0408851669
255298470.0 -0.7400071064 0.413839915 -1.59497e-05 3.71542e-05 2.5587e-05 0.0001542511 0.1180973696 -0.0430193471
260298440.0 -0.7359403835 0.421528478 -0.0001868311 7.29111e-05 4.43306e-05 2.0342e-05 0.1173984787 -0.0452688999
265298410.0 -0.7318657131 0.4295670406 0.0002892975 4.07392e-05 8.21735e-05 0.0002407892 0.1169245154 -0.0469857687
270298380.0 -0.7268388179 0.4369656365 -0.0001455354 -0.00017774 8.66222e-05 0.0001654497 0.115672896 -0.0495164071
275298350.0 -0.7222129637 0.4448155765 -3.08572e-05 0.000124512 -0.0001668496 0.0001287243 0.1150303364 -0.0511630039
280298320.0 -0.7174316231 0.4522941657 0.0001259995 6.58655e-05 3.85593e-05 8.65477e-05 0.114539015 -0.0536925551
285298290.0 -0.7138420269 0.4601091255 0.0001144931 0.0001169698 2.70703e-05 4.8745e-06 0.1133268033 -0.0554151959
290298260.0 -0.7081298928 0.4675669405 3.2961e-05 -2.90471e-05 0.0002153831 0.0001954335 0.1123913535 -0.0572501543
295298230.0 -0.7029067538 0.4741743832 -0.0001314049 -7.34353e-05 0.0001511959 -7.84383e-05 0.1116190445 -0.0594455811
300298200.0 -0.6980223362 0.4814720333 0.0002812263 0.0001235456 5.18302e-05 -1.24808e-05 0.1101375921 -0.0609409167
305298170.0 -0.6926965356 0.4880394668 -1.08563e-05 -0.0001259511 0.0001422589 -3.54282e-05 0.1098049642 -0.0632867597
310298140.0 -0.6877323412 0.4960678977 0.0001151852 0.0001744348 0.0001669232 -4.03989e-05 0.1080486052 -0.0651272219
315298110.0 -0.6828085814 0.5030387589 -7.3033e-06 2.48443e-05 1.39432e-05 0.0001880784 0.1066595819 -0.0671136991
320298080.0 -0.67804181 0.5099328223 0.0002292315 2.95579e-05 9.50412e-05 4.99894e-05 0.1058767822 -0.0689989006
325298050.0 -0.6717523958 0.5172981466 1.16395e-05 0.0002396638 -0.0001180293 0.0001000607 0.1041628127 -0.0705689842
330298020.0 -0.6666582074 0.52406287 8.02071e-05 1.53111e-05 8.47487e-05 -2.78651e-05 0.1025874414 -0.0722427341
335297990.0 -0.6610403629 0.5305714169 8.5982e-06 -5.33111e-05 0.0001748244 -0.0002913893 0.1012501301 -0.0735128101
340297960.0 -0.6560336793 0.5377090742 0.000165667 0.0001308536 5.74882e-05 -2.53735e-05 0.1000987218 -0.0748440803
345297930.0 -0.6505745371 0.5444953057 4.92704e-05 0.0001606199 0.0001509233 8.9532e-06 0.0987410784 -0.0765062253
350297900.0 -0.6446005473 0.5510867476 0.0001577932 4.25393e-05 2.95008e-05 3.76451e-05 0.0969641236 -0.077557077
355297870.0 -0.6380372018 0.5579851421 -0.000142509 -1.45708e-05 0.0002856293 7.32671e-05 0.0958156863 -0.0789960627
360297840.0 -0.6328172913 0.563989946 -3.40726e-05 0.0001003302 0.000239487 0.0001031396 0.0944146805 -0.0804822074
365297810.0 -0.627777374 0.5706643406 0.0001459741 -9.38941e-05 -3.9729e-06 6.3634e-06 0.0931252095 -0.0823379897
370297780.0 -0.6210992414 0.5762994941 0.0002490076 -8.1232e-06 8.07067e-05 4.22845e-05 0.0917964974 -0.0827645206
375297750.0 -0.6147283499 0.5833860108 0.000181286 5.9201e-06 0.0001241683 0.0001670185 0.0899716737 -0.0846286524
380297720.0 -0.6090632844 0.5886288193 0.0001227373 0.0001679079 0.0002065133 0.0001709299 0.0884777936 -0.0857709671
385297690.0 -0.603857927 0.59503385 -0.0001445153 -7.4128e-06 3.12257e-05 9.03779e-05 0.087087857 -0.0871163198
390297660.0 -0.5972302227 0.6013311642 -9.76988e-05 0.0001098546 0.0002130899 7.55183e-05 0.085708002 -0.0879914641
395297630.0 -0.5903946184 0.6074764272 4.63887e-05 0.0002824633 6.74924e-05 0.0001692299 0.0845259093 -0.0891898905
400297600.0 -0.5846219707 0.6138742817 0.0001483965 4.126e-06 0.0003350621 0.0002725099 0.0828409015 -0.0903711615
405297570.0 -0.5783614119 0.6196922585 -0.0001970677 -2.76248e-05 -0.0002290033 7.20917e-05 0.081141376 -0.0920279359
410297540.0 -0.5716858961 0.6255093705 6.38356e-05 5.69025e-05 0.000144334 4.88429e-05 0.0799226343 -0.0927820437
415297510.0 -0.5646031806 0.6310437975 5.92702e-05 4.71346e-05 0.0002336645 4.9244e-06 0.0782941493 -0.093897933
420297480.0 -0.5597687964 0.6373960583 9.9978e-05 -2.13397e-05 0.0001280088 0.0001281224 0.0770913563 -0.0947659273
425297450.0 -0.5518415662 0.6427342287 0.0001108842 4.18853e-05 -8.19177e-05 0.0002017373 0.0752835364 -0.0960199543
430297420.0 -0.5454484652 0.6480392139 0.0001282658 9.61977e-05 1.47629e-05 4.40321e-05 0.0736811072 -0.0971509913
435297390.0 -0.5391178666 0.6531117808 -2.52845e-05 -0.00016486 6.60199e-05 0.0001798195 0.0724057895 -0.0983704528
440297360.0 -0.5322751857 0.6588104502 0.0001249539 -6.84645e-05 -5.894e-06 0.0001081314 0.0711534941 -0.0990233309
445297330.0 -0.5251910519 0.664371689 2.51951e-05 -7.2293e-06 0.000181283 -1.17905e-05 0.0693476427 -0.1004480735
450297300.0 -0.5183727251 0.6691745762 2.24348e-05 0.0002273018 0.0001059116 -2.07478e-05 0.0678510528 -0.1009084587
455297270.0 -0.5113406599 0.6744733516 6.7405e-05 0.0003272726 0.0002382182 9.13043e-05 0.0662838491 -0.1018512889
460297240.0 -0.5056609968 0.680161928 0.0004189545 -5.49739e-05 0.0001787275 3.66422e-05 0.0647614474 -0.1028929747
465297210.0 -0.4978610634 0.6848467439 9.76825e-05 -9.967e-05 0.0002692743 -0.0001770833 0.0633786762 -0.1034286178
470297180.0 -0.4908181975 0.6896890284 0.0001467305 -0.0002114484 0.0002965027 -0.0001355006 0.0615456458 -0.1044848246
475297150.0 -0.4837909188 0.6942224076 0.0002297291 0.0001440214 0.0002479717 0.0001786309 0.0601932156 -0.1054017665
480297120.0 -0.4769745901 0.6995338346 0.0002002946 9.25333e-05 0.0001032256 8.53477e-05 0.059006101 -0.1056018969
485297090.0 -0.4694165698 0.7041405489 -1.89033e-05 7.71828e-05 0.0001333355 0.0001015154 0.0572038845 -0.1062647081
490297060.0 -0.4628300377 0.708551203 0.0001702856 -4.62359e-05 0.0001363259 -4.7851e-06 0.0553407054 -0.1074213341
495297030.0 -0.4550515172 0.7132018705 1.73243e-05 9.39925e-05 0.0001247906 1.29078e-05 0.0537542003 -0.1076919633
500297000.0 -0.4477261209 0.7180327772 9.34353e-05 -2.2583e-06 2.49104e-05 -6.25002e-05 0.0523628674 -0.1084762945
505296970.0 -0.4406667433 0.7225351185 0.0001724311 -8.54187e-05 0.0001908365 2.24443e-05 0.0504986192 -0.1093121613
510296940.0 -0.4334931255 0.7263955844 0.0004042017 -9.5465e-05 9.50329e-05 -0.0001002165 0.0489251436 -0.1097510168
515296910.0 -0.4248894266 0.7301297547 -0.0001441654 0.0001682398 0.0003207013 4.29688e-05 0.0475029544 -0.1100839693
520296880.0 -0.418850508 0.7352187353 0.0002328668 0.0001252644 2.52656e-05 8.14686e-05 0.0456073342 -0.1107334929
525296850.0 -0.4107887826 0.739095521 -0.0001911675 -3.90972e-05 0.0001220396 -1.48229e-05 0.0440946828 -0.1110570768
530296820.0 -0.4029389981 0.7438835449 0.0002159615 -7.20772e-05 7.18065e-05 -0.000166349 0.0424956997 -0.1117348731
535296790.0 -0.395997897 0.7474039062 6.20326e-05 1.47161e-05 1.27708e-05 -2.9156e-06 0.0403187819 -0.1122452813
540296760.0 -0.3883642272 0.7515757156 0.0001387145 9.91461e-05 -1.23426e-05 -0.0001062066 0.0388482133 -0.1124837234
545296730.0 -0.3806813803 0.7549913554 0.0003550287 -4.9121e-05 -0.0001068014 -3.19484e-05 0.0371614411 -0.1132852286
550296700.0 -0.3735281315 0.758872644 0.0003967157 0.0001454473 0.0002643973 -0.0001408476 0.0351797609 -0.113387531
555296670.0 -0.3652050706 0.7618291099 0.0003379425 -0.0001554419 0.0002444869 2.04668e-05 0.0339242713 -0.1136514286
560296640.0 -0.3581348292 0.7661116428 0.0001281976 -0.0001476996 1.67999e-05 -0.0001332758 0.031969463 -0.1139801235
565296610.0 -0.3504537015 0.7702032189 -8.61053e-05 -5.18222e-05 -4.30362e-05 -0.0001064025 0.030451204 -0.1144115944
570296580.0 -0.3424726646 0.772526491 0.0001793688 2.53611e-05 8.37903e-05 -9.07186e-05 0.0286153648 -0.1148775526
575296550.0 -0.3347411512 0.7765756642 -1.79367e-05 -0.0001757153 0.0003451612 0.0003703457 0.0268406235 -0.1148764034
580296520.0 -0.3266061708 0.7797232739 0.0001602844 -6.28157e-05 -7.7589e-06 0.0001580905 0.0250583345 -0.1152934529
585296490.0 -0.3192353303 0.7825081088 -5.9078e-06 8.57851e-05 5.65229e-05 2.3118e-05 0.0234664026 -0.1158995753
590296460.0 -0.3111525049 0.7856503778 0.0002600627 -0.0001838165 0.0001395054 -3.53826e-05 0.0218415522 -0.1156107081
595296430.0 -0.3029235704 0.7881013488 -6.87163e-05 -1.16743e-05 7.37555e-05 -0.0001027692 0.0200261864 -0.1160839402
600296400.0 -0.2952002484 0.7922456096 0.0001283543 0.0002087235 8.89322e-05 -6.11849e-05 0.0182741385 -0.1164802739
605296370.0 -0.2877773078 0.7946720531 8.49077e-05 0.0001754224 5.4374e-05 -5.40079e-05 0.0171594934 -0.1162891133
610296340.0 -0.2793655692 0.7973002624 7.23298e-05 -0.0001341152 0.0002054025 8.60039e-05 0.0150382648 -0.1164056774
615296310.0 -0.2709428434 0.7999317694 0.000154135 -4.00136e-05 -3.51693e-05 -0.0002011048 0.0136565098 -0.1167393804
620296280.0 -0.2634452628 0.802458309 0.0002025936 -0.0001982564 0.0002217216 2.59857e-05 0.0118981143 -0.1167287882
625296250.0 -0.2549127177 0.8052720548 3.35416e-05 -8.23567e-05 0.0002209734 -6.92236e-05 0.0103284462 -0.1167735093
630296220.0 -0.2463803566 0.8079231495 0.0001259936 -8.78431e-05 9.39057e-05 -0.0002498965 0.0083465714 -0.1166649941
635296190.0 -0.2393130463 0.8106847792 6.81872e-05 -7.81058e-05 0.0001342695 4.7721e-05 0.0070608109 -0.1167953553
640296160.0 -0.231634372 0.8123400819 0.0004669419 -0.0001559444 0.0001332149 -9.739e-07 0.0048737616 -0.1170117578
645296130.0 -0.2230608374 0.815184641 8.34711e-05 3.5404e-06 0.0001192333 9.84811e-05 0.0035886941 -0.1165238899
650296100.0 -0.2146479964 0.8170530801 -8.0692e-05 -1.90371e-05 -5.17659e-05 0.0001340218 0.0019976552 -0.1171480933
655296070.0 -0.2063966835 0.8194458841 0.0001053634 -0.0001363927 0.0001913945 -9.27352e-05 0.0006882562 -0.1162700539
660296040.0 -0.1983766903 0.8204008681 -4.94267e-05 -5.38181e-05 0.0002236764 -0.0001638717 -0.0009861092 -0.1164490257
665296010.0 -0.1900182888 0.8218869311 0.0001366239 -9.29541e-05 7.58447e-05 7.30115e-05 -0.0030789213 -0.1159975339
670295980.0 -0.1821938487 0.8244587213 8.96472e-05 6.88199e-05 0.0003347989 -5.17813e-05 -0.004955136 -0.1157950817
675295950.0 -0.1738779599 0.8265559603 0.0002967635 -7.26139e-05 1.06348e-05 2.3707e-05 -0.0065536537 -0.1155847191
680295920.0 -0.1654041493 0.8283488621 0.0001537732 -7.83282e-05 0.000177306 -4.52737e-05 -0.0078100035 -0.1153056633
685295890.0 -0.1571890865 0.830412351 0.0001049629 8.03672e-05 9.97833e-05 -2.6669e-06 -0.0096943254 -0.1149969906
690295860.0 -0.1489181064 0.8313923387 0.0002686997 0.0001139286 0.0002161298 -0.0001070111 -0.0110532625 -0.1143195894
695295830.0 -0.1408740063 0.8324299446 0.0002168888 3.71775e-05 0.0003031753 -1.14004e-05 -0.0131794232 -0.1143923632
700295800.0 -0.1322765657 0.8339191142 2.35248e-05 2.87386e-05 1.19454e-05 -0.0001240085 -0.0147603003 -0.1140403582
705295770.0 -0.1244209431 0.8356074454 9.29976e-05 -0.0002236142 0.0002880606 -0.0001340894 -0.0162289866 -0.1131794618
710295740.0 -0.1157767002 0.8361410885 -0.0001036519 -5.93381e-05 0.0002629737 -0.0001534585 -0.018155607 -0.113229063
715295710.0 -0.1073341645 0.8377212869 -2.19439e-05 -0.0001140875 9.7402e-06 3.04595e-05 -0.0194439609 -0.1130273948
720295680.0 -0.0994111645 0.8384331729 0.0002083673 9.5297e-05 0.000165695 -8.03256e-05 -0.0213049867 -0.1126104148
725295650.0 -0.0909063859 0.8397604483 0.0001518012 -0.0002154479 5.01425e-05 -0.0001114381 -0.0230050386 -0.1120453186
730295620.0 -0.082173066 0.8407650253 0.0001618989 -5.87725e-05 0.0002346561 4.58154e-05 -0.0247663214 -0.1116164703
735295590.0 -0.0744850356 0.8416804277 0.0001926246 0.0001746021 0.0002595609 0.0001248721 -0.0264063886 -0.1113229611
740295560.0 -0.0661725398 0.8427009692 0.0003114225 -6.97716e-05 2.97983e-05 0.0001443301 -0.0278665519 -0.1105584712
745295530.0 -0.0580501099 0.8427179552 0.000189802 -0.0001015258 8.65607e-05 6.24578e-05 -0.0293051759 -0.1102247599
750295500.0 -0.0495397888 0.8431741407 6.00821e-05 5.56391e-05 0.0002998355 -0.0001677943 -0.0311810401 -0.1095145364
755295470.0 -0.0407866715 0.8430170598 0.0001436373 -0.0001396796 0.0001609385 -5.50589e-05 -0.0326521963 -0.1094279275
760295440.0 -0.0331881544 0.8436518399 0.0002536611 0.0001191528 8.76712e-05 -0.0001919052 -0.0342045417 -0.1089658353
765295410.0 -0.0246836093 0.8441106275 0.0001069952 4.79701e-05 4.77796e-05 -0.000135541 -0.0356890761 -0.1082024213
770295380.0 -0.0161882554 0.8444165454 7.485e-05 -4.75587e-05 0.0001765763 -1.67715e-05 -0.0376606642 -0.1075122458
775295350.0 -0.0073473606 0.8446122783 2.80031e-05 -0.0001177066 -0.0001189352 5.82838e-05 -0.0392190066 -0.1065982312
780295320.0 0.000699459 0.844386397 0.0001300443 -6.36134e-05 0.0002626744 -0.0001617171 -0.0404978325 -0.1065223754
785295290.0 0.0089148333 0.8438147074 7.99897e-05 7.6285e-05 0.00027981 -0.0001538363 -0.0417290728 -0.1055347585
790295260.0 0.017444724 0.8440497723 5.679e-05 1.66477e-05 2.18215e-05 -3.26104e-05 -0.0431862868 -0.1048757913
795295230.0 0.02526449 0.8439578169 0.0003183702 0.0001191198 0.0001543933 -0.0002014141 -0.0449489396 -0.1043049555
800295200.0 0.0337487557 0.8435976356 0.0001468009 -7.97877e-05 6.15279e-05 -0.0001035431 -0.0461177284 -0.1032604229
805295170.0 0.042659323 0.8431920976 3.01657e-05 -3.45576e-05 0.0002803775 -0.0002480484 -0.0477476157 -0.102835052
810295140.0 0.0508099853 0.8425507406 0.0002001114 9.44865e-05 0.0001471546 -5.77565e-05 -0.0491427057 -0.1020283217
815295110.0 0.0591149984 0.8418865701 0.0001847288 -0.0001516569 -0.0001530861 -0.000150205 -0.0503558928 -0.1012614878
820295080.0 0.0671900243 0.8411731192 -3.58129e-05 -3.8717e-05 3.45542e-05 2.046e-07 -0.0518366997 -0.1002663821
825295050.0 0.0760301022 0.8407906166 0.0002238696 -0.0001328044 0.000243052 -8.19123e-05 -0.053229514 -0.0994712623
830295020.0 0.0838109615 0.839723977 6.83451e-05 -0.0001747671 0.0001003457 -3.27641e-05 -0.0544722792 -0.0985158988
835294990.0 0.091805242 0.8394976512 9.87294e-05 -4.67701e-05 0.0001676469 9.27133e-05 -0.0559727087 -0.0976165051
840294960.0 0.1004058065 0.8386672589 3.74406e-05 -0.0001302786 0.0001499435 -0.000206265 -0.0574529628 -0.0966316714
845294930.0 0.1082380555 0.8372222336 0.0004453903 -7.58382e-05 0.0003278565 -7.17423e-05 -0.058992788 -0.0957559459
