!Created with skrf (http://scikit-rf.org).
# Hz S RI R 50.0 
!freq ReS11 ImS11 ReS21 ImS21 ReS12 ImS12 ReS22 ImS22
300000.0 -0.2390413452 -0.0830204165 0.4714412346 0.0574189648 0.4670929461 0.0548141765 -0.2425707137 -0.0954612377
5299970.0 -0.2440742371 0.0070551209 0.4734794104 0.0048189214 0.4736552066 0.0053273366 -0.2438468273 0.0070708076
10299940.0 -0.2408832122 0.018858699 0.4752252574 0.005836627 0.4755801237 0.006604165 -0.2409647961 0.0201628331
15299910.0 -0.2369994936 0.0279419653 0.4793310466 0.007431235 0.4793282786 0.0078114453 -0.2360549962 0.0297945968
20299880.0 -0.2317815761 0.035440009 0.4837977587 0.008612618 0.4839669786 0.0082921991 -0.2308179433 0.0374751567
25299850.0 -0.2270397594 0.0418736054 0.4890935823 0.0074397611 0.4891392163 0.0077026542 -0.2249038336 0.0439838954
30299820.0 -0.2214475368 0.0471234972 0.4946744344 0.0052905196 0.4946042632 0.0055939836 -0.2192137788 0.049107039
35299790.0 -0.2161387258 0.0514566466 0.5000088425 0.0019835748 0.5002906576 0.0023249425 -0.2137897253 0.0533622014
40299760.0 -0.2116776642 0.0550616973 0.5050675222 -0.0016160098 0.5052052383 -0.0014579514 -0.2081667172 0.0562580959
45299730.0 -0.2065854527 0.0579340003 0.5093227133 -0.0062768566 0.5098782215 -0.006263375 -0.2032717399 0.0590178352
50299700.0 -0.202312925 0.0598067798 0.5144018363 -0.0121961441 0.5142505182 -0.0117873048 -0.1982990578 0.0607335701
55299670.0 -0.1984404161 0.0616681111 0.5178020087 -0.0182370012 0.5177091498 -0.0178454735 -0.1944788351 0.0621829787
60299640.0 -0.194224438 0.063565029 0.521290683 -0.0240977899 0.5212735245 -0.0238083966 -0.1902191527 0.0630528639
65299610.0 -0.1911968027 0.06476646 0.5238101223 -0.03083218 0.5240418614 -0.0304714844 -0.1871421856 0.0641867801
70299580.0 -0.1879697054 0.0662987323 0.5267401218 -0.0371764373 0.5264539867 -0.0371657616 -0.1837542967 0.0647297348
75299550.0 -0.184939746 0.0673993673 0.5282238707 -0.0438773523 0.5282938922 -0.0441975971 -0.1811333042 0.0654475781
80299520.0 -0.1825736445 0.0682634624 0.5305463866 -0.050904643 0.5305552175 -0.0507801823 -0.1785537535 0.0661731011
85299490.0 -0.180365929 0.0689500593 0.5318762215 -0.0574276147 0.5317679899 -0.0574707195 -0.1762218292 0.0661209484
90299460.0 -0.1778950936 0.069835204 0.5325531508 -0.0649525418 0.532822073 -0.0645264724 -0.173687721 0.0669361442
95299430.0 -0.1754673652 0.0707795937 0.5335764973 -0.0717769108 0.5335141055 -0.071741586 -0.1715161276 0.0673256437
100299400.0 -0.1738596174 0.0714920334 0.533653105 -0.078420326 0.5341019911 -0.0787920546 -0.1694098568 0.0672888641
105299370.0 -0.1721632623 0.0723541952 0.5341844244 -0.0854849777 0.5347221554 -0.0855785675 -0.1674141622 0.0681686131
110299340.0 -0.1702747909 0.073307379 0.5343520737 -0.092224733 0.5345995761 -0.0919270049 -0.1667579497 0.0683925415
115299310.0 -0.1688983404 0.073962581 0.5344751057 -0.0990726711 0.5342711962 -0.0992736373 -0.1648744734 0.0689123162
120299280.0 -0.1672890548 0.0747092418 0.5340005062 -0.1058299909 0.5343472911 -0.1058270782 -0.163566896 0.0694603
125299250.0 -0.1660177815 0.0756152718 0.5338724309 -0.1125514643 0.5337838053 -0.1124435398 -0.1625120656 0.0695971287
130299220.0 -0.1648325834 0.0767141446 0.5329837098 -0.1196649866 0.5333944031 -0.1192126488 -0.1614072631 0.0701291779
135299190.0 -0.163596635 0.0779432182 0.5330889751 -0.1260415655 0.5325628257 -0.12603642 -0.1597574295 0.0710186815
140299160.0 -0.1628358197 0.0791347587 0.5322913154 -0.1329648258 0.5316757325 -0.1330082496 -0.1586413146 0.0719481459
145299130.0 -0.1613505176 0.0799537101 0.5311392485 -0.1393576532 0.5307074647 -0.1390316772 -0.1578303748 0.0726800213
150299100.0 -0.1601796992 0.0810878576 0.5295611495 -0.1453955083 0.530102301 -0.1455691151 -0.1567498328 0.0739099287
155299070.0 -0.1593968743 0.08216994 0.5286036976 -0.1526283547 0.5287370387 -0.1524652912 -0.155832519 0.0747793483
160299040.0 -0.158239164 0.0834696842 0.5267836244 -0.1584211328 0.5270066031 -0.1590130214 -0.1553988483 0.0755369793
165299010.0 -0.1573084795 0.0846498757 0.5257433905 -0.1656756779 0.5257759348 -0.1652260689 -0.1541522444 0.0765928871
170298980.0 -0.1565462718 0.0856417204 0.5244025763 -0.1718762153 0.5246234166 -0.1715043037 -0.1533939851 0.0778976452
175298950.0 -0.1555916439 0.0869839825 0.5230138945 -0.1776550108 0.5222002715 -0.1778718007 -0.1528602752 0.078372076
180298920.0 -0.1545818968 0.0884091663 0.5207749471 -0.1840198974 0.5206859714 -0.1841096644 -0.1519037095 0.0796133532
185298890.0 -0.1532043568 0.0895259152 0.5188942266 -0.1903169944 0.5188657446 -0.1903136208 -0.1509036398 0.0811881908
190298860.0 -0.1527916092 0.0911102082 0.5171786575 -0.196766311 0.5175562988 -0.1966756502 -0.1502627126 0.0820017278
195298830.0 -0.1516321224 0.09189488 0.5147665001 -0.2027519054 0.5150482234 -0.2025774036 -0.149625153 0.0831344817
200298800.0 -0.1507756291 0.0935686062 0.5129169999 -0.2090100145 0.5134440584 -0.2092322717 -0.1490968264 0.0842951587
205298770.0 -0.1496939785 0.0950306124 0.5107152649 -0.2152041274 0.5105705846 -0.2147420096 -0.1482967113 0.0848945481
210298740.0 -0.1487441514 0.0961131397 0.5081891527 -0.2205087061 0.5085251868 -0.2206408683 -0.1474555755 0.0870697054
215298710.0 -0.1482555774 0.0976526206 0.506203935 -0.2268683603 0.5062564373 -0.2272946019 -0.1473969575 0.0878417747
220298680.0 -0.1468778922 0.0989831939 0.5035495227 -0.2326914426 0.5037609086 -0.2327306773 -0.1466972644 0.0888261184
225298650.0 -0.1462553571 0.1004661091 0.5011278526 -0.2386729335 0.501322755 -0.2384083969 -0.146213879 0.0897288572
230298620.0 -0.1452196004 0.1020122052 0.4989768454 -0.2439470877 0.4992548572 -0.2443080867 -0.1457875086 0.0908554803
235298590.0 -0.1440165738 0.1037297006 0.4962969477 -0.2503370284 0.4963505846 -0.2495545893 -0.144605383 0.092396293
240298560.0 -0.1431418036 0.1053246644 0.4939890818 -0.2561007458 0.4934611632 -0.2559469675 -0.1441172071 0.0937842283
245298530.0 -0.1421657122 0.1064649709 0.4908762074 -0.2616327013 0.4905674253 -0.2615180215 -0.1430093011 0.0943519136
250298500.0 -0.1407276603 0.1081138937 0.4876456628 -0.267350698 0.4872937044 -0.2670947693 -0.1424112422 0.0957577319
255298470.0 -0.1401897543 0.1093004017 0.484289155 -0.2725503844 0.4851690565 -0.2725393594 -0.1417295738 0.0966586548
260298440.0 -0.1390496367 0.1106552071 0.4818678618 -0.2790139559 0.4818217115 -0.2781200477 -0.1403890542 0.0982210953
265298410.0 -0.1375446557 0.1128340205 0.4786729264 -0.2842636452 0.4793498099 -0.2836516393 -0.1398335546 0.0996747051
270298380.0 -0.1365566096 0.1138582921 0.4760061553 -0.2893492009 0.4759289404 -0.2888260394 -0.138903939 0.100681655
275298350.0 -0.1353341203 0.1152472189 0.4727740478 -0.2948581469 0.4729504934 -0.2947445757 -0.1380222998 0.1019478164
280298320.0 -0.1339248806 0.1170656597 0.4698685547 -0.3004530379 0.4692829624 -0.3000902906 -0.1367864799 0.1031220669
285298290.0 -0.1328454608 0.1183736886 0.4663292149 -0.3052010809 0.4660833943 -0.3054437608 -0.1358466339 0.1041031356
290298260.0 -0.1317006817 0.1199503449 0.4633209347 -0.3106264882 0.4630610198 -0.3105650392 -0.1349719133 0.1057993152
295298230.0 -0.1302585261 0.1208168461 0.4598004352 -0.3157403492 0.459730945 -0.3157793742 -0.1337304312 0.1067039342
300298200.0 -0.1292956964 0.1225027834 0.4563931301 -0.3207736933 0.4564300925 -0.321416701 -0.1326943522 0.1077424219
305298170.0 -0.1278440578 0.1235483801 0.4525060229 -0.3266858279 0.4526203268 -0.32637518 -0.1312929589 0.1092138248
310298140.0 -0.1264181973 0.1250864903 0.4491679872 -0.3316905941 0.4496259203 -0.3315675364 -0.130556415 0.1104288119
315298110.0 -0.1253650209 0.126114525 0.445520364 -0.3370410729 0.4458532945 -0.3368036269 -0.1297395259 0.1112336143
320298080.0 -0.1236779056 0.127574259 0.4411649518 -0.342262778 0.4418743585 -0.341857849 -0.1283873591 0.1127772834
325298050.0 -0.1226478874 0.1288656619 0.4380781834 -0.3475553392 0.4377220066 -0.3470003567 -0.1277829357 0.114098676
330298020.0 -0.1212771644 0.129901664 0.4336531592 -0.352177624 0.4339663758 -0.3519988398 -0.1269624413 0.1151173608
335297990.0 -0.1202887804 0.1312763429 0.4300471851 -0.3565140329 0.4297467062 -0.3567699195 -0.1265212149 0.1167650302
340297960.0 -0.1192272068 0.1329644057 0.4256074346 -0.3617994375 0.4254610366 -0.361780673 -0.1247228135 0.1180173994
345297930.0 -0.1178353032 0.1345569857 0.4213131828 -0.3666384062 0.4212936249 -0.3660708979 -0.1242555953 0.1190938703
350297900.0 -0.1166524344 0.1355358629 0.4168336744 -0.3710838775 0.4170668305 -0.3705998589 -0.1232430634 0.1209903058
355297870.0 -0.115266393 0.1375069614 0.412936892 -0.3754740908 0.4134293187 -0.3754030495 -0.1224831618 0.1222176233
360297840.0 -0.1136187292 0.1390359521 0.409366317 -0.379769432 0.4095175382 -0.3797193839 -0.1212871292 0.1236463159
365297810.0 -0.1126226125 0.1403724174 0.4048842399 -0.3847759649 0.4051377377 -0.3846045571 -0.1201875639 0.1248109917
370297780.0 -0.1105670288 0.1412936172 0.4000794537 -0.3886038009 0.4011775735 -0.388366338 -0.1191610225 0.126311942
375297750.0 -0.1091805332 0.1428845614 0.3963918663 -0.3931295875 0.3968929357 -0.3932509985 -0.1177671937 0.127446673
380297720.0 -0.1077216585 0.1441821595 0.3919590327 -0.3976551386 0.3923473287 -0.3969559616 -0.1173465354 0.1287568494
385297690.0 -0.1062054033 0.1455010766 0.3873975919 -0.4020648055 0.3874236469 -0.401803423 -0.1156394664 0.1301229854
390297660.0 -0.1048355845 0.1467344875 0.3832728054 -0.4060762274 0.3830322765 -0.4056950976 -0.1150185249 0.1314040825
395297630.0 -0.103265789 0.1483430644 0.37883609 -0.4102821113 0.3788326881 -0.4107865189 -0.1132810422 0.1330768159
400297600.0 -0.101666093 0.1497826577 0.3738902025 -0.4147916388 0.3741252153 -0.4145925272 -0.112138019 0.1338686662
405297570.0 -0.1004170096 0.1508405951 0.3694665429 -0.4181512106 0.36966371 -0.4184060683 -0.1114727878 0.1350720254
410297540.0 -0.0983542449 0.1518791981 0.3650381516 -0.4226553392 0.3652570535 -0.4227360281 -0.1101789682 0.136711972
415297510.0 -0.0965972884 0.1531381534 0.3596688876 -0.4268124218 0.3604675776 -0.4270418256 -0.1089161849 0.1376013908
420297480.0 -0.0950111977 0.1547561644 0.355223575 -0.4306499571 0.3552758464 -0.4306998758 -0.1076581587 0.1382291804
425297450.0 -0.0934125055 0.1554529326 0.3510394345 -0.4344895259 0.3513362268 -0.4345552718 -0.1066736469 0.1400358074
430297420.0 -0.0917433704 0.1569345729 0.3459727345 -0.4378436443 0.346037107 -0.4376731416 -0.1053368089 0.1407321124
435297390.0 -0.0903527875 0.1580314242 0.3409511811 -0.4417609902 0.3409560834 -0.4418490566 -0.1031220255 0.1418734729
440297360.0 -0.0885664504 0.1590505776 0.336267989 -0.44535879 0.3363187729 -0.4457726047 -0.1021972263 0.1427742939
445297330.0 -0.0870166475 0.1599101308 0.3317538512 -0.4491648142 0.3317923311 -0.4489405071 -0.1005925656 0.1434503586
450297300.0 -0.0847913631 0.1609600239 0.3263380595 -0.4530209466 0.3264572968 -0.4530178015 -0.0993815068 0.1447801432
455297270.0 -0.0830594117 0.1621593636 0.3212632491 -0.4563701075 0.3217526449 -0.4563279105 -0.0980301994 0.1457296262
460297240.0 -0.0816453797 0.1631966189 0.3162444159 -0.4595912419 0.3167834331 -0.4597552763 -0.0965451887 0.147038429
465297210.0 -0.0794196098 0.164179277 0.3116154229 -0.4634362522 0.3115317492 -0.4634734097 -0.0950005978 0.1476812127
470297180.0 -0.0776626033 0.1651183711 0.3060944734 -0.466669149 0.306490386 -0.4668126012 -0.0936236091 0.1492630623
475297150.0 -0.0761157255 0.1658699222 0.3009834721 -0.4696998429 0.3011653392 -0.4694733912 -0.0918002987 0.1497915164
480297120.0 -0.0741250662 0.1675005232 0.2958537057 -0.4736010062 0.295924826 -0.4732396089 -0.0901562027 0.1512545242
485297090.0 -0.0723702259 0.1679491299 0.2910697899 -0.4760530041 0.2913990696 -0.4759005692 -0.0888017369 0.152050053
490297060.0 -0.0708706438 0.1690880918 0.2861660143 -0.4791942678 0.2859818091 -0.4794473047 -0.0873134021 0.1533142817
495297030.0 -0.0688866543 0.1698084176 0.2801419757 -0.4825025416 0.2807058957 -0.4822934633 -0.0863586021 0.1542814103
500297000.0 -0.0669072345 0.1707708979 0.2748035111 -0.4851389863 0.2748626577 -0.4852103897 -0.0845605648 0.1557147423
505296970.0 -0.0649111153 0.1716419046 0.2698379815 -0.4881602597 0.2695550423 -0.488225735 -0.083193533 0.1563608126
510296940.0 -0.0632005945 0.1726382297 0.2647678556 -0.4916171768 0.2645802333 -0.4916600157 -0.0812914978 0.1575183267
515296910.0 -0.0608167049 0.1734471786 0.2589499228 -0.494367629 0.2590185977 -0.4940538797 -0.0797859607 0.1584698212
520296880.0 -0.0593946262 0.1744385555 0.2541957332 -0.4973623734 0.2537959577 -0.4969346092 -0.0785167557 0.1592990131
525296850.0 -0.057137405 0.1747991033 0.247425427 -0.499492348 0.2488256308 -0.4994533635 -0.0770738637 0.1605002011
530296820.0 -0.055225582 0.1758366936 0.2427720099 -0.5023596919 0.2428451572 -0.5025510516 -0.075156317 0.1615328733
535296790.0 -0.0538255732 0.1763865474 0.2374522982 -0.504970533 0.2378562697 -0.5044588727 -0.0739235975 0.1620767292
540296760.0 -0.0516731397 0.1774248527 0.2324389004 -0.5074955254 0.2316084594 -0.507517909 -0.0724811203 0.1631734147
545296730.0 -0.0497121996 0.1782201168 0.2260793713 -0.5097507434 0.226381484 -0.5098313062 -0.0710405458 0.1639148826
550296700.0 -0.0475763568 0.1786708623 0.2206287969 -0.5123796203 0.2208700473 -0.5125247728 -0.0697646395 0.1651548604
555296670.0 -0.0458221237 0.1793894847 0.2150797933 -0.5143885992 0.215395507 -0.5144496362 -0.0679663961 0.1659015252
560296640.0 -0.0437472302 0.1804905389 0.2095477879 -0.5173341645 0.2097525315 -0.5170180643 -0.0661848652 0.1666656942
565296610.0 -0.0418556016 0.1808392185 0.2035527221 -0.5190747456 0.2044157499 -0.5187442646 -0.0649986311 0.1673130646
570296580.0 -0.0400819821 0.181404079 0.1983670614 -0.5218352066 0.1980120302 -0.5214341331 -0.0636052912 0.1685015937
575296550.0 -0.0381682279 0.1824065867 0.1927407807 -0.5240482851 0.1924408194 -0.5235241186 -0.0618463883 0.1691261242
580296520.0 -0.0357397897 0.1828501161 0.1866394389 -0.5261171526 0.1866667758 -0.5255960757 -0.0600636621 0.1696132926
585296490.0 -0.033932519 0.182794196 0.1813792656 -0.5269315271 0.1815495985 -0.5276799399 -0.0587664532 0.1704498903
590296460.0 -0.0315186147 0.1836663889 0.1750492484 -0.5288304024 0.1757726993 -0.5292065893 -0.0573204059 0.1710359975
595296430.0 -0.029451636 0.1841639801 0.1692531006 -0.5312073214 0.1696781841 -0.5307508745 -0.0555746399 0.1710979755
600296400.0 -0.0279521858 0.1845044468 0.1636856168 -0.5330163832 0.1641548779 -0.5329031044 -0.0542986758 0.1719437654
605296370.0 -0.0259286608 0.1850342844 0.1577942325 -0.5351737526 0.1581991357 -0.5347116651 -0.0521404876 0.172894023
610296340.0 -0.0238273387 0.1852918916 0.1519554842 -0.5358921766 0.1523771265 -0.5360954946 -0.0502146074 0.1734599357
615296310.0 -0.0212205777 0.1855615578 0.1460038059 -0.5377317137 0.1465359011 -0.5378665115 -0.0486956803 0.1738844613
620296280.0 -0.0195613858 0.1855166792 0.1405145321 -0.5391341208 0.1409537057 -0.5387382994 -0.0471737169 0.174477465
625296250.0 -0.0180623961 0.1859417752 0.1355134633 -0.5413380018 0.1349013075 -0.5411798061 -0.0443230406 0.1748866339
630296220.0 -0.0149093883 0.186576543 0.1284587182 -0.5426946462 0.1286391344 -0.5421165745 -0.0432791029 0.1759852193
635296190.0 -0.0138015912 0.186797948 0.1232276687 -0.543505414 0.1230663367 -0.5434874976 -0.0414765399 0.1761579683
640296160.0 -0.0118317934 0.1868905096 0.1170532354 -0.5448058439 0.1175178305 -0.5450603769 -0.0394654407 0.1765764796
645296130.0 -0.0092491717 0.1876012848 0.1111425091 -0.5459228434 0.111425763 -0.5457775921 -0.0380521684 0.1771287718
650296100.0 -0.0071108529 0.1876960215 0.1049111763 -0.5468584516 0.1056068157 -0.5473292855 -0.0359166202 0.1772624642
655296070.0 -0.0053711865 0.1878079906 0.0993580447 -0.5484772603 0.0995992567 -0.5481745404 -0.0342408428 0.1782236489
660296040.0 -0.0037334955 0.1877157883 0.0938316913 -0.5490891496 0.0937745105 -0.5493730061 -0.0322641522 0.1787477134
665296010.0 -0.0008901031 0.1877135875 0.0870155314 -0.5499490242 0.0876108396 -0.550171956 -0.0305774956 0.1796798306
670295980.0 0.0003198836 0.1881243942 0.0819214332 -0.5506111411 0.081792391 -0.5507083233 -0.0294516233 0.1797310863
675295950.0 0.0027356358 0.1884717909 0.0756755985 -0.5517431056 0.0758982274 -0.5513730146 -0.0275306545 0.1802106062
680295920.0 0.0048127938 0.1883470183 0.069300193 -0.5524885043 0.0691645958 -0.5527672751 -0.0255450567 0.181478431
685295890.0 0.0071061336 0.1889277779 0.0635372439 -0.553065251 0.0631534358 -0.5536122728 -0.0237416619 0.1815009043
690295860.0 0.0089286626 0.1888415647 0.0578377644 -0.5534584078 0.0576628667 -0.554320905 -0.0219732301 0.1827751474
695295830.0 0.0112441585 0.1886796157 0.0519066348 -0.5541942751 0.0515648356 -0.554377427 -0.0204835675 0.1827350238
700295800.0 0.0134487347 0.1884705169 0.0453708395 -0.5546760316 0.0451319083 -0.55471398 -0.0186873763 0.1831827858
705295770.0 0.0151151839 0.1890328215 0.0398728138 -0.5552251341 0.0402270872 -0.5557065595 -0.017277386 0.1837859052
710295740.0 0.0176997946 0.1889328484 0.0338402294 -0.5558986615 0.0341078207 -0.5558551467 -0.0152537578 0.1833360468
715295710.0 0.0190266865 0.1887312585 0.0285321593 -0.5561932582 0.0275959672 -0.5561579748 -0.0131722289 0.1841538883
720295680.0 0.021544676 0.1889054188 0.0220210027 -0.5564832079 0.0218046889 -0.5564271666 -0.0114755506 0.1850024619
725295650.0 0.0238255685 0.1889348418 0.0154100221 -0.5567861879 0.0159230889 -0.5565959477 -0.0103461348 0.1849351177
730295620.0 0.0260363555 0.1889577829 0.0098022612 -0.5562698095 0.0099716504 -0.5564573956 -0.0087650229 0.1848909378
735295590.0 0.027895514 0.188467463 0.0040099085 -0.5569143446 0.003689061 -0.5563889194 -0.0070332066 0.1849235858
740295560.0 0.0298478253 0.1884406855 -0.0021452712 -0.5566337834 -0.0021176621 -0.5567423822 -0.0044287288 0.1854025943
745295530.0 0.0317297351 0.1884372852 -0.0083109935 -0.5563931829 -0.0086240369 -0.5566394583 -0.0030585865 0.1853495621
750295500.0 0.0342410669 0.1879105278 -0.0143324929 -0.5559983629 -0.014051086 -0.5563295652 -0.0013154445 0.1857127244
755295470.0 0.0360354874 0.1874824894 -0.0202397235 -0.5562027778 -0.0200448093 -0.5563076413 0.0008282011 0.1851141664
760295440.0 0.0380482896 0.1872837264 -0.0263554291 -0.5562255787 -0.0261424189 -0.5563257553 0.0022960067 0.185451331
765295410.0 0.0402013561 0.1872770305 -0.0322594625 -0.5553087278 -0.0325689319 -0.5553944287 0.0044906963 0.1858893439
770295380.0 0.0418399861 0.1869395425 -0.0385064459 -0.5551230634 -0.0384633433 -0.5549809584 0.0058479096 0.1858345242
775295350.0 0.0438627831 0.1859387536 -0.0448261823 -0.5543024213 -0.0438066521 -0.5547876328 0.0069807231 0.1861149839
780295320.0 0.0460575182 0.1856754733 -0.0503922265 -0.5535753831 -0.0496153649 -0.5536905469 0.0093082265 0.185524393
785295290.0 0.0479055872 0.185295148 -0.0562456746 -0.5531986983 -0.0562111312 -0.5532786759 0.0116843409 0.1857443707
790295260.0 0.050920001 0.1854024472 -0.0624424982 -0.5525491598 -0.0614686125 -0.5525513992 0.0132490755 0.185947503
795295230.0 0.0522014948 0.1846480243 -0.0681420567 -0.5518315423 -0.0676574073 -0.5518677332 0.0153979191 0.1858669583
800295200.0 0.0538140808 0.1842280624 -0.0745023193 -0.5509344729 -0.0735103039 -0.5509849281 0.0170255375 0.1859186481
805295170.0 0.0562221718 0.183785305 -0.0798072472 -0.5500510498 -0.0799289938 -0.550381067 0.0189103435 0.1860256985
810295140.0 0.0582400889 0.1829886798 -0.0855511592 -0.5491148041 -0.085833349 -0.5492047857 0.0213078225 0.1857811358
815295110.0 0.0602184201 0.182353036 -0.0915779738 -0.5479593348 -0.0915487921 -0.5483689967 0.0227638938 0.1860182361
820295080.0 0.0619231432 0.1822349285 -0.0972550204 -0.5470399186 -0.0972940622 -0.5470708098 0.0248513126 0.185817874
825295050.0 0.0647424255 0.1814431673 -0.1032135609 -0.5460542667 -0.1031788218 -0.5460414456 0.0265480038 0.1858274934
830295020.0 0.0662109113 0.1811169344 -0.1093708713 -0.5450461628 -0.1088723338 -0.5445726046 0.0291430154 0.185690236
