!Created with skrf (http://scikit-rf.org).
# Hz S RI R 50.0 
!freq ReS11 ImS11 ReS21 ImS21 ReS12 ImS12 ReS22 ImS22
300000.0 -0.7741448512 -0.1449991461 -0.0004484707 0.0016934108 0.0001571064 0.0014202128 -0.0425964364 -0.0678180967
5299970.0 -0.785094205 -0.0074349035 -8.41576e-05 0.000117716 -0.0001154786 1.23238e-05 -0.0483982162 0.0144142403
10299940.0 -0.7877322834 -0.0042876566 4.40078e-05 4.10007e-05 0.0001218699 -1.85169e-05 -0.0429251888 0.0318238355
15299910.0 -0.7935608551 -0.0016368193 -0.0001263744 6.61405e-05 8.08742e-05 5.11122e-05 -0.0344923729 0.0453781377
20299880.0 -0.7998423093 0.0021881234 -8.09593e-05 -8.10956e-05 0.0001052247 9.01249e-05 -0.0249794936 0.0569378929
25299850.0 -0.8065316205 0.0078189818 -8.1523e-06 0.0001543699 -0.0001078717 -1.13762e-05 -0.014412275 0.0659690411
30299820.0 -0.8118410295 0.0160892183 8.21938e-05 -7.95828e-05 -0.0001303767 -5.78035e-05 -0.0033564428 0.0726582398
35299790.0 -0.8171724982 0.0250912937 2.41373e-05 -6.56389e-05 3.96672e-05 0.0001789677 0.0080907682 0.0769695702
40299760.0 -0.8215666619 0.0340754824 9.55451e-05 1.45504e-05 6.42914e-05 6.80031e-05 0.0193515563 0.0796997872
45299730.0 -0.8246426234 0.0442408615 -0.000104955 7.76178e-05 -5.19541e-05 2.13654e-05 0.0295293737 0.0812874366
50299700.0 -0.8268522405 0.0538322372 -0.0001420375 -3.22779e-05 4.02316e-05 9.15165e-05 0.0396456995 0.0812878596
55299670.0 -0.8292318104 0.0641976143 0.0001109647 2.90301e-05 3.5255e-05 -0.0001823772 0.0482696326 0.0803386486
60299640.0 -0.8300648669 0.0740703541 -5.18164e-05 1.07574e-05 -3.93854e-05 -0.0001648723 0.0569568509 0.0784346187
65299610.0 -0.830911497 0.0848080697 8.5273e-06 -4.66888e-05 0.0001316262 4.22079e-05 0.0644612354 0.0763297774
70299580.0 -0.8317372547 0.0944646936 2.94751e-05 -0.0001309931 -0.0001244947 -7.71142e-05 0.0714105254 0.0731640845
75299550.0 -0.8317090999 0.1050138081 -5.12782e-05 0.000228642 0.0001025336 2.03286e-05 0.077806014 0.069987095
80299520.0 -0.8313374551 0.1146217411 -1.94753e-05 5.00348e-05 -0.0001412278 -1.5365e-05 0.0826325203 0.0661019024
85299490.0 -0.8303892681 0.1241932408 -1.86978e-05 -2.49674e-05 -2.83962e-05 -5.98516e-05 0.0877444615 0.0624890956
90299460.0 -0.8295445754 0.1340665466 -0.000107115 -0.0002139412 -8.30105e-05 -2.76904e-05 0.0923471229 0.0586243392
95299430.0 -0.8289353803 0.142950626 0.0001065095 9.45777e-05 2.6075e-05 7.67405e-05 0.0964539247 0.0550107513
100299400.0 -0.8277694924 0.1530753202 -7.80677e-05 4.63586e-05 -2.92519e-05 9.64556e-05 0.0996239492 0.0507692986
105299370.0 -0.8267868925 0.1620236173 -3.58322e-05 0.0001910064 -6.00823e-05 -1.21201e-05 0.1033909742 0.0464421468
110299340.0 -0.8250519227 0.1713002445 6.55353e-05 0.0001779822 0.0001437973 0.0001371055 0.1054284734 0.0429821112
115299310.0 -0.8234202721 0.1806674092 0.0001826712 6.35143e-05 -0.0001465791 -3.6871e-05 0.1079730463 0.0386836215
120299280.0 -0.8221714978 0.1896106513 -0.0002776495 0.0001051706 -2.64723e-05 -2.17958e-05 0.1104885915 0.0351271275
125299250.0 -0.8203277564 0.1984709942 -1.10721e-05 0.0001877751 3.95848e-05 -1.30558e-05 0.1123273004 0.0309240059
130299220.0 -0.8187895512 0.2076024506 -9.88289e-05 0.0002810074 -0.0001331386 -0.0001156336 0.1135085369 0.0274557309
135299190.0 -0.816338683 0.2167811992 0.0001047537 -0.0001100957 0.000142364 6.02478e-05 0.1151530068 0.0236317002
140299160.0 -0.8148068804 0.2260279034 0.0001291375 0.000124021 -0.0001332438 0.0001675843 0.116552207 0.020012788
145299130.0 -0.811940963 0.234209997 0.0001632822 2.48337e-05 8.28801e-05 6.3436e-05 0.1169898085 0.016426628
150299100.0 -0.809907227 0.2432063314 -3.38653e-05 -2.10367e-05 -3.6722e-05 0.0002822349 0.1182637787 0.0128764421
155299070.0 -0.8079804756 0.2520727409 9.96869e-05 -1.04477e-05 4.39583e-05 0.0001880141 0.1189333998 0.0095760041
160299040.0 -0.8048895407 0.261420243 -0.0001734155 3.8275e-05 9.37967e-05 0.0001644961 0.1195320263 0.006148431
165299010.0 -0.8025857678 0.2696524432 8.06893e-05 -2.92238e-05 4.4646e-05 8.94195e-05 0.1198677895 0.0028109082
170298980.0 -0.7995201453 0.277961673 0.0001286486 -3.93998e-05 0.0001919344 0.0002342126 0.1202856284 -0.000113971
175298950.0 -0.7968405113 0.2871688635 -8.80614e-05 0.0001000927 6.17399e-05 8.7413e-06 0.1205802319 -0.0034686729
180298920.0 -0.7935061785 0.2948776573 -2.88074e-05 3.03145e-05 -0.0001294573 -0.0001911933 0.1207671613 -0.0064701657
185298890.0 -0.7906420951 0.3041987477 3.34629e-05 0.0002152218 -4.25282e-05 4.18173e-05 0.1203345805 -0.0098403149
190298860.0 -0.7875956551 0.3122947694 -3.29978e-05 0.0001221209 -0.000126905 -9.56227e-05 0.120692007 -0.0123375286
195298830.0 -0.7840718539 0.3210702231 1.7748e-05 -4.458e-05 0.0001047337 0.0001333264 0.1204405529 -0.0150844248
200298800.0 -0.7811344781 0.3297394078 4.61398e-05 -7.1155e-06 -4.13203e-05 0.0001880151 0.1204378933 -0.0180343219
205298770.0 -0.7773039668 0.3374874645 -6.27707e-05 0.0001550844 9.73682e-05 -7.69433e-05 0.1199859811 -0.0205866696
210298740.0 -0.7739004776 0.345793003 -4.52941e-05 5.08822e-05 0.0001097615 9.8794e-06 0.1199432561 -0.0234094877
215298710.0 -0.7704927105 0.3541451108 3.92401e-05 -1.93096e-05 -1.39545e-05 0.0001140124 0.1191015663 -0.025760755
220298680.0 -0.7669308955 0.3625979251 0.0001028684 0.0001387875 0.0001069047 -9.4816e-06 0.1191230908 -0.0279568528
225298650.0 -0.7630671079 0.3710812845 4.26e-07 8.0016e-06 6.45142e-05 2.67288e-05 0.1179944496 -0.0304513618
230298620.0 -0.7589438437 0.3788194189 -0.0001538259 -3.1425e-06 0.0002560501 0.0001464434 0.1180830268 -0.0333905394
235298590.0 -0.7547324778 0.3873087416 9.62671e-05 0.0001039744 -0.0001542975 8.07089e-05 0.117169055 -0.0355793065
240298560.0 -0.7510600409 0.3950236799 0.0001177577 2.5793e-05 4.0903e-05 -2.96839e-05 0.1164174022 -0.0374310243
245298530.0 -0.746691645 0.4033024103 -5.91397e-05 0.0001569141 8.29249e-05 -5.38653e-05 0.1158946647 -0.0399085332
250298500.0 -0.7426201669 0.4105590075 -1.41334e-05 0.0001694273 8.10472e-05 -0.0001191723 0.1155181626 -0.0420271029
255298470.0 -0.737577705 0.4187386259 5.39753e-05 9.57134e-05 -8.77335e-05 0.000108111 0.1145162255 -0.0443525464
260298440.0 -0.7342948826 0.4263508471 5.0618e-05 1.82606e-05 -6.00046e-05 -2.72272e-05 0.1136761 -0.0468226297
265298410.0 -0.7291105386 0.4343087309 -1.92681e-05 0.000129774 6.24492e-05 1.74314e-05 0.1126364867 -0.0485211643
270298380.0 -0.7246818848 0.4417136619 4.93383e-05 5.48459e-05 6.96613e-05 3.57581e-05 0.1122400034 -0.0507340515
275298350.0 -0.7194666241 0.4495436435 0.0001619817 0.0003077783 -5.59354e-05 -2.01546e-05 0.1111062101 -0.0525117245
280298320.0 -0.7151703245 0.4565716728 0.0001350301 -7.94143e-05 -1.55676e-05 -4.73837e-05 0.1103646412 -0.0546728035
285298290.0 -0.7103302496 0.4645124928 0.0001169049 7.51695e-05 -8.9662e-06 0.0002100624 0.1092242456 -0.0561876898
290298260.0 -0.705984624 0.4713972074 0.0001011095 -6.80029e-05 0.0001369264 0.0001377129 0.1090167175 -0.0584483284
295298230.0 -0.7008914236 0.4797193797 -3.08282e-05 9.50721e-05 9.63054e-05 -0.0001516122 0.1079573472 -0.0599438883
300298200.0 -0.6951770742 0.4863470328 0.0002186151 9.20223e-05 0.0001018406 5.53609e-05 0.1065327192 -0.061791199
305298170.0 -0.6902268312 0.494482342 3.3152e-05 -3.0893e-06 0.0001331413 -8.37173e-05 0.1060654553 -0.0633102147
310298140.0 -0.6842040174 0.501138436 5.57128e-05 6.6891e-06 0.0001023361 -0.0001424267 0.1049216838 -0.0650255548
315298110.0 -0.6794030322 0.508024747 0.0002975019 -6.89641e-05 2.8689e-05 -7.68172e-05 0.1042626291 -0.0669535763
320298080.0 -0.6741167511 0.5152797552 -6.4007e-06 -5.42148e-05 0.0001411545 0.0001904147 0.1029546075 -0.0690767232
325298050.0 -0.668784861 0.5223467381 6.33382e-05 -4.9895e-06 -8.04826e-05 -4.6933e-06 0.1014916181 -0.070692909
330298020.0 -0.6629027392 0.5292590857 0.0001450892 6.32181e-05 0.0002091708 0.0001769006 0.1004237772 -0.0725628847
335297990.0 -0.6569334108 0.5363399392 0.0002517111 1.64515e-05 0.0001636757 0.0001175143 0.098783329 -0.0739629827
340297960.0 -0.6523118912 0.5427440627 -3.80259e-05 8.20575e-05 0.0001202377 1.59104e-05 0.0976419802 -0.0755864709
345297930.0 -0.6461586657 0.5486390304 6.94132e-05 -0.0001345061 -0.0001179636 4.22942e-05 0.0959156017 -0.0769105379
350297900.0 -0.640317365 0.5559585352 0.0001534223 0.0001188658 8.12497e-05 0.0001132067 0.094894815 -0.0781788294
355297870.0 -0.6337807165 0.5624400592 0.0001463891 -3.6513e-06 7.07717e-05 0.0001005071 0.0932772222 -0.0794009357
360297840.0 -0.6285118533 0.5689188481 0.0002911044 0.0001344855 0.0002113365 -0.0001074629 0.0920963851 -0.0805931985
365297810.0 -0.6225974317 0.5762064527 4.05562e-05 4.6042e-06 0.0001846169 0.000219232 0.0906817848 -0.0819622901
370297780.0 -0.6158610283 0.5818175834 -3.52868e-05 -5.22414e-05 1.60443e-05 0.0001939438 0.0892883033 -0.0830953706
375297750.0 -0.6101239857 0.5888854678 -1.04301e-05 0.0001328845 6.58369e-05 0.0002058397 0.0879854014 -0.0844484362
380297720.0 -0.6042642034 0.5948718731 0.0003068554 0.0002161949 0.0001734668 0.0001384796 0.0868317996 -0.0852490339
385297690.0 -0.5976832811 0.6007154814 0.0001241252 -0.0001160363 4.223e-05 0.0001960792 0.0854392772 -0.0862111069
390297660.0 -0.5912805654 0.6074235541 -1.11669e-05 -0.0001164802 0.0001683887 0.0001042276 0.0838116496 -0.0878282983
395297630.0 -0.5847613493 0.613156896 -1.43967e-05 -2.54458e-05 0.0003056696 4.01307e-05 0.0825085515 -0.0887685891
400297600.0 -0.5788252699 0.6192159755 -4.30619e-05 -8.51716e-05 0.0002180649 0.0001344436 0.0807696532 -0.0898190637
405297570.0 -0.5724462132 0.6254363946 0.0001285829 -0.0001397772 0.0001520591 0.0001307229 0.0796263297 -0.090824723
410297540.0 -0.5655654425 0.6308659374 0.0001270358 3.645e-05 2.35662e-05 0.0001015267 0.0779121756 -0.0916182888
415297510.0 -0.5596254086 0.6371659586 0.0001998701 -0.0001220443 0.0001429793 -0.0001038888 0.0766103236 -0.0927105306
420297480.0 -0.5513974206 0.6422286612 0.0002290067 6.20415e-05 0.0002012126 0.0001770611 0.0750765682 -0.0937834953
425297450.0 -0.5456878389 0.6480957873 -5.38637e-05 0.0002043691 0.0001227034 0.0001668407 0.074036543 -0.0948573934
430297420.0 -0.5396738675 0.653574887 0.0002045135 0.0001438377 9.09936e-05 0.0001263541 0.0722520048 -0.0955761471
435297390.0 -0.5324852302 0.659204175 0.000239789 1.00425e-05 0.0002079463 7.33754e-05 0.0708665462 -0.096114357
440297360.0 -0.5255700561 0.6646230424 0.0003015892 0.0002139415 4.65342e-05 0.000146264 0.0687592531 -0.0975508051
445297330.0 -0.5183684117 0.6699966816 6.09666e-05 -7.40177e-05 0.0001990804 -4.269e-06 0.0674283851 -0.0983439668
450297300.0 -0.5112286634 0.6745017607 -5.11502e-05 6.75297e-05 -9.02983e-05 9.94268e-05 0.0657091556 -0.0987853892
455297270.0 -0.5041880143 0.679927678 0.0002640928 -0.0001508034 -8.9305e-05 -0.0001144482 0.0644407862 -0.0996904956
460297240.0 -0.4981147052 0.685089404 0.0001513466 6.48372e-05 0.0001830686 -2.6651e-05 0.0633208724 -0.1004036958
465297210.0 -0.4899727546 0.6909938982 1.58723e-05 4.87769e-05 0.0001785394 -2.27904e-05 0.061065857 -0.1016489852
470297180.0 -0.4827814854 0.6945404783 0.000168046 3.49978e-05 -1.66423e-05 2.50688e-05 0.0593626937 -0.1020343852
475297150.0 -0.4756663925 0.7002562273 0.0002654442 0.0001216387 2.96135e-05 0.000233249 0.0584528039 -0.1025003987
480297120.0 -0.4691886511 0.7049253315 1.2951e-06 5.80176e-05 0.0001362278 -0.0001312466 0.0564140399 -0.103223325
485297090.0 -0.4611085182 0.7092759216 0.0002501687 0.0002185122 0.000121825 9.9297e-06 0.0545911235 -0.1038367678
490297060.0 -0.4537951836 0.7142512947 -8.3034e-06 0.0001821719 0.0002115571 2.7865e-05 0.0528359937 -0.1045754527
495297030.0 -0.4471537336 0.719065485 -0.0001190751 -1.92107e-05 0.0001058036 -4.40682e-05 0.0516265525 -0.1053139392
500297000.0 -0.4386969854 0.7236183585 1.80688e-05 -2.53652e-05 2.3999e-05 -3.4067e-05 0.0497782728 -0.1056893369
505296970.0 -0.4312732218 0.7272004872 0.0003310135 0.0001263084 2.64749e-05 0.0001900143 0.0480422339 -0.1062891865
510296940.0 -0.4243440321 0.7321274461 0.0001493247 -5.75992e-05 0.0001143837 0.0001039258 0.0464725093 -0.1065221474
515296910.0 -0.416626235 0.7362860992 4.5998e-05 -8.53909e-05 0.0002310352 0.0001777897 0.0448411947 -0.1072646464
520296880.0 -0.4088854982 0.7406320977 -0.0002365828 0.0001580585 0.0002676439 -1.67258e-05 0.0433382865 -0.1077793694
525296850.0 -0.4014950266 0.7447136645 0.0001828444 2.60316e-05 6.99103e-05 1.25113e-05 0.0420450004 -0.1084759868
530296820.0 -0.3938170415 0.7475766726 0.0002681856 3.38802e-05 0.0001683956 -4.45687e-05 0.0396085602 -0.1086653417
535296790.0 -0.3859160309 0.7524866533 -0.0001263403 0.0002452019 0.0002512019 0.0001838254 0.0381325204 -0.1095261343
540296760.0 -0.3781432203 0.7557956922 0.000351579 -4.8091e-05 0.0002502767 2.14312e-05 0.0362769871 -0.1096653518
545296730.0 -0.3708060483 0.7595785201 -0.000137603 -0.0001363543 9.14424e-05 -1.51817e-05 0.0345972505 -0.11043472
550296700.0 -0.3629327611 0.7639253158 0.0001848821 -0.0001370684 4.77294e-05 8.31653e-05 0.0327386255 -0.1104920654
555296670.0 -0.3544342024 0.7669542418 0.0001693129 0.0001099854 7.75073e-05 -7.67045e-05 0.0309615337 -0.1106635165
560296640.0 -0.347064891 0.7707391764 7.53428e-05 2.45318e-05 0.0001438064 9.81215e-05 0.0298572828 -0.1110175819
565296610.0 -0.3399799489 0.7737461901 0.0001050949 -0.0003005163 8.38228e-05 -0.0001012037 0.0279996673 -0.1113795661
570296580.0 -0.3320409346 0.7772240952 0.0003807479 -8.20801e-05 0.0001070669 -1.04171e-05 0.0261074304 -0.1112417776
575296550.0 -0.3235047332 0.7805554615 0.000212105 -9.9965e-06 0.0001992882 -8.5904e-06 0.0247834854 -0.1117703227
580296520.0 -0.3156479803 0.7841719413 0.0002842317 0.0001929512 0.0002441251 -3.92536e-05 0.0230631034 -0.1121391605
585296490.0 -0.3076344351 0.7865608455 0.0001302907 8.80941e-05 -2.79848e-05 -0.0001078588 0.0208882302 -0.1127439537
590296460.0 -0.2997612396 0.789680337 1.45535e-05 -3.04487e-05 -2.50214e-05 0.0002068267 0.0195421653 -0.1125443651
595296430.0 -0.2919117436 0.793283947 0.0002293624 0.0001357769 -2.01905e-05 -1.12377e-05 0.0174886563 -0.1127320311
600296400.0 -0.2831335561 0.795669887 0.00013511 0.0002701548 0.0001088111 -9.25456e-05 0.0160540358 -0.1127035878
605296370.0 -0.2753564241 0.7989063838 7.06896e-05 9.97165e-05 0.0001413031 -0.0001233393 0.0145280958 -0.1127699084
610296340.0 -0.2674049297 0.8015853463 0.0003385394 -6.19285e-05 0.00017689 9.11681e-05 0.0127636807 -0.1130378089
615296310.0 -0.2595333936 0.8042180154 8.37823e-05 -0.000102008 7.60047e-05 5.68799e-05 0.0110626224 -0.1133372842
620296280.0 -0.2507474195 0.8062005196 9.98271e-05 0.0001718454 0.0001007877 7.6435e-06 0.0090509763 -0.1136442454
625296250.0 -0.2427708949 0.8093314553 9.7832e-06 9.6337e-06 3.16433e-05 -7.1237e-05 0.0075774271 -0.1127913247
630296220.0 -0.2340548272 0.8115656321 9.10102e-05 0.0001253987 7.34636e-05 4.45255e-05 0.0058628018 -0.1129715079
635296190.0 -0.226805462 0.8137895669 0.0002473351 -2.06782e-05 -2.88391e-05 3.2605e-05 0.0040762346 -0.1126961981
640296160.0 -0.2176411242 0.8154238805 6.14579e-05 -8.1581e-06 -8.28637e-05 -0.00017277 0.002287328 -0.1132580857
645296130.0 -0.2101727545 0.8180364278 0.0002006173 -0.0001205684 9.42907e-05 -0.0001126698 0.0007161147 -0.1132607406
650296100.0 -0.2018320377 0.8207317413 0.0001804075 -4.19759e-05 0.0002429128 -1.50886e-05 -0.0013088016 -0.1125961405
655296070.0 -0.1925835687 0.8222798178 6.05447e-05 -0.0002698778 0.0002153549 8.87951e-05 -0.0029452185 -0.1125744071
660296040.0 -0.1856969495 0.8243133512 0.0001355634 7.3103e-06 7.48651e-05 -8.98951e-05 -0.0045117525 -0.1126049097
665296010.0 -0.1768098696 0.8258332606 9.8473e-05 8.1707e-06 0.000167016 -3.75201e-05 -0.0061512685 -0.1123071606
670295980.0 -0.1680743513 0.8277609065 0.0002001204 -5.11572e-05 0.0001639842 0.0001464695 -0.007612144 -0.1119776167
675295950.0 -0.1603023867 0.8287444059 0.0003522178 -0.000140497 0.0002591176 7.75216e-05 -0.0093001586 -0.1118592149
680295920.0 -0.1512197285 0.8309176444 0.0002178244 -1.17903e-05 0.0001457568 -1.31278e-05 -0.0108948724 -0.1115497861
685295890.0 -0.1426435867 0.8319312643 0.0003252708 5.847e-06 0.0003483142 -3.38241e-05 -0.0128101293 -0.1117466576
690295860.0 -0.1341128861 0.8338714609 0.0002504229 0.0001024988 0.0001921526 0.0001933447 -0.0143532253 -0.1112451254
695295830.0 -0.1258026386 0.8341291036 0.0001952172 -1.41699e-05 0.0001685736 -7.06527e-05 -0.0161836004 -0.1109774809
700295800.0 -0.1179294801 0.8355989179 0.0002149439 -0.0001482847 0.0003361691 -0.0001434999 -0.0176903925 -0.1104740845
705295770.0 -0.1085899654 0.8374505793 5.48472e-05 -3.03914e-05 0.0003074933 4.38403e-05 -0.0193500938 -0.1101011288
710295740.0 -0.1009870806 0.8380062113 0.0002145726 -0.000114193 0.0001722092 8.647e-06 -0.0212150374 -0.1093736877
715295710.0 -0.0933223225 0.8391670391 0.0001211563 -7.25121e-05 0.0001966637 0.0001363861 -0.0229306759 -0.1092306722
720295680.0 -0.084214579 0.839550476 -4.033e-07 -0.000288732 6.53827e-05 3.91607e-05 -0.0245011952 -0.1090407847
725295650.0 -0.0748344182 0.8407229521 0.0001310437 4.78267e-05 0.0002145571 6.56152e-05 -0.0256287517 -0.1086367042
730295620.0 -0.0671631389 0.8414026955 0.0001985231 -0.0002123297 0.0002247087 -9.51547e-05 -0.0277602427 -0.1081061616
735295590.0 -0.0583049732 0.8414409222 0.0002848644 -2.75029e-05 0.0002158688 0.0001258716 -0.0294257844 -0.1074814499
740295560.0 -0.0500067583 0.8426230659 0.0001237063 9.97897e-05 0.0001426523 1.91654e-05 -0.0306411592 -0.1072093422
745295530.0 -0.0418504024 0.8429739544 0.0001762795 9.70424e-05 0.0001838165 -0.0002156392 -0.0326288464 -0.1066589547
750295500.0 -0.0338388986 0.8434207572 0.0002037463 5.75198e-05 0.0001075833 -0.0001075714 -0.0342766995 -0.1062880807
755295470.0 -0.0245376207 0.8436543549 2.97308e-05 -0.0001036366 -4.68616e-05 -1.99119e-05 -0.0358716419 -0.1052339375
760295440.0 -0.0161396544 0.8437508385 0.0002288354 8.83251e-05 0.0002312388 9.83973e-05 -0.0372763844 -0.1048882927
765295410.0 -0.0075433731 0.8438479525 9.63769e-05 2.7269e-05 0.0002739379 -8.20681e-05 -0.0386442852 -0.1043348832
770295380.0 0.0005577156 0.8444074865 0.0001981521 -0.0003028289 0.0001039951 -0.0001511079 -0.0402248449 -0.1033653533
775295350.0 0.0086330421 0.8441527003 0.0002362331 1.62088e-05 8.30006e-05 1.81396e-05 -0.0416782594 -0.1032696117
780295320.0 0.0178589171 0.8438141242 0.0001337415 -0.0002132293 -2.72409e-05 2.44844e-05 -0.0436070857 -0.1023344641
785295290.0 0.0258620593 0.8440456562 0.000116242 9.3507e-06 9.38863e-05 0.0001417865 -0.0453961293 -0.1013933678
790295260.0 0.0344128418 0.8429581536 0.0003708419 -0.0001493487 0.0001497779 6.7823e-06 -0.0464020654 -0.1010356339
795295230.0 0.0428739373 0.8430566254 0.0001278838 3.74452e-05 0.0001210325 6.1189e-05 -0.0476588416 -0.0999597633
800295200.0 0.051653867 0.8427944341 6.08524e-05 -0.0001270621 2.56166e-05 0.0001453986 -0.0496031493 -0.0993783044
805295170.0 0.0597176862 0.8420861907 7.40455e-05 4.21449e-05 0.0001041827 -7.40292e-05 -0.0509661035 -0.09877037
810295140.0 0.068127574 0.8412300932 8.49747e-05 -8.9836e-06 0.0001003874 -0.000147108 -0.0522515397 -0.0974762426
815295110.0 0.0769899095 0.8397603488 0.0001200316 3.7789e-05 0.0001902953 4.46187e-05 -0.0540159528 -0.0966931149
820295080.0 0.0853626415 0.8389045603 0.0001566145 9.4162e-06 0.0003085572 -0.0001714811 -0.0556059312 -0.0961898161
825295050.0 0.0936589033 0.8385628748 0.0001108357 -0.0002544832 -4.7288e-05 -0.0002693496 -0.0568813348 -0.0954449783
830295020.0 0.1020098764 0.8378475956 0.0002425203 -0.0002275159 0.0001043596 -1.9586e-06 -0.0585288433 -0.0944659864
835294990.0 0.1104198693 0.836741379 0.0002428359 -8.5534e-06 -3.17899e-05 -0.0001691494 -0.0596543288 -0.0937085691
840294960.0 0.1187167918 0.8353247716 5.8903e-05 -7.6814e-05 4.85858e-05 -0.0001672904 -0.0611218607 -0.0921315562
845294930.0 0.1274141216 0.834777954 0.0002682244 -7.75815e-05 6.1172e-06 4.33808e-05 -0.0626312617 -0.0913099603
850294900.0 0.1352168088 0.8328980591 0.0002173922 -0.0002511995 -4.305e-07 4.3757e-06 -0.0638249129 -0.0904171479
