!Created with skrf (http://scikit-rf.org).
# Hz S RI R 50.0 
!freq ReS11 ImS11 ReS21 ImS21 ReS12 ImS12 ReS22 ImS22
300000.0 -0.2377362901 -0.1195360463 0.4659405677 0.0782570362 0.4654413177 0.0811098291 -0.2343613238 -0.1271619134
5299970.0 -0.2452494222 0.0054513408 0.4734851795 0.0061340291 0.4740872943 0.0058323681 -0.2437108708 0.0052281933
10299940.0 -0.2418011625 0.018381977 0.4760371112 0.006840974 0.4760384777 0.0072066333 -0.2398879062 0.017948179
15299910.0 -0.2368868672 0.0282226228 0.4791892859 0.0079977827 0.4797781163 0.0088033705 -0.2360025147 0.0276996834
20299880.0 -0.2314183692 0.0361232639 0.4843526771 0.0082860028 0.4843805808 0.008657156 -0.2308899619 0.0351311951
25299850.0 -0.2258059806 0.0425875795 0.489542164 0.0082617757 0.4900554671 0.0075514745 -0.225878066 0.0415893071
30299820.0 -0.2201821384 0.0477644617 0.494949917 0.0055919659 0.4951421626 0.0050566648 -0.2204379639 0.0469377016
35299790.0 -0.2142567365 0.0518403123 0.500041688 0.0025403579 0.5006000949 0.0023562356 -0.2154183436 0.0515740922
40299760.0 -0.2091873391 0.0546996958 0.5057590842 -0.0015692699 0.505892617 -0.0015976763 -0.2107750745 0.0546439277
45299730.0 -0.2040472199 0.0572213921 0.51062854 -0.0058781711 0.5107588184 -0.0065455586 -0.2055752979 0.057539183
50299700.0 -0.1991074796 0.0590191437 0.5145218151 -0.011851932 0.5145790396 -0.0121417516 -0.2010721381 0.0601223965
55299670.0 -0.1950447789 0.0604724364 0.5183292334 -0.0169746075 0.5181767008 -0.0180057688 -0.1972423087 0.0620661324
60299640.0 -0.1907952588 0.061627606 0.5219403393 -0.0242833001 0.5219317511 -0.0240241412 -0.1935475783 0.0632554183
65299610.0 -0.1872435748 0.062755258 0.5249184309 -0.0303396467 0.5247290053 -0.0305737254 -0.1897816919 0.0646272252
70299580.0 -0.1838250431 0.0630345056 0.5268728956 -0.0366970949 0.5273197699 -0.0372468132 -0.1868926882 0.0659013345
75299550.0 -0.1809503965 0.0636737538 0.5289707776 -0.0440358335 0.5291392916 -0.0439652466 -0.1838032841 0.0670650564
80299520.0 -0.1784127761 0.0647141753 0.5314013631 -0.0509787293 0.5311443455 -0.0507467556 -0.1812539077 0.0683271966
85299490.0 -0.1758608038 0.064808218 0.5323549447 -0.0578294916 0.532672872 -0.0576479646 -0.1790585164 0.0686734816
90299460.0 -0.1732472333 0.0652884216 0.5326905252 -0.0644158495 0.5335756942 -0.0645597722 -0.176527389 0.0698724801
95299430.0 -0.1713289462 0.0655920071 0.5340963995 -0.0716584427 0.5345773167 -0.0719883821 -0.1748300591 0.0707232887
100299400.0 -0.1695388739 0.0659530958 0.5349489149 -0.0783287057 0.5346648867 -0.0785908317 -0.1730850639 0.0718424789
105299370.0 -0.1673969627 0.0665059237 0.5346753114 -0.0849626688 0.5356260147 -0.0852713052 -0.1710260466 0.0721709183
110299340.0 -0.1658304467 0.0669893762 0.5351310643 -0.091773242 0.5356410775 -0.0915865237 -0.1696562734 0.0733283582
115299310.0 -0.1646391592 0.0677876878 0.5353808354 -0.0986332278 0.5352041419 -0.0988051892 -0.1679418561 0.0742966996
120299280.0 -0.1633719558 0.0680955109 0.5353384855 -0.106507712 0.5349141833 -0.1058531885 -0.166679114 0.0747273668
125299250.0 -0.1619097842 0.068617611 0.5346721671 -0.1123960928 0.534737451 -0.1121180283 -0.1650208951 0.0760187143
130299220.0 -0.1607368823 0.0691282369 0.5340239603 -0.119066109 0.533990451 -0.1196840533 -0.1641407272 0.0771386553
135299190.0 -0.1599057132 0.0701243369 0.5337723762 -0.1259118619 0.5336591585 -0.1260741573 -0.1627232934 0.0776625062
140299160.0 -0.1584015301 0.0709095726 0.5331717085 -0.1327475464 0.5324859923 -0.1325739286 -0.1622071002 0.0787019454
145299130.0 -0.1576688922 0.0716599388 0.5314508689 -0.1389683159 0.5317958536 -0.1388960338 -0.1608238561 0.080096363
150299100.0 -0.1566320458 0.0723365421 0.5306477911 -0.1455926758 0.5304455543 -0.1458754344 -0.1597973507 0.0812587022
155299070.0 -0.1554549401 0.0732404489 0.5285984847 -0.1522317163 0.5297738082 -0.1523348978 -0.1586252825 0.0822361904
160299040.0 -0.1546749933 0.074479603 0.5281728689 -0.1590577429 0.5280762416 -0.1590434246 -0.1579888552 0.0837228669
165299010.0 -0.1537883781 0.0752930056 0.5269063936 -0.164956923 0.5263725112 -0.1656088739 -0.1563861016 0.0846530336
170298980.0 -0.1529143834 0.0761099095 0.5246904801 -0.1715719154 0.5248797767 -0.1716605585 -0.1556803399 0.085832952
175298950.0 -0.1520458068 0.0773317268 0.523344128 -0.1775086902 0.5236925127 -0.1782227337 -0.1545640858 0.0874041907
180298920.0 -0.1515563362 0.0784276125 0.5216288058 -0.1843088394 0.5219536636 -0.1843930414 -0.1538248795 0.0885204008
185298890.0 -0.1508402705 0.0794274612 0.5200472667 -0.1905218081 0.5199985571 -0.1903750855 -0.1529377809 0.0894292041
190298860.0 -0.1495046263 0.080860918 0.5175151019 -0.1964037087 0.5183485648 -0.1963502353 -0.1519748445 0.090939132
195298830.0 -0.148976758 0.081949977 0.5163710303 -0.2024427697 0.5160929139 -0.2026792511 -0.1511778419 0.0924333418
200298800.0 -0.1480697395 0.0828454236 0.5139644346 -0.2092884073 0.5139859924 -0.2088728226 -0.1498089487 0.0935395636
205298770.0 -0.1476438235 0.0840516305 0.5116486267 -0.2145300685 0.5117567021 -0.2147345807 -0.1490710702 0.0951109789
210298740.0 -0.1469267812 0.0853766061 0.5095778118 -0.2205986749 0.5090580771 -0.2210360119 -0.1488122369 0.0961411749
215298710.0 -0.1461311239 0.086604884 0.5069688848 -0.2263676305 0.5071877272 -0.2269580149 -0.1474107134 0.0980737645
220298680.0 -0.1451411562 0.0879106808 0.5046366164 -0.2325819812 0.5043795647 -0.2328703445 -0.1464909901 0.0993174018
225298650.0 -0.1444193491 0.0891703736 0.5018322717 -0.2384917955 0.5020822193 -0.2381561262 -0.1454366493 0.1005080597
230298620.0 -0.143598694 0.0905301422 0.4994612262 -0.2444752213 0.4997492154 -0.244689826 -0.1443749601 0.101846709
235298590.0 -0.1431868576 0.0918841113 0.4971966165 -0.2501161988 0.4971628296 -0.2502853158 -0.1433934606 0.1034953308
240298560.0 -0.1422171829 0.0931234497 0.4941497368 -0.255732504 0.4943712644 -0.2555453253 -0.1424848057 0.1045815443
245298530.0 -0.1415957804 0.0942407485 0.4914454657 -0.2619030337 0.4916369775 -0.2619603855 -0.141551688 0.1063868955
250298500.0 -0.1408261975 0.0954904735 0.4889683394 -0.2671685008 0.4890697058 -0.2669482785 -0.140519564 0.107984686
255298470.0 -0.139727603 0.0971998712 0.4860893347 -0.2725078294 0.4864247193 -0.2731295994 -0.1393009681 0.1094159646
260298440.0 -0.1390264308 0.0982714122 0.4832563136 -0.2779304383 0.4830363714 -0.2781750787 -0.1382876805 0.1106446831
265298410.0 -0.1386322722 0.0996180364 0.4798714064 -0.2835218382 0.4798306651 -0.284067827 -0.1367613119 0.1117346404
270298380.0 -0.137695929 0.1007514749 0.4769813418 -0.2892908321 0.4770750117 -0.2892067174 -0.1357545021 0.113489222
275298350.0 -0.1367413407 0.1024340626 0.4733574858 -0.2943084218 0.4734315368 -0.2942038852 -0.1346321299 0.1152429826
280298320.0 -0.1360634483 0.1035606125 0.4703830004 -0.299549574 0.4708581447 -0.3001420345 -0.133402041 0.1167177609
285298290.0 -0.1351500106 0.1051883423 0.4669410832 -0.3050473254 0.46752431 -0.3048050527 -0.1324429747 0.1178981401
290298260.0 -0.1341873834 0.1066234034 0.4644856939 -0.3103049722 0.4641317259 -0.3102371436 -0.1312213108 0.1194220955
295298230.0 -0.1333788743 0.1073401248 0.4607742261 -0.3159747274 0.4608703631 -0.3163087425 -0.1299077821 0.1207328679
300298200.0 -0.1324267888 0.1091004467 0.4572331867 -0.3209932717 0.457459865 -0.3207172801 -0.1285723892 0.122107676
305298170.0 -0.1312948324 0.1099526539 0.4539035223 -0.3263746227 0.4540677058 -0.3263177925 -0.1272360346 0.1232590984
310298140.0 -0.1302307119 0.1111615408 0.4503769843 -0.3312697327 0.450503001 -0.3311486249 -0.125877487 0.1244926335
315298110.0 -0.1296494255 0.1121662794 0.4466646568 -0.3372515425 0.4468417523 -0.3369367324 -0.1245055712 0.126082369
320298080.0 -0.1284735099 0.113655407 0.4423432789 -0.3420059324 0.4433539445 -0.3422428403 -0.1232825006 0.1271772332
325298050.0 -0.1281716232 0.1145107202 0.4392232464 -0.3469831143 0.4391772627 -0.3467803342 -0.1220023999 0.128520484
330298020.0 -0.1276885329 0.1160114197 0.4349978216 -0.3519384281 0.4353330035 -0.351994993 -0.1212691152 0.1296069055
335297990.0 -0.1266969195 0.117279765 0.4311943482 -0.3567096613 0.431659914 -0.3567224824 -0.1199473723 0.1310419279
340297960.0 -0.1258836745 0.1186477245 0.4267048718 -0.3618741572 0.4268082129 -0.3616880395 -0.1186950393 0.1327184275
345297930.0 -0.124938019 0.1197327298 0.4226128867 -0.3665211599 0.4228920718 -0.3665739353 -0.1173840594 0.1340375966
350297900.0 -0.124095456 0.1211870674 0.4190423787 -0.370375605 0.419121383 -0.3707274637 -0.1159831582 0.1350965277
355297870.0 -0.1229647757 0.1224474165 0.4148512467 -0.3751207791 0.4147772083 -0.3750315965 -0.1143813156 0.1369676828
360297840.0 -0.121811925 0.1236858586 0.4098209386 -0.3799820058 0.4107728397 -0.3804642332 -0.1132938863 0.138368234
365297810.0 -0.1211351611 0.1253006891 0.4064984193 -0.3841459916 0.4066402959 -0.3846004723 -0.1119475494 0.1397925458
370297780.0 -0.1199848721 0.1265176198 0.4018330762 -0.3889084397 0.4023815545 -0.3887751511 -0.1106749939 0.1408351087
375297750.0 -0.1186203141 0.1275938612 0.397457174 -0.3931832959 0.3978880362 -0.3935954888 -0.1091670596 0.1421553377
380297720.0 -0.1180333394 0.1289990617 0.3938677961 -0.3977985306 0.3935931934 -0.3979333334 -0.1075215276 0.1438525271
385297690.0 -0.1171824482 0.1301047648 0.3891760456 -0.4018529822 0.3893125981 -0.4025056546 -0.1060871422 0.1451174503
390297660.0 -0.1155585295 0.1312297704 0.3849102445 -0.4059416434 0.3849708286 -0.4063334922 -0.1041062917 0.1463311688
395297630.0 -0.1142366543 0.1327527292 0.3806249577 -0.4099735209 0.3801537548 -0.4100596625 -0.1027620707 0.1472843174
400297600.0 -0.1135699499 0.1339295748 0.3760350038 -0.4147646099 0.3760578805 -0.414704812 -0.100945516 0.1491755488
405297570.0 -0.112403417 0.1350082476 0.3713500516 -0.4182744516 0.3716683853 -0.4185077465 -0.0991965359 0.1504173108
410297540.0 -0.1109024364 0.136407 0.3667165191 -0.4233425576 0.366910386 -0.4224023898 -0.0977635487 0.1515145808
415297510.0 -0.1102941966 0.137335313 0.3622208829 -0.426546045 0.3623363021 -0.4268527574 -0.0959436488 0.152905162
420297480.0 -0.1087534732 0.1382109443 0.3572787067 -0.4306997423 0.3579753156 -0.4309370512 -0.0942197598 0.1542928107
425297450.0 -0.1071772392 0.1395208741 0.3531304661 -0.4343427799 0.3523068777 -0.4346409413 -0.0929462357 0.1549413017
430297420.0 -0.1060204425 0.1408172632 0.3480124617 -0.4384353689 0.3483313557 -0.4379457627 -0.0907257023 0.1563515077
435297390.0 -0.1046830032 0.1418743196 0.3426634741 -0.4426479981 0.342971316 -0.4419044144 -0.0896155727 0.157504668
440297360.0 -0.1033027349 0.1426874213 0.3380463813 -0.4458477253 0.3378375955 -0.4460242986 -0.0876265345 0.1589150531
445297330.0 -0.1019626841 0.1433129508 0.333201708 -0.449329629 0.3335747054 -0.4499101582 -0.0857352325 0.1600674318
450297300.0 -0.1004505584 0.1448546403 0.3284445112 -0.4533370927 0.3288558833 -0.4529975054 -0.0844204688 0.160971725
455297270.0 -0.0995146356 0.1457401252 0.3234470249 -0.456820865 0.3234268214 -0.4567278837 -0.0822363014 0.1618949051
460297240.0 -0.0977862954 0.1469502092 0.318445508 -0.4605133734 0.3186247809 -0.4603182714 -0.0805708356 0.1628022453
465297210.0 -0.096634854 0.1479897664 0.3132026725 -0.4639395657 0.3131549806 -0.4639230231 -0.0782789977 0.1647699214
470297180.0 -0.0950884966 0.148816741 0.3080840675 -0.4665902826 0.308227641 -0.4670309347 -0.0764187218 0.1651026848
475297150.0 -0.0937483468 0.1502319844 0.3029548757 -0.4705167919 0.3030126713 -0.4704523042 -0.0746807161 0.1660540213
480297120.0 -0.0920045693 0.1514989571 0.2979342613 -0.4735227876 0.2980697134 -0.4733175854 -0.0734966094 0.1670743129
485297090.0 -0.0905749592 0.1519462986 0.2926248724 -0.4769628659 0.2926629107 -0.4768838121 -0.0712588618 0.1681971148
490297060.0 -0.0885521666 0.1531285349 0.2869934382 -0.4803462202 0.2876030317 -0.47997648 -0.0695759379 0.1689751516
495297030.0 -0.0876040473 0.1536169932 0.2826318275 -0.4829728639 0.282109327 -0.4833903756 -0.0671405763 0.1697807825
500297000.0 -0.086283294 0.1548574249 0.2771725138 -0.4858566898 0.2769400837 -0.4867328715 -0.065273254 0.1709775639
505296970.0 -0.0842194615 0.1559738829 0.27189047 -0.4893070431 0.2717836421 -0.4889940833 -0.0636321074 0.1714067235
510296940.0 -0.0826336969 0.1567485011 0.2662441534 -0.4925443182 0.2665608739 -0.4924701601 -0.0614639038 0.1727669338
515296910.0 -0.0812879944 0.157834214 0.2608278896 -0.4949410704 0.2604236502 -0.494989992 -0.0598223456 0.1729584375
520296880.0 -0.0795925747 0.158566226 0.2556848106 -0.4976980128 0.255158301 -0.4974070302 -0.0574849621 0.1743171855
525296850.0 -0.0781615559 0.1594219451 0.2500719318 -0.5003389456 0.2496763411 -0.5005059647 -0.0555212406 0.1747586917
530296820.0 -0.0767012273 0.1602288894 0.2446399198 -0.5036774586 0.2443268068 -0.5031939054 -0.0537251029 0.1754706071
535296790.0 -0.0742122413 0.1611469046 0.2391481052 -0.505302854 0.238791318 -0.5061688686 -0.0512194462 0.1765969332
540296760.0 -0.0727862245 0.1623571645 0.2333577678 -0.508232876 0.2332871632 -0.5082991521 -0.0496288614 0.1767890587
545296730.0 -0.0717235459 0.16348906 0.2280771788 -0.5107991247 0.2278330474 -0.5106741679 -0.0475859619 0.1776214684
550296700.0 -0.0695248624 0.164045656 0.2222216384 -0.5134500037 0.2218820912 -0.5135252714 -0.0456056743 0.1782233249
555296670.0 -0.0679031137 0.1649501649 0.2165598716 -0.5157184742 0.2167665533 -0.515464427 -0.0435627885 0.1783200266
560296640.0 -0.065895682 0.1653753463 0.2106464886 -0.5180749754 0.2110846804 -0.5178252376 -0.0417824496 0.1796012748
565296610.0 -0.064750514 0.1665947854 0.2060681387 -0.5206396482 0.2053858747 -0.5196466099 -0.0394891207 0.1802480528
570296580.0 -0.063030007 0.1675725392 0.1996964141 -0.5225395834 0.1998496893 -0.5222399399 -0.0376305854 0.1805095079
575296550.0 -0.0610505686 0.1680868766 0.1942775194 -0.5244711632 0.1939757766 -0.5247683717 -0.0354501248 0.181339078
580296520.0 -0.0593910266 0.1691192888 0.1881699985 -0.5263505985 0.1882367334 -0.5266945882 -0.0335947016 0.1817107909
585296490.0 -0.0576691121 0.1696700206 0.1829674836 -0.5285158412 0.1825279527 -0.5283138855 -0.0312221363 0.1821315273
590296460.0 -0.0552522018 0.170423254 0.1766427718 -0.5305191052 0.1767581524 -0.5306837128 -0.0294695192 0.1827501685
595296430.0 -0.0540685599 0.1713270863 0.170832782 -0.5323902263 0.1705044495 -0.5322081064 -0.0272295276 0.1827266681
600296400.0 -0.0521057496 0.1717628793 0.1649117163 -0.5337532644 0.1648404893 -0.5343387523 -0.0251483294 0.1834945007
605296370.0 -0.0506404821 0.1726837948 0.160036771 -0.5355811271 0.159135475 -0.5360302536 -0.023220077 0.183996882
610296340.0 -0.0484255856 0.1735928545 0.1536244252 -0.5368366966 0.1537684974 -0.5372710252 -0.0215087147 0.1843007473
615296310.0 -0.0466120477 0.1742535106 0.1478567109 -0.5392964586 0.1473467795 -0.5393641838 -0.0190197062 0.1850033071
620296280.0 -0.045479938 0.175493731 0.1419319734 -0.5409153398 0.1414767546 -0.5407224454 -0.0173081585 0.1854207747
625296250.0 -0.0435954202 0.1756803834 0.1357855048 -0.5420041204 0.1359317963 -0.5418994972 -0.0155901369 0.1853667674
630296220.0 -0.0416254814 0.176436026 0.1296741997 -0.5437542543 0.1298963705 -0.5436389896 -0.0130092957 0.1857291745
635296190.0 -0.0401305603 0.1772285482 0.1247102167 -0.5444473683 0.1243008801 -0.5444231989 -0.011025512 0.1857880819
640296160.0 -0.0381709369 0.1778850045 0.1181729973 -0.5460453792 0.1180618171 -0.5460782257 -0.0090103596 0.1863235402
645296130.0 -0.0361401577 0.1786752136 0.1123218765 -0.5470683911 0.1126534632 -0.5470278979 -0.0070785527 0.1862009368
650296100.0 -0.0347280222 0.1788638855 0.1067810218 -0.5486828044 0.1061479691 -0.5483560255 -0.004328259 0.1866127581
655296070.0 -0.0328304456 0.1799149745 0.1003173791 -0.5496138009 0.1003154608 -0.5489074143 -0.0029239389 0.1868423875
660296040.0 -0.0311290691 0.1800784496 0.0947520029 -0.550310762 0.0945849989 -0.5505442389 -0.0009564613 0.1866265215
665296010.0 -0.0291772077 0.1809145126 0.0879760629 -0.5510407014 0.0882577458 -0.5513997567 0.0014101477 0.1870707678
670295980.0 -0.0275595496 0.1813437909 0.0825407659 -0.5520744591 0.0824557057 -0.5519712896 0.0030487153 0.1870777101
675295950.0 -0.0258543863 0.1818372594 0.0769101745 -0.5526770485 0.0765868745 -0.5530432796 0.0053381218 0.1873526191
680295920.0 -0.0243187674 0.1824025722 0.0705594388 -0.5537485892 0.0707808412 -0.5537513439 0.0074412251 0.1871831551
685295890.0 -0.0221925084 0.1832662839 0.0646052506 -0.5547083618 0.064810537 -0.55468406 0.0097107382 0.1875024469
690295860.0 -0.020888462 0.1837312029 0.0587499113 -0.5553773699 0.0584431285 -0.555360475 0.0115605723 0.1875009451
695295830.0 -0.0187280745 0.183774095 0.0528941574 -0.5557719483 0.0527338156 -0.5558141359 0.0136414546 0.1876555827
700295800.0 -0.0168425527 0.1843566217 0.0469699841 -0.5561061691 0.0467222293 -0.5560936747 0.0156797287 0.1878414047
705295770.0 -0.0153271834 0.1853080229 0.0405958577 -0.5573196018 0.0405922403 -0.5567260797 0.017663473 0.1877107446
710295740.0 -0.0136340913 0.1850462608 0.0350584177 -0.5571230615 0.0343937375 -0.5571677264 0.0200544467 0.187483077
715295710.0 -0.0118507301 0.1858671202 0.0289657223 -0.5573923029 0.0287479012 -0.5575156544 0.0219348064 0.1871660172
720295680.0 -0.0097552806 0.1862950925 0.0225019999 -0.5575320375 0.0227701404 -0.557764243 0.024042498 0.1871301083
725295650.0 -0.0086219692 0.18666513 0.0170508967 -0.5582047137 0.0170044938 -0.5579793918 0.0259443036 0.1872953745
730295620.0 -0.0073236263 0.1867112926 0.0106833793 -0.5576431841 0.0104167738 -0.5574625656 0.0282786613 0.1876327954
735295590.0 -0.0049656664 0.187217142 0.0051597919 -0.5582811272 0.0047119198 -0.5578602242 0.0299410073 0.186831964
740295560.0 -0.0034286741 0.1872042098 -0.0012976958 -0.5581910737 -0.0012786459 -0.5582213864 0.0320544974 0.1872175318
745295530.0 -0.0017095184 0.187880974 -0.0071703736 -0.5570663959 -0.0065406118 -0.5577124966 0.0335988215 0.1866163227
750295500.0 -0.0001765328 0.1881891628 -0.0125288129 -0.5577058762 -0.0133980888 -0.5576811279 0.0359787457 0.186625752
755295470.0 0.0016455956 0.1880526324 -0.0185890369 -0.5578183444 -0.0193203383 -0.5580031066 0.0383614397 0.186794767
760295440.0 0.0032156593 0.1888977691 -0.0256640075 -0.5573017812 -0.0252924046 -0.5567556492 0.0406713015 0.1854969999
765295410.0 0.0054078736 0.1884992286 -0.0310577792 -0.5563365537 -0.030860408 -0.5572324251 0.0422561509 0.1857486207
770295380.0 0.0068710638 0.1893054288 -0.0369686285 -0.5565459341 -0.0369983107 -0.5568572007 0.0441094994 0.185425278
775295350.0 0.0085850836 0.1888827021 -0.0427838424 -0.5561053794 -0.0428565884 -0.5555139555 0.0466300932 0.1848965851
780295320.0 0.010592534 0.1894888575 -0.0489670723 -0.5551290491 -0.0486822181 -0.555596867 0.0485034119 0.1847977852
785295290.0 0.0121273582 0.1889891793 -0.0544591664 -0.5549188345 -0.0543839152 -0.5548824057 0.0497200947 0.1847020313
790295260.0 0.0140031576 0.1893200785 -0.0610706678 -0.5545077659 -0.0605238092 -0.5548781513 0.051956239 0.184521625
795295230.0 0.0155057543 0.1891532274 -0.0669081858 -0.5536010571 -0.0668230145 -0.55390075 0.0541131071 0.1830091331
800295200.0 0.0172616094 0.1896237974 -0.0719782847 -0.5528096005 -0.0726857498 -0.5529258238 0.0560231535 0.1831453655
805295170.0 0.0189477349 0.1896164321 -0.0784941888 -0.5519108082 -0.0786384582 -0.5521257176 0.0585821765 0.1825613482
810295140.0 0.0207394296 0.1897597176 -0.0839345901 -0.5508070792 -0.0844012567 -0.5512275066 0.0604391506 0.1819348425
815295110.0 0.022180463 0.1898036398 -0.0900061574 -0.5501400269 -0.0901636624 -0.5505525408 0.0622862536 0.1817053797
820295080.0 0.023971251 0.189714884 -0.0957874941 -0.5491569013 -0.0960985852 -0.5494386136 0.0636117285 0.1815945549
825295050.0 0.0256091468 0.1896408871 -0.1017066549 -0.5484773416 -0.1022328899 -0.548313868 0.0666223245 0.1813015489
830295020.0 0.0275245909 0.1893383737 -0.1078693667 -0.5468055958 -0.1076699729 -0.5472604958 0.0681575827 0.1797653126
