!Created with skrf (http://scikit-rf.org).
# Hz S RI R 50.0 
!freq ReS11 ImS11 ReS21 ImS21 ReS12 ImS12 ReS22 ImS22
300000.0 -0.0998726267 -0.0710382944 0.6300096 0.0672467029 0.6240567025 0.0672423013 -0.0999468263 -0.0785382992
5299970.0 -0.1020464826 0.013210056 0.6301752353 0.0099443542 0.6306076858 0.0101277847 -0.1006561236 0.0131840123
10299940.0 -0.0971894746 0.0292947951 0.6340577781 0.015479978 0.6340657727 0.0155711085 -0.0957341146 0.0303572891
15299910.0 -0.0898380645 0.0425783626 0.6404361589 0.0205583337 0.64033116 0.0204674971 -0.0886209164 0.0435576951
20299880.0 -0.0813069745 0.0531671248 0.6484604106 0.0244768328 0.6482347146 0.0239017248 -0.0796142203 0.0544655672
25299850.0 -0.0721303868 0.0621622653 0.657995303 0.0252436528 0.6576398252 0.0252035586 -0.0697128959 0.0630420632
30299820.0 -0.0621526195 0.0686536051 0.6673347924 0.0241710206 0.6669295693 0.024527308 -0.0595761767 0.070128365
35299790.0 -0.0524212538 0.0738897914 0.6772037673 0.021265708 0.677387036 0.0214996116 -0.0499578414 0.0750879361
40299760.0 -0.0430977527 0.0770143583 0.6857741949 0.0169812675 0.6864076849 0.0172304099 -0.040326656 0.0775477633
45299730.0 -0.034052168 0.0791064318 0.6949697591 0.0118588871 0.6956412864 0.0118812498 -0.0313657829 0.0797419141
50299700.0 -0.025511882 0.0801770247 0.7036103519 0.0044704621 0.7038556588 0.0056436777 -0.0227601949 0.0807974603
55299670.0 -0.0175231656 0.0802276614 0.7106467221 -0.0034614356 0.7105309318 -0.0025885883 -0.0147914589 0.0807238062
60299640.0 -0.0099335815 0.080017979 0.7172927654 -0.0116944664 0.7176537264 -0.011184115 -0.0078955975 0.0795736862
65299610.0 -0.0035023932 0.0788312264 0.7232519253 -0.0205611271 0.7232610567 -0.0198990799 -0.0010441382 0.0786689117
70299580.0 0.0025683792 0.0774305552 0.7289553382 -0.0298070713 0.7285542119 -0.0293649748 0.0048668321 0.0769046459
75299550.0 0.0084093055 0.0759383454 0.7327972869 -0.0392525766 0.7328999697 -0.0389464402 0.0100168716 0.0748526513
80299520.0 0.0130002873 0.0738061071 0.7371156815 -0.0490362432 0.7371078841 -0.0489056237 0.0151912043 0.0726027652
85299490.0 0.0177375195 0.0715384238 0.7406062204 -0.0584111188 0.740320584 -0.0583388133 0.0194389779 0.0700398771
90299460.0 0.0216428764 0.0689982354 0.7426574861 -0.0690752624 0.743166069 -0.068567441 0.0235565672 0.0682514825
95299430.0 0.0257769878 0.0664330784 0.7456163217 -0.0792219317 0.7458898901 -0.0791864906 0.0273498313 0.0654553285
100299400.0 0.0290647844 0.0646124386 0.7468210177 -0.0890274214 0.7467764229 -0.0889431512 0.0310951391 0.062718193
105299370.0 0.0323089155 0.0618240861 0.7483898435 -0.0997526009 0.7488104872 -0.0995850882 0.0338938625 0.0607404014
110299340.0 0.0349615417 0.0598046345 0.750380707 -0.109376497 0.7496476086 -0.1092365963 0.0362454803 0.0578076421
115299310.0 0.0374922751 0.0574083182 0.7507576974 -0.1193608532 0.7506461689 -0.1193644425 0.0387747489 0.0551543711
120299280.0 0.0397577507 0.054790678 0.7509276506 -0.1291704614 0.7514941412 -0.129766219 0.0412902385 0.052967829
125299250.0 0.0422629223 0.0524292342 0.7514022798 -0.1388069356 0.7514444297 -0.1385784682 0.0429533397 0.0502087985
130299220.0 0.0436497827 0.0502391208 0.7513477983 -0.1493402146 0.7511514487 -0.1491126457 0.0449450058 0.047976081
135299190.0 0.0453795831 0.048336306 0.7515982746 -0.1590433719 0.751277526 -0.1588367971 0.0467429468 0.0459356338
140299160.0 0.0466324357 0.0461555759 0.7508821153 -0.1689452728 0.7502868786 -0.1690990155 0.0479683597 0.0444482728
145299130.0 0.0482772647 0.0438166496 0.7501110688 -0.1788223595 0.7497944778 -0.1780782649 0.0494661255 0.0420951744
150299100.0 0.049646777 0.0419099619 0.7488426281 -0.1874835124 0.7489637136 -0.1877667975 0.0508971929 0.0401794463
155299070.0 0.0504055623 0.0396228074 0.7478056178 -0.1989343754 0.7471614785 -0.1980541274 0.0517798922 0.0382273566
160299040.0 0.0520002907 0.0381567283 0.746683876 -0.2076232782 0.7456858548 -0.2078069989 0.0520944253 0.0362537707
165299010.0 0.0526099625 0.0362682806 0.7444527005 -0.2171937008 0.7444267998 -0.2171546785 0.0535933307 0.0350605795
170298980.0 0.0533545761 0.0340855043 0.7425790089 -0.2262603476 0.7429110209 -0.2260353798 0.0540979466 0.0330701048
175298950.0 0.0537683353 0.0322212649 0.741387509 -0.2351804415 0.7409894461 -0.2355827547 0.0549336146 0.0312974792
180298920.0 0.0544253242 0.0305905988 0.7388676592 -0.2447630371 0.738893891 -0.2444726783 0.0554113185 0.0296982387
185298890.0 0.0554409648 0.0287714346 0.7365961819 -0.2539083474 0.7363391328 -0.25404476 0.0560716689 0.0283101597
190298860.0 0.0554540646 0.0273011803 0.7343872633 -0.2632302807 0.7340272741 -0.2631334829 0.0562407905 0.026134752
195298830.0 0.0559590302 0.025088622 0.7315983211 -0.2717400518 0.7320187319 -0.2718114359 0.0573210578 0.0250968185
200298800.0 0.0564333009 0.0238411609 0.7283517808 -0.2809581733 0.7294436148 -0.2810853852 0.0570102258 0.0239094785
205298770.0 0.0567926669 0.022678221 0.7256743551 -0.2898818877 0.7259696851 -0.2892742609 0.0572822026 0.0213655375
210298740.0 0.057106625 0.0208741256 0.7228061499 -0.2986473286 0.723143279 -0.2978131995 0.0578181866 0.0210160944
215298710.0 0.0568345112 0.0197170391 0.7203376632 -0.3075686009 0.7201185603 -0.3073911627 0.0576477612 0.0197901816
220298680.0 0.0576061925 0.0177823294 0.7165074281 -0.316235506 0.7167732302 -0.3157597097 0.0576248978 0.0179328314
225298650.0 0.0577459729 0.0167955944 0.7136260482 -0.3248758993 0.7140940528 -0.3246377572 0.0575472393 0.0165401174
230298620.0 0.0578394968 0.0156088208 0.7105564523 -0.3329572133 0.7107639597 -0.3333429279 0.0575012661 0.0150032096
235298590.0 0.0577453826 0.0146831735 0.7065908622 -0.3412869341 0.7066015408 -0.3411130532 0.0577735026 0.0138680887
240298560.0 0.0580863677 0.0134961065 0.7033378658 -0.3495820449 0.7026372195 -0.3502745053 0.0577536935 0.0131718214
245298530.0 0.058032162 0.0122822071 0.6998615496 -0.3581055901 0.6997427817 -0.3585361513 0.0580998236 0.0110417721
250298500.0 0.0583388683 0.010948237 0.6952686394 -0.3664800242 0.6950993994 -0.3660837675 0.0577805487 0.0104611616
255298470.0 0.0583080865 0.0093253135 0.691057638 -0.374043101 0.6917907298 -0.3746815284 0.0580499886 0.0089734279
260298440.0 0.0580684422 0.0081681582 0.6875414296 -0.383076946 0.6874764928 -0.3823907516 0.0585129493 0.0079426313
265298410.0 0.0587295692 0.0075450072 0.6833545782 -0.3912670879 0.6839111412 -0.3903296436 0.0580073376 0.0067240557
270298380.0 0.0583705974 0.006065244 0.6798997508 -0.3983183777 0.6796465846 -0.3984855612 0.0579677853 0.0058543019
275298350.0 0.0587762427 0.0053810414 0.6754443469 -0.4072156663 0.6750900103 -0.406738764 0.0582168826 0.0041662225
280298320.0 0.0585903255 0.0041297013 0.6706148601 -0.4146603353 0.6715399228 -0.4143928206 0.0584812724 0.0032463357
285298290.0 0.0587085986 0.003125841 0.6662572993 -0.4223137048 0.6665898902 -0.4221296014 0.0585441578 0.0021130788
290298260.0 0.059138868 0.0018492231 0.6617330029 -0.4295140043 0.6618156816 -0.4302229775 0.0586471483 0.0015320527
295298230.0 0.058822815 0.0009134314 0.6576603876 -0.4378082089 0.6571521421 -0.4377032351 0.0593659466 0.0003317124
300298200.0 0.0583096231 -0.000357823 0.6530662565 -0.4449419853 0.6528755682 -0.4457573928 0.0588458369 -0.0008735605
305298170.0 0.058782816 -0.0016983943 0.6469857833 -0.4538012402 0.6478333663 -0.4529475224 0.0593010651 -0.00210361
310298140.0 0.0585206001 -0.0025589223 0.6429212317 -0.4608870739 0.6432472728 -0.4607695593 0.059369791 -0.0032410683
315298110.0 0.058210403 -0.0043873264 0.6379243191 -0.4689637039 0.6377779161 -0.4686752669 0.058945276 -0.0044324115
320298080.0 0.0587347069 -0.0051269179 0.6319961696 -0.4766841317 0.6326554528 -0.4758922949 0.0586089315 -0.0053859831
325298050.0 0.057934311 -0.006223669 0.6271807343 -0.4839139527 0.6270223498 -0.4833549351 0.0579393217 -0.0065994482
330298020.0 0.0575142816 -0.0073441803 0.6211043311 -0.4909313215 0.6216393446 -0.4906573015 0.057185549 -0.0077404427
335297990.0 0.0571547029 -0.0086591105 0.6159008823 -0.4974824122 0.6155628065 -0.4981462547 0.056506168 -0.0078198974
340297960.0 0.0560788772 -0.0091789614 0.6096277862 -0.5049128546 0.6094205207 -0.5049640577 0.0569816411 -0.0088634753
345297930.0 0.0557796364 -0.0092533548 0.604499057 -0.5116708398 0.6038716593 -0.5125181996 0.0565740978 -0.0098898299
350297900.0 0.0550833471 -0.0109760392 0.5972878693 -0.5190074969 0.5976024278 -0.5187216784 0.055554239 -0.0097476525
355297870.0 0.0550126998 -0.0106896153 0.5926415452 -0.525091729 0.5924907379 -0.5248348458 0.0549802598 -0.0105721103
360297840.0 0.0545899185 -0.0117221348 0.5868282298 -0.5315427651 0.5872767265 -0.5318797359 0.0551035422 -0.011291446
365297810.0 0.0540184402 -0.0120305989 0.5807778707 -0.5383556676 0.5809127968 -0.5384242764 0.0547099869 -0.011700483
370297780.0 0.0542731101 -0.0132559779 0.5742439229 -0.5448827271 0.5747967331 -0.544576712 0.0544010984 -0.0124011432
375297750.0 0.0537877424 -0.0138690795 0.5686461066 -0.5513719938 0.5691430348 -0.5505627156 0.0538628615 -0.0129352432
380297720.0 0.0533667232 -0.0143394294 0.5624555655 -0.5575060151 0.562587122 -0.5569053335 0.0534710911 -0.0138374305
385297690.0 0.0526464648 -0.0152540013 0.5561159147 -0.5637147672 0.5558544693 -0.5634490508 0.0531567961 -0.0142530857
390297660.0 0.052692689 -0.015448564 0.54991716 -0.5704014975 0.5494568554 -0.5693554216 0.0525139818 -0.0151915158
395297630.0 0.0521872445 -0.0163230339 0.5439296075 -0.576370203 0.5442765569 -0.5761798227 0.0530599271 -0.0154915325
400297600.0 0.0516195445 -0.0166249897 0.5372041286 -0.5827921567 0.5375142609 -0.5823464932 0.0523073443 -0.0160562049
405297570.0 0.0512546587 -0.0176381544 0.5306873227 -0.5881607045 0.531098813 -0.5877613801 0.0515914716 -0.016971899
410297540.0 0.0514136388 -0.0180676169 0.5244969937 -0.5943731446 0.5248889399 -0.5936062974 0.0511566821 -0.0171409868
415297510.0 0.0511681943 -0.0187299753 0.5178608895 -0.5999566286 0.5179303537 -0.5998055981 0.0508602017 -0.0177711207
420297480.0 0.0509663604 -0.0191711266 0.5113527641 -0.6057319854 0.5113232699 -0.6056578481 0.0503472111 -0.0189768439
425297450.0 0.0499860769 -0.020460847 0.5051075676 -0.6118924474 0.5049521032 -0.6111000333 0.0493449098 -0.0190067003
430297420.0 0.0498224997 -0.0206722969 0.4978039975 -0.6169872672 0.4976298892 -0.6165357823 0.0494014875 -0.0198118909
435297390.0 0.0493826756 -0.0212682542 0.4905302173 -0.6224978581 0.4906525172 -0.622563727 0.0500748066 -0.0206308992
440297360.0 0.0493436733 -0.0216403864 0.4842300956 -0.627386523 0.4841315246 -0.6277300665 0.0486950845 -0.0214087715
445297330.0 0.048647152 -0.0227670314 0.4776441557 -0.633458717 0.4774281007 -0.6325920745 0.0489677616 -0.0226679095
450297300.0 0.0487464381 -0.0233649705 0.4707138202 -0.6381820443 0.4702208761 -0.6384494093 0.0483818562 -0.0228700043
455297270.0 0.0482785184 -0.024050783 0.4632155923 -0.6434380723 0.4636686547 -0.6437427634 0.0480084862 -0.0235659623
460297240.0 0.0477443572 -0.0243987698 0.4559403155 -0.6485466086 0.4559742726 -0.648673407 0.0474982122 -0.0238689657
465297210.0 0.0476043418 -0.0246561794 0.4490875687 -0.6534698338 0.4488706792 -0.6544787259 0.0474498862 -0.0250943685
470297180.0 0.0469586001 -0.0258241027 0.4416192394 -0.6589659191 0.4417287888 -0.6588214186 0.0470770332 -0.024924376
475297150.0 0.0466785042 -0.0265999634 0.4342921825 -0.6630571885 0.4348799956 -0.6624589352 0.0471936653 -0.0256572294
480297120.0 0.0461460004 -0.026350217 0.4268878931 -0.6685516817 0.4272161677 -0.6684675825 0.0468778982 -0.026217196
485297090.0 0.0454081961 -0.026918139 0.419832258 -0.6729996395 0.4201222214 -0.672919608 0.0463460881 -0.0271261328
490297060.0 0.04464528 -0.0278473255 0.4126769183 -0.678107376 0.4128696251 -0.6772229463 0.045776577 -0.026749579
495297030.0 0.0446837573 -0.0280899421 0.4050242308 -0.6822895956 0.4055116628 -0.6821105529 0.0450518787 -0.027782026
500297000.0 0.0440164417 -0.0291672705 0.3972473461 -0.6858587687 0.3968710572 -0.6859895304 0.0451016556 -0.0273455293
505296970.0 0.0438128657 -0.0294931875 0.3903719759 -0.6906684663 0.3896776365 -0.6907572152 0.044617348 -0.0282946246
510296940.0 0.0431432988 -0.0295109656 0.3821748472 -0.6956463777 0.3824858685 -0.6956144241 0.0443099994 -0.0282579623
515296910.0 0.0423761866 -0.0297417185 0.3744845153 -0.6997543156 0.3747682204 -0.6989545353 0.0439132411 -0.0290147985
520296880.0 0.0419974975 -0.0305943772 0.3671424054 -0.7039268105 0.3672101714 -0.7031067244 0.0433876037 -0.0298457606
525296850.0 0.0420373915 -0.0314472843 0.3584348851 -0.7073298041 0.3591712971 -0.7072671455 0.0425694036 -0.0301429959
530296820.0 0.0414073961 -0.0312858393 0.3511596299 -0.7121575813 0.3514180184 -0.7117254843 0.042389344 -0.0299169765
535296790.0 0.0403173434 -0.0321206344 0.3434801808 -0.7149829851 0.3438119552 -0.7145880731 0.0417541567 -0.0309522597
540296760.0 0.0400398834 -0.0319686523 0.3355760777 -0.7192407617 0.3354605705 -0.7189208284 0.0408071069 -0.0304452924
545296730.0 0.0397320351 -0.0327621373 0.3275700981 -0.722553064 0.3274540075 -0.7224720058 0.040315149 -0.0314250393
550296700.0 0.0398997401 -0.032742507 0.3199198843 -0.7264138959 0.3201319935 -0.7259148439 0.0395894983 -0.0314154836
555296670.0 0.0386356902 -0.033151873 0.3117033819 -0.7294761537 0.3121089891 -0.7289906508 0.0394527848 -0.0319627749
560296640.0 0.0386589477 -0.0332096978 0.3035349349 -0.733109382 0.3040834356 -0.732747589 0.0389408713 -0.0324418641
565296610.0 0.0373976084 -0.0342017895 0.2953891048 -0.7364086078 0.2964415542 -0.7363048278 0.0378411113 -0.033170281
570296580.0 0.0369764635 -0.0341148157 0.2876739553 -0.7401544797 0.2869199165 -0.7390655952 0.0375590703 -0.0328676874
575296550.0 0.0361313011 -0.0342688904 0.2804351149 -0.7430020079 0.2793502342 -0.7432486587 0.0374622683 -0.0335509646
580296520.0 0.0361620273 -0.0346913452 0.2708578501 -0.7460702535 0.2714318498 -0.7458438232 0.0366648241 -0.0335538442
585296490.0 0.0354082896 -0.0359299458 0.2637814353 -0.7480460646 0.2637306107 -0.7485600689 0.0361390004 -0.0343264154
590296460.0 0.0354217427 -0.035623138 0.2552447406 -0.7507496156 0.2552470679 -0.7512935696 0.0346925565 -0.0346762702
595296430.0 0.0347072983 -0.0357255266 0.2468460671 -0.754614924 0.2466603496 -0.754241118 0.0349834489 -0.0352096074
600296400.0 0.034073655 -0.036527369 0.2388230158 -0.7566535016 0.2389747636 -0.7562959603 0.0340694083 -0.035569991
605296370.0 0.0334596515 -0.0364393557 0.2303661978 -0.7592764632 0.2305309776 -0.7591069696 0.033551912 -0.0358489939
610296340.0 0.0333189667 -0.0371474025 0.2217510774 -0.7614485685 0.2221052019 -0.7613710279 0.0333788903 -0.0363153178
615296310.0 0.0328201679 -0.0376665327 0.2136931366 -0.7640575096 0.2133180451 -0.7645362693 0.0330972238 -0.036519846
620296280.0 0.0322304501 -0.0378649978 0.2058592286 -0.7664342484 0.2055396257 -0.7663298168 0.0322713962 -0.0370941372
625296250.0 0.0311600197 -0.0387059217 0.1976376312 -0.7688548244 0.1971440247 -0.7688867415 0.0325152219 -0.0369990147
630296220.0 0.0317001291 -0.0384716512 0.188096899 -0.771064558 0.1879309582 -0.7702078122 0.0314896044 -0.0372367973
635296190.0 0.0298123696 -0.0393785497 0.1803581133 -0.7726044731 0.1802163351 -0.773027937 0.0311004989 -0.0378054531
640296160.0 0.029427442 -0.038983107 0.171921493 -0.7743704555 0.1721498416 -0.7747047765 0.0305270063 -0.0379318561
645296130.0 0.0290340997 -0.0392091315 0.1632232112 -0.776189582 0.1632944521 -0.77676988 0.0300381044 -0.0383221532
650296100.0 0.0286039457 -0.039504832 0.1545635716 -0.778231247 0.1549959626 -0.7788070008 0.0300626576 -0.0392698955
655296070.0 0.0274962572 -0.0403204728 0.1460350545 -0.7799334403 0.1467019765 -0.7797861991 0.0291132672 -0.0387798966
660296040.0 0.0263532168 -0.0407333754 0.1378183116 -0.7816553247 0.1377081279 -0.7813343349 0.0287842407 -0.0389677486
665296010.0 0.0269600503 -0.0403688761 0.1292466177 -0.7829660447 0.1291756922 -0.7824531545 0.028514587 -0.0384773323
670295980.0 0.0248092328 -0.0403234815 0.1208769978 -0.784072277 0.1207510212 -0.784146939 0.0272992333 -0.0390342391
675295950.0 0.0249979308 -0.0404013848 0.1124309236 -0.785179497 0.112395177 -0.7842907742 0.026574173 -0.0392216012
680295920.0 0.0239257791 -0.0411415415 0.1029975374 -0.7862158304 0.1030352973 -0.7866767503 0.0261533923 -0.0384292134
685295890.0 0.0236265207 -0.040423559 0.0947274512 -0.7874491499 0.0947831757 -0.787261354 0.0253102462 -0.03919267
690295860.0 0.0235414393 -0.0408180131 0.0862945692 -0.7876115863 0.085917358 -0.7886075897 0.0248475218 -0.0385728511
695295830.0 0.022567671 -0.0416528609 0.0778668657 -0.789299761 0.0776747194 -0.7889039453 0.0242010516 -0.038904313
700295800.0 0.0222117506 -0.0416918893 0.069028254 -0.7899986754 0.0689091643 -0.7896764484 0.023740705 -0.0383718052
705295770.0 0.0212265909 -0.0409886503 0.0601485325 -0.7905212075 0.0608586548 -0.7908281636 0.0228887474 -0.0390465176
710295740.0 0.0210938407 -0.0415287214 0.0521919732 -0.7918918099 0.052357334 -0.7920792679 0.0227221247 -0.0401047945
715295710.0 0.0197029832 -0.0417328322 0.043942334 -0.7921130285 0.0431622372 -0.7921369757 0.0220759736 -0.0395482916
720295680.0 0.0197922447 -0.0419242266 0.0345638731 -0.7925745862 0.0350698272 -0.7921873425 0.0213168132 -0.0388422271
725295650.0 0.0192391438 -0.0417406152 0.0259736332 -0.7926237202 0.0261772408 -0.792831907 0.0202432252 -0.0391216134
730295620.0 0.0187254573 -0.0415244967 0.017204699 -0.7924874744 0.0173565602 -0.7931017644 0.0196405927 -0.0398884407
735295590.0 0.0181195019 -0.0414835698 0.0090508305 -0.7934048199 0.0088714929 -0.7931719629 0.0187880925 -0.0402036562
740295560.0 0.0170652787 -0.0416905491 -0.0002233561 -0.7928896453 0.0002246368 -0.7928109495 0.0190000801 -0.0396790088
745295530.0 0.0167102459 -0.0416642769 -0.0087129157 -0.7924357916 -0.0082304597 -0.7931508465 0.0181262956 -0.0401405856
750295500.0 0.0162450413 -0.0416519023 -0.016859754 -0.7924529721 -0.0172586989 -0.7931161131 0.0172869712 -0.0399707935
755295470.0 0.0157181763 -0.0421979533 -0.0253543864 -0.7927409441 -0.0252473833 -0.7931805371 0.0174496631 -0.0403607722
760295440.0 0.0148855981 -0.0417502848 -0.0344958172 -0.7927862264 -0.0343728715 -0.7931203278 0.0161942448 -0.0403035914
765295410.0 0.0142523211 -0.0419074865 -0.042799816 -0.791804341 -0.0435789069 -0.7922302208 0.0158158682 -0.040356893
770295380.0 0.013317686 -0.0422683315 -0.0517958549 -0.7912876504 -0.0516209294 -0.7911817535 0.0149725215 -0.040690312
775295350.0 0.0126261738 -0.0429456223 -0.0604368844 -0.790351899 -0.0596660092 -0.7902727614 0.0138027296 -0.0400985296
780295320.0 0.012424962 -0.0424356888 -0.0687959576 -0.7892667841 -0.0681538145 -0.7895849025 0.0134643718 -0.0412056806
785295290.0 0.0113632661 -0.042886173 -0.0777728282 -0.7887109596 -0.0772373265 -0.7892239659 0.0137733641 -0.0407258955
790295260.0 0.0116220168 -0.0421092845 -0.0855641075 -0.7881048319 -0.0846403626 -0.7877897817 0.012739432 -0.0407170895
795295230.0 0.0104151912 -0.0426038439 -0.0944378397 -0.7871961215 -0.0935377152 -0.7874383242 0.0122553581 -0.0404996562
800295200.0 0.0093568263 -0.0421392749 -0.103860455 -0.785690686 -0.1030017735 -0.7860507635 0.0119020734 -0.0408013485
805295170.0 0.0090011508 -0.0423736454 -0.1116272811 -0.7846970162 -0.1116669702 -0.7852913343 0.0110136807 -0.0407049711
810295140.0 0.00813771 -0.0429310542 -0.1193855688 -0.7830713173 -0.1202346756 -0.7839602382 0.0108386409 -0.0405571785
815295110.0 0.007996072 -0.0429707294 -0.1283531662 -0.7817522252 -0.1281627028 -0.7818261987 0.0097509752 -0.0403729451
820295080.0 0.006582968 -0.0420308845 -0.1371870017 -0.7805458957 -0.1366979337 -0.7803384325 0.0093112197 -0.0401977513
825295050.0 0.0068332634 -0.0421281602 -0.1450848523 -0.7787721385 -0.1449414298 -0.7795830694 0.0094702838 -0.0400961561
830295020.0 0.0059244152 -0.0421553964 -0.1538365485 -0.7775353201 -0.1535678128 -0.7768997215 0.0092054635 -0.0401311236
