!Created with skrf (http://scikit-rf.org).
# Hz S RI R 50.0 
!freq ReS11 ImS11 ReS21 ImS21 ReS12 ImS12 ReS22 ImS22
300000.0 -0.7770008321 -0.1345707508 -0.0014074274 0.0008041904 -0.0003666084 -0.0003620633 0.8600448415 -0.0017118756
5299970.0 -0.7849230539 -0.0069441623 0.0001538663 -8.40287e-05 -6.72161e-05 -4.4814e-05 0.8588900309 -0.0110218346
10299940.0 -0.7873363564 -0.0039649662 0.00016836 2.84962e-05 -0.0001128701 0.0002166906 0.8581337227 -0.0187865303
15299910.0 -0.7931214427 -0.0015941534 -0.0001785957 -0.0002523749 -8.12831e-05 -0.0001177719 0.857277981 -0.0277330094
20299880.0 -0.7996566116 0.0024942876 7.78051e-05 0.0001055438 -1.68801e-05 0.0002514675 0.857165107 -0.0362834663
25299850.0 -0.8062417756 0.0080803946 3.10855e-05 -0.0003930404 -0.0001944778 0.0001495888 0.8555797475 -0.0438055486
30299820.0 -0.8117660685 0.016524911 6.31378e-05 -0.0001090374 3.4308e-06 -0.0001168678 0.854813476 -0.0524847265
35299790.0 -0.8169714613 0.0249981957 2.43853e-05 4.72319e-05 -1.49099e-05 -0.0001387366 0.8543316308 -0.0606276427
40299760.0 -0.821426349 0.0339507153 2.77258e-05 -6.67651e-05 -1.05563e-05 -0.0001405411 0.8536374906 -0.0691147382
45299730.0 -0.8244853102 0.0442203453 0.0001330225 1.38737e-05 2.20698e-05 7.39754e-05 0.853064233 -0.0772824203
50299700.0 -0.826782387 0.0542780142 6.77682e-05 2.7248e-05 7.9008e-06 -5.223e-05 0.851454512 -0.085555954
55299670.0 -0.8290337041 0.0643265543 -5.5496e-05 -2.73645e-05 6.72684e-05 8.73304e-05 0.8503374438 -0.0937197967
60299640.0 -0.8299692811 0.0745157748 -6.9075e-05 6.3118e-06 0.0002010919 5.14751e-05 0.8494815831 -0.1020748806
65299610.0 -0.8312735946 0.0848248558 9.8489e-05 1.20334e-05 -3.81747e-05 -0.0001178346 0.8484783544 -0.11046264
70299580.0 -0.8317631274 0.0949386315 1.26393e-05 0.0001004143 -0.0001166794 -0.0001429733 0.8476856186 -0.1189285071
75299550.0 -0.8316367553 0.1050260976 0.0001272444 -9.355e-07 -0.0001114026 -0.0001316903 0.8469834066 -0.1268897031
80299520.0 -0.8315248029 0.1148110926 -4.34556e-05 0.0003152265 4.75818e-05 7.81987e-05 0.8450890774 -0.1345542721
85299490.0 -0.830878146 0.1240499773 -8.5407e-06 9.70656e-05 -7.48192e-05 -5.93203e-05 0.8436106875 -0.1429090713
90299460.0 -0.8301379764 0.1334943635 -6.37262e-05 -0.0001121746 -3.5351e-06 4.88447e-05 0.8422107891 -0.1513694112
95299430.0 -0.8285666508 0.1437083564 5.9948e-06 -0.0002243508 -4.71033e-05 5.57986e-05 0.8403913547 -0.1590352477
100299400.0 -0.8280590308 0.1527499607 -0.0003926211 0.0001223874 6.52693e-05 3.62297e-05 0.8391835414 -0.1678515624
105299370.0 -0.8269648338 0.1622826418 0.0002711893 6.73194e-05 0.0001374819 -9.34617e-05 0.8374517712 -0.1759729569
110299340.0 -0.8253102711 0.1711131204 5.42548e-05 -0.0001341845 -8.78079e-05 8.91211e-05 0.8354698146 -0.1835570513
115299310.0 -0.8240641723 0.180262624 0.0001329847 -0.0001389058 -2.555e-06 -4.82203e-05 0.8333691207 -0.1923813417
120299280.0 -0.8221725879 0.1893329866 7.41548e-05 -0.0001866733 -2.9844e-06 -0.000141068 0.8312884138 -0.2002518428
125299250.0 -0.8203409696 0.1982928012 0.0002860479 9.55478e-05 6.8841e-05 -3.37195e-05 0.8292448846 -0.2087198513
130299220.0 -0.818367742 0.2069953857 -0.0001610463 1.12446e-05 0.0001297845 1.49357e-05 0.827414962 -0.2163593069
135299190.0 -0.8164452163 0.216901809 0.0001255805 -7.2906e-06 -0.0001483296 -9.61191e-05 0.8255368056 -0.2241917151
140299160.0 -0.8148788146 0.2253402781 0.0002316676 -2.43031e-05 -0.0001791496 -5.90913e-05 0.823069486 -0.2329415792
145299130.0 -0.8120525465 0.2342553675 4.81054e-05 -0.0001433558 1.2769e-06 -0.0003307702 0.8202943164 -0.2410106157
150299100.0 -0.8102193745 0.2433676649 -3.92428e-05 0.000166244 -0.0001019013 0.0001044392 0.8180963106 -0.2486205709
155299070.0 -0.8071749512 0.252892649 -4.84301e-05 9.15406e-05 6.31655e-05 -5.73734e-05 0.8154589305 -0.2561955324
160299040.0 -0.8048587505 0.2610246326 -0.0002005025 0.0001771337 -9.04112e-05 -0.0001511028 0.8133764008 -0.2647837893
165299010.0 -0.8023285333 0.269672099 -4.09238e-05 1.89474e-05 -5.78252e-05 6.2125e-06 0.8110057309 -0.2723604596
170298980.0 -0.7999556069 0.2778678603 0.0001173832 -0.0001025533 0.0001044904 5.138e-07 0.8076439232 -0.2799637349
175298950.0 -0.7969305035 0.2867028503 8.36105e-05 -4.4013e-06 -1.81989e-05 2.16317e-05 0.8046363613 -0.2883876757
180298920.0 -0.7940443461 0.295007502 -0.0002643009 -0.0001405764 2.51377e-05 -3.41276e-05 0.8025346143 -0.2956365907
185298890.0 -0.7906863124 0.304295984 0.0002602883 -0.0002202697 0.0001347993 0.0001441062 0.7993099094 -0.3046285973
190298860.0 -0.7870647221 0.3127278099 -3.62297e-05 1.29047e-05 8.1318e-05 -3.1579e-06 0.7961605958 -0.3114783895
195298830.0 -0.7838270817 0.320786733 -5.22397e-05 -4.01427e-05 0.0001672462 -7.32762e-05 0.7930197047 -0.3195436257
200298800.0 -0.7810199931 0.3291896673 -4.63259e-05 -5.46921e-05 5.74595e-05 8.75957e-05 0.7903230364 -0.3273472656
205298770.0 -0.7776405152 0.3371671128 5.29666e-05 -0.0001019225 0.000105411 0.0002853478 0.7867367008 -0.3346342984
210298740.0 -0.7736337186 0.3461615323 -3.83372e-05 6.0797e-06 0.0001731455 4.49922e-05 0.7837646641 -0.342851086
215298710.0 -0.7701684942 0.3545385652 -0.0001842305 -7.13224e-05 9.66754e-05 0.0001054587 0.7801946267 -0.3500795556
220298680.0 -0.7672864062 0.3621974809 2.7422e-05 -2.75358e-05 6.6371e-05 2.6573e-05 0.7768494457 -0.357036497
225298650.0 -0.762339011 0.3708083452 0.0001525964 0.0001126614 6.24431e-05 -2.07752e-05 0.772749315 -0.3648356746
230298620.0 -0.7586142776 0.3788549027 5.49845e-05 5.99005e-05 6.81449e-05 4.1687e-05 0.7695360748 -0.3729869755
235298590.0 -0.7549977015 0.387202606 -0.0001304337 -3.14891e-05 -0.0001557878 -0.0001383469 0.7664650215 -0.3794139494
240298560.0 -0.7507456229 0.3952793136 0.0001816201 -0.0001657624 0.0001443407 0.000135639 0.7622631573 -0.3877244023
245298530.0 -0.7462683875 0.4027576444 -1.08332e-05 0.0001292004 6.82698e-05 0.0001255221 0.7580231838 -0.3947235279
250298500.0 -0.7422164121 0.4104453012 -0.0001136189 5.21492e-05 2.64803e-05 -0.0001070862 0.7546711994 -0.4018533782
255298470.0 -0.7381732259 0.4190155555 7.98405e-05 5.2233e-05 4.6122e-05 -0.0002508747 0.7507679776 -0.4095952131
260298440.0 -0.7338117067 0.4260787536 0.0001030378 -7.58109e-05 -7.75353e-05 5.53398e-05 0.7466839646 -0.4163101254
265298410.0 -0.7293724614 0.4341464283 -5.0441e-06 9.47482e-05 -6.83447e-05 -0.0001981003 0.742768392 -0.424427653
270298380.0 -0.7242602066 0.4414459736 8.1387e-05 0.0001147358 -2.86925e-05 -0.0001898191 0.7388112749 -0.4306815751
275298350.0 -0.7193719537 0.4495941564 -5.4993e-06 -0.0003685846 -4.51263e-05 -0.0001654363 0.7342097326 -0.4376150504
280298320.0 -0.7149993187 0.4567801739 -9.74946e-05 -9.6459e-06 -0.0001281921 0.00011887 0.730816971 -0.4449895399
285298290.0 -0.7107205524 0.4644609294 -0.0002067206 -9.15805e-05 -0.0002313667 0.0001495686 0.7264427377 -0.4520315368
290298260.0 -0.7053796831 0.4714179047 0.000108714 -4.66858e-05 9.60399e-05 -2.39969e-05 0.7224139721 -0.4592123257
295298230.0 -0.7005380923 0.4794838687 6.19519e-05 2.13207e-05 -7.5447e-05 -0.0002349809 0.7179436766 -0.4657711203
300298200.0 -0.6949589765 0.4865427593 0.0001089895 1.13583e-05 -3.41511e-05 -6.04347e-05 0.7135504511 -0.4732842548
305298170.0 -0.6899638341 0.4945137967 -0.0001001387 5.61278e-05 -7.66244e-05 0.0001014245 0.7099396437 -0.4800354798
310298140.0 -0.6846339366 0.5010021378 1.13154e-05 -0.0001974633 0.0001890067 0.0001219712 0.7050737429 -0.4870190312
315298110.0 -0.6794390867 0.5079880579 -0.0001959066 0.0001229219 -0.0001555256 -4.28381e-05 0.7008994943 -0.4947919362
320298080.0 -0.6744781644 0.5154216172 -6.67898e-05 5.55206e-05 -9.15927e-05 -6.3311e-06 0.6966148675 -0.5018639892
325298050.0 -0.6684897066 0.52237317 -0.000102587 4.35018e-05 -0.0001577337 -0.0001219015 0.6904580082 -0.5097055662
330298020.0 -0.6630767704 0.5289172389 -8.3568e-05 -3.3432e-05 8.81714e-05 4.27709e-05 0.685833071 -0.5170673346
335297990.0 -0.6571342091 0.5361386767 9.04014e-05 -9.15011e-05 7.31293e-05 4.82134e-05 0.6797091281 -0.5237425029
340297960.0 -0.6519231234 0.5428592815 0.0001288567 0.0001075141 2.31344e-05 -1.08831e-05 0.6739346036 -0.5298660897
345297930.0 -0.6459438187 0.5494132381 -0.0001853938 2.91835e-05 0.0001236259 -9.02382e-05 0.6682730381 -0.5358966533
350297900.0 -0.6406803597 0.5560035443 -0.0003336518 -0.0001824638 -5.5615e-05 -0.0001402185 0.6628246159 -0.5421718745
355297870.0 -0.6340460202 0.5626633187 -0.0001472612 6.40008e-05 0.0001081484 -4.22626e-05 0.6575235464 -0.5483858746
360297840.0 -0.6285564015 0.569284444 -2.85406e-05 0.0001238438 -0.0001814606 0.0001665854 0.6518295486 -0.5543105667
365297810.0 -0.6223096123 0.5761887172 7.77412e-05 3.83425e-05 3.11405e-05 2.28037e-05 0.6467490424 -0.5608668684
370297780.0 -0.6161952926 0.5820283067 -0.0002935537 -7.13365e-05 2.18858e-05 -2.51036e-05 0.6408804218 -0.5661203976
375297750.0 -0.6104277726 0.5884734776 -7.08456e-05 -0.0001385966 0.0001671172 -2.17573e-05 0.6351578581 -0.5725019897
380297720.0 -0.6034897659 0.5950298531 3.86037e-05 5.03152e-05 0.0001180142 9.98826e-05 0.6298286868 -0.5781289556
385297690.0 -0.5978409716 0.6008581553 -0.0002218864 -7.44082e-05 1.22608e-05 -0.000100841 0.623663247 -0.5836465572
390297660.0 -0.5909048447 0.6070140364 -3.09767e-05 0.0001321635 0.0001266967 5.10818e-05 0.618765552 -0.590044585
395297630.0 -0.5855231987 0.6134294779 -4.54455e-05 -2.39168e-05 -7.16433e-05 1.85656e-05 0.6127323698 -0.5958791107
400297600.0 -0.5790620421 0.6193983062 -2.29553e-05 -0.0001259729 -4.05235e-05 -2.65738e-05 0.6069960701 -0.6016125624
405297570.0 -0.5724833085 0.6248584278 0.0001617342 0.0002478564 -5.17392e-05 -9.03191e-05 0.6015409742 -0.6071365816
410297540.0 -0.5659724378 0.6308180744 -2.53525e-05 5.70248e-05 -0.0001415156 0.0001805317 0.5949776992 -0.61317523
415297510.0 -0.5588927842 0.6366926675 -6.40401e-05 -0.0001264648 0.0001099427 4.53746e-05 0.5889823844 -0.618599849
420297480.0 -0.551792202 0.642278659 -4.12829e-05 -8.21669e-05 -0.000223396 -0.0002243772 0.5830663732 -0.624641359
425297450.0 -0.5456797993 0.6480301712 0.0001071588 -0.0001997125 -4.94583e-05 0.0002256938 0.5770940989 -0.62957878
430297420.0 -0.5394751262 0.6536686656 0.000118083 -0.0001339032 1.96525e-05 0.0001518898 0.570919076 -0.635318167
435297390.0 -0.532081777 0.6591702427 -3.0659e-05 -1.92324e-05 8.96175e-05 -0.0002504811 0.5644375072 -0.6406534453
440297360.0 -0.525592241 0.664740674 0.0001161662 3.376e-07 0.0001167111 4.71693e-05 0.5579247988 -0.6463279887
445297330.0 -0.5183118719 0.6701189452 -2.0604e-06 -0.0002186037 6.80454e-05 -0.0001874131 0.5517507948 -0.6510739823
450297300.0 -0.5114706144 0.6747221488 1.13456e-05 -3.68563e-05 -9.85936e-05 -0.0001331153 0.5451671163 -0.656473017
455297270.0 -0.5041754083 0.6803911935 -7.05358e-05 -0.0001663849 0.0002632597 0.0001102507 0.538617819 -0.6622829807
460297240.0 -0.4979483638 0.6852194976 -7.58915e-05 -0.0001920911 -0.0003884021 4.42995e-05 0.5328527551 -0.6674054703
465297210.0 -0.4897057988 0.6903286443 -9.38352e-05 -3.78848e-05 -7.48452e-05 3.95448e-05 0.5253221601 -0.6723420424
470297180.0 -0.4829495892 0.6947131071 8.42027e-05 0.0001029103 0.0001052697 0.0002577396 0.5186606846 -0.6772649373
475297150.0 -0.4759308493 0.7005599569 -8.48405e-05 0.0001272458 -5.38262e-05 6.70616e-05 0.5121139013 -0.6815953237
480297120.0 -0.4693031124 0.7049193727 0.0002103014 -4.70794e-05 9.43248e-05 -5.23312e-05 0.5051469187 -0.6866548915
485297090.0 -0.4613047281 0.7090776854 8.4581e-06 0.0003300993 8.74628e-05 -8.38169e-05 0.4988990608 -0.6926420686
490297060.0 -0.4538858316 0.7136924692 2.6067e-05 7.0887e-06 -8.7963e-05 9.8199e-06 0.4917733081 -0.6970638803
495297030.0 -0.4476922324 0.7188485341 -0.0001019577 -1.22654e-05 2.34023e-05 -0.0001689073 0.4854073298 -0.7016648877
500297000.0 -0.4393835686 0.7235235965 0.0001408953 -0.0001741626 -0.0001478563 9.92518e-05 0.4772537731 -0.7060818073
505296970.0 -0.4314399084 0.7271773424 0.0001231454 0.0002516181 3.00298e-05 -3.21818e-05 0.4702327465 -0.7110370734
510296940.0 -0.4242131804 0.7321436714 -0.0001649723 -7.07237e-05 9.29267e-05 0.0001811166 0.4638770457 -0.7147166127
515296910.0 -0.417104166 0.7363971529 -3.50308e-05 -6.87286e-05 0.0001342847 3.36396e-05 0.4560947154 -0.719426048
520296880.0 -0.4091373455 0.7403936762 3.8368e-06 0.0001341979 -0.0001700117 0.0002871365 0.4497111361 -0.7245521934
525296850.0 -0.4017906509 0.744672101 -6.58853e-05 -0.0002153635 -0.0001063958 0.0001157609 0.4420760454 -0.727968135
530296820.0 -0.3947631497 0.7483167992 5.74175e-05 0.0002108915 -0.0001335794 -4.9432e-06 0.4342793221 -0.7328160466
535296790.0 -0.3859528817 0.7523425702 -0.0002178498 1.22487e-05 0.0001307903 2.81443e-05 0.4275000128 -0.7377515247
540296760.0 -0.378175408 0.7562458164 -8.44438e-05 0.0001023687 9.06126e-05 -0.0001257313 0.4193301288 -0.7411231575
545296730.0 -0.3710329492 0.7596441312 3.30149e-05 -5.69969e-05 6.29874e-05 -7.4975e-06 0.4125346007 -0.7449931261
550296700.0 -0.3631863977 0.7637256653 0.0002413233 2.95288e-05 9.9864e-06 5.97538e-05 0.4051701426 -0.7494796739
555296670.0 -0.3542385774 0.7668807072 0.0001225632 4.65569e-05 -8.7149e-05 7.93537e-05 0.397464396 -0.7528875412
560296640.0 -0.3469679287 0.7703622751 0.0001197375 6.87746e-05 -0.0001219516 -0.0001069195 0.3895347518 -0.7567929435
565296610.0 -0.3396569489 0.7740788589 8.80194e-05 0.0001400521 -1.6484e-06 -5.11781e-05 0.3823915968 -0.7605566399
570296580.0 -0.3320926955 0.777736072 -0.0001675394 6.48308e-05 3.9408e-06 0.0002643424 0.3747301685 -0.7639807135
575296550.0 -0.3230784124 0.7807268942 8.11528e-05 0.000117036 0.0002235979 -0.0001231976 0.3666901858 -0.7677705003
580296520.0 -0.315565148 0.7840715962 -0.000335551 4.61373e-05 -0.0001486103 -2.58325e-05 0.358995974 -0.7709566715
585296490.0 -0.3075000345 0.7863508297 -0.0002410227 7.10546e-05 -0.000185677 0.0001260302 0.3513208374 -0.7752569843
590296460.0 -0.299846896 0.7896191302 0.0001223005 1.81984e-05 8.11142e-05 -8.7274e-06 0.3435260093 -0.7778333727
595296430.0 -0.2914358979 0.7932434301 -0.0001171262 -6.9827e-06 1.91013e-05 5.81638e-05 0.3352672648 -0.7812088627
600296400.0 -0.2836427848 0.7959134566 6.819e-07 -9.3848e-05 1.672e-05 2.78778e-05 0.3278194809 -0.7843473935
605296370.0 -0.275244333 0.7986402992 0.0001465194 5.5536e-06 6.68837e-05 -6.1568e-06 0.3199536896 -0.7874456561
610296340.0 -0.267572188 0.8014911734 0.0001175303 0.0001883769 -0.0001087092 -5.05785e-05 0.3120751712 -0.7899178117
615296310.0 -0.2589136863 0.8042079377 4.71894e-05 -1.25998e-05 5.05585e-05 -6.34705e-05 0.3045346271 -0.7940507742
620296280.0 -0.2507083492 0.8060832106 0.0002300935 7.9414e-05 -0.0002147068 -0.0001633608 0.2964000267 -0.7969305258
625296250.0 -0.2424876163 0.809197018 -0.0001514092 8.50517e-05 -2.61416e-05 9.62016e-05 0.2877763891 -0.7987161935
630296220.0 -0.2338622115 0.8114674219 -1.39879e-05 6.2959e-05 3.5448e-05 -7.26345e-05 0.2798675034 -0.8016084326
635296190.0 -0.2260515801 0.8139448222 -0.0001772587 8.3106e-06 5.74603e-05 5.86153e-05 0.2720404153 -0.8037005573
640296160.0 -0.2179476842 0.815423763 -0.0001219423 2.31247e-05 4.23687e-05 5.86721e-05 0.2638814733 -0.8068441022
645296130.0 -0.2100006187 0.8179238465 -3.83727e-05 -7.77108e-05 -0.0002896208 1.19055e-05 0.2561182436 -0.8093934019
650296100.0 -0.2017218291 0.8204052566 3.29233e-05 -1.66942e-05 -5.37188e-05 -0.0001258314 0.2479156391 -0.8114336839
655296070.0 -0.1926890538 0.822133796 -2.78983e-05 -0.0001625844 0.0001914494 4.10951e-05 0.2392736075 -0.8138470243
660296040.0 -0.1852339391 0.8242665196 -6.95207e-05 0.0001039504 4.96826e-05 0.0003468146 0.2312996847 -0.8159785783
665296010.0 -0.1771449347 0.8263328683 -2.44895e-05 -0.000167385 7.55649e-05 5.25833e-05 0.223287167 -0.818034914
670295980.0 -0.1680313265 0.8278188409 -0.0001048193 0.0001347084 5.7471e-06 7.22669e-05 0.2153813975 -0.8201072889
675295950.0 -0.1596207255 0.8282476395 -0.0001958227 1.5704e-06 0.0001066875 5.79726e-05 0.2074117498 -0.8218024825
680295920.0 -0.1516602501 0.8312896664 0.0001407966 -1.9866e-05 0.0001159693 -3.90385e-05 0.1985125093 -0.8245891925
685295890.0 -0.1430502102 0.8321070999 -3.64002e-05 3.62898e-05 2.7305e-05 -3.71621e-05 0.190704172 -0.8259905516
690295860.0 -0.1342971505 0.8338407801 3.06314e-05 1.65306e-05 -0.0002085264 -3.16193e-05 0.1825757634 -0.8273171859
695295830.0 -0.1261779027 0.8347810055 -3.17761e-05 0.0002560202 -2.99637e-05 -0.0001540603 0.1737876163 -0.829262522
700295800.0 -0.1180187394 0.8356600936 -3.26444e-05 2.8582e-06 -1.72015e-05 3.88464e-05 0.1655792563 -0.8309461843
705295770.0 -0.1089387645 0.8374579568 -9.22578e-05 0.0001109717 5.19052e-05 0.0001068465 0.1574300236 -0.8316413748
710295740.0 -0.1009727759 0.8383464205 -3.76289e-05 3.87104e-05 0.0001316467 -2.2861e-05 0.1483814031 -0.8329272131
715295710.0 -0.0930318399 0.8392232014 0.000159655 -0.0001587464 -2.35774e-05 0.0001399557 0.1407507114 -0.834708523
720295680.0 -0.0843246122 0.8394898357 -0.0001020699 -9.54893e-05 0.0002024051 3.44109e-05 0.1325208008 -0.8356978278
725295650.0 -0.0748107138 0.8410447799 -0.0001117693 9.28723e-05 9.63012e-05 0.0001043821 0.1238233983 -0.8369477182
730295620.0 -0.0673541486 0.8413960552 0.0001302494 -2.8777e-06 0.0001227248 7.25921e-05 0.1159310658 -0.838788551
735295590.0 -0.0578690623 0.841807641 3.34458e-05 -6.01603e-05 8.9479e-06 9.41719e-05 0.1077258625 -0.8389958224
740295560.0 -0.0503127613 0.842830558 -0.0001299109 0.0001165291 -0.0001214342 0.0001330296 0.0984237561 -0.8407991526
745295530.0 -0.0421423608 0.8427140884 -8.16708e-05 6.92027e-05 0.0001095407 7.75926e-05 0.0904749905 -0.8406367559
750295500.0 -0.0335679584 0.8431193945 -8.78315e-05 -0.0002157524 1.0356e-05 8.8395e-05 0.0821215556 -0.8422897619
755295470.0 -0.0241294911 0.8436412524 -0.0002204983 0.0002367983 5.19108e-05 3.70487e-05 0.0734050964 -0.8417175962
760295440.0 -0.0162487097 0.8434258174 9.63538e-05 3.8671e-05 0.0001171521 -0.0001008154 0.064852181 -0.8429993341
765295410.0 -0.0079575432 0.8436652883 0.0001696186 -0.0001123398 0.0001462033 5.99074e-05 0.0568876365 -0.8431747492
770295380.0 0.0008721026 0.8444430998 -4.14291e-05 -0.0001572179 0.0001133955 -5.99298e-05 0.0491575026 -0.8436615479
775295350.0 0.0091867617 0.8439823801 -8.88789e-05 9.69143e-05 -9.45914e-05 1.16709e-05 0.0400746324 -0.8450157768
780295320.0 0.0176526319 0.8429879656 0.0002156919 -8.0434e-06 0.000219396 0.0001397113 0.0314213291 -0.8434332955
785295290.0 0.0258298671 0.8436516877 4.3013e-06 -8.38444e-05 3.59364e-05 6.72596e-05 0.0228419542 -0.8445527477
790295260.0 0.0342403154 0.8428630024 -6.87993e-05 -2.1623e-05 8.0977e-05 4.49616e-05 0.015031553 -0.8440702414
795295230.0 0.0430061425 0.8434971728 -9.08188e-05 -0.0001736659 7.97327e-05 0.0002282545 0.0061982614 -0.8441551142
800295200.0 0.0512748954 0.8428442002 4.28088e-05 0.0001490785 -6.35774e-05 -0.0001698709 -0.0021235289 -0.8443842348
805295170.0 0.060133747 0.8422928566 7.52457e-05 7.31868e-05 4.69858e-05 4.01447e-05 -0.0107124155 -0.8438086873
810295140.0 0.0682042953 0.8411331205 -0.0001164767 -2.08046e-05 0.0002281419 0.0001355366 -0.019099107 -0.8428620608
815295110.0 0.0766813179 0.8405471614 -0.0002624114 -2.85148e-05 -0.0001752109 9.06144e-05 -0.0273485814 -0.8425611087
820295080.0 0.0850326619 0.8391533609 2.34794e-05 6.83403e-05 2.0033e-05 -4.89789e-05 -0.0360350235 -0.8430952214
825295050.0 0.0938226237 0.8385094398 -9.4074e-06 2.98666e-05 0.0001709282 8.17651e-05 -0.0440088383 -0.8417372534
830295020.0 0.1021686725 0.8377830021 -0.0001216758 -6.28107e-05 -7.51814e-05 3.33887e-05 -0.0531160793 -0.841511874
835294990.0 0.1100429948 0.8372347565 -8.60318e-05 8.21474e-05 1.28853e-05 4.13047e-05 -0.0610173842 -0.8408029859
840294960.0 0.1183936083 0.8355690457 9.14721e-05 9.56426e-05 -6.36971e-05 9.56628e-05 -0.0697538719 -0.8392661504
845294930.0 0.1271307864 0.834366628 -7.93932e-05 2.81622e-05 -7.26658e-05 -5.21794e-05 -0.0776514747 -0.8390070724
850294900.0 0.1353451503 0.8326795508 -0.0002262037 -1.25634e-05 -6.50332e-05 -0.0002437246 -0.0856823311 -0.8375969323
