!Created with skrf (http://scikit-rf.org).
# Hz S RI R 50.0 
!freq ReS11 ImS11 ReS21 ImS21 ReS12 ImS12 ReS22 ImS22
300000.0 -0.1006428722 -0.0715720525 0.6310519237 0.0656043222 0.6245801321 0.066610829 -0.1012548805 -0.0771360785
5299970.0 -0.1019975953 0.012932101 0.6305192085 0.0101005209 0.6307725815 0.0103772769 -0.1008134502 0.0129567818
10299940.0 -0.0971029794 0.0292921495 0.6340483595 0.0152563091 0.6341194173 0.0155513208 -0.0956766454 0.0303818129
15299910.0 -0.089835352 0.0424838133 0.6405203606 0.0203714999 0.6407191909 0.0205282085 -0.0883794 0.0436600167
20299880.0 -0.0815236432 0.0530759541 0.6487458741 0.0244270679 0.6486803236 0.0237078944 -0.0796049023 0.0546422775
25299850.0 -0.0724144741 0.0620901113 0.6576500626 0.0252165932 0.6575141614 0.0256482268 -0.0699361431 0.0634298929
30299820.0 -0.0620796384 0.0689010849 0.6677030918 0.0242650464 0.6671035798 0.0244116189 -0.059622615 0.0699966079
35299790.0 -0.0523409329 0.0736621004 0.6770390487 0.0213054021 0.6772158509 0.0217464289 -0.0496518171 0.0749737862
40299760.0 -0.0432520378 0.0772361314 0.6859785927 0.0171452269 0.6864125007 0.0179266493 -0.0404765745 0.0776117983
45299730.0 -0.033772249 0.0794247603 0.6951262428 0.0113164197 0.6955352166 0.0118327113 -0.031252896 0.0798142306
50299700.0 -0.025685383 0.0803843398 0.7038541845 0.0050144886 0.7037270117 0.0052018312 -0.022675222 0.0808429011
55299670.0 -0.0177689999 0.0806421699 0.7108571719 -0.0031755483 0.7108520673 -0.0026567526 -0.014819312 0.0808200946
60299640.0 -0.0099978001 0.0802285408 0.7173414018 -0.0116690538 0.7178224677 -0.0109592602 -0.0076897728 0.0796072391
65299610.0 -0.0038001081 0.0786985013 0.7226485784 -0.0203873016 0.7234729756 -0.0197351192 -0.0014144655 0.0789105433
70299580.0 0.0026999955 0.0775301882 0.7283864946 -0.0294235401 0.7283959156 -0.0292980465 0.0047789853 0.0769499573
75299550.0 0.0082963186 0.0758326548 0.732805254 -0.0388713921 0.7324341915 -0.0387944744 0.010061265 0.0748861254
80299520.0 0.0131164761 0.0736340698 0.7371347694 -0.0492309396 0.7373826537 -0.0490294146 0.0150519148 0.0728442923
85299490.0 0.0177565993 0.0714190226 0.7402621825 -0.0579633656 0.7406454906 -0.0584541742 0.0193193691 0.0699709024
90299460.0 0.0216593259 0.0690311609 0.7429248243 -0.0693688175 0.743362248 -0.0690541932 0.023459733 0.0679225043
95299430.0 0.0258899529 0.0665422746 0.7459982537 -0.0787276914 0.7455680951 -0.0792185514 0.0273700054 0.0655180435
100299400.0 0.0287237307 0.0645684084 0.7466639112 -0.0892555556 0.746948402 -0.0890677967 0.0310067781 0.062492672
105299370.0 0.0322036982 0.0621530795 0.7486105165 -0.0994390782 0.7490625371 -0.0994808552 0.0342596407 0.0606547774
110299340.0 0.0347955139 0.0599208157 0.7497443367 -0.109251505 0.7493100469 -0.1089801451 0.0358981803 0.0579389169
115299310.0 0.0373005037 0.057508343 0.7506588844 -0.1191223346 0.7504209517 -0.1193429847 0.0388891325 0.0554695536
120299280.0 0.0396790135 0.0547816046 0.7511788794 -0.1293771795 0.7513364007 -0.1294668368 0.0412022245 0.0530366426
125299250.0 0.0418543864 0.0524141192 0.7515479452 -0.1390187273 0.7515398696 -0.1388002237 0.0429758242 0.0502729779
130299220.0 0.0436059691 0.0501778233 0.7512560107 -0.1494132684 0.7514004542 -0.1491302297 0.0449308229 0.0483214443
135299190.0 0.0454549445 0.0483763088 0.7514004148 -0.1592592596 0.7509076989 -0.1586125587 0.0466784462 0.0460167969
140299160.0 0.0465769504 0.0462014766 0.7506427446 -0.1686628502 0.750925664 -0.1688877424 0.048122874 0.0444270372
145299130.0 0.0482955372 0.043886777 0.7499688304 -0.1783543097 0.749714085 -0.1782813369 0.0495683604 0.0420669278
150299100.0 0.0500566362 0.0420683814 0.7489128477 -0.1872124156 0.7490978772 -0.1875884644 0.0509908836 0.0400686155
155299070.0 0.0504890771 0.0399011576 0.7475288907 -0.1981336744 0.7477169968 -0.1977804961 0.0519980685 0.038504793
160299040.0 0.0519849965 0.0381893897 0.7465881496 -0.207030699 0.7456295167 -0.2071252621 0.0520390903 0.0362443418
165299010.0 0.0526695328 0.0363272159 0.7444005145 -0.2171658841 0.7444193178 -0.2170010369 0.0537712602 0.0349934359
170298980.0 0.053446335 0.0338885989 0.7425401471 -0.2264609788 0.7429946577 -0.226041353 0.0542316321 0.0330652432
175298950.0 0.053773278 0.0321386997 0.7414070303 -0.2355245391 0.7407197952 -0.2354010107 0.0550140252 0.0315790626
180298920.0 0.0544262072 0.0306026116 0.7387303286 -0.2446016762 0.7386980429 -0.2445702818 0.0554156139 0.0297156397
185298890.0 0.055729054 0.0292088993 0.7367407308 -0.2536869179 0.7362987149 -0.2540210478 0.055927419 0.0284357254
190298860.0 0.05568734 0.0274046711 0.7343927525 -0.2633480587 0.734702121 -0.2628537089 0.0565438024 0.0265360562
195298830.0 0.056155508 0.0253302364 0.7313034865 -0.2720667445 0.7318931055 -0.2718201946 0.0571596754 0.025011423
200298800.0 0.0563993321 0.023926444 0.7287963431 -0.2817579715 0.7291975395 -0.2809991752 0.0568678231 0.0238337905
205298770.0 0.0570172254 0.0227079094 0.7260066396 -0.290086784 0.7260518854 -0.2894192049 0.0572323343 0.0216201504
210298740.0 0.057373155 0.0211249862 0.723171561 -0.2985823049 0.7231875251 -0.2979192982 0.0578198927 0.0213052216
215298710.0 0.0571035735 0.0196112798 0.7196059059 -0.3077132265 0.7203176094 -0.3074190716 0.0575279114 0.0198908578
220298680.0 0.0575240708 0.0177655785 0.7167523558 -0.3158052503 0.7168619422 -0.3156818745 0.0574193938 0.0181450689
225298650.0 0.0578252484 0.0167806013 0.7136350491 -0.3249168936 0.7133863306 -0.3250678477 0.057602084 0.016568123
230298620.0 0.0578557887 0.0159027745 0.710348029 -0.3326308729 0.7107191124 -0.3327700096 0.0575167219 0.0149308826
235298590.0 0.0579146712 0.0147306437 0.7068855862 -0.3418483788 0.7066794569 -0.3408080751 0.0577421957 0.0138744775
240298560.0 0.058006567 0.013546918 0.7035358617 -0.3501153141 0.7032801857 -0.3497345285 0.0576526144 0.0136043632
245298530.0 0.057727325 0.0121820397 0.7000451235 -0.3584794332 0.6996267751 -0.3579628428 0.0583585908 0.0108198756
250298500.0 0.0586313787 0.0110576362 0.695158624 -0.3665176318 0.6946041975 -0.3658522272 0.0578397675 0.0105794419
255298470.0 0.058486541 0.0093999188 0.6913377874 -0.3740853611 0.6919781652 -0.3736915866 0.0581158077 0.0091745279
260298440.0 0.057821535 0.0084607246 0.6872570687 -0.3831361736 0.6877530387 -0.3823188347 0.0583162855 0.0080248594
265298410.0 0.0589726334 0.0078068678 0.6836316365 -0.3914179762 0.6837160399 -0.3904321723 0.0580554285 0.0065492883
270298380.0 0.0584270324 0.0063125694 0.679393436 -0.3981282408 0.6795734174 -0.3983422552 0.0578900737 0.0059819589
275298350.0 0.0588713121 0.0052788945 0.6753891055 -0.4067666744 0.6757568486 -0.4069139718 0.0581828061 0.0041528634
280298320.0 0.0587610503 0.0046087987 0.6709715771 -0.4146925721 0.6707786933 -0.4142140974 0.0587451131 0.0034736203
285298290.0 0.058483494 0.0031429377 0.6665184091 -0.4223939201 0.6664706738 -0.4221850715 0.0584882345 0.0022199727
290298260.0 0.0592338797 0.0023737118 0.661656592 -0.4292777168 0.6618921276 -0.4299909355 0.0586359661 0.0017209307
295298230.0 0.0590449048 0.0011138054 0.6575201228 -0.437405161 0.6572209745 -0.4374752328 0.0593483955 0.0004794284
300298200.0 0.0583539174 -0.0002055069 0.6528467184 -0.4451211386 0.65301508 -0.445410411 0.0589066965 -0.0007190044
305298170.0 0.0588332736 -0.0014554943 0.6477271388 -0.4531489472 0.6476467918 -0.4527270549 0.0594088699 -0.0022651934
310298140.0 0.0586854749 -0.0023278673 0.6429540508 -0.4609117519 0.6434822083 -0.4605799433 0.0595479613 -0.0030261846
315298110.0 0.0582297393 -0.0042372026 0.6378019922 -0.4682691482 0.6381854637 -0.4688107792 0.0587044357 -0.004514386
320298080.0 0.058675889 -0.0049673393 0.6320739122 -0.4768326345 0.6328466036 -0.4761232902 0.058968322 -0.0053008541
325298050.0 0.0578191819 -0.0059947756 0.6272004479 -0.4838573435 0.6274463762 -0.4832250391 0.0581881086 -0.0064175131
330298020.0 0.057608383 -0.0073332221 0.6214712567 -0.4910006068 0.6216393303 -0.4912154048 0.0575922926 -0.0078908176
335297990.0 0.0572577119 -0.0086183251 0.6161091763 -0.4979288207 0.6154611469 -0.498075854 0.0568516281 -0.0077810562
340297960.0 0.0560395098 -0.0090748795 0.6095677752 -0.5048255364 0.6092952709 -0.5048909619 0.0570144982 -0.0086991983
345297930.0 0.0558975736 -0.0093415935 0.6040418428 -0.5118637961 0.6039224474 -0.5116282564 0.0565809638 -0.0099440613
350297900.0 0.0554424469 -0.0107766152 0.5974895524 -0.5186956919 0.5980714903 -0.5185687227 0.0555788166 -0.0099422808
355297870.0 0.0550628564 -0.0105932157 0.5924623336 -0.5252060198 0.5926387976 -0.5250589477 0.0555370996 -0.0106917473
360297840.0 0.0547807159 -0.01156841 0.5874525483 -0.5315558574 0.5873660078 -0.5314526721 0.0549900309 -0.0109209613
365297810.0 0.0540565821 -0.0120126935 0.5807410508 -0.5382841777 0.5813854072 -0.5382323429 0.0548336408 -0.0117729187
370297780.0 0.0545226021 -0.0133920792 0.5744171558 -0.5446498231 0.5753143666 -0.5442056516 0.0544917087 -0.0124758333
375297750.0 0.0538951024 -0.013667875 0.5686119939 -0.5510965289 0.5699190833 -0.5512187818 0.054509853 -0.0129048041
380297720.0 0.0538029405 -0.0141912982 0.5625478061 -0.5579218849 0.5626719193 -0.5565981904 0.0534091369 -0.0139966623
385297690.0 0.0528577257 -0.0150924412 0.5561952308 -0.5636799455 0.5563109442 -0.5633458954 0.0532973662 -0.0141355415
390297660.0 0.0528354004 -0.0152255111 0.5502119322 -0.5701042404 0.5504186932 -0.5696473986 0.0526451903 -0.0151522484
395297630.0 0.0522457958 -0.0158817032 0.5442510617 -0.5759119865 0.5442647165 -0.5762161244 0.0534204771 -0.0157547707
400297600.0 0.0518592503 -0.0165714833 0.5372642555 -0.5824925308 0.5373877767 -0.5819458324 0.0521807284 -0.0160631014
405297570.0 0.051254096 -0.0171240697 0.5307546407 -0.5880517233 0.5312000153 -0.5872970674 0.0514870882 -0.0168776855
410297540.0 0.0512927973 -0.0179822789 0.5243707808 -0.5944157833 0.5254188741 -0.5936814947 0.0511669369 -0.0171141663
415297510.0 0.0513733529 -0.0184908334 0.5182568712 -0.6001781486 0.518357912 -0.5998991572 0.0511334703 -0.0178613088
420297480.0 0.0510043429 -0.0191684708 0.5117736986 -0.606011152 0.5113000557 -0.6056360645 0.0503257219 -0.0188259189
425297450.0 0.0502447862 -0.0204946955 0.505077415 -0.6117772361 0.504949203 -0.6113721229 0.0494508939 -0.0188499497
430297420.0 0.0499032799 -0.0206739204 0.4982386882 -0.6165304597 0.4980383113 -0.6159707939 0.0495870263 -0.0202819523
435297390.0 0.0494803629 -0.0214587231 0.4911477542 -0.6230411738 0.4908983996 -0.6220648059 0.050262113 -0.0207916907
440297360.0 0.0493650611 -0.0213815044 0.4842017802 -0.6276793193 0.4843164643 -0.6277381707 0.0489358185 -0.0213318505
445297330.0 0.0486125344 -0.0227337289 0.4775962866 -0.6332071241 0.477834088 -0.6324597845 0.0492173211 -0.0224670615
450297300.0 0.0488107148 -0.0229903808 0.4702577997 -0.6384696235 0.4706233051 -0.6385060284 0.0485465896 -0.0231257953
455297270.0 0.0483615183 -0.0236580259 0.4634740664 -0.6434386188 0.4642597168 -0.643781191 0.0481713743 -0.023439629
460297240.0 0.0477998872 -0.0241594421 0.4561672024 -0.6481041737 0.4560972029 -0.6486613927 0.0476651505 -0.0238040264
465297210.0 0.0475684879 -0.0248267413 0.4495752187 -0.6535574427 0.4491252202 -0.6544098059 0.0475175688 -0.0249618269
470297180.0 0.0473127581 -0.025599217 0.4416974768 -0.658609474 0.4420635344 -0.658538757 0.0473682164 -0.0250188746
475297150.0 0.0469667445 -0.0264111482 0.4344076953 -0.6631072755 0.4348967121 -0.6629752624 0.0474488986 -0.0259737814
480297120.0 0.04619797 -0.0260470189 0.4272412192 -0.6686061007 0.427528481 -0.6685698531 0.0470527884 -0.0261816211
485297090.0 0.0458020969 -0.026805103 0.4201291685 -0.6727803107 0.4199294372 -0.6724518986 0.0462258824 -0.0268887301
490297060.0 0.0448571888 -0.0279092479 0.4130152508 -0.6781419158 0.4130275155 -0.6772872412 0.0461933992 -0.0269270695
495297030.0 0.0446983584 -0.0278330177 0.4050512867 -0.6822707712 0.4058879716 -0.6819971849 0.0451241951 -0.0278122223
500297000.0 0.0441547503 -0.0290783072 0.3972113765 -0.6860936138 0.3973905046 -0.6860668581 0.0453896597 -0.0273719368
505296970.0 0.0441572088 -0.0293687582 0.3902795528 -0.6907295263 0.389804322 -0.6906337944 0.0447568749 -0.0283463792
510296940.0 0.0433080122 -0.0294893714 0.3823029538 -0.6951568716 0.3827454533 -0.6950274973 0.044660338 -0.0283298248
515296910.0 0.042699791 -0.0294998855 0.3744719234 -0.6992732765 0.3747734587 -0.6989529351 0.0442806104 -0.0290053561
520296880.0 0.0423128309 -0.0305782517 0.3668646203 -0.7043818869 0.3670854653 -0.7029069926 0.0433459317 -0.029559345
525296850.0 0.0421437913 -0.0313661744 0.3589190776 -0.7070470798 0.3599126551 -0.7073160451 0.042962212 -0.0298173237
530296820.0 0.0416013221 -0.0311062438 0.351256419 -0.7113936656 0.3519180657 -0.7111934596 0.0425273805 -0.030104155
535296790.0 0.0406322427 -0.0316278563 0.3442381922 -0.7151448782 0.3441848815 -0.7143926988 0.0421795373 -0.0311756123
540296760.0 0.0400062242 -0.0317081493 0.335756642 -0.718868724 0.3356622913 -0.7191027811 0.0409752511 -0.030534908
545296730.0 0.0397917558 -0.0325588069 0.3278526214 -0.7229014282 0.3281907584 -0.7221699112 0.0405492391 -0.0313379765
550296700.0 0.0401070396 -0.0325394379 0.3198014016 -0.7259025411 0.3202075506 -0.7264846455 0.039746831 -0.0315965312
555296670.0 0.0388914835 -0.0331152797 0.3119225338 -0.7299598531 0.312277128 -0.7293564038 0.0396032451 -0.0318364621
560296640.0 0.0386590773 -0.0331718348 0.3039550232 -0.7331857398 0.3044529362 -0.7326783108 0.0390758839 -0.0323901021
565296610.0 0.0376994755 -0.0337578486 0.2960571971 -0.7363624014 0.2961291849 -0.7364932615 0.03830918 -0.03302152
570296580.0 0.0371656114 -0.0339514846 0.2880191157 -0.7402019682 0.2872413837 -0.739423745 0.0377063805 -0.0327266088
575296550.0 0.0366311982 -0.0343858355 0.2794870911 -0.7427835041 0.2801027563 -0.742759199 0.0374873373 -0.0335858952
580296520.0 0.0361091467 -0.0344529116 0.2713338234 -0.7459876652 0.2717206091 -0.7456331213 0.0366121984 -0.0340599628
585296490.0 0.0355435128 -0.0355407304 0.2637728664 -0.7483460799 0.2639478225 -0.7486158816 0.0363839459 -0.0340917588
590296460.0 0.0354523745 -0.0353941646 0.2556022084 -0.7507937378 0.2556088056 -0.7510939161 0.0346757457 -0.0344970747
595296430.0 0.0351346432 -0.0357648569 0.2466162904 -0.7547929248 0.2471060234 -0.7540789237 0.0350117619 -0.0352721027
600296400.0 0.0340342773 -0.0363500243 0.2388712921 -0.7570160047 0.2391702931 -0.756627651 0.0340336177 -0.0355545632
605296370.0 0.0337570077 -0.0364707469 0.2301561543 -0.7597488001 0.231014322 -0.7590715351 0.0338449108 -0.0361433367
610296340.0 0.0332361232 -0.0366815454 0.2220229759 -0.761547799 0.2225875474 -0.7617487562 0.0335015663 -0.0362720083
615296310.0 0.0330610132 -0.0377184029 0.2135990815 -0.7640183363 0.2137853401 -0.7645236199 0.0332102803 -0.0364682623
620296280.0 0.0323528122 -0.0378719056 0.2057056613 -0.7664916366 0.2058741778 -0.7658321865 0.0323083436 -0.0370390422
625296250.0 0.0314739717 -0.0387259716 0.1978693469 -0.7689220729 0.1979116984 -0.7688313903 0.0325233746 -0.0372425108
630296220.0 0.0319380665 -0.0382829067 0.1887328264 -0.7708905701 0.1881662972 -0.7704685767 0.031549119 -0.0375118833
635296190.0 0.0299100389 -0.0392228721 0.1806856472 -0.772921831 0.1808005967 -0.7729213358 0.031179987 -0.0376589
640296160.0 0.0295149439 -0.0389049169 0.1717981091 -0.7745404103 0.1723126744 -0.7745022986 0.0302980154 -0.0378973099
645296130.0 0.0292028695 -0.0390921382 0.1630540975 -0.7762059564 0.1638118259 -0.7766597621 0.0301707814 -0.038087119
650296100.0 0.0288078398 -0.0396344147 0.1547254121 -0.778275682 0.1551073789 -0.7783554974 0.029902252 -0.0392754349
655296070.0 0.0274592205 -0.0402286436 0.1468815057 -0.7802114288 0.146805278 -0.7799248913 0.0294231248 -0.0385844224
660296040.0 0.0268329846 -0.0406839753 0.1381679106 -0.7815309324 0.1387572043 -0.7814993593 0.0292078886 -0.0387895414
665296010.0 0.0271536089 -0.0402558485 0.1289364199 -0.7826428398 0.1296401799 -0.7824595187 0.0285516417 -0.0386442857
670295980.0 0.0251677428 -0.0404040175 0.1206147266 -0.7838188366 0.120701597 -0.7840094961 0.027416132 -0.0391715009
675295950.0 0.024907947 -0.0402304496 0.1125389596 -0.785309795 0.1126859718 -0.7849731943 0.0266048311 -0.0394142032
680295920.0 0.0242311228 -0.0408880179 0.1037010157 -0.7864254542 0.1029165153 -0.7869771397 0.02668133 -0.0387817946
685295890.0 0.0239616543 -0.0405581839 0.0952722886 -0.7871589738 0.0949543506 -0.7877781723 0.0256925486 -0.0392342164
690295860.0 0.0235613213 -0.0406480522 0.0865103673 -0.7877141208 0.0863638793 -0.7888068198 0.024933089 -0.038610713
695295830.0 0.0229940911 -0.0412338658 0.0784345296 -0.7892435047 0.0780925356 -0.7891573245 0.024259087 -0.0390328985
700295800.0 0.0224693648 -0.0415497685 0.0696508392 -0.7899657062 0.0689513621 -0.7895704556 0.0235716451 -0.0385365705
705295770.0 0.0211965141 -0.0405817124 0.060592006 -0.7907259447 0.0608744165 -0.7908222688 0.0230275208 -0.0391323667
710295740.0 0.021243011 -0.0411972342 0.0526800886 -0.7927053055 0.05275187 -0.7921715776 0.0227805159 -0.039753114
715295710.0 0.0198695707 -0.0416010902 0.0437358343 -0.7925503606 0.0433320297 -0.792043849 0.0220113111 -0.0395787355
720295680.0 0.0196732164 -0.0416510537 0.0352818737 -0.7927163603 0.0354349708 -0.7921953882 0.0212297435 -0.0389248553
725295650.0 0.019237034 -0.0414223242 0.0266909685 -0.7923967604 0.026501077 -0.7926255646 0.0202603417 -0.0393668065
730295620.0 0.0191948822 -0.041365502 0.0179206468 -0.7924286892 0.0181585342 -0.7930499556 0.0195642296 -0.0398855044
735295590.0 0.0178622305 -0.0414434692 0.0092197693 -0.7932779644 0.0093342077 -0.7932668258 0.0191375264 -0.0401187024
740295560.0 0.0169435654 -0.0416261373 0.0003732781 -0.793010667 0.0004196887 -0.7932997994 0.0190852104 -0.0396236355
745295530.0 0.0169305619 -0.0415111597 -0.0079607047 -0.7926185304 -0.0082109968 -0.7932294973 0.0182452473 -0.0403357245
750295500.0 0.016292995 -0.041581403 -0.0160152572 -0.7925760787 -0.0165120279 -0.7927450437 0.0176746344 -0.0402030561
755295470.0 0.0160010224 -0.0421598525 -0.025073341 -0.7925693195 -0.0252547949 -0.7928325132 0.0174345473 -0.0406712392
760295440.0 0.0150393271 -0.0417335596 -0.0339562813 -0.7927649811 -0.0339502494 -0.7923771723 0.0162872975 -0.040305857
765295410.0 0.0144270175 -0.0418065732 -0.0424016754 -0.7917979921 -0.0424514186 -0.7925049699 0.0159925038 -0.0407979563
770295380.0 0.0133395747 -0.0422676751 -0.0514710147 -0.7915002231 -0.0513654422 -0.7913591802 0.015074464 -0.0408418332
775295350.0 0.0127478411 -0.0428787828 -0.0606564282 -0.7902549621 -0.0597382719 -0.790540386 0.0138586768 -0.0406308939
780295320.0 0.0125264043 -0.042298643 -0.0685104471 -0.7903841675 -0.0675222755 -0.7900567848 0.0136952501 -0.0412896954
785295290.0 0.0116323307 -0.0429654769 -0.0777918597 -0.7886093004 -0.0768356441 -0.7890682072 0.0138297222 -0.0405706527
790295260.0 0.0116895564 -0.0417117793 -0.0852340358 -0.7882085607 -0.0842425098 -0.788186859 0.0125597337 -0.0411795175
795295230.0 0.0109239202 -0.0426443274 -0.0941764795 -0.7870995692 -0.0937427627 -0.7872490394 0.0124097471 -0.0405121063
800295200.0 0.00961787 -0.0420236725 -0.103361884 -0.785758637 -0.1027950777 -0.7858168413 0.0115287179 -0.0407275723
805295170.0 0.009319159 -0.0424805623 -0.111414068 -0.7848328174 -0.111590721 -0.7853631607 0.011186763 -0.0405942841
810295140.0 0.0082798427 -0.0428277474 -0.1191030303 -0.7836105075 -0.1197182117 -0.7840351249 0.0114210274 -0.0404746089
815295110.0 0.0081704733 -0.0429701114 -0.127717103 -0.7819933314 -0.1279235743 -0.7819277452 0.0098856936 -0.0403563834
820295080.0 0.006826395 -0.0417678506 -0.1370152045 -0.7807395916 -0.1363720292 -0.7809297994 0.0093399728 -0.0404067315
825295050.0 0.0069956697 -0.0419844202 -0.1446894337 -0.7789311575 -0.1450903206 -0.7794208588 0.0094041306 -0.0404604767
830295020.0 0.0059904474 -0.0418977083 -0.1533881706 -0.7767576279 -0.1534910533 -0.7772046354 0.009305931 -0.0400079315
