!Created with skrf (http://scikit-rf.org).
# Hz S RI R 50.0 
!freq ReS11 ImS11 ReS21 ImS21 ReS12 ImS12 ReS22 ImS22
300000.0 -0.2428345487 -0.0797683844 0.4722990153 0.0534043404 0.4682891934 0.0537743131 -0.2396758447 -0.0959970572
5299970.0 -0.2441099661 0.0073387803 0.473279532 0.0045599019 0.4733973379 0.0050382241 -0.2440163124 0.0072968582
10299940.0 -0.2410316855 0.0188699538 0.4753897414 0.0063748926 0.4754880839 0.0062296517 -0.2406030645 0.0203942997
15299910.0 -0.236891653 0.0282711713 0.4791526953 0.0074144839 0.4793436089 0.0075043005 -0.2359980752 0.0299474978
20299880.0 -0.2322312038 0.0355148585 0.4839136118 0.008919488 0.483777565 0.0083452561 -0.2308476288 0.0377009807
25299850.0 -0.2270199101 0.0421394506 0.4890887739 0.0076486108 0.4890616287 0.0075157523 -0.2250611866 0.043916954
30299820.0 -0.2216539991 0.0474012584 0.4946793307 0.0051829276 0.4944298387 0.0054934267 -0.2189848967 0.0491365276
35299790.0 -0.2165003842 0.0515700097 0.4999558712 0.0021465508 0.5000914665 0.0018592846 -0.2133253956 0.0536421566
40299760.0 -0.2112385477 0.0552262029 0.5049616576 -0.0022146787 0.5052200678 -0.001770166 -0.2084253302 0.0562828581
45299730.0 -0.2067078279 0.0576976146 0.5094950449 -0.0064730621 0.5100548651 -0.0065626705 -0.2033802784 0.0590366315
50299700.0 -0.2025031736 0.0598297484 0.5141971409 -0.0118322031 0.514262203 -0.0118934424 -0.198422968 0.0608337642
55299670.0 -0.1982330079 0.0617235393 0.5180519262 -0.0183729077 0.5176428042 -0.0180644138 -0.194432834 0.0623740775
60299640.0 -0.1942791545 0.0633854589 0.5209822487 -0.0243434791 0.5215032099 -0.0241009502 -0.1904459915 0.0631740437
65299610.0 -0.1910536094 0.0647674949 0.5242011135 -0.030939216 0.5242452109 -0.0307402239 -0.1870978324 0.0642945687
70299580.0 -0.1879024581 0.0661210297 0.5265252173 -0.0373233028 0.526688813 -0.0372980952 -0.1838602378 0.0649243999
75299550.0 -0.1851738378 0.0671889365 0.5284196705 -0.044133953 0.5285023258 -0.0441483188 -0.1810552502 0.0653038661
80299520.0 -0.1827116314 0.0679333968 0.5303661393 -0.0509243566 0.5303949103 -0.0511364345 -0.1783186051 0.0662171543
85299490.0 -0.1801978329 0.0686374823 0.5316153879 -0.0573572619 0.5315580038 -0.0577008223 -0.1762224391 0.0663188104
90299460.0 -0.1780517027 0.0696704865 0.5324726195 -0.0648799456 0.5328715385 -0.0651418299 -0.173718006 0.0668491317
95299430.0 -0.1756368246 0.0706567998 0.5337084011 -0.0718228079 0.5335793855 -0.0715937726 -0.1714584053 0.0672249577
100299400.0 -0.1739487828 0.0719292266 0.5337726846 -0.0785333728 0.533868036 -0.0786258086 -0.1697251993 0.0672414314
105299370.0 -0.172127626 0.0724278458 0.5341255845 -0.085932675 0.5344531896 -0.0855169943 -0.1675764625 0.0679838526
110299340.0 -0.1704634832 0.0732097488 0.5345751789 -0.0920598124 0.5342459558 -0.0921100652 -0.1665790671 0.068213065
115299310.0 -0.1687921186 0.0741125183 0.5348601466 -0.0993073336 0.5344140405 -0.0991560324 -0.1649252748 0.0689394731
120299280.0 -0.1674223008 0.0748866537 0.534105507 -0.1064607263 0.5341884541 -0.1062363041 -0.1634888163 0.0694777207
125299250.0 -0.166109842 0.0754352664 0.5340656976 -0.1125143386 0.5341346623 -0.1128785535 -0.1625343882 0.0695732412
130299220.0 -0.1649560457 0.0766338323 0.5332077092 -0.1193815084 0.5331158159 -0.119321768 -0.161185295 0.0700571249
135299190.0 -0.1636849035 0.0777930773 0.5325979499 -0.1261891629 0.5327058891 -0.1260807913 -0.1597714898 0.0709222556
140299160.0 -0.1626843806 0.078922148 0.5319692895 -0.1328353853 0.5320343123 -0.1329504969 -0.1587327032 0.0720415376
145299130.0 -0.1613193381 0.080019544 0.5310170481 -0.1395275692 0.5304675436 -0.1394115462 -0.1578375952 0.0726476542
150299100.0 -0.1601078274 0.0810780721 0.5296077978 -0.1452901502 0.529499394 -0.1453081943 -0.1568630612 0.0738636036
155299070.0 -0.1595135684 0.0820080253 0.5288648033 -0.153067297 0.5284790448 -0.1526391978 -0.1557803324 0.0745747847
160299040.0 -0.1582047209 0.0833983317 0.5269822999 -0.1587141024 0.5269956693 -0.1589185728 -0.1552426279 0.0753055548
165299010.0 -0.15728419 0.0847393401 0.5259751128 -0.1655355512 0.5258807464 -0.1656103618 -0.1541348303 0.076811401
170298980.0 -0.1563826874 0.0855761488 0.5238958059 -0.1715422169 0.5246412098 -0.1716445076 -0.153488696 0.0773757248
175298950.0 -0.1556043677 0.0870427747 0.5229468176 -0.1778713577 0.5223927887 -0.1779292046 -0.152676543 0.0787574452
180298920.0 -0.154477785 0.0885510785 0.5210051695 -0.1846629236 0.5208813391 -0.1838237752 -0.1517116392 0.0798850076
185298890.0 -0.1533610031 0.0895734837 0.519034729 -0.1903704844 0.519120333 -0.1904446269 -0.1512765079 0.0810624029
190298860.0 -0.1527756192 0.0909409883 0.5171624163 -0.1968399878 0.5176615769 -0.1967065756 -0.1506372589 0.0820371454
195298830.0 -0.1518406812 0.0923120335 0.5153453463 -0.2030070559 0.5152437561 -0.2026470777 -0.1494094357 0.0832175464
200298800.0 -0.1506915512 0.0935296748 0.5125200057 -0.2089433165 0.5132519588 -0.2090045715 -0.149267184 0.0843970772
205298770.0 -0.1496854594 0.0949718412 0.5106515331 -0.2151050413 0.5106661747 -0.2146818723 -0.1484934291 0.0849571788
210298740.0 -0.1487654813 0.0960546204 0.5081594817 -0.220535355 0.5087394148 -0.2207215844 -0.1476662204 0.0867723831
215298710.0 -0.1483684881 0.0977111865 0.5063487775 -0.2268468484 0.5059662952 -0.2272662713 -0.1474071627 0.0878007279
220298680.0 -0.147047488 0.0987348792 0.5033180506 -0.2325033398 0.5037614242 -0.2325849427 -0.14691339 0.08859814
225298650.0 -0.1462488949 0.1005320696 0.5011038481 -0.2386018416 0.5014764741 -0.2386659927 -0.1463175972 0.0898845976
230298620.0 -0.1450796023 0.102393468 0.4986135926 -0.2441524109 0.4991785193 -0.2445904559 -0.1452486734 0.0910622524
235298590.0 -0.1440123366 0.1038033462 0.4959697321 -0.2500805407 0.4961397535 -0.2495861362 -0.1447446639 0.0924208093
240298560.0 -0.1431925799 0.1051218253 0.4933882611 -0.256101424 0.4936413442 -0.2565750685 -0.1442160015 0.0937994566
245298530.0 -0.1422704183 0.1066115836 0.490934131 -0.2619522995 0.4907723119 -0.2617387826 -0.1432482994 0.0943161559
250298500.0 -0.1408917923 0.1082318173 0.4874407261 -0.2677377518 0.487347861 -0.266763113 -0.1425016014 0.0954378396
255298470.0 -0.1400946767 0.1092411793 0.4845464186 -0.2722159939 0.4848308649 -0.2727937032 -0.1419345652 0.0970652601
260298440.0 -0.1391072108 0.1107293713 0.4815799135 -0.2789658847 0.4821957027 -0.278262215 -0.1409374813 0.0979810363
265298410.0 -0.1377409254 0.1127010663 0.4785174019 -0.2840239622 0.4789574133 -0.2838898036 -0.1398347493 0.0994227518
270298380.0 -0.1367450211 0.11382285 0.4762049122 -0.2888314749 0.4757686706 -0.2896275288 -0.1391995075 0.1006321915
275298350.0 -0.1353070221 0.115426689 0.4727200064 -0.2949522857 0.4730807469 -0.2949635109 -0.137883461 0.1017469887
280298320.0 -0.1339415629 0.1167761168 0.4698998225 -0.3002404005 0.4696197447 -0.299952879 -0.1369295394 0.1028120729
285298290.0 -0.1327829478 0.1184082555 0.4661789428 -0.3050607781 0.4662554914 -0.3056923582 -0.1361243375 0.1041252469
290298260.0 -0.1315577695 0.1195478516 0.4629792021 -0.3103825935 0.4631457754 -0.3105995198 -0.1352231618 0.1055081068
295298230.0 -0.130172435 0.1208892533 0.4594545879 -0.3158236788 0.4597922514 -0.3161809482 -0.1336489444 0.1063175399
300298200.0 -0.129283242 0.122280626 0.4565532505 -0.3209935184 0.456265245 -0.3214943833 -0.1328024257 0.1078802481
305298170.0 -0.1277460936 0.1235318852 0.4523890449 -0.3267073877 0.452527395 -0.3268001192 -0.1313140386 0.1089978867
310298140.0 -0.1265838713 0.1251247816 0.4494065434 -0.3319111611 0.4494193505 -0.3312447493 -0.1306238335 0.1104285169
315298110.0 -0.1251715345 0.1262808579 0.4454529134 -0.3369492555 0.4458509472 -0.3370710405 -0.1295380783 0.1110654825
320298080.0 -0.123843907 0.1272470576 0.4410342035 -0.3420459807 0.4416946047 -0.3420406569 -0.1285280836 0.1127360548
325298050.0 -0.1225173361 0.1287816773 0.4376399285 -0.347066324 0.4378292933 -0.3470800117 -0.1278902073 0.113714396
330298020.0 -0.1213452707 0.1300162546 0.4334016416 -0.3520588794 0.4340715651 -0.3520620156 -0.1267982134 0.1150751185
335297990.0 -0.1201159204 0.1313162439 0.4295951484 -0.3565044938 0.429522369 -0.3566345004 -0.1263820797 0.1167938574
340297960.0 -0.1192745127 0.1330336055 0.4254007746 -0.3619463589 0.4254878771 -0.3620018913 -0.1245902598 0.1180785645
345297930.0 -0.1179087708 0.134523364 0.4214593562 -0.3662877397 0.4213314784 -0.3665827892 -0.1240529105 0.1192332188
350297900.0 -0.1163781783 0.1355441435 0.4167602933 -0.3708538016 0.417223951 -0.3708690223 -0.1233066326 0.1210171548
355297870.0 -0.1150188387 0.1375031843 0.4130485576 -0.3754078611 0.4136386334 -0.3753777617 -0.1222240477 0.1221850915
360297840.0 -0.113790847 0.1388763272 0.4090988473 -0.3799433389 0.4098264692 -0.3800003666 -0.1210294293 0.1237062615
365297810.0 -0.1125313323 0.1404131674 0.4049750851 -0.3848759479 0.4051475572 -0.384732445 -0.1199747572 0.1251046576
370297780.0 -0.1106203719 0.1413630412 0.4007217604 -0.388635814 0.4007749516 -0.388879776 -0.1192217877 0.1265544694
375297750.0 -0.109163449 0.1428248125 0.3964031791 -0.3932810129 0.3967711926 -0.3935523553 -0.1177473832 0.1276163721
380297720.0 -0.1077295435 0.1441878608 0.3918299399 -0.3978350571 0.3917602061 -0.3972008095 -0.1168730814 0.1286848253
385297690.0 -0.1065399413 0.1457128557 0.3876098776 -0.4021609086 0.3872628286 -0.4018784142 -0.1158725897 0.1303184988
390297660.0 -0.1050023897 0.1469164262 0.3833089198 -0.4064003935 0.3834080757 -0.4059047997 -0.1148778942 0.131407884
395297630.0 -0.1031596074 0.1483923218 0.3789496264 -0.410321124 0.3785945424 -0.4105715017 -0.1131157565 0.1329333437
400297600.0 -0.1019099506 0.1496907501 0.373793563 -0.4150506664 0.3739460185 -0.4144686856 -0.1121469253 0.1338939426
405297570.0 -0.10050676 0.1507812273 0.3695560747 -0.4185028657 0.3693490419 -0.4185948529 -0.1113576424 0.1351343194
410297540.0 -0.0983948942 0.1520012275 0.3647138344 -0.4227791727 0.365164405 -0.4228562615 -0.1102193699 0.1366849116
415297510.0 -0.0965064529 0.153204615 0.359734683 -0.4267876863 0.3602617047 -0.4269713228 -0.1088216985 0.1375487862
420297480.0 -0.0952132443 0.1547735456 0.3551694335 -0.4307473258 0.3551726397 -0.430928819 -0.107619179 0.1385130234
425297450.0 -0.0934372451 0.1554214701 0.3510905387 -0.4345093512 0.3510746967 -0.4347194952 -0.1065610328 0.1401538535
430297420.0 -0.0920174413 0.156530216 0.3461081552 -0.4379731873 0.3460483303 -0.4380161985 -0.1053021565 0.1406455303
435297390.0 -0.0902060518 0.158188344 0.3408152865 -0.4421581909 0.3407585361 -0.4418937783 -0.1031060202 0.1420205487
440297360.0 -0.088243073 0.1590025 0.3360426867 -0.4455870425 0.3364148188 -0.4457423639 -0.1022502438 0.1429168725
445297330.0 -0.0869077202 0.1600908046 0.3319146126 -0.4494871073 0.3314615681 -0.4492463712 -0.1009683672 0.1434505403
450297300.0 -0.0848039603 0.1609900696 0.3266605348 -0.4530852266 0.3266661011 -0.4530093338 -0.0996062496 0.1448215508
455297270.0 -0.0831999203 0.1619488119 0.3215238487 -0.4565253503 0.3215601019 -0.456451077 -0.0981132648 0.1458348621
460297240.0 -0.0816285282 0.1634312783 0.3161285674 -0.4598128558 0.3162190638 -0.4599373043 -0.0967568616 0.1469947782
465297210.0 -0.0795735167 0.1642886329 0.311523237 -0.4633705158 0.3110299309 -0.463655132 -0.0953830399 0.1477488893
470297180.0 -0.0775812862 0.1651338147 0.3057539857 -0.4668575907 0.3064632359 -0.4665536066 -0.0933980445 0.1490197907
475297150.0 -0.0759826968 0.1659684014 0.3010954299 -0.469586908 0.3012528542 -0.4697713249 -0.0920448857 0.1497187124
480297120.0 -0.074218874 0.1671154059 0.2961014978 -0.4736253596 0.2956953216 -0.4736685802 -0.0902589581 0.1512019887
485297090.0 -0.0724129971 0.1680969552 0.2911167102 -0.4760142186 0.2911186057 -0.4762013168 -0.0886392801 0.1520624481
490297060.0 -0.0706949027 0.1690100986 0.2856824841 -0.4797129474 0.2856556171 -0.4794538667 -0.0875437411 0.1533692237
495297030.0 -0.0691061824 0.170083436 0.2799684486 -0.4823855234 0.2809212995 -0.4824505384 -0.0863367379 0.1543455736
500297000.0 -0.066808133 0.1709561432 0.2748657242 -0.4853338334 0.2745888463 -0.4850393875 -0.0847339786 0.1558143495
505296970.0 -0.0647309268 0.1713939144 0.2696651742 -0.4880712843 0.2694815005 -0.4884943876 -0.0829480547 0.1563161817
510296940.0 -0.0630035426 0.1726406001 0.2643555349 -0.4912989405 0.2642257842 -0.4917529501 -0.0812412924 0.1575780106
515296910.0 -0.0611845017 0.173538463 0.2588536737 -0.4942733823 0.2589082122 -0.4940468795 -0.0799223446 0.1586874332
520296880.0 -0.0593487456 0.1742702669 0.2535697951 -0.4973072527 0.2536787849 -0.4967620086 -0.0786139645 0.1593030686
525296850.0 -0.057214906 0.1745823624 0.2478880263 -0.4995567267 0.2482176482 -0.4995760775 -0.0769195636 0.1602187466
530296820.0 -0.0552889656 0.1758755809 0.2424383517 -0.5025827074 0.2429494973 -0.5022765502 -0.0752824868 0.1612057431
535296790.0 -0.0537217726 0.1765158773 0.237808202 -0.5051539799 0.2373436442 -0.5045607819 -0.0742377015 0.1622719552
540296760.0 -0.0518890043 0.1775632228 0.2316837449 -0.5076772208 0.231654889 -0.5076777027 -0.072673073 0.1632789314
545296730.0 -0.0498047727 0.1780975617 0.2260930834 -0.5095550213 0.2263704236 -0.5100894191 -0.0710321594 0.1640110468
550296700.0 -0.0472074632 0.1788751004 0.2206532346 -0.5124269315 0.2208936229 -0.5124202237 -0.0696995605 0.1649891341
555296670.0 -0.0459190748 0.1792840976 0.2152100802 -0.5146208614 0.2155369199 -0.5147188681 -0.0682489968 0.166271743
560296640.0 -0.043519112 0.1802052173 0.2092035499 -0.5172955216 0.2098246355 -0.5169946738 -0.0664825183 0.1667998311
565296610.0 -0.0419843347 0.1805886167 0.2036882376 -0.5191618271 0.2040854512 -0.5190950211 -0.0651642103 0.1671443597
570296580.0 -0.0399636421 0.1815295648 0.1982747571 -0.5218621477 0.1974652382 -0.5215548699 -0.0634527108 0.168727444
575296550.0 -0.0379194636 0.1824283222 0.1923529834 -0.5244079204 0.192074165 -0.5235526091 -0.0616994548 0.1689678692
580296520.0 -0.0355159451 0.1825851246 0.1865622916 -0.5258788702 0.1869876865 -0.5255461259 -0.0604525753 0.1694892545
585296490.0 -0.0340324767 0.1827883502 0.1814844719 -0.5273113436 0.1812776698 -0.5276769683 -0.0585343469 0.1707047112
590296460.0 -0.0314332963 0.1838718828 0.1750326225 -0.5288923682 0.1752923104 -0.5293874552 -0.0574847154 0.1713364967
595296430.0 -0.0296132264 0.1840585935 0.169206806 -0.5314280171 0.1692362601 -0.5315072345 -0.0555320595 0.1716126448
600296400.0 -0.0278822373 0.1844329417 0.1636592782 -0.5331173549 0.1636161242 -0.5325126707 -0.0541406454 0.1721698853
605296370.0 -0.0259035899 0.1847193098 0.1582085394 -0.5341828259 0.157869366 -0.5347611896 -0.0520177896 0.1727529955
610296340.0 -0.0235807148 0.1851881373 0.1520673912 -0.5362355046 0.1522864118 -0.5363960744 -0.0502582127 0.1733282751
615296310.0 -0.0213710281 0.1852944803 0.1461942586 -0.5373583642 0.1457860575 -0.5388162787 -0.0484920503 0.1739441421
620296280.0 -0.0196672973 0.1858123929 0.1404656087 -0.5388906619 0.1404906213 -0.5391590641 -0.0471432349 0.1744828135
625296250.0 -0.0176323994 0.1858336831 0.1353722404 -0.5410324683 0.134335844 -0.5411054681 -0.0450334842 0.1750137499
630296220.0 -0.0149167538 0.1864813612 0.1280784048 -0.5421661926 0.1281754381 -0.5420652545 -0.0436214927 0.1756759697
635296190.0 -0.0138462679 0.1867255884 0.1231599568 -0.5434856426 0.1225688606 -0.5435634632 -0.0416191576 0.1760528994
640296160.0 -0.0117104265 0.1871455877 0.1170875517 -0.5445928221 0.1173541579 -0.5450289077 -0.0398151875 0.1766793605
645296130.0 -0.0093782951 0.1875925129 0.1105156952 -0.5457962162 0.11135808 -0.5458012934 -0.0380234197 0.1772404029
650296100.0 -0.007056212 0.1872927026 0.1047659311 -0.5468149037 0.1050512965 -0.5474157442 -0.0362067207 0.1770237337
655296070.0 -0.0051814356 0.1877817526 0.0996435541 -0.5483826878 0.0990000337 -0.5483066506 -0.0341361774 0.1781038736
660296040.0 -0.0034245079 0.1875956773 0.0933772112 -0.5491128176 0.0934354203 -0.549434899 -0.0321678939 0.1788055033
665296010.0 -0.0007829929 0.1878048268 0.0870736726 -0.5503853081 0.0876161993 -0.5499802332 -0.0307288797 0.1797958176
670295980.0 0.0002782531 0.1881619646 0.0812411828 -0.5510174557 0.0814570801 -0.5512240255 -0.0291282317 0.1797226753
675295950.0 0.0031329191 0.1887095717 0.0756040639 -0.5518186016 0.0759657385 -0.5513805041 -0.0276460147 0.1804373746
680295920.0 0.004460377 0.1884277161 0.069427636 -0.5523767702 0.0689889141 -0.552973332 -0.0254149481 0.1813792878
685295890.0 0.0071052385 0.1890794427 0.0632817845 -0.5533670388 0.0634526584 -0.5532324166 -0.0237860953 0.1815003957
690295860.0 0.0091250964 0.1888078447 0.0574646883 -0.5537159418 0.0574246471 -0.5541178206 -0.0220454159 0.1826106171
695295830.0 0.010908307 0.1886760612 0.0520790736 -0.5543920226 0.0512642652 -0.5542799818 -0.0204994063 0.1826836616
700295800.0 0.0134922215 0.18851386 0.045542877 -0.5543079966 0.0453596692 -0.5545216743 -0.0188398647 0.1835528165
705295770.0 0.0151625527 0.1893021982 0.0396036254 -0.5556930801 0.0400090557 -0.5555377058 -0.0171620466 0.1835499729
710295740.0 0.0173907145 0.1890565483 0.0335922733 -0.5562776858 0.0339391815 -0.55584901 -0.0150529518 0.1833773943
715295710.0 0.0190576056 0.1885522943 0.0280210551 -0.5558897935 0.0275891296 -0.5560210263 -0.0130439128 0.1839703433
720295680.0 0.0217686465 0.1887636662 0.0214817956 -0.5565659205 0.021838409 -0.556424425 -0.0116912539 0.184793039
725295650.0 0.0238629502 0.1887090482 0.0154657612 -0.5563167805 0.015708612 -0.5569029202 -0.0102612546 0.1850955659
730295620.0 0.0258503525 0.1888941396 0.0092973247 -0.556315188 0.0094845076 -0.5569245272 -0.0084457668 0.1851215397
735295590.0 0.0276166244 0.1884512029 0.0035259354 -0.5570129789 0.0035204509 -0.5567951319 -0.0067111843 0.1850188517
740295560.0 0.0296185221 0.1882709332 -0.0025161914 -0.5564733106 -0.0022967834 -0.5567030131 -0.0043292365 0.1859083549
745295530.0 0.0320786431 0.1882560034 -0.0085430254 -0.5563221144 -0.0086194124 -0.5565972161 -0.0030432022 0.1852539508
750295500.0 0.0341940926 0.1879295682 -0.0144104007 -0.5560478031 -0.0141967853 -0.5565155884 -0.00159501 0.1857058915
755295470.0 0.0360687967 0.1874466027 -0.0201687738 -0.5560138723 -0.0202013867 -0.556165447 0.001112141 0.1852426138
760295440.0 0.0378631028 0.1875033066 -0.0261401961 -0.5563511024 -0.0265755647 -0.5558561206 0.0024412079 0.1857689461
765295410.0 0.0400014668 0.1870454455 -0.0323689067 -0.5553259814 -0.0329736138 -0.5561044811 0.0042700596 0.1860491142
770295380.0 0.0421571858 0.1866558665 -0.0388352894 -0.5548890243 -0.0386464011 -0.5549352309 0.0055338258 0.1856790834
775295350.0 0.0439903166 0.1861887985 -0.0447508134 -0.5545067073 -0.0440562223 -0.5545510448 0.0071788352 0.1860540215
780295320.0 0.0463416602 0.1858585628 -0.0503402517 -0.5530411179 -0.0497376073 -0.5539533435 0.0092230755 0.1856248738
785295290.0 0.04776886 0.1849600664 -0.0564004301 -0.553059369 -0.0560310064 -0.553239136 0.0117924659 0.1857779062
790295260.0 0.0504694771 0.1852842719 -0.0621157663 -0.5526770204 -0.0615008319 -0.5527159399 0.0134620763 0.1861678015
795295230.0 0.0521644887 0.1844841819 -0.0679121079 -0.5516906677 -0.0679101713 -0.5519591046 0.0153051899 0.1858734974
800295200.0 0.0539014673 0.1843878292 -0.0746595228 -0.5508522809 -0.0743670321 -0.5506677925 0.0171630441 0.1856730972
805295170.0 0.0561489791 0.1835749553 -0.0797234611 -0.5502209522 -0.0804027113 -0.5503687323 0.0187585178 0.1857701029
810295140.0 0.0582912187 0.1831324098 -0.0854711357 -0.5493533372 -0.0858261371 -0.5496139025 0.0212635133 0.1861333204
815295110.0 0.0604122622 0.1822435035 -0.0916631142 -0.5479674036 -0.0916830756 -0.548408435 0.0226936398 0.185669869
820295080.0 0.0617478198 0.1823577677 -0.0974475953 -0.5471469558 -0.09717693 -0.5472777288 0.0246993047 0.185693207
825295050.0 0.0646410922 0.1813617103 -0.1029386768 -0.5456478106 -0.1033988878 -0.5461553882 0.0265698908 0.1856947728
830295020.0 0.0663853994 0.1811138761 -0.1092138024 -0.54467813 -0.1093379356 -0.5446375261 0.0290891841 0.185604837
