!Created with skrf (http://scikit-rf.org).
# Hz S RI R 50.0 
!freq ReS11 ImS11 ReS21 ImS21 ReS12 ImS12 ReS22 ImS22
300000.0 -0.0464037571 -0.0590530284 0.0001186166 0.0010528217 0.0005696289 0.0009423059 -0.7702750019 -0.173703339
5299970.0 -0.0448054089 0.0156683834 0.0004438054 2.20787e-05 4.8772e-06 0.0001445583 -0.7848687455 -0.0084331401
10299940.0 -0.0390447299 0.0333753277 4.9451e-05 7.40659e-05 0.0001778506 -7.19528e-05 -0.7884501158 -0.0051954003
15299910.0 -0.0308714457 0.0482118319 -7.24195e-05 6.70274e-05 0.0001521251 4.86013e-05 -0.7935443217 -0.0028889156
20299880.0 -0.0204587682 0.0601118612 9.18604e-05 -1.72954e-05 5.12173e-05 4.85267e-05 -0.8003925204 0.0017201155
25299850.0 -0.0092725814 0.0692894886 -0.0001298254 -8.4776e-06 9.79252e-05 7.02056e-05 -0.8067770319 0.007253477
30299820.0 0.002752497 0.0758982776 -1.02707e-05 -7.1893e-06 -6.315e-06 -5.85506e-05 -0.8125046677 0.0149774814
35299790.0 0.0145179743 0.0810638373 -2.10838e-05 0.0001097212 -0.0001120316 7.10778e-05 -0.8179000348 0.024195691
40299760.0 0.0258209249 0.0835145738 -6.96369e-05 5.82778e-05 3.41277e-05 9.90907e-05 -0.8218926752 0.0333260688
45299730.0 0.0363372665 0.0851466613 -0.0001448831 0.0001388657 1.70694e-05 -0.0001942866 -0.8255043695 0.042275252
50299700.0 0.0468102613 0.0850407019 0.0001799103 2.26212e-05 7.13997e-05 -1.68864e-05 -0.8278330729 0.0525805742
55299670.0 0.0557511617 0.0842652462 1.51298e-05 0.0002614093 1.60954e-05 0.0001254324 -0.8301412479 0.0631113721
60299640.0 0.0644126033 0.0821881657 -3.6874e-05 -0.0001986335 -5.90977e-05 3.22161e-05 -0.8312661353 0.0728384814
65299610.0 0.0723716982 0.080214908 -1.34178e-05 -0.000108773 9.02219e-05 0.000124394 -0.831395037 0.0826461802
70299580.0 0.0792732876 0.0770111764 9.06768e-05 4.37361e-05 -7.3955e-05 0.0001363081 -0.8323150976 0.0927857985
75299550.0 0.0857115914 0.0734120209 0.0001988497 -9.70297e-05 6.69078e-05 9.40508e-05 -0.8325318871 0.1023981272
80299520.0 0.0910215037 0.070323894 -0.000131861 0.0001566974 7.49234e-05 -2.33841e-05 -0.8318750001 0.1123285501
85299490.0 0.0966113677 0.0664750972 8.3134e-06 7.65141e-05 -1.44147e-05 4.99451e-05 -0.8319767467 0.1218989606
90299460.0 0.1008808193 0.062958066 -0.0001378128 9.51029e-05 8.5554e-05 -0.0001137146 -0.8305281803 0.1314649543
95299430.0 0.1050048535 0.058777928 0.0002061134 1.1808e-06 -2.41401e-05 0.0001437452 -0.8297796458 0.1409740827
100299400.0 0.1084957577 0.0551312311 0.0001558494 0.0002821797 -0.0002204384 -7.793e-07 -0.8291716474 0.1495932387
105299370.0 0.1119034652 0.0511573923 -6.22098e-05 3.21028e-05 5.83839e-05 -5.29066e-05 -0.8277588379 0.1584593048
110299340.0 0.1144990837 0.0472293915 0.0001134312 9.0915e-05 -3.24729e-05 0.0001961333 -0.8271580676 0.1682804962
115299310.0 0.1171045998 0.0431011699 -2.31982e-05 2.44926e-05 0.0003099257 0.0001747385 -0.8241997772 0.1770695133
120299280.0 0.1190842366 0.0396516261 6.86483e-05 0.0001296401 -0.0002056677 3.32344e-05 -0.8232863191 0.1857422138
125299250.0 0.1211747122 0.0355872455 1.82905e-05 -0.0001361973 9.52276e-05 5.94712e-05 -0.822059243 0.1953239286
130299220.0 0.1232154893 0.0323165177 2.14798e-05 0.0002750483 7.08019e-05 -0.0001051417 -0.8201258641 0.2043207691
135299190.0 0.1245470062 0.0285428248 -0.0001028923 -8.26049e-05 0.0002121557 -2.75684e-05 -0.8181208772 0.2125031108
140299160.0 0.1260795787 0.0250804683 4.9221e-06 0.0002381244 -3.99893e-05 0.0001176662 -0.8159919881 0.2216182008
145299130.0 0.1268786383 0.0217464637 -8.60655e-05 -4.70903e-05 8.71956e-05 4.78646e-05 -0.8137084009 0.229950625
150299100.0 0.1278869477 0.018242751 0.0001095418 0.0001609643 -1.95821e-05 8.72264e-05 -0.8117705908 0.2380230043
155299070.0 0.1288226097 0.0150571704 1.8514e-05 3.09441e-05 0.0001226936 0.0001563058 -0.8094281629 0.2476152704
160299040.0 0.1293182044 0.0119715083 4.29088e-05 0.0002207763 -5.57936e-05 -4.05394e-05 -0.8072786685 0.2568296542
165299010.0 0.1296550276 0.0086665122 0.0002556905 0.0002578337 0.0001157794 0.0001490049 -0.8044636882 0.2650201898
170298980.0 0.1301061915 0.005428016 1.7932e-06 -1.48553e-05 2.3036e-05 3.98047e-05 -0.8019480712 0.273374522
175298950.0 0.1304011125 0.0029608088 0.000288566 3.26349e-05 -8.55652e-05 7.715e-06 -0.7988787821 0.282223751
180298920.0 0.1306791382 -0.0003151673 0.0001946222 0.0003412253 2.8154e-05 -2.39468e-05 -0.7956276169 0.2903377352
185298890.0 0.1308300416 -0.0033864521 3.27047e-05 -0.0002547776 1.81975e-05 3.60709e-05 -0.793266411 0.29822414
190298860.0 0.1312011459 -0.0062362572 5.7158e-05 9.89985e-05 0.0001641443 -2.7711e-05 -0.7896672654 0.3072849751
195298830.0 0.1313796867 -0.0087580585 0.0001145125 -2.70936e-05 -6.02159e-05 3.54319e-05 -0.7868203092 0.3157032114
200298800.0 0.1308036649 -0.0115056406 0.0001109096 -1.58022e-05 -0.0001191093 0.0002669557 -0.7836266309 0.3240346432
205298770.0 0.1308483358 -0.014140955 2.07356e-05 0.0001461407 -0.0001781201 6.19099e-05 -0.7802568693 0.3317310055
210298740.0 0.1307510199 -0.0164810505 0.0001031285 8.61716e-05 5.71924e-05 -6.2686e-05 -0.7767636509 0.3403462483
215298710.0 0.1302037669 -0.0192135176 -3.15278e-05 0.0002897489 0.0001487834 0.0001190761 -0.7733219799 0.3479890597
220298680.0 0.129830552 -0.0213932021 0.0003517666 0.000178481 2.81173e-05 0.000188839 -0.7698379491 0.356929481
225298650.0 0.1297744551 -0.0237935405 0.0001109085 0.0002675104 2.27898e-05 0.0001732997 -0.7662325361 0.3647897655
230298620.0 0.1291424577 -0.0259828372 1.98602e-05 9.12003e-05 9.53894e-05 6.64859e-05 -0.7616404159 0.3724176265
235298590.0 0.1281797383 -0.0287046662 -0.0001508455 8.93486e-05 7.20219e-05 0.0002858033 -0.757962316 0.3805249919
240298560.0 0.1277820309 -0.0305582539 0.0001704458 6.28387e-05 5.9091e-05 -1.2091e-06 -0.754169628 0.3884128525
245298530.0 0.1274531255 -0.0330151988 0.0001177397 8.82961e-05 1.31702e-05 0.000268737 -0.7499615306 0.3963717165
250298500.0 0.1268093372 -0.0350112337 5.30483e-05 -7.914e-07 -9.18362e-05 7.48616e-05 -0.7460282365 0.4046273036
255298470.0 0.1261685345 -0.0372251996 0.0001283202 0.0002844108 -0.0001144823 0.0004314404 -0.7414116481 0.4123971124
260298440.0 0.1257630446 -0.0391330423 8.08342e-05 0.0004124716 0.0001045699 0.0002983945 -0.737054279 0.4203395873
265298410.0 0.1249961711 -0.0409888413 6.73025e-05 0.0002163184 8.4739e-05 0.0001564491 -0.7327034589 0.4276364876
270298380.0 0.1243344673 -0.0430409787 0.0003483732 1.49291e-05 -8.5616e-06 0.0003160091 -0.7282774764 0.4352654656
275298350.0 0.1236692586 -0.0449948827 -8.83689e-05 0.000232437 -8.85538e-05 0.0001350148 -0.7232695 0.4431409302
280298320.0 0.1227494692 -0.0467700903 -5.21477e-05 -6.78717e-05 8.51309e-05 0.0001292652 -0.7186207601 0.4502859993
285298290.0 0.1220236944 -0.0485430888 0.0001782158 0.0001651924 0.0001535478 0.0001751221 -0.7141091562 0.4577921453
290298260.0 0.1213098753 -0.0506715927 -0.0001972237 0.0001891719 -0.0001050409 0.0002347633 -0.7092017508 0.4657330672
295298230.0 0.1203834048 -0.0526195468 0.0001779375 -0.0002323023 0.000200681 0.0004337976 -0.7039510755 0.4729431629
300298200.0 0.119776773 -0.0546129535 6.03484e-05 0.0002175584 0.0001109474 9.98497e-05 -0.6992444631 0.479769335
305298170.0 0.1193468121 -0.0562840198 0.0001795244 0.0001680047 0.0002111572 7.67517e-05 -0.6936079503 0.487829034
310298140.0 0.1177886708 -0.058495104 6.2761e-05 0.0001335297 0.000212895 -7.17186e-05 -0.6891474686 0.4952712375
315298110.0 0.1167118672 -0.0603312981 1.25643e-05 0.0001580659 -4.37697e-05 0.0001772481 -0.6832465258 0.5023510325
320298080.0 0.1156492953 -0.0619657054 0.0004246163 0.0002190358 0.000116757 9.59657e-05 -0.6779422926 0.5089765462
325298050.0 0.1144901373 -0.0640013254 0.0002639129 0.0001722292 0.0002482931 5.96055e-05 -0.6725509704 0.515992682
330298020.0 0.113101968 -0.06539632 0.0001437715 -3.15218e-05 -2.91745e-05 4.01961e-05 -0.666354794 0.5229234586
335297990.0 0.1119792259 -0.0666691032 0.0002225521 0.0002381752 0.0001379033 7.74726e-05 -0.6615607996 0.5303497557
340297960.0 0.1106998636 -0.0681694701 3.52186e-05 0.0002282571 0.0002289875 0.0002269617 -0.6554161342 0.5369411255
345297930.0 0.1094204989 -0.0695868484 0.0001083837 0.0001705557 0.0002277702 1.67806e-05 -0.6500860944 0.544027236
350297900.0 0.1085695775 -0.0711326288 0.0001259833 0.0001735412 0.0001373411 5.69274e-05 -0.6445267871 0.5511290743
355297870.0 0.1069428286 -0.0724196981 5.51258e-05 0.0001289087 0.0001557804 -0.0001622081 -0.6385339893 0.5572658626
360297840.0 0.1058341961 -0.0736583434 -3.95536e-05 0.0002082689 0.0001346361 1.38841e-05 -0.6324893057 0.5631052413
365297810.0 0.1049391743 -0.0751683904 0.0002292308 0.000205891 0.0002882324 0.0001691946 -0.6263854529 0.5707751621
370297780.0 0.1037150968 -0.076278887 0.0001104061 -0.0002033 -5.59139e-05 2.17993e-05 -0.6203833178 0.57689845
375297750.0 0.1027022455 -0.0777106273 4.10212e-05 0.0001249078 0.0001170545 0.0001442538 -0.6148057849 0.5829046098
380297720.0 0.1015383573 -0.0788963606 0.0001312461 5.927e-06 0.0001500599 -3.41408e-05 -0.6080157012 0.5905175732
385297690.0 0.1001386832 -0.0800005383 0.0001963615 8.4859e-05 4.0972e-05 -6.28518e-05 -0.6021309695 0.5961245216
390297660.0 0.0994268509 -0.0812051034 0.0001382679 0.0002438164 0.0001033962 2.9512e-06 -0.5958513507 0.6016333812
395297630.0 0.0979010975 -0.0824496156 0.0002339656 0.0001295807 9.56841e-05 -1.55932e-05 -0.5891687348 0.6079425021
400297600.0 0.096686367 -0.0834941594 0.0003342543 0.0001180815 0.0001680342 0.0001124739 -0.5834888504 0.6139664608
405297570.0 0.0955453314 -0.0845997246 0.0001825199 9.2654e-05 0.0002539859 4.27926e-05 -0.5770500404 0.6196695827
410297540.0 0.0942609269 -0.0856579239 -4.54196e-05 3.31802e-05 0.0001758983 0.0001929183 -0.5700007178 0.6253877973
415297510.0 0.0929399666 -0.086780733 8.01722e-05 6.98065e-05 0.0001639951 0.0001594787 -0.563669743 0.6316521849
420297480.0 0.0916097641 -0.0881498438 0.000371613 0.0001032183 2.91882e-05 0.000172223 -0.5569637702 0.636846464
425297450.0 0.0903441023 -0.0890602041 0.0001513307 -6.78026e-05 0.0001677276 0.0001381391 -0.5505248633 0.643282325
430297420.0 0.0890430713 -0.0900780184 0.0002894555 4.72488e-05 0.0001410564 7.5825e-06 -0.5444258865 0.6484734305
435297390.0 0.0878020611 -0.0909040501 0.0002811425 -4.18904e-05 0.0003170619 0.0001295062 -0.5368187469 0.6537050343
440297360.0 0.086683521 -0.0922451289 0.0002337853 4.2515e-05 0.0001223235 2.76646e-05 -0.5306064935 0.6588549978
445297330.0 0.0851438654 -0.0931176736 0.000329932 0.0002674391 0.0002939924 0.0001120351 -0.5236269433 0.6641333284
450297300.0 0.0839820472 -0.0941074495 0.0002507617 0.0001663786 0.0002179767 5.5601e-06 -0.517367509 0.6694148159
455297270.0 0.0824849949 -0.0949407502 0.0002487823 0.0003444981 0.0002175909 0.0001779936 -0.5095744172 0.6743489442
460297240.0 0.0810792703 -0.0958515348 0.0002210863 4.42882e-05 0.0002717244 1.57752e-05 -0.5027202765 0.680167222
465297210.0 0.0801751806 -0.0966599462 9.26193e-05 -8.5891e-06 0.0003169287 2.92413e-05 -0.4964944393 0.6846105752
470297180.0 0.0786583297 -0.0974703816 0.0001712611 2.68292e-05 0.0001710152 8.53861e-05 -0.4895364485 0.6893688171
475297150.0 0.0772272353 -0.0983941492 0.0001758638 8.99516e-05 0.0001994969 -1.67106e-05 -0.4824123543 0.6940744017
480297120.0 0.0758638439 -0.0995550527 2.867e-06 -3.75697e-05 0.0003766897 0.0001927571 -0.4757028481 0.6996845569
485297090.0 0.0746530462 -0.1000579613 0.0004238435 0.0001903409 0.0001600219 0.0001184571 -0.4683385985 0.7042723816
490297060.0 0.0732948279 -0.1006108163 0.0003402482 0.0001562631 0.0002474186 -4.25624e-05 -0.4610707179 0.708412073
495297030.0 0.0716352064 -0.1014731326 0.0005075168 0.0001718881 0.0002371275 7.7808e-05 -0.4535099841 0.7129261063
500297000.0 0.0704757399 -0.1026783528 0.0001230424 -0.0001082606 5.96426e-05 0.0001729222 -0.447178372 0.7176133862
505296970.0 0.0688343688 -0.1030420342 0.000163713 5.68986e-05 0.0002787579 0.0002437024 -0.4404288895 0.7222951234
510296940.0 0.0676654492 -0.1032292815 0.000399968 0.0002175215 0.0003347119 0.0001139527 -0.4323202459 0.7263158908
515296910.0 0.0662556499 -0.1040117855 0.0002464924 0.0003238368 0.0004659684 0.0001543151 -0.4253275881 0.7309001188
520296880.0 0.065014944 -0.1050561769 0.0001600242 7.86145e-05 0.0002009703 3.7707e-05 -0.4176697751 0.7347425462
525296850.0 0.0634286669 -0.1057020903 0.0001212892 0.0001108993 0.0004347184 0.0001377747 -0.4099740352 0.7395542625
530296820.0 0.061785014 -0.1062882317 0.0001418754 0.0002403436 0.0002819556 0.0001860267 -0.4035291877 0.7428935747
535296790.0 0.0606371556 -0.1066257573 0.0002326417 -8.82619e-05 4.12377e-05 6.12345e-05 -0.395760554 0.7461241629
540296760.0 0.0589643651 -0.1076859393 0.0003563665 -3.38303e-05 0.0002370063 7.36e-07 -0.3882523878 0.7506327166
545296730.0 0.057742821 -0.1078596316 0.000239966 0.0002112302 0.0003790441 3.75592e-05 -0.3809925979 0.7541848137
550296700.0 0.0563018631 -0.1085960024 0.0002236492 -0.0001069198 0.0003101646 8.838e-05 -0.3735169439 0.7580527193
555296670.0 0.0550313108 -0.1090037809 0.0004298003 -7.60099e-05 0.0004603554 6.46851e-05 -0.3658365042 0.7615218516
560296640.0 0.0535948434 -0.1095379367 0.0003253188 -0.0001336068 -1.6491e-05 -3.33977e-05 -0.3580935159 0.7653504668
565296610.0 0.0520191597 -0.1098457049 0.0001802749 0.0002031322 0.0002784659 0.000121347 -0.3505656442 0.7686794925
570296580.0 0.0506029423 -0.1103106162 0.0003007945 -1.50795e-05 0.0002361087 6.66789e-05 -0.343198083 0.7726344666
575296550.0 0.049348076 -0.1107473793 0.0001137709 3.5263e-06 0.0001899887 -0.0001298444 -0.3354124474 0.7755974945
580296520.0 0.0479653694 -0.1111857559 0.0004541745 6.2158e-06 0.0002645501 -0.0001731422 -0.3275738068 0.7792601182
585296490.0 0.0462128952 -0.1115480876 0.000417067 0.0001500769 0.0001502876 -3.46324e-05 -0.3196822203 0.7817503619
590296460.0 0.0445826869 -0.1120290845 0.000216035 -8.36925e-05 0.0002887576 1.73367e-05 -0.3122780908 0.7854587648
595296430.0 0.0433707312 -0.1122005787 0.0001926809 0.0002308278 0.0003423645 0.0001820801 -0.3043655595 0.7874331283
600296400.0 0.042029332 -0.1128152003 0.0004193297 0.000397407 0.0002294643 0.0001021871 -0.2971254085 0.7911041532
605296370.0 0.040519241 -0.1129025992 0.0003116313 0.0001988422 0.0002677656 0.0001800635 -0.2886331362 0.7943913403
610296340.0 0.0390039999 -0.1134023777 0.0001533071 0.0001716922 0.000285092 -0.0002100872 -0.2809546463 0.7974404058
615296310.0 0.037549414 -0.1133889805 0.0002764139 -3.59675e-05 0.0003715552 -2.08751e-05 -0.2726967099 0.7990725363
620296280.0 0.036137296 -0.113859897 0.0001887772 -2.98965e-05 0.0002541774 9.8909e-05 -0.2647688361 0.8020006472
625296250.0 0.0348981308 -0.1138189437 0.0002928712 2.60595e-05 0.0003834604 0.0002291243 -0.2576615651 0.8049179567
630296220.0 0.0330775779 -0.1141993133 0.0001474383 -0.0001414696 0.0001290449 0.000137375 -0.2492605362 0.8076176445
635296190.0 0.0316111138 -0.1145291032 3.64856e-05 0.0001977166 0.0003449994 -2.40917e-05 -0.2412278631 0.809260854
640296160.0 0.0303098323 -0.1145480699 0.0004018057 0.0001144688 0.0001771411 0.0001220074 -0.2329215277 0.8116708922
645296130.0 0.0287009519 -0.1147634131 0.0002951022 1.90345e-05 0.0003296483 0.0002118161 -0.2257474855 0.8139001872
650296100.0 0.0274344295 -0.1146744951 0.0001588589 -4.56862e-05 0.0003399793 -5.8417e-06 -0.2169088304 0.8169650366
655296070.0 0.0259207513 -0.1148764537 0.0006378334 4.20404e-05 0.0004508253 -2.55e-08 -0.208826298 0.8181178003
660296040.0 0.0242133913 -0.1148087046 0.0002545062 0.0001310676 0.000216101 7.3469e-05 -0.2007678469 0.8197752072
665296010.0 0.022881528 -0.1153081764 0.0001504416 5.43104e-05 0.0003047191 -0.0001179752 -0.1932939755 0.8221294747
670295980.0 0.0213975778 -0.1154627712 0.0002986783 7.65441e-05 0.0001889538 -0.0001015036 -0.1852771216 0.8240451832
675295950.0 0.0201991734 -0.1153237078 0.0003484843 0.0001001071 0.0004458491 0.0001521803 -0.1765671396 0.8261394853
680295920.0 0.0185890988 -0.1150438825 0.0002553224 5.79409e-05 0.0004257361 -4.30032e-05 -0.1682376402 0.8277369205
685295890.0 0.0169546253 -0.1153210845 0.0002241582 0.0001130752 0.0001661157 -2.56424e-05 -0.1599517017 0.8294924994
690295860.0 0.0158754972 -0.1152083963 0.0004574493 -0.0001289244 0.0004849495 7.12702e-05 -0.1521612756 0.8308542794
695295830.0 0.014469067 -0.1151929427 0.0002514108 2.80318e-05 0.0004025702 -7.9163e-05 -0.1437754489 0.8320177625
700295800.0 0.0129711301 -0.1151797262 0.0002277234 9.1991e-05 0.0003231418 2.2153e-05 -0.1353505591 0.8333511317
705295770.0 0.0114439464 -0.1152631609 0.0004526505 -0.0001935788 0.0005522795 9.69612e-05 -0.127672731 0.8350519315
710295740.0 0.0099942537 -0.1150490788 0.0003503522 -0.0002046267 0.0006389784 5.63849e-05 -0.119582838 0.8361872122
715295710.0 0.0085280944 -0.1147343152 0.0004438559 1.6012e-06 0.0003221492 7.82243e-05 -0.1115615627 0.837265858
720295680.0 0.0070691889 -0.1148171525 0.0003493694 8.512e-07 0.0002131949 -0.0002571034 -0.1024851007 0.838566742
725295650.0 0.0057203616 -0.1145119802 0.0001751126 -2.07507e-05 0.0003828681 -0.0001460817 -0.0945756689 0.8391733648
730295620.0 0.0044075061 -0.1148008192 0.0003108087 -0.0001719838 0.0003106884 -4.17666e-05 -0.0861792305 0.8402699307
735295590.0 0.0030878399 -0.1140407358 0.0006160305 6.09735e-05 0.000526071 9.51558e-05 -0.0768714764 0.840894196
740295560.0 0.0015109191 -0.1140612069 0.0002427921 -1.76974e-05 0.0004090183 -5.12173e-05 -0.0693054172 0.8414626418
745295530.0 -0.0001303117 -0.113852423 0.0002096528 -5.3454e-05 0.0003440641 -0.000161771 -0.0614861972 0.8424077473
750295500.0 -0.0013448828 -0.1137074868 0.0004148019 -0.0001165772 0.0003254593 2.21647e-05 -0.0528061707 0.8422671381
755295470.0 -0.002578829 -0.1131996113 0.0003682861 -0.0002051856 8.2901e-05 -2.12445e-05 -0.0447094043 0.8440832953
760295440.0 -0.0042362522 -0.1128677622 0.0001984495 -0.0001371776 0.0005568614 0.0001176771 -0.036527559 0.8437487943
765295410.0 -0.00551002 -0.113003859 0.0002381946 9.08862e-05 0.0002301344 -3.20888e-05 -0.0279663445 0.844829351
770295380.0 -0.0068511715 -0.1124508744 0.000354208 0.0001179786 0.0003919112 6.54251e-05 -0.019405586 0.8439125879
775295350.0 -0.008313298 -0.1117727843 0.0003115589 -2.67432e-05 0.000399913 -6.4169e-06 -0.0113384253 0.843945783
780295320.0 -0.0098068562 -0.1119457533 0.000331225 1.03425e-05 0.0004257005 -0.0001364576 -0.0035854342 0.8451213901
785295290.0 -0.0111348169 -0.1112756429 0.0006827903 -0.0001784465 0.0003557477 1.2205e-05 0.0047474999 0.8445406644
790295260.0 -0.0126628027 -0.1112113733 0.0003396574 -2.31204e-05 0.0003929807 1.76903e-05 0.0139548337 0.8444055201
795295230.0 -0.01391293 -0.1103851277 0.0005270479 -0.0003546595 0.0002944976 1.91969e-05 0.0220012404 0.8448479006
800295200.0 -0.0151808462 -0.1098372495 0.0003722255 -4.87531e-05 0.0001997524 -1.77683e-05 0.0301427215 0.8441337167
805295170.0 -0.0166870209 -0.1097989095 0.0001094609 6.4153e-05 0.0003527629 -8.14817e-05 0.0383120749 0.8436497287
810295140.0 -0.0178405612 -0.109456639 0.0004201116 -9.60873e-05 0.0001649548 0.0001256438 0.0462998244 0.8439779191
815295110.0 -0.019137002 -0.1086919534 0.0004240274 -0.0002719955 0.0004375563 -2.26436e-05 0.0545889027 0.8433094219
820295080.0 -0.0205716005 -0.1083338292 0.0004964124 8.56498e-05 0.0002371752 6.33331e-05 0.0632128714 0.8420420653
825295050.0 -0.021554347 -0.1078373475 0.0004239215 3.60879e-05 0.0003590866 3.4001e-05 0.0711273547 0.8423212816
830295020.0 -0.0232026053 -0.1072622872 0.0004242762 -0.000393533 0.0002731018 -4.97882e-05 0.0794889777 0.8409502901
835294990.0 -0.0245350425 -0.1068079076 0.0005375038 -0.0003000807 0.0003480108 0.0001031582 0.0880332007 0.8401238817
840294960.0 -0.0256244769 -0.1062836881 0.0002982821 -0.0002024188 0.0004942713 -0.0003837926 0.095992901 0.839643473
845294930.0 -0.0270003887 -0.1055798596 0.0002466589 -0.0003642235 0.0003073385 -0.000142493 0.104453868 0.8382892426
850294900.0 -0.0285739855 -0.1050834884 0.0005478712 -0.000257565 0.0004950863 -0.0001231806 0.1123153872 0.8375157619
