!Created with skrf (http://scikit-rf.org).
# Hz S RI R 50.0 
!freq ReS11 ImS11 ReS21 ImS21 ReS12 ImS12 ReS22 ImS22
300000.0 -0.2405842241 -0.1181753465 0.4675944486 0.0782022691 0.4679446935 0.0794579567 -0.2357838455 -0.1269915506
5299970.0 -0.2447801274 0.0054873645 0.4735911047 0.0057404753 0.4740803748 0.0060884828 -0.243523522 0.005201324
10299940.0 -0.2416230008 0.0186947506 0.4761657675 0.0068050807 0.4760414258 0.0071512839 -0.2400717209 0.0179329076
15299910.0 -0.2369609283 0.028511943 0.4795914445 0.0083734501 0.4797956959 0.0085051042 -0.2362913213 0.0275547532
20299880.0 -0.2315996027 0.0366337245 0.4842664994 0.0082769853 0.4843686022 0.0082418951 -0.2312637369 0.0354749554
25299850.0 -0.2254825121 0.0429114536 0.4893580392 0.0076146112 0.4898064063 0.007657114 -0.2260020748 0.0417309094
30299820.0 -0.2202327263 0.0478663763 0.4953640209 0.0053611842 0.4951573544 0.0053344716 -0.2206711217 0.0472357908
35299790.0 -0.2143146517 0.0515707523 0.4999488646 0.0029646341 0.5006063682 0.0023844782 -0.2158322784 0.0514910298
40299760.0 -0.2092839076 0.0545457072 0.5057069639 -0.001607952 0.5060353444 -0.00148791 -0.2109068468 0.0548173728
45299730.0 -0.203876188 0.057350113 0.5101118353 -0.0058545852 0.5107477194 -0.0063401896 -0.2055982299 0.0575546382
50299700.0 -0.1990511792 0.0588514 0.5142668856 -0.0120268372 0.5144795716 -0.0120003163 -0.2012264064 0.0601442372
55299670.0 -0.1948705211 0.0604880074 0.5181108717 -0.0172114424 0.5179162979 -0.0180489143 -0.1973794018 0.0616668301
60299640.0 -0.1907107819 0.0616463471 0.5217626829 -0.0241691492 0.5215387658 -0.0241739218 -0.1935927451 0.0633370585
65299610.0 -0.1871343903 0.062632631 0.5248994315 -0.0301876947 0.5248715471 -0.0306892822 -0.1901404792 0.0649461927
70299580.0 -0.1837969844 0.0632812936 0.5269628134 -0.0365167473 0.527084262 -0.0370463607 -0.187182223 0.0657448796
75299550.0 -0.18122975 0.064038742 0.5292010458 -0.0442129861 0.528865985 -0.043922437 -0.1839428829 0.0670369152
80299520.0 -0.1781129598 0.0646108183 0.5308245025 -0.0508842547 0.5312228235 -0.0508194703 -0.1816760162 0.0681613992
85299490.0 -0.1758594371 0.0648293677 0.5323917791 -0.0577064702 0.5325854263 -0.0573743157 -0.1793844539 0.068619571
90299460.0 -0.1734685474 0.065323179 0.5333485673 -0.0646260546 0.5331432402 -0.0644720487 -0.1769054188 0.0696508647
95299430.0 -0.1713984507 0.0659422801 0.5343599679 -0.0715816755 0.5345925606 -0.0719317163 -0.175003406 0.0705305208
100299400.0 -0.1693363672 0.0661052174 0.5346920068 -0.078431163 0.5345535613 -0.078640865 -0.173012435 0.0718946662
105299370.0 -0.1676523224 0.066596991 0.5350009211 -0.0852995944 0.5349610912 -0.0853783312 -0.1711304151 0.0721551082
110299340.0 -0.1657251984 0.0670721113 0.5351188463 -0.091702459 0.5355350757 -0.0919538395 -0.169601868 0.0731989016
115299310.0 -0.1647693772 0.067663344 0.5352883699 -0.0987846568 0.5351722252 -0.0990267897 -0.1681834664 0.0742923919
120299280.0 -0.1633217125 0.0681432002 0.5348950663 -0.1062189793 0.5349667912 -0.1059937256 -0.1664578401 0.07481003
125299250.0 -0.1619108168 0.0685320578 0.5347241493 -0.1125021806 0.5348335157 -0.1124634101 -0.1652469918 0.0760383767
130299220.0 -0.1606351699 0.06929883 0.534503739 -0.1192149068 0.5343949803 -0.1197777794 -0.1641826372 0.0771717399
135299190.0 -0.1599108188 0.0700348017 0.5335242 -0.1256933451 0.533636359 -0.1260732804 -0.1627502298 0.0779856977
140299160.0 -0.1584144594 0.0708281957 0.5328458059 -0.13296964 0.5325336119 -0.1323918253 -0.1623907925 0.0785602273
145299130.0 -0.1578744914 0.0718184335 0.5316767339 -0.1389720632 0.5318481995 -0.1394745119 -0.160751466 0.0798948913
150299100.0 -0.1567145637 0.0724541609 0.5304717003 -0.1459028792 0.5305722215 -0.1461388089 -0.1596955617 0.0810473046
155299070.0 -0.1557212783 0.0733443829 0.5291588305 -0.15221748 0.5289585219 -0.1523470948 -0.1586706239 0.0822057955
160299040.0 -0.1548869062 0.0744429557 0.528123407 -0.1583649329 0.5278507004 -0.1587934786 -0.1580718735 0.0835557435
165299010.0 -0.1539523227 0.0751999299 0.5269137234 -0.1651199149 0.5263407295 -0.1655320109 -0.1568431343 0.0843970499
170298980.0 -0.1530178198 0.0762118811 0.5245541066 -0.1715375787 0.5247759891 -0.1713465389 -0.156102846 0.0858720447
175298950.0 -0.1522714844 0.0774687183 0.5239001466 -0.1779363513 0.523733011 -0.1781286867 -0.1549637844 0.0872796298
180298920.0 -0.151627989 0.0784212146 0.5216663894 -0.1842834175 0.5217344938 -0.1844866402 -0.1542182797 0.0883372252
185298890.0 -0.1509182964 0.0792386397 0.520085012 -0.1904726837 0.5199275265 -0.1902621526 -0.1529080226 0.089496373
190298860.0 -0.1497804299 0.0807412706 0.5172127413 -0.1964385896 0.5180650385 -0.1966161178 -0.1522326942 0.0908666247
195298830.0 -0.1490971261 0.0818905094 0.5160993962 -0.2024181054 0.5160635408 -0.2029543361 -0.1512406228 0.0924029432
200298800.0 -0.1481975447 0.0827516517 0.5141044101 -0.2093543957 0.5138699238 -0.2089030351 -0.1501888663 0.0936159254
205298770.0 -0.1478780333 0.0839587298 0.5114946254 -0.215190727 0.5121144905 -0.2146382832 -0.1493203048 0.0950530316
210298740.0 -0.1467877158 0.085386358 0.509366257 -0.221035671 0.5091274778 -0.2208050339 -0.1484226269 0.0962826861
215298710.0 -0.1459675236 0.0867420082 0.5065159639 -0.2262954946 0.507257066 -0.2269930073 -0.147263985 0.0977185281
220298680.0 -0.1451782894 0.0879472513 0.5043405876 -0.2324259617 0.5043950403 -0.2329079702 -0.1464045415 0.0990142687
225298650.0 -0.1443670151 0.0892686504 0.5018880639 -0.2391434511 0.5021004915 -0.238012611 -0.1455324703 0.1001918106
230298620.0 -0.1437246404 0.0907607286 0.4997618542 -0.2443303406 0.4998172361 -0.2443194371 -0.1446235128 0.1017124308
235298590.0 -0.1432547687 0.0916935599 0.4970390903 -0.2505606838 0.4968343095 -0.2500984979 -0.1431214653 0.1029297875
240298560.0 -0.1420372408 0.0932192619 0.494147584 -0.2554379156 0.494304346 -0.2560519312 -0.1425552577 0.1046608513
245298530.0 -0.1416976185 0.0941763942 0.4915453018 -0.2614444472 0.491714397 -0.2614052202 -0.1417531989 0.1060740314
250298500.0 -0.1408110662 0.0954071055 0.4887398956 -0.2669227567 0.4887640817 -0.2671107888 -0.1404881227 0.1076538349
255298470.0 -0.1398492335 0.0973142091 0.485983687 -0.2725396372 0.4865111861 -0.2727206112 -0.1396996916 0.1095110406
260298440.0 -0.1392761184 0.0982886605 0.4831956253 -0.2775613625 0.4832716482 -0.2777117554 -0.1389592702 0.1102276105
265298410.0 -0.1386442864 0.0998328097 0.4797433676 -0.2838357252 0.4800933967 -0.284085684 -0.1369624627 0.1118648756
270298380.0 -0.1380160057 0.1007588073 0.4768787942 -0.2892860111 0.4768175927 -0.288999728 -0.1359185838 0.1132764879
275298350.0 -0.1368004415 0.1023758312 0.4732004299 -0.2942285115 0.4736607094 -0.2945650817 -0.134837631 0.1150206224
280298320.0 -0.1360678957 0.1036738561 0.4706257801 -0.2991110215 0.4709508159 -0.3000755686 -0.1335962843 0.1165358965
285298290.0 -0.1354632239 0.1050964424 0.4672265471 -0.3051320406 0.4674694411 -0.3048417119 -0.1327575248 0.1180046725
290298260.0 -0.1341964406 0.1065926622 0.4645528687 -0.3103207283 0.4642166215 -0.3104739614 -0.1313832156 0.1193097084
295298230.0 -0.1333287771 0.1076071781 0.4608911064 -0.316219757 0.4609587105 -0.3159420377 -0.1299730466 0.1205110327
300298200.0 -0.1322774906 0.1092918414 0.457584119 -0.3211734765 0.4573547906 -0.3210403128 -0.128945141 0.1220191412
305298170.0 -0.131497931 0.1100624382 0.4539884182 -0.3266547634 0.4539210057 -0.3264562132 -0.1274427643 0.1228429519
310298140.0 -0.1303688359 0.1112098929 0.4504850003 -0.3314460712 0.4505286231 -0.331135785 -0.1257223557 0.12436844
315298110.0 -0.1297314329 0.1121774361 0.4467309561 -0.3371809559 0.446562132 -0.3370759715 -0.1247849225 0.1257807777
320298080.0 -0.1288778697 0.1135183267 0.4424637817 -0.3420097402 0.4430202075 -0.3420798739 -0.1235577391 0.1269962313
325298050.0 -0.1282731458 0.1144828149 0.4387522986 -0.3466766496 0.4394849906 -0.3464618187 -0.12210264 0.1279416702
330298020.0 -0.1278147108 0.1161893063 0.4347089157 -0.3519476069 0.4356217584 -0.3520803572 -0.121087496 0.1296167209
335297990.0 -0.1266764039 0.1173294799 0.4311048305 -0.3565556883 0.4314602991 -0.3566790384 -0.1201299378 0.1311217823
340297960.0 -0.1259314834 0.1185860014 0.4268255419 -0.3616804795 0.4271614413 -0.3616843053 -0.1187896171 0.1328815927
345297930.0 -0.1250865939 0.1197972043 0.423130178 -0.3664631374 0.4228232578 -0.3664218682 -0.1172353142 0.1339668363
350297900.0 -0.1239257232 0.1211403587 0.4188093994 -0.370846976 0.4193021114 -0.3707123893 -0.1161538304 0.1351715205
355297870.0 -0.1231663598 0.1223567162 0.414698919 -0.3749343565 0.414810646 -0.3749945274 -0.1145034312 0.1365887324
360297840.0 -0.1220923417 0.1240878901 0.4102794775 -0.3799506577 0.410648197 -0.3803020531 -0.1134371255 0.1380908894
365297810.0 -0.1213355859 0.1250398026 0.4065262999 -0.3843186742 0.4064297763 -0.3845489795 -0.112235989 0.1393987444
370297780.0 -0.1200762098 0.1267152978 0.4015435944 -0.3891527974 0.4021549635 -0.3887288137 -0.110770988 0.1403626467
375297750.0 -0.1190320175 0.1278465567 0.3980475515 -0.3931661852 0.3978360756 -0.3931177358 -0.1091429274 0.1419761461
380297720.0 -0.118186465 0.1291613429 0.3942986196 -0.3976501893 0.3934001204 -0.3977460072 -0.1075823941 0.1433788614
385297690.0 -0.1169318682 0.1302726336 0.3889875332 -0.4019446828 0.3895160559 -0.40278544 -0.1059633802 0.1451966126
390297660.0 -0.1155361545 0.1313034598 0.3847614729 -0.4057498157 0.3847315175 -0.4060961691 -0.1041142062 0.1456970703
395297630.0 -0.1143622699 0.1326532301 0.3803749845 -0.4099221764 0.3805790772 -0.4101471615 -0.1031081922 0.147206108
400297600.0 -0.1134504745 0.1337674301 0.3759654178 -0.4146711855 0.3762336807 -0.4147393364 -0.1010950149 0.1489553174
405297570.0 -0.1124098458 0.1344376216 0.3713342111 -0.4182258214 0.371262717 -0.4185525776 -0.0994374696 0.1500804585
410297540.0 -0.1111819812 0.1361293625 0.367047849 -0.4227841615 0.3669562844 -0.422488044 -0.0980378777 0.1512439965
415297510.0 -0.1098080323 0.1374434223 0.3617735254 -0.4267861505 0.36239844 -0.4268130686 -0.0962929836 0.15257701
420297480.0 -0.1089682649 0.1381047841 0.3575105107 -0.4309352479 0.3574907558 -0.4306362501 -0.0941347473 0.1539512099
425297450.0 -0.1071119391 0.1395780168 0.3524660004 -0.4346356907 0.352447767 -0.4345132915 -0.0928233498 0.1547954454
430297420.0 -0.1060476301 0.1405682678 0.3484620183 -0.4383317593 0.3481928887 -0.4381079347 -0.0907401905 0.1560026379
435297390.0 -0.1048882049 0.1416601739 0.3429203722 -0.4426167887 0.3426999315 -0.4420289285 -0.0895026351 0.1577153998
440297360.0 -0.1030962769 0.1426093101 0.3375650638 -0.4458782045 0.3377596477 -0.446111331 -0.0876684888 0.158826714
445297330.0 -0.1018669062 0.1435968335 0.3332978608 -0.4491304082 0.3334539723 -0.449910491 -0.0860876716 0.1597608783
450297300.0 -0.1004278583 0.1447113727 0.3283857533 -0.4532250559 0.3287468465 -0.4529127883 -0.0842601201 0.1606766637
455297270.0 -0.0997419763 0.1457069854 0.3234887188 -0.456786293 0.3238273338 -0.4571019495 -0.08238452 0.1619764473
460297240.0 -0.0977748206 0.1468766057 0.3185550487 -0.4607391026 0.3184081992 -0.4607144981 -0.0807424422 0.1630001935
465297210.0 -0.0964406566 0.1478781232 0.3132319305 -0.4639614304 0.313049386 -0.4642422096 -0.0784632739 0.1643751411
470297180.0 -0.0951136587 0.1489107781 0.3079185265 -0.4672795306 0.3082002539 -0.4671000728 -0.0767347056 0.1648668613
475297150.0 -0.0937625814 0.1500654266 0.3026577043 -0.4705467874 0.3031275357 -0.4707441556 -0.0747521318 0.1659801687
480297120.0 -0.0919425818 0.1514430531 0.297719999 -0.4737989618 0.2978773001 -0.4733350446 -0.0733295791 0.1669361404
485297090.0 -0.0905894777 0.1517642476 0.29263633 -0.4771086629 0.2927639204 -0.4767542485 -0.0714023055 0.1679731142
490297060.0 -0.0884229975 0.1529531828 0.2867408862 -0.4802065676 0.2876800966 -0.4800291761 -0.0695848182 0.1685979033
495297030.0 -0.0875092007 0.1538798298 0.2825489841 -0.4833656919 0.2823673827 -0.4832350518 -0.0671028276 0.1695869997
500297000.0 -0.086136892 0.1548539218 0.277097809 -0.4859800837 0.2767622027 -0.4864489292 -0.0654398877 0.1706419624
505296970.0 -0.0840598015 0.1560578393 0.2717115475 -0.4893970887 0.2717072386 -0.4889873051 -0.0639567333 0.1710661454
510296940.0 -0.0828423007 0.1567420787 0.2663935163 -0.4929842654 0.2664049892 -0.4927474774 -0.0613182947 0.1723421984
515296910.0 -0.0812337745 0.1580011113 0.2605330679 -0.4949360847 0.260528383 -0.4948978995 -0.0596277313 0.1725734498
520296880.0 -0.0795781671 0.1588082432 0.2554382112 -0.4978078504 0.2550701071 -0.4977754167 -0.0574520659 0.1739810199
525296850.0 -0.0778604015 0.1596657915 0.2496120819 -0.5004310745 0.2493902409 -0.5004252523 -0.0554034564 0.1748888692
530296820.0 -0.0767989267 0.1601752451 0.2445380847 -0.5031976913 0.2443650634 -0.5033543548 -0.0536276303 0.1750978976
535296790.0 -0.0742058824 0.1614328492 0.2386837279 -0.50553106 0.2389378113 -0.5057840882 -0.0515186233 0.1763568727
540296760.0 -0.0727984808 0.162346629 0.2328548362 -0.5083509626 0.2331850884 -0.5082982751 -0.0496425121 0.1764378927
545296730.0 -0.071767275 0.163398342 0.2280419603 -0.510508677 0.2276609983 -0.5106980074 -0.0475957515 0.1774404058
550296700.0 -0.0694291988 0.1640691037 0.2222704112 -0.513201097 0.2216868507 -0.5134356158 -0.0453251273 0.1780020876
555296670.0 -0.0680215899 0.1648105823 0.216590467 -0.5159991135 0.2166268947 -0.5154804878 -0.0439285708 0.1782021937
560296640.0 -0.0658184772 0.1655260173 0.2104860719 -0.5177552153 0.2115623629 -0.5180549685 -0.0416958096 0.1793308607
565296610.0 -0.0649868937 0.1664650134 0.2058616719 -0.5202979972 0.2053938665 -0.5200414742 -0.0394679163 0.1801634375
570296580.0 -0.0629735844 0.1673574188 0.1995264414 -0.522099641 0.1995362016 -0.5225899215 -0.037508136 0.1804475219
575296550.0 -0.0609557553 0.1680900973 0.193927058 -0.5246670176 0.1939169233 -0.5244018252 -0.0356725337 0.1808360145
580296520.0 -0.0594002025 0.1692237644 0.1886578233 -0.5262502031 0.1881154277 -0.5267991819 -0.0337111078 0.1814124849
585296490.0 -0.0574808092 0.1699408434 0.1823574087 -0.528368405 0.1822017844 -0.5282925988 -0.0313456923 0.1819343768
590296460.0 -0.0555466159 0.1702059304 0.1766561595 -0.5304461171 0.1769248348 -0.5305965103 -0.029484663 0.1822831767
595296430.0 -0.0541831691 0.1711550809 0.1705226335 -0.5321076609 0.170459856 -0.5323248949 -0.0275055119 0.1826005177
600296400.0 -0.0520686634 0.1721926677 0.1646825885 -0.5340331185 0.165002214 -0.5340140007 -0.0250318937 0.1830023886
605296370.0 -0.0507427593 0.1727980203 0.1594247084 -0.5357223014 0.1591665203 -0.5360110392 -0.0232844153 0.1837396331
610296340.0 -0.048667612 0.1738595341 0.1535532655 -0.5369663029 0.153531469 -0.5372996669 -0.0213171138 0.1841090413
615296310.0 -0.0465228687 0.1741277112 0.1476608558 -0.5391672204 0.1473946085 -0.5388135414 -0.0191413218 0.1843525901
620296280.0 -0.0453278745 0.175370924 0.1416574988 -0.5407037978 0.1415907093 -0.5403807706 -0.0174155518 0.1851470307
625296250.0 -0.0438164574 0.1754842472 0.1359256096 -0.5418714136 0.1359948954 -0.5420354236 -0.0153082265 0.1852149022
630296220.0 -0.041587921 0.1764579235 0.1297832815 -0.5434324642 0.1300797108 -0.5436957924 -0.0130481675 0.1855788692
635296190.0 -0.0402641835 0.1772704348 0.1241664152 -0.5445009368 0.1240701105 -0.5442860185 -0.0112118693 0.1856560436
640296160.0 -0.0384066636 0.1776382005 0.1181805735 -0.5461735429 0.1182009482 -0.5461235748 -0.0090809474 0.1859851644
645296130.0 -0.0364661966 0.1786321099 0.1124710039 -0.546992271 0.1122224272 -0.5470575471 -0.0071792477 0.1860455574
650296100.0 -0.0346294828 0.1789165965 0.1062532076 -0.5485286933 0.1059332327 -0.548395294 -0.0043754712 0.1862374376
655296070.0 -0.0327567061 0.1796150165 0.0999729767 -0.5497709156 0.1003118847 -0.5491781183 -0.0030472459 0.1865854349
660296040.0 -0.0311016586 0.1801549524 0.0944052503 -0.5502850914 0.0943295355 -0.5507941681 -0.00085385 0.1865894119
665296010.0 -0.0294326768 0.1809403276 0.0881671416 -0.5513315349 0.0884474789 -0.5513563734 0.0012507175 0.1865049011
670295980.0 -0.0275059589 0.1815398303 0.0825160832 -0.5524438564 0.0824107423 -0.5517700149 0.0031252721 0.1866929995
675295950.0 -0.0259257061 0.1818464693 0.0765173307 -0.5529036366 0.0765892933 -0.5529940375 0.0051032288 0.1872335822
680295920.0 -0.0243989825 0.1827301983 0.0709003812 -0.5537207483 0.0706023112 -0.5535973736 0.0077927499 0.1867397201
685295890.0 -0.022436905 0.1831749423 0.0644936342 -0.5546315444 0.0644276123 -0.5545880149 0.009517631 0.187389336
690295860.0 -0.0207174696 0.1836240276 0.0588431925 -0.5551245412 0.0585060361 -0.555425898 0.0116134106 0.1871844671
695295830.0 -0.0188511443 0.1839675319 0.0530154404 -0.5558591142 0.0525451808 -0.5555186433 0.0137012132 0.1874268204
700295800.0 -0.0167291954 0.1847225638 0.0470180329 -0.5563389294 0.0466399891 -0.5564357755 0.0157010736 0.1872852143
705295770.0 -0.0156345752 0.1850477653 0.0405690027 -0.5571627717 0.0405861408 -0.5566481929 0.0177892121 0.1877360298
710295740.0 -0.0136428071 0.1849760174 0.0346263774 -0.5567898823 0.0344748578 -0.5572152117 0.0200432785 0.1873558605
715295710.0 -0.0117479322 0.1857229759 0.0286768863 -0.55767416 0.028489171 -0.5574494027 0.0221670547 0.1872634947
720295680.0 -0.0096592229 0.1858547701 0.0225059764 -0.557195853 0.0226364798 -0.5578650356 0.0237320794 0.1867277092
725295650.0 -0.0086599208 0.1867497507 0.0166956913 -0.5579551625 0.0167015258 -0.5581128575 0.0255876723 0.1874278914
730295620.0 -0.0071603099 0.186700447 0.0109609884 -0.5574357212 0.0106758488 -0.5574062751 0.0279784787 0.187509047
735295590.0 -0.0048025266 0.1871672839 0.0045466833 -0.558285654 0.0046051438 -0.5579068446 0.0300106429 0.1868414991
740295560.0 -0.0035234545 0.187108549 -0.0013670322 -0.5579142788 -0.0009425414 -0.5578464152 0.032096058 0.1865960162
745295530.0 -0.0015764068 0.1878120983 -0.0069699414 -0.5577005373 -0.006624342 -0.5578110695 0.0338370153 0.1862876062
750295500.0 0.0001731884 0.1881238852 -0.0130727816 -0.557272387 -0.0135877501 -0.5579000388 0.0360020493 0.1862787377
755295470.0 0.0017123046 0.1882882459 -0.0189677101 -0.5574209214 -0.0187767139 -0.5578262992 0.0381660958 0.1865793419
760295440.0 0.0032087093 0.188938104 -0.0256176146 -0.5573858833 -0.0254389979 -0.5567124012 0.0404053643 0.1852026228
765295410.0 0.0054411472 0.1884728936 -0.0315546576 -0.5568470569 -0.0310897967 -0.5569474447 0.0423426796 0.1854364076
770295380.0 0.0069564323 0.1891956011 -0.0368776449 -0.5563251045 -0.0372052263 -0.5570257094 0.0437446198 0.185364126
775295350.0 0.0087424259 0.1892244295 -0.042843037 -0.5561711619 -0.0430648658 -0.5557325178 0.0465578031 0.1846591097
780295320.0 0.0105041876 0.1892600448 -0.0487411521 -0.5553520836 -0.0487731016 -0.5553737292 0.048836643 0.1844615545
785295290.0 0.0120792786 0.1893357152 -0.0549897104 -0.5551988271 -0.0550663426 -0.5549024383 0.0500128481 0.1846561714
790295260.0 0.0142099852 0.1892790547 -0.0610869015 -0.554674692 -0.0607826228 -0.5545192021 0.0521207666 0.184151513
795295230.0 0.0155748659 0.1890621797 -0.0666254719 -0.5537036595 -0.0670156217 -0.5538331765 0.0542541339 0.1830089299
800295200.0 0.0171929982 0.189707418 -0.0723547909 -0.5527387686 -0.0725607231 -0.5531385928 0.0562420903 0.1828808841
805295170.0 0.0188844063 0.1898360221 -0.0787047805 -0.5523294453 -0.0788611362 -0.5525221514 0.0588124034 0.1825167498
810295140.0 0.0210198022 0.1897930921 -0.0846410488 -0.5509180066 -0.0844600852 -0.5510574553 0.0605966762 0.1821231022
815295110.0 0.0223117669 0.1897793497 -0.0903764809 -0.550208483 -0.0904174893 -0.5501815218 0.0621814077 0.181554867
820295080.0 0.0242780569 0.1896064878 -0.0957795996 -0.5487822868 -0.0960969673 -0.5495872104 0.0638315956 0.1815583712
825295050.0 0.0259370829 0.1896616482 -0.1020143574 -0.5481318848 -0.1022939051 -0.5478134898 0.06676397 0.1808362527
830295020.0 0.0276632301 0.1892557146 -0.1080708553 -0.5469408711 -0.1083079708 -0.5467348727 0.0681234468 0.179783332
