!Created with skrf (http://scikit-rf.org).
# Hz S RI R 50.0 
!freq ReS11 ImS11 ReS21 ImS21 ReS12 ImS12 ReS22 ImS22
300000.0 -0.2316282284 -0.1330659445 0.4669939441 0.0866609516 0.4667749001 0.0841949864 -0.2373529173 -0.1290905833
5299970.0 -0.241935415 0.0050660071 0.4750258464 0.0059857451 0.4752908513 0.0056600822 -0.2443178036 0.0047974467
10299940.0 -0.2387815157 0.01877216 0.4775406341 0.0068920835 0.476749306 0.007261499 -0.2408443571 0.0170540866
15299910.0 -0.2338836118 0.0287496392 0.4804592848 0.0083567381 0.4808963689 0.0084067913 -0.2367115278 0.0263992885
20299880.0 -0.2285443827 0.0368151296 0.4856146761 0.0081007046 0.4857009344 0.0084411627 -0.232181513 0.0338405004
25299850.0 -0.2225167557 0.0436410068 0.4907516822 0.0072323504 0.4908544896 0.0072473233 -0.2272377443 0.0401811942
30299820.0 -0.2170099248 0.0484187192 0.4960348845 0.0052832278 0.4960755155 0.004892905 -0.2216331519 0.0449794573
35299790.0 -0.2109782786 0.0529007699 0.5007807754 0.0017769142 0.5015106055 0.0019153087 -0.2168580497 0.0493511082
40299760.0 -0.2061137743 0.0559056233 0.506381336 -0.0020554978 0.5064251702 -0.0022226354 -0.2118663459 0.0522025344
45299730.0 -0.2009127449 0.0587142176 0.5113210161 -0.0067320843 0.5115140689 -0.0068753681 -0.2069658706 0.0547766712
50299700.0 -0.1962175083 0.0608499312 0.5153920355 -0.012591636 0.5151349009 -0.0124035355 -0.2027203944 0.0570200837
55299670.0 -0.1920650519 0.0625467299 0.5190201775 -0.0177841195 0.5189610639 -0.0187824743 -0.1991765993 0.0586102538
60299640.0 -0.1877009433 0.064138679 0.5222158948 -0.0246939166 0.5230945499 -0.0248312206 -0.1955905625 0.0598580927
65299610.0 -0.183868062 0.0651725806 0.5251546042 -0.0306797276 0.525399581 -0.0314300617 -0.1917994837 0.0608799125
70299580.0 -0.1808354708 0.0656383611 0.5274651801 -0.0372199598 0.5279434518 -0.0376135287 -0.1892697244 0.0620380511
75299550.0 -0.1779814715 0.0666264994 0.5292376629 -0.0445746605 0.5296571693 -0.0442408001 -0.1861335413 0.0628554064
80299520.0 -0.1751412135 0.0676906129 0.5313540601 -0.0514698037 0.5317570883 -0.0516067872 -0.1838813571 0.0634965022
85299490.0 -0.1726432393 0.068345666 0.5328071848 -0.0581955348 0.5330153582 -0.0581327555 -0.1818369902 0.0640593001
90299460.0 -0.1700378115 0.0691013533 0.533319583 -0.0647978439 0.5336994785 -0.0647577342 -0.1792330094 0.0650720133
95299430.0 -0.167978198 0.069738201 0.5340483523 -0.0719912439 0.5351118184 -0.0720136703 -0.1774181297 0.0658729814
100299400.0 -0.1659099356 0.0703807627 0.5350995394 -0.0789678497 0.535275693 -0.0790581395 -0.175776001 0.0665583082
105299370.0 -0.1640629804 0.0708286222 0.5351129002 -0.0856491601 0.5357379712 -0.0855394071 -0.1737334763 0.0666518599
110299340.0 -0.1622805037 0.0715329614 0.535317246 -0.0919691294 0.5355728906 -0.092328174 -0.1728480966 0.0673322163
115299310.0 -0.1608958079 0.0724459172 0.5353908691 -0.0991560373 0.5357457002 -0.0993878602 -0.1714864772 0.0685630187
120299280.0 -0.1592215685 0.0733082727 0.535102432 -0.1062097728 0.5351948466 -0.1063421385 -0.1700787333 0.0686979298
125299250.0 -0.1580285019 0.0739001491 0.5346917693 -0.112907039 0.5349641487 -0.1126554082 -0.168798972 0.0699165054
130299220.0 -0.1567911013 0.0746868299 0.5342151709 -0.119422551 0.5343086743 -0.1200748358 -0.1676945237 0.0705764652
135299190.0 -0.1555170547 0.0759349366 0.5339320431 -0.1259970126 0.5339173602 -0.1264635356 -0.166612125 0.0709592956
140299160.0 -0.1542549957 0.0770954076 0.5330441459 -0.1330412815 0.5329198438 -0.1329277391 -0.1661878955 0.0718407346
145299130.0 -0.1535342542 0.0777409498 0.5315806001 -0.1392784497 0.5321713499 -0.1394930623 -0.1650068004 0.0728591385
150299100.0 -0.1520531459 0.0788700776 0.5308852857 -0.1457167711 0.5307133712 -0.1463447808 -0.1642879384 0.0740907188
155299070.0 -0.1511995503 0.0798882603 0.5292835289 -0.1522895254 0.5299533609 -0.1526604911 -0.1632372791 0.0746633626
160299040.0 -0.1499337994 0.0812686302 0.5279946546 -0.1590555236 0.5282633757 -0.1591571984 -0.1627607217 0.0762391834
165299010.0 -0.1486389199 0.0819945959 0.5268229815 -0.1652264812 0.5265935892 -0.1653513043 -0.1615404347 0.0767734073
170298980.0 -0.1477916975 0.0833839422 0.5245582698 -0.1716554396 0.525126904 -0.1718098678 -0.1610450364 0.0777362647
175298950.0 -0.1469929388 0.0846536422 0.5235259858 -0.1780094311 0.5240685629 -0.1783703374 -0.1604481086 0.0791347791
180298920.0 -0.1460085662 0.0860869644 0.5217197763 -0.1844700374 0.5217468869 -0.1846230712 -0.159390722 0.0801280725
185298890.0 -0.1451199461 0.0872297308 0.5202569176 -0.1903975541 0.5199624403 -0.1905133341 -0.1585295629 0.0809851067
190298860.0 -0.1437980246 0.0887842669 0.5175144904 -0.1967474079 0.5182500263 -0.1966534456 -0.1577858907 0.0823838584
195298830.0 -0.1430356986 0.0900995502 0.5166124268 -0.2030010818 0.5161620509 -0.2026401333 -0.1574821941 0.0835874769
200298800.0 -0.1418960318 0.0909418173 0.5139393606 -0.2092889885 0.5141788476 -0.2088917378 -0.1562456203 0.08469023
205298770.0 -0.1412172378 0.0924367851 0.5116017445 -0.2150703441 0.5119204277 -0.2145202336 -0.1556202341 0.0858186119
210298740.0 -0.1400610692 0.0939299345 0.5096294694 -0.2206295565 0.5092274264 -0.2206905094 -0.155019682 0.0869548654
215298710.0 -0.1392806112 0.0954000184 0.5068835179 -0.2264207095 0.5071756135 -0.2271050377 -0.1541718538 0.0882811458
220298680.0 -0.1383127633 0.0968483129 0.5045446381 -0.2324611271 0.5047147183 -0.2327703557 -0.1535055377 0.0895455693
225298650.0 -0.1372767883 0.098333575 0.501996485 -0.2382922853 0.5025260742 -0.2378661595 -0.152491457 0.0905732926
230298620.0 -0.1360444489 0.0998809605 0.4993608811 -0.2443089169 0.4998058255 -0.2444496352 -0.1523430602 0.091816432
235298590.0 -0.1354363475 0.1016160719 0.4973992298 -0.2507745746 0.4975492734 -0.2500380566 -0.1510024474 0.0933001598
240298560.0 -0.1342402324 0.1027256614 0.4942537249 -0.2553365275 0.4945803855 -0.2557538094 -0.1504616116 0.0945332903
245298530.0 -0.1332386661 0.1039439842 0.491930326 -0.2611695737 0.4917351085 -0.2614647463 -0.1496836847 0.0957950119
250298500.0 -0.1323355023 0.1054901547 0.4891593858 -0.2671198286 0.4889982212 -0.266948875 -0.1489255598 0.0977673218
255298470.0 -0.1310840039 0.1071560392 0.486393159 -0.2721703813 0.486478992 -0.2726278715 -0.1479695689 0.0986973822
260298440.0 -0.1301590108 0.1084045486 0.4833873274 -0.2778768497 0.4833421793 -0.2777287131 -0.1473864839 0.0996173091
265298410.0 -0.1293869506 0.1099178112 0.4802696522 -0.2835989235 0.4800751775 -0.2836088921 -0.1457676801 0.101085484
270298380.0 -0.1282388437 0.111577086 0.4773757489 -0.2889999083 0.4771326879 -0.2891663918 -0.1450576963 0.1028733862
275298350.0 -0.1269706604 0.1132671695 0.4732860893 -0.2941631758 0.4736855195 -0.2941527591 -0.1445392474 0.1041295027
280298320.0 -0.1261787058 0.1143879817 0.4707986738 -0.299467122 0.4710020866 -0.2998181265 -0.1434244287 0.1053513536
285298290.0 -0.1249500256 0.116021454 0.4672553115 -0.3048699423 0.4677315815 -0.3047747775 -0.142839999 0.1068006905
290298260.0 -0.1235774056 0.1175248052 0.464716131 -0.3105416419 0.4641563423 -0.3103828575 -0.1413873531 0.1079303801
295298230.0 -0.1225715589 0.1183602919 0.4608589283 -0.3158620066 0.4610478059 -0.3156283675 -0.1408107528 0.109334683
300298200.0 -0.1210686634 0.1204470234 0.4574486659 -0.3208963218 0.4578173837 -0.3210498164 -0.1398131119 0.1107942647
305298170.0 -0.1200810626 0.1211215872 0.4541505108 -0.3262370786 0.4543883839 -0.3263226125 -0.1387519883 0.1115525335
310298140.0 -0.118566574 0.1226859266 0.4507148037 -0.3313940886 0.4508973311 -0.3311211646 -0.1376674139 0.1130123013
315298110.0 -0.1177140047 0.1237097201 0.4470709953 -0.3369418387 0.4469260499 -0.3370726403 -0.1365595525 0.1143275942
320298080.0 -0.1164567339 0.125282992 0.4428218279 -0.3417779393 0.4434213929 -0.3420909321 -0.1357797646 0.115476803
325298050.0 -0.1156672028 0.1259470071 0.4391565391 -0.3463861616 0.4398993224 -0.3468811589 -0.1344198913 0.1165555432
330298020.0 -0.1147876558 0.1278422094 0.435409629 -0.3518760843 0.4360823038 -0.3516560553 -0.134010939 0.1177665203
335297990.0 -0.1132246547 0.1289373503 0.4312802176 -0.3561790326 0.4319036257 -0.3570569286 -0.1329413337 0.119511173
340297960.0 -0.1123781908 0.1302577131 0.4273107218 -0.3613691989 0.4273884638 -0.3613314231 -0.1322202914 0.1208365567
345297930.0 -0.1111977655 0.1317539735 0.4236595694 -0.3663450715 0.4235634586 -0.366138921 -0.1311328047 0.1219433519
350297900.0 -0.1101799058 0.132907841 0.4196746397 -0.3701593206 0.4195663421 -0.3708753537 -0.1299051481 0.1232205236
355297870.0 -0.1090507216 0.134180597 0.4152955113 -0.3747908916 0.4150961555 -0.3748852641 -0.1287387789 0.1246169966
360297840.0 -0.1073154846 0.1357601225 0.4110842556 -0.3797862084 0.4113852721 -0.3800908437 -0.1277947442 0.126236766
365297810.0 -0.1059526826 0.137100152 0.4066279856 -0.3844422058 0.4069051397 -0.3842625159 -0.127049133 0.1274457562
370297780.0 -0.1046646032 0.1385250823 0.4023531121 -0.3885876026 0.4028723396 -0.3887347188 -0.1255821129 0.1287776402
375297750.0 -0.1032597906 0.1396364791 0.3981566778 -0.3931948333 0.3983260792 -0.393194421 -0.124321579 0.1301461999
380297720.0 -0.102297234 0.1411953862 0.3942910876 -0.3979607051 0.3941922227 -0.3975126262 -0.1230714316 0.1315625161
385297690.0 -0.1008124739 0.1419936309 0.3893459546 -0.4017293709 0.3899191792 -0.4022305454 -0.1222468207 0.1329842168
390297660.0 -0.0990373762 0.143183915 0.3853104827 -0.405619416 0.3852314862 -0.4062572507 -0.1206211069 0.1341574594
395297630.0 -0.0977116597 0.1447015555 0.3811055523 -0.4095155226 0.3807936108 -0.4099687231 -0.1196112351 0.1355552184
400297600.0 -0.0962478653 0.1458261376 0.3761160564 -0.4145074814 0.3768790393 -0.4144444912 -0.1182089715 0.1369536444
405297570.0 -0.0945911519 0.146402989 0.3716615882 -0.4182078911 0.3721078216 -0.4187516474 -0.1168467121 0.1384522751
410297540.0 -0.0930429466 0.1481760758 0.366987474 -0.4227102567 0.3677208199 -0.422714476 -0.115650134 0.1396348719
415297510.0 -0.0920086248 0.1493050895 0.3620916096 -0.4263582183 0.363083356 -0.4266304194 -0.11404597 0.1409134231
420297480.0 -0.0901071428 0.150092811 0.3575122237 -0.4305126296 0.3582318726 -0.430874335 -0.112719718 0.1425254222
425297450.0 -0.0883753583 0.1512536093 0.3532548669 -0.4339740322 0.3528437083 -0.4343264512 -0.1114486616 0.1428710074
430297420.0 -0.0868396538 0.1522288753 0.348831334 -0.4383180076 0.3488186471 -0.437817341 -0.1099997327 0.1445499642
435297390.0 -0.0852655497 0.1533894766 0.3434300429 -0.4424140709 0.3437030175 -0.4418849744 -0.1089422091 0.1460778516
440297360.0 -0.0834687737 0.1542992621 0.338490002 -0.4455354053 0.3383659403 -0.4456767311 -0.1072273099 0.147139489
445297330.0 -0.0819109108 0.1548659749 0.3337027948 -0.4490456275 0.3341953941 -0.449633717 -0.1058755566 0.1485181341
450297300.0 -0.0802374943 0.1563484755 0.3290831283 -0.4530561058 0.3294038081 -0.4525170519 -0.1044792438 0.149202534
455297270.0 -0.0787229393 0.1571411084 0.3240426395 -0.4563651817 0.324236381 -0.4565563645 -0.1027108434 0.1504801411
460297240.0 -0.0763782286 0.1582767541 0.31887385 -0.4605543751 0.3191078253 -0.4603241679 -0.1014866713 0.1516006218
465297210.0 -0.0748627516 0.1591777223 0.3135215128 -0.4635595303 0.3135145481 -0.4640087443 -0.0998236801 0.1532303767
470297180.0 -0.0728545044 0.160027517 0.3087888687 -0.466550878 0.3092831186 -0.466840386 -0.0983349666 0.1538588565
475297150.0 -0.0716090462 0.1611992786 0.3035357726 -0.4699130386 0.3039075489 -0.4702976179 -0.0968943955 0.1549462728
480297120.0 -0.069392552 0.1623288396 0.2982027361 -0.4735596905 0.29875505 -0.4731895531 -0.0954709588 0.1558763343
485297090.0 -0.0676260825 0.1627216539 0.2931686863 -0.4768900714 0.2932938635 -0.4767430019 -0.0939196814 0.1574241948
490297060.0 -0.0652229132 0.1637805831 0.2877794809 -0.4800820488 0.2878627167 -0.4801310589 -0.0923953541 0.1584029914
495297030.0 -0.0638663561 0.1642358 0.2829844283 -0.4832912971 0.2828308503 -0.4830226159 -0.0904736602 0.1590414565
500297000.0 -0.0619703201 0.1652881722 0.2776815746 -0.4858610193 0.2775475287 -0.4863865697 -0.0889987745 0.1606495056
505296970.0 -0.0594212999 0.1663026758 0.2723436442 -0.4889668 0.2726853151 -0.4886792876 -0.0876149812 0.1607122535
510296940.0 -0.0582120727 0.166745411 0.2669874112 -0.4926885381 0.2672927101 -0.4924314322 -0.0855587672 0.1622905841
515296910.0 -0.0561689939 0.1679084157 0.2612628192 -0.4952167554 0.2612614206 -0.4948251287 -0.0842676313 0.1627832357
520296880.0 -0.0541985449 0.1686494943 0.2558110584 -0.4974888229 0.2556759071 -0.4974014329 -0.0823763846 0.164379291
525296850.0 -0.0524222842 0.1690380037 0.2504490092 -0.5001660615 0.2502000081 -0.5000037785 -0.0806156571 0.1650124784
530296820.0 -0.0507684373 0.1695177275 0.2450081583 -0.5031305616 0.2451509676 -0.5031797489 -0.0792422697 0.1657377559
535296790.0 -0.0482044215 0.1705691984 0.239809864 -0.5053029532 0.2395265773 -0.5054073376 -0.0770816014 0.1668315814
540296760.0 -0.046327752 0.1716032253 0.2340757991 -0.5082576742 0.2339488301 -0.5081730767 -0.0759538566 0.1675505863
545296730.0 -0.0447329513 0.1722615618 0.2287267101 -0.5104319203 0.2284432733 -0.5102915063 -0.074208966 0.1684101065
550296700.0 -0.0421637556 0.172878159 0.2231822421 -0.5130540568 0.2229923477 -0.5133830506 -0.0723599684 0.1695880805
555296670.0 -0.0406644248 0.1734607408 0.2173839086 -0.5155224081 0.2175395092 -0.515226222 -0.0710589037 0.1699000235
560296640.0 -0.0379733202 0.173933135 0.2114482421 -0.5175973219 0.2119023651 -0.5177919039 -0.0689261979 0.1711984912
565296610.0 -0.0363438052 0.1745103337 0.2065473139 -0.5198961155 0.2063623529 -0.5194379314 -0.0672263937 0.1718242333
570296580.0 -0.0342630126 0.1752499995 0.2003832188 -0.521605108 0.2007224789 -0.5221319428 -0.0656536201 0.1724650397
575296550.0 -0.0321790182 0.1757774694 0.1953584698 -0.5241404434 0.194632794 -0.5243253683 -0.0639968 0.1732593199
580296520.0 -0.0301277997 0.176504913 0.1891153205 -0.5263103003 0.1891483884 -0.5265302939 -0.0626412663 0.1741411393
585296490.0 -0.0279529311 0.1769479759 0.1835848829 -0.5280778644 0.1833098555 -0.5279863021 -0.0602800855 0.1750510099
590296460.0 -0.0255079803 0.1773399905 0.1780101343 -0.5302933765 0.1777768341 -0.5301652675 -0.0590497717 0.175305854
595296430.0 -0.023709725 0.177942106 0.171524782 -0.5320636416 0.1716258667 -0.5320820854 -0.0572658842 0.1758642872
600296400.0 -0.0216895557 0.1784160003 0.1659276309 -0.5338169311 0.1659963768 -0.5336194822 -0.0556049242 0.1765966759
605296370.0 -0.0196234552 0.1788996998 0.1605061495 -0.5353675365 0.1598425157 -0.536142968 -0.0533982546 0.1776424929
610296340.0 -0.0173927307 0.1796554865 0.1544624677 -0.536746216 0.1548060912 -0.5372130817 -0.0521348005 0.1783197889
615296310.0 -0.0151325309 0.1797676482 0.1490247959 -0.5388020036 0.1479946026 -0.5391230332 -0.049881937 0.178952941
620296280.0 -0.013747412 0.1807956917 0.1424874514 -0.5403107724 0.1425350993 -0.5401209742 -0.0485736053 0.1798350057
625296250.0 -0.0114779252 0.1804979817 0.1370454502 -0.5418024024 0.1368000712 -0.5417941321 -0.0469050306 0.1800586431
630296220.0 -0.0092160435 0.1812955386 0.1308125167 -0.5432894412 0.1308415443 -0.543022704 -0.044943581 0.1806197291
635296190.0 -0.0075095302 0.1816384742 0.1254483582 -0.5445987936 0.1251305975 -0.544443993 -0.0429101797 0.1812558168
640296160.0 -0.0054733161 0.1818851258 0.1190564808 -0.5459009681 0.1189606755 -0.5459561171 -0.0413006871 0.1815136901
645296130.0 -0.002996802 0.1824733482 0.1135168608 -0.5472173765 0.1132858974 -0.546663422 -0.0398182721 0.182012147
650296100.0 -0.0012081499 0.1824627712 0.1076802058 -0.5484010365 0.1072794048 -0.5484898523 -0.0373433274 0.1827795098
655296070.0 0.0010201744 0.1829079001 0.1013577086 -0.5496559576 0.101611729 -0.5492363489 -0.0363820277 0.1833131628
660296040.0 0.0029192112 0.1832063469 0.0959201905 -0.5504249311 0.0953355852 -0.5503401472 -0.0341768994 0.1833580932
665296010.0 0.0052845018 0.1834328577 0.0890717689 -0.5511384299 0.0891730185 -0.5513659033 -0.0324207929 0.1842473527
670295980.0 0.0069499657 0.1836695529 0.0833840748 -0.5525090671 0.0834586762 -0.5520522384 -0.030868871 0.1845077914
675295950.0 0.0088267527 0.1835468335 0.0778883569 -0.5526737357 0.0778190911 -0.5528665947 -0.0290157888 0.1851712168
680295920.0 0.0108480412 0.1840510912 0.0716148303 -0.5537355898 0.0717575653 -0.5537163352 -0.0271685002 0.1851676807
685295890.0 0.0134676265 0.1844765507 0.0651910825 -0.5549895437 0.0653851439 -0.5547236325 -0.0251901031 0.1864342315
690295860.0 0.0148694943 0.18454321 0.0597909063 -0.5553675729 0.0594832657 -0.5549248029 -0.0233648042 0.1860559939
695295830.0 0.0170192979 0.1843574102 0.0540252063 -0.556105592 0.0534739334 -0.5555437571 -0.0215619973 0.1868746961
700295800.0 0.0193303007 0.1846627581 0.0478937948 -0.5564800868 0.0478311993 -0.556210868 -0.0197887495 0.1870176086
705295770.0 0.0209018916 0.1845501178 0.0419288335 -0.5570839635 0.0417769717 -0.5567991107 -0.0180539257 0.1876275156
710295740.0 0.023115707 0.1844006238 0.0361206878 -0.5570654011 0.035440276 -0.5572882237 -0.0161495159 0.1881082086
715295710.0 0.0254152868 0.1848269428 0.0299532163 -0.5577720445 0.0297597404 -0.5577550046 -0.0144840017 0.1881602791
720295680.0 0.0278493858 0.184616864 0.0240351683 -0.5573779713 0.0234202547 -0.5580453661 -0.0125634865 0.1885011578
725295650.0 0.0290709301 0.1848763573 0.0181283565 -0.558056933 0.0176669695 -0.5579823071 -0.0109450123 0.1890089348
730295620.0 0.0305581441 0.1845003465 0.0116593846 -0.5575889219 0.0120098798 -0.5575973085 -0.009100583 0.1893864837
735295590.0 0.033190186 0.1847296311 0.0056900562 -0.5582326126 0.0058996278 -0.557991451 -0.0074208379 0.1891552402
740295560.0 0.0348380367 0.1843388724 -0.0001776097 -0.5577955976 0.0001674773 -0.5583996343 -0.0055075847 0.1898078263
745295530.0 0.036661446 0.184520265 -0.0060700392 -0.5573232962 -0.0051948084 -0.5578963321 -0.0042875989 0.1898754462
750295500.0 0.0385988556 0.1843285887 -0.0116175512 -0.557964021 -0.0122890963 -0.5580839762 -0.0021289847 0.1903964209
755295470.0 0.040473931 0.1840235232 -0.0176037434 -0.5581674508 -0.0179127045 -0.5581041173 5.92416e-05 0.1908854554
760295440.0 0.0425107379 0.1843290126 -0.0243636783 -0.5576450722 -0.0243890679 -0.5570893141 0.0019572302 0.1898268609
765295410.0 0.0446523551 0.183310503 -0.0298650903 -0.5572656065 -0.0296395771 -0.5574088908 0.0039208625 0.1904135306
770295380.0 0.0463316969 0.1836012392 -0.0359535592 -0.5561932732 -0.0358694892 -0.5571171102 0.0049997716 0.1909160235
775295350.0 0.0481937765 0.1829856262 -0.0416313545 -0.5562418702 -0.0419249957 -0.5563829159 0.007589873 0.1908767513
780295320.0 0.0501043973 0.1830110714 -0.0474453326 -0.5553521542 -0.047643445 -0.5560176382 0.0092210075 0.1908211364
785295290.0 0.0524021569 0.1822522067 -0.0539574311 -0.5554422202 -0.0536147241 -0.5556848605 0.0107508958 0.1915357396
790295260.0 0.0540666655 0.181982911 -0.0597791845 -0.5548386807 -0.0593680442 -0.554870655 0.0127734192 0.1915418224
795295230.0 0.0558647701 0.1813562529 -0.0654355732 -0.5539994882 -0.0656343308 -0.5539148572 0.0146353167 0.1907426188
800295200.0 0.057785462 0.1812637171 -0.0708977083 -0.5526689168 -0.0712288384 -0.5533608532 0.0162583321 0.1911345188
805295170.0 0.0595015493 0.1810916117 -0.0772780336 -0.5522579822 -0.0771664614 -0.553002074 0.0186772891 0.1912491919
810295140.0 0.0618371688 0.1803905498 -0.0833531738 -0.5512255023 -0.083486653 -0.5517233973 0.0203971691 0.1909958565
815295110.0 0.0633976279 0.1799885232 -0.0894177644 -0.5508790288 -0.0890594812 -0.5508714073 0.0221141168 0.191188859
820295080.0 0.0654166864 0.1795062823 -0.094953014 -0.5496982453 -0.0948554038 -0.5501441822 0.0231214257 0.1916142425
825295050.0 0.0669660522 0.1787157665 -0.1010212954 -0.5485366038 -0.1008684622 -0.5487958401 0.0258958988 0.1916895662
830295020.0 0.0689694757 0.1781662952 -0.1070101621 -0.5472714795 -0.1070276778 -0.5478808184 0.027500645 0.1905232176
