!Created with skrf (http://scikit-rf.org).
# Hz S RI R 50.0 
!freq ReS11 ImS11 ReS21 ImS21 ReS12 ImS12 ReS22 ImS22
300000.0 -0.0979952311 -0.0822026511 0.6239532604 0.076983685 0.6241397212 0.0804016471 -0.096500175 -0.0905688433
5299970.0 -0.1003730319 0.0129925071 0.6304065074 0.0098578119 0.6304551405 0.0111377731 -0.1022737866 0.0119681304
10299940.0 -0.0953723425 0.0298701539 0.6345108102 0.0155708919 0.6344283686 0.0159599458 -0.0971710513 0.0290334221
15299910.0 -0.0883912505 0.0430282119 0.6407237906 0.0200572221 0.6403183245 0.020880427 -0.0900984478 0.0420561913
20299880.0 -0.0796341008 0.0542481332 0.6488105567 0.0241207148 0.6489900707 0.0242223704 -0.0821611522 0.0532739916
25299850.0 -0.0697938463 0.0626492624 0.6578791564 0.0249127875 0.6578278497 0.0253679065 -0.072600866 0.0617405933
30299820.0 -0.0594803675 0.0691348879 0.6674755167 0.0243923043 0.6676381593 0.0247309685 -0.0627149362 0.0687602816
35299790.0 -0.0492800778 0.0741095434 0.6770842292 0.0216174579 0.6775806675 0.0216788768 -0.0525329493 0.0735955314
40299760.0 -0.0395343839 0.0769708893 0.6867236726 0.0178712111 0.6865806514 0.0176644132 -0.0435527614 0.0770089766
45299730.0 -0.0304398865 0.0794234449 0.6959056306 0.0117887192 0.6957048452 0.0119137428 -0.0338944331 0.0789001556
50299700.0 -0.0219189261 0.0798379437 0.7031429573 0.0046486084 0.7039562735 0.0048311398 -0.0256408041 0.0800478819
55299670.0 -0.0141686665 0.0799000043 0.7104306799 -0.0029071908 0.7110855519 -0.0025659897 -0.0178533197 0.0799508461
60299640.0 -0.0067857505 0.0789750457 0.71774199 -0.0114670006 0.7171980057 -0.0111681211 -0.010356755 0.0796143402
65299610.0 -0.000282619 0.0780751339 0.7235796075 -0.0192687089 0.7237687095 -0.020214236 -0.0035850012 0.0783787562
70299580.0 0.0061812033 0.0759740136 0.7281535433 -0.0292898632 0.7284286982 -0.0293735125 0.0024201139 0.0768970373
75299550.0 0.011682627 0.0744687951 0.7329961121 -0.0390649635 0.7334421805 -0.0388482586 0.0083130081 0.0758250934
80299520.0 0.0161638079 0.0721949806 0.7375625323 -0.048824732 0.7373805848 -0.0488933157 0.0133107711 0.0728216683
85299490.0 0.0209296824 0.0696101543 0.7407025692 -0.0587404762 0.740680408 -0.0587209646 0.0174381918 0.0708962535
90299460.0 0.0245852839 0.0673129906 0.7431050749 -0.0685149171 0.7436980821 -0.0688278919 0.0220852716 0.0686833106
95299430.0 0.0280730215 0.0654011497 0.7461250586 -0.0791016915 0.745590738 -0.078746274 0.0253599543 0.0661607171
100299400.0 0.0315472172 0.0626474509 0.74747378 -0.0890756813 0.747445829 -0.0893373814 0.0284638968 0.0638200465
105299370.0 0.0347061913 0.0600194088 0.7485546955 -0.0987190577 0.7489467685 -0.0990625984 0.0321242064 0.061714155
110299340.0 0.0370107565 0.0577338291 0.7496645498 -0.1088959862 0.7501803495 -0.109321966 0.0345357007 0.0593508467
115299310.0 0.0397874686 0.0546809923 0.7504985923 -0.1191027691 0.7511210197 -0.1191437128 0.0372831401 0.0562992913
120299280.0 0.0414906387 0.052759293 0.7514666293 -0.1293801385 0.751531208 -0.129820239 0.0391202023 0.0543588529
125299250.0 0.0432869226 0.0503946569 0.7518678536 -0.1393190722 0.751985814 -0.1393543587 0.041310384 0.0512629888
130299220.0 0.0450407053 0.0479693236 0.751435022 -0.1488690587 0.7515513528 -0.1493062367 0.0432766219 0.0496352338
135299190.0 0.0467284095 0.0455184677 0.7513357248 -0.1586559428 0.7507872525 -0.1586166071 0.0445751827 0.0476480379
140299160.0 0.047735863 0.0442611146 0.750667658 -0.1689949207 0.750872168 -0.1683566533 0.0463491095 0.0454048623
145299130.0 0.049088029 0.0417401387 0.750376493 -0.1786514625 0.7499516431 -0.178273555 0.0475295501 0.0426057485
150299100.0 0.0506873802 0.0396751149 0.7492917676 -0.188269094 0.7492855078 -0.1883303067 0.0486591428 0.0408566436
155299070.0 0.0512128782 0.0383455744 0.7477487046 -0.1981290185 0.7478462996 -0.1982333121 0.0491718821 0.0387524415
160299040.0 0.0524685871 0.0359460317 0.7456271054 -0.2070021343 0.746168368 -0.2068370127 0.050778267 0.0371472626
165299010.0 0.0529808118 0.0340948369 0.7455139661 -0.2168553122 0.744625792 -0.2172254792 0.0519146981 0.0351174847
170298980.0 0.0536404362 0.0327112395 0.7421788552 -0.225873796 0.7427190921 -0.2261026257 0.0527769833 0.0329078076
175298950.0 0.0546274972 0.0306029338 0.7416005909 -0.2353529021 0.741056603 -0.2351858641 0.0533020391 0.0313228984
180298920.0 0.055293392 0.0290700556 0.7390174666 -0.244647591 0.7395625913 -0.2444659527 0.0537034583 0.0300467569
185298890.0 0.0560320354 0.0273496501 0.7368783946 -0.2541463033 0.7369834971 -0.2535133187 0.0542784939 0.0275227346
190298860.0 0.0561270379 0.0258399776 0.7344982246 -0.2628343618 0.7345762998 -0.2632572397 0.0555877061 0.0262535279
195298830.0 0.0563999842 0.0240347956 0.7319054797 -0.2709910673 0.7322255968 -0.2721987352 0.0557509191 0.0241752201
200298800.0 0.0569096803 0.0226774875 0.7294603836 -0.2802724917 0.7290729739 -0.2804548736 0.0562838085 0.0233543545
205298770.0 0.0572596866 0.0214214625 0.72691795 -0.2893550382 0.7268303473 -0.2896308124 0.056394868 0.0209925889
210298740.0 0.0570883957 0.0196121943 0.7238979113 -0.298481855 0.7237985024 -0.2989002768 0.0568901907 0.0198777549
215298710.0 0.0578839187 0.0186623561 0.7209540495 -0.3071727285 0.7205363609 -0.3069943532 0.056893201 0.0186490706
220298680.0 0.0580763088 0.0170708716 0.7170507313 -0.3154020321 0.7175478134 -0.3156207735 0.0574821714 0.0174522109
225298650.0 0.0584791618 0.0160148689 0.7133180841 -0.3237220705 0.7137116388 -0.3239346951 0.0575261649 0.016037009
230298620.0 0.057977976 0.0147215219 0.7111773133 -0.3328390175 0.7110182722 -0.3331402899 0.0576747611 0.0144093605
235298590.0 0.05839777 0.0132808589 0.7074166287 -0.3406854141 0.7075416911 -0.3420055502 0.0578919748 0.012556404
240298560.0 0.0582504385 0.0120939336 0.7041253721 -0.3493742985 0.7036825273 -0.3491369319 0.0580717604 0.0118985034
245298530.0 0.0587789446 0.011308674 0.699626132 -0.3575762508 0.6999254634 -0.3576448905 0.0583040965 0.0108124568
250298500.0 0.0583608715 0.0099923586 0.6962529856 -0.3654310339 0.6965988679 -0.3656763956 0.0587997981 0.0090658292
255298470.0 0.0582411289 0.0088157145 0.6916446355 -0.3745682257 0.6924025074 -0.3743426564 0.05860019 0.0076575168
260298440.0 0.058463159 0.0079189495 0.6878702246 -0.3821598628 0.688231165 -0.3825249158 0.0592199309 0.0069351616
265298410.0 0.0589904063 0.0070954895 0.6841525802 -0.3909948175 0.6836970344 -0.3907571239 0.0586394 0.0053975222
270298380.0 0.0593496259 0.0055260668 0.6797748171 -0.398782375 0.6797844933 -0.3981412195 0.058856699 0.0051652251
275298350.0 0.0585116215 0.0048699875 0.6751719611 -0.4070104883 0.6756512754 -0.4065869897 0.058811384 0.003717543
280298320.0 0.0587148684 0.0039626588 0.6713582659 -0.4135967568 0.6711241155 -0.4140968692 0.0593098913 0.0029040996
285298290.0 0.0588217069 0.0031117871 0.6665351343 -0.421525246 0.666191423 -0.4217547577 0.0588189274 0.0017058078
290298260.0 0.0588907061 0.0017918832 0.6627682887 -0.429663043 0.6618887376 -0.4296087379 0.0593632473 0.0007309809
295298230.0 0.0585989316 0.0006518027 0.657898379 -0.4375900243 0.6577036545 -0.4373911183 0.0594773457 -0.0001808289
300298200.0 0.0591639961 2.49947e-05 0.652675141 -0.4452855691 0.6530784391 -0.4452903073 0.0592150619 -0.001106918
305298170.0 0.0588753788 -0.0014631832 0.6487269175 -0.4534060172 0.6485634128 -0.4528496136 0.0596553552 -0.002207116
310298140.0 0.05954635 -0.0022701138 0.6437538389 -0.460283813 0.6438093023 -0.4607642685 0.0598971219 -0.003098197
315298110.0 0.058857344 -0.003521049 0.6383300337 -0.4681343423 0.6387165284 -0.4684534278 0.0596838375 -0.0046844151
320298080.0 0.0587492366 -0.0042809074 0.6333556585 -0.475919589 0.6334359137 -0.4759053343 0.0594159721 -0.0059067287
325298050.0 0.0585275698 -0.0057804892 0.6281972686 -0.4833633253 0.6281148521 -0.4837562041 0.0590686902 -0.0069974267
330298020.0 0.0580772214 -0.0065221644 0.6215540901 -0.4903267684 0.6215684532 -0.4908616561 0.0584328592 -0.0084689719
335297990.0 0.0576022702 -0.0076520233 0.616578446 -0.4973806516 0.6163969416 -0.4981782807 0.058088434 -0.0089396693
340297960.0 0.0565570547 -0.0080502617 0.6103512884 -0.504961066 0.6109772004 -0.5045907221 0.0574537323 -0.0096112742
345297930.0 0.0561744314 -0.0084571826 0.6049510966 -0.510406226 0.6051080207 -0.511035585 0.0575104833 -0.0106634096
350297900.0 0.0564631292 -0.0093276025 0.5988265488 -0.5176851216 0.5993218207 -0.5179091429 0.0565476264 -0.0105090171
355297870.0 0.0559481767 -0.0101575612 0.5931954113 -0.5244660525 0.5926126901 -0.5249126989 0.0565453884 -0.0114932757
360297840.0 0.0559684797 -0.010664684 0.5874291337 -0.5317643758 0.5877171891 -0.5315910392 0.0565276359 -0.0119642769
365297810.0 0.0555562185 -0.011520869 0.5814228867 -0.5379831605 0.5811770704 -0.5375899462 0.055830976 -0.0127093083
370297780.0 0.055608041 -0.0122896086 0.5756414848 -0.5441116758 0.5761754181 -0.544859814 0.0558473575 -0.0129252971
375297750.0 0.0550108608 -0.0123988499 0.5701432761 -0.5508053044 0.5695663115 -0.5514842418 0.0557299992 -0.0136484416
380297720.0 0.0549952013 -0.0139607917 0.5635403736 -0.5571508753 0.5633271691 -0.5569470503 0.0554876989 -0.0141988964
385297690.0 0.0547930677 -0.0139004342 0.5574594696 -0.5629347524 0.557445494 -0.5636082884 0.054901427 -0.0148354909
390297660.0 0.0542385846 -0.014749927 0.55091275 -0.5700955198 0.5513632472 -0.5701207606 0.0546511248 -0.0158623914
395297630.0 0.0545590791 -0.015780081 0.5450560808 -0.5756549324 0.5450447495 -0.5754025474 0.0542810114 -0.0160975138
400297600.0 0.0537713791 -0.016033132 0.5376672148 -0.5821237549 0.5390677189 -0.582208334 0.0532191828 -0.0172249064
405297570.0 0.0540112176 -0.0165912231 0.5320463379 -0.5874151137 0.5324360337 -0.588027948 0.0536847514 -0.0168555977
410297540.0 0.0536181152 -0.0174333048 0.5248924379 -0.5933316912 0.5252764675 -0.5937820021 0.0532950613 -0.0178939465
415297510.0 0.0533396722 -0.0173252933 0.5186649085 -0.5990261467 0.519026568 -0.5996948165 0.0528360976 -0.0180878165
420297480.0 0.0528473289 -0.0189552432 0.5121543034 -0.6055892068 0.5121963931 -0.6055245736 0.0529946624 -0.0191526689
425297450.0 0.0533589632 -0.0194960853 0.5059283021 -0.6109709663 0.5063166585 -0.6112286573 0.052414395 -0.0190707846
430297420.0 0.0525732279 -0.0196593731 0.4992533869 -0.6168342849 0.4993818072 -0.6171716349 0.0516520896 -0.020414719
435297390.0 0.0524682959 -0.0207765119 0.4923284279 -0.6219516088 0.4923147317 -0.6216597248 0.0512839452 -0.0198189551
440297360.0 0.0522458239 -0.021419039 0.4849066994 -0.6279434122 0.4849026857 -0.6276996955 0.0512904427 -0.0212931567
445297330.0 0.0523689589 -0.0221233717 0.4783430809 -0.633461088 0.4781121116 -0.632935821 0.050815118 -0.0217201778
450297300.0 0.0518364355 -0.0226306764 0.4714311178 -0.6386954757 0.4716044452 -0.6385094686 0.0503246704 -0.0218766398
455297270.0 0.0510487611 -0.0234132168 0.4649844344 -0.6439991561 0.4649697921 -0.643584422 0.0505233755 -0.0226738328
460297240.0 0.0506511438 -0.0239482553 0.4572724658 -0.6484989762 0.4571604086 -0.6488333058 0.0497268813 -0.0226469061
465297210.0 0.0507919348 -0.024653976 0.4505065725 -0.6538291532 0.4508125466 -0.6539256081 0.0489741336 -0.0236520571
470297180.0 0.0497508 -0.0252883778 0.4432910797 -0.6588079607 0.4435246416 -0.6591951501 0.0481290103 -0.0242625205
475297150.0 0.0494314621 -0.0264837536 0.4355450411 -0.6636393806 0.4360041447 -0.6628558122 0.0484516573 -0.0246441562
480297120.0 0.0497290957 -0.0270074321 0.4285670814 -0.6682996598 0.4289989501 -0.6684148166 0.0478221639 -0.0245327577
485297090.0 0.0493996401 -0.0272853114 0.4213454936 -0.6730690013 0.4212201016 -0.6735666422 0.0469664769 -0.0258799523
490297060.0 0.0488233533 -0.0279645362 0.4141872709 -0.677647015 0.4140780681 -0.6776004133 0.0470468679 -0.0256701541
495297030.0 0.0478909595 -0.0282868199 0.4059576021 -0.6822157329 0.4061650185 -0.6824014693 0.0466212168 -0.0265625983
500297000.0 0.0478581807 -0.0294371198 0.3988045412 -0.6864088246 0.398788835 -0.6866773597 0.0455248579 -0.0269593904
505296970.0 0.0471611824 -0.0298791863 0.3908702594 -0.6909162166 0.390702551 -0.6907130012 0.0448971498 -0.0271543812
510296940.0 0.04674908 -0.0301999511 0.3835806183 -0.6955166116 0.3840185339 -0.6954804201 0.0452254472 -0.0269317411
515296910.0 0.0462469385 -0.0304485029 0.3757332988 -0.699178178 0.3757054806 -0.6997161886 0.0440079596 -0.0276838528
520296880.0 0.0458242865 -0.0315429004 0.3680140048 -0.7035862055 0.3685983181 -0.7034766017 0.0443282174 -0.028333691
525296850.0 0.0453862295 -0.0322796683 0.3603663782 -0.7078702268 0.3602400773 -0.7075392259 0.0439498857 -0.0287153392
530296820.0 0.0449981586 -0.0320738339 0.3533427019 -0.7108593384 0.3526183245 -0.711424163 0.0426189974 -0.0299222964
535296790.0 0.0442344951 -0.0330564455 0.345097463 -0.7147235053 0.3454539999 -0.7148205505 0.042735571 -0.0298499198
540296760.0 0.0437013469 -0.0339089692 0.3372969439 -0.7192509619 0.3368182097 -0.7193296085 0.0413826856 -0.0299399177
545296730.0 0.0433614618 -0.0333854484 0.3290441116 -0.7219441742 0.3292234417 -0.7232901769 0.0411546885 -0.0309326209
550296700.0 0.042693231 -0.0345822054 0.3209938232 -0.7263186676 0.32180964 -0.7266336483 0.0405697317 -0.0305881028
555296670.0 0.0426696846 -0.0353015622 0.3133691119 -0.7301427613 0.3132850115 -0.7293522197 0.0399135684 -0.0310030315
560296640.0 0.0418687022 -0.0356523721 0.3059929731 -0.7332652403 0.3052193749 -0.7329149577 0.0395421771 -0.0317052886
565296610.0 0.040677757 -0.036205476 0.2971129918 -0.736600823 0.2972585445 -0.7367571123 0.0389858296 -0.0324131644
570296580.0 0.0410239602 -0.0365438812 0.2894993249 -0.7396454928 0.2897949943 -0.7398423031 0.038702989 -0.0316046344
575296550.0 0.0402059501 -0.0364179921 0.2808869732 -0.7421010286 0.2819316494 -0.7422438105 0.0381061854 -0.0326460785
580296520.0 0.0395981975 -0.0371135804 0.2735754984 -0.7459956603 0.2726537379 -0.7461310305 0.0373569632 -0.033494686
585296490.0 0.0393414489 -0.0377926298 0.2655279573 -0.7495777788 0.2648280752 -0.7488360487 0.0368121458 -0.0339545245
590296460.0 0.038162361 -0.0385286093 0.2569333352 -0.7517282619 0.256511335 -0.7519095323 0.0366060843 -0.0333944162
595296430.0 0.0376571946 -0.03832494 0.248949776 -0.7544074684 0.2486800163 -0.7546513449 0.0363186494 -0.0339692814
600296400.0 0.0368654399 -0.0385138172 0.2408026413 -0.7574737629 0.2409239838 -0.7574862458 0.0354677481 -0.0341742578
605296370.0 0.0368317373 -0.0386089225 0.2320458212 -0.7591581087 0.2324039549 -0.7598100315 0.0349663278 -0.035089779
610296340.0 0.0359388188 -0.039474621 0.2240511569 -0.7622046351 0.2241907903 -0.7621590234 0.0342703008 -0.0344734319
615296310.0 0.0353697558 -0.0394103151 0.2148680446 -0.7640781763 0.2153929527 -0.7645017109 0.0341632829 -0.0351852463
620296280.0 0.0347952266 -0.0399734056 0.2072123097 -0.7664058279 0.2069402838 -0.7667814797 0.0333317607 -0.0359777806
625296250.0 0.0345136284 -0.0402642079 0.1982122916 -0.7695248157 0.1986997482 -0.7692638504 0.0328417542 -0.0354345832
630296220.0 0.0337834219 -0.0406482794 0.1900102645 -0.7717148647 0.1907052609 -0.7711450997 0.0316648689 -0.0358167182
635296190.0 0.0333235311 -0.0410632583 0.1813466377 -0.7730491858 0.1812206209 -0.772798383 0.031271413 -0.0366290005
640296160.0 0.0323609923 -0.0410680009 0.1737393717 -0.7751345618 0.1736125237 -0.775037395 0.0314383666 -0.0367610829
645296130.0 0.0321222642 -0.0412240959 0.1648849003 -0.777325874 0.1647800003 -0.7772313366 0.0294261221 -0.0374521854
650296100.0 0.0310807027 -0.0409587075 0.157112155 -0.7787772532 0.1566922831 -0.778412139 0.0295650612 -0.0374805974
655296070.0 0.0304667333 -0.0420812476 0.1478554437 -0.7802618113 0.148003223 -0.7805558938 0.0297416717 -0.0369546862
660296040.0 0.0291937285 -0.0417422423 0.1396021843 -0.7815435293 0.1400172033 -0.781859198 0.0284468581 -0.0378953927
665296010.0 0.029075927 -0.0423709759 0.1311582468 -0.7836056111 0.1315503607 -0.7830544307 0.0276737185 -0.0374766513
670295980.0 0.029262941 -0.0422789897 0.1231717934 -0.7844984065 0.122616661 -0.7842338098 0.0267660837 -0.0381667401
675295950.0 0.028541142 -0.0426043785 0.1136456888 -0.7858369773 0.1147764746 -0.7867202501 0.0268356928 -0.0378380462
680295920.0 0.0277939255 -0.0423239087 0.1051524612 -0.7870684403 0.1054469721 -0.7869882408 0.0267177615 -0.0386243116
685295890.0 0.0267480039 -0.0427137255 0.0972729832 -0.7882300418 0.0968441723 -0.7887163789 0.0256377498 -0.0382931132
690295860.0 0.0267577386 -0.0430862713 0.0879482207 -0.7886200267 0.0878096267 -0.7888596966 0.025455659 -0.0382204945
695295830.0 0.0262627826 -0.0436183052 0.078298225 -0.789992111 0.0788398226 -0.7903873627 0.0242356409 -0.0387130383
700295800.0 0.0257636104 -0.043486248 0.0706969482 -0.7907571942 0.0712732357 -0.7914417445 0.023707313 -0.0392996611
705295770.0 0.024836432 -0.043563133 0.0617952687 -0.7916823227 0.0626154366 -0.7916644013 0.0228671514 -0.0394576886
710295740.0 0.0241323691 -0.0434445091 0.0539683816 -0.7920239087 0.053239196 -0.7917280626 0.0216260012 -0.0390102128
715295710.0 0.0235142386 -0.043972714 0.0451905518 -0.7926072812 0.0456781352 -0.7931918128 0.0220832322 -0.0400111001
720295680.0 0.0226300466 -0.0442711016 0.0362581853 -0.7924334374 0.036384875 -0.7936347495 0.0216839126 -0.0394245235
725295650.0 0.0224547548 -0.0441792315 0.0277427611 -0.7933195 0.0278139581 -0.7932792304 0.0210247297 -0.0392356954
730295620.0 0.0211658054 -0.0442693892 0.0189556079 -0.7936039259 0.0187521453 -0.7938810988 0.0206473498 -0.0406267957
735295590.0 0.0213955451 -0.0443484841 0.0107258295 -0.7939988112 0.0109248063 -0.7941902111 0.0195691524 -0.0394554789
740295560.0 0.0202646261 -0.0442936251 0.001551625 -0.793344657 0.002095064 -0.7936225583 0.0196576095 -0.0403313071
745295530.0 0.0199365588 -0.0447124697 -0.0066059195 -0.7935729953 -0.006569925 -0.793912807 0.0181574546 -0.0398699132
750295500.0 0.0193095518 -0.0447151317 -0.0150114065 -0.7936004452 -0.0153106724 -0.7937549783 0.0184271463 -0.0404397997
755295470.0 0.0190232169 -0.0442516016 -0.0240098311 -0.7939399435 -0.023948868 -0.7943625064 0.016656266 -0.0399364983
760295440.0 0.0177757525 -0.0446000705 -0.0324736886 -0.7932248078 -0.0328119334 -0.793611637 0.0159376712 -0.0402502874
765295410.0 0.016995103 -0.045101004 -0.0405818025 -0.7927889555 -0.0409929552 -0.7931178623 0.0164967412 -0.0396750957
770295380.0 0.0167354642 -0.0447341613 -0.0502835502 -0.7918679695 -0.0497623411 -0.7927701658 0.0159357519 -0.0399625564
775295350.0 0.0160967351 -0.0445317279 -0.0583031757 -0.791408301 -0.0583197517 -0.7917583357 0.014971126 -0.040871773
780295320.0 0.0156280945 -0.0450209435 -0.06688638 -0.7910483978 -0.0666398622 -0.7911753623 0.0142121454 -0.0399702022
785295290.0 0.0146615265 -0.0444071111 -0.0754073788 -0.7891823263 -0.075673304 -0.7903993962 0.013499736 -0.0404316647
790295260.0 0.0142094783 -0.0444211012 -0.0837467106 -0.789244318 -0.0839720798 -0.7896396776 0.0132854912 -0.0405119688
795295230.0 0.0133759489 -0.0447337178 -0.0923877934 -0.7880901256 -0.0924241634 -0.7883862902 0.012491004 -0.0395460357
800295200.0 0.0128016634 -0.044544226 -0.101537535 -0.7873840832 -0.1019790235 -0.7875660801 0.0117441461 -0.0401419023
805295170.0 0.0116786859 -0.0448086006 -0.1092782619 -0.7855005571 -0.1095674864 -0.7861741208 0.0108518564 -0.0406598157
810295140.0 0.0114249058 -0.0446964081 -0.1182303177 -0.784676768 -0.1182749695 -0.7852753172 0.0106750203 -0.0398289629
815295110.0 0.0110760583 -0.0443991475 -0.1275325789 -0.7831116513 -0.1270932723 -0.7837668243 0.0097563687 -0.0405296243
820295080.0 0.0100883541 -0.044668329 -0.1352402228 -0.7823038604 -0.1351507603 -0.7820637248 0.0092857946 -0.039790591
825295050.0 0.0095042626 -0.0448083304 -0.1438864841 -0.779829205 -0.1437086887 -0.7804829726 0.0089319392 -0.0396235988
830295020.0 0.0087798795 -0.0441250457 -0.1522046067 -0.7787393647 -0.1527986204 -0.7791576416 0.0083042315 -0.0402119147
835294990.0 0.0083890341 -0.0441147749 -0.1611889418 -0.7769055009 -0.1605610901 -0.7769789858 0.0080351233 -0.0402198231
