!Created with skrf (http://scikit-rf.org).
# Hz S RI R 50.0 
!freq ReS11 ImS11 ReS21 ImS21 ReS12 ImS12 ReS22 ImS22
300000.0 -0.0929397797 -0.1018557989 0.6230353901 0.0923887281 0.621302375 0.093512256 -0.0980751435 -0.1043132378
5299970.0 -0.1015527565 0.0114589758 0.6303524815 0.011141731 0.6311198303 0.011216183 -0.1016139329 0.011366115
10299940.0 -0.0971429861 0.0287557978 0.6347527205 0.0164030979 0.6346167802 0.0164159772 -0.0965892047 0.0283430871
15299910.0 -0.0892620736 0.0421820781 0.6404068465 0.0211196554 0.6409821059 0.0210458023 -0.0897490656 0.0417543043
20299880.0 -0.0804059213 0.0534597139 0.6489707799 0.0243856852 0.6490961301 0.0244072805 -0.0811163435 0.0528762557
25299850.0 -0.0702243648 0.062479795 0.6582152479 0.0260339499 0.6586645285 0.0256400595 -0.071876499 0.061893037
30299820.0 -0.0609798489 0.0687046864 0.6684551052 0.0243812889 0.6678017916 0.0243692118 -0.0619096652 0.0682572282
35299790.0 -0.0504173091 0.0733883783 0.6770928507 0.0221847798 0.6775252493 0.0215920784 -0.0522703255 0.0736738049
40299760.0 -0.0410675579 0.076468426 0.6869224293 0.0173865081 0.6872154446 0.017644917 -0.0429422667 0.0770450905
45299730.0 -0.0321384181 0.0783933345 0.696129091 0.0129904177 0.6961291948 0.0121925121 -0.0331613791 0.0790243791
50299700.0 -0.0229195135 0.0789807077 0.7039789575 0.0049119914 0.7038284114 0.0052371393 -0.0244699924 0.0803597901
55299670.0 -0.0150692306 0.0789678503 0.7110849038 -0.0024285211 0.7105426756 -0.0024999573 -0.0173493975 0.0804000255
60299640.0 -0.0077991344 0.0787225582 0.7180058682 -0.0110819423 0.7180776104 -0.0110291358 -0.0096648785 0.0795542765
65299610.0 -0.0013178491 0.0770464232 0.7239500448 -0.0196145335 0.7240585105 -0.0197866885 -0.0029134362 0.07867182
70299580.0 0.005195669 0.0752995509 0.7297870941 -0.0287848809 0.7293640708 -0.0289444341 0.0026384607 0.0772201399
75299550.0 0.0103649489 0.0733119404 0.7332208588 -0.0391147748 0.7334103885 -0.0388739672 0.0086199946 0.0755239886
80299520.0 0.0155201757 0.0713704429 0.7377692635 -0.0488923236 0.737945469 -0.0485234084 0.0136861169 0.0736501909
85299490.0 0.0199737189 0.0691200061 0.7411356166 -0.0583433778 0.7411929616 -0.0584818556 0.0178968472 0.0710072876
90299460.0 0.0238237899 0.0664328024 0.7428019901 -0.068544129 0.7436277627 -0.0680491797 0.0224434319 0.0693324477
95299430.0 0.0279298488 0.0642278677 0.7461817327 -0.0784101022 0.7467120144 -0.0789673051 0.0259509084 0.0666890588
100299400.0 0.0312937824 0.0615919127 0.7481753703 -0.0888710933 0.7475502862 -0.0884498083 0.028906608 0.0646977578
105299370.0 0.0344620989 0.0592443779 0.7492089384 -0.0992321534 0.7499909536 -0.0984130438 0.0324278302 0.0615551637
110299340.0 0.0374512098 0.0564539177 0.7508119505 -0.1084745671 0.7509135323 -0.1086343977 0.0349552761 0.0595130915
115299310.0 0.0394899569 0.0543784572 0.7513623569 -0.118323281 0.7512370624 -0.1187948255 0.0374887399 0.057670697
120299280.0 0.0414911852 0.0521725875 0.7523952317 -0.129809396 0.7518278782 -0.129310132 0.0400073668 0.0544476279
125299250.0 0.0438984348 0.0496824449 0.7523394813 -0.1387836517 0.7524844869 -0.1387925603 0.0419237917 0.0531393374
130299220.0 0.0456473225 0.0470920753 0.7522987797 -0.1492310002 0.7521345033 -0.1490568503 0.0437662442 0.0508587115
135299190.0 0.0468384697 0.0454265628 0.752337649 -0.1582288503 0.7523643364 -0.1589342102 0.0454657728 0.0479741323
140299160.0 0.0486993602 0.0433216701 0.7518411869 -0.1685843892 0.7516897939 -0.168189406 0.046456175 0.0456442671
145299130.0 0.0494473836 0.0411675114 0.7505218281 -0.1781602936 0.7507915343 -0.1783020869 0.0480579321 0.0437912267
150299100.0 0.0507865956 0.039166332 0.7494967638 -0.1876963291 0.7493739439 -0.1878781013 0.0491594416 0.0422185708
155299070.0 0.0523699784 0.0369996289 0.7476079393 -0.1973836934 0.7485244095 -0.1975555649 0.050483155 0.0395605527
160299040.0 0.0533050322 0.0356220149 0.7468805802 -0.2072174169 0.7466459886 -0.2067935882 0.051049588 0.03816694
165299010.0 0.0545202153 0.0334528948 0.7456368841 -0.2164857833 0.7447384637 -0.2166320284 0.0520369575 0.0357006912
170298980.0 0.055074798 0.0320628164 0.7427533531 -0.2256137115 0.7434071699 -0.2262869685 0.0527731032 0.0337766706
175298950.0 0.0558553262 0.0301151513 0.7421419306 -0.2344612779 0.7419318894 -0.2355224268 0.0532750613 0.0324952124
180298920.0 0.0562714143 0.0287281092 0.7396969543 -0.2444632624 0.7394784585 -0.244766776 0.0539597321 0.0307036865
185298890.0 0.0566406732 0.0272892092 0.7378353198 -0.2537251854 0.7371990342 -0.2532394013 0.0549836839 0.0289223512
190298860.0 0.0579987048 0.0258121039 0.7343369138 -0.2625666454 0.7352032741 -0.2624954503 0.0553140825 0.027608114
195298830.0 0.0577550387 0.0241201185 0.733204901 -0.2719381749 0.7329046992 -0.2717919386 0.0555264315 0.025879213
200298800.0 0.0585147053 0.02251814 0.7298784249 -0.2808496677 0.7299774585 -0.2806045676 0.0560450368 0.0241506122
205298770.0 0.0583431243 0.0208821744 0.7270223671 -0.2894108946 0.727398236 -0.2893451838 0.0569676368 0.0228018653
210298740.0 0.0588302867 0.0199790211 0.7239175554 -0.298033004 0.7236722853 -0.2980267688 0.0564679237 0.0209373679
215298710.0 0.0593490135 0.0184932074 0.7209570497 -0.3070980857 0.7209677644 -0.3067579597 0.0570636437 0.0196415279
220298680.0 0.059518171 0.0176876849 0.7174391716 -0.3153094733 0.7171942228 -0.3158731451 0.0572372048 0.0181230647
225298650.0 0.0597632666 0.0161176399 0.7143571339 -0.3243891552 0.7145283805 -0.3237475391 0.0574638485 0.0165148749
230298620.0 0.0602590771 0.0151369162 0.7112010892 -0.3326938487 0.7113515264 -0.3329134225 0.0573155144 0.0151123708
235298590.0 0.0599154043 0.0137926726 0.7082915653 -0.3419717977 0.7076179135 -0.3411952534 0.057839479 0.0142360969
240298560.0 0.0604548329 0.0128251622 0.704193137 -0.3492704394 0.7042479305 -0.3491574906 0.0574824616 0.0127436133
245298530.0 0.0601646081 0.011317378 0.7005299019 -0.3579061391 0.7005185236 -0.3579508104 0.0579862545 0.0118449744
250298500.0 0.0601080673 0.0103406241 0.6970527611 -0.3660733604 0.6967135863 -0.3655814802 0.057726762 0.0108533869
255298470.0 0.0606719204 0.0097296079 0.6929587962 -0.3738443303 0.6934451449 -0.3743662688 0.057995347 0.0097909019
260298440.0 0.0605656957 0.0082101197 0.6893189355 -0.3821982919 0.689189994 -0.3817175352 0.0576042956 0.0078869959
265298410.0 0.0601550255 0.0073916459 0.6844698233 -0.3906460266 0.6847533789 -0.3907128004 0.0587076986 0.0066061015
270298380.0 0.0599471747 0.0062403307 0.6803997272 -0.397951168 0.6810188359 -0.3978462844 0.0580905549 0.0060129121
275298350.0 0.0604462114 0.0055728178 0.6755354192 -0.4060195355 0.6756218575 -0.4058083075 0.0577581389 0.0047078819
280298320.0 0.0599092342 0.0044888397 0.672021777 -0.4137361739 0.6723004668 -0.4139150889 0.0583572946 0.0037769588
285298290.0 0.0600310596 0.0037294195 0.6675418689 -0.4218965771 0.6674286998 -0.4216161365 0.058175724 0.0026385178
290298260.0 0.0597346883 0.0027164219 0.6633207185 -0.4296397042 0.663091352 -0.4294996689 0.0582391571 0.0015021975
295298230.0 0.0598695416 0.0013061949 0.6586009782 -0.4376585663 0.6583893215 -0.437611331 0.0578518654 0.0004470254
300298200.0 0.0602841247 0.0008713765 0.6538571706 -0.4454918608 0.653919275 -0.4450002573 0.0575714726 -0.0008542907
305298170.0 0.0601196159 -0.0007330071 0.6492704158 -0.4530253847 0.6493418732 -0.4527762424 0.0575988118 -0.0024185454
310298140.0 0.0604097028 -0.0015200388 0.6445223304 -0.4601921971 0.6447772299 -0.4600452273 0.0579900489 -0.0032890146
315298110.0 0.0598768527 -0.003126643 0.6390746944 -0.4684518117 0.6391028754 -0.4685645499 0.0575753883 -0.0044719164
320298080.0 0.0597049282 -0.0036785042 0.6334003253 -0.4759174375 0.6342882089 -0.4762971151 0.0572279319 -0.0058497548
325298050.0 0.0586354524 -0.0052236082 0.6287112865 -0.4830007219 0.6286582624 -0.4829492056 0.0569980834 -0.0067943102
330298020.0 0.0576279412 -0.0057372042 0.6228918947 -0.4908791122 0.6233276669 -0.4908240824 0.0561334355 -0.0080186541
335297990.0 0.0578122535 -0.0068100052 0.6170667314 -0.4971632785 0.6174481071 -0.4977179927 0.055577145 -0.0089355097
340297960.0 0.0569541244 -0.007545529 0.6117579639 -0.5048867714 0.6109542469 -0.5044369792 0.055212388 -0.0092269496
345297930.0 0.0565146755 -0.0083133503 0.6059240065 -0.5119729872 0.60557343 -0.5120446516 0.0551283201 -0.0103377816
350297900.0 0.0558216521 -0.0090759962 0.600710281 -0.5178898403 0.6005310667 -0.5179992 0.0547953304 -0.0114162012
355297870.0 0.0558434583 -0.009826545 0.5946386007 -0.5239074901 0.5943852219 -0.5247079235 0.0545326382 -0.0119579506
360297840.0 0.0552980049 -0.0100144624 0.5882043961 -0.5310724373 0.5881409853 -0.5318811911 0.0536584186 -0.012560378
365297810.0 0.0545348413 -0.0110955737 0.5823188367 -0.5383074509 0.5823771591 -0.538380229 0.0530743961 -0.0131276006
370297780.0 0.0548502859 -0.0113716492 0.5764234087 -0.544633797 0.5768374211 -0.5444369749 0.0528790476 -0.0138825509
375297750.0 0.0544680025 -0.0119771297 0.5711032318 -0.5507058287 0.5709121475 -0.5508790597 0.0527603458 -0.0148105709
380297720.0 0.0535030804 -0.0126684225 0.5647862467 -0.5576191266 0.5641856691 -0.5574320666 0.0521149714 -0.0150577783
385297690.0 0.0532425603 -0.0134963887 0.5583599855 -0.5638502892 0.5585877308 -0.5642120427 0.0521389712 -0.0157116959
390297660.0 0.0529611305 -0.0145898788 0.5515414327 -0.5692341478 0.5523049566 -0.5700304439 0.0520969903 -0.016681443
395297630.0 0.0533126441 -0.0151304728 0.5462082281 -0.5747685594 0.5459619044 -0.5754109408 0.0516461159 -0.0170299837
400297600.0 0.052188618 -0.0157444924 0.5396872437 -0.582110669 0.5400151825 -0.582111781 0.0515675114 -0.0173937741
405297570.0 0.0520003663 -0.0167547296 0.533598398 -0.5873334103 0.5333707152 -0.5877309167 0.0511244907 -0.017832527
410297540.0 0.0513955064 -0.0165630398 0.5267278723 -0.593878605 0.5270641641 -0.5935946069 0.0504816492 -0.0188784293
415297510.0 0.0510500925 -0.0174124115 0.5203754969 -0.5991644923 0.5203866249 -0.5993126171 0.0504834472 -0.0190878117
420297480.0 0.0508284624 -0.0185846011 0.5134994455 -0.6053901708 0.5140991556 -0.6057120399 0.050318072 -0.0192716929
425297450.0 0.0510162055 -0.018837824 0.5070322822 -0.6109975048 0.507039531 -0.6110024621 0.0498486059 -0.0204849209
430297420.0 0.0497989292 -0.0193417575 0.5007613773 -0.6165997367 0.5007966894 -0.6162165245 0.0500090498 -0.0208457069
435297390.0 0.0499391725 -0.0203523721 0.492912206 -0.6226709207 0.4937333909 -0.6220171826 0.0487247662 -0.021415161
440297360.0 0.049857623 -0.0209943898 0.4864676808 -0.6275316894 0.4864636684 -0.6277914943 0.0487947162 -0.0216764472
445297330.0 0.0495707154 -0.022114199 0.4799585205 -0.6322629899 0.4795989072 -0.6335055454 0.0485228423 -0.0220868157
450297300.0 0.0489219231 -0.0220979831 0.4726429606 -0.6381219491 0.4727599096 -0.6379486608 0.0482259268 -0.0226082725
455297270.0 0.0479083928 -0.0229486926 0.4661945108 -0.6434357095 0.4659071038 -0.6433930223 0.0477834434 -0.0236341245
460297240.0 0.0482165715 -0.0231843275 0.4590511677 -0.649220121 0.4585251174 -0.6489057931 0.0474248857 -0.0241409413
465297210.0 0.0476131165 -0.0241464753 0.451139776 -0.6536328209 0.451028797 -0.6541247436 0.047582911 -0.023919715
470297180.0 0.0473044999 -0.0247717744 0.4440553065 -0.6588380277 0.4449477107 -0.6590388766 0.0470975019 -0.0251298206
475297150.0 0.0466622642 -0.0250424634 0.437207359 -0.6633778538 0.4373057371 -0.6637169069 0.046516382 -0.0256033168
480297120.0 0.0467941449 -0.0250712923 0.4299163972 -0.6684687528 0.4302976103 -0.6680190492 0.0459260322 -0.0263246148
485297090.0 0.0461962493 -0.0266881969 0.4220918853 -0.6733709789 0.4223478396 -0.6730935045 0.0456534696 -0.0266412821
490297060.0 0.0463361648 -0.0265717193 0.4144579496 -0.6780173922 0.4150469285 -0.6779030243 0.0452923382 -0.0270833613
495297030.0 0.0453152058 -0.0279708033 0.4077876433 -0.6822468994 0.4075553732 -0.6824301922 0.0454610528 -0.0276415202
500297000.0 0.0448325874 -0.0275587107 0.4005170159 -0.686043643 0.3998507056 -0.6871849223 0.0448167184 -0.0279026651
505296970.0 0.044768853 -0.0282365859 0.3924627337 -0.6915510174 0.3925760231 -0.6909240738 0.0445529063 -0.0292735605
510296940.0 0.0442448382 -0.0289694314 0.3849736416 -0.696242084 0.385395666 -0.6962128712 0.0444167659 -0.0290838633
515296910.0 0.0438935456 -0.0290682223 0.3770272013 -0.7000605989 0.3768258017 -0.6998339955 0.0439145173 -0.0301767721
520296880.0 0.0433880714 -0.0295403408 0.3698031211 -0.7037411022 0.369224339 -0.7033761772 0.0439196483 -0.0297327456
525296850.0 0.0432357212 -0.0303536351 0.3618760409 -0.7075400404 0.3619423759 -0.7079512583 0.0433751477 -0.0306358646
530296820.0 0.0425424594 -0.0310830752 0.3538679052 -0.7121358499 0.3543819242 -0.7117075902 0.0428466389 -0.0316498815
535296790.0 0.0430295114 -0.0309959239 0.346512656 -0.71528018 0.3464621075 -0.7157501658 0.0431939522 -0.0311225271
540296760.0 0.0419860999 -0.0314582832 0.3378992567 -0.7190145271 0.3381484496 -0.7197500827 0.0423189104 -0.032592812
545296730.0 0.0410921246 -0.031935632 0.3304158868 -0.7229857953 0.3303696069 -0.7229325581 0.0420467708 -0.0326079799
550296700.0 0.0417346932 -0.0320941556 0.3225673334 -0.7267650165 0.3224513846 -0.7273769619 0.0418895492 -0.033092227
555296670.0 0.0405873625 -0.032817777 0.3145231072 -0.7307949645 0.3150384259 -0.7302150798 0.0410317763 -0.0341426643
560296640.0 0.0411542953 -0.03331435 0.3066308265 -0.7337332131 0.3069709809 -0.7337988549 0.0406085807 -0.0339772737
565296610.0 0.0398489977 -0.0334002953 0.2989643904 -0.7372984012 0.2988630658 -0.7362891787 0.0404570481 -0.0340969594
570296580.0 0.039265071 -0.0336007364 0.2901219579 -0.7402355815 0.290558388 -0.7405007697 0.0395633713 -0.0351165995
575296550.0 0.0390813146 -0.0342167405 0.2830780709 -0.7433643859 0.2825604973 -0.7436734508 0.0394696778 -0.0350575497
580296520.0 0.039072422 -0.0344171109 0.2746454107 -0.7465389887 0.2739123548 -0.7466429361 0.0384940528 -0.0358508479
585296490.0 0.0383453734 -0.0347289579 0.2666071473 -0.7495581255 0.2659581393 -0.7493814483 0.0386336352 -0.0356531957
590296460.0 0.038547761 -0.0348816063 0.2578522374 -0.7524136007 0.257971728 -0.7528163886 0.0375672122 -0.0360569094
595296430.0 0.0377523383 -0.0351710545 0.2489612185 -0.7550335362 0.2489479681 -0.7551407003 0.0376288176 -0.0370971979
600296400.0 0.0376203703 -0.0355577398 0.2407933787 -0.7573972284 0.2414081749 -0.7576734925 0.0369163344 -0.0374743608
605296370.0 0.0362460567 -0.0358578354 0.2334517172 -0.760225951 0.2327350951 -0.7605665571 0.0365315994 -0.0373616576
610296340.0 0.0364877997 -0.0356849622 0.2247748386 -0.762279602 0.2253459447 -0.7625787508 0.0354695157 -0.0375369701
615296310.0 0.0358902956 -0.0361356316 0.2166032827 -0.7655423361 0.2159024054 -0.7651869921 0.0354957386 -0.0378869149
620296280.0 0.0347735203 -0.0363177752 0.2075706552 -0.7677792117 0.2078968725 -0.7674882096 0.0344483848 -0.0380616687
625296250.0 0.0347366091 -0.0367002896 0.1992775565 -0.7699817673 0.1996394857 -0.7699583274 0.0338663952 -0.0387985067
630296220.0 0.0341511763 -0.0367642235 0.1904352494 -0.7718910723 0.1910081421 -0.7721189828 0.0337266502 -0.0389135272
635296190.0 0.0331396144 -0.03656123 0.1826636233 -0.7733553413 0.1824653115 -0.7738569779 0.0332029732 -0.0395101367
640296160.0 0.0327885982 -0.0371666798 0.1738449021 -0.7759980525 0.1738887211 -0.7764874674 0.0321319397 -0.0400368005
645296130.0 0.0327717573 -0.0368196414 0.1653540462 -0.7775082195 0.1654676272 -0.7777127337 0.0315994501 -0.0403452596
650296100.0 0.0321366692 -0.0376448593 0.1574963364 -0.7801935342 0.1569909195 -0.7799578048 0.0323991716 -0.0403960471
655296070.0 0.0317520322 -0.0376399908 0.1480567973 -0.7815254722 0.1486283037 -0.7812152801 0.0304495975 -0.0403805161
660296040.0 0.0313390152 -0.0373969472 0.1398563877 -0.7826859003 0.1402394114 -0.7828074886 0.0300274203 -0.0411349774
665296010.0 0.0305216965 -0.0376816826 0.1307414634 -0.7837987132 0.1311725021 -0.7842570998 0.0294641912 -0.0410326718
670295980.0 0.0300600291 -0.0376970224 0.1230917009 -0.7856754947 0.1225488991 -0.7850020699 0.0284399919 -0.041364394
675295950.0 0.0292738015 -0.0381599909 0.1142158952 -0.7866457975 0.1145171154 -0.7868449723 0.0278815447 -0.0414278056
680295920.0 0.0288660946 -0.0380390848 0.1059024406 -0.7878488282 0.106116254 -0.7880072047 0.0279657393 -0.0419996357
685295890.0 0.0284637806 -0.0376561742 0.0968376619 -0.7894736543 0.0969278626 -0.7891309097 0.0275624561 -0.0415624836
690295860.0 0.0273961917 -0.0381399752 0.0882723857 -0.7903846367 0.0884819135 -0.7904078696 0.0263725776 -0.0422719448
695295830.0 0.0274089114 -0.0385796839 0.0801414196 -0.7914917321 0.0802747704 -0.7910713595 0.0258985177 -0.0421615176
700295800.0 0.0268796641 -0.0383217119 0.0720429223 -0.7919139092 0.0717031412 -0.7917316542 0.0251038893 -0.042116092
705295770.0 0.0259038461 -0.0383557373 0.0628959732 -0.7936111884 0.0629544098 -0.7920514572 0.0245080054 -0.0422019317
710295740.0 0.0254422602 -0.0385193738 0.0545373166 -0.7934970249 0.0540562262 -0.7935750477 0.02416511 -0.0420296041
715295710.0 0.0247184517 -0.0378559052 0.0459063772 -0.7939379993 0.0459541319 -0.793599223 0.0231023847 -0.0426912662
720295680.0 0.0246804618 -0.0382021998 0.0367154624 -0.794006774 0.0370711762 -0.7946084694 0.0228222108 -0.0432489934
725295650.0 0.0231913917 -0.0381816131 0.028534712 -0.794713211 0.0285894937 -0.7946579142 0.0213456548 -0.0423280308
730295620.0 0.0220667801 -0.0385676237 0.0201258769 -0.7944361425 0.0197628437 -0.7943309842 0.0211247547 -0.0420580721
735295590.0 0.0224218888 -0.0385444559 0.0108505454 -0.795548447 0.0109795856 -0.7950189406 0.0201279933 -0.0430140797
740295560.0 0.0217940518 -0.0391140328 0.0025332869 -0.7955871332 0.0028238567 -0.7950993501 0.0193268181 -0.0427395636
745295530.0 0.0210385408 -0.0383801808 -0.0058567063 -0.7944293356 -0.0051424234 -0.7949107672 0.0182613394 -0.0429767067
750295500.0 0.0199740668 -0.0381851481 -0.0144841008 -0.7947063726 -0.0149305537 -0.7947766078 0.0177815777 -0.0426411778
755295470.0 0.0193035649 -0.0382955859 -0.0232143624 -0.7946847565 -0.0229924207 -0.7947195217 0.0177382718 -0.0423054294
760295440.0 0.0191027567 -0.0379705215 -0.0329527289 -0.7943803389 -0.0315093982 -0.7937367563 0.0172363167 -0.0438253437
765295410.0 0.0187595512 -0.0384613927 -0.0407947651 -0.7934897738 -0.0400470974 -0.7937562081 0.0163969633 -0.0430876549
770295380.0 0.0179465739 -0.0380848282 -0.049003178 -0.7930614912 -0.0493304454 -0.7931379831 0.0151840637 -0.0425804614
775295350.0 0.0170816958 -0.0385002953 -0.0578823394 -0.7931363326 -0.0574498718 -0.7920064597 0.0153198278 -0.0427538839
780295320.0 0.0162277196 -0.0379508494 -0.0660748781 -0.791467001 -0.0656930531 -0.792028975 0.0146506112 -0.0431004693
785295290.0 0.0157030826 -0.0384893379 -0.074789357 -0.7914178659 -0.0748019818 -0.7912889862 0.0132341932 -0.0422730793
790295260.0 0.0154545452 -0.0385999661 -0.083003689 -0.7904361249 -0.0830041966 -0.7903291671 0.0127744354 -0.0419229024
795295230.0 0.0148301414 -0.0384481715 -0.0918466754 -0.7896743293 -0.0920107724 -0.7900065212 0.012255318 -0.0429232544
800295200.0 0.0134535708 -0.0379304765 -0.0999199067 -0.7877291486 -0.1002767814 -0.7884747984 0.0114458621 -0.0424269934
805295170.0 0.0128124235 -0.0382885087 -0.1090364016 -0.7872100713 -0.1084521398 -0.7871646536 0.0116389161 -0.0420051373
810295140.0 0.0129328704 -0.0378408439 -0.1174356193 -0.7859239277 -0.1172066702 -0.7858686327 0.0104352039 -0.0421225193
815295110.0 0.0117063722 -0.0377097079 -0.1257749683 -0.7839794274 -0.1256054293 -0.7849003734 0.0098560893 -0.0421658054
820295080.0 0.0116383307 -0.0376400851 -0.133790703 -0.7826172693 -0.1338204062 -0.7831609682 0.0085127751 -0.0410857908
825295050.0 0.0102888815 -0.0378277587 -0.1429270174 -0.7817280032 -0.1423457568 -0.7814411492 0.0089924892 -0.0411637488
830295020.0 0.0095710372 -0.0377723531 -0.1511318622 -0.7802385359 -0.1513577481 -0.780713687 0.0079626707 -0.0416088044
