!Created with skrf (http://scikit-rf.org).
# Hz S RI R 50.0 
!freq ReS11 ImS11 ReS21 ImS21 ReS12 ImS12 ReS22 ImS22
300000.0 -0.0957043938 -0.0861967718 0.6213231096 0.081209952 0.622651665 0.0854365902 -0.0947273514 -0.0951256244
5299970.0 -0.1005136858 0.0126933308 0.6311664528 0.0106168223 0.6307014495 0.0108864616 -0.1019497938 0.0117457708
10299940.0 -0.09535716 0.0297536136 0.6344939081 0.0156030111 0.63423233 0.015854849 -0.097090392 0.0290876049
15299910.0 -0.0885413342 0.0430701992 0.6402478543 0.0208925887 0.6403318929 0.0213493587 -0.0900709541 0.0423586607
20299880.0 -0.0794346714 0.0541442081 0.6485415845 0.0242528356 0.6486590497 0.0241750464 -0.0817477998 0.0531726469
25299850.0 -0.0698244814 0.0627884047 0.658103727 0.0246982361 0.6582365566 0.0251765845 -0.0725532533 0.0619565548
30299820.0 -0.0597294436 0.0690675058 0.6677625065 0.0245083324 0.6675429578 0.0246713307 -0.0626088534 0.0688959399
35299790.0 -0.0494588384 0.0742709391 0.6768463465 0.0219506204 0.6774603432 0.0217683754 -0.0524202878 0.0732777902
40299760.0 -0.0394103982 0.0770701505 0.6869497668 0.017842644 0.6864169312 0.0176617751 -0.0435420054 0.0771485133
45299730.0 -0.030325009 0.0793883223 0.6957600433 0.0116295046 0.6959588087 0.0121289962 -0.0340505117 0.0789749279
50299700.0 -0.0217145926 0.0798727902 0.7036147341 0.0044390686 0.7036621595 0.0048592596 -0.0255722207 0.0800284819
55299670.0 -0.0142744699 0.0798268645 0.7102277148 -0.0030221114 0.7109063636 -0.00278432 -0.0176949966 0.079840156
60299640.0 -0.0067032709 0.0788923703 0.7177002813 -0.0113616729 0.7177195795 -0.0114144206 -0.0102930522 0.0798213389
65299610.0 -0.0003358487 0.0780971489 0.7234699366 -0.019281896 0.7237315782 -0.0199256497 -0.0036095556 0.0785597627
70299580.0 0.0061675016 0.0757802094 0.7289525515 -0.0290501147 0.7286013309 -0.0291273129 0.0023065646 0.0771466441
75299550.0 0.0115725962 0.0744047467 0.733305801 -0.039036836 0.7331422629 -0.0388574484 0.007989909 0.0758078568
80299520.0 0.0163425393 0.0721263257 0.7376448293 -0.0491704744 0.7374317586 -0.0488670469 0.0133755667 0.0730444734
85299490.0 0.0208716436 0.0695369974 0.7407591314 -0.0588240221 0.7406623841 -0.05868855 0.0174856665 0.0708772246
90299460.0 0.0247974813 0.0673625398 0.7430070164 -0.068557623 0.7436617612 -0.0688940834 0.0222028423 0.0686047712
95299430.0 0.0283114299 0.0655234722 0.7464984606 -0.0794044708 0.7463427543 -0.0787360361 0.0254907523 0.0665235394
100299400.0 0.0313757102 0.0627028428 0.7474438463 -0.0889350928 0.7470997126 -0.0888833289 0.0285188649 0.0637766064
105299370.0 0.0346767861 0.0601212113 0.7492636746 -0.0991753723 0.7491223409 -0.0992898715 0.0319388067 0.0617181321
110299340.0 0.0371092613 0.0578401008 0.7501268869 -0.10875337 0.7501373821 -0.1095564653 0.0347382169 0.059236817
115299310.0 0.0396798925 0.0548906876 0.7509496481 -0.1189768712 0.7511265269 -0.1190938711 0.0371741408 0.0563602148
120299280.0 0.04134134 0.0527181672 0.7512179646 -0.1297836238 0.7512038501 -0.1296820972 0.0390036578 0.0544100762
125299250.0 0.0433817053 0.050385565 0.7518782976 -0.1392381096 0.7519193922 -0.1395668473 0.0415612922 0.0511688638
130299220.0 0.0450944878 0.0481576413 0.7516875498 -0.1485261463 0.7517449433 -0.1491552708 0.0433244652 0.0495311549
135299190.0 0.0468266365 0.045472417 0.7512940372 -0.1591350291 0.7508928993 -0.1588271405 0.0443660349 0.0475840428
140299160.0 0.047820165 0.0441031771 0.7509511224 -0.1689701444 0.7507390466 -0.1684240103 0.0462825126 0.0452128985
145299130.0 0.0491123034 0.0419720141 0.7503534906 -0.1782388787 0.7496173138 -0.1780703402 0.0471922852 0.04257296
150299100.0 0.0505762603 0.0397677826 0.7492161106 -0.1884484697 0.748873256 -0.1881253827 0.0488615256 0.0411073481
155299070.0 0.0512266051 0.038363409 0.747895681 -0.1983839454 0.7480077723 -0.1980709155 0.0493940427 0.0389459848
160299040.0 0.0525173041 0.0359471956 0.7459932024 -0.2067168485 0.7462332179 -0.2069798936 0.0507924005 0.0371844309
165299010.0 0.0529522618 0.0343032765 0.7453903307 -0.2168425039 0.7451889995 -0.2169653776 0.0514983597 0.0348636077
170298980.0 0.0534719164 0.0327062071 0.7421390613 -0.2259464194 0.7427701142 -0.2266432693 0.0527825103 0.0329951389
175298950.0 0.0545294313 0.0305118151 0.7417411392 -0.2354207221 0.7415397874 -0.2354837469 0.0533229549 0.0310504702
180298920.0 0.0553551375 0.0290952532 0.7389860982 -0.2447967864 0.7385826624 -0.2446677188 0.0537512546 0.0299817466
185298890.0 0.0560578516 0.0272620118 0.7371972522 -0.2541480795 0.7369853563 -0.2535468531 0.0542814993 0.0276505714
190298860.0 0.0562816756 0.0258142294 0.7338319671 -0.2631611247 0.7346727668 -0.2627500476 0.0553395741 0.0263355297
195298830.0 0.0564346649 0.0240605783 0.7317405487 -0.2714874597 0.7319375766 -0.2718651871 0.0557033646 0.0239838006
200298800.0 0.0569925649 0.0228607986 0.7296895564 -0.2798007363 0.7294418815 -0.2803789037 0.0561451017 0.0231698765
205298770.0 0.0574006648 0.0213683132 0.7268527461 -0.2895325852 0.7267942731 -0.2896086799 0.0564331818 0.0205756877
210298740.0 0.0571001604 0.0197792037 0.7241134305 -0.2985998734 0.7237580133 -0.2982585132 0.0568527831 0.0201689626
215298710.0 0.057779548 0.0187573639 0.7209376333 -0.3069072498 0.7204679562 -0.3070063885 0.0570158523 0.0181264177
220298680.0 0.0581562009 0.017258586 0.7174690836 -0.3161053292 0.717641019 -0.3152540482 0.0575325005 0.0173058149
225298650.0 0.0586165972 0.0161790602 0.7140244369 -0.3239807738 0.7142620914 -0.3240220184 0.0575672147 0.0156551159
230298620.0 0.0581699164 0.015047427 0.7112694696 -0.3326836696 0.71087391 -0.3324829476 0.0577207079 0.01440361
235298590.0 0.0587099858 0.0134158834 0.7078880613 -0.3410086547 0.7073875289 -0.3416464801 0.0578239609 0.0127689239
240298560.0 0.0584434468 0.0120738022 0.7036435701 -0.3493232892 0.7037228402 -0.3491282981 0.0580598087 0.0118841093
245298530.0 0.0590894534 0.0114072447 0.6993743811 -0.3574771327 0.6996619325 -0.3577791829 0.0585686275 0.0107596853
250298500.0 0.058421995 0.0096427144 0.6959550565 -0.36521505 0.6966471272 -0.3655331757 0.0588488836 0.0089903703
255298470.0 0.0580912099 0.0087653106 0.6917814623 -0.3742204727 0.6924427156 -0.3743307462 0.0588763445 0.0078064699
260298440.0 0.0583351352 0.0078099181 0.6882601761 -0.3820714289 0.6884480992 -0.3823194212 0.0593689915 0.006930417
265298410.0 0.0591476489 0.0070842438 0.6844151835 -0.3910203409 0.6837286841 -0.3906754792 0.0587767693 0.0054025664
270298380.0 0.0591211601 0.005514361 0.6795528381 -0.3981090961 0.6795795103 -0.3981083006 0.0589974925 0.0051745189
275298350.0 0.0585919801 0.0049833692 0.6756150914 -0.406546337 0.6760049815 -0.4068597768 0.0591930471 0.0036195944
280298320.0 0.0588092823 0.0038538308 0.6711622911 -0.4136895892 0.6712319034 -0.4144110471 0.0593864166 0.0028308338
285298290.0 0.0589882919 0.003165624 0.6664981284 -0.42166857 0.666343192 -0.421684794 0.0586486821 0.0016835457
290298260.0 0.0589383015 0.0018166643 0.6624395474 -0.4300007609 0.6625714522 -0.4297409926 0.0597503179 0.0008915923
295298230.0 0.0586697449 0.0007079792 0.6578948728 -0.4378849135 0.6575863265 -0.4373672098 0.0597082632 -0.0001318122
300298200.0 0.0591559188 -2.7645e-06 0.652754016 -0.4453523884 0.6531841502 -0.4453023864 0.0594473684 -0.0011942177
305298170.0 0.0589113306 -0.001339689 0.6482728516 -0.4530704524 0.6486682881 -0.4528045567 0.0600011536 -0.0021196297
310298140.0 0.0595729243 -0.0024308959 0.6436869195 -0.460630332 0.6433820675 -0.4612637931 0.0597760795 -0.0029407852
315298110.0 0.058657682 -0.0034927446 0.6380902205 -0.4677348838 0.6386067841 -0.4684116715 0.0597890519 -0.0045052379
320298080.0 0.0586974116 -0.0044506187 0.6327490379 -0.4757215132 0.6338845504 -0.4754209355 0.0595556364 -0.0055637461
325298050.0 0.0585112559 -0.0058484519 0.6284884706 -0.4837741891 0.6280573177 -0.4836550851 0.0594023474 -0.0068711064
330298020.0 0.0578494871 -0.0064611524 0.6217199432 -0.49050645 0.6220268279 -0.4902362336 0.0584810623 -0.0081721101
335297990.0 0.0576613498 -0.007765894 0.6166728212 -0.497976974 0.616591934 -0.4979855223 0.0581569017 -0.0089487828
340297960.0 0.0565496246 -0.0078090952 0.6104952032 -0.5046716923 0.6109347222 -0.5045097366 0.0575702395 -0.0094661399
345297930.0 0.0563846631 -0.0086029838 0.6047619785 -0.5106211677 0.6040663315 -0.5112370042 0.0576763304 -0.0109560063
350297900.0 0.0565996311 -0.0091755256 0.5994928328 -0.517750461 0.5993028811 -0.5179900407 0.0569099049 -0.0105726369
355297870.0 0.0558976919 -0.0102860998 0.5935556179 -0.5245572323 0.5932027572 -0.5248310759 0.0566000167 -0.0113237224
360297840.0 0.056247979 -0.0109236704 0.5874816559 -0.5312572925 0.5873053378 -0.5318073487 0.0563783857 -0.0118142658
365297810.0 0.0557759226 -0.0116459248 0.5817973909 -0.537699739 0.5814183642 -0.5379239843 0.0559473443 -0.0122118736
370297780.0 0.0559408077 -0.0122186152 0.5757011127 -0.5441729401 0.5757546034 -0.5448298654 0.0560091309 -0.0126545791
375297750.0 0.0552647589 -0.0122408718 0.5702694049 -0.5510149521 0.5696009042 -0.55159462 0.0556360369 -0.0134472832
380297720.0 0.0551519314 -0.0138617454 0.563711894 -0.5563639062 0.5633220669 -0.5568522532 0.0553581711 -0.0143868993
385297690.0 0.0547256475 -0.0137548907 0.5574728523 -0.5632020922 0.5570633867 -0.5633815026 0.0551402552 -0.014625804
390297660.0 0.0544214724 -0.0150246891 0.5507472269 -0.5698093129 0.5510646762 -0.5702867842 0.0550916763 -0.0155283819
395297630.0 0.0548202149 -0.0158691664 0.5453414689 -0.575612968 0.5448961768 -0.5758799624 0.0544672914 -0.0155996236
400297600.0 0.0537441912 -0.015961863 0.5381614787 -0.5818786404 0.5388484745 -0.5825508428 0.0532866894 -0.0167784269
405297570.0 0.0540932504 -0.0166347431 0.5320207225 -0.5881578843 0.5323885941 -0.5883266605 0.0537585005 -0.0169115765
410297540.0 0.0538726832 -0.0175461984 0.5251074979 -0.5934924266 0.525063009 -0.594184459 0.0531225619 -0.0178008153
415297510.0 0.0532824631 -0.0173350656 0.518938747 -0.5993304006 0.5191265254 -0.5992931173 0.0528668333 -0.0177821755
420297480.0 0.0529319618 -0.0190856571 0.5120683411 -0.6056887017 0.5126704788 -0.6055904346 0.0529410783 -0.0191807673
425297450.0 0.0534058839 -0.01954335 0.5059300056 -0.6111994757 0.5061205955 -0.610920617 0.051977554 -0.0189374024
430297420.0 0.0525996656 -0.0193900864 0.4995331293 -0.6165928234 0.4989206222 -0.6166887043 0.0518651065 -0.0202370328
435297390.0 0.0523665978 -0.0205965559 0.4922947204 -0.6219457831 0.4923737469 -0.622213389 0.0511370849 -0.0200323099
440297360.0 0.0521900049 -0.0215406541 0.4853870536 -0.627408736 0.484999735 -0.627765171 0.0513466202 -0.0213589661
445297330.0 0.0523908357 -0.021992553 0.4781747542 -0.6333266769 0.4778253039 -0.6328743617 0.0507109231 -0.0214331322
450297300.0 0.051855504 -0.0226125093 0.471340695 -0.6381456518 0.4717757238 -0.6385740588 0.0504722184 -0.0220256349
455297270.0 0.0509003381 -0.0234372049 0.4652497855 -0.6435416989 0.4649567732 -0.6429389015 0.0501680279 -0.0223977411
460297240.0 0.0504879397 -0.0236594212 0.4575048211 -0.64797624 0.4570527548 -0.6487644823 0.0495360523 -0.0224780671
465297210.0 0.0509061828 -0.0245963895 0.450463154 -0.6537656707 0.4510018895 -0.6538148405 0.0486760172 -0.0237005234
470297180.0 0.0499250982 -0.0252157024 0.4431659466 -0.6585960533 0.4427789385 -0.6590877603 0.0480189273 -0.0242061865
475297150.0 0.0495102364 -0.0264259497 0.4355967914 -0.6631855304 0.4359818481 -0.6631916217 0.0482537927 -0.0246108979
480297120.0 0.0499548365 -0.0267835765 0.4284000437 -0.6680459264 0.4287935518 -0.6682167699 0.0475062122 -0.0244121716
485297090.0 0.0492475225 -0.0274486656 0.4216045229 -0.6727325713 0.4215749525 -0.6733092032 0.0470552326 -0.0258374524
490297060.0 0.0490872837 -0.0280406156 0.4142490564 -0.6776948454 0.413864312 -0.6776808039 0.0471755182 -0.0254550044
495297030.0 0.0481845021 -0.0282011402 0.4060940639 -0.6822151603 0.4059086804 -0.6820828876 0.0466431223 -0.0263924458
500297000.0 0.0482155174 -0.0292109806 0.3991868799 -0.686429206 0.3989527487 -0.6867499152 0.0455119889 -0.026937176
505296970.0 0.0470374893 -0.0296803963 0.3910287992 -0.6907080232 0.3909103763 -0.6907927966 0.0448494291 -0.0271595593
510296940.0 0.046883849 -0.030256642 0.3834786579 -0.6958248287 0.3837743702 -0.6950813814 0.0450585222 -0.0270662516
515296910.0 0.046243826 -0.0304202786 0.3755147506 -0.698909323 0.375975888 -0.699532185 0.0443024803 -0.0282429649
520296880.0 0.0459012449 -0.0315741746 0.3682081457 -0.7033109628 0.3687999621 -0.7030718116 0.04443282 -0.0282008619
525296850.0 0.045144831 -0.0324512541 0.3606614264 -0.7075952379 0.3611370642 -0.7076428049 0.0439356035 -0.0288736978
530296820.0 0.0452494582 -0.0324320308 0.3529747052 -0.7105834074 0.3528306241 -0.7111279845 0.042744846 -0.0298509205
535296790.0 0.0442614202 -0.0329945485 0.3451536454 -0.7147211846 0.3453772727 -0.7150301856 0.0423115171 -0.0304988155
540296760.0 0.0441601966 -0.0337594924 0.3374624949 -0.7197395947 0.3362840081 -0.7195491079 0.0414184741 -0.0300678545
545296730.0 0.0433424006 -0.0335727717 0.3289750883 -0.7222831452 0.3293518048 -0.7233755586 0.0413318095 -0.031082916
550296700.0 0.0427336941 -0.0344829229 0.3214581766 -0.7266720693 0.3217086471 -0.7267293896 0.0407148661 -0.0305453261
555296670.0 0.0426543498 -0.0351957766 0.3133871756 -0.7301359391 0.3137385013 -0.7297530514 0.0399807023 -0.0311763049
560296640.0 0.041768904 -0.0355815786 0.3056303258 -0.7329397344 0.30575349 -0.7327056145 0.0395607301 -0.0316220509
565296610.0 0.0408298998 -0.0361230074 0.2972177861 -0.7369759708 0.2970606531 -0.7369182655 0.0389895282 -0.0324432302
570296580.0 0.041148459 -0.036737432 0.2893815045 -0.7397346049 0.2898196329 -0.739586999 0.0387442791 -0.0317494731
575296550.0 0.040234429 -0.0362350962 0.281518008 -0.742073416 0.281568229 -0.7428032518 0.0384904231 -0.0329008162
580296520.0 0.0393387572 -0.0371119727 0.273363262 -0.7457747024 0.2729714294 -0.745888526 0.0376613864 -0.0332642709
585296490.0 0.0394758726 -0.0380242926 0.2658091407 -0.749145656 0.2648969969 -0.7484403525 0.0369521796 -0.0338717637
590296460.0 0.0381187893 -0.0384464224 0.2565747491 -0.7513228682 0.2567104696 -0.7513648346 0.0367019786 -0.0330989803
595296430.0 0.0376180154 -0.0385441047 0.249382714 -0.7545145248 0.2484550202 -0.7546211955 0.036317236 -0.0338869119
600296400.0 0.0370801779 -0.0387589346 0.2406894326 -0.7569736205 0.2406492346 -0.7570665393 0.0355307706 -0.0340936415
605296370.0 0.0368554954 -0.0385201395 0.2322925436 -0.7596058545 0.2320996253 -0.7598964471 0.0349810037 -0.034908394
610296340.0 0.035829763 -0.0393493139 0.2242697739 -0.7617588567 0.2243463387 -0.76257979 0.034536378 -0.0345464912
615296310.0 0.0355228638 -0.0396198428 0.2150723946 -0.7642275878 0.2152116814 -0.7646579839 0.0343454442 -0.0352790841
620296280.0 0.0347388917 -0.0400403725 0.207421258 -0.7668670234 0.2072202333 -0.7668593369 0.0334958561 -0.0359600338
625296250.0 0.0345695728 -0.0403408428 0.1984941522 -0.769178236 0.1985092841 -0.7695681679 0.0332879951 -0.035530184
630296220.0 0.0339785575 -0.0404876147 0.1898548318 -0.7714858719 0.1907072492 -0.7714094405 0.0320624879 -0.0359410643
635296190.0 0.0330852125 -0.0408814896 0.1817717056 -0.7726648804 0.1814877165 -0.7727287145 0.0313688255 -0.0365923218
640296160.0 0.0324728932 -0.0409620986 0.1733990208 -0.774575185 0.1735450456 -0.7746911675 0.0318840972 -0.0367233699
645296130.0 0.032069599 -0.0410436057 0.1645305842 -0.7776796271 0.1647793544 -0.7770756106 0.0299587627 -0.037183388
650296100.0 0.0310032513 -0.0409894314 0.1567120385 -0.7783053754 0.157218016 -0.7784520554 0.0298662357 -0.0372216038
655296070.0 0.0303248031 -0.0419279004 0.1483044997 -0.7799896274 0.1479219952 -0.7799315422 0.0299755992 -0.0368536958
660296040.0 0.0294575209 -0.0418071871 0.1392418045 -0.7812012346 0.1398723963 -0.7820445384 0.0288630932 -0.0378384117
665296010.0 0.0296397289 -0.0423592095 0.1311533102 -0.7829242852 0.1316809014 -0.7833543622 0.027859653 -0.0374062383
670295980.0 0.0291311252 -0.0422778078 0.1230732521 -0.7850378393 0.1228119398 -0.7843855706 0.0270557987 -0.0380956678
675295950.0 0.0284085745 -0.0425106154 0.1134996577 -0.7856268554 0.1145283645 -0.7864096944 0.0271278345 -0.0378737644
680295920.0 0.0273969074 -0.0425471642 0.1052685146 -0.7869013524 0.1050880037 -0.7871742922 0.0267733796 -0.0385366664
685295890.0 0.0265946916 -0.0428255615 0.0971655525 -0.7879397933 0.0966140593 -0.7884332008 0.0259258568 -0.0378687286
690295860.0 0.026463906 -0.0430431147 0.088366731 -0.788871928 0.088006159 -0.7885693735 0.0256792966 -0.0380177041
695295830.0 0.026386113 -0.0434922815 0.0786702534 -0.7902103952 0.0792758921 -0.7903201732 0.0244994245 -0.0383247489
700295800.0 0.0257456202 -0.0436258846 0.0705973272 -0.7908571352 0.0705043254 -0.7913403197 0.0237174446 -0.0393270315
705295770.0 0.0249649711 -0.0435830319 0.0621664209 -0.7914528239 0.0627418718 -0.7916400275 0.0229848355 -0.0390304946
710295740.0 0.0239508181 -0.043321222 0.053533415 -0.7917711397 0.0535542617 -0.791591041 0.0218028574 -0.0389657643
715295710.0 0.0237291418 -0.0438515769 0.0450275886 -0.7927454835 0.0451896373 -0.7930976143 0.0217325129 -0.0398078082
720295680.0 0.0226501358 -0.0443458036 0.0363036857 -0.793083654 0.0365877139 -0.7937341243 0.0220481148 -0.0393228419
725295650.0 0.0223615149 -0.0440851487 0.0275938448 -0.7933659122 0.0276559696 -0.7932403103 0.020875481 -0.0389722005
730295620.0 0.0213309868 -0.0445857473 0.0192560669 -0.7939587727 0.0193782761 -0.7937792727 0.0207239242 -0.040443907
735295590.0 0.0212784129 -0.0443673786 0.0107527292 -0.7938725579 0.0110929259 -0.7939779423 0.0196891741 -0.0395516242
740295560.0 0.0204600737 -0.0442057977 0.002119727 -0.7934852623 0.0018551594 -0.7936285103 0.0195686809 -0.0398975188
745295530.0 0.0198169128 -0.0447432811 -0.0064960742 -0.7943701544 -0.0064187883 -0.7946256342 0.0184741549 -0.0396677477
750295500.0 0.0193513522 -0.0448926864 -0.0152451257 -0.7938504969 -0.0150162727 -0.7935235221 0.0182473497 -0.0402947298
755295470.0 0.0192602938 -0.0443843825 -0.023332275 -0.7932122889 -0.0237874375 -0.7940279104 0.0170425428 -0.0400358767
760295440.0 0.0178073499 -0.0446021116 -0.0332619632 -0.7930284391 -0.0327870513 -0.7933678371 0.01605323 -0.0403457088
765295410.0 0.0168682616 -0.0452340158 -0.0409513849 -0.7928203367 -0.0408319661 -0.7929300289 0.0169399984 -0.039647698
770295380.0 0.0169370662 -0.0447606762 -0.0497245785 -0.7921315686 -0.0500555482 -0.7926157233 0.0158294098 -0.039759763
775295350.0 0.0162730618 -0.0448252986 -0.0581988243 -0.7913311636 -0.0578071804 -0.7917463462 0.0147397361 -0.0409460887
780295320.0 0.0155824937 -0.0451100998 -0.066585976 -0.7909207194 -0.0665754474 -0.7912898827 0.0143196706 -0.0399532627
785295290.0 0.0146442097 -0.0445749513 -0.0752378843 -0.7892921738 -0.0756588305 -0.7908754078 0.0132373051 -0.0402897077
790295260.0 0.0140963237 -0.0444654415 -0.0837174291 -0.7898161102 -0.0840400383 -0.7899563585 0.0131616776 -0.040148086
795295230.0 0.0133167812 -0.0447288975 -0.0922082378 -0.7881865268 -0.0919185353 -0.7878939652 0.0126130388 -0.0395833028
800295200.0 0.012856247 -0.0446151983 -0.1014097408 -0.7875274415 -0.1017482778 -0.7875037581 0.0118260399 -0.0398908322
805295170.0 0.0116004181 -0.0448213279 -0.1094186825 -0.7855704934 -0.1094483125 -0.7863966896 0.0107277414 -0.0404420063
810295140.0 0.0115266523 -0.0446722968 -0.1180413444 -0.7847275292 -0.1180667945 -0.7854797723 0.0108877468 -0.0395574206
815295110.0 0.0106748359 -0.0443924912 -0.127135447 -0.7829473932 -0.1270901671 -0.7833025435 0.0098459113 -0.0400276977
820295080.0 0.0100815673 -0.0449084333 -0.1352477897 -0.7820151132 -0.1354589509 -0.7823520151 0.0092247045 -0.0397864725
825295050.0 0.0095802139 -0.0450348552 -0.1440540082 -0.7801457605 -0.1437964784 -0.7806335902 0.0091462258 -0.0392904022
830295020.0 0.0089318834 -0.0442787674 -0.15254174 -0.7785129965 -0.1530170906 -0.7794869353 0.0079578743 -0.0401207879
