!Created with skrf (http://scikit-rf.org).
# Hz S RI R 50.0 
!freq ReS11 ImS11 ReS21 ImS21 ReS12 ImS12 ReS22 ImS22
300000.0 -0.0474057705 -0.0401332411 -0.002098402 0.0001121494 0.0005218113 0.0007248962 -0.775396168 -0.1238290976
5299970.0 -0.0490086515 0.0156422767 0.0001842124 0.0001805848 -0.0001389985 -0.0001726776 -0.7855156392 -0.0066987565
10299940.0 -0.0432794078 0.0319417233 7.65004e-05 0.0001697794 0.0001370967 -0.0002397946 -0.7885987367 -0.003175886
15299910.0 -0.034923715 0.0459096123 -0.0001589083 -0.0001061608 -3.81884e-05 8.87197e-05 -0.793980683 -0.0014487013
20299880.0 -0.0254994806 0.057417837 -0.0001274184 -1.2565e-05 6.62097e-05 0.0001269184 -0.8009364031 0.0019524729
25299850.0 -0.0147426476 0.0664664419 -6.22433e-05 -3.05611e-05 -6.8988e-06 0.0001234836 -0.8067812475 0.0081718561
30299820.0 -0.0033516909 0.0729250095 -0.000251532 6.1869e-06 -5.12108e-05 -0.0001190876 -0.8126774145 0.0160558835
35299790.0 0.0078392663 0.0776941467 -9.51451e-05 6.918e-06 2.8768e-06 -0.000136203 -0.8181321642 0.0247036755
40299760.0 0.018638316 0.0803076628 6.70583e-05 1.01151e-05 -4.03729e-05 2.59032e-05 -0.8219815287 0.0340315495
45299730.0 0.0293694506 0.0813783585 0.0001155879 -0.0001776351 0.0003989674 -4.62049e-05 -0.8258252918 0.0437675285
50299700.0 0.0390884079 0.0815233554 0.0001653011 -2.64265e-05 0.0001902447 -0.0001220979 -0.8278886588 0.0535598017
55299670.0 0.0481888808 0.0801411188 0.0002096678 -6.97981e-05 0.0001129736 -0.0001104444 -0.8299363294 0.0636979711
60299640.0 0.0565440926 0.0787611587 6.71163e-05 5.01719e-05 -6.00871e-05 -8.78676e-05 -0.8307017897 0.0735024676
65299610.0 0.0643362203 0.0760744017 -3.48775e-05 1.5385e-05 6.70982e-05 7.43878e-05 -0.8319834875 0.0836338915
70299580.0 0.0710274857 0.0735080127 -1.51335e-05 5.3843e-05 -5.28312e-05 -8.03111e-05 -0.8317480089 0.0939649019
75299550.0 0.0773968019 0.0701574105 0.0001296139 -7.66742e-05 6.80831e-05 6.68904e-05 -0.8321690841 0.1038229142
80299520.0 0.0829634377 0.066640904 3.50426e-05 -2.8161e-06 8.2064e-06 -2.87905e-05 -0.8319197942 0.1133626039
85299490.0 0.0877244871 0.0626831854 -4.36425e-05 -7.74431e-05 8.89829e-05 -0.0001077483 -0.831831691 0.1234897231
90299460.0 0.0921538237 0.0591054022 0.0001193873 -9.73851e-05 0.0001084687 -6.5337e-06 -0.8307664495 0.1330606718
95299430.0 0.0964489375 0.0547628261 -7.82142e-05 -3.08183e-05 -0.0001044362 0.0002290153 -0.8292353991 0.1429265265
100299400.0 0.0998524619 0.0513093518 -0.0001301821 1.36919e-05 -5.4414e-06 -9.92804e-05 -0.8284071762 0.1522456792
105299370.0 0.1032226352 0.0474315799 0.0002373255 -4.38965e-05 -0.0001436545 -0.0001393522 -0.8270066312 0.1607379814
110299340.0 0.1058933581 0.0434954089 1.43095e-05 2.31282e-05 0.0001651027 -0.0001180005 -0.8258613753 0.1705952298
115299310.0 0.1086757467 0.0393366977 0.0001600024 6.1604e-05 3.64267e-05 2.80809e-05 -0.8245160877 0.179865415
120299280.0 0.1105123933 0.0354788621 6.35463e-05 9.74654e-05 -4.62247e-05 -1.38096e-05 -0.8227865319 0.1885212327
125299250.0 0.1120532858 0.0314113739 -5.72618e-05 4.91667e-05 9.29516e-05 0.000103965 -0.8214062049 0.1976975179
130299220.0 0.1138085588 0.0282548131 0.0001295649 -4.35071e-05 -0.0001077491 -8.3107e-06 -0.8196910236 0.2067814145
135299190.0 0.1152880042 0.0247598183 -0.0001886017 5.64152e-05 -0.0002485351 6.44733e-05 -0.8173085611 0.2159504319
140299160.0 0.1164458975 0.0208177593 -2.07967e-05 4.76903e-05 0.0002576078 -1.85993e-05 -0.8152302514 0.2246119337
145299130.0 0.1174763318 0.0173069043 0.0001348096 0.000103116 -6.26789e-05 4.7787e-05 -0.8131216025 0.2341740985
150299100.0 0.1185138811 0.0139410908 9.91339e-05 0.0002125662 0.00012829 0.0001384845 -0.8112020218 0.2431768641
155299070.0 0.118598634 0.0104133183 -1.90151e-05 0.0002255897 0.0001610852 9.61257e-05 -0.8084954303 0.2518178632
160299040.0 0.1192701376 0.0074416101 0.0001147193 0.0002101102 -8.20443e-05 0.0001112534 -0.8066087234 0.2604343431
165299010.0 0.1199228944 0.0038885176 -2.313e-07 -0.0001180338 5.611e-07 0.0001323843 -0.8039756548 0.2695913998
170298980.0 0.1199859177 0.001113537 0.0001239731 4.82214e-05 -0.0001117631 0.0001175078 -0.8007946004 0.2780856765
175298950.0 0.120167234 -0.0021198515 5.46508e-05 0.0001067902 -2.68763e-05 4.51113e-05 -0.7982125306 0.2866539693
180298920.0 0.1203902551 -0.0048300289 0.0003118657 1.51587e-05 0.0001340908 -0.0001064209 -0.7943682053 0.2954730112
185298890.0 0.1203962531 -0.0083481159 2.3262e-06 3.82892e-05 0.0001999353 0.0001889821 -0.7912361167 0.3034722639
190298860.0 0.1205362175 -0.0107266133 7.36727e-05 3.07672e-05 0.0001863505 -8.95078e-05 -0.7885897896 0.3121206371
195298830.0 0.1200231369 -0.013852102 5.45421e-05 -0.0001740727 8.09478e-05 0.0003406818 -0.7856823239 0.3202245464
200298800.0 0.1199764799 -0.0162242016 0.000128667 0.0002801272 -0.0002257772 2.07517e-05 -0.782652717 0.3289553753
205298770.0 0.1195587893 -0.0190134064 8.8156e-05 -9.9327e-06 -4.31671e-05 0.0002303134 -0.7785320953 0.3370237527
210298740.0 0.1191180358 -0.0215836127 -2.85952e-05 1.16231e-05 4.19501e-05 0.0001064311 -0.7751375134 0.3456303868
215298710.0 0.1186605515 -0.0240965516 0.0001639105 -0.0001068918 -7.04653e-05 5.92996e-05 -0.7711823493 0.3533348525
220298680.0 0.1180793832 -0.0268418001 -1.13814e-05 -8.39403e-05 0.0001425763 3.29766e-05 -0.7679620873 0.3617306236
225298650.0 0.1175968831 -0.0292716911 0.0002335672 0.0001130736 -0.0001277264 0.0002585201 -0.7645032143 0.3697607477
230298620.0 0.1168228687 -0.0316693676 0.0001610359 -7.91328e-05 0.0001385023 0.0001501026 -0.7601557683 0.3776561236
235298590.0 0.116435184 -0.0338959871 0.0001516856 4.84549e-05 0.0002069944 0.0001438588 -0.755941911 0.3862470551
240298560.0 0.1157924264 -0.0363054514 -3.20995e-05 -2.50091e-05 4.9257e-05 8.16357e-05 -0.7515487181 0.394368105
245298530.0 0.1151530174 -0.0384044651 3.48692e-05 -5.85081e-05 0.0001121436 9.88587e-05 -0.74794943 0.401570454
250298500.0 0.114190528 -0.0406630726 9.20154e-05 2.09737e-05 6.66411e-05 0.0001217497 -0.7437378051 0.4096768355
255298470.0 0.1130638535 -0.0429839736 -7.87482e-05 -7.94113e-05 0.0001283161 -8.40658e-05 -0.7388377259 0.4175363353
260298440.0 0.1123977291 -0.0448874311 0.0001345047 -4.3572e-06 -0.0001126347 3.09014e-05 -0.7348223544 0.4263404119
265298410.0 0.111699749 -0.0467564376 -5.92668e-05 0.0001396593 0.0001150759 5.89373e-05 -0.7303548739 0.4334126011
270298380.0 0.1106575065 -0.0491674792 -1.95557e-05 0.0002164057 7.85083e-05 7.04876e-05 -0.7259887917 0.4407205486
275298350.0 0.1099160555 -0.0508362682 7.6696e-05 0.0001852454 3.60716e-05 -0.000132736 -0.7211883485 0.448527758
280298320.0 0.1092601593 -0.0529335347 -5.65064e-05 1.43597e-05 -5.11028e-05 -0.0001241015 -0.7163290481 0.4560457594
285298290.0 0.1083773741 -0.054661011 0.0001011335 0.0001097296 6.39116e-05 0.0001046816 -0.7113878167 0.463759166
290298260.0 0.1074304278 -0.0566276136 4.01431e-05 0.0001823564 -4.78983e-05 -3.99442e-05 -0.7064491681 0.471242166
295298230.0 0.1060923444 -0.058761129 2.32694e-05 -1.74868e-05 8.39404e-05 -1.91756e-05 -0.7015925153 0.4782780102
300298200.0 0.105206403 -0.0601254056 -9.57181e-05 0.0001645487 0.0001290358 -0.0001669065 -0.6966354847 0.4854871111
305298170.0 0.1043513494 -0.0621263454 0.0001710065 6.69024e-05 0.0001469429 0.0002405871 -0.6911454746 0.4934636677
310298140.0 0.103137658 -0.0637127318 2.08233e-05 3.78074e-05 0.0002210608 0.0004216888 -0.6864653662 0.5001960496
315298110.0 0.1020693142 -0.0657648342 0.0002336338 0.0002494942 3.88872e-05 0.0002596114 -0.681091893 0.5070440868
320298080.0 0.1011352686 -0.0677310697 -4.93373e-05 0.0001661575 9.3938e-06 0.0001198523 -0.6758898607 0.5151871852
325298050.0 0.0996332554 -0.0695763613 -2.3284e-06 9.0684e-05 0.0001752781 -0.0002538105 -0.6700351434 0.5214710894
330298020.0 0.0980743595 -0.0713361672 0.0001958395 0.0002584274 0.0001970753 0.000142111 -0.6649912246 0.5289318029
335297990.0 0.0965910645 -0.0730372172 7.91503e-05 0.0001261408 1.8935e-05 0.0001486884 -0.6597779814 0.5357969237
340297960.0 0.095048213 -0.0742461079 3.4272e-05 0.0001368471 5.72075e-05 -2.16196e-05 -0.6532135873 0.5428953205
345297930.0 0.0936417209 -0.0756842353 7.68546e-05 0.0001969509 0.000231625 0.0001422497 -0.647675059 0.5484779178
350297900.0 0.092238581 -0.0768792911 -1.96024e-05 0.0003496948 -2.05786e-05 9.29658e-05 -0.6424502629 0.5556572847
355297870.0 0.0908936158 -0.0782939323 0.0001449812 8.03366e-05 0.0001790864 0.0001423764 -0.6368392898 0.561592262
360297840.0 0.0895512528 -0.0796552961 -0.0001095615 0.0002610687 7.87944e-05 4.69814e-05 -0.6306303823 0.5687157435
365297810.0 0.0878065725 -0.0808158821 0.0002146216 3.13965e-05 0.0001306695 3.85857e-05 -0.6240677854 0.5748923793
370297780.0 0.0869209042 -0.082183874 0.000149493 5.07382e-05 0.0002162671 0.0001423485 -0.6185671235 0.5820082771
375297750.0 0.0853085132 -0.0834582099 1.0678e-05 -4.27291e-05 4.94786e-05 0.0001376165 -0.6124193143 0.5875531263
380297720.0 0.0837376854 -0.0849105823 7.58477e-05 -6.78759e-05 0.000123789 0.000204221 -0.6066695121 0.5935502071
385297690.0 0.0823134773 -0.0859973499 0.0002835516 0.0001023634 -3.70701e-05 -0.0002041729 -0.5997043548 0.600354181
390297660.0 0.0808255319 -0.0870086513 -1.42498e-05 8.07182e-05 6.42689e-05 5.75713e-05 -0.594006488 0.6063417178
395297630.0 0.0796861625 -0.0881843684 0.0002892856 0.0001314568 0.0001296095 4.6885e-06 -0.5869544636 0.6128827624
400297600.0 0.0784486747 -0.0891834007 6.66665e-05 -9.54819e-05 0.0002144593 3.34807e-05 -0.5814109376 0.6187862033
405297570.0 0.0765474339 -0.0905016377 4.57445e-05 -2.79394e-05 0.0001186193 0.0002208311 -0.5745643145 0.6245445434
410297540.0 0.0751632937 -0.0913340806 0.0002981224 -1.56157e-05 0.0001083644 -8.86111e-05 -0.5680064097 0.6302462017
415297510.0 0.0738692035 -0.0929082557 0.0001501963 -9.55502e-05 9.92517e-05 -0.0001086279 -0.5615162826 0.6356984149
420297480.0 0.0723615139 -0.0932196042 2.30579e-05 0.0001293812 0.0001402653 0.0001821979 -0.5551447305 0.6422358641
425297450.0 0.0707342454 -0.0943571571 4.57606e-05 0.0001286666 -0.0001067798 -7.31252e-05 -0.5484002276 0.6472670491
430297420.0 0.0694798249 -0.0956128032 0.0001476351 8.0361e-06 8.31657e-05 0.0001772552 -0.5416712656 0.6526897903
435297390.0 0.067958486 -0.0964318184 0.0001676434 9.51467e-05 0.0002122442 1.87562e-05 -0.5343908541 0.6582534211
440297360.0 0.0662313072 -0.0974331004 1.87323e-05 -7.55358e-05 0.0001768637 9.87897e-05 -0.5277892334 0.6637679602
445297330.0 0.0644655249 -0.0985356584 0.0001231947 -0.0001311779 0.0001658251 2.21067e-05 -0.5210859646 0.6688952411
450297300.0 0.0634439629 -0.0992418855 -6.54472e-05 -0.0001538739 0.0002639879 1.05891e-05 -0.5140530661 0.6744669444
455297270.0 0.061590217 -0.0999970041 0.000122347 0.0001903257 0.0002474671 -2.11051e-05 -0.5075554546 0.678965152
460297240.0 0.0601336101 -0.1008444244 2.04008e-05 0.0001459105 0.0001022662 -0.0001066268 -0.5002264879 0.6847281242
465297210.0 0.0584484379 -0.1016378746 0.0001216789 0.0001254716 0.0001528149 4.77862e-05 -0.4931023607 0.6896454483
470297180.0 0.0571030763 -0.1024372349 0.0002192753 3.7235e-05 0.0001872693 1.23863e-05 -0.4857961955 0.6948092518
475297150.0 0.0553237175 -0.103228341 0.0001213185 -1.97299e-05 9.62191e-05 6.85924e-05 -0.4780401484 0.6991328613
480297120.0 0.0539033103 -0.1039197979 5.12628e-05 1.41679e-05 -8.25961e-05 -7.94566e-05 -0.4710376436 0.7042702132
485297090.0 0.0523069473 -0.1045666912 -3.38487e-05 -0.000133632 3.46502e-05 3.8045e-06 -0.464632077 0.7087039029
490297060.0 0.0504002223 -0.1048656505 0.0001757875 9.80407e-05 4.684e-07 0.0002154807 -0.4568781869 0.7136313845
495297030.0 0.0487022647 -0.1057343768 0.0003106273 -8.4505e-05 0.0001677277 3.67814e-05 -0.4493895863 0.718403352
500297000.0 0.0474848473 -0.1065109034 0.0002893454 -0.0001209271 7.15689e-05 5.71682e-05 -0.4419993213 0.7231111662
505296970.0 0.0460592497 -0.1069074254 0.0002614242 0.0001172341 0.0001487145 -5.59267e-05 -0.434506993 0.7274081529
510296940.0 0.0443003502 -0.1078604733 0.0001653234 7.31378e-05 3.93475e-05 0.0001524365 -0.4272682125 0.7313104168
515296910.0 0.0427089473 -0.1080411739 -0.0001530055 5.90171e-05 3.17802e-05 -3.58347e-05 -0.4203098991 0.735963393
520296880.0 0.0407994576 -0.1086091516 0.0001857357 0.0001950222 0.0001324967 0.0001585738 -0.4121905189 0.7395657305
525296850.0 0.0393702889 -0.1093113124 0.0001136798 -6.64294e-05 0.0002657315 7.24749e-05 -0.4049417929 0.7437997764
530296820.0 0.0374194983 -0.1095117459 0.0001147372 1.89671e-05 0.0001864337 -0.0001350571 -0.3971859979 0.7476165098
535296790.0 0.0358378547 -0.1099399981 9.86098e-05 0.0001445589 0.0001714139 0.000197838 -0.3899071465 0.7516760745
540296760.0 0.0341656321 -0.1103145858 0.0003105773 0.0001425025 0.00018022 0.0001201819 -0.3817918556 0.7552062435
545296730.0 0.0323321152 -0.1106886948 8.59834e-05 2.80837e-05 8.61773e-05 6.94812e-05 -0.3744573457 0.7593696481
550296700.0 0.0316074887 -0.111056448 9.70616e-05 0.000117927 6.62063e-05 -8.94119e-05 -0.3662441847 0.7629466743
555296670.0 0.0293680143 -0.1116108581 0.0003541331 9.63346e-05 3.27846e-05 -3.58894e-05 -0.3586384156 0.7669732298
560296640.0 0.0278330693 -0.1116078421 0.0002118752 0.0001538974 8.37477e-05 9.2455e-06 -0.3505971246 0.7708069351
565296610.0 0.0257496796 -0.1119344006 2.62241e-05 3.69191e-05 -1.46146e-05 -0.0001293865 -0.3430253881 0.7732734841
570296580.0 0.0240412132 -0.1125535876 -4.19427e-05 -0.0001869888 0.0002191652 -8.39849e-05 -0.3351727184 0.7775998548
575296550.0 0.0224290185 -0.1124860629 0.0001056539 -7.98327e-05 0.0002579519 0.0001604937 -0.3272435676 0.780613205
580296520.0 0.0210024574 -0.1128899729 -0.0001324691 0.0001329149 -0.0001632311 -0.0001307027 -0.3187806097 0.7837168287
585296490.0 0.0190996665 -0.1133685548 0.0001232654 9.03792e-05 0.000187517 0.0001780737 -0.3107161349 0.7874356379
590296460.0 0.017806424 -0.1132177382 4.614e-06 0.0001368806 0.0001948595 1.63915e-05 -0.3035718915 0.7899925073
595296430.0 0.0157900987 -0.1133523872 8.15584e-05 6.4907e-06 0.0001582822 0.000115316 -0.2953171934 0.7925844462
600296400.0 0.0140867583 -0.1135320785 -9.31477e-05 0.0001056252 0.0001046427 6.83657e-05 -0.2872864326 0.7957024339
605296370.0 0.0124445864 -0.1136613499 0.0002099254 -4.37832e-05 0.0001608434 7.64931e-05 -0.2784740413 0.798714165
610296340.0 0.0107978875 -0.1137799027 0.0001429491 7.82988e-05 0.000340146 -0.000147526 -0.2708250583 0.8011371144
615296310.0 0.0093262813 -0.113886508 0.0001350865 0.0001284276 -5.1704e-06 -0.0001088396 -0.2623981446 0.8036094078
620296280.0 0.0074277553 -0.1139693703 -4.4753e-06 0.0001027145 1.55274e-05 1.84045e-05 -0.2550984241 0.807113635
625296250.0 0.0054940484 -0.1139576242 0.0001976759 -7.4272e-06 0.0001580215 -3.31787e-05 -0.245797038 0.8090351855
630296220.0 0.0044886736 -0.114132568 0.0003190534 -0.0001453553 0.0001133347 -2.5273e-06 -0.2384354672 0.811680648
635296190.0 0.0021548977 -0.1140063638 -6.1855e-05 0.0001220212 0.0002367337 -6.12904e-05 -0.2306214161 0.8135705214
640296160.0 0.0008550737 -0.1138796884 -3.43007e-05 0.0001715032 2.84163e-05 5.28664e-05 -0.2218839252 0.8165059461
645296130.0 -0.0006307415 -0.1135599495 4.23001e-05 0.0004145616 6.44481e-05 8.14604e-05 -0.2138925717 0.8181089624
650296100.0 -0.0026427166 -0.1134194239 0.000284141 -0.0004149681 4.66141e-05 0.0001395812 -0.2058128411 0.8200586729
655296070.0 -0.004310927 -0.1132001342 -1.01221e-05 0.0001053867 0.0002217687 -0.000255514 -0.1968012883 0.8221313394
660296040.0 -0.00591736 -0.1136072776 0.0001896176 7.20857e-05 3.20043e-05 2.09059e-05 -0.1888501175 0.8242144418
665296010.0 -0.0073404324 -0.1132355133 -2.00113e-05 -6.10215e-05 0.0001523158 2.10679e-05 -0.1806423036 0.8266477478
670295980.0 -0.0093468749 -0.1127912879 0.0003297772 5.55463e-05 9.5614e-05 6.57388e-05 -0.1729576353 0.8278034087
675295950.0 -0.0109486182 -0.1124692113 0.0002400413 9.11172e-05 -9.71411e-05 -4.91901e-05 -0.1650192854 0.8300122698
680295920.0 -0.0125823843 -0.1121839421 0.0002591285 -0.0001161649 8.10202e-05 8.26433e-05 -0.1561479412 0.8318444936
685295890.0 -0.0139504558 -0.1119030652 0.0003866301 -2.66201e-05 -3.24513e-05 5.09728e-05 -0.1474272335 0.8322993067
690295860.0 -0.0157394244 -0.1115330478 6.77496e-05 -2.36958e-05 0.0001750293 -2.40551e-05 -0.1389647276 0.8337594136
695295830.0 -0.0175604323 -0.1112719618 0.0002471873 -2.65474e-05 0.0002019093 -3.1569e-05 -0.1304844726 0.8350881186
700295800.0 -0.019263201 -0.1110965853 -2.70658e-05 -0.0001030029 0.0002491845 -0.0001803609 -0.1231870304 0.8365380702
705295770.0 -0.0208035849 -0.1105494747 0.0002251498 7.67902e-05 -6.0333e-05 -7.0568e-05 -0.1146321255 0.8379255419
710295740.0 -0.0224398452 -0.1103089625 0.0002688009 -7.651e-07 4.999e-07 -3.63721e-05 -0.1057075069 0.8387595237
715295710.0 -0.0241669447 -0.1099059648 0.0001100738 -0.000159052 0.000140291 -0.0001391914 -0.0974619163 0.839352023
720295680.0 -0.0258129071 -0.1095057882 8.6594e-05 -3.75992e-05 0.0001972885 9.15246e-05 -0.0888927997 0.8411452505
725295650.0 -0.0271740955 -0.1089235525 0.0001237903 6.71953e-05 0.0001112666 -5.26696e-05 -0.0809117047 0.8421333018
730295620.0 -0.0288138343 -0.1081813417 2.39701e-05 -3.33543e-05 0.0001044716 -0.0001622105 -0.0730455547 0.8417717791
735295590.0 -0.0305499015 -0.1078547306 0.0002340566 -3.61893e-05 0.0001320644 0.000212052 -0.0642624143 0.8425750247
740295560.0 -0.0321784252 -0.1074952201 0.0004522534 -9.09891e-05 0.000163238 -1.34498e-05 -0.0549686498 0.8435766476
745295530.0 -0.0336754825 -0.1068482274 0.0001729106 3.21489e-05 0.0003647929 -0.0001839616 -0.046765165 0.8435780581
750295500.0 -0.0351771889 -0.1062709767 0.0002310298 8.30547e-05 0.0001005501 1.42031e-05 -0.0386084808 0.8441001841
755295470.0 -0.0370877857 -0.1058776437 0.0002349831 -2.9582e-05 0.0002702973 3.81827e-05 -0.0298120811 0.8440000244
760295440.0 -0.0384735726 -0.1049383655 0.0001885901 0.0001816701 -4.5322e-06 0.000152038 -0.0213109226 0.8443448075
765295410.0 -0.0400734409 -0.1045271912 0.0003060038 -0.000103089 0.0001894671 6.45609e-05 -0.0128716136 0.845579405
770295380.0 -0.0416133523 -0.1039024244 0.0003581815 9.30627e-05 0.0002849468 -5.638e-06 -0.0045273939 0.8448792573
775295350.0 -0.0431683088 -0.1034324392 0.0002466052 3.69635e-05 -6.03663e-05 -5.07481e-05 0.0032728638 0.8448763762
780295320.0 -0.0447720339 -0.1026502278 0.0003561895 0.0001115843 5.76653e-05 9.91635e-05 0.012095028 0.8449350159
785295290.0 -0.0465398133 -0.1020827709 0.0003098392 1.3604e-05 0.0001621621 -0.0001107997 0.0203422343 0.8447350616
790295260.0 -0.0477257878 -0.1009753956 0.0002611253 9.36282e-05 8.89486e-05 0.0001052776 0.0293677437 0.8449123319
795295230.0 -0.0491110739 -0.1002941014 0.000196428 0.0001323738 0.0002314417 5.67869e-05 0.0380194872 0.8437980852
800295200.0 -0.0508076299 -0.0997508216 0.0002528403 -0.0001048461 0.0001781078 -7.37796e-05 0.0466258077 0.8441963269
805295170.0 -0.052133085 -0.0990438548 0.000135239 -0.0001076963 0.0004929819 -0.0002658937 0.0543328866 0.8437244569
810295140.0 -0.0533104046 -0.0979050481 0.0001975759 -0.0001526379 1.52355e-05 8.85682e-05 0.0630066738 0.8429314975
815295110.0 -0.0551782773 -0.0972769342 0.0003635591 -0.0002051026 0.0002064482 -0.0001623085 0.071299 0.8420162152
820295080.0 -0.0566200244 -0.0962266234 -7.46526e-05 0.0001555239 -0.0001062475 0.0001296806 0.0796919994 0.8413484814
825295050.0 -0.057939378 -0.0954846752 0.0002804457 -5.64541e-05 -3.22323e-05 4.40448e-05 0.0881627916 0.8409347642
830295020.0 -0.0594337905 -0.0945779805 0.0002126297 7.95613e-05 -4.30099e-05 -3.8103e-06 0.097109983 0.839622126
835294990.0 -0.0607150576 -0.0936330342 9.1061e-06 -2.77824e-05 6.16834e-05 -4.57562e-05 0.10458744 0.8390616556
840294960.0 -0.0624285506 -0.0925209348 -9.9786e-05 -0.0001384333 2.2609e-05 0.0002428916 0.1129799029 0.8372594819
845294930.0 -0.0636063972 -0.0916255539 0.0003659578 -1.38266e-05 6.6559e-06 -3.4173e-06 0.1208662841 0.8361166132
850294900.0 -0.0646141362 -0.0903564504 0.0003769333 -0.0002150409 0.000244376 -2.5339e-05 0.1294656741 0.8347143831
