!Created with skrf (http://scikit-rf.org).
# Hz S RI R 50.0 
!freq ReS11 ImS11 ReS21 ImS21 ReS12 ImS12 ReS22 ImS22
300000.0 -0.0961324242 -0.1000588162 0.6252535285 0.0929660961 0.6216464546 0.0928953335 -0.0959684692 -0.1042965173
5299970.0 -0.1015274787 0.0115169203 0.6305706135 0.0111139141 0.631228559 0.0112014239 -0.1018416926 0.0113994068
10299940.0 -0.096892031 0.0289227255 0.6347265869 0.0159108231 0.6345634595 0.0164245209 -0.0963079217 0.0286951269
15299910.0 -0.0892551045 0.0423880389 0.6404430704 0.0214472211 0.6405715636 0.02132065 -0.0898385068 0.0418889425
20299880.0 -0.0804010607 0.0534949234 0.6490228886 0.0240848918 0.6491740983 0.0243176754 -0.0807164895 0.0529729894
25299850.0 -0.0703652274 0.0623845582 0.6582548851 0.0258638965 0.6583275354 0.0254964794 -0.0716916526 0.0619802545
30299820.0 -0.0608331265 0.06882836 0.6682897554 0.0246461304 0.6682198158 0.0244140567 -0.0618944587 0.0682632082
35299790.0 -0.0506516809 0.0733168047 0.6770314962 0.0222353698 0.6775947115 0.0219827991 -0.0523938265 0.0738139416
40299760.0 -0.041415838 0.0764701203 0.686781812 0.0180433878 0.6873147 0.017852403 -0.0427127647 0.0771151664
45299730.0 -0.0318463786 0.0782789655 0.6957130395 0.012441676 0.6961668738 0.0119567127 -0.0332362788 0.0791544515
50299700.0 -0.0229151979 0.0790160993 0.7038525856 0.0052197736 0.7036108221 0.0052136735 -0.0245682341 0.0803374861
55299670.0 -0.0152054104 0.0789550683 0.7113215008 -0.0024745342 0.7108364582 -0.0026423196 -0.0173236618 0.0806175488
60299640.0 -0.0079111461 0.0785603053 0.7179022973 -0.0112255585 0.7180606476 -0.0110264486 -0.0096375936 0.0797926176
65299610.0 -0.0010858727 0.0771571108 0.7240964128 -0.0202160697 0.7245351498 -0.0198536604 -0.0028123047 0.0784831125
70299580.0 0.0054204068 0.0750270851 0.7287053835 -0.0283039977 0.7290997868 -0.0290598559 0.0029322718 0.0771860775
75299550.0 0.010547185 0.0732055518 0.7336213684 -0.0395660721 0.7335847441 -0.0389749675 0.0086846362 0.0755122943
80299520.0 0.0153844897 0.0715671274 0.7376396151 -0.0484578085 0.7378426406 -0.0486510742 0.0136789466 0.0736023393
85299490.0 0.0198862544 0.069237446 0.741342707 -0.0585605472 0.7410620235 -0.058193505 0.0178317094 0.0709118121
90299460.0 0.023875651 0.06647696 0.7430190711 -0.0687118751 0.7434813908 -0.0680578846 0.022458511 0.069286611
95299430.0 0.0279969906 0.0643865981 0.7460477872 -0.07910731 0.7465078853 -0.0789392124 0.02579755 0.0663670202
100299400.0 0.0313784199 0.0614143683 0.7474343647 -0.0890295392 0.7477200588 -0.0886806195 0.0290931706 0.0646411773
105299370.0 0.0342475782 0.0589935965 0.7490864774 -0.0988733841 0.7498810978 -0.0989063277 0.0327208458 0.0615163521
110299340.0 0.0373463094 0.0562148462 0.7508022525 -0.108411861 0.7507646577 -0.1083629148 0.0348338098 0.0592992908
115299310.0 0.0394775147 0.0545476523 0.7512449426 -0.1187760528 0.751416595 -0.1189561925 0.0375667062 0.0574091839
120299280.0 0.0415799703 0.0519257506 0.7519748056 -0.1296885655 0.7515589629 -0.1290487407 0.0398772633 0.0544857578
125299250.0 0.0437216368 0.049913365 0.7523662333 -0.1392626603 0.7523764181 -0.1385383773 0.0419924329 0.0528624389
130299220.0 0.0455009483 0.0471420235 0.7521801258 -0.1492577039 0.7517383254 -0.1492496984 0.0437915471 0.0506315165
135299190.0 0.0469572667 0.0454506214 0.7520376793 -0.1585298775 0.7517943696 -0.158888747 0.0455298964 0.047910918
140299160.0 0.049032246 0.0431195505 0.7518943339 -0.1689343191 0.7511020335 -0.1684647037 0.0462968713 0.0454129927
145299130.0 0.0494746385 0.041127159 0.7507593228 -0.1782007434 0.7505377047 -0.1783833614 0.0477551377 0.0435188698
150299100.0 0.050746418 0.0391255844 0.749589355 -0.1879524966 0.7491424068 -0.1876955542 0.0491121603 0.0418567157
155299070.0 0.0525028239 0.0369424849 0.7477537432 -0.1975702964 0.7484330524 -0.1977155232 0.0503714535 0.0394682292
160299040.0 0.0533446811 0.0354418621 0.7465804441 -0.2074222117 0.7465751931 -0.2068877598 0.0509091343 0.038154786
165299010.0 0.0544136028 0.0334514874 0.7457834963 -0.2162624377 0.7450096898 -0.2166908742 0.0521352763 0.0358349091
170298980.0 0.0552867615 0.0318780994 0.7430318041 -0.2262845546 0.7432627098 -0.2260131406 0.052544884 0.0340028373
175298950.0 0.0558871725 0.0303267576 0.7421063614 -0.234821852 0.7422915767 -0.2358101391 0.0531872194 0.033065282
180298920.0 0.0562924821 0.0287217946 0.7393889942 -0.2446556522 0.7394892624 -0.2444991578 0.0538739324 0.0307047411
185298890.0 0.0568418996 0.0271726693 0.7378679914 -0.2537042854 0.7372646358 -0.2536274738 0.0552214289 0.0288885021
190298860.0 0.0579283023 0.0257378209 0.7347759354 -0.2631071299 0.7350537189 -0.2624879771 0.0552442558 0.02716083
195298830.0 0.0577516815 0.0241714269 0.7329584284 -0.2714814463 0.7327876491 -0.2716512129 0.0553335159 0.0258238189
200298800.0 0.0584403528 0.022361068 0.7298620703 -0.2813230019 0.7297901866 -0.2813425226 0.056063643 0.0238026163
205298770.0 0.0582163629 0.0209708638 0.727197768 -0.2894469375 0.7270714699 -0.28907392 0.0567967017 0.0225848736
210298740.0 0.0589112993 0.0199836286 0.7245530137 -0.2981195661 0.7234596759 -0.2984562279 0.0565940593 0.0208598318
215298710.0 0.0591058719 0.0186388044 0.7210220056 -0.3064021088 0.7210056331 -0.3070624775 0.0572225695 0.0198647674
220298680.0 0.0597984057 0.0177482057 0.7177111167 -0.3153632327 0.7173549282 -0.3158310285 0.0573281361 0.0180120778
225298650.0 0.0595966503 0.0160716731 0.7139446968 -0.324095069 0.7144455095 -0.3234954321 0.0573483633 0.0163391254
230298620.0 0.0602613304 0.0150418788 0.7115290014 -0.3330447182 0.7112582659 -0.3329154022 0.0572483032 0.0151439542
235298590.0 0.0598124459 0.013910226 0.7079457116 -0.3416776433 0.7080871831 -0.3413752598 0.0578905777 0.01418228
240298560.0 0.060307678 0.0127780766 0.7039963826 -0.3490809711 0.7040286527 -0.3494139402 0.0577308657 0.0127633463
245298530.0 0.0600413285 0.0115185342 0.7006122761 -0.3579442054 0.7000445643 -0.3581158834 0.057514281 0.0116984277
250298500.0 0.0601480956 0.0103201334 0.6970073585 -0.366003376 0.6966337662 -0.3655476191 0.057612167 0.0104921332
255298470.0 0.0604998491 0.0098704533 0.6933565268 -0.3740012377 0.6930467856 -0.3745616083 0.0580197978 0.0097890648
260298440.0 0.0605460474 0.0081756359 0.6893641516 -0.3818415261 0.6886787948 -0.38234502 0.0575779532 0.0077241045
265298410.0 0.0599871691 0.0075779618 0.6845299801 -0.3909184633 0.6845557593 -0.390831924 0.0587346284 0.0067110458
270298380.0 0.0598734902 0.0064509736 0.6804939409 -0.3989321683 0.6807438541 -0.3981597645 0.0581691709 0.0059025495
275298350.0 0.0603094977 0.0056164431 0.675292366 -0.4060658036 0.6755734637 -0.4058482501 0.0575773092 0.0048304717
280298320.0 0.0597391978 0.0046005364 0.6725152841 -0.4135305987 0.67252981 -0.4140144478 0.0583653716 0.0038145552
285298290.0 0.0599712748 0.0035485333 0.6672007307 -0.4217995637 0.6676268902 -0.421631891 0.0581055067 0.0027867494
290298260.0 0.0598344697 0.0026525219 0.6633767001 -0.4294750427 0.6633259938 -0.4297495051 0.0582125533 0.0015505103
295298230.0 0.0597470872 0.0014319327 0.6584617986 -0.4378297985 0.6585379003 -0.4382300445 0.057906895 0.0001755101
300298200.0 0.0599441377 0.0009497658 0.6538677827 -0.4448336009 0.653390966 -0.4448800792 0.0576115258 -0.0009254282
305298170.0 0.0601216823 -0.0005924836 0.6492866708 -0.4529422216 0.6495385798 -0.453118936 0.057614656 -0.002416021
310298140.0 0.0604164634 -0.0016498828 0.6445557967 -0.4605405952 0.6446167189 -0.4597214075 0.0579908206 -0.0035766614
315298110.0 0.0599112835 -0.0030704362 0.639633102 -0.4687591214 0.6389006444 -0.4686943405 0.0576195932 -0.0046447138
320298080.0 0.0596708229 -0.0036115518 0.6334289298 -0.4759168146 0.6344604265 -0.4760452078 0.0573941741 -0.0055837408
325298050.0 0.0585149206 -0.0053698824 0.6280699048 -0.4830050796 0.6290374539 -0.4834683544 0.0567948684 -0.0068092521
330298020.0 0.057250305 -0.0059786061 0.6223750674 -0.4905807285 0.6233825394 -0.4904891379 0.0559129627 -0.0078262902
335297990.0 0.057585369 -0.0066610168 0.6176512133 -0.4977912621 0.6171053798 -0.4976526387 0.0555113626 -0.0088614953
340297960.0 0.0568444496 -0.0075537366 0.6109095433 -0.5048261642 0.6109655265 -0.5046080589 0.0552065892 -0.0092470966
345297930.0 0.0561645614 -0.008284481 0.6055324701 -0.5120997779 0.6055770617 -0.5116019995 0.0551655288 -0.0104354492
350297900.0 0.055944803 -0.0091319119 0.6005213287 -0.5178914308 0.6002618547 -0.5179766708 0.054673423 -0.0114814415
355297870.0 0.0556539486 -0.0097090636 0.5944302751 -0.5240909058 0.5943458239 -0.5243898813 0.0545629283 -0.0120919465
360297840.0 0.0553810325 -0.0102400356 0.5881110128 -0.5316815087 0.5885579263 -0.5318838315 0.0534198954 -0.0122282129
365297810.0 0.0545278321 -0.0108682084 0.5824501275 -0.5382566976 0.5824621016 -0.5383326482 0.0529990986 -0.0133559121
370297780.0 0.0546842195 -0.0114706707 0.5757711205 -0.5448198076 0.5768853021 -0.5445794298 0.0526904124 -0.0143331343
375297750.0 0.0541562783 -0.012131097 0.5707633347 -0.5506178278 0.5705722991 -0.5512712798 0.0529766863 -0.0149035001
380297720.0 0.0533945914 -0.0127886639 0.5647723574 -0.5578179018 0.5640041682 -0.5574694855 0.0523810721 -0.0153417117
385297690.0 0.0530321823 -0.013638449 0.5583516685 -0.5633676406 0.5583606749 -0.5641048368 0.0521551453 -0.0155685233
390297660.0 0.0531198069 -0.0143503297 0.5516138907 -0.5689232898 0.5520347685 -0.5700769394 0.0523040945 -0.0169367302
395297630.0 0.0529769599 -0.0148030184 0.5462374785 -0.575310063 0.545785479 -0.5756241901 0.0514459139 -0.0172823175
400297600.0 0.0521484322 -0.0158433531 0.5395080131 -0.581931483 0.5396601705 -0.5817248704 0.0514677432 -0.0175371089
405297570.0 0.0520220127 -0.0166440893 0.5335415775 -0.5878724474 0.5332568654 -0.587817889 0.0509481179 -0.0178449768
410297540.0 0.0514176521 -0.0167931318 0.5261429508 -0.5937523306 0.526774134 -0.5939915435 0.0504626004 -0.0187804537
415297510.0 0.0509876935 -0.0172783856 0.519637108 -0.600011412 0.5207842357 -0.6001559041 0.050406802 -0.0192138935
420297480.0 0.0504540069 -0.0184912759 0.5133763787 -0.6052818287 0.5140052757 -0.6053198783 0.0502458069 -0.0195792902
425297450.0 0.051090375 -0.0186326891 0.5068739037 -0.610790421 0.5067488406 -0.6109307544 0.049543909 -0.0209373807
430297420.0 0.0500478781 -0.0193034992 0.5004244374 -0.6169695683 0.5005138116 -0.6164414497 0.0500219145 -0.0211190207
435297390.0 0.0497210753 -0.0203487026 0.4932587101 -0.6226274895 0.4933162162 -0.6220602338 0.048578349 -0.0214650208
440297360.0 0.0495947926 -0.0209572115 0.4863423354 -0.6280396989 0.4862310007 -0.6278043205 0.0487454529 -0.0219451959
445297330.0 0.0494017805 -0.02196599 0.480003158 -0.632844596 0.4795718883 -0.633142509 0.0484934338 -0.0222376463
450297300.0 0.0489022151 -0.0223363285 0.4724534036 -0.6378639214 0.4728499936 -0.6382232679 0.0481012956 -0.0228688742
455297270.0 0.048131932 -0.0229280077 0.4662395524 -0.6435381105 0.4658723507 -0.6437502601 0.0477195533 -0.0235268249
460297240.0 0.0480938212 -0.0233710477 0.458673116 -0.6493595904 0.4583275226 -0.6491874249 0.0472898864 -0.0244934051
465297210.0 0.0478726309 -0.0240784073 0.4511627489 -0.6537565018 0.4508255523 -0.6539338895 0.0475439362 -0.023970782
470297180.0 0.0471101796 -0.0248836835 0.4441528489 -0.6581480506 0.4446431654 -0.6586850454 0.0471120171 -0.0252573767
475297150.0 0.0466419731 -0.0248926246 0.4364418866 -0.6635808325 0.436967221 -0.6640796475 0.0465880655 -0.0259444718
480297120.0 0.0467292854 -0.0250371936 0.4296139755 -0.6686092814 0.4297597115 -0.6683059402 0.0463312899 -0.0263717741
485297090.0 0.046165328 -0.0266302282 0.4221101673 -0.6736433243 0.4226042516 -0.6730629499 0.0456446321 -0.0266892159
490297060.0 0.0460205399 -0.0264961204 0.4143226437 -0.6779863399 0.4148906354 -0.6781700773 0.0453180628 -0.0272489749
495297030.0 0.045307315 -0.0277742568 0.4075868002 -0.6824688431 0.4075251308 -0.6830408242 0.0454301812 -0.0278331213
500297000.0 0.0448451629 -0.027594115 0.3999388826 -0.686231019 0.4002879302 -0.6870112574 0.0448102243 -0.0278121595
505296970.0 0.0448806443 -0.02854918 0.3924670015 -0.6914840437 0.3925231178 -0.6911091515 0.0444219753 -0.0292134483
510296940.0 0.0441679118 -0.0291339239 0.3852191039 -0.6966986851 0.3850734639 -0.6963382662 0.0443796714 -0.0291928266
515296910.0 0.0435617569 -0.0289080909 0.376976756 -0.6996185231 0.3766645851 -0.699991526 0.0436533849 -0.0302039563
520296880.0 0.0435233791 -0.0294031343 0.3697417041 -0.7037785865 0.3692419944 -0.7037000227 0.0437443997 -0.0295932371
525296850.0 0.0431847401 -0.0302768517 0.3620538773 -0.707378208 0.3616948553 -0.7078648786 0.0434123288 -0.0305893305
530296820.0 0.0426738607 -0.030908144 0.3540464652 -0.7122328588 0.3536086839 -0.7117351043 0.0430438841 -0.0317311944
535296790.0 0.0428098359 -0.0310785007 0.3463500023 -0.7152808668 0.3462179434 -0.7155461751 0.04291021 -0.031254488
540296760.0 0.0418527639 -0.0313023213 0.3382480988 -0.719716209 0.3381198985 -0.7196521369 0.04244106 -0.0325822805
545296730.0 0.0407759638 -0.0317970129 0.3298741525 -0.7228474437 0.330267692 -0.7227192499 0.0420111945 -0.0327626973
550296700.0 0.0416366951 -0.0319099035 0.3224231789 -0.7268468936 0.3220540646 -0.7273276241 0.0417811246 -0.0330002384
555296670.0 0.0406380172 -0.0325496654 0.3139569245 -0.7305636511 0.3144025234 -0.7303317082 0.0409159237 -0.0342564851
560296640.0 0.0412953958 -0.0330369995 0.3061691269 -0.7331509033 0.3066441523 -0.7337628503 0.0407248255 -0.0339096946
565296610.0 0.0397592167 -0.0334262567 0.2992089387 -0.7373773447 0.2987424344 -0.7366186864 0.0402454671 -0.0344161286
570296580.0 0.0393237715 -0.0336589914 0.2901944008 -0.7402180962 0.2907449569 -0.7404266022 0.0396101698 -0.0351741846
575296550.0 0.0389395335 -0.0341260793 0.2825115082 -0.7433192478 0.2824690001 -0.7429970642 0.0392881811 -0.0354892798
580296520.0 0.0387665869 -0.0342303991 0.2735587875 -0.7467304688 0.2739915961 -0.7468191891 0.0381908013 -0.035865712
585296490.0 0.0382139416 -0.034621045 0.2660570324 -0.7493043164 0.2653849412 -0.7495680605 0.0385953326 -0.0358822721
590296460.0 0.0384251019 -0.0348912036 0.2577935093 -0.7523327737 0.2575027699 -0.7522912659 0.0376323646 -0.0361751037
595296430.0 0.037735173 -0.0350968444 0.2490677708 -0.7552613537 0.2494594307 -0.7548712739 0.0373388745 -0.0372077112
600296400.0 0.0375357766 -0.0355625582 0.2409071481 -0.7572501056 0.2412613098 -0.7580357335 0.0371368138 -0.037309728
605296370.0 0.0361428495 -0.0358049582 0.2335098058 -0.7602592033 0.2325177115 -0.7601573544 0.0363929749 -0.0376896617
610296340.0 0.0362236512 -0.0356451427 0.2245991819 -0.7618446173 0.2250108734 -0.7624494991 0.0354328547 -0.0377316376
615296310.0 0.0359270204 -0.0363280073 0.216119691 -0.7653808646 0.2156179522 -0.7653568631 0.03549336 -0.0380262279
620296280.0 0.0351499318 -0.0359824119 0.2073108516 -0.7678311999 0.2072993139 -0.7675279178 0.0344415472 -0.0381285857
625296250.0 0.0346211829 -0.0365593197 0.199449825 -0.7700700455 0.1994723745 -0.769906539 0.0336317338 -0.0390026161
630296220.0 0.0343368854 -0.0364932649 0.1904570283 -0.7724049797 0.1907526818 -0.7717874404 0.0336384379 -0.0391681435
635296190.0 0.033256847 -0.0365660933 0.1824770813 -0.7738673174 0.182562709 -0.7739944141 0.0331743585 -0.0393211987
640296160.0 0.0329547577 -0.0367811015 0.1739620729 -0.7762120247 0.173706894 -0.7760344606 0.032137698 -0.0396233704
645296130.0 0.0329259749 -0.0367275313 0.165310729 -0.7775844921 0.1657315975 -0.7776393472 0.0313797171 -0.0407436746
650296100.0 0.032101913 -0.0370224359 0.1572468392 -0.7797486065 0.1569207135 -0.7797214148 0.032202901 -0.0404708103
655296070.0 0.0314927166 -0.0374446988 0.1477513829 -0.7813169233 0.148431693 -0.781258674 0.0303203977 -0.0405586449
660296040.0 0.0312526504 -0.0375014233 0.1399184092 -0.7832747335 0.1400826978 -0.7833448773 0.029964059 -0.041508547
665296010.0 0.0306956816 -0.037677474 0.1308594278 -0.7841741348 0.1311884753 -0.7841295338 0.0296671211 -0.0411413438
670295980.0 0.0300825451 -0.0377359315 0.1219445892 -0.7857686698 0.1222914088 -0.7851600269 0.0284557182 -0.0415774758
675295950.0 0.0291879387 -0.0379274337 0.1139730289 -0.7867119367 0.1139926831 -0.7868570025 0.0279666238 -0.0415930535
680295920.0 0.0288082726 -0.0377357188 0.105729116 -0.7877772133 0.1057783578 -0.7877109059 0.027998472 -0.0424620329
685295890.0 0.0285911471 -0.03775272 0.0964051623 -0.7891743142 0.0970598748 -0.7891861525 0.0272346413 -0.0416599298
690295860.0 0.0273073774 -0.0380063851 0.0878103806 -0.7901919415 0.0879324816 -0.789949602 0.0263751085 -0.0423854882
695295830.0 0.027094092 -0.0386308949 0.0799944568 -0.7908190547 0.0797454182 -0.79068517 0.0258969081 -0.0422434007
700295800.0 0.0266855168 -0.0382069062 0.0716981914 -0.7919129372 0.0713549894 -0.7917273843 0.0249392123 -0.0424555624
705295770.0 0.0257714308 -0.0381992263 0.0622165513 -0.7928968699 0.062791672 -0.7922558741 0.0243578766 -0.0421916587
710295740.0 0.0254633149 -0.0383442935 0.0540338811 -0.793117725 0.0542098833 -0.79343911 0.0241437602 -0.0426590221
715295710.0 0.0247131307 -0.0381082841 0.0452659428 -0.7935119341 0.0450783751 -0.7938103779 0.0230279883 -0.043004269
720295680.0 0.0245512017 -0.038057271 0.0365255348 -0.7938055968 0.036373836 -0.7947570773 0.0225682313 -0.0430458528
725295650.0 0.0232566396 -0.0379674165 0.0281926767 -0.7945018727 0.0282729677 -0.7946644146 0.0215331305 -0.0425338173
730295620.0 0.0219702333 -0.0385470309 0.0192667089 -0.7941570358 0.0195069717 -0.7936346863 0.0207375246 -0.0422943357
735295590.0 0.0224449561 -0.0384822887 0.0107201109 -0.7948381432 0.0108915711 -0.7945852857 0.0204228976 -0.0431970078
740295560.0 0.021875024 -0.0387273336 0.0024676264 -0.7952601152 0.0028482506 -0.7953629073 0.0191165795 -0.0426392099
745295530.0 0.0208677121 -0.03848853 -0.0062678202 -0.7941820317 -0.0056624731 -0.7946837148 0.0182477826 -0.0430798706
750295500.0 0.0199483496 -0.0381985372 -0.0147589326 -0.7947542014 -0.0152616437 -0.7946266607 0.0177705013 -0.0429462816
755295470.0 0.0194547285 -0.0384436284 -0.023036028 -0.7948156225 -0.0231522206 -0.7949167585 0.0176392795 -0.0423220355
760295440.0 0.0188851249 -0.0378008206 -0.0328944085 -0.7940428733 -0.0319611992 -0.7938298307 0.0170053582 -0.0436935956
765295410.0 0.0188247453 -0.038628347 -0.0410010658 -0.7934907575 -0.0397211637 -0.7935042215 0.0163586373 -0.0433073077
770295380.0 0.01796641 -0.0377131563 -0.0487483007 -0.7923764593 -0.0491923451 -0.7932269226 0.0151042893 -0.042965963
775295350.0 0.0169622543 -0.0382234677 -0.0576515918 -0.7932482321 -0.0577475228 -0.7922435993 0.0151218967 -0.0427144667
780295320.0 0.0164201207 -0.0377063485 -0.0659934379 -0.7913062853 -0.0660007345 -0.7918189664 0.0147468053 -0.0430104341
785295290.0 0.0156708875 -0.0381904352 -0.0749540331 -0.7908816275 -0.0747942221 -0.7911482735 0.0130575816 -0.0421649246
790295260.0 0.0156238995 -0.0383960667 -0.0833179052 -0.790440447 -0.0833974247 -0.79056866 0.012522348 -0.0420139147
795295230.0 0.0146615208 -0.0383451916 -0.0923317242 -0.7896028194 -0.0921409585 -0.7896269133 0.0120781936 -0.0433820114
800295200.0 0.0136367881 -0.0377964587 -0.0999446526 -0.7873976524 -0.1009338659 -0.7881961359 0.0109439411 -0.042527122
805295170.0 0.0129893144 -0.0381087067 -0.1090238765 -0.7873573573 -0.1089312976 -0.7872346133 0.0114622825 -0.0423357824
810295140.0 0.0128520743 -0.0379761943 -0.1174085919 -0.785451069 -0.1176753361 -0.7858751509 0.0104648225 -0.0423531592
815295110.0 0.0120068447 -0.0375364041 -0.1257164692 -0.7847209135 -0.1253729149 -0.7844889863 0.0099489496 -0.0420208981
820295080.0 0.0116479715 -0.0375019448 -0.1339550373 -0.7826963149 -0.1341727026 -0.7831836676 0.0083160796 -0.0412232091
825295050.0 0.0103915692 -0.037549332 -0.1431648714 -0.781869314 -0.1427962403 -0.7811598565 0.0087589598 -0.0412594621
830295020.0 0.0098860703 -0.037503997 -0.1516727702 -0.7798057954 -0.1513081497 -0.7799332996 0.007916399 -0.0420006599
