!Created with skrf (http://scikit-rf.org).
# Hz S RI R 50.0 
!freq ReS11 ImS11 ReS21 ImS21 ReS12 ImS12 ReS22 ImS22
300000.0 -0.3137676912 -0.1353947611 0.3717205818 0.0666658868 0.371624286 0.0678142015 -0.3154096926 -0.1372913983
5299970.0 -0.3250166858 0.0023967246 0.3785384654 0.0035064604 0.3787777885 0.0034832922 -0.3257177297 0.0019851863
10299940.0 -0.3227169304 0.0139439007 0.3801155046 0.0025384624 0.3797864174 0.0031537518 -0.3232733004 0.0123167731
15299910.0 -0.3189948092 0.0222973875 0.382068263 0.0029439217 0.3821923102 0.0026819108 -0.3206716306 0.0199203856
20299880.0 -0.3154370155 0.0290484286 0.38518292 0.0013653704 0.3852637046 0.0019383396 -0.3174880423 0.0259293773
25299850.0 -0.3114376254 0.0349508578 0.3883277905 0.0005209988 0.3887206644 0.0001973766 -0.3147066963 0.0312255745
30299820.0 -0.308174896 0.0392730217 0.3918873386 -0.0021485393 0.3920792647 -0.0020936444 -0.3118977342 0.0356957252
35299790.0 -0.3042530249 0.0435901671 0.3948277547 -0.0049258751 0.3953757501 -0.0052655696 -0.3090896299 0.0399061523
40299760.0 -0.3012342905 0.047058285 0.3984537475 -0.008420965 0.3984208781 -0.0086102002 -0.3061698387 0.0430425173
45299730.0 -0.2979372916 0.0499594721 0.4012902703 -0.0124599232 0.4015501028 -0.0127009407 -0.3032570493 0.0465506399
50299700.0 -0.2948127309 0.0528996253 0.4035943486 -0.0171448585 0.403625455 -0.0174724786 -0.3011052744 0.0497024001
55299670.0 -0.2922123462 0.0554079963 0.4059844459 -0.0216217217 0.4061061428 -0.0220237607 -0.2991589693 0.0524225648
60299640.0 -0.2896856561 0.0577078655 0.4080822478 -0.0269095881 0.408003866 -0.0268343095 -0.2967545854 0.0549626107
65299610.0 -0.2872241674 0.0601451992 0.4097541092 -0.0315291604 0.4097247563 -0.0319821541 -0.2949272442 0.0578446612
70299580.0 -0.2855142774 0.0620204211 0.4105402659 -0.0364722746 0.4112750419 -0.0366622911 -0.2935479571 0.0598045303
75299550.0 -0.283360814 0.0639166781 0.411454032 -0.041827966 0.4118356813 -0.0419471304 -0.2915503351 0.062328347
80299520.0 -0.2816745002 0.0666211618 0.4124879222 -0.0474009842 0.4131139105 -0.0475456193 -0.2902525694 0.0649747565
85299490.0 -0.2798986866 0.0684434255 0.4133312222 -0.0526446451 0.4134165453 -0.0524174715 -0.2887218989 0.066847353
90299460.0 -0.2783549969 0.0706482603 0.4135675154 -0.0579489219 0.41381765 -0.0573657068 -0.2874894026 0.0693408849
95299430.0 -0.2768658781 0.0726656681 0.4139315247 -0.0631288364 0.4142952754 -0.0631609343 -0.2863105036 0.0717718899
100299400.0 -0.2751166802 0.0745625034 0.4138204655 -0.0678138552 0.4139655466 -0.0684223406 -0.2851995435 0.0745246933
105299370.0 -0.2737575307 0.0766059149 0.4139461459 -0.0732008183 0.4142702082 -0.0738250657 -0.2836960151 0.0762439676
110299340.0 -0.2725668988 0.0786831007 0.4134685097 -0.0780883081 0.4142631951 -0.0782327229 -0.2827723549 0.0787167299
115299310.0 -0.2715487416 0.0811937085 0.4132641219 -0.0835224647 0.4136075263 -0.0837284336 -0.2818208072 0.0813274134
120299280.0 -0.2704615842 0.0832106478 0.4131664281 -0.0891733931 0.4131972069 -0.0891273734 -0.2807692052 0.0835008802
125299250.0 -0.2692685803 0.0849336853 0.4127150439 -0.0937187357 0.4126858446 -0.09393249 -0.2797974459 0.0858594037
130299220.0 -0.2683261292 0.0874652661 0.4116619552 -0.0989760964 0.4119313635 -0.0996570952 -0.2788793723 0.088387302
135299190.0 -0.2673021367 0.089793756 0.411341226 -0.1038452465 0.4116162543 -0.1042917109 -0.2780455253 0.0908023797
140299160.0 -0.2662267642 0.0920848874 0.4106550549 -0.1092970022 0.4107645965 -0.1086609272 -0.2776120163 0.0930084325
145299130.0 -0.2652208568 0.0946015976 0.4095723346 -0.1136664523 0.4094879748 -0.1139929826 -0.2763278679 0.0958309508
150299100.0 -0.2641320671 0.0968812599 0.4082322615 -0.1187629305 0.4085531145 -0.1186444455 -0.2756350516 0.0986490221
155299070.0 -0.262959661 0.0995545007 0.4066019067 -0.1235533339 0.4074955813 -0.1239879841 -0.2743551536 0.1013318876
160299040.0 -0.2623416369 0.1019101081 0.4060073366 -0.1287806192 0.4061076981 -0.1289980199 -0.2737319746 0.1036930274
165299010.0 -0.2610262981 0.1043845217 0.40469694 -0.1331847475 0.4046259999 -0.1338917329 -0.2725310972 0.1061630917
170298980.0 -0.2602521159 0.1066608853 0.4033411141 -0.1381016945 0.4036532253 -0.1384522292 -0.2718592654 0.1087688476
175298950.0 -0.2593048214 0.1092344501 0.4021618704 -0.1430403379 0.4023588379 -0.1434560723 -0.2705991378 0.1117441384
180298920.0 -0.2581973013 0.1115207295 0.4004526861 -0.1478126744 0.4007915514 -0.1479564854 -0.2697656288 0.114056971
185298890.0 -0.2571800894 0.1141946603 0.3996240625 -0.1527053561 0.3991312587 -0.1526149321 -0.2685993469 0.1166711539
190298860.0 -0.2557899546 0.1174734871 0.397184678 -0.1574060251 0.3976728401 -0.1574522961 -0.2675157451 0.1195620619
195298830.0 -0.2545545757 0.1196474116 0.3957620905 -0.1617799055 0.3959531412 -0.1620246102 -0.2667220514 0.1220805065
200298800.0 -0.2536578373 0.1218683837 0.3943860349 -0.1669287364 0.3942667807 -0.1670345846 -0.2653617 0.1248757438
205298770.0 -0.2527589681 0.1247912736 0.3922837367 -0.171003753 0.3924986833 -0.1710218224 -0.2640694273 0.1273965769
210298740.0 -0.2515203917 0.1273399889 0.3907445589 -0.1755585486 0.39068287 -0.1757257989 -0.2636404305 0.130014857
215298710.0 -0.250399336 0.1299802124 0.3886102837 -0.1797589115 0.3889203426 -0.1805497289 -0.261911907 0.1328427067
220298680.0 -0.2490808581 0.1325134584 0.3864409965 -0.1845723235 0.3864347588 -0.1846719826 -0.2608052751 0.1354546341
225298650.0 -0.2476677398 0.1351612665 0.3841189587 -0.1891139029 0.3848207661 -0.1887947508 -0.2596861155 0.1381434536
230298620.0 -0.2463560913 0.1380524451 0.3824849979 -0.1935538654 0.3829799123 -0.1940080878 -0.2585568167 0.1406380646
235298590.0 -0.2456500954 0.1405959359 0.3807008914 -0.1982591321 0.3806505798 -0.1978518862 -0.2571229448 0.143654817
240298560.0 -0.2438848401 0.143504643 0.378251489 -0.2020453769 0.378530185 -0.2018565561 -0.255844673 0.1460825145
245298530.0 -0.2428766253 0.145356569 0.376016369 -0.206859966 0.3760839306 -0.2067377316 -0.2548857672 0.1485762578
250298500.0 -0.2413453001 0.148431064 0.37387772 -0.2108342267 0.3740929103 -0.2107030707 -0.2532248677 0.151812658
255298470.0 -0.2400394172 0.1512298084 0.3714198936 -0.2148755576 0.3720193174 -0.2153044337 -0.251659693 0.1547799833
260298440.0 -0.2386218535 0.1532715944 0.3693867097 -0.2187012182 0.3696576334 -0.2191916564 -0.2506955576 0.1569347625
265298410.0 -0.2374054219 0.1563013947 0.3668185752 -0.2234220215 0.3666408056 -0.2236997228 -0.2482738626 0.1594967579
270298380.0 -0.2359272447 0.1586896988 0.3641391954 -0.2273986041 0.364423728 -0.2274353392 -0.2469590477 0.1622583232
275298350.0 -0.2345251851 0.1613169455 0.3618251381 -0.2311979094 0.3619747055 -0.2314167114 -0.2457834971 0.1650350581
280298320.0 -0.2332771154 0.1637980655 0.3594297506 -0.2350646753 0.3594952764 -0.2358653353 -0.2439365569 0.1679014576
285298290.0 -0.2313905609 0.1666838521 0.3564484122 -0.2396914659 0.3570497692 -0.2394849059 -0.2426545077 0.17071277
290298260.0 -0.2299494637 0.1692968159 0.3545810673 -0.2435578343 0.354475307 -0.2438688605 -0.2409562841 0.1730523707
295298230.0 -0.2287114671 0.1714500656 0.3516919625 -0.2475667324 0.3517033879 -0.2478224733 -0.2393554437 0.1754253614
300298200.0 -0.2267594812 0.1742581727 0.3485397493 -0.2515137025 0.3489828146 -0.2515776901 -0.2375187683 0.1782219567
305298170.0 -0.2249537067 0.1765343592 0.3459260963 -0.2554067104 0.3465564712 -0.2560909952 -0.2354706924 0.1807367433
310298140.0 -0.2230683054 0.178812765 0.3431952253 -0.2593138758 0.3437087542 -0.2592911445 -0.2337987032 0.1832187231
315298110.0 -0.2220122417 0.1813871805 0.3403497592 -0.2635175768 0.3408471492 -0.2638380569 -0.2319156042 0.1856567398
320298080.0 -0.2199240241 0.1839223263 0.3368835478 -0.2675248891 0.3377902292 -0.267516863 -0.2305428274 0.1881242223
325298050.0 -0.2183305386 0.1855647515 0.3341410622 -0.2707405058 0.3347686352 -0.2713125218 -0.2279681551 0.190623052
330298020.0 -0.2171285622 0.1885115317 0.3314830964 -0.2753174215 0.3317174152 -0.2752227327 -0.2266499303 0.1930394597
335297990.0 -0.2152361354 0.1910110519 0.3281898268 -0.2785702082 0.3283041787 -0.2788502476 -0.2247127574 0.1953713085
340297960.0 -0.21349105 0.1931827693 0.324546189 -0.2822033002 0.3250794583 -0.2823814682 -0.222634641 0.1981946771
345297930.0 -0.2119945216 0.195597333 0.3218344904 -0.2859465237 0.3218746553 -0.285795489 -0.2210667532 0.2003911177
350297900.0 -0.2102761535 0.1979376832 0.3188978566 -0.28912476 0.3191983916 -0.2893064483 -0.2192169767 0.2027141369
355297870.0 -0.208159925 0.2004671789 0.3153855009 -0.292656593 0.3153194306 -0.2925970157 -0.2170932137 0.2057230756
360297840.0 -0.20651977 0.2029332843 0.311801889 -0.2964159385 0.3125348266 -0.2967749046 -0.2151539142 0.2081321525
365297810.0 -0.2042712305 0.2051755856 0.308725953 -0.2995824169 0.3090806054 -0.2998607584 -0.2132334725 0.2102885355
370297780.0 -0.2026533298 0.2071179692 0.3055146583 -0.3030883534 0.3059696344 -0.303221611 -0.2110815307 0.2127375717
375297750.0 -0.2006058208 0.2098817328 0.3024233385 -0.3063164166 0.3021389265 -0.3065607351 -0.2085863206 0.2150851749
380297720.0 -0.1986442214 0.2122517639 0.2989850803 -0.3099622909 0.2988225484 -0.3095674789 -0.2063500584 0.2176132173
385297690.0 -0.1964177582 0.214240039 0.2952590789 -0.3127829639 0.2956998383 -0.3134836192 -0.2044268508 0.2204185608
390297660.0 -0.1944133523 0.2162266897 0.2919480076 -0.3159659411 0.2921669254 -0.3162340788 -0.2019656099 0.222262916
395297630.0 -0.1920796034 0.2186595866 0.2884827826 -0.3192842681 0.2884134925 -0.3189304884 -0.1996509146 0.2241548212
400297600.0 -0.190227185 0.2208330999 0.2849610774 -0.3226380313 0.285062374 -0.3225062241 -0.1974945163 0.2270399908
405297570.0 -0.1882190966 0.2223442814 0.2815541028 -0.3256359608 0.2818469953 -0.3258571222 -0.1949418159 0.2294852489
410297540.0 -0.1856492741 0.2248329664 0.2777754326 -0.3290354858 0.2780432101 -0.328486441 -0.1930219988 0.2315845678
415297510.0 -0.1834023103 0.2267911236 0.2742768803 -0.3315525003 0.2746205759 -0.3320275378 -0.1904004185 0.2337166184
420297480.0 -0.1812578547 0.2287727845 0.2701290576 -0.3347469657 0.2706747138 -0.3349279947 -0.1877122326 0.236194668
425297450.0 -0.1784924844 0.2308141755 0.2669244602 -0.3372852706 0.2668970841 -0.3374262739 -0.1856143115 0.2375140893
430297420.0 -0.176265293 0.2328792205 0.2631430067 -0.3407528085 0.2634779174 -0.3400946738 -0.182969558 0.2401347721
435297390.0 -0.1740752052 0.2346624965 0.2592011959 -0.3437386733 0.2592364511 -0.3432788292 -0.1808283481 0.2423412645
440297360.0 -0.171499009 0.2363016519 0.2550586346 -0.3462626665 0.2555405606 -0.3461969143 -0.1781074215 0.2443821291
445297330.0 -0.1693586795 0.2380413029 0.251607707 -0.3485067328 0.2519186238 -0.3491200191 -0.1752307818 0.2462861909
450297300.0 -0.166523212 0.2401376996 0.2477062517 -0.351683149 0.2481819811 -0.3516461323 -0.1727361139 0.2485362321
455297270.0 -0.164504898 0.2419638797 0.2441435366 -0.3537915757 0.2443814736 -0.354628571 -0.1702251481 0.2505977989
460297240.0 -0.1614751283 0.2440079576 0.2402459059 -0.3573314987 0.2399692829 -0.3573110657 -0.1675179962 0.2522191052
465297210.0 -0.1590900988 0.245736616 0.2359407653 -0.3597585134 0.2358436061 -0.3602295745 -0.1647452864 0.254716803
470297180.0 -0.1565326205 0.247581512 0.232200774 -0.3619499114 0.2322997045 -0.3623231033 -0.1621658826 0.2565202073
475297150.0 -0.1541325388 0.2497151395 0.2282433656 -0.3646999197 0.2282596894 -0.3647018812 -0.1592329055 0.2581049248
480297120.0 -0.1510064514 0.2511317133 0.2240382067 -0.3669807642 0.2245133796 -0.3670604595 -0.1574402998 0.2600494397
485297090.0 -0.1486274635 0.2528857797 0.2201118604 -0.3695311029 0.2200400659 -0.3695145183 -0.154210131 0.2621202773
490297060.0 -0.1452907351 0.254558092 0.2158200484 -0.3719086156 0.2158385542 -0.3720429312 -0.1512959979 0.2631577148
495297030.0 -0.1432613524 0.2561602661 0.2124150989 -0.3743468096 0.2116039231 -0.3742931704 -0.1482457353 0.2649072361
500297000.0 -0.1404823056 0.2578994305 0.2081359345 -0.3763781898 0.2076176229 -0.376721136 -0.145499145 0.266959832
505296970.0 -0.1374230615 0.2594293742 0.2034227015 -0.3789320457 0.2036448697 -0.3787261728 -0.1429634702 0.2686563706
510296940.0 -0.1342559262 0.2611368745 0.1995989745 -0.381184702 0.199716362 -0.3811683113 -0.139626739 0.2704462016
515296910.0 -0.13207841 0.2627833984 0.1951777722 -0.383210922 0.1949238831 -0.3828395388 -0.1370732308 0.2718746062
520296880.0 -0.1288739654 0.2639504811 0.1908808172 -0.3852463483 0.1908625616 -0.3850843389 -0.1340279735 0.2739103564
525296850.0 -0.1259722832 0.265333357 0.1865874758 -0.3873190198 0.186379035 -0.3870463867 -0.1310387767 0.2749275959
530296820.0 -0.123571856 0.2667454804 0.1821455297 -0.3888692569 0.1822435161 -0.3888242847 -0.1282915226 0.2762068365
535296790.0 -0.1198327341 0.2683524915 0.1779554984 -0.3910079544 0.1783147334 -0.391258255 -0.1252344768 0.2783517799
540296760.0 -0.1173290517 0.2699404424 0.1741285396 -0.3931445146 0.1734526218 -0.393170042 -0.1222316655 0.2793471783
545296730.0 -0.1149030688 0.2717801087 0.1697988176 -0.3947463611 0.1692359923 -0.3944559055 -0.1192931685 0.2808158735
550296700.0 -0.1110823429 0.2730533074 0.1647646786 -0.3968476131 0.1651992805 -0.3969995447 -0.1166130096 0.2823987732
555296670.0 -0.1081639013 0.2742958356 0.1608435549 -0.3987470713 0.1610263826 -0.3980843357 -0.1138691273 0.283364573
560296640.0 -0.1051159773 0.2754806283 0.1560544263 -0.4000377203 0.1566191071 -0.4002029798 -0.1106863503 0.284949958
565296610.0 -0.1025950132 0.2767982083 0.1520732682 -0.4015876424 0.1522162896 -0.4012893041 -0.1074235533 0.2864310698
570296580.0 -0.0993132712 0.2786019928 0.1474121467 -0.4031376758 0.1475434189 -0.4032686548 -0.1046082116 0.287224722
575296550.0 -0.0959240752 0.2792210993 0.1433846885 -0.4048401455 0.1431142534 -0.4048057519 -0.1012923281 0.2885594654
580296520.0 -0.0933134009 0.2804342869 0.1388461888 -0.405924581 0.1385236694 -0.4060823753 -0.098235824 0.2895629423
585296490.0 -0.0901748698 0.2817493927 0.1346420554 -0.407648082 0.1339924559 -0.4079245769 -0.0952081729 0.2912173096
590296460.0 -0.0864529297 0.2830801493 0.1297715786 -0.4095778658 0.1300008642 -0.4093077398 -0.0924775202 0.2920643839
595296430.0 -0.0837709128 0.2840052341 0.1250764674 -0.4104776137 0.124998794 -0.410451545 -0.0893602898 0.2929532652
600296400.0 -0.0806925268 0.285191555 0.1204698567 -0.4118461513 0.1206835828 -0.4119849208 -0.0861117105 0.2942243779
605296370.0 -0.0779269858 0.2863087149 0.1168472856 -0.4126884036 0.1160165718 -0.4133802232 -0.0827973801 0.2955731586
610296340.0 -0.0742881893 0.2874625225 0.1119621547 -0.4136134835 0.1123486697 -0.4139050271 -0.0803325855 0.2964957273
615296310.0 -0.071360016 0.2885460597 0.1070961183 -0.415627974 0.1070647133 -0.4153541043 -0.0767850314 0.2971731186
620296280.0 -0.0685529328 0.2898910116 0.102865033 -0.4162376258 0.1027892069 -0.4164671077 -0.0737864795 0.2985325047
625296250.0 -0.0655176995 0.2906654111 0.0979769542 -0.4174907308 0.0982142109 -0.4178041 -0.0707838644 0.2994030213
630296220.0 -0.0622140413 0.2916136431 0.0936337499 -0.4188101464 0.0934705728 -0.4183076607 -0.0676347916 0.3001075731
635296190.0 -0.0593002426 0.2924857487 0.0894303955 -0.419088409 0.0890078289 -0.4193970706 -0.0642492627 0.3008967058
640296160.0 -0.0559960856 0.2933031851 0.0846125226 -0.42050571 0.0843698647 -0.4204170032 -0.0611395931 0.3016919089
645296130.0 -0.052469073 0.2944671403 0.0799570295 -0.4212425872 0.0799259054 -0.4208021636 -0.0581223359 0.3022388385
650296100.0 -0.0495687062 0.2948015997 0.0754057136 -0.4217870561 0.0749817331 -0.4223324842 -0.0542672151 0.3032750063
655296070.0 -0.0467345228 0.2956685129 0.0706152107 -0.422611309 0.0706559665 -0.4226117036 -0.051926641 0.3042271447
660296040.0 -0.0433365655 0.2966651393 0.0662669027 -0.4234014281 0.0661977369 -0.4232158951 -0.0479568801 0.3044517802
665296010.0 -0.0406531252 0.2973809951 0.0617505445 -0.4240418876 0.0613813482 -0.4241485498 -0.0452659439 0.3050301298
670295980.0 -0.0371669663 0.2979803931 0.0566661447 -0.4247192396 0.0568855469 -0.4242476974 -0.0422926088 0.305570649
675295950.0 -0.0340114463 0.2985866165 0.0522787096 -0.4250927689 0.0524399949 -0.4253204566 -0.038637011 0.3065410025
680295920.0 -0.0312530639 0.2997495546 0.0482113646 -0.4256670142 0.0477200646 -0.4256044247 -0.035562339 0.3068358687
685295890.0 -0.0276524384 0.3002782428 0.0430534403 -0.4263474297 0.0430379463 -0.4260856378 -0.032310864 0.3075473829
690295860.0 -0.0249566385 0.3006267179 0.0388705551 -0.4263132561 0.038369605 -0.4267394982 -0.0291322365 0.3079184699
695295830.0 -0.0214381599 0.3011650172 0.0340324212 -0.4269475833 0.0336902107 -0.4269386116 -0.0261048735 0.3085868206
700295800.0 -0.018052347 0.3020056145 0.029534045 -0.4274396613 0.0290317781 -0.4274391848 -0.0225074426 0.308861349
705295770.0 -0.0151692139 0.302367472 0.024369831 -0.4274763085 0.0245257832 -0.4274722816 -0.0193642494 0.3091796036
710295740.0 -0.0126554642 0.3024448237 0.0202730771 -0.4276620905 0.0197821087 -0.4279848852 -0.0159009174 0.3095508165
715295710.0 -0.009126219 0.3031718063 0.0155734817 -0.4283517774 0.0154459376 -0.4278528527 -0.0128478395 0.3096367938
720295680.0 -0.0057747775 0.3031547446 0.010711176 -0.427680107 0.0107612521 -0.4280736189 -0.0095479454 0.3099901271
725295650.0 -0.0030958576 0.3036604552 0.0067220333 -0.4279153078 0.0063329992 -0.4282349705 -0.0064725552 0.3105291555
730295620.0 -0.0001192406 0.3040202828 0.0017246656 -0.427704169 0.0015574121 -0.427577865 -0.0032278821 0.3108240152
735295590.0 0.0031431565 0.3043943141 -0.0030561419 -0.4280363835 -0.0030469271 -0.4280586587 8.75667e-05 0.3104517043
740295560.0 0.0060695467 0.3040756676 -0.0075688075 -0.4277099293 -0.0075715894 -0.4280550636 0.0034947899 0.3111288314
745295530.0 0.0092420211 0.3044659042 -0.0119132521 -0.4271177579 -0.0115760357 -0.4279927258 0.0061496525 0.3109811325
750295500.0 0.0119884959 0.3047290724 -0.0161184441 -0.4276097335 -0.0170082812 -0.4274161792 0.0094995454 0.3109928508
755295470.0 0.0153302418 0.3047938249 -0.0211209629 -0.4275410282 -0.0214461072 -0.4278933535 0.0127749765 0.311626451
760295440.0 0.0181584767 0.3054366239 -0.026149675 -0.427052222 -0.0259407205 -0.4266206421 0.016351171 0.3105952513
765295410.0 0.0215308119 0.3048610099 -0.030833988 -0.4265283538 -0.030311037 -0.426827417 0.0195109721 0.3108823181
770295380.0 0.0242975364 0.3052548361 -0.0347828888 -0.4259260136 -0.0348858556 -0.4266589385 0.0223928616 0.3109618878
775295350.0 0.0273902023 0.3047773466 -0.0395241492 -0.4257846427 -0.0395019885 -0.4256522851 0.0261306555 0.3111737851
780295320.0 0.0306777959 0.3052444659 -0.0438598882 -0.4251615922 -0.0441886331 -0.4252562587 0.0292694873 0.3107108755
785295290.0 0.033690432 0.3047122813 -0.0488516794 -0.4247872093 -0.0486583693 -0.4250362767 0.0322473939 0.3107392779
790295260.0 0.0366459607 0.3044492813 -0.0531680522 -0.4244087023 -0.0532974182 -0.4247121321 0.0356724385 0.3108334088
795295230.0 0.039460476 0.3041549763 -0.057594883 -0.4233417567 -0.05805638 -0.4238957442 0.0391412439 0.3099733761
800295200.0 0.0425478666 0.304473939 -0.0620921988 -0.4226658639 -0.0625092887 -0.4231815912 0.0418150892 0.3099960057
805295170.0 0.0454838464 0.3041809372 -0.0666877996 -0.4221676854 -0.0668957719 -0.4225876798 0.0455725707 0.3094035754
810295140.0 0.0491572088 0.3040414275 -0.0712616444 -0.4215810073 -0.0714795003 -0.4215436042 0.0491001015 0.3090658317
815295110.0 0.0515470624 0.3036017045 -0.0758139056 -0.4206164009 -0.0756221034 -0.42099901 0.0517538702 0.3087515922
820295080.0 0.0548275382 0.3032342092 -0.0801202734 -0.4197769865 -0.0804712551 -0.4199323692 0.0546312676 0.3089599745
825295050.0 0.0579367412 0.3025119309 -0.0850805056 -0.4190758929 -0.0851994174 -0.4192507009 0.0584369179 0.3085875316
830295020.0 0.0607859237 0.302182952 -0.089414193 -0.4177729123 -0.0896512095 -0.4182413567 0.0614078295 0.3073810601
