!Created with skrf (http://scikit-rf.org).
# Hz S RI R 50.0 
!freq ReS11 ImS11 ReS21 ImS21 ReS12 ImS12 ReS22 ImS22
300000.0 -0.0945804798 -0.1000206669 0.6231355231 0.0926166999 0.6213075768 0.0935053332 -0.0969082578 -0.1061580638
5299970.0 -0.1014035922 0.0114752464 0.6305065548 0.0110425099 0.6305928611 0.0109430662 -0.1015569931 0.0111489458
10299940.0 -0.0965467976 0.0288196541 0.6342408844 0.0164165474 0.6340073931 0.0165142345 -0.0963538802 0.0286591756
15299910.0 -0.0891865328 0.0423693988 0.6408952893 0.0213666487 0.6409278371 0.0213027548 -0.0894805337 0.0416315673
20299880.0 -0.0804209523 0.0537033766 0.6489180984 0.0241614417 0.6492113197 0.0244809826 -0.0810471639 0.0531189056
25299850.0 -0.0703490512 0.0625265192 0.658398777 0.0260708955 0.6583460878 0.0258538388 -0.0715943605 0.0619160343
30299820.0 -0.0609081537 0.0690500279 0.6683490272 0.0247866931 0.6678027043 0.0243626751 -0.061788683 0.0685934773
35299790.0 -0.0503217301 0.073338621 0.6770667256 0.0221833151 0.6768655438 0.0217438125 -0.0523584052 0.0734077615
40299760.0 -0.0413547965 0.0764216046 0.6868096984 0.0176631244 0.68650118 0.017607073 -0.0426139681 0.0767890574
45299730.0 -0.031896399 0.0783978588 0.6957882064 0.0126340367 0.6963003552 0.0123430371 -0.0329312347 0.0791716953
50299700.0 -0.0229038703 0.0789087418 0.7035058299 0.0054167413 0.7035520383 0.0050234062 -0.0243373271 0.0801728781
55299670.0 -0.0152207573 0.0789826869 0.7112155584 -0.0021841925 0.7110244027 -0.0026118735 -0.0172370464 0.0804945616
60299640.0 -0.0074580164 0.0787108819 0.7178815169 -0.0109393975 0.7178585822 -0.011055675 -0.0095407432 0.0794633509
65299610.0 -0.0012927464 0.0773237984 0.7243979545 -0.0202066459 0.7241031869 -0.0200931395 -0.0024827037 0.0785878129
70299580.0 0.0054001999 0.0751701623 0.7293562088 -0.028715773 0.7292016623 -0.0289633783 0.0032635386 0.0771218746
75299550.0 0.0105981718 0.073106991 0.7332298465 -0.0392392623 0.7331699707 -0.0388619772 0.0086302015 0.0752446288
80299520.0 0.0155365183 0.0715996881 0.737561176 -0.0486502385 0.7382048447 -0.0490334923 0.0136966125 0.0735426158
85299490.0 0.0199552156 0.069077077 0.7409784563 -0.0586833295 0.7413508645 -0.0583978627 0.0180383345 0.0711238874
90299460.0 0.0239978196 0.0667289473 0.7429488962 -0.068952529 0.7435761698 -0.0681270033 0.0223162935 0.0693492677
95299430.0 0.0281228009 0.064227252 0.7461881825 -0.0788721147 0.746082062 -0.0791268884 0.0259059632 0.066353
100299400.0 0.0315215281 0.0613038018 0.7480767766 -0.0887916419 0.7473653774 -0.0888188005 0.029184592 0.0646482189
105299370.0 0.0344303241 0.0591870777 0.7494125823 -0.0988256796 0.7496285992 -0.0989402469 0.0329007515 0.0613701689
110299340.0 0.0372223577 0.0565050388 0.750489829 -0.1083216319 0.7513052951 -0.1086358889 0.0350729055 0.0595412663
115299310.0 0.0395655639 0.0541827111 0.7512507165 -0.1186251941 0.7513009346 -0.1188895389 0.037269976 0.0576143149
120299280.0 0.0416873972 0.0521154511 0.7521283668 -0.1299053094 0.7515009269 -0.1291063349 0.0399642256 0.0546112614
125299250.0 0.0438183766 0.0497212945 0.752063799 -0.1391658985 0.7517887749 -0.138406865 0.042039485 0.0526580437
130299220.0 0.0455226581 0.0468734411 0.7522179535 -0.1491953177 0.7521318009 -0.1492674019 0.0439650594 0.0508246185
135299190.0 0.047018145 0.0454289788 0.75202975 -0.1586300137 0.7518028416 -0.158702642 0.0452851145 0.0478561695
140299160.0 0.0489765056 0.0430625726 0.7515236052 -0.1685432635 0.7509733183 -0.168063418 0.046053699 0.0455184382
145299130.0 0.0494308514 0.0411763788 0.75044819 -0.1779764629 0.7505026822 -0.1783897022 0.0483911106 0.0436272031
150299100.0 0.0510522593 0.0393045084 0.7495764853 -0.1877571526 0.7492192314 -0.1877913267 0.0491082649 0.0421373363
155299070.0 0.0523669923 0.03725951 0.7471695006 -0.1977117788 0.7482299954 -0.1972709127 0.0502982957 0.0397129005
160299040.0 0.0534103286 0.0354366671 0.7471049844 -0.2069531111 0.7463713926 -0.2068775348 0.0510207433 0.0380996604
165299010.0 0.0543252811 0.0332477749 0.7456352741 -0.2163463974 0.7447558272 -0.2168920442 0.0524048185 0.0356818468
170298980.0 0.055170038 0.0320154101 0.7429000676 -0.2261185249 0.7433162311 -0.2258367941 0.0528182309 0.0339842534
175298950.0 0.056073423 0.0302589714 0.7417366664 -0.2347960253 0.7420429356 -0.2355461243 0.0534120117 0.0325679776
180298920.0 0.0562368529 0.0288668812 0.7397538552 -0.2447036124 0.7390826819 -0.2445357643 0.0543003459 0.0305546244
185298890.0 0.0566500391 0.026936948 0.7377097809 -0.2534338515 0.7370401654 -0.2533304978 0.0552481284 0.0288596298
190298860.0 0.0576595328 0.0255152793 0.7346552209 -0.2629704276 0.7350434075 -0.2625835704 0.0550460769 0.0272961438
195298830.0 0.0577098361 0.0241414046 0.7329943221 -0.2719324475 0.7324784251 -0.2715512551 0.0555467956 0.0259735581
200298800.0 0.0586168058 0.0222623799 0.7297626458 -0.281015696 0.7296132322 -0.2809876679 0.0562420411 0.0237606304
205298770.0 0.0584749421 0.0207059911 0.7265291131 -0.2898494633 0.7271695115 -0.2891446114 0.0568071331 0.0226610715
210298740.0 0.058889446 0.0200379968 0.724175357 -0.2981385227 0.7240495459 -0.2986033415 0.0563627988 0.0207018814
215298710.0 0.0593464805 0.0186483191 0.7209783489 -0.3069588479 0.7207291845 -0.3070415464 0.0570916708 0.0196719213
220298680.0 0.0598127362 0.0174787713 0.7174512423 -0.315513343 0.7174303702 -0.3161214698 0.0576936342 0.0180239724
225298650.0 0.0595492151 0.0161941962 0.7141948216 -0.3241415067 0.7143048388 -0.3241165775 0.0577435253 0.0164483877
230298620.0 0.0603552969 0.0150579518 0.7115421675 -0.3331326529 0.7111012959 -0.3329660204 0.0573185543 0.0150148333
235298590.0 0.0597737071 0.0137145242 0.7079324991 -0.3420341757 0.7077021043 -0.3414941488 0.057986026 0.0141591453
240298560.0 0.0604465753 0.012865026 0.7043735479 -0.349342908 0.7037567654 -0.349468523 0.0575585144 0.012711229
245298530.0 0.0601920365 0.0111930349 0.7002758247 -0.3580925975 0.7002197764 -0.3579427685 0.0577690427 0.0117804007
250298500.0 0.0602314775 0.010264108 0.6971081631 -0.3658509469 0.6966626721 -0.3658564165 0.0577868535 0.0106798391
255298470.0 0.0605459209 0.0097042879 0.6926871922 -0.3739011711 0.6933013023 -0.3744324883 0.0578429334 0.0096558783
260298440.0 0.0606453721 0.0080554748 0.6890204829 -0.3818907626 0.6890335797 -0.3824457961 0.0577504054 0.0079831426
265298410.0 0.0599447861 0.0072444982 0.6844560184 -0.3909392816 0.6844143806 -0.3910161425 0.0587024629 0.0066877331
270298380.0 0.0598218672 0.0061758235 0.6801039444 -0.3983293734 0.6805539926 -0.3983244268 0.0583904579 0.0059399664
275298350.0 0.0606106522 0.0055762852 0.675672619 -0.4063104079 0.6755397784 -0.4063748272 0.0577468872 0.0049839672
280298320.0 0.0597013578 0.0042928319 0.6720224624 -0.4135639336 0.6719655252 -0.414281531 0.058255925 0.0036542016
285298290.0 0.0597259506 0.0035350869 0.6672042398 -0.4219264333 0.6673911483 -0.4216818458 0.0579828515 0.0025970029
290298260.0 0.0599077044 0.0025523606 0.6633278162 -0.4293970786 0.6631941324 -0.4298959957 0.0583987227 0.0018158563
295298230.0 0.0597676991 0.0013213692 0.6586028723 -0.4379201166 0.6582806813 -0.4379888562 0.0581122051 0.0003263912
300298200.0 0.0602894146 0.0008786186 0.6542467871 -0.4452615863 0.6534338321 -0.4449035236 0.0576165593 -0.0008313477
305298170.0 0.0601703356 -0.000811313 0.6492003992 -0.4532717477 0.6492472459 -0.4532215185 0.057580961 -0.0024254227
310298140.0 0.0603215077 -0.0018234483 0.6442562044 -0.4600042571 0.6443688088 -0.4602187176 0.0581293218 -0.003679967
315298110.0 0.0595367168 -0.003133558 0.6394616716 -0.4685406381 0.6387917108 -0.4683091778 0.0576704683 -0.0045448709
320298080.0 0.0595258932 -0.0038760909 0.6334113162 -0.4755005254 0.6342527498 -0.4760683281 0.0570228935 -0.0058940243
325298050.0 0.0585840964 -0.0050871669 0.6287661132 -0.4832921948 0.6289681699 -0.4830818705 0.0569764667 -0.0070830523
330298020.0 0.0574865467 -0.0058123987 0.6230517874 -0.4906256935 0.6231355729 -0.4909984224 0.0558607672 -0.0081289419
335297990.0 0.0574617272 -0.0067003235 0.6172875933 -0.4975165784 0.6172897483 -0.4975659568 0.0554678038 -0.0088821957
340297960.0 0.0569760876 -0.007648028 0.6110064299 -0.5048387884 0.6108800077 -0.5048749363 0.0553026236 -0.009312425
345297930.0 0.0565976659 -0.0083965401 0.6056272536 -0.5118330823 0.6056238254 -0.5121466929 0.0551750866 -0.0104554519
350297900.0 0.0556875518 -0.0091031854 0.5999547982 -0.5181048998 0.5999024645 -0.5178943233 0.0546717726 -0.0114660233
355297870.0 0.0555261445 -0.0097097382 0.5945105896 -0.5242874391 0.5940715948 -0.5245025798 0.0543288609 -0.0122167396
360297840.0 0.0551999624 -0.0103084047 0.5880817493 -0.531931332 0.5886133341 -0.532142469 0.0533854961 -0.0123934056
365297810.0 0.0545201361 -0.0108894247 0.5824650547 -0.5380740945 0.5821528126 -0.5381679278 0.0529246018 -0.0134939916
370297780.0 0.0547426689 -0.0113324391 0.5762097957 -0.5447019948 0.5760745949 -0.5445126335 0.0529945478 -0.0140544587
375297750.0 0.0542133163 -0.0121950134 0.5701813761 -0.5508525198 0.5701062175 -0.5508533567 0.0527793726 -0.0147592365
380297720.0 0.0533122513 -0.0126312026 0.564596928 -0.5578137078 0.5641429511 -0.5575909464 0.0523398737 -0.0150215851
385297690.0 0.0530453058 -0.0136888715 0.5584268497 -0.5637616842 0.5580913677 -0.5643311341 0.0519700022 -0.0157118066
390297660.0 0.0529305333 -0.0142535054 0.5521609128 -0.569579663 0.5519818664 -0.5701513904 0.0521396881 -0.0166652036
395297630.0 0.053168875 -0.0150905571 0.5460834727 -0.5754009112 0.5453503785 -0.575795777 0.0516029848 -0.0170549893
400297600.0 0.0520077729 -0.0155592712 0.5396050348 -0.5819024745 0.5399503158 -0.5815935608 0.0514599228 -0.0173914608
405297570.0 0.0518193251 -0.0167773588 0.5335381813 -0.5874743576 0.5330223274 -0.5878282137 0.0507398317 -0.0179069208
410297540.0 0.0514914951 -0.0165360809 0.5264546901 -0.5936649917 0.5267140254 -0.5937583808 0.0504021983 -0.0187984875
415297510.0 0.0509200554 -0.0173836431 0.5198629884 -0.5997163688 0.5204945881 -0.5997365752 0.0504373837 -0.0192584646
420297480.0 0.0507180922 -0.0185055932 0.5131785201 -0.6057059878 0.5134392786 -0.6053682676 0.0502820576 -0.019505649
425297450.0 0.05100903 -0.0187213168 0.5070798146 -0.6109524729 0.5065891805 -0.6111076716 0.0496655135 -0.0208098406
430297420.0 0.0496111875 -0.019072049 0.500286517 -0.6165627343 0.50066409 -0.6162603347 0.0500960055 -0.0211115005
435297390.0 0.0497170868 -0.0204342181 0.4932673809 -0.6225321763 0.492842195 -0.6221427585 0.0488340645 -0.0214492451
440297360.0 0.0496174769 -0.0208968403 0.4860249274 -0.6282059505 0.485732219 -0.6278357688 0.0487435921 -0.0217617956
445297330.0 0.04947805 -0.0218739865 0.4797211493 -0.6327781944 0.4792211677 -0.6330864587 0.0484284505 -0.0223402434
450297300.0 0.0487780501 -0.0221815094 0.472736662 -0.6376852824 0.4730625573 -0.637812522 0.0478312783 -0.0229856541
455297270.0 0.0478717104 -0.0229052228 0.4661962776 -0.6431480131 0.466197349 -0.6436211288 0.0476878296 -0.0234345314
460297240.0 0.0482014679 -0.0233708154 0.4583547271 -0.6493016261 0.4584400464 -0.6487933292 0.0471823824 -0.0243506553
465297210.0 0.0473831324 -0.0241459876 0.4509224787 -0.6537971149 0.4504694801 -0.6540489296 0.0476810534 -0.0241187264
470297180.0 0.0474291499 -0.0249332642 0.444313518 -0.6588444369 0.4444007788 -0.6586539398 0.0470809685 -0.0253957313
475297150.0 0.0465612178 -0.0248182665 0.4368717955 -0.6636611572 0.4370881313 -0.6637869511 0.0464418947 -0.0258712555
480297120.0 0.0466738365 -0.0250892151 0.4293726042 -0.6681069683 0.4297586292 -0.6683234916 0.0457432629 -0.0261582002
485297090.0 0.0461939478 -0.0268117628 0.4221220239 -0.6733664066 0.4222326908 -0.6729757682 0.0456703822 -0.0267246535
490297060.0 0.0462929311 -0.0265763014 0.4142189438 -0.6777244917 0.4146209733 -0.678083457 0.0450838068 -0.0273723809
495297030.0 0.0450480452 -0.0276727637 0.4074528924 -0.6827564952 0.4071033373 -0.6825687821 0.0455786185 -0.0279479382
500297000.0 0.0446402418 -0.0276537472 0.399999858 -0.6866303282 0.4001218436 -0.6868513232 0.0447593177 -0.0278951323
505296970.0 0.0450010326 -0.0282005787 0.3925524248 -0.6909933482 0.3924270288 -0.6910278955 0.0441299562 -0.0291800732
510296940.0 0.0442740357 -0.0290748634 0.3852286761 -0.6966365916 0.3852237718 -0.6962374833 0.0442574514 -0.0292575412
515296910.0 0.0436165296 -0.0287644896 0.3769580983 -0.6996743826 0.376488477 -0.7000301171 0.0436775073 -0.0303879694
520296880.0 0.04332147 -0.0295890591 0.3693518453 -0.703760399 0.3692080467 -0.7038406537 0.043708165 -0.0298175459
525296850.0 0.0431799329 -0.030420365 0.3615914788 -0.7073722206 0.3612163973 -0.7078099973 0.0435633206 -0.0304529457
530296820.0 0.0425770265 -0.0310522053 0.3536669223 -0.7124495689 0.353985358 -0.7120791504 0.0430510115 -0.0315233708
535296790.0 0.0429576365 -0.0311769628 0.3461445743 -0.7159945939 0.3465708611 -0.7156746874 0.0427928918 -0.0315066297
540296760.0 0.0420256916 -0.031317381 0.3380158917 -0.719729629 0.3375492596 -0.7196945346 0.0424564054 -0.0323678358
545296730.0 0.0409665368 -0.0318532372 0.3303144463 -0.7229912682 0.330217815 -0.7223756167 0.0419565283 -0.0326650713
550296700.0 0.0415149652 -0.0321596864 0.3220517053 -0.7264562638 0.3219776137 -0.7272561924 0.0416036671 -0.0329537757
555296670.0 0.0404645882 -0.0326264802 0.3141975678 -0.7305238675 0.3142641922 -0.7302195418 0.0407642373 -0.0340482914
560296640.0 0.0409879454 -0.0329514166 0.3061444764 -0.7337093194 0.3068772963 -0.7334701261 0.0404943454 -0.0338713203
565296610.0 0.0397306251 -0.0333872696 0.2984437794 -0.7374453402 0.2984009492 -0.7364259716 0.040351337 -0.0343089661
570296580.0 0.0391415219 -0.0337155944 0.2899189651 -0.7404925538 0.2900904471 -0.7404221473 0.0395017042 -0.0350479444
575296550.0 0.039160576 -0.0341666301 0.2825891318 -0.7431956249 0.2825679103 -0.743329952 0.0390632625 -0.0353278286
580296520.0 0.0387806658 -0.0343920516 0.2744836644 -0.7470714368 0.2740068015 -0.7466316076 0.0382339036 -0.0357973621
585296490.0 0.0379527789 -0.0345772821 0.2661084332 -0.7491192127 0.2656060528 -0.7492073785 0.0384668116 -0.0360228504
590296460.0 0.0386049522 -0.0349586061 0.2580524197 -0.7520789698 0.2575995603 -0.752438224 0.0375625539 -0.0358897078
595296430.0 0.0376912783 -0.0352751958 0.2487216388 -0.7548246295 0.249082288 -0.7548482974 0.0371652691 -0.0370695247
600296400.0 0.0376266828 -0.0355827028 0.2403125896 -0.7577453182 0.2408176261 -0.75752088 0.0370768942 -0.0373489085
605296370.0 0.0361464683 -0.0356983337 0.2332976127 -0.7602893692 0.2322105828 -0.7605568334 0.03620839 -0.037489245
610296340.0 0.0363719954 -0.0358041613 0.224817276 -0.7621834777 0.2248236982 -0.7623809337 0.0354186508 -0.0377910148
615296310.0 0.036097711 -0.0361838694 0.2162485846 -0.7655728323 0.2154209923 -0.765306272 0.035414138 -0.0381180601
620296280.0 0.0350934327 -0.0362172788 0.2072494483 -0.7673858473 0.2074984476 -0.767297042 0.0346633027 -0.0383003845
625296250.0 0.0346316673 -0.0367986781 0.1988720734 -0.770081311 0.1991044735 -0.7698614352 0.0335074747 -0.0389805119
630296220.0 0.0342314296 -0.036483371 0.1904895477 -0.7720040704 0.1906930392 -0.7713776185 0.0334723586 -0.0390862667
635296190.0 0.0332918484 -0.0367527763 0.182330937 -0.7740220327 0.1823594122 -0.7732712556 0.0330721135 -0.0396584686
640296160.0 0.0328276444 -0.0370756197 0.1737706074 -0.7763520899 0.1738560119 -0.7761511109 0.0319820121 -0.0400675299
645296130.0 0.0327148273 -0.036797505 0.1648396498 -0.7778858672 0.1652197272 -0.7778235941 0.031332506 -0.0406435045
650296100.0 0.0319970425 -0.0375403523 0.1571541548 -0.7800857289 0.1570074535 -0.7797306083 0.0317685586 -0.0405504335
655296070.0 0.0316390514 -0.0374134535 0.147607516 -0.7815830931 0.1484304701 -0.7808741084 0.0306287851 -0.0406963196
660296040.0 0.031116991 -0.0371542208 0.1398089079 -0.7827594232 0.1397515435 -0.7831210073 0.0297019279 -0.041331263
665296010.0 0.0306488307 -0.0379201689 0.1307441864 -0.7832727931 0.1312885274 -0.7842735456 0.02923729 -0.0411862712
670295980.0 0.0300391291 -0.0376843467 0.122440153 -0.7858535756 0.1224943467 -0.7851084753 0.028264279 -0.0419637132
675295950.0 0.0294943943 -0.0381498572 0.1140556643 -0.7865652739 0.1142020235 -0.7865130268 0.0277517118 -0.0416393143
680295920.0 0.0286968467 -0.0379863215 0.1055912244 -0.788161985 0.1058523724 -0.7876028045 0.027760731 -0.0425005064
685295890.0 0.0286010704 -0.0379238697 0.0966023081 -0.7894611775 0.0969541269 -0.7889307786 0.026969307 -0.041887393
690295860.0 0.0273316502 -0.0378537706 0.0882733834 -0.7899345624 0.0881632269 -0.7903118252 0.0261396332 -0.0426564435
695295830.0 0.027112627 -0.0384251707 0.0796558661 -0.7911075402 0.0800509171 -0.790494599 0.0258651342 -0.0423173032
700295800.0 0.0268827739 -0.0380316812 0.0717663322 -0.7919081831 0.0711135882 -0.7917242986 0.0249119532 -0.0423226993
705295770.0 0.025878244 -0.0381498959 0.062519527 -0.7931889636 0.0625480597 -0.7922074452 0.0245356574 -0.0422926049
710295740.0 0.0253654245 -0.0385434449 0.0538403386 -0.7932723093 0.0541156125 -0.7935409024 0.0240274218 -0.0423718704
715295710.0 0.0247214667 -0.0380193203 0.0453411408 -0.7935593127 0.0454701041 -0.7935578652 0.0231965559 -0.0429253964
720295680.0 0.0245539134 -0.0381693044 0.0362982317 -0.7935331216 0.0366985979 -0.7945050299 0.0226584104 -0.0432480636
725295650.0 0.0232765827 -0.0384210509 0.0281751372 -0.7943331932 0.0283571058 -0.7940708355 0.0213200567 -0.0424587807
730295620.0 0.0221882504 -0.0383902729 0.0188109169 -0.7942745042 0.0195704531 -0.7941673276 0.0207172311 -0.0424461482
735295590.0 0.0225156634 -0.0386442711 0.0111654272 -0.7957394373 0.0108595333 -0.7947354464 0.0200316296 -0.0433367959
740295560.0 0.0218596784 -0.0386820992 0.0024265222 -0.7951093841 0.0028799295 -0.7946854726 0.0190971243 -0.0424518607
745295530.0 0.0208052353 -0.038427268 -0.0065570311 -0.7944256198 -0.0054875011 -0.7944772055 0.0181285702 -0.0433126177
750295500.0 0.0202673045 -0.038088735 -0.0145901112 -0.7948810855 -0.0154361569 -0.7942594389 0.0178866189 -0.0429110838
755295470.0 0.0192216516 -0.038368163 -0.0234223229 -0.7946075566 -0.0234612471 -0.7947860958 0.0174452121 -0.0423347936
760295440.0 0.0187693694 -0.0378187344 -0.0328671114 -0.7939224638 -0.0326191304 -0.7938386836 0.0168574804 -0.043475359
765295410.0 0.0187112026 -0.0384002649 -0.0407323085 -0.7936427534 -0.0404960353 -0.7935588073 0.0162172652 -0.0432866281
770295380.0 0.0178349142 -0.0379646399 -0.0491830162 -0.792278852 -0.0491089157 -0.7934418474 0.0152694764 -0.0427389947
775295350.0 0.0172823297 -0.0384396344 -0.0581018571 -0.7929474023 -0.0579085514 -0.7918297233 0.0150232928 -0.0428738581
780295320.0 0.0163013971 -0.0378335205 -0.0665514149 -0.7914062036 -0.0664329272 -0.7917242419 0.0145305114 -0.04300115
785295290.0 0.0155888109 -0.0382692254 -0.0752484851 -0.7914710332 -0.0749445728 -0.7907173018 0.0128584229 -0.0425729008
790295260.0 0.015329569 -0.038473003 -0.0833986077 -0.790586314 -0.0831246927 -0.789973613 0.0124621425 -0.0419440431
795295230.0 0.0147153849 -0.0383497018 -0.0921601546 -0.7896355562 -0.0921627739 -0.789280049 0.012380504 -0.0430453078
800295200.0 0.0137372389 -0.0377316408 -0.1004102942 -0.7876935544 -0.1007944881 -0.7882419091 0.0114617303 -0.0426256036
805295170.0 0.012932289 -0.0379527814 -0.1094753923 -0.7872326907 -0.1085493295 -0.7870020304 0.0114116356 -0.0422509058
810295140.0 0.0129005095 -0.0378450445 -0.1178649535 -0.7853979326 -0.1176065218 -0.7857014901 0.0104045429 -0.042456895
815295110.0 0.0120560982 -0.0374515163 -0.1266706437 -0.784182626 -0.1258058642 -0.7845975932 0.0095203877 -0.042371398
820295080.0 0.0115163751 -0.0378197171 -0.1341635215 -0.7825091643 -0.1345969368 -0.7827269558 0.0078851135 -0.0412909468
825295050.0 0.0103636833 -0.0374667289 -0.1440100252 -0.7813484354 -0.1431894002 -0.7812299194 0.0086976654 -0.0412778457
830295020.0 0.0096512731 -0.0376526197 -0.1516198283 -0.7799635029 -0.1514669651 -0.7798447688 0.0075731513 -0.0421065045
