!Created with skrf (http://scikit-rf.org).
# Hz S RI R 50.0 
!freq ReS11 ImS11 ReS21 ImS21 ReS12 ImS12 ReS22 ImS22
300000.0 -0.0965235218 -0.0811184255 0.622530527 0.0770125265 0.6248334425 0.0812118023 -0.0962726309 -0.0908287281
5299970.0 -0.1003760274 0.01318741 0.631048973 0.0102478145 0.6307244147 0.0112126171 -0.1020579192 0.0120592601
10299940.0 -0.0952331537 0.0298290754 0.6342497339 0.0153599481 0.6342936684 0.0159878528 -0.0974038044 0.0292187594
15299910.0 -0.0883481071 0.0432344106 0.6402658122 0.020562085 0.6399792281 0.0207976701 -0.090115429 0.0422192577
20299880.0 -0.0792885293 0.0544214413 0.649134466 0.023992518 0.6488432066 0.0242007222 -0.0815914646 0.0533904792
25299850.0 -0.0696444217 0.0628379901 0.6579553975 0.0249861428 0.6577803961 0.0251339334 -0.0724044936 0.0619351931
30299820.0 -0.0596706868 0.0692160816 0.6683772771 0.0242826403 0.6673570456 0.024643126 -0.0626126196 0.0687897061
35299790.0 -0.0495546889 0.0742342884 0.6774844093 0.0213959161 0.6771761917 0.0216728706 -0.0526105566 0.0736329191
40299760.0 -0.0397997379 0.077046949 0.6865183194 0.017975921 0.6867824347 0.0173407406 -0.043389418 0.0769823844
45299730.0 -0.0303446848 0.0796811654 0.695872083 0.0117234658 0.6956309107 0.0120820677 -0.0340972466 0.0789081395
50299700.0 -0.0216228036 0.0797778749 0.7034628783 0.0046435341 0.7033288466 0.0046130694 -0.0253070764 0.080009466
55299670.0 -0.0141690388 0.0800574525 0.7104179224 -0.003004167 0.7109919461 -0.0030774876 -0.017855898 0.0802101266
60299640.0 -0.0067574021 0.0790000382 0.7175451699 -0.0114266496 0.7174261607 -0.0112213944 -0.0101208119 0.0796745665
65299610.0 -0.0001571586 0.0780083044 0.7235682635 -0.0195640576 0.7238369811 -0.0201387256 -0.0036377274 0.0786445649
70299580.0 0.005915232 0.0758580217 0.728614523 -0.0292171569 0.7284967991 -0.0289421054 0.0021943632 0.0770671149
75299550.0 0.0115273635 0.0743576465 0.732665904 -0.0390079994 0.7330861767 -0.0391131998 0.0082274585 0.0756983453
80299520.0 0.0162802905 0.0723335899 0.7380062179 -0.0494665204 0.737752739 -0.0489376321 0.0131463523 0.0729768395
85299490.0 0.0210801856 0.0696405493 0.7407747256 -0.0587705927 0.7404858385 -0.059020552 0.0174733888 0.07095971
90299460.0 0.0245070757 0.0671867954 0.7432726211 -0.0685669669 0.7434495681 -0.0691927623 0.0222000412 0.0690199253
95299430.0 0.0281915505 0.0653420524 0.7462258892 -0.0797005196 0.7457976234 -0.0791792204 0.0255055966 0.0664238344
100299400.0 0.0315585811 0.0626920715 0.7473123373 -0.0892384686 0.7476543202 -0.089583825 0.0285168573 0.0640746093
105299370.0 0.0348930618 0.0601526623 0.7488383514 -0.0992019878 0.7488164125 -0.0995070882 0.032005439 0.0616765609
110299340.0 0.0371118796 0.0577468746 0.7501482113 -0.109041891 0.7500759982 -0.109733272 0.0347535941 0.0591967479
115299310.0 0.0394051843 0.0550419008 0.7508681392 -0.1188798329 0.7509460197 -0.1191346359 0.0372594583 0.0562162468
120299280.0 0.0414160238 0.0524574884 0.7515010607 -0.129622417 0.7515928602 -0.1294798273 0.0389670782 0.0541715421
125299250.0 0.0434639202 0.0502337205 0.7516115736 -0.1394972088 0.751864367 -0.1397347401 0.0414930316 0.0514392419
130299220.0 0.0450301591 0.0477793008 0.7512702981 -0.1490136945 0.7515397131 -0.1493685015 0.0433251847 0.0494968595
135299190.0 0.0468742803 0.0454436119 0.7513483418 -0.158716145 0.7510246583 -0.1593033397 0.0446154931 0.0475438317
140299160.0 0.0477423942 0.0441238265 0.7506435784 -0.1689688957 0.7508677782 -0.1687879702 0.0462894865 0.0452396186
145299130.0 0.0491862874 0.0420273617 0.7503121173 -0.179106601 0.750011426 -0.178354083 0.0473503532 0.0428950376
150299100.0 0.050525347 0.0397913645 0.748608815 -0.1883180803 0.7490295886 -0.1882294546 0.0486296396 0.0407676071
155299070.0 0.0510874645 0.0384397554 0.7480036088 -0.1983041837 0.7479872477 -0.1982176887 0.0494047612 0.0390356063
160299040.0 0.0525167116 0.035989608 0.7461991968 -0.2068842827 0.7462760151 -0.2070943541 0.0507792629 0.0372719767
165299010.0 0.0528268122 0.0341493915 0.7453958829 -0.2169120648 0.745005622 -0.2169543011 0.0514232974 0.0347907775
170298980.0 0.0534339508 0.0325838122 0.7421037343 -0.2262768904 0.7426326987 -0.2263070404 0.0525986464 0.0329643695
175298950.0 0.0544968411 0.0305724739 0.7415315337 -0.2355218637 0.7410689202 -0.2356445786 0.0531495169 0.0309599136
180298920.0 0.0553392939 0.0292082058 0.7393591365 -0.2446969047 0.7391233664 -0.2445073253 0.0537221328 0.0298188217
185298890.0 0.0559835224 0.0272370575 0.7362103546 -0.2539877197 0.7366404984 -0.2537048223 0.0541875785 0.0276931041
190298860.0 0.0563136164 0.0258992802 0.7347993247 -0.2633512541 0.7348074879 -0.2632341677 0.0554385331 0.0261074092
195298830.0 0.0563263519 0.0240460109 0.7314357516 -0.2714743014 0.7317900474 -0.2721283683 0.0558405754 0.0239147441
200298800.0 0.0570764551 0.0225904914 0.7293395135 -0.2800516142 0.7292362209 -0.2804206469 0.0562801994 0.0231040874
205298770.0 0.0571877315 0.0211619845 0.7267548389 -0.2894646515 0.7262920908 -0.2899087395 0.0564223574 0.0207948099
210298740.0 0.0571543991 0.0196598456 0.7236675723 -0.2986787466 0.7238411519 -0.2989568292 0.0569861477 0.0199411381
215298710.0 0.0578293234 0.0186499314 0.720873859 -0.3069698053 0.7204144353 -0.3073100256 0.056781423 0.0183047699
220298680.0 0.0582826698 0.0170171994 0.7171263899 -0.3162859787 0.7172511717 -0.3162392923 0.0573782865 0.0173037716
225298650.0 0.0587314447 0.0159649612 0.7141082861 -0.3238760409 0.7137506164 -0.324147053 0.0576571594 0.0156796161
230298620.0 0.0579408263 0.0147269881 0.7112507128 -0.3334580615 0.7109506928 -0.3332377009 0.0576991569 0.0140192011
235298590.0 0.0585377085 0.0131780298 0.7075000388 -0.340749951 0.7073779195 -0.3420890521 0.0576623442 0.012679016
240298560.0 0.0582348481 0.0118931015 0.7035168526 -0.3494997921 0.7037435085 -0.3489466103 0.0581505261 0.0119739782
245298530.0 0.058802019 0.0111656138 0.6989222021 -0.3576740676 0.699587195 -0.3583640358 0.0581633743 0.0108199686
250298500.0 0.0582746412 0.0095634077 0.6959809122 -0.3657665609 0.6961739005 -0.3657158423 0.0586478016 0.0090525457
255298470.0 0.0580531793 0.0090133839 0.6917659071 -0.3744918702 0.6920492216 -0.3745973356 0.0586255114 0.0074651437
260298440.0 0.0583974486 0.0076196298 0.6876252716 -0.3821980653 0.6882629444 -0.3823812033 0.0594919576 0.0069251073
265298410.0 0.059034387 0.006985253 0.6838710144 -0.3911149384 0.683358456 -0.3907094834 0.0587674787 0.005304021
270298380.0 0.0591252157 0.0054819679 0.6795297664 -0.3981259332 0.6796579311 -0.3984095071 0.0587734615 0.0048653722
275298350.0 0.0583311561 0.0046089046 0.675094306 -0.4064285287 0.6755654766 -0.4067119098 0.0587622207 0.0033602026
280298320.0 0.0587191625 0.0037653707 0.6710158193 -0.413972615 0.6710508468 -0.4144479285 0.0593507487 0.0026838877
285298290.0 0.0588680505 0.0028385499 0.6662718945 -0.4220278569 0.6662038565 -0.4218969148 0.0586229909 0.0014262956
290298260.0 0.0587728735 0.0016750722 0.6618325573 -0.4298201025 0.6621718827 -0.4296308718 0.0593834657 0.0005559863
295298230.0 0.0587642341 0.0004962467 0.657741672 -0.4376594142 0.6571128854 -0.437799742 0.0597419682 -0.0005568292
300298200.0 0.0591471699 -0.0001760886 0.6532487429 -0.4451014384 0.6527480081 -0.4452471734 0.0591854629 -0.0014588363
305298170.0 0.0589103047 -0.0014134922 0.6479032596 -0.4531141119 0.6485281304 -0.4530414529 0.0596342441 -0.0023400507
310298140.0 0.0594806866 -0.0025145612 0.643537743 -0.4605149273 0.6436133404 -0.4612490469 0.0597079728 -0.0030873985
315298110.0 0.0584949908 -0.0037502424 0.6378906392 -0.467923991 0.6384456508 -0.4684109465 0.0596074034 -0.0046445147
320298080.0 0.0586608991 -0.00450532 0.6328282797 -0.4757555147 0.6330709862 -0.4759785675 0.0592893258 -0.0062354782
325298050.0 0.0579233776 -0.0057481232 0.6282253211 -0.4838076962 0.6281248852 -0.483533329 0.0590156951 -0.0069344375
330298020.0 0.0577240329 -0.006620546 0.6214221483 -0.4908396868 0.6219050668 -0.4907291483 0.0582822981 -0.0082751855
335297990.0 0.0575794425 -0.0079504857 0.6164633185 -0.4975727627 0.6165138683 -0.4980856933 0.0581021081 -0.0092146248
340297960.0 0.0564708017 -0.0080437485 0.6100732956 -0.504670382 0.6109627923 -0.5045996489 0.0574226425 -0.0095563974
345297930.0 0.0562738353 -0.0088394473 0.604675801 -0.511096601 0.6044231019 -0.5114097962 0.0573260906 -0.0110139489
350297900.0 0.0563166486 -0.0095960937 0.598191424 -0.5180729023 0.5988403928 -0.5179614617 0.056445971 -0.0109092593
355297870.0 0.0559152436 -0.0104546187 0.5927336864 -0.5249473158 0.5931300063 -0.5249283622 0.0561100852 -0.0115407113
360297840.0 0.0559889102 -0.0107203714 0.5875868741 -0.5315871302 0.5868948326 -0.5320472807 0.0563438427 -0.012234597
365297810.0 0.0555647254 -0.0118590552 0.5810443163 -0.5381630809 0.5813122834 -0.5381525064 0.0557118601 -0.0127993949
370297780.0 0.0555088792 -0.0123545831 0.5755293175 -0.5446781435 0.5752436662 -0.545032298 0.0560619044 -0.0130553124
375297750.0 0.0550495897 -0.0125091883 0.5699029312 -0.5514367418 0.5694516741 -0.5516918205 0.055429706 -0.0137974865
380297720.0 0.0550293331 -0.0139449342 0.5631768563 -0.5570164165 0.5633039566 -0.5574088533 0.0553159756 -0.0146197249
385297690.0 0.0549144643 -0.0141616813 0.5571934344 -0.5628843973 0.5568209607 -0.5638027597 0.0548255801 -0.0149461255
390297660.0 0.0540972092 -0.0150081872 0.5504970876 -0.5697930033 0.551062006 -0.5704779986 0.0550005565 -0.0160302411
395297630.0 0.0546263192 -0.0160806071 0.5446750095 -0.5757294538 0.5448153613 -0.576475272 0.0543861446 -0.0159248839
400297600.0 0.0536881029 -0.0161573615 0.5386285034 -0.582016461 0.5390411336 -0.5822766974 0.0532096758 -0.0172756602
405297570.0 0.0536772119 -0.0167116285 0.5319203991 -0.5880126133 0.5317815588 -0.5880730909 0.0536114829 -0.0170891282
410297540.0 0.0536356035 -0.0175807586 0.5240846134 -0.59384703 0.5248594061 -0.594070759 0.0532313735 -0.018000575
415297510.0 0.053032282 -0.017441145 0.5187509915 -0.5989292296 0.5188687207 -0.6001782002 0.0529938781 -0.0180908007
420297480.0 0.0528176545 -0.0191727598 0.5119274212 -0.6060786319 0.5122910625 -0.6053761701 0.052884481 -0.0192595657
425297450.0 0.0532929762 -0.019701001 0.5055815795 -0.6112544226 0.5057036756 -0.6106899853 0.0521707925 -0.0190196519
430297420.0 0.0523130269 -0.0196876102 0.4990399317 -0.6173160452 0.4991955567 -0.6170625329 0.0515391571 -0.0204771229
435297390.0 0.0523972079 -0.0207907978 0.4921306215 -0.6217719077 0.4921222275 -0.622206749 0.0511123768 -0.0201282915
440297360.0 0.0521582091 -0.0216312663 0.4847491553 -0.6279890499 0.4844326402 -0.628528656 0.0508727845 -0.0214539285
445297330.0 0.052211974 -0.0221390858 0.4781482093 -0.6337410294 0.4780502245 -0.6335022639 0.0507017565 -0.0219181518
450297300.0 0.0516440105 -0.0224634528 0.4711348309 -0.6381353511 0.4711559409 -0.6388868084 0.0502146361 -0.0220711725
455297270.0 0.05081883 -0.0232333638 0.4642299974 -0.6440191304 0.464503713 -0.6437089813 0.0503297589 -0.0228029015
460297240.0 0.0504271967 -0.0239166711 0.4570412725 -0.6480097674 0.4565162387 -0.6488080071 0.0494472578 -0.0226479264
465297210.0 0.0504409305 -0.0246964541 0.4495827788 -0.6542700569 0.4503476186 -0.6543866306 0.0488962793 -0.0242253741
470297180.0 0.0497834667 -0.0254310369 0.443229609 -0.6587773479 0.4430984502 -0.6594729396 0.0479932244 -0.0243383762
475297150.0 0.0494196531 -0.0265555068 0.4352522115 -0.6636759513 0.4359339768 -0.6631915248 0.0483732119 -0.0248497489
480297120.0 0.0494984152 -0.0269318307 0.4284083514 -0.6682012594 0.4284705469 -0.6683530963 0.0477434635 -0.0247014999
485297090.0 0.049117705 -0.0276331046 0.4214770947 -0.6728119431 0.421144609 -0.6733473157 0.046739384 -0.0260787961
490297060.0 0.0487301434 -0.0281362479 0.4133378433 -0.6776145133 0.4134425124 -0.6778168829 0.0471804747 -0.0258219001
495297030.0 0.0479598656 -0.0281275955 0.4056403465 -0.6822434919 0.4055515203 -0.6826837227 0.0464707627 -0.0266669215
500297000.0 0.0478069922 -0.029356019 0.398506176 -0.6864524099 0.3985879205 -0.686973631 0.04534349 -0.0267638862
505296970.0 0.0468732678 -0.0297480825 0.390336452 -0.6908355015 0.3906223867 -0.6908370467 0.0447115387 -0.0273735777
510296940.0 0.0468536097 -0.0300629224 0.3834827404 -0.6955887898 0.3834311795 -0.6951276902 0.0453372933 -0.0270090016
515296910.0 0.0460600306 -0.0304766577 0.3752594148 -0.6992242832 0.375513741 -0.6992073839 0.0442223036 -0.0281973018
520296880.0 0.0457022141 -0.0313905183 0.3679711062 -0.7029909415 0.3677403342 -0.7039210602 0.0443210371 -0.0285743198
525296850.0 0.0454670588 -0.0322160755 0.3602400009 -0.7074371791 0.3599408924 -0.7076087098 0.0442160266 -0.02872598
530296820.0 0.04490583 -0.0324247409 0.3524835839 -0.711062243 0.3523633023 -0.7115725589 0.0426752449 -0.0301205451
535296790.0 0.0441326173 -0.0330492101 0.3441216593 -0.7149453701 0.345186268 -0.7152401183 0.0426040206 -0.0304974105
540296760.0 0.0439245174 -0.0339174659 0.3368158496 -0.7194264108 0.3360726175 -0.7193731055 0.0415932638 -0.0298948461
545296730.0 0.0432097237 -0.0336485603 0.3285244399 -0.7226775373 0.3287705883 -0.7230707338 0.0411779757 -0.0309070734
550296700.0 0.0424801124 -0.034610865 0.3214725671 -0.7262928439 0.3215835266 -0.7263731537 0.0406446982 -0.0304549532
555296670.0 0.0424185119 -0.0352718536 0.3133311641 -0.7301856864 0.3133112942 -0.7296542508 0.0401426331 -0.0309369158
560296640.0 0.0417480035 -0.0357296596 0.3055974793 -0.7328224849 0.3051778169 -0.7327540903 0.0397526923 -0.031304354
565296610.0 0.0405824573 -0.036200598 0.296770863 -0.7367956517 0.2969222492 -0.7364764274 0.0387708743 -0.0323418012
570296580.0 0.0410179074 -0.0367656098 0.288792701 -0.739948178 0.2891955073 -0.7395161485 0.0387647852 -0.0315035153
575296550.0 0.0400865708 -0.0362094324 0.2805253552 -0.742523216 0.2811985221 -0.7425349081 0.0383721848 -0.0326395677
580296520.0 0.0396957749 -0.0371198201 0.2728644235 -0.7457681622 0.2725764398 -0.7460623476 0.0373082028 -0.0333525337
585296490.0 0.039169239 -0.0379166922 0.2652438366 -0.7490731015 0.2646318074 -0.7490632322 0.036687744 -0.0336447955
590296460.0 0.0380177507 -0.03858438 0.2563880184 -0.7521682862 0.2560293353 -0.7516239894 0.0364603246 -0.033341662
595296430.0 0.0376395897 -0.0386224061 0.2484081366 -0.7551501451 0.2481158241 -0.7548233753 0.0362114772 -0.0340245726
600296400.0 0.0368947488 -0.0388711049 0.2394209867 -0.7571724955 0.2399194846 -0.757261511 0.0352366449 -0.0340236035
605296370.0 0.0366862145 -0.0387475008 0.2321274444 -0.7598308763 0.2316012191 -0.7594731724 0.034915208 -0.0348915939
610296340.0 0.0358204711 -0.0392924735 0.2239901102 -0.7621463924 0.2238230955 -0.7627363501 0.0343303893 -0.0343646443
615296310.0 0.0353340652 -0.0394762613 0.2149386109 -0.7643588976 0.2149543171 -0.7646432956 0.0339514302 -0.0348584087
620296280.0 0.0345453513 -0.0401880845 0.2066522815 -0.7667208006 0.2064669333 -0.7668395133 0.0331739608 -0.035731312
625296250.0 0.0342627357 -0.0404999873 0.1976906743 -0.7697653873 0.1979804097 -0.7693926446 0.0328772512 -0.0354929922
630296220.0 0.0336483659 -0.0407975952 0.1894624077 -0.771996176 0.1900774538 -0.7715558278 0.0319560283 -0.0359539374
635296190.0 0.0330172457 -0.0408967947 0.1818155646 -0.7729907813 0.1809100546 -0.7724570444 0.0311228571 -0.0367668352
640296160.0 0.0320976685 -0.0412387653 0.1733105694 -0.7746820682 0.1725673477 -0.7751157854 0.0313395632 -0.0366980011
645296130.0 0.0320334652 -0.0413826058 0.164839163 -0.7775551411 0.1643291378 -0.7771873441 0.029400101 -0.037345302
650296100.0 0.030694483 -0.0411082076 0.1567608385 -0.7784626953 0.1562647853 -0.7782422478 0.0295726737 -0.0372210834
655296070.0 0.0303080942 -0.0420569993 0.1476453026 -0.7802513728 0.1474214362 -0.7801739929 0.0295004527 -0.0370087224
660296040.0 0.0289919125 -0.0416832791 0.1388457028 -0.7814279744 0.1386645923 -0.7816046281 0.0282236824 -0.0379943928
665296010.0 0.0292077144 -0.042321072 0.1303962336 -0.7831078679 0.1310111824 -0.7830756989 0.0276343318 -0.0375204881
670295980.0 0.028965254 -0.0423659542 0.1221310514 -0.7847581651 0.1223954315 -0.7847616928 0.0266966545 -0.0383798633
675295950.0 0.0284819319 -0.0423624233 0.1132368971 -0.7859576016 0.113954987 -0.7863245809 0.0269191647 -0.0377776344
680295920.0 0.0272354865 -0.0424453937 0.104631036 -0.7871889842 0.1046666938 -0.7872046993 0.0263037408 -0.038738362
685295890.0 0.0265863846 -0.0427551739 0.0963848414 -0.7878968739 0.0960039744 -0.7884345108 0.0257129756 -0.0383588948
690295860.0 0.0264628324 -0.0430617614 0.0878136784 -0.7886949235 0.086981513 -0.7887294051 0.0254418177 -0.0383230108
695295830.0 0.0263262542 -0.043463157 0.0784781919 -0.7896291921 0.0787104431 -0.7900886836 0.0240926604 -0.0386081163
700295800.0 0.0255742812 -0.043358102 0.0699927292 -0.7906992987 0.0702423844 -0.7913617492 0.0233626731 -0.0395949473
705295770.0 0.0244615447 -0.0436120436 0.061686411 -0.7912989936 0.0617888129 -0.7917929733 0.0229156742 -0.0393657879
710295740.0 0.0239463655 -0.0434511493 0.0529492926 -0.7919100182 0.0529885892 -0.7919513143 0.0214379218 -0.0391057552
715295710.0 0.0234073779 -0.0438536041 0.0447665607 -0.792933029 0.0447133031 -0.7930633847 0.0214529122 -0.0401455431
720295680.0 0.0226045989 -0.0442051519 0.0356616403 -0.7929083969 0.0362747322 -0.793782376 0.0215137655 -0.03948936
725295650.0 0.0224867811 -0.0440024836 0.0265673654 -0.7929703183 0.0273381357 -0.7929405043 0.0205463606 -0.0395391778
730295620.0 0.0210823223 -0.0443323256 0.0180273585 -0.7938594734 0.0185169131 -0.7938021096 0.0202742777 -0.0406707408
735295590.0 0.0213689391 -0.0442354224 0.0106082572 -0.7937863349 0.0104139464 -0.7939027649 0.0194139791 -0.0397870699
740295560.0 0.0201836616 -0.0441729124 0.0011254061 -0.7930740916 0.0011361617 -0.7931614006 0.0195962675 -0.0402345958
745295530.0 0.0195839405 -0.0447154231 -0.0071636594 -0.7942694057 -0.0068288629 -0.7938742833 0.0181004499 -0.0399233835
750295500.0 0.0191560129 -0.0447629422 -0.0157635007 -0.7927742305 -0.0158776013 -0.7937127719 0.0179987477 -0.0407775538
755295470.0 0.0188326953 -0.0443116213 -0.0244664 -0.7934267051 -0.0241725258 -0.793278762 0.0166092037 -0.0403362009
760295440.0 0.0176851329 -0.0444421167 -0.0332851852 -0.792955979 -0.0331816177 -0.7931022252 0.0159017944 -0.0407331367
765295410.0 0.0170607514 -0.0450840033 -0.0410582959 -0.7924210213 -0.0412069943 -0.7929296278 0.016509639 -0.0403737522
770295380.0 0.0169732007 -0.0447975941 -0.0504710939 -0.7917241293 -0.0502647522 -0.7921477629 0.015720289 -0.0400367421
775295350.0 0.0162162945 -0.0446689218 -0.0590734105 -0.7909142406 -0.0586954888 -0.79142476 0.014575687 -0.0410842286
780295320.0 0.0153956698 -0.0447378426 -0.0672008943 -0.7910652813 -0.0671663485 -0.7906600396 0.0142719371 -0.0400897949
785295290.0 0.0147509749 -0.0445453214 -0.0758051609 -0.7886063403 -0.0761381683 -0.7901412314 0.0130137697 -0.0404099449
790295260.0 0.0141937961 -0.0445288709 -0.0846086713 -0.7893203037 -0.0845546582 -0.7893537852 0.0130608444 -0.040387197
795295230.0 0.0132947515 -0.0447775647 -0.0924918996 -0.787476181 -0.0929029235 -0.7882449548 0.0122279346 -0.0396581879
800295200.0 0.0129709912 -0.044622679 -0.1021373925 -0.7870319124 -0.1022290467 -0.7869187712 0.0118765026 -0.0402938838
805295170.0 0.0119109696 -0.0444510728 -0.1104606057 -0.7850896877 -0.1101141919 -0.7857752932 0.010823412 -0.0405314425
810295140.0 0.0112938829 -0.0445326158 -0.1185849814 -0.7847186353 -0.1187281021 -0.7852507585 0.0106025497 -0.039836573
815295110.0 0.0110224333 -0.0442556072 -0.1275849199 -0.7824574125 -0.1278550417 -0.7834756855 0.0095239104 -0.0407888133
820295080.0 0.0102585307 -0.0447223769 -0.1354640475 -0.7820353877 -0.135953758 -0.782065109 0.008900369 -0.0402150036
825295050.0 0.0097036738 -0.044801797 -0.1442196585 -0.7799261586 -0.1446116127 -0.7800602764 0.009120317 -0.0396404617
830295020.0 0.0089855836 -0.0441241054 -0.1531430253 -0.7783023654 -0.153130234 -0.7790711622 0.0081007779 -0.0400175531
