!Created with skrf (http://scikit-rf.org).
# Hz S RI R 50.0 
!freq ReS11 ImS11 ReS21 ImS21 ReS12 ImS12 ReS22 ImS22
300000.0 -0.1009342121 -0.0716406003 0.6297690161 0.0660493353 0.6223953515 0.0664934089 -0.09923904 -0.0773515633
5299970.0 -0.102167527 0.0130049666 0.6301714067 0.009948747 0.6304368111 0.0104794182 -0.1010228245 0.0130323408
10299940.0 -0.0971595159 0.0292172609 0.6337805157 0.015205373 0.6341945997 0.0156870159 -0.0958472477 0.030144133
15299910.0 -0.0899309564 0.0425696652 0.6404704806 0.0203688817 0.6407473136 0.0208552499 -0.0886675491 0.0437076456
20299880.0 -0.0817327278 0.0531935386 0.6485288938 0.0243257016 0.6486173836 0.0244257122 -0.0801239383 0.0543717456
25299850.0 -0.0723984029 0.0622877185 0.6576381738 0.0250693266 0.657501374 0.0256088057 -0.0698589621 0.0632925122
30299820.0 -0.0622464823 0.0689175241 0.6674419249 0.0244813831 0.6674245834 0.024466182 -0.0597030831 0.070127563
35299790.0 -0.0525999703 0.0735638326 0.6771414039 0.0212372094 0.6773398301 0.0218863002 -0.049845893 0.0749293027
40299760.0 -0.0434422189 0.0771467408 0.6863641921 0.0176713566 0.6867273703 0.0176297416 -0.0405104659 0.0774141337
45299730.0 -0.0341360233 0.0793694737 0.6950743103 0.0120474183 0.6954998128 0.0120243796 -0.031169078 0.0796492998
50299700.0 -0.0256025391 0.0802658974 0.7035900013 0.005061992 0.7033238547 0.0054480945 -0.0223759417 0.0805589347
55299670.0 -0.0176975793 0.0804106735 0.7106941292 -0.0033572905 0.7107196378 -0.0025075686 -0.0147210276 0.0807196521
60299640.0 -0.0100547123 0.0801521805 0.7171698767 -0.0111356155 0.717649023 -0.0108792585 -0.0076376132 0.0796239923
65299610.0 -0.0035770207 0.0789474478 0.7232490938 -0.0199597398 0.723705827 -0.0195988843 -0.0011426676 0.0785898923
70299580.0 0.0026323205 0.0776342085 0.7290047824 -0.0294897819 0.7287596627 -0.0289330037 0.0048910043 0.0768385546
75299550.0 0.0080088521 0.0758667473 0.7329620628 -0.038951353 0.7327548169 -0.0389779495 0.0101576347 0.0751010091
80299520.0 0.0131019924 0.0738722956 0.7372616853 -0.0490642661 0.7371551222 -0.0485329279 0.0153561171 0.0727106526
85299490.0 0.0177676348 0.0714532161 0.7399345329 -0.0584681824 0.7404140783 -0.058180969 0.0193373656 0.0699817564
90299460.0 0.0216597471 0.069106516 0.7431239958 -0.0688723138 0.7434256207 -0.068578801 0.0236707594 0.0679133185
95299430.0 0.0258979683 0.0666509703 0.7460744694 -0.0784656983 0.7458036825 -0.0792402052 0.0274948374 0.0656592722
100299400.0 0.0291928265 0.0647253891 0.7468391427 -0.08882748 0.746852141 -0.0889545148 0.0310641943 0.0626166937
105299370.0 0.0322466286 0.0622447551 0.7484576726 -0.0993489746 0.7494807428 -0.0991768634 0.0340538288 0.0606510942
110299340.0 0.0350023338 0.059897394 0.7504261602 -0.109326105 0.7496826147 -0.1084547062 0.0363462113 0.057967953
115299310.0 0.0374446744 0.0575232557 0.7506460875 -0.1191649346 0.7506944902 -0.1191549736 0.0390349208 0.0555858069
120299280.0 0.0397634038 0.0545126037 0.7507951785 -0.1292606892 0.751786777 -0.1293366628 0.0416841645 0.0532834014
125299250.0 0.0419441166 0.0524898126 0.7518443351 -0.1388824307 0.7515056472 -0.1390304056 0.0425443382 0.0507002451
130299220.0 0.0434302988 0.0504117582 0.7516931728 -0.1494052561 0.7513488327 -0.1492406075 0.0450261599 0.048263909
135299190.0 0.0453849056 0.0482545547 0.7513669047 -0.158867781 0.7508109419 -0.1585047554 0.0465626011 0.0462102291
140299160.0 0.0467573193 0.0465563533 0.7510983481 -0.1683274563 0.7510531183 -0.1691790766 0.048093348 0.0444118941
145299130.0 0.048135533 0.0439952585 0.7499214813 -0.1781000531 0.7499553478 -0.178298368 0.0495868748 0.0420048086
150299100.0 0.0499365876 0.0421721301 0.7486972075 -0.1870157923 0.7493040424 -0.1874254032 0.0508827892 0.0403334468
155299070.0 0.0504253123 0.0396896969 0.7479069149 -0.1981072963 0.7474686295 -0.1977081195 0.0517793539 0.0384470054
160299040.0 0.0519728426 0.038099368 0.7466311682 -0.2070915313 0.7455176241 -0.2072521295 0.0520341429 0.0364835496
165299010.0 0.0524341333 0.0361167952 0.7447660883 -0.2170819534 0.7449158827 -0.2166561098 0.0535767282 0.0351285242
170298980.0 0.0534762443 0.0340753209 0.7425692564 -0.2262119307 0.7432875475 -0.2260649392 0.0542550575 0.0330310812
175298950.0 0.0540095336 0.032407113 0.7418292431 -0.2353262575 0.7408556119 -0.2350769414 0.0546788201 0.0315972328
180298920.0 0.0545091514 0.0307418712 0.7386965533 -0.2447353684 0.7388605914 -0.2442186475 0.0556444279 0.0298508232
185298890.0 0.0555608479 0.0288048784 0.7364141271 -0.2536603778 0.736544764 -0.2533427381 0.0557350441 0.0284628445
190298860.0 0.0553082085 0.0276030284 0.7343037289 -0.2625650882 0.7345259811 -0.262633638 0.0564449171 0.0263893886
195298830.0 0.0561218113 0.0254018301 0.7314893882 -0.2720045499 0.7321828525 -0.2717178452 0.0574144121 0.0251468118
200298800.0 0.0566385791 0.024257072 0.7292159794 -0.2809554184 0.7290098188 -0.2808860314 0.0571149235 0.0237136359
205298770.0 0.0567606777 0.0229895411 0.7259347222 -0.289931408 0.7262379862 -0.2893651001 0.0573820601 0.02125981
210298740.0 0.0573135844 0.0210009745 0.723112493 -0.2982021935 0.7233135499 -0.2978191314 0.0578491985 0.0213649007
215298710.0 0.0567505815 0.019850686 0.7204697467 -0.3069437481 0.7200228106 -0.3075189726 0.0579430785 0.0199209342
220298680.0 0.0575138436 0.0177443473 0.7164202782 -0.3155078405 0.7169632856 -0.3154145911 0.0575884754 0.018115799
225298650.0 0.0578668819 0.0166096362 0.7142119451 -0.3245877384 0.713936679 -0.3242925121 0.0577085782 0.0163991425
230298620.0 0.0580009419 0.0158593081 0.7108899325 -0.3332526911 0.7111459925 -0.3328343485 0.0574232649 0.0151406751
235298590.0 0.0579566928 0.0146156207 0.7070501509 -0.3413230063 0.7069073465 -0.340622382 0.0575462742 0.0138509219
240298560.0 0.0580852398 0.0135948563 0.7037141932 -0.349947042 0.7034618389 -0.3495761156 0.0577319336 0.0128143366
245298530.0 0.0580260228 0.0121068055 0.700006878 -0.3579890103 0.7000265247 -0.3580512495 0.058608517 0.01113221
250298500.0 0.0588945186 0.0112457092 0.6954041109 -0.3665913373 0.6950629358 -0.3657692578 0.0581817902 0.0104939927
255298470.0 0.0583525596 0.009468543 0.6910766664 -0.3735264564 0.6923393122 -0.373845026 0.0581358426 0.0087993536
260298440.0 0.0581603628 0.0081187802 0.687551174 -0.3827908537 0.6883664747 -0.3821305482 0.0588869019 0.0080367495
265298410.0 0.0588424458 0.0076359503 0.6838457139 -0.3912362971 0.6840389215 -0.3903168366 0.058511555 0.0068049333
270298380.0 0.0584509974 0.0063473996 0.6795984481 -0.3982293224 0.6793883366 -0.3979776088 0.0583076451 0.0059424816
275298350.0 0.0593305973 0.0051066422 0.6754541779 -0.4065235447 0.6757752072 -0.4066190747 0.0584397635 0.0042235615
280298320.0 0.058934572 0.0043807074 0.6709817102 -0.4142267869 0.6712727238 -0.4137864189 0.059010947 0.0037223883
285298290.0 0.0587490208 0.0031537659 0.6669163034 -0.4220236535 0.6666580892 -0.4220732067 0.0590244841 0.0024165683
290298260.0 0.0592644087 0.0021553119 0.6619662074 -0.4293422292 0.6624339744 -0.4296875822 0.0587802046 0.0017848674
295298230.0 0.0590335059 0.0009589194 0.6577727581 -0.4372136735 0.6578685413 -0.4373712292 0.0594456182 0.0002661563
300298200.0 0.0583139666 -0.0002330642 0.6531290245 -0.4450741199 0.6536197518 -0.4454173841 0.0590231878 -0.0007399483
305298170.0 0.0589234149 -0.0013505151 0.6475962564 -0.4534061709 0.6479149597 -0.4528915454 0.0594277465 -0.0018394488
310298140.0 0.0585455184 -0.002160199 0.6430476554 -0.4608466117 0.6437328906 -0.460328344 0.0593834845 -0.0027656447
315298110.0 0.0582476795 -0.0040278854 0.6383869501 -0.4681651809 0.6384330949 -0.4682463849 0.0589219524 -0.00409251
320298080.0 0.0586048167 -0.0046244881 0.6319024809 -0.4764805919 0.6330220534 -0.4754157478 0.058806852 -0.0053486963
325298050.0 0.0578690036 -0.0057185181 0.6274446456 -0.4832480286 0.6272750207 -0.4830289123 0.0576759246 -0.0063808038
330298020.0 0.0575435509 -0.0070412665 0.6216058246 -0.4907794403 0.6218974422 -0.4906956201 0.0576518078 -0.0076044756
335297990.0 0.0572575322 -0.0083494367 0.6160192809 -0.4968204815 0.6155721562 -0.4978062471 0.0564337077 -0.0077195865
340297960.0 0.0560885766 -0.0088432717 0.6101404282 -0.5048326372 0.6098237695 -0.5048282736 0.0571061777 -0.0083024228
345297930.0 0.0559308826 -0.0089767472 0.6042678824 -0.5117202647 0.6042785874 -0.5117542882 0.0566526095 -0.0097222139
350297900.0 0.0552059391 -0.0106680976 0.5979882848 -0.5185859221 0.5980325602 -0.518190682 0.0557563883 -0.0097293447
355297870.0 0.0548023267 -0.0103732646 0.5925113701 -0.5247924463 0.593186246 -0.524914343 0.0554290813 -0.0108962867
360297840.0 0.0546700429 -0.0114663255 0.5878016982 -0.53155683 0.5877596055 -0.5311924423 0.0547266324 -0.01115735
365297810.0 0.0541827966 -0.01188514 0.5810368492 -0.5386988392 0.5817293963 -0.5384395903 0.0548747899 -0.0116174335
370297780.0 0.0544904038 -0.0131081818 0.5750388498 -0.5443960485 0.5755534076 -0.5441015446 0.0541971805 -0.0122761189
375297750.0 0.0539644863 -0.0134774493 0.5691896233 -0.5508981157 0.5696023759 -0.5507279492 0.0544556552 -0.0131177725
380297720.0 0.0536347446 -0.0142089621 0.5625656546 -0.5574312528 0.5634371852 -0.5566378398 0.053718941 -0.0137993139
385297690.0 0.0529217683 -0.0149643659 0.5566325012 -0.5636130846 0.5565488457 -0.5633662613 0.053512099 -0.0140961097
390297660.0 0.0526704661 -0.0151444257 0.5508341278 -0.569749333 0.5504929528 -0.5692061319 0.0529047171 -0.0152377274
395297630.0 0.0522243309 -0.0159215619 0.5445018883 -0.5761029701 0.5445663599 -0.5761192042 0.0533767013 -0.0153533867
400297600.0 0.0518184465 -0.0166316207 0.5375004593 -0.5827235609 0.5377745188 -0.5826510074 0.0521694422 -0.0161555039
405297570.0 0.0515841334 -0.0174676305 0.531624787 -0.5880717955 0.5317230735 -0.5874544735 0.0515313866 -0.0166005158
410297540.0 0.0515154903 -0.0180204531 0.525352148 -0.5942450707 0.5250738645 -0.5939583947 0.0514686493 -0.0170755871
415297510.0 0.0513868694 -0.0186791353 0.5182618789 -0.6000285143 0.5187204274 -0.5997797113 0.0513439563 -0.0177006141
420297480.0 0.0508952433 -0.0191302534 0.5111154543 -0.6057971564 0.5119572258 -0.6056557306 0.0505729737 -0.0190684181
425297450.0 0.0501773056 -0.0203051177 0.5055360457 -0.6116415562 0.5055222798 -0.6115068191 0.0494900181 -0.0188693274
430297420.0 0.0500252407 -0.0208201427 0.4980027551 -0.6164035166 0.4982119299 -0.6163177313 0.0497713438 -0.0201211395
435297390.0 0.0495188613 -0.0213187327 0.4911630639 -0.6221791851 0.4913607405 -0.6221204616 0.050385331 -0.0205621379
440297360.0 0.0495069789 -0.0214952441 0.484062945 -0.6273891371 0.4847703214 -0.627848675 0.0489347566 -0.021844786
445297330.0 0.0489141269 -0.0226418941 0.4780307986 -0.6328597696 0.4779767601 -0.6324643203 0.0493727772 -0.0219972569
450297300.0 0.0487571418 -0.0230788313 0.4708979225 -0.6384139709 0.470996829 -0.6386427777 0.0485778243 -0.0228398114
455297270.0 0.048313815 -0.023578098 0.463437933 -0.643410979 0.4641933093 -0.6437843983 0.0483380697 -0.0235138687
460297240.0 0.04775513 -0.0240950341 0.4559735128 -0.6483326387 0.4568318639 -0.6486810725 0.0480227712 -0.0234475601
465297210.0 0.0477334865 -0.0246943908 0.4497422087 -0.6538587325 0.4493635192 -0.6541538266 0.0476855798 -0.0247041991
470297180.0 0.0470276035 -0.0255480517 0.4421506622 -0.6589854845 0.4421912775 -0.6588309294 0.0474861137 -0.0248683447
475297150.0 0.0469568539 -0.0262033266 0.4350177454 -0.6630584364 0.434902377 -0.6629632839 0.0473028839 -0.0259123191
480297120.0 0.0461846075 -0.0260225221 0.4272413873 -0.6685155183 0.4274996451 -0.6685046708 0.0471471562 -0.0256485659
485297090.0 0.0454893786 -0.0268562495 0.420427803 -0.672231481 0.4208799569 -0.6725858036 0.0465935139 -0.0269407913
490297060.0 0.0449403355 -0.0275554304 0.4136573172 -0.677955631 0.4136738924 -0.6772073234 0.0461709418 -0.0265690636
495297030.0 0.0447703745 -0.0280689829 0.4049196062 -0.6826910396 0.4061791932 -0.6818200001 0.04565629 -0.0277419205
500297000.0 0.0442143666 -0.0286556752 0.3977764508 -0.6861350541 0.3973901305 -0.6860270063 0.0450962724 -0.0272278949
505296970.0 0.0440700323 -0.0291224368 0.3908080196 -0.6906996753 0.3902677579 -0.6907489537 0.0446712915 -0.0277928968
510296940.0 0.0434485832 -0.0294031767 0.3827639572 -0.6952585972 0.3830022105 -0.6949008007 0.0445382608 -0.0281868115
515296910.0 0.0429012054 -0.0295659444 0.3744254989 -0.6991515713 0.3754448381 -0.6987877753 0.0439543212 -0.0287338958
520296880.0 0.0424295379 -0.0302491005 0.3670196986 -0.7039668762 0.3673520478 -0.7032977629 0.0433679095 -0.0297040891
525296850.0 0.0420804468 -0.0315557124 0.3592347618 -0.7073015625 0.3604860675 -0.7069429693 0.04241795 -0.0300004746
530296820.0 0.0416940671 -0.0311059694 0.3522566991 -0.7113380658 0.3523692936 -0.7109878713 0.0425730523 -0.0301146281
535296790.0 0.0407542527 -0.031597384 0.3441498501 -0.7151948498 0.3444955958 -0.7145883209 0.041883585 -0.0310626887
540296760.0 0.0401341326 -0.0316096017 0.3361205065 -0.7193917309 0.3361938005 -0.7188974198 0.0408057624 -0.0302827797
545296730.0 0.0397924135 -0.0326978297 0.3278613765 -0.7223134605 0.3282739812 -0.7224607459 0.0405530523 -0.031553405
550296700.0 0.0399351474 -0.0324238423 0.3205421188 -0.7256485256 0.3206614145 -0.726256647 0.0397737972 -0.0316276722
555296670.0 0.0386850944 -0.0330853313 0.3123126245 -0.7294952106 0.3128898577 -0.7292027543 0.0395239922 -0.0319663025
560296640.0 0.0388079066 -0.032827124 0.3038743164 -0.7333367275 0.3046486315 -0.733052576 0.0388994613 -0.0323102896
565296610.0 0.0377996764 -0.0336354857 0.2959438742 -0.7362951953 0.2969216309 -0.7364275762 0.0380123903 -0.0331391667
570296580.0 0.0373690198 -0.0338045818 0.2884012842 -0.7403179437 0.2878450098 -0.7394193655 0.0377487247 -0.0327801871
575296550.0 0.0364204749 -0.0340589592 0.2800342138 -0.7428198733 0.2803214979 -0.7427207832 0.0377595253 -0.0336315784
580296520.0 0.0363538537 -0.0345868608 0.2721052337 -0.7458809927 0.2722798067 -0.7458546933 0.0367189657 -0.0341941982
585296490.0 0.0352434179 -0.0356019457 0.2640591101 -0.7482657374 0.2641277237 -0.7487300575 0.0361632171 -0.0344152961
590296460.0 0.0354785786 -0.0354277506 0.255633647 -0.7509672586 0.2556897712 -0.751276152 0.0349180728 -0.0346560084
595296430.0 0.0351616071 -0.0355774122 0.2470130822 -0.7546328517 0.2474306799 -0.7538480223 0.0352244171 -0.035398243
600296400.0 0.0339617467 -0.0362198165 0.2392088814 -0.7570407177 0.2395341991 -0.7562212074 0.0343421303 -0.0355186495
605296370.0 0.0337614422 -0.0363194946 0.2309603527 -0.7588090929 0.230968525 -0.7595324428 0.0337317426 -0.0356852265
610296340.0 0.0332432454 -0.0367863236 0.2220205698 -0.7618729216 0.2231734243 -0.7618093441 0.0338314863 -0.0362910476
615296310.0 0.0329315533 -0.0375444826 0.2143961446 -0.7635271331 0.2141999676 -0.7646274471 0.0332763926 -0.0364842324
620296280.0 0.0321784272 -0.038023894 0.2061488724 -0.7664826707 0.2060433781 -0.7658573164 0.032262989 -0.0367142969
625296250.0 0.0313063326 -0.0384588835 0.198447193 -0.7689977234 0.197916119 -0.7690825485 0.0327279643 -0.0370363417
630296220.0 0.0318928937 -0.0382992136 0.1889163532 -0.7706381783 0.1886561363 -0.7708910575 0.0315786699 -0.0371649599
635296190.0 0.0297743112 -0.0390538437 0.180458061 -0.7725996468 0.1809203101 -0.772474441 0.0312803704 -0.0375279002
640296160.0 0.0297175944 -0.0387866033 0.172083836 -0.7745253718 0.1730670712 -0.7744503018 0.0307241839 -0.0376468495
645296130.0 0.0292079124 -0.0388784031 0.163513941 -0.7760710322 0.1642515447 -0.7766241664 0.0304224785 -0.0378945167
650296100.0 0.0287095401 -0.0393899657 0.1555517686 -0.7783987147 0.1558501961 -0.7779062137 0.0303241519 -0.0391102775
655296070.0 0.0277637889 -0.0397091739 0.1466847317 -0.7801931141 0.1476774523 -0.7802469159 0.0297218349 -0.0386432093
660296040.0 0.026957652 -0.0403771079 0.1385992982 -0.7816803824 0.1389548063 -0.7816838726 0.0289082254 -0.0389475624
665296010.0 0.0271519454 -0.0402924498 0.1293608869 -0.7828010382 0.1301943325 -0.7826951754 0.0287842491 -0.038352075
670295980.0 0.0252305665 -0.0405061081 0.1207984865 -0.7841794808 0.1214438543 -0.7843335167 0.027517955 -0.0392110528
675295950.0 0.0252305565 -0.0403105305 0.1126872867 -0.7854694865 0.1132103773 -0.7846987802 0.0266092968 -0.0392456883
680295920.0 0.0242886567 -0.040936623 0.103678129 -0.7864340661 0.1038227198 -0.7869302915 0.0264065917 -0.0387213418
685295890.0 0.0241957186 -0.0403418172 0.0951322087 -0.787778083 0.0952302602 -0.7879057946 0.0255752509 -0.0393666821
690295860.0 0.0237365828 -0.0407767947 0.0869576241 -0.787920504 0.0868903976 -0.7890330747 0.0247510167 -0.0385363828
695295830.0 0.0228375567 -0.041213328 0.078914786 -0.7893832866 0.0781537096 -0.7894833608 0.0241063368 -0.0391481207
700295800.0 0.0226237773 -0.0415977559 0.0696174559 -0.7895698078 0.0696565086 -0.7898014669 0.0239638974 -0.038412748
705295770.0 0.0214722594 -0.040731847 0.0611392446 -0.7907541679 0.0616687957 -0.7907275009 0.0229712299 -0.0390748411
710295740.0 0.0213871796 -0.0413224261 0.0524365622 -0.7921863347 0.053119131 -0.7920708827 0.0227089145 -0.0399487823
715295710.0 0.0202551673 -0.0416611314 0.0447945003 -0.7924824038 0.0439725089 -0.7916771708 0.0221526477 -0.0397784782
720295680.0 0.0200152733 -0.0414981563 0.0356684034 -0.7924009594 0.0361716635 -0.7924312493 0.0214207507 -0.0388636901
725295650.0 0.0192532849 -0.0415859671 0.0264069527 -0.7928246429 0.0267197193 -0.7933962036 0.0201660084 -0.0393133271
730295620.0 0.0190256873 -0.0413261007 0.0180160935 -0.7929321909 0.0180930241 -0.7935841398 0.0196848147 -0.0400433681
735295590.0 0.0181277616 -0.0414884459 0.0095502454 -0.7933958662 0.0094811382 -0.7933328258 0.0188275527 -0.0403748648
740295560.0 0.017129357 -0.0414520906 0.000669584 -0.7926389248 0.0010075469 -0.7932145746 0.0189699356 -0.039820994
745295530.0 0.0167385415 -0.0411289812 -0.0080667961 -0.7924236951 -0.0077879085 -0.7932184039 0.0182905042 -0.0405782573
750295500.0 0.0162658151 -0.0416721049 -0.0160697155 -0.7923807574 -0.0161173778 -0.7932318624 0.0173656042 -0.0403798268
755295470.0 0.0160002034 -0.0419029387 -0.0246203135 -0.7925363713 -0.0248044183 -0.7928539555 0.017735954 -0.0407655488
760295440.0 0.0148354861 -0.0418516677 -0.0335934692 -0.7928176812 -0.0332827875 -0.7928277669 0.0166416814 -0.0408570221
765295410.0 0.0143506412 -0.0417974164 -0.0421713735 -0.7923007873 -0.0427123544 -0.7920474036 0.0161396178 -0.0405249223
770295380.0 0.0133266533 -0.0421565189 -0.0513337857 -0.7917912797 -0.0510413026 -0.7917109586 0.0151355909 -0.0409403851
775295350.0 0.0129720626 -0.042610407 -0.0602511078 -0.7904676665 -0.0589606185 -0.79085721 0.0138018368 -0.040512296
780295320.0 0.0125494108 -0.0421932394 -0.0685820402 -0.7893865687 -0.067298854 -0.7900758334 0.0135596215 -0.0412711535
785295290.0 0.0112996301 -0.0427328888 -0.0774254551 -0.7894208011 -0.0763076351 -0.7891081961 0.0140418828 -0.040784664
790295260.0 0.0117214932 -0.0416685627 -0.0850313222 -0.7884385694 -0.0837923147 -0.7882297605 0.0129135351 -0.0410257875
795295230.0 0.0107780965 -0.0425555466 -0.0932894005 -0.7870039923 -0.0929231927 -0.7876333477 0.0128143125 -0.0402840564
800295200.0 0.0097740161 -0.0419381476 -0.1032567838 -0.7859757968 -0.1021158818 -0.7865180264 0.0118124742 -0.0409737883
805295170.0 0.0091590261 -0.0424122742 -0.1109479187 -0.7847521013 -0.1105062074 -0.7855776558 0.0111832241 -0.0407418026
810295140.0 0.008213214 -0.0424632937 -0.1190183703 -0.7832587822 -0.1191517987 -0.7844309215 0.0114934248 -0.0405098608
815295110.0 0.0083182349 -0.0426703299 -0.1276149119 -0.7822484003 -0.1275141188 -0.7824740924 0.0099886543 -0.0403734274
820295080.0 0.0067384289 -0.0417006829 -0.1363404405 -0.7803336539 -0.1358294478 -0.7806097376 0.0093588385 -0.0403395044
825295050.0 0.0071032732 -0.0420124842 -0.1439958083 -0.7790707619 -0.1448516877 -0.7800433296 0.009352789 -0.0405896703
830295020.0 0.0063019803 -0.0416658699 -0.152972631 -0.7774171397 -0.1528683532 -0.7776495565 0.0094525412 -0.0401726362
