!Created with skrf (http://scikit-rf.org).
# Hz S RI R 50.0 
!freq ReS11 ImS11 ReS21 ImS21 ReS12 ImS12 ReS22 ImS22
300000.0 -0.2400848254 -0.0876194563 0.473064119 0.0594205647 0.4720546397 0.0555548459 -0.2397425856 -0.0979100809
5299970.0 -0.2450252569 0.0066390587 0.4750058281 0.0052167163 0.4750277647 0.0052060618 -0.2412380481 0.0075886308
10299940.0 -0.2417793969 0.0178631343 0.476503543 0.0061882995 0.4769447731 0.0062708948 -0.2379374048 0.0206299531
15299910.0 -0.2373792633 0.0268773741 0.4805424999 0.0074075482 0.4807634048 0.0072354189 -0.2331756669 0.0302479938
20299880.0 -0.2327521163 0.0338544846 0.4850672683 0.0085499787 0.4849442346 0.0079774944 -0.2279429957 0.0380086036
25299850.0 -0.2279458808 0.0403741205 0.4904975008 0.0071428764 0.4903047961 0.0069985239 -0.222047519 0.0446990201
30299820.0 -0.2225649223 0.0451052922 0.4955800658 0.0048063638 0.4954497121 0.0048016155 -0.2162138418 0.0500258256
35299790.0 -0.2175325504 0.0492537079 0.5009511485 0.0014563472 0.5010311404 0.0017256904 -0.210647174 0.0544147271
40299760.0 -0.212952329 0.0527083531 0.506253689 -0.002411205 0.5064442591 -0.0023428224 -0.2055878703 0.0572334349
45299730.0 -0.2078327651 0.0548885215 0.5104695642 -0.0069805031 0.5108472116 -0.0069995835 -0.2004353467 0.0604286813
50299700.0 -0.2038500441 0.0567330648 0.5150104553 -0.0125704848 0.5151255808 -0.0124844383 -0.1956578578 0.0620540613
55299670.0 -0.1997445114 0.0584109616 0.5187333207 -0.018847402 0.5186880116 -0.0183832543 -0.1914161552 0.0640614727
60299640.0 -0.1960697704 0.0599062896 0.5216872664 -0.0249412583 0.522101802 -0.0248543234 -0.1873797783 0.0654404025
65299610.0 -0.1929583604 0.0609650227 0.5247044715 -0.0312173805 0.5249778956 -0.0312975775 -0.1841132874 0.0668265645
70299580.0 -0.1899503319 0.0619765924 0.5272307058 -0.0377684939 0.5271333153 -0.037851786 -0.1807937472 0.067593657
75299550.0 -0.1870455235 0.0631118989 0.5288506852 -0.0447734007 0.5289970824 -0.0448017279 -0.1778712636 0.0681970396
80299520.0 -0.1847430789 0.0637241021 0.5312749483 -0.0513199089 0.5310210815 -0.0517534443 -0.1750093837 0.0691965393
85299490.0 -0.1825404656 0.0641734335 0.5318936746 -0.0579072383 0.5321914427 -0.0581062388 -0.1729931388 0.0695190015
90299460.0 -0.1802388403 0.0646881544 0.5328536822 -0.0652182657 0.5334398081 -0.0649156488 -0.1704925733 0.0704176725
95299430.0 -0.1782817911 0.065238194 0.5338395921 -0.0722781484 0.5343243139 -0.072273339 -0.1681508315 0.0711193463
100299400.0 -0.1765239089 0.0663160238 0.5342019656 -0.079127245 0.5342624663 -0.0788642783 -0.1657899497 0.0713419775
105299370.0 -0.1748876031 0.0668009997 0.5343022102 -0.0864207105 0.5348812239 -0.0859986057 -0.1639490821 0.0724155997
110299340.0 -0.1734847325 0.0676190504 0.5352745031 -0.0924931646 0.5347332175 -0.0925326769 -0.1628794403 0.0731246974
115299310.0 -0.1720300682 0.0681323621 0.5352101478 -0.0996054233 0.5348026936 -0.0994732266 -0.1611743922 0.0739134289
120299280.0 -0.1706946369 0.068477503 0.5344919384 -0.1065629332 0.5346248317 -0.1062613975 -0.1594512295 0.0746020796
125299250.0 -0.169523414 0.0691712317 0.5339372122 -0.112857738 0.5345542494 -0.1127459224 -0.1588707904 0.0750430066
130299220.0 -0.168442909 0.0702421098 0.5333564403 -0.1199964018 0.5334259713 -0.1198408426 -0.1571503797 0.0759135252
135299190.0 -0.1676636417 0.0711648535 0.5329667669 -0.1265033599 0.532973632 -0.1264227882 -0.1558419025 0.0769609806
140299160.0 -0.1666373634 0.0720930883 0.5321162713 -0.1328622584 0.5322140945 -0.1332025373 -0.1546823806 0.0780195915
145299130.0 -0.1655734835 0.0730507592 0.5311950136 -0.1397680699 0.5309738096 -0.1394875085 -0.1535555117 0.0789516034
150299100.0 -0.1646304743 0.0738673675 0.5299821258 -0.1460108513 0.5299691572 -0.1457198318 -0.1525571832 0.0802732642
155299070.0 -0.1638508044 0.0745087119 0.5289010604 -0.1530822103 0.5284860154 -0.1527984892 -0.1513267659 0.0812872297
160299040.0 -0.162941553 0.0758733281 0.527357416 -0.159161817 0.5271515766 -0.1592101049 -0.1510466163 0.0822987743
165299010.0 -0.1622755164 0.0769159018 0.5260993713 -0.1657841305 0.5259367207 -0.1656674836 -0.1495180168 0.0836071772
170298980.0 -0.161585204 0.0777939125 0.5244179044 -0.1719839317 0.524469488 -0.1717398367 -0.1483822222 0.0846194119
175298950.0 -0.1609284115 0.0788831788 0.523162811 -0.1779012591 0.5225924644 -0.1781992697 -0.1475071779 0.086086234
180298920.0 -0.160140308 0.080216898 0.5209778402 -0.1848898416 0.5210357095 -0.1843076419 -0.1468059291 0.0874571558
185298890.0 -0.1588762429 0.0809745332 0.5190987819 -0.1908124163 0.5187880471 -0.1905327423 -0.1458269205 0.0886792631
190298860.0 -0.158480664 0.0826005318 0.5179099438 -0.1971958073 0.5175055794 -0.1965655919 -0.1448795285 0.0896737545
195298830.0 -0.1577777995 0.083024396 0.5153672816 -0.2029656669 0.5154335385 -0.2027942405 -0.1435861971 0.0910741365
200298800.0 -0.1568763774 0.0847094864 0.513139165 -0.209405022 0.513120836 -0.209524348 -0.1430546514 0.0922873794
205298770.0 -0.1560798663 0.0856519509 0.5109435049 -0.2155027351 0.5109743932 -0.2150230787 -0.1423755034 0.0932313881
210298740.0 -0.1555476072 0.0868604593 0.5084585899 -0.2206442527 0.5087180293 -0.220560158 -0.1408548907 0.0952649534
215298710.0 -0.1550240289 0.0883970366 0.5065255524 -0.2268961723 0.5064563704 -0.2271692721 -0.1405973503 0.0964086336
220298680.0 -0.1540913077 0.0891304689 0.5039747141 -0.2324746238 0.5037695909 -0.2329621065 -0.1395788573 0.0974398248
225298650.0 -0.1533214459 0.0908931561 0.5014687672 -0.2389751332 0.5019450395 -0.2385147766 -0.1390798084 0.0987386801
230298620.0 -0.1526767865 0.0922393114 0.4990050574 -0.244089684 0.4996150348 -0.2443215451 -0.1379284104 0.1000301727
235298590.0 -0.1515901158 0.093835973 0.4961414623 -0.2501328046 0.4964824603 -0.2497709066 -0.1368551667 0.1014326711
240298560.0 -0.151055997 0.0949538656 0.4942597688 -0.2561430252 0.493850211 -0.2560317033 -0.1358700844 0.1032920551
245298530.0 -0.1505954531 0.0959550895 0.4915040195 -0.2617379493 0.4909444613 -0.26172311 -0.1344096587 0.1040567304
250298500.0 -0.1492049955 0.0977437229 0.4873452862 -0.2673622234 0.4877289946 -0.2670067809 -0.1341264221 0.1056933943
255298470.0 -0.1484831194 0.0985313518 0.4844857121 -0.2725712625 0.4850760006 -0.272653745 -0.1324370668 0.1067431369
260298440.0 -0.1477825661 0.1000591177 0.4819477528 -0.2785046413 0.4820585212 -0.2782505467 -0.1312485132 0.1084761049
265298410.0 -0.1468625251 0.1017069533 0.4789628782 -0.2838609724 0.4791849418 -0.2837181049 -0.1304791492 0.1098374236
270298380.0 -0.1460428243 0.1030046714 0.476285874 -0.2889064527 0.4763839203 -0.2890107659 -0.1295279033 0.1112699492
275298350.0 -0.1450483285 0.104270711 0.4728429515 -0.2945838462 0.4730858459 -0.2946907724 -0.1280784421 0.1123203681
280298320.0 -0.1440795719 0.1057272524 0.4703376865 -0.3000955676 0.4700024218 -0.2999635429 -0.1269657959 0.1135194223
285298290.0 -0.1431068175 0.1073056463 0.4667918249 -0.3054630188 0.4667171738 -0.3054957802 -0.1256311823 0.1151351684
290298260.0 -0.142010706 0.1083777217 0.4628704839 -0.3104896109 0.4634143965 -0.3105037614 -0.1242524031 0.1168816786
295298230.0 -0.1410386368 0.109344769 0.45974615 -0.3156182168 0.4597446226 -0.3156679815 -0.122799756 0.1177862711
300298200.0 -0.1402761825 0.1110706792 0.4565156014 -0.3205230689 0.4567524887 -0.3215774195 -0.1217050907 0.1191526882
305298170.0 -0.138869601 0.112183666 0.4528163106 -0.3267683834 0.4526976355 -0.3262501371 -0.1201227667 0.1200083352
310298140.0 -0.1383974355 0.113838103 0.4493477609 -0.3314744008 0.4497816776 -0.3315430734 -0.1189936168 0.1215720551
315298110.0 -0.1369593006 0.1146884012 0.4455987241 -0.3366469579 0.4459444065 -0.3365614245 -0.1178816821 0.1229168987
320298080.0 -0.1360655873 0.1157238532 0.4416939041 -0.3421495261 0.4417644195 -0.3417041154 -0.1166486052 0.1243337066
325298050.0 -0.1349180713 0.1171131146 0.4383402799 -0.3470621812 0.4380090193 -0.346771656 -0.115866596 0.1252506434
330298020.0 -0.1342274961 0.1182883326 0.4339968105 -0.3520662907 0.4340979103 -0.3518948938 -0.1144045907 0.1267801263
335297990.0 -0.1330800584 0.1195605048 0.4300543023 -0.3564728505 0.4300329809 -0.3567041868 -0.1135023833 0.1285112862
340297960.0 -0.132631526 0.1208877223 0.4256373324 -0.3613189854 0.425676529 -0.3617082886 -0.1114518288 0.1300135894
345297930.0 -0.1316479858 0.1228286501 0.4217222233 -0.3661751925 0.4219270123 -0.3661352845 -0.1106840487 0.1306557788
350297900.0 -0.1305086048 0.1235284867 0.4171266187 -0.3710330802 0.4173304925 -0.3708761238 -0.109672098 0.1326762888
355297870.0 -0.1291753442 0.1254928117 0.4132883729 -0.3750528046 0.4138665798 -0.3752829806 -0.1080757308 0.1339108719
360297840.0 -0.1284963279 0.1269895868 0.4100248824 -0.3800140772 0.4102066451 -0.3798630216 -0.106846161 0.1355197257
365297810.0 -0.1272648404 0.1284138735 0.4053430623 -0.3842969318 0.4054783642 -0.384570436 -0.1053675075 0.1365656521
370297780.0 -0.1259965129 0.1294125245 0.4007806774 -0.3887518776 0.4009261623 -0.3884239152 -0.1037097775 0.1382255129
375297750.0 -0.1245775287 0.1309463629 0.3965481048 -0.3932079803 0.3969909396 -0.393315878 -0.1025976182 0.1390987099
380297720.0 -0.1235005916 0.1322993063 0.3923075289 -0.3979690564 0.392522118 -0.3970061799 -0.1014142715 0.1404002655
385297690.0 -0.1223983505 0.1334481555 0.3879112788 -0.4020598529 0.3877521089 -0.4019175986 -0.0995412827 0.1418683638
390297660.0 -0.1214263072 0.1348407209 0.3836473374 -0.4061504364 0.3834090852 -0.4056909048 -0.0985250195 0.1427651166
395297630.0 -0.1197852931 0.1364384892 0.3791752747 -0.4100305819 0.379130582 -0.4105731556 -0.0962602007 0.144479735
400297600.0 -0.1186691286 0.1377929419 0.3742657166 -0.4147922793 0.3743591483 -0.4144424925 -0.0950489844 0.1457468442
405297570.0 -0.1178488212 0.1385583425 0.3702298086 -0.4182203493 0.3700322213 -0.4182593253 -0.0938774843 0.1469596627
410297540.0 -0.1160792768 0.1401221314 0.3654218083 -0.4227676125 0.3657668452 -0.4226616684 -0.0921686934 0.1482595069
415297510.0 -0.1144453248 0.1409859823 0.3607948955 -0.4267215473 0.3612024098 -0.4266585255 -0.0904635966 0.1492095624
420297480.0 -0.1135026453 0.1427218942 0.3557190789 -0.4301419387 0.3561128474 -0.4305249203 -0.0888729236 0.1500722448
425297450.0 -0.1121984307 0.1434599908 0.3513413926 -0.4343127516 0.3515607854 -0.4344042583 -0.0877766311 0.1517100238
430297420.0 -0.1107706242 0.1449137502 0.3465136814 -0.4376782667 0.3467098649 -0.4373260231 -0.0857202676 0.1521595349
435297390.0 -0.1094479892 0.1461877697 0.3412874902 -0.4415634636 0.3414635689 -0.4421070581 -0.0836512529 0.1535622668
440297360.0 -0.1079195691 0.1474334704 0.3368893296 -0.4456463035 0.3367713152 -0.4454921306 -0.0825851913 0.1544208729
445297330.0 -0.1067736991 0.1483276622 0.3322518317 -0.4487558819 0.3320471453 -0.4489034263 -0.0807190862 0.1550584506
450297300.0 -0.1050119469 0.1495484517 0.3272017124 -0.4525932024 0.3267936897 -0.4530201906 -0.0790548483 0.1562849504
455297270.0 -0.1037948597 0.1507189952 0.3221315221 -0.4560062984 0.3220145998 -0.4562090778 -0.0774296809 0.1575123968
460297240.0 -0.1025856835 0.1518941755 0.3167862791 -0.4595635741 0.3171068504 -0.4596415675 -0.0754909139 0.1585045106
465297210.0 -0.1009410003 0.1529559748 0.3120515186 -0.4631404086 0.3119536657 -0.4635563805 -0.0735812894 0.1591281309
470297180.0 -0.0991666856 0.1539474905 0.3063962655 -0.466718295 0.3070262099 -0.4665847476 -0.071778357 0.1602931228
475297150.0 -0.0977900687 0.1550179461 0.3017613825 -0.4692258605 0.30198669 -0.4693221585 -0.0696721841 0.1610656152
480297120.0 -0.0964630503 0.1562574061 0.2965504746 -0.473004877 0.2967071851 -0.4733652865 -0.0681256661 0.1623020038
485297090.0 -0.0950666174 0.1575864612 0.2917188144 -0.4760963465 0.2915286327 -0.4761679206 -0.0661557889 0.1628459441
490297060.0 -0.0939867724 0.1584821524 0.2867266719 -0.4793526017 0.2864076429 -0.4792502447 -0.0642754029 0.1643111078
495297030.0 -0.0921979926 0.1594809194 0.2807571065 -0.4823264815 0.2815175054 -0.4823928894 -0.063032019 0.1649199767
500297000.0 -0.0905568259 0.1602691849 0.2756201336 -0.4851474224 0.2753814882 -0.4847491059 -0.0608974291 0.1660400018
505296970.0 -0.0888203741 0.1612985694 0.2705181867 -0.4881869939 0.2702804849 -0.488499783 -0.0590156905 0.1670342333
510296940.0 -0.0873848178 0.1624400139 0.2651893825 -0.4911533841 0.2650787857 -0.4915474427 -0.056997201 0.1677203129
515296910.0 -0.0858448066 0.1634093541 0.2595048051 -0.4939825643 0.2598856334 -0.4940009638 -0.0555704442 0.1684043169
520296880.0 -0.0845224878 0.1642635343 0.25464453 -0.4967441301 0.2541809545 -0.4967765638 -0.0535133049 0.1689977372
525296850.0 -0.0826153177 0.1646244905 0.2487005521 -0.4995273268 0.2493714601 -0.4996059694 -0.051746205 0.1699833451
530296820.0 -0.0808256656 0.1662046068 0.2430227778 -0.5024194713 0.2436572538 -0.5022152059 -0.0500474064 0.1708528493
535296790.0 -0.0797294701 0.1670871063 0.2382187986 -0.5047797316 0.2382713479 -0.5046946902 -0.0480749694 0.1710510921
540296760.0 -0.0780728787 0.168103447 0.2329130743 -0.5076464478 0.2325616076 -0.507422769 -0.0463428481 0.1722214823
545296730.0 -0.0763997934 0.16896768 0.2267087121 -0.5097384694 0.2269235046 -0.5098782598 -0.0443189899 0.1726699327
550296700.0 -0.0742910466 0.1700717558 0.2214698248 -0.512090677 0.221595465 -0.5123772418 -0.0424387901 0.173670368
555296670.0 -0.0730119838 0.1705662988 0.2164932372 -0.5145260308 0.2161567909 -0.5144351921 -0.0404882461 0.1743019097
560296640.0 -0.0710236025 0.1718139669 0.2101030932 -0.5171756407 0.2104301934 -0.5169750392 -0.0385231571 0.1746749162
565296610.0 -0.0698389522 0.1724289703 0.2044367473 -0.5191234813 0.2048013096 -0.5189138454 -0.0367292988 0.1750046439
570296580.0 -0.0682577558 0.1732583515 0.1990185283 -0.521835341 0.1986569322 -0.5213630389 -0.0350175118 0.1761749582
575296550.0 -0.0667691965 0.1741682714 0.1938230867 -0.5231872451 0.1930897555 -0.523432059 -0.032738618 0.1765213232
580296520.0 -0.0644494346 0.1749550027 0.1872614791 -0.5258021785 0.1875391901 -0.5256161526 -0.0310641122 0.1768526537
585296490.0 -0.0630281069 0.1752530074 0.1815607787 -0.5272236369 0.1823753692 -0.5275574564 -0.0290343865 0.1775648764
590296460.0 -0.0609823982 0.1764177926 0.176042316 -0.5289976485 0.1764161949 -0.5294929945 -0.0277906195 0.1782223461
595296430.0 -0.0592431954 0.1774217009 0.1696771179 -0.5314143894 0.1701562461 -0.5311759448 -0.0250019436 0.1782445211
600296400.0 -0.058104219 0.1775399461 0.1647392256 -0.5332967085 0.1646821822 -0.5327922917 -0.0231803022 0.1786016408
605296370.0 -0.0563229814 0.1783948071 0.1589935988 -0.534257209 0.1592332303 -0.5348113153 -0.0210613034 0.1790302605
610296340.0 -0.0543530517 0.1789997609 0.152891944 -0.5361112608 0.1530336456 -0.5362327944 -0.0189453227 0.1792765404
615296310.0 -0.0524239574 0.1798165748 0.1470131894 -0.5379934713 0.1469248596 -0.5380013189 -0.0168080053 0.1795489196
620296280.0 -0.050798286 0.1802181163 0.1412747482 -0.5394720775 0.1412104109 -0.5392788099 -0.0153445159 0.1800365775
625296250.0 -0.0491095449 0.1807202012 0.1355487824 -0.541107856 0.1353899628 -0.5414344176 -0.0128058002 0.1800311731
630296220.0 -0.046693641 0.1814331403 0.1290316625 -0.5424729564 0.1297823323 -0.5419591074 -0.0111161078 0.180832517
635296190.0 -0.0461281126 0.1818981313 0.124078695 -0.5433167265 0.1237240806 -0.5437169706 -0.0089170867 0.1807723477
640296160.0 -0.0440244449 0.1825060101 0.1179137987 -0.5447659416 0.1183337778 -0.544750137 -0.006846066 0.1808784458
645296130.0 -0.0420713974 0.183502707 0.1115975311 -0.5457068816 0.1124870192 -0.546162444 -0.005000431 0.1816384166
650296100.0 -0.0402089041 0.1837587786 0.1061324735 -0.5466704544 0.1063260985 -0.5471026787 -0.0025572055 0.1811694967
655296070.0 -0.0388022721 0.1841583925 0.1003312539 -0.5482312118 0.1003106315 -0.5481699094 -0.0007435034 0.1817789285
660296040.0 -0.0373278145 0.1843457195 0.0943976512 -0.5489170066 0.0943212341 -0.5493634868 0.0016545344 0.1819247748
665296010.0 -0.0344499071 0.1849561887 0.087564917 -0.550359947 0.0883392534 -0.550392473 0.003738704 0.1824424203
670295980.0 -0.0341133406 0.1856523523 0.0822761641 -0.5506673728 0.0825252369 -0.5510627106 0.0053325566 0.1823012885
675295950.0 -0.0316023273 0.1863099343 0.076915659 -0.5517976052 0.0768219171 -0.5511959313 0.0071554918 0.1827066242
680295920.0 -0.030083075 0.1864834037 0.0705047461 -0.5526761069 0.0701782613 -0.5527186269 0.0092506661 0.183138043
685295890.0 -0.028074346 0.1875404341 0.0647250701 -0.5533859978 0.0643971098 -0.5532879456 0.0112543451 0.1827002756
690295860.0 -0.0259381535 0.1877936022 0.0584771106 -0.553265881 0.0584722525 -0.5542760434 0.0135956408 0.1831155766
695295830.0 -0.0242882705 0.1878389825 0.0529917596 -0.5547620286 0.0525175823 -0.5544778662 0.0152812405 0.1831445632
700295800.0 -0.0226538014 0.1879078453 0.0467893034 -0.5547504318 0.0465170368 -0.5548480676 0.0170217658 0.1833696569
705295770.0 -0.0208558418 0.1890029495 0.0403762835 -0.5551694259 0.0410151032 -0.5555754392 0.0192446698 0.1831727616
710295740.0 -0.0186877575 0.189130945 0.0348054591 -0.5562209455 0.0349306152 -0.556412903 0.0215419504 0.1825710389
715295710.0 -0.0173826639 0.1894448048 0.0292112279 -0.5559761701 0.028398242 -0.5565155629 0.0239928169 0.1827316356
720295680.0 -0.0154879311 0.1898408102 0.0228085751 -0.5564098173 0.0227533165 -0.5564610545 0.0257936739 0.1830575329
725295650.0 -0.0134812438 0.1901198876 0.0169351742 -0.5563779777 0.0166932961 -0.556677854 0.0269532387 0.1831021136
730295620.0 -0.0112820151 0.1905111013 0.0104530557 -0.5565721879 0.0105847214 -0.5568811216 0.0288677724 0.1826496686
735295590.0 -0.0097789502 0.1908130675 0.0047805097 -0.5567419987 0.0048033681 -0.5569461858 0.0308764198 0.1821588258
740295560.0 -0.0079136767 0.191165183 -0.00158804 -0.55684091 -0.0011673381 -0.5569226295 0.0335067953 0.1822622128
745295530.0 -0.0060213475 0.1912728772 -0.0073974547 -0.5565997921 -0.007362381 -0.5566079612 0.035436132 0.181543558
750295500.0 -0.0039529442 0.1911864204 -0.0133336539 -0.5560858515 -0.0131171841 -0.557024246 0.0374371601 0.181878071
755295470.0 -0.0019870922 0.1911860372 -0.0193341133 -0.556263097 -0.0189703131 -0.5564425029 0.0398311879 0.1808959188
760295440.0 -0.0002870862 0.1916561422 -0.0251622934 -0.5561273214 -0.0255123282 -0.5565274621 0.0414312789 0.1810324623
765295410.0 0.0015244171 0.1919248912 -0.0314182008 -0.5560961115 -0.031610084 -0.5562141317 0.0437223869 0.1808321841
770295380.0 0.002989492 0.1915603355 -0.0375396215 -0.5555690383 -0.0375119957 -0.5552524079 0.045170366 0.1800730104
775295350.0 0.0049024108 0.1912015225 -0.04323064 -0.5543003384 -0.0428827227 -0.55477039 0.0469194147 0.1798091083
780295320.0 0.0067791803 0.1919630283 -0.0491991127 -0.5539066863 -0.0488040991 -0.5545132295 0.0489768449 0.1789192503
785295290.0 0.0084985401 0.1915662623 -0.0554624633 -0.55317071 -0.0550560553 -0.5540486145 0.0513423786 0.1788521659
790295260.0 0.010954738 0.1923401422 -0.0610932111 -0.5530364313 -0.0600610281 -0.5530981102 0.0534081289 0.1787309804
795295230.0 0.0124854118 0.1919613884 -0.0672089332 -0.5521660411 -0.0662823786 -0.5524598293 0.0556450898 0.1784959435
800295200.0 0.0141912001 0.191895663 -0.0736528878 -0.5510656841 -0.0725246554 -0.5514482625 0.0576230154 0.1776204772
805295170.0 0.0163704366 0.1920785358 -0.0791414314 -0.5505776005 -0.0791233415 -0.5510630389 0.05921971 0.1769933251
810295140.0 0.0181000672 0.1917888068 -0.0846779483 -0.5491392148 -0.0848170636 -0.5499765858 0.0618428212 0.176946933
815295110.0 0.0198288852 0.1915173751 -0.0909755492 -0.5479598307 -0.0901854068 -0.5488173242 0.0637282166 0.1762957705
820295080.0 0.0216035523 0.1920466964 -0.0964658713 -0.5474924676 -0.0959627983 -0.5480152651 0.065522806 0.1754976258
825295050.0 0.024212852 0.191555211 -0.1022445396 -0.5459628966 -0.1022684065 -0.546774764 0.0676176997 0.1752229867
830295020.0 0.0255904767 0.1918870328 -0.1081718345 -0.5452506822 -0.1080836062 -0.5452305124 0.0702579145 0.1747261169
