!Created with skrf (http://scikit-rf.org).
# Hz S RI R 50.0 
!freq ReS11 ImS11 ReS21 ImS21 ReS12 ImS12 ReS22 ImS22
300000.0 -0.1000702558 -0.0650401658 0.6303454834 0.0620740681 0.6238127288 0.0621891955 -0.1001125806 -0.073905611
5299970.0 -0.1021082468 0.0132553925 0.6305700855 0.0100628142 0.6305088628 0.0100751977 -0.1007035605 0.0130902832
10299940.0 -0.09728063 0.0293434845 0.6335393155 0.015192413 0.6345012889 0.0155801688 -0.0959145093 0.0302585166
15299910.0 -0.0900637683 0.0426843434 0.6403069055 0.0202516265 0.6403448241 0.0205233464 -0.088795694 0.043448766
20299880.0 -0.0816917394 0.0532168298 0.6489441745 0.0245677536 0.6485460604 0.0241469862 -0.0797589505 0.0547003134
25299850.0 -0.072134115 0.0622140613 0.6575799642 0.0252817564 0.6578561359 0.0252652575 -0.0698308659 0.063202721
30299820.0 -0.0622353819 0.0688994053 0.667736838 0.0243662429 0.6671129211 0.024353034 -0.0595967386 0.0700900084
35299790.0 -0.0524844335 0.0735929274 0.6772667013 0.0210614329 0.6770743433 0.0213446682 -0.0498490323 0.0749189745
40299760.0 -0.0432849707 0.0770762835 0.6861658534 0.0173729417 0.6863628424 0.0174828181 -0.0402176563 0.0775905232
45299730.0 -0.0339974046 0.0793643403 0.695076836 0.0118813428 0.6952376283 0.0119966741 -0.0312970014 0.07968254
50299700.0 -0.0258116376 0.0801953101 0.7036078407 0.0047671955 0.7040812581 0.005167321 -0.0227878227 0.0808003832
55299670.0 -0.0175395283 0.0804396241 0.7110697087 -0.0035522224 0.7108554049 -0.0026641459 -0.0149711893 0.0806888949
60299640.0 -0.0098301279 0.0800457185 0.7172382327 -0.0114444739 0.7179625222 -0.0109247199 -0.007741473 0.0793787582
65299610.0 -0.0039557467 0.0789270302 0.7231723659 -0.0203972897 0.7235253501 -0.0199149362 -0.0011569965 0.0783724307
70299580.0 0.002632261 0.077536497 0.7288873621 -0.0298834831 0.7285846195 -0.0290122568 0.0049857701 0.0768008448
75299550.0 0.0081454631 0.075835652 0.7324145261 -0.0390451109 0.7328158529 -0.0391514328 0.0102795198 0.0749332212
80299520.0 0.0131226338 0.073582618 0.7370030913 -0.049060375 0.7375953503 -0.0490529461 0.0151196558 0.0727529025
85299490.0 0.017729843 0.0713868992 0.740337789 -0.0584678221 0.7407065042 -0.0589032671 0.019337715 0.070190367
90299460.0 0.0217568131 0.0691370978 0.7425628031 -0.0689551613 0.7435057856 -0.068650877 0.0235518387 0.0679150939
95299430.0 0.0258967579 0.0665115867 0.7458001954 -0.079111153 0.7458686156 -0.0789170714 0.0272989745 0.0654738899
100299400.0 0.0290039443 0.0647348036 0.7464746973 -0.0892520558 0.7467872038 -0.088942166 0.0311908364 0.062442019
105299370.0 0.0322412634 0.0619169716 0.7486062285 -0.0995043758 0.7488031132 -0.0995485365 0.0340281537 0.0605002626
110299340.0 0.0349840287 0.0595894457 0.7500996796 -0.1092211625 0.7499349829 -0.1092865443 0.0358430711 0.0579655799
115299310.0 0.0375342659 0.0573238748 0.7507209767 -0.1193353975 0.7507617184 -0.119287868 0.0388815234 0.0554297077
120299280.0 0.0398455013 0.05457284 0.7506242278 -0.1294743699 0.7517124531 -0.1295682424 0.0413341979 0.0531776871
125299250.0 0.0419096808 0.0521299009 0.7518042662 -0.1390717496 0.7513685594 -0.139027342 0.0427886699 0.0501167298
130299220.0 0.0435842143 0.0502765389 0.7510797233 -0.1493914976 0.7510799231 -0.149099536 0.0447772911 0.0482291963
135299190.0 0.0453457557 0.0483425699 0.7515290478 -0.159146188 0.7510869215 -0.1586653877 0.0466054328 0.045829485
140299160.0 0.0467379058 0.0463647004 0.7503725264 -0.1689950921 0.7506165028 -0.1685071416 0.0479377549 0.0445306972
145299130.0 0.048121891 0.043841231 0.7498379571 -0.1787210911 0.7498948199 -0.1784201234 0.0494470129 0.0419462633
150299100.0 0.0497165829 0.0421121672 0.7484286412 -0.1874949056 0.7490352382 -0.1878543629 0.0507993585 0.0400743088
155299070.0 0.0501941678 0.0394059455 0.7479527176 -0.1982129852 0.7476585319 -0.1980068495 0.0515637244 0.0386487793
160299040.0 0.0519179629 0.0380682899 0.7463140661 -0.2075422267 0.7457564119 -0.2074449258 0.0523183164 0.0363807451
165299010.0 0.0523029179 0.03634712 0.7444291182 -0.216972253 0.7442830101 -0.2169670373 0.0534415431 0.0349726382
170298980.0 0.0533723774 0.0339991753 0.7425082402 -0.2262748269 0.7433668117 -0.2266331198 0.0542946821 0.0331299528
175298950.0 0.0536346162 0.0321779193 0.7413456601 -0.2355330804 0.7409448138 -0.2352899642 0.0546762271 0.0315134369
180298920.0 0.0544330866 0.0304483715 0.7389065379 -0.2450900662 0.7390095586 -0.2445707856 0.0554695756 0.0295112617
185298890.0 0.0554215175 0.02867245 0.736056437 -0.2536633648 0.7364811111 -0.2535099449 0.0557920139 0.0283123219
190298860.0 0.0554849148 0.0272206626 0.7340893944 -0.2634524381 0.7348794981 -0.2633352828 0.0562649519 0.0260978509
195298830.0 0.0562579391 0.0252746146 0.7317756695 -0.2717040549 0.7317908159 -0.2718436862 0.0569911078 0.0248638788
200298800.0 0.0563613394 0.0238169806 0.7282303127 -0.2812024485 0.7289567214 -0.2811242749 0.0567479675 0.0235631624
205298770.0 0.0569951652 0.0227865966 0.7263072352 -0.2903847027 0.7261371569 -0.2901796793 0.0572964591 0.021296404
210298740.0 0.0570556465 0.0207297117 0.7229957391 -0.2983625188 0.7232329025 -0.2981167561 0.0578966369 0.0211864261
215298710.0 0.0567972773 0.0195424831 0.7202970053 -0.3079201021 0.7203217151 -0.307637021 0.057633471 0.0197928861
220298680.0 0.057562395 0.0175526298 0.7167291651 -0.3162744888 0.7170243966 -0.3157746538 0.0574756542 0.0179843864
225298650.0 0.0578064774 0.0164729071 0.7138271077 -0.3252676487 0.7136344952 -0.3248066148 0.0574990055 0.0163593771
230298620.0 0.0578852134 0.0157613023 0.7106846958 -0.3332461181 0.710388999 -0.3332159301 0.0574360027 0.0149313689
235298590.0 0.0576955497 0.0145838103 0.7064104191 -0.3414599398 0.7067706085 -0.3413209599 0.0576652008 0.0141712957
240298560.0 0.0581389423 0.0133374269 0.7032783709 -0.3496290641 0.7029037206 -0.3499727511 0.0576493908 0.0129557132
245298530.0 0.0578822204 0.0120225001 0.6999245839 -0.358334678 0.6997854145 -0.3585216293 0.0581830019 0.0110980025
250298500.0 0.0584958415 0.0108265083 0.6949185299 -0.3667030951 0.6950673055 -0.3659559202 0.0578749638 0.010380816
255298470.0 0.0585160233 0.0090916332 0.6915122549 -0.3742308757 0.6916251182 -0.3740727598 0.0582682028 0.0089841487
260298440.0 0.0580640061 0.0081913361 0.6875625769 -0.3835382935 0.6876919443 -0.3827264728 0.058642446 0.0079781173
265298410.0 0.0588027086 0.0074854993 0.683712564 -0.3910785574 0.6837129682 -0.3903051947 0.0581505707 0.0066812855
270298380.0 0.0585710948 0.0061997141 0.6799350157 -0.3982513833 0.6796743363 -0.3984687824 0.057932905 0.0057054667
275298350.0 0.0590636957 0.0052264589 0.6753523839 -0.406737738 0.6752071085 -0.4067911875 0.0585143102 0.0044306867
280298320.0 0.0587595794 0.0041807997 0.6709785116 -0.4149246109 0.6707780059 -0.4144692851 0.0585512584 0.003376045
285298290.0 0.0587389602 0.0032154594 0.6662604103 -0.4222597115 0.6660206183 -0.4223890219 0.0583364507 0.0020358558
290298260.0 0.0590964447 0.0020008051 0.6615988784 -0.430008707 0.6622925954 -0.4301940648 0.0584881932 0.0014052054
295298230.0 0.0588882137 0.0008150338 0.6573093053 -0.4374704187 0.6574468036 -0.4378509757 0.0593235848 0.0003919358
300298200.0 0.0584120267 -0.000165953 0.6529189556 -0.4449936165 0.653015275 -0.445955208 0.058759847 -0.0008639607
305298170.0 0.0587906845 -0.0013906558 0.6477865768 -0.453901993 0.6479858463 -0.4534713207 0.0594056861 -0.0021023576
310298140.0 0.0585468511 -0.002469662 0.6430294621 -0.4606463912 0.6428176686 -0.4608704906 0.0591922994 -0.0028672187
315298110.0 0.0585033422 -0.0043305226 0.6377330464 -0.4685436499 0.6379632957 -0.4686590425 0.058896663 -0.0043572201
320298080.0 0.0584802983 -0.004834543 0.6320950727 -0.4763333146 0.6328483727 -0.4757239206 0.0587246532 -0.0050473631
325298050.0 0.0576063255 -0.0059949615 0.6267765194 -0.4833286376 0.6271853741 -0.4836568223 0.0580403016 -0.0062559096
330298020.0 0.0572147029 -0.0074612581 0.6211945921 -0.4910528557 0.6221029677 -0.4910146015 0.0574395963 -0.0075976255
335297990.0 0.0569740332 -0.0089116424 0.6157405873 -0.4978656353 0.6151648132 -0.4982705322 0.0565678617 -0.0077602012
340297960.0 0.0561290782 -0.0090215964 0.6098050976 -0.5051092233 0.6090768496 -0.505152862 0.0566751899 -0.008831191
345297930.0 0.0556629287 -0.0091352129 0.6038493859 -0.5121581098 0.6038501592 -0.5119972834 0.0566580955 -0.0097835828
350297900.0 0.0550539586 -0.0107459993 0.5975230991 -0.5186880709 0.5978487358 -0.5187561556 0.0554650008 -0.0097383609
355297870.0 0.0548851873 -0.0105857079 0.5919068191 -0.5251554751 0.5927209909 -0.5251166537 0.0551479748 -0.010822678
360297840.0 0.0546810887 -0.0113311284 0.5875194514 -0.531836061 0.5874998067 -0.5314206839 0.0548353075 -0.0111924004
365297810.0 0.0539938061 -0.0119549067 0.5807568643 -0.5385424805 0.5815309114 -0.5389026439 0.055032616 -0.0119611795
370297780.0 0.0542461024 -0.0132724223 0.5746065162 -0.5447523335 0.5750888968 -0.5441689497 0.0542149601 -0.0124223375
375297750.0 0.0538219273 -0.0138731117 0.5689482224 -0.5511563398 0.5695769197 -0.5513378686 0.0542236703 -0.0131603525
380297720.0 0.0535486067 -0.0143384596 0.5625281407 -0.5576885829 0.562665778 -0.5568136854 0.0531537694 -0.0141727649
385297690.0 0.0526941666 -0.015052922 0.5564188573 -0.5640157547 0.5562644223 -0.563702817 0.0530898 -0.0142930571
390297660.0 0.0527278898 -0.0154191534 0.5502126624 -0.5698075302 0.5501669834 -0.5699581069 0.0527662484 -0.01515529
395297630.0 0.0522662555 -0.0159072599 0.5437709761 -0.5761781534 0.5443331746 -0.5761869833 0.0531216063 -0.0156286763
400297600.0 0.0517492714 -0.0167968224 0.536665702 -0.5828226076 0.5374132734 -0.5823201281 0.0521998148 -0.016409601
405297570.0 0.0514777502 -0.0175466383 0.5305890802 -0.5878588268 0.5315981294 -0.5877285294 0.0515033528 -0.0166438161
410297540.0 0.0513186663 -0.0183445048 0.5248224343 -0.5940233534 0.5253557226 -0.5940465294 0.0511815389 -0.0173295345
415297510.0 0.0512084808 -0.0187528989 0.5178495034 -0.6002848689 0.5182101578 -0.5999090637 0.0510562004 -0.0180602302
420297480.0 0.0505988994 -0.0193237011 0.5111579883 -0.6057864296 0.5114794743 -0.6062108798 0.0502995321 -0.0191424172
425297450.0 0.0503200316 -0.0203508049 0.5047380277 -0.6117204636 0.5051120879 -0.6115140927 0.0496765691 -0.0188021129
430297420.0 0.0499648362 -0.0209147033 0.497434871 -0.6163072818 0.4977063928 -0.6163918829 0.0493567791 -0.0200289743
435297390.0 0.0495863036 -0.0212845109 0.4908644888 -0.6225322599 0.4908254428 -0.6222307917 0.0499895303 -0.0206665117
440297360.0 0.0494199747 -0.0215743402 0.4839802268 -0.6279319618 0.4840829243 -0.6282463659 0.0489489019 -0.0219561591
445297330.0 0.0489050729 -0.0227373255 0.4778837075 -0.6327939607 0.4774238563 -0.6323926255 0.0489443021 -0.0220277298
450297300.0 0.0487811161 -0.0232092312 0.4705109779 -0.6384629757 0.4702281658 -0.6388749237 0.0484791383 -0.0227990919
455297270.0 0.0481404625 -0.0236381903 0.4630771563 -0.6432337163 0.4634521102 -0.6436232013 0.04795513 -0.0231536493
460297240.0 0.0476626314 -0.0241947997 0.4558655728 -0.6487426006 0.455895536 -0.6491611544 0.0474981368 -0.0236730575
465297210.0 0.0474663491 -0.0248105663 0.4494735923 -0.6544207734 0.4490323112 -0.6542131378 0.0474088006 -0.0245962964
470297180.0 0.0469440712 -0.0257691902 0.4416882049 -0.6589371558 0.441759518 -0.6588456403 0.0469034613 -0.0247598488
475297150.0 0.0465277256 -0.0265140578 0.4344060219 -0.6628827796 0.4350639584 -0.6631385761 0.0472825814 -0.0258519813
480297120.0 0.0460261124 -0.0261751633 0.4270121015 -0.6685914102 0.4272217133 -0.6686750327 0.0466296585 -0.02601109
485297090.0 0.0452926884 -0.0270783216 0.4201760592 -0.6724606643 0.4200131311 -0.6729942379 0.0463568744 -0.0269243299
490297060.0 0.0446553008 -0.0275887327 0.4129962503 -0.6778386076 0.4128866429 -0.6775652502 0.0459048316 -0.0266772521
495297030.0 0.0447300016 -0.0280303573 0.4049026897 -0.6819134168 0.4056720032 -0.682672368 0.0450492854 -0.0280327557
500297000.0 0.0439892902 -0.0288162832 0.3972643463 -0.6860403657 0.3970312404 -0.685696204 0.0447556803 -0.0272966813
505296970.0 0.0437707616 -0.029409789 0.3902188341 -0.6900575582 0.3898826292 -0.690886078 0.044589694 -0.028232511
510296940.0 0.0435007362 -0.0296966976 0.3822363152 -0.6950812438 0.3821578052 -0.6956598139 0.0444903012 -0.0284079926
515296910.0 0.0425166311 -0.0296826549 0.3737685942 -0.6995986235 0.374493499 -0.699098128 0.043761007 -0.0287334683
520296880.0 0.0421048879 -0.030521434 0.3670295959 -0.7040528006 0.3668787808 -0.7034777005 0.0432182128 -0.0296205079
525296850.0 0.0418839791 -0.0312365312 0.3590404389 -0.7074617444 0.35961255 -0.7071222427 0.0425646285 -0.0295520975
530296820.0 0.0412004137 -0.0314278979 0.3507960832 -0.7117949117 0.3512393366 -0.7112092664 0.0422717538 -0.0300955822
535296790.0 0.040448893 -0.0319740311 0.3437221838 -0.7148789494 0.3439262795 -0.7150608746 0.0418839663 -0.0312536443
540296760.0 0.0399826695 -0.0321060659 0.3361028637 -0.7192986434 0.3351826027 -0.7188106549 0.0408475091 -0.0305440188
545296730.0 0.0394072296 -0.0326028624 0.3275949394 -0.7226174709 0.3276407982 -0.7227906902 0.0402898353 -0.0314005506
550296700.0 0.0395684896 -0.0326593506 0.3194204007 -0.72640217 0.3201253679 -0.7262262428 0.0397246503 -0.0313562607
555296670.0 0.038477569 -0.0332800167 0.3122578361 -0.730021579 0.3120211787 -0.7295910388 0.0393771739 -0.0318834654
560296640.0 0.0385842123 -0.0331313397 0.3039872677 -0.7330059144 0.3040122059 -0.7330002816 0.0390902117 -0.0325237357
565296610.0 0.0372576623 -0.0340388933 0.2959523207 -0.7366267566 0.2959065312 -0.7361566951 0.0379746842 -0.0331400398
570296580.0 0.0369214127 -0.0338203722 0.2878741537 -0.7398365511 0.2870461841 -0.739319949 0.0374851589 -0.0327660156
575296550.0 0.036300511 -0.0342712245 0.2791018117 -0.7428647915 0.2794816265 -0.7425985687 0.0376232135 -0.0335953957
580296520.0 0.0360738589 -0.0345276018 0.2714120954 -0.7463863467 0.2717812385 -0.745913316 0.0365125189 -0.0339819217
585296490.0 0.0354585202 -0.0356734666 0.2638069349 -0.7485767685 0.2638064615 -0.7486560201 0.0358506277 -0.0341507671
590296460.0 0.0352615223 -0.035569618 0.255147515 -0.7504921232 0.2553116139 -0.7513560158 0.0346736569 -0.0345029932
595296430.0 0.0350646425 -0.0356876368 0.2462498791 -0.7545296093 0.2463884068 -0.7537555325 0.0352367932 -0.0352751989
600296400.0 0.0336000288 -0.0364272998 0.238254448 -0.7573188823 0.2389185758 -0.7567070512 0.0341992743 -0.0355985188
605296370.0 0.0334952076 -0.0366416841 0.2304191101 -0.7591739909 0.2309372077 -0.7596230393 0.0338485371 -0.0358792215
610296340.0 0.0329351308 -0.0370513707 0.2214864468 -0.7617410086 0.2229940042 -0.7616463348 0.0338973318 -0.036316852
615296310.0 0.0328284973 -0.0378474438 0.213531754 -0.7642694206 0.2134668004 -0.7648439819 0.0331238551 -0.0361600071
620296280.0 0.0320586971 -0.0381442324 0.2054888427 -0.7663621558 0.2052912881 -0.7663790193 0.0319178437 -0.0369203046
625296250.0 0.0310246105 -0.0387101573 0.1978379476 -0.768733278 0.1973787059 -0.7688472754 0.0326594958 -0.0369882308
630296220.0 0.0317376836 -0.0384661089 0.1883849661 -0.7706083257 0.1877430168 -0.7705498921 0.0311978874 -0.037000405
635296190.0 0.0295908065 -0.0392188501 0.1798592318 -0.7723051592 0.1801840413 -0.7732047793 0.031125558 -0.0374871497
640296160.0 0.0293506053 -0.0392640339 0.1715088182 -0.7746322781 0.1721206326 -0.7745573478 0.0303481896 -0.0376322179
645296130.0 0.0289871924 -0.0390237452 0.1626171319 -0.7760351163 0.1634924792 -0.7768488136 0.0300287213 -0.0380217952
650296100.0 0.0284642685 -0.0396202578 0.1550445847 -0.7782123056 0.1548320393 -0.7783003154 0.0299481829 -0.0388864429
655296070.0 0.0276141587 -0.0401485516 0.1463079208 -0.7798522277 0.1464977846 -0.7794762245 0.0292086655 -0.0384715299
660296040.0 0.0267187608 -0.0406782127 0.1378168834 -0.7820202891 0.1381282856 -0.7820615319 0.0290965312 -0.0389616431
665296010.0 0.0268921324 -0.0404877941 0.1281386445 -0.783275675 0.1291471221 -0.7827024732 0.0283655706 -0.0385693314
670295980.0 0.0249045518 -0.0406281936 0.1206904759 -0.7840820098 0.1204871298 -0.7840844839 0.0271548715 -0.0392474908
675295950.0 0.024969371 -0.0403729814 0.1125183159 -0.7853864212 0.1125357404 -0.7844519727 0.0264613955 -0.0393644395
680295920.0 0.0238890241 -0.0413954641 0.1032345472 -0.7865427197 0.1028972617 -0.786939192 0.0261744998 -0.0385166426
685295890.0 0.0237179121 -0.0406026114 0.09434514 -0.7877931519 0.0948841996 -0.7874323204 0.0257273846 -0.0388893376
690295860.0 0.0235333895 -0.0409482923 0.0859154111 -0.7877163402 0.0860962877 -0.7888914047 0.0246845611 -0.0383903042
695295830.0 0.0229246371 -0.0414731226 0.078469593 -0.7897616869 0.0772306289 -0.7890162349 0.0242006638 -0.0390576945
700295800.0 0.0224345 -0.041844678 0.0690811341 -0.7897809981 0.0687828285 -0.7894257978 0.0235082614 -0.0385223323
705295770.0 0.0212151204 -0.0409536664 0.0604023834 -0.7907410796 0.0604025695 -0.7910676344 0.0228757748 -0.0391898523
710295740.0 0.0210243502 -0.0414169137 0.0521069648 -0.7920818459 0.0524034065 -0.7920486462 0.0227884937 -0.0397416423
715295710.0 0.0197891305 -0.0416906765 0.0438098289 -0.7927429715 0.0432127893 -0.7917954512 0.0221716412 -0.0397233023
720295680.0 0.0195026678 -0.0418093985 0.0348192135 -0.7928123165 0.0348169105 -0.7923777668 0.0214200228 -0.0389122847
725295650.0 0.0191779503 -0.0415568515 0.0262624466 -0.793004714 0.0260591499 -0.7929576822 0.0202625102 -0.0393593457
730295620.0 0.0188063757 -0.041399572 0.0172607929 -0.7923711718 0.0174432492 -0.793385827 0.0196589941 -0.0397718797
735295590.0 0.0178279748 -0.0414591654 0.0090239885 -0.7935772711 0.0089154024 -0.793427302 0.01905079 -0.039892591
740295560.0 0.0169280625 -0.0419053299 -5.57786e-05 -0.7931051932 -3.45116e-05 -0.7934367932 0.0189267979 -0.0396088487
745295530.0 0.0165702816 -0.0416704221 -0.0087163375 -0.7924976893 -0.0086113897 -0.7932118708 0.0180700609 -0.0402292197
750295500.0 0.015882999 -0.0419493831 -0.0172233964 -0.7928814983 -0.0168289822 -0.793346315 0.017379341 -0.0401809962
755295470.0 0.0154107094 -0.0422759516 -0.0250894131 -0.7926887016 -0.0250631391 -0.7927657811 0.0173425903 -0.0407589273
760295440.0 0.0148766815 -0.041964923 -0.0341249842 -0.7928455833 -0.0341267963 -0.7929273302 0.0165430886 -0.0405264162
765295410.0 0.0142267616 -0.0418977682 -0.0428351606 -0.7916810829 -0.0433056073 -0.792398446 0.0160205272 -0.0404944364
770295380.0 0.0131835355 -0.0422136712 -0.0521279155 -0.7913481415 -0.051790353 -0.7915801671 0.0148386999 -0.0407166622
775295350.0 0.0124366071 -0.0430111414 -0.0607072429 -0.790386379 -0.0597831736 -0.7908434419 0.0137172858 -0.0401878464
780295320.0 0.0122283199 -0.0421846885 -0.0688254034 -0.7891800262 -0.0682995697 -0.7898932022 0.0134340718 -0.0411110869
785295290.0 0.0112696231 -0.0431304623 -0.0774278787 -0.7881148199 -0.0770036026 -0.7890007465 0.0137305178 -0.0409396505
790295260.0 0.011439808 -0.0420389837 -0.085211721 -0.7876918705 -0.0848363657 -0.7880322009 0.0125150471 -0.0405991744
795295230.0 0.0105220758 -0.0425562252 -0.0944484946 -0.7870724292 -0.0936743423 -0.7874932518 0.0127023593 -0.0404464221
800295200.0 0.0094505712 -0.0419129906 -0.103840058 -0.7859463346 -0.1027027942 -0.7863035945 0.011647447 -0.0406778658
805295170.0 0.0091499763 -0.0425347095 -0.1113111726 -0.7843070389 -0.1121153186 -0.7846484404 0.0108923216 -0.0401797368
810295140.0 0.0079983783 -0.0428284345 -0.1195816833 -0.7835415795 -0.1199473708 -0.7833463457 0.0110447501 -0.0401257897
815295110.0 0.0078503652 -0.0430096351 -0.1286682215 -0.7818883934 -0.1282357698 -0.7819296636 0.0098069435 -0.0403225431
820295080.0 0.0066156646 -0.0417025479 -0.1373149109 -0.780502252 -0.1364964478 -0.7805613241 0.0094024842 -0.0402854232
825295050.0 0.0070050511 -0.042002274 -0.1452219582 -0.7790579655 -0.1449673689 -0.7792502797 0.0090673229 -0.0400994398
830295020.0 0.0060169888 -0.0418286283 -0.1544081082 -0.7768789365 -0.1538456876 -0.7772829855 0.0094533457 -0.0401623842
