!Created with skrf (http://scikit-rf.org).
# Hz S RI R 50.0 
!freq ReS11 ImS11 ReS21 ImS21 ReS12 ImS12 ReS22 ImS22
300000.0 -0.7699959612 -0.1930937534 -0.0001126147 0.001329432 8.32482e-05 -0.0003588441 -0.0441521583 -0.0812919732
5299970.0 -0.7861570189 -0.0097414646 -6.34072e-05 -4.1848e-05 -5.03489e-05 7.80997e-05 -0.0486990449 0.0142428782
10299940.0 -0.789172049 -0.0059514011 -3.91767e-05 0.0001659837 -0.000158308 7.53415e-05 -0.0426832294 0.0319752019
15299910.0 -0.7943948526 -0.0036216332 -5.55965e-05 5.2877e-06 -7.9563e-06 2.12938e-05 -0.0348574089 0.0467541496
20299880.0 -0.8010564439 0.0007361925 5.34036e-05 1.38389e-05 -9.41443e-05 -5.3612e-05 -0.0251261865 0.0584614895
25299850.0 -0.8074335544 0.0064405385 -1.33327e-05 8.26367e-05 0.0003096689 0.0001335076 -0.0141898355 0.0678172479
30299820.0 -0.8139908213 0.0135972296 -3.84372e-05 5.99e-06 2.37962e-05 -1.51586e-05 -0.0026914235 0.074766646
35299790.0 -0.8185726739 0.0227482048 6.11661e-05 0.0001824882 7.53627e-05 3.31934e-05 0.0087635592 0.0797500021
40299760.0 -0.823149671 0.0317491776 -3.72147e-05 -3.98363e-05 -0.0001619187 9.00275e-05 0.0198016972 0.0823848902
45299730.0 -0.8265244386 0.0420649105 -7.7627e-05 -2.92851e-05 9.98753e-05 -6.38621e-05 0.0303818706 0.0841222195
50299700.0 -0.8290452263 0.0519164346 -0.0001942354 0.0002433892 -1.54439e-05 0.0001112619 0.0406337458 0.0843572401
55299670.0 -0.8309990423 0.0612996793 5.94846e-05 0.0002692533 -0.0001150399 9.36319e-05 0.0494566029 0.0835635908
60299640.0 -0.8325180753 0.0720136925 -0.0002015408 0.0001301996 9.37911e-05 -2.895e-06 0.0580776206 0.0815188226
65299610.0 -0.8337003902 0.0817289725 0.000315212 0.0001554398 0.0001354364 -1.1412e-06 0.0660011088 0.0795413189
70299580.0 -0.8340878092 0.0917248012 -0.0001472665 0.0002907106 -0.0002087795 0.0002398948 0.0726722214 0.076785964
75299550.0 -0.8338443808 0.1013450523 -0.0001092707 4.2134e-05 0.0001267628 -9.78065e-05 0.0795518501 0.0737992813
80299520.0 -0.8340971352 0.1120768443 0.0002723723 3.12347e-05 0.0001590599 5.58378e-05 0.0849932296 0.0700187076
85299490.0 -0.8328336922 0.1216845922 0.0001675888 4.26691e-05 5.3899e-05 -7.04749e-05 0.0899383895 0.0666206092
90299460.0 -0.8324483 0.1312815589 5.57555e-05 0.0001179597 7.73536e-05 -3.03835e-05 0.0946119336 0.0629768457
95299430.0 -0.8314898616 0.1408778757 2.04686e-05 -8.79937e-05 6.6175e-06 1.04636e-05 0.0989185975 0.0591730529
100299400.0 -0.8307416779 0.1498111591 0.000134858 4.18907e-05 6.75837e-05 0.0002521074 0.1025591372 0.0555580217
105299370.0 -0.8292149153 0.159501573 -2.0612e-06 0.0002558273 0.0002344807 -8.20407e-05 0.105751951 0.0516383688
110299340.0 -0.8277755302 0.1687582653 -0.0001971941 6.95731e-05 0.0001042506 0.0001294942 0.1084062604 0.0474175232
115299310.0 -0.8260792796 0.1781731692 1.24505e-05 0.0002431121 0.0001616429 0.000189033 0.1111946468 0.0438112584
120299280.0 -0.8243036693 0.1866564718 -8.91576e-05 0.0002237202 -2.80291e-05 0.0001078448 0.1133250217 0.0399975981
125299250.0 -0.8227198816 0.1957922271 0.0002012622 0.0001963425 8.5934e-05 -8.61392e-05 0.1153500118 0.0363188188
130299220.0 -0.8213855895 0.2050598114 -2.89518e-05 7.227e-07 0.0002314702 0.0002624986 0.1173910535 0.0327406316
135299190.0 -0.8189572041 0.214154883 7.42775e-05 7.1823e-05 -5.7656e-05 0.0001377917 0.1189591484 0.029102896
140299160.0 -0.8173585371 0.2234798554 3.64594e-05 0.0001859534 0.000176164 -7.40675e-05 0.1198162201 0.0259902062
145299130.0 -0.8152279173 0.2326099563 -0.0001201266 0.0001461994 -1.3634e-05 0.0001486555 0.121020559 0.0223414507
150299100.0 -0.8118763607 0.2410969723 0.0002100596 -0.0001515508 4.70093e-05 0.0001259396 0.1220392939 0.0191717619
155299070.0 -0.8099535112 0.250488481 0.0003084126 -6.32767e-05 0.0001237528 -0.0001453873 0.1230009257 0.0156889935
160299040.0 -0.8075039268 0.2589289257 0.0002328585 0.0001377596 5.5755e-05 0.000103406 0.1234180775 0.0126708336
165299010.0 -0.8046118434 0.2675448953 0.0001942087 0.0001560305 2.11698e-05 0.000176178 0.1241777001 0.0094859213
170298980.0 -0.8021632971 0.2764468293 6.9014e-05 -0.0001655065 8.1381e-06 6.90137e-05 0.1244865353 0.0065738437
175298950.0 -0.7993217948 0.2845145584 2.85867e-05 0.0001799342 8.4803e-05 5.02998e-05 0.1247815414 0.0038491131
180298920.0 -0.796238236 0.2933259277 -3.43336e-05 4.49263e-05 -0.0001038208 0.0002151181 0.1251950179 0.0003854163
185298890.0 -0.7927026958 0.3023130494 2.61561e-05 -0.000144511 0.000406153 0.000173339 0.1252557937 -0.00227185
190298860.0 -0.7898369826 0.3113386073 -5.47965e-05 0.0001271854 0.0001899982 -2.54999e-05 0.1253026614 -0.0047973332
195298830.0 -0.7862024276 0.3193773397 0.0002597851 0.0001955494 1.4682e-05 9.75346e-05 0.1249513731 -0.007510269
200298800.0 -0.7820921188 0.3282371299 4.00749e-05 0.0002720551 -0.0001522021 -0.0001053286 0.1250769658 -0.0103319702
205298770.0 -0.7793011431 0.336715681 8.4352e-06 0.0002142627 0.0002933468 9.37834e-05 0.1248027744 -0.0129721513
210298740.0 -0.7760483478 0.345035997 -7.44569e-05 0.0004385458 0.0001497196 0.0001312718 0.1245466642 -0.0155582322
215298710.0 -0.7725633636 0.3530529705 0.0003279217 6.04067e-05 0.0001761536 5.03327e-05 0.1241833159 -0.0180468674
220298680.0 -0.7691902848 0.3608943048 0.000295644 0.0002674984 9.3244e-05 0.0001031373 0.1240514406 -0.020149516
225298650.0 -0.7649850357 0.3697134743 0.0002105903 0.0002777146 3.16477e-05 0.0003369485 0.123496832 -0.022659559
230298620.0 -0.7612186308 0.3777532832 0.0002950142 -8.20537e-05 0.0001369003 0.000147694 0.1229008117 -0.025034596
235298590.0 -0.7575711631 0.3863021758 0.0001246214 0.0001368629 -2.5151e-06 -7.0959e-06 0.1224194645 -0.026951277
240298560.0 -0.7526950529 0.3935451865 5.42219e-05 0.0001175879 2.23794e-05 0.0002035155 0.1218836028 -0.0294790136
245298530.0 -0.7491600768 0.401900163 0.0001108051 0.0002865238 3.36322e-05 0.0001963778 0.1213761165 -0.0315453339
250298500.0 -0.7448823798 0.4093726336 4.15741e-05 -2.94475e-05 5.669e-05 0.0001168949 0.1206244562 -0.0334048666
255298470.0 -0.7406292858 0.4175846659 0.0003182857 0.0001537488 -7.17107e-05 5.44535e-05 0.1201479313 -0.0360350291
260298440.0 -0.7363953261 0.4247673149 0.0001707826 -6.33043e-05 0.0002967629 0.0002546888 0.1190350718 -0.0377600272
265298410.0 -0.7320118146 0.4328094307 9.03933e-05 0.0001410285 0.0002455915 8.56538e-05 0.1189933719 -0.0400028745
270298380.0 -0.7268941765 0.4404037743 9.6753e-05 2.87481e-05 0.0003237463 0.0001272761 0.1180594698 -0.0416793032
275298350.0 -0.7230210965 0.4482114288 0.0001274289 8.92692e-05 -2.80161e-05 6.51184e-05 0.1172663039 -0.0435789224
280298320.0 -0.7181766145 0.4553543733 0.0002641657 -3.55884e-05 0.000343056 0.0002171651 0.1166871771 -0.0454927344
285298290.0 -0.7135334973 0.4631607657 0.0001005094 0.0001163488 0.0001179043 0.0002257865 0.1154484498 -0.0472185883
290298260.0 -0.7085149904 0.4709869899 0.000164259 0.0002924972 0.0002390848 0.0001334162 0.11493356 -0.0490193813
295298230.0 -0.7036778305 0.4783809582 0.0001320404 0.0001732048 0.0002415033 0.0001013036 0.11389825 -0.0508189297
300298200.0 -0.6990945435 0.4860247686 0.0003932057 -7.38846e-05 0.0001684589 0.0001469162 0.1134214202 -0.0526352514
305298170.0 -0.6947108303 0.4921395433 0.0001519834 -1.84601e-05 4.80614e-05 -4.62917e-05 0.1124795305 -0.0542838108
310298140.0 -0.6891873359 0.4997397214 6.89408e-05 8.4022e-05 0.0001835335 1.81563e-05 0.111679392 -0.056128174
315298110.0 -0.684872831 0.5070660288 5.88714e-05 0.0003262792 0.0002565189 9.14367e-05 0.1107274921 -0.0579310382
320298080.0 -0.6788548871 0.5144652468 0.0001905907 -2.8566e-05 0.0003277691 0.0001088336 0.1097080655 -0.059598894
325298050.0 -0.6736693183 0.5210194532 0.0001254014 3.96241e-05 0.0002892361 0.0001692062 0.1090001704 -0.0615214893
330298020.0 -0.6682931154 0.5281408294 0.0002140233 0.000235412 0.0002096715 0.0001152311 0.1076283572 -0.0636136768
335297990.0 -0.663011182 0.5345812744 9.28517e-05 -1.64202e-05 0.000311867 6.18403e-05 0.1062438813 -0.0649310964
340297960.0 -0.6574935935 0.5417918727 0.0002444768 0.0002161228 5.04776e-05 0.0002239919 0.1049773634 -0.0660823763
345297930.0 -0.6520285332 0.5483466923 0.0001078853 5.30469e-05 0.0001314182 0.0001210401 0.1037214994 -0.0678031903
350297900.0 -0.6464335802 0.5549016453 0.0001361167 0.000134562 0.0003414335 0.0002307623 0.1021696639 -0.0694672889
355297870.0 -0.64124133 0.5615475321 0.0003230781 0.0002129191 0.00018765 0.0002558913 0.1013055652 -0.0703781106
360297840.0 -0.6348154593 0.5679744229 0.0003214289 0.0001028879 0.0001817424 0.0002042752 0.1001865571 -0.0718380443
365297810.0 -0.6292847048 0.5750406361 0.0002219668 0.0003100671 0.0001298311 8.98607e-05 0.0987992142 -0.0730685403
370297780.0 -0.6236492508 0.5804009002 1.07427e-05 0.0003801095 0.0001597395 0.0002240654 0.0973403552 -0.074254796
375297750.0 -0.6175546229 0.5877453027 6.10571e-05 -1.74432e-05 6.3583e-05 -7.75192e-05 0.0963084603 -0.0754858351
380297720.0 -0.6123637413 0.5936169656 9.39018e-05 9.22748e-05 0.0003071693 -5.3524e-06 0.0953301394 -0.076545726
385297690.0 -0.6062879656 0.5993850012 0.0001853727 0.000188969 8.0083e-05 0.0002475735 0.0938516746 -0.077537449
390297660.0 -0.5982689874 0.6055824332 0.0002957642 -1.01485e-05 0.0002675143 0.0001048626 0.0924450666 -0.0792862851
395297630.0 -0.5929033939 0.6120589856 0.0003245362 0.0001937526 0.0001142989 0.0001908911 0.0911435128 -0.0802808032
400297600.0 -0.5870310193 0.6184525012 0.0002289316 0.000191556 0.0002382824 9.22962e-05 0.0901955202 -0.0812011324
405297570.0 -0.5809152195 0.6236092045 0.0003300302 0.0001236732 0.0003625269 0.0001936662 0.089083244 -0.0821172806
410297540.0 -0.5735451229 0.6300932026 -6.13023e-05 0.0002229741 0.0002130325 9.63643e-05 0.0874875157 -0.083262052
415297510.0 -0.5678718524 0.6355241803 0.0004646472 0.0001435632 0.0001145739 -0.0002401961 0.0864836342 -0.0845357449
420297480.0 -0.5609201785 0.6414027529 0.0002334679 0.0001633855 0.0002241435 1.55897e-05 0.0853378699 -0.0854889621
425297450.0 -0.5543635491 0.6470106271 0.000193456 5.81914e-05 6.553e-05 0.000281208 0.0838470711 -0.0867419656
430297420.0 -0.5485922105 0.6521265561 0.0004140629 9.96971e-05 0.000244876 2.61898e-05 0.0827106199 -0.0873026756
435297390.0 -0.5412605569 0.6575159854 0.000327431 0.0001525612 0.0002244888 0.0001037659 0.0810631005 -0.0884159025
440297360.0 -0.5343026009 0.6633496249 9.24313e-05 7.68447e-05 0.0001468044 -2.9137e-06 0.0801297449 -0.0894287342
445297330.0 -0.5270628664 0.6681157101 0.0001442217 0.0001264097 0.0003368896 3.58685e-05 0.0785326311 -0.0902750959
450297300.0 -0.5202603465 0.6738734007 0.0001304717 0.0002063172 0.0002582716 0.0001821928 0.0774130764 -0.0913018901
455297270.0 -0.5135518556 0.6787751354 0.0001016487 8.61867e-05 0.0003767551 -0.0001005176 0.0761000664 -0.0920830691
460297240.0 -0.5060207851 0.684265145 0.0001539173 -0.000148684 9.83111e-05 5.88376e-05 0.0748570545 -0.092940884
465297210.0 -0.4994588962 0.6890057671 0.0001346696 8.20104e-05 0.000197906 -4.97267e-05 0.0733641719 -0.0935672409
470297180.0 -0.4919290372 0.6940778578 0.0002624516 5.32628e-05 0.0001831426 0.0001246356 0.0720336492 -0.0945024117
475297150.0 -0.4849049391 0.6992166177 0.0001628358 0.000184751 0.0003843336 0.000255277 0.0709609789 -0.0953122976
480297120.0 -0.47738983 0.7043884813 0.0003901951 8.7215e-06 0.0003956575 0.0001369932 0.069125336 -0.0959262279
485297090.0 -0.4704533202 0.7090319838 0.0002477185 0.0002276528 0.0003252373 -7.09297e-05 0.0677281465 -0.0970987626
490297060.0 -0.4614132692 0.7137661417 0.0003277071 0.0001794761 0.0001777466 9.99545e-05 0.0663020856 -0.0977035227
495297030.0 -0.4546394154 0.718424181 0.000368462 0.0001098888 0.0002563286 0.0001437391 0.0652706169 -0.0980720256
500297000.0 -0.4479258439 0.7221816207 0.0004580373 6.11639e-05 0.0004826172 -2.21334e-05 0.0636747233 -0.0989310563
505296970.0 -0.4395044085 0.7275282663 0.0004603861 4.85606e-05 0.0001488159 -8.03599e-05 0.0618753877 -0.0997820248
510296940.0 -0.4322742529 0.7316955834 0.0003379547 0.0002724433 0.0002645142 8.92393e-05 0.0610503586 -0.100062154
515296910.0 -0.423927327 0.7355731415 0.0003534616 1.42441e-05 0.0001468408 0.0002659614 0.0593185272 -0.1009292785
520296880.0 -0.4160968306 0.7399271029 0.0001896247 2.19182e-05 0.0002836356 0.0001468158 0.058427422 -0.1014349969
525296850.0 -0.4086286545 0.7442139042 0.0001584907 8.17695e-05 0.0001125052 3.22219e-05 0.0567157237 -0.1017029621
530296820.0 -0.4010695306 0.7481419342 0.0003759261 9.68763e-05 0.0001463563 0.000219152 0.0552763199 -0.1027618826
535296790.0 -0.3925399554 0.7519009829 0.0002910661 1.592e-05 0.0003486709 1.38705e-05 0.0542598864 -0.1028832246
540296760.0 -0.384872058 0.7562890892 0.0002325052 9.80666e-05 0.0002594667 0.0002470045 0.0523053203 -0.1036599308
545296730.0 -0.3774313353 0.7606093446 0.0003297834 5.19374e-05 0.0002779333 0.0001764898 0.0509904813 -0.1041095393
550296700.0 -0.369393621 0.7640142387 0.0004000569 7.56596e-05 0.0002931422 -0.0001078973 0.0495607912 -0.1046142559
555296670.0 -0.3612230186 0.7672958645 0.000190474 0.0001175468 8.6933e-05 0.0002318218 0.0482554146 -0.1051373401
560296640.0 -0.3532090979 0.7706700178 0.0003082084 0.0001141317 0.0002263415 -9.2996e-06 0.0467870672 -0.105441395
565296610.0 -0.345591439 0.7740808369 0.0003175719 -4.6676e-05 0.0004025665 0.0001784238 0.0454460536 -0.1057089633
570296580.0 -0.3370128798 0.777903999 0.000164358 0.0001525735 0.0002522209 0.0001511819 0.0436950928 -0.10650353
575296550.0 -0.3281719823 0.7812285137 0.0003795215 0.0001274664 0.0002898795 0.0001905277 0.0423724477 -0.1067555005
580296520.0 -0.321375733 0.7844276658 0.0004661797 7.6484e-05 0.0003679661 -4.74066e-05 0.040719872 -0.1072659044
585296490.0 -0.312479957 0.7877029606 0.0005984329 -1.74245e-05 0.0002666374 -0.0001853041 0.0395490172 -0.1073987917
590296460.0 -0.3040843729 0.791008277 0.0003427379 0.0001478594 0.0003879124 0.0001862383 0.0379388201 -0.1075681142
595296430.0 -0.2960950515 0.7939167935 0.000358715 0.000141956 0.0003488635 2.59925e-05 0.0366713724 -0.1077653835
600296400.0 -0.2882795054 0.7970773532 -2.96269e-05 2.60909e-05 0.0005317852 0.0001683696 0.0351157806 -0.1082162516
605296370.0 -0.2798684955 0.7996697321 0.0003306721 -4.15672e-05 0.0003579581 -9.5042e-06 0.0339070432 -0.108486158
610296340.0 -0.2712016583 0.8032227558 0.0005015407 -7.30092e-05 0.0004150257 -1.4658e-05 0.0321831199 -0.1086609337
615296310.0 -0.2626726802 0.8051743843 0.0004157848 0.0001113444 0.0005212889 2.45931e-05 0.0307274477 -0.1091100918
620296280.0 -0.2551416136 0.8084279104 0.0003211282 1.9454e-05 0.0001833505 -8.8019e-06 0.0293471061 -0.1089791169
625296250.0 -0.247254919 0.8105363237 0.0003839352 6.71949e-05 0.0001909223 3.82006e-05 0.0277320567 -0.1094087184
630296220.0 -0.2388128139 0.8126002634 0.000416739 8.93527e-05 0.0002952116 -0.0001786294 0.0263893557 -0.1093086116
635296190.0 -0.2309542527 0.8159851222 0.0003840675 4.01526e-05 0.0003350266 -0.0001808587 0.0249422883 -0.1094682953
640296160.0 -0.2217200023 0.8175850453 0.000195451 0.0001076984 0.0005106875 -0.0001635017 0.0233376379 -0.1094676026
645296130.0 -0.213272974 0.8202209024 0.0006484217 0.0002651396 0.0005365552 0.0001671235 0.0216889494 -0.1098753974
650296100.0 -0.2051013374 0.822409903 0.0006330672 -1.10258e-05 -3.0412e-05 0.0001310563 0.0204114267 -0.109894707
655296070.0 -0.197172564 0.8240242814 0.0003225837 0.0001324374 0.0003029605 0.0001266285 0.0188063332 -0.1097477472
660296040.0 -0.1893936629 0.8258469302 0.0003364484 0.0001584047 0.0003598574 -6.12914e-05 0.0179842871 -0.1101317094
665296010.0 -0.1803897368 0.8283272211 0.0003526405 2.66671e-05 0.0004926131 -9.54698e-05 0.0163522095 -0.110036053
670295980.0 -0.1728357531 0.8308441881 0.0003151917 -4.2524e-05 0.0002454776 -6.23491e-05 0.0144285177 -0.1100164056
675295950.0 -0.1641229867 0.8321838373 0.0004228072 7.50432e-05 0.0004123783 -4.88963e-05 0.0130407871 -0.1098799768
680295920.0 -0.156368787 0.8336530407 0.0001895162 -3.374e-05 0.0003403502 9.11413e-05 0.0117615999 -0.1098567186
685295890.0 -0.1475858065 0.835951657 0.0004017592 -7.34656e-05 0.0004838586 -5.93305e-05 0.0101442379 -0.1095860908
690295860.0 -0.1391938875 0.8373549842 0.0003022131 3.87112e-05 0.000471872 -0.0001302025 0.0088080696 -0.1095752433
695295830.0 -0.1306052884 0.838562284 0.000186681 -0.0001409212 0.0004219413 -9.5275e-06 0.0073750058 -0.1094192867
700295800.0 -0.1223329519 0.8397392535 0.0002295423 0.0002461833 0.0002878506 2.8557e-05 0.0061302693 -0.1095323377
705295770.0 -0.1146694928 0.8412751848 0.0005094473 0.0002672932 0.0003979623 0.000127081 0.0045871674 -0.1090883393
710295740.0 -0.1070258107 0.842941158 0.0003366404 0.0001064386 0.000299244 5.83611e-05 0.0032301674 -0.1091197414
715295710.0 -0.0975860436 0.8436364749 0.0001806028 -0.0001284662 0.0006244565 -0.0002064946 0.0018976688 -0.1092583444
720295680.0 -0.0884676977 0.8443431846 0.0006195837 8.54588e-05 0.0006188491 4.64427e-05 0.0003886326 -0.1088867677
725295650.0 -0.0810613412 0.8461387861 0.0004151526 0.0001938699 0.0004525072 3.83607e-05 -0.0012077454 -0.108415938
730295620.0 -0.0738176414 0.8470152922 0.000356676 6.8751e-06 0.0003937976 1.7256e-05 -0.0026688112 -0.1080119946
735295590.0 -0.065592075 0.8475086469 0.0006379919 5.86585e-05 0.0005771534 6.1413e-05 -0.003828012 -0.108207633
740295560.0 -0.0577829887 0.8478161604 0.0003150833 -0.0001141602 0.0004365594 4.32662e-05 -0.005465231 -0.1077269486
745295530.0 -0.0485916301 0.8490283408 0.0003466984 -0.0002976873 0.0004771194 7.8262e-06 -0.0067461241 -0.1071425533
750295500.0 -0.0410989412 0.8496207845 0.0005080655 6.2497e-06 0.0001938516 -0.0001316547 -0.0080199511 -0.107338091
755295470.0 -0.0324283054 0.8494345304 0.0004223024 -0.000149566 0.000398151 6.95127e-05 -0.0094421032 -0.1065142301
760295440.0 -0.0241143723 0.8507996014 0.0002410237 -5.61886e-05 0.0002598465 -0.000142244 -0.0108516188 -0.1067278296
765295410.0 -0.016107664 0.8505530517 0.000323624 -0.0001541008 0.0005454421 -1.83281e-05 -0.012196712 -0.1061337449
770295380.0 -0.0084463166 0.851451461 0.0003766757 -0.0001919972 0.0003460377 -0.0002416704 -0.0137772196 -0.1056886608
775295350.0 0.00011786 0.8512607595 0.0005373313 -4.51632e-05 0.0004544284 -0.0001116458 -0.0149284899 -0.105556626
780295320.0 0.0087981067 0.8514784236 0.0002793538 5.85566e-05 0.0003995849 5.26984e-05 -0.0163395512 -0.1048890762
785295290.0 0.0165760853 0.8507162566 0.0005313633 -0.0003936003 0.0004654248 -7.55959e-05 -0.0180422363 -0.1046762679
790295260.0 0.0250900992 0.8508875048 0.0004484411 -0.0002622189 0.000562782 -5.10266e-05 -0.0189617962 -0.1038785244
795295230.0 0.0330632671 0.8503407167 0.0005862517 7.99074e-05 0.0004382622 7.03995e-05 -0.0207709584 -0.1040120307
800295200.0 0.041181429 0.8509552435 0.0003840414 -0.0001061148 0.000569389 -3.92486e-05 -0.0221095259 -0.1035738753
805295170.0 0.0494235867 0.8507031411 0.0005451425 -0.0001141595 0.0002059262 6.54446e-05 -0.0231017967 -0.1030765688
810295140.0 0.0580400173 0.8507882161 0.0003258461 -0.0001166073 0.0004177133 -8.03483e-05 -0.0243382822 -0.1019668442
815295110.0 0.0651855605 0.8492199622 0.0004324341 -0.000148795 0.0005154234 -0.0002403919 -0.0262939192 -0.1017255462
820295080.0 0.0734589485 0.8494671018 0.0003585831 -0.0001006035 0.0003023006 -6.94385e-05 -0.0275005836 -0.1009936565
825295050.0 0.0819213118 0.8484930099 0.0005807063 -0.0002835322 0.0004027457 -9.88536e-05 -0.0282956933 -0.1007361509
830295020.0 0.0907252356 0.8476593816 0.0006398016 -0.0003174523 0.0005072284 -0.0001702181 -0.0296926256 -0.1000464575
835294990.0 0.0979930979 0.8469125121 0.0004655828 -0.0001690412 0.0004912682 -4.37775e-05 -0.030770499 -0.0993623362
840294960.0 0.1070828632 0.8455427543 0.0004049694 5.25119e-05 0.000326409 -0.0001361696 -0.0320942704 -0.0987811713
845294930.0 0.1148263437 0.8447332597 0.0004360509 8.52098e-05 0.0005485234 -0.0002371292 -0.0336850267 -0.0978296547
850294900.0 0.1242720987 0.8434465651 0.0004906828 -0.0002008169 0.0005936346 -0.0001306716 -0.0345545732 -0.0974577553
