!Created with skrf (http://scikit-rf.org).
# Hz S RI R 50.0 
!freq ReS11 ImS11 ReS21 ImS21 ReS12 ImS12 ReS22 ImS22
300000.0 -0.2135467235 -0.0556883137 -0.0007876047 0.0001704099 0.000598643 0.0006530016 -0.7712248381 -0.1291810158
5299970.0 -0.2167602811 0.0084640846 4.95448e-05 5.88817e-05 9.16274e-05 5.93626e-05 -0.7846990138 -0.0073208951
10299940.0 -0.2134391112 0.0194299863 3.11261e-05 4.77923e-05 0.0001678297 8.6968e-06 -0.7874638095 -0.003719895
15299910.0 -0.2089448946 0.0285969453 -7.01826e-05 7.41787e-05 0.000221056 -5.27477e-05 -0.792852993 -0.0016488027
20299880.0 -0.2034740783 0.0358824475 4.39669e-05 4.70778e-05 -0.0002379954 4.54927e-05 -0.8002639721 0.0022133557
25299850.0 -0.1977846539 0.042032038 -4.78468e-05 -0.0001961189 9.98387e-05 4.05058e-05 -0.806146931 0.0083305008
30299820.0 -0.192127488 0.0467516975 9.61583e-05 6.20566e-05 0.0001445854 7.90209e-05 -0.8120368315 0.0165030403
35299790.0 -0.1865599609 0.0505612165 -2.97201e-05 0.000231727 0.0001297756 -6.3926e-05 -0.8169975978 0.0251210239
40299760.0 -0.1805393623 0.0536200294 -0.0001742403 -6.3558e-05 9.7976e-06 7.30743e-05 -0.8212340935 0.0346067459
45299730.0 -0.1754640989 0.0555975533 -2.58979e-05 0.000196259 -4.39896e-05 -0.0001047939 -0.8249444804 0.0441413656
50299700.0 -0.1709857707 0.0571037646 0.0001224719 0.0001380958 5.5796e-06 -3.3465e-05 -0.8274088791 0.0542487355
55299670.0 -0.1663188869 0.0579597909 -4.23735e-05 3.82278e-05 5.53742e-05 2.23976e-05 -0.829252576 0.0642325763
60299640.0 -0.16239923 0.0589333432 0.0001621827 0.0001012916 0.0002150889 -6.85146e-05 -0.8302673025 0.07409096
65299610.0 -0.1588708036 0.0590369596 0.0001272271 -5.07706e-05 0.0002001043 0.0001458218 -0.8319817517 0.0844787789
70299580.0 -0.1557455112 0.0597115013 -4.07486e-05 -1.1402e-06 0.0001580787 0.0001141838 -0.831973146 0.094367047
75299550.0 -0.1526000472 0.0597790877 8.43592e-05 -2.66565e-05 5.85139e-05 -9.46009e-05 -0.8329323714 0.1039152253
80299520.0 -0.1498807316 0.0601672742 -5.60113e-05 7.22233e-05 7.91638e-05 -3.68104e-05 -0.8321906769 0.1140389919
85299490.0 -0.14770919 0.0597411271 -5.92209e-05 -6.03669e-05 3.37709e-05 -4.13719e-05 -0.8315750672 0.123656585
90299460.0 -0.1454578896 0.0600648016 -2.61468e-05 -0.0001438777 6.68664e-05 -9.60558e-05 -0.8307925338 0.1330191234
95299430.0 -0.1431092467 0.0595505158 -3.48364e-05 1.21868e-05 -0.0001536757 4.91519e-05 -0.8291487037 0.1433236684
100299400.0 -0.1417762427 0.0599772364 -0.0001700884 0.0001194714 8.40167e-05 0.000317722 -0.8288478927 0.1524290119
105299370.0 -0.1399550135 0.0598556721 -3.9337e-05 0.0001267109 0.000185171 9.0624e-05 -0.8270880539 0.1611400429
110299340.0 -0.1387917877 0.0598813114 0.0002324659 -1.49477e-05 5.5162e-06 -0.0001153618 -0.8253089705 0.1705182127
115299310.0 -0.13693411 0.0600704158 -6.97009e-05 -3.67344e-05 -1.34603e-05 -0.0001343991 -0.8240418428 0.1798926223
120299280.0 -0.1360280325 0.0597575333 2.56343e-05 6.33027e-05 -0.0002055739 -5.01378e-05 -0.8225203464 0.1889642973
125299250.0 -0.1352753991 0.0598685578 -0.0002253921 0.0002596647 -3.24374e-05 -7.35538e-05 -0.8209376352 0.1977043623
130299220.0 -0.1342078102 0.0601989364 -2.47334e-05 0.0001771824 -0.0001070354 7.69227e-05 -0.8192042256 0.2069455812
135299190.0 -0.1331561472 0.0607703549 5.15661e-05 5.70674e-05 7.67961e-05 -3.02423e-05 -0.8167381096 0.21609185
140299160.0 -0.1327255206 0.0608189806 -0.0001716224 0.0001122761 -2.02697e-05 -4.81427e-05 -0.8142155163 0.2252803246
145299130.0 -0.1317673993 0.0611890086 -4.42773e-05 7.55746e-05 7.61117e-05 0.0002492379 -0.8121237199 0.2341867443
150299100.0 -0.1306424665 0.0615090557 8.53783e-05 0.0001077836 3.2324e-05 -8.36357e-05 -0.8103064082 0.2428661083
155299070.0 -0.1303536516 0.0619225993 -9.07436e-05 4.34623e-05 -0.0002263183 0.0001558501 -0.807426527 0.251872543
160299040.0 -0.1295456378 0.0623636914 -7.44904e-05 -7.94294e-05 -3.5944e-06 0.0002248985 -0.8055016414 0.2610751156
165299010.0 -0.1288383436 0.0626692191 6.40255e-05 0.0001561811 5.35187e-05 8.33407e-05 -0.8027999099 0.2693580514
170298980.0 -0.1285932883 0.0635988542 0.0001601289 0.0001168174 6.20118e-05 0.0001405437 -0.7993221856 0.2779498097
175298950.0 -0.1279551563 0.0640171776 -1.00351e-05 -6.93356e-05 0.0001348278 4.77052e-05 -0.7968947611 0.2866701581
180298920.0 -0.1274837202 0.0648009018 0.0002803463 -0.0001156568 6.01897e-05 -2.2648e-05 -0.7933757473 0.2949360371
185298890.0 -0.1265928692 0.0650776974 7.75153e-05 0.0002041276 7.2669e-06 0.0001809585 -0.7903630121 0.3038110241
190298860.0 -0.1259499371 0.0660114444 4.89308e-05 3.79113e-05 -4.9216e-06 -0.0001882258 -0.7881534811 0.3124741827
195298830.0 -0.1256844173 0.0663732512 0.0002892751 2.08477e-05 0.0001137809 -8.7831e-06 -0.7847241414 0.3212891452
200298800.0 -0.125178685 0.0673864531 9.71132e-05 6.63961e-05 0.000123379 0.0001374292 -0.7810352075 0.3288393399
205298770.0 -0.1246965689 0.0678066732 -1.81842e-05 7.69763e-05 2.44183e-05 -1.16826e-05 -0.778153287 0.3373544036
210298740.0 -0.1244166507 0.0689367534 8.90571e-05 -8.88305e-05 -5.04811e-05 -0.0001231513 -0.7742866806 0.3457077933
215298710.0 -0.1243407919 0.0696643286 9.5889e-06 0.0003203473 1.15113e-05 -9.16034e-05 -0.771216216 0.3539080269
220298680.0 -0.1235192933 0.0702703067 0.0001906851 -0.0002196644 0.0001457435 0.0001000841 -0.7673588207 0.3621332146
225298650.0 -0.1234616025 0.0709703322 0.000111241 -6.6911e-05 5.54541e-05 0.0001176951 -0.7638781554 0.3702218579
230298620.0 -0.1231096434 0.0721398543 0.0002311702 0.0001091649 9.59926e-05 0.0002351334 -0.7603667207 0.378599584
235298590.0 -0.1218519721 0.0732825194 0.0001478675 0.0002756193 0.000201435 -0.0001038427 -0.7558453459 0.3868003402
240298560.0 -0.1217790608 0.0739089653 0.0001426681 0.0001932105 -1.7708e-05 0.000154232 -0.7514506908 0.3952554279
245298530.0 -0.121421435 0.0749239545 -0.000222042 -1.65229e-05 0.0001761462 0.000153273 -0.7478234894 0.4023786619
250298500.0 -0.1205790001 0.0758519434 0.0003253566 5.42024e-05 -1.66059e-05 0.0001254093 -0.7435845784 0.4102701788
255298470.0 -0.1204847946 0.0768473818 -0.0001687891 6.87438e-05 0.000134663 4.81484e-05 -0.7391749465 0.4179808227
260298440.0 -0.120062677 0.0774241493 0.0001429705 2.39064e-05 0.0001374086 0.0002557767 -0.7345082416 0.4262220325
265298410.0 -0.1193826142 0.0787836514 7.21342e-05 -0.0002273247 -1.0738e-05 8.81228e-05 -0.7304724547 0.4335809092
270298380.0 -0.1188529369 0.079790534 5.12144e-05 0.0002302028 -4.2053e-06 7.97801e-05 -0.7257624506 0.4414238356
275298350.0 -0.1184861541 0.0807077362 0.0002653857 7.23518e-05 0.0001055323 -4.65784e-05 -0.7203235719 0.4488529143
280298320.0 -0.1176502146 0.0816738131 0.0001404085 -0.0001320633 0.0001514776 1.29109e-05 -0.7159160646 0.4562582139
285298290.0 -0.1171473843 0.0829798604 5.0459e-05 0.0002571135 7.2249e-05 0.0001084871 -0.710925079 0.4639198946
290298260.0 -0.116408339 0.0838845017 0.0001107499 9.34472e-05 -9.38537e-05 5.7838e-05 -0.7059322877 0.4708417557
295298230.0 -0.1160168557 0.0846317427 9.00578e-05 0.0001609542 0.000120998 0.0001114122 -0.7009476222 0.4782392535
300298200.0 -0.1152873311 0.0856585771 0.0001982333 3.71522e-05 9.04926e-05 0.0002000971 -0.6959441272 0.4851916065
305298170.0 -0.1146587711 0.0866981479 0.0001757331 0.0001234637 1.60241e-05 0.0002551098 -0.6903032971 0.4932201304
310298140.0 -0.113962108 0.0880397619 -5.75248e-05 0.000220105 0.0001539776 -4.85902e-05 -0.6860488531 0.499674219
315298110.0 -0.1133163787 0.0888132136 0.0002326784 0.0004193102 0.0001256484 0.0001452703 -0.6798910804 0.5072847184
320298080.0 -0.1126809605 0.0895379227 0.0001811754 0.0001533744 0.0001319158 4.64132e-05 -0.6746621178 0.5149681289
325298050.0 -0.1120377847 0.090679611 0.0002362744 0.0002822027 -8.79272e-05 0.0002512657 -0.6688968703 0.5213811658
330298020.0 -0.1113345529 0.0914489094 -2.15272e-05 -8.29875e-05 8.13707e-05 1.09154e-05 -0.6635069606 0.5285036715
335297990.0 -0.1108679212 0.0923594295 5.749e-05 8.32888e-05 0.0001925035 -0.0001782434 -0.6585651634 0.5351844979
340297960.0 -0.1106654913 0.0937821739 0.0002758005 -1.59576e-05 4.37565e-05 0.0001633653 -0.6524604671 0.5427927994
345297930.0 -0.1100513132 0.0946143581 0.0001736074 5.39376e-05 8.35799e-05 -4.296e-05 -0.6469533528 0.5487437458
350297900.0 -0.1091052973 0.0958101074 0.0001058568 0.0001753206 0.0001295374 0.0001402532 -0.6413563874 0.5558406455
355297870.0 -0.1081872493 0.0970499571 0.0003848884 0.0001881884 0.0001759845 0.0001212392 -0.6359355631 0.561692917
360297840.0 -0.1078773424 0.0982891025 0.0002009419 2.59879e-05 0.0001492151 0.0001980138 -0.6297995068 0.5685872757
365297810.0 -0.1075499242 0.0993918652 0.0001803474 4.79221e-05 9.69164e-05 2.85573e-05 -0.6226987884 0.5755914436
370297780.0 -0.1064955243 0.1005431264 9.3986e-06 -9.83548e-05 0.0001882319 9.74145e-05 -0.6175857569 0.5820027162
375297750.0 -0.105408535 0.1017361214 0.0001022134 0.0001315074 0.0001572185 0.0002002417 -0.6119398414 0.5877424116
380297720.0 -0.1047296735 0.1024841324 0.0001311544 0.0001973167 5.16715e-05 5.42356e-05 -0.6054393639 0.5941485989
385297690.0 -0.1041731245 0.1038687129 0.0001274234 8.60674e-05 0.0002603557 3.96968e-05 -0.5988766406 0.6007499364
390297660.0 -0.103463723 0.1047989551 -3.8211e-05 1.85554e-05 0.0003202292 8.64355e-05 -0.5931713785 0.6070299185
395297630.0 -0.1022861035 0.1058524308 0.0001813935 4.47038e-05 9.67227e-05 4.89474e-05 -0.5862321756 0.6138981892
400297600.0 -0.1016335655 0.1072716669 0.0001687683 -7.47467e-05 0.0001794616 0.0001839739 -0.5803590534 0.6190100824
405297570.0 -0.1009118892 0.1082381539 -2.1777e-06 0.0001321626 0.0002595481 1.33786e-05 -0.5741255754 0.6249879861
410297540.0 -0.0999206942 0.1093285926 -1.40883e-05 7.71535e-05 -2.71289e-05 0.0002005261 -0.5677490572 0.631131433
415297510.0 -0.0988424181 0.1098346969 -1.30943e-05 0.0002513484 8.88956e-05 0.0001701004 -0.5612218621 0.6365180096
420297480.0 -0.0981220017 0.111523984 0.0003506584 0.0002505774 -3.666e-05 8.52543e-05 -0.5541566385 0.6422984573
425297450.0 -0.0970116887 0.1123889067 -5.40691e-05 0.0001108814 5.74561e-05 4.07476e-05 -0.5476780803 0.6479708324
430297420.0 -0.0962794516 0.1134364791 0.0003738212 -5.83789e-05 -4.06984e-05 -4.8456e-05 -0.5412612355 0.6531169536
435297390.0 -0.0952821605 0.1145932561 0.0001101419 0.0001064455 0.0003394188 0.0002673928 -0.5340019136 0.6585375595
440297360.0 -0.0945674895 0.1157927512 0.0001005647 -2.05038e-05 0.0003440557 0.0001684934 -0.5271980596 0.6640651868
445297330.0 -0.09343166 0.1164442476 -0.0001895655 0.0003991223 0.0002270549 4.89147e-05 -0.5204882173 0.6692067291
450297300.0 -0.092320013 0.1172012566 -0.0001723985 5.79508e-05 0.0002432772 1.98303e-05 -0.5132077627 0.6741837331
455297270.0 -0.0916406489 0.1186115364 0.0001816787 0.0001425328 -1.8475e-06 0.0002313621 -0.5065809531 0.6786623202
460297240.0 -0.0907437145 0.1194226522 0.0004086999 0.0001639044 0.0001940614 3.46773e-05 -0.4997202046 0.6842218007
465297210.0 -0.0895429375 0.1208108396 0.0002636991 0.0001827834 0.0002431849 -1.651e-06 -0.4917465575 0.6891972732
470297180.0 -0.0885375869 0.121585013 0.0001374767 5.40135e-05 0.0001415887 -6.09819e-05 -0.4844971734 0.6943911423
475297150.0 -0.0876344572 0.1224427097 0.0001515793 0.0001812623 0.0001557055 0.000104879 -0.4777302484 0.6984521956
480297120.0 -0.0864206729 0.123627071 -3.6988e-05 1.17087e-05 2.98837e-05 0.000126052 -0.4700224929 0.7040987342
485297090.0 -0.085325942 0.1245045836 0.0001308385 -5.89002e-05 9.85686e-05 8.56926e-05 -0.4632614113 0.7083099509
490297060.0 -0.0845832481 0.1256864411 0.0002566947 -6.81343e-05 0.0001369619 0.000321439 -0.4556483558 0.7132775209
495297030.0 -0.083334051 0.1264991372 0.0003583328 6.42569e-05 -1.85717e-05 0.0002889168 -0.4487909669 0.7177499058
500297000.0 -0.0821164435 0.1274520105 0.0005991043 0.0001090675 4.06555e-05 0.0001662413 -0.4409546334 0.722580971
505296970.0 -0.080765717 0.1284163345 0.000135996 -4.2508e-05 0.0001489824 -7.06164e-05 -0.4337894509 0.7269713068
510296940.0 -0.079871162 0.1292188721 0.0001272824 6.57516e-05 0.0002482703 1.0082e-06 -0.4262486351 0.7309036288
515296910.0 -0.0784436481 0.1298961059 0.000144316 1.0015e-06 8.06206e-05 3.70163e-05 -0.4186896055 0.7352938295
520296880.0 -0.0776636166 0.1312199235 0.0002028916 -5.96487e-05 0.0002295229 0.0003562241 -0.4108196651 0.739811815
525296850.0 -0.0763830445 0.1318351501 9.33683e-05 -7.037e-05 7.0038e-05 0.0001932655 -0.4039832677 0.7439444602
530296820.0 -0.075207287 0.1328500704 0.0002948042 9.95087e-05 0.000235138 9.6651e-06 -0.3959796712 0.7475930366
535296790.0 -0.0741854751 0.1339799539 0.0001983954 0.0001120482 0.000361569 9.55861e-05 -0.3889977327 0.751482874
540296760.0 -0.0731821887 0.1348195967 -3.18282e-05 -5.16768e-05 0.0001544111 -8.335e-06 -0.3809262832 0.7557283708
545296730.0 -0.0719162968 0.1355285452 0.0002939874 0.0001171256 0.0002659015 1.86603e-05 -0.3732966866 0.7594490777
550296700.0 -0.0704620175 0.1364801753 0.0003759863 9.83926e-05 0.0001629419 5.10322e-05 -0.3655216996 0.7635146098
555296670.0 -0.0691678394 0.1370303766 0.0002185867 8.1018e-06 0.0001740657 0.0003105274 -0.3582229781 0.7675337369
560296640.0 -0.06796044 0.1381649599 -3.73808e-05 2.93235e-05 8.54037e-05 -0.0001379675 -0.3499533002 0.7707663419
565296610.0 -0.0667882549 0.1389301459 0.0001791198 2.78502e-05 0.0003233836 -2.2831e-05 -0.3421131871 0.7741029633
570296580.0 -0.0657024074 0.139782655 0.0003147049 3.34344e-05 0.0003082911 1.12156e-05 -0.3347766988 0.7779437474
575296550.0 -0.0644020827 0.1407740237 0.0003136745 -0.0001300916 5.9032e-06 7.57394e-05 -0.3263970381 0.7806992297
580296520.0 -0.0629316479 0.1412597079 7.24146e-05 8.0802e-06 0.0002094282 -4.14485e-05 -0.3180979321 0.7842268882
585296490.0 -0.0621096339 0.1419582235 0.0001101324 2.4106e-06 0.0001662482 8.36814e-05 -0.3105977778 0.7876240334
590296460.0 -0.0604585865 0.1429150524 0.0003113331 0.0001603136 0.0001379169 -9.1879e-06 -0.3027649991 0.7901741657
595296430.0 -0.059328204 0.1435620394 0.0003608306 -0.0001720103 0.0001550581 0.0001751395 -0.294701532 0.7926937756
600296400.0 -0.0581444781 0.1444719975 0.0003639374 0.0001944149 0.00028697 0.0001074054 -0.2865430225 0.7958659698
605296370.0 -0.0568003473 0.1450916414 7.30793e-05 -6.71479e-05 0.0002438554 5.83573e-05 -0.277886692 0.7984612499
610296340.0 -0.0556062787 0.1458618761 0.0001978009 0.0001559202 4.68172e-05 4.9118e-06 -0.2704848766 0.8009697637
615296310.0 -0.0539484565 0.1462989068 0.0003569312 -7.96073e-05 0.0001029127 7.02684e-05 -0.261825226 0.8034480387
620296280.0 -0.0529994445 0.1470461076 0.0002735722 0.0001782223 0.0003798733 7.75296e-05 -0.2540381283 0.8062846189
625296250.0 -0.0516312717 0.1477228483 0.0002528495 -0.0002326193 0.0001544218 -1.28367e-05 -0.2454914924 0.8079165798
630296220.0 -0.0497841107 0.1481686245 0.0003092456 -0.0002480577 0.0003291446 -1.67253e-05 -0.2375787845 0.8112036976
635296190.0 -0.048931769 0.1492924376 0.0002038609 -5.55021e-05 0.0001634977 8.30891e-05 -0.2292573262 0.8131572453
640296160.0 -0.0473813617 0.149610184 0.0002249132 -0.000146444 0.0003388504 -0.0001584557 -0.2212052745 0.8157456045
645296130.0 -0.0459499085 0.150534096 0.0002679041 -2.83302e-05 0.0001535981 3.37515e-05 -0.2129788832 0.8182390826
650296100.0 -0.0447972413 0.1509339277 0.000150974 9.181e-06 0.0003373274 0.0001092671 -0.2049478361 0.8187650573
655296070.0 -0.043431063 0.1517003011 0.000559325 6.10054e-05 0.000248776 -4.92011e-05 -0.1961537076 0.8210776991
660296040.0 -0.042009117 0.1521484382 0.000164678 7.0498e-06 0.0002723431 3.88346e-05 -0.1876542497 0.8232398922
665296010.0 -0.0403160356 0.1523910628 0.0003512341 8.65211e-05 0.0004213683 -4.43933e-05 -0.1792221998 0.8253861772
670295980.0 -0.0394831549 0.1531918172 0.0003522665 -0.0002270661 0.0003739802 0.0001714242 -0.171580151 0.8265637994
675295950.0 -0.0380074517 0.153924959 0.000287162 -2.91138e-05 0.0004196403 0.0001937307 -0.1634990126 0.8284507658
680295920.0 -0.0363868278 0.15443629 0.0001841837 -0.0001641711 0.0002089372 0.0003027532 -0.1545702779 0.8308909521
685295890.0 -0.0347793454 0.1554230004 0.0003432816 -2.8916e-05 0.0002719676 -0.000312502 -0.1461267768 0.8317217721
690295860.0 -0.0334788099 0.1555196223 0.0004158073 -0.0001596719 0.000164121 0.0002397122 -0.1381454986 0.8337542482
695295830.0 -0.0323275009 0.1561363508 0.0002131546 0.0001307689 0.0002491416 -0.0001488106 -0.1293900458 0.8345196667
700295800.0 -0.0304459591 0.1566081219 0.0003485911 2.34419e-05 0.0002547449 -3.9212e-05 -0.1216333301 0.8362517293
705295770.0 -0.0292222847 0.1571699392 0.0002231779 3.11047e-05 8.94555e-05 4.34667e-05 -0.1135033265 0.8385319395
710295740.0 -0.0278068587 0.1578339246 0.000113621 -0.0001119413 0.0002464169 6.40897e-05 -0.1049681368 0.8385761196
715295710.0 -0.0263978619 0.1579308205 0.0002315822 0.000247559 0.000146984 9.46812e-05 -0.0961036623 0.839391656
720295680.0 -0.0248000852 0.1583702543 0.0002107779 -9.25887e-05 0.0002953386 -1.94072e-05 -0.0881012823 0.8408778522
725295650.0 -0.0230854525 0.1591040592 0.0002536396 0.0001670871 0.0003703842 0.0001873884 -0.0795654129 0.8420866674
730295620.0 -0.0218607188 0.1596122388 0.000213524 0.0001716257 0.0003641381 0.0001823271 -0.0715163316 0.8426063746
735295590.0 -0.0201934543 0.1603180314 0.0003561511 0.0001149809 0.0002717355 0.00012687 -0.0629548064 0.8426804821
740295560.0 -0.0191779443 0.1605827111 0.0002873281 -6.36639e-05 0.0005249637 -5.55544e-05 -0.053967097 0.8432725689
745295530.0 -0.0177700874 0.1609691722 0.0005756077 8.98003e-05 0.0002525981 -8.17373e-05 -0.0457144378 0.8434358623
750295500.0 -0.0157960087 0.1609696538 0.0004427753 -0.0001945624 0.0005990276 -0.0001363194 -0.0373042108 0.8443291003
755295470.0 -0.0143639484 0.1614304911 0.0003050072 0.000134429 0.0002802732 0.0001180279 -0.0291414985 0.8442182929
760295440.0 -0.0131769485 0.1616607092 0.0002744673 -3.57066e-05 9.71331e-05 -5.97108e-05 -0.0206093882 0.8443754127
765295410.0 -0.0115812123 0.1619302243 0.0003194691 8.14119e-05 7.22021e-05 6.76208e-05 -0.011817387 0.8446433371
770295380.0 -0.0100432862 0.1622276879 0.0002964373 -8.46277e-05 0.0002115984 2.63323e-05 -0.0041315836 0.8449944596
775295350.0 -0.0087988935 0.1625458056 0.0003192615 -2.1359e-05 0.0003495802 -2.26394e-05 0.0042967893 0.8445715005
780295320.0 -0.007009782 0.1631018294 0.0001641897 -4.16793e-05 0.0003762774 -0.0002982713 0.0124147666 0.8443193431
785295290.0 -0.0058314831 0.162677648 0.0001486213 -0.0001199731 0.0001714275 0.0001393993 0.0212186379 0.8438992279
790295260.0 -0.0040393618 0.1634071888 0.0003846622 -0.0002430175 0.0001891468 1.82782e-05 0.0304537097 0.8445484868
795295230.0 -0.0024172938 0.1636686344 0.0002547838 -0.0002914015 0.0001343633 -0.0003258769 0.0386635722 0.8426787013
800295200.0 -0.0010834019 0.1639435645 0.0004526357 -2.49465e-05 0.0003230125 0.000130114 0.0475265733 0.842468016
805295170.0 0.0007451557 0.1639253938 0.0002718182 -0.0001904422 3.15558e-05 -4.11608e-05 0.0548693809 0.8426792637
810295140.0 0.0022168198 0.1641976698 0.0005068512 6.578e-07 0.0002195708 5.36117e-05 0.0635618503 0.84143544
815295110.0 0.0034939232 0.1640887416 0.0001411521 -4.70202e-05 0.0003724642 1.72829e-05 0.0723935421 0.8409906596
820295080.0 0.0049987227 0.1648915216 0.000420657 -0.0001542148 0.0001543408 -3.1366e-05 0.0801943277 0.8405249889
825295050.0 0.0069494723 0.1644596351 0.0001941773 2.46416e-05 0.0003409881 2.02198e-05 0.0892168039 0.8398155716
830295020.0 0.0083913035 0.1649239077 0.000359471 -4.21821e-05 0.0003373096 -0.00026105 0.0981066067 0.8387332755
835294990.0 0.0097110446 0.1652060376 0.0003155581 -3.2668e-05 0.0003102902 -0.0002536119 0.1062988569 0.8377163555
840294960.0 0.0112662814 0.1653004062 0.0004937251 -0.0001267782 0.0001120648 -0.0001036857 0.1142946378 0.8362437669
845294930.0 0.0131124703 0.1652245685 0.0005061219 -8.226e-05 0.0003671259 -0.0002028944 0.1221391589 0.8348142227
850294900.0 0.014445519 0.1654198446 0.0003878901 -0.0001189144 9.16454e-05 -0.0001132581 0.1306104364 0.8335698096
