!Created with skrf (http://scikit-rf.org).
# Hz S RI R 50.0 
!freq ReS11 ImS11 ReS21 ImS21 ReS12 ImS12 ReS22 ImS22
300000.0 -0.7775170768 -0.1286130561 -0.0008772509 -0.0004727207 -0.0005175448 0.000953841 0.8594407558 -0.0026765759
5299970.0 -0.7852292371 -0.0069011616 0.0001458044 5.60256e-05 7.52152e-05 0.0001206667 0.8594956785 -0.0097542934
10299940.0 -0.7876164201 -0.004673639 -3.48235e-05 -0.0001197142 -5.8543e-05 -0.0001779653 0.8582881101 -0.0187492208
15299910.0 -0.7935203646 -0.0023240081 -2.3616e-05 -0.0001897099 -0.0001668366 -4.58396e-05 0.8576071737 -0.0274811715
20299880.0 -0.7997955502 0.0014675523 -6.02513e-05 -8.5155e-05 -6.18604e-05 -3.3598e-05 0.8568183454 -0.0359347781
25299850.0 -0.8063874108 0.0076595728 -0.0001485399 0.0001144158 -3.04399e-05 8.00279e-05 0.8562641718 -0.0430879305
30299820.0 -0.8125973634 0.0150855792 0.0001510777 9.28431e-05 -0.0002271659 -0.0001832594 0.8556169849 -0.0521759467
35299790.0 -0.8173768776 0.0243965575 4.4251e-05 -4.48201e-05 0.0001556715 -0.0001224615 0.8545351223 -0.059990174
40299760.0 -0.8212371729 0.0338803158 9.12546e-05 0.0001704092 -7.51611e-05 -0.0001513246 0.8534947503 -0.0678825778
45299730.0 -0.824743033 0.0429008231 -5.41998e-05 0.0002695501 -2.6524e-05 7.91646e-05 0.8525415937 -0.0759587512
50299700.0 -0.8273724125 0.0527372254 0.0001500886 0.00013168 -7.43648e-05 3.99135e-05 0.8517719455 -0.0839936542
55299670.0 -0.8291069803 0.0624930542 -0.0001151839 -8.328e-06 1.65022e-05 1.42523e-05 0.8505552648 -0.0926510436
60299640.0 -0.8300143888 0.0730446628 -0.0002337299 8.22346e-05 0.0001227339 -5.20494e-05 0.8494747327 -0.1006428171
65299610.0 -0.8310882426 0.0833218207 5.12618e-05 -0.0001820582 -6.29408e-05 0.0001389632 0.8490310674 -0.1084329745
70299580.0 -0.8317879787 0.0937581734 -4.95675e-05 -7.53912e-05 5.54137e-05 -3.08889e-05 0.8478469165 -0.1171505888
75299550.0 -0.8318470231 0.1033562825 0.0001546559 -0.0002503033 -4.72201e-05 7.36271e-05 0.8462231447 -0.1254892622
80299520.0 -0.8319730749 0.1132580867 -2.1596e-05 8.25299e-05 0.0002138798 3.13886e-05 0.8456345399 -0.1336857571
85299490.0 -0.8313083249 0.1225720936 -4.17054e-05 6.09396e-05 -5.01398e-05 -5.02688e-05 0.8439784053 -0.1420953948
90299460.0 -0.8299300668 0.1318182943 -5.3459e-05 0.000100664 5.75194e-05 -0.0001566659 0.8419383663 -0.1498040838
95299430.0 -0.8287682797 0.1414730131 -0.0002148037 -1.9395e-06 -9.2681e-05 -4.03693e-05 0.840127699 -0.1581057236
100299400.0 -0.8276303346 0.1511783241 -7.25058e-05 -1.1163e-05 -0.0001172554 7.22292e-05 0.8387777371 -0.1661283084
105299370.0 -0.8266073774 0.1602022066 -0.0003659472 -0.0001587322 -4.09039e-05 0.0001110592 0.8371675878 -0.1745158255
110299340.0 -0.8251523345 0.1692665856 -4.45471e-05 0.000100885 -0.0001014282 -4.78676e-05 0.8359562996 -0.1817895233
115299310.0 -0.8239533946 0.178171498 -0.0001755719 -8.02323e-05 -4.43006e-05 8.09917e-05 0.8341943827 -0.1908097715
120299280.0 -0.822042731 0.1865498324 8.92714e-05 0.0002644859 0.0001268602 0.0001142409 0.8324713306 -0.1988193527
125299250.0 -0.8203916264 0.1953008743 -7.07458e-05 -0.0001342933 -0.0001304881 0.0002087112 0.8306212021 -0.2066271711
130299220.0 -0.8188041447 0.2054924676 2.66089e-05 3.45788e-05 -9.98138e-05 8.84142e-05 0.8288067213 -0.2149518104
135299190.0 -0.8166035189 0.2138582134 -9.22344e-05 0.0001816473 -6.70396e-05 -2.86141e-05 0.8266076586 -0.2223563482
140299160.0 -0.8145289172 0.2229137598 -5.42012e-05 1.67678e-05 2.37652e-05 -0.0002011006 0.8239115399 -0.2308927294
145299130.0 -0.8127230706 0.232268712 3.2363e-06 -3.24405e-05 -1.17062e-05 0.0001266187 0.8220661237 -0.2387956551
150299100.0 -0.8101786143 0.2411193521 -6.68041e-05 -0.0003036977 -7.31101e-05 0.0001106995 0.8191638872 -0.2469964421
155299070.0 -0.8077114065 0.2491613479 0.0001566509 -3.30095e-05 0.0001731095 5.90399e-05 0.8175281704 -0.254289316
160299040.0 -0.8052492949 0.2577616649 -0.0001283582 -0.0001567686 9.4351e-05 1.89727e-05 0.8144569541 -0.2620816978
165299010.0 -0.8025458438 0.2667567149 -8.99757e-05 3.2845e-05 0.0001313342 5.63644e-05 0.8114141724 -0.2701726208
170298980.0 -0.7999213554 0.2752131159 2.04927e-05 8.343e-05 -0.0001512501 2.2178e-06 0.8093890147 -0.2778523487
175298950.0 -0.797263592 0.2837176417 -0.0001920026 6.75918e-05 -6.8709e-06 -0.0001399884 0.8067488818 -0.2859495358
180298920.0 -0.7945744992 0.2929731873 -1.79234e-05 0.0001597101 -6.89711e-05 -2.42716e-05 0.803557757 -0.2938518874
185298890.0 -0.7912402533 0.3004739089 -0.0001808991 -0.0002175413 -0.0001265794 9.73167e-05 0.8007381167 -0.3018427371
190298860.0 -0.788550387 0.3094140571 -4.585e-06 -0.0002927394 -3.49427e-05 0.0001057058 0.7975838817 -0.3087259291
195298830.0 -0.7850726429 0.317931743 -4.51115e-05 -9.92294e-05 2.12309e-05 -0.0001136123 0.7943232611 -0.3164920958
200298800.0 -0.7812157265 0.3259967987 6.85526e-05 0.0001234035 3.49437e-05 0.0002747128 0.7915346201 -0.324405749
205298770.0 -0.7789079909 0.3340716557 -0.0001265907 -0.0001288438 -0.0001293742 -7.05552e-05 0.7882028328 -0.3319570944
210298740.0 -0.7747369525 0.3419667666 -0.0001847326 0.0001084643 0.0002091415 -7.23748e-05 0.7843811636 -0.3394256138
215298710.0 -0.7715810732 0.3506869811 8.3369e-06 -6.48889e-05 -4.25892e-05 -0.0001136541 0.7812580868 -0.3470064446
220298680.0 -0.7673827409 0.3582851002 0.0002548293 -5.1619e-05 -3.9393e-06 -0.0001791983 0.7777130741 -0.3540808886
225298650.0 -0.76468244 0.3661579927 0.0001108934 -5.47612e-05 -8.20587e-05 8.6673e-05 0.7738977258 -0.3617566337
230298620.0 -0.760388907 0.3747768499 -8.9761e-06 6.0051e-06 0.0001195342 0.0001766277 0.7705003849 -0.3694453539
235298590.0 -0.756972616 0.3830902161 0.0002610294 8.22669e-05 0.0002030614 -0.0001371668 0.7668095806 -0.3771089954
240298560.0 -0.7524045375 0.3907972651 7.00758e-05 0.0001022211 -0.0001344816 0.000267121 0.7632657047 -0.3845719994
245298530.0 -0.7483164064 0.3984363333 -6.97438e-05 -0.0001199593 -7.61589e-05 -6.33174e-05 0.7596871691 -0.3916807687
250298500.0 -0.7437104256 0.4068100835 -0.0001701414 8.32753e-05 6.94204e-05 4.31102e-05 0.7554906881 -0.3996354069
255298470.0 -0.7393162467 0.4138361322 3.07093e-05 -5.32782e-05 -7.49521e-05 -0.000158489 0.7516014023 -0.4071389865
260298440.0 -0.7353188494 0.4215621981 0.0002944492 -7.59435e-05 3.38259e-05 6.3354e-05 0.7476657814 -0.4136595663
265298410.0 -0.7314556636 0.429811342 0.0003108552 0.0001077394 -5.37382e-05 9.17364e-05 0.7441122124 -0.4206327307
270298380.0 -0.7272300986 0.4371231696 5.49821e-05 4.08548e-05 -3.34775e-05 -9.647e-07 0.7396902826 -0.4281213962
275298350.0 -0.7220404833 0.4448344781 -0.0003773364 0.000190027 5.28368e-05 3.0037e-06 0.7354796657 -0.4350791495
280298320.0 -0.7167431131 0.4519069775 5.34239e-05 -0.0001986541 0.0002104122 -0.0002275734 0.7321179284 -0.442793886
285298290.0 -0.7131625381 0.4596109903 -6.59106e-05 0.0003000027 4.74292e-05 0.0001753501 0.7282140476 -0.4497033598
290298260.0 -0.7081565634 0.4678543995 1.00033e-05 7.2333e-05 -0.0002130386 8.28559e-05 0.7236018849 -0.4568266809
295298230.0 -0.7024996689 0.4741230961 -0.0001004821 0.0001996392 -1.70749e-05 -7.73334e-05 0.7197116934 -0.4641875584
300298200.0 -0.6978316404 0.4814276788 0.0001177817 1.896e-07 9.17752e-05 -0.000238525 0.7157143279 -0.4712476271
305298170.0 -0.6923269769 0.4882965977 -0.0001550158 0.0002855722 -1.34712e-05 -5.68935e-05 0.7117052259 -0.4789372838
310298140.0 -0.6873620463 0.4964237781 1.22648e-05 -1.74136e-05 0.0002413777 -0.000135145 0.7064279772 -0.4864598761
315298110.0 -0.6831425832 0.5029614896 0.0001225346 0.0001139736 -9.53033e-05 1.42238e-05 0.701094647 -0.4938679
320298080.0 -0.6772783549 0.5100641713 -0.0001028926 -0.0001401396 -2.45634e-05 0.0001676751 0.696156866 -0.5012535187
325298050.0 -0.6717801205 0.5171924264 -9.73868e-05 -0.0002078367 -0.0001439241 0.0002634098 0.690859584 -0.5085059918
330298020.0 -0.6661712019 0.5241913779 0.000290071 3.97291e-05 -0.0001361655 -6.64509e-05 0.6839102238 -0.5150280924
335297990.0 -0.660697813 0.5303070487 -5.10477e-05 -4.3771e-05 4.682e-07 -2.22115e-05 0.6790064437 -0.5207665836
340297960.0 -0.6556734832 0.5378175887 -8.974e-05 -0.0001922986 -2.2404e-05 -8.55642e-05 0.6736280928 -0.5272583158
345297930.0 -0.6505314313 0.5440063548 6.46774e-05 -0.0001039553 2.88697e-05 -0.0001257822 0.6677482669 -0.5337821966
350297900.0 -0.6443466369 0.5507734941 7.7846e-06 -0.0001980461 1.54008e-05 -0.0001109368 0.6617442655 -0.5391848885
355297870.0 -0.6379302622 0.5578075659 -1.86213e-05 -0.000102473 -2.74e-05 -0.0001496251 0.657258729 -0.5460336292
360297840.0 -0.6324530409 0.5636709497 -0.0001356576 1.37996e-05 -0.0001602382 0.0001467738 0.6519462491 -0.5524709191
365297810.0 -0.6273544085 0.5703699838 -2.82622e-05 -0.0001103678 6.50213e-05 -7.4723e-05 0.6464225552 -0.5584479003
370297780.0 -0.6211737933 0.5764245273 -0.0001455422 -0.0001086976 -0.0001908834 -2.1843e-05 0.6406343018 -0.5641678177
375297750.0 -0.6144694626 0.5832899406 -3.52613e-05 -2.07673e-05 2.03017e-05 0.000167827 0.6352578103 -0.5704781788
380297720.0 -0.609141496 0.5892151409 -6.98638e-05 -1.73633e-05 -8.42198e-05 -9.78491e-05 0.6283722179 -0.5758850636
385297690.0 -0.602776771 0.5954288246 4.93824e-05 -5.31812e-05 -8.49709e-05 4.86365e-05 0.623290317 -0.582106375
390297660.0 -0.5967834034 0.6011798584 8.70088e-05 6.73748e-05 1.63396e-05 4.5355e-05 0.6167306672 -0.5877987175
395297630.0 -0.5902269577 0.6082163908 1.85421e-05 -0.0001543285 -0.0002062826 2.85303e-05 0.6114150676 -0.5940203071
400297600.0 -0.5836210931 0.6134885116 0.0001014971 8.52659e-05 9.95902e-05 3.78306e-05 0.6056822182 -0.5992983395
405297570.0 -0.5785696853 0.6194955009 1.28828e-05 -0.0001349451 -6.02961e-05 0.0001682159 0.5997892013 -0.6059376298
410297540.0 -0.5712828061 0.6250777171 -5.3614e-05 4.62753e-05 4.32388e-05 0.0001849365 0.5937793094 -0.6114674125
415297510.0 -0.5646088074 0.630696344 0.0001521128 -4.31717e-05 0.0001034515 0.0001570201 0.5874593032 -0.6175908451
420297480.0 -0.5591986654 0.6368751438 -0.0001912917 -0.0001239725 2.66791e-05 4.95617e-05 0.5821556764 -0.6220181983
425297450.0 -0.5517384088 0.6422513053 3.42766e-05 9.93344e-05 1.78697e-05 7.46818e-05 0.5752248029 -0.6288521315
430297420.0 -0.5455130766 0.6482023522 1.85853e-05 -1.58496e-05 -0.0001071246 -0.0003451401 0.5691104789 -0.6346985105
435297390.0 -0.5387160306 0.6530548654 -2.52578e-05 5.05919e-05 4.4915e-06 6.58609e-05 0.5631841385 -0.6395441204
440297360.0 -0.5316065501 0.6587754363 -0.0001233489 -5.81812e-05 4.2386e-06 7.06655e-05 0.5563778 -0.6447613533
445297330.0 -0.5252247024 0.664501732 -3.10354e-05 -1.81342e-05 -3.80404e-05 -4.38107e-05 0.5506924637 -0.6510407257
450297300.0 -0.5181280285 0.6690452106 -0.0001608123 9.94351e-05 0.0001115235 3.1296e-05 0.5443358571 -0.6553100071
455297270.0 -0.5114943545 0.6741972101 -6.1125e-06 -7.27479e-05 5.92867e-05 -1.60869e-05 0.5375135983 -0.6608292895
460297240.0 -0.5053357861 0.6793389265 -1.00926e-05 -0.0001481011 2.81894e-05 -2.0219e-06 0.5310007738 -0.6659151685
465297210.0 -0.497943889 0.6848294346 -6.10813e-05 -3.88387e-05 6.37231e-05 -3.13594e-05 0.5247078526 -0.6710734794
470297180.0 -0.4906640574 0.6895955651 -4.13621e-05 0.0001247003 -5.2199e-06 -8.60595e-05 0.5178668416 -0.6762085344
475297150.0 -0.4833803633 0.6942455534 8.60103e-05 -5.8782e-05 -8.6851e-05 -0.0003160876 0.5111263561 -0.6811392536
480297120.0 -0.4766711327 0.6991957764 -3.06729e-05 2.79408e-05 5.78286e-05 -5.8e-06 0.504630901 -0.6853661036
485297090.0 -0.4692461277 0.7039110288 9.11627e-05 3.75604e-05 -3.17935e-05 1.71598e-05 0.4984716248 -0.6909064311
490297060.0 -0.4622622985 0.7084435538 -6.8127e-05 -0.0001574108 4.81464e-05 -0.0001911783 0.4907158989 -0.6958941847
495297030.0 -0.4545703962 0.7131675722 0.0001097295 -4.30105e-05 -0.0001873246 9.17389e-05 0.4842196313 -0.6998355291
500297000.0 -0.4473386598 0.7179251899 -0.0001266075 7.46888e-05 -0.0002029771 2.43366e-05 0.4776192878 -0.7051444894
505296970.0 -0.4404016204 0.7226892329 -5.10327e-05 6.40698e-05 6.5874e-05 -2.24011e-05 0.4703763122 -0.7094110878
510296940.0 -0.4327860711 0.7264345101 -6.50177e-05 -0.0002111564 0.0001606387 -1.64325e-05 0.4633947332 -0.7141334103
515296910.0 -0.425178016 0.7306677762 -0.0001050147 0.0001990585 5.75959e-05 0.0002132541 0.4569836465 -0.7180025038
520296880.0 -0.4178010081 0.7353837958 -3.9169e-05 0.0001300509 -4.79781e-05 0.0001511029 0.4491137439 -0.7231904321
525296850.0 -0.4105952842 0.7392687792 2.47378e-05 4.3652e-06 -1.77019e-05 -0.0001176183 0.4423041964 -0.7260503363
530296820.0 -0.4029018138 0.7432176764 -5.1731e-05 -0.0001477842 -0.0001317871 0.0001298694 0.435067896 -0.7311047572
535296790.0 -0.3959863595 0.7473901185 0.0001569706 3.6534e-05 6.32757e-05 -3.35326e-05 0.4273508171 -0.7348991551
540296760.0 -0.3879168822 0.7506684598 7.09066e-05 -4.54268e-05 6.75876e-05 -6.85454e-05 0.4201939477 -0.738456589
545296730.0 -0.3812896853 0.755065943 0.0003488896 -1.69414e-05 0.0002215376 -0.0002103812 0.4127561882 -0.742895511
550296700.0 -0.3731627801 0.7585277009 -6.49735e-05 -0.000215116 0.0001441421 -5.28054e-05 0.4052300827 -0.7476559027
555296670.0 -0.3651488046 0.761362587 -1.78591e-05 -1.77794e-05 -1.88398e-05 6.65702e-05 0.3984100601 -0.7509387928
560296640.0 -0.3578149781 0.7658774376 -0.0003477314 4.1558e-06 0.0001067339 -0.0001112174 0.3904283393 -0.7539043384
565296610.0 -0.3501232281 0.7695369141 -2.36478e-05 0.0002125408 4.45711e-05 -5.51039e-05 0.3829194441 -0.7574415366
570296580.0 -0.3423217268 0.7720534354 -2.41224e-05 8.38935e-05 7.14104e-05 -4.07405e-05 0.3754906683 -0.7623183853
575296550.0 -0.334629237 0.776053892 0.0001109058 -0.0001404972 -3.0826e-06 -5.22398e-05 0.3678137578 -0.7651985617
580296520.0 -0.3262862573 0.7795739505 8.01197e-05 0.0001009705 -0.0001120866 -0.0001211959 0.3598045794 -0.768852171
585296490.0 -0.3188695459 0.7824040595 0.0001369429 0.0001765046 -0.0001416311 -3.51586e-05 0.3533916548 -0.7731222525
590296460.0 -0.3107070751 0.7853897598 0.0001142834 -7.33893e-05 9.43718e-05 -3.30136e-05 0.3443633113 -0.7749991468
595296430.0 -0.3031143604 0.7882795698 0.0001227544 -4.19181e-05 -8.84121e-05 -0.0001355845 0.3373768336 -0.7791702389
600296400.0 -0.2949200277 0.7920464076 -0.0001464104 -3.38907e-05 -0.0001251512 -6.14803e-05 0.329866066 -0.7825077164
605296370.0 -0.2876121455 0.7944711619 -0.0001090922 -0.0001021058 -3.21042e-05 3.14852e-05 0.3217583661 -0.7854245011
610296340.0 -0.2790962097 0.7974549411 6.10997e-05 -7.22453e-05 4.22412e-05 6.07246e-05 0.3147754146 -0.7880428722
615296310.0 -0.2708187356 0.8003208397 -0.0001219671 7.7213e-05 2.12812e-05 2.93571e-05 0.3063111167 -0.7914393159
620296280.0 -0.2632180971 0.8021042601 3.17138e-05 -7.72642e-05 6.97539e-05 -7.53463e-05 0.2987657461 -0.794698422
625296250.0 -0.2546655297 0.8054515051 -7.83225e-05 5.18357e-05 6.10928e-05 -0.0001657558 0.2911017372 -0.7972300564
630296220.0 -0.2464901035 0.8077463028 -0.0001200061 0.0001173207 8.26027e-05 -7.85962e-05 0.2828649928 -0.7997000733
635296190.0 -0.2389068422 0.8106772385 1.50733e-05 -0.0001278634 -1.73159e-05 -0.0001291455 0.27570232 -0.8023775644
640296160.0 -0.2316642455 0.8123559519 0.0001795118 -0.0001769186 -2.49026e-05 -0.0001360268 0.2667449942 -0.8045783534
645296130.0 -0.2226504589 0.8151285927 -0.0001679511 -8.78448e-05 4.72908e-05 1.13293e-05 0.2594131514 -0.8073026309
650296100.0 -0.214884275 0.8167300085 8.71426e-05 7.45144e-05 2.70782e-05 -2.40902e-05 0.251556495 -0.8105634632
655296070.0 -0.2063425541 0.818801802 -0.0001528222 3.65909e-05 -0.0001064481 -1.87742e-05 0.2444355716 -0.8119948296
660296040.0 -0.1981734086 0.8208595075 -7.2263e-06 -0.0001732751 2.62623e-05 0.0001122404 0.2360534261 -0.8145899909
665296010.0 -0.1896820082 0.8221366656 6.08058e-05 3.29914e-05 -0.000172166 -8.31697e-05 0.2275308503 -0.8166486809
670295980.0 -0.1823603362 0.8244675005 -0.0002193717 -8.87869e-05 -2.79566e-05 0.0002351672 0.2193191787 -0.8188057732
675295950.0 -0.1732990021 0.8262343471 -7.61658e-05 3.41834e-05 -6.21402e-05 -5.42461e-05 0.21120307 -0.8201987208
680295920.0 -0.1651465436 0.8280351105 9.78935e-05 3.64229e-05 0.0001066186 -9.23883e-05 0.2032559373 -0.8222144325
685295890.0 -0.1570386866 0.8303232668 6.98798e-05 8.29322e-05 -0.0001616863 4.89861e-05 0.1952656915 -0.8243822489
690295860.0 -0.1491398636 0.8312986777 -4.19147e-05 -0.0002857775 0.0002084314 4.92934e-05 0.1866333521 -0.8255539015
695295830.0 -0.1411249647 0.8319943198 3.59355e-05 0.0001030903 -5.34263e-05 7.5929e-05 0.1789029654 -0.8274895742
700295800.0 -0.1317735247 0.8337095171 -0.0001067496 -0.0001211717 -0.0001246972 -0.0002938087 0.1705720128 -0.8289384842
705295770.0 -0.1240778133 0.8351044006 0.0002449773 8.1269e-06 -1.75838e-05 -1.52858e-05 0.1620458593 -0.8293776446
710295740.0 -0.1158188973 0.836239957 -1.8553e-05 0.0001139778 6.32884e-05 -4.57346e-05 0.1538054621 -0.831186706
715295710.0 -0.1073407541 0.8371304738 0.0001366589 7.14435e-05 -0.0001259676 -4.3925e-05 0.1453095603 -0.8331018018
720295680.0 -0.0995273987 0.8380036824 -0.0001332565 9.40172e-05 -1.03314e-05 -4.6496e-05 0.1373746586 -0.8339057809
725295650.0 -0.0902836984 0.8388524298 1.90529e-05 -0.0001535256 -7.82777e-05 4.7628e-06 0.1286236653 -0.8348163512
730295620.0 -0.0824449144 0.8403732599 -5.08141e-05 -7.29718e-05 4.71428e-05 0.0001988226 0.1199567069 -0.8362813025
735295590.0 -0.0743503837 0.8410962635 -0.0002382553 5.34768e-05 -0.0001766203 -0.0001774927 0.1123642408 -0.8377309692
740295560.0 -0.0660816982 0.8416300657 1.57533e-05 9.39693e-05 -0.0001073998 6.94485e-05 0.1035423475 -0.838112532
745295530.0 -0.0581563957 0.84280925 -6.93891e-05 2.61937e-05 -6.81367e-05 7.26182e-05 0.0960108508 -0.8386285757
750295500.0 -0.0491659577 0.8426190988 -1.74678e-05 1.69867e-05 9.44543e-05 4.90886e-05 0.0875709343 -0.8396657864
755295470.0 -0.0410434511 0.8430221158 2.70651e-05 5.94055e-05 0.000274528 3.31159e-05 0.0794341608 -0.8412999109
760295440.0 -0.0330673555 0.8432101815 -0.0001772363 0.0001783962 4.19047e-05 -0.0001531647 0.0710211812 -0.8419463283
765295410.0 -0.0241040085 0.8439946674 4.1572e-06 -0.0001965633 -0.0001591485 1.01652e-05 0.0626900516 -0.8423076183
770295380.0 -0.0161290423 0.8440016024 4.39034e-05 7.01306e-05 -0.0001201875 -9.19158e-05 0.0537722441 -0.842857958
775295350.0 -0.0074714075 0.8438772711 -5.71743e-05 0.0002598176 0.0002697791 5.90432e-05 0.0451168897 -0.8430735544
780295320.0 0.0008088047 0.8440337197 -0.000167904 -0.0002049373 2.77775e-05 4.80285e-05 0.0373343884 -0.8437128292
785295290.0 0.0084023399 0.8432688236 0.0002126816 -7.26946e-05 3.77986e-05 7.26825e-05 0.0294326045 -0.8434551076
790295260.0 0.0177941206 0.8435464309 0.0001359398 3.72264e-05 -5.36748e-05 8.60981e-05 0.021725252 -0.8435637049
795295230.0 0.025622622 0.843419693 0.0001744503 0.0001220607 8.27985e-05 -7.1849e-06 0.0129841734 -0.8440302647
800295200.0 0.0338101705 0.8430188068 -0.0001373422 3.46661e-05 6.56563e-05 4.38762e-05 0.0039463413 -0.8435254494
805295170.0 0.0426278004 0.842889258 0.0001188968 6.58941e-05 3.59027e-05 7.22973e-05 -0.0039922151 -0.8433739647
810295140.0 0.0503983076 0.8423799062 7.81725e-05 1.90131e-05 0.0002235081 -0.0001179039 -0.0117108723 -0.8437157464
815295110.0 0.0591340873 0.8419916374 0.000227139 4.75797e-05 0.0002661328 -0.0002705619 -0.0208032354 -0.8428300769
820295080.0 0.0670414287 0.8411283127 5.7344e-05 0.0001107429 7.89451e-05 -4.43158e-05 -0.0291851603 -0.8431485801
825295050.0 0.0762408935 0.8400750489 -0.0001388404 -1.80193e-05 -9.55688e-05 -1.32544e-05 -0.0371250945 -0.8423163484
830295020.0 0.0835667523 0.8402207152 0.0001091896 -0.0003112623 5.83843e-05 4.0844e-06 -0.0450606614 -0.8414305129
835294990.0 0.0921213404 0.8391622427 5.43281e-05 0.0002578309 -8.79948e-05 4.59376e-05 -0.0542924212 -0.8413904123
840294960.0 0.1002418451 0.83854906 -5.94386e-05 0.0001670997 -1.27072e-05 -0.0001002976 -0.0620546371 -0.8404631324
845294930.0 0.1083076465 0.8370442278 -8.8594e-06 7.01707e-05 -1.80911e-05 1.32493e-05 -0.0706137809 -0.8395777289
