!Created with skrf (http://scikit-rf.org).
# Hz S RI R 50.0 
!freq ReS11 ImS11 ReS21 ImS21 ReS12 ImS12 ReS22 ImS22
300000.0 -0.2412427133 -0.0776457719 0.474476714 0.0526595154 0.4677383872 0.0496934508 -0.2433625721 -0.0895321762
5299970.0 -0.2440277737 0.0071945865 0.4735452405 0.0047472784 0.4735424003 0.0051035374 -0.2440758725 0.0073236436
10299940.0 -0.2411648764 0.0189600003 0.475225756 0.0061060825 0.4757712909 0.0061508305 -0.2409834013 0.0203507431
15299910.0 -0.2367160148 0.0280542948 0.4791516746 0.0077643995 0.4793461502 0.0076254626 -0.2364679629 0.0297648669
20299880.0 -0.2321083537 0.0352777135 0.4838600225 0.0085285963 0.4840005265 0.0081850819 -0.2308373853 0.037591659
25299850.0 -0.2267661285 0.0421236825 0.4890290897 0.0074028264 0.4890079862 0.0073176543 -0.2249034097 0.0439019869
30299820.0 -0.2218026725 0.0470996594 0.494904102 0.0052120437 0.4945848284 0.0055373211 -0.2191628704 0.0493107293
35299790.0 -0.2163510929 0.0514909095 0.5000953291 0.0022568617 0.4999197867 0.0021220281 -0.2137337602 0.0532928746
40299760.0 -0.2115134846 0.0552199771 0.5049120108 -0.0020075705 0.5053542899 -0.0019289749 -0.208072317 0.0562658287
45299730.0 -0.2066266124 0.0576798428 0.5096950897 -0.0067334857 0.5099645454 -0.0063233606 -0.2035624306 0.0588887685
50299700.0 -0.2024689861 0.0598560127 0.5145397347 -0.0120260059 0.5142185023 -0.0122686024 -0.198558606 0.0607677599
55299670.0 -0.1982177481 0.0617142668 0.5180166631 -0.0181811769 0.5178273347 -0.0178503925 -0.1942973033 0.0618808994
60299640.0 -0.1941536554 0.0635638835 0.5210117156 -0.0243514678 0.52124474 -0.0243569565 -0.1904998419 0.0631304494
65299610.0 -0.1913746878 0.0645426425 0.5244488374 -0.0307190779 0.5241587653 -0.0309044729 -0.1869821994 0.0639243272
70299580.0 -0.1878853839 0.0663603744 0.5263409528 -0.0374848789 0.5266962962 -0.0371054417 -0.1837570469 0.0649343693
75299550.0 -0.1850332699 0.0672738705 0.5282961568 -0.0441500615 0.5281226615 -0.0438081712 -0.1809472862 0.0651895173
80299520.0 -0.1825677149 0.06812253 0.5304390153 -0.0511763381 0.5305765623 -0.0511025789 -0.1781891391 0.0660242574
85299490.0 -0.1802698561 0.0688052348 0.5317072995 -0.0576201835 0.5319182875 -0.0574315638 -0.1762516255 0.0660877608
90299460.0 -0.178096391 0.0696877227 0.5325290163 -0.06485396 0.5328902881 -0.0647695006 -0.1739191211 0.0668097585
95299430.0 -0.1756461381 0.0702279961 0.5338285801 -0.0717793908 0.533701739 -0.0718942839 -0.1714907851 0.0673935605
100299400.0 -0.1736509189 0.0715851766 0.5335346496 -0.0787761956 0.5337722803 -0.0786713937 -0.1693020426 0.0673886637
105299370.0 -0.1720989633 0.072421356 0.5346185939 -0.0856483791 0.5343991207 -0.0856783422 -0.1676704229 0.0680912816
110299340.0 -0.1706047466 0.0733068547 0.5347734741 -0.0920053726 0.5342534987 -0.0923394128 -0.1664537125 0.0683368933
115299310.0 -0.1687633802 0.0741094873 0.5344092792 -0.0992638819 0.5341973196 -0.0990679435 -0.1647809554 0.0688667456
120299280.0 -0.1673978718 0.0747056616 0.5341557801 -0.1060201319 0.5342011942 -0.1058603142 -0.1634618911 0.0696335892
125299250.0 -0.1662715039 0.0754051977 0.5338815379 -0.112544005 0.5337660634 -0.1123908181 -0.1624153722 0.0695562857
130299220.0 -0.165202987 0.0769081891 0.5333701644 -0.1195822334 0.5332536619 -0.1195300774 -0.1612261464 0.0703164272
135299190.0 -0.1636542919 0.0781694124 0.5328927516 -0.126164253 0.5324385381 -0.125750048 -0.1597021611 0.0709630897
140299160.0 -0.1625549701 0.0791838195 0.5320322908 -0.1330097013 0.5318211241 -0.1329272574 -0.158800306 0.0719748876
145299130.0 -0.1614494214 0.0798688518 0.5306828425 -0.1395083095 0.5305706763 -0.1391018046 -0.1579307105 0.0726559082
150299100.0 -0.1603170136 0.0809706239 0.5295505125 -0.1453146929 0.5296162284 -0.1454850093 -0.1570854068 0.0740917318
155299070.0 -0.1593347155 0.0822569141 0.5285979484 -0.1529047667 0.5284225858 -0.1522154962 -0.1559092534 0.0745867262
160299040.0 -0.1581259644 0.0834364178 0.5271881684 -0.1590734433 0.527033903 -0.1585678567 -0.155632623 0.0755611148
165299010.0 -0.1575519145 0.0847699429 0.5259753945 -0.1654467329 0.5255899315 -0.1656370223 -0.1541905719 0.0766939123
170298980.0 -0.1565478037 0.0856304817 0.5241033521 -0.171583575 0.5246841215 -0.1714469631 -0.1534868004 0.0777666325
175298950.0 -0.1557048099 0.0869045674 0.5234519788 -0.1776989615 0.5224507092 -0.1778627687 -0.152987226 0.0786512882
180298920.0 -0.1549134365 0.088311399 0.5207184034 -0.1845367058 0.5209014872 -0.1838904075 -0.1522169868 0.0800098494
185298890.0 -0.1532567407 0.0894765377 0.5191027422 -0.19050264 0.5187363193 -0.1906557777 -0.1513727189 0.0807783103
190298860.0 -0.1528488869 0.0907191673 0.5173424999 -0.1967550283 0.5174408356 -0.1964769564 -0.1506175907 0.0819030325
195298830.0 -0.1518496012 0.0920434141 0.5151845087 -0.2026531666 0.5153998854 -0.2025589928 -0.1496443512 0.0830402053
200298800.0 -0.1505967288 0.093550053 0.5129046854 -0.2090863625 0.5132029218 -0.2091318135 -0.1495978776 0.0841136932
205298770.0 -0.1497279588 0.0949278441 0.5105157565 -0.2150048633 0.5107308633 -0.2148746484 -0.1483967688 0.0845277295
210298740.0 -0.1486317498 0.0964136734 0.5085642329 -0.2208268872 0.5086424051 -0.2205354718 -0.1477585097 0.0865155664
215298710.0 -0.1483804887 0.0979454786 0.506519697 -0.2268661439 0.5059989915 -0.2270858955 -0.1470725776 0.0878925731
220298680.0 -0.1470252733 0.0988048855 0.5034351756 -0.2325290727 0.5037355764 -0.2327262836 -0.1467795184 0.0885381309
225298650.0 -0.1460068363 0.1004664025 0.5012502739 -0.2388380706 0.5015278926 -0.2385829238 -0.1462649825 0.0896862889
230298620.0 -0.1452889576 0.1020679719 0.4986310261 -0.2441595338 0.4992690972 -0.2444873768 -0.1455682158 0.0908697641
235298590.0 -0.1437697406 0.1038196892 0.4962336918 -0.2504692099 0.4962888378 -0.2498214554 -0.1448076661 0.092211191
240298560.0 -0.1432938183 0.1049149728 0.4940076363 -0.256058521 0.4930821035 -0.2560189744 -0.1439884709 0.0936462084
245298530.0 -0.1422218287 0.1065626416 0.4910229576 -0.2619836016 0.4903890985 -0.2618047171 -0.142758448 0.0941723527
250298500.0 -0.1406929871 0.1080130209 0.4872865125 -0.2676698023 0.487569829 -0.2670061095 -0.142463656 0.0956416562
255298470.0 -0.1401357013 0.1092594948 0.4843259537 -0.2728025788 0.48494691 -0.2725374117 -0.1416241246 0.0966792702
260298440.0 -0.1389443914 0.1106951391 0.4817821002 -0.2788789268 0.4818486481 -0.2785547904 -0.1404113363 0.0983010989
265298410.0 -0.1375365946 0.1126369256 0.4788543329 -0.2842600119 0.4790711297 -0.2835710562 -0.1398798901 0.0995201462
270298380.0 -0.136513499 0.1137377421 0.4758406714 -0.2888738564 0.47600641 -0.2891467984 -0.1390156439 0.1006409103
275298350.0 -0.1352963648 0.1152586718 0.4725579631 -0.2951296419 0.4728920404 -0.2949941331 -0.1379332549 0.1019095248
280298320.0 -0.134192916 0.1166844985 0.4698465089 -0.3003343972 0.4697204505 -0.3001159887 -0.1366097142 0.1028932452
285298290.0 -0.132936879 0.1183575346 0.4664347588 -0.3054593985 0.4662176662 -0.3055465364 -0.1360340669 0.1041948461
290298260.0 -0.1315683847 0.1196807497 0.4627848353 -0.3103682237 0.4630358782 -0.310783107 -0.1347994854 0.1059283267
295298230.0 -0.1301777394 0.1206025898 0.459629686 -0.3155557786 0.4595859825 -0.3158319259 -0.1337677195 0.1065511044
300298200.0 -0.1290995552 0.1225130088 0.456603414 -0.3208876083 0.4559476249 -0.3216208457 -0.1329167246 0.1082269305
305298170.0 -0.1276365985 0.1235656787 0.452592677 -0.3268935935 0.4527819678 -0.3265228591 -0.1313902784 0.109168938
310298140.0 -0.1265123306 0.1252039016 0.4492938417 -0.3316282419 0.4494067863 -0.3314889521 -0.130676908 0.1103742669
315298110.0 -0.1251000276 0.1261573376 0.4454359628 -0.3365399466 0.4454558847 -0.3367617443 -0.1297326717 0.1116996627
320298080.0 -0.1237170288 0.1274284565 0.4412379977 -0.3421474784 0.4416314603 -0.3419618459 -0.1285973179 0.1127896763
325298050.0 -0.1226608428 0.1287962355 0.4375591846 -0.3470357581 0.4378246295 -0.3470349615 -0.1276877106 0.1139018652
330298020.0 -0.1212969952 0.1301365034 0.4337568272 -0.3521408712 0.433984614 -0.3519752135 -0.127209098 0.1151573226
335297990.0 -0.1199325272 0.1311884264 0.429697203 -0.3565702589 0.4298655809 -0.3566540842 -0.1266627315 0.1169992672
340297960.0 -0.1192562941 0.1330092784 0.4253825837 -0.3614709034 0.4254400845 -0.3616738958 -0.1250213505 0.1181861864
345297930.0 -0.1179700421 0.1346405653 0.4216072888 -0.3666170946 0.4211661614 -0.3663347515 -0.1244221594 0.1187145092
350297900.0 -0.1164897524 0.1355875495 0.4169533702 -0.3712101988 0.4172111615 -0.3712149494 -0.1234348713 0.1210987846
355297870.0 -0.1149865568 0.1375902099 0.4127546735 -0.3755311622 0.4134166904 -0.3752657432 -0.122524986 0.1220246226
360297840.0 -0.1137960413 0.1386002363 0.4093387101 -0.3796321709 0.4094791342 -0.3797884765 -0.1210770421 0.1236509003
365297810.0 -0.1126966411 0.1402950314 0.4049347976 -0.3845314099 0.4050755606 -0.3845733746 -0.1198916536 0.1245699325
370297780.0 -0.1107782952 0.1414824124 0.4004908306 -0.389089621 0.4008415616 -0.3887417041 -0.1191241708 0.1261934513
375297750.0 -0.1090692579 0.1426845798 0.3961906042 -0.393236415 0.3970636327 -0.3934069704 -0.1181383955 0.1275738205
380297720.0 -0.10762247 0.1441002004 0.3919907057 -0.3977305637 0.391907227 -0.397092257 -0.1171399932 0.1285685338
385297690.0 -0.1066412676 0.1454971283 0.3876274625 -0.4022426828 0.387405346 -0.4020600736 -0.1158656072 0.1302529421
390297660.0 -0.1048396121 0.1468998311 0.3832787588 -0.40635629 0.3831840901 -0.4058672402 -0.1151096734 0.1310994803
395297630.0 -0.1029038123 0.148311758 0.3783732947 -0.4105483071 0.3784952051 -0.410470161 -0.113310536 0.1322403813
400297600.0 -0.1017209759 0.1494243808 0.3740451292 -0.4148958871 0.3739884285 -0.4146042934 -0.112222135 0.1335947025
405297570.0 -0.1004151481 0.1507468947 0.3695162019 -0.418550939 0.3695468847 -0.4181819371 -0.1113851743 0.1348536906
410297540.0 -0.0984846215 0.1517224679 0.3648756711 -0.4228278854 0.3653639129 -0.4225683155 -0.1098189446 0.1366419994
415297510.0 -0.0967026146 0.1530281507 0.3602648051 -0.426948719 0.3605564341 -0.4268424681 -0.1087230832 0.1375141993
420297480.0 -0.0953478728 0.1545972266 0.3555708778 -0.4311158187 0.3554979832 -0.4308993681 -0.1078143616 0.1385432576
425297450.0 -0.0936507644 0.1552725034 0.3512608797 -0.4347017998 0.3512004208 -0.4347440182 -0.1066638323 0.1399948161
430297420.0 -0.0917134113 0.15636139 0.3457389581 -0.4376631905 0.3461227191 -0.4379250218 -0.1053758526 0.1405945791
435297390.0 -0.0902537235 0.1580492216 0.3411084783 -0.4420208446 0.3409295782 -0.4420317681 -0.1034173223 0.1417726488
440297360.0 -0.0882716879 0.1590781753 0.3361137378 -0.4457424555 0.3363512656 -0.4458507912 -0.1024397282 0.1429997549
445297330.0 -0.0866263963 0.1598205508 0.3315908172 -0.4491984488 0.3314968271 -0.448922639 -0.100739846 0.1439555389
450297300.0 -0.0849458998 0.1609946842 0.3264778837 -0.4530838211 0.326446824 -0.4531980577 -0.0992943753 0.144749186
455297270.0 -0.0832069305 0.1622870997 0.3213271678 -0.4566086093 0.321650132 -0.4564543295 -0.0983342813 0.14595539
460297240.0 -0.0814858829 0.1631542254 0.3162457752 -0.4598599577 0.3163879957 -0.4603785722 -0.0970072907 0.1472198318
465297210.0 -0.0794310881 0.1639728888 0.3112965054 -0.4633963183 0.3112647982 -0.4637653323 -0.0952205381 0.1478516706
470297180.0 -0.077457819 0.1648336276 0.3059030858 -0.4666945679 0.306393233 -0.4666789259 -0.0933890904 0.1492877523
475297150.0 -0.0758816702 0.165860913 0.3008833245 -0.4696732017 0.3011488529 -0.4697835569 -0.0921233858 0.1498464078
480297120.0 -0.0743388454 0.1672411513 0.2957622973 -0.4732143883 0.295847129 -0.4736802071 -0.0904143534 0.1511118508
485297090.0 -0.072447916 0.1680494111 0.2910369021 -0.476210066 0.2910946209 -0.4759869755 -0.0892449409 0.1522883137
490297060.0 -0.0709059185 0.1690186808 0.286163255 -0.4798214858 0.285801678 -0.479534475 -0.0877396134 0.1532133795
495297030.0 -0.0685939975 0.1700333559 0.2801891407 -0.48267005 0.2806808557 -0.4825193095 -0.0862121314 0.1544540529
500297000.0 -0.0671105554 0.1706710273 0.2752073825 -0.4853359832 0.2744920812 -0.4854699133 -0.0844641188 0.155799599
505296970.0 -0.0647791047 0.1714263093 0.2694468688 -0.4882223639 0.2694141216 -0.4888144233 -0.0831559103 0.1566777257
510296940.0 -0.063200519 0.1725622306 0.2644705356 -0.4914220211 0.2641093741 -0.491652359 -0.0813560352 0.1574975133
515296910.0 -0.0613694325 0.1733255362 0.2590463172 -0.4943008675 0.2588962961 -0.4941809611 -0.0799400205 0.158504385
520296880.0 -0.0593770768 0.1742672082 0.2540086424 -0.4973930824 0.2537347424 -0.4965609331 -0.0788820813 0.1591972514
525296850.0 -0.0573644877 0.1745560051 0.2481604521 -0.4995000236 0.2486008014 -0.4996201408 -0.0770576146 0.160869548
530296820.0 -0.0555916408 0.1759183631 0.2429025884 -0.5025710115 0.2427562748 -0.5022695995 -0.0754597917 0.1614752701
535296790.0 -0.0536699992 0.1763879719 0.2374825711 -0.5049020388 0.2376239197 -0.5045692602 -0.0743254751 0.1617887207
540296760.0 -0.0517295145 0.1773346673 0.2316041819 -0.5078075382 0.2315303534 -0.507764603 -0.0728322351 0.1635792575
545296730.0 -0.0495999886 0.1780392897 0.2259861211 -0.5100463907 0.2262512845 -0.5099363081 -0.0713391854 0.1641087862
550296700.0 -0.0475004732 0.1788247545 0.2206471073 -0.5124406178 0.2208015556 -0.512470937 -0.069812757 0.1653185892
555296670.0 -0.0461452199 0.179065041 0.2152482648 -0.5149302708 0.2151994579 -0.5146972385 -0.0680942402 0.1657856026
560296640.0 -0.0436003965 0.1801664636 0.2093238587 -0.5169149918 0.2095297075 -0.5166813626 -0.0663729326 0.1664555687
565296610.0 -0.0420707258 0.1806131048 0.2037855076 -0.5191767542 0.2040095389 -0.5191353309 -0.0650586801 0.1670584305
570296580.0 -0.0400504747 0.1811136963 0.1982196674 -0.5220453795 0.197838631 -0.5216964949 -0.0636496519 0.1687369804
575296550.0 -0.0382247679 0.1822300282 0.1929440146 -0.5239071341 0.1923788341 -0.5237351476 -0.0616367379 0.1689486425
580296520.0 -0.0360596023 0.1823368861 0.1870704342 -0.5258353833 0.1867947289 -0.525519063 -0.0601425433 0.1693948046
585296490.0 -0.0343249847 0.1825283133 0.1814459189 -0.5273515451 0.181110389 -0.5278565463 -0.0585885309 0.1707250082
590296460.0 -0.0316938495 0.183255926 0.1753508192 -0.5290804457 0.1752986185 -0.5293766153 -0.0577253943 0.1710054791
595296430.0 -0.0294264276 0.1840306787 0.1691132681 -0.5315532096 0.1695297992 -0.5314524648 -0.05558285 0.1711748389
600296400.0 -0.0279453522 0.1842842574 0.1639181738 -0.5330007278 0.1636817197 -0.5329279038 -0.0541489215 0.171954751
605296370.0 -0.0259291875 0.1848172428 0.1577982505 -0.5345613701 0.1581429954 -0.5346880618 -0.0518077521 0.1728146424
610296340.0 -0.0236919512 0.1852795799 0.1518335754 -0.5365434606 0.1523674466 -0.5363504714 -0.0503422091 0.1733058323
615296310.0 -0.021406807 0.1853524586 0.1460267008 -0.5380459959 0.1462324003 -0.5383825129 -0.048517879 0.1737817124
620296280.0 -0.0197415067 0.185718483 0.1402786452 -0.5394887363 0.1406251395 -0.5390450136 -0.0470751723 0.1745121733
625296250.0 -0.0177015598 0.1856757267 0.1350615407 -0.5408402277 0.1347214884 -0.5412009776 -0.0446644736 0.1750709979
630296220.0 -0.0150306479 0.186440893 0.1284811835 -0.5424491552 0.1285160617 -0.542164868 -0.043392499 0.1757895017
635296190.0 -0.0138177579 0.1865602662 0.1228898992 -0.5432599843 0.1227204458 -0.5437048202 -0.0416990487 0.1762835807
640296160.0 -0.0115610097 0.1868352327 0.1167310421 -0.5447342365 0.1172628738 -0.5449078599 -0.0398789794 0.1769043589
645296130.0 -0.0095139364 0.1872938113 0.1112597495 -0.5455439163 0.1111340955 -0.5460090579 -0.0378845513 0.1774059445
650296100.0 -0.0069440537 0.1875628343 0.1051393222 -0.547424071 0.1054648395 -0.5472974305 -0.0359710149 0.1774761969
655296070.0 -0.005555511 0.1876901221 0.0994231411 -0.5480640632 0.099462284 -0.5482205911 -0.0342115915 0.1781152351
660296040.0 -0.0036303312 0.1872893561 0.0933057793 -0.5488731958 0.0931399557 -0.5493464967 -0.0323911068 0.17872007
665296010.0 -0.0010806689 0.1876711973 0.0869089282 -0.5504372058 0.0872240972 -0.5499325941 -0.03061151 0.1797262
670295980.0 0.0001669685 0.1880256014 0.0815281831 -0.5508942883 0.0814402679 -0.5511920452 -0.0292732538 0.1799889064
675295950.0 0.0027124528 0.1885541732 0.0755307958 -0.551798952 0.0755906336 -0.5517278785 -0.0278079403 0.1807272895
680295920.0 0.0048849478 0.18831053 0.0696074703 -0.5524318738 0.0693724181 -0.5528625214 -0.0257180075 0.1814488369
685295890.0 0.0067871168 0.1887501385 0.0634690547 -0.5532036199 0.0634614417 -0.553516195 -0.0240435502 0.1817933321
690295860.0 0.009015453 0.1886730827 0.0577746523 -0.5534179431 0.0574835068 -0.5541469619 -0.0224986588 0.1824153308
695295830.0 0.0110860715 0.1884260509 0.0520514343 -0.5541273712 0.0512047918 -0.5541219064 -0.02039043 0.1825970187
700295800.0 0.0133587623 0.1881950037 0.0453111272 -0.5549905142 0.0452646286 -0.5549081093 -0.0187231145 0.1833236254
705295770.0 0.014992695 0.1893397307 0.0398398816 -0.5554470543 0.0399299784 -0.5556031355 -0.0170385166 0.1838346265
710295740.0 0.0173325264 0.1888856472 0.0334194184 -0.5562691398 0.033823051 -0.5560813569 -0.0153572662 0.1836368248
715295710.0 0.019263001 0.188457662 0.0276942046 -0.5561426976 0.0274182905 -0.5562000184 -0.0134678253 0.1838268438
720295680.0 0.0215901799 0.1887842802 0.0216558684 -0.5566272994 0.0216951913 -0.556425088 -0.0114474453 0.1849287127
725295650.0 0.0235551016 0.1884919276 0.0152759274 -0.5561107433 0.0156594294 -0.5564685312 -0.0103731889 0.1851422152
730295620.0 0.0258916188 0.1886266831 0.0095907778 -0.5563758087 0.0095131238 -0.5566525629 -0.0082408925 0.1846436504
735295590.0 0.027939343 0.1885646695 0.0037631941 -0.5567041288 0.0034013055 -0.5566337671 -0.0066809936 0.1849739711
740295560.0 0.0295318423 0.1882237324 -0.0021129776 -0.5565206012 -0.0025362208 -0.5563740429 -0.0042586801 0.1855871632
745295530.0 0.0316203336 0.1884390374 -0.0085873134 -0.5563016651 -0.0089407554 -0.556701675 -0.0027180361 0.1852382948
750295500.0 0.0340782509 0.1876955608 -0.0143952378 -0.5562705634 -0.0141637036 -0.5565033878 -0.0011841681 0.1856576835
755295470.0 0.0360434786 0.1872516902 -0.0200493947 -0.5561350224 -0.0207449499 -0.5564466002 0.0010074684 0.1853943998
760295440.0 0.0379347498 0.1869447722 -0.0261255141 -0.5560389807 -0.0263426279 -0.5563382684 0.0024944741 0.1857498046
765295410.0 0.0400592863 0.186971725 -0.0324319021 -0.5556228437 -0.0330183644 -0.555778627 0.004127308 0.18623359
770295380.0 0.0417516408 0.1864742838 -0.0384626737 -0.5551164961 -0.0385548892 -0.5548726224 0.0059749503 0.1859032607
775295350.0 0.043940659 0.1858681867 -0.0449571655 -0.5545224129 -0.0440383756 -0.5542686388 0.0076358088 0.1861736544
780295320.0 0.0458651699 0.1856170982 -0.0502075317 -0.5539915657 -0.0497642481 -0.5541215752 0.0092832131 0.1853276953
785295290.0 0.0480604397 0.1848527681 -0.0566371838 -0.5528911566 -0.0561856934 -0.5534754865 0.011754962 0.1861433925
790295260.0 0.0505523456 0.1854479528 -0.0618166114 -0.552967637 -0.0615256194 -0.5523603832 0.013156497 0.1858963225
795295230.0 0.0521879132 0.1844110637 -0.0681085174 -0.5520908813 -0.0677971431 -0.5520568833 0.0154278341 0.1861461445
800295200.0 0.0538934397 0.1841538583 -0.07428603 -0.5508697278 -0.0740441024 -0.5511705071 0.0171799222 0.1860702292
805295170.0 0.0564900448 0.1835653336 -0.0802421548 -0.5503671358 -0.0799582279 -0.5502348241 0.0192066924 0.1860902891
810295140.0 0.0580339503 0.1828205932 -0.0855481145 -0.5494587522 -0.0861370616 -0.5494517491 0.0211605491 0.1861895386
815295110.0 0.0603109791 0.1822505751 -0.0917863288 -0.5476896385 -0.0919001413 -0.5481405818 0.0227301005 0.185962073
820295080.0 0.0618571691 0.1822323758 -0.0976964354 -0.5470006438 -0.0971794661 -0.5468266305 0.0244923973 0.185965916
825295050.0 0.0645918927 0.181402173 -0.1032801257 -0.5457695849 -0.1036378832 -0.546179775 0.0266114827 0.1859704206
830295020.0 0.0662538207 0.1809096238 -0.109423473 -0.5446878623 -0.1096548408 -0.5448779928 0.0290500593 0.1859013523
