!Created with skrf (http://scikit-rf.org).
# Hz S RI R 50.0 
!freq ReS11 ImS11 ReS21 ImS21 ReS12 ImS12 ReS22 ImS22
300000.0 -0.2294370629 -0.1344323876 0.4630722154 0.084963697 0.4659831411 0.0849473316 -0.2326644485 -0.1265991108
5299970.0 -0.2419923997 0.0051821101 0.4749783431 0.0061225468 0.4754227938 0.0059866208 -0.244515145 0.0045578534
10299940.0 -0.2387121592 0.0188138556 0.477365998 0.0069418952 0.4772860322 0.0070723615 -0.2407683839 0.017297272
15299910.0 -0.2334879496 0.028727032 0.4806026506 0.00810631 0.4808106794 0.0081098608 -0.237044963 0.0265676552
20299880.0 -0.2285233179 0.0370646985 0.4853225708 0.008039986 0.4858232951 0.0084163325 -0.2323762913 0.0337656521
25299850.0 -0.2226412307 0.0435235265 0.4908552765 0.0074206578 0.4907133437 0.0074229327 -0.2270290811 0.0401413106
30299820.0 -0.2172504865 0.0487913097 0.4962500107 0.0051593158 0.4961925275 0.0048609745 -0.2219522042 0.0450014994
35299790.0 -0.211369766 0.0528384964 0.5008930384 0.0021202098 0.5017345351 0.0018515318 -0.216799562 0.0492936821
40299760.0 -0.2062985607 0.056044741 0.506377283 -0.0018442533 0.5065588178 -0.0021734428 -0.2120678536 0.0520920825
45299730.0 -0.2010755383 0.0587196665 0.5110194852 -0.0063138942 0.5115279541 -0.0068930985 -0.2070549832 0.0545747021
50299700.0 -0.1961477352 0.0608204371 0.5152821521 -0.0122926399 0.5153643149 -0.0125475159 -0.2027669014 0.0568612951
55299670.0 -0.1918853545 0.0625266882 0.5185593619 -0.0181237357 0.5187710986 -0.0181726764 -0.199054315 0.0586449058
60299640.0 -0.1875372239 0.0640244417 0.5222443271 -0.0246495697 0.5223544691 -0.0248411624 -0.1952186193 0.0598214079
65299610.0 -0.1842436854 0.0651322704 0.5257183857 -0.0309346361 0.5256334542 -0.0311032111 -0.1918987646 0.0607946637
70299580.0 -0.1810171782 0.0658165926 0.5278295638 -0.0371045046 0.528024317 -0.0374710909 -0.1893797598 0.0618166062
75299550.0 -0.1779810847 0.066629602 0.5293699395 -0.0445195562 0.5301715996 -0.0446100988 -0.1860751631 0.0630402579
80299520.0 -0.175178477 0.0675437998 0.5313912958 -0.0511078328 0.5314695667 -0.0514338896 -0.1840823347 0.0635805613
85299490.0 -0.1725979304 0.0683340493 0.5330155311 -0.0584336427 0.533122994 -0.057942363 -0.1816129931 0.0640347923
90299460.0 -0.1702963102 0.0688629706 0.5335426351 -0.064931762 0.5335981297 -0.0650459775 -0.1793874936 0.0649778212
95299430.0 -0.168013299 0.0696072398 0.534438566 -0.0719739842 0.5345332736 -0.0720389243 -0.1777336931 0.0655767178
100299400.0 -0.1660129805 0.0702763008 0.5351614225 -0.0786938341 0.5352031959 -0.0790414974 -0.1758548031 0.0665350734
105299370.0 -0.164293358 0.0708237513 0.5351838614 -0.0855716505 0.5354738106 -0.0855514792 -0.1740079707 0.0669681021
110299340.0 -0.1622653046 0.0714068227 0.5355617037 -0.0915919291 0.5357248967 -0.0923091375 -0.1727957441 0.0673478313
115299310.0 -0.1607533297 0.0724420135 0.5353980281 -0.0991587301 0.5353186475 -0.0990042807 -0.1715146372 0.0683788779
120299280.0 -0.1594926943 0.0732313439 0.535596967 -0.106614373 0.5349673119 -0.1065825953 -0.1700247692 0.068563781
125299250.0 -0.1577856896 0.0740031835 0.5345663228 -0.1126846527 0.5348974423 -0.1128497008 -0.1688845417 0.0695684651
130299220.0 -0.1564159827 0.0744650197 0.5340636813 -0.1195533251 0.5341553793 -0.1199143349 -0.1678635949 0.0704071477
135299190.0 -0.1556942291 0.0759588743 0.5338696113 -0.1262549552 0.5339595734 -0.1264538406 -0.1667035777 0.0708331093
140299160.0 -0.1540718064 0.076898295 0.5329137688 -0.1330630781 0.5329503427 -0.1325533208 -0.1664100509 0.0718869731
145299130.0 -0.1532487646 0.0778819296 0.5319175868 -0.1393810392 0.5319225226 -0.1393034411 -0.165025547 0.0730193137
150299100.0 -0.1521739204 0.0789726646 0.5308947281 -0.1457638347 0.5305546206 -0.1461458366 -0.1641898782 0.0738149705
155299070.0 -0.1508003515 0.0800810047 0.5289062796 -0.1524835113 0.5296564459 -0.1526014132 -0.1632330675 0.0750554058
160299040.0 -0.150080179 0.0810712343 0.5281662686 -0.1589601631 0.5282898922 -0.1592681284 -0.162682716 0.076221172
165299010.0 -0.1487500341 0.0822933771 0.5267562561 -0.1652581786 0.5268822275 -0.1657146834 -0.1616180848 0.0767249474
170298980.0 -0.1478995655 0.0836680035 0.524972259 -0.1714875827 0.5254712223 -0.1719822505 -0.1609296216 0.0775873043
175298950.0 -0.1468660564 0.0847215754 0.5238739624 -0.1776407788 0.5239002476 -0.178363533 -0.1602981182 0.0792504821
180298920.0 -0.1459819115 0.0859660364 0.5220632336 -0.1843129416 0.5218177915 -0.1844823295 -0.1591663049 0.0800841351
185298890.0 -0.1452028719 0.0872471969 0.5206443855 -0.1903919744 0.5198920691 -0.190374019 -0.1586626074 0.080914568
190298860.0 -0.1437825304 0.0888410467 0.517782305 -0.1964914193 0.5185028139 -0.1966324314 -0.157870889 0.082298626
195298830.0 -0.1429996835 0.0900459285 0.5162604373 -0.2027077993 0.5166589609 -0.2028473515 -0.1572171706 0.0834918076
200298800.0 -0.1416777768 0.0911991749 0.5139653299 -0.2093338244 0.5141652028 -0.2091022154 -0.1563789363 0.0846713714
205298770.0 -0.1414742534 0.0923919824 0.511606937 -0.2147029543 0.5116982686 -0.2145210709 -0.1553375939 0.0857556403
210298740.0 -0.1401519526 0.0939354278 0.5096970331 -0.220945396 0.5095083429 -0.2211195745 -0.1550883651 0.0869691529
215298710.0 -0.1391829859 0.0954735705 0.507022692 -0.2264593553 0.5073753677 -0.2269295186 -0.1540660469 0.0884677724
220298680.0 -0.1381939395 0.0969626793 0.5045811793 -0.2324881317 0.5047835911 -0.2327648493 -0.1533539396 0.089764865
225298650.0 -0.1375571221 0.098424919 0.5022971398 -0.2384068379 0.5026555691 -0.2380187214 -0.1528389613 0.0907465434
230298620.0 -0.1363391829 0.0999868635 0.4998154616 -0.2442985771 0.5004035278 -0.2442727315 -0.1522197261 0.0919301513
235298590.0 -0.1354446056 0.1011475166 0.4972249479 -0.2503796864 0.4973624929 -0.2503123944 -0.1509758859 0.0934927346
240298560.0 -0.1342990331 0.1028804055 0.4944249237 -0.255455519 0.4945063437 -0.2554639514 -0.1505169482 0.0944260089
245298530.0 -0.133306915 0.1040287854 0.4917439189 -0.2616076009 0.4915947494 -0.2616519764 -0.1496735256 0.0959680488
250298500.0 -0.1323554077 0.1051217833 0.4892876712 -0.2668135954 0.4890949299 -0.2671053003 -0.1490199242 0.0972338167
255298470.0 -0.1309902069 0.1072284673 0.4860118923 -0.2723645878 0.4865404778 -0.2728800014 -0.1481129125 0.0988103397
260298440.0 -0.1300617667 0.1084419205 0.4835732176 -0.2775997444 0.4834527726 -0.2776666523 -0.1474655471 0.0998774042
265298410.0 -0.1292181696 0.1099306926 0.4801489028 -0.2836601481 0.4799118271 -0.283814961 -0.1460032555 0.100818094
270298380.0 -0.1283376005 0.1114103512 0.4773228765 -0.2889088097 0.4769635083 -0.2891580853 -0.1452072936 0.1024527114
275298350.0 -0.1270761499 0.1131899678 0.473415962 -0.2942880254 0.4739601455 -0.2941263091 -0.1445475526 0.1042913556
280298320.0 -0.1261072756 0.1143052292 0.4707246276 -0.2995584633 0.4713281421 -0.2996854468 -0.1437095689 0.1055401601
285298290.0 -0.1247961148 0.1161240175 0.4674164099 -0.3049734465 0.4680145867 -0.3049755919 -0.142681672 0.1068649357
290298260.0 -0.1237487937 0.1174151092 0.4644037042 -0.3100839016 0.4642798316 -0.3104556992 -0.1415989776 0.1082038748
295298230.0 -0.122559345 0.1184989165 0.4608931107 -0.3157440514 0.4612458596 -0.3158111961 -0.1407872487 0.1091546429
300298200.0 -0.1213796597 0.1204189285 0.4579210766 -0.3208458432 0.4576988085 -0.320797148 -0.1398723401 0.110609194
305298170.0 -0.1201770258 0.1211856847 0.4542427123 -0.3264374572 0.4545970276 -0.3261721559 -0.1387687089 0.1117021903
310298140.0 -0.1184439285 0.1226264714 0.4505648178 -0.3313324535 0.4508289534 -0.331211535 -0.1374269226 0.1127676673
315298110.0 -0.1176255704 0.1237386792 0.4471903024 -0.3368321792 0.4475277972 -0.3368572066 -0.1367014784 0.1143455721
320298080.0 -0.1163366172 0.1251374254 0.4431767326 -0.3415460913 0.4440838258 -0.3421025286 -0.1358587573 0.115396678
325298050.0 -0.1155971929 0.1260457721 0.4392696212 -0.3465008243 0.4398479576 -0.3467392169 -0.1347054447 0.1167289561
330298020.0 -0.1150185516 0.1276537508 0.4353691499 -0.3515351809 0.435747421 -0.3521649899 -0.1341321123 0.1181180046
335297990.0 -0.1134057926 0.1290805299 0.4316950691 -0.3562323464 0.4320630447 -0.356628724 -0.1332631118 0.1193919346
340297960.0 -0.1124678558 0.1302559796 0.4270536319 -0.3613961018 0.4276010903 -0.3615528667 -0.1321479819 0.1208751281
345297930.0 -0.1113199504 0.1315781729 0.4231329186 -0.3662889389 0.4230921194 -0.3659994462 -0.131035267 0.1220065787
350297900.0 -0.1101320247 0.1329939366 0.419249959 -0.3703197649 0.4194759107 -0.3705190107 -0.1299255739 0.1231301131
355297870.0 -0.1089331446 0.1342794739 0.4154298217 -0.3750154764 0.4151679617 -0.3749432173 -0.1287815143 0.1246882082
360297840.0 -0.1074749945 0.1358652213 0.410885233 -0.3796927765 0.4111898095 -0.3799800624 -0.1279807657 0.1261163473
365297810.0 -0.1062307849 0.1371470494 0.4064988371 -0.3844266628 0.4067292734 -0.3841093297 -0.126921366 0.1273279969
370297780.0 -0.1048195134 0.1385532674 0.4019927861 -0.388714445 0.4024491194 -0.3885496447 -0.1257414204 0.1288197877
375297750.0 -0.1033542961 0.1398967485 0.3982120078 -0.3930429166 0.3981003639 -0.3932035198 -0.1243362879 0.1301869241
380297720.0 -0.1021811766 0.1412335677 0.3943664334 -0.3977495149 0.3941299474 -0.3976311282 -0.1234414059 0.1314310418
385297690.0 -0.100943413 0.1420778015 0.3896199563 -0.4015786768 0.3896576386 -0.4022733169 -0.1218996353 0.1331881862
390297660.0 -0.0990990313 0.1435934417 0.3851507156 -0.4057262648 0.3852205039 -0.4059217888 -0.1205589794 0.1342224166
395297630.0 -0.0973334525 0.1444646782 0.3805815142 -0.4100253706 0.3807179591 -0.4098260635 -0.119633003 0.1354740545
400297600.0 -0.0962786121 0.1458697481 0.3764990865 -0.4144145831 0.3768453566 -0.414530775 -0.1182396633 0.1370940564
405297570.0 -0.0948166016 0.1468000312 0.3719807929 -0.4180413816 0.3719428367 -0.4185301159 -0.1165791852 0.1379694651
410297540.0 -0.09293546 0.148296298 0.3669769143 -0.4230111631 0.3673188161 -0.4223709293 -0.1155885567 0.1396131653
415297510.0 -0.0916845177 0.1490871343 0.3625564318 -0.4262519894 0.3627540386 -0.4267273644 -0.1141409519 0.1408384368
420297480.0 -0.0901436381 0.14978072 0.357745229 -0.4305006788 0.3582811675 -0.4306398215 -0.1126692722 0.1421987311
425297450.0 -0.0883243126 0.1513706848 0.353369771 -0.4346049211 0.3531681963 -0.4346237853 -0.1115745327 0.1429649442
430297420.0 -0.0872730757 0.1523342983 0.3487955525 -0.4381215331 0.3486290445 -0.4376706695 -0.1096701653 0.1444924862
435297390.0 -0.0851763366 0.1533631729 0.3433705347 -0.4423945996 0.3437015802 -0.4419029465 -0.1093751821 0.1461751382
440297360.0 -0.0832535446 0.1543040695 0.3382758827 -0.4458546333 0.3385188454 -0.4458439489 -0.1071689687 0.1471943672
445297330.0 -0.0815878573 0.1550097407 0.3338942543 -0.4491342124 0.3337010406 -0.4495032394 -0.1059758696 0.148262928
450297300.0 -0.0801914166 0.1565234149 0.3289248294 -0.4527239663 0.3292360172 -0.4528111126 -0.1042615626 0.1492651889
455297270.0 -0.0789252342 0.1569848427 0.3242602584 -0.4563216682 0.3247174962 -0.4567405411 -0.1031351915 0.1506967123
460297240.0 -0.0762815005 0.1584027087 0.3186718769 -0.4605998816 0.3189394605 -0.4603058702 -0.1013140148 0.1517169114
465297210.0 -0.0750392004 0.1590337217 0.3136206803 -0.4639649398 0.3137444004 -0.4637407831 -0.0999241254 0.1531824676
470297180.0 -0.0731073032 0.1599034302 0.3090066909 -0.4665108085 0.3092933395 -0.4669565168 -0.0984252165 0.1539728661
475297150.0 -0.0716506452 0.1612471906 0.303772372 -0.4701640568 0.3039233657 -0.4705054536 -0.0970062886 0.1553112049
480297120.0 -0.0693791808 0.1623038303 0.2983348927 -0.4733307259 0.2987263283 -0.4733756788 -0.0956802541 0.1563373031
485297090.0 -0.0678200862 0.1626096566 0.2933455514 -0.4766931154 0.2935474846 -0.4766761812 -0.0942449768 0.1571870112
490297060.0 -0.0652588133 0.1638901979 0.2875534084 -0.4802560597 0.2880906631 -0.4800133645 -0.092467101 0.1579532197
495297030.0 -0.064079772 0.1642473182 0.2833607845 -0.4832148162 0.2831663698 -0.4832654448 -0.090639189 0.1590985987
500297000.0 -0.062064811 0.1653717789 0.2779064741 -0.4859665507 0.277983625 -0.4863241766 -0.0892040248 0.1603594918
505296970.0 -0.0598574444 0.1659615465 0.2724136186 -0.4889271675 0.2727216947 -0.4891248847 -0.0875814278 0.1611425688
510296940.0 -0.0582771701 0.1668636085 0.2671943982 -0.4926164842 0.2673568105 -0.492431605 -0.0854382167 0.162551448
515296910.0 -0.0564408907 0.1678422018 0.2612286327 -0.4944642803 0.2612805041 -0.4948478098 -0.0843451555 0.1629510962
520296880.0 -0.0543631209 0.1687348818 0.2561317792 -0.4972375657 0.2563241696 -0.497516899 -0.0824787653 0.1644078641
525296850.0 -0.0521725493 0.1691024023 0.2504146657 -0.5004064731 0.250536817 -0.500287498 -0.0809664953 0.1649840363
530296820.0 -0.0507262991 0.1700106624 0.2452222586 -0.5031549536 0.2453086809 -0.5026998837 -0.0794161585 0.1658651931
535296790.0 -0.048120093 0.1705761557 0.2398654576 -0.5056292013 0.2398426131 -0.5055514725 -0.0773163283 0.1670576604
540296760.0 -0.0461714943 0.1712818338 0.2340860054 -0.5078908916 0.2340554437 -0.5082053621 -0.0757861986 0.1676907965
545296730.0 -0.0447535711 0.1722892287 0.2286809685 -0.5105402424 0.2286260733 -0.5103036907 -0.0740716905 0.1686946767
550296700.0 -0.0420963869 0.1726986189 0.2231531763 -0.512923799 0.2229194379 -0.5134077204 -0.0725601582 0.1693512086
555296670.0 -0.0403369303 0.1733362565 0.2172750729 -0.5157346307 0.2173664866 -0.5155652548 -0.0707546998 0.1699823387
560296640.0 -0.038025341 0.1738754057 0.2116391046 -0.5175825538 0.2120120049 -0.517752411 -0.0693349083 0.1711983796
565296610.0 -0.0363089562 0.1747367847 0.2066388641 -0.5201384567 0.2063718266 -0.5195210932 -0.06721433 0.1719783538
570296580.0 -0.034578793 0.1753844551 0.2003129023 -0.5221838169 0.2005874397 -0.5222931758 -0.0657355205 0.1724415908
575296550.0 -0.0322442527 0.1754036169 0.195140632 -0.5244218762 0.194756743 -0.5238869317 -0.064023062 0.1731299985
580296520.0 -0.0303614985 0.1765465236 0.1892926107 -0.5262784325 0.1890502834 -0.5266280949 -0.0625762947 0.1738029378
585296490.0 -0.0278280089 0.1772462684 0.1836129786 -0.5283353147 0.1833619752 -0.528202269 -0.0604635469 0.1751906949
590296460.0 -0.0255677048 0.1774010195 0.1779586722 -0.530132996 0.1778772109 -0.5304771651 -0.058986066 0.1759390737
595296430.0 -0.0233778332 0.1779813791 0.1712650222 -0.5320451649 0.1716264915 -0.5320942483 -0.0570479706 0.1761906143
600296400.0 -0.0214488976 0.1783647017 0.1656295224 -0.5332976736 0.1659100121 -0.5338332904 -0.0553456972 0.1765215378
605296370.0 -0.0199455274 0.178958686 0.1609868927 -0.5353790054 0.1600298577 -0.5360137681 -0.0537298729 0.177602047
610296340.0 -0.0175422221 0.1795707944 0.1543709619 -0.5368286632 0.1547466054 -0.5369650359 -0.0519942868 0.1781352409
615296310.0 -0.0150561754 0.1798142482 0.1487382772 -0.5389740047 0.1482871336 -0.5389291025 -0.0496820583 0.1791004798
620296280.0 -0.0133845848 0.1805287665 0.1426476279 -0.5405665201 0.1428215748 -0.5404597292 -0.0486030313 0.1798401278
625296250.0 -0.011703841 0.1806904733 0.1369553205 -0.5419751146 0.136841194 -0.5417164935 -0.0469563162 0.1798329192
630296220.0 -0.0093359213 0.1814795597 0.1307464991 -0.5436865064 0.1309500746 -0.5432604698 -0.0448711448 0.1806947995
635296190.0 -0.0075581448 0.1818685059 0.1255964439 -0.5444744965 0.1247688715 -0.5440313612 -0.0428017157 0.1812842374
640296160.0 -0.0052650186 0.1820636592 0.1192160519 -0.5463839184 0.1190085259 -0.5460259585 -0.0415027299 0.1817605904
645296130.0 -0.0031675394 0.1824715606 0.1134226152 -0.5469328768 0.1132393675 -0.5468173674 -0.0400273637 0.181954024
650296100.0 -0.0009497845 0.1825221779 0.1072514795 -0.5485987906 0.1070838525 -0.548228552 -0.0372304585 0.1827466645
655296070.0 0.0007561308 0.1828790962 0.1013125485 -0.5494406193 0.1014693259 -0.5493073986 -0.0362389266 0.1836120822
660296040.0 0.0030454642 0.1832191864 0.0955810053 -0.5505988216 0.0953905571 -0.5506082305 -0.0342960986 0.1836952189
665296010.0 0.0050466057 0.1834128901 0.0893831317 -0.550938742 0.0893585052 -0.5510663445 -0.032642533 0.1842388287
670295980.0 0.007164184 0.1837923555 0.08322047 -0.5525099503 0.0833074256 -0.5520442464 -0.0312156616 0.1845511129
675295950.0 0.0090463413 0.1836569187 0.0777005208 -0.552913121 0.0777539206 -0.5532410575 -0.0291416226 0.1851250025
680295920.0 0.0108378862 0.1842432765 0.0717558958 -0.5538269099 0.0715089164 -0.5538430894 -0.0269101716 0.1852257615
685295890.0 0.0131431125 0.1844742185 0.065463881 -0.5543308249 0.0655771201 -0.5548468185 -0.0252739024 0.1863346705
690295860.0 0.0150591075 0.1843879178 0.0596788552 -0.5547913017 0.0593017212 -0.5551674811 -0.0235961505 0.1863434313
695295830.0 0.0174353232 0.1843809011 0.0538651745 -0.5558790511 0.0535506122 -0.5558597446 -0.021651791 0.1868545518
700295800.0 0.0191509613 0.184550234 0.048444731 -0.5563013072 0.0478989953 -0.5563873286 -0.0199217194 0.1871006526
705295770.0 0.0210720803 0.1850588805 0.042224892 -0.5573735909 0.0419202208 -0.5566937157 -0.018250478 0.187700134
710295740.0 0.0229651663 0.1843692989 0.0358153494 -0.5569242736 0.0355875287 -0.5574704949 -0.0161369736 0.1878847765
715295710.0 0.0252886226 0.1848249806 0.0298384012 -0.5577621685 0.0297481026 -0.5577179303 -0.0143188154 0.1879771552
720295680.0 0.0275886673 0.1846806744 0.0236587035 -0.5580489908 0.0236150826 -0.5581487517 -0.0126028311 0.1885324956
725295650.0 0.0291051712 0.1849368044 0.0179385898 -0.5578085296 0.017963708 -0.5581648482 -0.0109615583 0.1892280186
730295620.0 0.0305482842 0.1844989401 0.0119567885 -0.5578978361 0.0120554442 -0.5579820372 -0.0094206873 0.1896519033
735295590.0 0.0332987546 0.184659276 0.0057776448 -0.5580713782 0.0060416016 -0.5581839756 -0.0071804477 0.1891635124
740295560.0 0.0347943677 0.1842836627 0.0002176702 -0.5583701665 0.0001898305 -0.5586326873 -0.0058494164 0.1899782833
745295530.0 0.0368201213 0.1843202667 -0.0058832858 -0.5574255602 -0.0055641932 -0.5579131535 -0.0040213199 0.1899200847
750295500.0 0.038319936 0.1842555327 -0.0113648023 -0.5580483151 -0.0121996016 -0.557945879 -0.0021502589 0.1899768955
755295470.0 0.0403654291 0.184121497 -0.01776631 -0.5581597177 -0.0177208109 -0.5581285152 -0.000212003 0.1907998404
760295440.0 0.0425363177 0.1843106296 -0.0243459961 -0.5575664809 -0.0242692738 -0.557176806 0.0019840793 0.1900608586
765295410.0 0.0446430842 0.183571686 -0.0298025739 -0.5575335166 -0.0296272649 -0.5574864739 0.0036746358 0.1903265857
770295380.0 0.0462713839 0.1834601984 -0.0357264187 -0.556498829 -0.0359359267 -0.5574717158 0.0051543261 0.1908785553
775295350.0 0.0481777311 0.1830912529 -0.0419158636 -0.5563550057 -0.0419078966 -0.5560513564 0.0075168779 0.1907112445
780295320.0 0.0502537011 0.1830357475 -0.0476891459 -0.5557890487 -0.0477902584 -0.5557525251 0.0093238671 0.1911473919
785295290.0 0.0520226357 0.182491089 -0.0537696242 -0.555523781 -0.0535688963 -0.555442782 0.010786744 0.1913367099
790295260.0 0.0540367228 0.1818481207 -0.0594022956 -0.5545321723 -0.0592949899 -0.5551856009 0.0127124229 0.1917227086
795295230.0 0.0559932286 0.1815661125 -0.0656587949 -0.5537914161 -0.0657769511 -0.5542206262 0.0145015819 0.1909329405
800295200.0 0.0575788797 0.1814056233 -0.070946528 -0.5530364204 -0.0719053637 -0.553599993 0.0162028002 0.1910219608
805295170.0 0.0596605165 0.1811644759 -0.0773735867 -0.5525961383 -0.0774973023 -0.55265174 0.0186849059 0.1909994097
810295140.0 0.0618019783 0.1805939066 -0.0835643516 -0.5516912425 -0.0836593507 -0.5516814248 0.0206110533 0.1911004945
815295110.0 0.0631648972 0.1801651577 -0.0887350994 -0.5506352661 -0.0891382758 -0.5512773194 0.0220407055 0.1913461249
820295080.0 0.0652509989 0.1797650704 -0.09486837 -0.5492767845 -0.0948383821 -0.5499284773 0.023337514 0.191733571
825295050.0 0.0671259497 0.1790314894 -0.1009335448 -0.5488338323 -0.101014653 -0.5486796608 0.0260937701 0.1917692931
830295020.0 0.069066405 0.1784610523 -0.1070213964 -0.5477600866 -0.1066676266 -0.5475719098 0.0275428727 0.1911543646
