!Created with skrf (http://scikit-rf.org).
# Hz S RI R 50.0 
!freq ReS11 ImS11 ReS21 ImS21 ReS12 ImS12 ReS22 ImS22
300000.0 -0.7760161512 -0.0929380469 -0.0004337593 0.0009173311 0.0003563798 0.0016483553 -0.2118453845 -0.0785314277
5299970.0 -0.7853106111 -0.0058085894 3.42193e-05 4.38309e-05 0.0002043202 -0.0001127369 -0.2150991417 0.0086265104
10299940.0 -0.7880212778 -0.0037979866 3.19017e-05 -1.37602e-05 5.57094e-05 0.0001132391 -0.2115280896 0.0215609692
15299910.0 -0.7932482194 -0.0023045146 6.543e-07 9.32772e-05 8.63554e-05 0.0001394468 -0.2064232175 0.0311151903
20299880.0 -0.8002421447 0.0019144024 2.13025e-05 7.59858e-05 7.82881e-05 -8.42959e-05 -0.2003677597 0.0389219711
25299850.0 -0.8064262017 0.0077101629 -4.12859e-05 -4.68239e-05 8.22474e-05 -5.87688e-05 -0.1940031659 0.0455925338
30299820.0 -0.8123208456 0.0156132464 -2.37042e-05 1.8656e-05 -0.0001332725 -7.01869e-05 -0.187528092 0.0506809387
35299790.0 -0.8170909636 0.0243225087 -7.5438e-06 -4.47568e-05 -5.96063e-05 -1.81562e-05 -0.1810001254 0.0547907048
40299760.0 -0.8214757073 0.0333751834 0.0001977326 2.12327e-05 -6.80652e-05 -2.05768e-05 -0.1750060647 0.0573914912
45299730.0 -0.8243084047 0.0427524174 7.6317e-05 0.0001939115 2.06365e-05 0.0001300389 -0.1694190087 0.0594565258
50299700.0 -0.8268973158 0.0529151955 -1.54241e-05 1.67764e-05 -0.000194187 -0.0001785107 -0.1641730976 0.0605238248
55299670.0 -0.8291042132 0.0629032913 9.11782e-05 0.0001739936 1.93829e-05 4.45986e-05 -0.1595316071 0.061859183
60299640.0 -0.8300360653 0.0728081792 0.0001861295 0.0001625299 5.51988e-05 1.42879e-05 -0.1548725641 0.0623964732
65299610.0 -0.8313973933 0.0835411116 0.0002357147 -6.74403e-05 -3.40689e-05 -4.73521e-05 -0.1513502733 0.0621815514
70299580.0 -0.8312398329 0.0930717052 6.54505e-05 -7.54985e-05 -0.0001199759 9.34926e-05 -0.1477268361 0.0626653915
75299550.0 -0.8315011679 0.1030313945 -5.33262e-05 0.0001548032 5.03039e-05 -7.22118e-05 -0.1445754394 0.0625178773
80299520.0 -0.8318541317 0.1131196494 0.0001183715 0.0001293743 -1.34897e-05 -0.0001104923 -0.1416615781 0.0627849094
85299490.0 -0.8308370056 0.1225247554 1.58108e-05 -4.92978e-05 1.01969e-05 4.83618e-05 -0.1393100595 0.0621708383
90299460.0 -0.8296846005 0.1322246523 0.0001461039 -9.41613e-05 3.45742e-05 9.10136e-05 -0.1365459277 0.0622564862
95299430.0 -0.828514957 0.1417942488 -9.093e-07 0.0001636099 -6.57122e-05 -5.08699e-05 -0.1346735827 0.062290045
100299400.0 -0.8281428619 0.1507036811 2.2035e-06 -4.72722e-05 3.36149e-05 -8.167e-06 -0.1325129663 0.0618759915
105299370.0 -0.8268843957 0.1598109992 0.0002434958 0.0001605341 -5.21344e-05 3.4416e-05 -0.1307554778 0.0617594918
110299340.0 -0.8252778498 0.1691257067 0.0001296976 8.10182e-05 -0.000304793 5.685e-06 -0.1294006217 0.0615913067
115299310.0 -0.8240229199 0.1786403431 1.0359e-06 -2.10581e-05 0.0001245898 0.0001818038 -0.1277180106 0.0616513007
120299280.0 -0.8218964168 0.1868904011 -0.0001116786 5.20724e-05 -9.85322e-05 0.0001602808 -0.1267501409 0.0615398203
125299250.0 -0.8203673673 0.1956184281 -8.98128e-05 0.0001605646 -3.472e-07 0.0001640458 -0.1257518736 0.0609140435
130299220.0 -0.8186667637 0.2054058858 -7.70384e-05 8.6876e-06 8.8807e-06 0.0001675385 -0.124657148 0.0610804665
135299190.0 -0.817013414 0.2139540048 0.0001287608 0.0003195727 -9.05402e-05 -4.57428e-05 -0.123537112 0.0612432171
140299160.0 -0.814375568 0.2231236848 0.0001109689 0.0001806299 -0.0001097936 -3.79712e-05 -0.1226995613 0.061695652
145299130.0 -0.8123038858 0.2314755519 -4.76636e-05 -7.04591e-05 0.0001459487 3.12091e-05 -0.1219517361 0.0618150388
150299100.0 -0.8098551817 0.2405962944 2.187e-07 -1.60262e-05 0.0001283812 0.000267316 -0.1213949718 0.0623439045
155299070.0 -0.8077821208 0.2491246701 0.0001675748 -7.3625e-06 -7.90455e-05 5.13709e-05 -0.1205515191 0.0623902929
160299040.0 -0.8052088089 0.2579025304 -5.71339e-05 -0.0001093304 -1.66824e-05 0.0001366482 -0.1201925336 0.0628768712
165299010.0 -0.8027703163 0.2664548311 2.10532e-05 0.0003225292 8.56267e-05 -5.4916e-06 -0.1192336261 0.0630486781
170298980.0 -0.8003117228 0.2753633067 0.0002114555 9.50933e-05 -0.0001208441 0.0002005946 -0.1186173146 0.0637872019
175298950.0 -0.7975818984 0.2841863693 5.58042e-05 0.0001560415 0.0001148908 2.31233e-05 -0.1182520371 0.0639584689
180298920.0 -0.7951409467 0.2921133316 1.0888e-05 0.0001039959 -2.81997e-05 3.09e-05 -0.1176282793 0.0645579797
185298890.0 -0.7910982573 0.3003219479 -8.35884e-05 -4.91367e-05 0.0001106339 0.0002991546 -0.116927271 0.0650056002
190298860.0 -0.7885220763 0.309362768 0.0004138652 -8.7082e-05 0.0002999822 0.0001493687 -0.1165199221 0.0656783518
195298830.0 -0.7854209967 0.3176247825 3.46345e-05 9.65082e-05 0.0001756216 0.0001263612 -0.1160919824 0.0659117678
200298800.0 -0.7813952226 0.3258299766 -0.0001180027 0.0001490223 -1.05877e-05 4.20563e-05 -0.1156164222 0.0665396984
205298770.0 -0.7784716683 0.333843237 4.38646e-05 8.82905e-05 8.73296e-05 -0.0001648453 -0.1149198192 0.0669168011
210298740.0 -0.7746899697 0.3427872452 -0.0001559879 -1.76302e-05 0.0001365825 -3.10249e-05 -0.1141642641 0.0678896271
215298710.0 -0.7714881612 0.3500560478 0.0001662743 -5.9298e-06 3.30964e-05 -4.01332e-05 -0.114247748 0.0686768064
220298680.0 -0.7673356462 0.3585416049 9.09476e-05 6.07215e-05 -8.8247e-06 3.96503e-05 -0.1137634681 0.0689226424
225298650.0 -0.7641658255 0.3658379051 0.000128179 0.0002273719 -5.97586e-05 9.23287e-05 -0.1134298711 0.0698536678
230298620.0 -0.7598830625 0.3741785534 -0.0001697137 5.86337e-05 0.0002386311 0.0002513882 -0.1128302788 0.0705439815
235298590.0 -0.7566474243 0.3831672408 -3.2106e-06 -2.6319e-05 4.54948e-05 -0.0001299432 -0.1121837734 0.0714787023
240298560.0 -0.7523409459 0.3911451647 0.0002242396 -4.87474e-05 0.0002490662 -0.0001456524 -0.1119462102 0.0722552621
245298530.0 -0.7486382164 0.3980412308 0.0001974576 -6.53207e-05 7.57171e-05 4.03728e-05 -0.1114019141 0.0727092395
250298500.0 -0.7442488115 0.4062907955 0.0001399296 9.46245e-05 8.84692e-05 0.0001631186 -0.1110586852 0.0737129927
255298470.0 -0.7394285323 0.4130454933 -7.93251e-05 0.0003297895 0.0001848902 6.09988e-05 -0.110255499 0.0744601109
260298440.0 -0.7351487071 0.4210063682 2.73279e-05 6.31566e-05 0.000221907 0.0001064374 -0.1096763869 0.0754089657
265298410.0 -0.7312655141 0.4296287714 5.69216e-05 7.30497e-05 0.0001059053 7.50101e-05 -0.1093794233 0.0766153104
270298380.0 -0.7268136877 0.4365641077 -7.25837e-05 5.35902e-05 -6.58014e-05 -0.0001230198 -0.1086351891 0.0774388699
275298350.0 -0.7224385188 0.4445608942 -0.0001251315 2.40445e-05 5.62653e-05 1.3474e-05 -0.1083494916 0.078183583
280298320.0 -0.7172611204 0.452356844 5.431e-07 -6.27893e-05 4.02693e-05 8.59748e-05 -0.1077101791 0.0789699663
285298290.0 -0.713254591 0.4597991585 -0.0001029163 -0.000103098 -4.50497e-05 1.24261e-05 -0.1071248174 0.0801267988
290298260.0 -0.7081073836 0.4673213886 -3.65629e-05 0.0001660897 7.28043e-05 9.57109e-05 -0.1064657702 0.081066799
295298230.0 -0.70230063 0.4740580055 6.48927e-05 -7.00606e-05 0.0002090553 -2.58328e-05 -0.1058599691 0.0816737048
300298200.0 -0.6978137462 0.4814481594 -0.0001621104 1.00686e-05 5.19506e-05 4.67954e-05 -0.105425548 0.0829448309
305298170.0 -0.6930071076 0.4878560099 0.0001760938 0.0001285183 4.36739e-05 0.0001770072 -0.1042311532 0.0834031611
310298140.0 -0.6876258314 0.4955210001 -4.99639e-05 -3.8856e-06 7.87654e-05 2.00242e-05 -0.1045909728 0.0844482942
315298110.0 -0.6829787907 0.5030453093 -0.0001378135 1.01575e-05 0.0001208721 0.0001365737 -0.1035647803 0.0853661926
320298080.0 -0.6776780242 0.5097889284 0.0001090178 0.0002235473 0.000223704 0.0001609877 -0.1028700851 0.0861720327
325298050.0 -0.6718158156 0.5168070885 -4.3721e-05 0.0001894446 4.76445e-05 -1.18215e-05 -0.1027169229 0.0870324976
330298020.0 -0.666620584 0.5237779419 0.0001470098 0.0001623716 -5.57414e-05 7.59707e-05 -0.1024833225 0.0882013822
335297990.0 -0.6609230286 0.5302499014 0.0001041025 9.55964e-05 0.0002421989 5.69735e-05 -0.1019973023 0.0892462475
340297960.0 -0.6559493847 0.5368003207 0.0001378047 0.0001095332 6.59852e-05 1.74835e-05 -0.100776679 0.0904671021
345297930.0 -0.6508116722 0.5436458372 1.42072e-05 0.0002339403 0.0001119078 -5.00313e-05 -0.1004482976 0.0912038968
350297900.0 -0.6447882523 0.5507976704 0.000154561 9.84396e-05 -0.0001287734 0.0001517449 -0.1000495144 0.0925777563
355297870.0 -0.6380986651 0.5578896566 7.9846e-05 0.0002066674 0.0001182133 0.0001248025 -0.099472006 0.0933094402
360297840.0 -0.6329342038 0.5636805065 -0.0001000968 -7.08402e-05 0.0001054798 6.03738e-05 -0.0987262879 0.0942229035
365297810.0 -0.6274622563 0.5702922488 0.0001015504 -2.58365e-05 0.0001349915 -5.00562e-05 -0.0978565376 0.0954767479
370297780.0 -0.620673044 0.5761168854 0.0001673034 0.000179774 1.32303e-05 -3.2992e-05 -0.0969855848 0.0961991908
375297750.0 -0.6145905201 0.5832164846 -7.89295e-05 0.0002947283 -8.63741e-05 0.0003246095 -0.0967209583 0.0968528309
380297720.0 -0.6091538465 0.58846852 0.0002366013 0.0003245182 0.0001650445 -1.04191e-05 -0.0960277253 0.0983408302
385297690.0 -0.6032712831 0.5947956253 0.0002307907 0.0002235363 -6.85374e-05 0.0002183108 -0.0947397337 0.0993174285
390297660.0 -0.5972892335 0.6006030338 5.9105e-06 -0.000168126 0.0002273529 -0.0001661618 -0.0943004948 0.1003969713
395297630.0 -0.5903585873 0.6076041745 9.20766e-05 0.000357189 1.638e-06 7.78911e-05 -0.0931877286 0.1014564778
400297600.0 -0.5843104404 0.6135234197 -1.9971e-06 -0.000137195 0.0003218455 0.0001283183 -0.0924184085 0.1020388404
405297570.0 -0.5780799139 0.619012526 0.0001386212 0.0002897389 0.0001389908 0.0002009988 -0.0918736926 0.1032950323
410297540.0 -0.5712959609 0.6248770514 0.0005443118 8.23298e-05 8.41817e-05 6.22743e-05 -0.0906320861 0.1043497888
415297510.0 -0.563873328 0.6310233397 0.0001663251 0.0001845305 0.0001007439 7.74721e-05 -0.0900810099 0.1052615269
420297480.0 -0.559037892 0.6363076881 0.0002701705 4.23792e-05 7.02818e-05 -4.1944e-06 -0.089083985 0.1063619309
425297450.0 -0.5520471879 0.6426343514 0.0001209283 3.84967e-05 0.00011177 -1.759e-05 -0.0883894142 0.1071015204
430297420.0 -0.5453317386 0.6477668768 5.88535e-05 4.2743e-05 0.0003912338 0.0001591097 -0.0876549643 0.1083046585
435297390.0 -0.5385422313 0.6528439072 0.0001234311 0.0002062278 -5.03144e-05 4.92131e-05 -0.0864559857 0.109033186
440297360.0 -0.5320201132 0.658502324 0.0002189111 -7.97245e-05 0.0002634969 0.0001237718 -0.0854884122 0.1101756803
445297330.0 -0.5250361584 0.6637501888 0.0001899791 0.0003750378 -2.56385e-05 -6.20363e-05 -0.0849609973 0.1106442697
450297300.0 -0.5181322114 0.6685091235 0.0001154748 0.0001052746 0.0001492397 -3.38407e-05 -0.0837462659 0.1119387417
455297270.0 -0.5115080887 0.6745359109 0.0001141894 0.0001199448 0.0001598091 -1.296e-06 -0.083037693 0.1126577706
460297240.0 -0.5050817256 0.6795135729 0.0001184693 0.0002477906 5.09693e-05 -4.50064e-05 -0.0818044262 0.1140155471
465297210.0 -0.4981242451 0.6847158402 0.0001950099 0.0002287436 0.0001301825 -3.6684e-06 -0.0810473346 0.1149528347
470297180.0 -0.4903543789 0.6897297839 0.0002763288 6.5761e-05 0.0002311989 0.0002368932 -0.079611199 0.1159330201
475297150.0 -0.4838809463 0.6937233888 0.0001364088 0.0001006206 0.0002022497 -4.24583e-05 -0.0786801856 0.1165524232
480297120.0 -0.4769318799 0.699165051 0.000181809 6.72329e-05 0.0002982949 0.0001967512 -0.0778571381 0.117883147
485297090.0 -0.469396664 0.7041878221 0.0001137024 0.0001481795 0.000220313 -4.72521e-05 -0.0765776824 0.1188406256
490297060.0 -0.4628810073 0.708590008 0.0004055143 -3.09171e-05 0.0001480622 0.000173207 -0.075982016 0.1193898513
495297030.0 -0.4555737376 0.7133513315 0.0004198022 4.24778e-05 0.0002215091 -3.1587e-06 -0.0748930206 0.1205751307
500297000.0 -0.4480462153 0.717644944 0.0002268034 9.4877e-05 0.0001258546 -1.2493e-06 -0.0736519215 0.1216289108
505296970.0 -0.4406923773 0.7221514487 -6.72224e-05 0.0001078236 4.72331e-05 0.0001210136 -0.0727574447 0.1224388858
510296940.0 -0.4332460704 0.7266153721 0.0002212718 3.72115e-05 0.0001225773 0.0001295096 -0.0719020428 0.1230643844
515296910.0 -0.425017406 0.7302175742 9.24184e-05 -9.78057e-05 0.0001765538 7.2803e-05 -0.07045024 0.1236049133
520296880.0 -0.4181816861 0.734977094 0.0001272449 0.0002609052 0.0001216941 9.81302e-05 -0.0698453366 0.1242968199
525296850.0 -0.4104127061 0.7383657844 0.0001334795 0.0003338572 4.58085e-05 6.76529e-05 -0.0685817786 0.1256815363
530296820.0 -0.4031041801 0.7431417951 0.0002895703 0.0002420817 0.0002332728 -3.05218e-05 -0.0673958735 0.1262554397
535296790.0 -0.3952119004 0.7464392758 0.0003095489 -2.33481e-05 0.0001407191 0.0001938404 -0.0665992385 0.1271050352
540296760.0 -0.388250773 0.7501837375 0.0001771452 0.0001539105 0.0002233156 9.18286e-05 -0.0652645271 0.1279856319
545296730.0 -0.3808786589 0.7547816938 5.59084e-05 4.8609e-05 0.0001811774 7.75676e-05 -0.0641604147 0.128614696
550296700.0 -0.3732002713 0.7585303661 0.0003528989 -1.42688e-05 6.59592e-05 5.45809e-05 -0.0631207936 0.129452717
555296670.0 -0.3651244969 0.761480758 4.43094e-05 -8.30768e-05 0.0001088983 0.0001784324 -0.0618031728 0.13074288
560296640.0 -0.3577961917 0.7661257927 0.000140551 0.0002060584 0.0003142312 0.0002688634 -0.0605705101 0.1313188036
565296610.0 -0.3496660856 0.7695571436 0.0004214586 -3.2731e-05 0.0001067566 8.28962e-05 -0.0592199949 0.1316951225
570296580.0 -0.3429139839 0.7717609174 6.17926e-05 3.03364e-05 0.0001065015 7.06292e-05 -0.0582040818 0.1323543467
575296550.0 -0.3346655077 0.7760836695 0.0001147661 -8.01996e-05 0.0001497567 -7.83576e-05 -0.057115661 0.1336482031
580296520.0 -0.3267865853 0.7793637328 0.0001283942 0.0001037315 0.0003019894 0.0001223611 -0.0560847141 0.1340765651
585296490.0 -0.3190793683 0.782345321 0.0001680236 -0.0001195926 0.0002373882 -0.0001264413 -0.0544699569 0.1345976257
590296460.0 -0.3107816313 0.7852921555 0.0003067681 -2.81354e-05 0.0001756628 -4.27293e-05 -0.0535931988 0.1355984007
595296430.0 -0.3034565186 0.7881724115 0.0001929106 4.94325e-05 5.64436e-05 0.0002033364 -0.0522704443 0.1358078405
600296400.0 -0.2952713615 0.7917490396 0.0001468337 0.0001432943 0.0004372092 9.46414e-05 -0.0509877347 0.1366498155
605296370.0 -0.2880998226 0.7942335211 0.0003454661 -4.17922e-05 0.0002517929 2.47214e-05 -0.0493593055 0.1374285053
610296340.0 -0.2791768125 0.7973315847 0.0001040296 6.87876e-05 0.0004795157 2.3726e-05 -0.0483115774 0.1384316845
615296310.0 -0.2709582486 0.7998220676 0.00029324 -5.08419e-05 0.0002114353 -2.37321e-05 -0.047170432 0.1386926404
620296280.0 -0.2631159377 0.8019854911 0.0003773112 -9.43343e-05 9.56765e-05 -4.82021e-05 -0.0458227867 0.1393646811
625296250.0 -0.255189924 0.8052618183 0.0002220345 -9.01028e-05 -8.3851e-06 -0.0001035944 -0.0445229195 0.1401294919
630296220.0 -0.2460742665 0.8077270621 0.0003680782 -7.8721e-06 9.74007e-05 4.74808e-05 -0.0432992669 0.1410290434
635296190.0 -0.2387962732 0.8100672109 0.00025536 1.67725e-05 0.0001330692 4.02628e-05 -0.0417804848 0.1414612086
640296160.0 -0.231028452 0.8125581597 0.0002104124 -0.00024718 0.0004517289 0.0001304734 -0.040470066 0.1421593036
645296130.0 -0.2229419882 0.8150228683 0.000272341 0.0001903124 0.0002782807 0.0001140566 -0.0390790389 0.1428201479
650296100.0 -0.2146066634 0.8162889628 0.0002808671 0.000178085 0.000285526 8.34453e-05 -0.0376596188 0.1432504413
655296070.0 -0.2063254873 0.818710608 0.0002708158 -6.42041e-05 0.0001991309 -3.6286e-05 -0.0361785372 0.1437681683
660296040.0 -0.1981828333 0.8208593934 0.0002578117 -0.0001775245 0.0001316963 -7.26271e-05 -0.0350989979 0.1443536357
665296010.0 -0.1899433796 0.8222898584 0.0002814416 4.52244e-05 0.0002493707 5.30776e-05 -0.0340128034 0.1453776731
670295980.0 -0.1823774515 0.8243942838 0.0003910925 -1.48344e-05 0.000177251 -0.0002243497 -0.0329376401 0.1455162849
675295950.0 -0.1739077747 0.825664708 0.0002115392 0.0001155418 0.0001522674 8.99575e-05 -0.0315574909 0.1461094568
680295920.0 -0.1651586865 0.8275574878 0.0001825563 0.0002779119 0.000161182 6.40035e-05 -0.0299076684 0.1467082527
685295890.0 -0.1567332075 0.8303465545 0.0002189708 -7.72087e-05 0.0003316623 -4.68487e-05 -0.0283193631 0.1471124447
690295860.0 -0.1493792521 0.83116697 0.0003677091 -0.0001371535 0.0004757601 0.0001985664 -0.0271294348 0.1479394429
695295830.0 -0.141120979 0.8313647625 5.33176e-05 5.3711e-06 0.0002911575 3.46387e-05 -0.0257800792 0.1480252027
700295800.0 -0.132497821 0.8337385764 0.0002136021 -9.62361e-05 6.9773e-06 -0.0001462847 -0.0247042198 0.1486652615
705295770.0 -0.1244468455 0.83527837 0.0001997258 -6.04078e-05 0.0001650501 9.45192e-05 -0.0228788508 0.1494865653
710295740.0 -0.116048335 0.836366161 0.0002361213 4.29366e-05 0.0001956441 -0.0001533803 -0.0219328994 0.1492398652
715295710.0 -0.1075465599 0.8373112073 0.0002041402 6.5216e-06 0.0003525316 -4.9994e-05 -0.0203836382 0.1495786654
720295680.0 -0.1000893874 0.8386050444 0.0002151704 -1.40787e-05 -4.02579e-05 1.2861e-06 -0.0188892277 0.1502526289
725295650.0 -0.091177862 0.8395651053 0.0005055904 0.0001538608 0.0003351721 2.22877e-05 -0.0178827351 0.1508330586
730295620.0 -0.0826791877 0.8406258583 0.0004689927 0.0003175357 0.000488619 -0.0001060066 -0.0163032458 0.150980504
735295590.0 -0.0750184274 0.8414996653 4.41153e-05 -0.0001737381 0.0001646069 -7.1814e-06 -0.0152047578 0.1512192841
740295560.0 -0.0666519857 0.8421145443 6.1236e-05 -0.0001666518 0.0002445192 0.0001732072 -0.0134487454 0.152016216
745295530.0 -0.0576976116 0.8419313406 5.49214e-05 -9.13865e-05 0.0002079257 -0.0001066438 -0.0117588471 0.1516636575
750295500.0 -0.0494036153 0.8428575647 0.0002497897 -4.9319e-05 0.0002734622 -0.0002348195 -0.0107031866 0.1525064569
755295470.0 -0.041029944 0.8433300678 0.0001755936 -0.0001763298 9.68039e-05 1.44285e-05 -0.0089014469 0.1524649784
760295440.0 -0.0330152101 0.8429818625 0.0004048062 -0.0001867441 0.0003639678 5.84159e-05 -0.0077370667 0.1526747422
765295410.0 -0.0245564433 0.8437149895 0.0002479649 -0.0003245124 0.0003922808 -7.97367e-05 -0.0062225601 0.1533235777
770295380.0 -0.0160850138 0.8437519903 0.0003095848 3.15545e-05 2.79987e-05 -2.9992e-05 -0.0049742951 0.1532343534
775295350.0 -0.0079428167 0.8439629196 0.0002776674 -0.0001138445 6.62477e-05 -0.0001141678 -0.0037268148 0.1535598808
780295320.0 0.0003215531 0.8440528022 0.000309955 0.0001151945 0.0002159404 -0.0001470442 -0.0020934135 0.153729915
785295290.0 0.008392624 0.8438594929 0.0002392057 7.62824e-05 0.0004476941 4.06696e-05 -0.0001734114 0.1540541521
790295260.0 0.0176930733 0.8436775838 0.000382682 -0.0001608082 0.0004038576 -0.0002597211 0.0013735044 0.154530491
795295230.0 0.0251699228 0.8434518672 0.0001880014 -0.0001137903 0.000399672 -4.39299e-05 0.0028848858 0.1546006168
800295200.0 0.0335563435 0.8428638067 0.0001731345 -4.5002e-06 0.0001118015 -0.0001197812 0.0042755284 0.154976086
805295170.0 0.0427815974 0.8431467353 0.0001289488 -3.31974e-05 0.0003624413 -4.1701e-05 0.005706908 0.1552012002
810295140.0 0.0509758349 0.8421978296 0.0001833468 -6.30209e-05 0.0002781294 0.0001731982 0.0072944668 0.1552717479
815295110.0 0.058801122 0.8417632558 0.0003106944 -5.60089e-05 0.0001872986 -0.0003169626 0.008694204 0.1552188072
820295080.0 0.066913333 0.8415054403 0.0002275893 0.0001718389 0.0003727891 0.0001159463 0.0103302839 0.1555919145
825295050.0 0.0764743252 0.8405487397 0.0003156353 0.0001062036 0.000421013 -1.30813e-05 0.0119429977 0.155780069
830295020.0 0.0839895058 0.8400180091 0.0004073204 -0.0001280427 0.0002341342 -6.94971e-05 0.0136158982 0.1557040997
835294990.0 0.0916762001 0.8390020596 0.0001466579 -0.0001336933 0.0002530906 -9.62927e-05 0.0146191963 0.15597333
840294960.0 0.1003073131 0.8386299233 0.0001811237 -0.0003338138 0.000171123 6.06421e-05 0.0161938529 0.1560641457
845294930.0 0.1078425384 0.8371165167 0.0003809458 0.0001344004 0.0001152094 -0.000161087 0.0172810858 0.1556091308
850294900.0 0.1166186334 0.8364942002 0.0003015965 -0.0001389223 0.0001401347 -0.0001095105 0.0188065639 0.1559812872
