!Created with skrf (http://scikit-rf.org).
# Hz S RI R 50.0 
!freq ReS11 ImS11 ReS21 ImS21 ReS12 ImS12 ReS22 ImS22
300000.0 -0.048599414 -0.0470618206 -0.0006318957 0.0001787951 0.000705954 0.0015014053 -0.7778536634 -0.1419359359
5299970.0 -0.0487482182 0.0155985963 0.0001207116 -7.39921e-05 0.0001091575 -2.85836e-05 -0.7849032344 -0.0073058664
10299940.0 -0.0431430187 0.0317664698 -4.33588e-05 9.04048e-05 0.000184086 -0.0001702536 -0.7878706662 -0.0039673948
15299910.0 -0.0351223001 0.0460283769 0.0001934646 0.000151768 -0.0001003833 -9.49916e-05 -0.7935139304 -0.0016460632
20299880.0 -0.025217967 0.0574603818 -9.20152e-05 -9.10626e-05 -0.0002230935 0.0001143991 -0.8000207666 0.0022120215
25299850.0 -0.0144135097 0.0665605928 -8.72703e-05 -0.0002469077 3.00397e-05 -2.5521e-05 -0.8060695077 0.0082807624
30299820.0 -0.0034260392 0.0731355887 0.0001990876 -0.0001614112 5.34838e-05 0.0001586686 -0.8120117764 0.0162964909
35299790.0 0.0076632622 0.077619445 -1.88948e-05 0.0002541322 7.50185e-05 8.41531e-05 -0.8170841747 0.0254375833
40299760.0 0.0190783215 0.0804969975 8.00179e-05 -0.0001353668 3.52276e-05 0.0001090888 -0.8213899276 0.0342577074
45299730.0 0.0295663402 0.0815379858 0.0001656461 0.0001290063 -7.7853e-06 -3.8905e-06 -0.8247121524 0.0435461186
50299700.0 0.0393141652 0.0818178783 2.63033e-05 -0.0001507418 0.0001797543 0.0001116994 -0.8275725506 0.0540926118
55299670.0 0.0482584185 0.0804539675 0.0002877537 0.0001622966 7.93024e-05 -7.54755e-05 -0.8294802754 0.064453405
60299640.0 0.0569164648 0.0788784307 -0.0001166722 0.0001841501 0.0001327215 1.5625e-05 -0.8303385749 0.0742424677
65299610.0 0.0643711034 0.0761576954 0.0002045247 -3.92284e-05 0.0002407238 -0.0001440781 -0.832173697 0.0842599809
70299580.0 0.0710086478 0.0736967936 9.49611e-05 -2.18913e-05 -5.77348e-05 -6.84146e-05 -0.8316484614 0.0944691524
75299550.0 0.0773157365 0.0702725737 -6.39741e-05 5.44805e-05 8.82247e-05 8.2213e-06 -0.8322421199 0.1039672488
80299520.0 0.0828656447 0.0667486212 0.0001046014 -1.29094e-05 0.0001258942 9.2879e-05 -0.8318522554 0.1142289125
85299490.0 0.0876803459 0.0627170145 -0.0001370074 -3.43388e-05 1.4052e-05 -0.000159734 -0.8317135471 0.1237464295
90299460.0 0.0923414485 0.0590489968 -2.46505e-05 -5.27338e-05 -4.56713e-05 -0.000152741 -0.8308293604 0.1334227348
95299430.0 0.0963628511 0.0547906835 0.0001055873 3.50295e-05 -9.33377e-05 -0.0001724923 -0.8290003158 0.1428954301
100299400.0 0.0996558358 0.0512058388 0.0001620078 5.85013e-05 -0.0001222426 -0.0001544027 -0.8288331277 0.1524335451
105299370.0 0.1033686715 0.0473132766 -4.02169e-05 -4.73975e-05 0.0002360646 -2.49826e-05 -0.8267131757 0.1611704821
110299340.0 0.1059619367 0.0433801037 5.02095e-05 6.41868e-05 -0.0002541487 -6.0406e-06 -0.8254882 0.1708456173
115299310.0 0.1082976336 0.0391544364 0.0001264204 -1.50368e-05 -8.61698e-05 -0.000104602 -0.8238654853 0.1799233998
120299280.0 0.1104632718 0.0353898452 0.0001787915 -1.33737e-05 0.0001579076 0.0001396027 -0.8226314192 0.1886245586
125299250.0 0.1120524001 0.0315142165 -0.000181314 0.0002308808 9.80715e-05 8.89152e-05 -0.8209330739 0.1978176299
130299220.0 0.1136746318 0.0279478813 -7.1272e-05 4.85308e-05 -4.7362e-05 0.0001299061 -0.8189731034 0.2067101336
135299190.0 0.1154065314 0.0242547151 9.80001e-05 3.35503e-05 3.65093e-05 0.0001667995 -0.816633123 0.2161820262
140299160.0 0.116095678 0.0206521022 1.165e-07 0.0001579159 0.0002707122 0.0001968154 -0.8144124933 0.2250215218
145299130.0 0.1174642729 0.0171906077 2.82426e-05 6.66941e-05 8.2006e-06 0.0002081443 -0.8121599151 0.2338594226
150299100.0 0.1184036163 0.0136201175 -7.81261e-05 3.63491e-05 5.9014e-06 0.0001159819 -0.8103663894 0.2430797279
155299070.0 0.1187514328 0.0104819057 -9.29333e-05 4.27206e-05 7.90105e-05 -1.716e-07 -0.807256567 0.251418741
160299040.0 0.1193867919 0.007143954 -0.0001721413 -0.0001961758 6.64151e-05 -3.64895e-05 -0.8052288153 0.2602582524
165299010.0 0.1198394068 0.0037306804 -2.45191e-05 2.69317e-05 3.53034e-05 6.45427e-05 -0.8025827506 0.2692236841
170298980.0 0.1199828158 0.001137985 -0.0001442836 -0.0001416404 2.29654e-05 0.0001590162 -0.7993550592 0.2774836825
175298950.0 0.1203338499 -0.0021715027 7.1624e-06 6.59349e-05 0.000247893 9.18314e-05 -0.7970965836 0.2867643626
180298920.0 0.1206894682 -0.0049685425 3.83334e-05 4.63551e-05 -1.15972e-05 6.80889e-05 -0.7937883871 0.2948573564
185298890.0 0.1206147515 -0.0080816211 -0.0003150231 0.0002334311 -0.0001288245 1.18254e-05 -0.7902445236 0.3039355996
190298860.0 0.1207697387 -0.0108736671 0.0001932743 0.0001482635 -8.68896e-05 -0.0001872094 -0.7882197921 0.3119743255
195298830.0 0.120179973 -0.0136823763 7.11084e-05 -2.21875e-05 -7.73215e-05 0.000129826 -0.7842768867 0.3207179033
200298800.0 0.1200836437 -0.0163139651 7.11133e-05 -7.182e-07 7.52177e-05 0.0002448727 -0.7820102681 0.3286716156
205298770.0 0.1198064067 -0.0191894406 0.000107095 2.76667e-05 0.0001972986 -2.71415e-05 -0.7774097715 0.3377750707
210298740.0 0.1194438427 -0.0215746327 0.0002719293 0.0001915134 9.42279e-05 -1.94274e-05 -0.7741548848 0.3457002725
215298710.0 0.1186501048 -0.0242202478 -2.94371e-05 0.0001459343 2.62674e-05 -6.13192e-05 -0.7710774191 0.3536061606
220298680.0 0.1183111016 -0.0268930958 9.27962e-05 0.0001206961 -7.79218e-05 -4.90071e-05 -0.7674049879 0.3618678024
225298650.0 0.1176075878 -0.0291860168 0.0001414073 -9.52645e-05 -1.80571e-05 0.0002533338 -0.7640004351 0.3701128627
230298620.0 0.1167318667 -0.0315805086 -0.0001255865 -0.0001666636 4.00656e-05 0.0001352693 -0.7598073275 0.3783016098
235298590.0 0.1166097729 -0.0339240142 1.18586e-05 4.59896e-05 -0.0001160827 0.0001149318 -0.7554273181 0.3864172652
240298560.0 0.115613999 -0.0362197505 -0.0002003917 6.60164e-05 4.00949e-05 -2.3325e-06 -0.7514395536 0.3948551038
245298530.0 0.1149755861 -0.0385148714 0.0001303607 8.3215e-05 0.0001574661 3.87945e-05 -0.747437756 0.4017769187
250298500.0 0.114064262 -0.0405492942 9.41932e-05 6.50471e-05 7.2791e-05 9.43755e-05 -0.7436821528 0.4099812737
255298470.0 0.1132062671 -0.0428993288 -0.000102264 3.14605e-05 0.0001255918 -7.71638e-05 -0.7383187196 0.417630256
260298440.0 0.1124478572 -0.0449773135 1.7701e-05 0.0002646843 5.30488e-05 2.43971e-05 -0.7349029217 0.4263156795
265298410.0 0.111603719 -0.0468650274 -4.3535e-06 9.61914e-05 0.0002161708 0.0002068125 -0.7302021056 0.4333114485
270298380.0 0.11073174 -0.0488593382 0.0004031402 -9.59725e-05 0.0001652781 0.0002950637 -0.7255172339 0.4410646587
275298350.0 0.109792088 -0.0508217038 9.029e-07 -1.56939e-05 3.9808e-05 2.64301e-05 -0.7209125419 0.4484192191
280298320.0 0.1091597027 -0.0528518429 2.76332e-05 6.52095e-05 -3.8727e-06 3.71249e-05 -0.7158176661 0.455777481
285298290.0 0.1081678676 -0.054732374 0.0001249458 6.95869e-05 0.0001546033 0.0001112736 -0.7111702154 0.4638386402
290298260.0 0.1072778493 -0.0568600313 -0.0002139047 0.0001418008 -3.81753e-05 6.96583e-05 -0.7057926174 0.4708922688
295298230.0 0.106202362 -0.0587197314 7.09674e-05 -1.95695e-05 0.0001163728 -4.6753e-06 -0.7010795809 0.4776644303
300298200.0 0.1051982608 -0.0601927123 0.0002238604 6.6922e-06 -3.27655e-05 -9.9854e-06 -0.696234583 0.4850886027
305298170.0 0.1040955307 -0.0620118918 -4.52872e-05 -0.0001600817 4.26556e-05 4.21262e-05 -0.6901507842 0.492728733
310298140.0 0.1029306581 -0.0641317749 0.0001890577 8.94724e-05 -0.0001095744 0.0001061109 -0.6855732141 0.4995568301
315298110.0 0.1020477551 -0.0659110089 5.6707e-05 5.40466e-05 8.75809e-05 0.0001867595 -0.6801829281 0.506557692
320298080.0 0.100804356 -0.0678259759 -0.0003018299 0.0002566354 4.2212e-06 5.69617e-05 -0.6748152371 0.5144222024
325298050.0 0.0997827737 -0.0697356554 0.0002784544 0.0002402354 -8.53788e-05 -7.48132e-05 -0.6692557305 0.5213418201
330298020.0 0.0982773332 -0.0716781691 0.0001839057 2.69958e-05 -1.15692e-05 9.90855e-05 -0.6636278367 0.5282966806
335297990.0 0.0965694442 -0.0730010562 9.81013e-05 0.0001290931 -0.0002244094 0.0002451229 -0.6589542376 0.5357003124
340297960.0 0.0949210644 -0.0745741878 0.000122277 -4.23245e-05 -8.91033e-05 1.0784e-06 -0.6527876844 0.5427687042
345297930.0 0.093610026 -0.0756758443 0.0001479007 8.41196e-05 0.0004021745 7.22425e-05 -0.6468401578 0.5484671832
350297900.0 0.0924734459 -0.0769864964 7.8595e-05 -0.0002554921 -5.25252e-05 -0.0001019401 -0.6415423661 0.5548935678
355297870.0 0.091037823 -0.0786457766 7.1586e-05 1.1954e-06 0.0001788683 -0.0001835282 -0.6353800044 0.561882286
360297840.0 0.0897186901 -0.0797923988 0.0001305932 0.0001197749 0.0001228828 -6.83551e-05 -0.6298252185 0.5686728509
365297810.0 0.0881200735 -0.0808164066 5.59869e-05 2.69961e-05 8.28571e-05 -0.0001395354 -0.6234689216 0.5750603236
370297780.0 0.0868118168 -0.0824181056 0.0001363225 3.66091e-05 -7.80137e-05 0.0001367038 -0.6175506716 0.5816058915
375297750.0 0.0853795687 -0.0833801891 0.0003370653 2.69262e-05 6.60499e-05 5.10369e-05 -0.6122005641 0.5873084336
380297720.0 0.0838874588 -0.0849024544 4.03862e-05 -0.0001676367 0.0002691164 -0.000216719 -0.6055104871 0.5942175906
385297690.0 0.0823327205 -0.0859328619 -0.0001254883 -2.04893e-05 0.0001411114 7.59333e-05 -0.599002657 0.6003521533
390297660.0 0.0810565686 -0.0869827243 6.45677e-05 0.0002166286 0.0001314635 -6.30213e-05 -0.5930879861 0.6066043626
395297630.0 0.0797304195 -0.0883721565 0.0001667998 6.89059e-05 0.0001485459 8.41934e-05 -0.5863820935 0.6124763341
400297600.0 0.0783061867 -0.089132231 0.0003312858 0.0001570601 6.98054e-05 0.0001834506 -0.5812601237 0.6184877187
405297570.0 0.0765479046 -0.0904089341 8.4141e-06 0.0001088664 0.000146573 7.61453e-05 -0.5739028776 0.6245574804
410297540.0 0.0751768723 -0.0916768507 0.0002157287 0.0001373649 6.76208e-05 -5.48125e-05 -0.567743263 0.6308410645
415297510.0 0.0737480932 -0.0928698951 9.01552e-05 0.0001303968 0.000123098 4.06696e-05 -0.5614191373 0.6361722777
420297480.0 0.0721198604 -0.0933505574 -6.34499e-05 -8.13896e-05 0.0001047599 0.0001665042 -0.5545404805 0.6422645366
425297450.0 0.0708619466 -0.0942766501 0.0002085345 0.000264619 6.63323e-05 -7.31057e-05 -0.548021202 0.6474223893
430297420.0 0.0693055813 -0.0957909881 3.61839e-05 -8.15062e-05 0.000216839 0.0001753911 -0.5413434586 0.6522813263
435297390.0 0.0677539787 -0.0964440731 8.40954e-05 9.69461e-05 1.91011e-05 2.88916e-05 -0.5342358057 0.6586298428
440297360.0 0.066072299 -0.0973935047 9.42135e-05 0.0002359093 6.13074e-05 -4.94785e-05 -0.5274838106 0.6636863615
445297330.0 0.0646125669 -0.0984076291 5.3762e-05 7.03688e-05 -3.67334e-05 -3.51729e-05 -0.5208266136 0.6680020566
450297300.0 0.0630305988 -0.0991512473 -6.83664e-05 0.0001279043 0.0002106424 -6.3429e-05 -0.5133686256 0.6741651087
455297270.0 0.0614602109 -0.1000940081 1.19778e-05 0.0001394354 0.0002607882 0.0002497509 -0.5066986079 0.6783209339
460297240.0 0.0599478759 -0.1010092942 0.0001617792 -9.319e-06 0.0001254904 0.0001962546 -0.4998336007 0.6841174148
465297210.0 0.0585160798 -0.1017666036 -4.41253e-05 0.0001564562 0.0001238114 0.0001799955 -0.4919399247 0.6887682139
470297180.0 0.0566930497 -0.1023193459 0.000257371 0.0001452522 0.0001557764 4.55754e-05 -0.4850333622 0.6941203321
475297150.0 0.0555289156 -0.1033579742 -0.000101104 -4.60738e-05 2.79124e-05 -0.0001787682 -0.477622783 0.6985713131
480297120.0 0.0536635926 -0.1036635942 -0.0001230883 -4.55162e-05 -6.32803e-05 7.62281e-05 -0.4703924472 0.7037632734
485297090.0 0.0519888483 -0.1044537765 0.0002398421 -4.44385e-05 0.0002017666 0.0001779956 -0.4632132081 0.7080408439
490297060.0 0.0501816625 -0.1048415129 4.03424e-05 8.95175e-05 4.37372e-05 -0.000122318 -0.4558835253 0.7123588255
495297030.0 0.0487531357 -0.1056675243 7.98667e-05 8.42468e-05 0.0001998679 -9.07643e-05 -0.4485477438 0.7171921149
500297000.0 0.0473433358 -0.1064441476 0.0002183022 -4.38184e-05 0.0002251915 2.68757e-05 -0.4409695329 0.7226613793
505296970.0 0.0458411897 -0.1069037057 2.27162e-05 3.9683e-06 0.000173311 1.78583e-05 -0.4338043046 0.726875353
510296940.0 0.0441273088 -0.1076228868 5.86987e-05 -4.84284e-05 0.0001628417 -0.0002356922 -0.4263615915 0.7308487537
515296910.0 0.0427649095 -0.10811553 3.59619e-05 -3.0831e-05 0.000132467 -5.5608e-06 -0.4190219674 0.7346646073
520296880.0 0.0407362574 -0.1084680009 3.10081e-05 0.0002148881 0.0001437785 1.3232e-05 -0.4111721955 0.7392487473
525296850.0 0.0391052629 -0.1096202833 9.52628e-05 0.0002302964 0.0001997639 0.0001365728 -0.4043581358 0.7437316482
530296820.0 0.0375835957 -0.1096856152 9.34321e-05 0.0001750951 0.0001150093 9.4267e-05 -0.3961643659 0.7473960325
535296790.0 0.0360588953 -0.109860826 0.0001286128 5.87465e-05 0.0004574724 0.0001090898 -0.3890124596 0.7511832646
540296760.0 0.0340979432 -0.1104095872 2.25382e-05 -0.0001601657 0.0001090078 -9.5091e-05 -0.3813801389 0.7552987933
545296730.0 0.0324098532 -0.1108903786 0.0001301845 -3.69195e-05 -4.261e-05 -0.0001258616 -0.3736802685 0.7597265793
550296700.0 0.0314562087 -0.1112117833 -3.98846e-05 0.0001111991 0.0002955792 9.32702e-05 -0.3657016344 0.7627351499
555296670.0 0.0291608814 -0.1115215348 -7.97103e-05 3.99768e-05 4.39668e-05 8.2772e-06 -0.3582869591 0.7669336033
560296640.0 0.028001213 -0.1117202797 0.0004712805 -8.76326e-05 0.0002235693 0.0001551926 -0.350142194 0.7708869546
565296610.0 0.0260504214 -0.1118968557 0.0001976331 -0.000119064 0.0001783745 -0.0001157193 -0.3421022163 0.7738865143
570296580.0 0.0241395478 -0.1125635839 0.0001937002 0.0001790435 8.71203e-05 7.72649e-05 -0.3353100595 0.7775796353
575296550.0 0.0223884266 -0.1125228537 0.0001876551 2.03498e-05 9.80912e-05 0.0001174607 -0.3274397259 0.7804800652
580296520.0 0.0210275282 -0.1128827166 -4.77306e-05 -4.41172e-05 1.30594e-05 0.0001317019 -0.3184953883 0.7837229805
585296490.0 0.0188651645 -0.1133000525 7.26009e-05 3.3142e-05 0.0001286732 7.95274e-05 -0.310959704 0.7872056421
590296460.0 0.017697325 -0.1130692747 0.000154484 0.0001708088 2.69061e-05 0.0001585254 -0.3033155394 0.7897859205
595296430.0 0.0158325041 -0.1134601711 9.66396e-05 4.0031e-05 0.0001455886 9.9327e-06 -0.2948874313 0.7926241734
600296400.0 0.0138853034 -0.1134574214 0.0002000451 -6.95593e-05 0.0001222864 -2.05282e-05 -0.2871409126 0.7952617588
605296370.0 0.0120709589 -0.1135957196 0.0001586679 -0.0001458472 0.0001057928 0.0001487708 -0.2783643268 0.7983189861
610296340.0 0.0106777778 -0.113677466 0.0002680161 -0.000225358 0.0002906905 9.63325e-05 -0.2706206655 0.8009924118
615296310.0 0.0093873829 -0.113753985 0.0004311859 3.44146e-05 0.0001034207 0.0001877185 -0.2619587995 0.8034437351
620296280.0 0.0073469338 -0.1137514229 0.0001937428 8.21838e-05 0.0001926978 -5.605e-05 -0.2545274314 0.8060444503
625296250.0 0.005496289 -0.1142476845 0.0001423312 -0.0002131252 -9.0385e-05 -4.8388e-06 -0.2459214176 0.8079955269
630296220.0 0.0041202442 -0.1140979862 1.49272e-05 -8.00208e-05 0.0001081479 -0.0001425679 -0.2377140804 0.811042973
635296190.0 0.0020827145 -0.1139668128 -2.75049e-05 1.613e-06 0.000179434 -0.0001647486 -0.2300384812 0.8127657059
640296160.0 0.0007528601 -0.1139312784 0.000262387 6.85407e-05 -0.0001178881 -8.3678e-06 -0.2214876875 0.8152534615
645296130.0 -0.0007459373 -0.1134579117 0.000159965 0.0001164049 9.92764e-05 4.50713e-05 -0.2134221651 0.8177308215
650296100.0 -0.0026700287 -0.1135252695 0.000200654 9.42349e-05 0.000168123 -0.0001484651 -0.2051091454 0.819091336
655296070.0 -0.0042733599 -0.1135541986 0.0001192056 2.2087e-05 5.62895e-05 -4.45443e-05 -0.1966003125 0.8210123731
660296040.0 -0.0061425111 -0.1133819117 -0.0001754041 4.6643e-06 0.0001832066 -0.0001685859 -0.1877635342 0.8230602036
665296010.0 -0.0074575653 -0.1132203111 -1.51724e-05 6.41405e-05 0.0001054268 8.03743e-05 -0.1789997447 0.8258098346
670295980.0 -0.0096829708 -0.1128355368 0.0001189876 -0.0001886767 0.0003719037 0.0001349749 -0.1721732513 0.8268753041
675295950.0 -0.0110498073 -0.11258763 6.03297e-05 -0.0001186214 0.0002975209 9.98487e-05 -0.1635813848 0.8288802597
680295920.0 -0.0127380709 -0.1122549643 0.0002970004 -5.83554e-05 8.67389e-05 9.01469e-05 -0.1548070458 0.8309923826
685295890.0 -0.0142456654 -0.1120144515 0.0001322958 5.01442e-05 4.7299e-05 2.1544e-05 -0.14650249 0.8313213715
690295860.0 -0.015778792 -0.1116455365 7.147e-07 -6.9632e-06 0.0001380805 7.70978e-05 -0.1386503924 0.8335373994
695295830.0 -0.0175189812 -0.111364242 0.0001336721 -2.26456e-05 0.0002311371 -2.61781e-05 -0.1298814295 0.8349000832
700295800.0 -0.0190800577 -0.1114760259 0.0001464496 2.19065e-05 4.40799e-05 6.31294e-05 -0.1223599598 0.8363087928
705295770.0 -0.0207986848 -0.1106550898 4.77916e-05 -6.58234e-05 0.0004126581 -0.0001233852 -0.1138067515 0.8379266295
710295740.0 -0.0226490641 -0.1102202676 5.77539e-05 -0.0001891158 0.0001956429 9.08276e-05 -0.1053429415 0.8384846502
715295710.0 -0.0243433222 -0.1100288631 8.35949e-05 1.27507e-05 0.0001924343 9.37214e-05 -0.0961726818 0.8392240145
720295680.0 -0.0253920811 -0.1095193777 0.0001456916 6.67117e-05 -3.47308e-05 -5.63284e-05 -0.0883476537 0.8409419487
725295650.0 -0.0273617622 -0.1089844395 7.04453e-05 7.57943e-05 0.000191342 -8.47325e-05 -0.0803037647 0.8416607558
730295620.0 -0.0288881913 -0.1082042983 -6.75624e-05 -2.696e-05 -3.64489e-05 4.25077e-05 -0.0723894948 0.8421653408
735295590.0 -0.030561383 -0.1078809169 0.0001969128 0.0001288787 -5.33327e-05 -4.93685e-05 -0.0637296486 0.8425895042
740295560.0 -0.0322354174 -0.1074829831 0.0001247962 2.93297e-05 8.70892e-05 -0.0001544074 -0.0543999047 0.8439988615
745295530.0 -0.033941865 -0.1068298712 0.0002436819 2.87595e-05 0.0001039474 0.0002162159 -0.0462072207 0.8440924272
750295500.0 -0.0355094639 -0.1063553639 0.0001736996 -2.03029e-05 3.70614e-05 -3.09569e-05 -0.0379703875 0.8442388973
755295470.0 -0.0368004765 -0.1058369451 0.0001644466 -0.0002223907 0.0001823847 4.47e-07 -0.0294570823 0.8437387332
760295440.0 -0.0386602555 -0.1050389943 0.0001108827 0.0001231059 0.0001652145 -4.07032e-05 -0.0209718756 0.8442115379
765295410.0 -0.0399702786 -0.1044894277 -9.36467e-05 0.0002471379 4.6414e-06 -9.35001e-05 -0.0127644374 0.8447662406
770295380.0 -0.0418957713 -0.1040467427 0.0001609082 -2.43175e-05 0.0001164068 -0.0001212635 -0.0040659935 0.8444753695
775295350.0 -0.0434717454 -0.1033441202 9.8173e-06 -0.0003042184 0.0001619586 -0.0002075267 0.003610209 0.8441875741
780295320.0 -0.0446856709 -0.1024928719 0.0003613053 -0.0001136285 3.02046e-05 8.2357e-06 0.0120226031 0.8439548595
785295290.0 -0.0469854882 -0.1021056406 0.0002612236 -5.93499e-05 0.0001540867 -0.0001876502 0.021472865 0.8438792811
790295260.0 -0.0475488389 -0.1011526458 0.000524094 6.94186e-05 8.3007e-05 -2.47808e-05 0.0296433909 0.8437389875
795295230.0 -0.0492778568 -0.1001073627 0.0001428389 -0.000183506 0.0002949197 4.0809e-06 0.0381058437 0.8428959117
800295200.0 -0.0507981879 -0.0995707227 0.0004164833 1.96787e-05 4.587e-07 -0.000179684 0.0467138015 0.8429062351
805295170.0 -0.0524888402 -0.0989552346 8.79167e-05 -9.34015e-05 7.24734e-05 7.31598e-05 0.0547327142 0.842656403
810295140.0 -0.05362828 -0.0982412991 0.0002589976 -0.0001743643 0.0001824189 -0.0001539207 0.0630384158 0.8417156135
815295110.0 -0.0553845036 -0.0974180471 0.0001482513 1.30495e-05 3.141e-06 8.4005e-06 0.0711367925 0.8410882568
820295080.0 -0.0567089426 -0.0960432697 0.0001765954 5.73448e-05 7.0792e-06 0.0001463721 0.0796224253 0.8403639714
825295050.0 -0.0579555368 -0.0956237017 0.0002737177 0.0003022697 0.0001345345 -0.000219168 0.0881205526 0.8399466181
830295020.0 -0.0595372771 -0.0943998253 0.0001412991 5.7503e-05 0.0002535297 0.0001564044 0.0979862795 0.8391454471
835294990.0 -0.0609024916 -0.0937567422 0.000155009 0.0002685716 0.0002426942 -0.0002006623 0.1045689434 0.8379964944
840294960.0 -0.0623751569 -0.0927644629 -0.0001056268 5.48949e-05 0.0003116377 -3.243e-07 0.1137202273 0.8365419661
845294930.0 -0.0636576516 -0.0917502411 0.0001184598 -0.0001350071 0.0001540664 0.0002045712 0.1212919521 0.8350521441
850294900.0 -0.0649053507 -0.0906808839 0.0001946229 0.0001359976 0.0001381431 -9.46581e-05 0.1297836482 0.8344465479
