!Created with skrf (http://scikit-rf.org).
# Hz S RI R 50.0 
!freq ReS11 ImS11 ReS21 ImS21 ReS12 ImS12 ReS22 ImS22
300000.0 -0.2368971079 -0.1208736302 0.465919988 0.0804460664 0.4659157093 0.0792751708 -0.234055798 -0.1248284372
5299970.0 -0.2449070408 0.0054766808 0.4735522654 0.0060412437 0.4739100428 0.0060448556 -0.2438902239 0.0052405878
10299940.0 -0.2418694573 0.0185635777 0.4761889868 0.0068638187 0.4758131834 0.0071066914 -0.2402359759 0.0179049791
15299910.0 -0.2369299417 0.0283381184 0.4793012155 0.0083033434 0.4799295555 0.008533546 -0.2360489412 0.0273580271
20299880.0 -0.2316649521 0.0363899122 0.4841414317 0.0083338469 0.4843400645 0.008860698 -0.231330435 0.0353564916
25299850.0 -0.225819235 0.0428950774 0.4899126566 0.0081461008 0.4897908099 0.0075656255 -0.2260952945 0.0417376358
30299820.0 -0.2203385119 0.0475875513 0.4950788834 0.0057795646 0.4951225497 0.0056103435 -0.2206464055 0.0467637799
35299790.0 -0.2144986211 0.0515435234 0.5003988846 0.002516916 0.5004411394 0.0024418754 -0.2154964415 0.0516789749
40299760.0 -0.2093320344 0.0546452238 0.5057720678 -0.001582469 0.5057113278 -0.0014250268 -0.2109132189 0.0547117434
45299730.0 -0.2042798022 0.057078969 0.5103113431 -0.0060774061 0.5107067116 -0.0065541532 -0.2057784299 0.0578865362
50299700.0 -0.1990596155 0.0589729353 0.5145843199 -0.0117838596 0.5146821708 -0.0120806295 -0.2012370539 0.0601477224
55299670.0 -0.1950132881 0.0605502898 0.5182559202 -0.0174129649 0.518125686 -0.0177840409 -0.197679084 0.0617144097
60299640.0 -0.1908790336 0.0618960873 0.5220557709 -0.0241164068 0.5220198056 -0.0239434939 -0.1932831407 0.0632511606
65299610.0 -0.1872300645 0.0625731264 0.524812105 -0.0302770563 0.5248890923 -0.0304343178 -0.1898157927 0.0647172167
70299580.0 -0.1839167967 0.0631119942 0.5270746027 -0.0368677478 0.5272945264 -0.0369987515 -0.1871503489 0.0659020134
75299550.0 -0.1810805907 0.06362892 0.5286306178 -0.044064362 0.5293172781 -0.0439137104 -0.1841855468 0.067170299
80299520.0 -0.1783993319 0.0645051854 0.5305820232 -0.0505004305 0.5313831475 -0.0508455256 -0.1815267546 0.0679915411
85299490.0 -0.1758263875 0.0648699831 0.5323539816 -0.0576429103 0.5328599594 -0.0574911609 -0.1793823721 0.068537903
90299460.0 -0.1737160765 0.0653033594 0.5331206643 -0.0642733632 0.5331397134 -0.0643709906 -0.1767807939 0.0697748683
95299430.0 -0.1714649432 0.0656001104 0.534003435 -0.0712145216 0.5346026189 -0.0718426574 -0.1750642098 0.0707632918
100299400.0 -0.1695233702 0.0662520557 0.5345920479 -0.0781894486 0.5346142678 -0.0784718228 -0.1731577072 0.0717534386
105299370.0 -0.1676860807 0.066445952 0.5345407694 -0.0851226491 0.5351482646 -0.0851163729 -0.1709753425 0.0722562936
110299340.0 -0.1657813716 0.0669343472 0.5351354392 -0.0915494548 0.5356245928 -0.0917480099 -0.1699345634 0.0732315906
115299310.0 -0.164702996 0.0677982797 0.5354229014 -0.0986894084 0.5353689456 -0.0986761437 -0.1682617318 0.0742738941
120299280.0 -0.1633477165 0.0680486326 0.5355518719 -0.1061816148 0.5348416941 -0.1062266771 -0.1667014968 0.0747849881
125299250.0 -0.1619116657 0.0685344863 0.5345992384 -0.1124382295 0.5346348001 -0.1124183102 -0.1653631894 0.0760795426
130299220.0 -0.16089136 0.068917925 0.5343348523 -0.1192465629 0.5342488048 -0.1199617094 -0.1641026381 0.0769107935
135299190.0 -0.1595543523 0.0702682421 0.5335649786 -0.1259453798 0.533784652 -0.1260416099 -0.1629514042 0.0779020714
140299160.0 -0.1584272475 0.0708629384 0.5329457705 -0.1328592319 0.5326259183 -0.1323330315 -0.1623634647 0.0788316271
145299130.0 -0.1579948823 0.0717623709 0.5316388677 -0.1389786828 0.5319266148 -0.1392706692 -0.1607094466 0.0800385146
150299100.0 -0.1562841591 0.0724196227 0.5305480059 -0.1457562311 0.5308351181 -0.1457299781 -0.1597924785 0.0815041265
155299070.0 -0.1552763977 0.0733948923 0.5283138021 -0.1517016099 0.5295823442 -0.1523536003 -0.1586056388 0.0823314419
160299040.0 -0.1549416401 0.0743458255 0.5282409759 -0.1583421719 0.5278573299 -0.1587978487 -0.1579131525 0.0837497155
165299010.0 -0.1537443258 0.0750902008 0.526675336 -0.1647717195 0.5262708978 -0.1650263363 -0.156615556 0.0843263644
170298980.0 -0.1529623775 0.0763045697 0.5245038265 -0.1715706995 0.5250077689 -0.1715708985 -0.1559866077 0.0858154119
175298950.0 -0.1519799812 0.0773553055 0.5232430512 -0.177687733 0.5236584046 -0.1781014213 -0.1548897639 0.0873374905
180298920.0 -0.1515807815 0.0785422904 0.5216618713 -0.1843465023 0.5221679823 -0.1842823699 -0.1542280984 0.0883880976
185298890.0 -0.1507750349 0.0795035231 0.5201635681 -0.1900931823 0.5199083478 -0.190210797 -0.1529400412 0.0897026061
190298860.0 -0.1497073549 0.0806562323 0.517537191 -0.1962577112 0.5179092115 -0.1964331336 -0.1520160271 0.0909406249
195298830.0 -0.1491611274 0.0818949555 0.5164061583 -0.2025788003 0.5165892799 -0.2029045757 -0.1512494501 0.09237997
200298800.0 -0.1480943466 0.0828777449 0.5143034928 -0.2089694778 0.5139700683 -0.2089308407 -0.1502544839 0.0935191198
205298770.0 -0.1480117724 0.0839318635 0.511400606 -0.2142278837 0.5117300861 -0.2143434694 -0.1490536056 0.0949895731
210298740.0 -0.1467349627 0.0855372965 0.5096057713 -0.220736909 0.5094069667 -0.2206928167 -0.1488768953 0.0961117381
215298710.0 -0.1460195498 0.086799513 0.5068296852 -0.2263593276 0.5070244979 -0.226962908 -0.1473339751 0.0979463285
220298680.0 -0.1451667426 0.0877879749 0.5046943272 -0.2323060591 0.5044159172 -0.2326489324 -0.1463433296 0.0989680602
225298650.0 -0.1447329136 0.089051992 0.5020679025 -0.2383413195 0.5022822364 -0.2382687078 -0.145463727 0.1003258888
230298620.0 -0.1437615094 0.0905708601 0.4996322724 -0.2442928569 0.5000416664 -0.2445447235 -0.1446084737 0.1018305357
235298590.0 -0.1431836821 0.0918509034 0.4972643343 -0.2504258868 0.4974394952 -0.2500456943 -0.1434368395 0.1030940282
240298560.0 -0.1423079183 0.0930980421 0.4943712618 -0.2555983627 0.4944509017 -0.2558217356 -0.1424615027 0.1046055148
245298530.0 -0.1415004473 0.094339178 0.4917525566 -0.2618312398 0.4915715249 -0.2615319723 -0.1417670158 0.1061619329
250298500.0 -0.140861025 0.0955482542 0.4891874536 -0.2667827463 0.4888551891 -0.2668087616 -0.140612029 0.1077569981
255298470.0 -0.1398375017 0.0971952097 0.4862144792 -0.2723342461 0.486662379 -0.2729044713 -0.1395942406 0.1095327574
260298440.0 -0.1389034751 0.0982333587 0.4832291736 -0.2774324098 0.4831417967 -0.2779080917 -0.1384856146 0.1103960805
265298410.0 -0.138434337 0.0994798185 0.479914193 -0.2838422356 0.4801795919 -0.2838764784 -0.1371815461 0.1118514468
270298380.0 -0.1376423495 0.1006966167 0.4767855739 -0.2886331807 0.4769944542 -0.2894880605 -0.1359959968 0.1133982821
275298350.0 -0.1367321601 0.1026650685 0.4734693912 -0.2945874101 0.4738182869 -0.2944148947 -0.134883507 0.1149944933
280298320.0 -0.1362045716 0.1035900222 0.470497505 -0.2992726153 0.4708162282 -0.3000203465 -0.1335033905 0.1165299059
285298290.0 -0.1353841489 0.1051075115 0.4669440334 -0.3050083653 0.4676642246 -0.3046686032 -0.1325899964 0.1180601745
290298260.0 -0.1343388086 0.1065219592 0.4645696922 -0.3106760189 0.4641411738 -0.3106519795 -0.1310174025 0.1193637256
295298230.0 -0.1335058057 0.1075261918 0.4605418637 -0.3160279067 0.4606531421 -0.3159911883 -0.1300509006 0.1206266312
300298200.0 -0.1325093298 0.1092723031 0.4575735506 -0.3210390185 0.4574787469 -0.3209402734 -0.1287098965 0.1223041679
305298170.0 -0.1315991902 0.1099980593 0.4540503179 -0.3261671565 0.454082271 -0.3263494658 -0.1273309085 0.1230505879
310298140.0 -0.1300763183 0.1113223242 0.4504474872 -0.3314271037 0.451182102 -0.3311482639 -0.1261532894 0.124479702
315298110.0 -0.129626991 0.1122095979 0.446742187 -0.3369870727 0.4468298533 -0.336869066 -0.1249154432 0.1260558695
320298080.0 -0.1284326479 0.1138013921 0.4424460748 -0.3420348651 0.4432864007 -0.3421320558 -0.1235883202 0.1271923225
325298050.0 -0.1281539987 0.1143896345 0.439004662 -0.3467948155 0.4395530807 -0.3467679909 -0.1219493418 0.1283046266
330298020.0 -0.1276287779 0.1160046815 0.4350797606 -0.3519497403 0.4358230274 -0.3518658877 -0.1213901382 0.1296521171
335297990.0 -0.1263504531 0.1172711267 0.4313113418 -0.3566330139 0.4314601006 -0.3569136044 -0.1199429712 0.1312353912
340297960.0 -0.1259242206 0.118477918 0.4270659037 -0.3613147061 0.4271056097 -0.3616094634 -0.1186382745 0.1326387293
345297930.0 -0.1251198728 0.119715929 0.4227320349 -0.3665018308 0.4228237522 -0.3661511648 -0.1174029015 0.1337211905
350297900.0 -0.1241935295 0.121142624 0.419538736 -0.3708114662 0.4195028402 -0.3707463091 -0.1162000694 0.1350450205
355297870.0 -0.123107782 0.1225660233 0.4151438282 -0.3750150695 0.4148410609 -0.3749423262 -0.1143715402 0.1366883696
360297840.0 -0.1220643387 0.123874614 0.4106576004 -0.380135612 0.4110174136 -0.380068894 -0.1135426569 0.1380465152
365297810.0 -0.1210101151 0.1252109276 0.4062974421 -0.3846669296 0.4064511822 -0.384451197 -0.1121745323 0.1392616054
370297780.0 -0.1200596134 0.1265380279 0.4020569832 -0.3894417259 0.4023686455 -0.3888747381 -0.1107743982 0.140776337
375297750.0 -0.1189121926 0.1279084414 0.3979189517 -0.3931023802 0.39804751 -0.3935969341 -0.1090188078 0.1423253021
380297720.0 -0.1181009146 0.1291117104 0.3940321381 -0.3980327389 0.3931539386 -0.3976859597 -0.1074337703 0.1435932121
385297690.0 -0.1170592527 0.1300226817 0.3894222559 -0.4016694559 0.3893680582 -0.402473682 -0.1059974671 0.1451520416
390297660.0 -0.1156582055 0.1311468175 0.3847497619 -0.4054658295 0.3849482657 -0.4062001501 -0.1039244192 0.1460469027
395297630.0 -0.1142733216 0.1324884382 0.3805006985 -0.4096008021 0.3805849454 -0.4100106749 -0.1030061587 0.1474314891
400297600.0 -0.1133438522 0.1339443901 0.3758774737 -0.4144957983 0.3762378398 -0.4145883753 -0.1010227398 0.1489905424
405297570.0 -0.1121235417 0.1345778295 0.3713689753 -0.4181288423 0.3716233049 -0.4183357395 -0.0992453001 0.1502213249
410297540.0 -0.1112010843 0.1362642018 0.3667627685 -0.4227003333 0.3670522565 -0.4224164291 -0.0981129455 0.1514223385
415297510.0 -0.109943893 0.1375856342 0.3618659478 -0.4263935233 0.3624164889 -0.4267975283 -0.0959711951 0.1526785765
420297480.0 -0.1086352071 0.138253474 0.3571609498 -0.4305009982 0.3579182421 -0.430708779 -0.0941938177 0.1541350003
425297450.0 -0.1069670314 0.1396106094 0.3526436735 -0.4341822831 0.3527556524 -0.4342369679 -0.0928480972 0.1545324967
430297420.0 -0.1060448829 0.1408148631 0.348497713 -0.4382754128 0.3481911445 -0.4378212525 -0.0908343871 0.1564463768
435297390.0 -0.1046217595 0.1416511892 0.3428596284 -0.4424622808 0.3431016133 -0.4422523201 -0.0894816367 0.1577261281
440297360.0 -0.1031631078 0.142555984 0.337802405 -0.4458422731 0.3381249932 -0.4460072986 -0.0877801155 0.1589774228
445297330.0 -0.1018019708 0.1435995209 0.3331220642 -0.44924747 0.3337128193 -0.4497072918 -0.0859187728 0.1600065544
450297300.0 -0.1006501024 0.1448603425 0.3285783588 -0.4527660492 0.3287676098 -0.4528353149 -0.0839490529 0.1608851268
455297270.0 -0.0992971466 0.1461324152 0.3236014722 -0.4567400527 0.3236941868 -0.4565831608 -0.0823362101 0.1621571256
460297240.0 -0.0978768832 0.1468585154 0.3188395141 -0.4607474068 0.3184187566 -0.4604312935 -0.0804345654 0.1628805825
465297210.0 -0.0964757728 0.1479883152 0.3134091351 -0.4638971463 0.3133196253 -0.4643306325 -0.0783225267 0.1645084221
470297180.0 -0.0946827558 0.148863091 0.3080554635 -0.4669576675 0.3085212852 -0.4672029007 -0.0769143257 0.1650978454
475297150.0 -0.0936827804 0.1501871918 0.3032024112 -0.470429487 0.3032983302 -0.470112142 -0.0747581503 0.1660073884
480297120.0 -0.0919683918 0.1512001171 0.2980591275 -0.4737429786 0.2984746608 -0.4736589404 -0.0732385668 0.1671483701
485297090.0 -0.0904894274 0.1516965621 0.2927879159 -0.4765208966 0.2931271188 -0.4768761317 -0.0715811054 0.1684810673
490297060.0 -0.0885881037 0.1529913932 0.2871108883 -0.4801076779 0.2874804288 -0.48013211 -0.0695076431 0.1688509128
495297030.0 -0.087495992 0.1537156502 0.2826714523 -0.483079672 0.2823963212 -0.4834464941 -0.0674071691 0.1698428897
500297000.0 -0.0861300356 0.1549359035 0.2772320249 -0.4859621147 0.2770618546 -0.4863047239 -0.0655160023 0.1710100738
505296970.0 -0.084013523 0.15586497 0.2716946615 -0.4893913175 0.2722276404 -0.4891120922 -0.0636329802 0.1711887062
510296940.0 -0.0826958582 0.1564743582 0.2665752046 -0.4926666369 0.2666669047 -0.4928019814 -0.0611533288 0.1728450898
515296910.0 -0.0811926124 0.1578795655 0.2607514956 -0.4950296537 0.2607051988 -0.4949404514 -0.0598504667 0.1729430378
520296880.0 -0.0797370347 0.1586687015 0.2551346088 -0.4976017416 0.2555540034 -0.4975768629 -0.0575478448 0.1742935764
525296850.0 -0.0779897559 0.1593126222 0.2502579948 -0.5004165121 0.2500120088 -0.500452736 -0.0552839855 0.1745218393
530296820.0 -0.0764509007 0.1603189608 0.2445261832 -0.5031028374 0.244530963 -0.5032971779 -0.0534634732 0.1752824419
535296790.0 -0.0744125266 0.1610016671 0.2390247611 -0.5054919626 0.2392340072 -0.5054449764 -0.0513540696 0.1763973449
540296760.0 -0.0727426204 0.1621109665 0.2335678697 -0.5083155153 0.2335591435 -0.5080513158 -0.0495844797 0.1766945986
545296730.0 -0.0715814647 0.1631263233 0.228058616 -0.5104818561 0.2279590382 -0.510462256 -0.047339552 0.1773774
550296700.0 -0.0695787595 0.1638960573 0.2224937905 -0.5135328445 0.2220288442 -0.5134261359 -0.0453580734 0.1781796912
555296670.0 -0.0681206584 0.1648373713 0.2168390846 -0.5157816603 0.2169534192 -0.5154672921 -0.0436089061 0.1784210732
560296640.0 -0.0658781364 0.1655199702 0.2110322541 -0.5174668608 0.211169139 -0.5179286042 -0.0415621276 0.1794990015
565296610.0 -0.0648915772 0.166257485 0.2060067447 -0.5202798651 0.2058339242 -0.5197316494 -0.0395888866 0.1801865442
570296580.0 -0.0630645359 0.1674686022 0.1998187448 -0.5223799221 0.1996472557 -0.5223037482 -0.0375401999 0.1802425734
575296550.0 -0.0610066655 0.1679176081 0.1946136048 -0.5243496066 0.1943082632 -0.5245177382 -0.0354653922 0.181158347
580296520.0 -0.0595798073 0.1690094187 0.1885605434 -0.5261887315 0.1885334887 -0.526587671 -0.03387081 0.1815631563
585296490.0 -0.0578553975 0.1699398391 0.1830082294 -0.5284673607 0.1825897861 -0.5284986263 -0.0311491438 0.1824596549
590296460.0 -0.0554524865 0.1705097943 0.1771308974 -0.5301270908 0.1769107893 -0.5305953375 -0.0294103291 0.1827052458
595296430.0 -0.0540087933 0.1713186382 0.1708722604 -0.5321325268 0.1708285587 -0.5319432517 -0.0273618684 0.1827855528
600296400.0 -0.0520286417 0.1718944605 0.164856751 -0.5338629955 0.165204902 -0.5340457038 -0.025169316 0.183427417
605296370.0 -0.0510229363 0.1725393933 0.1597978391 -0.5353950998 0.1593875847 -0.5359556688 -0.0233107443 0.1837424098
610296340.0 -0.048614141 0.1736597238 0.1541057726 -0.5366830266 0.1538442751 -0.5370717508 -0.0212614465 0.1843803014
615296310.0 -0.046513699 0.1741011578 0.1478618754 -0.5389101954 0.1472725664 -0.5390679737 -0.0186668487 0.184783745
620296280.0 -0.0453628595 0.1751675156 0.1419732288 -0.5403391492 0.1417829529 -0.5403780267 -0.017323822 0.1853755857
625296250.0 -0.0438763101 0.1754805892 0.1363466681 -0.5421588446 0.1361560319 -0.5419270124 -0.0152764528 0.1852687283
630296220.0 -0.0417848231 0.1764810802 0.1301324735 -0.5432758222 0.1299246533 -0.5432767386 -0.0128289221 0.1856711556
635296190.0 -0.0400892285 0.1772174818 0.1244074266 -0.5444738391 0.124421033 -0.5443314593 -0.0107749653 0.1860998559
640296160.0 -0.0383183082 0.1776475313 0.1182179363 -0.5461811721 0.1180940033 -0.5461248029 -0.0092847883 0.1861545001
645296130.0 -0.0361713132 0.1786666687 0.1124278202 -0.5474335975 0.1124696997 -0.5468321143 -0.0071435175 0.1862547487
650296100.0 -0.0346591493 0.178844224 0.1065397662 -0.5487511437 0.1062263848 -0.5483027176 -0.0042475709 0.1865928047
655296070.0 -0.0329915969 0.1795528171 0.1005217533 -0.5494370627 0.1005850599 -0.5491386999 -0.003079076 0.186888913
660296040.0 -0.031122594 0.1804540147 0.0947572195 -0.5506572708 0.0948810152 -0.5503531113 -0.0005843348 0.1867740193
665296010.0 -0.0294266337 0.1807397444 0.0881436385 -0.5508505888 0.0884004825 -0.5512224478 0.001448091 0.1870867824
670295980.0 -0.0273692194 0.181139418 0.0825796499 -0.5522084212 0.0828489981 -0.5521740532 0.0028938668 0.1873163301
675295950.0 -0.0260149288 0.1816121927 0.0770297402 -0.5530818941 0.0769708438 -0.5532577633 0.0055366925 0.1875039355
680295920.0 -0.024340719 0.1825587397 0.0711293212 -0.5536508805 0.0708900782 -0.5538982514 0.0076114386 0.1870914079
685295890.0 -0.021979736 0.183175012 0.0645879888 -0.554895609 0.0649946423 -0.554586961 0.009840943 0.1875985913
690295860.0 -0.0205954668 0.1835494235 0.0587357353 -0.5549277528 0.0588666434 -0.5553785898 0.0116715173 0.1873284797
695295830.0 -0.0190224765 0.1835581666 0.0533850892 -0.5559747006 0.0528503747 -0.5557297901 0.0137221469 0.1875674964
700295800.0 -0.0170191352 0.1844801486 0.047285459 -0.556345108 0.0469984931 -0.5561863979 0.0161255234 0.1876171512
705295770.0 -0.0153369763 0.1849769131 0.0407091745 -0.5571338286 0.0408603843 -0.5567621227 0.017721524 0.1877090938
710295740.0 -0.013635518 0.1850796622 0.0351082059 -0.5567673369 0.0346895399 -0.5573856242 0.0201215591 0.1877828661
715295710.0 -0.0117515147 0.1859524147 0.0290544626 -0.5576780978 0.0287844836 -0.5574455581 0.0219714145 0.1874801958
720295680.0 -0.0095596757 0.1858800625 0.0230511569 -0.5573850342 0.0231104627 -0.5577132728 0.0243102021 0.1872310869
725295650.0 -0.0087325192 0.1862919922 0.0175572065 -0.5578085473 0.0171634226 -0.5581966265 0.0261482661 0.1875312166
730295620.0 -0.0070063462 0.186767735 0.0108780959 -0.5579848393 0.0112192981 -0.5573056115 0.0280620576 0.1876232603
735295590.0 -0.0049362285 0.1871343697 0.005040776 -0.558003316 0.0049213426 -0.5577327503 0.0302792215 0.1868049276
740295560.0 -0.003380555 0.1870030402 -0.0009642341 -0.5578147007 -0.0009090288 -0.5583476891 0.0319958833 0.1869337651
745295530.0 -0.0017616725 0.1876773443 -0.0067552204 -0.5573798004 -0.0065466749 -0.5578333141 0.0336625556 0.1867461478
750295500.0 -0.0003251231 0.1880287164 -0.0125493921 -0.5574383051 -0.0130946824 -0.5578262829 0.0362049405 0.1866367895
755295470.0 0.0014766084 0.1884554616 -0.0183466605 -0.557858728 -0.0188229046 -0.5580509933 0.0382514392 0.1867292591
760295440.0 0.0033321076 0.1887400752 -0.0249469203 -0.5572508766 -0.025293669 -0.5569231134 0.0404636966 0.1855646532
765295410.0 0.0052441512 0.1886082396 -0.0308823686 -0.5568788756 -0.0305451963 -0.556968758 0.0421711846 0.1856660067
770295380.0 0.0068479828 0.1891450604 -0.0366093878 -0.5562676309 -0.0367643174 -0.5571648154 0.0441792001 0.1854885873
775295350.0 0.0085707196 0.1889528763 -0.0425578802 -0.5562014611 -0.0429344153 -0.5560351832 0.0465026001 0.1853492578
780295320.0 0.0104221804 0.1894230772 -0.0487036188 -0.5556601147 -0.0488417427 -0.5555312921 0.0488147327 0.18485407
785295290.0 0.0120542548 0.1891054483 -0.0547425318 -0.554965805 -0.0549400142 -0.5551239793 0.0502705465 0.1846962052
790295260.0 0.0137635495 0.1892187013 -0.0603471207 -0.5543814741 -0.0606356167 -0.5547741188 0.0519842033 0.1846370034
795295230.0 0.0154462215 0.189189719 -0.0666129659 -0.5536314755 -0.0666908575 -0.5541192851 0.0541506753 0.1835313505
800295200.0 0.0170893771 0.1897665209 -0.071898524 -0.5525210162 -0.0724590979 -0.5529195063 0.0562604109 0.1829887547
805295170.0 0.0186326202 0.1897081823 -0.0783216764 -0.5523173948 -0.0782504801 -0.5523413221 0.0589545877 0.18282334
810295140.0 0.0208880285 0.1895797594 -0.0842866231 -0.5507797601 -0.084197709 -0.5515538934 0.0604845036 0.1823369665
815295110.0 0.0221395276 0.189762441 -0.0899094732 -0.5501571862 -0.0895943599 -0.5506064548 0.0624609811 0.1817233447
820295080.0 0.0240619072 0.1894874183 -0.095628505 -0.549113263 -0.0956935769 -0.5495396496 0.0637789922 0.1818693578
825295050.0 0.0257621164 0.1895433638 -0.1017593713 -0.5483250512 -0.1017893733 -0.5481193125 0.0667288599 0.1811793051
830295020.0 0.0274155096 0.1894888226 -0.1073913485 -0.5472313887 -0.1077138438 -0.5473471778 0.0683717387 0.1799605531
