!Created with skrf (http://scikit-rf.org).
# Hz S RI R 50.0 
!freq ReS11 ImS11 ReS21 ImS21 ReS12 ImS12 ReS22 ImS22
300000.0 -0.7776438532 -0.0951054313 0.0004545086 -0.0003804687 0.000636645 0.0004981432 -0.2125747175 -0.0791412406
5299970.0 -0.7851416864 -0.0058197366 0.0001184833 0.0001788763 -0.0001856386 6.36591e-05 -0.2148138853 0.0084637512
10299940.0 -0.7879567867 -0.0038551787 -0.0001718892 9.99703e-05 -5.89352e-05 -0.0001668105 -0.2112365725 0.0216202824
15299910.0 -0.7930796458 -0.0016413488 2.97739e-05 -0.0001221512 0.0002752062 0.000133935 -0.2059611962 0.0312394036
20299880.0 -0.8001944501 0.0022682957 -0.0001423518 -0.0001660026 0.0001765564 4.0715e-05 -0.1998143575 0.0392945375
25299850.0 -0.8063812377 0.0078063177 -1.88365e-05 0.0003059944 4.03703e-05 -5.37403e-05 -0.1936645872 0.0459174783
30299820.0 -0.8124282881 0.0152800643 -0.0001026401 0.0002088023 0.0001648122 5.77837e-05 -0.1869214884 0.050720563
35299790.0 -0.8169096135 0.0251167742 -7.58393e-05 0.0001666696 0.0001727058 0.0001576634 -0.1808317064 0.0549688777
40299760.0 -0.8215796073 0.033889168 -0.0001895452 7.75386e-05 -0.0001209801 1.31805e-05 -0.1748817768 0.0578680621
45299730.0 -0.8242438772 0.042918594 -6.98098e-05 9.79903e-05 1.18462e-05 -0.0001967805 -0.1692212151 0.059970403
50299700.0 -0.827081826 0.053432997 2.69975e-05 0.000136926 0.0001685521 -0.0001298627 -0.1641055276 0.0610820366
55299670.0 -0.8295479246 0.0635629435 -0.0001435284 7.12017e-05 5.81876e-05 -0.0001480943 -0.1595846634 0.0621444698
60299640.0 -0.8306304622 0.0736589305 0.0001287243 -4.0382e-05 -0.0002081384 1.85257e-05 -0.1550790408 0.0624474156
65299610.0 -0.8313785996 0.0839593866 3.85038e-05 -0.0002399396 9.72806e-05 0.0001295345 -0.1515597934 0.0627299154
70299580.0 -0.8318834718 0.0935897762 -8.07197e-05 -6.9961e-06 -3.64592e-05 0.0001402432 -0.1479850833 0.0629924246
75299550.0 -0.8314325909 0.1038135434 6.0744e-05 -0.0001342915 8.26112e-05 -6.3148e-06 -0.1449109915 0.0625621226
80299520.0 -0.8319916433 0.113617642 8.9282e-05 -3.91512e-05 0.0001275264 -1.59391e-05 -0.142302999 0.0625857099
85299490.0 -0.8311445412 0.1227922718 2.28107e-05 0.0001292905 6.28216e-05 5.42079e-05 -0.1394242924 0.062708476
90299460.0 -0.8302727849 0.1328893206 5.1241e-05 1.59674e-05 -0.0001132255 3.46339e-05 -0.1370271472 0.0621652987
95299430.0 -0.8292262236 0.1419912673 -0.0001299934 7.98391e-05 -1.39759e-05 0.0001572521 -0.1350740062 0.061945852
100299400.0 -0.8281291601 0.1509791284 0.0001708437 4.77912e-05 7.41103e-05 -7.388e-07 -0.1327415543 0.0618443834
105299370.0 -0.8271700837 0.1605199228 7.90816e-05 4.167e-07 -7.74619e-05 -2.60252e-05 -0.1307630411 0.061148424
110299340.0 -0.8254275909 0.1695920974 0.0001099144 -0.0002181515 -0.0001605092 -1.47812e-05 -0.1296634905 0.0612110368
115299310.0 -0.8240293274 0.1789950973 -0.0001028814 0.000267733 5.02886e-05 -0.0001938366 -0.1279073975 0.0609487421
120299280.0 -0.8221257096 0.1874134213 0.0001233707 4.5343e-05 2.30432e-05 -5.5101e-05 -0.1268815583 0.0612339551
125299250.0 -0.8203883144 0.1962445222 0.0001646435 -0.0001197106 0.0001314377 0.0001030952 -0.1256007999 0.0607363144
130299220.0 -0.81868896 0.2057777008 7.53489e-05 -0.0001132547 -2.62645e-05 0.0001192424 -0.1243829798 0.0605173193
135299190.0 -0.8168973729 0.214602097 0.0001297268 -6.4411e-06 0.0001358249 3.97728e-05 -0.1232541674 0.0609057403
140299160.0 -0.8147518016 0.2234383613 8.57357e-05 -1.68355e-05 2.3044e-06 -0.0001049833 -0.1224894327 0.0614394253
145299130.0 -0.8126018489 0.2323214025 -0.0001092717 0.0001444298 0.000230747 0.0001913666 -0.1215400169 0.0613848539
150299100.0 -0.810242621 0.2415665724 0.0001947972 0.0001869378 -7.23113e-05 0.0001144792 -0.120889802 0.0620791497
155299070.0 -0.8080134691 0.2497830574 -7.02791e-05 -5.18186e-05 0.0001550728 -2.50704e-05 -0.1198251793 0.0621723685
160299040.0 -0.8050902323 0.2583423585 -0.0002875031 5.23464e-05 9.76367e-05 3.37525e-05 -0.1197163378 0.0624513
165299010.0 -0.8027237263 0.26698012 0.0001348282 -0.0001259037 -0.000221119 3.42704e-05 -0.1186045149 0.0628750301
170298980.0 -0.800112055 0.2759506052 0.0002369422 1.8992e-05 -4.40407e-05 6.97435e-05 -0.1176967797 0.0631989768
175298950.0 -0.7971622387 0.2843591309 -0.000156288 1.90277e-05 -4.61607e-05 0.0003010842 -0.1177034994 0.0637427262
180298920.0 -0.7947156142 0.2933140865 -1.51828e-05 -0.0001049395 5.0989e-05 1.00146e-05 -0.1170063371 0.0645966231
185298890.0 -0.7912613622 0.3012434176 -2.72954e-05 -7.63053e-05 0.0001845428 9.09857e-05 -0.1162082533 0.0649934922
190298860.0 -0.7884053564 0.3100895951 6.1212e-06 4.04237e-05 6.62345e-05 -9.55379e-05 -0.1158220299 0.0656380387
195298830.0 -0.7853799586 0.317820414 8.42528e-05 0.0001469869 -6.44439e-05 -4.5221e-05 -0.1155113147 0.0663647186
200298800.0 -0.7815451433 0.3257085098 -2.23297e-05 -0.0001216546 0.000212868 0.0001960057 -0.1151857375 0.0664980055
205298770.0 -0.7779079063 0.3345316159 9.85457e-05 0.0001774791 4.81758e-05 0.0001698853 -0.114579176 0.0673552925
210298740.0 -0.7747843943 0.3427297212 0.000155629 3.43659e-05 2.72077e-05 -1.99589e-05 -0.1140921762 0.0682835925
215298710.0 -0.7715737835 0.3507119179 0.0001854298 0.0001593414 4.63442e-05 0.0001048287 -0.1137678287 0.0684804906
220298680.0 -0.7675107752 0.3589667509 0.0001327938 3.05376e-05 4.88027e-05 8.71911e-05 -0.1137012792 0.0695585593
225298650.0 -0.7643932308 0.3669215442 0.0002589072 0.0002701961 5.00511e-05 8.93489e-05 -0.1133535826 0.0704959883
230298620.0 -0.7599415783 0.3755992191 -4.52089e-05 0.0002008034 -2.18128e-05 0.0001871181 -0.1126478673 0.0709205927
235298590.0 -0.7558343825 0.3832958122 -4.01545e-05 -5.68191e-05 7.32758e-05 -9.97189e-05 -0.1126276754 0.071770895
240298560.0 -0.751915634 0.391219852 5.65196e-05 -6.70122e-05 3.5055e-05 8.70732e-05 -0.1117817109 0.0725778838
245298530.0 -0.7489374567 0.3990579656 -8.47869e-05 0.0002179648 1.26201e-05 3.68812e-05 -0.1116558867 0.0727983342
250298500.0 -0.7440192885 0.4072118602 -8.6819e-05 8.59045e-05 0.0001124317 0.0001293381 -0.1111953723 0.0736231673
255298470.0 -0.7394126664 0.4143981934 0.000254648 9.61533e-05 2.75589e-05 -0.0001200179 -0.1110466743 0.0742262877
260298440.0 -0.7358526805 0.4216273485 6.82216e-05 0.0002105244 -0.0001338605 -2.89653e-05 -0.1103410329 0.0756585241
265298410.0 -0.7310870399 0.4299846727 7.65559e-05 -0.0001596724 -6.1599e-06 -9.98863e-05 -0.1096129767 0.0762641091
270298380.0 -0.7266758433 0.4378029797 0.0002117936 -3.79821e-05 0.0002462358 -2.5043e-06 -0.1090482519 0.0772310304
275298350.0 -0.7220645656 0.4447927461 -8.0476e-05 -1.96531e-05 0.0001099374 0.0002378546 -0.1083565603 0.0781667144
280298320.0 -0.7168779828 0.4529193215 -0.0002063603 0.0001632763 -2.63043e-05 0.0002211702 -0.1076487293 0.078850856
285298290.0 -0.7125357749 0.4602106366 -5.5002e-06 -6.89794e-05 7.23295e-05 6.32643e-05 -0.1071451163 0.0794962027
290298260.0 -0.7074246415 0.4677318927 5.6524e-05 7.86257e-05 0.0001852793 0.0001656108 -0.1066860382 0.0807585437
295298230.0 -0.7024777212 0.4746233035 -8.28237e-05 -2.7989e-05 0.0001314434 0.0001757543 -0.1060572759 0.0812472791
300298200.0 -0.6976786169 0.4818864998 0.0002032154 -0.0001118852 7.2806e-05 0.0001263718 -0.1055382222 0.0824343929
305298170.0 -0.692417251 0.4884834877 9.51568e-05 -6.32504e-05 7.009e-06 0.0002552886 -0.1042666593 0.0828316777
310298140.0 -0.6874732261 0.4965820091 -3.3489e-06 0.0001290335 0.0001223166 0.0001290152 -0.1043303531 0.0840577503
315298110.0 -0.6827529259 0.5036645177 5.25126e-05 0.0001105624 4.62663e-05 0.0001098854 -0.1035811807 0.0847876493
320298080.0 -0.6770962149 0.5107740554 0.0001020045 0.0001400319 6.22219e-05 0.0002368775 -0.1028350664 0.0856827386
325298050.0 -0.6720711891 0.5177849379 1.02316e-05 0.000301939 -7.74283e-05 6.7368e-06 -0.10230441 0.0866683823
330298020.0 -0.6657612199 0.5244620339 0.0001704335 0.0001278685 2.2661e-06 1.4099e-05 -0.1019048657 0.0878152716
335297990.0 -0.6602812744 0.5308626139 0.0001033024 9.81081e-05 1.9848e-05 0.0001336042 -0.1011976537 0.0890686894
340297960.0 -0.6559340624 0.5379112711 0.000300568 5.05601e-05 9.72515e-05 0.0001156262 -0.1002350571 0.0901277705
345297930.0 -0.6499205934 0.5443828337 0.0002965907 0.0001848306 7.66984e-05 6.5816e-06 -0.100019941 0.0906854202
350297900.0 -0.6437821858 0.5511162806 0.0001570947 0.0002095198 1.35914e-05 0.0001008083 -0.099515969 0.0924379107
355297870.0 -0.6378234494 0.5581063357 0.0003320782 0.0001101652 0.0001317385 7.66186e-05 -0.0986204349 0.0932420095
360297840.0 -0.631898234 0.5638753666 0.0001789756 5.73069e-05 0.0001175989 0.0002377 -0.0981702836 0.0943464531
365297810.0 -0.6271798399 0.5708191576 6.81285e-05 0.0001553048 7.48276e-05 0.0001719879 -0.0970297482 0.0951449142
370297780.0 -0.6208431176 0.5770388255 1.89785e-05 3.13539e-05 4.68424e-05 -0.0003071105 -0.0965378787 0.096761321
375297750.0 -0.6144189487 0.5835165782 -2.9844e-06 0.0002168127 0.0001972765 7.61455e-05 -0.0961661629 0.0976245312
380297720.0 -0.6086362098 0.5894543278 0.0002708034 -5.54712e-05 4.0302e-05 -3.61606e-05 -0.0958173301 0.0985418554
385297690.0 -0.603262359 0.59564361 0.0001203169 5.28185e-05 0.0002888182 5.79e-07 -0.0947661721 0.0994605294
390297660.0 -0.596920548 0.6017351144 9.04428e-05 2.10741e-05 0.0001643338 6.23605e-05 -0.0941149954 0.1006391524
395297630.0 -0.5901137246 0.6083602951 0.0001078397 4.42947e-05 0.0002523939 4.33094e-05 -0.0929102136 0.1020066432
400297600.0 -0.583437511 0.6141656769 0.0001931322 3.26837e-05 0.0002043714 0.0002174539 -0.0925082537 0.1026859199
405297570.0 -0.5777117082 0.6200251416 8.00647e-05 0.0001884085 0.0001087275 0.0001185441 -0.0918723314 0.1037916419
410297540.0 -0.5711061214 0.6258025907 -3.87e-06 0.0002935434 0.0002630096 4.25322e-05 -0.0909227432 0.1046347714
415297510.0 -0.5645938905 0.630760613 4.82367e-05 -1.02865e-05 2.76304e-05 9.15227e-05 -0.0903727319 0.1056326613
420297480.0 -0.5587692385 0.6370245092 -3.18346e-05 -3.88766e-05 0.0002484616 0.0001681293 -0.0896040139 0.1067518219
425297450.0 -0.5513887167 0.6432548806 -4.27651e-05 -0.0001124772 3.67718e-05 5.65664e-05 -0.0886868133 0.1073576884
430297420.0 -0.5448631072 0.6489455979 0.0001164813 -3.23802e-05 -5.14637e-05 -6.54237e-05 -0.0880526137 0.1082070283
435297390.0 -0.538468267 0.6534099466 0.0002408796 0.0001291066 9.32596e-05 0.0001567305 -0.0866703416 0.1093237211
440297360.0 -0.5314569507 0.659331982 0.0005527449 0.0001295063 0.0001688382 -6.2882e-06 -0.0860156509 0.1102302441
445297330.0 -0.5247552388 0.6643513483 0.0001185162 6.73977e-05 0.0001642259 0.0002970523 -0.0849495277 0.110400061
450297300.0 -0.5177906031 0.6696400302 0.0003484057 -9.1229e-05 0.0002725073 0.0001490167 -0.0839084531 0.1116900446
455297270.0 -0.5111012312 0.6744130237 0.0001508264 0.0001014688 0.000103144 0.0001018258 -0.0830103417 0.1125648866
460297240.0 -0.5045846548 0.6797328597 0.0001162289 -0.0001007669 -5.87e-05 -1.9157e-06 -0.0820265168 0.1135955706
465297210.0 -0.497383622 0.6849696955 0.0001287285 0.000104129 0.0001627226 9.64794e-05 -0.080700157 0.1142269277
470297180.0 -0.4899415707 0.6897531278 0.0001832015 -8.80957e-05 0.0001465556 0.0003796168 -0.0797380704 0.1152812571
475297150.0 -0.483523011 0.6946623121 0.0001853006 -2.15253e-05 0.0001199216 1.3862e-05 -0.0785738907 0.1159203427
480297120.0 -0.4763959631 0.6997127354 0.0001172316 3.46057e-05 -0.0001168126 0.0001679288 -0.0776490759 0.1171769218
485297090.0 -0.4688424422 0.704393286 4.43501e-05 4.79383e-05 -5.37142e-05 4.44192e-05 -0.0764089451 0.118018263
490297060.0 -0.4620250856 0.7089169654 -4.0078e-06 -2.53145e-05 0.0001041105 -8.09671e-05 -0.0757264048 0.1187742292
495297030.0 -0.4549892151 0.713663957 7.58899e-05 -1.66435e-05 0.000221215 2.42687e-05 -0.0744798663 0.1197735204
500297000.0 -0.4470167998 0.7181547546 0.0002991466 8.571e-05 2.48508e-05 8.91827e-05 -0.0734223969 0.1211337472
505296970.0 -0.4397355282 0.7227711059 6.32904e-05 -7.21481e-05 0.0001900135 2.1428e-05 -0.072402209 0.1215934678
510296940.0 -0.4325175725 0.7267763432 -7.81394e-05 -3.77257e-05 0.000379247 4.1909e-06 -0.071231992 0.1227396907
515296910.0 -0.4238087423 0.7302421329 -1.5168e-05 -0.0002243145 0.0003171392 8.91363e-05 -0.0699279675 0.1236553814
520296880.0 -0.4178261684 0.7354674609 4.09572e-05 -4.02786e-05 5.60876e-05 -4.70872e-05 -0.0689393773 0.1243673557
525296850.0 -0.410116465 0.7390917208 3.2415e-06 0.0001144204 0.0003132356 -0.0001185801 -0.0683669753 0.1256195713
530296820.0 -0.4025791276 0.7430163015 0.0001527032 3.0404e-05 7.94641e-05 0.0002099974 -0.0668666211 0.1265383239
535296790.0 -0.395714509 0.7472207323 0.0003569486 0.0001571627 0.0004288181 0.0001537389 -0.0661063565 0.1273735394
540296760.0 -0.3883202007 0.750951364 0.0002834131 -0.0002130808 9.6826e-05 -2.15465e-05 -0.0649224456 0.1282797165
545296730.0 -0.3801253592 0.7552560479 0.0003033221 0.000220609 0.0001158989 0.0001216662 -0.0635764293 0.128995258
550296700.0 -0.3728963859 0.759307748 -2.65951e-05 0.0001519346 0.000440489 0.0001767812 -0.0628389231 0.1297622617
555296670.0 -0.3647495001 0.7622177189 0.0001012296 5.09183e-05 0.000207571 0.0001784886 -0.0617606651 0.1309565534
560296640.0 -0.3570635516 0.766636835 0.0001064545 -0.0001795192 0.0003377735 1.36094e-05 -0.0602838467 0.1315841671
565296610.0 -0.349620989 0.7696843324 -0.0002087637 2.9744e-05 0.0002488057 -1.5823e-06 -0.0593192658 0.1320983948
570296580.0 -0.3415115427 0.7722342755 0.0003509125 0.0001795729 0.0004095783 4.99664e-05 -0.0584874661 0.1329649434
575296550.0 -0.3336041727 0.7770319069 0.0001178485 -0.0001170404 3.87854e-05 9.21865e-05 -0.0567657404 0.1337911797
580296520.0 -0.3258609501 0.7798827938 0.0004846056 6.14012e-05 0.0002435518 7.26862e-05 -0.0557717891 0.1343209691
585296490.0 -0.3186297368 0.7827241657 0.000148671 -0.0001262035 0.0002986859 -5.83254e-05 -0.0548073241 0.1349967758
590296460.0 -0.3101633371 0.7857156824 0.0001034536 4.41374e-05 7.84257e-05 -5.51217e-05 -0.0537911637 0.1359655466
595296430.0 -0.3026028279 0.7885588022 0.0002621663 0.0001510345 0.0001739411 -3.40195e-05 -0.0527769563 0.1360921742
600296400.0 -0.2946373098 0.7919914457 0.0001785877 -3.15898e-05 9.22391e-05 0.0001707104 -0.0512979243 0.1365696674
605296370.0 -0.2870678456 0.7944952468 0.0001373437 6.53181e-05 0.0003067613 8.41633e-05 -0.0497563696 0.137055397
610296340.0 -0.2786700413 0.7974497842 0.0003432933 -0.0001478689 0.0003883656 -4.9752e-06 -0.0484479341 0.1383899235
615296310.0 -0.2697672292 0.8004064327 0.0001328231 6.09214e-05 0.0001415907 -0.0001062645 -0.0471236115 0.1384562903
620296280.0 -0.2621417533 0.8021573961 9.81733e-05 2.53065e-05 8.04582e-05 0.0001023517 -0.0461496924 0.138925215
625296250.0 -0.2548338235 0.8051867223 0.0002396664 0.0001986774 0.0004036138 -0.000128392 -0.0444106364 0.1397208997
630296220.0 -0.2458419855 0.8081423997 6.3222e-05 5.25124e-05 0.0001449189 -0.000160145 -0.0434415127 0.1403518745
635296190.0 -0.2381081219 0.8106266469 0.0002628049 0.0001675751 0.000169399 4.40595e-05 -0.0421252365 0.1407220475
640296160.0 -0.2307030619 0.8120961216 6.22405e-05 -5.69922e-05 -1.01909e-05 8.42738e-05 -0.0406498677 0.1415231504
645296130.0 -0.2226035353 0.8153288092 6.04982e-05 0.0001927308 9.87647e-05 -1.79286e-05 -0.039181758 0.1421142639
650296100.0 -0.2137777265 0.8166829358 0.0003959621 0.0001356749 0.0004577834 1.98089e-05 -0.0378265755 0.1424290089
655296070.0 -0.2055534644 0.8187639585 0.0003656742 0.0001007943 0.0002893038 1.62353e-05 -0.0364010118 0.1431619764
660296040.0 -0.1973991099 0.8202338921 0.0004178664 -6.15384e-05 0.0001279025 -5.00636e-05 -0.0350841503 0.1437448038
665296010.0 -0.189139991 0.8220940073 0.0001713221 -8.88881e-05 0.0001613057 -0.0001451857 -0.0336125013 0.1446876097
670295980.0 -0.181388907 0.8245721925 0.0002559233 0.0002506511 0.0004290088 -2.19568e-05 -0.0323292287 0.1450201503
675295950.0 -0.1725843206 0.8261029979 0.0001497444 0.0001439401 0.0002755683 0.0001763624 -0.0309020554 0.1457074378
680295920.0 -0.1641095785 0.8283685014 0.0001690942 -0.0001453038 0.0001221909 -0.0002537691 -0.0292946814 0.1466698419
685295890.0 -0.1558179942 0.8302915457 5.07381e-05 -2.30505e-05 0.0002074278 -5.20161e-05 -0.0282521817 0.1465193475
690295860.0 -0.1482291064 0.8308413497 0.0002098743 -0.0002702864 0.0003735612 9.19873e-05 -0.0268138778 0.1477197183
695295830.0 -0.1402043356 0.8320692994 0.0004170758 8.91097e-05 0.0003825815 -1.30192e-05 -0.025431878 0.1480686097
700295800.0 -0.1313370599 0.8334570399 0.0002438418 0.000142546 0.0003486726 -0.0001250237 -0.0242074209 0.1487133922
705295770.0 -0.1235023577 0.8351220003 0.0003851968 0.0001215302 9.62709e-05 -7.71295e-05 -0.0226641559 0.1495085404
710295740.0 -0.1149771 0.8363215284 0.0004471673 -0.0001099735 3.82464e-05 0.0001181189 -0.0217016653 0.149440465
715295710.0 -0.1066197469 0.8373269318 -2.56056e-05 -8.42519e-05 0.0001279265 -0.000106307 -0.0201568692 0.1499449261
720295680.0 -0.0986279578 0.8386421976 0.0003523997 -0.0002077779 0.0001758237 -2.22603e-05 -0.0183739455 0.1501027024
725295650.0 -0.0903251086 0.8392684056 0.00037611 0.0002020307 8.09569e-05 4.15002e-05 -0.0174081743 0.1512554185
730295620.0 -0.0817308578 0.8403630043 0.0002704343 -0.000180613 0.0002534268 -7.37308e-05 -0.0164465233 0.1511636844
735295590.0 -0.0737625075 0.8409285316 0.0002749272 0.0002375056 0.0002902553 -4.1521e-05 -0.0152170195 0.1513363805
740295560.0 -0.0651075804 0.841639418 0.0002969487 0.0001217697 0.0003585471 -8.522e-07 -0.0132858821 0.1521511274
745295530.0 -0.0563763664 0.8428302858 0.0002376975 -5.0325e-05 0.0003608599 -0.0001417505 -0.0116826012 0.1519723713
750295500.0 -0.0481782705 0.8428415001 0.0003158523 -7.1128e-05 0.000388653 0.0001651129 -0.0105820817 0.1525241674
755295470.0 -0.0398116116 0.8432081512 0.0004316893 0.0001194468 0.0003690083 -2.60049e-05 -0.0091234663 0.1525167158
760295440.0 -0.0317739197 0.8432778857 0.0001964037 -0.0001965631 0.0001036131 -7.827e-06 -0.0081163257 0.1528510364
765295410.0 -0.0230941857 0.8441235907 0.0003135983 0.0001319767 0.0004310046 7.9469e-06 -0.0062832366 0.1535606842
770295380.0 -0.0151423603 0.8440440386 0.0003004772 7.02487e-05 0.0002810814 -0.0001444314 -0.0051185469 0.1532885927
775295350.0 -0.006780136 0.8440676539 0.0002727332 -8.35914e-05 0.0001598309 -3.67437e-05 -0.0039201826 0.1535139746
780295320.0 0.0019901232 0.8439544049 0.0001256143 -0.0001734782 0.000267784 -6.31618e-05 -0.0023870362 0.1534988226
785295290.0 0.0093708536 0.8436182846 0.0003635373 5.70762e-05 0.0003603664 -0.0001565494 -0.0004535629 0.1538848029
790295260.0 0.0188253794 0.8433421488 0.0001568495 -0.0001014599 0.000263962 -2.29081e-05 0.001170275 0.1541145201
795295230.0 0.0264848784 0.8434101788 0.0001865166 -0.0003667818 0.0001280611 -0.0001251337 0.0023953274 0.1540813444
800295200.0 0.0351654387 0.8425855845 0.0001380636 -0.0003153153 0.0002194718 -0.0001724571 0.0042067517 0.1546166304
805295170.0 0.0437430711 0.8427004743 0.0002330084 -8.12144e-05 0.0004573618 6.86557e-05 0.005325105 0.1543333784
810295140.0 0.0516655816 0.8423980918 6.37213e-05 -0.0001390994 0.0003358899 -5.25282e-05 0.0071096416 0.1548899409
815295110.0 0.0599008433 0.8418886855 0.0002566395 -0.0001695268 0.0002062111 -5.2706e-06 0.0086514714 0.1544575137
820295080.0 0.0682676501 0.8411853044 0.0001342501 -0.0001122169 0.0002164101 9.5991e-06 0.0105288449 0.1550453774
825295050.0 0.0773476992 0.8404204952 0.0001287309 -0.000333701 0.0002125515 2.38789e-05 0.0117719891 0.1552145108
830295020.0 0.0848368442 0.8392224643 0.0001814554 -7.8437e-05 0.0002934033 6.72589e-05 0.0136729784 0.1552673223
835294990.0 0.0925956184 0.838714836 0.0001834303 -4.07059e-05 0.0003877797 0.000199994 0.0146389267 0.1552533422
840294960.0 0.1007387614 0.8378848869 0.0004510587 -0.0001053414 0.000173031 -0.0001654677 0.0165964835 0.1557489165
845294930.0 0.1089613919 0.837161671 0.0002351103 -4.26223e-05 0.0003508312 -0.0002409905 0.0176535889 0.1552500642
850294900.0 0.1174873603 0.8358273129 0.0004155685 -2.70594e-05 0.0004373883 -7.20511e-05 0.0194866335 0.155670561
