!Created with skrf (http://scikit-rf.org).
# Hz S RI R 50.0 
!freq ReS11 ImS11 ReS21 ImS21 ReS12 ImS12 ReS22 ImS22
300000.0 -0.7714648821 -0.1690810535 -0.0011497996 0.0008999648 -0.0013055206 -2.0384e-05 -0.0466552707 -0.075675669
5299970.0 -0.786205715 -0.0091834306 0.0001058905 0.0001450868 2.24855e-05 4.62485e-05 -0.0490240967 0.014084923
10299940.0 -0.7894551741 -0.0061024851 2.301e-05 -5.51663e-05 2.31105e-05 -0.0001063907 -0.0430762292 0.0321704589
15299910.0 -0.794311434 -0.0033288081 -0.0001003546 -2.83929e-05 2.1295e-06 0.0002328387 -0.0349716843 0.0467641103
20299880.0 -0.8011985228 0.0006490902 0.0001834089 -0.000109146 -7.5511e-05 -0.0001685415 -0.0251658773 0.0584384186
25299850.0 -0.8075034774 0.0065609747 0.0001563037 2.64961e-05 -9.77481e-05 3.51063e-05 -0.0142200462 0.0678587704
30299820.0 -0.8140279219 0.0141801865 9.8524e-06 -7.03018e-05 -3.44147e-05 -7.30701e-05 -0.0026709806 0.0746950303
35299790.0 -0.8185759231 0.0231730248 0.0001774275 3.35474e-05 -0.0001045097 0.0001254627 0.0084790529 0.0795278592
40299760.0 -0.8235859422 0.0321051688 -7.44413e-05 -0.0001180308 -0.0001420571 -8.8918e-06 0.0196807213 0.0825995498
45299730.0 -0.8265520065 0.041870409 -0.0001242886 0.0001436133 -2.49836e-05 -0.0001452721 0.03001863 0.0840694128
50299700.0 -0.8293910526 0.0517979235 0.0001458789 0.0001362939 -0.0001320513 -0.0001272319 0.0402554095 0.0846391203
55299670.0 -0.8312878239 0.0613308375 -1.4751e-05 0.0002790037 6.32563e-05 5.46692e-05 0.0491974381 0.0834491525
60299640.0 -0.832331131 0.07182741 2.75051e-05 -3.40867e-05 -3.97253e-05 5.19497e-05 0.0579670308 0.0816285232
65299610.0 -0.8336464344 0.081608701 -2.57241e-05 0.0001069214 6.55314e-05 -2.98429e-05 0.0656872007 0.0796360503
70299580.0 -0.833645921 0.0916912748 4.72553e-05 3.77021e-05 5.55121e-05 -7.44226e-05 0.0721120484 0.0766941297
75299550.0 -0.8341822262 0.1017583677 0.0003819419 0.0001592515 0.000144439 0.0001392754 0.0792073189 0.073403268
80299520.0 -0.8344051561 0.1121457866 -0.0001129353 3.44456e-05 -0.0001164137 4.54026e-05 0.0847020594 0.0698993527
85299490.0 -0.8326371145 0.1209462944 -5.42404e-05 -0.000110048 3.27184e-05 0.0001746951 0.089874317 0.0665940208
90299460.0 -0.8323405613 0.1316344238 -0.0001912803 2.37783e-05 0.0001656381 5.92155e-05 0.094426247 0.0629163161
95299430.0 -0.8316858124 0.1410108474 -8.6186e-06 0.0001637266 0.000146785 0.0002689252 0.098659951 0.0592507636
100299400.0 -0.8301908814 0.1498386549 6.67157e-05 0.0002088066 -8.6555e-05 1.08604e-05 0.1023023391 0.0555885185
105299370.0 -0.8288151401 0.1593614849 0.0002273623 6.14833e-05 1.4514e-05 0.0001126057 0.1056985175 0.0512502179
110299340.0 -0.8275094168 0.1684498739 -3.42444e-05 -5.58997e-05 7.4849e-06 7.16377e-05 0.1084066847 0.0474618563
115299310.0 -0.8264127258 0.17806896 6.14788e-05 5.67101e-05 8.96132e-05 1.07739e-05 0.1108903497 0.0438216071
120299280.0 -0.8244919462 0.1869611658 0.000117669 8.25956e-05 9.49828e-05 0.0002403148 0.1128945629 0.0398581689
125299250.0 -0.822420344 0.1956443319 7.29878e-05 0.0002682635 9.47663e-05 0.000198398 0.1151504136 0.0362484648
130299220.0 -0.8204748684 0.2051422585 0.0001795859 6.09773e-05 8.1419e-06 8.73494e-05 0.1171790732 0.0326220715
135299190.0 -0.8188995883 0.2145098696 9.92575e-05 0.0002311547 9.38804e-05 -8.63558e-05 0.1184324856 0.0290222757
140299160.0 -0.8167249845 0.2237156714 -2.23871e-05 -0.0001050456 4.10356e-05 0.0002269498 0.1195152311 0.0255666265
145299130.0 -0.8147623338 0.2325594827 -5.24167e-05 3.201e-07 -5.56371e-05 0.0002375971 0.1210394689 0.022357556
150299100.0 -0.8116587612 0.2405570441 0.0001508875 9.69367e-05 5.12539e-05 0.0002343449 0.1218785929 0.0189003323
155299070.0 -0.8100155432 0.2498994674 0.0001142982 -5.69375e-05 4.40341e-05 -4.96874e-05 0.1227000404 0.0158371039
160299040.0 -0.8075798633 0.258768128 8.92627e-05 0.0001069207 0.000112549 7.00157e-05 0.1231355675 0.0124113005
165299010.0 -0.805162551 0.2673674954 0.0001844563 7.71423e-05 -4.76077e-05 2.85229e-05 0.1240914866 0.009179788
170298980.0 -0.8018268813 0.2763397334 9.0864e-06 5.20261e-05 7.8835e-06 0.0001386899 0.1242177185 0.0064201178
175298950.0 -0.7993120516 0.2845985161 2.76124e-05 -5.83212e-05 -9.65873e-05 7.91979e-05 0.1246843503 0.0036502338
180298920.0 -0.7958785729 0.2931708061 0.0001801682 -1.42086e-05 -9.00751e-05 4.08429e-05 0.124764447 0.0004045353
185298890.0 -0.792644701 0.3020088759 2.68969e-05 -0.0001031459 0.0001276456 0.0001896571 0.1248315077 -0.0022560563
190298860.0 -0.7889934444 0.3114794376 0.0001110149 0.0001774828 -0.000171996 -3.98352e-05 0.1248548252 -0.0051353597
195298830.0 -0.7865398554 0.3192518304 -4.11432e-05 0.0002033975 0.000251914 0.0002580329 0.1248345298 -0.0078156985
200298800.0 -0.7830081485 0.3278588465 0.0002682075 0.0003096759 -2.75686e-05 0.0002255814 0.1250490149 -0.0105516898
205298770.0 -0.7789848497 0.3363970238 3.54979e-05 0.0003324236 2.75346e-05 4.68426e-05 0.1247444354 -0.013035816
210298740.0 -0.7768402657 0.3445530154 3.69841e-05 0.0001714798 -9.4958e-05 0.00013976 0.1242986953 -0.0154389916
215298710.0 -0.7723591933 0.3532285527 2.23726e-05 0.000220426 5.64282e-05 -3.4079e-06 0.1241638771 -0.0181323945
220298680.0 -0.768923633 0.3611808701 0.000211211 0.0001526422 2.38911e-05 8.49479e-05 0.1234657393 -0.0204275706
225298650.0 -0.7646118064 0.3693833908 -1.62695e-05 6.73938e-05 0.0002079506 0.000181704 0.1233991353 -0.0227196902
230298620.0 -0.7610011277 0.3779147137 0.0001178309 0.0003738401 -3.52326e-05 0.0001569286 0.1228466754 -0.0251601801
235298590.0 -0.7576187161 0.3860704388 0.000249383 0.0001499762 0.0001023088 9.97155e-05 0.1222842085 -0.0273306456
240298560.0 -0.7526260023 0.3935814144 0.0003185295 0.0002253022 9.5083e-05 0.0001356082 0.1215987784 -0.0295092697
245298530.0 -0.7489567528 0.4015270614 0.0002036501 0.0001883363 0.0001191601 0.0001727587 0.1213339742 -0.0317775374
250298500.0 -0.74445107 0.4093089629 0.0001252912 0.0001542497 0.0002678388 0.0002583715 0.1205082839 -0.0336268269
255298470.0 -0.7407480541 0.4174282437 6.49643e-05 0.0003073647 -7.09893e-05 0.0001270707 0.1198692727 -0.035994012
260298440.0 -0.7361369183 0.4248932369 0.0003983197 0.0001627105 0.0003365503 -1.72965e-05 0.1189103514 -0.0380944703
265298410.0 -0.7314205686 0.4331464785 0.0001612022 0.00017972 -8.21326e-05 2.34544e-05 0.1188390878 -0.0400757781
270298380.0 -0.7271408173 0.440351995 0.000162879 0.0001921166 0.0001389658 4.73084e-05 0.1180924676 -0.0420509374
275298350.0 -0.7229410325 0.4478752275 0.0002048547 -5.97352e-05 0.0002112898 0.0001371496 0.1173680065 -0.0440566937
280298320.0 -0.7181132558 0.4556698902 6.7164e-05 0.0001809832 2.55639e-05 0.0001829471 0.1163153096 -0.0459489075
285298290.0 -0.7133720951 0.4638152982 -4.155e-06 -9.25929e-05 0.0001763809 -3.82188e-05 0.1154483618 -0.0474300468
290298260.0 -0.708814029 0.4709724291 0.0002082051 0.000264868 -3.25467e-05 -4.1825e-05 0.1145961957 -0.0493980422
295298230.0 -0.7038918239 0.4780862679 7.47336e-05 0.0001363142 -2.79438e-05 6.69244e-05 0.113974486 -0.051143276
300298200.0 -0.6993426709 0.485398687 8.56158e-05 6.24676e-05 0.0002244734 0.0001785734 0.1129075824 -0.0530232248
305298170.0 -0.6944402322 0.4925016004 4.14702e-05 0.0001674452 2.87654e-05 -5.18343e-05 0.1125624458 -0.0546234321
310298140.0 -0.6887111559 0.4993205093 6.75256e-05 0.0001012936 0.000142005 0.0001535917 0.1114792519 -0.05637199
315298110.0 -0.6847082837 0.5074937758 0.0004436796 5.28118e-05 0.0001938795 0.0002217578 0.1108940763 -0.0581452558
320298080.0 -0.6786144404 0.513920838 0.0003098879 0.0001402286 0.0002131187 0.0002663229 0.109336149 -0.059795063
325298050.0 -0.6735871 0.5208419748 0.0001161743 -6.0156e-06 0.0002620623 -4.26019e-05 0.1085845058 -0.0620509281
330298020.0 -0.6679829258 0.5278550755 0.0002119812 -8.6568e-06 3.3361e-05 0.0001901609 0.107323968 -0.063681092
335297990.0 -0.662640337 0.5349903512 6.4761e-05 0.0003731983 0.0001851134 0.000150199 0.1059903684 -0.0651891274
340297960.0 -0.6577296728 0.5412310694 0.0002690168 -0.0001265144 0.0002000212 0.0001383912 0.1048717006 -0.0664595228
345297930.0 -0.6519513073 0.548148591 0.0001618733 -5.21472e-05 0.0001268164 0.0003381218 0.1035185503 -0.0681321803
350297900.0 -0.6462735808 0.5552639697 0.0001318392 0.0003519157 0.0001854185 2.54634e-05 0.1023592741 -0.0696730451
355297870.0 -0.6408248568 0.5617582829 9.737e-05 2.70955e-05 6.3884e-06 -6.72422e-05 0.1008248656 -0.0705608365
360297840.0 -0.6345204626 0.5682106679 -5.05089e-05 0.000362474 0.0001232224 3.124e-07 0.0997478975 -0.072232151
365297810.0 -0.6297045989 0.5751912315 5.92921e-05 0.0002297106 -2.19877e-05 8.99599e-05 0.098622231 -0.0734240845
370297780.0 -0.6232445475 0.5804216125 0.0001405598 0.0001800266 0.0003948212 1.71042e-05 0.0973875296 -0.0746596669
375297750.0 -0.6178489901 0.5872603795 8.20009e-05 8.66425e-05 0.0001936436 0.0001764867 0.0962881676 -0.0759932381
380297720.0 -0.6118400023 0.5930771208 0.0004708457 -2.73769e-05 0.0003355813 0.0001103004 0.0952133466 -0.0771274768
385297690.0 -0.6062302177 0.5994713219 0.0002221589 0.0001999588 0.0001979671 0.0002350376 0.0939743583 -0.0782169408
390297660.0 -0.5988469879 0.6051761242 0.0002653376 0.0001404952 0.0001405398 0.0002366073 0.092348461 -0.0794148753
395297630.0 -0.5925874262 0.612061106 0.0002439992 0.0001986713 0.000213528 0.0002454918 0.0911254272 -0.0806068606
400297600.0 -0.5864910399 0.6183296437 -2.28264e-05 0.0001288338 0.0003287806 1.74541e-05 0.0902544386 -0.0815330465
405297570.0 -0.5804687678 0.6232375777 0.0002721206 -4.70573e-05 0.0004141304 -4.2151e-06 0.0888101553 -0.0826394473
410297540.0 -0.5737028047 0.6295286996 0.000131982 0.0002298209 0.0002974788 4.77487e-05 0.0876942261 -0.0839052185
415297510.0 -0.5679909731 0.6349800283 0.0002724587 0.0001717756 0.00027716 4.0528e-06 0.086319317 -0.0849825242
420297480.0 -0.5607601625 0.6411439916 0.0001830121 0.0002805919 0.000150933 5.1256e-05 0.0851657989 -0.0856849607
425297450.0 -0.5539658642 0.6467881528 0.0001706851 -2.16251e-05 0.0003250056 0.0002948246 0.083710681 -0.0874010048
430297420.0 -0.547919401 0.6522117795 1.46086e-05 0.0001310257 0.0002438418 8.50863e-05 0.0826562516 -0.0879235508
435297390.0 -0.5409557401 0.6570275103 0.0002932273 0.0002688081 0.0003007264 0.000161082 0.0809869585 -0.0887860316
440297360.0 -0.5341130625 0.6631259049 0.0002387279 0.0002889305 0.0002563429 0.000190214 0.0799133022 -0.0896078846
445297330.0 -0.5270524783 0.6681408093 1.03659e-05 0.0002890638 0.0004336331 -2.01904e-05 0.0788427064 -0.0906604668
450297300.0 -0.5203120056 0.6736462858 0.0001933322 4.74672e-05 0.0001278709 0.0002707049 0.0773843592 -0.0917176432
455297270.0 -0.5133132453 0.6785557136 0.0004253672 0.0002134747 0.0003152396 0.000191725 0.0758370553 -0.0922547532
460297240.0 -0.505697887 0.6847806763 0.0002719471 0.0001750593 0.0002654521 0.0002777421 0.074556551 -0.0933617142
465297210.0 -0.4990662923 0.6893254754 0.0002494275 6.30138e-05 0.0001708198 0.0002340929 0.0733038571 -0.0939026881
470297180.0 -0.4918915565 0.6939558768 0.0004506226 -3.94451e-05 0.0001313972 3.933e-07 0.0718345106 -0.0948527318
475297150.0 -0.4844095077 0.69897335 0.0003490601 5.85726e-05 0.0002072155 0.0002648852 0.0708029365 -0.0956016673
480297120.0 -0.4768876842 0.7039342045 0.0001857571 5.6833e-06 0.000346849 0.0001233556 0.069148575 -0.096408662
485297090.0 -0.4700672439 0.7087972524 0.0003178921 4.512e-06 0.0003903475 0.0002271551 0.0676150099 -0.0971596083
490297060.0 -0.4619119197 0.7140293297 0.0002137366 6.55407e-05 0.0003217045 -2.38956e-05 0.0665490771 -0.0980228379
495297030.0 -0.4548572796 0.7183982774 0.0002103218 9.5504e-05 0.0003540951 0.0001097515 0.0651056152 -0.0985899315
500297000.0 -0.4473966608 0.7220802108 5.58198e-05 0.0004039111 0.0004014775 0.0002263694 0.0637073483 -0.0992962948
505296970.0 -0.4390057514 0.7271558175 0.0001052637 7.56185e-05 0.0003477203 2.19155e-05 0.0620871608 -0.0997560554
510296940.0 -0.4321138732 0.7314957367 0.0002380722 0.0001530132 0.000271336 5.42141e-05 0.0608433125 -0.1006296297
515296910.0 -0.4244939709 0.7360520715 0.0003345391 5.94613e-05 0.0002527582 0.0001880463 0.0594990869 -0.1010452929
520296880.0 -0.415993173 0.739486735 0.0003458052 0.0002742374 7.8862e-05 0.0001024463 0.0582454773 -0.1019751553
525296850.0 -0.4084577678 0.7443502289 0.0003832911 0.0001331015 0.0001876548 -5.52815e-05 0.056638673 -0.1021472279
530296820.0 -0.401271257 0.7474863467 0.0005347823 -7.92052e-05 0.0003723619 -0.0001319289 0.0553745976 -0.1031509517
535296790.0 -0.3924112595 0.7517500104 0.0001446356 -3.24411e-05 0.0001966426 1.20658e-05 0.0542451419 -0.1034842795
540296760.0 -0.3848882634 0.7559989073 0.0003084775 7.74343e-05 0.0002993444 -1.84619e-05 0.0523675242 -0.1038713871
545296730.0 -0.3774591162 0.7603272438 0.0004322266 -1.07994e-05 0.0002742552 8.69913e-05 0.050937947 -0.1046547454
550296700.0 -0.3688661993 0.7638953296 0.000378953 -0.0001022854 0.0001491589 -6.96506e-05 0.049579276 -0.1050472025
555296670.0 -0.3615885333 0.7676334309 0.0003054186 0.0002391613 0.0001537198 1.79292e-05 0.048036596 -0.1055457385
560296640.0 -0.3531202569 0.7708807436 0.000278525 0.0003817671 0.0003686517 4.4956e-05 0.0468083587 -0.1058869165
565296610.0 -0.3452907138 0.7741128551 0.0003579083 0.0001868237 0.000403105 0.0002055814 0.0454979546 -0.106105031
570296580.0 -0.3368647342 0.7781886112 0.0003768559 3.13063e-05 0.0005612178 0.0001745468 0.043805652 -0.1067808612
575296550.0 -0.3280548019 0.7811929383 8.76725e-05 0.0003585628 0.0003272118 0.0001084701 0.0424342143 -0.1070760539
580296520.0 -0.3211633203 0.7845820927 0.0002444895 -0.0001294992 0.0004318842 2.61193e-05 0.0410673774 -0.1073333698
585296490.0 -0.3126649313 0.7873552339 0.0003375526 0.0003648595 0.0002686155 0.0001180708 0.0396319644 -0.1077021143
590296460.0 -0.3039237835 0.7906933157 0.0004224102 9.34027e-05 0.0004732524 -8.64278e-05 0.0380775074 -0.1079592035
595296430.0 -0.2957373942 0.7937080768 0.0003641173 5.27837e-05 0.0003279467 0.0001118176 0.0366405251 -0.1085527271
600296400.0 -0.2881389466 0.7970753309 0.0001848596 7.05598e-05 0.0002507466 -0.0002206476 0.0352093846 -0.1088510756
605296370.0 -0.2799314718 0.7993338437 5.3077e-05 0.0001865818 0.0003851316 0.0001005599 0.0339572803 -0.1086969017
610296340.0 -0.2718391725 0.802832713 0.0003211537 7.73037e-05 0.0004521511 0.000117035 0.0321624822 -0.1088651868
615296310.0 -0.2630764605 0.8053359558 0.0001734788 8.9527e-06 0.0003574801 0.0002736703 0.0306709849 -0.1092344195
620296280.0 -0.2556339314 0.8083938346 0.0003484503 0.0001515655 0.0002578482 0.0001160174 0.029183336 -0.1092085028
625296250.0 -0.2472867799 0.8102906426 0.0003057037 0.0001414389 0.00049658 9.30392e-05 0.0278634868 -0.1097197416
630296220.0 -0.2384295456 0.8132092392 0.0005355244 -0.000153174 0.0002862751 0.0001042754 0.0264505732 -0.1096756435
635296190.0 -0.2302800602 0.8156871181 7.47393e-05 0.0001566307 0.0003477535 4.78354e-05 0.0249944525 -0.1098452407
640296160.0 -0.2218022086 0.8179249027 0.0002917407 0.0002579185 0.0003914344 0.0001889288 0.0233578474 -0.1097206619
645296130.0 -0.2137040543 0.8206801614 0.0001615815 0.0002514188 0.0004590993 5.29903e-05 0.0217148385 -0.1101551082
650296100.0 -0.2054735543 0.8220039389 0.0003725107 -0.000153683 0.0003534679 -1.29226e-05 0.0205527771 -0.110227496
655296070.0 -0.1972395084 0.8240345859 0.0003461222 3.82854e-05 0.0003570469 -5.06738e-05 0.0188749671 -0.1102870016
660296040.0 -0.1893546201 0.8259604679 0.0005224214 0.0001857508 0.0002383847 -2.38493e-05 0.0178925313 -0.1104882114
665296010.0 -0.1808453731 0.8284124468 0.0003610164 5.86109e-05 0.0002824945 0.0002230792 0.0164329887 -0.1102475074
670295980.0 -0.172785036 0.8307769633 0.000331569 1.13022e-05 0.000244648 -2.35474e-05 0.0147643504 -0.1100989749
675295950.0 -0.1638264709 0.8314234279 0.0002481131 0.000107943 0.0004836289 -2.31719e-05 0.0133234651 -0.1103916206
680295920.0 -0.1568408511 0.8337239127 0.0003653438 1.23268e-05 0.0003428579 0.0001099889 0.0118624013 -0.1101602677
685295890.0 -0.1472707705 0.8355058342 0.0002951948 -3.15556e-05 0.0003851232 -0.0001269705 0.0102842507 -0.1100728183
690295860.0 -0.1392039301 0.836894396 0.0004623723 -1.9797e-06 0.0003626633 -8.0286e-05 0.0090807488 -0.1100839684
695295830.0 -0.1306800668 0.8382405063 0.0004381211 -0.0002896333 0.0002943078 9.88615e-05 0.0074462504 -0.1098200768
700295800.0 -0.1227299207 0.8399878021 0.0003946455 -0.0001650361 0.0004807701 4.83678e-05 0.0062326502 -0.1098240427
705295770.0 -0.1148496629 0.8413481992 0.000370488 0.0001577424 0.0002112225 -1.9401e-05 0.0047547801 -0.109424248
710295740.0 -0.1065777042 0.8419521541 0.0003099019 5.42776e-05 0.0003406675 0.0001233184 0.0033829648 -0.1093966907
715295710.0 -0.0973746992 0.8436005574 0.0003689405 -0.0001431 0.0005244577 -0.0001907739 0.0017745755 -0.1093746663
720295680.0 -0.0891785914 0.844117383 0.0004912929 0.0001070596 0.0004698745 3.19323e-05 0.0004631837 -0.1092229252
725295650.0 -0.0815613633 0.845605886 0.0002407335 3.7438e-05 0.0003121601 5.44326e-05 -0.0008701694 -0.1087307447
730295620.0 -0.0738228733 0.8467323689 0.0004028117 -0.0002206445 0.0002915586 -0.0001664629 -0.0025379781 -0.1084819897
735295590.0 -0.0659750734 0.8472782074 0.0001520431 -6.18299e-05 0.0003618138 -8.87727e-05 -0.003447675 -0.1086100768
740295560.0 -0.0571040941 0.8471854763 0.0002791306 -1.27324e-05 0.0002029096 -0.0001373828 -0.0051909465 -0.1082115931
745295530.0 -0.0495218975 0.8484272585 0.0004376024 8.73048e-05 0.0004844347 1.09951e-05 -0.0067816277 -0.1077163047
750295500.0 -0.041000975 0.848494148 0.0004974172 -0.0001252789 0.0003592697 -4.98405e-05 -0.0079974329 -0.1076009935
755295470.0 -0.0318399021 0.8496350562 0.0004433603 -6.00384e-05 0.0003009543 -9.4455e-06 -0.0094752237 -0.1067101948
760295440.0 -0.024267165 0.8508388303 0.0002537448 5.97702e-05 0.0003768001 -0.0001853396 -0.0105470394 -0.1070103406
765295410.0 -0.0159881793 0.8501014089 0.0003512444 -0.0002998892 0.0004443577 -0.0001859933 -0.0119753459 -0.106111313
770295380.0 -0.0081747968 0.850815447 0.0002712859 -0.0001772716 0.0005953806 9.84255e-05 -0.0136135355 -0.106133665
775295350.0 -2.11123e-05 0.8514125278 0.0006728121 9.63257e-05 0.0005145098 -0.0001484657 -0.0146050525 -0.1057802864
780295320.0 0.0087185824 0.8512396602 0.0004927626 -8.35759e-05 0.0005002216 -3.50915e-05 -0.0163834489 -0.1052215209
785295290.0 0.017009606 0.8506483158 0.0004774711 1.38912e-05 0.0004861253 -2.78115e-05 -0.0178485361 -0.1045653965
790295260.0 0.0251742788 0.8509014492 0.0004293759 -0.0002581658 0.000398239 2.76215e-05 -0.018830893 -0.1039631274
795295230.0 0.0335484243 0.8505025173 0.0007453642 -4.19444e-05 0.0002626417 1.61767e-05 -0.0205097374 -0.1042061847
800295200.0 0.0409711497 0.8508880015 0.0003583365 -6.33252e-05 0.0004344056 -8.39114e-05 -0.0219339898 -0.1037361772
805295170.0 0.0491400473 0.8508376897 0.0004889184 -7.88829e-05 0.0003405476 -0.0001705297 -0.0230500191 -0.1033761115
810295140.0 0.0578220668 0.8500715666 0.0003939698 -0.0001761631 0.000625125 1.74588e-05 -0.0243345639 -0.102441683
815295110.0 0.0657665399 0.849332721 0.0003559938 -0.000170959 0.0005440369 -0.0002495493 -0.0257007272 -0.1019081394
820295080.0 0.0738606931 0.8490747228 0.000339335 5.8399e-05 0.0004540655 -0.0001388296 -0.0274733919 -0.1009013279
825295050.0 0.0823392203 0.8481397441 0.00041059 -3.67614e-05 0.0003955763 5.8421e-05 -0.0280931655 -0.1006228856
830295020.0 0.0905091487 0.8479977958 0.0004488698 -0.0002131668 0.0004072067 -0.0002813725 -0.0296348284 -0.1002759649
835294990.0 0.0981342724 0.8463406189 0.0002740311 -7.91385e-05 0.0005350124 -0.0001831604 -0.0307857836 -0.0994372403
840294960.0 0.1068969113 0.844920371 0.0003457439 -0.0001366485 0.0003780491 -5.9192e-06 -0.0320819732 -0.0989041379
845294930.0 0.1145386603 0.8443622991 0.000405308 -0.0001010166 0.0003762869 -0.0003028171 -0.0334314004 -0.098452189
850294900.0 0.1240262335 0.8430431555 0.0003609934 -0.0002096521 0.0005374248 -0.0002497747 -0.034573989 -0.0978221148
