!Created with skrf (http://scikit-rf.org).
# Hz S RI R 50.0 
!freq ReS11 ImS11 ReS21 ImS21 ReS12 ImS12 ReS22 ImS22
300000.0 -0.2386866179 -0.0719520563 0.4724217014 0.0489371406 0.4683229429 0.0475133714 -0.2448120048 -0.0875193753
5299970.0 -0.244284171 0.0076301003 0.4736497533 0.0047172599 0.4737847264 0.0051412965 -0.2445506473 0.007567684
10299940.0 -0.2411596156 0.0189175899 0.4753623251 0.0060983644 0.4758276567 0.0060726984 -0.2411984627 0.0203972313
15299910.0 -0.2368535205 0.0280064552 0.479191023 0.0077983567 0.4794810778 0.0076845923 -0.23662544 0.0295752026
20299880.0 -0.2320159697 0.0354006897 0.4839917687 0.0084637206 0.4840046046 0.008490537 -0.2312522365 0.0372149817
25299850.0 -0.2269617484 0.0419309159 0.4889003399 0.0078528914 0.4892613243 0.0077508714 -0.2249955291 0.0436224138
30299820.0 -0.2217313268 0.0471129323 0.4946221029 0.0055544803 0.4946510641 0.005329006 -0.2191657731 0.0491569665
35299790.0 -0.2165434371 0.0514995995 0.5000745239 0.0018708389 0.5000126115 0.0021550696 -0.2138229618 0.0531798888
40299760.0 -0.211257759 0.0550682578 0.5049997006 -0.0018939785 0.5051687021 -0.0017511272 -0.208203396 0.0559351571
45299730.0 -0.206455769 0.0575362374 0.5096496081 -0.0063474937 0.5103704697 -0.0061244669 -0.2036346034 0.0586499881
50299700.0 -0.2022772396 0.0596819136 0.5142382152 -0.0118164517 0.5144044967 -0.011848351 -0.1985499762 0.0604161876
55299670.0 -0.198497712 0.0616716431 0.5182007202 -0.0183534534 0.5179327883 -0.0179595459 -0.1943107483 0.0622437378
60299640.0 -0.1942758225 0.0635546314 0.5211647736 -0.0243177285 0.5214479062 -0.0239939618 -0.1904141477 0.0629459946
65299610.0 -0.1911833819 0.0646749973 0.5241921834 -0.0307307643 0.5239631753 -0.0305021134 -0.1870902301 0.0639866725
70299580.0 -0.1879374292 0.0660693541 0.526605491 -0.0373029473 0.5267792402 -0.0373543524 -0.1836800727 0.0648072258
75299550.0 -0.1850027307 0.0672886765 0.5281185649 -0.0439932022 0.5281465945 -0.0438252533 -0.1808514959 0.0655548826
80299520.0 -0.1823498319 0.0679995351 0.5302497798 -0.0509513767 0.5307324443 -0.0506924554 -0.1785778583 0.0657318144
85299490.0 -0.1799206357 0.0685688074 0.5316617071 -0.0573173056 0.5320461587 -0.0574311657 -0.1762083905 0.0663786838
90299460.0 -0.1777244188 0.0696302332 0.5322232601 -0.0648676438 0.532902838 -0.0646438524 -0.1733864173 0.0668489259
95299430.0 -0.1753814625 0.0705928022 0.5337437866 -0.0714982797 0.5339459551 -0.0716583948 -0.1712616961 0.0671934778
100299400.0 -0.1739376552 0.0716407918 0.5337563792 -0.0781456056 0.5340026976 -0.0786102986 -0.1691522216 0.0676425292
105299370.0 -0.1719148923 0.072390892 0.5341043165 -0.085374067 0.5345171515 -0.0856772452 -0.167472868 0.0680290306
110299340.0 -0.1704915578 0.0730784048 0.5346463513 -0.0922503123 0.5347947555 -0.0918184912 -0.1664406736 0.0685005763
115299310.0 -0.168852371 0.0740879035 0.534927339 -0.0991605957 0.5346110782 -0.0987829114 -0.1648121735 0.0689368725
120299280.0 -0.1674158782 0.074657109 0.534297529 -0.1057670596 0.5341146928 -0.1061370003 -0.16340599 0.0696808153
125299250.0 -0.1663322026 0.075529346 0.5341601643 -0.1122391299 0.5344120987 -0.1123808957 -0.1626633002 0.0700185771
130299220.0 -0.1650662279 0.0766586117 0.5331178011 -0.1190509045 0.5332890125 -0.1195207731 -0.1612322057 0.0706800041
135299190.0 -0.1640382346 0.0779274043 0.5329495996 -0.1257175189 0.5327077035 -0.1258393979 -0.159854398 0.0716200877
140299160.0 -0.1628154901 0.0789270259 0.5320017122 -0.1327557515 0.532276794 -0.1328395562 -0.1592452468 0.0722529906
145299130.0 -0.1616314804 0.0799769462 0.5312285749 -0.1395245964 0.53087597 -0.1388364746 -0.15818487 0.0731240809
150299100.0 -0.1602573793 0.0810839129 0.529833157 -0.1453008048 0.5301282587 -0.1453005345 -0.1572633089 0.0741987186
155299070.0 -0.1595916722 0.082129373 0.5288139532 -0.1527335777 0.5284439494 -0.1525430577 -0.1564922343 0.0748287912
160299040.0 -0.1582734938 0.0835779469 0.5273723588 -0.1589330351 0.5268939674 -0.1587855133 -0.1559335474 0.0759266024
165299010.0 -0.157649722 0.0845952559 0.5260758362 -0.1655766091 0.5261635756 -0.1652457084 -0.1542844452 0.0767898058
170298980.0 -0.1565795003 0.0858207902 0.5242302341 -0.1715673221 0.5246219692 -0.1716815951 -0.1536365245 0.0776928657
175298950.0 -0.1558486514 0.0870591325 0.5232140621 -0.1777084393 0.5225367184 -0.1776813154 -0.1532571595 0.0786401954
180298920.0 -0.1548296192 0.0882859481 0.5212166639 -0.183976976 0.5209841102 -0.1839835213 -0.1524639272 0.0798209284
185298890.0 -0.1532514044 0.0895450843 0.5192005448 -0.1901741976 0.5189499901 -0.1901795572 -0.1514516563 0.0808784293
190298860.0 -0.1528108983 0.0910870844 0.5174674968 -0.1965113085 0.517552441 -0.1965449812 -0.1507253792 0.081529997
195298830.0 -0.151833798 0.0923265183 0.5154301643 -0.2028380975 0.5151957344 -0.2024178509 -0.1499663892 0.0826359518
200298800.0 -0.1508691846 0.0934899305 0.5130917154 -0.2087523172 0.5133374646 -0.2089774067 -0.1497310806 0.0838892385
205298770.0 -0.1496762357 0.0948782007 0.5107903418 -0.2152023174 0.5106947191 -0.2144095263 -0.1487449995 0.0845286932
210298740.0 -0.1490020417 0.0964367128 0.5085711899 -0.2207176046 0.5086140739 -0.2203816033 -0.1475105395 0.0863705527
215298710.0 -0.1485154383 0.0974703757 0.5068222169 -0.2266214333 0.5064678411 -0.2268089789 -0.1474864046 0.0874835045
220298680.0 -0.1472369421 0.098701561 0.5032366686 -0.2325532984 0.5037802557 -0.2324445951 -0.1466845299 0.088332596
225298650.0 -0.146254982 0.1004863454 0.5015446858 -0.2386895695 0.5018400865 -0.2387434401 -0.1461664901 0.0895077291
230298620.0 -0.1450984496 0.1020255257 0.4991338754 -0.2439552971 0.4996746788 -0.2442476834 -0.1456193414 0.0908162312
235298590.0 -0.1440119784 0.1035263616 0.496467673 -0.2500205191 0.4963378927 -0.249400514 -0.1446294484 0.0920255089
240298560.0 -0.1430923686 0.1050099288 0.4938445346 -0.2559625748 0.4937089145 -0.2556851113 -0.1437881702 0.0933567865
245298530.0 -0.1422688492 0.1064198693 0.4913856644 -0.2615857821 0.4909127647 -0.2614957279 -0.1429012808 0.0940936074
250298500.0 -0.1406160414 0.1079922731 0.4875602827 -0.2672849391 0.4874182584 -0.2668046978 -0.1423086282 0.0956230571
255298470.0 -0.1399077587 0.1089340474 0.4845060553 -0.2720765236 0.4854523628 -0.2722750176 -0.1413893278 0.0967798734
260298440.0 -0.1391033041 0.1105713142 0.4820957101 -0.2786833969 0.4823648001 -0.2776781123 -0.1401530671 0.0980990534
265298410.0 -0.1375910323 0.1125052934 0.4788209942 -0.2841163097 0.4791543261 -0.2835316285 -0.1396098068 0.0993298186
270298380.0 -0.1366533052 0.1137408034 0.4761789476 -0.2892137269 0.4763117839 -0.2893167196 -0.1389736502 0.1009273757
275298350.0 -0.1350865064 0.1151124678 0.4728662628 -0.2947635477 0.4734386936 -0.2944124386 -0.1377705499 0.1020126857
280298320.0 -0.1340622814 0.1169501261 0.470031833 -0.3002763131 0.4697058589 -0.2996781655 -0.1365293637 0.1032862134
285298290.0 -0.1326905832 0.1181058685 0.4664429755 -0.3052569185 0.4663996534 -0.3051816058 -0.1360306407 0.104397939
290298260.0 -0.131537573 0.1196321136 0.4630431281 -0.3105500406 0.4634450857 -0.3105513895 -0.1348192943 0.1061102966
295298230.0 -0.1301775519 0.1210759499 0.4601484964 -0.3159613269 0.4598859937 -0.3158851593 -0.1336250244 0.107015848
300298200.0 -0.129444079 0.1226984689 0.4568401043 -0.3210526405 0.456788776 -0.321322897 -0.1328521787 0.1085236256
305298170.0 -0.1276579815 0.1239034588 0.4527514126 -0.326902162 0.4528656133 -0.3261724373 -0.1312654652 0.1095324759
310298140.0 -0.1266148 0.1251232934 0.4494028731 -0.3313192027 0.4495450606 -0.3315293633 -0.1307839716 0.1107179547
315298110.0 -0.125312287 0.1260262997 0.4457153812 -0.3365594843 0.4459885473 -0.3365348394 -0.1297873306 0.1117911569
320298080.0 -0.1238223859 0.1277267921 0.4414542568 -0.3420262891 0.4421570354 -0.3421190593 -0.1288706245 0.1131702612
325298050.0 -0.122716435 0.12905913 0.4381479706 -0.3469942599 0.4380986823 -0.3467667764 -0.1282636367 0.1139437342
330298020.0 -0.1213126586 0.1300419532 0.4337460641 -0.3518104252 0.4342901606 -0.3516440601 -0.1274321552 0.1155067867
335297990.0 -0.1201268786 0.1310940557 0.4298908534 -0.3565024574 0.4300140606 -0.3568375618 -0.1266941993 0.1173352145
340297960.0 -0.1192754506 0.1329874717 0.4256556752 -0.3618225825 0.4256647147 -0.3617062127 -0.1253458205 0.1183021896
345297930.0 -0.1180248588 0.1345392012 0.421664009 -0.3664058744 0.421594718 -0.3661758119 -0.124547643 0.1192899408
350297900.0 -0.1164942317 0.1355402004 0.4168880406 -0.3709953215 0.4174162567 -0.3707741514 -0.1236906679 0.1210868504
355297870.0 -0.1149575416 0.1375887653 0.4132312983 -0.37548041 0.4134471882 -0.3752349101 -0.1225728919 0.1219544359
360297840.0 -0.1136174971 0.1388828572 0.4097060157 -0.3798011489 0.4096938949 -0.3799786421 -0.1213928108 0.1237050038
365297810.0 -0.1125577076 0.1400908091 0.4050754417 -0.3848113626 0.4055086315 -0.384450611 -0.1204413372 0.1250361547
370297780.0 -0.1108245324 0.1414252121 0.4004162424 -0.3886295581 0.4010420513 -0.388475625 -0.1193607194 0.1260832332
375297750.0 -0.1090194369 0.1429052015 0.3963706419 -0.3932412711 0.3968237854 -0.3932333876 -0.1180805785 0.1274559862
380297720.0 -0.1077994173 0.1442320489 0.3918710705 -0.3978941086 0.3924445193 -0.3972829902 -0.1173029512 0.1285115436
385297690.0 -0.1065579949 0.1452962115 0.3876815719 -0.4017650846 0.3873654093 -0.4018925412 -0.1158589702 0.1299893922
390297660.0 -0.1048641438 0.146927554 0.3831643317 -0.4059016287 0.3835588125 -0.4059779299 -0.1151662555 0.1312074168
395297630.0 -0.1033450956 0.1482163502 0.3791839134 -0.4103898136 0.3790936414 -0.410532631 -0.113413213 0.1325089014
400297600.0 -0.1015908904 0.1495293121 0.3741618579 -0.4147299649 0.3744297143 -0.4145992579 -0.112192743 0.1338205344
405297570.0 -0.1003545449 0.1507197588 0.3697814303 -0.4185376059 0.3700186731 -0.4182196252 -0.1113343906 0.1347336706
410297540.0 -0.0984263882 0.1518431857 0.3651284463 -0.42257279 0.3657196695 -0.4225758763 -0.109849553 0.1364191726
415297510.0 -0.0965176129 0.1529769292 0.3606061351 -0.4264531531 0.3606879312 -0.4268224657 -0.1087558169 0.1374616656
420297480.0 -0.0952797786 0.1544945324 0.3558761283 -0.4306238544 0.3559161691 -0.4309264132 -0.1074262476 0.1382993571
425297450.0 -0.0933958029 0.1554267697 0.3509393777 -0.4347610497 0.3512538127 -0.4347209664 -0.1066024844 0.1400883244
430297420.0 -0.0918715675 0.1564178863 0.346572805 -0.4378299265 0.346463019 -0.4378483779 -0.1049513808 0.1405873001
435297390.0 -0.0903053929 0.1577144465 0.3412916557 -0.442022572 0.3416699469 -0.4419701757 -0.1030627907 0.1416734459
440297360.0 -0.0886804225 0.1589671604 0.3366008269 -0.4453983878 0.3368233457 -0.445629747 -0.1022165477 0.1430318467
445297330.0 -0.0869390995 0.1598592226 0.3322037639 -0.4495344031 0.3318466405 -0.4488520397 -0.1007069243 0.1438506117
450297300.0 -0.0847492792 0.1610396084 0.3266015046 -0.4528296011 0.3270188397 -0.4528844278 -0.0991616173 0.1450265092
455297270.0 -0.0832171139 0.1620560607 0.3217917757 -0.4559866866 0.3218461177 -0.4563831551 -0.0981407933 0.145983763
460297240.0 -0.0814748175 0.1630082391 0.3167872832 -0.4590926021 0.3171763112 -0.4597632982 -0.0967813786 0.1473773954
465297210.0 -0.0796546602 0.1645122571 0.3116492652 -0.4633502891 0.3117057431 -0.4633380339 -0.0950961796 0.1480855853
470297180.0 -0.0775141836 0.1650646442 0.3061616081 -0.4665733068 0.3064612844 -0.4665099176 -0.0937803538 0.1493858709
475297150.0 -0.0758976435 0.1657414458 0.3011114238 -0.4691490619 0.3017810165 -0.4695394563 -0.0920297768 0.1500015601
480297120.0 -0.0741002427 0.1675112167 0.2958795431 -0.4733463582 0.2960558839 -0.4736792866 -0.0905754498 0.1512928229
485297090.0 -0.0726089989 0.1682159298 0.2912853883 -0.4762457372 0.291542389 -0.4760621572 -0.0890524412 0.1524097357
490297060.0 -0.0710006003 0.1692778635 0.2861733243 -0.4794608225 0.2861243123 -0.4792222999 -0.0877288906 0.1537145335
495297030.0 -0.068867642 0.1700336265 0.2805245212 -0.4822401855 0.2813732997 -0.4825035759 -0.0863979763 0.1546569556
500297000.0 -0.0667486475 0.1708469566 0.2752782006 -0.4853929948 0.2754095657 -0.4853026835 -0.0847921886 0.1561885504
505296970.0 -0.0647001873 0.1718515466 0.2696352371 -0.4883463051 0.2700497412 -0.4884172567 -0.0833679337 0.156792565
510296940.0 -0.0627757497 0.1726221433 0.2644619469 -0.4915930908 0.2646117944 -0.4914868236 -0.0817835028 0.1579782044
515296910.0 -0.0613814329 0.1735230362 0.2591463637 -0.4939290406 0.2594895965 -0.4941918815 -0.080222235 0.1585879669
520296880.0 -0.0593246648 0.1742680884 0.2538910672 -0.4972979817 0.2543224747 -0.4967153479 -0.0790212589 0.1592101664
525296850.0 -0.0573747299 0.174747888 0.2485450477 -0.4994119681 0.2488889028 -0.4995420512 -0.0771196785 0.1603755724
530296820.0 -0.0556602977 0.1760250451 0.2434016036 -0.5024402193 0.2430143413 -0.502010302 -0.0757313613 0.1610825432
535296790.0 -0.0536991902 0.1766716243 0.2377434925 -0.5045575183 0.2380527091 -0.5043939279 -0.0745506686 0.1619280513
540296760.0 -0.0516129277 0.177430883 0.2321831863 -0.5075084624 0.2321411941 -0.5073703771 -0.0727327445 0.1632014553
545296730.0 -0.0499840916 0.1779412652 0.2261605416 -0.5097023672 0.2267773974 -0.5100023535 -0.0715072195 0.1637955015
550296700.0 -0.0475863622 0.1784928847 0.2209331625 -0.5123035799 0.2209266098 -0.5121206609 -0.0698512034 0.1646383068
555296670.0 -0.0458327036 0.179523442 0.2156212362 -0.5145224017 0.2156127136 -0.5146378258 -0.0682111784 0.1659367149
560296640.0 -0.0435913479 0.1803919446 0.2096024081 -0.5172381562 0.2099172132 -0.5168514385 -0.0663863755 0.1663391063
565296610.0 -0.0418529311 0.1808851845 0.2040289184 -0.5191702141 0.2045257622 -0.5191487868 -0.0649159987 0.1670136444
570296580.0 -0.0403707984 0.1814683036 0.1986143672 -0.5218444931 0.1978397922 -0.5214322042 -0.0635250405 0.16812752
575296550.0 -0.038190529 0.1822395777 0.192942682 -0.5236893806 0.1929997362 -0.5238165114 -0.0618061794 0.1687498378
580296520.0 -0.0357686175 0.1823043821 0.1869682336 -0.5254841895 0.1873968471 -0.5254300154 -0.0598312921 0.1695246997
585296490.0 -0.0339010214 0.1827969801 0.1815075947 -0.5273963513 0.1819170607 -0.5275325296 -0.0586362885 0.1700730882
590296460.0 -0.0316073786 0.1834125522 0.1757094755 -0.5288114414 0.1759407225 -0.5293193102 -0.0573963772 0.1710037353
595296430.0 -0.029816321 0.1840947482 0.1696506316 -0.5314586833 0.1701260031 -0.5309729397 -0.0551943864 0.1711396083
600296400.0 -0.028046352 0.1843324011 0.1643683896 -0.532873697 0.1644419517 -0.5330640442 -0.054203671 0.1721683341
605296370.0 -0.0261183066 0.184851019 0.1579616636 -0.5345194581 0.1586893008 -0.5349812682 -0.0518035446 0.1730134775
610296340.0 -0.0238327774 0.1853808365 0.1521906798 -0.5363653515 0.1527026502 -0.5365003629 -0.0501129299 0.1734396102
615296310.0 -0.0215665044 0.1857070884 0.1466599128 -0.5379481195 0.1464912997 -0.5383349784 -0.0480215562 0.1739950414
620296280.0 -0.0194846103 0.1857856119 0.1407407063 -0.5392066395 0.1408745301 -0.5389830134 -0.0470057016 0.1747993748
625296250.0 -0.017999465 0.1861132716 0.1357009 -0.5412733394 0.1352434028 -0.5413898427 -0.0445560237 0.1753937185
630296220.0 -0.0150995555 0.1866488275 0.1286821293 -0.5424011707 0.1291669153 -0.5420389014 -0.0433348142 0.1761169135
635296190.0 -0.0139124419 0.1867191524 0.1235397937 -0.5433839466 0.1232504155 -0.5433241689 -0.0414682924 0.1765707056
640296160.0 -0.0117370983 0.1873193656 0.1175495258 -0.5447329355 0.1178515424 -0.5451602619 -0.039791976 0.1768967209
645296130.0 -0.0095147846 0.1873873682 0.1110316441 -0.5456551071 0.1118030386 -0.5462745771 -0.0378803697 0.1777711339
650296100.0 -0.007342319 0.187555591 0.1050999401 -0.5468622055 0.1054640993 -0.5472921109 -0.0358209881 0.1777483155
655296070.0 -0.0057003272 0.1880229026 0.0996625763 -0.5484990403 0.0997248797 -0.5484395818 -0.0341609767 0.1785943209
660296040.0 -0.0036923244 0.1878964375 0.0941134931 -0.5495878978 0.0937620283 -0.5494867196 -0.0324154959 0.1790903364
665296010.0 -0.0010136662 0.1880905543 0.087305711 -0.5498308965 0.0875757995 -0.5501705663 -0.0305336087 0.1799845849
670295980.0 0.0002686705 0.188604267 0.0820745396 -0.5506347829 0.0818537598 -0.5508351661 -0.0294835489 0.180183863
675295950.0 0.0027518334 0.1885987578 0.0759271458 -0.5514815031 0.0763663622 -0.5515329327 -0.0279706046 0.1808259022
680295920.0 0.0045259004 0.1885022054 0.0696133975 -0.5523385927 0.0696202173 -0.5531589179 -0.0261254761 0.1819305392
685295890.0 0.0069817554 0.1890888556 0.0638620819 -0.5533755977 0.0635555784 -0.5535274792 -0.0240592845 0.181363775
690295860.0 0.0092122243 0.1887526198 0.0574647196 -0.5533482259 0.058084783 -0.5543145101 -0.0224107403 0.1829775086
695295830.0 0.01111203 0.1887071014 0.0522136193 -0.5542952791 0.0515485129 -0.5544474185 -0.0203140495 0.1827895292
700295800.0 0.013158299 0.1887852114 0.0456786763 -0.5548477496 0.0457415428 -0.55462502 -0.0194327117 0.1833873004
705295770.0 0.0150331658 0.1892410937 0.0394776559 -0.5555808686 0.04033008 -0.5553475716 -0.0172196992 0.1833656017
710295740.0 0.0175119161 0.1886812471 0.033805684 -0.5561442731 0.0345306995 -0.5564384921 -0.0152879206 0.1834492357
715295710.0 0.0191011384 0.1885707216 0.0283902269 -0.5562342726 0.0278453361 -0.5560545508 -0.0135712719 0.1836509719
720295680.0 0.0214573307 0.1884994385 0.0221572644 -0.5566311234 0.0223532408 -0.556468505 -0.0115412975 0.1843327755
725295650.0 0.023464345 0.1886180654 0.0159449616 -0.5568621641 0.0162780213 -0.5566748323 -0.0105607506 0.1846575614
730295620.0 0.0256026747 0.1887439132 0.009946153 -0.5564230891 0.0101518858 -0.5567548101 -0.0085902149 0.1845725442
735295590.0 0.0276976516 0.1885666218 0.0044495983 -0.5569121869 0.0040744542 -0.5566755935 -0.0070387531 0.184820393
740295560.0 0.0296701643 0.1887166552 -0.0024162131 -0.5569427595 -0.0021736237 -0.5565044227 -0.0042794682 0.1852654368
745295530.0 0.0317263323 0.1886670637 -0.0082138303 -0.5564080681 -0.0079683762 -0.5566051777 -0.0029529034 0.1851375855
750295500.0 0.0339546299 0.1879272497 -0.0139028894 -0.5561585808 -0.0135738164 -0.5564858869 -0.0011812927 0.185393519
755295470.0 0.0359784752 0.1874107878 -0.0195607432 -0.5562916715 -0.0197561787 -0.5562376264 0.0011543175 0.1853116302
760295440.0 0.0378404889 0.187383161 -0.0257713405 -0.5560084105 -0.0258764699 -0.556555904 0.0024648022 0.1854688242
765295410.0 0.0401432995 0.1868518116 -0.032193065 -0.555551707 -0.0323492964 -0.5561662102 0.004381814 0.1860247421
770295380.0 0.0419481673 0.1866817998 -0.0381348087 -0.5552335672 -0.0380292576 -0.5551916958 0.0060342062 0.1860224416
775295350.0 0.0437614523 0.1858899614 -0.0439837567 -0.5544250811 -0.0436418602 -0.5549367016 0.0072935008 0.1860849991
780295320.0 0.0462118211 0.1860051609 -0.0499848436 -0.5536141488 -0.0494233802 -0.5540944073 0.0095299719 0.1858336271
785295290.0 0.0477095603 0.1850988177 -0.0560388863 -0.5533077363 -0.0556261149 -0.5537212945 0.0119188751 0.1864512015
790295260.0 0.0502800177 0.1854973623 -0.0613783501 -0.553001278 -0.0610282089 -0.5527643533 0.0133398843 0.1864294407
795295230.0 0.0522862304 0.1848279307 -0.0681567597 -0.5518748183 -0.0672571091 -0.55226049 0.0156814581 0.1865450943
800295200.0 0.0538328115 0.1845396317 -0.0741068216 -0.5511236466 -0.073583926 -0.5511509246 0.017142919 0.1860877655
805295170.0 0.0565326743 0.1837221444 -0.079663576 -0.550683254 -0.0795828125 -0.5507072869 0.0188673773 0.1862146889
810295140.0 0.0583607487 0.1830400768 -0.0855990438 -0.5493453896 -0.0853423708 -0.5497233949 0.0211908548 0.186500472
815295110.0 0.0602727741 0.1823917364 -0.0916970071 -0.5482812457 -0.0911208799 -0.548511353 0.0226345199 0.186391562
820295080.0 0.0620373236 0.1825158232 -0.0970492757 -0.5474819005 -0.096904904 -0.5476508977 0.0246446073 0.1863844082
825295050.0 0.0649033105 0.1817627703 -0.1031015224 -0.5461303954 -0.1029804256 -0.5462061506 0.0264849977 0.1863294904
830295020.0 0.066350716 0.1811482829 -0.1091431148 -0.5450715863 -0.1088431357 -0.5452194301 0.0289857235 0.1862774578
