!Created with skrf (http://scikit-rf.org).
# Hz S RI R 50.0 
!freq ReS11 ImS11 ReS21 ImS21 ReS12 ImS12 ReS22 ImS22
300000.0 -0.2393959285 -0.1025637778 0.4671100115 0.0682027547 0.4674316318 0.072128622 -0.2346524274 -0.1127282969
5299970.0 -0.2437792489 0.0071473996 0.4737701041 0.0050875491 0.4737279003 0.0058483145 -0.2439439442 0.0059171029
10299940.0 -0.2404061961 0.0195455286 0.4761029972 0.0066705552 0.4757063218 0.0065898623 -0.2409075992 0.018162167
15299910.0 -0.2361674065 0.0293724631 0.4794762747 0.0079968406 0.4794650389 0.007850723 -0.2364851103 0.0275256846
20299880.0 -0.2304173597 0.0369757425 0.4839471051 0.0085334628 0.4841213806 0.0083047319 -0.231928871 0.0354808023
25299850.0 -0.2247837407 0.0435947144 0.4895538667 0.007106339 0.4896480443 0.0071680692 -0.2265861946 0.041873965
30299820.0 -0.2188518941 0.0484939155 0.4952961082 0.0055506572 0.4946268065 0.0052649375 -0.2214027596 0.0472538375
35299790.0 -0.2129316566 0.0527533408 0.5004033106 0.0021843144 0.5002843348 0.0022107681 -0.2159408176 0.0510504328
40299760.0 -0.2074164168 0.0556160388 0.5053969071 -0.0015176227 0.5055299278 -0.0015277939 -0.2114049604 0.0545413171
45299730.0 -0.2027351957 0.0585364801 0.5105593135 -0.0064180778 0.5103287048 -0.0064495388 -0.2064443107 0.057519224
50299700.0 -0.1974243618 0.0601741288 0.5136910916 -0.0120636819 0.5145990405 -0.0123316951 -0.2018345641 0.0598050384
55299670.0 -0.1935821835 0.0617548014 0.517668238 -0.0178536899 0.5183324989 -0.0179023608 -0.1984429438 0.0615574243
60299640.0 -0.189173357 0.0626505481 0.5210360253 -0.0244692593 0.5215772774 -0.0242356405 -0.1945027706 0.0633703987
65299610.0 -0.1859587089 0.0638728251 0.5243137528 -0.0301091194 0.5245579402 -0.0306010174 -0.1908549605 0.0647021437
70299580.0 -0.1826293698 0.0642906582 0.5269070086 -0.0368825591 0.5267894266 -0.0371257406 -0.1881250919 0.0656859626
75299550.0 -0.1797510937 0.0649519015 0.5287603213 -0.0442048028 0.5286672268 -0.0441952415 -0.1848002416 0.0670450737
80299520.0 -0.1770860018 0.0658244253 0.5312312929 -0.0508200118 0.5310098133 -0.0509333263 -0.1825897669 0.0675429809
85299490.0 -0.1746342497 0.06590783 0.532345069 -0.0579502443 0.5322287493 -0.0579135992 -0.1802710664 0.0683999971
90299460.0 -0.1725042638 0.066662725 0.5327389894 -0.0646365405 0.5333032858 -0.0646147509 -0.1776885707 0.069248132
95299430.0 -0.1704760423 0.0671160132 0.5337720084 -0.0721202374 0.5342651781 -0.0718882539 -0.1758606387 0.07060729
100299400.0 -0.1687719548 0.0676346054 0.5342021797 -0.0784768159 0.5342313109 -0.078702258 -0.1739893903 0.0707736356
105299370.0 -0.1667704225 0.0681000539 0.5343883936 -0.0852940499 0.5348590588 -0.0856617151 -0.1722887871 0.0721027432
110299340.0 -0.165357815 0.0686681018 0.5345834895 -0.0922781769 0.5347643694 -0.0925040432 -0.1705782919 0.072742309
115299310.0 -0.1637807914 0.0687102476 0.5345646513 -0.0989757155 0.5353409861 -0.0989642739 -0.1693192338 0.0731947547
120299280.0 -0.1629765908 0.0694366319 0.5347990542 -0.1057809757 0.5349001208 -0.1060910088 -0.1680017752 0.0742052897
125299250.0 -0.1619435845 0.0700672621 0.5344115948 -0.1124801693 0.5341000311 -0.1129714942 -0.1664710753 0.0750494431
130299220.0 -0.1604397362 0.0706424885 0.5336675086 -0.1193178898 0.5335108785 -0.1191111153 -0.165133311 0.0757272475
135299190.0 -0.1594472098 0.070919392 0.532996788 -0.1258100298 0.5326584316 -0.1263036422 -0.1643220729 0.0770903557
140299160.0 -0.1587144343 0.0722557531 0.5321599326 -0.1328754619 0.532606497 -0.1328797725 -0.1630717743 0.0780657599
145299130.0 -0.1575557365 0.0725979968 0.5315564154 -0.1391677827 0.531373619 -0.1392097232 -0.1622877732 0.0787662857
150299100.0 -0.1564484183 0.073417964 0.5302468826 -0.1459885248 0.5303947393 -0.1455056744 -0.1610268736 0.0796536805
155299070.0 -0.1558505142 0.0748164993 0.5290524395 -0.1528525945 0.5289982549 -0.1525890412 -0.1601891933 0.080798821
160299040.0 -0.1550010211 0.0754390298 0.5272494751 -0.1584081291 0.5279491055 -0.1589065347 -0.1589199542 0.0823879162
165299010.0 -0.1542990519 0.0761332738 0.5265183528 -0.1651849537 0.5261722412 -0.165470804 -0.1578209949 0.0833061947
170298980.0 -0.1535995613 0.0773166628 0.5240894204 -0.1714826257 0.5244449826 -0.1719312901 -0.1568599906 0.0842472026
175298950.0 -0.1527513987 0.0780772526 0.5233620284 -0.1776946969 0.5232446227 -0.1778208657 -0.1558367114 0.0854260803
180298920.0 -0.1518208188 0.0792850224 0.5215923236 -0.1843425401 0.5214638223 -0.184002679 -0.1550674306 0.0869976283
185298890.0 -0.1508561642 0.0803003398 0.5194333857 -0.190660693 0.5198072633 -0.1903738028 -0.1544962176 0.0880890586
190298860.0 -0.1504051068 0.0811344778 0.5177866773 -0.1965850264 0.51797849 -0.1968283399 -0.1527225416 0.0892398675
195298830.0 -0.1495944295 0.0820191924 0.5155521558 -0.2023111642 0.5157624408 -0.2028361558 -0.1518304957 0.0902414477
200298800.0 -0.1488098105 0.083477719 0.5134497564 -0.208609435 0.5135248868 -0.2086948504 -0.1506254297 0.0922719368
205298770.0 -0.148007891 0.0846991423 0.5113360099 -0.2148375511 0.5117214018 -0.2147950379 -0.1500377116 0.0929773265
210298740.0 -0.1475630462 0.0855244097 0.5092989363 -0.2211210799 0.5093497433 -0.2210140386 -0.1490721728 0.0947377417
215298710.0 -0.1465788779 0.087009907 0.5068016579 -0.2266645244 0.5069411258 -0.2267723748 -0.148600872 0.0961630056
220298680.0 -0.1460349908 0.0879652914 0.5041996356 -0.2327778962 0.5047654106 -0.2326557445 -0.1473650831 0.0975981857
225298650.0 -0.1449385491 0.0891207502 0.5014587847 -0.2381399706 0.5018079191 -0.2384607948 -0.1460705805 0.0991120222
230298620.0 -0.1445901159 0.0906177498 0.4996733542 -0.2442920398 0.4995983979 -0.2439922747 -0.1450849204 0.1000858737
235298590.0 -0.1435912094 0.0916242919 0.4969214699 -0.24960275 0.4969900606 -0.2504367332 -0.1439470507 0.1014249128
240298560.0 -0.1431551645 0.0929198884 0.4940732432 -0.2556671234 0.4944297062 -0.2556173093 -0.143259869 0.1032439794
245298530.0 -0.1419258738 0.0941998432 0.4905373861 -0.2613237753 0.4911091104 -0.2615308643 -0.1417668472 0.1047613394
250298500.0 -0.1411736398 0.0952462569 0.4883282629 -0.2667604909 0.4885541664 -0.2666137238 -0.140456152 0.1061850623
255298470.0 -0.1404664574 0.0966424573 0.485494584 -0.272533178 0.4856618589 -0.2727117129 -0.1395733151 0.1071503448
260298440.0 -0.1395268114 0.0981413762 0.4825456361 -0.2779078999 0.4827460027 -0.2785362662 -0.1380359038 0.1089593763
265298410.0 -0.1384026634 0.0994680232 0.4792398826 -0.2841939961 0.4794127557 -0.2841499848 -0.1375156139 0.1098554555
270298380.0 -0.1377029833 0.1004645489 0.4762093395 -0.2892324948 0.4766595069 -0.2894636242 -0.135947194 0.1119523387
275298350.0 -0.1370925016 0.101958591 0.4730592874 -0.2948649073 0.473691238 -0.2951242494 -0.1347767177 0.1134621348
280298320.0 -0.1363329332 0.1034065632 0.4697660403 -0.2996329071 0.4698436546 -0.3002666391 -0.1336131147 0.1148506329
285298290.0 -0.1351002246 0.1047349838 0.4667228771 -0.3052105791 0.4667528016 -0.3056724158 -0.1324151716 0.1163720205
290298260.0 -0.1342271164 0.1059252851 0.463739771 -0.3104581768 0.4634917598 -0.3107749996 -0.1305971716 0.1179342666
295298230.0 -0.1331171968 0.1070127499 0.4602828825 -0.3157975103 0.459838889 -0.3161162701 -0.1293460972 0.1192955096
300298200.0 -0.1317550426 0.1082425924 0.4564269538 -0.3212781572 0.4568292463 -0.3210868622 -0.1281537484 0.1205951886
305298170.0 -0.1309130022 0.1096220401 0.4534453001 -0.3265975815 0.4538067466 -0.3268784304 -0.126526199 0.1222181251
310298140.0 -0.1296597934 0.1106138552 0.4498678794 -0.3319598852 0.4500805405 -0.3321793221 -0.125337328 0.1238430754
315298110.0 -0.1294472228 0.112068253 0.4459714057 -0.3367129378 0.4465740262 -0.3373891197 -0.1239040489 0.1252177692
320298080.0 -0.128167074 0.1131152656 0.4421029457 -0.3421232525 0.4423944928 -0.3419999127 -0.1222249721 0.126285453
325298050.0 -0.1273286691 0.1138985588 0.4386966945 -0.3471433036 0.4389127766 -0.3476191034 -0.1211162742 0.1275711704
330298020.0 -0.1264089268 0.1156762287 0.4340239666 -0.3522174376 0.4344153599 -0.3522134106 -0.1204063816 0.1286058272
335297990.0 -0.1253624321 0.1164649241 0.4304652604 -0.3568044101 0.4302766657 -0.3572183816 -0.1191046985 0.13030722
340297960.0 -0.1247486355 0.1180981439 0.4258108246 -0.3617997752 0.4263192545 -0.3617369981 -0.1177558356 0.1318929926
345297930.0 -0.1238322768 0.1195445489 0.4222741376 -0.366111951 0.4219525862 -0.3662566799 -0.1159154379 0.1330827823
350297900.0 -0.1221300441 0.1209282854 0.4180106076 -0.3710632103 0.4183467505 -0.3713153838 -0.1149633043 0.1350483866
355297870.0 -0.1214429128 0.1220661347 0.4141029026 -0.3755570011 0.4138046683 -0.3756013617 -0.1134268365 0.1362557539
360297840.0 -0.1203455807 0.1233432016 0.4099660067 -0.3799553885 0.4096564563 -0.3804771781 -0.1119847748 0.1378194859
365297810.0 -0.1188268891 0.124776145 0.4053356859 -0.3848361677 0.4058250795 -0.3849600693 -0.1109600008 0.1396342134
370297780.0 -0.1177730521 0.1255561555 0.4008417892 -0.3889039466 0.4013011518 -0.3894337451 -0.1092367835 0.1409935313
375297750.0 -0.1169032053 0.1275603477 0.3971453112 -0.3934122638 0.3969097438 -0.3933928195 -0.1073658161 0.1423639284
380297720.0 -0.1155163576 0.1285310265 0.3924903582 -0.3978233276 0.3925087055 -0.3979546882 -0.1061174738 0.1441163656
385297690.0 -0.1142254717 0.129804397 0.3880037257 -0.4015949573 0.38769745 -0.4021445703 -0.1043258356 0.1453255863
390297660.0 -0.1132842445 0.130905558 0.3835057271 -0.4064247563 0.3835792518 -0.4067962581 -0.102925994 0.1461851932
395297630.0 -0.1116065767 0.1319689245 0.3794720882 -0.4099998618 0.3789927623 -0.4106349112 -0.1012615701 0.1479419828
400297600.0 -0.1108059566 0.1337018368 0.3745746712 -0.4144724859 0.3747405002 -0.4151385624 -0.1006181686 0.1489442103
405297570.0 -0.1092678915 0.134766393 0.3697866022 -0.4193418636 0.3707506777 -0.4192527311 -0.09854668 0.1507939438
410297540.0 -0.107738638 0.1357879944 0.3651139636 -0.422927478 0.3652139525 -0.4229665368 -0.0967124562 0.1517601378
415297510.0 -0.1066609665 0.1375610627 0.3608971001 -0.4268734432 0.360858777 -0.4267652149 -0.0953262648 0.1533172104
420297480.0 -0.1051409361 0.1381264288 0.3558791551 -0.4310446491 0.3560436684 -0.430645315 -0.0934687207 0.1539700283
425297450.0 -0.1036860002 0.1391045879 0.3511295386 -0.4346902324 0.3517321344 -0.4347889026 -0.0916383905 0.1558474562
430297420.0 -0.1025567839 0.1405465059 0.3464909402 -0.4392048047 0.3466993887 -0.4386812023 -0.0903042262 0.1567433755
435297390.0 -0.1012317129 0.1415186951 0.3421902553 -0.4420012993 0.3418638627 -0.4422181289 -0.0885264654 0.1581968606
440297360.0 -0.099763114 0.1425620197 0.3364182566 -0.445778291 0.3363629704 -0.4459033349 -0.0870185487 0.1587273696
445297330.0 -0.0981079545 0.1436904731 0.3312735936 -0.4500442692 0.332008614 -0.4497213424 -0.0851148621 0.1604077376
450297300.0 -0.0967855719 0.1445330899 0.3266492465 -0.4532477413 0.3271363594 -0.4531324489 -0.0832946293 0.161598476
455297270.0 -0.0956525836 0.145883099 0.3225012611 -0.4567285307 0.3224847523 -0.4565674489 -0.0814571175 0.1627910793
460297240.0 -0.0946279682 0.1469607999 0.3171305681 -0.4602687871 0.3169371411 -0.4603714315 -0.0798367215 0.1640310224
465297210.0 -0.0923951138 0.1477635071 0.3119821107 -0.4634648035 0.3121570412 -0.4636591291 -0.0782823986 0.1649791327
470297180.0 -0.0913638405 0.148776932 0.3069044277 -0.4668843685 0.3073167791 -0.4668421336 -0.0769278691 0.1657684402
475297150.0 -0.0900124265 0.1497029659 0.3013667184 -0.4698389114 0.3018048134 -0.4700051029 -0.0746399213 0.1672459873
480297120.0 -0.0884492147 0.1505925855 0.2963833412 -0.4729173198 0.2968513497 -0.4731665961 -0.0727533467 0.1685075711
485297090.0 -0.086660434 0.1518106918 0.2914179559 -0.4770628414 0.2916020937 -0.4771117149 -0.0713708803 0.1689229116
490297060.0 -0.0853265681 0.1524552274 0.2865048655 -0.4797015112 0.28634414 -0.479570042 -0.0691895214 0.1700455201
495297030.0 -0.084048056 0.1538398655 0.2806424527 -0.4828745813 0.2807566922 -0.4829186323 -0.0675512876 0.1706896776
500297000.0 -0.0824330631 0.1544066102 0.2753466397 -0.4859783057 0.2754496268 -0.4856317843 -0.0658299394 0.1718174982
505296970.0 -0.0811438317 0.1551153889 0.269758643 -0.4880222929 0.2699946527 -0.4886103534 -0.0646086383 0.1729497817
510296940.0 -0.0796351299 0.1565228086 0.2646736604 -0.4916884633 0.2650982187 -0.4916572519 -0.0618051539 0.17396269
515296910.0 -0.0781522079 0.1575849935 0.2595572594 -0.4942257479 0.259605467 -0.4945711702 -0.0602891892 0.1744063891
520296880.0 -0.0764867311 0.1579465228 0.2538430922 -0.4969858187 0.2543442221 -0.496770046 -0.0578687465 0.1754244196
525296850.0 -0.0750520111 0.1588023584 0.2487626039 -0.5001701298 0.2487488532 -0.5001802459 -0.0560381258 0.1762525744
530296820.0 -0.0736543855 0.1596313986 0.2436319135 -0.5017134206 0.2434369807 -0.5024253859 -0.0548352377 0.1767172259
535296790.0 -0.0719215914 0.1604398322 0.2377230663 -0.5048594684 0.2378522064 -0.5044011412 -0.05292091 0.1773649818
540296760.0 -0.0704512481 0.161200182 0.232460529 -0.5076196267 0.2322046839 -0.507967941 -0.0512653825 0.1786503107
545296730.0 -0.0688473759 0.162262566 0.2264600695 -0.5099834769 0.2268055596 -0.5102557429 -0.0490499414 0.1787530195
550296700.0 -0.0674151659 0.1631043766 0.2214598931 -0.5123790433 0.2216921812 -0.5127046179 -0.0472880511 0.1800000197
555296670.0 -0.0653971827 0.1638647142 0.2155803094 -0.5149493328 0.2161031103 -0.5149264368 -0.0454729401 0.1807470256
560296640.0 -0.0639601855 0.1641532787 0.2101025464 -0.5166566583 0.2102227107 -0.5166993782 -0.0431408885 0.1814542376
565296610.0 -0.0628571918 0.1653523454 0.2046013088 -0.5191332714 0.2042414892 -0.5193339498 -0.0414056066 0.1819210412
570296580.0 -0.0606540574 0.1657778905 0.1985846419 -0.5210964169 0.1989826661 -0.5216190634 -0.0393445817 0.1830667437
575296550.0 -0.0593784091 0.1668164342 0.1933201523 -0.5235705275 0.1936750573 -0.5233253992 -0.0372698222 0.1832384628
580296520.0 -0.0578390901 0.1673223521 0.1878917978 -0.5254161794 0.1874223492 -0.525746541 -0.0354098629 0.1836059125
585296490.0 -0.0559595415 0.1676683225 0.1823685348 -0.5275069054 0.1820066757 -0.5276570733 -0.0333742548 0.1837603265
590296460.0 -0.0548173629 0.1683157678 0.1761440604 -0.5292427125 0.1757402656 -0.5298662319 -0.0310704615 0.1843700789
595296430.0 -0.0528612362 0.1695130997 0.1705916377 -0.5314844449 0.1702609525 -0.5315450427 -0.0291333744 0.1853301399
600296400.0 -0.0512880812 0.1701282693 0.1643129809 -0.5330880754 0.1650063118 -0.5331472306 -0.0273011818 0.1859931736
605296370.0 -0.0495985684 0.1708944603 0.1589806081 -0.5348841557 0.1589269257 -0.534749243 -0.0255494019 0.1861461919
610296340.0 -0.0477550158 0.1714933876 0.153426769 -0.5363304392 0.1533817297 -0.5368390418 -0.0233869509 0.1872154985
615296310.0 -0.0462918781 0.1720749212 0.147137401 -0.5378267705 0.1473305729 -0.5383785115 -0.0211289729 0.1872774065
620296280.0 -0.0447487711 0.1725131082 0.1414768457 -0.5393532472 0.1418203469 -0.5395056979 -0.0192384008 0.1873235237
625296250.0 -0.0426998141 0.1729953623 0.1354896583 -0.5411615081 0.1356288583 -0.5413172257 -0.0173296168 0.1881319622
630296220.0 -0.041083763 0.1735846916 0.1296512654 -0.5425785435 0.1300981874 -0.5425393302 -0.0153613219 0.188416721
635296190.0 -0.0392220584 0.1742578327 0.1235330981 -0.5435174662 0.123788549 -0.5433828332 -0.0133040741 0.188468132
640296160.0 -0.0376883051 0.1747898181 0.1184084521 -0.5449243862 0.118113023 -0.5455453941 -0.0111352608 0.1886940749
645296130.0 -0.03638939 0.1754304506 0.1120150225 -0.5460600289 0.1120532309 -0.5460289027 -0.0093150682 0.1888062648
650296100.0 -0.0345957809 0.1763194829 0.1066294456 -0.5472040687 0.106524424 -0.5474169303 -0.0072190092 0.1891310149
655296070.0 -0.0330019735 0.1761823562 0.1004409491 -0.5483525463 0.1001330281 -0.5486133296 -0.0045719211 0.1898951449
660296040.0 -0.0316240881 0.1770497533 0.0945080998 -0.5491823043 0.0943311335 -0.5496421712 -0.0029285951 0.1895527387
665296010.0 -0.0293426366 0.1771767854 0.0886960289 -0.5504773069 0.0891440572 -0.5502721329 -0.0010311292 0.1901844565
670295980.0 -0.0272979928 0.1778525415 0.0826586001 -0.5509735893 0.0826808221 -0.5512487989 0.0006173138 0.1898505054
675295950.0 -0.0255107573 0.1782950991 0.076746248 -0.5522485938 0.0764736704 -0.552457403 0.0032661295 0.1905203433
680295920.0 -0.023874929 0.1789436502 0.0704063514 -0.5530009124 0.0704194574 -0.5529876646 0.005198529 0.190026461
685295890.0 -0.0224030894 0.1791124422 0.0648630836 -0.5538196244 0.0645114612 -0.5537818325 0.0074062356 0.1905096509
690295860.0 -0.0201412254 0.1793844417 0.0587277375 -0.5540189393 0.0579969612 -0.5541208611 0.009765548 0.1906350056
695295830.0 -0.0185692189 0.1796105444 0.0517385903 -0.5547769895 0.0521681528 -0.5547850906 0.0112564289 0.1906196713
700295800.0 -0.016649958 0.1796928876 0.0462717907 -0.5554463273 0.0463086115 -0.5555789349 0.0132735114 0.190179522
705295770.0 -0.014825683 0.1804898401 0.0404857588 -0.5556062557 0.0406221339 -0.5557521403 0.0153219193 0.1908999599
710295740.0 -0.0136358559 0.18093736 0.0347087904 -0.556355016 0.0344455804 -0.5560796453 0.0169089042 0.1908615596
715295710.0 -0.0117984711 0.1808624792 0.0288637878 -0.5564161275 0.0287647619 -0.5563312581 0.019450412 0.1903088882
720295680.0 -0.0097710963 0.1809380111 0.0221526129 -0.5564316117 0.0226117167 -0.5570767198 0.0217721689 0.1905296179
725295650.0 -0.0080437983 0.181592707 0.0165011525 -0.5566464223 0.0165070424 -0.5571198671 0.0238103931 0.1904158745
730295620.0 -0.00652822 0.1815228342 0.0101333275 -0.5567989387 0.010222 -0.5568769466 0.0259361838 0.1899971214
735295590.0 -0.0043017274 0.1817108763 0.0048755066 -0.5569614278 0.0049736242 -0.5571322129 0.0278523236 0.1899415456
740295560.0 -0.0028052674 0.1822842987 -0.0013532327 -0.556609119 -0.0012794468 -0.5567051326 0.0302675372 0.1898274064
745295530.0 -0.0007041621 0.1820208146 -0.0076340832 -0.556832424 -0.0073438915 -0.557156642 0.0318816921 0.1900271922
750295500.0 0.0008207023 0.1824653121 -0.0133056475 -0.5569621938 -0.013500293 -0.5568500676 0.0340881954 0.1892835683
755295470.0 0.0031642451 0.1826737503 -0.0195241404 -0.5561501654 -0.019370249 -0.5565970472 0.0356276711 0.1893710366
760295440.0 0.0044909113 0.1826368238 -0.0255998027 -0.5561466229 -0.0255217049 -0.5562015181 0.0375767466 0.1891093383
765295410.0 0.0061639832 0.1826481908 -0.0312294774 -0.5557644373 -0.0313519362 -0.5559330304 0.0405697869 0.1888143233
770295380.0 0.0082814843 0.1828755069 -0.0372792125 -0.5553498301 -0.0374431576 -0.5556199804 0.0425870576 0.1884312303
775295350.0 0.009996408 0.183108192 -0.0435696413 -0.5548677372 -0.0433716872 -0.5548344563 0.0440166895 0.1877704919
780295320.0 0.0121150862 0.1827118302 -0.0492584647 -0.5544683676 -0.0491082265 -0.5548450319 0.0464369266 0.1878405274
785295290.0 0.0135405207 0.1833075599 -0.0552419101 -0.5532503528 -0.0550432969 -0.5540324557 0.0478361816 0.1874745644
790295260.0 0.0153608848 0.1832395563 -0.0613193726 -0.5535846889 -0.0614126559 -0.5534555294 0.0506348268 0.1868538901
795295230.0 0.0170530114 0.1833516999 -0.0667019399 -0.5520508345 -0.0668962624 -0.5526854764 0.0524998365 0.1872057098
800295200.0 0.0190662362 0.1832087889 -0.073716108 -0.5518218191 -0.0734635444 -0.5517880164 0.0544333074 0.1863658596
805295170.0 0.0204384487 0.1831197957 -0.078670314 -0.5503638443 -0.0790067917 -0.5505708967 0.0561407835 0.1854423889
810295140.0 0.0225342875 0.183216023 -0.0849541923 -0.5501939781 -0.0846026518 -0.5505698201 0.0585106528 0.1856908191
815295110.0 0.0245503154 0.1830069731 -0.0910954196 -0.5485123783 -0.0909772578 -0.5490171271 0.0601857912 0.1846683165
820295080.0 0.0259816448 0.1825621018 -0.096636063 -0.547755415 -0.0966467675 -0.5483213471 0.0620686412 0.1843028425
825295050.0 0.0280418194 0.1827345761 -0.1025129367 -0.5462981477 -0.1027341736 -0.5466157504 0.0647452258 0.1838495276
830295020.0 0.0296694099 0.1830676627 -0.108402866 -0.5460019665 -0.1089414808 -0.5460648567 0.0665994107 0.1832576323
