!Created with skrf (http://scikit-rf.org).
# Hz S RI R 50.0 
!freq ReS11 ImS11 ReS21 ImS21 ReS12 ImS12 ReS22 ImS22
300000.0 -0.2356839058 -0.1174082445 0.4670272186 0.0772698439 0.464130122 0.0786169495 -0.2343149942 -0.123014692
5299970.0 -0.245063327 0.0055936867 0.4735215897 0.005752809 0.4740972123 0.0059082822 -0.2435943125 0.0048432504
10299940.0 -0.2416921151 0.0185674993 0.4760528237 0.0069803981 0.4758891307 0.0071094763 -0.2405021003 0.0182846314
15299910.0 -0.2369473406 0.0284921622 0.4792229238 0.0078876208 0.479661371 0.0085776219 -0.236161789 0.0274097148
20299880.0 -0.2315505695 0.0363028667 0.4841713157 0.0082788459 0.4845359491 0.0084673771 -0.2311661982 0.0352899312
25299850.0 -0.2256065003 0.0427569357 0.4896083087 0.0082914019 0.4898990866 0.0076941913 -0.2260286278 0.0415724036
30299820.0 -0.2201155783 0.0475976422 0.4949532236 0.0056517536 0.4951101562 0.005483279 -0.2207077816 0.047076319
35299790.0 -0.214335455 0.0516666701 0.500172941 0.0025519302 0.500601353 0.0023386722 -0.2157985392 0.0514522349
40299760.0 -0.2093494035 0.0548524934 0.5058026435 -0.0017861281 0.5057136792 -0.0015517851 -0.2109120837 0.054773478
45299730.0 -0.204305299 0.0571184122 0.5105054673 -0.0057109806 0.5106700038 -0.0063950147 -0.2058598496 0.0573779796
50299700.0 -0.1990850379 0.0589879351 0.5146911614 -0.0120602949 0.5144810778 -0.0117595641 -0.2013258625 0.060163834
55299670.0 -0.1950543291 0.0606053686 0.5184486304 -0.0173934603 0.5183026768 -0.0178425114 -0.197705924 0.0618883345
60299640.0 -0.1908860139 0.0616468579 0.5221651654 -0.0241168187 0.5219403478 -0.0240422878 -0.1938511221 0.0633521954
65299610.0 -0.1873115202 0.0626596692 0.5250819367 -0.0304477517 0.5248221337 -0.030364703 -0.1901969957 0.0646427426
70299580.0 -0.1839025265 0.0629412924 0.5270616373 -0.0366583992 0.5274242341 -0.0368515361 -0.1874587996 0.0658251263
75299550.0 -0.181255693 0.0638433446 0.5288437047 -0.0442030333 0.5291689688 -0.0440387694 -0.1841017209 0.0671095022
80299520.0 -0.1782359969 0.0645683921 0.5308918109 -0.0507165058 0.5311949814 -0.050867541 -0.1815321314 0.0682945583
85299490.0 -0.1760278125 0.0647997846 0.5325622365 -0.0575825158 0.5325972425 -0.0574461205 -0.1794187171 0.068628234
90299460.0 -0.1735917443 0.0651272342 0.5331079208 -0.0643469226 0.5331603381 -0.0646435735 -0.1770126483 0.0696110973
95299430.0 -0.1713412385 0.0657767807 0.534145609 -0.071658449 0.5342028466 -0.0718780168 -0.174640212 0.0706674054
100299400.0 -0.169632049 0.0660687638 0.534817065 -0.0780359266 0.5346309646 -0.0786150369 -0.1734078886 0.0718796194
105299370.0 -0.1675925677 0.0667373377 0.5347866751 -0.0854520352 0.5354637237 -0.0851902346 -0.1711141044 0.0722436581
110299340.0 -0.1660878073 0.0667927386 0.5352762814 -0.0917369045 0.535360816 -0.0919916131 -0.1699100112 0.0732545821
115299310.0 -0.1644310294 0.0676059956 0.5351738591 -0.098539016 0.5351286607 -0.0988622842 -0.1685056433 0.0743990528
120299280.0 -0.163547741 0.0685349798 0.5354091022 -0.1059186344 0.5349862533 -0.1062525806 -0.1667260446 0.0746419848
125299250.0 -0.1619792232 0.0689780502 0.5345340992 -0.1127581032 0.5345521007 -0.1122069064 -0.1652678029 0.076134631
130299220.0 -0.1607155276 0.0691820458 0.5342667139 -0.1196428606 0.5342265693 -0.1195253956 -0.1642016283 0.0769397297
135299190.0 -0.1596048515 0.070359614 0.5335387176 -0.1258062409 0.5338264915 -0.1261299073 -0.1629965941 0.0774984774
140299160.0 -0.1585357006 0.0708881095 0.5328672307 -0.1331713154 0.5327774784 -0.1324617922 -0.1622951541 0.0786962292
145299130.0 -0.1579969416 0.0718708165 0.5318453251 -0.1391043663 0.5315745267 -0.1392333339 -0.1612331072 0.0798149501
150299100.0 -0.1567229205 0.0724881156 0.5305332787 -0.1457320218 0.5308882443 -0.1458149871 -0.1602148655 0.0814309039
155299070.0 -0.1556142272 0.0733817208 0.5289603748 -0.1519487285 0.529660072 -0.1523092113 -0.1585813158 0.0821284371
160299040.0 -0.1548353394 0.0746377531 0.5281327 -0.158742958 0.5278926496 -0.1590016099 -0.1579889228 0.0834264223
165299010.0 -0.1539601917 0.0752394617 0.5268024252 -0.1649288351 0.5266172285 -0.1653290171 -0.1567205112 0.0843585726
170298980.0 -0.1530861045 0.0760433036 0.524703761 -0.1714318584 0.5251944598 -0.171576238 -0.1560454546 0.0856216205
175298950.0 -0.1522225807 0.0773898224 0.5235837483 -0.1778224383 0.523845988 -0.1779806048 -0.1552405585 0.0876474089
180298920.0 -0.1513918646 0.0785555435 0.5217406869 -0.1843845891 0.5214181243 -0.1844145392 -0.1542659205 0.0884414813
185298890.0 -0.150895049 0.0794647371 0.5202234448 -0.1903201973 0.5199375378 -0.1901056877 -0.1530450163 0.0893274512
190298860.0 -0.1499078758 0.0808744382 0.5178268509 -0.1965984895 0.518168691 -0.1965339301 -0.152212398 0.0907973663
195298830.0 -0.1494183024 0.0819766704 0.5164747324 -0.2027012397 0.5163808782 -0.2027231684 -0.1516858312 0.0920872433
200298800.0 -0.1483183459 0.0827608578 0.5141098893 -0.2095084233 0.5138756493 -0.2090640204 -0.1502508384 0.0935007788
205298770.0 -0.1480231492 0.0838805782 0.5115615215 -0.2146310134 0.5119166229 -0.2145830453 -0.1491953082 0.0949323563
210298740.0 -0.1470548193 0.0852696071 0.5097191307 -0.220672022 0.5092708231 -0.2209388387 -0.1488402438 0.09625252
215298710.0 -0.1460503284 0.0866965404 0.5071297329 -0.2264325361 0.5071337661 -0.2267197519 -0.1476004253 0.0976480893
220298680.0 -0.1451476808 0.0877754718 0.5043055476 -0.2325628719 0.5043419511 -0.2325837148 -0.1465849705 0.0988036393
225298650.0 -0.1446901949 0.0892571422 0.5017372905 -0.2383035834 0.5024515031 -0.2380599525 -0.1457783386 0.100509189
230298620.0 -0.1435674716 0.0904644375 0.4997297075 -0.244420362 0.4999808349 -0.2444402268 -0.144866862 0.1017081958
235298590.0 -0.1435734453 0.0918880183 0.4972644096 -0.2503586069 0.4973072133 -0.2502622714 -0.1434913031 0.1031844001
240298560.0 -0.1422650303 0.0931942913 0.4943185595 -0.2555757729 0.4944795383 -0.2557122989 -0.1427470625 0.1045081858
245298530.0 -0.1416780872 0.0942977272 0.4915524383 -0.2617871489 0.4915110842 -0.2617643992 -0.1416207249 0.1060877316
250298500.0 -0.1405151175 0.095412878 0.4887150008 -0.267110726 0.4890863961 -0.2668593826 -0.1408509969 0.1077277236
255298470.0 -0.1398302897 0.0972742238 0.4863332726 -0.2727103612 0.4866114236 -0.2727615986 -0.1393446006 0.1093858472
260298440.0 -0.1391123122 0.0979725226 0.4830632115 -0.2780165154 0.4832426276 -0.278017321 -0.1386215757 0.1104800639
265298410.0 -0.1384971819 0.0995840507 0.4797417875 -0.2838822356 0.4797788884 -0.2840023353 -0.1368531966 0.1116472174
270298380.0 -0.137897567 0.1008995176 0.4770332226 -0.289266208 0.4772084699 -0.2892669124 -0.1360790981 0.1134811604
275298350.0 -0.136757885 0.1024301401 0.4734809692 -0.2945418224 0.4736512913 -0.2943511848 -0.1350845317 0.1147521858
280298320.0 -0.1361640501 0.1036718138 0.4707573261 -0.2993856736 0.4707828432 -0.2999506039 -0.1337465146 0.1162727519
285298290.0 -0.1353947492 0.1050170344 0.4671165894 -0.3052938748 0.4675200359 -0.3049850635 -0.1326429067 0.1180667352
290298260.0 -0.1344247449 0.1064714912 0.464423276 -0.3104780538 0.464348421 -0.310775888 -0.1314355808 0.1192948939
295298230.0 -0.1333640017 0.1075936145 0.4607164434 -0.3159379945 0.4610487834 -0.316205079 -0.1302561243 0.1205835464
300298200.0 -0.1325443751 0.109071905 0.4573302588 -0.3213279279 0.4577021024 -0.321003764 -0.1289381828 0.1221232223
305298170.0 -0.1315495887 0.1097814188 0.4540964681 -0.3264605435 0.4540898871 -0.3265015442 -0.1273109547 0.1231550891
310298140.0 -0.1301870944 0.1111844027 0.4502687928 -0.3315654033 0.4505226379 -0.3311548336 -0.1258192774 0.1242473659
315298110.0 -0.1294844988 0.1121607905 0.4467824763 -0.3371397298 0.4470240007 -0.3367557214 -0.1249254621 0.1257292488
320298080.0 -0.1285453515 0.1135469172 0.4428642912 -0.3420289453 0.4432149709 -0.3423263676 -0.12363845 0.1270144043
325298050.0 -0.1282634645 0.1143795552 0.4387677071 -0.346625567 0.4396808256 -0.3469206161 -0.1222717613 0.1282992522
330298020.0 -0.1277533853 0.1162253084 0.4351304118 -0.3520827149 0.4357058174 -0.3520618893 -0.1214826414 0.1295218763
335297990.0 -0.1266066506 0.1173321739 0.4309482442 -0.3565158188 0.431508407 -0.3565972895 -0.1202069935 0.1309368896
340297960.0 -0.1258054697 0.1184969429 0.4267045547 -0.361485118 0.4267411075 -0.3615437592 -0.118747399 0.1325895572
345297930.0 -0.1247584174 0.1198600595 0.4229402458 -0.3664420506 0.4228552448 -0.3663945303 -0.1174296083 0.1338677481
350297900.0 -0.1241601913 0.1211389879 0.4192652913 -0.3706426028 0.4193772691 -0.3705311904 -0.1161271919 0.1349955419
355297870.0 -0.1230747585 0.1226874906 0.4151077951 -0.3753947154 0.4149958021 -0.3753352759 -0.1146109164 0.1366949492
360297840.0 -0.1219242558 0.1238310984 0.4102950902 -0.3797230346 0.4110743715 -0.3802691689 -0.1134973172 0.1382421115
365297810.0 -0.121085699 0.1254322631 0.4066773172 -0.3843938605 0.4063966113 -0.3846527816 -0.1121359132 0.1392904027
370297780.0 -0.1199964703 0.1264354679 0.4016716305 -0.3893112773 0.4023736531 -0.388883623 -0.1106182336 0.1408062836
375297750.0 -0.1191659617 0.1279360301 0.3982820384 -0.3929147228 0.3980159305 -0.3935156429 -0.1089853807 0.1420648714
380297720.0 -0.1181334746 0.1293561131 0.393848697 -0.3982124428 0.3936189524 -0.3978530125 -0.1076512884 0.1436559303
385297690.0 -0.1169540889 0.1300724954 0.389086189 -0.401542511 0.3894641343 -0.4021865639 -0.1060296937 0.1452123293
390297660.0 -0.1157560168 0.131317037 0.3847968862 -0.4059173619 0.3848516746 -0.4064276231 -0.1041336823 0.14592609
395297630.0 -0.1142282648 0.1328224395 0.3805117094 -0.4100440235 0.3805322353 -0.4100148009 -0.1029595706 0.1473539808
400297600.0 -0.1135432761 0.1337458422 0.3757832392 -0.4147693573 0.3760623793 -0.414525108 -0.1010949169 0.1486354965
405297570.0 -0.1121658722 0.1348003163 0.3710378598 -0.418684874 0.3713417634 -0.4188020716 -0.0995026968 0.1501457617
410297540.0 -0.1110122581 0.1362725476 0.3667185972 -0.4226934086 0.3667952217 -0.4223922876 -0.0980381574 0.1512118314
415297510.0 -0.1098865173 0.1372553966 0.3617443637 -0.4266111589 0.3625319718 -0.4267776865 -0.0961984537 0.1526284191
420297480.0 -0.1088397013 0.1382179315 0.3576106529 -0.4307743061 0.3575028664 -0.4306145856 -0.0946722096 0.154155519
425297450.0 -0.107178144 0.139525498 0.3527418417 -0.4344258851 0.3526477246 -0.4345505934 -0.0930238627 0.1544473038
430297420.0 -0.1060762601 0.1410209359 0.3486042005 -0.438826501 0.3481952607 -0.4379678436 -0.090805106 0.1559845122
435297390.0 -0.1047019713 0.141854263 0.3429666486 -0.44269248 0.3430167808 -0.4422255896 -0.0895801199 0.1574888365
440297360.0 -0.1030743298 0.1425904522 0.3379019489 -0.4457644813 0.3380673928 -0.445712208 -0.0879336723 0.1582971953
445297330.0 -0.1018728977 0.1434199165 0.3333220438 -0.4493533726 0.3336198728 -0.4499490579 -0.0859220694 0.1598514382
450297300.0 -0.1003907193 0.1449025627 0.3285328773 -0.4530211033 0.3288181993 -0.4532381599 -0.0840026721 0.1607460836
455297270.0 -0.0994531378 0.1459362625 0.323879485 -0.4566596734 0.3238361481 -0.4567562552 -0.0824357072 0.1620655621
460297240.0 -0.0979076606 0.1471892058 0.3186741033 -0.4608728125 0.3184632705 -0.4605584626 -0.0804388752 0.1627689114
465297210.0 -0.0963071167 0.1478226651 0.3127887024 -0.4641208509 0.3130892517 -0.4640229977 -0.0785676613 0.1643873315
470297180.0 -0.0950983963 0.1489552044 0.3081192883 -0.4668711003 0.3085035342 -0.4670655603 -0.0770342284 0.1647218799
475297150.0 -0.0939374846 0.1503092218 0.3033260705 -0.470340201 0.3030440806 -0.4706453148 -0.0748542575 0.1661813099
480297120.0 -0.0915954196 0.1512518044 0.2975484702 -0.4739676825 0.2979108063 -0.47371576 -0.0732967861 0.1670628211
485297090.0 -0.0904918968 0.152037453 0.2925951969 -0.4771136708 0.2927993146 -0.4765854548 -0.0712981601 0.1679621949
490297060.0 -0.0886032912 0.1530317172 0.2869429314 -0.4802775798 0.2876645958 -0.4801553093 -0.0695292004 0.1686763679
495297030.0 -0.0875741095 0.1535986218 0.2826424414 -0.4831289767 0.2821827204 -0.4834005834 -0.0672676611 0.1694339383
500297000.0 -0.0862968167 0.1552374242 0.2769456043 -0.486175092 0.2770484481 -0.4866238666 -0.0656659891 0.1707986286
505296970.0 -0.0840346987 0.1559388075 0.2717797841 -0.4895262602 0.2718059898 -0.4891405833 -0.0636347723 0.1712475591
510296940.0 -0.0829955515 0.1568203496 0.2666560836 -0.4930600809 0.2664556505 -0.4924646009 -0.0612088757 0.1725484568
515296910.0 -0.0813570261 0.157907194 0.2606844641 -0.4950548711 0.2604959553 -0.4947748481 -0.0597642599 0.1725810641
520296880.0 -0.0796584761 0.1588291491 0.255459068 -0.4977169613 0.2551645916 -0.4977368655 -0.0574020638 0.1741973131
525296850.0 -0.078013964 0.1593602661 0.250168852 -0.5006591851 0.2495600038 -0.5005122585 -0.0554187507 0.1745804745
530296820.0 -0.0766290017 0.1602889459 0.2442611218 -0.5030170923 0.2445306736 -0.50310899 -0.0536477949 0.1747987599
535296790.0 -0.0741866946 0.1612872782 0.2390363959 -0.505841125 0.2390564541 -0.5058700946 -0.0515658732 0.176170952
540296760.0 -0.0729178929 0.1623756827 0.2332931782 -0.5084445149 0.2330372418 -0.5080202156 -0.0496176894 0.1764476964
545296730.0 -0.0717820207 0.1633260192 0.2278296373 -0.5107018653 0.2275019792 -0.5104821931 -0.0473839175 0.1771967858
550296700.0 -0.069314279 0.1640477846 0.2221795135 -0.5130786862 0.2220385751 -0.5133940582 -0.0455122927 0.178032788
555296670.0 -0.0681880656 0.1649456204 0.2167774953 -0.5158243154 0.2165968525 -0.5156892893 -0.0436992113 0.178229393
560296640.0 -0.0659337914 0.1654604099 0.2110135016 -0.5176375953 0.2113205423 -0.5179342541 -0.0415419936 0.1797644308
565296610.0 -0.064982607 0.1666328234 0.205791313 -0.5203790209 0.205756986 -0.5196277325 -0.0395452076 0.1799942161
570296580.0 -0.0629254333 0.1676494788 0.1995860051 -0.5223151743 0.1997500737 -0.5223357573 -0.0377139647 0.1802446152
575296550.0 -0.0613648196 0.1681994338 0.1941562406 -0.524742936 0.1939951219 -0.5244917401 -0.035514425 0.1808607607
580296520.0 -0.0595358648 0.1691524891 0.1885505643 -0.5263040671 0.1884596033 -0.52638605 -0.0337828271 0.1811576421
585296490.0 -0.0577951712 0.1700217876 0.1830909339 -0.5283970575 0.1824355646 -0.5280925622 -0.0312076808 0.1821617392
590296460.0 -0.055236105 0.1703818616 0.1768098079 -0.5306812139 0.1769011192 -0.5306866167 -0.0295879659 0.1825345087
595296430.0 -0.054039239 0.1711327624 0.1706026896 -0.5322966551 0.1708767824 -0.53198464 -0.0274457804 0.1829034183
600296400.0 -0.052115526 0.1719663222 0.1648293164 -0.5337007357 0.1647696726 -0.5341101826 -0.0249957378 0.183142258
605296370.0 -0.0509437373 0.1727309603 0.1598544684 -0.5352769419 0.1592307323 -0.5356503859 -0.0232261835 0.1835092055
610296340.0 -0.048362028 0.1739390519 0.1536870181 -0.5368058315 0.1536198636 -0.537189945 -0.021401761 0.1840992164
615296310.0 -0.0468892927 0.1742950175 0.1478304664 -0.5390737774 0.1473911391 -0.5390623963 -0.01885494 0.1846406117
620296280.0 -0.0455347593 0.1753299978 0.1418246608 -0.5406769117 0.1414705414 -0.5403884806 -0.0171585099 0.1852531115
625296250.0 -0.0437584453 0.1757063148 0.1359247739 -0.5424985543 0.1360555055 -0.5419178677 -0.0149826669 0.184987824
630296220.0 -0.0418541639 0.176572812 0.1298247501 -0.5432159605 0.1297396312 -0.5431078917 -0.0128862122 0.1857460654
635296190.0 -0.0401226483 0.1772705078 0.1243585302 -0.544356396 0.1240699309 -0.5445917903 -0.011077035 0.1856675421
640296160.0 -0.0384988242 0.1777616026 0.1184187961 -0.5460229749 0.1184372285 -0.5460460385 -0.0093718795 0.1860046919
645296130.0 -0.0362371857 0.1787596842 0.1122981551 -0.5469227483 0.1122945692 -0.5468628755 -0.0068072159 0.1859274313
650296100.0 -0.0345288909 0.1789747439 0.1064549795 -0.5487586262 0.1059305696 -0.5485265682 -0.004378143 0.1863422483
655296070.0 -0.0330236276 0.1796588707 0.100181429 -0.5496060131 0.100702688 -0.5490671502 -0.0031224651 0.1864777894
660296040.0 -0.0313346146 0.180585978 0.0947177087 -0.5507489166 0.094405916 -0.5505020792 -0.0004299339 0.186468427
665296010.0 -0.0293281861 0.1808943835 0.0879918401 -0.5509309423 0.088107375 -0.5512662287 0.0013468675 0.1868130414
670295980.0 -0.027537253 0.1814946965 0.0822643448 -0.5525201178 0.0826487715 -0.5517520737 0.003008455 0.186808719
675295950.0 -0.0260990415 0.1818679001 0.0765901744 -0.552840252 0.0765850472 -0.5531529241 0.0053492357 0.1869693588
680295920.0 -0.0242495648 0.182771254 0.0710046879 -0.5537584783 0.0704138639 -0.5538424059 0.007898945 0.1869650464
685295890.0 -0.0220344901 0.183132829 0.0645611544 -0.5546858007 0.0645831519 -0.5546196905 0.0097186672 0.1873283438
690295860.0 -0.0207749804 0.1837542019 0.0586750743 -0.5551379688 0.058283267 -0.5551135255 0.0116056004 0.1872475553
695295830.0 -0.0189413029 0.1837099241 0.0529345012 -0.5558549581 0.0525848235 -0.5555895381 0.013834452 0.1873619364
700295800.0 -0.0170536449 0.184571271 0.047107521 -0.556243512 0.0466330733 -0.5563598659 0.0159930212 0.1872326452
705295770.0 -0.0152747282 0.1850212823 0.0406561499 -0.5571676784 0.0406481262 -0.5567608634 0.0179202812 0.1876380704
710295740.0 -0.0135119174 0.1851271728 0.0347315563 -0.5568619456 0.0345214751 -0.557278673 0.0202653016 0.1876060401
715295710.0 -0.0117711775 0.1859008121 0.0290982238 -0.5578601024 0.028555078 -0.5574599451 0.0220698928 0.1873127687
720295680.0 -0.0096489435 0.1860284737 0.0222449082 -0.5574940556 0.0224340456 -0.5581415235 0.0242623306 0.186991916
725295650.0 -0.0084429676 0.1868549648 0.0171723361 -0.5580462387 0.0167560231 -0.5579235362 0.0259738898 0.1872404045
730295620.0 -0.0071235652 0.1868108645 0.010863133 -0.5579423347 0.0108442266 -0.5574701828 0.027926292 0.1872051953
735295590.0 -0.0050285159 0.1872571429 0.0048577771 -0.5579469832 0.0048162151 -0.5578591138 0.0301525714 0.1868983
740295560.0 -0.0034636717 0.1871747847 -0.0009121306 -0.558004628 -0.0012029262 -0.5583031889 0.0321933444 0.1866131506
745295530.0 -0.001731575 0.1879884795 -0.0071786852 -0.557436652 -0.0066673654 -0.557867248 0.0337108893 0.1865462237
750295500.0 -0.0001055428 0.1881495796 -0.0127711458 -0.5579760897 -0.0135338563 -0.5579287565 0.035988495 0.1863423068
755295470.0 0.001613184 0.1882889124 -0.0185530055 -0.557831158 -0.0190439599 -0.5581580989 0.0383523088 0.1865899961
760295440.0 0.0033530437 0.1888778247 -0.0255280651 -0.5573942569 -0.0251073082 -0.556912904 0.040463331 0.1853440082
765295410.0 0.0051641675 0.1885641082 -0.0311752654 -0.5568611176 -0.0310127311 -0.5570613817 0.0424719184 0.1854846903
770295380.0 0.0070492461 0.1891446976 -0.0367151784 -0.556403187 -0.0369674485 -0.5569731495 0.0439242652 0.1851614073
775295350.0 0.008634946 0.1891021098 -0.0429213435 -0.5561212426 -0.0429081338 -0.5560951637 0.0464764475 0.1849615275
780295320.0 0.0107615355 0.1893707941 -0.0487720141 -0.5551680745 -0.048781153 -0.5552360454 0.0485773581 0.1845724415
785295290.0 0.0120243999 0.1893167108 -0.0549141597 -0.5551486256 -0.0547268042 -0.5552142698 0.0500647595 0.1845622552
790295260.0 0.0140566178 0.1894171422 -0.0605808276 -0.5545799851 -0.0607691988 -0.5546831405 0.0521698139 0.1844346272
795295230.0 0.0156884513 0.1892418799 -0.0666840245 -0.553971906 -0.0670939571 -0.5539244008 0.0544332831 0.1832213354
800295200.0 0.0171799987 0.1898313224 -0.0722938384 -0.5527524741 -0.0726909428 -0.553025858 0.0561285512 0.1827551186
805295170.0 0.0188692546 0.1897187075 -0.0783294758 -0.5518610147 -0.0785765241 -0.5524089451 0.0589169425 0.1824731528
810295140.0 0.0208246867 0.1897743353 -0.0840667481 -0.5511177471 -0.0847900421 -0.551146926 0.060792516 0.1818108306
815295110.0 0.0223848798 0.1897731943 -0.0899394569 -0.5501520845 -0.0899210093 -0.5504138288 0.062306878 0.1816319899
820295080.0 0.0242565066 0.1895037235 -0.0957376417 -0.5492174661 -0.0958446849 -0.5492475184 0.0637449628 0.1815436626
825295050.0 0.0256938311 0.189399597 -0.1018277702 -0.5483881094 -0.1021993131 -0.5481164874 0.0664465206 0.1809236829
830295020.0 0.0277260535 0.1896293673 -0.1078024456 -0.546924218 -0.1080788943 -0.5472028711 0.0682126415 0.1798016925
