!Created with skrf (http://scikit-rf.org).
# Hz S RI R 50.0 
!freq ReS11 ImS11 ReS21 ImS21 ReS12 ImS12 ReS22 ImS22
300000.0 -0.3238349419 -0.0878847354 0.3766015676 0.0440140273 0.3746164447 0.0455190469 -0.3194907107 -0.1024674583
5299970.0 -0.3265980457 0.0045164386 0.3782560177 0.0024586268 0.3781162307 0.0027749179 -0.323368174 0.0048638938
10299940.0 -0.3242961023 0.0133474561 0.3794072535 0.0020526337 0.3794263732 0.0023642514 -0.3210522665 0.0158720609
15299910.0 -0.3213922961 0.0203127744 0.3817389916 0.0019807525 0.3819755494 0.0022387145 -0.3180478084 0.0236542677
20299880.0 -0.3189987475 0.0262468848 0.3849332402 0.001968085 0.3847768364 0.0016766895 -0.3147999495 0.0303705343
25299850.0 -0.3156440009 0.0314819055 0.3881282546 6.85177e-05 0.3880547422 0.0002437359 -0.3106555353 0.0361269939
30299820.0 -0.312672555 0.035711 0.3914118509 -0.0022024452 0.3917484916 -0.0023335192 -0.3071060284 0.0413053718
35299790.0 -0.3099146897 0.0399761963 0.3947515183 -0.005450771 0.3948146081 -0.005394507 -0.3033779423 0.0456025897
40299760.0 -0.3071466429 0.0434869759 0.3976936387 -0.008874176 0.3980764554 -0.0086531272 -0.3001109789 0.0485298104
45299730.0 -0.3047405058 0.046746662 0.400777196 -0.012815762 0.4011049817 -0.0126970741 -0.2971293443 0.0522460576
50299700.0 -0.3024366574 0.0495159581 0.4033970217 -0.0173226693 0.4034951891 -0.0172698352 -0.2941116976 0.0547392778
55299670.0 -0.300497553 0.0522381365 0.405883069 -0.022452005 0.4051296927 -0.0221707072 -0.2914357828 0.0575199248
60299640.0 -0.2980854325 0.0550867277 0.4074625804 -0.0270973653 0.4075830133 -0.0268230744 -0.2892302992 0.0596314173
65299610.0 -0.2964467125 0.0572169847 0.4090684254 -0.0317603078 0.4090296309 -0.0319171064 -0.286855839 0.0618589279
70299580.0 -0.2945791347 0.0603072964 0.4104851692 -0.0372584195 0.4104791575 -0.0369921087 -0.285302046 0.0638926921
75299550.0 -0.2929841901 0.0626356943 0.4112021904 -0.0420752435 0.4113899879 -0.0423151911 -0.2833755924 0.0658642424
80299520.0 -0.2916607367 0.0650394655 0.4123921286 -0.0477287188 0.4125137008 -0.0476405575 -0.2817879567 0.0684405889
85299490.0 -0.2904120853 0.0671400662 0.4129567221 -0.052606995 0.4128729983 -0.0526006186 -0.2802153862 0.0701062093
90299460.0 -0.288990348 0.0694517236 0.4128241741 -0.0581749647 0.4135071833 -0.058189896 -0.2787560471 0.0720965299
95299430.0 -0.2873344794 0.0715136223 0.4138475093 -0.063208388 0.413484083 -0.0634532816 -0.276867471 0.0743855907
100299400.0 -0.2862343846 0.0740149259 0.4130173222 -0.0686087108 0.4130321887 -0.068668399 -0.2748522884 0.0764139299
105299370.0 -0.2853001177 0.0764447105 0.4131989313 -0.0738254241 0.4133976849 -0.0736879598 -0.2738694112 0.0782325944
110299340.0 -0.2842605339 0.0787784507 0.4133800014 -0.0786520835 0.413175151 -0.0785924189 -0.2728249748 0.0800472314
115299310.0 -0.2829934683 0.0810823149 0.4127831018 -0.0838402581 0.412805821 -0.0837845237 -0.2717200088 0.0823078222
120299280.0 -0.2821563752 0.0831958706 0.4124428006 -0.0891774699 0.4125886161 -0.0891963517 -0.2706542789 0.0844940654
125299250.0 -0.280906539 0.0855575684 0.411980868 -0.0939044649 0.4119746959 -0.0937513363 -0.2693952872 0.0863304236
130299220.0 -0.2803678025 0.0883635812 0.4110121546 -0.0994022079 0.4112112047 -0.0990202488 -0.2682462071 0.0882137748
135299190.0 -0.2793026128 0.0906967789 0.4105529543 -0.1044558614 0.410200984 -0.1038633622 -0.2668006081 0.0907142979
140299160.0 -0.2783198465 0.0934713398 0.4096583586 -0.1095267284 0.4094945178 -0.1090961889 -0.2658300833 0.0934631184
145299130.0 -0.2773962665 0.0956869468 0.4089913934 -0.1138545081 0.408661019 -0.1139319839 -0.2652117683 0.0955446252
150299100.0 -0.2762621994 0.0984775786 0.407427832 -0.1187537059 0.4076102953 -0.1184841428 -0.2640173025 0.0984198242
155299070.0 -0.2755777197 0.1007247962 0.4067242731 -0.124291499 0.4066264465 -0.1238664308 -0.2626205858 0.1004894572
160299040.0 -0.274867078 0.1036208058 0.4052552316 -0.1284477894 0.4052684563 -0.1286939659 -0.2625871537 0.1029100841
165299010.0 -0.2737357327 0.106105925 0.4041656029 -0.1340434019 0.4040956368 -0.1338177582 -0.2608769406 0.105733446
170298980.0 -0.2724509486 0.1087190035 0.4026485869 -0.1384193224 0.4031970906 -0.1383924286 -0.2601364673 0.1081667593
175298950.0 -0.2718661014 0.1112902925 0.4016574133 -0.1429936961 0.4014588178 -0.1431437206 -0.2592139067 0.1105755896
180298920.0 -0.2708578854 0.1141237036 0.3999011869 -0.1480301936 0.3999195165 -0.1479331342 -0.2583475304 0.1134815213
185298890.0 -0.2697879203 0.1162107021 0.3984805643 -0.1526195708 0.3982263387 -0.1523332435 -0.2568415944 0.1161469359
190298860.0 -0.2689962762 0.1194086298 0.3970661242 -0.1572863716 0.3972408627 -0.1571368957 -0.2561198014 0.1184004065
195298830.0 -0.2679707861 0.1218126083 0.3953530468 -0.161838668 0.3952668534 -0.1618165616 -0.2548889501 0.1210212041
200298800.0 -0.2663933417 0.1245682988 0.3935312139 -0.1665766926 0.393486779 -0.1667936901 -0.2541423411 0.1237334744
205298770.0 -0.2654848298 0.1272459193 0.3911920379 -0.1712265753 0.3916060099 -0.1712729129 -0.253124012 0.1258136089
210298740.0 -0.2647916771 0.1297881905 0.3896279809 -0.1752706677 0.3898290634 -0.1753652066 -0.2518909148 0.1287427446
215298710.0 -0.2636973725 0.1329208706 0.3880530771 -0.1804222935 0.3877413548 -0.1802406647 -0.2511066113 0.1313799184
220298680.0 -0.2621847695 0.1350347592 0.3858279968 -0.1843443502 0.3858370421 -0.184462422 -0.2500866708 0.1335353907
225298650.0 -0.2612523503 0.1380221149 0.3835680053 -0.1893160687 0.3840617302 -0.1890028046 -0.2489709751 0.1361963971
230298620.0 -0.2598120879 0.1408385216 0.3819647223 -0.1934014544 0.3823541555 -0.193507804 -0.2479027295 0.1387017255
235298590.0 -0.2582177822 0.1438888786 0.3800584053 -0.1977709548 0.3801101645 -0.197597714 -0.2469652095 0.1413249723
240298560.0 -0.2573202981 0.1464591168 0.3777549739 -0.2025079034 0.377542243 -0.2024042745 -0.2454702961 0.1442129752
245298530.0 -0.2558751659 0.1490687718 0.3758058241 -0.20661323 0.3756370134 -0.2067310873 -0.2443655435 0.1459315957
250298500.0 -0.2546350084 0.1521368436 0.3724319559 -0.211379186 0.3727076434 -0.2109534087 -0.242987344 0.1486216885
255298470.0 -0.2533125712 0.1541387347 0.3705076947 -0.2149663547 0.3705146822 -0.2151918917 -0.2414368279 0.151028785
260298440.0 -0.2519190404 0.1567848639 0.3683183084 -0.2196153062 0.3686579893 -0.2195514813 -0.2397011019 0.1539056544
265298410.0 -0.2502526333 0.1602161892 0.3657421575 -0.2242213667 0.366219688 -0.2233912384 -0.2384854515 0.1562001592
270298380.0 -0.2486919377 0.1623574844 0.3636334774 -0.2271821235 0.3637930168 -0.2276963841 -0.2370643651 0.158449229
275298350.0 -0.2472239118 0.1651643922 0.3607725486 -0.231848417 0.3612359447 -0.2318569202 -0.2349937486 0.1610157245
280298320.0 -0.2449783112 0.1679509832 0.3584274246 -0.2357856459 0.3586489733 -0.2356940654 -0.2336394065 0.1633452247
285298290.0 -0.2436089443 0.1708346656 0.3560993889 -0.2399209445 0.3558239607 -0.2397874264 -0.2317879136 0.1657240075
290298260.0 -0.2417334234 0.1733444154 0.35303037 -0.2440996782 0.3532876346 -0.2438490186 -0.2301165693 0.1684098014
295298230.0 -0.2400652091 0.1755320201 0.3503496724 -0.2479319187 0.350576744 -0.2479965067 -0.2281924135 0.1703917606
300298200.0 -0.238566947 0.1782384219 0.3481359573 -0.2516294467 0.3479117766 -0.2519924501 -0.2266130772 0.1733055074
305298170.0 -0.2363917343 0.1805081442 0.3448676143 -0.2560385406 0.3449533181 -0.2558320829 -0.22450996 0.175594362
310298140.0 -0.2349488723 0.1834660154 0.3421803565 -0.2595286075 0.3422976482 -0.2595793816 -0.22295907 0.1781091728
315298110.0 -0.2329978216 0.1858925599 0.3392786629 -0.263418917 0.3395006011 -0.2636805234 -0.2209541563 0.1802790321
320298080.0 -0.2311713989 0.1881491603 0.3357311069 -0.267517929 0.336474211 -0.2674006492 -0.219178864 0.1829131454
325298050.0 -0.2292250242 0.1908219731 0.3334952298 -0.2714556716 0.3334632072 -0.2712693167 -0.2178840984 0.185182131
330298020.0 -0.227252411 0.1930507157 0.3299902847 -0.2750807386 0.330244051 -0.27514022 -0.2157537648 0.1874919121
335297990.0 -0.2253569863 0.1953570636 0.327222441 -0.2784013173 0.3270296904 -0.2789508221 -0.2142550814 0.1906759485
340297960.0 -0.2239781505 0.198240197 0.3239280496 -0.282183563 0.3237030318 -0.2824253379 -0.2118528239 0.1929227423
345297930.0 -0.2221051648 0.2008176957 0.3204515011 -0.2859788047 0.3201658119 -0.2860789012 -0.2101463679 0.1948455245
350297900.0 -0.2203558539 0.2030977003 0.3171209644 -0.2895161435 0.3169653837 -0.2891020421 -0.2085311455 0.1980418533
355297870.0 -0.2178874001 0.2062789398 0.314047689 -0.2933045893 0.3141949827 -0.2925772272 -0.2067269793 0.2001280627
360297840.0 -0.2157592444 0.2085021923 0.3111721093 -0.2964027382 0.3112585088 -0.2962464005 -0.2046481495 0.2026156978
365297810.0 -0.2140831443 0.2109725173 0.3075533389 -0.2996649991 0.3077615436 -0.2998194968 -0.202194414 0.2052114184
370297780.0 -0.2118513638 0.2132275219 0.3040798677 -0.3033444828 0.3046123957 -0.3028814565 -0.2004818795 0.20809161
375297750.0 -0.2094009324 0.2158117904 0.3008191142 -0.3066199669 0.3012280248 -0.3063486279 -0.1987539584 0.2096852654
380297720.0 -0.2076248175 0.2179699483 0.2974152978 -0.3095801311 0.2977452279 -0.3093221789 -0.1968933825 0.2119970079
385297690.0 -0.205642668 0.2204148237 0.2938780348 -0.3125925634 0.2938021888 -0.3128096257 -0.1944702162 0.2144071053
390297660.0 -0.2031530267 0.2231094137 0.2905183148 -0.3161659907 0.2904609973 -0.316079345 -0.1928280815 0.2169501904
395297630.0 -0.2009700983 0.225523506 0.2869666328 -0.3195826898 0.2869678077 -0.3192567807 -0.1901876778 0.2190120145
400297600.0 -0.1985603284 0.2276069295 0.2832045208 -0.3226157478 0.2836684215 -0.3227201875 -0.1881082391 0.2212044815
405297570.0 -0.1965545689 0.2297621317 0.279946785 -0.3252968641 0.2797324797 -0.3253540145 -0.1861277952 0.2231851668
410297540.0 -0.1939930473 0.2316794211 0.276307379 -0.3284748394 0.2768715214 -0.3289259795 -0.184299854 0.2254898028
415297510.0 -0.1912920482 0.2337510071 0.2725054182 -0.331725499 0.2729981664 -0.3318913233 -0.18194445 0.2274070354
420297480.0 -0.1893428989 0.2365436806 0.2687241473 -0.3350622716 0.2686227562 -0.3346349808 -0.1793262481 0.2290131384
425297450.0 -0.1869753185 0.2380892926 0.265531397 -0.3375137133 0.265672874 -0.3379188595 -0.1772126007 0.2315523811
430297420.0 -0.1840793164 0.240637939 0.2613862444 -0.3400056058 0.2614441416 -0.3400639115 -0.1746436416 0.2331056944
435297390.0 -0.1821158038 0.2427213504 0.2576644992 -0.3430144838 0.2573241165 -0.3435427538 -0.1717669265 0.2351089641
440297360.0 -0.1792582731 0.2446393817 0.2540282026 -0.3458219903 0.254120745 -0.3459291476 -0.169897417 0.2369087189
445297330.0 -0.17677564 0.2466972724 0.2502816877 -0.3486339089 0.2501786538 -0.3486968402 -0.1672749377 0.2385623176
450297300.0 -0.1739770267 0.2486040348 0.2464264909 -0.351424556 0.246249954 -0.3515208514 -0.1649051902 0.2404227488
455297270.0 -0.1716570552 0.2504956532 0.2420748599 -0.3539372589 0.2425609131 -0.3545205923 -0.16229409 0.2421147607
460297240.0 -0.1692459412 0.2524881413 0.2381921703 -0.3566522989 0.2386499376 -0.3568088076 -0.159659714 0.2441030995
465297210.0 -0.1663800598 0.2546960349 0.2346631436 -0.3594993094 0.2346322145 -0.3594405648 -0.1570467557 0.245814641
470297180.0 -0.1635617648 0.2562348789 0.2302987959 -0.3618680726 0.2304666213 -0.3618811059 -0.1540836169 0.2477600239
475297150.0 -0.1608806602 0.2578816809 0.2262292345 -0.3635556393 0.2265581075 -0.3638414611 -0.1513783292 0.2490976417
480297120.0 -0.1580833439 0.2602058788 0.2224054432 -0.3668388787 0.2224115416 -0.3669541261 -0.1485221648 0.2512214134
485297090.0 -0.155620833 0.261791713 0.2187947152 -0.3688439562 0.2185827295 -0.3687611775 -0.1460159516 0.2528548641
490297060.0 -0.1533922578 0.2636348366 0.2147978589 -0.3713171283 0.2144914454 -0.3715874471 -0.1432973144 0.2547576616
495297030.0 -0.1502466469 0.2651895788 0.2103135056 -0.3734112283 0.2109363792 -0.3732595566 -0.1405798254 0.2563068257
500297000.0 -0.1474596434 0.2671773893 0.2061804453 -0.3753742188 0.2060377524 -0.375547043 -0.1376811242 0.2589496357
505296970.0 -0.1443232947 0.2686305833 0.202010803 -0.377861612 0.2020370198 -0.3778870251 -0.1353559139 0.2599356479
510296940.0 -0.1419230233 0.2703561018 0.1980817106 -0.3804439678 0.1979575591 -0.3802384512 -0.1323036636 0.2614487637
515296910.0 -0.138829611 0.2720406001 0.1936690771 -0.382212875 0.1938694883 -0.3819352511 -0.1296474068 0.2627597534
520296880.0 -0.1360453338 0.2740379358 0.1897159568 -0.3848408212 0.1894559034 -0.3841725061 -0.1268720332 0.2646486097
525296850.0 -0.133146669 0.2749298486 0.1850503661 -0.386372086 0.1857479084 -0.3864703828 -0.1240552304 0.2664393286
530296820.0 -0.1301491815 0.2770312455 0.1809432012 -0.3882627518 0.1811500009 -0.3883536682 -0.1215337699 0.268001531
535296790.0 -0.1275116562 0.27831867 0.1770940917 -0.3899958881 0.1767813583 -0.3897680919 -0.1189049977 0.2691525633
540296760.0 -0.1248746584 0.2800955498 0.1726989767 -0.392363405 0.1726837697 -0.3920473049 -0.1159153097 0.2709047134
545296730.0 -0.1219421069 0.2814360493 0.1682629207 -0.3942787026 0.16778143 -0.394079756 -0.1131918154 0.2720539636
550296700.0 -0.1184305331 0.2830273615 0.1636716956 -0.396043471 0.1639229861 -0.3955464988 -0.110432659 0.2739096041
555296670.0 -0.1156791918 0.2839761065 0.1599285751 -0.3974485649 0.1598665597 -0.3975246511 -0.1076869016 0.2753423722
560296640.0 -0.1124624001 0.2858777509 0.1552078232 -0.3994369707 0.1550962965 -0.3991574744 -0.1048079128 0.2764853271
565296610.0 -0.1096050468 0.286896384 0.1506262398 -0.400822517 0.1512012247 -0.4009339779 -0.1021273978 0.2776597806
570296580.0 -0.1067834764 0.2881229208 0.1465077179 -0.4029797895 0.1460886408 -0.4026664538 -0.0995618153 0.2792367281
575296550.0 -0.1038342184 0.2895591634 0.1420746065 -0.4043142704 0.1419569485 -0.4042112957 -0.0964045975 0.2803024074
580296520.0 -0.100537058 0.2910881176 0.1375299964 -0.4059403547 0.1375857199 -0.4055872013 -0.0937296799 0.2812479749
585296490.0 -0.0978748273 0.291884172 0.1332496875 -0.4067201655 0.1334983392 -0.4070080684 -0.0904303961 0.2826780844
590296460.0 -0.094773633 0.2935302976 0.1290106686 -0.4079827996 0.1287992382 -0.4084456013 -0.088126331 0.2837698596
595296430.0 -0.0915270543 0.2943255982 0.124256462 -0.4097235525 0.1239902123 -0.4096502201 -0.0848165047 0.2844255799
600296400.0 -0.0885508208 0.2953151867 0.119788613 -0.4108219579 0.1197728643 -0.4109055865 -0.0820944144 0.2850734287
605296370.0 -0.0858203231 0.2965120785 0.1155336283 -0.4122151062 0.1156010797 -0.4120234692 -0.0787663648 0.2863554638
610296340.0 -0.0825280014 0.2975807045 0.1106001124 -0.4134079658 0.1109612877 -0.4133336073 -0.0756933169 0.2870570003
615296310.0 -0.0790433077 0.2981765092 0.1063292396 -0.4141336829 0.1062353829 -0.4148567947 -0.072479238 0.2877229412
620296280.0 -0.0761728426 0.2987936981 0.1017859802 -0.4153085115 0.1017036406 -0.4154992104 -0.0699901122 0.2888568826
625296250.0 -0.0730552688 0.2998128893 0.0976452039 -0.416444068 0.0970089454 -0.4167688245 -0.0662761887 0.289261567
630296220.0 -0.0692074245 0.3009381524 0.0919165802 -0.41774623 0.0923392672 -0.4173902415 -0.0632587187 0.2905452953
635296190.0 -0.0668178333 0.3019403396 0.0883241041 -0.4183788567 0.0882986704 -0.4183735015 -0.0604851411 0.2911007179
640296160.0 -0.0640071134 0.30254358 0.0843438998 -0.4187932181 0.0840872192 -0.4192820675 -0.0571905975 0.2917861238
645296130.0 -0.0604061165 0.3035262365 0.0787364436 -0.4202250158 0.079215171 -0.4202295033 -0.0541827039 0.292631505
650296100.0 -0.0573068369 0.3040227177 0.0745467036 -0.4207270097 0.074525592 -0.4210963986 -0.0508443797 0.2930112095
655296070.0 -0.054195756 0.3048988722 0.0703692894 -0.421668083 0.0700819725 -0.4217067201 -0.0475292572 0.2940612418
660296040.0 -0.0510620993 0.3055431534 0.0655082293 -0.4224226779 0.0652606684 -0.4224122447 -0.0439236674 0.2944160852
665296010.0 -0.0475795051 0.3056777678 0.0606661432 -0.4228211011 0.0608698753 -0.4231936044 -0.0411300945 0.295755454
670295980.0 -0.0450822538 0.3068859903 0.056454414 -0.4235792376 0.0561603767 -0.4237155765 -0.0383421408 0.2960996672
675295950.0 -0.0412944704 0.3073935754 0.0518692224 -0.4237833237 0.0517336884 -0.4239033232 -0.0355097777 0.296822281
680295920.0 -0.0381491084 0.3080411612 0.0472119339 -0.4245572491 0.046837936 -0.4250875305 -0.0318745606 0.2975993288
685295890.0 -0.0348738233 0.309173175 0.0425149488 -0.4250515289 0.0422758759 -0.4251622361 -0.0287558895 0.298026551
690295860.0 -0.0312248889 0.3093379799 0.0377254615 -0.4251833718 0.037813453 -0.4255838377 -0.0256734869 0.2990310244
695295830.0 -0.0284212001 0.3096174346 0.033350581 -0.4256597074 0.0332287892 -0.4256857233 -0.0222538255 0.2992276237
700295800.0 -0.0250716395 0.3099021886 0.0287305644 -0.4258560888 0.0283827247 -0.4260937458 -0.0195105875 0.300313621
705295770.0 -0.0220484884 0.3107332071 0.023568456 -0.4264323583 0.0241705394 -0.4263708684 -0.0164237796 0.3005138571
710295740.0 -0.0184517915 0.3107092232 0.0194298495 -0.426953291 0.0194351601 -0.4266132607 -0.0131023419 0.2998695644
715295710.0 -0.0154221947 0.3113524503 0.0150122664 -0.4268818765 0.014566924 -0.4268258627 -0.0097280809 0.300805404
720295680.0 -0.0123499182 0.3111157565 0.0102855318 -0.4269564172 0.0105088157 -0.427159034 -0.006909645 0.3015589369
725295650.0 -0.0090156622 0.3119880541 0.0057010091 -0.4268609209 0.0055992263 -0.4271837024 -0.003965312 0.3018209544
730295620.0 -0.0057360723 0.3123717505 0.0008752764 -0.4268703505 0.0008943058 -0.427121313 -0.0013058616 0.301553426
735295590.0 -0.0024494736 0.3124740747 -0.0036376818 -0.427047449 -0.0039935023 -0.4269779083 0.0019431549 0.3016255495
740295560.0 0.0005080235 0.3128505668 -0.0082111057 -0.4267500185 -0.0082182013 -0.4270774271 0.0054057419 0.3020019804
745295530.0 0.0041329603 0.312614358 -0.0132130558 -0.4263447442 -0.0133094975 -0.426536851 0.0086302637 0.3020556502
750295500.0 0.0076771545 0.3127385644 -0.0175788462 -0.4263152531 -0.0175975762 -0.4266704428 0.011317366 0.3023388835
755295470.0 0.0108865752 0.3127216023 -0.0219768006 -0.4262426964 -0.0222313669 -0.4259281061 0.0150523896 0.3012755391
760295440.0 0.0138999705 0.3125677477 -0.0271031412 -0.4261884595 -0.0268214652 -0.4264682275 0.01761606 0.3016248427
765295410.0 0.0170358424 0.3127414449 -0.0312547876 -0.4257463003 -0.0317918681 -0.4258464887 0.0213509465 0.3017836326
770295380.0 0.0203644366 0.3127398953 -0.0363805246 -0.4251014713 -0.0364172446 -0.4250116668 0.0238735555 0.3013404441
775295350.0 0.0234149391 0.3121955992 -0.0407765949 -0.4242774081 -0.0404327038 -0.4243762628 0.0268538835 0.3012648724
780295320.0 0.026800905 0.3123460487 -0.0453109189 -0.4239078693 -0.0446716683 -0.423769767 0.0301439226 0.3004265157
785295290.0 0.0298482928 0.3115961713 -0.0500233951 -0.4232521509 -0.0497200199 -0.4233603217 0.0338788616 0.3004926238
790295260.0 0.0337068646 0.311954408 -0.0541879526 -0.4230755654 -0.0537120277 -0.4226540798 0.0369457999 0.3003813566
795295230.0 0.0368375211 0.3116027413 -0.0589922159 -0.4223697995 -0.0587560421 -0.4222639178 0.0403033358 0.3000293908
800295200.0 0.0393767275 0.3113260099 -0.0636378006 -0.4213465933 -0.0633361241 -0.4212760698 0.0432390794 0.2994579693
805295170.0 0.0430701801 0.3111510087 -0.0679117141 -0.4206733814 -0.0680086197 -0.4207726521 0.0464147357 0.2991070771
810295140.0 0.0462299419 0.3104610894 -0.0721957484 -0.4196956643 -0.072620913 -0.4200536745 0.0498969559 0.2988765102
815295110.0 0.0494362862 0.3098225888 -0.0767989849 -0.4186919327 -0.0771500604 -0.41908234 0.0532292806 0.2986268953
820295080.0 0.0526164265 0.3098265256 -0.0815670014 -0.4177397368 -0.0813191154 -0.4179490017 0.0563342137 0.2980985382
825295050.0 0.0565040026 0.3091432806 -0.0859424413 -0.4168573549 -0.0860124279 -0.417182167 0.0598340501 0.2979487516
830295020.0 0.0594760105 0.3089744119 -0.0905279013 -0.416057826 -0.0908101745 -0.4160927667 0.0635318124 0.2972830491
