!Created with skrf (http://scikit-rf.org).
# Hz S RI R 50.0 
!freq ReS11 ImS11 ReS21 ImS21 ReS12 ImS12 ReS22 ImS22
300000.0 -0.7743143212 -0.1847512514 -0.0018078782 0.001055373 0.0001797803 0.0011642181 -0.0443464152 -0.0764308163
5299970.0 -0.7861128821 -0.0096695037 0.0003278094 -0.0001482448 0.000135045 8.06633e-05 -0.0478407804 0.0138085008
10299940.0 -0.7894597858 -0.0063909764 -6.63285e-05 -0.0001078658 -0.0001246588 -9.29098e-05 -0.041940824 0.0314044279
15299910.0 -0.7940341415 -0.0035609929 -0.0002578749 -0.0001026002 0.0001167433 9.33794e-05 -0.0338256573 0.045550676
20299880.0 -0.8006173852 0.0006162138 -0.0001073981 3.49562e-05 0.0001489801 -4.18203e-05 -0.0242352106 0.0572978575
25299850.0 -0.8077019602 0.0069260489 -0.0002527043 5.56643e-05 0.0001857997 -5.61976e-05 -0.0134846603 0.0660417798
30299820.0 -0.8141130581 0.0139396427 5.62081e-05 5.28848e-05 3.33164e-05 0.0001120372 -0.0022652417 0.0729129628
35299790.0 -0.8188418231 0.023116933 8.01871e-05 0.0001169326 -8.13411e-05 5.83424e-05 0.0089166323 0.0775495855
40299760.0 -0.8240495123 0.0319323958 0.0001000557 -0.0001362777 -2.70029e-05 2.94881e-05 0.0199297043 0.0799945597
45299730.0 -0.8266472085 0.0416725323 -0.0001641151 0.0001955605 0.0001236613 -0.0001339572 0.0304749911 0.0814105783
50299700.0 -0.8290689025 0.0513456609 -8.96911e-05 0.0001630128 1.31436e-05 7.50057e-05 0.040590339 0.0814469601
55299670.0 -0.8312594598 0.0613343796 9.30072e-05 4.49097e-05 4.20008e-05 0.0002302215 0.0492800514 0.0805422501
60299640.0 -0.8325858053 0.0720826748 0.0002175781 0.0001130118 -3.02322e-05 1.1832e-05 0.0578511513 0.078406392
65299610.0 -0.8332418976 0.0819608979 6.59559e-05 0.0001522728 0.0002258137 -2.31023e-05 0.0654617253 0.0759016712
70299580.0 -0.8338641899 0.0917296056 -0.0001438697 -0.000110412 -3.61258e-05 8.8895e-06 0.0720143176 0.0728841127
75299550.0 -0.8341428818 0.1015162662 4.4759e-05 0.0001738924 0.0001682649 -0.0001561294 0.0783486609 0.0700891271
80299520.0 -0.8338119961 0.1122355033 0.0002080724 7.39595e-05 -3.44513e-05 -4.7057e-06 0.0842707506 0.0662576987
85299490.0 -0.8327211384 0.1214585921 -9.27204e-05 0.0002068407 -1.73927e-05 3.3809e-05 0.0887457447 0.0623633287
90299460.0 -0.8322207561 0.1316742095 9.93041e-05 -2.79863e-05 -0.000131366 -0.0001230689 0.0934834717 0.0587819271
95299430.0 -0.8313829905 0.1408212539 -4.76416e-05 -0.0001223088 5.75234e-05 -0.0001069084 0.097385555 0.0546745232
100299400.0 -0.8306033327 0.1501283421 0.0001937366 -8.86482e-05 -6.93255e-05 -2.15216e-05 0.101003553 0.0510878783
105299370.0 -0.8287661913 0.1592073388 -6.87703e-05 4.56146e-05 0.0001384101 -5.128e-07 0.1044270585 0.0467905726
110299340.0 -0.8270795747 0.1687091863 5.02123e-05 0.0001829329 0.000103049 9.93141e-05 0.1065997299 0.0428182305
115299310.0 -0.8259382469 0.1774246982 -5.16305e-05 7.67354e-05 2.15937e-05 2.77433e-05 0.1090028616 0.0388750794
120299280.0 -0.8243438796 0.1867167572 -2.37247e-05 4.97165e-05 -0.0001783386 0.0001546216 0.1110925872 0.0350167325
125299250.0 -0.8220557057 0.1959198954 -0.0001618121 0.0002254816 -9.61489e-05 -5.31039e-05 0.1130256943 0.0315190653
130299220.0 -0.8205651482 0.2051021135 0.0001034786 7.16564e-05 -0.000171255 8.94444e-05 0.1150231071 0.0276197325
135299190.0 -0.8187487758 0.2142194275 3.3833e-05 -9.67901e-05 8.05096e-05 8.65401e-05 0.116356205 0.0239393791
140299160.0 -0.8173403594 0.2235814661 -3.88873e-05 -2.97615e-05 3.5995e-05 4.72182e-05 0.1171346625 0.0204146363
145299130.0 -0.8146167438 0.232349638 0.0001685203 -3.41478e-05 2.63192e-05 4.73201e-05 0.1184838866 0.0168165636
150299100.0 -0.8121575384 0.2412214057 -3.02765e-05 4.90409e-05 0.0001021037 -0.0001426015 0.1190069167 0.0134046982
155299070.0 -0.8098988544 0.2497956707 7.20489e-05 -7.14918e-05 0.0001213471 -8.49548e-05 0.1200174904 0.0100770148
160299040.0 -0.8076919168 0.2586455942 -0.0001122456 -6.8172e-06 -5.8439e-05 2.10211e-05 0.1201342191 0.006709584
165299010.0 -0.804655084 0.2679439567 1.5777e-05 7.08317e-05 0.0001782857 6.1395e-06 0.1209320594 0.0032720376
170298980.0 -0.8013013385 0.2760172356 -8.5164e-06 6.4754e-06 0.0001968481 0.0001921594 0.1212523209 0.0005535018
175298950.0 -0.7992066322 0.2843556693 5.38509e-05 -7.40122e-05 0.000206706 7.2901e-05 0.1214354678 -0.0024914607
180298920.0 -0.7957365565 0.2932963459 0.0002816534 9.82902e-05 0.0001526971 -0.0001623027 0.1217539134 -0.0058619406
185298890.0 -0.7928646132 0.30222947 -2.15e-05 -8.73203e-05 0.0001105894 6.9175e-05 0.1213951686 -0.0089334383
190298860.0 -0.7897350475 0.3110000292 0.0001203721 5.7869e-05 0.0001983518 -0.0001074566 0.1215889431 -0.011701088
195298830.0 -0.7862942117 0.3189968715 -0.0001991379 -9.39395e-05 0.0002602777 5.78281e-05 0.1211307232 -0.0142876163
200298800.0 -0.78270099 0.3279020833 0.0001142832 -2.25908e-05 9.11307e-05 0.0001413156 0.1208639508 -0.0169410401
205298770.0 -0.7791857942 0.3365761544 -1.55775e-05 5.18188e-05 0.000110377 -0.0001289713 0.1208134199 -0.0197462164
210298740.0 -0.7766360877 0.344337215 9.1452e-05 0.0001975666 -3.27675e-05 -1.28932e-05 0.1202107302 -0.0224316687
215298710.0 -0.7722454116 0.3534418833 0.0003130593 -0.0001428456 4.31523e-05 9.01415e-05 0.1197835531 -0.0248912436
220298680.0 -0.7681944956 0.3610343772 -0.000175579 3.22973e-05 -0.0001686869 -5.49859e-05 0.119376187 -0.0273967713
225298650.0 -0.76504171 0.3691520211 0.0001173319 0.0001791595 -1.10532e-05 5.5717e-05 0.1184954238 -0.0298530669
230298620.0 -0.7613170224 0.3780245225 5.66564e-05 0.0001819779 0.0002158688 5.98657e-05 0.1180501412 -0.0321363056
235298590.0 -0.7573574546 0.3860974771 1.5233e-05 1.0599e-06 -3.37907e-05 9.23723e-05 0.1173298636 -0.034425616
240298560.0 -0.7525471617 0.3934550773 7.72592e-05 8.14848e-05 0.0002651529 0.0002180182 0.1167018598 -0.0368437399
245298530.0 -0.7487659938 0.4015558409 9.26192e-05 3.22387e-05 9.842e-05 -2.769e-05 0.1160736609 -0.0392200448
250298500.0 -0.7445900327 0.4092098842 0.0001757739 -8.68471e-05 0.000133015 7.90128e-05 0.1150284722 -0.0412225169
255298470.0 -0.7401873027 0.4173473822 -8.42144e-05 -0.0001144929 -7.9286e-06 1.2687e-06 0.1146183795 -0.0436259748
260298440.0 -0.7362706112 0.4249739214 5.84302e-05 -5.02344e-05 0.0001371073 1.84828e-05 0.1135868249 -0.0456550812
265298410.0 -0.7321001542 0.43277386 0.0001106143 -8.67543e-05 3.86718e-05 0.0002698177 0.1130177034 -0.0480098426
270298380.0 -0.7273310768 0.4404430755 7.71025e-05 1.2858e-05 -4.71594e-05 -8.39071e-05 0.111937816 -0.0500973836
275298350.0 -0.7230286545 0.4477699094 0.0001713113 8.45196e-05 0.0001266294 4.10363e-05 0.1111619789 -0.0516964555
280298320.0 -0.7182331291 0.4556148912 4.251e-07 1.71379e-05 7.18817e-05 -3.70544e-05 0.1099089155 -0.0538600927
285298290.0 -0.7132989578 0.463676632 0.0002333592 9.57315e-05 0.0001538648 -7.15171e-05 0.1088725212 -0.0554045317
290298260.0 -0.7083960905 0.4708591635 -1.70803e-05 8.1805e-06 -7.04494e-05 2.34145e-05 0.1077305957 -0.0572652437
295298230.0 -0.7035463502 0.4783440828 0.0001565748 0.0001466708 0.000131952 -7.0754e-05 0.107047661 -0.0590764377
300298200.0 -0.6995233838 0.4852152664 0.0002117512 0.0001870347 3.11498e-05 0.0001052913 0.106210894 -0.0609344409
305298170.0 -0.6939871326 0.4926799322 7.32653e-05 -0.0001283453 0.0001566628 6.38887e-05 0.1051595984 -0.0630269411
310298140.0 -0.6891402405 0.4993109801 4.46077e-05 -1.50819e-05 8.37033e-05 -1.23523e-05 0.1043372166 -0.0646416626
315298110.0 -0.6842009657 0.5070825645 0.0002974262 0.0001646942 6.88228e-05 -7.0923e-05 0.1029324205 -0.0665044476
320298080.0 -0.6787693951 0.5141876688 1.86959e-05 5.57973e-05 0.000145399 -0.0001718443 0.1014983608 -0.0685793646
325298050.0 -0.6734395817 0.5207633656 0.0001977646 -8.98927e-05 0.0001957105 -2.26132e-05 0.1002681269 -0.0705692007
330298020.0 -0.6678474584 0.5277322284 -2.59598e-05 -7.17116e-05 0.0001161711 -4.38036e-05 0.0991473192 -0.0721940002
335297990.0 -0.6627213608 0.5344675509 8.80734e-05 0.0001096757 -7.20631e-05 -9.11604e-05 0.0977357773 -0.0736876296
340297960.0 -0.6577464911 0.541537312 8.9286e-05 4.68507e-05 -8.88566e-05 -0.0002219331 0.0963963965 -0.0752088106
345297930.0 -0.6521033674 0.548068042 0.0001075228 6.39144e-05 -5.90851e-05 6.18488e-05 0.0945949586 -0.0768031246
350297900.0 -0.6465449055 0.5551358589 0.0001442985 -1.16294e-05 0.0002059374 -8.82811e-05 0.0931142393 -0.0783855743
355297870.0 -0.6410485975 0.5611622748 0.0001103506 -0.000120572 5.0217e-06 1.78004e-05 0.0919038267 -0.0794538377
360297840.0 -0.634985324 0.5677112706 0.0001770821 0.0002765178 1.0956e-06 2.72586e-05 0.0906007056 -0.0808731336
365297810.0 -0.6293269018 0.5744990576 0.0001949029 -0.0001255104 0.0002092188 -2.44779e-05 0.0886170065 -0.0820073401
370297780.0 -0.6236465553 0.5805970824 4.2533e-06 3.0499e-06 -0.000166172 -5.18238e-05 0.0874797173 -0.0831858121
375297750.0 -0.617526511 0.5868499876 0.0001587884 0.0001791729 5.62527e-05 4.8013e-05 0.0860962374 -0.0848789575
380297720.0 -0.612094838 0.5939899858 0.0001054667 -2.18003e-05 0.0001562123 0.0001086791 0.0849888782 -0.0858174504
385297690.0 -0.6059035229 0.5993768588 -1.9287e-05 -5.19542e-05 2.85957e-05 0.0002272471 0.0833001628 -0.0870610009
390297660.0 -0.5985498516 0.6055282077 1.86349e-05 2.77299e-05 0.000257649 8.07825e-05 0.081780324 -0.0882119505
395297630.0 -0.5931099108 0.6116613929 7.80949e-05 7.43564e-05 1.12616e-05 -0.0002634091 0.0804588844 -0.0894723469
400297600.0 -0.5865487828 0.6179219948 0.0003286835 0.0001650356 -8.11502e-05 -5.32373e-05 0.079034626 -0.0903599425
405297570.0 -0.5805351541 0.6230359589 0.0001733734 2.2092e-05 0.0001221402 7.06582e-05 0.0777866787 -0.0917022352
410297540.0 -0.5741146237 0.6296373761 -0.0001326626 -0.0001501566 4.19487e-05 1.48331e-05 0.076051446 -0.0926838823
415297510.0 -0.5673102477 0.6358592283 0.0001034592 0.0001186535 0.0002828334 -4.02704e-05 0.0746832593 -0.0935981738
420297480.0 -0.5606834381 0.6407969089 -9.50252e-05 0.0001517634 0.0001077604 0.000260806 0.0734586439 -0.0946253544
425297450.0 -0.5544976542 0.6464019296 0.0001686441 -5.9122e-06 0.0001467894 5.02994e-05 0.0715717349 -0.0960043761
430297420.0 -0.5477424706 0.6522533719 4.07062e-05 -0.0001581244 0.000156608 3.45352e-05 0.0700129545 -0.0967019845
435297390.0 -0.5409491484 0.6572389905 0.0002529016 -0.0001077137 2.354e-07 0.0001296872 0.0685188539 -0.0976288096
440297360.0 -0.5341977187 0.6624768264 -3.4149e-05 0.0001730162 9.94547e-05 -8.22991e-05 0.0672673674 -0.0985428522
445297330.0 -0.5272793837 0.6682862459 0.0001302762 -2.58388e-05 3.24112e-05 6.96687e-05 0.0655651007 -0.0992728756
450297300.0 -0.5200297297 0.6737010406 4.68564e-05 0.000142263 -0.0001930775 0.0001054941 0.0642038579 -0.1003328996
455297270.0 -0.5136572276 0.6787007873 -0.0001744296 0.000399635 0.0001578428 9.60909e-05 0.0625979047 -0.1009608538
460297240.0 -0.5051760764 0.6839783883 0.0002272714 0.0001396967 0.0002800886 -2.94548e-05 0.0608847436 -0.1018703341
465297210.0 -0.4988287349 0.6892433416 0.0001593715 7.8366e-06 -0.0001116457 1.4462e-06 0.0594248274 -0.1026743676
470297180.0 -0.4915786451 0.6938505952 -7.7838e-06 7.74502e-05 -7.04159e-05 0.0001483771 0.0576194773 -0.1036776226
475297150.0 -0.4848786207 0.6989346027 0.0001544581 -0.0001826084 -8.02134e-05 0.0001030509 0.056284226 -0.104181739
480297120.0 -0.4765871004 0.7038780991 0.0003618008 0.0001982511 0.0001164682 -0.000103681 0.0545123784 -0.1048332795
485297090.0 -0.4700437871 0.7085078552 0.0002106763 -6.464e-06 0.0001376371 0.0001874186 0.0527317796 -0.1056915513
490297060.0 -0.46190757 0.7134359835 -1.61268e-05 -9.00805e-05 -3.7384e-06 -1.20845e-05 0.051474115 -0.10644194
495297030.0 -0.4548578679 0.7178507711 0.0002847096 9.67943e-05 4.04513e-05 0.0002160822 0.0500109088 -0.1070096137
500297000.0 -0.4472831434 0.7223856237 5.64531e-05 0.0002916541 0.0003540803 4.96532e-05 0.0481630442 -0.1075557775
505296970.0 -0.4394789672 0.7266666566 0.0001627057 0.0001108841 0.000322089 0.0001693227 0.0462874006 -0.108235622
510296940.0 -0.4318935178 0.731557917 4.65913e-05 -8.42098e-05 8.73952e-05 -5.99536e-05 0.0451800925 -0.1085603443
515296910.0 -0.4238628188 0.7356101703 6.42849e-05 8.36506e-05 0.0001095331 -6.03829e-05 0.0430107448 -0.1093089619
520296880.0 -0.4162068645 0.7399672888 -3.32374e-05 -5.73126e-05 -0.0001047788 -3.8738e-05 0.0419136523 -0.1098888161
525296850.0 -0.408523311 0.7441791238 0.0003292777 -1.28748e-05 0.0001437127 1.0443e-05 0.0399848409 -0.1102537877
530296820.0 -0.4010344053 0.7479601472 -9.6388e-05 0.0003096984 0.0001678098 -4.99164e-05 0.0383630747 -0.1107695569
535296790.0 -0.3927998578 0.7519848948 0.0002282475 2.94891e-05 5.39826e-05 -0.0001104821 0.0371323812 -0.1111278373
540296760.0 -0.3850972542 0.7556890395 2.91445e-05 9.45603e-05 -6.00809e-05 -2.035e-05 0.0354024168 -0.111718085
545296730.0 -0.3774871256 0.7601243658 1.4876e-05 -0.0002740178 -6.83314e-05 -0.0001272602 0.0337060153 -0.1120777368
550296700.0 -0.3695393512 0.7636095184 0.000154271 -6.974e-07 0.0001448208 7.20512e-05 0.0316546271 -0.112527561
555296670.0 -0.3616997138 0.7674318725 5.3556e-06 0.0001059619 0.0001159803 8.41063e-05 0.0298206581 -0.1130482995
560296640.0 -0.3530077312 0.7707843948 0.0002638075 -6.22825e-05 2.52275e-05 -6.68227e-05 0.0282868053 -0.1131529944
565296610.0 -0.3453439474 0.7740892917 -2.38504e-05 3.39026e-05 6.62998e-05 8.091e-07 0.0269305345 -0.1134830226
570296580.0 -0.3370665084 0.7780110082 0.0001056462 0.0001183017 6.35665e-05 -3.78438e-05 0.0248291275 -0.1138401673
575296550.0 -0.328072162 0.781021792 0.0001503497 -2.13448e-05 6.41032e-05 3.88592e-05 0.0234941685 -0.1140452087
580296520.0 -0.3213005357 0.7846897298 0.0001126649 7.44489e-05 0.0001760865 0.0001354745 0.0218675418 -0.1144970524
585296490.0 -0.312284744 0.7877011948 0.0002798025 -7.05287e-05 0.0002359462 -0.0001851144 0.0202257124 -0.1143782776
590296460.0 -0.303738569 0.7903804764 0.0002338223 0.0001449658 0.0001229168 8.43493e-05 0.018297612 -0.1145349411
595296430.0 -0.2959896938 0.793696434 0.0003582477 -1.69411e-05 5.92552e-05 8.688e-07 0.0167569862 -0.1146742411
600296400.0 -0.2880985029 0.7966112875 0.0002320007 -0.0003652099 0.0002975573 0.0001030381 0.0149961983 -0.1151721638
605296370.0 -0.2796516133 0.7992597125 -0.0001538263 2.77168e-05 0.0001930398 8.9286e-06 0.0134086292 -0.1149407136
610296340.0 -0.2717418495 0.8027556659 0.0001743254 4.20326e-05 0.0003074412 0.000113802 0.0116124191 -0.1149916099
615296310.0 -0.2629852353 0.8052661869 8.08095e-05 -7.23727e-05 0.000290969 6.39373e-05 0.0099667566 -0.115209837
620296280.0 -0.2549628349 0.8081217726 -0.0001100283 0.0001081551 0.0001659345 2.67582e-05 0.0083210506 -0.1151159361
625296250.0 -0.2471991135 0.810259875 0.0001635125 -5.95265e-05 0.0001531817 -2.79397e-05 0.006620175 -0.1153559378
630296220.0 -0.2389058577 0.8130355603 4.84231e-05 -9.25846e-05 0.0001226419 3.35383e-05 0.0051290317 -0.1151084125
635296190.0 -0.2303864632 0.8157690766 3.00132e-05 1.71659e-05 0.0003110176 7.62277e-05 0.0031790542 -0.1154220089
640296160.0 -0.2214646382 0.817583224 2.57405e-05 -0.0002041312 0.0001585638 -9.55146e-05 0.001417301 -0.1149178966
645296130.0 -0.2138688844 0.8202274112 0.0001821397 0.0001330883 8.3808e-05 1.67148e-05 -0.0003100861 -0.1150689292
650296100.0 -0.2054318362 0.8220714813 0.0003416688 5.2311e-05 0.000131019 -7.94422e-05 -0.0017894234 -0.1148699357
655296070.0 -0.197378236 0.82422938 0.0001253552 -0.0002206308 8.82324e-05 -6.5474e-05 -0.0036353337 -0.1147487872
660296040.0 -0.1891911657 0.8265696725 0.0002394737 5.49383e-05 6.77809e-05 -0.0001541583 -0.0049670963 -0.1149100229
665296010.0 -0.1807747485 0.828033643 -9.04407e-05 8.05811e-05 0.0002663173 1.21393e-05 -0.0068949232 -0.1141898908
670295980.0 -0.1721332477 0.8301544123 5.83767e-05 -4.4488e-05 0.0001131545 2.94769e-05 -0.0087135315 -0.1143635198
675295950.0 -0.1638679837 0.8318944289 0.0001589211 9.4418e-05 0.0003126227 1.02048e-05 -0.0102698689 -0.1140039832
680295920.0 -0.1568746244 0.8340050002 0.000279287 0.0001175212 0.00025373 1.74013e-05 -0.0120482417 -0.1137188543
685295890.0 -0.1474957493 0.8356809155 3.00087e-05 5.36015e-05 0.0002008583 -9.50573e-05 -0.0137158135 -0.1134680812
690295860.0 -0.1393208284 0.8372811562 0.0003346291 -4.01249e-05 0.0002409985 4.7398e-06 -0.0151238896 -0.1133226514
695295830.0 -0.1305745305 0.8382592008 -3.401e-06 0.0001540942 2.76887e-05 -0.0001390456 -0.0169161292 -0.1128347186
700295800.0 -0.1225568904 0.8395630102 0.0001932425 -0.000168164 3.47319e-05 -0.0001771787 -0.0179456878 -0.1126666594
705295770.0 -0.114902614 0.8411574821 0.0001530419 -0.0001420868 4.95682e-05 -7.67454e-05 -0.0202824478 -0.1120669797
710295740.0 -0.1065353611 0.8421224006 0.0001087271 -3.84735e-05 5.22615e-05 -0.0001160582 -0.0213673097 -0.1115997236
715295710.0 -0.097752703 0.8428570399 0.0002398366 1.57759e-05 0.0001530737 -0.0001936011 -0.0233334433 -0.11153133
720295680.0 -0.0892539501 0.8442060201 5.36889e-05 9.09649e-05 0.0001945262 1.81312e-05 -0.0250507971 -0.1111953194
725295650.0 -0.0813762434 0.8460215051 0.0001842052 0.0001783224 0.000268506 -0.0001826983 -0.026460841 -0.1105620433
730295620.0 -0.073860432 0.8461349026 0.000213337 -0.0002281359 7.84518e-05 0.0001611383 -0.0283473544 -0.10990239
735295590.0 -0.0658973756 0.8475039717 0.0001579005 -4.51047e-05 0.000186685 -0.0001122365 -0.0294512132 -0.1095624031
740295560.0 -0.0573034478 0.8472986014 0.0001308059 -0.0001884147 -4.54268e-05 -0.0001136095 -0.031203749 -0.1089964216
745295530.0 -0.0488209995 0.848448899 3.5398e-05 -1.60451e-05 0.0002589806 -0.0001304892 -0.0330292653 -0.1083769475
750295500.0 -0.0410842466 0.8492111587 0.0001244275 8.04136e-05 0.0002670061 7.44059e-05 -0.0344329197 -0.1080274697
755295470.0 -0.0323532035 0.8498733137 4.10109e-05 -6.62104e-05 6.71061e-05 8.04828e-05 -0.036235428 -0.1071070344
760295440.0 -0.0241747231 0.8506668724 0.0001046895 4.76419e-05 0.0003385891 5.47071e-05 -0.0377446519 -0.1070091125
765295410.0 -0.0158648988 0.8506523491 0.0004388564 -0.000124899 0.0002293307 -6.06514e-05 -0.0392021023 -0.1060999247
770295380.0 -0.0085040237 0.8509059047 0.0002179361 -7.2743e-06 6.81446e-05 6.57425e-05 -0.0407219128 -0.1052415271
775295350.0 -0.0003986554 0.8512502846 4.60843e-05 -7.74037e-05 8.01949e-05 -4.68303e-05 -0.0421419021 -0.1049707721
780295320.0 0.0086395654 0.8511377073 -8.7258e-06 8.6601e-06 0.0001466813 4.42499e-05 -0.0435816341 -0.1041839458
785295290.0 0.0164454124 0.8510168458 0.0001985968 0.0001056007 6.23799e-05 6.69728e-05 -0.0453914827 -0.1030419455
790295260.0 0.0248925635 0.8505362323 0.0002184014 -0.0001601057 7.30614e-05 -9.44529e-05 -0.0467684025 -0.1025806357
795295230.0 0.0328645289 0.8507033781 0.0003005594 -6.9112e-05 9.32448e-05 9.9356e-05 -0.048395767 -0.1024348124
800295200.0 0.0413064437 0.8502354472 0.000284093 -0.0003154972 -8.2608e-06 -0.0001728312 -0.0499624526 -0.1013524427
805295170.0 0.0489927047 0.8506367197 0.0002155675 -0.0001005249 0.0002628941 0.0001004731 -0.0510512258 -0.1008779891
810295140.0 0.0577295328 0.8505409442 0.0002135521 -8.31233e-05 0.0003736922 -3.5906e-05 -0.0528371555 -0.0998217075
815295110.0 0.0652954181 0.8493662856 0.0001663294 1.7399e-05 0.0001406028 -0.0001851761 -0.0544968438 -0.098954298
820295080.0 0.0735019001 0.8491552312 0.0001368684 -0.0001643485 0.0001619707 -0.0004123099 -0.055887188 -0.0977716932
825295050.0 0.0819798024 0.8479593588 0.0003416489 -5.10851e-05 5.96329e-05 -0.0001564882 -0.0569783454 -0.0971188343
830295020.0 0.0905530182 0.8480133608 0.0001565306 -0.0002085168 3.00123e-05 -5.57596e-05 -0.0585848531 -0.0964139108
835294990.0 0.0977878019 0.8468437389 0.0001156731 -0.0001878962 0.0002000697 3.30137e-05 -0.0599124538 -0.0952897555
840294960.0 0.1071299036 0.8453762402 9.31165e-05 -2.87354e-05 0.0001477912 -7.9068e-06 -0.0613575819 -0.0943340864
845294930.0 0.1151629298 0.8442359149 4.30485e-05 -5.34562e-05 0.0001715369 -2.14036e-05 -0.0629519817 -0.0935072798
850294900.0 0.1241195354 0.8436784603 0.0003572635 -0.0001290599 5.24511e-05 -6.21391e-05 -0.0643869968 -0.0922172249
