!Created with skrf (http://scikit-rf.org).
# Hz S RI R 50.0 
!freq ReS11 ImS11 ReS21 ImS21 ReS12 ImS12 ReS22 ImS22
300000.0 -0.0969269633 -0.0872201051 0.6218306575 0.08279334 0.6238567189 0.0863328338 -0.0952796208 -0.0976517662
5299970.0 -0.1001910254 0.0126456458 0.6304455554 0.0105277849 0.6305190675 0.0108015374 -0.1020392906 0.0117776965
10299940.0 -0.095343045 0.0296714979 0.6342280954 0.0156421108 0.6345415608 0.0159647767 -0.097007383 0.0287460043
15299910.0 -0.0885761885 0.043205995 0.6405632165 0.0205815315 0.6403005617 0.0210051747 -0.0900968227 0.0420125127
20299880.0 -0.0796251408 0.0541993559 0.6487285518 0.0243833652 0.6485166163 0.0242503458 -0.0816805863 0.0533984272
25299850.0 -0.0697169293 0.0627878946 0.6582178495 0.0249688068 0.6580827492 0.0252453197 -0.0724154739 0.0619578881
30299820.0 -0.0594977911 0.0691093629 0.6681112064 0.0248258625 0.6671137487 0.024414545 -0.0625549074 0.068870034
35299790.0 -0.0493908872 0.0742528695 0.6770137712 0.021754709 0.6773027563 0.0217107258 -0.0522715546 0.0733886997
40299760.0 -0.0396222845 0.0767766082 0.6865586127 0.017894602 0.6866414763 0.0179536878 -0.043438635 0.0771638061
45299730.0 -0.0302830782 0.0795558535 0.695925711 0.0116607316 0.6958030143 0.012063597 -0.0337868387 0.0791835787
50299700.0 -0.0216468404 0.0797860423 0.7031618408 0.0046066273 0.7036998619 0.0048118245 -0.0254205376 0.0803786149
55299670.0 -0.014181496 0.0798448139 0.7106724567 -0.0031406202 0.7108819249 -0.0027056142 -0.0173921316 0.0800056301
60299640.0 -0.0063968627 0.0789983825 0.7175578602 -0.0116356155 0.7175448617 -0.0112779217 -0.0102412009 0.0797486485
65299610.0 -0.0003557693 0.078046413 0.7239918696 -0.0198584499 0.7240608407 -0.0200366595 -0.0037592984 0.0788554095
70299580.0 0.0061704133 0.0756404779 0.7286870219 -0.0293969585 0.7286791504 -0.0290330182 0.0022947361 0.0772004152
75299550.0 0.0118487858 0.0742552805 0.7329660958 -0.0390167262 0.7332443726 -0.0392393863 0.0083026068 0.0760319581
80299520.0 0.0163480624 0.0721782655 0.7379053796 -0.0492269519 0.7378044408 -0.0487568087 0.013321632 0.0730748452
85299490.0 0.0210059283 0.0693645992 0.7408412497 -0.0590008861 0.7405991733 -0.0591482273 0.017549219 0.0710720024
90299460.0 0.0244494069 0.067334349 0.7432478473 -0.0688971396 0.7438383462 -0.0690739073 0.022184014 0.0690732958
95299430.0 0.0281057921 0.0652410383 0.7460716223 -0.0795044543 0.7463075822 -0.0789177836 0.0252519437 0.066580035
100299400.0 0.0314718134 0.062718966 0.7476273019 -0.089599034 0.7472810432 -0.0893565074 0.0284008867 0.0639119545
105299370.0 0.0347078244 0.0600875601 0.7489544124 -0.0990968543 0.748772822 -0.099195012 0.0317710442 0.0617829423
110299340.0 0.0371225171 0.057642798 0.7496493099 -0.1090231383 0.7504483773 -0.1096585283 0.0347248725 0.0594412756
115299310.0 0.039505481 0.0549498799 0.750674694 -0.118862777 0.7510590355 -0.1186705423 0.037102703 0.0562503103
120299280.0 0.0415638033 0.0526564678 0.7512735525 -0.1298478142 0.7518331371 -0.1294482061 0.0388069459 0.0544532357
125299250.0 0.0432352544 0.0502002091 0.7516672703 -0.1394126662 0.751622172 -0.139338265 0.0411022442 0.0512811611
130299220.0 0.0449676876 0.0480746935 0.7517142391 -0.1487093682 0.7514674116 -0.1492560098 0.0431815809 0.0494372155
135299190.0 0.0468822772 0.0454292856 0.7515325704 -0.1585401017 0.7509727895 -0.158882233 0.0443694549 0.0476090009
140299160.0 0.0475962188 0.0440373525 0.7504884343 -0.1689782367 0.750861704 -0.1685584433 0.0459542459 0.0453497344
145299130.0 0.0492432742 0.0418668038 0.7504853524 -0.1787301313 0.7497869605 -0.1777988206 0.0471093635 0.0427149439
150299100.0 0.0507299344 0.0399086061 0.7490004704 -0.1876792123 0.7488574123 -0.1880859566 0.0485610606 0.0409867595
155299070.0 0.0514010131 0.0381753334 0.7475572754 -0.198481156 0.7476871421 -0.1984415853 0.0492339745 0.0386818522
160299040.0 0.0521478571 0.0359665574 0.7457688729 -0.2065556324 0.7459456071 -0.2069935542 0.0504915524 0.0372855264
165299010.0 0.0530048815 0.0342587894 0.745101182 -0.2171202907 0.7449951504 -0.2168092133 0.0513942017 0.0347345625
170298980.0 0.053435416 0.0327657021 0.74203742 -0.2261730392 0.7427655949 -0.2262525975 0.0527498576 0.0327732538
175298950.0 0.0543736145 0.0305940613 0.7416262486 -0.2351549775 0.7414262478 -0.2354037011 0.0530432658 0.0311070726
180298920.0 0.0554532598 0.029385409 0.7392029286 -0.2447822953 0.7392018813 -0.2443673815 0.0535280233 0.0299506233
185298890.0 0.0562060047 0.0275675231 0.7366229278 -0.2535630142 0.7371481934 -0.2539268438 0.0540696392 0.0278146633
190298860.0 0.0563008883 0.026137481 0.733975027 -0.2626064739 0.7346031916 -0.2627553302 0.0553519316 0.025656989
195298830.0 0.0563226552 0.0240560788 0.7312808446 -0.2711581573 0.7319301555 -0.2722082318 0.0557053851 0.0241014222
200298800.0 0.0570653571 0.0227025098 0.7295113877 -0.2802021646 0.7292276386 -0.2804801746 0.0560803801 0.022964578
205298770.0 0.0573221352 0.0212817973 0.7267746757 -0.2894760388 0.7264986182 -0.2896557846 0.0563908343 0.020847901
210298740.0 0.0574394159 0.0195616769 0.7242028647 -0.2986860617 0.7237138288 -0.2990540711 0.0567281285 0.0197736186
215298710.0 0.0578729799 0.0187307867 0.720549105 -0.3068456045 0.7206073823 -0.3067685772 0.0567758597 0.0182072053
220298680.0 0.0583226667 0.017377508 0.7176037231 -0.3159742916 0.7175625416 -0.3157041729 0.0573627964 0.0172730166
225298650.0 0.0587119304 0.0162506313 0.7137369117 -0.324156131 0.7140405567 -0.3240202936 0.0574710687 0.0152902154
230298620.0 0.0582832399 0.0149390395 0.711077514 -0.3329181906 0.7108958858 -0.3328656816 0.0577766579 0.0140831803
235298590.0 0.0586315122 0.0133647292 0.7070316735 -0.3409413897 0.7075333623 -0.3418808819 0.0581652938 0.012474955
240298560.0 0.0584076496 0.0119793212 0.703807598 -0.3496026267 0.7037982209 -0.3489271569 0.0582207106 0.0116624037
245298530.0 0.0590829804 0.0110925874 0.6992514536 -0.3581091267 0.6995669795 -0.3579832936 0.058330297 0.0107176569
250298500.0 0.0583295014 0.0097267524 0.6961294451 -0.365528819 0.6963203725 -0.3655382301 0.0593151652 0.0089391262
255298470.0 0.0584276913 0.0086969921 0.6917023194 -0.374077738 0.6922461866 -0.3740318574 0.0587893777 0.0073230261
260298440.0 0.0585092101 0.0078573253 0.6884216858 -0.382094298 0.6882079466 -0.3822483739 0.0594759249 0.0070218466
265298410.0 0.0590987211 0.0069900609 0.6841499346 -0.3909973497 0.6841508671 -0.3906920642 0.0590423802 0.0051763075
270298380.0 0.0594443793 0.0056098664 0.6792681123 -0.398597878 0.6801449601 -0.3981685894 0.058953768 0.0052751469
275298350.0 0.0584688231 0.0049319833 0.6758290098 -0.4069110401 0.6758524547 -0.4066856415 0.0590392169 0.0033317209
280298320.0 0.0585203877 0.0041929733 0.6708203535 -0.413987711 0.6710023459 -0.414362011 0.0595451281 0.0028732613
285298290.0 0.0591452456 0.0032036124 0.6669242502 -0.4222092719 0.6663280008 -0.422204375 0.0590742223 0.0016511476
290298260.0 0.0590478575 0.0016046134 0.6621734076 -0.4302937222 0.6621943219 -0.4300023922 0.0595894526 0.0006353114
295298230.0 0.0586757753 0.0006158323 0.6574863896 -0.4375570819 0.657650018 -0.4371466391 0.0599884092 -0.0003276985
300298200.0 0.0593004373 -7.1271e-06 0.6528771037 -0.4450938764 0.6529073005 -0.4452796551 0.059143297 -0.0014894192
305298170.0 0.0588745706 -0.0013023027 0.6481370475 -0.4525635709 0.6486371032 -0.4533019974 0.0597119117 -0.0023658043
310298140.0 0.0594037338 -0.0024485352 0.6437694539 -0.4607086392 0.6437030636 -0.4609302236 0.0597125715 -0.0028754907
315298110.0 0.0588305245 -0.0036446504 0.6379795382 -0.4681049801 0.6383587526 -0.4681548502 0.0599387156 -0.004557278
320298080.0 0.058565058 -0.0045201177 0.6329052469 -0.4754025554 0.633333072 -0.4752593366 0.0594635156 -0.0058095158
325298050.0 0.0583604034 -0.0059076029 0.6284519694 -0.4836040812 0.627707867 -0.4837025314 0.0591760368 -0.0070567153
330298020.0 0.0581410352 -0.0066205204 0.6215716035 -0.4902499528 0.6217405239 -0.4909347945 0.0585994547 -0.0081840241
335297990.0 0.0573625534 -0.0077637575 0.6160116398 -0.4979091095 0.6164350998 -0.4977691967 0.0582344408 -0.0088878866
340297960.0 0.0566467448 -0.0082015207 0.6100068067 -0.5049112009 0.6106404629 -0.5043290823 0.057472086 -0.0095589304
345297930.0 0.0564081022 -0.0084992136 0.6050711306 -0.5110507214 0.6046339906 -0.5110642445 0.0575298543 -0.010851345
350297900.0 0.0565570923 -0.0093325225 0.5987507763 -0.5176806525 0.5997031828 -0.517821559 0.0568357249 -0.0105850468
355297870.0 0.0561191311 -0.0103431661 0.5932038828 -0.5251845828 0.5930548779 -0.5254042068 0.0564417998 -0.0109527853
360297840.0 0.0558311058 -0.0109095841 0.5878198051 -0.5314365322 0.5876412263 -0.5314879128 0.0564023494 -0.0118265171
365297810.0 0.0557630401 -0.0114601506 0.5813327237 -0.5377764807 0.581532558 -0.5377082117 0.0559798694 -0.012367435
370297780.0 0.055763394 -0.0124263815 0.5759355182 -0.5440312897 0.5755106782 -0.5447031908 0.0561859227 -0.0126403319
375297750.0 0.0550742685 -0.0123966472 0.5697241591 -0.5508167129 0.5694805593 -0.5514571213 0.0556935899 -0.0134795627
380297720.0 0.0549585366 -0.0138208276 0.5632624911 -0.5570607555 0.5634139063 -0.5571088653 0.0553913351 -0.014200471
385297690.0 0.0549335297 -0.0139257903 0.557365852 -0.5629227479 0.5572560538 -0.5631004062 0.05474908 -0.0146479407
390297660.0 0.0543173852 -0.0148357125 0.5508887895 -0.5697208196 0.5513643118 -0.5703762804 0.0550480412 -0.0156359069
395297630.0 0.0544620182 -0.0157520608 0.5455111681 -0.5751036266 0.5451067607 -0.5759546046 0.0543265792 -0.0156035766
400297600.0 0.0538818735 -0.0159972283 0.5384002775 -0.5823020904 0.5387203772 -0.5822700613 0.0533615296 -0.0168164564
405297570.0 0.0538684775 -0.0167036689 0.5320476362 -0.5880092109 0.5320864382 -0.5882851566 0.0537375679 -0.0168179066
410297540.0 0.0537628218 -0.0174165917 0.52511827 -0.5941432058 0.5252759512 -0.5939128703 0.0532984063 -0.0175578438
415297510.0 0.053424403 -0.017210295 0.5191543851 -0.5992286167 0.5193313458 -0.599922352 0.0525659873 -0.0179644803
420297480.0 0.0531827175 -0.0188592914 0.5121942949 -0.6057678569 0.5124977199 -0.6056446545 0.0525998614 -0.0190460525
425297450.0 0.0533663072 -0.0194768164 0.5056590747 -0.6109854182 0.5056818144 -0.6108863381 0.0521654169 -0.0189154214
430297420.0 0.0524084266 -0.0196747826 0.4991269333 -0.6171973819 0.499011831 -0.6174310784 0.0513123251 -0.0202128297
435297390.0 0.0523629287 -0.0206081939 0.4925153626 -0.6218168217 0.4922609002 -0.6219939608 0.05102391 -0.0199384715
440297360.0 0.0522652387 -0.0213774802 0.48473723 -0.6275021565 0.4849993823 -0.6278532027 0.0509552742 -0.0213359499
445297330.0 0.0524263552 -0.0221490635 0.4780059954 -0.6333365983 0.4781053402 -0.6331947936 0.0505233475 -0.0215862471
450297300.0 0.0518649192 -0.0223108988 0.4714633636 -0.6380189222 0.4713896549 -0.6386811237 0.0503379181 -0.0219450805
455297270.0 0.0510602967 -0.0232813585 0.464938441 -0.6436771387 0.464898855 -0.6436177638 0.0500700153 -0.0224202845
460297240.0 0.0505820122 -0.02375061 0.456566656 -0.6485521281 0.4567903128 -0.6487428148 0.049610212 -0.0224949487
465297210.0 0.0507829597 -0.0245581913 0.4505495285 -0.6543040268 0.4506389677 -0.6541517645 0.0486566673 -0.0239145309
470297180.0 0.0499335009 -0.0251816576 0.4432772215 -0.6585476598 0.4438732604 -0.659027087 0.0479114099 -0.0242178955
475297150.0 0.0494845864 -0.0263495895 0.435246708 -0.6631142854 0.4360659917 -0.6630181106 0.0480290216 -0.0247582635
480297120.0 0.0498134105 -0.026859467 0.4284563519 -0.6680976371 0.4288189615 -0.6680132398 0.0476064626 -0.0245175189
485297090.0 0.0496701431 -0.0272555526 0.4215179276 -0.6727422932 0.4213580482 -0.6731887904 0.0467700735 -0.0257181662
490297060.0 0.0490112476 -0.0280586264 0.4137666174 -0.6779830093 0.4135619622 -0.6779761016 0.0469314111 -0.0255269397
495297030.0 0.047974085 -0.0281285306 0.4058738571 -0.6822697816 0.4060919031 -0.6824308512 0.0465120101 -0.0264446672
500297000.0 0.0480236157 -0.0292507174 0.3988759903 -0.6865460092 0.3987613467 -0.6869745313 0.0451881187 -0.0269182236
505296970.0 0.0471146063 -0.0297592868 0.3912650582 -0.6903817556 0.390446997 -0.6908977449 0.045033117 -0.0273091611
510296940.0 0.0470979163 -0.0301156744 0.3837682887 -0.6955273007 0.3836847315 -0.6951476772 0.0449627113 -0.0271555394
515296910.0 0.0461055261 -0.0307132475 0.3757541373 -0.6989501198 0.3757459747 -0.699151488 0.0440579549 -0.0278833613
520296880.0 0.0459584516 -0.0314787393 0.3681928202 -0.7032398479 0.3684147731 -0.7033244827 0.0440080508 -0.028512665
525296850.0 0.0454615653 -0.0320400914 0.3604939794 -0.707795565 0.3603509509 -0.7079573652 0.0438473548 -0.0290066985
530296820.0 0.0450972534 -0.0326585904 0.3528218694 -0.7102666939 0.3522068684 -0.7114579647 0.042550173 -0.0299089263
535296790.0 0.0442865716 -0.0328466805 0.3448779149 -0.7148251373 0.3453993505 -0.7150354643 0.0428298502 -0.0303351146
540296760.0 0.0440138633 -0.0338931714 0.3370633511 -0.7196255822 0.3366038917 -0.7190658911 0.0414019929 -0.030098854
545296730.0 0.0436280893 -0.0334463335 0.3290506706 -0.7221646039 0.3292454693 -0.7230084256 0.041231404 -0.031159609
550296700.0 0.042481293 -0.0344478805 0.3217913887 -0.7261790221 0.3216868028 -0.726675263 0.0408690289 -0.0305184816
555296670.0 0.0427090591 -0.0352068546 0.3130608496 -0.7302033292 0.3133719787 -0.7299502909 0.0401604261 -0.0312109173
560296640.0 0.0418992477 -0.0355826049 0.3057890543 -0.7327639753 0.3053830685 -0.7329613441 0.0395289492 -0.0317205528
565296610.0 0.0407067376 -0.0362523383 0.2970050113 -0.736679743 0.2967258098 -0.7367783023 0.0389517375 -0.0325231249
570296580.0 0.0411458524 -0.0367519126 0.2894648567 -0.7399388289 0.2895338483 -0.7399017744 0.0385841469 -0.0316479116
575296550.0 0.0401705724 -0.0362798913 0.2816300613 -0.7425823495 0.2813174878 -0.7425839969 0.0385523314 -0.0329085205
580296520.0 0.0394571107 -0.0372790275 0.2734705241 -0.7460587132 0.2725520547 -0.7462940562 0.0377464219 -0.033433929
585296490.0 0.0394783772 -0.0379294058 0.2655616817 -0.7490037112 0.2647758243 -0.7488327286 0.0371018192 -0.0338973546
590296460.0 0.0379946237 -0.0387599993 0.2566722135 -0.7518144026 0.2565919123 -0.7518017491 0.0368130864 -0.0337462595
595296430.0 0.0376512611 -0.0386246444 0.2487191018 -0.7547917902 0.2482054266 -0.7545511961 0.0365804159 -0.0340975984
600296400.0 0.0369635491 -0.0387391329 0.2404803121 -0.757087593 0.2409358125 -0.7571140903 0.0356716102 -0.0341557651
605296370.0 0.0368325008 -0.0387511343 0.2318995472 -0.7595903316 0.2316625655 -0.7596125313 0.0351273689 -0.0350557426
610296340.0 0.0359297753 -0.0394944646 0.2238541324 -0.7625844575 0.2238389699 -0.7625056525 0.0346589861 -0.0345331402
615296310.0 0.0353786233 -0.0394795905 0.2154971739 -0.7642663009 0.2151852772 -0.7650629921 0.034469132 -0.0352963537
620296280.0 0.0346504073 -0.0400267273 0.2073110664 -0.7668291182 0.207060482 -0.7667683532 0.0337278335 -0.0357145351
625296250.0 0.034322883 -0.0402677156 0.1980793382 -0.7689294363 0.1987034812 -0.7696360007 0.0332474384 -0.0356355728
630296220.0 0.033789962 -0.0407267522 0.1899781598 -0.7718473709 0.1903411952 -0.7712941553 0.0319255816 -0.035930195
635296190.0 0.0330318043 -0.0409259029 0.1815322096 -0.7728460022 0.1814998756 -0.7727931573 0.031640196 -0.0363277018
640296160.0 0.0322595877 -0.041266713 0.1731766788 -0.77496365 0.1734953915 -0.7751358559 0.0318180195 -0.036555995
645296130.0 0.031878832 -0.0411386087 0.1651064755 -0.7773189982 0.1647909025 -0.7769785894 0.0299337008 -0.0372526501
650296100.0 0.0308909424 -0.0411258984 0.157055847 -0.778474024 0.1567476247 -0.7784213751 0.0298324483 -0.0372264667
655296070.0 0.0303093533 -0.0418447557 0.148340142 -0.7801469506 0.1476538288 -0.7798866345 0.0299361082 -0.0368136622
660296040.0 0.0293632079 -0.0417282091 0.1397668847 -0.7816432855 0.1395028778 -0.7814142869 0.0287593422 -0.0377959645
665296010.0 0.0294727749 -0.0426144921 0.1312196574 -0.7832997604 0.1316390261 -0.7834328094 0.0276812131 -0.0372710756
670295980.0 0.0290727729 -0.0423588068 0.1222755537 -0.7849524576 0.1227314486 -0.7846666517 0.0270663621 -0.037733636
675295950.0 0.0283827903 -0.0423708065 0.1135978435 -0.7858264926 0.1140760147 -0.786398995 0.0271905121 -0.0377886423
680295920.0 0.0274741959 -0.0423325806 0.1053698828 -0.787238713 0.1053211841 -0.7873378379 0.0266086947 -0.0384562817
685295890.0 0.0268338936 -0.0427280936 0.0969757788 -0.7880524708 0.0965254259 -0.7888851655 0.0259035138 -0.0382269633
690295860.0 0.0266419813 -0.0430415758 0.0880739343 -0.7882430448 0.0879428013 -0.7886867094 0.0257114716 -0.0380489523
695295830.0 0.0263103943 -0.0434552699 0.0786917039 -0.7903109165 0.0790286229 -0.7904625396 0.0242173949 -0.038301807
700295800.0 0.0257440014 -0.0434621928 0.0704340859 -0.7911008367 0.0705214496 -0.7914504393 0.0238602372 -0.0390712487
705295770.0 0.024768528 -0.0436731464 0.062091215 -0.7912984516 0.0624769583 -0.7913656562 0.0233506716 -0.0392707031
710295740.0 0.0241783677 -0.0432873709 0.0535416317 -0.7923200457 0.0535902782 -0.791824445 0.0216016518 -0.0386487514
715295710.0 0.0235801636 -0.0439693636 0.0452504342 -0.7928720011 0.045156845 -0.7934732825 0.0217946774 -0.0397365269
720295680.0 0.0226956584 -0.04420602 0.0364509246 -0.7929804869 0.0363414288 -0.7935049356 0.021618701 -0.0390625914
725295650.0 0.0226545399 -0.0440251664 0.0274277275 -0.793471141 0.0276088907 -0.793269335 0.0208287954 -0.0389519154
730295620.0 0.0212212705 -0.0444820009 0.0190105942 -0.7936965483 0.0187584669 -0.7940677908 0.0205984889 -0.0401951072
735295590.0 0.0213137149 -0.0442545243 0.010995496 -0.7938244818 0.0107033887 -0.7940605382 0.0193177929 -0.0394652257
740295560.0 0.0203116014 -0.0441904978 0.001472483 -0.7935501904 0.0018879337 -0.7941985205 0.0194904283 -0.0401210962
745295530.0 0.0200791244 -0.0448113414 -0.0066364727 -0.7943832547 -0.0069909458 -0.7940000318 0.01788888 -0.039891533
750295500.0 0.0192656764 -0.044716716 -0.0154585093 -0.7932980829 -0.0153437322 -0.7931440194 0.0182412294 -0.0400642785
755295470.0 0.0188441341 -0.0445377483 -0.0237543946 -0.7937486225 -0.0239677339 -0.7940616677 0.0168693745 -0.0401216377
760295440.0 0.0177548088 -0.0444346128 -0.0328317595 -0.7926689279 -0.0325218166 -0.7932433774 0.0160257812 -0.0404456122
765295410.0 0.0170078555 -0.0451392474 -0.0403537095 -0.7926165869 -0.0407744977 -0.7928806511 0.0164914969 -0.0396886577
770295380.0 0.0169580075 -0.0448636143 -0.0502134661 -0.7920253517 -0.0498684096 -0.7922972772 0.0160298306 -0.0395105073
775295350.0 0.0162168735 -0.04446912 -0.0585497674 -0.7909694641 -0.0583782943 -0.7916549441 0.0147844538 -0.0410321323
780295320.0 0.0156925792 -0.0447998956 -0.0669579071 -0.7908638395 -0.0666310218 -0.7909139899 0.0141877173 -0.0397456626
785295290.0 0.0148214678 -0.0445704487 -0.0755767716 -0.7891979185 -0.0757149286 -0.7903393825 0.0132190327 -0.0406841144
790295260.0 0.0141281925 -0.0444063268 -0.0838980985 -0.7893741699 -0.083732998 -0.7896500886 0.0131618451 -0.0405192147
795295230.0 0.0135361423 -0.0447566304 -0.0925589203 -0.7876684814 -0.0924290051 -0.788190811 0.0120774686 -0.0393579032
800295200.0 0.0128025792 -0.044521878 -0.1019562624 -0.7872564244 -0.1018198116 -0.7877303914 0.0119401156 -0.040101954
805295170.0 0.0117458587 -0.0448409157 -0.1097147349 -0.7854812032 -0.1096853313 -0.7857362723 0.0107958902 -0.040447926
810295140.0 0.0115657373 -0.0447880696 -0.1180117059 -0.7846293212 -0.1181437507 -0.7852620468 0.0106847426 -0.0398259553
815295110.0 0.0108425219 -0.0443283218 -0.127362393 -0.7826788261 -0.1270561692 -0.7834913324 0.0097123649 -0.0403847212
820295080.0 0.0101197859 -0.0447871299 -0.1353047707 -0.7819963347 -0.1352798754 -0.7824402216 0.0091054995 -0.039967816
825295050.0 0.0094150796 -0.0448341943 -0.1438158972 -0.7805029722 -0.1437636933 -0.7803935568 0.0089019087 -0.0399692124
830295020.0 0.0088923041 -0.0442644645 -0.1525397917 -0.77848124 -0.1530542411 -0.7789830063 0.0083055046 -0.0403624256
