!Created with skrf (http://scikit-rf.org).
# Hz S RI R 50.0 
!freq ReS11 ImS11 ReS21 ImS21 ReS12 ImS12 ReS22 ImS22
300000.0 -0.3223232113 -0.0821922565 0.3761431205 0.044123946 0.3744945511 0.0430580157 -0.3208207417 -0.1008003249
5299970.0 -0.3264067159 0.0042828177 0.3781590447 0.0025227423 0.3785569676 0.0025018878 -0.3241784463 0.0048029852
10299940.0 -0.3240950506 0.0132699677 0.3794129966 0.0022985301 0.3794762101 0.0021985128 -0.3215986457 0.0157569448
15299910.0 -0.3212401246 0.020360732 0.3816195203 0.0019638859 0.3820564861 0.0020855398 -0.3184960788 0.0237191344
20299880.0 -0.3189266157 0.0260172734 0.3847597521 0.0016872151 0.3848913736 0.0015201794 -0.3147395127 0.0301978832
25299850.0 -0.3157960935 0.0313058539 0.38826469 0.0001478518 0.38814511 4.21809e-05 -0.3108039907 0.0359042877
30299820.0 -0.3125915457 0.0358060499 0.3911231428 -0.00233043 0.3911065436 -0.0024091233 -0.3070665231 0.0407357753
35299790.0 -0.3101396787 0.0398427137 0.3946380954 -0.0055211976 0.3948343437 -0.005447316 -0.3036378841 0.0450729532
40299760.0 -0.3071266867 0.0434277653 0.3979949354 -0.0086251679 0.3981553845 -0.0089577001 -0.3003589786 0.048339249
45299730.0 -0.3046859673 0.0466742784 0.4005888592 -0.0128737097 0.4010635456 -0.0124738198 -0.2972901116 0.0518313786
50299700.0 -0.3023819553 0.049234351 0.4035212115 -0.0171427202 0.403203464 -0.0169712464 -0.2939945379 0.0543134111
55299670.0 -0.3002929195 0.0520841335 0.4056527547 -0.0223240197 0.405370354 -0.0219255725 -0.2917804702 0.0570133352
60299640.0 -0.2978567977 0.0548663095 0.4073722862 -0.0271880474 0.407361953 -0.0267297243 -0.2887932296 0.0594208998
65299610.0 -0.29626737 0.0571788241 0.4090558854 -0.0318185863 0.4092798767 -0.0317696632 -0.2872153436 0.0619286909
70299580.0 -0.2945118271 0.0597627214 0.4103380924 -0.0369954276 0.4104225493 -0.0367752144 -0.2851467942 0.0640875252
75299550.0 -0.2930916858 0.0623376703 0.4115158002 -0.0420790462 0.4109414243 -0.042198307 -0.2828481843 0.0659390385
80299520.0 -0.2914662953 0.0647514215 0.4124026986 -0.0475346367 0.4124396652 -0.0473898293 -0.2813703187 0.0679652233
85299490.0 -0.2902531444 0.0667828742 0.412737087 -0.0520979291 0.4130020301 -0.0524609403 -0.2800316236 0.0703055048
90299460.0 -0.2890116575 0.069331498 0.412977525 -0.0578890923 0.4136214515 -0.0577245113 -0.2783499209 0.0721063228
95299430.0 -0.2873834215 0.0716544618 0.4139119725 -0.0631801475 0.4134447949 -0.0630641525 -0.276439425 0.0741410321
100299400.0 -0.2863837488 0.0742188981 0.4130519586 -0.068240345 0.4133821691 -0.0683138196 -0.2751973775 0.0762204907
105299370.0 -0.2854096046 0.0764770576 0.4133591992 -0.0736464535 0.4134215718 -0.0733179695 -0.2739267254 0.078158139
110299340.0 -0.2838541867 0.0790460362 0.4134306956 -0.078818717 0.4131223575 -0.0783674076 -0.272745383 0.0802822278
115299310.0 -0.2828186652 0.0809172037 0.412800548 -0.0839413134 0.4130355865 -0.0836566221 -0.2716421098 0.0823292324
120299280.0 -0.2819586788 0.0827618999 0.4123188395 -0.0887424558 0.4122306685 -0.0889556811 -0.2704782578 0.0846922677
125299250.0 -0.2807371704 0.0855617214 0.411740196 -0.0936925731 0.4118747462 -0.0937416932 -0.2695230188 0.0864739208
130299220.0 -0.2805181145 0.0882207784 0.4111011218 -0.0992431415 0.4110332507 -0.0989013491 -0.2686029103 0.0886312675
135299190.0 -0.2792265756 0.0905316583 0.4106287461 -0.1040478115 0.4104274658 -0.1038053066 -0.2674567758 0.0909673301
140299160.0 -0.2784299738 0.0933396784 0.4096744672 -0.1093385739 0.4100065706 -0.1091090821 -0.2663973793 0.0934241598
145299130.0 -0.2775407059 0.0955874936 0.4091925518 -0.1141220342 0.4085268538 -0.1138408292 -0.2651045716 0.095881778
150299100.0 -0.2765152557 0.0982364779 0.4077446678 -0.1186211318 0.4077049836 -0.118486295 -0.2641431729 0.0986562883
155299070.0 -0.2755402425 0.1007598565 0.4067241605 -0.1243664981 0.4065923388 -0.1239370062 -0.2633018424 0.101010161
160299040.0 -0.2745198546 0.1033629351 0.4053005466 -0.128755021 0.4052758949 -0.1290082406 -0.2626974675 0.1033472937
165299010.0 -0.2737315659 0.1059715784 0.4042163626 -0.1336925187 0.4041853901 -0.1335908728 -0.2612736458 0.105773802
170298980.0 -0.2729862871 0.1084956064 0.4026853789 -0.1383173044 0.4029142671 -0.1384206211 -0.2602929233 0.108428492
175298950.0 -0.2718351841 0.1110768023 0.4015083638 -0.1429373538 0.4013457402 -0.1429281862 -0.2596317861 0.1106895951
180298920.0 -0.2709994344 0.1139568306 0.4000988848 -0.1480068947 0.3998525998 -0.1476782866 -0.2583948324 0.1133014401
185298890.0 -0.2696602942 0.1166637379 0.3985324203 -0.1528370954 0.3984341575 -0.1524929315 -0.2572722524 0.1159454667
190298860.0 -0.2685480578 0.1190894145 0.39717356 -0.1572798837 0.3972713916 -0.157131685 -0.2563800286 0.1182748998
195298830.0 -0.26780472 0.121778481 0.3952547036 -0.1620140122 0.3952875269 -0.161860915 -0.2550836202 0.1209036578
200298800.0 -0.2664878459 0.1246785281 0.3935492556 -0.1667141713 0.3936179017 -0.1665278057 -0.2546317769 0.1230804323
205298770.0 -0.2654796944 0.1271036444 0.3914582001 -0.1713127358 0.3913034758 -0.1706729048 -0.253077678 0.1252710719
210298740.0 -0.264140112 0.129732478 0.3896170295 -0.1753198937 0.389628198 -0.1752876987 -0.2518228526 0.1284825374
215298710.0 -0.2634167536 0.132821256 0.3878818887 -0.179941412 0.387877266 -0.1802868896 -0.2510812314 0.1309632358
220298680.0 -0.2619206556 0.1351088937 0.3856828828 -0.1842917934 0.3856152961 -0.1845144988 -0.2501216942 0.1334118504
225298650.0 -0.2609105715 0.137882625 0.3838793608 -0.188730221 0.3842703828 -0.1889210069 -0.2490236821 0.1358013781
230298620.0 -0.2596055686 0.1408379977 0.3818058805 -0.1933298015 0.3824988258 -0.1932140098 -0.2479352045 0.1384224561
235298590.0 -0.2582088464 0.1440971619 0.3798334025 -0.1981310804 0.3798296394 -0.1972524483 -0.2464513309 0.1409097563
240298560.0 -0.2570283473 0.1462936348 0.3778155752 -0.2022575645 0.3778728145 -0.2022644373 -0.2454020137 0.1436879076
245298530.0 -0.2559201179 0.1489389128 0.375708092 -0.2064504451 0.3755217139 -0.2066218166 -0.244126929 0.1455759344
250298500.0 -0.2543450345 0.1518280287 0.3730328568 -0.211017035 0.3728986395 -0.2106014375 -0.2425594182 0.1484205257
255298470.0 -0.252842578 0.1540523485 0.3702503656 -0.2146136733 0.3706176252 -0.2146369394 -0.241059821 0.150921984
260298440.0 -0.2517636386 0.1567071511 0.3684965109 -0.2191767074 0.3685950315 -0.219226028 -0.2395670109 0.153621639
265298410.0 -0.2499265116 0.1598259664 0.3660686717 -0.2231568124 0.3660756859 -0.2228901057 -0.2382707462 0.1563092288
270298380.0 -0.2485644149 0.1624695725 0.363783964 -0.2272371762 0.3637609991 -0.2276290584 -0.2366271655 0.1587320657
275298350.0 -0.2468229517 0.1652055519 0.3609152343 -0.2316256439 0.3612310074 -0.23186519 -0.2352490789 0.1611713966
280298320.0 -0.245006932 0.1678893059 0.3588070817 -0.2357792235 0.3586879671 -0.2353478152 -0.2334523608 0.1635173767
285298290.0 -0.2434631114 0.1709142637 0.3559779366 -0.2398294897 0.3559970982 -0.2398134455 -0.2318156472 0.1659645092
290298260.0 -0.2418094096 0.173110192 0.3532982006 -0.2435137106 0.3533348119 -0.2435739229 -0.2301916544 0.1689630941
295298230.0 -0.2398052528 0.1753027908 0.3507985865 -0.2473107066 0.3504099936 -0.2478277888 -0.2284136892 0.1709840799
300298200.0 -0.2385808338 0.1785762106 0.3479341846 -0.2514921613 0.3481943674 -0.2518920788 -0.2268015509 0.1738140292
305298170.0 -0.2366768262 0.1806362353 0.3451372879 -0.2560346238 0.3452487791 -0.2558403907 -0.224580214 0.1757336397
310298140.0 -0.234993645 0.1833618586 0.3423583286 -0.259577625 0.3427256144 -0.2593105053 -0.2231706352 0.1782886478
315298110.0 -0.2330393886 0.1859066468 0.3396583382 -0.2633061378 0.3394020124 -0.2634641742 -0.2212087606 0.1805566304
320298080.0 -0.2313260373 0.1882127688 0.3362558561 -0.2676077209 0.3365048747 -0.2669731426 -0.219413644 0.1831003565
325298050.0 -0.2294180584 0.1907071832 0.3334089251 -0.2713427239 0.3333531471 -0.2709029503 -0.2180968445 0.185287958
330298020.0 -0.2274534893 0.1930610626 0.3301853156 -0.2748236601 0.3305278155 -0.2748533747 -0.2161780672 0.1878995823
335297990.0 -0.2257276692 0.1954980432 0.3269867068 -0.2785105355 0.3270389887 -0.2784060126 -0.2147013643 0.1906336125
340297960.0 -0.2242322272 0.1980775878 0.3238543371 -0.2819510659 0.3238243435 -0.2821752475 -0.2123666388 0.1930926921
345297930.0 -0.222244006 0.2011114142 0.3208228026 -0.286002802 0.3207078739 -0.2857207976 -0.2108933291 0.1949327775
350297900.0 -0.2203256597 0.2030320908 0.3170589745 -0.289272877 0.3176247301 -0.2893242559 -0.2088729145 0.1979278463
355297870.0 -0.217933011 0.2062628386 0.3139998259 -0.2932712112 0.3145510505 -0.2925819015 -0.2070220813 0.1998555421
360297840.0 -0.2159001018 0.2084371871 0.3112215188 -0.2961334126 0.3114518264 -0.2961393446 -0.2049100347 0.2027105418
365297810.0 -0.2142963891 0.211009182 0.3078455257 -0.2997709315 0.3078240273 -0.2997819555 -0.2028567621 0.2048948278
370297780.0 -0.2117752862 0.213157314 0.3038278318 -0.3026490176 0.3047368425 -0.302789765 -0.2008056017 0.2071785063
375297750.0 -0.2096068128 0.2156819648 0.3010282871 -0.3062822137 0.3014774537 -0.3063836322 -0.1990631199 0.2095733024
380297720.0 -0.207596929 0.2181311353 0.2977857063 -0.309847455 0.2978101227 -0.309470448 -0.1970659583 0.2118022565
385297690.0 -0.2055136117 0.2201701272 0.2941116466 -0.3126800789 0.2939600932 -0.3126778203 -0.1945894481 0.2140575868
390297660.0 -0.2031951634 0.2227057437 0.2905093142 -0.3159642987 0.2906868492 -0.3157086626 -0.192528941 0.2163416094
395297630.0 -0.2009517412 0.225281316 0.2872764154 -0.3195872002 0.2871626744 -0.3192819379 -0.1902663662 0.2183252406
400297600.0 -0.1983907199 0.2274335238 0.2834213197 -0.3224845587 0.2837321415 -0.3223191472 -0.1884023491 0.2206686404
405297570.0 -0.1964796591 0.229350141 0.2801414349 -0.3252979495 0.2800289887 -0.3251855026 -0.1862901761 0.2228468275
410297540.0 -0.193887492 0.2316854027 0.2764809806 -0.3287989755 0.2770007069 -0.3284257422 -0.1839225701 0.2250122765
415297510.0 -0.1912505358 0.2337397532 0.2726319557 -0.331702862 0.2729142311 -0.3316047114 -0.1812960499 0.227204562
420297480.0 -0.1893929049 0.2365509891 0.2689185844 -0.3346873597 0.2690524774 -0.3344948696 -0.1790899247 0.229064896
425297450.0 -0.1866472446 0.2382504578 0.2653911481 -0.3371780975 0.2659982668 -0.3376430441 -0.1772670878 0.2313538171
430297420.0 -0.1843361455 0.2404218626 0.2619071542 -0.3399618204 0.2618182512 -0.3398319824 -0.1749675001 0.2330559455
435297390.0 -0.1816818636 0.2424210786 0.2573648996 -0.3430189845 0.2576576293 -0.3430662789 -0.1716765215 0.234944047
440297360.0 -0.1793056177 0.2445041432 0.2539670604 -0.3460624358 0.2541250674 -0.3457803398 -0.1697111094 0.2370429686
445297330.0 -0.1768123574 0.2465009244 0.2503781607 -0.3484935088 0.2503738713 -0.3483242573 -0.1671080353 0.2386763956
450297300.0 -0.1737101363 0.2483764471 0.2463587913 -0.351248676 0.2465071229 -0.3513314122 -0.1646547232 0.2404462708
455297270.0 -0.1717403986 0.2505925182 0.2425807978 -0.3536882195 0.2426044767 -0.3537263199 -0.1623628265 0.2423904148
460297240.0 -0.1690553769 0.2523590294 0.23823618 -0.3564126119 0.2386554996 -0.3565384361 -0.1596987539 0.2447916657
465297210.0 -0.1663068855 0.2545400225 0.2346883621 -0.359121442 0.234822632 -0.3593529115 -0.1567600291 0.2458783302
470297180.0 -0.1635750009 0.2562076007 0.2305162471 -0.3612870841 0.2310547643 -0.3616318225 -0.1542207086 0.2481946497
475297150.0 -0.1609846202 0.2579082326 0.2261725408 -0.3634154033 0.2268734848 -0.364061187 -0.1514980601 0.2494837549
480297120.0 -0.1583113245 0.2601386444 0.2225234048 -0.3667443142 0.2230607152 -0.3668905409 -0.1487145891 0.2515658278
485297090.0 -0.1553923701 0.2617495478 0.2188602513 -0.3685298228 0.2190312521 -0.3686152217 -0.1462743087 0.2530400349
490297060.0 -0.1529481346 0.2636387187 0.2149413739 -0.3711667079 0.2145540935 -0.3708862058 -0.1436371651 0.2547895551
495297030.0 -0.1503035227 0.2654198474 0.2103932013 -0.3735941555 0.2111545113 -0.3733038565 -0.1413144322 0.2568251677
500297000.0 -0.1473836545 0.266945429 0.2063976682 -0.3753258096 0.2060205619 -0.3754076117 -0.1378650834 0.258774679
505296970.0 -0.144546866 0.2687861651 0.2024193682 -0.377753354 0.2022959892 -0.3780062251 -0.1355752483 0.2598581767
510296940.0 -0.1415093759 0.2703552533 0.1980904228 -0.3799663392 0.1981438641 -0.3798687873 -0.1325993909 0.2619463513
515296910.0 -0.1386556813 0.2721549921 0.1938741892 -0.3822323782 0.1938654733 -0.38198977 -0.130139823 0.2634073428
520296880.0 -0.1362138977 0.2736051436 0.1897878342 -0.3846708157 0.1896864 -0.3841071211 -0.127487338 0.2645317247
525296850.0 -0.1329954645 0.2748107585 0.1853299566 -0.3865006952 0.1855123311 -0.3863967298 -0.1246771044 0.2664672302
530296820.0 -0.1300713049 0.2768051697 0.1812604818 -0.3882554491 0.1814624461 -0.3883400355 -0.1221178988 0.2680099205
535296790.0 -0.1278129788 0.27829562 0.1775098164 -0.3900475391 0.1771330969 -0.3896267003 -0.1192559298 0.2690058474
540296760.0 -0.1244574517 0.279672213 0.1728176993 -0.3924475707 0.1726303104 -0.3922201412 -0.1163559207 0.2712021313
545296730.0 -0.1219382535 0.2814395153 0.1681476019 -0.3940985959 0.1685745328 -0.3938145354 -0.1138474654 0.2719596352
550296700.0 -0.1188795684 0.2827023195 0.1639574325 -0.3955459847 0.1642137818 -0.3957056694 -0.11089709 0.2735823702
555296670.0 -0.1157725973 0.2838845876 0.1599848518 -0.3974945652 0.1604515212 -0.397376727 -0.1080432089 0.2753392613
560296640.0 -0.1125999661 0.2858361858 0.1554446488 -0.3992438786 0.1556419921 -0.3991617681 -0.1051260488 0.276421912
565296610.0 -0.109723958 0.2870420184 0.1509004564 -0.4007067667 0.1513152291 -0.4009359876 -0.1023821424 0.277488713
570296580.0 -0.1072338715 0.287974556 0.1467415094 -0.4027607487 0.1465587384 -0.402279436 -0.0998128853 0.2790407622
575296550.0 -0.1041890655 0.2894666159 0.1426024672 -0.4040764551 0.1420533733 -0.4040592549 -0.0964629674 0.2802100771
580296520.0 -0.1005530047 0.2909925791 0.1381625653 -0.4054939573 0.1376840094 -0.4054154936 -0.0933131284 0.2811825108
585296490.0 -0.0978407326 0.2915524072 0.1336564104 -0.4064742661 0.1338037234 -0.4068253823 -0.0905003915 0.2823856943
590296460.0 -0.0946620418 0.2930109404 0.1291458693 -0.4076813177 0.1291494371 -0.4080645972 -0.0880324325 0.283505701
595296430.0 -0.0917345903 0.2943028769 0.1241895022 -0.4097455273 0.1242972991 -0.4095887229 -0.084833838 0.2841418937
600296400.0 -0.0889644827 0.2954904666 0.1201148429 -0.411086834 0.1201232932 -0.4106477666 -0.0818668944 0.2854898503
605296370.0 -0.0857829167 0.2963056016 0.1159351751 -0.4120853727 0.1161281642 -0.4118338069 -0.0784672886 0.2863117901
610296340.0 -0.0824050476 0.2973271653 0.1108589206 -0.413282885 0.1111667171 -0.4130969657 -0.0756578601 0.2872251208
615296310.0 -0.0788787039 0.2981925695 0.1063291721 -0.4141406097 0.106477912 -0.4148139022 -0.0726325744 0.2878511637
620296280.0 -0.0760125074 0.2988128475 0.101716372 -0.4150903773 0.1021665955 -0.4151031292 -0.0696994781 0.2889882823
625296250.0 -0.0731048537 0.2998384897 0.0979679176 -0.4162644924 0.0976919059 -0.4165683512 -0.0660152593 0.2894929169
630296220.0 -0.0694029354 0.3008180937 0.0926203016 -0.417690036 0.0927199285 -0.4172331785 -0.0633459168 0.2907313533
635296190.0 -0.0669939696 0.3016939831 0.0885763613 -0.4182366322 0.0885615578 -0.418636765 -0.0602285398 0.2914518766
640296160.0 -0.0639352296 0.3024121818 0.0838005963 -0.4190854751 0.0840429111 -0.4191734614 -0.0571547713 0.2924603258
645296130.0 -0.0605150139 0.3035729094 0.0791487725 -0.4196640831 0.0795583015 -0.4201285474 -0.0538380391 0.2933552713
650296100.0 -0.0572668291 0.3043516906 0.0745017612 -0.4207534723 0.0747977705 -0.4208178606 -0.0509113604 0.2933553876
655296070.0 -0.0541192105 0.3048532495 0.070079809 -0.4215835401 0.0704247537 -0.4216954222 -0.0477558511 0.2942878201
660296040.0 -0.0512613682 0.3053720689 0.065976228 -0.4222564053 0.0657838246 -0.4226366026 -0.044461701 0.2953148518
665296010.0 -0.0475257779 0.305863695 0.0609058109 -0.422896962 0.0609608305 -0.4229076286 -0.0413397369 0.2962960652
670295980.0 -0.0449034306 0.3067600211 0.0568399195 -0.4234720915 0.0566868706 -0.4238918259 -0.0384041948 0.2964037944
675295950.0 -0.0414573044 0.3074715068 0.0520531024 -0.424190809 0.0519700554 -0.4236158693 -0.0353862585 0.2970967642
680295920.0 -0.03815613 0.3079481604 0.0470769435 -0.4244254395 0.0467339825 -0.4248843278 -0.0323141573 0.2980614493
685295890.0 -0.034856674 0.3088537767 0.0423866786 -0.4250913133 0.0426638319 -0.4251646408 -0.0290876341 0.29821636
690295860.0 -0.031514885 0.3093885479 0.0381218844 -0.4252640041 0.0381012967 -0.4257086282 -0.0259611713 0.2990535002
695295830.0 -0.0287005692 0.3097082005 0.0336931568 -0.425678334 0.0335038951 -0.4254246755 -0.0229789414 0.2992434046
700295800.0 -0.025099382 0.3097737279 0.028541386 -0.4256933209 0.0285903229 -0.4258695924 -0.0200537634 0.2998419065
705295770.0 -0.0221039951 0.3106054821 0.0243295967 -0.4260006303 0.0245335125 -0.4265209627 -0.0167843517 0.3004948372
710295740.0 -0.0183397633 0.3107509929 0.0193989343 -0.4269269243 0.0201375402 -0.4268356958 -0.0135292212 0.3004407193
715295710.0 -0.0157983217 0.3111082955 0.0152964236 -0.4267921335 0.0147419178 -0.4267205108 -0.0103292321 0.300737378
720295680.0 -0.0124573912 0.3113574103 0.0106716395 -0.4267684907 0.010773637 -0.4269730099 -0.0072327102 0.3015202323
725295650.0 -0.0086046816 0.3117449416 0.0054715692 -0.4265957689 0.0060522327 -0.4271019534 -0.0048000078 0.3019567146
730295620.0 -0.0056046295 0.3121324253 0.0011860789 -0.4264341688 0.001273423 -0.4267927939 -0.0013694324 0.3015040827
735295590.0 -0.002570701 0.3121811315 -0.0035731647 -0.4269301755 -0.0034921123 -0.4267097231 0.00170884 0.3011798848
740295560.0 0.0004484856 0.3126129001 -0.0078588393 -0.4267907463 -0.0081446643 -0.4270177825 0.0051601263 0.3020031211
745295530.0 0.0038301532 0.3126551206 -0.0126851327 -0.4262770159 -0.0127102467 -0.4266059746 0.0083806063 0.301667664
750295500.0 0.0073856958 0.3124633775 -0.0174203003 -0.426220825 -0.0171592291 -0.4265126094 0.0114432238 0.3019213518
755295470.0 0.0108000966 0.3126160696 -0.0216871876 -0.4259055643 -0.0218058493 -0.4261148494 0.0148110537 0.3012116302
760295440.0 0.0138190131 0.3125153126 -0.0265812395 -0.4261936812 -0.0264935365 -0.4260675885 0.0179612952 0.3017972532
765295410.0 0.0168673262 0.3126710874 -0.0309396949 -0.4254459482 -0.0313230091 -0.4257220596 0.0210311946 0.3014400816
770295380.0 0.0200861093 0.3125367792 -0.0358794905 -0.4251977898 -0.0359361508 -0.4247237537 0.02411124 0.3013629112
775295350.0 0.0228803144 0.312127304 -0.0400963971 -0.4244258277 -0.0397023551 -0.4244374885 0.0267666141 0.3011928035
780295320.0 0.0266209107 0.3122930374 -0.0449412415 -0.4237285551 -0.0443029344 -0.4240004524 0.0303152785 0.3010684229
785295290.0 0.0296804826 0.3115253267 -0.0498879194 -0.4231340577 -0.0495175042 -0.4237045683 0.0337825625 0.3009999195
790295260.0 0.0334368259 0.311956547 -0.0536665472 -0.4227564412 -0.0535805528 -0.4226749753 0.0371560482 0.3007447388
795295230.0 0.0365652665 0.3115980273 -0.0586255222 -0.4223344699 -0.058024163 -0.4223115189 0.0404484155 0.3003295301
800295200.0 0.0394444453 0.3113113755 -0.0635231092 -0.4212973828 -0.0630921253 -0.4216166156 0.0435035917 0.3002819836
805295170.0 0.0429615118 0.3108553793 -0.0680834095 -0.4205406018 -0.067799336 -0.4208687262 0.0464777827 0.2999837321
810295140.0 0.0462128366 0.3103598463 -0.0720527823 -0.4193645815 -0.0719643668 -0.4201385684 0.0500055306 0.2994524231
815295110.0 0.049365058 0.3099385569 -0.0765368186 -0.4189547017 -0.0766182403 -0.4191489994 0.0529347493 0.2988027049
820295080.0 0.0524361912 0.3100329239 -0.0810199717 -0.417776285 -0.0805670854 -0.4180929601 0.0559364891 0.2987247194
825295050.0 0.056273766 0.3092814097 -0.0855108502 -0.4171327566 -0.0857653999 -0.4172795067 0.0596877392 0.2981835965
830295020.0 0.0591393126 0.3090592537 -0.090470084 -0.4157554923 -0.0899604617 -0.4162956736 0.063259384 0.2978722715
