!Created with skrf (http://scikit-rf.org).
# Hz S RI R 50.0 
!freq ReS11 ImS11 ReS21 ImS21 ReS12 ImS12 ReS22 ImS22
300000.0 -0.2358721618 -0.1240727908 0.466580777 0.0803954397 0.4646950191 0.0827166849 -0.2331859529 -0.1296165593
5299970.0 -0.2448951618 0.0051672967 0.4736284711 0.0057444038 0.4743056414 0.0061588085 -0.2433914162 0.0046925392
10299940.0 -0.2418260382 0.0184676557 0.4759938964 0.0067038793 0.4758442679 0.0070840394 -0.2399432143 0.0179963439
15299910.0 -0.2368784515 0.0283876952 0.4793765675 0.0081933847 0.4799235057 0.0082689573 -0.2359609432 0.0275370649
20299880.0 -0.2314926008 0.0362472517 0.4842369098 0.008265957 0.4841562534 0.0084829153 -0.2308659884 0.035250801
25299850.0 -0.2253487508 0.0428479065 0.4893144454 0.0079403121 0.4898048677 0.0077595968 -0.2258297626 0.0417953682
30299820.0 -0.2201633796 0.0476327912 0.4952923005 0.0055637699 0.494740036 0.0055277908 -0.2204998386 0.0469472184
35299790.0 -0.214266599 0.0518481644 0.4999729571 0.0025468987 0.500307608 0.0024762046 -0.2154850491 0.0515602424
40299760.0 -0.2090599469 0.0548642043 0.5055547988 -0.0017989071 0.5056096788 -0.0018817229 -0.2103118445 0.0548080051
45299730.0 -0.2040760474 0.0573230895 0.5106832182 -0.0059709792 0.5103092835 -0.0063899584 -0.2053588749 0.0577595119
50299700.0 -0.1990092554 0.0590139715 0.514521471 -0.0120994684 0.5143905593 -0.0119555213 -0.2009790568 0.0598700393
55299670.0 -0.1948272726 0.0603536312 0.5179975362 -0.0174553993 0.5179483123 -0.0180030079 -0.1975422973 0.0619356721
60299640.0 -0.1907476566 0.0619040281 0.5214766564 -0.0242263522 0.5217358324 -0.0242448278 -0.1933472575 0.063414601
65299610.0 -0.1871228173 0.062888743 0.5247331041 -0.0302428449 0.5250481267 -0.0302262572 -0.1899162285 0.0647085502
70299580.0 -0.1839287606 0.0632206938 0.5270748669 -0.0366031821 0.5272647922 -0.036835446 -0.1870486391 0.0659239116
75299550.0 -0.1809190844 0.0636140193 0.5286458181 -0.0439934716 0.5290600491 -0.0440237912 -0.1834709771 0.0671171111
80299520.0 -0.1783340153 0.0645162044 0.5310186473 -0.0505222605 0.5313248249 -0.0506732785 -0.1812697752 0.0680835591
85299490.0 -0.1756810334 0.0651177674 0.5320041986 -0.0577435593 0.532462686 -0.0575127467 -0.1790259907 0.0686441241
90299460.0 -0.1734292 0.0653403425 0.5329001639 -0.0641834357 0.5335857247 -0.0644752868 -0.1765537015 0.0698480852
95299430.0 -0.1715009692 0.0658798973 0.5342323449 -0.0716670033 0.5343497648 -0.0718079349 -0.1746046538 0.070600706
100299400.0 -0.1693699691 0.0661928257 0.5342848988 -0.0786028865 0.534940749 -0.0787227195 -0.1729292883 0.0717508227
105299370.0 -0.1676324524 0.0665666464 0.5351418884 -0.0848635092 0.5352040063 -0.0853987329 -0.1705896548 0.072397907
110299340.0 -0.1655339662 0.0667996735 0.5344931884 -0.0916745242 0.5355115154 -0.0918910038 -0.1696555102 0.0732902375
115299310.0 -0.1644379063 0.0676088123 0.5347195962 -0.0986532687 0.5350825305 -0.0990689563 -0.1681669898 0.0743199352
120299280.0 -0.1632097889 0.06818438 0.5351701903 -0.1059108163 0.5350335366 -0.1059817126 -0.1665067992 0.0749122666
125299250.0 -0.1617203076 0.0685999569 0.5345236642 -0.1124321268 0.5348146412 -0.1123639375 -0.1649663113 0.0761985547
130299220.0 -0.160668687 0.0691854527 0.5337994648 -0.1194890763 0.534004123 -0.1196804165 -0.1636171815 0.0771470657
135299190.0 -0.1596265689 0.0702782638 0.5337788601 -0.125603087 0.533570963 -0.1264695315 -0.1629246851 0.0777321365
140299160.0 -0.1586627454 0.0708364511 0.532975217 -0.1327896637 0.5325069395 -0.132463438 -0.1619765174 0.0787751197
145299130.0 -0.1576749638 0.0716400574 0.5317904898 -0.1390279602 0.5319525526 -0.1392693843 -0.160746556 0.080161551
150299100.0 -0.156632969 0.0725577874 0.5304582967 -0.1457859949 0.5303720229 -0.1457092096 -0.1597609922 0.0814285333
155299070.0 -0.1553051538 0.0734541955 0.5289524557 -0.1524157989 0.5294595416 -0.1524425553 -0.1584322772 0.0825800629
160299040.0 -0.1548786616 0.0743408294 0.5279866892 -0.1584472173 0.5278003042 -0.1589822 -0.1576465681 0.0838064512
165299010.0 -0.1537023091 0.0752760088 0.5265767236 -0.1649418694 0.5267035321 -0.1654113063 -0.1561566409 0.084502851
170298980.0 -0.1532224617 0.0763801032 0.5245661186 -0.1717573426 0.525226968 -0.1716834756 -0.1557852121 0.0859085112
175298950.0 -0.1520322543 0.0771553187 0.5234706689 -0.1779066703 0.5238653233 -0.1782963004 -0.1547942694 0.0874172363
180298920.0 -0.1516752315 0.0784661621 0.5215832219 -0.1843157448 0.5214676453 -0.1844470586 -0.1540478294 0.0883035125
185298890.0 -0.150930374 0.0794612701 0.5202798881 -0.1904453939 0.5199318054 -0.1903063578 -0.1526477006 0.089618345
190298860.0 -0.1496051776 0.0808711174 0.5176224452 -0.1966266467 0.5180644693 -0.1965061607 -0.1517639018 0.0911851365
195298830.0 -0.1491514207 0.0818437308 0.5161008083 -0.2024782582 0.516266244 -0.2025880257 -0.1513143132 0.0924093014
200298800.0 -0.1479294001 0.0828510069 0.5136028239 -0.209345731 0.5139382792 -0.2091806766 -0.1497811238 0.0937628407
205298770.0 -0.1476376046 0.0838302229 0.5113325804 -0.2146669841 0.511804457 -0.2145835979 -0.1487317284 0.0951659723
210298740.0 -0.1469175336 0.085353008 0.5095880868 -0.2206906598 0.5093207406 -0.2209039175 -0.1482610517 0.0961903752
215298710.0 -0.1460027835 0.0867556921 0.5065165056 -0.2267161602 0.5068312174 -0.2267589712 -0.1469580862 0.0978116143
220298680.0 -0.1453091879 0.0877144627 0.504365907 -0.2325112017 0.504508705 -0.2327200881 -0.1459208008 0.0991690499
225298650.0 -0.1446413375 0.0888412367 0.5017058314 -0.2381501282 0.5022593034 -0.2383821836 -0.1452843278 0.1004773446
230298620.0 -0.1437194971 0.0905260526 0.4997055577 -0.2444889316 0.4998239551 -0.2445023778 -0.1443039294 0.1015910662
235298590.0 -0.14348541 0.0916971091 0.4976644772 -0.2504328465 0.4973725089 -0.2502987219 -0.1433432605 0.1034367636
240298560.0 -0.1423172066 0.093085496 0.4942470803 -0.2557387836 0.4942771285 -0.2559023437 -0.1423450179 0.1046205162
245298530.0 -0.1416331318 0.0940668226 0.491569464 -0.2616960364 0.491576994 -0.261914566 -0.1411426898 0.1063558174
250298500.0 -0.1408262413 0.0954808102 0.4888398308 -0.2668989729 0.4890686657 -0.2669073887 -0.1403737919 0.1081490883
255298470.0 -0.1398735473 0.0970995474 0.486117213 -0.2723527648 0.4861848407 -0.2726530635 -0.1393269148 0.1093109971
260298440.0 -0.1390220211 0.0980225502 0.4830138039 -0.2775746993 0.4832841392 -0.2780532958 -0.1383340475 0.1105058304
265298410.0 -0.1385541146 0.0994754458 0.4794654791 -0.2838287521 0.4800783135 -0.284091983 -0.136614638 0.1119215013
270298380.0 -0.1378354066 0.1007333211 0.4769073771 -0.2892489981 0.4766964367 -0.2892362464 -0.1357576756 0.1134433934
275298350.0 -0.1365508652 0.1024540463 0.473197822 -0.2942773113 0.47370915 -0.2944335232 -0.1347904069 0.1150905747
280298320.0 -0.1362055335 0.1036139441 0.4703068113 -0.2996184083 0.4706799484 -0.3002336346 -0.1333127454 0.1164835668
285298290.0 -0.1352854841 0.1049362164 0.4672012197 -0.3052272216 0.4676436898 -0.3048107595 -0.1324198632 0.1180673106
290298260.0 -0.1344230541 0.1064966387 0.4644212076 -0.3104624829 0.4643390454 -0.310956552 -0.1308751163 0.1194045839
295298230.0 -0.1335415305 0.1074333181 0.4606044011 -0.3160649108 0.4608269302 -0.3160160208 -0.1298274835 0.1205890008
300298200.0 -0.132162426 0.1090266972 0.4570886325 -0.320950024 0.4572240992 -0.3206783113 -0.1282772847 0.1219806133
305298170.0 -0.1316022044 0.1098912427 0.4540180601 -0.3261688879 0.4538387169 -0.3264840539 -0.1272682201 0.1234559049
310298140.0 -0.130148988 0.1113884992 0.4501026271 -0.331409667 0.4504058534 -0.3312596239 -0.1257906057 0.1247872036
315298110.0 -0.1297306017 0.1120907233 0.4466545974 -0.3366711221 0.4468100868 -0.3368949036 -0.1244216426 0.1260492826
320298080.0 -0.128617051 0.1137644297 0.4424862573 -0.341832777 0.4435226039 -0.3420805211 -0.1237731803 0.1274881832
325298050.0 -0.1283046843 0.1146425216 0.4388265712 -0.3467539473 0.4397448277 -0.3470568261 -0.1218861805 0.1285151915
330298020.0 -0.1276049537 0.1160373686 0.4347829656 -0.3519017209 0.4357503854 -0.3521201091 -0.1213962322 0.1297365291
335297990.0 -0.1265968738 0.1173668251 0.4310408511 -0.3564911935 0.4313147956 -0.3567103504 -0.1197101349 0.131101351
340297960.0 -0.1255200584 0.1186202503 0.4264447201 -0.3615250144 0.4268540526 -0.3616924645 -0.1185454548 0.1329137692
345297930.0 -0.1248894051 0.1197801536 0.4230909894 -0.3667513524 0.4230017592 -0.3663617462 -0.1172335704 0.1337198481
350297900.0 -0.1239857852 0.1210275854 0.419131951 -0.370503466 0.4192866179 -0.3706686049 -0.1161352129 0.1351717836
355297870.0 -0.1232089772 0.1225245433 0.4149247477 -0.3751819015 0.4147729507 -0.3747843888 -0.1146518922 0.1366376671
360297840.0 -0.1218080129 0.1239409339 0.4100291029 -0.3800018041 0.4107911181 -0.3804364075 -0.1133348176 0.1382650111
365297810.0 -0.1211797006 0.1250592997 0.4061325941 -0.3844059248 0.4062680517 -0.38455445 -0.111673859 0.1395925067
370297780.0 -0.119884344 0.1265032543 0.4016758802 -0.3888318188 0.4023167866 -0.3888993625 -0.1106123667 0.1409990165
375297750.0 -0.1193187664 0.1278668398 0.3982556243 -0.3932384046 0.3980179688 -0.3935858855 -0.1089437144 0.1422220749
380297720.0 -0.1179830903 0.1291718315 0.393613163 -0.3976991137 0.3934456214 -0.3976599174 -0.1074053465 0.1435683315
385297690.0 -0.1170313156 0.1301931554 0.3890965998 -0.402045163 0.3893066524 -0.4024506773 -0.1057861752 0.1451388467
390297660.0 -0.1155306878 0.1312242597 0.3841521135 -0.4059753008 0.3849713891 -0.4063675785 -0.1042076618 0.1460969178
395297630.0 -0.1143517061 0.1325757448 0.3802950742 -0.4100360834 0.3801338425 -0.41027593 -0.1029004319 0.1475223102
400297600.0 -0.1135243849 0.133874293 0.3759335893 -0.4142060107 0.375964828 -0.4146246165 -0.1008944998 0.1491395163
405297570.0 -0.1124865802 0.1346948919 0.371468737 -0.4184895225 0.3715094952 -0.4186674998 -0.0992836317 0.1503489767
410297540.0 -0.1110172477 0.1362233601 0.3666980212 -0.4224411532 0.3668892578 -0.4227683764 -0.0978641225 0.1517172459
415297510.0 -0.1098924034 0.1374171081 0.3615691998 -0.4266876968 0.3625494541 -0.4270416776 -0.0963140783 0.1529443769
420297480.0 -0.1087343095 0.1381088151 0.3574358628 -0.4305280449 0.3577655869 -0.4308052126 -0.0943295796 0.1544193303
425297450.0 -0.1071416492 0.1392797768 0.352663284 -0.4340229088 0.35237144 -0.434441563 -0.0928408633 0.1549996347
430297420.0 -0.1062278954 0.1404752249 0.3481052066 -0.4380520749 0.3479545665 -0.438045997 -0.0906506415 0.1562712391
435297390.0 -0.1046946886 0.1417036902 0.3429426072 -0.4428243353 0.3430177829 -0.4423907265 -0.089735607 0.1580793547
440297360.0 -0.1032333767 0.1426303831 0.3378235606 -0.4458488192 0.3379483735 -0.4460067614 -0.0877691343 0.1589627385
445297330.0 -0.1019953375 0.1433635513 0.3333729011 -0.4489534163 0.3332165279 -0.449764046 -0.0856260581 0.1601504049
450297300.0 -0.1005645916 0.1447513219 0.3284874298 -0.4528078045 0.3284595893 -0.453072009 -0.0841181665 0.1610123678
455297270.0 -0.099475689 0.1458057134 0.3237033948 -0.4567224804 0.3235545618 -0.4567593862 -0.0822643156 0.1620256986
460297240.0 -0.0978898422 0.1470701811 0.3185748462 -0.4608904424 0.3185956995 -0.4606369898 -0.0804110999 0.1631643264
465297210.0 -0.09632108 0.1477892715 0.3126437001 -0.4634496899 0.3131500368 -0.4640735975 -0.078600675 0.1645703817
470297180.0 -0.0949432377 0.1487994906 0.3080640527 -0.4668079092 0.3085231704 -0.4673589825 -0.0767484922 0.1653183988
475297150.0 -0.0939129192 0.1502327088 0.3031877302 -0.4702050144 0.3031265026 -0.4705139925 -0.0746416636 0.1661547042
480297120.0 -0.0919344671 0.1513334823 0.2977020951 -0.4734093394 0.2980156299 -0.4735546387 -0.0733337489 0.1670524052
485297090.0 -0.0905980651 0.1515364194 0.2926577507 -0.4766533941 0.2927421639 -0.4767107052 -0.0716497774 0.1683737394
490297060.0 -0.0885528761 0.1531825739 0.2870797615 -0.479910717 0.2876477317 -0.4803400464 -0.0691188735 0.1689373104
495297030.0 -0.0878771091 0.1534839758 0.2824449857 -0.4833084711 0.2821377296 -0.4829757564 -0.0674149839 0.1698586961
500297000.0 -0.0862419245 0.1548221912 0.2769459469 -0.4858019667 0.2766426633 -0.4862995108 -0.0655035375 0.1709077963
505296970.0 -0.0840675704 0.1560534958 0.271730766 -0.4895327988 0.2718915414 -0.4890106703 -0.0639320588 0.1714986461
510296940.0 -0.0828500753 0.1567356559 0.2662196758 -0.4924284364 0.2664535588 -0.4923680029 -0.0613645129 0.172352329
515296910.0 -0.0812084932 0.1579189477 0.2603963563 -0.4950546394 0.2606624013 -0.494974442 -0.0598273038 0.1731279508
520296880.0 -0.0795351681 0.1587939925 0.2549448157 -0.4974517331 0.2552209731 -0.4972919385 -0.0574502113 0.1742535385
525296850.0 -0.0779631411 0.1594248143 0.2500552726 -0.5004353801 0.2494812321 -0.5005991931 -0.0553487499 0.1747435976
530296820.0 -0.0764479956 0.1603299053 0.2444258825 -0.5035522101 0.244739824 -0.5033852074 -0.0538876844 0.1753916388
535296790.0 -0.074278405 0.1611649547 0.2387081057 -0.5054588014 0.2388835264 -0.5060229404 -0.05132657 0.1765457186
540296760.0 -0.0729342351 0.1623277154 0.2332105784 -0.5083269073 0.2331024147 -0.5081326604 -0.0496781447 0.1767463799
545296730.0 -0.0718173432 0.1633756088 0.2280341638 -0.5106791965 0.2277046659 -0.510733104 -0.0475739484 0.1777704738
550296700.0 -0.0694240485 0.1640902009 0.222203847 -0.5132346206 0.2217338861 -0.5131145219 -0.0454118015 0.1780262382
555296670.0 -0.0680168833 0.1649452785 0.2169407978 -0.5160095533 0.2165558161 -0.515583857 -0.0436522327 0.1785513076
560296640.0 -0.0659843955 0.1654318681 0.210717134 -0.5179812453 0.2111608336 -0.5180233886 -0.0413048548 0.1799865213
565296610.0 -0.0651194082 0.1663942838 0.2056637408 -0.5204757597 0.2053686436 -0.5196602889 -0.0395521804 0.1804707911
570296580.0 -0.0630957216 0.1676226391 0.1996569847 -0.5221806946 0.1996036139 -0.5221032344 -0.0376065263 0.1802682215
575296550.0 -0.0609459201 0.1680922091 0.1941628588 -0.5244487099 0.1940182958 -0.5243539066 -0.0356300139 0.1810518917
580296520.0 -0.059429523 0.1688575934 0.1884941561 -0.5263706016 0.1883218259 -0.5266334394 -0.0336887345 0.1815381312
585296490.0 -0.0575397349 0.1698094961 0.1827988264 -0.5283806062 0.1822940742 -0.5285585594 -0.031313091 0.182304702
590296460.0 -0.0554342805 0.170449873 0.1770171611 -0.5297743838 0.1765184623 -0.5306340393 -0.0293781747 0.1824100785
595296430.0 -0.0539658046 0.1709084167 0.1705145813 -0.5319970239 0.1705880923 -0.5320012537 -0.0271731939 0.1828808519
600296400.0 -0.0520971685 0.1719019757 0.1646861435 -0.5335087454 0.1647642264 -0.5338412133 -0.0253257153 0.1835387395
605296370.0 -0.0506277984 0.1726318132 0.1598507533 -0.5350865146 0.1589698365 -0.5357248309 -0.0234375275 0.1839307917
610296340.0 -0.0485312464 0.1736041782 0.153696687 -0.5366600883 0.1538256522 -0.5371295995 -0.0214418863 0.1842971463
615296310.0 -0.0466132986 0.1740600137 0.1476485819 -0.5387170018 0.1473986072 -0.5389646686 -0.0188704833 0.1846947724
620296280.0 -0.0453063634 0.1752292097 0.1421708101 -0.5404038592 0.1414048825 -0.5403337135 -0.0173663746 0.1852272438
625296250.0 -0.0437738309 0.1755234746 0.1360886276 -0.5418145426 0.1359175952 -0.5421101067 -0.0154153447 0.1852836041
630296220.0 -0.0416742768 0.1764453297 0.129818983 -0.5435258327 0.1298354943 -0.5432490309 -0.0130433964 0.1855838035
635296190.0 -0.0401166065 0.1771691319 0.124338864 -0.5443931161 0.124127466 -0.5445675855 -0.0111854006 0.1859941352
640296160.0 -0.0384201052 0.1777035326 0.1180198554 -0.5464023255 0.1179974384 -0.5459887433 -0.0091708122 0.1862586764
645296130.0 -0.0361039956 0.1787537324 0.1121438902 -0.5472300476 0.1124561641 -0.5471415964 -0.0072250392 0.1862060259
650296100.0 -0.0347828855 0.1789705359 0.1065586258 -0.5487801866 0.1058222031 -0.5485421542 -0.0042347998 0.1867257535
655296070.0 -0.0328992635 0.1793488316 0.1001324336 -0.5493344604 0.1005090744 -0.5495665516 -0.0030812513 0.1871539009
660296040.0 -0.0312978698 0.1801497162 0.0947988966 -0.5503088257 0.0944922018 -0.551013561 -0.0007692861 0.187029107
665296010.0 -0.0293741143 0.1807697398 0.0879265394 -0.5510835841 0.0881554031 -0.5512588412 0.001349156 0.1870703278
670295980.0 -0.027640864 0.1814714378 0.0825382557 -0.5521926336 0.0821384247 -0.5518911679 0.0031064406 0.1868923269
675295950.0 -0.0257676538 0.1819063978 0.076381142 -0.5528445426 0.0766153174 -0.5529371502 0.0053115981 0.1873395481
680295920.0 -0.0243499124 0.1824295848 0.070842564 -0.5531696026 0.070606018 -0.5535323799 0.0077708569 0.1870672087
685295890.0 -0.0219410984 0.183242049 0.0642439899 -0.5548434709 0.0645877728 -0.554673486 0.0096620223 0.1876682278
690295860.0 -0.0207595939 0.1836355111 0.0584393478 -0.55508097 0.0581216453 -0.5550901837 0.0117044673 0.1876019388
695295830.0 -0.0188399466 0.1839015275 0.0526793675 -0.5559191568 0.052541732 -0.555774329 0.0135822976 0.1877466012
700295800.0 -0.0171233922 0.184321379 0.0469112478 -0.5559698972 0.0465029727 -0.5560922554 0.0160866519 0.1875918483
705295770.0 -0.0154534702 0.1848207684 0.0407172472 -0.5568237787 0.0405972895 -0.5566941631 0.0176435379 0.1878471064
710295740.0 -0.013665558 0.1850789865 0.0350159633 -0.5571891864 0.0345409374 -0.5574009026 0.0199285195 0.1876120367
715295710.0 -0.0115551419 0.1856824586 0.028739658 -0.5573800469 0.0288047716 -0.5572987471 0.0221413016 0.187222546
720295680.0 -0.0094688976 0.1861064096 0.0223973067 -0.5572076 0.0224414345 -0.5580402471 0.0241495087 0.1871243644
725295650.0 -0.00853108 0.1864597296 0.0171316101 -0.5577902703 0.0164916868 -0.5576651339 0.0255749002 0.1876588193
730295620.0 -0.0070796284 0.1868357036 0.0108794554 -0.5577721689 0.0103967713 -0.5574504225 0.0277195255 0.1873518967
735295590.0 -0.0047260561 0.1871233482 0.0050599734 -0.5578639767 0.0044207255 -0.5576388903 0.0298637505 0.1868709023
740295560.0 -0.0034498914 0.1871901689 -0.0010731835 -0.5580352259 -0.0010910909 -0.5584733605 0.0318242986 0.1870908033
745295530.0 -0.0015435266 0.1876851707 -0.0071556011 -0.557462598 -0.0064672404 -0.5578558448 0.0337176987 0.1867806925
750295500.0 -0.0002012785 0.187877208 -0.0126443451 -0.5575711839 -0.0133484456 -0.5575866993 0.0357424519 0.1862998307
755295470.0 0.0018487807 0.1883522368 -0.0188975652 -0.5575210704 -0.0190654564 -0.5580628294 0.0380834198 0.1869229267
760295440.0 0.0031717959 0.1890400388 -0.025483095 -0.5572629227 -0.0254847777 -0.5570077897 0.0401851369 0.1855046872
765295410.0 0.0055068504 0.1886343153 -0.0312859791 -0.5571324543 -0.0310772042 -0.5570145432 0.0421364431 0.1858666872
770295380.0 0.0070406305 0.1891149234 -0.0369309259 -0.5560179603 -0.037023365 -0.5568991586 0.0437965459 0.1855153476
775295350.0 0.0083974984 0.1887895893 -0.042796803 -0.556226035 -0.0429749853 -0.5557536044 0.046414992 0.1852542568
780295320.0 0.0102843127 0.1894228168 -0.048542675 -0.5552204179 -0.0484706861 -0.5556856307 0.0481468914 0.1848280848
785295290.0 0.0119469589 0.189369525 -0.0550770894 -0.5551824904 -0.0548840278 -0.5550368765 0.050015099 0.1846588058
790295260.0 0.0141115076 0.1889588385 -0.0608498426 -0.5540362726 -0.0606568721 -0.5547350655 0.0521797004 0.1845714375
795295230.0 0.0158730733 0.1893976142 -0.0669226283 -0.5537405826 -0.0668996498 -0.5538963117 0.0542376037 0.1832038796
800295200.0 0.0170422221 0.1896168348 -0.072262563 -0.5520308025 -0.072742335 -0.5529807451 0.0560438364 0.1831493368
805295170.0 0.0186349272 0.1896426895 -0.0785666395 -0.5521457298 -0.0787074364 -0.5521646181 0.0586464328 0.1826899672
810295140.0 0.020920047 0.189759709 -0.0842104153 -0.5510276066 -0.0843967725 -0.551126718 0.0605655745 0.1820773424
815295110.0 0.022138121 0.1895482734 -0.0903387817 -0.5501590245 -0.0899902938 -0.5505366396 0.062167344 0.181555536
820295080.0 0.0240047139 0.1895328198 -0.0957571917 -0.5490429523 -0.0958462925 -0.5494399057 0.0637192065 0.1817110497
825295050.0 0.0256598175 0.1894462727 -0.1021033298 -0.5482629885 -0.1021042795 -0.5482061067 0.0664875323 0.1809773493
830295020.0 0.0275337742 0.1893596324 -0.107960698 -0.5465820955 -0.1079786578 -0.547333546 0.0679790185 0.1797335967
