!Created with skrf (http://scikit-rf.org).
# Hz S RI R 50.0 
!freq ReS11 ImS11 ReS21 ImS21 ReS12 ImS12 ReS22 ImS22
300000.0 -0.2365007807 -0.1117715466 0.4659604504 0.0728860511 0.4715316482 0.0760870989 -0.2363140575 -0.1149636398
5299970.0 -0.2407489806 0.0070483732 0.4748401847 0.0054044372 0.4750111735 0.0058151026 -0.2447487268 0.0053360322
10299940.0 -0.2372084638 0.0200634773 0.4772083 0.0064009587 0.4767243682 0.0064194128 -0.2413812946 0.0175435592
15299910.0 -0.2329426921 0.0296368197 0.4805120417 0.0076525901 0.4808371257 0.0078250426 -0.2372405277 0.0265748813
20299880.0 -0.2271131656 0.0375902927 0.48488623 0.0080239663 0.4851923538 0.0082190075 -0.2329650074 0.0341659899
25299850.0 -0.2217124279 0.0444019732 0.4904591819 0.0068300421 0.4906960941 0.0067627853 -0.2280251168 0.0400126254
30299820.0 -0.2155715182 0.0495135098 0.4962708915 0.0051435667 0.4957517239 0.0049380266 -0.2226662856 0.0447973611
35299790.0 -0.2100764098 0.0539121192 0.5015399436 0.0017205701 0.5014566484 0.0016534963 -0.2172664097 0.0487699399
40299760.0 -0.2047008543 0.0569255903 0.5065566282 -0.002051972 0.5062821125 -0.0022223259 -0.2128955152 0.0520829492
45299730.0 -0.199537675 0.0600666035 0.511101665 -0.0072501489 0.5110544261 -0.0068372998 -0.2083325036 0.0545558612
50299700.0 -0.1946928033 0.0618813447 0.5147468364 -0.0130101664 0.5149409162 -0.0127248317 -0.2035678539 0.056751435
55299670.0 -0.1906313247 0.0637583798 0.5183839299 -0.0188432678 0.5188471411 -0.0183957705 -0.1999859873 0.0581288271
60299640.0 -0.1867394556 0.0648428548 0.5219902758 -0.0251050013 0.5220880042 -0.0248489814 -0.1963385579 0.0594209726
65299610.0 -0.1830412958 0.0663424545 0.5249801189 -0.0307263237 0.5249747544 -0.0309938555 -0.193037919 0.060731143
70299580.0 -0.1795625209 0.0670616579 0.5272696986 -0.0378920486 0.5273101538 -0.0376672562 -0.1899891415 0.0615866548
75299550.0 -0.176447999 0.0681587168 0.529049951 -0.0445836126 0.5292942308 -0.0446900128 -0.1872340172 0.0626799891
80299520.0 -0.1741340431 0.0690231325 0.5312722232 -0.0516603333 0.5312002492 -0.0515489349 -0.1847465981 0.0629121208
85299490.0 -0.1714481664 0.0694013707 0.532410988 -0.0581341827 0.5325008511 -0.0582406622 -0.1828742114 0.0634909379
90299460.0 -0.1693691084 0.0702195986 0.5331612028 -0.0649355753 0.5333876233 -0.065195789 -0.1801622579 0.0645387876
95299430.0 -0.1671048327 0.0709864918 0.5344595031 -0.0723483182 0.5345823584 -0.0722961689 -0.1785344823 0.0650351721
100299400.0 -0.1653696492 0.0717003263 0.5347554041 -0.0792365308 0.5346337554 -0.0793070643 -0.1770643209 0.065413101
105299370.0 -0.1633361481 0.0723202289 0.5349546566 -0.0854593049 0.5348911006 -0.0860408149 -0.1750424899 0.0661292845
110299340.0 -0.1619688632 0.0731355934 0.5349731372 -0.0928379072 0.5351478644 -0.0931644026 -0.1737640871 0.0669298052
115299310.0 -0.1603477208 0.0734830137 0.5350201039 -0.0990008978 0.5354129034 -0.0990259096 -0.1723235232 0.0670012139
120299280.0 -0.1590312414 0.0745097311 0.535021786 -0.106656904 0.5350083231 -0.1063856129 -0.1711934847 0.0679811442
125299250.0 -0.1579151326 0.0752908135 0.5346086922 -0.1129761253 0.5347011046 -0.113153134 -0.1698331103 0.0683700613
130299220.0 -0.1564390468 0.0761729805 0.5339803531 -0.1193298211 0.5336086811 -0.1198396768 -0.1687661832 0.0694287083
135299190.0 -0.1552930089 0.0766433586 0.5332029524 -0.1261103756 0.5329945186 -0.1263203126 -0.1680155061 0.0702677261
140299160.0 -0.1542749095 0.0780485742 0.5324050657 -0.1330247612 0.5327586897 -0.1333076981 -0.1667598485 0.0711861496
145299130.0 -0.1531354693 0.0788141975 0.5315380264 -0.1396126785 0.5313157085 -0.1391455964 -0.1661789066 0.0716635247
150299100.0 -0.1519179113 0.0798046885 0.5303986752 -0.1460512024 0.5306416962 -0.1460256542 -0.1650334642 0.0724105728
155299070.0 -0.1511569393 0.0813493146 0.529116769 -0.1529027943 0.529376773 -0.1529265294 -0.1645917613 0.0734639768
160299040.0 -0.1501382651 0.0822268261 0.5275227229 -0.1585430296 0.5278594259 -0.1592452172 -0.1633705151 0.0748900258
165299010.0 -0.1492705661 0.083048921 0.5264677628 -0.1656691231 0.5265121019 -0.165732357 -0.1625763351 0.0756792701
170298980.0 -0.1485672066 0.0844573523 0.5239838669 -0.1719908356 0.5246769181 -0.1717933017 -0.1618149051 0.0764684889
175298950.0 -0.14705728 0.0854741824 0.523569315 -0.1779619106 0.5234709907 -0.177952394 -0.1611531727 0.0772960787
180298920.0 -0.1464465713 0.0867351071 0.5217344841 -0.1846546745 0.5214402354 -0.1845092508 -0.1600291582 0.0786247469
185298890.0 -0.1450963803 0.0879489262 0.5194051716 -0.1909559403 0.5197003978 -0.190575976 -0.1595708275 0.0796565089
190298860.0 -0.1443563438 0.0891407223 0.5176752396 -0.1969193968 0.5176732295 -0.1969033951 -0.1583192114 0.080646154
195298830.0 -0.1436331917 0.0902923346 0.5154742746 -0.2026291554 0.5157247456 -0.2031050929 -0.1579073923 0.0817393762
200298800.0 -0.1426414922 0.0915344457 0.5137500057 -0.2084306735 0.5136971628 -0.2088755739 -0.1567899081 0.0830734553
205298770.0 -0.1417011964 0.0931349579 0.5118605691 -0.2145877774 0.5115804576 -0.2151782423 -0.1563011084 0.0839272163
210298740.0 -0.1409680976 0.0941107513 0.5093823803 -0.2209599877 0.5093919905 -0.2211092482 -0.1558267412 0.0857385808
215298710.0 -0.139833172 0.0958251804 0.5068959095 -0.227086627 0.50683751 -0.226896598 -0.1549428264 0.0867733528
220298680.0 -0.1388327117 0.0968362245 0.5043750293 -0.2326675025 0.5046210143 -0.2326740455 -0.1539989558 0.0883326653
225298650.0 -0.1377022835 0.0984984169 0.5019884347 -0.2383649306 0.5020671025 -0.2383632347 -0.1534649387 0.0891547144
230298620.0 -0.1370653076 0.0998224207 0.4998430752 -0.2442179015 0.4997339092 -0.2444946343 -0.1523934003 0.0906005597
235298590.0 -0.1358948814 0.1010380222 0.4967206275 -0.2500632905 0.4970399713 -0.2502841643 -0.1518924491 0.0915770826
240298560.0 -0.1351052255 0.1024090183 0.4942118078 -0.255497931 0.494446296 -0.2554020474 -0.1509336278 0.0930097195
245298530.0 -0.1335696673 0.1039492975 0.4907429675 -0.2615453032 0.49127214 -0.2617682366 -0.1499020119 0.0946785981
250298500.0 -0.1333019318 0.1051010176 0.4887127925 -0.266847346 0.4889572445 -0.2667103061 -0.1488972001 0.0956786304
255298470.0 -0.1319305201 0.1068279945 0.4856081029 -0.2731764154 0.4860062758 -0.2727144743 -0.1480392071 0.0968730262
260298440.0 -0.1308473639 0.1079611545 0.4830256308 -0.2780159084 0.4827922462 -0.2782645765 -0.1471036169 0.0984670326
265298410.0 -0.1294427176 0.1094323683 0.4795340169 -0.2839075373 0.4794445192 -0.2841017874 -0.1466041389 0.0994787988
270298380.0 -0.128415289 0.1110806706 0.4763861068 -0.2892205929 0.4769564671 -0.2894505965 -0.145475609 0.1010699012
275298350.0 -0.1274116245 0.1124488009 0.4735390208 -0.2948012265 0.4738239189 -0.2947919725 -0.1443923558 0.1023625097
280298320.0 -0.1262046362 0.1141997831 0.4704529189 -0.2997920425 0.470188675 -0.2998859416 -0.1432269128 0.1038716257
285298290.0 -0.1250858159 0.1154472914 0.4669832184 -0.3048968275 0.4670538582 -0.3056583829 -0.1426547918 0.1051724225
290298260.0 -0.1234378067 0.1167425265 0.46355291 -0.3106418415 0.4635901129 -0.3107512668 -0.1412165335 0.1067858878
295298230.0 -0.1226268626 0.1180767101 0.4603481698 -0.316132959 0.4603330645 -0.3158416031 -0.1403581688 0.1079486535
300298200.0 -0.1210110987 0.1195504194 0.4566787621 -0.3213611996 0.4570903945 -0.321453397 -0.1392791552 0.109660077
305298170.0 -0.1197524896 0.1206011309 0.4535581344 -0.3267662492 0.453602922 -0.3265292804 -0.1379413573 0.1108252605
310298140.0 -0.1179390749 0.1218280895 0.4498891223 -0.3317196736 0.4501506592 -0.33190954 -0.1371333524 0.1125346959
315298110.0 -0.1170762037 0.12312199 0.4464356716 -0.3369599177 0.4465702588 -0.3369773584 -0.1358320977 0.1131588533
320298080.0 -0.1158162993 0.1245630996 0.4425032487 -0.3421344905 0.4427282524 -0.3419247235 -0.1348035845 0.114518158
325298050.0 -0.1146115682 0.125748402 0.438889405 -0.3474466218 0.4392046698 -0.3475663404 -0.1339660181 0.1160180782
330298020.0 -0.1134747954 0.1272405486 0.4341570474 -0.3520309189 0.4349905426 -0.3521058613 -0.1330824416 0.1171306205
335297990.0 -0.1123221012 0.1282155745 0.4308435218 -0.3567845776 0.4306179635 -0.3573610689 -0.1321553329 0.1183120503
340297960.0 -0.1113914069 0.129641245 0.4261237009 -0.3617203144 0.4264844584 -0.3619901146 -0.1311179554 0.119800562
345297930.0 -0.1101624733 0.1311656581 0.4226472777 -0.3657525569 0.4222924239 -0.3663382027 -0.1299903817 0.1210719538
350297900.0 -0.1082178571 0.1325964318 0.417957861 -0.3700838952 0.418640383 -0.3708451183 -0.1288205732 0.1230258554
355297870.0 -0.1073064856 0.1336071504 0.4140282566 -0.3755063207 0.4144563735 -0.3756961138 -0.1278898479 0.1243071339
360297840.0 -0.1057286609 0.1351322247 0.410378414 -0.3804573711 0.4098226621 -0.3799642608 -0.1265166775 0.1258219022
365297810.0 -0.1042628672 0.1362311395 0.4054608235 -0.3841296648 0.4055793461 -0.3846764173 -0.1254578119 0.1272521993
370297780.0 -0.1027647623 0.1376021386 0.4015565002 -0.3889072519 0.4014912611 -0.3893478674 -0.124282665 0.1283837898
375297750.0 -0.1012367621 0.1393390153 0.3978018816 -0.393377756 0.3972234542 -0.3937959686 -0.1229795317 0.130204846
380297720.0 -0.0996362624 0.1401682748 0.392769515 -0.3976843609 0.3927686611 -0.3979819103 -0.1215627144 0.1316713212
385297690.0 -0.0981951188 0.1417040404 0.3884661823 -0.401439148 0.3885089276 -0.4017139465 -0.1208853771 0.1329935378
390297660.0 -0.0968115452 0.1427518343 0.3839431523 -0.4061917678 0.38384474 -0.4067651249 -0.1191469694 0.1341185089
395297630.0 -0.0946749736 0.1435518695 0.3797310214 -0.4102504699 0.3797353507 -0.4102001541 -0.1179686415 0.1357657671
400297600.0 -0.0935686314 0.1453619096 0.3747578483 -0.4145953334 0.3753885502 -0.4147119369 -0.117220334 0.1370917876
405297570.0 -0.0915857671 0.1464183224 0.3704024683 -0.4187140799 0.3703219004 -0.4193366995 -0.1155626461 0.1385419964
410297540.0 -0.0900531735 0.1473842208 0.3651574157 -0.4224296403 0.3655306673 -0.4228401935 -0.1142130742 0.1397532041
415297510.0 -0.0883591752 0.1490530275 0.3612043815 -0.4265184671 0.361351046 -0.4269808085 -0.113209649 0.1412808801
420297480.0 -0.0866935792 0.1497753633 0.3563530679 -0.4306938235 0.3564405244 -0.4305189247 -0.1117184435 0.1421597939
425297450.0 -0.0846684446 0.1506582889 0.3517121315 -0.4344458778 0.3518977858 -0.4345524354 -0.1102563312 0.1439546015
430297420.0 -0.0837502755 0.1523710831 0.3471979515 -0.4385084003 0.347024566 -0.4385196236 -0.1091662013 0.1448954325
435297390.0 -0.0817376718 0.1529251975 0.3424109502 -0.441824488 0.3424644894 -0.4418585444 -0.1078192079 0.14652322
440297360.0 -0.0798589243 0.1540908502 0.3369890362 -0.4457014095 0.3369894153 -0.4458324816 -0.1062350832 0.1470855177
445297330.0 -0.0778727073 0.1548519852 0.3319511994 -0.4497102748 0.3320239888 -0.4494461702 -0.1049262076 0.1487832263
450297300.0 -0.076156881 0.1559002271 0.3268594146 -0.4533401643 0.3275648903 -0.4536807593 -0.1038639327 0.1500468207
455297270.0 -0.0748586407 0.1569693955 0.3228218081 -0.45678199 0.3230117813 -0.4565260606 -0.1019477122 0.1510903725
460297240.0 -0.0733377548 0.158190752 0.3178526677 -0.459985331 0.3170270578 -0.4601317352 -0.100638597 0.1528046353
465297210.0 -0.0711031511 0.1589503293 0.3123747414 -0.4634497875 0.3129569956 -0.4638325022 -0.0995448596 0.153332273
470297180.0 -0.0697782634 0.1597889911 0.3076195171 -0.4663638016 0.3079219453 -0.4666979273 -0.0984814086 0.1546210507
475297150.0 -0.0679228333 0.1603585715 0.302353396 -0.4696561312 0.3023500227 -0.4695549187 -0.0965253634 0.1560149316
480297120.0 -0.0657641859 0.1612678243 0.2968757663 -0.4731401746 0.297306654 -0.4730409938 -0.0950828383 0.1572489842
485297090.0 -0.0639031921 0.1623288476 0.2918177524 -0.4766260074 0.292636152 -0.4764541927 -0.0936357148 0.1578903948
490297060.0 -0.06189865 0.1629078286 0.2865531873 -0.4795770527 0.2870199192 -0.4795118365 -0.0921545837 0.159334814
495297030.0 -0.0607006126 0.1640764433 0.2815677249 -0.4825977449 0.2814254568 -0.4828015151 -0.0905016705 0.1602187224
500297000.0 -0.058395165 0.1647147764 0.276026681 -0.4858994151 0.2766133379 -0.4855431312 -0.089678981 0.1612033235
505296970.0 -0.0569594788 0.1655388138 0.2704884813 -0.4881266466 0.2707165672 -0.4891080566 -0.0881258222 0.1626893092
510296940.0 -0.0549122087 0.1662058304 0.2654620217 -0.4917329048 0.2659737837 -0.491625037 -0.086065616 0.1637423957
515296910.0 -0.053445995 0.1673671811 0.2603719347 -0.4940070326 0.2602998896 -0.4944592257 -0.0847806113 0.1645460384
520296880.0 -0.0513014672 0.1677301279 0.2550243393 -0.4969080696 0.2552968286 -0.4971072589 -0.0829650073 0.1656301154
525296850.0 -0.04964703 0.1683591772 0.24946245 -0.4998302911 0.2495439302 -0.4999211279 -0.0809766565 0.166704091
530296820.0 -0.0477050847 0.1692290294 0.2441492276 -0.5020850088 0.2437917434 -0.5024094294 -0.0804858589 0.1671443813
535296790.0 -0.0457380582 0.1696090362 0.23819305 -0.5045975801 0.2386077607 -0.504782835 -0.0784388575 0.1680735613
540296760.0 -0.0440245768 0.1699790604 0.2329294405 -0.5075419315 0.232894321 -0.5077595384 -0.0771492028 0.1693705826
545296730.0 -0.0417113354 0.1711468444 0.2272592801 -0.5100726644 0.2274818282 -0.5100964844 -0.0752698145 0.1698701189
550296700.0 -0.0403278172 0.1715644578 0.2220300452 -0.5123894915 0.2222311635 -0.5127182044 -0.0742180049 0.1714266602
555296670.0 -0.0377508097 0.1720209844 0.2162365392 -0.5148578687 0.2161644873 -0.5149363402 -0.0724282105 0.1719846081
560296640.0 -0.0362884785 0.1725470712 0.210841798 -0.5169893582 0.2109182474 -0.5168477076 -0.070453606 0.1726568094
565296610.0 -0.0345861348 0.1730305207 0.205177753 -0.5191200969 0.2047756859 -0.5193566037 -0.0691441086 0.1731692048
570296580.0 -0.0320264713 0.1735292492 0.1989532156 -0.5213879326 0.1995698685 -0.5215177166 -0.0674106779 0.1748546672
575296550.0 -0.0304557591 0.1743021346 0.1938806313 -0.5229544233 0.1943404778 -0.5233067949 -0.065501277 0.1752185915
580296520.0 -0.0284280028 0.1747307004 0.1887125328 -0.5253100977 0.1882716952 -0.5256509031 -0.0644144063 0.175973196
585296490.0 -0.0266408725 0.1749391855 0.1829978491 -0.5276549324 0.1826743335 -0.5272604052 -0.0627894105 0.1762742568
590296460.0 -0.0246283714 0.1751645628 0.176656246 -0.5293409952 0.1762915899 -0.5297505087 -0.0605296059 0.177776451
595296430.0 -0.022620858 0.1759827099 0.1712292431 -0.5312070511 0.1705687182 -0.5317235482 -0.0588373095 0.1782527045
600296400.0 -0.0208011596 0.1761812193 0.1651138076 -0.5325698943 0.1654935736 -0.5333287704 -0.057420246 0.179310914
605296370.0 -0.0185968287 0.1767714041 0.1596134051 -0.5350329309 0.1597895664 -0.534530564 -0.0556333924 0.1798748939
610296340.0 -0.0168938707 0.1770413002 0.1537559019 -0.5365050983 0.1542175007 -0.5364047041 -0.0538778142 0.1807399794
615296310.0 -0.0146434204 0.1773241889 0.1476152135 -0.5377534353 0.1476883462 -0.538020969 -0.0520093522 0.1812976689
620296280.0 -0.0129696363 0.1776337823 0.142165024 -0.5394491621 0.1422577905 -0.5396723311 -0.0506889222 0.1817902631
625296250.0 -0.0105498547 0.1781163136 0.1359121218 -0.5410111098 0.1363887165 -0.5412331378 -0.0486854887 0.1827531893
630296220.0 -0.008726264 0.1783474647 0.1302286461 -0.5424297972 0.1308495799 -0.5426838239 -0.0474423821 0.183286329
635296190.0 -0.0068551267 0.178670267 0.1243014727 -0.5437023775 0.1243651719 -0.5431227987 -0.045730536 0.1834124626
640296160.0 -0.0047371237 0.1784731514 0.1185671886 -0.5447788561 0.1182934799 -0.5452998228 -0.0433296242 0.1839044685
645296130.0 -0.00292466 0.1790499109 0.1128306605 -0.5467885862 0.113006055 -0.546552442 -0.0425378678 0.1845765906
650296100.0 -0.0011261793 0.1795274454 0.1071391457 -0.54718118 0.106998488 -0.5470374823 -0.0403301853 0.1850319541
655296070.0 0.000783241 0.1794391319 0.1010883223 -0.5485249044 0.1007749581 -0.5486248535 -0.0381429487 0.1860811948
660296040.0 0.0026563808 0.1795586203 0.0953380292 -0.5492753116 0.095095446 -0.5494132975 -0.0367731188 0.1859197227
665296010.0 0.0050135806 0.179468597 0.0893317304 -0.5506145825 0.0896399267 -0.5506441772 -0.0353668786 0.187018366
670295980.0 0.0076085091 0.1797668584 0.0826438425 -0.5513624666 0.0839218904 -0.5512685828 -0.0336798955 0.1873686383
675295950.0 0.0089935523 0.1796808189 0.0775421499 -0.5520054247 0.0775135249 -0.5525162476 -0.0311487674 0.1878731674
680295920.0 0.0109481707 0.1798120615 0.0710150476 -0.5527547141 0.0713022144 -0.5530046434 -0.0295352924 0.188213947
685295890.0 0.0130085395 0.1799330423 0.0653583392 -0.5538459881 0.065208996 -0.5538454024 -0.0274957044 0.1886215153
690295860.0 0.0154082219 0.1798368993 0.0593531742 -0.5537546614 0.0590950007 -0.5538828495 -0.0257932377 0.1891631988
695295830.0 0.0175119895 0.1797625067 0.0527231871 -0.5545162146 0.0531089319 -0.5550211408 -0.0242408124 0.1895960496
700295800.0 0.0194206359 0.1797256138 0.0472108046 -0.5555227494 0.0471667067 -0.555740287 -0.0222800879 0.1897420731
705295770.0 0.021610531 0.179660081 0.0412331635 -0.555800692 0.0417330303 -0.5561975331 -0.0208017602 0.1903541357
710295740.0 0.0235001401 0.1801454743 0.0350786034 -0.5563620802 0.0353601581 -0.5560292757 -0.0194245098 0.1906673504
715295710.0 0.0253759001 0.1795210683 0.0292486008 -0.5565493448 0.0295104968 -0.5569334929 -0.0172618187 0.1907213881
720295680.0 0.0272879481 0.1792294883 0.0230105079 -0.5564633564 0.0234095196 -0.5572736525 -0.0148398792 0.1913503566
725295650.0 0.0295248235 0.1792503947 0.0168095768 -0.5569610841 0.017239784 -0.5569072805 -0.0130063406 0.191869238
730295620.0 0.0311973015 0.1788657297 0.0110767923 -0.5571371155 0.011382331 -0.5568878518 -0.0109902715 0.1911293039
735295590.0 0.0337370483 0.1789487604 0.0056110087 -0.557133802 0.0054266892 -0.5571775388 -0.0092997962 0.1921319303
740295560.0 0.0355090705 0.1790236428 -0.0007323104 -0.5563122299 -0.0006972363 -0.5570753191 -0.0074596993 0.192095927
745295530.0 0.0374432562 0.1784309579 -0.0064930905 -0.5568376071 -0.0065595607 -0.5572339992 -0.0060744603 0.1929513461
750295500.0 0.0394296258 0.1781879875 -0.0127071828 -0.5564183886 -0.012570846 -0.5567178164 -0.0039605933 0.1923087767
755295470.0 0.0419084278 0.1779306704 -0.0188283754 -0.5562180395 -0.018689378 -0.5568379507 -0.0026469517 0.192958087
760295440.0 0.0433804132 0.1777148265 -0.0246750834 -0.5562218344 -0.0246716324 -0.5565349613 -0.0007846434 0.1928611219
765295410.0 0.0452745198 0.1770150612 -0.02992425 -0.5558154631 -0.0305736047 -0.5560755079 0.0019358701 0.1933745326
770295380.0 0.0474576999 0.1770509463 -0.0363842927 -0.5554754956 -0.0366387821 -0.5560573776 0.0037143038 0.1935074787
775295350.0 0.0495317494 0.176797447 -0.0427763807 -0.5549977898 -0.0423450299 -0.5550106928 0.0050252283 0.1932283381
780295320.0 0.0516702194 0.1762632507 -0.048748146 -0.554612967 -0.0484558468 -0.5546818058 0.006992946 0.1938357221
785295290.0 0.0533696478 0.1760525189 -0.0543275589 -0.5534483097 -0.0543709649 -0.5542187365 0.0084972396 0.1938061416
790295260.0 0.0552800759 0.1753757954 -0.0602338769 -0.5534902824 -0.060373809 -0.5540067037 0.0109438143 0.1935954784
795295230.0 0.0571773081 0.1752807726 -0.0659225984 -0.552714481 -0.0661866426 -0.5526032307 0.0127832536 0.1942556775
800295200.0 0.0594254264 0.1746955196 -0.0721396773 -0.5520754561 -0.0725615486 -0.5520600193 0.0145835445 0.1937010834
805295170.0 0.0611417011 0.1740503797 -0.0779710339 -0.550701503 -0.0778300904 -0.5514419545 0.0161987546 0.193558662
810295140.0 0.063087923 0.1734639 -0.0840170124 -0.5502268937 -0.0838442949 -0.5507496662 0.0182248831 0.1941785345
815295110.0 0.0649055327 0.1729214046 -0.0899183638 -0.54893337 -0.0900960939 -0.5491585296 0.0197315453 0.1936972275
820295080.0 0.0672250232 0.1719414155 -0.0960320884 -0.548026059 -0.0957466679 -0.5488258469 0.0216618769 0.1937151309
825295050.0 0.0690192789 0.171672583 -0.1017495421 -0.5466348818 -0.1018636474 -0.5470864157 0.023824663 0.1938630457
830295020.0 0.0709806221 0.1711485979 -0.1080090569 -0.545571238 -0.1080166224 -0.5461142953 0.0253767558 0.1935619598
