!Created with skrf (http://scikit-rf.org).
# Hz S RI R 50.0 
!freq ReS11 ImS11 ReS21 ImS21 ReS12 ImS12 ReS22 ImS22
300000.0 0.8597149083 -0.0027065122 0.000259299 -3.29607e-05 -0.0002344577 0.0004036954 -0.7721107069 -0.13155025
5299970.0 0.859131936 -0.0097051447 9.32491e-05 7.87147e-05 0.0001686242 -7.52205e-05 -0.7843059396 -0.0068719814
10299940.0 0.8579070676 -0.0183305401 5.79672e-05 -8.7588e-06 -0.0002290378 -1.12792e-05 -0.7875265465 -0.0038602122
15299910.0 0.8570088226 -0.0267460663 -5.89783e-05 6.66289e-05 0.0001157118 0.0001097988 -0.7928470487 -0.0014156438
20299880.0 0.8565546474 -0.0353929069 2.68319e-05 -7.37172e-05 0.000109536 -2.1979e-06 -0.799505522 0.0019997625
25299850.0 0.855786056 -0.0442086675 0.000186532 -9.46615e-05 -2.58448e-05 -0.0001319093 -0.80605284 0.0081582959
30299820.0 0.854874518 -0.0526253261 -2.1641e-05 -3.39953e-05 -1.05267e-05 -6.51968e-05 -0.8123467252 0.0161371669
35299790.0 0.8541521803 -0.0606829798 -2.2491e-05 -3.07269e-05 5.76139e-05 -0.000226625 -0.8173779557 0.0250961901
40299760.0 0.8528870272 -0.0694377738 2.24107e-05 -2.5208e-05 6.4954e-05 -2.31597e-05 -0.8209038405 0.0348452482
45299730.0 0.8529838868 -0.0769720678 -1.55406e-05 -0.000175613 -6.7439e-05 1.9837e-06 -0.8252870924 0.0440939384
50299700.0 0.8518349587 -0.0854220535 -4.51379e-05 0.0001568016 -1.7887e-06 -0.0001427904 -0.827541751 0.0538445023
55299670.0 0.8506480887 -0.0937598369 -7.32242e-05 -0.0001663902 -6.4601e-06 -1.67603e-05 -0.8298715854 0.0643868814
60299640.0 0.8495992179 -0.1017591987 0.000165178 0.0001690693 -0.0001941751 6.99686e-05 -0.8304659691 0.0739792436
65299610.0 0.8482678781 -0.110387084 -9.28283e-05 3.75567e-05 -5.02036e-05 7.90719e-05 -0.8318866978 0.084237748
70299580.0 0.8476755601 -0.1187122424 0.0001842936 9.58319e-05 0.0001091344 -6.3791e-06 -0.8316770402 0.0946016102
75299550.0 0.8466141209 -0.126886495 3.19973e-05 -1.8335e-06 -4.58467e-05 7.46208e-05 -0.833002265 0.104433837
80299520.0 0.8444518591 -0.1350040419 2.07592e-05 -4.42265e-05 -1.04358e-05 6.2368e-05 -0.8326189748 0.1135056114
85299490.0 0.8431157225 -0.1428751913 -9.83624e-05 -0.0001429206 -3.05909e-05 1.95427e-05 -0.8318331097 0.1236652596
90299460.0 0.8420913899 -0.1512228959 8.16811e-05 -7.92212e-05 -0.0002079067 2.89191e-05 -0.830799168 0.133440561
95299430.0 0.8400474099 -0.1598704239 -2.00065e-05 0.0001568236 9.87199e-05 -4.06924e-05 -0.829267315 0.1430281128
100299400.0 0.8386478592 -0.1680004725 0.0001111696 -0.0002423339 -5.91259e-05 -7.3777e-06 -0.8286896052 0.1526030459
105299370.0 0.837262172 -0.1758890606 0.0001765079 3.01738e-05 6.55826e-05 2.93163e-05 -0.8268776326 0.1615558093
110299340.0 0.8350833103 -0.1840987586 6.76711e-05 -7.56298e-05 -1.1671e-05 0.000185346 -0.8257156629 0.1708221251
115299310.0 0.8332913068 -0.1921233678 -0.000149922 -6.93329e-05 0.0001154809 -0.00012858 -0.8244164168 0.1800526388
120299280.0 0.8315939994 -0.2003876551 -0.0001540149 -0.0001352242 6.00749e-05 0.0001465659 -0.822347495 0.188932896
125299250.0 0.8292871916 -0.2089393488 -7.18675e-05 -8.49532e-05 1.04023e-05 -1.40736e-05 -0.8210170908 0.1978487498
130299220.0 0.8275491688 -0.2165832984 6.7522e-06 -0.0001845722 8.8823e-06 6.47238e-05 -0.8191795151 0.2069805913
135299190.0 0.8251301016 -0.224501735 0.0001612004 -0.0001092872 0.0001052512 0.0001647574 -0.8169586469 0.2158943545
140299160.0 0.8230339871 -0.2327654221 2.41724e-05 7.39759e-05 -7.86547e-05 -1.97829e-05 -0.8141706083 0.2248591726
145299130.0 0.8205897344 -0.2413286319 -2.6675e-05 3.49033e-05 4.53859e-05 -8.94455e-05 -0.8124709012 0.2339355187
150299100.0 0.8182984603 -0.2488694779 -0.0003253127 -5.88683e-05 -7.43578e-05 -9.08492e-05 -0.8107306458 0.2433269124
155299070.0 0.8153816378 -0.2566828705 -0.0001065896 -3.48651e-05 -0.0002063872 -1.83612e-05 -0.8072591692 0.2520593037
160299040.0 0.812831259 -0.2648375801 -9.0612e-05 -0.000252985 -0.0001322044 -5.31424e-05 -0.8052500083 0.2608526593
165299010.0 0.810289032 -0.2732041493 -5.6501e-05 -5.45059e-05 -0.0001135963 -0.0001353496 -0.8029432978 0.2692747838
170298980.0 0.8076262877 -0.2808750815 -1.0964e-06 9.88492e-05 -0.0001382825 6.8662e-06 -0.7995289891 0.2781113262
175298950.0 0.804547258 -0.2882635367 -2.62919e-05 5.9747e-06 -4.79401e-05 0.0003921367 -0.7970067533 0.2867449229
180298920.0 0.802182914 -0.2958561061 -4.71695e-05 -0.000186253 0.0001564371 0.0001311181 -0.7938741057 0.2954406745
185298890.0 0.7981575373 -0.3043774113 2.37911e-05 -1.36698e-05 1.4645e-05 -0.0002324353 -0.7900723788 0.3037033349
190298860.0 0.7954139839 -0.3118886713 7.23672e-05 6.2872e-06 0.0001176846 7.23158e-05 -0.7882546238 0.3120363158
195298830.0 0.7926666129 -0.3194454947 -0.0001504734 0.0002783628 -6.5576e-06 8.2449e-06 -0.7848421533 0.3213914831
200298800.0 0.7890323268 -0.3270380048 3.74564e-05 -0.0002117501 0.0001030559 -1.84432e-05 -0.7814824125 0.3291371681
205298770.0 0.786048842 -0.3344114042 -0.0002006819 6.3605e-06 -6.18817e-05 2.75818e-05 -0.7779754426 0.3379612354
210298740.0 0.7824495671 -0.3420452438 -0.0002932056 7.10835e-05 0.0001119755 7.49002e-05 -0.7745771081 0.3458174082
215298710.0 0.7792213457 -0.3505695271 0.000150859 1.71352e-05 -8.60388e-05 4.7614e-05 -0.7710476794 0.3538040071
220298680.0 0.7754680665 -0.3579945657 -8.21229e-05 -5.45843e-05 -3.55964e-05 -7.05942e-05 -0.7673216494 0.3618658494
225298650.0 0.7714245209 -0.3660252655 -9.03069e-05 8.14791e-05 3.71457e-05 -7.99189e-05 -0.7639983459 0.370290959
230298620.0 0.7685079626 -0.3730491283 0.0001879615 0.0001393614 -0.0001664009 -3.85925e-05 -0.7599208056 0.3787145702
235298590.0 0.7646870321 -0.379904814 -0.0001141095 -9.82026e-05 -0.0001219378 -9.92416e-05 -0.7555672287 0.3872565781
240298560.0 0.7608254757 -0.387761064 0.0001394438 0.0001820759 6.60046e-05 -0.0001493922 -0.7515069803 0.3955413524
245298530.0 0.7572444451 -0.3948934519 4.39659e-05 -8.15872e-05 -6.9881e-06 -7.37221e-05 -0.7476018589 0.4026761093
250298500.0 0.7529397452 -0.4024506561 3.34376e-05 0.0001286826 -5.51646e-05 0.0002461415 -0.743812893 0.4103938026
255298470.0 0.7486087635 -0.4102020013 -0.0001302524 -0.0001021713 -7.45408e-05 0.0001066303 -0.738959565 0.4183200024
260298440.0 0.7446337405 -0.417315223 7.9729e-05 0.0002103325 0.0001824891 8.50131e-05 -0.7350906392 0.4266381432
265298410.0 0.7409346378 -0.424755244 0.0002185197 -5.10467e-05 0.0001702994 -4.08938e-05 -0.7302159868 0.4341761659
270298380.0 0.7359750009 -0.4319009874 -7.78765e-05 -2.92653e-05 9.16042e-05 -2.43861e-05 -0.7256201275 0.4408309803
275298350.0 0.7322667576 -0.4392655199 2.14684e-05 0.0001009047 0.0002363413 -0.0002261125 -0.7205449123 0.448801489
280298320.0 0.7278239385 -0.4461768307 -8.82928e-05 -7.47335e-05 -0.0001954456 -2.13738e-05 -0.7156951911 0.4565156992
285298290.0 0.7240432724 -0.453612728 0.0001159699 -7.43846e-05 -0.0001289675 -4.285e-06 -0.7107154626 0.463701673
290298260.0 0.7195953793 -0.4602867893 0.0001593685 -0.0002699502 -2.25762e-05 -2.8756e-05 -0.7062052484 0.471282737
295298230.0 0.7155249479 -0.4670326363 4.76823e-05 -0.0001411716 -0.0001297068 7.08578e-05 -0.7011603101 0.4779709591
300298200.0 0.7114857138 -0.4748191678 6.20058e-05 -4.39189e-05 -1.52446e-05 -2.67494e-05 -0.6963600097 0.4858495874
305298170.0 0.7068251698 -0.4818659266 -1.73928e-05 8.50459e-05 -1.06365e-05 7.97271e-05 -0.6904643913 0.49351393
310298140.0 0.7023714916 -0.488577049 0.0001490672 -5.46186e-05 -0.0001667436 8.50945e-05 -0.6858535182 0.5002898354
315298110.0 0.6980306622 -0.4961034726 0.0001834805 -2.40747e-05 -0.0001556873 -0.0001725529 -0.6799981165 0.5070064324
320298080.0 0.6930147007 -0.5038858755 -3.72626e-05 0.000205384 -4.43692e-05 0.0002143292 -0.6749521789 0.5141263442
325298050.0 0.687047607 -0.5109874247 0.0001160608 -0.0001525667 0.0001504771 1.59521e-05 -0.6686900942 0.5209477667
330298020.0 0.6813385841 -0.5183606895 5.08216e-05 -5.9797e-05 -5.48523e-05 0.000127728 -0.6632539181 0.5287968522
335297990.0 0.6751833695 -0.5257306684 0.0002069202 -0.0002727494 -0.0001643661 -3.79117e-05 -0.6585577501 0.5353810689
340297960.0 0.669303436 -0.5318180767 -5.10475e-05 -3.44309e-05 -0.0001119792 1.28634e-05 -0.652589983 0.542585758
345297930.0 0.6634862198 -0.5380689272 3.09627e-05 -3.46764e-05 0.0002498094 6.2375e-06 -0.6468352696 0.5486384578
350297900.0 0.6579980238 -0.5439868156 9.60556e-05 9.16563e-05 -0.0001068917 -0.0001445044 -0.641712869 0.5555404399
355297870.0 0.6529248669 -0.5500734945 -6.85606e-05 0.000105279 -0.0001559628 -4.01631e-05 -0.6355385547 0.5622070455
360297840.0 0.6467283446 -0.5564089348 5.58382e-05 -0.0001402162 -4.866e-06 0.0002562056 -0.6297334442 0.5687188821
365297810.0 0.6402929782 -0.5623468094 -8.22232e-05 -1.416e-05 -0.0001833063 -0.0001468016 -0.6231930911 0.5753316797
370297780.0 0.6358536756 -0.5688921369 -8.20401e-05 -0.0001668965 6.2738e-06 -7.2862e-05 -0.6174464893 0.5822117422
375297750.0 0.6288221243 -0.574708626 0.0001062893 -3.0568e-06 -6.56941e-05 0.0001674812 -0.612071425 0.5879587047
380297720.0 0.6242151832 -0.5813056322 9.25454e-05 2.44015e-05 0.0002163548 -1.48509e-05 -0.6057831085 0.5940207038
385297690.0 0.6181355883 -0.5867625756 2.20022e-05 -5.39777e-05 -0.0001425735 1.28981e-05 -0.5994771466 0.6011306174
390297660.0 0.6124245511 -0.5924929778 0.000100655 4.29048e-05 4.00521e-05 -9.88911e-05 -0.5933676781 0.606954426
395297630.0 0.6063141668 -0.5982325578 3.02033e-05 0.0002427081 -6.53303e-05 9.96423e-05 -0.5865272822 0.6133212576
400297600.0 0.600460101 -0.604298877 7.77859e-05 0.0001868706 7.36511e-05 0.0001442143 -0.5800480426 0.6191674439
405297570.0 0.5941812071 -0.6097873118 -0.00012943 8.9259e-06 -4.2154e-06 -0.0001885812 -0.5737147552 0.6248663131
410297540.0 0.5876627525 -0.6162705448 -2.92006e-05 -1.811e-07 -0.0002025312 -6.155e-06 -0.5677233422 0.6302231317
415297510.0 0.5820109959 -0.621618209 -1.8871e-06 8.92137e-05 -0.0001684467 3.96971e-05 -0.5611264496 0.6366602968
420297480.0 0.5757720432 -0.6266598111 5.75427e-05 -9.72353e-05 7.64165e-05 -0.0001187162 -0.554202914 0.64298282
425297450.0 0.5691456709 -0.6328463828 0.0001205078 2.16532e-05 -0.0001414907 -0.0001251823 -0.5480453757 0.6477411344
430297420.0 0.563119651 -0.6377551786 -0.000127881 -4.44607e-05 1.59632e-05 -0.0001184388 -0.5409002209 0.6528746519
435297390.0 0.5570888408 -0.6432199764 -0.0001236557 -0.0001969342 -0.0001537524 0.0001220531 -0.5341543092 0.6586781774
440297360.0 0.550365003 -0.6493944441 -0.0002275441 -5.4316e-06 -3.02918e-05 4.70693e-05 -0.5270678104 0.6641543862
445297330.0 0.5440562389 -0.6544087043 0.0001092475 0.0002007187 -4.4215e-06 -7.74171e-05 -0.520219653 0.6687257077
450297300.0 0.5382101794 -0.6593972546 -6.56342e-05 4.34902e-05 6.45514e-05 -1.03975e-05 -0.5129790065 0.6741845252
455297270.0 0.5306162547 -0.6646771594 -0.0001327466 8.92602e-05 0.0001611879 -6.61956e-05 -0.506030424 0.6789416874
460297240.0 0.5248873414 -0.6698652143 -5.288e-07 0.0001844766 -1.22132e-05 0.0001160753 -0.499320684 0.6843100385
465297210.0 0.5175619268 -0.675087894 -9.19441e-05 -5.2977e-06 -4.3258e-05 0.0001710429 -0.4921439717 0.6891047659
470297180.0 0.5104914297 -0.6796961993 -0.0001339019 -0.0001709248 3.3381e-05 -1.28056e-05 -0.4849740332 0.6944661644
475297150.0 0.5043279819 -0.6851807502 6.86848e-05 9.7166e-05 9.93453e-05 -4.39572e-05 -0.4779016221 0.6985886298
480297120.0 0.4965241485 -0.6900214548 0.000139129 8.64878e-05 -6.7737e-06 -0.0001113242 -0.4699689408 0.7036805242
485297090.0 0.4895187002 -0.6938417588 0.0002576368 -2.29609e-05 9.97196e-05 0.0001699641 -0.4632776775 0.708727331
490297060.0 0.4831230013 -0.6989146046 0.0001548264 -6.6463e-06 -2.30307e-05 9.0248e-06 -0.4555312692 0.7131322011
495297030.0 0.476130386 -0.7037387837 -8.05184e-05 -0.0001432347 1.65813e-05 4.44915e-05 -0.448679853 0.7179161145
500297000.0 0.4691144345 -0.708388613 0.0001414832 -4.09044e-05 -6.45568e-05 8.00963e-05 -0.4407721426 0.7227316323
505296970.0 0.462917623 -0.7126871448 -0.0002185698 -0.0001605087 7.47285e-05 -1.48646e-05 -0.4338203708 0.7266583078
510296940.0 0.4550628692 -0.7175121317 8.71781e-05 -9.21162e-05 8.68275e-05 -0.0002110108 -0.4263856269 0.731328607
515296910.0 0.448588658 -0.7215704165 0.0001204373 -0.0001907564 2.35132e-05 0.0001702717 -0.4186208696 0.7354357803
520296880.0 0.4402904447 -0.7262231511 6.8036e-06 -2.68393e-05 5.97142e-05 -1.49693e-05 -0.4113597221 0.7394873599
525296850.0 0.4334280683 -0.7301103585 -0.000164181 8.68837e-05 0.0002508771 -0.0002271497 -0.4038676939 0.7438404133
530296820.0 0.4262509302 -0.7335563577 0.0001442871 -8.36443e-05 -6.58985e-05 -0.0001432401 -0.3962942826 0.7479383497
535296790.0 0.4189954778 -0.738435018 -2.41786e-05 6.32416e-05 7.65234e-05 6.07651e-05 -0.3889077639 0.7513385185
540296760.0 0.4113752251 -0.7421347722 0.000105936 -0.0002213795 3.77919e-05 -0.000146179 -0.3810440052 0.7559930047
545296730.0 0.404134107 -0.746153598 -3.08513e-05 3.21159e-05 3.71446e-05 9.2221e-05 -0.3736863119 0.7593687254
550296700.0 0.3968718768 -0.7498737243 -1.69072e-05 1.64321e-05 7.1325e-06 -5.05464e-05 -0.3655888821 0.7627912956
555296670.0 0.3889303801 -0.7539427121 -0.0002587833 8.85591e-05 -6.38864e-05 2.5448e-06 -0.3581787775 0.7670290298
560296640.0 0.3815660895 -0.7572895079 0.0001124396 -4.61642e-05 -9.80164e-05 -5.01582e-05 -0.3498582658 0.7711990073
565296610.0 0.3739121551 -0.7604416276 -0.000142259 -0.0001340476 5.3264e-05 -7.08591e-05 -0.3420829611 0.7744250902
570296580.0 0.3662636319 -0.7647686727 -2.99053e-05 4.54943e-05 5.26267e-05 3.78581e-05 -0.3347021991 0.7780111194
575296550.0 0.358509982 -0.7673313389 -7.60634e-05 -0.0001196099 -4.40115e-05 0.000136214 -0.3262816647 0.7810278766
580296520.0 0.3510862657 -0.7717877129 -0.0002027833 9.21572e-05 1.8743e-05 -3.201e-06 -0.3181759007 0.7839659717
585296490.0 0.3424437211 -0.7753414295 -0.0002063758 0.0002378464 -1.0768e-06 7.9119e-05 -0.3107150217 0.7872846815
590296460.0 0.3359507358 -0.7771506435 1.73353e-05 -7.24336e-05 0.0001374524 7.3358e-06 -0.3025557508 0.7907603367
595296430.0 0.3279577578 -0.7816208731 -7.0259e-05 3.1954e-06 9.60442e-05 4.53099e-05 -0.2945512032 0.7929373047
600296400.0 0.3199085263 -0.7843072631 -0.000217397 0.0001675665 -8.76147e-05 -1.51275e-05 -0.2866357604 0.795388148
605296370.0 0.3116432659 -0.7872597219 7.17042e-05 -5.67348e-05 -0.0001243763 -8.30658e-05 -0.2781835167 0.7988406201
610296340.0 0.3039674663 -0.7906905023 0.0001322185 0.00018832 -0.0001180655 -9.13546e-05 -0.2699118789 0.8013077961
615296310.0 0.2966356139 -0.7937213869 -8.88711e-05 3.63288e-05 -7.55399e-05 -3.88856e-05 -0.2618245708 0.8036218436
620296280.0 0.288728321 -0.7959469566 -8.85019e-05 0.0002660979 -7.93016e-05 -0.0002469746 -0.2546013839 0.8065324324
625296250.0 0.2803004634 -0.7984366336 -0.0001303574 -0.0001677871 -5.67835e-05 6.77797e-05 -0.2454297992 0.8085590729
630296220.0 0.2730645852 -0.8013589356 -7.56552e-05 -1.6295e-05 0.0001269506 -0.0001365557 -0.237654588 0.8114526353
635296190.0 0.2648329504 -0.8037802241 1.9704e-05 -0.0001260452 -0.000248202 7.18359e-05 -0.2293778516 0.812702057
640296160.0 0.2567827346 -0.8065854626 8.91127e-05 0.0001666044 -0.0002130777 5.41602e-05 -0.2212237295 0.8153872587
645296130.0 0.2485222911 -0.8085236571 -1.07911e-05 0.0002071593 -1.7827e-05 -0.0001551732 -0.2129550242 0.8180614455
650296100.0 0.2400640055 -0.8111270862 0.0002423967 -0.0003450864 -0.0001211944 4.65272e-05 -0.2046838167 0.8191394647
655296070.0 0.2321824992 -0.813105314 -8.6028e-05 -6.77378e-05 2.3019e-05 -9.75206e-05 -0.1959679709 0.8213788374
660296040.0 0.2246002147 -0.8150770388 6.49542e-05 0.0001346656 5.12408e-05 4.96017e-05 -0.1871372688 0.8233470203
665296010.0 0.2159540652 -0.8174621878 -0.0001057946 0.0001013913 -0.0001211244 -2.6128e-05 -0.1790648152 0.8251166154
670295980.0 0.2080488683 -0.8196191028 -0.0001345322 0.00010085 0.0001131558 0.0001700782 -0.1720703782 0.8265569582
675295950.0 0.1997685263 -0.8211716777 -1.86999e-05 1.35682e-05 -9.48309e-05 1.0324e-05 -0.1635198742 0.828732955
680295920.0 0.1913394869 -0.8230911589 0.000209266 0.0001919487 -0.0001013731 0.0001830704 -0.1542238265 0.8312997309
685295890.0 0.1837623355 -0.824263254 -4.26445e-05 -0.0001681896 7.16955e-05 -3.73127e-05 -0.1460493413 0.8319575342
690295860.0 0.1752230028 -0.8264512557 -9.53665e-05 0.0001032091 3.69218e-05 3.28333e-05 -0.138055184 0.8336300822
695295830.0 0.1670917316 -0.8279526324 -8.04786e-05 -0.0001196049 -0.0001245222 8.42112e-05 -0.1295953387 0.8349975316
700295800.0 0.1590783376 -0.8297465461 -4.84665e-05 0.0001480872 -0.0001545621 0.0001370198 -0.1216606274 0.8361416178
705295770.0 0.1498325665 -0.8306367716 3.60826e-05 -0.0002355212 -4.69992e-05 0.0001434574 -0.1132589703 0.8379748741
710295740.0 0.1419066113 -0.8322627536 1.67251e-05 6.5732e-06 7.28536e-05 -4.40487e-05 -0.1045550142 0.8384555962
715295710.0 0.133224528 -0.8338547937 -1.14647e-05 -0.0001302158 1.65086e-05 0.0001519635 -0.0961874277 0.840040914
720295680.0 0.125899942 -0.834967107 2.94079e-05 9.2016e-06 -0.0001349048 -0.0001666876 -0.0877829481 0.8410753796
725295650.0 0.1170532301 -0.8346927622 -8.57635e-05 7.15373e-05 -7.97451e-05 2.4018e-05 -0.0798378943 0.8419618561
730295620.0 0.1081271015 -0.836451304 3.27409e-05 0.0002162502 -0.0001458124 0.0001595973 -0.0714904137 0.8427590746
735295590.0 0.1000910257 -0.8368882668 -7.19261e-05 -7.83594e-05 -0.0001287091 -6.92965e-05 -0.0632559125 0.8424473872
740295560.0 0.091808875 -0.837977276 4.7287e-06 2.20633e-05 9.50288e-05 5.9088e-05 -0.0543606101 0.8440471002
745295530.0 0.0839033218 -0.8384707855 -0.0001459202 5.23749e-05 7.06669e-05 4.75769e-05 -0.0457659795 0.8437078658
750295500.0 0.0747849125 -0.8391836959 8.80359e-05 2.27105e-05 -6.36074e-05 7.08922e-05 -0.0379606727 0.8441324633
755295470.0 0.0659689662 -0.8401626507 -0.000119109 3.55038e-05 -3.81933e-05 1.09133e-05 -0.029270905 0.8441577374
760295440.0 0.0579763478 -0.8405061704 -9.49216e-05 -0.0001229287 -0.0001587169 0.0001021165 -0.0203904419 0.8445946095
765295410.0 0.0499732764 -0.8409511729 -9.538e-06 0.0001578169 1.10859e-05 -9.42276e-05 -0.0120652736 0.8449519865
770295380.0 0.0412420954 -0.8411257758 0.000101643 2.32595e-05 1.44849e-05 -0.0001185216 -0.0038342314 0.8446847991
775295350.0 0.0326684855 -0.8415036699 0.0001535551 7.73447e-05 -0.0001322881 5.06149e-05 0.0038173292 0.8443043838
780295320.0 0.0247390742 -0.8416000459 -0.0001958288 -4.23183e-05 0.0001635193 -4.52592e-05 0.0122322042 0.8443321404
785295290.0 0.0161424538 -0.8419619754 -5.2459e-05 -0.0002294891 -0.0001445166 -9.1023e-05 0.021748906 0.8441738935
790295260.0 0.0077149376 -0.8414761633 -0.0001952882 -6.43717e-05 -3.15853e-05 6.83255e-05 0.0300830515 0.8440835007
795295230.0 -0.0005974026 -0.8414451117 0.0001246191 -0.0002292369 -6.08558e-05 0.0001382149 0.0387783513 0.8433126484
800295200.0 -0.009230932 -0.8410902871 -4.74742e-05 -1.34949e-05 4.21532e-05 0.0002432398 0.0469272773 0.8427671171
805295170.0 -0.0178978065 -0.8408830519 0.0003996927 0.0001764833 -2.45203e-05 -7.98911e-05 0.0548800038 0.8422576846
810295140.0 -0.025801218 -0.840250195 -3.70391e-05 3.19909e-05 6.81081e-05 -6.96292e-05 0.0639961524 0.8418367009
815295110.0 -0.0344194521 -0.8405914041 -0.0001097241 0.0004149604 -0.0001803466 0.000173595 0.0722465488 0.8409913122
820295080.0 -0.0427937198 -0.8395927061 -1.10771e-05 9.26563e-05 -0.0002511211 0.0001006318 0.0809888168 0.8404743333
825295050.0 -0.0508773032 -0.8391202641 -0.0001730847 0.000112718 -2.13223e-05 -0.0001637977 0.0885035315 0.8398714434
830295020.0 -0.0596327028 -0.8380830152 -0.0001176264 -0.0001827157 2.85447e-05 -6.07166e-05 0.0980713921 0.8386523235
835294990.0 -0.0679111189 -0.8374927825 -1.70189e-05 5.03979e-05 -5.11878e-05 6.9727e-06 0.1059298819 0.8379868386
840294960.0 -0.0762110813 -0.8363159839 8.6253e-06 0.0001387153 3.44046e-05 4.90315e-05 0.1142277126 0.8368996118
845294930.0 -0.0845728346 -0.8359366998 -0.0002135687 4.16252e-05 -3.61649e-05 4.61694e-05 0.1221090533 0.8353475583
850294900.0 -0.0917276531 -0.8341686645 -0.000110868 -2.39662e-05 7.61847e-05 -0.0002012451 0.1300138021 0.8340919329
