!Created with skrf (http://scikit-rf.org).
# Hz S RI R 50.0 
!freq ReS11 ImS11 ReS21 ImS21 ReS12 ImS12 ReS22 ImS22
300000.0 -0.3162637648 -0.1263694188 0.3724021827 0.0642308026 0.373020498 0.0646034242 -0.3167204503 -0.1294491004
5299970.0 -0.3249506662 0.0029327289 0.3783672406 0.0031573344 0.3788351839 0.003196351 -0.3258891639 0.0022400033
10299940.0 -0.3225242007 0.0142967943 0.3799952415 0.0027998944 0.3800287663 0.0030281164 -0.3235962648 0.0124515806
15299910.0 -0.3189332075 0.0222891179 0.3819071081 0.0027785882 0.3825010761 0.0028083406 -0.3208388723 0.0197644393
20299880.0 -0.3156678806 0.0289336591 0.3852063344 0.0017912294 0.3853509281 0.0020543541 -0.3182035629 0.0260405201
25299850.0 -0.3114987882 0.0348938529 0.38834198 0.0002508881 0.3889362966 0.0004372086 -0.315176725 0.0314421864
30299820.0 -0.3083672903 0.0394617149 0.3920956924 -0.0020851626 0.3921219263 -0.0023073591 -0.3118414186 0.0358137094
35299790.0 -0.3044408852 0.0434456961 0.394923677 -0.0052731207 0.3955493409 -0.0050667788 -0.3093697269 0.0401463331
40299760.0 -0.3013526529 0.0468462031 0.3983189017 -0.0084929551 0.3983941767 -0.0087947778 -0.3065542483 0.0431463972
45299730.0 -0.2979367997 0.0500822806 0.4011143458 -0.0123487539 0.4015113592 -0.01259994 -0.3037048523 0.0464216488
50299700.0 -0.2949582774 0.052507868 0.4038340033 -0.017299658 0.4039026517 -0.0173606094 -0.301420849 0.0496884574
55299670.0 -0.2923679035 0.0554156256 0.4060047756 -0.0217032001 0.4059470895 -0.0218988347 -0.2995753258 0.0522720913
60299640.0 -0.2899430561 0.0579158597 0.4081647479 -0.0269451916 0.4080793221 -0.027004562 -0.2971833821 0.0549096093
65299610.0 -0.2875367573 0.0599898144 0.4099917023 -0.0314457859 0.4099545018 -0.0316568619 -0.2953242242 0.0571566304
70299580.0 -0.2853280204 0.0621743514 0.4106761619 -0.0366884814 0.4108808515 -0.0367480454 -0.2937759271 0.0597079094
75299550.0 -0.2834818826 0.0641244747 0.4116477867 -0.0421476927 0.4117791853 -0.0421289783 -0.2921177709 0.0622265069
80299520.0 -0.2817095196 0.0666641282 0.412960936 -0.047215723 0.4132851777 -0.0474142568 -0.2906333956 0.0647788544
85299490.0 -0.2798348036 0.0684583227 0.4133816154 -0.0526134799 0.4135682305 -0.0524240598 -0.2891863017 0.0669548486
90299460.0 -0.2782583116 0.0706507963 0.413598321 -0.057972684 0.4137642742 -0.0577460866 -0.2876753147 0.0693795187
95299430.0 -0.2767798557 0.0725503767 0.4141382295 -0.0628729736 0.4142938981 -0.0630600556 -0.2863665538 0.0717367502
100299400.0 -0.2755404247 0.0746708347 0.4141428638 -0.0679565176 0.4142106484 -0.0684498697 -0.2854720322 0.0742916295
105299370.0 -0.2738293952 0.0767047838 0.4140586722 -0.0731758043 0.4143626927 -0.0733183124 -0.2842010173 0.0765164749
110299340.0 -0.272655941 0.0787265491 0.413776158 -0.0782840842 0.4140952315 -0.0782434255 -0.2833811666 0.0785789129
115299310.0 -0.2722292463 0.0810616465 0.4138695166 -0.0831943783 0.4139647015 -0.0835389648 -0.2823064089 0.0809498157
120299280.0 -0.2705112838 0.0834290283 0.4131202706 -0.0890456343 0.4130639562 -0.0889880375 -0.2812299278 0.0832412345
125299250.0 -0.2692113964 0.0852360867 0.4124562469 -0.0941441331 0.4125429226 -0.093823321 -0.2800892771 0.0858795445
130299220.0 -0.2682931753 0.0874036899 0.4119362407 -0.0988588033 0.4122502497 -0.0992491794 -0.2790394071 0.0884091538
135299190.0 -0.2670268421 0.0897888012 0.4113562065 -0.103771126 0.4113650385 -0.1039996476 -0.2784656566 0.0906547761
140299160.0 -0.2664510029 0.0921137993 0.4108303525 -0.1090900274 0.4106844459 -0.1089308227 -0.2776886136 0.0932302525
145299130.0 -0.2654235672 0.0947535118 0.409354938 -0.1140231051 0.4097260265 -0.1141246562 -0.2765370383 0.095798764
150299100.0 -0.2643135816 0.0969719215 0.4085411247 -0.1192484125 0.4084687396 -0.1191645048 -0.2758103311 0.0985080099
155299070.0 -0.2630733396 0.0994700168 0.4068190693 -0.1235872297 0.4075167808 -0.1238991752 -0.2750115252 0.1009398242
160299040.0 -0.2622726508 0.1018389702 0.4061181784 -0.1284774149 0.4058403201 -0.1287618429 -0.2741210793 0.1035659279
165299010.0 -0.2611890329 0.1045284283 0.4050083388 -0.1335488005 0.404832443 -0.1336691481 -0.2726570228 0.1058060403
170298980.0 -0.260336489 0.1069433345 0.4034334922 -0.138348227 0.4038125544 -0.138506792 -0.2720055889 0.1085919642
175298950.0 -0.2589915439 0.1089915525 0.4021456005 -0.1428230586 0.4024480916 -0.1434602819 -0.2710807448 0.111535414
180298920.0 -0.2583721675 0.1119139652 0.400649971 -0.1481921276 0.4006108517 -0.14806322 -0.2701825906 0.1140080648
185298890.0 -0.2570089077 0.1142791695 0.3993036313 -0.1525797437 0.3992704825 -0.1525921403 -0.2689682647 0.1163363101
190298860.0 -0.2559131411 0.1172622692 0.3971130518 -0.1573230451 0.3978698515 -0.1571257903 -0.2681139434 0.1193426065
195298830.0 -0.2549741661 0.1195790665 0.3964240347 -0.1617746305 0.3962135741 -0.1618544601 -0.2670489762 0.1218715719
200298800.0 -0.2532237799 0.1221148581 0.3944043164 -0.1668822668 0.394387183 -0.1668619933 -0.2656689326 0.1245738199
205298770.0 -0.2527533973 0.1247031747 0.392505051 -0.171132486 0.3925858256 -0.1706983615 -0.2647535707 0.1273714195
210298740.0 -0.2515077381 0.1274471349 0.3907428841 -0.1756922569 0.3904791182 -0.1755709307 -0.2637148176 0.1299072295
215298710.0 -0.2500610635 0.1300651333 0.3882915103 -0.1800262777 0.3885748241 -0.1804311327 -0.2622681813 0.1326955013
220298680.0 -0.2489626435 0.1325277872 0.3865022105 -0.1844337648 0.3868730928 -0.1846047415 -0.2614635745 0.1353808828
225298650.0 -0.247725764 0.1354608673 0.3845624062 -0.1891825769 0.3847726091 -0.1886341859 -0.2599574399 0.137774756
230298620.0 -0.2465482672 0.1381285328 0.3825855733 -0.1936395969 0.3829335952 -0.1935672363 -0.2589466454 0.1402628818
235298590.0 -0.2457792011 0.1407598954 0.3808079741 -0.1981396982 0.3808813031 -0.1980039992 -0.2575251755 0.1433715495
240298560.0 -0.243976584 0.1433102483 0.378322178 -0.2018416198 0.3785804014 -0.2020938269 -0.2561382271 0.1457943937
245298530.0 -0.2426941055 0.1454421071 0.376167327 -0.206353178 0.3761036713 -0.2067231899 -0.2551189577 0.148797653
250298500.0 -0.2413505386 0.148362885 0.3737872461 -0.210642657 0.3739748388 -0.21057049 -0.2535520723 0.1516737017
255298470.0 -0.2400793386 0.1511916589 0.3714830106 -0.2145898165 0.3720545215 -0.2151055225 -0.2519736273 0.1543154387
260298440.0 -0.2385317856 0.1533549271 0.3692754979 -0.2185240882 0.3695764352 -0.219295885 -0.2508737989 0.1567610706
265298410.0 -0.2374428192 0.1561450071 0.3666717335 -0.2234503197 0.3667666808 -0.2236211033 -0.2488720237 0.1591977233
270298380.0 -0.2361172683 0.1590373537 0.3643329021 -0.2277562797 0.3645834969 -0.2273737137 -0.2475168868 0.1622144567
275298350.0 -0.2345193973 0.1615446805 0.3614322556 -0.2315706595 0.3618883625 -0.2316686181 -0.2460459992 0.1649074067
280298320.0 -0.2331403848 0.1641011766 0.3596211047 -0.2354625799 0.3595919282 -0.2355666505 -0.2441476607 0.1675170509
285298290.0 -0.231307125 0.1664934181 0.3566622764 -0.2394563645 0.3569549348 -0.2396174176 -0.2427682103 0.1706272678
290298260.0 -0.2299708066 0.1692947959 0.3546207458 -0.2434996824 0.3542877226 -0.243595479 -0.241182767 0.1727041969
295298230.0 -0.2286163819 0.1715633414 0.3516916899 -0.2479770145 0.3517912735 -0.2479123802 -0.2393578853 0.1752396808
300298200.0 -0.2268739336 0.1743074362 0.3489183252 -0.251625814 0.348987577 -0.2516172259 -0.2376113408 0.1779785794
305298170.0 -0.2251139926 0.1764903614 0.3459707409 -0.2558337265 0.3467854762 -0.2557882297 -0.2361135754 0.1804351414
310298140.0 -0.2233317278 0.1788711066 0.3433948415 -0.259230338 0.3437450194 -0.259350747 -0.2339896443 0.1831173283
315298110.0 -0.2217692663 0.1812604205 0.3405796801 -0.2637692942 0.3405040014 -0.2636216973 -0.2320425771 0.185364781
320298080.0 -0.2202845933 0.1838465388 0.3373697856 -0.2673771321 0.3379338704 -0.2675881439 -0.2308470531 0.1879934893
325298050.0 -0.2184878053 0.1858590909 0.334536788 -0.2714136777 0.3348218033 -0.2713907222 -0.2286348928 0.1904983011
330298020.0 -0.2170497043 0.1887388871 0.3317810576 -0.2750991282 0.3317800809 -0.2753170229 -0.2269226656 0.1931319096
335297990.0 -0.2153736559 0.19078427 0.3282264849 -0.2786494006 0.3285172852 -0.2788461118 -0.2248333526 0.1955070282
340297960.0 -0.2136498813 0.1934787704 0.324881459 -0.2827271865 0.3251746239 -0.2823222492 -0.2234847161 0.1981590461
345297930.0 -0.2120860458 0.1955692397 0.3218212608 -0.2860874485 0.32202011 -0.2858347741 -0.2214696699 0.2004238737
350297900.0 -0.2099235351 0.1980464562 0.3185970738 -0.289153123 0.3192156866 -0.2892103025 -0.219517037 0.2026905021
355297870.0 -0.2082121257 0.2004122954 0.3155589556 -0.292543666 0.3155282987 -0.2926527667 -0.2170507878 0.2053466501
360297840.0 -0.2061455034 0.2027087544 0.3120299071 -0.2961415395 0.3127769249 -0.2966051147 -0.2150735729 0.2078212526
365297810.0 -0.2042658497 0.2049213688 0.308906953 -0.2995369299 0.3089318963 -0.2995672494 -0.2134446804 0.2099853167
370297780.0 -0.2024486003 0.2072615362 0.3053505432 -0.3031055662 0.3058943574 -0.3031649237 -0.2111012147 0.2125312172
375297750.0 -0.2006755347 0.2095726836 0.302404621 -0.3063496776 0.3022458421 -0.3063257308 -0.2087149999 0.2147239823
380297720.0 -0.1986685271 0.21197575 0.2992494009 -0.309807767 0.2987802637 -0.3099640458 -0.2064063429 0.2176546867
385297690.0 -0.1966258581 0.2141030145 0.2953659726 -0.3130274813 0.2954761992 -0.3133500703 -0.2042310194 0.2202363268
390297660.0 -0.1940872441 0.2161322364 0.2916233204 -0.3157867996 0.2921403826 -0.3162764413 -0.2019167699 0.2219183715
395297630.0 -0.1920766502 0.2184885633 0.2886952266 -0.3189430009 0.2887787672 -0.3193215274 -0.1999052725 0.2243421676
400297600.0 -0.1901258676 0.2206571799 0.2846187026 -0.3225391438 0.2851480455 -0.3224906427 -0.1976230401 0.2267612555
405297570.0 -0.1876889821 0.2225523218 0.2813647012 -0.3257230043 0.2818435833 -0.3256953382 -0.195163822 0.2288928319
410297540.0 -0.1857361149 0.2251530374 0.2780491828 -0.3291174558 0.2781527537 -0.328648929 -0.1930492595 0.2311371914
415297510.0 -0.1836023969 0.2269672493 0.2745312199 -0.3316349169 0.2746679754 -0.3318662265 -0.1902716635 0.23339817
420297480.0 -0.1809297221 0.2288079817 0.2703574505 -0.3347379095 0.2708499064 -0.3348209233 -0.1880696257 0.2357875959
425297450.0 -0.1786257997 0.2309568798 0.2670322337 -0.3374307811 0.2666588286 -0.3376041713 -0.1854319221 0.2375593873
430297420.0 -0.1766184156 0.2327444375 0.2633175515 -0.3409100921 0.2634061549 -0.340397022 -0.1829978355 0.2399575595
435297390.0 -0.174217341 0.2345339912 0.2590322037 -0.3437051334 0.2595380867 -0.3433079853 -0.1809017284 0.2422726986
440297360.0 -0.1715185983 0.2365196301 0.2551212738 -0.3462759278 0.2554622496 -0.3462297589 -0.1781606506 0.2441363663
445297330.0 -0.1691133302 0.2381786469 0.2519888022 -0.3486016663 0.2516085473 -0.3491225242 -0.1752641991 0.2462484337
450297300.0 -0.1662863563 0.2402436846 0.2477746017 -0.3511784201 0.2482670076 -0.3513829812 -0.1728211319 0.2481240218
455297270.0 -0.164569931 0.242014078 0.2442298961 -0.3544361154 0.2443563322 -0.3544857727 -0.1702584482 0.2504646939
460297240.0 -0.1615009069 0.2442487856 0.2401478925 -0.3574978691 0.2402588867 -0.357340745 -0.1676838789 0.2521300805
465297210.0 -0.158940342 0.2460052254 0.2355523326 -0.3595478429 0.235817179 -0.359991224 -0.1649344916 0.2544320805
470297180.0 -0.1564276884 0.2477266489 0.2321506956 -0.362065059 0.2325786576 -0.3621477398 -0.1625272435 0.2561847723
475297150.0 -0.1539134954 0.2494301604 0.2278905293 -0.3647146675 0.2282682219 -0.3648516945 -0.1594533192 0.2581508251
480297120.0 -0.1509079616 0.2514879997 0.2237780912 -0.3672875339 0.2242073082 -0.3669002557 -0.1568392626 0.2597524699
485297090.0 -0.1484313863 0.252669095 0.220105562 -0.3695114368 0.2199288826 -0.3694345164 -0.1542107709 0.2618033034
490297060.0 -0.1451747989 0.2546736455 0.2155234884 -0.3720711415 0.21599489 -0.3721024488 -0.1514433543 0.2632124726
495297030.0 -0.1429598948 0.2560681214 0.2119656874 -0.3743346557 0.2118607699 -0.3744675871 -0.1486025323 0.2648289896
500297000.0 -0.1401764622 0.2579295778 0.2081171374 -0.3764389278 0.2079198039 -0.3766636156 -0.1457176005 0.2667005179
505296970.0 -0.1373554985 0.2595531961 0.2038200153 -0.3791054145 0.2039062698 -0.3787035195 -0.1431794568 0.2679100227
510296940.0 -0.134455072 0.2612076494 0.1995686957 -0.3813454184 0.2000025829 -0.3815344336 -0.1398816278 0.2701655137
515296910.0 -0.1318950372 0.2626366877 0.1953673978 -0.383106617 0.1948386758 -0.3830113723 -0.1373631575 0.2713801911
520296880.0 -0.1288854386 0.2643306465 0.1911432031 -0.3852706658 0.1908938847 -0.385107942 -0.1340674594 0.2738862588
525296850.0 -0.1261316381 0.2654518947 0.1867350006 -0.3869733384 0.1864238679 -0.3869338784 -0.1312961768 0.2746837943
530296820.0 -0.1234635198 0.2671490071 0.1823925561 -0.389251012 0.1824027823 -0.3891508828 -0.1284722707 0.2761040833
535296790.0 -0.1198422273 0.2685420846 0.1781352341 -0.3911247825 0.178064947 -0.3912483284 -0.1252825148 0.2777727546
540296760.0 -0.1173228549 0.2701082086 0.1739783282 -0.3926866601 0.173524583 -0.3928784585 -0.122573156 0.2792804485
545296730.0 -0.114603809 0.271565282 0.1697795095 -0.3945113681 0.1695148555 -0.394423359 -0.1194650701 0.2805252323
550296700.0 -0.1110463908 0.272776666 0.1653296907 -0.3964325774 0.1648130415 -0.3968659504 -0.1163619799 0.2822009635
555296670.0 -0.108226731 0.2741981717 0.1607032978 -0.3985629773 0.1608107031 -0.3984472941 -0.1139858113 0.2833659922
560296640.0 -0.105013563 0.2755636425 0.1560082474 -0.4000584898 0.1568264506 -0.3999963725 -0.1106107698 0.284804588
565296610.0 -0.1025094413 0.2771185194 0.1520962089 -0.4017647775 0.1521358493 -0.4014268981 -0.1074634409 0.2861935063
570296580.0 -0.0993159788 0.2784046147 0.1476240611 -0.4030883766 0.1476613268 -0.4030135453 -0.1048274161 0.2870229558
575296550.0 -0.0962084398 0.2792721554 0.1434525188 -0.4048834422 0.1432053523 -0.4048379975 -0.1014522289 0.288146187
580296520.0 -0.0934493743 0.280686944 0.1388967122 -0.4063372436 0.138778714 -0.4066047373 -0.0986359313 0.28965041
585296490.0 -0.0899559935 0.2818529027 0.1347021787 -0.4075450342 0.1339513062 -0.4076703254 -0.0953410058 0.2912061937
590296460.0 -0.0867453924 0.2832295792 0.1301205336 -0.4092190051 0.1298667629 -0.4093285228 -0.0924216015 0.2918857748
595296430.0 -0.0838770596 0.2840759557 0.1250725426 -0.4105443508 0.1251790532 -0.4104638793 -0.0892492707 0.292900696
600296400.0 -0.0808417157 0.2852699645 0.1207623858 -0.4115850621 0.1208873403 -0.4115222092 -0.0863694044 0.2936548798
605296370.0 -0.0778453707 0.2863130772 0.1166532064 -0.4127237313 0.1161958779 -0.4129589395 -0.0829263195 0.2951984455
610296340.0 -0.0745741873 0.287658386 0.111890023 -0.4139333833 0.112195632 -0.4141457415 -0.0803765599 0.2964655351
615296310.0 -0.0714561133 0.2885485608 0.1071665277 -0.4154929683 0.1071626761 -0.4153365542 -0.0767476543 0.2972716221
620296280.0 -0.0686427394 0.290113296 0.1028650098 -0.4166983684 0.1026877985 -0.4161006126 -0.0737676157 0.2982740416
625296250.0 -0.0655057874 0.2903711311 0.0981267633 -0.4173040606 0.0981312274 -0.4174913164 -0.0704061086 0.2990428529
630296220.0 -0.0624112633 0.2918883536 0.0936768698 -0.4187499151 0.0936208152 -0.4184626772 -0.0677272296 0.2997938735
635296190.0 -0.0592278671 0.2924676422 0.0893961982 -0.4191092869 0.0888191196 -0.4193145798 -0.06420997 0.3007477673
640296160.0 -0.0558340072 0.2932050052 0.0846161342 -0.4203460253 0.0843863856 -0.4204696145 -0.0613510837 0.3015240892
645296130.0 -0.0528632172 0.2945755933 0.0800307781 -0.4210505743 0.0799425194 -0.421055009 -0.0579907631 0.3020221256
650296100.0 -0.0497103748 0.2950208561 0.0755643638 -0.4221870779 0.0750257405 -0.4221801316 -0.0542974875 0.3030743284
655296070.0 -0.0466059697 0.2958200966 0.0706216643 -0.4229024453 0.0708176313 -0.4227185756 -0.0518736142 0.3038597623
660296040.0 -0.0433748925 0.2966973208 0.0662175174 -0.4233226818 0.0661636326 -0.4233621972 -0.0482418247 0.3043192306
665296010.0 -0.0404424678 0.2973914785 0.0613244729 -0.4240472923 0.0612463281 -0.4242318174 -0.0450692604 0.3049690552
670295980.0 -0.0373922473 0.2981494314 0.0568170068 -0.424734674 0.056829366 -0.4243992581 -0.0419884657 0.3055785281
675295950.0 -0.0340412615 0.2986018292 0.0524351575 -0.4249837057 0.0526102934 -0.4255588706 -0.038778904 0.3063991834
680295920.0 -0.0316911937 0.2994984449 0.0481435047 -0.4255163629 0.0475887219 -0.4253319278 -0.0350586543 0.3065107276
685295890.0 -0.0278419255 0.3000339421 0.0430771802 -0.4266003012 0.0430675899 -0.4262502391 -0.0322048721 0.3074056187
690295860.0 -0.0248529883 0.3004429451 0.0388105656 -0.4266383493 0.0382952166 -0.4264516546 -0.0289569626 0.307700455
695295830.0 -0.0213055372 0.3008113314 0.0342386206 -0.4270681268 0.0338899956 -0.4271233881 -0.0258198169 0.3085697797
700295800.0 -0.0182632113 0.3016462255 0.0294384262 -0.4273780484 0.0295180388 -0.4274181145 -0.0223975388 0.308655045
705295770.0 -0.0156044161 0.3020585369 0.0248692226 -0.4278581084 0.0245955932 -0.4275316919 -0.0190993133 0.3094032141
710295740.0 -0.0126772987 0.3021979332 0.0202841673 -0.4276277507 0.0200302047 -0.4280032613 -0.0161844694 0.3093650054
715295710.0 -0.009121256 0.303077781 0.0156781608 -0.4279642739 0.0154769585 -0.4279248651 -0.0128591391 0.3094024291
720295680.0 -0.0058815554 0.3030020604 0.0109455036 -0.4277072352 0.0107918984 -0.4281072364 -0.0093013699 0.3097075713
725295650.0 -0.0028612512 0.3038510665 0.0064960358 -0.4279056536 0.006255921 -0.4279750983 -0.0062943908 0.3105872986
730295620.0 -0.0005277182 0.3038222496 0.0019436165 -0.4277828966 0.0014188201 -0.4280159615 -0.0030957802 0.3109576024
735295590.0 0.003069686 0.3043956843 -0.0028095867 -0.4281901163 -0.0027430275 -0.4279461247 6.20985e-05 0.3103238666
740295560.0 0.0058641098 0.3041953437 -0.0075589953 -0.427947041 -0.0073387819 -0.4281741576 0.0033615835 0.3108563931
745295530.0 0.0093692381 0.3044141562 -0.012034128 -0.4273065038 -0.0115427726 -0.4277340189 0.0062495277 0.3109519441
750295500.0 0.0121241249 0.3047185288 -0.0165226812 -0.4274141128 -0.016970117 -0.4277347259 0.0094947663 0.3109576257
755295470.0 0.0151781235 0.3049785436 -0.0209718678 -0.427451388 -0.0214119939 -0.427777649 0.0128560726 0.311473277
760295440.0 0.018196292 0.3052915399 -0.0262472738 -0.4270000125 -0.0261775969 -0.4267790393 0.0164066013 0.3108296872
765295410.0 0.0214454431 0.3048213461 -0.0302703213 -0.426258247 -0.0303440825 -0.4266796453 0.0193345537 0.3110437673
770295380.0 0.0243055955 0.3052960966 -0.034724942 -0.4264536758 -0.0351924472 -0.4265253429 0.0227085052 0.3107153125
775295350.0 0.0274477874 0.305103318 -0.0397802693 -0.4256792687 -0.0397215269 -0.4258239672 0.0261056533 0.3106315232
780295320.0 0.0307802358 0.3049846168 -0.0440575537 -0.4251170117 -0.0441765767 -0.4254172081 0.0296035254 0.3106020731
785295290.0 0.03373287 0.3044799404 -0.0486086466 -0.4247081136 -0.048972544 -0.4250882978 0.0322103504 0.3109104489
790295260.0 0.0367922227 0.3044927411 -0.0532388206 -0.4242065913 -0.0532537329 -0.4245766635 0.0359907402 0.3107561923
795295230.0 0.0395838291 0.3044516143 -0.057885936 -0.4235691268 -0.0576567497 -0.4237393357 0.0390240312 0.3096855837
800295200.0 0.0425711826 0.3045738767 -0.0619565884 -0.423033348 -0.0624766828 -0.4232950984 0.0418648247 0.3097516692
805295170.0 0.0457656065 0.3041533711 -0.0667311981 -0.4222356378 -0.0672786104 -0.4226510227 0.0460586629 0.3093465166
810295140.0 0.0488863353 0.3038466173 -0.0714365581 -0.4212846974 -0.071636499 -0.4218010334 0.0488667256 0.3092068513
815295110.0 0.0519627832 0.3034288581 -0.0759460659 -0.4206790449 -0.0757386717 -0.4208339251 0.0517354122 0.3089666061
820295080.0 0.0547642121 0.303153533 -0.080067372 -0.4198888886 -0.0804434084 -0.420106224 0.054607018 0.3090225483
825295050.0 0.0576547067 0.3025526063 -0.0850229289 -0.4192368002 -0.0852240497 -0.4191086002 0.0587943634 0.3084709018
830295020.0 0.0610320926 0.3025499258 -0.0895285054 -0.4183051622 -0.0894339324 -0.41798051 0.0614908691 0.307254603
