!Created with skrf (http://scikit-rf.org).
# Hz S RI R 50.0 
!freq ReS11 ImS11 ReS21 ImS21 ReS12 ImS12 ReS22 ImS22
300000.0 -0.3169638294 -0.1275346449 0.3740625839 0.0649225798 0.3705583649 0.0640707643 -0.3170963487 -0.1314512165
5299970.0 -0.3248306425 0.0027564208 0.3783726462 0.0032020211 0.3788953619 0.003515106 -0.3258677825 0.0021518847
10299940.0 -0.3226536974 0.0142822452 0.3803195874 0.0029338926 0.3798878617 0.0027939801 -0.3234909445 0.0127410551
15299910.0 -0.3190902218 0.0222305842 0.3820042016 0.0028203685 0.3823719719 0.0025920833 -0.3207892206 0.0200220399
20299880.0 -0.3153711676 0.029073083 0.3850268017 0.0018291007 0.3854245547 0.0020249673 -0.3179214546 0.0261550239
25299850.0 -0.3114509377 0.0348116726 0.3883449114 0.0006506161 0.3889029005 0.0001185602 -0.3149175212 0.0313064876
30299820.0 -0.3083973094 0.0395772601 0.3919441702 -0.0022561178 0.3918219111 -0.0020951922 -0.3120227758 0.0356338347
35299790.0 -0.3045840693 0.0433647592 0.3949356881 -0.0048760745 0.3953396766 -0.0052647916 -0.3090732854 0.0400076908
40299760.0 -0.3013062556 0.0466930933 0.398155804 -0.0083519868 0.3987227643 -0.0087477191 -0.3065512777 0.0433093573
45299730.0 -0.2981682064 0.0500158531 0.4012673921 -0.0123802944 0.4018456398 -0.0125327243 -0.3036546624 0.0463725515
50299700.0 -0.2950883924 0.0527618821 0.4038909161 -0.017099621 0.4036679728 -0.01710071 -0.301212152 0.0497333454
55299670.0 -0.2924656642 0.0554591813 0.4059140944 -0.0217632231 0.4059342428 -0.0219155366 -0.2992194596 0.0523451034
60299640.0 -0.289554901 0.0578233787 0.407715105 -0.0268764923 0.4081233192 -0.0268799577 -0.2973371789 0.0546015733
65299610.0 -0.2872805552 0.0600512399 0.4097504239 -0.0314220761 0.4098224332 -0.0316435702 -0.2954523928 0.0573402712
70299580.0 -0.2853846977 0.0621216223 0.4107979729 -0.0367698568 0.4109275657 -0.0368095219 -0.2939563649 0.0598538622
75299550.0 -0.283485251 0.064103934 0.4115978302 -0.0420303297 0.4120996598 -0.0422022782 -0.291811657 0.0623166328
80299520.0 -0.2817575744 0.0664483689 0.4126601956 -0.0470935232 0.4128725098 -0.0474256264 -0.2906444014 0.0648197627
85299490.0 -0.2797858498 0.0683727155 0.4135050363 -0.0526028569 0.4135895582 -0.0524685919 -0.2891714781 0.0668357754
90299460.0 -0.2780989504 0.0708530017 0.4136663417 -0.0578187515 0.4137105502 -0.0578373073 -0.2876171228 0.0694848848
95299430.0 -0.2768191536 0.0726670465 0.4138560057 -0.0629776854 0.414517662 -0.0631574819 -0.2866916826 0.0719054551
100299400.0 -0.2753287982 0.0747012157 0.4140309128 -0.0682483573 0.4141278033 -0.0682726211 -0.2853837536 0.0747699275
105299370.0 -0.2739393831 0.0765850761 0.4136779091 -0.0729779546 0.4143741726 -0.0734768888 -0.2839869251 0.0761091454
110299340.0 -0.2725861616 0.0786616458 0.4135847649 -0.0780026146 0.413783182 -0.0782232483 -0.2834445753 0.0784844745
115299310.0 -0.271604404 0.0812023913 0.4135508861 -0.0836401943 0.4133889157 -0.0834287733 -0.2822658719 0.0812081861
120299280.0 -0.2701813285 0.0833678052 0.4130396546 -0.0892970639 0.4129970657 -0.0889801241 -0.2812407627 0.0835166852
125299250.0 -0.2692715346 0.0854747871 0.4124335486 -0.0939685076 0.4126976851 -0.0938152335 -0.2800988446 0.0859337031
130299220.0 -0.2682735771 0.0873487079 0.4121262679 -0.0988538744 0.4119380813 -0.0993739963 -0.2792009347 0.0882768434
135299190.0 -0.2672412554 0.0897835482 0.4114181276 -0.1036748132 0.4115028728 -0.104141509 -0.278081812 0.0907186152
140299160.0 -0.2663076413 0.0922796948 0.4105509658 -0.109335495 0.4103882596 -0.1088786175 -0.2777624407 0.093089981
145299130.0 -0.2654321684 0.0947369757 0.4095131195 -0.1138585676 0.4098052892 -0.1139595702 -0.2764202828 0.0958743506
150299100.0 -0.2640523258 0.0968463114 0.4085686205 -0.1189457501 0.408515967 -0.1188390018 -0.2758039036 0.0983383056
155299070.0 -0.2633462583 0.0993811077 0.4073627164 -0.1238590244 0.4074689904 -0.123923882 -0.2744948655 0.1008899712
160299040.0 -0.2624089237 0.1020402672 0.4063283259 -0.1287194874 0.4060840241 -0.128803854 -0.2741015241 0.1035044523
165299010.0 -0.2611894935 0.1044612255 0.4053527834 -0.1333864116 0.4048286949 -0.1338606482 -0.2726504216 0.1061363471
170298980.0 -0.2600132577 0.1066801911 0.4030910038 -0.1384552155 0.4036854067 -0.1384004203 -0.27220445 0.1085116969
175298950.0 -0.2591427215 0.109313387 0.402192864 -0.142944495 0.4023861602 -0.1433637494 -0.2709270777 0.1116517277
180298920.0 -0.2585088492 0.1119161624 0.4009056872 -0.1480865958 0.4009821745 -0.1483926554 -0.2700151395 0.1141471796
185298890.0 -0.2569060363 0.1144040447 0.3992507154 -0.1527693449 0.3993453566 -0.1524781861 -0.2691205136 0.116585407
190298860.0 -0.2560232845 0.1172482491 0.3971065192 -0.1571720627 0.3977133618 -0.1575476771 -0.2678156917 0.119467764
195298830.0 -0.2545062878 0.1195631942 0.3960322631 -0.1619374769 0.3959413004 -0.1619750358 -0.2670634731 0.1220217951
200298800.0 -0.2536468703 0.1222083581 0.3943364445 -0.1668802807 0.3942733287 -0.1666672345 -0.2657919825 0.1244976983
205298770.0 -0.2526267743 0.1246642375 0.3920528941 -0.1709242704 0.3927628163 -0.1708791331 -0.2645763875 0.1272896301
210298740.0 -0.2516624053 0.1273464371 0.3910618854 -0.1755129004 0.3906067439 -0.1757841979 -0.2636178858 0.1299164931
215298710.0 -0.2504584472 0.130156337 0.3886146749 -0.1800347975 0.38881625 -0.1805533822 -0.2623705906 0.1326096842
220298680.0 -0.2489876332 0.1326717581 0.3864035578 -0.1845397378 0.3864442127 -0.1847587081 -0.260538082 0.1353360817
225298650.0 -0.2480288787 0.1353703381 0.3844808771 -0.1890454063 0.3846489346 -0.1886625592 -0.2600399599 0.1377634558
230298620.0 -0.2466667116 0.138256263 0.3825261709 -0.1934984788 0.3828664454 -0.1936811431 -0.2585890663 0.1407371966
235298590.0 -0.2454976047 0.1405924708 0.3805336248 -0.198253462 0.3809066151 -0.1979538242 -0.2575451986 0.1434519701
240298560.0 -0.2439508348 0.1433113447 0.3785235234 -0.2020291427 0.3786035248 -0.2020721959 -0.2563708083 0.1458565617
245298530.0 -0.2429664348 0.1457655806 0.3763754505 -0.2063819935 0.3761356163 -0.2065354348 -0.254626049 0.148427702
250298500.0 -0.2415810303 0.1481418479 0.3741661996 -0.2105099371 0.3742325367 -0.2106963564 -0.2535507053 0.1516364083
255298470.0 -0.2401103851 0.1511537629 0.3716291045 -0.2146472397 0.3723495976 -0.2150611313 -0.2520694169 0.1544142006
260298440.0 -0.2387493792 0.1533709606 0.3693675888 -0.2187211439 0.3694302633 -0.2190789742 -0.2505219474 0.1568583637
265298410.0 -0.2372380664 0.1563634977 0.3669475996 -0.2235729565 0.3667716805 -0.2235745493 -0.2488998264 0.1593427725
270298380.0 -0.2360816417 0.1586480919 0.3644055513 -0.2275669589 0.3645037833 -0.2273241276 -0.2474195822 0.1623131012
275298350.0 -0.2345042578 0.1615910559 0.3617459615 -0.2314759705 0.3619257927 -0.2314704453 -0.2460969811 0.1651692886
280298320.0 -0.2331911046 0.1639485364 0.3594014507 -0.2356215584 0.3598527448 -0.2357367786 -0.2444216675 0.1673755276
285298290.0 -0.2314424695 0.1666412782 0.3567687947 -0.2397344114 0.3567964172 -0.2395000761 -0.2428180866 0.1703191556
290298260.0 -0.2298743534 0.1694214682 0.3544165791 -0.243559811 0.354441433 -0.2437809977 -0.2413070659 0.173057953
295298230.0 -0.2284087646 0.1714796441 0.3514652091 -0.2477489308 0.3517730404 -0.2478399829 -0.2393820254 0.1753185136
300298200.0 -0.2267147622 0.1741574528 0.3489782589 -0.2516270088 0.3488877261 -0.2517763154 -0.2375372509 0.1782186051
305298170.0 -0.2252041115 0.1763230894 0.3461891342 -0.2557946632 0.3463927691 -0.255724457 -0.2357966048 0.1802171081
310298140.0 -0.223312821 0.1789595356 0.3430473006 -0.2594196992 0.3435343439 -0.2595007397 -0.2337419269 0.1830479101
315298110.0 -0.2219772949 0.1809654608 0.3407778706 -0.2636009186 0.3404589182 -0.2636864716 -0.2321828833 0.1854449329
320298080.0 -0.2200751139 0.1838484043 0.3371620956 -0.2677689785 0.3379064646 -0.267475367 -0.23058757 0.1877836635
325298050.0 -0.2188329825 0.1858883784 0.3345235651 -0.2711395309 0.334952554 -0.2712954112 -0.2286728939 0.1904791585
330298020.0 -0.2170596944 0.1883926401 0.3314567108 -0.2749748812 0.331807338 -0.2750536134 -0.2270942669 0.1928254149
335297990.0 -0.2154133838 0.1910113862 0.3283497122 -0.2784837344 0.3285029556 -0.2789211687 -0.2248378203 0.1956146328
340297960.0 -0.2136268418 0.1933140298 0.3247709384 -0.2824658482 0.3251419769 -0.282364332 -0.2230447951 0.1982204524
345297930.0 -0.212050611 0.195732051 0.3218763825 -0.2860409984 0.3216443713 -0.2859163566 -0.2209390333 0.2005136867
350297900.0 -0.2102966497 0.1978371912 0.3188812742 -0.2890833603 0.319058809 -0.2892739774 -0.2194988738 0.2025331807
355297870.0 -0.2083225934 0.2002420851 0.3156948075 -0.2925090759 0.3157270096 -0.2929574576 -0.217112286 0.2056226191
360297840.0 -0.2062504914 0.2028234022 0.3122253081 -0.2963887543 0.3126009504 -0.2964197037 -0.2152920422 0.2076948015
365297810.0 -0.2045255614 0.2049823619 0.3087366253 -0.2994367495 0.3090554528 -0.299611685 -0.2135288941 0.2103098169
370297780.0 -0.2024482659 0.2075252557 0.3054802867 -0.3032392959 0.3057272103 -0.3028155764 -0.2112289446 0.2126128162
375297750.0 -0.2003465651 0.2096258019 0.3020713998 -0.3063033619 0.3021306647 -0.3064594576 -0.2088831008 0.2151593705
380297720.0 -0.1988694078 0.2122688577 0.2993497874 -0.3100662586 0.2988630542 -0.3097709861 -0.2067374652 0.2176229629
385297690.0 -0.1966593055 0.2141808522 0.2953788871 -0.3130840487 0.2954861007 -0.3133798966 -0.2044760288 0.2201914342
390297660.0 -0.1937543833 0.21619077 0.2917035435 -0.3158848858 0.2920357282 -0.3163978822 -0.2020848904 0.2219296748
395297630.0 -0.192286321 0.2185635631 0.2886154858 -0.3188866417 0.2885119367 -0.3190076624 -0.1997670649 0.2240626034
400297600.0 -0.1899557254 0.2207346 0.2850064775 -0.3225863644 0.2854093077 -0.3225472529 -0.1976791199 0.2268349726
405297570.0 -0.1880284231 0.22238367 0.2818647098 -0.3253619081 0.281850109 -0.3255583921 -0.1951718594 0.2290393497
410297540.0 -0.1855561936 0.2248704814 0.278045087 -0.3288304632 0.2778417621 -0.328532058 -0.1926258723 0.2313483376
415297510.0 -0.1836983324 0.2268614632 0.2742644141 -0.3316696786 0.2745901365 -0.3317235381 -0.1904370981 0.2335913855
420297480.0 -0.1813608443 0.2285479316 0.2705042618 -0.3344683551 0.2708698148 -0.3349622832 -0.1874213632 0.235983718
425297450.0 -0.1784061504 0.2309500578 0.2664842665 -0.337395786 0.2668225134 -0.3376040743 -0.1855593252 0.237771099
430297420.0 -0.1763728548 0.232844421 0.2634007194 -0.3405908819 0.2632366453 -0.3401930981 -0.1829268589 0.2399181457
435297390.0 -0.1741117673 0.234464361 0.2590505335 -0.3435983283 0.2592413898 -0.3433788497 -0.1805707628 0.2423316776
440297360.0 -0.1714551942 0.2364721631 0.2553161713 -0.3465926137 0.2554181954 -0.3461499284 -0.1780524473 0.2440702389
445297330.0 -0.1691278696 0.2383264963 0.2517757343 -0.3487923089 0.2516877581 -0.3491243535 -0.1755094056 0.2463920086
450297300.0 -0.1665232794 0.2405403296 0.2477731252 -0.3519723689 0.2480357444 -0.3516304851 -0.1725870117 0.2483424735
455297270.0 -0.1643367804 0.2422198007 0.2443028774 -0.3542023653 0.2439813489 -0.3546703826 -0.1701263486 0.2503445872
460297240.0 -0.1616346037 0.244047184 0.2402468023 -0.3575086736 0.2398281009 -0.357229047 -0.1671565245 0.2520283271
465297210.0 -0.1589813875 0.2456290953 0.2359511814 -0.3598072315 0.2355357074 -0.3601451023 -0.164655734 0.2546193137
470297180.0 -0.1564389505 0.2476059054 0.2319840959 -0.3620873863 0.2322276246 -0.3620323559 -0.1622016135 0.2556987754
475297150.0 -0.1542839536 0.2497062317 0.228438309 -0.3648414949 0.2284625848 -0.3647001658 -0.1595537067 0.2580265089
480297120.0 -0.1509726029 0.251266673 0.2243318301 -0.3669429617 0.2242655586 -0.3671663348 -0.1569241903 0.2597784972
485297090.0 -0.1484605498 0.2528272029 0.2199483878 -0.3696223657 0.219811283 -0.3697262311 -0.1542451463 0.2619705319
490297060.0 -0.1456360001 0.254673119 0.2156373272 -0.3723442901 0.2157694526 -0.3718787575 -0.1511468024 0.2631862413
495297030.0 -0.1428922122 0.2560607658 0.2120486863 -0.3745291721 0.2122082118 -0.3740094812 -0.1488166027 0.2647912775
500297000.0 -0.1402799201 0.2577137827 0.2081389391 -0.3763243439 0.2077379394 -0.3765537138 -0.1457179919 0.2666956229
505296970.0 -0.1369952626 0.2592807505 0.203748873 -0.3788580937 0.2038245758 -0.3785401583 -0.1427697605 0.2681655944
510296940.0 -0.1345471537 0.2608547374 0.1995617022 -0.3815297408 0.1996726982 -0.3811172807 -0.1397811739 0.2701989046
515296910.0 -0.1319253285 0.2628770468 0.1948994061 -0.3834805729 0.194930319 -0.3829822406 -0.1373910885 0.2712897021
520296880.0 -0.1288903027 0.2642287408 0.1909772907 -0.3851970253 0.1911983306 -0.3850809894 -0.1340645192 0.2736726768
525296850.0 -0.1258496507 0.2657271794 0.1864159753 -0.3873602763 0.186485172 -0.3872758163 -0.1308078317 0.275283285
530296820.0 -0.1232753293 0.2668819163 0.1823411644 -0.38910489 0.1824339088 -0.389049237 -0.1283245068 0.2764657136
535296790.0 -0.1196576038 0.2683944143 0.1780904893 -0.3908654887 0.1783287419 -0.3909857469 -0.1254782148 0.2783009879
540296760.0 -0.1171944695 0.2703050337 0.1735156235 -0.3929001654 0.1737151869 -0.3930104278 -0.1225265575 0.2792962944
545296730.0 -0.1146234663 0.2717445654 0.1694722093 -0.3944540704 0.1693351186 -0.3945530384 -0.1194076274 0.2807863478
550296700.0 -0.1113013184 0.2729807785 0.1651264332 -0.396527743 0.1648453448 -0.3968729614 -0.1161832093 0.2823272933
555296670.0 -0.1084311277 0.2741082299 0.1608764074 -0.3985636622 0.1607881173 -0.3984711609 -0.1137055653 0.2833811636
560296640.0 -0.1049943349 0.2751097045 0.1564578767 -0.3999074184 0.1566108155 -0.3999386208 -0.1105675676 0.2847718078
565296610.0 -0.102647462 0.276861435 0.152479102 -0.401704465 0.1520807132 -0.4013893956 -0.1075640324 0.2862577943
570296580.0 -0.0994485484 0.2782163121 0.1476844269 -0.4033250323 0.1472810346 -0.4033181361 -0.1046266608 0.2872621763
575296550.0 -0.096089304 0.2793479693 0.143476886 -0.4051590997 0.143531625 -0.4047884131 -0.1016473227 0.2885348495
580296520.0 -0.0933280155 0.2808040938 0.138700666 -0.4061086735 0.1390066579 -0.4064872502 -0.0988324821 0.2896272306
585296490.0 -0.0901824721 0.2816962706 0.134512705 -0.4078782999 0.1337891079 -0.4078098136 -0.0948888294 0.2910033349
590296460.0 -0.0866357647 0.2829390822 0.12992799 -0.4089082906 0.1299723421 -0.4090767429 -0.0926699292 0.2918858357
595296430.0 -0.0838416362 0.2839129637 0.1254379496 -0.4101327225 0.1249323605 -0.4105105791 -0.0891721494 0.2931216643
600296400.0 -0.0806067646 0.2852413854 0.1206008495 -0.4116709074 0.1206128953 -0.4115735239 -0.0862126815 0.2940646766
605296370.0 -0.0779165429 0.2863640958 0.1168058724 -0.4131600524 0.1163042359 -0.4131845578 -0.0830861664 0.2950143412
610296340.0 -0.0745014125 0.2874789063 0.1119131121 -0.4138140775 0.1119426611 -0.4141897461 -0.0803674685 0.2963406178
615296310.0 -0.0712119182 0.2883530862 0.1072634362 -0.4151646281 0.1069552579 -0.4155378541 -0.0764685914 0.2973430571
620296280.0 -0.0685058263 0.2898682063 0.1027109799 -0.4163103834 0.1025773554 -0.416625156 -0.0737832895 0.2984867553
625296250.0 -0.0655747196 0.2904391287 0.0982762998 -0.4176345326 0.0981872612 -0.4176127108 -0.0709182489 0.299045883
630296220.0 -0.0621170746 0.2917526421 0.0935731055 -0.4186344827 0.0935238852 -0.4181219472 -0.0671434209 0.2999668408
635296190.0 -0.0591816608 0.2926022049 0.0893088582 -0.4194182057 0.0886886353 -0.4191118324 -0.0638772922 0.3005829329
640296160.0 -0.0561607398 0.2932116304 0.0847497099 -0.4202986784 0.0843939058 -0.4204333668 -0.0611536238 0.3015879712
645296130.0 -0.0525428101 0.2944151528 0.0800687299 -0.4211164017 0.0798776297 -0.4209328552 -0.0579573091 0.3020735913
650296100.0 -0.0496707843 0.2949904517 0.0756668918 -0.422348055 0.0751012608 -0.4222797232 -0.0541739143 0.3030524809
655296070.0 -0.0467567741 0.2958145196 0.070970447 -0.4228946996 0.0704036213 -0.4227864932 -0.0519819417 0.3040880384
660296040.0 -0.0434274686 0.2966103445 0.0664521523 -0.4235082555 0.0661390712 -0.4235750103 -0.0482872184 0.3042421208
665296010.0 -0.0402962922 0.2973881959 0.0611775011 -0.4237273785 0.061586302 -0.4239799148 -0.0450431684 0.3051117095
670295980.0 -0.0372801821 0.2982332874 0.0571148572 -0.4245444269 0.0571258144 -0.4243071206 -0.0425067582 0.3056431456
675295950.0 -0.034173336 0.2984492459 0.0524782226 -0.4249804521 0.0523246051 -0.4253485303 -0.0385663037 0.3064504948
680295920.0 -0.0312859933 0.2993962448 0.048041025 -0.4255823887 0.0477040987 -0.4254948792 -0.0353821899 0.3067128737
685295890.0 -0.0277824826 0.299947918 0.0431414026 -0.4262842095 0.0428824025 -0.4266921341 -0.032404627 0.3076307566
690295860.0 -0.0250361437 0.3007856182 0.0388687968 -0.4265889635 0.0382446517 -0.4264819201 -0.0291239362 0.3079280555
695295830.0 -0.0215652816 0.301317812 0.0341568118 -0.4269807288 0.0339528778 -0.4266955908 -0.0261807535 0.3084456456
700295800.0 -0.018386246 0.3016435456 0.0294845458 -0.4272879084 0.0296817998 -0.4271985589 -0.0225609494 0.3087122024
705295770.0 -0.0156462635 0.3021618475 0.0249106075 -0.4277114425 0.0247646092 -0.4274015648 -0.0193781271 0.3093145354
710295740.0 -0.0124813121 0.3026295263 0.0206585208 -0.4277741663 0.019907163 -0.4278591602 -0.0159675973 0.3095445561
715295710.0 -0.0090895295 0.3031240506 0.0158166109 -0.4281940965 0.0153501545 -0.4278784694 -0.0125625371 0.3095216413
720295680.0 -0.0059324133 0.3031179859 0.0108909924 -0.4281757149 0.010603351 -0.4283307954 -0.0093656859 0.3098001034
725295650.0 -0.0031126713 0.3037726449 0.0065240258 -0.427957927 0.0062615027 -0.4279056226 -0.0064886458 0.3103601704
730295620.0 -0.0003631686 0.3039811633 0.001669336 -0.4278480359 0.0016898242 -0.4276448915 -0.003464324 0.3109111502
735295590.0 0.0031102073 0.3044541328 -0.0028487432 -0.4279785479 -0.0031341115 -0.4281289759 9.39643e-05 0.3104100593
740295560.0 0.0060897758 0.3041089527 -0.0075752915 -0.4277739877 -0.0072865527 -0.4282616313 0.0032080162 0.3111320691
745295530.0 0.0095043507 0.3046449216 -0.01221541 -0.4274262527 -0.0119721356 -0.4276397712 0.0063199375 0.3110981375
750295500.0 0.0119440879 0.3048036444 -0.0162216626 -0.4277172813 -0.0170364377 -0.4274589719 0.0097287813 0.3110906088
755295470.0 0.0153761044 0.3050448424 -0.0210821774 -0.4274384898 -0.0211342188 -0.4276216082 0.0127885667 0.3113215433
760295440.0 0.0181136626 0.3055430224 -0.0260889892 -0.4274921243 -0.0259117243 -0.426822008 0.0163207384 0.3109382912
765295410.0 0.0216181578 0.304779346 -0.0306188144 -0.4269636845 -0.0305893708 -0.426949887 0.0196156185 0.3110613186
770295380.0 0.0243034685 0.3054430176 -0.0347093235 -0.4262899362 -0.0352184233 -0.4265388623 0.0222767719 0.31110383
775295350.0 0.0273556865 0.3052968164 -0.0395578107 -0.4260274387 -0.0395610609 -0.4258739898 0.0261979534 0.310758767
780295320.0 0.0308782075 0.3051315319 -0.0441904677 -0.424965123 -0.0440127469 -0.4254137916 0.0294526078 0.3106452985
785295290.0 0.0337278145 0.3048047013 -0.0486780266 -0.4246716472 -0.0486445843 -0.4251323094 0.0322291116 0.3108674036
790295260.0 0.0368274311 0.3046612138 -0.05337113 -0.4243000132 -0.0532041146 -0.4245995176 0.0356908934 0.3108413042
795295230.0 0.0395729774 0.3043893158 -0.0579145735 -0.4236970322 -0.0582140235 -0.4238386991 0.0386857079 0.309841778
800295200.0 0.0426729291 0.3041550579 -0.0620629939 -0.4227660359 -0.0625147978 -0.4233042905 0.0418159606 0.3097462829
805295170.0 0.045583462 0.3040859461 -0.0667261739 -0.422232416 -0.0669223498 -0.4225606061 0.0458433786 0.3093833761
810295140.0 0.0490955403 0.3040197555 -0.0714260219 -0.4213722109 -0.0714193025 -0.4216298032 0.0489390402 0.3091834314
815295110.0 0.0517407306 0.3036736128 -0.0757014355 -0.420901758 -0.0757253695 -0.4208952969 0.0517211645 0.3089323058
820295080.0 0.0546606813 0.3032323765 -0.0803274257 -0.4198353723 -0.0802317013 -0.4200966378 0.0545498455 0.3087642896
825295050.0 0.057830771 0.3024643034 -0.0848520722 -0.4189993828 -0.0850208943 -0.4190342658 0.0584263254 0.3080744748
830295020.0 0.0611171456 0.3022617914 -0.0895446438 -0.4177897294 -0.0891511965 -0.4181091514 0.0613300706 0.3073896555
