!Created with skrf (http://scikit-rf.org).
# Hz S RI R 50.0 
!freq ReS11 ImS11 ReS21 ImS21 ReS12 ImS12 ReS22 ImS22
300000.0 -0.2410958017 -0.0915559881 0.472189743 0.0612790128 0.4704531787 0.0582140565 -0.2400290053 -0.0991427927
5299970.0 -0.2450294622 0.0064774751 0.4749496064 0.0053043077 0.4746574326 0.0052622836 -0.2410091162 0.0073125735
10299940.0 -0.2418759745 0.017869614 0.4767124062 0.0056627009 0.4767360913 0.0062403739 -0.2376349197 0.0205069079
15299910.0 -0.2377250444 0.0266434088 0.4806335474 0.0073355827 0.4804716078 0.0073413495 -0.2330880781 0.0299785518
20299880.0 -0.2327698566 0.0338652145 0.4850657365 0.0082477898 0.484843398 0.0081937409 -0.2277852533 0.0382559093
25299850.0 -0.2276691863 0.0402710968 0.4899896972 0.0067608566 0.4902581709 0.0071460801 -0.221827879 0.0446198655
30299820.0 -0.2225012962 0.0450820231 0.4956774985 0.0047351983 0.4952866487 0.0049726404 -0.2160873798 0.0503282669
35299790.0 -0.2174056932 0.0489913824 0.500902626 0.0013922042 0.5009453298 0.0015988128 -0.2105414735 0.0546433127
40299760.0 -0.2124902069 0.0526643022 0.5057350907 -0.0027739062 0.5060615493 -0.0021050782 -0.2054792308 0.0575108725
45299730.0 -0.2078996623 0.05485541 0.5103670996 -0.0069525148 0.5109071773 -0.006964996 -0.2004479516 0.0606666672
50299700.0 -0.203847591 0.0567885213 0.5150452919 -0.0128474118 0.5148616826 -0.0123205409 -0.1955912517 0.0627261484
55299670.0 -0.1997614384 0.0584922586 0.518482266 -0.0189411092 0.5184365947 -0.018605944 -0.1911552614 0.0644316999
60299640.0 -0.19609951 0.0599266088 0.5219374139 -0.0250758817 0.522080484 -0.0245270556 -0.1873759652 0.0654742153
65299610.0 -0.1929404682 0.0611028047 0.5244080488 -0.0312232072 0.5248754217 -0.0312773649 -0.1842617544 0.0667023201
70299580.0 -0.1898826018 0.0620587095 0.5271602624 -0.0376820726 0.5272407471 -0.0374582197 -0.1809860566 0.0676253908
75299550.0 -0.1873237535 0.0631144436 0.5287994168 -0.0444174874 0.5288249973 -0.0445419914 -0.1778425484 0.0683305754
80299520.0 -0.1847606973 0.0635709731 0.5310074753 -0.0515415979 0.53108841 -0.051287104 -0.1754061684 0.0691785273
85299490.0 -0.1823554671 0.0638919562 0.5319954159 -0.0577990182 0.531904774 -0.0580958142 -0.1728690158 0.0698262382
90299460.0 -0.1805937973 0.0647930751 0.532885866 -0.0654648725 0.5333581229 -0.06524593 -0.1702763548 0.0704692735
95299430.0 -0.1782684704 0.065326378 0.5342909674 -0.0719679316 0.5341595956 -0.0723276583 -0.1679868265 0.071367887
100299400.0 -0.1765014239 0.0661605354 0.5338896391 -0.0787199026 0.5343177494 -0.0790459996 -0.1660500257 0.0714610489
105299370.0 -0.174926255 0.0668678898 0.5344441812 -0.0861251018 0.5348063078 -0.0861417207 -0.1643027053 0.0724131515
110299340.0 -0.1733011346 0.0674433451 0.5348641574 -0.0927547424 0.534414333 -0.0925863226 -0.1628972883 0.0727098374
115299310.0 -0.1719577864 0.0681007153 0.5346728084 -0.0995818562 0.5348603396 -0.0994926556 -0.1610893203 0.0736610293
120299280.0 -0.17078642 0.0684939597 0.5343168746 -0.1063985541 0.5345074836 -0.1064602829 -0.1596333456 0.0743414008
125299250.0 -0.1695281296 0.0692599827 0.5339917697 -0.1128304406 0.5341498203 -0.1127367962 -0.1585987318 0.0747977233
130299220.0 -0.168565064 0.070210587 0.5333071904 -0.1198191836 0.5337002449 -0.1197671415 -0.1572219027 0.0758413937
135299190.0 -0.1673765883 0.0713732976 0.5327113374 -0.1264759906 0.5326410629 -0.1262929502 -0.1554719577 0.0769961384
140299160.0 -0.1664935847 0.0721348016 0.5320620621 -0.1329145236 0.5320956645 -0.13285989 -0.1545226921 0.0781409654
145299130.0 -0.1652925511 0.072875788 0.5312209754 -0.1393726366 0.5307540277 -0.1395211064 -0.153376473 0.0785788766
150299100.0 -0.164329743 0.0739007478 0.529951052 -0.1458327052 0.5300224706 -0.1455992782 -0.1521876843 0.0801546941
155299070.0 -0.1640029564 0.0745997308 0.5288911588 -0.1532363209 0.5283261374 -0.1527810724 -0.1511935371 0.0811713734
160299040.0 -0.1628284915 0.0758489745 0.5273834995 -0.1588607303 0.5269580436 -0.1589656424 -0.1505251348 0.0820351542
165299010.0 -0.1621071457 0.0769900763 0.5256778987 -0.1659214322 0.5258357661 -0.1658131501 -0.1490279831 0.0836648219
170298980.0 -0.1615434862 0.077926684 0.5245562846 -0.1718597928 0.5245840197 -0.1716754983 -0.1482673031 0.0845972154
175298950.0 -0.1607124347 0.0787754539 0.5228821924 -0.1780896593 0.5224795374 -0.178276862 -0.1474446408 0.0860136283
180298920.0 -0.1598637621 0.0800848781 0.520918785 -0.1846105851 0.5204405403 -0.1843030924 -0.1462291229 0.0872518901
185298890.0 -0.1588410464 0.080955618 0.5190522665 -0.1903544942 0.5188141638 -0.1901044337 -0.1454204899 0.0887513437
190298860.0 -0.1583214927 0.082504976 0.5171903591 -0.1971257284 0.5177388111 -0.1968569672 -0.1446192001 0.0897854034
195298830.0 -0.1576235836 0.083155002 0.5153562169 -0.2028053592 0.5154646711 -0.2024170265 -0.1436401986 0.0908630664
200298800.0 -0.1566025606 0.084652903 0.5128905321 -0.20913748 0.5132537335 -0.2091965311 -0.1431704847 0.0925097808
205298770.0 -0.1561500756 0.0856616514 0.5108365575 -0.2151539052 0.5105864149 -0.2149237684 -0.1419503228 0.0931947748
210298740.0 -0.1555969446 0.0871502029 0.5086021101 -0.2211973114 0.5085619911 -0.2206666159 -0.1408668159 0.0953829769
215298710.0 -0.1550298255 0.0883338094 0.5062238861 -0.2272658398 0.5061383199 -0.2269093873 -0.140355079 0.0965134401
220298680.0 -0.1541582662 0.089392031 0.5032790025 -0.232926603 0.5037147963 -0.2326324405 -0.1394134684 0.0977968244
225298650.0 -0.1533905872 0.0907714649 0.501385873 -0.2387697664 0.5014362353 -0.238661012 -0.1387590762 0.0989887495
230298620.0 -0.1525761226 0.092267016 0.4991554442 -0.2441520615 0.4993723157 -0.2443452 -0.1382522304 0.1001972658
235298590.0 -0.1516383297 0.0937744506 0.4963293784 -0.250195715 0.4968247532 -0.2495410631 -0.1370888934 0.1018172056
240298560.0 -0.1508513463 0.0950620354 0.4937161612 -0.2563479012 0.4937976401 -0.2561340987 -0.1362161935 0.1032177638
245298530.0 -0.1502443103 0.0964712448 0.4909567097 -0.2619845201 0.4908731424 -0.2619740248 -0.1345744438 0.1041530179
250298500.0 -0.1492548895 0.0977890054 0.4875478027 -0.2674193432 0.487736728 -0.2670439552 -0.1341257121 0.1057186681
255298470.0 -0.1485728117 0.0987894363 0.4846237923 -0.2728002215 0.4853332616 -0.2726953658 -0.1328483478 0.1067804353
260298440.0 -0.1477384113 0.1000722761 0.4819540397 -0.278369599 0.4826278654 -0.2782941192 -0.1318502787 0.1084119153
265298410.0 -0.1466525395 0.1019555664 0.4787612113 -0.2840283597 0.4792442872 -0.2838113147 -0.1308335147 0.1097522931
270298380.0 -0.1459883319 0.1030625932 0.4760736751 -0.2891769556 0.4763070947 -0.2892483027 -0.1295509372 0.1109344476
275298350.0 -0.1448002695 0.1043100761 0.4726041524 -0.2946467707 0.4732123446 -0.2947669129 -0.1281282523 0.1122152179
280298320.0 -0.1438076617 0.105998844 0.4699246827 -0.3000684199 0.4697822353 -0.2997869409 -0.1269829711 0.1136033153
285298290.0 -0.1429689239 0.1072688666 0.4666443588 -0.3055465428 0.4661623764 -0.3052716637 -0.1255692851 0.1150059508
290298260.0 -0.1417949718 0.1085591531 0.4629122113 -0.3105555821 0.4635078584 -0.3106706866 -0.1242438732 0.1164310927
295298230.0 -0.1410696637 0.1096125261 0.4599476179 -0.3157918616 0.4597651527 -0.3159029281 -0.1229177772 0.1175096116
300298200.0 -0.1402666254 0.1109543591 0.4564868598 -0.3206564654 0.4566352093 -0.3211929854 -0.1219974249 0.1188386841
305298170.0 -0.1387834455 0.112106768 0.4526229382 -0.3264012322 0.4527927063 -0.3263270562 -0.1198497302 0.1200927905
310298140.0 -0.1380555851 0.1134580022 0.4492592683 -0.3315891657 0.4494837639 -0.3312295928 -0.1189771837 0.1216498035
315298110.0 -0.136983106 0.1147399915 0.4460672186 -0.3367056298 0.4459466361 -0.3365407837 -0.1175527311 0.1225490949
320298080.0 -0.1359370784 0.1162212764 0.4416280419 -0.342342619 0.4419546031 -0.3417065716 -0.1162869572 0.1240149314
325298050.0 -0.1349644096 0.1170149606 0.4379974786 -0.3469316158 0.4379009127 -0.3466391343 -0.1153364746 0.1252580602
330298020.0 -0.1341770938 0.1181251148 0.4333531874 -0.3516935892 0.4341162496 -0.3518856417 -0.1140819931 0.1265781566
335297990.0 -0.1332305108 0.1195736398 0.4300387508 -0.356338047 0.4298423392 -0.3565741514 -0.1134877546 0.1283168503
340297960.0 -0.1325720134 0.120928782 0.4259001629 -0.3615462824 0.4255223947 -0.3615454127 -0.1114053625 0.1295985589
345297930.0 -0.1315896008 0.1228057558 0.4218676863 -0.3661480489 0.4217240269 -0.3662572 -0.1103373468 0.1307108019
350297900.0 -0.1305587819 0.1237373381 0.4171358482 -0.37113679 0.4172535362 -0.3707292432 -0.1094049542 0.1326230656
355297870.0 -0.1292808119 0.125513413 0.4134040686 -0.3751725991 0.4136680017 -0.3752046956 -0.1081018419 0.1337491452
360297840.0 -0.1283406663 0.1265020128 0.4099882423 -0.3796416477 0.4098959866 -0.3793332549 -0.1067801714 0.1354962822
365297810.0 -0.1273437498 0.1283532933 0.4051223007 -0.3845582173 0.405427103 -0.384524172 -0.1050981945 0.1367911999
370297780.0 -0.1258664694 0.1294108279 0.4005402946 -0.3885872014 0.4013227651 -0.3881864089 -0.1037963341 0.1380041023
375297750.0 -0.1246070421 0.1307323975 0.396420966 -0.3931868119 0.3971170584 -0.3932895499 -0.1024430776 0.1395768292
380297720.0 -0.1233844161 0.1321817085 0.392125887 -0.3978360043 0.3924113207 -0.3971681075 -0.1010881728 0.1406800018
385297690.0 -0.1227435405 0.1334233725 0.3878986769 -0.401582916 0.38765507 -0.4017407118 -0.0993887053 0.1421094585
390297660.0 -0.1213202537 0.1352349634 0.3839428554 -0.4066309119 0.3836052186 -0.4059026049 -0.0983536189 0.1433551245
395297630.0 -0.1198961055 0.1362305888 0.37905573 -0.4099226084 0.3790307467 -0.4100563449 -0.0963458452 0.1443890947
400297600.0 -0.1189232098 0.1378337348 0.3742985611 -0.4148491433 0.3747302542 -0.4142388937 -0.0950657357 0.1457591151
405297570.0 -0.1176446128 0.1386835309 0.369850534 -0.4182142416 0.3699760784 -0.4183243516 -0.0937141514 0.1469992973
410297540.0 -0.1163918911 0.139965335 0.3656102303 -0.4223526045 0.3656722599 -0.4224277193 -0.0924382564 0.1484757422
415297510.0 -0.1146463587 0.1414225692 0.3605140186 -0.4270853078 0.3608101233 -0.4266805149 -0.0906025601 0.1494438425
420297480.0 -0.1134996425 0.1429078025 0.3557618104 -0.4306036594 0.3557674905 -0.4302912212 -0.0892603246 0.1498642877
425297450.0 -0.1119611891 0.1436429707 0.3514689034 -0.4339929196 0.3520090988 -0.4343705434 -0.0878395264 0.1515412315
430297420.0 -0.1107415288 0.1448973516 0.3467459014 -0.437873569 0.3462362605 -0.4376454457 -0.0858844163 0.1525122157
435297390.0 -0.1095656109 0.1458757722 0.3416381068 -0.4419975777 0.3414652486 -0.4417631016 -0.0838664908 0.1534997368
440297360.0 -0.1079059716 0.1472904626 0.3367076355 -0.4454368865 0.3369775091 -0.4456550303 -0.0826924184 0.1543932618
445297330.0 -0.1066437907 0.1482690904 0.3322335805 -0.4489444799 0.3320057702 -0.4485762245 -0.0806777951 0.1550646279
450297300.0 -0.1051641561 0.1494070658 0.3270097433 -0.4526423336 0.3269720051 -0.4527148022 -0.078979964 0.1562333382
455297270.0 -0.1035673063 0.1506214363 0.3217917364 -0.4559154241 0.3220219458 -0.4564398842 -0.077612402 0.1572310315
460297240.0 -0.1025116148 0.1516623724 0.3170805009 -0.4596774383 0.3171028517 -0.4598821381 -0.0757584398 0.1582709311
465297210.0 -0.1008128901 0.152920579 0.3122642685 -0.46311199 0.3120450954 -0.463264021 -0.0734611788 0.1589887383
470297180.0 -0.0992890768 0.1537124687 0.3067501659 -0.4666817655 0.3068118375 -0.4662534654 -0.07173941 0.16018961
475297150.0 -0.0976841035 0.1549193667 0.3014350389 -0.4697832701 0.3017089053 -0.4695087045 -0.0697144992 0.1608607221
480297120.0 -0.0964970487 0.1565653699 0.2966703223 -0.4734418377 0.2964371624 -0.4734096865 -0.067769627 0.1621893475
485297090.0 -0.0949891179 0.1571526857 0.2915048341 -0.4759650045 0.2914107808 -0.4757903294 -0.0661751899 0.1626598691
490297060.0 -0.0937897006 0.1582555962 0.2868114432 -0.4794165955 0.2864248223 -0.4790981802 -0.0643867209 0.1638614298
495297030.0 -0.092106322 0.159282301 0.281192765 -0.4824842639 0.2814231876 -0.4821317144 -0.0626709478 0.1648466575
500297000.0 -0.0905400942 0.1603749571 0.2755323713 -0.4854504511 0.2757528092 -0.4848496782 -0.0607301069 0.1662843391
505296970.0 -0.0886036199 0.161192251 0.2703123532 -0.4879078099 0.2702675467 -0.4882707846 -0.0586919185 0.1668471481
510296940.0 -0.0873164503 0.1625798185 0.2650272445 -0.4915065142 0.2651370613 -0.4916599516 -0.0568448371 0.1678059965
515296910.0 -0.0854336293 0.1633694734 0.2595108204 -0.494086 0.2595531008 -0.493918448 -0.0546148959 0.1682323714
520296880.0 -0.0842848277 0.1643461296 0.254387007 -0.4970567709 0.2542863022 -0.4964566298 -0.0532051095 0.1688416058
525296850.0 -0.0823786967 0.1647691322 0.2489673057 -0.4993289891 0.2491454809 -0.4993056971 -0.0514482682 0.169948332
530296820.0 -0.0808347901 0.1662441996 0.243704709 -0.5021401051 0.24369268 -0.5021865398 -0.0494233901 0.1709024142
535296790.0 -0.0797268963 0.1672069251 0.2382267915 -0.5045505761 0.2384190841 -0.5042644767 -0.0479995004 0.1712459132
540296760.0 -0.0778491367 0.1682931422 0.232630041 -0.5077323028 0.2325308205 -0.5075653973 -0.0463472424 0.17257907
545296730.0 -0.0764123348 0.1689193292 0.2267090042 -0.5095409182 0.2269225265 -0.5095737571 -0.0444578652 0.1723753784
550296700.0 -0.0744335169 0.1700124843 0.2213395316 -0.5122829772 0.2214817784 -0.5124309893 -0.0426995312 0.1736658235
555296670.0 -0.0730758687 0.1706071236 0.2160935189 -0.5148788626 0.2159662322 -0.5144665763 -0.0402821665 0.1746153575
560296640.0 -0.0709449034 0.1717391404 0.2102258601 -0.516993493 0.2101806312 -0.5169264541 -0.0384799464 0.174457734
565296610.0 -0.0697030109 0.1724376369 0.2040324871 -0.5193993056 0.2045833886 -0.5187646674 -0.0368617457 0.1749043962
570296580.0 -0.0681684258 0.1733043271 0.1990563448 -0.5218972804 0.1988300624 -0.5216167667 -0.0350382858 0.1764253904
575296550.0 -0.06658315 0.1745101476 0.1932948069 -0.523771025 0.1928756294 -0.5236925984 -0.0326816179 0.176611199
580296520.0 -0.0646961712 0.1749908671 0.1873892148 -0.5256551471 0.1878321558 -0.5254814851 -0.0311130784 0.1767548229
585296490.0 -0.0629813901 0.1756675794 0.1820000725 -0.5270766246 0.1819113131 -0.5274574583 -0.0289450241 0.1776002636
590296460.0 -0.0610501083 0.1763184342 0.1764742054 -0.5289059248 0.1761461032 -0.5291634274 -0.0276027071 0.1780521667
595296430.0 -0.0594335096 0.1770280962 0.1698431755 -0.5313706336 0.170253977 -0.531084853 -0.0252832346 0.1779579495
600296400.0 -0.0579355513 0.1778324446 0.1646797122 -0.533047668 0.1645618417 -0.5324638337 -0.0235109083 0.1783695106
605296370.0 -0.0559802993 0.1784930191 0.1586988858 -0.5342911955 0.1593508833 -0.5344689579 -0.021329742 0.1791020717
610296340.0 -0.0544178144 0.1792896454 0.1528975349 -0.5363418963 0.1532785582 -0.5359328618 -0.019351956 0.1791274017
615296310.0 -0.0522157378 0.1796864688 0.1467918332 -0.5375155291 0.1468940091 -0.5381417828 -0.016988044 0.1794475716
620296280.0 -0.0509798669 0.1799336026 0.141351139 -0.5392484685 0.1416703941 -0.5390742393 -0.0151895617 0.1799416386
625296250.0 -0.0492957938 0.1806258433 0.1356262861 -0.5410149373 0.1358467539 -0.5412175124 -0.0127516428 0.1799485567
630296220.0 -0.0466842338 0.1814411933 0.1288941759 -0.5422332912 0.1294957201 -0.5420051694 -0.0110891485 0.1805560047
635296190.0 -0.0459450372 0.182099064 0.1237671729 -0.543570968 0.1237596055 -0.5440060841 -0.0089560507 0.1806421204
640296160.0 -0.0438619169 0.1827029361 0.118056527 -0.544593035 0.1182480641 -0.5447145075 -0.0067466181 0.1807846243
645296130.0 -0.0420588037 0.1833162052 0.1116584523 -0.5455998551 0.1124927337 -0.5459456398 -0.0047291967 0.1810505855
650296100.0 -0.0402494538 0.1838195627 0.1060713892 -0.5470165366 0.1064787468 -0.5471665327 -0.0026975735 0.1810423438
655296070.0 -0.0387687012 0.184210311 0.1001427387 -0.5484234663 0.1004773631 -0.548030338 -0.0002174717 0.1812188078
660296040.0 -0.0372092674 0.1843905203 0.0943851075 -0.549216885 0.0944413761 -0.5493666476 0.0017170608 0.1816855124
665296010.0 -0.0347906475 0.1848844604 0.0878430811 -0.5498932418 0.0885670888 -0.5500376763 0.0037107977 0.1822177976
670295980.0 -0.0338792763 0.1856750087 0.082275796 -0.5512283411 0.0828251166 -0.550814915 0.0053136293 0.1823388457
675295950.0 -0.031726712 0.1863600237 0.076614054 -0.5520337242 0.0766209696 -0.5515884111 0.0071518201 0.1821382708
680295920.0 -0.0297223858 0.1864637264 0.0705916895 -0.5523793167 0.0699566934 -0.553053177 0.0097937238 0.1830599992
685295890.0 -0.0277814228 0.1874713406 0.0643574071 -0.5534964922 0.0643831655 -0.5533416179 0.0118048568 0.1824891333
690295860.0 -0.0258272395 0.1874490034 0.0583273163 -0.5534009149 0.0582564443 -0.5544368003 0.0135529886 0.1831919234
695295830.0 -0.0243176955 0.1876891978 0.0529458502 -0.5544924925 0.0523641265 -0.5543174812 0.015310519 0.1828910108
700295800.0 -0.0225066864 0.1881324761 0.0462543752 -0.5547606331 0.0460757665 -0.555042579 0.0174875286 0.1832522596
705295770.0 -0.0206332723 0.1889814976 0.0404579824 -0.5554150242 0.0410595877 -0.5555696984 0.0194339045 0.1833184846
710295740.0 -0.0186909451 0.1889954239 0.0347058839 -0.5563262994 0.0346464204 -0.5561705407 0.0214950704 0.182575681
715295710.0 -0.0169778234 0.1890351884 0.0292215065 -0.5562602298 0.0283259161 -0.5562119356 0.0239110442 0.1827331678
720295680.0 -0.0150965742 0.1899003758 0.0226048598 -0.5568021509 0.0229174787 -0.5565127303 0.0255477755 0.183213837
725295650.0 -0.0130266578 0.190017686 0.0163823474 -0.5566486123 0.0166820768 -0.556801427 0.0271292331 0.1831210614
730295620.0 -0.0112684886 0.1906421503 0.010369 -0.556513051 0.0109132666 -0.5567223329 0.0289232205 0.1825890483
735295590.0 -0.0095915497 0.1907560598 0.0049771295 -0.5566988833 0.0045425803 -0.5565115178 0.0311461333 0.1823194528
740295560.0 -0.0080504028 0.1913367228 -0.001220989 -0.5567289728 -0.0012528443 -0.556925259 0.0332303923 0.1824122385
745295530.0 -0.0061029543 0.1913652929 -0.0072808598 -0.5561854894 -0.0073361189 -0.5565747944 0.0353523944 0.1816392797
750295500.0 -0.0037230159 0.1916762961 -0.0135247573 -0.5566590334 -0.0130398028 -0.5568213196 0.0372430587 0.1817466312
755295470.0 -0.0019236663 0.1913135902 -0.019114414 -0.556153504 -0.0191018309 -0.5565156323 0.0395336089 0.1807834956
760295440.0 -0.000470497 0.1916454833 -0.0254441368 -0.5563872294 -0.025370159 -0.5561277281 0.0414864288 0.1807789064
765295410.0 0.0014492651 0.1918320453 -0.0313328509 -0.5557564482 -0.0316570358 -0.5557849992 0.0436270803 0.1805707872
770295380.0 0.0030332684 0.1916762034 -0.0372338528 -0.5551737854 -0.0374825403 -0.5554083324 0.0451133094 0.1800047211
775295350.0 0.0049316179 0.191489822 -0.0431315119 -0.55443951 -0.0429101643 -0.554704961 0.0465577034 0.1796126168
780295320.0 0.0068751219 0.1918544121 -0.0494967879 -0.5538858869 -0.0487246406 -0.5541147428 0.0491218736 0.1789449793
785295290.0 0.0083096104 0.1917303143 -0.0555225468 -0.5531953566 -0.0548258123 -0.5537381358 0.0516671743 0.1788671411
790295260.0 0.0109789773 0.1918965409 -0.0610521567 -0.5530873813 -0.0602877292 -0.5528015141 0.0533741612 0.1784960907
795295230.0 0.0127191127 0.191869346 -0.0670550458 -0.5521003786 -0.066749408 -0.5520585035 0.0557011887 0.1780248912
800295200.0 0.0143251121 0.1919642399 -0.0736638402 -0.550999092 -0.0728483653 -0.5514317858 0.0574634739 0.1774279126
805295170.0 0.0164620157 0.1919549728 -0.0791494926 -0.5502792831 -0.0786967605 -0.5509167922 0.059667029 0.1770817212
810295140.0 0.0179137354 0.1916393133 -0.0845957473 -0.5493433504 -0.0847308743 -0.5499963887 0.0618983773 0.1763263811
815295110.0 0.0198181943 0.191531626 -0.0907203009 -0.5483934877 -0.0907637932 -0.548796571 0.0634884764 0.1761109281
820295080.0 0.0212180609 0.1919953932 -0.0966102933 -0.547547309 -0.0961274707 -0.5476192022 0.0656981794 0.1753748833
825295050.0 0.0241027677 0.1918511579 -0.102301859 -0.5462979135 -0.1023699672 -0.5468217264 0.0676924833 0.1750461585
830295020.0 0.0255432186 0.1917801398 -0.1082676292 -0.5452576907 -0.1080474322 -0.5450714066 0.0701429566 0.1744830448
