!Created with skrf (http://scikit-rf.org).
# Hz S RI R 50.0 
!freq ReS11 ImS11 ReS21 ImS21 ReS12 ImS12 ReS22 ImS22
300000.0 -0.2425742285 -0.089811043 0.4731489612 0.0613884246 0.472242543 0.0574401816 -0.2406681866 -0.1015832383
5299970.0 -0.2448152274 0.006385083 0.4748461595 0.0051453184 0.4749428219 0.0047710163 -0.2408919741 0.0074523263
10299940.0 -0.2416547422 0.0178987279 0.4768346522 0.0057506528 0.4768149201 0.0062598671 -0.237456736 0.0205843866
15299910.0 -0.2374885886 0.0267332069 0.4803921667 0.0072478341 0.4807482262 0.0074216748 -0.2331597761 0.03010801
20299880.0 -0.2326841454 0.0340347559 0.485350979 0.008297402 0.4851444538 0.0080039894 -0.2277953273 0.0377780626
25299850.0 -0.2276748548 0.0403791793 0.4903024732 0.0069118387 0.4900006394 0.006925537 -0.2214023296 0.0446963982
30299820.0 -0.2225377076 0.045131831 0.4957424704 0.0050384386 0.4954111139 0.0049427124 -0.2159750753 0.0501182393
35299790.0 -0.2174150927 0.04915983 0.5009730103 0.0015672843 0.5009592871 0.001461058 -0.2106268593 0.0544450431
40299760.0 -0.2127841712 0.0524200861 0.5058369378 -0.0025501889 0.5058174917 -0.0023000436 -0.2050033385 0.0573429421
45299730.0 -0.2080664773 0.0547560324 0.5101088943 -0.0070317441 0.5106030264 -0.0070370788 -0.2003031216 0.0604023572
50299700.0 -0.2038033545 0.0567133466 0.5148068866 -0.0124968234 0.5149983836 -0.0124920966 -0.1957528906 0.0624771819
55299670.0 -0.1998684628 0.0584573715 0.5186249082 -0.0188437422 0.5182955305 -0.0184004475 -0.1914301397 0.0645081141
60299640.0 -0.195898832 0.0598456505 0.5217750738 -0.0246188415 0.5223071951 -0.0248118196 -0.1873446718 0.0656234973
65299610.0 -0.1930702058 0.0609575972 0.5247718233 -0.0314653419 0.5249267166 -0.0308846477 -0.1840395433 0.0666631055
70299580.0 -0.1899860735 0.0621914055 0.5269110068 -0.0378820438 0.527055007 -0.0375329085 -0.1807740495 0.0675016038
75299550.0 -0.1871448978 0.0630591382 0.5288213143 -0.0446993838 0.5288929403 -0.0447501816 -0.1782021693 0.0683271013
80299520.0 -0.1847508741 0.0637456669 0.5307792109 -0.051846821 0.5311822612 -0.0515736761 -0.1753257818 0.0692381103
85299490.0 -0.1825483566 0.0642858237 0.5321838172 -0.0583503361 0.5323085971 -0.0580884797 -0.173066947 0.0695586941
90299460.0 -0.1803540592 0.0648657102 0.5330599248 -0.0654115369 0.533610117 -0.0652570068 -0.1705530514 0.070356178
95299430.0 -0.1783628198 0.0653326109 0.5341642139 -0.0722289698 0.5340112165 -0.0725798953 -0.168012098 0.0710912065
100299400.0 -0.1769181901 0.066349835 0.5341062844 -0.0792579479 0.5339627721 -0.0791535321 -0.1659750949 0.0714118999
105299370.0 -0.1748998361 0.0668055437 0.5344493871 -0.0864010694 0.535108283 -0.0861704503 -0.1639483817 0.0722293799
110299340.0 -0.1733383381 0.0675362094 0.5348320242 -0.0926331917 0.5347881875 -0.0926592949 -0.1628858526 0.0729501458
115299310.0 -0.1720181409 0.0681398326 0.5348291643 -0.0996739319 0.5345249345 -0.0995831156 -0.1612104959 0.0735280899
120299280.0 -0.1707439736 0.0686190994 0.5344012399 -0.1063200472 0.5345560141 -0.1063997796 -0.15943691 0.0743336261
125299250.0 -0.1695357081 0.0693530963 0.5339945766 -0.1128789295 0.5340492892 -0.1124431281 -0.1583815524 0.0747096976
130299220.0 -0.1686694793 0.0701568733 0.5332126902 -0.1197914402 0.5335014546 -0.1201086552 -0.1570935999 0.075674193
135299190.0 -0.1675823434 0.0712250031 0.5330793558 -0.1265441848 0.5326852221 -0.1261148864 -0.1555153933 0.076634693
140299160.0 -0.166580053 0.0720817634 0.5322028319 -0.1333423813 0.5322901697 -0.1329607869 -0.1546147044 0.0781176584
145299130.0 -0.1655591691 0.0728236185 0.5312413613 -0.1397203489 0.5309367719 -0.1394237865 -0.1533333697 0.0786168948
150299100.0 -0.164346366 0.0740214661 0.5297953042 -0.1458597801 0.5299657965 -0.1454760666 -0.1523264376 0.0801196941
155299070.0 -0.1638530158 0.0746207316 0.5288691799 -0.1531742246 0.5286498441 -0.1530712531 -0.1511149886 0.0810376563
160299040.0 -0.1628229465 0.0758227327 0.5271921892 -0.1592686793 0.5270154112 -0.1592506672 -0.1506916948 0.0821744308
165299010.0 -0.1620698616 0.0769778242 0.5256143084 -0.1659274939 0.5262827031 -0.1657232217 -0.1492504525 0.083873179
170298980.0 -0.1615158104 0.0776713784 0.5242760899 -0.1719535231 0.5245482273 -0.1719103632 -0.1483999076 0.0846013795
175298950.0 -0.160835784 0.0790487405 0.5234402959 -0.178160164 0.5224800158 -0.1781339876 -0.1474493949 0.086175759
180298920.0 -0.1601480504 0.0797892184 0.5213360247 -0.1844307739 0.5206757443 -0.1840097287 -0.1464641751 0.0874126536
185298890.0 -0.1588311333 0.0809838274 0.5190861197 -0.1906476427 0.5190959333 -0.1906436753 -0.1455042874 0.0888009127
190298860.0 -0.1584836911 0.0823502004 0.5171785658 -0.197183282 0.5175919763 -0.1969235421 -0.1446710456 0.0896525995
195298830.0 -0.1578354267 0.0831710233 0.5151120901 -0.2029833122 0.5150592322 -0.2028199542 -0.1437161 0.0911519025
200298800.0 -0.1567612645 0.084735104 0.5130069736 -0.2091097489 0.5131667479 -0.2093213931 -0.1431818301 0.0925262731
205298770.0 -0.1562184071 0.0859330038 0.5107358089 -0.2154835326 0.5108516818 -0.2150013339 -0.1421327707 0.0935095444
210298740.0 -0.1552820296 0.0868088268 0.5084921669 -0.2208582056 0.5085314567 -0.2208467909 -0.1408925561 0.0952313964
215298710.0 -0.1550700343 0.0882911867 0.5062908649 -0.226939138 0.5060147061 -0.2272001243 -0.1403673814 0.0964274152
220298680.0 -0.154106627 0.0892216653 0.5036684229 -0.2328037791 0.503687784 -0.2330065748 -0.1397798768 0.0975873434
225298650.0 -0.1534930663 0.0906459086 0.5012651662 -0.2391748564 0.5012872881 -0.2384713299 -0.1388459351 0.0988025276
230298620.0 -0.1524892805 0.092327122 0.4990326713 -0.2443635128 0.4993990082 -0.2447672704 -0.1380063466 0.1004312786
235298590.0 -0.1517258629 0.0935433426 0.4962888044 -0.250063913 0.4961407848 -0.2497666523 -0.1369780903 0.1017062104
240298560.0 -0.1510379204 0.0949035336 0.4937456472 -0.2564569448 0.4936085197 -0.2558689437 -0.1361751984 0.1030166239
245298530.0 -0.1504338061 0.0961832083 0.4912111008 -0.2617182955 0.4907695344 -0.2618498626 -0.1346473243 0.1040744389
250298500.0 -0.1492891264 0.0975137767 0.4875107389 -0.2672649309 0.4874166075 -0.2668097233 -0.1341253989 0.1055535984
255298470.0 -0.1486705837 0.0984524025 0.4847662729 -0.2726715909 0.4848859334 -0.2728519834 -0.1327722452 0.1068277885
260298440.0 -0.1481116948 0.0997240563 0.4816527471 -0.2785786497 0.4823119026 -0.2783264765 -0.1317236074 0.1083641133
265298410.0 -0.1465491102 0.1019781351 0.4789273339 -0.2840817374 0.4790451055 -0.2837887572 -0.1305323876 0.109585677
270298380.0 -0.1461744791 0.1031304839 0.4764040248 -0.2893487887 0.476104712 -0.2894882136 -0.1295282012 0.1111258037
275298350.0 -0.1448432978 0.1044016883 0.4724331948 -0.2949414284 0.4727990026 -0.2946543445 -0.1282383195 0.1121206426
280298320.0 -0.1439699717 0.1059169724 0.4695986581 -0.3002437968 0.4696908805 -0.2999402823 -0.1265274336 0.1137964227
285298290.0 -0.1431781081 0.1072979928 0.4666638792 -0.3056804532 0.4661304635 -0.3053174639 -0.1255631588 0.1148973732
290298260.0 -0.1418426558 0.1082870391 0.4630261547 -0.3102988222 0.4630709121 -0.3105104533 -0.1245471163 0.1166743106
295298230.0 -0.1406519931 0.109755465 0.4597240108 -0.3159129453 0.459493818 -0.3156215093 -0.1225386956 0.1174112134
300298200.0 -0.1401889961 0.1109635487 0.4565810705 -0.3208597946 0.4564047403 -0.3212368709 -0.1216276975 0.1190761817
305298170.0 -0.1387225177 0.1119930668 0.45247751 -0.3266998034 0.4528010207 -0.3266542964 -0.1197570516 0.1202421236
310298140.0 -0.1379885025 0.1137008045 0.4493298776 -0.3319575699 0.4496989341 -0.3314908304 -0.1189456449 0.1213856386
315298110.0 -0.1369020212 0.114564184 0.4453975117 -0.3366779421 0.4459839155 -0.3369572541 -0.1176274705 0.1229104127
320298080.0 -0.1356800829 0.116132678 0.4413202367 -0.3425126496 0.44192211 -0.3418345581 -0.1162368364 0.1241454939
325298050.0 -0.1349811728 0.1170064996 0.4378369157 -0.3470839192 0.4378879503 -0.3469410469 -0.1151941917 0.1252987359
330298020.0 -0.1341817916 0.1179823453 0.4337379479 -0.352211389 0.4341834356 -0.351930002 -0.1145498586 0.126656
335297990.0 -0.1330571316 0.1193096652 0.4296603411 -0.3562045745 0.4298816439 -0.3568223958 -0.1134763728 0.1284534159
340297960.0 -0.1324776333 0.1212196537 0.4257726389 -0.3614728398 0.4254479458 -0.3616513705 -0.1114123253 0.12974327
345297930.0 -0.1314619571 0.12266468 0.4216171178 -0.3661442918 0.4213613918 -0.3663812851 -0.1103464132 0.1306101381
350297900.0 -0.1305172862 0.1234634437 0.4169900769 -0.3706982858 0.4173821309 -0.3706087496 -0.1091982335 0.1325578638
355297870.0 -0.1293455713 0.1255775012 0.4133555617 -0.3754952966 0.4136743283 -0.375033109 -0.1082030717 0.1338724826
360297840.0 -0.1280266943 0.1266341895 0.4097868244 -0.3797359649 0.409861313 -0.3799499148 -0.1067883922 0.1353680393
365297810.0 -0.1272425528 0.1283369234 0.4049966642 -0.3846605038 0.4051380338 -0.3845653273 -0.1049895804 0.1365990799
370297780.0 -0.125785596 0.1293950395 0.4004300094 -0.3887655522 0.4012150382 -0.3886780839 -0.1035153214 0.1381906043
375297750.0 -0.1248074131 0.1308158879 0.3964224684 -0.3932988796 0.3970410579 -0.3931420508 -0.1023615489 0.1392617993
380297720.0 -0.1235862105 0.1322280015 0.3919440387 -0.3977887356 0.3924179568 -0.3971172288 -0.1011970692 0.1407160406
385297690.0 -0.1225046082 0.1334883165 0.3877764048 -0.4020762501 0.3876256508 -0.4016448524 -0.0994364488 0.1418679585
390297660.0 -0.1210605613 0.1350374539 0.3834951893 -0.4062633273 0.383521818 -0.4057534688 -0.0985862474 0.1437056731
395297630.0 -0.1196820569 0.1363867724 0.379151566 -0.4104797116 0.3787061062 -0.4104580162 -0.0962419127 0.1444280684
400297600.0 -0.1187950552 0.1375567417 0.3744381858 -0.4149098539 0.3743574865 -0.4144373949 -0.0950192517 0.1456790222
405297570.0 -0.1174317653 0.1386782588 0.3693742027 -0.4185667359 0.3698361837 -0.4181360558 -0.0937002571 0.1470642315
410297540.0 -0.1161032989 0.1402244296 0.3652711426 -0.4225674624 0.3653685204 -0.4223304722 -0.0919954695 0.1479604766
415297510.0 -0.1147090722 0.1413328458 0.3603769968 -0.4268055134 0.3609421428 -0.4266817502 -0.0906385774 0.1493712769
420297480.0 -0.1133678661 0.1427449972 0.3557784217 -0.430307943 0.355740683 -0.4305522409 -0.0891135076 0.1500893283
425297450.0 -0.112086824 0.1435654386 0.3510375632 -0.4343391231 0.3514115105 -0.4346007034 -0.087616994 0.1517688582
430297420.0 -0.1106834272 0.1448674088 0.3464154405 -0.4376815204 0.3463073957 -0.4376838964 -0.0857912003 0.1525385808
435297390.0 -0.1095024937 0.1459454214 0.3411741171 -0.4418361592 0.3411134887 -0.441857686 -0.0836702143 0.1534993587
440297360.0 -0.1080153233 0.147621278 0.3365298654 -0.4456937701 0.3366580721 -0.4455477165 -0.0827694505 0.1545577722
445297330.0 -0.1064932 0.1483758943 0.3316622051 -0.4491725503 0.3318045179 -0.4489248746 -0.0804876006 0.1550450729
450297300.0 -0.1050434544 0.149397232 0.326687559 -0.4527520668 0.3269883602 -0.4531647862 -0.0791515021 0.1560416977
455297270.0 -0.1037592277 0.1505163946 0.3215460064 -0.4561364267 0.3221624751 -0.4565873617 -0.0774562118 0.1569265065
460297240.0 -0.1027343189 0.1516168083 0.3167951025 -0.4594418684 0.3171132382 -0.4598544124 -0.075633082 0.1582466718
465297210.0 -0.1007729377 0.1529797776 0.3122589547 -0.4629993906 0.3118350074 -0.4634706319 -0.0739385272 0.1586990766
470297180.0 -0.0991773043 0.1537487048 0.306595804 -0.466503643 0.3067663178 -0.4662969152 -0.0718388042 0.1601712007
475297150.0 -0.0978545733 0.1549701149 0.3015332367 -0.4696083473 0.3018513295 -0.4693773809 -0.0697023852 0.1607327551
480297120.0 -0.0963281331 0.1563800642 0.2965015172 -0.4730429531 0.2959569411 -0.4733893483 -0.0677640783 0.1619976471
485297090.0 -0.0949008848 0.1572600651 0.2912646469 -0.4758990735 0.2913544485 -0.4756718932 -0.0659776903 0.1629476169
490297060.0 -0.0936706637 0.1584128856 0.286550858 -0.4799070836 0.2863358271 -0.4791231472 -0.0643879314 0.1639018522
495297030.0 -0.0922005531 0.1594334445 0.280802458 -0.482407569 0.2812343657 -0.4824445329 -0.0628973396 0.1646026745
500297000.0 -0.0904957635 0.1603806757 0.2754606951 -0.4851490676 0.2751066661 -0.484999816 -0.0606630928 0.1659836448
505296970.0 -0.0887751747 0.1610460092 0.2700603357 -0.4881740837 0.270330213 -0.4884690742 -0.058930266 0.1664455946
510296940.0 -0.0872750689 0.162416983 0.2648464287 -0.491154869 0.2647773927 -0.4912602211 -0.0569488346 0.1674723019
515296910.0 -0.0856231504 0.1634225131 0.2592380352 -0.4940096685 0.2595591059 -0.4939840307 -0.0550207377 0.1681685107
520296880.0 -0.0842291725 0.1643095952 0.2542020447 -0.4972510483 0.2542426214 -0.4965200366 -0.0533606211 0.168957855
525296850.0 -0.0827011497 0.1646184194 0.2485383798 -0.4993027436 0.2492191818 -0.4994947487 -0.0516130458 0.1699858331
530296820.0 -0.0809665122 0.1659141238 0.2432853349 -0.5022294462 0.2430633694 -0.5021051612 -0.0495671897 0.1707941757
535296790.0 -0.079542537 0.1670254642 0.2379601538 -0.5047371529 0.2383234236 -0.5043658833 -0.0479920927 0.1711528873
540296760.0 -0.078080837 0.1680635692 0.2320828221 -0.5077129671 0.2323196259 -0.5073793054 -0.0461836037 0.172404272
545296730.0 -0.0766941638 0.1689490719 0.2266593969 -0.509497663 0.2268564143 -0.5099453724 -0.0444635472 0.1729730155
550296700.0 -0.0744145178 0.1699694214 0.2210562536 -0.5122314795 0.2210101576 -0.5123420868 -0.0425095819 0.1736008509
555296670.0 -0.0729048992 0.1705499099 0.2156015003 -0.5142526339 0.2159006779 -0.5140235664 -0.0406091158 0.1742898475
560296640.0 -0.070913623 0.1716639129 0.2100175636 -0.5169763307 0.2101871756 -0.5168726993 -0.0386441639 0.1749324893
565296610.0 -0.0697154645 0.1723579433 0.2045533158 -0.5191635042 0.2046725536 -0.5192425933 -0.0371152657 0.1753852529
570296580.0 -0.0681299919 0.173224072 0.1989295021 -0.5217510341 0.1984966953 -0.52147344 -0.0352009596 0.1764725655
575296550.0 -0.0665984286 0.1743711458 0.193358913 -0.5240537404 0.1930668441 -0.5234481482 -0.0329830209 0.1764434992
580296520.0 -0.0647618736 0.1752138978 0.1872414724 -0.5258178369 0.1874800277 -0.5255087599 -0.0308349701 0.1770380967
585296490.0 -0.0631393947 0.1753242975 0.1818202182 -0.5271867539 0.1818750752 -0.5273140189 -0.0287783372 0.1775430609
590296460.0 -0.0609960671 0.1763853391 0.176216306 -0.5287721397 0.1759616435 -0.52914912 -0.0276972892 0.1778890561
595296430.0 -0.0594969181 0.1770749433 0.1702687407 -0.531382373 0.1701490199 -0.5313121435 -0.025290069 0.1779939294
600296400.0 -0.0577678655 0.1779638594 0.16407718 -0.5331860022 0.164350748 -0.5326128818 -0.0236179144 0.1784039041
605296370.0 -0.0562077896 0.1784498912 0.1585880397 -0.5345190207 0.1589741955 -0.5348223 -0.0211582412 0.1787703855
610296340.0 -0.0544071756 0.1791617239 0.1526213359 -0.5363176421 0.1530539687 -0.5361171226 -0.0191430892 0.1792357466
615296310.0 -0.0525191069 0.1796668741 0.1467846831 -0.537620578 0.1467352445 -0.5382569257 -0.0170798541 0.1794404634
620296280.0 -0.0508052292 0.1799335504 0.1410885545 -0.538960566 0.1408357411 -0.539042349 -0.015535072 0.1797978495
625296250.0 -0.0493657135 0.1806973991 0.1356885521 -0.5413658075 0.1353843318 -0.5413759755 -0.0127978658 0.1800428411
630296220.0 -0.0467907218 0.1813920746 0.1288114825 -0.5425518732 0.1290599773 -0.5422842303 -0.01096742 0.1806417509
635296190.0 -0.0459648483 0.1820092846 0.1236159807 -0.5432788843 0.1238871072 -0.5434001286 -0.008873015 0.1807191957
640296160.0 -0.0440580714 0.1825291666 0.1179144692 -0.5443969756 0.1176972444 -0.5451063277 -0.0065642473 0.1809228751
645296130.0 -0.0422458645 0.1831614696 0.111527556 -0.5460653697 0.1122593295 -0.5460999634 -0.0046711063 0.1809585172
650296100.0 -0.0403512795 0.1835338796 0.1057215345 -0.5468672132 0.1060050489 -0.5475919724 -0.0024499325 0.1808362742
655296070.0 -0.0386569419 0.183945722 0.0999575397 -0.5482213906 0.1001639808 -0.548144684 -0.0004730437 0.1814866323
660296040.0 -0.0373197982 0.1844461128 0.0943242998 -0.549220333 0.0939145855 -0.5491486366 0.0017052203 0.1815419023
665296010.0 -0.034748962 0.1848408795 0.087554891 -0.5500632154 0.0880814573 -0.5502931407 0.0039791056 0.1818133551
670295980.0 -0.0340957567 0.1857928137 0.0825956479 -0.5509848775 0.0822049048 -0.550905757 0.0052855178 0.1820719824
675295950.0 -0.0317107807 0.1862331565 0.0766159915 -0.551843753 0.0762222634 -0.5514041852 0.0071861158 0.1824190711
680295920.0 -0.0301384289 0.1862690651 0.0701557609 -0.5522607553 0.0698731827 -0.5530489019 0.0094772883 0.1828380673
685295890.0 -0.0280253212 0.1872890953 0.0641173127 -0.5533007036 0.0641780098 -0.5532246416 0.0116704124 0.1823708461
690295860.0 -0.0263216363 0.187296034 0.058466713 -0.5532315034 0.0583480847 -0.5544161037 0.0132207241 0.1833322229
695295830.0 -0.0242587767 0.1878743485 0.0526959071 -0.5542289904 0.0521979869 -0.5543398892 0.0156714992 0.1828323098
700295800.0 -0.0224783333 0.1881337324 0.0461416734 -0.5551612385 0.0461408418 -0.5545262616 0.0171372551 0.1833624519
705295770.0 -0.0210078714 0.1890114784 0.0402088403 -0.5554184692 0.0406904041 -0.5553488026 0.0194577311 0.1832287988
710295740.0 -0.0187023678 0.1891911928 0.0346129608 -0.5561894609 0.0344680439 -0.556284817 0.0216509423 0.1826928329
715295710.0 -0.0173951414 0.1891940256 0.0290074272 -0.5563185276 0.0280125787 -0.5562654036 0.0237789299 0.1829706889
720295680.0 -0.0151358159 0.1896285357 0.0226685989 -0.5568482415 0.0228366344 -0.5564967318 0.02537335 0.1832693919
725295650.0 -0.0133201576 0.1896757131 0.0162091136 -0.5568682161 0.0162355635 -0.5567771265 0.027122331 0.1829553012
730295620.0 -0.0112752995 0.190435119 0.0100112268 -0.5563281011 0.0108603892 -0.556771933 0.0289907311 0.1823956837
735295590.0 -0.0097131619 0.1906464905 0.0046010836 -0.5567651653 0.0043960566 -0.5565627409 0.0310321785 0.1822775048
740295560.0 -0.0076810789 0.191148311 -0.0016127699 -0.5565663054 -0.0018868882 -0.5567197916 0.0335444647 0.182149997
745295530.0 -0.0060815439 0.1912349889 -0.0077212463 -0.556440627 -0.0077987414 -0.556704678 0.0351919545 0.1818949048
750295500.0 -0.0038963531 0.1911906719 -0.0133240086 -0.5560858242 -0.0134752173 -0.5564236532 0.0374018775 0.1817270119
755295470.0 -0.0020125567 0.1913751137 -0.0194115047 -0.5564231184 -0.019708845 -0.5564682004 0.0397011582 0.1809548175
760295440.0 -0.0004087931 0.1912874991 -0.0255269929 -0.5562861458 -0.0258186725 -0.5562187098 0.0414962291 0.1807351983
765295410.0 0.0015871529 0.1916989828 -0.0316020211 -0.555712721 -0.0319202167 -0.5557886269 0.0434565386 0.1807961687
770295380.0 0.0031956594 0.1915435492 -0.0377633286 -0.5553026477 -0.0375325814 -0.5552502015 0.0450908551 0.180015942
775295350.0 0.0048113389 0.1913499422 -0.0437161168 -0.5544249764 -0.043116755 -0.5546993482 0.0466287705 0.17988386
780295320.0 0.0072331018 0.1918147953 -0.0494907532 -0.5541180142 -0.0489743443 -0.5541829445 0.0490123951 0.179133014
785295290.0 0.008590887 0.1913105751 -0.055543531 -0.553245848 -0.0553261379 -0.553611609 0.0514407095 0.1788744195
790295260.0 0.0109447762 0.192106825 -0.0614454295 -0.5527399766 -0.0603599796 -0.5529096939 0.0533392292 0.1784623412
795295230.0 0.0125292259 0.1915882758 -0.0673357869 -0.5520703332 -0.0671107079 -0.5521446245 0.0553958469 0.177888485
800295200.0 0.0141556735 0.1922733242 -0.0736123846 -0.5510343044 -0.0733580987 -0.5512528675 0.057431542 0.1775478767
805295170.0 0.0165024957 0.1918860063 -0.0791525479 -0.5504041828 -0.0790556907 -0.5505343211 0.0593611615 0.1770343249
810295140.0 0.0179575334 0.1914757688 -0.0845713507 -0.5493886689 -0.0850307214 -0.5499210768 0.061907431 0.1766222099
815295110.0 0.0197454791 0.1912482147 -0.0909752559 -0.5480882212 -0.091142086 -0.5483661377 0.0634627947 0.1758352478
820295080.0 0.0211935458 0.1918810343 -0.0969069168 -0.5474383063 -0.0965994454 -0.5472606385 0.065585742 0.1755069887
825295050.0 0.0241189012 0.1915852668 -0.1020674542 -0.5460458218 -0.102649884 -0.5468239491 0.0674113324 0.1750839526
830295020.0 0.0256367373 0.1918522089 -0.1089514134 -0.5454014467 -0.108351168 -0.5451979423 0.0702674091 0.1741610251
