!Created with skrf (http://scikit-rf.org).
# Hz S RI R 50.0 
!freq ReS11 ImS11 ReS21 ImS21 ReS12 ImS12 ReS22 ImS22
300000.0 -0.1009946426 -0.0658987954 0.6307243191 0.0622759179 0.6253016405 0.0625398087 -0.1009421308 -0.0743663708
5299970.0 -0.1020484006 0.0131548936 0.6304134786 0.0097644259 0.6305640904 0.0101683183 -0.1007907701 0.0133170645
10299940.0 -0.0972701899 0.0293061975 0.6340740596 0.0151754252 0.6340108283 0.0155076568 -0.0957934951 0.030223966
15299910.0 -0.0899305076 0.0427257797 0.640608181 0.0202060651 0.6407646208 0.0205267657 -0.0885484864 0.0436770135
20299880.0 -0.0817625131 0.0532000276 0.6485157378 0.0242845909 0.6485391677 0.0238964543 -0.07966279 0.0544842895
25299850.0 -0.0723498792 0.0623740301 0.6574476135 0.02506755 0.6577740908 0.0254563547 -0.069819278 0.063340568
30299820.0 -0.0623955705 0.0686084033 0.6674432595 0.0244953582 0.6672801465 0.0242286792 -0.0597852087 0.070071263
35299790.0 -0.0525180437 0.0736605041 0.6773918264 0.0209689424 0.6773148736 0.0213898505 -0.0499005534 0.0749157442
40299760.0 -0.0431565569 0.0770961236 0.6860870582 0.0171524607 0.6866380937 0.0175156675 -0.0404327071 0.0776335106
45299730.0 -0.0340966938 0.0792981238 0.6949378755 0.0115599553 0.6954774498 0.0119530405 -0.0313024098 0.0796372724
50299700.0 -0.025647085 0.0803161444 0.7039220323 0.0051420961 0.7034267194 0.0052244472 -0.0226164788 0.0807597587
55299670.0 -0.0176037171 0.0806922837 0.7109106061 -0.0032401366 0.7109835176 -0.0025308694 -0.0149841851 0.080527955
60299640.0 -0.0096999448 0.0800040309 0.7172347667 -0.0114876806 0.7178467077 -0.0110399068 -0.0077783111 0.0795112767
65299610.0 -0.003608943 0.0787680545 0.7232690688 -0.0199206409 0.7238874097 -0.0199952933 -0.0009474715 0.0787758379
70299580.0 0.002726745 0.0776287378 0.7286133319 -0.0295143626 0.7285175109 -0.029461804 0.004773852 0.0767426976
75299550.0 0.0080129928 0.0759418781 0.7328094176 -0.0388070026 0.7327251183 -0.0391063046 0.0101594383 0.0746809363
80299520.0 0.0128352688 0.0736506591 0.7367107345 -0.0491337586 0.7369962772 -0.0486151201 0.0147641622 0.0728615972
85299490.0 0.0176363262 0.0713830183 0.7402232771 -0.0582195286 0.7404818841 -0.0581884454 0.019437347 0.0697368066
90299460.0 0.0217574179 0.0688757952 0.7427206899 -0.0691564545 0.7431965857 -0.0688736273 0.0235493368 0.0682107729
95299430.0 0.0259404981 0.0664388594 0.7458572959 -0.0790127674 0.7463213705 -0.0793747306 0.0273142637 0.0656839368
100299400.0 0.0287387626 0.0646989544 0.7468029668 -0.0889428751 0.7466754055 -0.0892878255 0.0311099688 0.0625152339
105299370.0 0.0324402425 0.0618787176 0.7489886982 -0.099702661 0.7492549543 -0.0993016028 0.0340409698 0.0605451712
110299340.0 0.0350239326 0.0593984397 0.7503792586 -0.109455535 0.7498091437 -0.1090855677 0.0361275686 0.0579478137
115299310.0 0.0373961924 0.0571411024 0.7503697155 -0.1192695225 0.7509166502 -0.1193289171 0.0390803665 0.0555914347
120299280.0 0.0396805377 0.0546243018 0.7514007453 -0.1294492399 0.7513848056 -0.1296055245 0.0414031004 0.0530986329
125299250.0 0.0418548439 0.0521204811 0.7512927291 -0.1392805057 0.7516437671 -0.1391046307 0.0427618158 0.0505334651
130299220.0 0.0437955723 0.0502155431 0.751071782 -0.1493028379 0.7512168516 -0.1488437198 0.0449190313 0.0481642934
135299190.0 0.0452725207 0.0482616755 0.7511826864 -0.1591793613 0.7513164418 -0.1587307876 0.0466887866 0.046112216
140299160.0 0.0466452186 0.0461109249 0.7508899009 -0.1693858334 0.75078226 -0.1686900358 0.0478578778 0.0443632299
145299130.0 0.0481189667 0.0438939455 0.7499865416 -0.1784784241 0.7498737071 -0.1783279917 0.0491307927 0.0421044678
150299100.0 0.0497743185 0.0421882187 0.748385202 -0.1874601194 0.748346163 -0.1877430767 0.0504660017 0.0402021516
155299070.0 0.0502567561 0.0397715012 0.7480531715 -0.1983881994 0.7476631842 -0.1981507533 0.0517127495 0.0384207644
160299040.0 0.0518018934 0.0377319131 0.7463377971 -0.2074077427 0.7456900444 -0.2074274471 0.0520585046 0.0363340176
165299010.0 0.0523921186 0.0364097669 0.7448116325 -0.2172173692 0.7446237453 -0.2169201783 0.0536511688 0.0349479891
170298980.0 0.0535891555 0.0337446165 0.7428067909 -0.2261892052 0.7429243404 -0.2261536732 0.054229568 0.0328301414
175298950.0 0.0538931181 0.032285869 0.7409299758 -0.2355936441 0.7407008455 -0.2354862387 0.0548674809 0.0315227603
180298920.0 0.0542658876 0.0306725287 0.7389757772 -0.2442944077 0.7390081335 -0.2445281285 0.0553031637 0.0296261868
185298890.0 0.0557964863 0.0284523943 0.7365258264 -0.2538354608 0.7362812716 -0.2536828381 0.0560314569 0.0284162881
190298860.0 0.0553864238 0.0270451578 0.7340784971 -0.2634133507 0.7345531308 -0.2629747275 0.0561276726 0.0261860026
195298830.0 0.056298908 0.0252726954 0.7319605245 -0.272257604 0.7318760767 -0.2718573491 0.0570923798 0.0251079539
200298800.0 0.0562518222 0.0241461922 0.7289302838 -0.2808380538 0.7291930129 -0.2814852046 0.0567199566 0.0235981504
205298770.0 0.0570654827 0.0227310248 0.7257467908 -0.2898250008 0.7264415282 -0.290122476 0.0573719423 0.0213992219
210298740.0 0.0573626325 0.0207520206 0.723017929 -0.2983886315 0.7230651027 -0.2983211351 0.0578934203 0.0212249402
215298710.0 0.0568228276 0.0195848686 0.7199418993 -0.3074686534 0.7198356565 -0.3072957933 0.0577731467 0.0195826281
220298680.0 0.0575436351 0.0177100157 0.7168008185 -0.3159327585 0.7167262154 -0.3162704157 0.0576856757 0.0178295691
225298650.0 0.0577438601 0.0166339789 0.7138897484 -0.3246559415 0.7140503808 -0.3245102291 0.0574925426 0.0165231941
230298620.0 0.0578989281 0.0157838132 0.7106962306 -0.3327031656 0.7111222001 -0.3334584618 0.0576660444 0.0150846385
235298590.0 0.0579282286 0.0145691868 0.7065640311 -0.3414526132 0.706749071 -0.3411429942 0.0575924642 0.0137579615
240298560.0 0.0579555156 0.0134248826 0.7034145399 -0.349809369 0.703352747 -0.3504181296 0.0578174956 0.0128612231
245298530.0 0.0579572981 0.012094671 0.6998265061 -0.357952032 0.6997804071 -0.3585140465 0.0582762901 0.0111129572
250298500.0 0.058622567 0.0109082466 0.6951534673 -0.3666299089 0.6953509388 -0.3659242189 0.0578697148 0.0102964413
255298470.0 0.0583995504 0.0091789192 0.6909641999 -0.3744203807 0.6918760014 -0.3740407963 0.0583722958 0.0092527471
260298440.0 0.0581686547 0.0081447264 0.6877600006 -0.3829514146 0.6877110074 -0.3828051881 0.0584714277 0.0080014965
265298410.0 0.0589424816 0.0075669423 0.6834597795 -0.3911076628 0.6838689663 -0.3904702814 0.0581519965 0.0069865858
270298380.0 0.0584551083 0.0063384786 0.6799921595 -0.3985079114 0.6795161732 -0.3984083452 0.0580195125 0.0058101515
275298350.0 0.0587672693 0.0051001764 0.6754179118 -0.4068058092 0.6751962142 -0.4072428609 0.0584250558 0.0043775164
280298320.0 0.0586770217 0.0043702004 0.6709039443 -0.4148370317 0.6709934634 -0.4143067294 0.0587805779 0.003229867
285298290.0 0.0585479295 0.0030127964 0.666418812 -0.4226467032 0.6663367238 -0.4225804185 0.0585593178 0.0023122296
290298260.0 0.0590908151 0.0020177379 0.6619576026 -0.4291566178 0.6619942129 -0.4300671571 0.058477987 0.0016881279
295298230.0 0.0586990112 0.0008374262 0.657298414 -0.4378984036 0.6569802868 -0.4373168791 0.0592133054 0.0006706441
300298200.0 0.0583647691 -0.0002542357 0.6528821229 -0.4449921546 0.6530834889 -0.4458339626 0.0585844528 -0.0008200434
305298170.0 0.0585378309 -0.001499977 0.6474445059 -0.4535907236 0.6481154185 -0.4527982292 0.0594750721 -0.001917936
310298140.0 0.0583816953 -0.0025948172 0.6431939588 -0.460756833 0.6435004001 -0.460485691 0.0593720883 -0.0028669056
315298110.0 0.0583613811 -0.0042555475 0.6378556664 -0.4681206189 0.6383811102 -0.4689258728 0.0587357468 -0.0043210098
320298080.0 0.0585788949 -0.0048305646 0.6326053083 -0.4760130314 0.6324546488 -0.4761144553 0.0585129582 -0.0052422703
325298050.0 0.0578251636 -0.0060225489 0.6271845979 -0.4838982374 0.6273237334 -0.4834468118 0.058085224 -0.0063173384
330298020.0 0.0574319468 -0.0075396057 0.6213109463 -0.4909512085 0.6216257802 -0.4911073879 0.0577357004 -0.0074165254
335297990.0 0.0571243131 -0.0086357817 0.616082203 -0.4980762691 0.6157546937 -0.4979981154 0.05651757 -0.0077730252
340297960.0 0.0559833645 -0.0090788675 0.6096105429 -0.5047512778 0.6095152046 -0.504950886 0.0569840609 -0.0088077195
345297930.0 0.0557495657 -0.0094725106 0.6039744307 -0.5118701786 0.6036335076 -0.5121042321 0.0563866692 -0.0100876295
350297900.0 0.0551018064 -0.0109343231 0.5973288337 -0.5187872638 0.5977843941 -0.5180751543 0.0554182753 -0.0097437522
355297870.0 0.0550298221 -0.0107764932 0.5921107452 -0.5249016889 0.5928990913 -0.5251626472 0.055003104 -0.0107956122
360297840.0 0.0545256308 -0.0116272858 0.5872823482 -0.5317225815 0.5869446793 -0.5318390082 0.0549235018 -0.0111522281
365297810.0 0.0539664487 -0.0121887997 0.5808056315 -0.5384476716 0.5807967628 -0.5387181044 0.0546217398 -0.011976333
370297780.0 0.0543138253 -0.0134243507 0.5741941275 -0.5446055084 0.5753793855 -0.5445038973 0.05406852 -0.0124269732
375297750.0 0.054001119 -0.0138926304 0.5689442719 -0.5516084381 0.5697618849 -0.5514985812 0.0541142135 -0.0128764865
380297720.0 0.0536744395 -0.0140878834 0.5629868141 -0.5575511618 0.5627241466 -0.5571040494 0.0535949414 -0.0140235883
385297690.0 0.0528810338 -0.015106913 0.5559662773 -0.5637801912 0.5558183696 -0.5634974442 0.0532892492 -0.0143119644
390297660.0 0.0526933453 -0.0153822398 0.5503374435 -0.5706144805 0.5501393852 -0.5695637524 0.0524592079 -0.0153078948
395297630.0 0.0520877011 -0.0160307678 0.543855496 -0.576599748 0.5442086539 -0.5763921501 0.0530674407 -0.0156385268
400297600.0 0.0519176318 -0.0166759795 0.5375738931 -0.5828903385 0.5373237039 -0.5821950051 0.052441558 -0.0163996405
405297570.0 0.051368532 -0.0175897988 0.5307959664 -0.5882094209 0.53151313 -0.5876547933 0.0515571142 -0.0167681714
410297540.0 0.0512469585 -0.018165737 0.5247691902 -0.5943447263 0.525214816 -0.5941718649 0.0511987363 -0.0171457777
415297510.0 0.051236795 -0.0187215851 0.518099832 -0.6004491397 0.5180598025 -0.599903783 0.0509764769 -0.0178625055
420297480.0 0.0509798211 -0.0190848915 0.5114547345 -0.6057861923 0.511162934 -0.6063424218 0.050518663 -0.0188387346
425297450.0 0.0502565911 -0.020608673 0.5049483384 -0.6115725071 0.5047496682 -0.6118244372 0.0494165178 -0.018888711
430297420.0 0.0497965066 -0.0208932663 0.497956958 -0.6160330241 0.4979827863 -0.6164844749 0.0493898876 -0.0202027022
435297390.0 0.049272677 -0.0214032706 0.4908151674 -0.622627011 0.4909094103 -0.6223974541 0.049866837 -0.0204523005
440297360.0 0.049404801 -0.021739668 0.4846207067 -0.6275517102 0.4843599882 -0.6278883963 0.0489690011 -0.0213933138
445297330.0 0.0485525661 -0.0230826405 0.4775655475 -0.6332423845 0.4776695945 -0.6326771257 0.0489763557 -0.0219647119
450297300.0 0.0486429241 -0.0232301162 0.4703513022 -0.6381738512 0.4706546335 -0.638808419 0.048364318 -0.0228692015
455297270.0 0.0483676904 -0.0238071449 0.4633366754 -0.6431897785 0.4633591644 -0.6440588564 0.0480880627 -0.0235313346
460297240.0 0.0476433289 -0.024236255 0.4561012713 -0.6485036008 0.4565300093 -0.6487960887 0.0476453568 -0.0235493031
465297210.0 0.0476504804 -0.0249496824 0.4492526323 -0.6541470315 0.448909589 -0.6543190102 0.0472194716 -0.0247383452
470297180.0 0.0470603169 -0.0257120932 0.4417392143 -0.6587834485 0.441555545 -0.6587143642 0.0469002132 -0.0247612772
475297150.0 0.0467604331 -0.0263570389 0.4341568018 -0.6630781292 0.4346683207 -0.6631139194 0.0472511886 -0.0258260781
480297120.0 0.0460482823 -0.0262867429 0.427286811 -0.668856921 0.4270392173 -0.6687501144 0.0467270574 -0.0258811531
485297090.0 0.0453935435 -0.0270843114 0.4202545901 -0.6727117192 0.4201895151 -0.6732332767 0.0464008925 -0.0269210684
490297060.0 0.044849576 -0.0276092409 0.41299693 -0.6779786224 0.4129881791 -0.676979793 0.0460446207 -0.0266389975
495297030.0 0.0446431747 -0.028149694 0.4048032782 -0.6820024529 0.405530572 -0.6818856573 0.0450990602 -0.0277339166
500297000.0 0.04403284 -0.0290240625 0.3970997095 -0.6862371018 0.3969590096 -0.6857696895 0.0447461945 -0.0273582788
505296970.0 0.0438292194 -0.0291507184 0.390236235 -0.6902613463 0.3897497741 -0.6909492136 0.0445369652 -0.0281975073
510296940.0 0.0432593457 -0.0296228992 0.3821817891 -0.6952314706 0.3825278149 -0.6953433261 0.044092017 -0.028247303
515296910.0 0.0423603914 -0.0297702362 0.3742356823 -0.6993062821 0.3748430447 -0.6991793698 0.04382894 -0.0286273799
520296880.0 0.0420605546 -0.0305880976 0.3669976957 -0.7039117941 0.3668886012 -0.7033076309 0.0431601215 -0.0296066547
525296850.0 0.041986452 -0.0314188498 0.3590561447 -0.7073080539 0.3594401033 -0.7072640235 0.042540395 -0.0299602344
530296820.0 0.0414607298 -0.031359458 0.3513168064 -0.7113158593 0.3514448931 -0.7113905076 0.0423139263 -0.030395372
535296790.0 0.0402740089 -0.0317728256 0.3442075068 -0.7148960622 0.3436460811 -0.7149929721 0.0420846296 -0.0310934551
540296760.0 0.0401888199 -0.031990542 0.3357893168 -0.7194860402 0.3358351508 -0.7191840375 0.040911574 -0.0303220673
545296730.0 0.0395909894 -0.0325379723 0.3276765085 -0.7227256832 0.3274247415 -0.7225493965 0.0402353732 -0.031490726
550296700.0 0.0398435352 -0.0328470761 0.3196294035 -0.7263097934 0.3199532331 -0.7266159519 0.039837784 -0.0316580738
555296670.0 0.0387700406 -0.033204992 0.3122124857 -0.729719616 0.3123043176 -0.7297181971 0.0396341597 -0.03169712
560296640.0 0.038647847 -0.0333196482 0.3035502495 -0.733357379 0.3040889543 -0.7328813373 0.0389978752 -0.0326444738
565296610.0 0.0373423487 -0.033870887 0.2953995571 -0.73653627 0.2957052842 -0.7364899515 0.038089174 -0.0329632946
570296580.0 0.0371870485 -0.0340863669 0.2879575917 -0.739824832 0.2871897034 -0.7394714197 0.037576859 -0.0326706661
575296550.0 0.036259183 -0.0343280475 0.2797752912 -0.7430884041 0.2795626812 -0.7429456276 0.0374616761 -0.0335384505
580296520.0 0.0359547288 -0.0346723773 0.2715926227 -0.7466089426 0.2719671773 -0.7458058735 0.0366218187 -0.0337142917
585296490.0 0.035440536 -0.0358796928 0.2637368079 -0.7482401701 0.2636279232 -0.7484413674 0.0360939884 -0.0341139447
590296460.0 0.0354598092 -0.0355583188 0.2552909345 -0.7506191894 0.2551784077 -0.7514864861 0.0349629221 -0.0346677271
595296430.0 0.0348249158 -0.0358004113 0.2465737075 -0.7545393665 0.2466966968 -0.7537880383 0.0354451106 -0.0354267725
600296400.0 0.0339172377 -0.0364408385 0.2387898902 -0.7573123949 0.2385117031 -0.756415748 0.0343501871 -0.0353124041
605296370.0 0.0334799082 -0.0365836894 0.2302369731 -0.7593426375 0.2305939237 -0.7592652691 0.0337899136 -0.0356920057
610296340.0 0.0329647169 -0.0367785654 0.2217704165 -0.7618196889 0.2220502502 -0.7618192843 0.0333847814 -0.0361255825
615296310.0 0.0326945461 -0.0378163859 0.2139049236 -0.7637749956 0.2132637325 -0.7647114221 0.0330375023 -0.0364791799
620296280.0 0.0320428537 -0.0381074593 0.2057147918 -0.7663622757 0.2054594956 -0.7662783289 0.0321028408 -0.0369936957
625296250.0 0.0312001678 -0.0385978742 0.1981418485 -0.7688221723 0.1971335336 -0.7692734264 0.0325756576 -0.036955682
630296220.0 0.0317160975 -0.0381421879 0.1885320598 -0.770811134 0.1882374203 -0.7705237902 0.0314387555 -0.037121955
635296190.0 0.0297398251 -0.0394048667 0.1801493664 -0.77298644 0.1802517148 -0.772601977 0.0310676555 -0.0376620867
640296160.0 0.0290732948 -0.0392187846 0.1711574926 -0.7745007204 0.1723403361 -0.7748277151 0.030385507 -0.0377640759
645296130.0 0.0288653221 -0.0392073191 0.1633850655 -0.7764114296 0.1634791745 -0.7768861819 0.030065596 -0.0380162348
650296100.0 0.0286683087 -0.0395284428 0.1549574148 -0.7781126965 0.154975305 -0.7785167983 0.0302305822 -0.0390949776
655296070.0 0.0274265052 -0.0402262175 0.1463524306 -0.7799947094 0.1465175966 -0.779925282 0.0294598739 -0.0387191881
660296040.0 0.0266925923 -0.0405904245 0.1376544872 -0.7814720233 0.1379524194 -0.7817708885 0.0288505541 -0.0389877023
665296010.0 0.0268247084 -0.0404979673 0.1289185536 -0.782386663 0.129654364 -0.7826194497 0.0282287146 -0.038317505
670295980.0 0.0250528286 -0.0403439743 0.1203869453 -0.7840048546 0.1205321415 -0.7842626813 0.0268838414 -0.0388722112
675295950.0 0.0249078883 -0.0402732293 0.1123407519 -0.7851730904 0.1123384954 -0.784731188 0.0265344746 -0.0392286009
680295920.0 0.0238917544 -0.0409698061 0.1032252866 -0.7861001129 0.1028505363 -0.7870484019 0.0262035689 -0.0387605302
685295890.0 0.0238375838 -0.0405195662 0.0943414339 -0.7869416758 0.09479777 -0.7875271268 0.0254008951 -0.0389917464
690295860.0 0.0235241465 -0.0408430428 0.0862727327 -0.7881254583 0.0862997036 -0.7891148386 0.0247383371 -0.0383490052
695295830.0 0.0227366217 -0.0413979149 0.0786472832 -0.7894126741 0.0773629002 -0.7894401168 0.0243480117 -0.0390643915
700295800.0 0.0223602231 -0.0417899244 0.069073757 -0.7902352821 0.0689281318 -0.7893635994 0.0236951918 -0.038448524
705295770.0 0.0211494191 -0.0407891474 0.0609259194 -0.7905474601 0.0607232082 -0.7908447932 0.0227551497 -0.0391071503
710295740.0 0.0209730634 -0.0413668344 0.0526585065 -0.7923531571 0.0526115984 -0.7921660409 0.0228008523 -0.0398320951
715295710.0 0.0198924178 -0.0417059233 0.0435324653 -0.7918868714 0.0432209003 -0.7921305579 0.0221652157 -0.0395854714
720295680.0 0.0196941208 -0.0419928907 0.0349708827 -0.7928993399 0.0349281013 -0.7922862848 0.0215046223 -0.0390577512
725295650.0 0.0192422484 -0.0416721433 0.0260701656 -0.7924294 0.0262794178 -0.7931988816 0.0200523675 -0.0391364967
730295620.0 0.0189379655 -0.0412852703 0.01756733 -0.7924593309 0.0174280307 -0.7932598969 0.0196337703 -0.0398702116
735295590.0 0.0179343852 -0.0413945279 0.0092653402 -0.7930823472 0.0090949626 -0.7933939733 0.0191117575 -0.040116047
740295560.0 0.0170324142 -0.0416344193 0.0002721082 -0.7932324531 0.0005341467 -0.7930432676 0.0189265498 -0.039460643
745295530.0 0.0165700909 -0.041635389 -0.008175502 -0.7923910015 -0.0083983397 -0.7925966375 0.0183069019 -0.0403963865
750295500.0 0.0161388277 -0.0419852453 -0.0167909039 -0.7928692646 -0.0166770153 -0.7931313481 0.0172331418 -0.0402045034
755295470.0 0.015614991 -0.0421573586 -0.0256264723 -0.7932455784 -0.0253844309 -0.7928874415 0.0174677855 -0.0404821038
760295440.0 0.0146456184 -0.0418963875 -0.0339015834 -0.7926724504 -0.0341796485 -0.7926728491 0.0167105941 -0.0404425933
765295410.0 0.0143648661 -0.0420560528 -0.0432942947 -0.7917181402 -0.0433583638 -0.792694084 0.0158911715 -0.0404400651
770295380.0 0.0132652347 -0.0423778877 -0.0519225516 -0.7915098118 -0.0513374923 -0.7915213167 0.0150685619 -0.0408849586
775295350.0 0.0126396169 -0.0428336262 -0.0603600529 -0.7900765465 -0.0598513551 -0.7905033894 0.0137691063 -0.0399603729
780295320.0 0.0123866812 -0.0423738448 -0.0687736236 -0.7894151596 -0.068132047 -0.7899599222 0.01359681 -0.040973673
785295290.0 0.0114278427 -0.0430371049 -0.0773046274 -0.7886578097 -0.0767547369 -0.7891716201 0.0137549619 -0.0404988204
790295260.0 0.0115987344 -0.0416261344 -0.0854911474 -0.7884598193 -0.0853316474 -0.7882915369 0.0124761653 -0.0409637314
795295230.0 0.0104839486 -0.0425214625 -0.0941866384 -0.7870274006 -0.0934690228 -0.7876725215 0.012303873 -0.0403741165
800295200.0 0.0093866242 -0.0419981107 -0.1036860502 -0.7859442686 -0.1031319822 -0.7865598669 0.0114898618 -0.0409594997
805295170.0 0.0089455995 -0.042507347 -0.1115538845 -0.7847328324 -0.1119236797 -0.7851675142 0.0108766622 -0.0406818597
810295140.0 0.0082983038 -0.0426274317 -0.1201057642 -0.7832663024 -0.1198038013 -0.7835730762 0.0113574998 -0.0402301381
815295110.0 0.0080078266 -0.0428871588 -0.1285110362 -0.7816806073 -0.1285151209 -0.7821166175 0.0097144429 -0.0404782732
820295080.0 0.0067267007 -0.0421238116 -0.1370166249 -0.780857073 -0.1366808725 -0.7804905073 0.00952485 -0.0406377522
825295050.0 0.0068962484 -0.0420598051 -0.1449485354 -0.7788433477 -0.1453038581 -0.7794842147 0.0094107375 -0.0402515643
830295020.0 0.0060746068 -0.0420118778 -0.1539982409 -0.7772621395 -0.153700164 -0.777554591 0.0092522458 -0.0397927278
