!Created with skrf (http://scikit-rf.org).
# Hz S RI R 50.0 
!freq ReS11 ImS11 ReS21 ImS21 ReS12 ImS12 ReS22 ImS22
300000.0 -0.2099240375 -0.0800647173 -0.0004260516 -0.0001836578 -0.0015405305 0.0018601235 -0.7714670655 -0.1644687772
5299970.0 -0.2140081507 0.0084682333 9.48126e-05 0.0003610061 -0.0001257806 4.0657e-05 -0.7852615638 -0.0086104145
10299940.0 -0.2104416257 0.021029452 -4.15897e-05 0.0001382118 -7.7232e-05 8.7878e-05 -0.7883548032 -0.0048951909
15299910.0 -0.2054399857 0.0310479578 -0.0001301874 8.97379e-05 -0.00013053 -0.0001133243 -0.7935343477 -0.002995818
20299880.0 -0.1991794857 0.0390965509 -9.52606e-05 -0.0001296516 -4.31923e-05 -0.0001360654 -0.800498705 0.0015126107
25299850.0 -0.1929614204 0.0457170927 0.0002419882 0.0001925153 -2.94647e-05 -8.72148e-05 -0.806561794 0.007462999
30299820.0 -0.1862997991 0.0501259778 -0.0001304228 0.0001637085 -8.45666e-05 1.29781e-05 -0.8128938477 0.0145775463
35299790.0 -0.1799071232 0.0545571687 6.63891e-05 4.03635e-05 6.15225e-05 -0.0001073347 -0.8179550925 0.0236492224
40299760.0 -0.1739338085 0.0570503374 -0.0001979697 5.09423e-05 2.1184e-05 1.06843e-05 -0.8214927286 0.0332529588
45299730.0 -0.1684292399 0.0593626087 3.68168e-05 0.0001510238 -1.95113e-05 -2.41072e-05 -0.8257027647 0.0421889617
50299700.0 -0.1628220613 0.0606905029 -8.73233e-05 1.13508e-05 -3.3251e-05 0.0002249539 -0.8277581086 0.0524740059
55299670.0 -0.1583871962 0.0616750463 6.09545e-05 -0.0001718253 -8.42565e-05 4.31673e-05 -0.8298431096 0.0628786588
60299640.0 -0.1537293121 0.0622586579 5.1129e-06 0.0001583665 -7.95118e-05 0.0002223821 -0.8308241506 0.0731432013
65299610.0 -0.150032075 0.0627377771 -0.0001441944 3.96211e-05 9.16557e-05 5.04617e-05 -0.831283203 0.0825974464
70299580.0 -0.146423911 0.0627139245 -0.0001136004 -0.0001605712 1.71102e-05 5.73344e-05 -0.8322739711 0.0930047481
75299550.0 -0.143134275 0.0626072951 -7.14012e-05 0.0002135223 -9.88331e-05 6.19504e-05 -0.8323301163 0.1023373134
80299520.0 -0.1404236349 0.0627346838 0.000208882 -2.91638e-05 9.25199e-05 -0.0001300165 -0.8319385886 0.1119541738
85299490.0 -0.137633354 0.0624780895 -1.77004e-05 -4.28596e-05 0.0001096489 -0.0001800164 -0.8318100589 0.1218805079
90299460.0 -0.1355721313 0.0621524555 -2.2733e-06 1.22478e-05 -2.3715e-06 5.70837e-05 -0.8309196194 0.1315472764
95299430.0 -0.1334353868 0.0620351374 -7.79654e-05 0.0001281479 6.21599e-05 3.84548e-05 -0.8297339526 0.1410191913
100299400.0 -0.1316314206 0.0619708898 0.0001664883 0.0003426757 1.75661e-05 3.12849e-05 -0.8290459343 0.1495705803
105299370.0 -0.1297418935 0.0616856124 9.34681e-05 4.62498e-05 -1.14342e-05 8.78413e-05 -0.8277400304 0.1588785294
110299340.0 -0.1282119794 0.0616683363 3.583e-06 -4.86772e-05 -2.55441e-05 -1.00776e-05 -0.8268200278 0.1679834361
115299310.0 -0.1268146182 0.0611312801 -8.4434e-05 0.0001499157 2.5708e-06 -1.01958e-05 -0.8247131028 0.1769973259
120299280.0 -0.1256227047 0.0614096445 0.0001606636 6.95456e-05 -5.3518e-06 -9.03886e-05 -0.8235693483 0.185664932
125299250.0 -0.1249376099 0.0609264952 0.0001214148 -6.72116e-05 -4.0145e-06 -0.0001125991 -0.8221787952 0.1951160697
130299220.0 -0.1234555896 0.0613074894 -4.32255e-05 4.55126e-05 4.87751e-05 -7.81233e-05 -0.8202475155 0.204049067
135299190.0 -0.1223656464 0.0610232952 1.09473e-05 8.35557e-05 1.03391e-05 9.31555e-05 -0.8180660586 0.2121511991
140299160.0 -0.121601257 0.0613838911 0.0001485326 6.81797e-05 -4.46662e-05 -0.0001204518 -0.8158281752 0.2211754531
145299130.0 -0.1207401893 0.0614291751 4.51948e-05 0.0001463152 -0.0002256706 4.06923e-05 -0.8139876589 0.2297598629
150299100.0 -0.1202169425 0.0615865548 -4.83034e-05 -2.01167e-05 -3.39571e-05 4.98476e-05 -0.8120027388 0.2385258607
155299070.0 -0.1192326213 0.062166334 -0.0001369936 0.0002359591 6.5979e-06 -1.93815e-05 -0.8092257565 0.2474969126
160299040.0 -0.1187494131 0.062334097 0.0001761925 -2.92493e-05 -8.80989e-05 -8.734e-06 -0.8071196924 0.2566351203
165299010.0 -0.1181233721 0.062664708 0.0001027257 1.7129e-05 0.0001025553 0.000155876 -0.8045046366 0.2649339256
170298980.0 -0.1176219934 0.0629418267 0.0002368429 0.0001538794 -3.28502e-05 0.0001472771 -0.8020769416 0.2732051879
175298950.0 -0.1170533413 0.0636353856 0.0001646131 0.0002433808 9.41282e-05 4.27978e-05 -0.7989046001 0.2821931003
180298920.0 -0.1165019008 0.0637023793 0.0001254868 -7.58418e-05 -0.000158728 0.0001289364 -0.7955120744 0.2903206635
185298890.0 -0.1159465071 0.0644132483 9.40079e-05 9.08583e-05 9.18408e-05 8.58979e-05 -0.7931326129 0.2979668292
190298860.0 -0.1154631901 0.0648387208 0.0001546933 -6.59671e-05 -7.47122e-05 0.0001858831 -0.7898253017 0.3070589834
195298830.0 -0.1145775494 0.0649697497 9.65665e-05 0.000224779 0.0001346144 -0.0001756158 -0.7872698665 0.3155302247
200298800.0 -0.1142337861 0.0660615222 3.93555e-05 5.97721e-05 -7.30596e-05 0.000292968 -0.7834864641 0.3239181097
205298770.0 -0.1139169687 0.0666948082 -9.28362e-05 0.0001587038 0.0001608572 3.99144e-05 -0.7801803018 0.3321618319
210298740.0 -0.1132519179 0.0671878543 2.34851e-05 9.58033e-05 2.56295e-05 9.17875e-05 -0.7771326903 0.3403351716
215298710.0 -0.1129388012 0.0676851619 -2.23249e-05 5.71397e-05 2.6673e-05 0.0001805549 -0.7736138832 0.3484218904
220298680.0 -0.1126458196 0.0685369814 0.0001422161 -0.0001167481 0.0001132314 8.6836e-06 -0.7699936319 0.3568120737
225298650.0 -0.1119284643 0.0692498975 0.0002467502 8.07268e-05 -0.0001072943 2.01381e-05 -0.7663070144 0.3648737969
230298620.0 -0.1115297901 0.0701492363 -0.0001017574 -6.41417e-05 -8.8416e-06 3.42533e-05 -0.7615854823 0.372570037
235298590.0 -0.1112033063 0.0708096798 -0.0002113354 0.0002906853 -0.0001741857 0.0003243656 -0.7583658229 0.3802447851
240298560.0 -0.1107455012 0.0717517288 3.65895e-05 0.0001555255 -7.77332e-05 0.0001525483 -0.7543912374 0.3886325589
245298530.0 -0.1099565888 0.0722888881 5.6597e-06 -9.07865e-05 0.0001485107 8.3089e-06 -0.7500600799 0.3969457267
250298500.0 -0.1097815921 0.0731459958 -0.0001046963 1.71997e-05 0.0001212956 -4.46979e-05 -0.7461364813 0.4047856587
255298470.0 -0.1090401781 0.0739422677 0.0001738883 -0.0001404693 0.0001941435 0.0002319094 -0.7416011108 0.4127920058
260298440.0 -0.1086828882 0.0749698446 0.0001265223 5.13645e-05 0.0001978829 0.0001822325 -0.7370636662 0.4198130197
265298410.0 -0.1083169847 0.0760182489 7.51792e-05 -6.2837e-06 -7.18434e-05 6.58439e-05 -0.7331398916 0.4275600318
270298380.0 -0.1078188462 0.0767308735 0.0001183729 0.0001105128 7.067e-05 -7.6178e-06 -0.7278766235 0.4353056725
275298350.0 -0.1069925276 0.0774792225 0.0001487815 6.26139e-05 -2.41744e-05 -5.01256e-05 -0.7233239299 0.4431373078
280298320.0 -0.1066345385 0.0784482846 0.0001975728 0.0001500923 0.000115938 0.0001272265 -0.7185244227 0.4506266605
285298290.0 -0.1059592202 0.0796406285 0.0002440282 0.0001368981 1.75672e-05 -1.80181e-05 -0.7137913282 0.4575973326
290298260.0 -0.1055078474 0.0806459444 0.000283153 -0.0002089747 -3.2598e-06 0.0001544577 -0.7090665173 0.4659523942
295298230.0 -0.1047644475 0.0812234062 -5.51134e-05 0.0002314288 0.0002656797 0.0001070828 -0.7038650665 0.4728949772
300298200.0 -0.1041520175 0.0818671719 0.0001350054 -5.24572e-05 7.11614e-05 0.0002624199 -0.6988968073 0.4799982447
305298170.0 -0.1033019822 0.0829140938 0.0001963313 0.0001107947 4.99151e-05 0.0001275016 -0.6935877666 0.4877454759
310298140.0 -0.1026692027 0.0835478378 0.0001716687 -6.57045e-05 0.0001741796 0.0001964768 -0.6890849426 0.4949946856
315298110.0 -0.1024780073 0.0846111438 7.53239e-05 0.0002447747 6.25161e-05 -1.80526e-05 -0.6835990769 0.502446886
320298080.0 -0.1017086059 0.0853696 -5.793e-07 0.000223861 0.0001564863 0.0001935706 -0.6778632171 0.50927363
325298050.0 -0.1011774827 0.0859873343 0.0001373145 4.09661e-05 -3.14438e-05 0.0001897715 -0.6724125578 0.5161679404
330298020.0 -0.1009898689 0.0873179724 -0.0002662199 -3.97982e-05 8.6292e-06 0.0002270762 -0.6667448239 0.5234608335
335297990.0 -0.1003322767 0.0883821702 3.2642e-06 3.71596e-05 -8.86416e-05 0.00031922 -0.6613651829 0.5299383455
340297960.0 -0.1000127127 0.0890381222 8.6571e-05 0.0001505996 0.0002064671 0.0002425587 -0.6560203136 0.5373084047
345297930.0 -0.09934369 0.0901853817 0.0001648764 5.66165e-05 0.0001567427 -8.05881e-05 -0.6498059449 0.5442642528
350297900.0 -0.0982851176 0.0912360364 0.0002428292 0.000102539 0.0001023722 0.0003780254 -0.6446327673 0.550941229
355297870.0 -0.0982238557 0.0922075177 -2.77143e-05 -6.04627e-05 0.0002229445 -0.0001291904 -0.6385994693 0.5573195352
360297840.0 -0.0975204714 0.0932855499 8.18932e-05 8.56807e-05 3.63254e-05 1.40269e-05 -0.6324610246 0.5638609123
365297810.0 -0.096660786 0.0941392613 7.56241e-05 -9.43015e-05 0.0001400414 4.1177e-06 -0.6264860752 0.5705220849
370297780.0 -0.0957544191 0.0952620861 0.0001135762 0.0002124374 0.0001722404 0.0002055221 -0.6212071407 0.5766994782
375297750.0 -0.0951308856 0.0962994483 9.54146e-05 3.46706e-05 0.0002757897 0.0002839168 -0.613985305 0.5827778756
380297720.0 -0.0941348708 0.0973431595 0.0001246861 0.0001332596 -0.0001060867 0.0002602665 -0.6079460053 0.5902623789
385297690.0 -0.0935460257 0.0984038249 0.0002255071 -7.5937e-06 0.0001753588 0.0001383281 -0.6020915173 0.5958373628
390297660.0 -0.0927320562 0.0992969382 -4.3096e-05 8.27457e-05 0.0002563848 0.0001295367 -0.5958160874 0.6014138523
395297630.0 -0.0919526775 0.1002958857 0.0001447974 4.60022e-05 0.0001191124 -0.0001372693 -0.5891817322 0.6080114321
400297600.0 -0.0910827993 0.1016241759 -6.82366e-05 8.07522e-05 9.6362e-06 4.76222e-05 -0.583686325 0.6134502408
405297570.0 -0.0904874973 0.1023512966 -4.82186e-05 0.0001063372 0.0001281898 0.0001602844 -0.5773438559 0.6196773051
410297540.0 -0.0893775124 0.1034742674 0.0001014419 0.0001739264 -9.2984e-06 0.0001755455 -0.5701193369 0.6252900148
415297510.0 -0.0887062346 0.1039661248 0.0001276469 0.0002217138 7.61523e-05 9.20251e-05 -0.5638662568 0.6319028217
420297480.0 -0.0877044485 0.1052684421 0.0002931748 3.17747e-05 4.9427e-06 0.0001593312 -0.5574199728 0.6365991199
425297450.0 -0.0871295216 0.1059922427 0.0001396146 8.26486e-05 0.000107951 0.0002081895 -0.550824211 0.6431916953
430297420.0 -0.0861617026 0.1073110055 2.06344e-05 0.0001469616 0.0002667436 0.000138295 -0.544105967 0.6482577664
435297390.0 -0.0849829442 0.1081770937 0.0002212853 0.0002873283 0.000272598 9.39679e-05 -0.5371375488 0.6537350923
440297360.0 -0.0840546064 0.1089662976 0.000217786 0.0001786793 0.0001018844 -8.28982e-05 -0.5301680356 0.6585539655
445297330.0 -0.0833372104 0.1100626363 0.0003335037 -7.76552e-05 0.00015442 0.0001468578 -0.5237844807 0.6639539256
450297300.0 -0.0822236056 0.1109658799 2.30699e-05 5.30375e-05 0.0001305524 0.0001512993 -0.5170687156 0.6698090309
455297270.0 -0.0813993382 0.1118814113 0.0003125147 -0.0001660578 0.0001698565 -4.93886e-05 -0.5102251703 0.6746501492
460297240.0 -0.0806909054 0.1130508434 0.0001278106 9.74329e-05 0.0003531881 8.06743e-05 -0.502883956 0.6801793392
465297210.0 -0.079352941 0.1138301167 0.000194479 6.61799e-05 0.0001002831 9.07147e-05 -0.4967660241 0.6849367227
470297180.0 -0.0785127601 0.1148470176 0.0002029321 0.0002364613 0.0001759831 8.8172e-05 -0.4897441627 0.6893454654
475297150.0 -0.0776842297 0.1155359296 0.0002443321 2.91481e-05 0.0001202194 2.2573e-06 -0.482123931 0.6946725384
480297120.0 -0.0766341878 0.1163533612 0.0003293162 -0.0001252451 8.69699e-05 -5.805e-07 -0.4753830549 0.7000504649
485297090.0 -0.0755311093 0.1173796658 0.0003609147 8.47038e-05 0.0003229632 0.0001180457 -0.4686352007 0.7038408269
490297060.0 -0.0744767126 0.118004048 0.0002718386 -3.45139e-05 0.0003897655 0.00017946 -0.4613208318 0.7085025979
495297030.0 -0.073516204 0.1192812296 0.0002422707 -2.04083e-05 0.0002162777 9.62685e-05 -0.4537620699 0.7131017968
500297000.0 -0.0725124128 0.1196957386 4.66147e-05 7.41077e-05 0.0001870353 -4.86662e-05 -0.4468673235 0.7175151056
505296970.0 -0.0713553299 0.1208067069 0.0002615739 0.000168781 0.0001418339 0.0002222435 -0.4404446022 0.7218206428
510296940.0 -0.0702776388 0.1216139061 0.0002059109 0.0002788062 0.0001271164 -5.74386e-05 -0.4323123283 0.7262808759
515296910.0 -0.0693561989 0.1227959763 -1.09579e-05 0.0001545789 2.5199e-05 1.89678e-05 -0.4250105691 0.7308375719
520296880.0 -0.06803967 0.1233862187 0.0002456585 5.08384e-05 0.0004688087 -1.429e-07 -0.4177297373 0.7349331661
525296850.0 -0.0671939277 0.1242137948 0.0003138383 -3.0373e-06 -2.64295e-05 6.7366e-06 -0.410136501 0.73923021
530296820.0 -0.0660494088 0.1251474043 0.0003114413 0.0001410642 0.0001394729 -4.0204e-05 -0.4032628762 0.7429308531
535296790.0 -0.0649866028 0.1259582719 0.0001266603 9.86616e-05 9.34783e-05 0.0002117486 -0.3961703064 0.7461677177
540296760.0 -0.0637673848 0.1265021031 0.0002656199 1.62303e-05 0.0001704331 5.16279e-05 -0.3887062916 0.7509557627
545296730.0 -0.062659461 0.1274854523 0.0002428481 0.0001949947 0.0002548862 6.95028e-05 -0.3809729378 0.7540046992
550296700.0 -0.0618810742 0.1284172087 0.0003475867 4.4363e-05 0.0004038379 3.49408e-05 -0.3737251696 0.7579963707
555296670.0 -0.0600758459 0.1289336305 0.0002578513 8.64988e-05 0.0002803625 -7.70293e-05 -0.3659508545 0.7617581361
560296640.0 -0.0591401656 0.129474278 0.0001391177 6.41981e-05 0.0002997063 -0.0002206459 -0.3580699607 0.7653629264
565296610.0 -0.0581180243 0.1306513833 0.0001781266 0.0002342859 -5.2117e-06 0.0002021928 -0.3506509306 0.7688676373
570296580.0 -0.0567524968 0.1311363845 -3.77943e-05 9.95388e-05 0.0001229822 0.0001874665 -0.3435007331 0.7728361643
575296550.0 -0.0554959129 0.1321849144 0.0001396137 2.35672e-05 3.73918e-05 -7.22144e-05 -0.3353979013 0.7756367829
580296520.0 -0.0544405026 0.132615562 4.82517e-05 -0.0001159963 0.000179487 8.27951e-05 -0.3274673339 0.7790318578
585296490.0 -0.0530212683 0.1332181428 0.0001400511 -2.11492e-05 0.0001889602 -0.0001481386 -0.3198113038 0.7821896388
590296460.0 -0.0519273008 0.1341728133 0.0003350091 0.0001762431 -2.35789e-05 6.76969e-05 -0.31214081 0.7850252478
595296430.0 -0.050355031 0.1347187539 0.0001328605 -0.0001318605 0.0001476741 7.05097e-05 -0.3041947866 0.787479701
600296400.0 -0.0494830797 0.1355755167 0.0003571271 4.16951e-05 6.94492e-05 0.0001353638 -0.2965750082 0.7913779296
605296370.0 -0.0479500752 0.1361219959 0.000203479 0.0002982646 8.87753e-05 0.0001644983 -0.2890771314 0.7940803799
610296340.0 -0.0467966487 0.1366727317 0.0003229616 4.4883e-05 0.0001192024 -4.86916e-05 -0.2809430882 0.7970633041
615296310.0 -0.0456649233 0.1377663273 0.0001252036 9.565e-07 0.0001089063 0.0002999225 -0.2726150284 0.7993416064
620296280.0 -0.0443082844 0.1380976811 0.0002914146 -7.74325e-05 0.0003876718 -7.54762e-05 -0.2650103948 0.8018218728
625296250.0 -0.0430525824 0.1386512732 5.96316e-05 -0.0001042278 6.738e-06 8.7379e-05 -0.2571820349 0.805037964
630296220.0 -0.0417377368 0.1394149141 0.0003048982 5.40433e-05 0.000234393 -0.0001422019 -0.2485653979 0.8079497786
635296190.0 -0.0408094756 0.1397091579 0.000261696 -0.0001557504 0.0002662616 3.70583e-05 -0.2418876339 0.8093804515
640296160.0 -0.0391237126 0.140496775 0.000553514 -0.0001533266 0.0001250367 7.05559e-05 -0.2329789589 0.8115186283
645296130.0 -0.0381468814 0.1412233582 0.0002806576 6.54568e-05 0.0001642703 5.06176e-05 -0.2256988015 0.8138916346
650296100.0 -0.0365166027 0.141823546 0.0002616289 -0.0001092849 0.0001285278 -3.32835e-05 -0.2171348533 0.8167372692
655296070.0 -0.0352445909 0.142002474 7.56269e-05 0.0001530916 -5.9954e-06 0.0001071518 -0.2090242845 0.818030546
660296040.0 -0.0341878312 0.1429354854 -4.54564e-05 7.44229e-05 0.0002800257 0.0002413158 -0.2010508228 0.8204277741
665296010.0 -0.032593184 0.1430252181 0.0001271836 0.0001548937 0.0003307962 9.31027e-05 -0.1927785787 0.8224176112
670295980.0 -0.0312208089 0.1432826886 0.0004363581 -0.0003148458 0.0003022672 1.51246e-05 -0.1859362645 0.8238872811
675295950.0 -0.030140944 0.1441313399 0.0001463432 -6.6304e-06 0.0002008999 -5.016e-07 -0.1769353645 0.8261062039
680295920.0 -0.028484816 0.1448699179 0.0001949857 -1.68619e-05 0.0001922717 -3.01336e-05 -0.1679865408 0.8274541482
685295890.0 -0.0270562446 0.1452039852 0.0002900622 -5.9251e-05 -2.60029e-05 0.0001181802 -0.1601581847 0.8293441841
690295860.0 -0.0254377555 0.1459054392 0.0003192499 2.27733e-05 0.0001384595 9.18426e-05 -0.1518844249 0.830902671
695295830.0 -0.0243939248 0.1460255822 0.0004135897 -0.0001695458 0.0001085233 3.47578e-05 -0.1442555429 0.8322661057
700295800.0 -0.022964675 0.1464615149 0.0003121883 -7.54554e-05 0.0002348326 -3.28804e-05 -0.1352593688 0.8335605562
705295770.0 -0.0214722126 0.1471857889 4.0064e-05 -1.96678e-05 0.0001978502 -3.32309e-05 -0.1277769358 0.8350939754
710295740.0 -0.0201627551 0.1473128037 0.000319585 -1.44837e-05 0.0003070429 -1.80045e-05 -0.1199492673 0.8366940769
715295710.0 -0.0188772515 0.1478982127 0.0004887677 -0.0002104908 0.0002757072 -0.0001780355 -0.1108816984 0.8372139158
720295680.0 -0.0175266375 0.1480653215 0.0002663675 -1.23991e-05 -4.44156e-05 1.63625e-05 -0.1027260915 0.8381554563
725295650.0 -0.015749917 0.148719031 0.0001089538 -0.0001313281 0.0001222172 4.72456e-05 -0.0943367382 0.8393892283
730295620.0 -0.0145377915 0.1488394279 0.0001045537 8.70422e-05 0.0001673915 -1.18179e-05 -0.0858741001 0.8402577141
735295590.0 -0.012849861 0.1491392097 0.0001580445 -7.7543e-05 0.0002945106 -0.0001561559 -0.077565139 0.8410474457
740295560.0 -0.0114844422 0.1494944231 6.0523e-06 -2.05097e-05 0.0003036363 -5.70322e-05 -0.0698824086 0.841462548
745295530.0 -0.0104888875 0.1498036392 0.0003262273 -4.12197e-05 0.0001714252 -0.0001180168 -0.0616415613 0.842284508
750295500.0 -0.0087603593 0.1502218021 0.0002324046 0.0002537656 0.0002587792 -7.88358e-05 -0.0534085807 0.8424508353
755295470.0 -0.0070509117 0.1504848937 0.0003694724 4.25615e-05 0.0001544619 7.62128e-05 -0.0442974313 0.8432753035
760295440.0 -0.0059512822 0.1508857742 7.47605e-05 -5.82105e-05 0.0004078601 -8.98792e-05 -0.0369269798 0.8436038559
765295410.0 -0.0044163512 0.1509184826 0.0003006082 -0.0002087662 0.0002250252 6.56859e-05 -0.0276456998 0.8443770025
770295380.0 -0.0028233783 0.1515291348 9.54355e-05 8.01418e-05 0.0001072159 2.16309e-05 -0.0191522562 0.8442002977
775295350.0 -0.0016434744 0.1516829795 0.0001020618 0.0001267397 0.0004729746 0.0002813419 -0.0120133596 0.8439278294
780295320.0 -8.6996e-05 0.1518611275 0.0002114673 3.45959e-05 0.0002426765 0.0002493795 -0.0030029273 0.845008289
785295290.0 0.0014635414 0.1519489371 0.0002359861 -0.0001403167 0.0003240524 -9.84437e-05 0.0047300194 0.844944432
790295260.0 0.0030210588 0.1521384103 0.0003271669 -0.0001158369 0.000447208 -4.29982e-05 0.0135557902 0.8444212437
795295230.0 0.0039514018 0.1525896843 0.0002097753 -0.0001900308 0.0002667814 -9.47716e-05 0.0219176351 0.8445042556
800295200.0 0.0059225672 0.1526804726 0.0004567397 0.0001492753 0.0001960156 -6.51462e-05 0.0302845564 0.8439516798
805295170.0 0.0072863812 0.152820469 0.0001931063 -5.38097e-05 0.0003358541 -7.11029e-05 0.0383578009 0.8437495374
810295140.0 0.0085961043 0.1529061163 0.0002629332 -5.85909e-05 0.0003196289 3.72688e-05 0.04670735 0.8438802518
815295110.0 0.0101968554 0.1530284256 0.0001196451 4.89759e-05 0.000304935 -0.0001861818 0.0543901121 0.8431246897
820295080.0 0.0118124395 0.1529920356 0.0002426145 -0.0001316523 0.0003561223 -2.8906e-05 0.0631213868 0.842127658
825295050.0 0.0132109373 0.1531539342 0.0003820571 7.43767e-05 0.0001530649 -7.7793e-06 0.0711811534 0.8418638105
830295020.0 0.0149918402 0.1533101766 0.0003790343 -9.03925e-05 0.0002245216 -0.0001881617 0.0794681284 0.8410191351
835294990.0 0.0161951488 0.1536246928 2.76368e-05 -0.0001382764 0.0001878033 -0.0001667687 0.0877368561 0.8399006809
840294960.0 0.0179084691 0.1536138806 0.0003134339 0.0001957906 0.0003373095 0.0001031571 0.0958584324 0.839605184
845294930.0 0.0190414136 0.1535296225 0.0002616715 -0.0001033535 0.0003796433 -0.0001433189 0.104239166 0.8380264195
850294900.0 0.0205927948 0.1534466865 0.0003007193 -0.0001146825 0.0002874004 1.99044e-05 0.1121513802 0.8375198644
