!Created with skrf (http://scikit-rf.org).
# Hz S RI R 50.0 
!freq ReS11 ImS11 ReS21 ImS21 ReS12 ImS12 ReS22 ImS22
300000.0 -0.2350981105 -0.105517485 0.4670836528 0.0692396276 0.4705663963 0.0709194147 -0.236792266 -0.1072144517
5299970.0 -0.2408174647 0.007297904 0.475195625 0.0050587494 0.4751850977 0.0058219662 -0.2446619045 0.0056861452
10299940.0 -0.2371435461 0.0202450248 0.477262686 0.0061634979 0.4771434824 0.006173565 -0.2415692066 0.0174714469
15299910.0 -0.2329432717 0.029950228 0.4807022225 0.0075659994 0.4806030332 0.0077028635 -0.237536805 0.0265681646
20299880.0 -0.2271909861 0.0381318224 0.4850325891 0.0077460547 0.4854321 0.0081190401 -0.2326989899 0.0342049148
25299850.0 -0.2215920334 0.0445891107 0.4903918917 0.0064914349 0.490417583 0.0065730413 -0.2276686956 0.040134302
30299820.0 -0.2157062017 0.0495159821 0.496145967 0.0047390476 0.4958497302 0.0047913816 -0.2226046691 0.0448866199
35299790.0 -0.2099174282 0.0540049295 0.5011589809 0.0015984308 0.5013950925 0.0016038265 -0.2173037091 0.0487761758
40299760.0 -0.2044791834 0.056954285 0.5061394389 -0.0020510934 0.5062688996 -0.0022225292 -0.2128062679 0.0521326984
45299730.0 -0.1993564661 0.0600132818 0.511030604 -0.0072262128 0.511285505 -0.0072516696 -0.2079822899 0.054670389
50299700.0 -0.1947160711 0.0618571938 0.5148582461 -0.0128168831 0.5152252575 -0.0128759558 -0.2034606591 0.0565238273
55299670.0 -0.1905239744 0.0639616649 0.518305958 -0.0188493858 0.5187903352 -0.0184379473 -0.1999201591 0.0579286568
60299640.0 -0.1866297248 0.0648926173 0.5218414409 -0.0249919074 0.5220689953 -0.0251349218 -0.1962060559 0.0595871861
65299610.0 -0.1832126084 0.0662964285 0.5249875224 -0.0305580451 0.5254593904 -0.0309780839 -0.1928589214 0.0606531239
70299580.0 -0.1795447853 0.067193161 0.5274195591 -0.0379000677 0.5270341134 -0.0379367365 -0.1898085254 0.0615804582
75299550.0 -0.1765762812 0.0680086837 0.5287520655 -0.044475144 0.5291847146 -0.0444704658 -0.1872635404 0.0625989904
80299520.0 -0.1743523703 0.0688735686 0.5316002047 -0.0516027216 0.5313615658 -0.0512336746 -0.1849283575 0.0628234538
85299490.0 -0.1712446287 0.0694072606 0.5323890799 -0.0584533443 0.5325820141 -0.0585019472 -0.1827734936 0.0636546976
90299460.0 -0.1692188952 0.0703955354 0.5337255564 -0.0654018219 0.5337506044 -0.0655591951 -0.1800627537 0.0647780527
95299430.0 -0.1673254191 0.0710564665 0.5344118367 -0.0725392726 0.5344353043 -0.0722818732 -0.1782997347 0.0649320926
100299400.0 -0.1654075993 0.0718041871 0.5344438436 -0.0794105141 0.5346106139 -0.0790335299 -0.1771108519 0.0655109858
105299370.0 -0.1634237658 0.0723805658 0.5347185577 -0.0859806128 0.5351801567 -0.0861745932 -0.1751421189 0.0662322625
110299340.0 -0.1619116943 0.0731269539 0.5349978439 -0.0929122506 0.535014476 -0.0931553112 -0.1735639425 0.066740233
115299310.0 -0.1604054169 0.0735558611 0.5348593579 -0.0995565278 0.5351386313 -0.0992362306 -0.1722693126 0.0670123399
120299280.0 -0.1588273956 0.0744527417 0.5351784436 -0.1065051046 0.534787828 -0.1064567766 -0.1709641886 0.0679467573
125299250.0 -0.1579396073 0.0751182883 0.5347816948 -0.112766743 0.5346818904 -0.1130719912 -0.1698100351 0.0682512388
130299220.0 -0.1565625582 0.0761865747 0.533521585 -0.1192861916 0.5337070597 -0.1203306605 -0.1686939747 0.0696071509
135299190.0 -0.155084893 0.0767651005 0.5328076252 -0.1263744442 0.5330932985 -0.1261272333 -0.1681867962 0.070185376
140299160.0 -0.1542237512 0.0780632795 0.5324586622 -0.1328983292 0.5327224912 -0.1329938674 -0.1667922268 0.0707976345
145299130.0 -0.1530790487 0.0788777946 0.5315719719 -0.1399053857 0.5314608038 -0.1396898293 -0.1661282907 0.0719049963
150299100.0 -0.1520393986 0.0799682378 0.5303411368 -0.1462092141 0.5303268422 -0.1460636512 -0.1652257266 0.0722702496
155299070.0 -0.1512189061 0.081255272 0.5288909509 -0.1528446658 0.5290259547 -0.1528877445 -0.1643984295 0.0735756615
160299040.0 -0.1500300344 0.0819673458 0.5274613398 -0.1588710579 0.5279284874 -0.1590957176 -0.163451512 0.0749583086
165299010.0 -0.1492331298 0.0832415998 0.5266264185 -0.1656754216 0.526682206 -0.1656723609 -0.1630232875 0.0755916317
170298980.0 -0.1485156609 0.0843975698 0.524161561 -0.1720269114 0.5246998595 -0.1716743727 -0.1617396843 0.0765096888
175298950.0 -0.1471068975 0.0856451344 0.523362184 -0.1779399173 0.5234969155 -0.1784587854 -0.1610357963 0.0775701228
180298920.0 -0.1463711671 0.0866586184 0.5211290364 -0.184535773 0.5215298455 -0.1844229712 -0.1600181875 0.0790403674
185298890.0 -0.145398176 0.0879179188 0.5193308004 -0.1906841797 0.5197404793 -0.1906385469 -0.1596652894 0.0795100662
190298860.0 -0.1445151516 0.0890554701 0.5179630619 -0.1970505237 0.5178625573 -0.1971259968 -0.1584217949 0.0808733279
195298830.0 -0.1434808916 0.0899887137 0.5155302098 -0.2029122316 0.5160392598 -0.2031948485 -0.1581239193 0.0820243085
200298800.0 -0.1424397214 0.0915925346 0.5136039603 -0.2084529383 0.5134640695 -0.2090098189 -0.1569426293 0.0836264997
205298770.0 -0.1417207971 0.0928149375 0.5119765646 -0.2145509317 0.5117966826 -0.2151716304 -0.1566798391 0.0841706639
210298740.0 -0.1408596331 0.0940925201 0.5089915742 -0.2212277186 0.5092580351 -0.2212020198 -0.1556012163 0.0856439527
215298710.0 -0.1397667004 0.0956685278 0.5071663316 -0.2269379196 0.506770986 -0.2269515063 -0.1550031429 0.0868043258
220298680.0 -0.1388730048 0.0968433889 0.5042941461 -0.2330877043 0.5046148567 -0.233042121 -0.1539018415 0.0883193982
225298650.0 -0.1377188057 0.0983406654 0.5017501261 -0.2384445177 0.5019104806 -0.2387697915 -0.1535527733 0.0894330797
230298620.0 -0.1367780231 0.0998192849 0.4998798277 -0.2446431288 0.4999598543 -0.2443643798 -0.1526847568 0.0906686627
235298590.0 -0.1360360596 0.1012077119 0.4971458433 -0.2505123457 0.4970902474 -0.2503680462 -0.1516654673 0.0917519824
240298560.0 -0.1351667723 0.1022877658 0.4943601271 -0.2554376763 0.4944566687 -0.2556843636 -0.1508602287 0.0930733503
245298530.0 -0.1336287114 0.1037903629 0.4907800423 -0.2615313859 0.4914933688 -0.2617903785 -0.1501976029 0.0945961787
250298500.0 -0.1331734509 0.1051915383 0.4884596365 -0.2668226431 0.4887896822 -0.2667886083 -0.1490257984 0.0955768695
255298470.0 -0.1318563785 0.1066880736 0.48536188 -0.2728764331 0.4858244042 -0.2728930142 -0.1483108806 0.096786756
260298440.0 -0.1310102429 0.1080144204 0.4830172518 -0.2782873485 0.4828791131 -0.2783428931 -0.1470720244 0.0983235494
265298410.0 -0.1295381929 0.1096533429 0.4795458751 -0.284324999 0.479553488 -0.2834811525 -0.1466411996 0.099580669
270298380.0 -0.1283140777 0.1108661898 0.4759865325 -0.2889072142 0.4766422748 -0.2895545173 -0.1455760686 0.1011443866
275298350.0 -0.1273295792 0.1124029213 0.4733899425 -0.2948450277 0.4736038875 -0.2954223404 -0.1442534273 0.1024614526
280298320.0 -0.1262873074 0.1138753255 0.4701774187 -0.2998883466 0.4699834561 -0.300442954 -0.1435712055 0.1037977758
285298290.0 -0.124804543 0.1156383701 0.4668755285 -0.3054158273 0.4668981938 -0.3057698839 -0.1425397264 0.1053355904
290298260.0 -0.1237479041 0.1167053056 0.4636009381 -0.310412875 0.4640747031 -0.3108041313 -0.1414818162 0.1067140348
295298230.0 -0.1225786807 0.1180302279 0.4605770078 -0.3159258421 0.4600597832 -0.3160796087 -0.1402284966 0.1080714834
300298200.0 -0.1209075672 0.1195244884 0.4566578784 -0.3213759538 0.4569215092 -0.321492922 -0.1394200496 0.1093578514
305298170.0 -0.119722448 0.1206184049 0.4535086788 -0.3269393938 0.4533554727 -0.326889542 -0.1378481179 0.1108664821
310298140.0 -0.1182351218 0.1217330495 0.4503756904 -0.332020448 0.4501803643 -0.3321229517 -0.1372462377 0.112373003
315298110.0 -0.1172904257 0.1231627991 0.4464561527 -0.3370442139 0.44681393 -0.337056291 -0.1358361466 0.1132117524
320298080.0 -0.1160347691 0.1246239376 0.442968621 -0.3420591632 0.4427500949 -0.3420176188 -0.1351010677 0.1144420506
325298050.0 -0.114813767 0.1255676709 0.4392150808 -0.3473552499 0.4388350441 -0.3478036428 -0.133934959 0.1159191804
330298020.0 -0.113587967 0.1270339114 0.4342955488 -0.3519684072 0.4344981398 -0.3523885097 -0.1329241972 0.11689389
335297990.0 -0.1122488722 0.127942587 0.4303981325 -0.3571493102 0.4308658035 -0.3574916114 -0.1319845026 0.1183716101
340297960.0 -0.1113003636 0.1297330509 0.4264502891 -0.3620485231 0.4268281282 -0.3619010404 -0.1312033799 0.1196339573
345297930.0 -0.1103062933 0.130984836 0.422682015 -0.3659592962 0.4219539235 -0.3663542056 -0.1298765192 0.1208217255
350297900.0 -0.1083152851 0.1325510596 0.417865676 -0.3706129444 0.4187974641 -0.3710437597 -0.128993447 0.1229334683
355297870.0 -0.1071696089 0.1337465058 0.4141606404 -0.3756221832 0.4142516948 -0.3757933509 -0.1281581738 0.124436752
360297840.0 -0.1054820059 0.1349790819 0.4098367103 -0.3804014535 0.4099639022 -0.3802776187 -0.126396073 0.1258902794
365297810.0 -0.1040158403 0.1364086363 0.405668985 -0.3847025058 0.4053437436 -0.3845651054 -0.1256037615 0.1273886228
370297780.0 -0.1025190461 0.1376778766 0.4013446139 -0.3890852858 0.4013647489 -0.389486268 -0.1241792335 0.1283610356
375297750.0 -0.1014231614 0.1393933261 0.3974955162 -0.3937523183 0.3972563111 -0.3937957504 -0.1231826278 0.1300458068
380297720.0 -0.099508449 0.1402091067 0.3928328774 -0.3979389551 0.3928782608 -0.3977509427 -0.1216492991 0.1313214346
385297690.0 -0.0980676939 0.1417901603 0.3888803115 -0.4019708269 0.3881920721 -0.4020489254 -0.1204855181 0.1329073385
390297660.0 -0.0964758114 0.1426568395 0.3837631681 -0.4067758034 0.3838504605 -0.4069906815 -0.1190203559 0.1341071541
395297630.0 -0.0950464881 0.1438481564 0.3795912396 -0.4103516774 0.3795956023 -0.4105180926 -0.1182295599 0.1358054067
400297600.0 -0.0936252566 0.145356465 0.374692065 -0.414867488 0.37541682 -0.4150792694 -0.1172815467 0.136772974
405297570.0 -0.0919259799 0.1463357501 0.3702145932 -0.4188176471 0.3705876542 -0.4192214015 -0.1157834104 0.1383800819
410297540.0 -0.0900113358 0.1474721526 0.3651538101 -0.4228013666 0.3655605368 -0.4229359405 -0.1143553957 0.1395068442
415297510.0 -0.0886637809 0.1489274213 0.3611514347 -0.4266714444 0.3610795839 -0.4272099472 -0.1130215166 0.1416065224
420297480.0 -0.0866296298 0.1495657534 0.3560552154 -0.4311562618 0.3563382662 -0.4311199988 -0.1117243048 0.1419730308
425297450.0 -0.0848099006 0.1507635145 0.3516477997 -0.4349566561 0.3520219891 -0.4347024567 -0.1102153115 0.1439177589
430297420.0 -0.0836032831 0.1519897848 0.3470990893 -0.4391939567 0.3466760075 -0.4385379848 -0.1088191468 0.1446107728
435297390.0 -0.0814968624 0.1529299211 0.342176551 -0.4419700071 0.3422058019 -0.4423443763 -0.1076586155 0.1464751311
440297360.0 -0.0798350279 0.1538288976 0.3366586533 -0.4457926418 0.3367099555 -0.4458671114 -0.1063622011 0.1471443627
445297330.0 -0.078148152 0.1551404126 0.3321762496 -0.4497296881 0.3322967213 -0.449704311 -0.1048715737 0.1484269894
450297300.0 -0.0764467658 0.1560090921 0.3269878743 -0.4532546093 0.3271017392 -0.4533527461 -0.1033727733 0.1498167657
455297270.0 -0.07520049 0.1567659157 0.3225611694 -0.4562906608 0.3225352902 -0.4565987622 -0.1019077145 0.1512810412
460297240.0 -0.0735429766 0.1579975751 0.3171823071 -0.4596259885 0.3166294435 -0.4602487484 -0.1003958455 0.1527639514
465297210.0 -0.0711040514 0.1588187013 0.3123294502 -0.4637777384 0.3126095732 -0.4636564046 -0.0994893889 0.1534992125
470297180.0 -0.0695774808 0.1597815265 0.3076625893 -0.4665798548 0.3076100287 -0.4669904676 -0.0979984881 0.1545870063
475297150.0 -0.0678436256 0.160409584 0.3021378897 -0.4700144639 0.3021659561 -0.47006791 -0.0962312988 0.1558278497
480297120.0 -0.0659563243 0.1612337336 0.2968552852 -0.4730959924 0.2969929888 -0.4737392498 -0.0949548631 0.1575629744
485297090.0 -0.0638103543 0.162115619 0.2919770509 -0.476524003 0.2921074384 -0.4766985939 -0.0937351772 0.1578465284
490297060.0 -0.0620518649 0.1628573772 0.2865105026 -0.4800488778 0.2867706224 -0.4799775814 -0.0921591889 0.1594140865
495297030.0 -0.060797414 0.1638157023 0.2813519182 -0.4826449565 0.2812806516 -0.4832119781 -0.0904078911 0.1601701984
500297000.0 -0.0584859022 0.1644518257 0.2759834513 -0.4860582795 0.2761385151 -0.4860442932 -0.0892493036 0.1612621879
505296970.0 -0.0568547858 0.1651470951 0.2701972243 -0.4881701002 0.2704117563 -0.4884734951 -0.08799355 0.162429353
510296940.0 -0.0547424711 0.1662068325 0.2652452723 -0.4918354514 0.2653569201 -0.4918238985 -0.0859366409 0.1636949256
515296910.0 -0.0532639227 0.16711681 0.2596905942 -0.4941573514 0.2602662596 -0.4942369729 -0.0846693466 0.1647574422
520296880.0 -0.0511987411 0.167582066 0.2542916943 -0.497255549 0.2548861379 -0.496977201 -0.082498695 0.1655527724
525296850.0 -0.049524352 0.1682747433 0.2491320085 -0.4996926823 0.2491775499 -0.5005836952 -0.0811217302 0.1664968492
530296820.0 -0.0474552017 0.1687886141 0.2436266285 -0.5017857015 0.243780956 -0.5025489203 -0.0800163095 0.1674399745
535296790.0 -0.0457372778 0.1697439616 0.2380518192 -0.5045939253 0.2383256857 -0.5047432647 -0.0783824625 0.1682479886
540296760.0 -0.0439880135 0.16981732 0.2328665122 -0.5076139346 0.232458991 -0.5078757725 -0.0770717213 0.1694890749
545296730.0 -0.0420138464 0.1709367351 0.227130263 -0.5103153726 0.2273030972 -0.5100493152 -0.0754036183 0.1699490509
550296700.0 -0.0401716649 0.1713125727 0.222162708 -0.5125152435 0.2219251448 -0.5129705242 -0.0736577234 0.1710402198
555296670.0 -0.0380731429 0.1719532723 0.2162054268 -0.5152837924 0.2161751383 -0.5147245694 -0.0722040856 0.1722285499
560296640.0 -0.0363439289 0.1722053061 0.2105911773 -0.5166083582 0.2103701114 -0.5171789125 -0.0704483382 0.1730804102
565296610.0 -0.0346053597 0.1734088414 0.2049752931 -0.5198300246 0.2048190538 -0.5197085178 -0.0691609321 0.1737166901
570296580.0 -0.032282597 0.1736127115 0.1990856942 -0.5213986221 0.1992681191 -0.5216354225 -0.0671095392 0.175133189
575296550.0 -0.0301792032 0.1741474339 0.193482057 -0.5231555335 0.1938905312 -0.5232795084 -0.0652274868 0.1755219843
580296520.0 -0.028479302 0.1745994679 0.1883034318 -0.5253899273 0.1878589998 -0.5255370004 -0.0640618438 0.1760719508
585296490.0 -0.0265147936 0.1747288189 0.1825300548 -0.5276555697 0.1821406596 -0.5275395007 -0.0629017611 0.1765853586
590296460.0 -0.0248237238 0.1749902173 0.1765683953 -0.5292054513 0.1765427431 -0.5296240167 -0.0605856624 0.1775365185
595296430.0 -0.0226247734 0.1760707061 0.1710637933 -0.531371636 0.1708514581 -0.5314142113 -0.0591363008 0.1783840384
600296400.0 -0.0207167923 0.176100334 0.1652830186 -0.5330152616 0.1652908465 -0.5331716091 -0.057476779 0.1793691978
605296370.0 -0.0187629361 0.1766425754 0.1592288859 -0.5349778095 0.159261335 -0.5346794253 -0.0554691067 0.1798193157
610296340.0 -0.0167462929 0.177068315 0.1536893617 -0.5366798527 0.1537932131 -0.5365910824 -0.0540324693 0.1807666718
615296310.0 -0.0148190845 0.1773864574 0.1476455574 -0.5378019305 0.1475507745 -0.5381033404 -0.0522267611 0.1810429004
620296280.0 -0.0127930411 0.1774098675 0.141983605 -0.5397294468 0.1418555222 -0.5397853616 -0.0505643779 0.1814435834
625296250.0 -0.0107556915 0.1779155611 0.1356265369 -0.5413121577 0.1361130499 -0.5415812417 -0.0487832521 0.1827114543
630296220.0 -0.0088095289 0.1781681231 0.1301037225 -0.5426846616 0.1303666466 -0.5425571933 -0.0472634136 0.182949734
635296190.0 -0.0066720882 0.1782021657 0.1244957264 -0.5432108405 0.1242982439 -0.5435947153 -0.0454954719 0.183404411
640296160.0 -0.0049418652 0.1783378807 0.1184485662 -0.5450162008 0.1183792634 -0.5451958404 -0.0430479679 0.1840378673
645296130.0 -0.0031319021 0.1792929571 0.1125996799 -0.546645871 0.1125596366 -0.5462303044 -0.0422732577 0.1845344358
650296100.0 -0.0008379885 0.1795094213 0.1068932582 -0.5474246823 0.1072643437 -0.5473666134 -0.0405086909 0.1851642825
655296070.0 0.0007522288 0.1791085076 0.1010195233 -0.5485133218 0.1005493648 -0.5485015741 -0.0382027821 0.1858216221
660296040.0 0.0025507958 0.1797723261 0.0954558883 -0.5495761141 0.0952577549 -0.5495782026 -0.036823173 0.1861588984
665296010.0 0.0049384385 0.1794216604 0.0891591425 -0.5503553173 0.0893857458 -0.5504211865 -0.0352356994 0.1870105792
670295980.0 0.007370554 0.1798246661 0.0827058956 -0.5512855636 0.0836719773 -0.5514728692 -0.033977496 0.1874688832
675295950.0 0.0091420086 0.1797847708 0.0767965399 -0.5520287833 0.0770609877 -0.552634788 -0.0313544292 0.1878739518
680295920.0 0.0108116826 0.1799690332 0.0713001569 -0.5529059396 0.0706674022 -0.5530908772 -0.0291256491 0.1882770011
685295890.0 0.0130868206 0.1799441683 0.0652923989 -0.5536136669 0.0649460446 -0.5538476644 -0.0277073831 0.1887434427
690295860.0 0.0152334884 0.1798962914 0.0593658384 -0.5537255929 0.0587709443 -0.5541879714 -0.0258815769 0.1891370368
695295830.0 0.0172890882 0.1797200923 0.0523778623 -0.5546972524 0.0526402572 -0.5551785193 -0.0244148016 0.1895476936
700295800.0 0.0193350044 0.179706814 0.046858415 -0.5555006585 0.0469024391 -0.5553923573 -0.0220619696 0.1893756098
705295770.0 0.021506963 0.1798252271 0.0412419927 -0.5557140582 0.0414480226 -0.5558099103 -0.0207860074 0.1901941365
710295740.0 0.0233334118 0.1799997744 0.0350083207 -0.5561419859 0.0350871889 -0.5561458873 -0.0195148726 0.1904706616
715295710.0 0.0253211616 0.1796922345 0.0289336458 -0.5564910984 0.0294795011 -0.5568025943 -0.0171190876 0.1904579747
720295680.0 0.0270434606 0.1795408674 0.0229401234 -0.556547452 0.0231373566 -0.5570358153 -0.0150698736 0.1911105259
725295650.0 0.0298075416 0.1793948102 0.0167285372 -0.5567503836 0.0167941734 -0.5569952405 -0.0129141681 0.1915279425
730295620.0 0.0311966063 0.1790343986 0.0108105101 -0.5570203737 0.0109324372 -0.557071096 -0.011460374 0.1912234107
735295590.0 0.0336490525 0.1787298693 0.0050850367 -0.5572379338 0.0053822444 -0.557307826 -0.0092072432 0.1918975473
740295560.0 0.0353580654 0.1788721903 -0.0007660088 -0.5571543211 -0.0012451832 -0.5570450224 -0.0075357368 0.1918879687
745295530.0 0.0372506897 0.1784495237 -0.0068400534 -0.5570670259 -0.0067097465 -0.5570176783 -0.0058736527 0.1923267571
750295500.0 0.0392666538 0.1779992166 -0.0129071075 -0.5562713364 -0.0127335522 -0.55684618 -0.0039562387 0.1920141336
755295470.0 0.0418820508 0.1780772085 -0.0189757403 -0.5565499119 -0.0184395691 -0.5566583958 -0.0027159582 0.1926736242
760295440.0 0.0434327286 0.1777064313 -0.0249553885 -0.5564185179 -0.02508624 -0.556576998 -0.000670702 0.1930207647
765295410.0 0.0452477733 0.1770014686 -0.0305032817 -0.555812016 -0.0307206617 -0.5563541493 0.001978631 0.1931887289
770295380.0 0.0474794468 0.1770034082 -0.0368398529 -0.5553217627 -0.0369511975 -0.5559105805 0.0038892226 0.1933139209
775295350.0 0.0493378732 0.1767724632 -0.0426102631 -0.5550271563 -0.0427074594 -0.5553221854 0.0049001798 0.1927687287
780295320.0 0.0515410458 0.1761321308 -0.0485967756 -0.5545996026 -0.0484554533 -0.5548775128 0.0073228814 0.1935244843
785295290.0 0.0534141242 0.1760868268 -0.0548349756 -0.553840989 -0.0546012107 -0.5543162278 0.0086670827 0.1933294986
790295260.0 0.055530631 0.1757431919 -0.0606425595 -0.553708404 -0.0606741696 -0.5540339257 0.0112966721 0.1933126913
795295230.0 0.0573837294 0.1751828531 -0.0661724185 -0.5524122298 -0.0664277669 -0.5526844406 0.0128596173 0.194060245
800295200.0 0.0595322811 0.174555194 -0.0730654514 -0.5519596688 -0.0729485071 -0.5520534057 0.0148178924 0.1937788192
805295170.0 0.0610881127 0.1740003239 -0.0781910006 -0.5508557911 -0.0787455655 -0.5510467594 0.0165394764 0.1933417298
810295140.0 0.0632258466 0.1734124054 -0.0841337364 -0.5497509794 -0.0844802415 -0.5509233676 0.0185550302 0.1938673478
815295110.0 0.0652755493 0.1729871735 -0.0907471659 -0.5488902175 -0.0903489083 -0.5489570838 0.0203230628 0.19365962
820295080.0 0.0670848701 0.1720959982 -0.0961842512 -0.5482169217 -0.0960616444 -0.5484818185 0.0220691212 0.1934667174
825295050.0 0.0691709385 0.1716519382 -0.1019667413 -0.5468399897 -0.1022358087 -0.5472021166 0.0243663583 0.1935360852
830295020.0 0.0708798353 0.1711436047 -0.108374944 -0.5457081584 -0.1082975279 -0.5461890751 0.0258110274 0.1936469587
