!Created with skrf (http://scikit-rf.org).
# Hz S RI R 50.0 
!freq ReS11 ImS11 ReS21 ImS21 ReS12 ImS12 ReS22 ImS22
300000.0 -0.0959208496 -0.0992554152 0.6234795606 0.0913802206 0.6213455165 0.0919151404 -0.0960967109 -0.1033511925
5299970.0 -0.1015791539 0.0112531427 0.6304242231 0.0114178259 0.6307671327 0.011336268 -0.1018493867 0.0112693621
10299940.0 -0.0969247205 0.0286930344 0.6345990464 0.0158503728 0.6347356708 0.0165641898 -0.0963826764 0.0284708842
15299910.0 -0.0890858016 0.0424463358 0.640636439 0.0212559837 0.6407866115 0.0213710548 -0.0898764116 0.0418784668
20299880.0 -0.0806368151 0.0535287506 0.6493792762 0.0241826884 0.6491733574 0.0243480179 -0.0810564205 0.0529391579
25299850.0 -0.0701428933 0.0623340567 0.6584660433 0.0262686123 0.6580735655 0.0259501914 -0.0716017029 0.0617806499
30299820.0 -0.0609882784 0.0687113972 0.6682405365 0.0246079924 0.667835766 0.0244955187 -0.0621027218 0.0683091742
35299790.0 -0.0507466221 0.073577112 0.6773914837 0.0219027986 0.6773948266 0.0219499854 -0.0524228775 0.0736840188
40299760.0 -0.0411366596 0.0764990196 0.6867173569 0.0177535128 0.686937084 0.0174623342 -0.0426764279 0.0768475359
45299730.0 -0.0318686745 0.0780176704 0.6959554156 0.0123951406 0.695915915 0.0120316069 -0.0332445937 0.0790739768
50299700.0 -0.0228415831 0.079113925 0.704159545 0.004914695 0.7039330123 0.0049366457 -0.0246032026 0.0804859631
55299670.0 -0.0153643845 0.0789326329 0.7113237417 -0.0021080823 0.71064293 -0.0024677797 -0.0174399912 0.0804626394
60299640.0 -0.0077069603 0.078875121 0.7180215418 -0.0109709946 0.718139978 -0.0113140141 -0.0095922455 0.0795944197
65299610.0 -0.0011691177 0.0771344334 0.724224443 -0.0194939503 0.7241966909 -0.0197749703 -0.0026674872 0.0784666398
70299580.0 0.0052068312 0.0750913995 0.7291551481 -0.0287890513 0.729378052 -0.0289919816 0.0027374267 0.0771857134
75299550.0 0.0104181613 0.0733343089 0.7332459096 -0.0388987078 0.7333284291 -0.0388445842 0.0085471427 0.0753709553
80299520.0 0.0152952865 0.0713338442 0.7378065879 -0.0481905129 0.7377968571 -0.0487467973 0.0138140253 0.0733133275
85299490.0 0.0199622362 0.0690593655 0.7411026609 -0.0584613442 0.7411743736 -0.0583194227 0.0181529699 0.0709487043
90299460.0 0.0236885418 0.0666266571 0.7434536659 -0.06874094 0.7434717914 -0.0682712892 0.0225065031 0.0693867838
95299430.0 0.0280805008 0.0642272232 0.7459753279 -0.0790790184 0.7461154237 -0.0791629655 0.0258054915 0.0666126234
100299400.0 0.0313174103 0.0615778417 0.7476514159 -0.0888057994 0.7476141051 -0.0888158859 0.0289954287 0.0646111467
105299370.0 0.0346649263 0.0591403391 0.7488827488 -0.0985818856 0.7498183123 -0.0988135076 0.032567162 0.0618194555
110299340.0 0.0372618608 0.0564251043 0.7505364904 -0.1082263398 0.7509116403 -0.1085843283 0.0349813416 0.0592743675
115299310.0 0.0395199772 0.0541857029 0.7516901883 -0.118538184 0.7513440566 -0.1184655802 0.037372665 0.0576333178
120299280.0 0.0415222811 0.0520947846 0.7521569287 -0.1297263097 0.7519571224 -0.1298189636 0.0399037969 0.0546683323
125299250.0 0.0437090289 0.049692436 0.7519404113 -0.1388078496 0.7520324235 -0.1384635525 0.0419633647 0.0526530822
130299220.0 0.0457594762 0.0472267514 0.7522644142 -0.1490410363 0.7520100734 -0.1494706533 0.0438509712 0.0507870061
135299190.0 0.0468671991 0.045627282 0.7521385591 -0.1585003695 0.7520964304 -0.1587300581 0.0455448478 0.0480179651
140299160.0 0.0489983832 0.0432094074 0.7519742692 -0.1690128451 0.7511153963 -0.1686029583 0.0462601053 0.0455701037
145299130.0 0.0494118468 0.0410121421 0.7502049152 -0.1782000333 0.750468707 -0.1780014324 0.0478956798 0.0437629778
150299100.0 0.050897557 0.0392094314 0.7491948312 -0.188128085 0.7494302852 -0.1876133662 0.0489756801 0.0422556288
155299070.0 0.0525398188 0.0370637951 0.7479866655 -0.1975785639 0.7481607481 -0.1975783794 0.0503306501 0.0396196647
160299040.0 0.0534255634 0.0355066408 0.7467724292 -0.207179412 0.7465118616 -0.2070114857 0.0511224083 0.038062842
165299010.0 0.0543859017 0.0333264915 0.7455163033 -0.2163842381 0.7447743123 -0.2162467631 0.0522955179 0.035772662
170298980.0 0.0551437546 0.0317739267 0.7435118203 -0.2257860329 0.7433602867 -0.2261796972 0.0525677073 0.0342065204
175298950.0 0.0561293627 0.030115164 0.7416949103 -0.2350324485 0.7416396159 -0.2356917227 0.0533100086 0.0324500592
180298920.0 0.0563886931 0.0288709733 0.7393684912 -0.2447060107 0.739424634 -0.2446155638 0.0543070062 0.0309743649
185298890.0 0.0566002682 0.0271244532 0.7375642007 -0.2531289327 0.7374734941 -0.2533466503 0.0552021163 0.028974194
190298860.0 0.0580089669 0.0257280646 0.7343062059 -0.2627199659 0.7348999022 -0.26268848 0.0552389081 0.0273147746
195298830.0 0.0578911419 0.0241948218 0.7330840853 -0.271432202 0.7327806504 -0.2716550912 0.0556668803 0.0258317267
200298800.0 0.0584933836 0.0224374515 0.7298494244 -0.2808300497 0.7302741559 -0.2806082513 0.0561844952 0.023993157
205298770.0 0.0582437659 0.0209473163 0.7266937012 -0.2896503003 0.7271975455 -0.289269842 0.056901392 0.022646594
210298740.0 0.0590119666 0.0197864558 0.7244427752 -0.2981427997 0.7231676766 -0.2980952702 0.0564288517 0.0209861241
215298710.0 0.0593100334 0.0186356358 0.7210345404 -0.306569746 0.7208748053 -0.3071170034 0.0571920352 0.0198582849
220298680.0 0.0598514299 0.0176831452 0.7177130429 -0.3152543334 0.7176229656 -0.3160028123 0.0573962506 0.0181552187
225298650.0 0.0596774358 0.0160958551 0.7142764966 -0.3239330037 0.7145109845 -0.3236313482 0.0574564417 0.0165566925
230298620.0 0.0602925443 0.0151519951 0.7114020456 -0.3325904278 0.7111513917 -0.3327417216 0.0572188415 0.0153265428
235298590.0 0.0600340313 0.013708971 0.7082903601 -0.3419208728 0.7078761909 -0.3409500646 0.0576746477 0.0142633676
240298560.0 0.0603294136 0.0127574368 0.7042344266 -0.3493325584 0.703858399 -0.3495271087 0.0575601575 0.0129476933
245298530.0 0.0601973662 0.0112164519 0.7006789497 -0.3580149658 0.7004466469 -0.3578242783 0.0578636565 0.0118425618
250298500.0 0.0600375378 0.0102953339 0.6969434851 -0.3662364984 0.696552623 -0.3655959532 0.0578368447 0.0104224134
255298470.0 0.0603480417 0.0096191123 0.6931961918 -0.3739119494 0.6933957635 -0.3744982566 0.0581301325 0.0101058738
260298440.0 0.0606603068 0.008318176 0.6897766121 -0.3820153142 0.6892765957 -0.3822848536 0.0576706288 0.0079658953
265298410.0 0.0600763216 0.0076086216 0.6849241487 -0.3909552565 0.684676901 -0.39074439 0.058747143 0.00666119
270298380.0 0.0601431985 0.0063154298 0.6804459749 -0.3981420115 0.6810584046 -0.3982252604 0.058177339 0.0058569162
275298350.0 0.0603029362 0.0059775645 0.6756487978 -0.4058485955 0.6754984978 -0.4062813805 0.0580510958 0.0050640499
280298320.0 0.0597213091 0.0044376768 0.6718029021 -0.4133338725 0.6722519276 -0.4140967278 0.0585997404 0.0039169164
285298290.0 0.0600906742 0.0035923678 0.6670578432 -0.4220892961 0.6676845561 -0.4216655769 0.0580860979 0.0027233566
290298260.0 0.0599401742 0.0027420008 0.6635603349 -0.4296662268 0.663376159 -0.4295862564 0.058281175 0.0017371023
295298230.0 0.0602054302 0.001249138 0.6589919968 -0.4381287497 0.6585874241 -0.4377354123 0.0578201934 0.0004499282
300298200.0 0.0602378109 0.0010562367 0.6543110815 -0.4450066568 0.6538701435 -0.4449962566 0.0579280047 -0.0007559291
305298170.0 0.0602303735 -0.0009763263 0.649044216 -0.4529744067 0.6491850854 -0.4531870494 0.0579044051 -0.0023487954
310298140.0 0.0603464291 -0.0014090459 0.6447647553 -0.4603905495 0.6440364369 -0.4601250669 0.0581487499 -0.0035581891
315298110.0 0.0598203856 -0.0030871513 0.6390034246 -0.4685275266 0.6389768131 -0.4684100728 0.0576575842 -0.0045002551
320298080.0 0.0595566012 -0.003860716 0.6328787759 -0.475758019 0.634401014 -0.4762287705 0.0570311248 -0.0055496508
325298050.0 0.0585079285 -0.0054638089 0.6281023779 -0.4829340358 0.6290018518 -0.4830939299 0.0568297371 -0.0065281253
330298020.0 0.0575916954 -0.0059783532 0.6227040843 -0.4909006634 0.6235025198 -0.4905045447 0.0561598934 -0.0078461951
335297990.0 0.0576032187 -0.0065254773 0.6174143703 -0.4978684506 0.6173602851 -0.497868667 0.0556636469 -0.0088982868
340297960.0 0.0569269057 -0.0075464014 0.6110136351 -0.5047212443 0.6108496452 -0.5044400789 0.0550327846 -0.0093434105
345297930.0 0.056461401 -0.0084680773 0.6064204467 -0.511761923 0.6057124322 -0.5116825567 0.0553448246 -0.0103721081
350297900.0 0.0557482665 -0.0089902181 0.6007614182 -0.517990965 0.6001719262 -0.5180396409 0.0547435464 -0.0114872891
355297870.0 0.0555577608 -0.0098331501 0.5945175232 -0.524044153 0.5941442207 -0.5244276722 0.054570556 -0.0120621391
360297840.0 0.055246365 -0.0101109709 0.5879438404 -0.5316713252 0.5883990152 -0.5316819498 0.0533966743 -0.0125565678
365297810.0 0.0545944805 -0.0107827156 0.5823948972 -0.5375087863 0.5825220466 -0.5383471004 0.0529261993 -0.0132091229
370297780.0 0.0547971537 -0.0113947282 0.5761695902 -0.5445121564 0.5766460768 -0.5441792011 0.052785409 -0.0140766333
375297750.0 0.0541800097 -0.0120289618 0.5705372638 -0.5505722558 0.5709278886 -0.551125123 0.0529787464 -0.014647061
380297720.0 0.0534943206 -0.0128197911 0.5649359793 -0.5574906928 0.5644853614 -0.5576309153 0.0523318333 -0.0152633836
385297690.0 0.0532528631 -0.0135186872 0.5580273949 -0.5634629779 0.5585111586 -0.5643757392 0.0520342949 -0.0152634517
390297660.0 0.0529007047 -0.0141561443 0.552112026 -0.5689074186 0.5521964169 -0.5701701093 0.0522798707 -0.0168094681
395297630.0 0.0533058765 -0.0148661213 0.5461967993 -0.575432255 0.5460775322 -0.5757325411 0.0512514236 -0.0172740655
400297600.0 0.052246569 -0.0158784203 0.5397031525 -0.5821614361 0.5401266064 -0.5822320776 0.0512641523 -0.0174774915
405297570.0 0.0517933315 -0.0169075637 0.5332243055 -0.5876555229 0.5332305359 -0.5876483767 0.0508438648 -0.0176338588
410297540.0 0.0515311828 -0.0164648116 0.5264039234 -0.594180575 0.5269826609 -0.593519574 0.0502948577 -0.0189035819
415297510.0 0.0508269679 -0.017317094 0.5197532374 -0.5995912832 0.520302551 -0.5998002109 0.0507071284 -0.0190102201
420297480.0 0.0507776962 -0.01844482 0.5136784839 -0.6052454475 0.5136982661 -0.6053341163 0.0502137664 -0.0195477855
425297450.0 0.0509775404 -0.0186931356 0.5069471051 -0.6105386577 0.5067105616 -0.6110668582 0.0496799914 -0.0206051213
430297420.0 0.0499672382 -0.0192410798 0.5004849283 -0.6165912729 0.5004836479 -0.6166221012 0.0499980548 -0.0210972824
435297390.0 0.0498390524 -0.0203512057 0.4932264767 -0.6229443349 0.49299482 -0.6224011423 0.04892921 -0.0214999147
440297360.0 0.0497479608 -0.0212687156 0.4862750316 -0.6283723165 0.4860572689 -0.6278060074 0.048648188 -0.0218104636
445297330.0 0.0494353369 -0.0220397116 0.479389254 -0.632684672 0.4794856437 -0.6331611378 0.0484491269 -0.0221496492
450297300.0 0.0489994808 -0.0220953227 0.4728940407 -0.6382316023 0.4732070129 -0.6382351984 0.0480469933 -0.0226806824
455297270.0 0.0479441797 -0.022948012 0.4663395718 -0.6433290227 0.466004019 -0.6436536364 0.0478640888 -0.0234444982
460297240.0 0.0482821519 -0.0233160566 0.4589755709 -0.6493603508 0.4586178144 -0.6491198588 0.0475410385 -0.0241861032
465297210.0 0.0477241342 -0.0240780249 0.4510178066 -0.6540319885 0.4513322748 -0.6538920536 0.0476334452 -0.0238820303
470297180.0 0.0475130497 -0.0250307151 0.4445088184 -0.6581469491 0.4444055157 -0.6587569959 0.0469052949 -0.0252741303
475297150.0 0.0464258068 -0.0250651357 0.4368237126 -0.6639165269 0.4374042641 -0.6634401329 0.0465190522 -0.0258697667
480297120.0 0.0468495104 -0.0252012454 0.4293639033 -0.6687287548 0.4299186947 -0.6682812243 0.0459319144 -0.026282136
485297090.0 0.0462075502 -0.0267557207 0.421688618 -0.6736001631 0.4224697974 -0.6730295694 0.0459593427 -0.026276631
490297060.0 0.0463977811 -0.0266788245 0.4145863408 -0.6775036364 0.4147180172 -0.6779378596 0.0452995498 -0.0270630722
495297030.0 0.0451729261 -0.0277713262 0.407792875 -0.6822568996 0.4075559113 -0.6825819954 0.045460315 -0.0276294503
500297000.0 0.0448739197 -0.0277821318 0.3997738837 -0.686715168 0.3998551089 -0.6867459141 0.0447372039 -0.0280403419
505296970.0 0.0450371635 -0.028429407 0.3927698014 -0.6912707028 0.3925362088 -0.6912495181 0.0443653594 -0.0290842452
510296940.0 0.0442240208 -0.0293360621 0.384691828 -0.6960058175 0.3853099959 -0.6964441742 0.0441159849 -0.028810442
515296910.0 0.0436008178 -0.029159245 0.3768078198 -0.6999836379 0.3766097276 -0.700219356 0.043881966 -0.0301947196
520296880.0 0.0434867881 -0.029416271 0.3694911467 -0.7035912461 0.3695374068 -0.7039139457 0.0436677809 -0.0295682792
525296850.0 0.0431441233 -0.0302017506 0.3617218644 -0.7075402986 0.3619089912 -0.7080238891 0.0437028107 -0.0305189922
530296820.0 0.0425979741 -0.0309755228 0.3540662893 -0.71191165 0.3541753765 -0.7119860495 0.042964878 -0.0312278753
535296790.0 0.0427138969 -0.0310714805 0.3460933494 -0.7157920704 0.3463837166 -0.7156760608 0.04303664 -0.0312627099
540296760.0 0.0421180089 -0.0311507027 0.3377834037 -0.7188884818 0.3380676468 -0.7192289344 0.0424101603 -0.0325058032
545296730.0 0.0409622123 -0.0319237938 0.3303521157 -0.7229885846 0.3307266319 -0.7226995683 0.0417619298 -0.0326394251
550296700.0 0.0417009702 -0.032236127 0.3227592438 -0.7268533291 0.3223949311 -0.7270628406 0.0416716002 -0.0328564479
555296670.0 0.0407943068 -0.0326762222 0.3141893071 -0.7308171821 0.3151125295 -0.7301196462 0.0409659173 -0.0344137179
560296640.0 0.0409806357 -0.0332055625 0.3060019279 -0.733409865 0.3068688451 -0.7337856699 0.0406253467 -0.0337595992
565296610.0 0.0398950148 -0.0334555427 0.2988589046 -0.7374091275 0.2986943716 -0.7362880225 0.0401650973 -0.0342037514
570296580.0 0.0391482233 -0.0338796053 0.2902927154 -0.7398028999 0.2904160838 -0.7404624359 0.0396067737 -0.0350687316
575296550.0 0.0390842864 -0.0343176183 0.2826022612 -0.7435965679 0.2818632047 -0.7434511758 0.0392272092 -0.035161711
580296520.0 0.0387194326 -0.0341212349 0.2742032901 -0.7462836934 0.2739070844 -0.7470786539 0.0385034884 -0.0356091036
585296490.0 0.0384453696 -0.0347231733 0.2661334744 -0.7491906636 0.2661443415 -0.7489712722 0.0384923362 -0.0358010166
590296460.0 0.0385061327 -0.0349135972 0.258123338 -0.75239165 0.2579703734 -0.7526391117 0.0374596282 -0.0359900004
595296430.0 0.0376321616 -0.0354352433 0.248650688 -0.7554701665 0.2491229367 -0.7553833427 0.0373625726 -0.0368681163
600296400.0 0.0376342624 -0.0355839587 0.2404929802 -0.7576274306 0.2414424607 -0.7576416365 0.0371832636 -0.0373630063
605296370.0 0.0362834732 -0.035907893 0.2333060115 -0.7605021139 0.2327929315 -0.7603152275 0.0363097421 -0.0377229084
610296340.0 0.0364462763 -0.0357144661 0.2242539539 -0.7619155094 0.2246030366 -0.763064976 0.0354526561 -0.0377123279
615296310.0 0.0361436209 -0.0362848975 0.2162227644 -0.7658568079 0.2155693965 -0.7651664324 0.0355202312 -0.0380222667
620296280.0 0.0352093913 -0.0361329898 0.207973458 -0.767850029 0.2076648625 -0.7674674591 0.0344759719 -0.0383704915
625296250.0 0.034819685 -0.0365290619 0.1992227943 -0.7705445633 0.1997799666 -0.770149281 0.0337728772 -0.0389063644
630296220.0 0.0342813808 -0.0367795838 0.190565194 -0.7730031686 0.1906105246 -0.7719594945 0.0336057258 -0.0391011379
635296190.0 0.0333778805 -0.0366369285 0.1823786869 -0.7739997463 0.1826195796 -0.7738681673 0.0332054162 -0.0394713391
640296160.0 0.0328784974 -0.0373085912 0.1740955577 -0.7763196173 0.1740161261 -0.7761038907 0.0321620384 -0.0397905091
645296130.0 0.0330486393 -0.0367482235 0.1650028566 -0.7778340977 0.1659422104 -0.7775997457 0.0314915395 -0.0407047501
650296100.0 0.0322639811 -0.0372027625 0.1571259834 -0.7799741119 0.1570995099 -0.7799355301 0.032069391 -0.040430393
655296070.0 0.0316444555 -0.0373819301 0.1477027684 -0.7814290746 0.1486218627 -0.7809391107 0.0303926604 -0.0404031393
660296040.0 0.031280025 -0.037641366 0.1403808403 -0.7829459935 0.1401734688 -0.7830322944 0.0298958973 -0.0413634982
665296010.0 0.0308013791 -0.0380137116 0.1308810939 -0.7836457589 0.1316905545 -0.7839386431 0.0295908165 -0.0412288824
670295980.0 0.0302252106 -0.0378462284 0.1230287645 -0.7856688788 0.1225559605 -0.7851420334 0.028358009 -0.041618378
675295950.0 0.0294099262 -0.0379091842 0.114508058 -0.7863336716 0.1142962407 -0.7871028916 0.0279145414 -0.0414059423
680295920.0 0.0286960829 -0.0379290331 0.1056167438 -0.7878300255 0.1060071959 -0.7880704039 0.0278777289 -0.0423399167
685295890.0 0.028570119 -0.0377492036 0.0972722662 -0.7894851833 0.0972514147 -0.7893361369 0.0273270083 -0.0415027135
690295860.0 0.0274926634 -0.0380084149 0.0880896073 -0.7903247413 0.0886545796 -0.7904886625 0.0264548788 -0.0424403545
695295830.0 0.0275020913 -0.0385336137 0.0805002759 -0.791137781 0.0800458103 -0.7912676163 0.0258108121 -0.0420787009
700295800.0 0.0268604693 -0.0381281856 0.0717183419 -0.7917332618 0.0715136354 -0.7914728835 0.0250911288 -0.0424795126
705295770.0 0.0260032142 -0.0382898897 0.0624830898 -0.7928557265 0.0627879061 -0.7921918298 0.0243909338 -0.0423042306
710295740.0 0.0253929771 -0.0383223508 0.0543264738 -0.7931375693 0.0540531099 -0.793284678 0.0240612911 -0.0423568015
715295710.0 0.0248963982 -0.0380382669 0.0457980716 -0.7938561844 0.0456791179 -0.7941315541 0.0232378841 -0.0426972823
720295680.0 0.0247789054 -0.0383529636 0.0371532194 -0.7939977514 0.0373227002 -0.7942637006 0.0228618346 -0.0429028532
725295650.0 0.0232065661 -0.0379999597 0.0281914588 -0.7942356969 0.0283094556 -0.7946637172 0.0214835526 -0.0423141019
730295620.0 0.0219976099 -0.0387690885 0.0195784184 -0.7948348258 0.0201277694 -0.7938451848 0.0208873945 -0.0423648246
735295590.0 0.0225402475 -0.0385694288 0.0105600898 -0.7949722035 0.0109517383 -0.7944877439 0.0202671751 -0.043186773
740295560.0 0.0218410434 -0.0387837623 0.0027986171 -0.7951642498 0.0027316458 -0.7950038195 0.0193386678 -0.0424037493
745295530.0 0.0210003734 -0.0382741211 -0.0060534349 -0.7934763295 -0.0055481297 -0.7945032796 0.0182151604 -0.0431369433
750295500.0 0.0201070979 -0.0383505896 -0.0145425623 -0.794938789 -0.0149272694 -0.7950154121 0.017792457 -0.0427557893
755295470.0 0.0195148743 -0.0382387987 -0.0228709373 -0.7947369387 -0.0234714686 -0.7946894228 0.0178691906 -0.0420766786
760295440.0 0.0189043374 -0.0380475205 -0.0329432154 -0.7937691721 -0.0321674808 -0.7936653514 0.0171567064 -0.0437200984
765295410.0 0.0184668597 -0.0383169421 -0.0408844477 -0.7941430969 -0.0402934894 -0.7939780349 0.0162586069 -0.0430968452
770295380.0 0.0179758589 -0.0379848011 -0.0490128447 -0.7928792938 -0.0488882287 -0.7937383985 0.0153245682 -0.042731769
775295350.0 0.0172319821 -0.038542278 -0.057484729 -0.7932087356 -0.0574071919 -0.791943175 0.0152948753 -0.0427026372
780295320.0 0.0164668585 -0.0379527209 -0.0660506476 -0.791480663 -0.0660602974 -0.7919469134 0.0146446489 -0.0427971119
785295290.0 0.0158827609 -0.0382138567 -0.0749064931 -0.7913436773 -0.074998416 -0.7915117605 0.013189269 -0.0423897119
790295260.0 0.0156565144 -0.0384352546 -0.08309276 -0.7906952349 -0.0828767506 -0.7902466183 0.0127391199 -0.0420220777
795295230.0 0.0146077996 -0.0384046169 -0.0917674206 -0.7896166362 -0.0923312011 -0.789440946 0.0123528812 -0.042984084
800295200.0 0.0136266815 -0.0377272194 -0.1003317836 -0.7878728521 -0.1006038952 -0.7884719972 0.0112324457 -0.042354505
805295170.0 0.0130346902 -0.0379885798 -0.1088752097 -0.7870171021 -0.1087921079 -0.7871896682 0.0113922085 -0.0421327041
810295140.0 0.0128849006 -0.0377850264 -0.1177305842 -0.7858329383 -0.1173839025 -0.7857651031 0.0106101646 -0.0424483708
815295110.0 0.0120089311 -0.0375837537 -0.1256782342 -0.7844899355 -0.1255697029 -0.7844003212 0.0097694802 -0.0421424168
820295080.0 0.0115509257 -0.0375417771 -0.1335791436 -0.7826096423 -0.1341036865 -0.7834142273 0.0080572822 -0.0414078045
825295050.0 0.0106116278 -0.0375988231 -0.1429207411 -0.7817944824 -0.1428423688 -0.781051267 0.0087548105 -0.041033327
830295020.0 0.0097845899 -0.0378646506 -0.1514861957 -0.7799551308 -0.1514855281 -0.780240413 0.0077738773 -0.0417636813
