!Created with skrf (http://scikit-rf.org).
# Hz S RI R 50.0 
!freq ReS11 ImS11 ReS21 ImS21 ReS12 ImS12 ReS22 ImS22
300000.0 -0.773955393 -0.0924848994 -0.0015826674 0.0009321515 0.0006926641 0.001234129 -0.2115264418 -0.080727065
5299970.0 -0.785017769 -0.0051349271 0.0001046518 0.0001186738 -1.55016e-05 8.38228e-05 -0.2147151251 0.0085470942
10299940.0 -0.7879296747 -0.0035475133 -1.04727e-05 1.28191e-05 -4.37319e-05 -8.90498e-05 -0.2106527699 0.021493583
15299910.0 -0.7934895934 -0.0017731199 -8.69198e-05 -3.32497e-05 -5.8383e-06 -9.66462e-05 -0.2059661477 0.0316825508
20299880.0 -0.8002562843 0.0022755653 7.52514e-05 -1.66773e-05 -6.65358e-05 8.96133e-05 -0.1998091213 0.0392964452
25299850.0 -0.806399725 0.0084092527 -6.34817e-05 0.0001598758 0.0001974542 7.11838e-05 -0.1934908017 0.0456913057
30299820.0 -0.8124738592 0.0157429808 1.84987e-05 -9.0178e-06 -7.0027e-05 9.82544e-05 -0.1871607608 0.0507004762
35299790.0 -0.8171408733 0.0251219692 0.0001376947 5.1055e-05 0.0001826024 1.90527e-05 -0.1806343844 0.0550840983
40299760.0 -0.8216981508 0.0340659434 -0.0001323202 0.0002590003 3.5764e-06 -9.83e-07 -0.1749539784 0.0577159955
45299730.0 -0.8248272237 0.0430587777 -0.0001672574 0.0001484121 2.88482e-05 -5.48334e-05 -0.169398957 0.060148992
50299700.0 -0.8270398316 0.0535399626 -9.57587e-05 -0.0001138083 5.96485e-05 0.0001838549 -0.1641091531 0.0610903045
55299670.0 -0.8291998602 0.0633384048 1.38371e-05 0.0001870318 5.78783e-05 -0.0001090581 -0.1596381467 0.0619736487
60299640.0 -0.8304391068 0.0737738231 0.0001079968 0.0001715878 -7.45551e-05 8.81931e-05 -0.1549804389 0.0623373398
65299610.0 -0.831216533 0.0839736678 -0.000225811 5.411e-05 2.21801e-05 0.00021615 -0.1514461037 0.0627242126
70299580.0 -0.8317120278 0.0938959634 9.0268e-05 9.73546e-05 0.0001092573 -0.0001240079 -0.1478152388 0.0630098116
75299550.0 -0.8318608225 0.1043825052 9.5439e-05 0.0001574971 0.0001356376 0.0002425354 -0.1446318323 0.0628099133
80299520.0 -0.8317889847 0.114008541 -5.73109e-05 6.98072e-05 4.2447e-06 -0.0001644525 -0.1420049972 0.0627985116
85299490.0 -0.8307333402 0.1229697583 -6.02218e-05 0.0002258031 -7.54731e-05 1.33929e-05 -0.1396558525 0.0625733579
90299460.0 -0.8301835144 0.1324507217 -5.99714e-05 -3.70865e-05 -9.93742e-05 0.0002373023 -0.1369275423 0.0622089103
95299430.0 -0.8294071538 0.1421814776 7.25165e-05 9.06257e-05 -1.3267e-06 7.97771e-05 -0.13498227 0.0620289175
100299400.0 -0.8279203099 0.1507183776 0.0001558062 0.0001675754 3.69435e-05 4.85256e-05 -0.1327395537 0.0617854057
105299370.0 -0.8270715239 0.1608542075 -0.0001551405 0.0001340497 -0.0001079606 9.56328e-05 -0.1310812182 0.0613460141
110299340.0 -0.825224078 0.1697158288 -0.0001957674 0.0001788306 3.53728e-05 -5.53594e-05 -0.129664892 0.0613757265
115299310.0 -0.8240727444 0.1786272678 -1.75791e-05 0.0002298367 7.09656e-05 1.3771e-05 -0.1281229605 0.0611285489
120299280.0 -0.821807416 0.1877425171 4.59438e-05 4.02563e-05 0.0001112627 6.83596e-05 -0.1267950225 0.0610685157
125299250.0 -0.8203453948 0.1960437782 3.11661e-05 9.76539e-05 0.0001012189 7.81515e-05 -0.1256298979 0.060798019
130299220.0 -0.8188752361 0.2054325009 1.80505e-05 0.0001315745 -0.0001252844 0.0001536453 -0.1246758409 0.060439231
135299190.0 -0.8168428799 0.2142996336 8.4809e-05 3.28121e-05 3.00139e-05 -0.0001026309 -0.1231650522 0.0607708513
140299160.0 -0.8149641549 0.2231095531 8.33879e-05 4.16016e-05 -3.74655e-05 2.82313e-05 -0.1223519287 0.0612512613
145299130.0 -0.8127297291 0.232644514 -8.48038e-05 -3.33701e-05 4.2728e-06 3.58451e-05 -0.1216232445 0.0612910258
150299100.0 -0.8099558688 0.2410967234 1.18901e-05 -4.55694e-05 0.0001898909 8.79284e-05 -0.1207695074 0.0618515704
155299070.0 -0.8075402764 0.2496319862 -3.92851e-05 -6.7378e-05 -9.85185e-05 7.41343e-05 -0.11986769 0.0622572521
160299040.0 -0.8054730125 0.2583767058 9.72053e-05 8.62501e-05 -6.75876e-05 -0.0001517708 -0.1194923504 0.0623912512
165299010.0 -0.8029607056 0.2672048715 0.0002293642 1.08087e-05 0.0001418436 4.84162e-05 -0.1185673088 0.0627967997
170298980.0 -0.799944096 0.2760088285 0.0001168353 0.0001819931 3.9035e-05 3.827e-05 -0.117886705 0.0632335768
175298950.0 -0.7972826399 0.2844229847 -0.0001064438 -5.48985e-05 -7.40836e-05 6.83982e-05 -0.117421093 0.0639067973
180298920.0 -0.7942925018 0.2932169164 -3.996e-05 4.42714e-05 -8.57436e-05 9.2985e-06 -0.1169581602 0.0645627014
185298890.0 -0.7910744529 0.3010735419 -7.66446e-05 8.33314e-05 0.0001544463 6.68816e-05 -0.1164181094 0.0650894861
190298860.0 -0.7884543157 0.3101291482 -7.17766e-05 -0.0001548232 0.0001239279 2.69966e-05 -0.1157236424 0.0659255272
195298830.0 -0.7848697183 0.317995378 0.0002966673 -0.0001417379 -4.79406e-05 3.37352e-05 -0.1155424155 0.0665710739
200298800.0 -0.7813063316 0.3261009778 -0.0001288073 2.52314e-05 -5.33159e-05 0.0001554259 -0.115037561 0.0668013245
205298770.0 -0.7784984228 0.3343562096 1.61591e-05 0.0002573437 9.94365e-05 6.41461e-05 -0.1146620876 0.0671652561
210298740.0 -0.7749143661 0.3426554113 0.0001646393 0.0001063696 -8.92376e-05 -6.28767e-05 -0.1142082969 0.0681371809
215298710.0 -0.7716137677 0.3509456763 -4.16719e-05 -9.499e-05 0.0001537434 -4.3793e-06 -0.114034642 0.0689841376
220298680.0 -0.7674237622 0.3593053311 -0.0002228539 0.0001158883 0.0001200575 0.0001308618 -0.1135836426 0.0695725736
225298650.0 -0.7638529367 0.3670535679 1.0537e-06 6.94145e-05 2.1936e-05 0.000140279 -0.113162824 0.0702711768
230298620.0 -0.7595598178 0.3748742757 2.25275e-05 6.77054e-05 -6.56675e-05 3.5371e-06 -0.1127295071 0.0710401372
235298590.0 -0.756735785 0.3836410407 -0.0001038043 9.14537e-05 -0.0001248496 6.53897e-05 -0.1123034956 0.0717031434
240298560.0 -0.7523236018 0.391701448 2.13252e-05 3.65158e-05 3.45409e-05 0.000280565 -0.1120255717 0.0726874132
245298530.0 -0.7485669948 0.3992695859 -3.89918e-05 -9.43304e-05 -4.00107e-05 -6.63513e-05 -0.1118331718 0.0730852211
250298500.0 -0.7445055667 0.407421402 -0.0001827985 -2.10389e-05 9.96519e-05 7.38415e-05 -0.1112873962 0.0737818059
255298470.0 -0.7394070883 0.4143810748 0.000231565 0.0002026697 3.84653e-05 -0.0001201494 -0.1108653725 0.0744163648
260298440.0 -0.734961352 0.4216044376 3.10641e-05 -0.0001049997 0.0001705501 -7.28561e-05 -0.1099555917 0.0753707565
265298410.0 -0.731249408 0.4300020864 0.0001194961 3.23595e-05 6.27834e-05 4.98265e-05 -0.1097266285 0.0763670595
270298380.0 -0.726922979 0.4379186371 9.66812e-05 9.31586e-05 -2.01005e-05 -8.3346e-06 -0.1093783335 0.0768755534
275298350.0 -0.7224092568 0.4448768293 -0.0001381897 5.65284e-05 -9.51876e-05 5.00903e-05 -0.1084077236 0.0780811944
280298320.0 -0.7167544134 0.4530335308 -9.85429e-05 9.09702e-05 0.000108285 -4.20241e-05 -0.107748695 0.0785617598
285298290.0 -0.7128116943 0.4603180292 0.0001703569 6.89769e-05 0.0003516534 0.0001532975 -0.1074040622 0.0798958623
290298260.0 -0.7076521563 0.4679018123 -9.70129e-05 0.0001240834 -0.0001093157 1.6464e-05 -0.1067684875 0.0807331965
295298230.0 -0.7021807269 0.4749423277 0.0002450282 0.0002594515 0.0001491837 4.87772e-05 -0.1058385205 0.0810473626
300298200.0 -0.6977731832 0.482069076 8.02859e-05 0.0001706275 9.28421e-05 -1.9913e-06 -0.104987867 0.0822315834
305298170.0 -0.6924658917 0.488375004 0.0001864937 6.6579e-06 -3.55309e-05 2.06785e-05 -0.1042512183 0.0828728037
310298140.0 -0.6870425927 0.4965590919 0.0002067248 -6.26561e-05 2.08548e-05 0.0001741211 -0.1040534067 0.0838449421
315298110.0 -0.6825074558 0.5032388861 3.71094e-05 0.0001185744 0.0002565073 8.59027e-05 -0.1033583273 0.0847221638
320298080.0 -0.6770454692 0.5106868198 9.70076e-05 0.0002260693 0.0001560003 5.69122e-05 -0.1027822376 0.0859039432
325298050.0 -0.6712123422 0.5179072561 0.0001695005 2.81926e-05 6.99249e-05 6.36061e-05 -0.1021345966 0.0864528367
330298020.0 -0.6659503511 0.5241298192 8.8558e-06 7.28896e-05 0.0001105416 0.0002205746 -0.1016716937 0.0878313618
335297990.0 -0.6606092126 0.5307888355 0.0002165692 -0.000180721 8.9596e-06 0.0002402813 -0.1013716663 0.0891302059
340297960.0 -0.6551546008 0.5374716174 0.000278357 -7.17345e-05 0.000202491 -3.622e-06 -0.1002244158 0.0900569846
345297930.0 -0.6499799168 0.5443311566 0.0001211267 0.0001302581 0.0001350129 -2.87632e-05 -0.0998251016 0.090823767
350297900.0 -0.6438542941 0.5512972917 4.84258e-05 8.60308e-05 8.87722e-05 0.0001723488 -0.0993688566 0.0926251894
355297870.0 -0.6379875665 0.5585082204 0.0002059605 4.49554e-05 0.0001999528 0.0001806147 -0.0987786278 0.0932512911
360297840.0 -0.6324048098 0.5639306987 7.025e-05 -1.98683e-05 0.0001894367 0.0001536914 -0.0978493374 0.0942350084
365297810.0 -0.6270512773 0.5706840187 5.51314e-05 -9.14366e-05 0.0002838943 9.19514e-05 -0.0970710926 0.095233748
370297780.0 -0.6207954797 0.5770066517 0.0002030879 -2.9361e-05 -0.000109869 5.88336e-05 -0.0965191506 0.09640941
375297750.0 -0.6143389559 0.5835405642 0.0001905879 0.0001865281 0.0001668603 0.0002078278 -0.0963385562 0.097410643
380297720.0 -0.6086611989 0.5894110518 -0.0001667144 -5.80488e-05 1.7559e-05 0.0002630016 -0.0956572842 0.0986219114
385297690.0 -0.6031981102 0.5956196403 7.47621e-05 0.0002324457 6.87749e-05 3.78985e-05 -0.0946960767 0.099565884
390297660.0 -0.5960756513 0.6015969931 0.0002632281 -1.70324e-05 -6.9655e-06 8.37793e-05 -0.0941378309 0.1007882353
395297630.0 -0.5900002032 0.608403279 -6.12e-08 0.000311427 0.0002434322 9.12636e-05 -0.0930502934 0.1018163076
400297600.0 -0.5835917479 0.6141213095 0.0002813047 -0.0001248817 6.40386e-05 -3.88497e-05 -0.0921056509 0.1029814088
405297570.0 -0.5775678682 0.620115472 0.000154985 2.49714e-05 0.0001429562 -2.40748e-05 -0.0918677089 0.103725578
410297540.0 -0.5703040942 0.6260050674 0.0002051907 0.0003349547 -2.33135e-05 0.0002326351 -0.0912077364 0.1047776046
415297510.0 -0.5642684467 0.6311831174 -7.35982e-05 0.0001423953 0.0001445812 4.27822e-05 -0.0903176845 0.1054552486
420297480.0 -0.5584464139 0.6372705941 0.0001582972 0.0003124591 0.0002787507 8.90016e-05 -0.0896434135 0.1066756509
425297450.0 -0.5513032065 0.6424100703 0.0001914713 2.81723e-05 3.31437e-05 0.0001074179 -0.0886438694 0.1077321274
430297420.0 -0.5451771119 0.6482633279 0.0002907429 7.1013e-06 2.3057e-06 -0.0001428187 -0.088273777 0.1083098168
435297390.0 -0.5382454136 0.653575707 -2.4721e-05 -0.0002912399 5.39051e-05 0.0001314548 -0.0868896375 0.1090824979
440297360.0 -0.5313960446 0.6594955387 -6.96736e-05 8.54422e-05 0.0001109221 8.14697e-05 -0.0858271225 0.1099787808
445297330.0 -0.5243364799 0.6647122959 0.0001096842 0.0001052791 0.0003710811 3.19873e-05 -0.0849894213 0.1107087554
450297300.0 -0.5178461441 0.6697250607 0.000194535 6.34445e-05 0.0001102353 -0.0001269381 -0.083977939 0.1116513987
455297270.0 -0.5107406074 0.6749293779 0.0001530343 6.93254e-05 0.0002701958 0.0001697639 -0.0830216258 0.1123960718
460297240.0 -0.5049438081 0.6799222826 0.0001095897 -1.65515e-05 0.0002280862 0.000263548 -0.08207813 0.113634715
465297210.0 -0.4972467402 0.6850758865 0.0001039477 0.0001165091 0.0002468874 1.45433e-05 -0.0810048424 0.114207487
470297180.0 -0.4899907518 0.6902913226 0.0003211148 0.0001902483 0.0001110283 0.0001622778 -0.0798400501 0.1151313828
475297150.0 -0.4828200012 0.6946882827 0.0002921714 0.000116598 0.000327719 0.0004078336 -0.0786403332 0.1159688762
480297120.0 -0.4760552263 0.6999631648 -7.01738e-05 8.03653e-05 9.26253e-05 0.0002941826 -0.0775739516 0.1171518749
485297090.0 -0.4686471784 0.7039158218 0.0001011115 8.56304e-05 0.0002460353 0.0002220659 -0.0765159511 0.1179448491
490297060.0 -0.4618535197 0.7090930265 8.9163e-05 0.0001008205 0.000172988 -6.87514e-05 -0.075523007 0.1188346319
495297030.0 -0.4547603793 0.7134644577 8.35015e-05 0.000304991 6.40443e-05 -9.4114e-05 -0.0743444085 0.1202172644
500297000.0 -0.4473666288 0.7178912511 0.000207777 -0.000221735 0.0001946052 7.00192e-05 -0.0731882051 0.1211184424
505296970.0 -0.4394828789 0.7228453958 3.42308e-05 0.0001124611 0.0002387153 -0.0001041153 -0.0721952197 0.1217720611
510296940.0 -0.4324798376 0.7268767273 0.000171131 0.0001278349 0.0001920903 -0.0001112587 -0.0712404461 0.122555001
515296910.0 -0.4242752259 0.7303308298 0.0001402254 0.000124089 0.0001380538 0.0001520605 -0.0698038872 0.1235707339
520296880.0 -0.4178276477 0.735549701 9.12371e-05 -3.41292e-05 0.0002072705 0.000131619 -0.0691171781 0.1244837706
525296850.0 -0.4096268442 0.7388470215 7.817e-05 -0.000188789 0.0002693044 7.70409e-05 -0.0678688589 0.1256712275
530296820.0 -0.4022019862 0.7438322735 0.0002500658 0.0001214464 0.0001208513 7.94375e-05 -0.0666776205 0.126335109
535296790.0 -0.3959375638 0.7474043828 0.0002748386 -1.43744e-05 3.71952e-05 6.47954e-05 -0.0659084147 0.1269069046
540296760.0 -0.3874565929 0.7512319392 0.0001711471 -3.55051e-05 0.0001340129 -8.57853e-05 -0.0647975235 0.1281286247
545296730.0 -0.3799558426 0.7554994854 8.04155e-05 1.02592e-05 0.0003088987 7.62533e-05 -0.0637267945 0.1287060136
550296700.0 -0.3727944417 0.7588054121 0.0003755805 8.56803e-05 4.64691e-05 0.0001339834 -0.0628350051 0.129729454
555296670.0 -0.3644892135 0.761723543 5.95193e-05 0.0001610633 8.94088e-05 0.0002083107 -0.0612472225 0.1309429299
560296640.0 -0.3572205518 0.7661142197 0.0001387496 -5.09918e-05 0.0002416172 0.0002449395 -0.060526877 0.1315858239
565296610.0 -0.3488826006 0.7695228889 0.0002281854 0.0002439198 0.0001255312 7.77623e-05 -0.0589712815 0.1321763671
570296580.0 -0.3419065778 0.7729718774 0.0002682323 -0.0001477985 0.0001031253 1.98892e-05 -0.0582552144 0.133164361
575296550.0 -0.3340441532 0.7771737792 0.0001962883 -5.27658e-05 0.000304168 0.0001552929 -0.05686364 0.1336751865
580296520.0 -0.325560901 0.779896039 -3.02194e-05 0.0003080271 3.64655e-05 0.0001848505 -0.05614878 0.1344175402
585296490.0 -0.3177343489 0.7825148763 -2.66674e-05 0.0003752821 0.0002666619 0.0001579876 -0.0547090445 0.1348570774
590296460.0 -0.3100645174 0.7859829899 0.000454928 3.02155e-05 0.000271055 4.7783e-06 -0.0537083643 0.1360499709
595296430.0 -0.3023638415 0.7887119287 0.0003339097 0.0001787387 0.000115811 -3.15197e-05 -0.0525611302 0.1360424437
600296400.0 -0.2939759861 0.7924651358 0.0003850716 0.0001565528 0.0001772184 -7.11889e-05 -0.0510757215 0.1365581549
605296370.0 -0.2872918082 0.7952466672 0.000246631 8.497e-07 0.0002519939 0.0001540837 -0.049819961 0.1373863209
610296340.0 -0.2784687564 0.7975717973 0.0001038263 0.0001483139 7.85823e-05 5.55311e-05 -0.0488066526 0.1381863576
615296310.0 -0.2697727048 0.80040198 0.000216295 5.26294e-05 0.0003015576 -2.31114e-05 -0.0471787651 0.1384885852
620296280.0 -0.2622187642 0.8022208654 3.48176e-05 0.0001371319 0.0001020682 -2.10792e-05 -0.0461630015 0.1392400157
625296250.0 -0.2543794506 0.8054860899 0.0002805944 -6.74223e-05 0.0002512638 -7.99225e-05 -0.0446077469 0.1396555846
630296220.0 -0.2453626111 0.8080899773 0.0003462237 7.49187e-05 0.0003518658 0.0002104106 -0.0436369594 0.1402555725
635296190.0 -0.2381655795 0.8103483595 0.0002333645 -0.0001393497 6.81254e-05 -0.0001577817 -0.0419754761 0.1408289404
640296160.0 -0.2304169296 0.8118493075 8.30698e-05 3.67509e-05 0.0004236396 4.23966e-05 -0.0405604218 0.1412073347
645296130.0 -0.2221454874 0.815489346 0.0005339419 0.0001300937 0.0002752834 4.36693e-05 -0.0392356758 0.1421343157
650296100.0 -0.2136997813 0.8171011956 9.29437e-05 6.2229e-06 -1.18009e-05 0.0002272111 -0.0379074665 0.1423008298
655296070.0 -0.2058294026 0.8190332565 0.00014439 -9.24659e-05 0.0004168258 7.83057e-05 -0.0361024296 0.1431892125
660296040.0 -0.1972620789 0.8205382972 0.0002822901 -0.0001150898 0.0001081935 0.000302824 -0.034848937 0.1437629941
665296010.0 -0.1894097083 0.8221644323 0.0003836208 2.47604e-05 0.0004182748 -0.0001182269 -0.0335855146 0.1447025805
670295980.0 -0.1811587812 0.8242380837 0.0001917837 4.29074e-05 0.000300032 0.0001074996 -0.0323666891 0.1449943867
675295950.0 -0.1730766187 0.8259071499 0.0003548265 -3.68199e-05 0.0002332592 -7.93318e-05 -0.0313074717 0.1457519875
680295920.0 -0.1643330917 0.8284060429 0.0003098543 -0.0001525376 0.000201093 -0.000139099 -0.029345571 0.1463241557
685295890.0 -0.1558298929 0.8298443735 0.0002900138 8.3822e-05 0.0001223304 0.0001238804 -0.0281735812 0.1467671866
690295860.0 -0.1483453064 0.8310338402 0.0002295041 0.0001444871 0.0001833744 -4.30247e-05 -0.0268698022 0.1474971174
695295830.0 -0.1398001784 0.8320458812 5.74884e-05 0.0001930151 0.0002025139 -0.0002148513 -0.0251811623 0.1480459318
700295800.0 -0.1313733758 0.8333714494 0.0002107342 0.0003248512 0.0002678084 2.25329e-05 -0.0239887842 0.1486893623
705295770.0 -0.1239263989 0.8350939792 0.0004076921 -0.0001653261 0.000397894 -0.0002001596 -0.022471429 0.149347942
710295740.0 -0.1146011418 0.8367207958 0.0002027372 -0.0001145517 0.0001975871 -7.75479e-05 -0.021852855 0.1496992884
715295710.0 -0.1063779869 0.8373966195 0.0002256237 -0.0001094804 0.0001517099 0.0002612495 -0.0199343424 0.1502622179
720295680.0 -0.0981039725 0.8386489061 0.0001879142 7.42323e-05 9.52225e-05 4.99951e-05 -0.0183994944 0.1504063906
725295650.0 -0.0897564595 0.8398198075 0.0003829149 -3.35776e-05 0.0001174012 -0.0001036561 -0.0175500096 0.1509124546
730295620.0 -0.0817107619 0.8401616017 0.0004296394 8.56109e-05 0.0002206015 -0.000102312 -0.0160808922 0.151282434
735295590.0 -0.0733758945 0.841107097 1.35399e-05 -0.0001940622 0.0002696292 1.08398e-05 -0.0151308061 0.1514153993
740295560.0 -0.0651752547 0.8421437548 0.0002557301 -4.20079e-05 0.0001040752 -4.1116e-06 -0.0131391328 0.1517530872
745295530.0 -0.0566998396 0.8425027423 0.000324408 0.0001003915 0.0003376087 -0.0002216123 -0.0119614335 0.1519315891
750295500.0 -0.0480235143 0.8431771423 -3.0683e-06 -7.96065e-05 0.0001664163 -4.82019e-05 -0.0105676034 0.1524726688
755295470.0 -0.0396865807 0.842645743 9.05433e-05 -0.000529863 0.0003010179 8.63384e-05 -0.0089413955 0.1524541661
760295440.0 -0.0317223099 0.8431772901 0.0002087345 -0.0001081897 0.0002363977 -6.24204e-05 -0.007711925 0.1525971003
765295410.0 -0.0233606513 0.8438506008 0.000412822 8.0392e-06 0.0001655084 -0.0002509648 -0.006404369 0.1531592433
770295380.0 -0.0155816196 0.8435568817 8.93556e-05 5.1209e-05 0.0003642651 0.0001265538 -0.0052858372 0.153285745
775295350.0 -0.0065094991 0.8439970151 5.83591e-05 -0.0002020153 0.0001150018 2.22546e-05 -0.0041261267 0.1531809031
780295320.0 0.0020073832 0.8442301778 0.000273539 0.0001597394 0.000277991 -6.91541e-05 -0.0023525311 0.1535173786
785295290.0 0.0099094819 0.8435865683 0.0002285437 -9.83384e-05 0.0002171091 -8.57661e-05 -0.0003918719 0.1537427011
790295260.0 0.0186592687 0.8439401538 0.0004183861 -0.0002719841 0.0003214317 -4.40359e-05 0.0009636243 0.1540347112
795295230.0 0.0265916483 0.8431283155 0.0002299425 -0.000108226 0.0004202054 -9.7302e-06 0.0026188015 0.1540428957
800295200.0 0.0346696488 0.8430598802 0.0003557733 -9.31088e-05 0.000448345 -0.0001838948 0.0039668799 0.1542523643
805295170.0 0.0439360174 0.8425912958 0.00021398 6.65233e-05 5.53697e-05 -0.0001235617 0.0054347348 0.1545756964
810295140.0 0.0519029151 0.8422553136 0.0003467394 -0.0003020933 0.0005162926 3.0706e-06 0.0074711546 0.1544991997
815295110.0 0.0600302136 0.8414439652 0.0002431187 0.0001489838 0.0003774309 -0.0001415713 0.0089621304 0.1544499802
820295080.0 0.0683432459 0.841308859 0.0002359512 2.00053e-05 0.0002934004 -8.80736e-05 0.0103726447 0.154892736
825295050.0 0.0769348808 0.8399551836 0.0001012078 -0.000232521 0.0002493218 0.0002238379 0.0118399211 0.154881289
830295020.0 0.0850903628 0.8393181241 0.0004145092 -0.0002705548 0.0003195322 -0.0003365104 0.0139770891 0.1550971989
835294990.0 0.0929911584 0.8385562092 0.0001342841 3.56232e-05 0.0002583593 -0.0003044582 0.0147781118 0.1553497303
840294960.0 0.1010851775 0.8379758532 0.0002580369 0.0002210018 0.0004848631 4.02871e-05 0.0163937728 0.1554145989
845294930.0 0.1090852643 0.8363604797 0.0002430948 6.59768e-05 0.0001510326 -8.34631e-05 0.0176831438 0.1553843512
850294900.0 0.1178109112 0.8358918414 3.91557e-05 -0.0001982146 0.0001916654 -0.0001820212 0.0193377465 0.1556799162
