!Created with skrf (http://scikit-rf.org).
# Hz S RI R 50.0 
!freq ReS11 ImS11 ReS21 ImS21 ReS12 ImS12 ReS22 ImS22
300000.0 -0.0970054087 -0.0863801584 0.6239106764 0.0815433338 0.6241113563 0.084503802 -0.0963576085 -0.0938749907
5299970.0 -0.100432203 0.0128716805 0.6309280394 0.0102718639 0.6305335768 0.0109587822 -0.1023419948 0.0118793172
10299940.0 -0.0953999252 0.0296733477 0.6348221025 0.0153705632 0.6344531222 0.0158390994 -0.0972525116 0.0288694331
15299910.0 -0.0885468676 0.0433390059 0.6405646149 0.0207996026 0.6403757185 0.0208990016 -0.0901037354 0.0422151283
20299880.0 -0.0796045598 0.0542118889 0.6486137351 0.0240614793 0.6493430956 0.0244266648 -0.0819250654 0.0532023374
25299850.0 -0.0700240032 0.0628199821 0.6580096201 0.024899304 0.6582951721 0.0252549298 -0.0728518715 0.0618052618
30299820.0 -0.0597460277 0.0691274493 0.6677813412 0.0249361678 0.667368517 0.0246058378 -0.0628010082 0.0687427486
35299790.0 -0.0494328648 0.0744485189 0.6768087675 0.021144137 0.6775810361 0.0217407462 -0.0527243405 0.0734626656
40299760.0 -0.0395705659 0.0770998013 0.6866726912 0.0179072532 0.6866122982 0.0178628015 -0.0437034204 0.0769897247
45299730.0 -0.0302938807 0.0793870561 0.6956097526 0.01191318 0.695760991 0.0119931768 -0.034173884 0.0791640242
50299700.0 -0.0219617609 0.0800584848 0.7031682821 0.0047826276 0.7042270036 0.0048737792 -0.0254040209 0.0800595641
55299670.0 -0.0143508008 0.0798195422 0.7102886963 -0.0024695993 0.7112808943 -0.0028207364 -0.0178878046 0.0799363403
60299640.0 -0.006685194 0.0788872572 0.7172492335 -0.0112299753 0.7173600711 -0.0111206664 -0.0105153686 0.079546123
65299610.0 -0.0004473699 0.0780948837 0.7238510502 -0.019335105 0.724245391 -0.0200409371 -0.0037329792 0.078583694
70299580.0 0.00592867 0.0758658157 0.7286258743 -0.029185563 0.728895797 -0.029002296 0.0024010512 0.0770460805
75299550.0 0.0115225556 0.0742692119 0.732885777 -0.0386965999 0.7329301781 -0.0391367555 0.0082742543 0.075711721
80299520.0 0.0160653141 0.0721816318 0.7376020076 -0.0490612086 0.7379049704 -0.0485907212 0.0131643872 0.0728584145
85299490.0 0.0208355999 0.0696290471 0.7410841225 -0.0590118606 0.7404969655 -0.0588339243 0.0175472342 0.0709098753
90299460.0 0.024657946 0.0672643835 0.7435872573 -0.0690695147 0.7438836101 -0.0690275892 0.0223968702 0.06876982
95299430.0 0.0280373772 0.0653002872 0.7458520668 -0.0792154044 0.7459239697 -0.0790260972 0.025364103 0.0663859255
100299400.0 0.0313737727 0.0628773356 0.7478301398 -0.089136642 0.7475701059 -0.0889920974 0.0283427942 0.0638130025
105299370.0 0.0345425533 0.0601480405 0.7488886966 -0.0987034114 0.7493000917 -0.099200187 0.0319698988 0.0618603465
110299340.0 0.0370939223 0.0578538737 0.7498892596 -0.1089388847 0.7502160391 -0.1093256925 0.0347659952 0.0591536088
115299310.0 0.0399956551 0.0547406087 0.7507143686 -0.1193001687 0.7513111552 -0.1189627546 0.0372226003 0.0560636745
120299280.0 0.0413844634 0.0526717328 0.7519179048 -0.1292946878 0.7515918134 -0.1294781802 0.0391059945 0.0542814777
125299250.0 0.0432513314 0.0504568347 0.7518827692 -0.1394514609 0.751993274 -0.1391287554 0.0414590472 0.0512378133
130299220.0 0.0450674705 0.0480305176 0.7517571825 -0.1487914429 0.7519391067 -0.1495138021 0.043493616 0.0493875671
135299190.0 0.0466334527 0.045511203 0.7515623081 -0.1586573412 0.7512885253 -0.1587842923 0.0444635496 0.0475024865
140299160.0 0.0478429384 0.0441228876 0.7508710474 -0.1691978484 0.7512940164 -0.1688820967 0.0463114182 0.0454947068
145299130.0 0.0492497567 0.0417762061 0.7503653415 -0.1786666389 0.7504712198 -0.1782233168 0.0473739571 0.0425786711
150299100.0 0.0504146973 0.0398040585 0.7489998688 -0.1878393442 0.749148187 -0.1885220648 0.0486893869 0.0409967651
155299070.0 0.0509302811 0.0380904463 0.7476135114 -0.1981184189 0.7479706794 -0.198225767 0.0497657982 0.0387437876
160299040.0 0.0525224139 0.036074444 0.7461902212 -0.2068939455 0.7462551418 -0.2071629968 0.0508362408 0.0370904708
165299010.0 0.0528407665 0.0342438095 0.7457419746 -0.2167169352 0.7454648909 -0.2166979558 0.0516518548 0.0349787403
170298980.0 0.0535749816 0.0325473936 0.7423515084 -0.2258669469 0.7430022846 -0.2261565303 0.052677802 0.0329991637
175298950.0 0.0543246492 0.0304821631 0.7417564317 -0.2353202159 0.7415919174 -0.2352874843 0.0533867623 0.0312275485
180298920.0 0.0552347017 0.0291092932 0.7395976187 -0.2442423796 0.7389413661 -0.2440324021 0.0539778777 0.0300245647
185298890.0 0.0559150835 0.0274587628 0.7367059278 -0.2538237779 0.7370980732 -0.2532809098 0.0545029134 0.0279527952
190298860.0 0.0563317541 0.0258848285 0.7343848603 -0.2632590181 0.7345802367 -0.2627536963 0.0554765827 0.0260310849
195298830.0 0.0563930135 0.0240213658 0.7315269112 -0.2716373828 0.7319107643 -0.2719785692 0.0559010603 0.0241820253
200298800.0 0.0568714794 0.022760713 0.7297752977 -0.2803924713 0.7293480429 -0.2805320478 0.0562456374 0.023389705
205298770.0 0.0571570563 0.0215839421 0.727301104 -0.2893580436 0.7268053802 -0.2896367795 0.056546513 0.0207588238
210298740.0 0.0573303682 0.0198394203 0.7241409621 -0.2980876585 0.7237555998 -0.2986818717 0.0570154216 0.0199856401
215298710.0 0.0578363583 0.01889184 0.7207093167 -0.3070556431 0.7208029893 -0.306848924 0.0571193782 0.0186157796
220298680.0 0.0581367818 0.017285691 0.7180653898 -0.3156376854 0.7178609325 -0.3160615938 0.057299883 0.0175289009
225298650.0 0.0582780011 0.0162981196 0.7138968391 -0.3239507334 0.7143761005 -0.32397198 0.057482394 0.0157785702
230298620.0 0.0578214421 0.0150130221 0.7115344555 -0.331902849 0.7111266803 -0.3333573796 0.0577526751 0.0144231769
235298590.0 0.0586338143 0.0132506543 0.7078892994 -0.3407122966 0.7074844991 -0.3414456 0.0582240727 0.0128972846
240298560.0 0.0582187735 0.0121330715 0.7039465358 -0.3490471089 0.7040300203 -0.3493115951 0.0581351053 0.0118128688
245298530.0 0.0587686026 0.0115645391 0.699517642 -0.3576200272 0.7001483554 -0.358109022 0.0583976987 0.010728511
250298500.0 0.0584513866 0.0097387689 0.6954489402 -0.3656215578 0.6965654584 -0.3654521489 0.0588539084 0.009100273
255298470.0 0.0583508701 0.0089706907 0.6920056262 -0.3740962778 0.6924297838 -0.3740076888 0.05873713 0.0078980737
260298440.0 0.0583017125 0.0079929525 0.6881046216 -0.3819305198 0.6884464395 -0.382322281 0.0593396654 0.0070764306
265298410.0 0.0589854544 0.0071909537 0.684121253 -0.3908420214 0.6839127308 -0.3906387409 0.058994942 0.0056020074
270298380.0 0.0591704585 0.0058232211 0.6798148989 -0.3980199704 0.6804608178 -0.398157353 0.0589354025 0.0052361971
275298350.0 0.0585163057 0.0050406237 0.6755523421 -0.4067061546 0.676197565 -0.4064329598 0.059081645 0.0039175048
280298320.0 0.0586058296 0.0042866154 0.6713341071 -0.4134473626 0.6710771146 -0.414527434 0.0595169492 0.0028444235
285298290.0 0.0585079604 0.0032053605 0.6669031743 -0.4215903649 0.6669676842 -0.4218688944 0.058893958 0.0019837826
290298260.0 0.058814575 0.0019285193 0.6622539774 -0.4297918333 0.6622957452 -0.4297761121 0.0593299909 0.0008036278
295298230.0 0.0585845249 0.0008595913 0.6579846796 -0.4374810014 0.6578244553 -0.4374116897 0.0597052796 -0.0004019297
300298200.0 0.0593751726 4.59121e-05 0.6526639836 -0.4449392488 0.6532446299 -0.4453818425 0.0592567446 -0.0012139402
305298170.0 0.0590285335 -0.0013788916 0.6480530077 -0.4526030614 0.6491178503 -0.452829687 0.0599348873 -0.002024326
310298140.0 0.0596330915 -0.0022754103 0.6437275771 -0.4601820078 0.6438215737 -0.4609899782 0.0595341179 -0.0028866221
315298110.0 0.0587875043 -0.0032430223 0.6383001393 -0.4679979081 0.638759245 -0.4684893286 0.0596681957 -0.0044178992
320298080.0 0.0587408935 -0.0042162804 0.6330344673 -0.4756567104 0.6333603999 -0.4758545443 0.059438843 -0.005825376
325298050.0 0.058321059 -0.0056833542 0.6284195329 -0.4831951982 0.6287033038 -0.4836682812 0.0594137549 -0.0068918546
330298020.0 0.0580600969 -0.0064136141 0.6215115402 -0.4908228615 0.6219421961 -0.490983749 0.0584053146 -0.0080755539
335297990.0 0.0577687882 -0.0075621834 0.6167224473 -0.497519827 0.6166864433 -0.498013114 0.0582881953 -0.0089186578
340297960.0 0.0565401257 -0.0079326166 0.6109032666 -0.5045416469 0.6110026006 -0.5042525317 0.0572877815 -0.0093790138
345297930.0 0.0563442596 -0.0083496739 0.6049213314 -0.5107340995 0.6050344862 -0.5111449867 0.0576276178 -0.0107424545
350297900.0 0.0563170896 -0.009127869 0.5992552678 -0.5175505501 0.5996339702 -0.5179673202 0.0565848364 -0.0106384445
355297870.0 0.0563794381 -0.0101857856 0.5933034152 -0.5246148844 0.5932134882 -0.5246942538 0.0564366922 -0.011560879
360297840.0 0.0559420569 -0.0106882878 0.5880346246 -0.5315420484 0.5873946725 -0.5312936778 0.0565052361 -0.012020914
365297810.0 0.0558943736 -0.011391561 0.5818287418 -0.53811277 0.5819086119 -0.5378715078 0.0559403878 -0.0123426441
370297780.0 0.0557477222 -0.0122218539 0.5760775015 -0.5439429942 0.5759337274 -0.5446214622 0.0562569233 -0.0126661559
375297750.0 0.0552192833 -0.0122871624 0.570848961 -0.5506851433 0.5699781034 -0.5511971014 0.0556394146 -0.013350673
380297720.0 0.0551920512 -0.0136421088 0.5640966909 -0.5567181988 0.5639204378 -0.5571025502 0.0555833348 -0.0143011262
385297690.0 0.0549273342 -0.0140201723 0.5572347707 -0.5625594987 0.557634845 -0.5633200994 0.0550138915 -0.0145803074
390297660.0 0.0544141817 -0.0147297691 0.5511190827 -0.5696320028 0.5517480526 -0.5703841841 0.0549110017 -0.0156388378
395297630.0 0.0548865128 -0.0155788485 0.5454337342 -0.5752422613 0.5451180556 -0.5756290078 0.0544352556 -0.0158524471
400297600.0 0.0538650868 -0.0159800359 0.538123315 -0.5818913727 0.5390189776 -0.5823591298 0.0534501102 -0.0167689063
405297570.0 0.0542813798 -0.0166469274 0.5323075513 -0.5878678483 0.5327938964 -0.588062296 0.0536972393 -0.0166864053
410297540.0 0.0538932433 -0.0174241294 0.5251160237 -0.5939771316 0.5256734502 -0.5938748978 0.0531884624 -0.0178098295
415297510.0 0.0533679612 -0.0173575877 0.5193511639 -0.5989993076 0.5195354421 -0.5997317343 0.0528703754 -0.0179142112
420297480.0 0.0531561278 -0.0188957959 0.5126609956 -0.6055393135 0.5129839832 -0.6055804473 0.0528748264 -0.0188481261
425297450.0 0.0534559417 -0.019643515 0.505921876 -0.6107270157 0.5061105614 -0.6106824169 0.0522021967 -0.0188766493
430297420.0 0.0525437281 -0.0197371536 0.4992986135 -0.6168347979 0.4994830494 -0.6170971238 0.0519449328 -0.0203046061
435297390.0 0.0522601968 -0.0206875506 0.4922719584 -0.6218486009 0.492396075 -0.6220941937 0.0515003582 -0.0201610589
440297360.0 0.0522452586 -0.0214372652 0.4852229896 -0.6276242207 0.4856255647 -0.6280514799 0.0509936809 -0.0213974945
445297330.0 0.052424441 -0.022054028 0.4783772238 -0.632959308 0.4787355889 -0.633207022 0.0509148266 -0.0218140313
450297300.0 0.0518611784 -0.0225911691 0.4711568367 -0.638214323 0.4722042882 -0.6386871849 0.0505506318 -0.021992878
455297270.0 0.0510676101 -0.0234000918 0.4650675561 -0.6440702857 0.4653219966 -0.6437479435 0.0505874614 -0.0223583117
460297240.0 0.0505238586 -0.0238464559 0.4574068598 -0.6483272734 0.4572238834 -0.6484989613 0.0501589036 -0.0225128633
465297210.0 0.0508528535 -0.024780579 0.450481847 -0.6537321749 0.4504999063 -0.6538247329 0.0491852981 -0.0237057626
470297180.0 0.0499708899 -0.0251515276 0.4435057811 -0.6586383068 0.4439180234 -0.6585419218 0.0480555114 -0.0240436852
475297150.0 0.0494521036 -0.0263301983 0.4358670156 -0.6629763975 0.4363363112 -0.6632792477 0.0484310955 -0.0245101269
480297120.0 0.049766092 -0.026921836 0.4285680712 -0.6681350212 0.4290107041 -0.6679804364 0.0480877135 -0.0247119786
485297090.0 0.0493694038 -0.0274382481 0.4213289365 -0.6729537478 0.4218216861 -0.6735112771 0.0470541071 -0.025629166
490297060.0 0.04873149 -0.0281035807 0.4140846146 -0.6779411124 0.4144805199 -0.6778237972 0.0471144639 -0.0255248819
495297030.0 0.0480089834 -0.0281452826 0.4065619533 -0.6819148457 0.4062255737 -0.6822743244 0.0467672105 -0.0263603626
500297000.0 0.0479555908 -0.0292673552 0.3993610003 -0.6868421177 0.398922463 -0.6864427388 0.0457343598 -0.0267267929
505296970.0 0.0470381002 -0.0295089796 0.3909539317 -0.6907046263 0.3913023361 -0.6910589906 0.0450336667 -0.0271842431
510296940.0 0.0471327995 -0.0300645186 0.3839921691 -0.6954669531 0.3837520579 -0.6953196138 0.0452254 -0.0269633798
515296910.0 0.0463013814 -0.0304161229 0.3761395097 -0.69929619 0.3761248833 -0.6994273224 0.0442107791 -0.0278817945
520296880.0 0.0459334237 -0.0313655447 0.3683234474 -0.7034531283 0.3689490422 -0.7030182045 0.0444148954 -0.0282359231
525296850.0 0.0454108093 -0.0319606429 0.3610688832 -0.707587208 0.3606991967 -0.7083647 0.0439574279 -0.0286356787
530296820.0 0.0450879524 -0.0324186504 0.3539515278 -0.7105257511 0.3531586176 -0.7119406427 0.0428857567 -0.0299740257
535296790.0 0.0442488098 -0.0328055582 0.3450060333 -0.7148581186 0.345848395 -0.7158744853 0.0425827287 -0.0301291651
540296760.0 0.0438838698 -0.033652526 0.3375750791 -0.7191737027 0.3371798772 -0.7195006035 0.0415697943 -0.0301011812
545296730.0 0.0434123799 -0.0334754838 0.3291724958 -0.7218852324 0.3297820799 -0.7231793826 0.0414104694 -0.0307963583
550296700.0 0.0425621458 -0.0346581108 0.3216392467 -0.7265542281 0.3221763477 -0.7266672293 0.0405517768 -0.0304845144
555296670.0 0.0427077196 -0.0351055422 0.3135722323 -0.7295745031 0.3137783102 -0.7301678928 0.0401586859 -0.0309563135
560296640.0 0.0419081458 -0.0352718826 0.306044209 -0.7333956842 0.3061942281 -0.7331525316 0.0399446645 -0.031569532
565296610.0 0.0408127763 -0.0360357615 0.2971969719 -0.7366476318 0.2974115408 -0.7367333576 0.0393447568 -0.0322775769
570296580.0 0.0413134161 -0.0365355293 0.2893437298 -0.7396346078 0.2898117316 -0.7399841035 0.03873092 -0.0317616202
575296550.0 0.0402310145 -0.0361927533 0.2814034534 -0.7424520292 0.2821531531 -0.7427785495 0.0385186492 -0.0324861667
580296520.0 0.0397564476 -0.0369714088 0.2735446995 -0.7461696567 0.2733967917 -0.7460393864 0.0375038125 -0.0332385861
585296490.0 0.0394587989 -0.0378885507 0.2654045379 -0.7493712757 0.265159049 -0.7486561821 0.0369611177 -0.0335653875
590296460.0 0.0381463264 -0.0383765101 0.2569172206 -0.7514944113 0.2567932421 -0.7520283341 0.0367750491 -0.0331786148
595296430.0 0.0377337853 -0.0383004002 0.2494907424 -0.7542965179 0.2488943584 -0.7545939187 0.0364562091 -0.0337644883
600296400.0 0.0372528302 -0.0387380366 0.2409390074 -0.7569309993 0.2409520653 -0.7573518821 0.0357118917 -0.0338521792
605296370.0 0.036951252 -0.0386116559 0.232071515 -0.7598609327 0.2325089319 -0.7599410411 0.0352536615 -0.0349948757
610296340.0 0.0361032165 -0.0394679055 0.2241043242 -0.7622861398 0.2247072933 -0.762610372 0.0344308551 -0.0343658231
615296310.0 0.0356107922 -0.0394506072 0.2156388734 -0.7646798567 0.2156134204 -0.7649006188 0.0343668016 -0.0348186647
620296280.0 0.034740245 -0.0400831936 0.2076061152 -0.7667953101 0.2078567503 -0.7671298328 0.0337050875 -0.0356474693
625296250.0 0.0347882254 -0.0403815884 0.1984565081 -0.7694239386 0.1990229131 -0.7695733613 0.0332972129 -0.0355499103
630296220.0 0.0339693858 -0.0405115322 0.1900012201 -0.7718221008 0.1909545067 -0.7715357675 0.0319988041 -0.0358172752
635296190.0 0.0333260872 -0.0409325322 0.1821915262 -0.7732407753 0.1822395419 -0.7732333269 0.0314658347 -0.0364339483
640296160.0 0.0323882715 -0.0412801689 0.1735886069 -0.7750021918 0.1738842037 -0.7753043859 0.0317791205 -0.0365462757
645296130.0 0.0320798958 -0.0412449016 0.1654962409 -0.7774928066 0.165391463 -0.7775895964 0.0297820321 -0.0371262471
650296100.0 0.0313256073 -0.0412591376 0.1578335804 -0.7785672756 0.1568592753 -0.7789079907 0.0299743496 -0.0372249197
655296070.0 0.0304682539 -0.0420303226 0.148398245 -0.779939912 0.1482901996 -0.7804246504 0.0299803229 -0.0369533652
660296040.0 0.0294006206 -0.0417725948 0.1397691874 -0.7814940657 0.139979144 -0.7817251968 0.0287445104 -0.0378874441
665296010.0 0.0294058073 -0.042602898 0.1315775359 -0.7832064417 0.1317865272 -0.7834213007 0.0277551353 -0.0375430731
670295980.0 0.029548934 -0.0422789309 0.1229082239 -0.7845503477 0.1235718457 -0.7848962347 0.0269633881 -0.0381253217
675295950.0 0.028656976 -0.042642006 0.1145620823 -0.7859075972 0.1148735354 -0.7865268141 0.027167932 -0.0379820925
680295920.0 0.0277409345 -0.0426328067 0.105551189 -0.7872963724 0.1055048502 -0.7876181125 0.0265898968 -0.0383743107
685295890.0 0.0267708482 -0.0427360029 0.0971066652 -0.7883324303 0.0971876482 -0.7888272751 0.0258798776 -0.0383830613
690295860.0 0.0266837468 -0.0432854455 0.088636258 -0.7889603691 0.088580521 -0.7888069323 0.0257003222 -0.0380889036
695295830.0 0.0262817144 -0.0435621642 0.0789951378 -0.7904404159 0.0796082895 -0.7907639667 0.0241491017 -0.0387811119
700295800.0 0.0258880387 -0.0435610354 0.0712138661 -0.7913521111 0.0710324246 -0.7912314353 0.0238684128 -0.0392470578
705295770.0 0.0248709344 -0.0435732825 0.0627772693 -0.7920383305 0.0628370204 -0.791647347 0.0234328573 -0.0393908348
710295740.0 0.0241241808 -0.0434921913 0.0537840989 -0.7921205812 0.0538452245 -0.7922805187 0.0219856251 -0.0388456966
715295710.0 0.0236451832 -0.0440038202 0.0451482237 -0.7928542892 0.0457320756 -0.7935503564 0.0219579939 -0.0400162909
720295680.0 0.022899126 -0.0444320813 0.0368416397 -0.792750302 0.0368012234 -0.7942162279 0.0218495002 -0.0392116065
725295650.0 0.0226159044 -0.0444098316 0.0282648008 -0.7931583562 0.0283907894 -0.7934496741 0.0211214013 -0.0391041279
730295620.0 0.0213647914 -0.0444219555 0.0195335074 -0.7937518536 0.0196798495 -0.7940933805 0.0207785472 -0.0404065836
735295590.0 0.0215086157 -0.044421512 0.0108835989 -0.7936560202 0.0116048354 -0.7940921822 0.0197916179 -0.039605117
740295560.0 0.0202443959 -0.0443635549 0.0024804152 -0.7938576332 0.0021116331 -0.7940701006 0.0201120045 -0.0398284307
745295530.0 0.0200378257 -0.0448451203 -0.0061582457 -0.7943679391 -0.006210942 -0.7942281084 0.0184376786 -0.0396624187
750295500.0 0.019567831 -0.0448283079 -0.0149579037 -0.7937241296 -0.0146767081 -0.7939859197 0.0183413917 -0.0404293918
755295470.0 0.0191427689 -0.0445746523 -0.0234113012 -0.7937577498 -0.0237087112 -0.7935882681 0.0171091045 -0.0400983986
760295440.0 0.0180129131 -0.0446202416 -0.032786787 -0.7933809645 -0.0326965831 -0.7935254441 0.0162080261 -0.0403858492
765295410.0 0.0169646931 -0.045100091 -0.0401498798 -0.7925331238 -0.0403927916 -0.7934505723 0.0166419241 -0.0394576147
770295380.0 0.0169887764 -0.0448339902 -0.0496623948 -0.7921466238 -0.0494190108 -0.7928401365 0.0163981004 -0.039774646
775295350.0 0.0160879497 -0.0445905619 -0.0582436798 -0.7917796977 -0.0574328224 -0.7919072102 0.0148859756 -0.0408665741
780295320.0 0.0156930236 -0.0449538289 -0.0662489717 -0.7914921084 -0.0664103706 -0.7914280544 0.0143283047 -0.0398572251
785295290.0 0.0147366893 -0.0445210718 -0.0755596006 -0.7897726562 -0.0750385703 -0.7901474007 0.0132856352 -0.0402959153
790295260.0 0.01401072 -0.0444618133 -0.0837403644 -0.7894636472 -0.0839814654 -0.790197098 0.0132968666 -0.0401561003
795295230.0 0.0135740652 -0.045030414 -0.09187373 -0.7883341863 -0.092240401 -0.7887238914 0.0126091139 -0.0394345507
800295200.0 0.0127687014 -0.0444627231 -0.1014707673 -0.7878933225 -0.1016299418 -0.787917834 0.0123749832 -0.0397272976
805295170.0 0.0117171629 -0.0449039823 -0.1090123428 -0.7859361444 -0.1094483393 -0.7862363607 0.0109493686 -0.0401861021
810295140.0 0.0114890984 -0.0446881928 -0.1181965434 -0.7849288294 -0.1179235432 -0.7855335731 0.0107927584 -0.0394727626
815295110.0 0.0109634309 -0.0444755626 -0.1269856726 -0.7830537336 -0.1266380837 -0.7840785458 0.0099324319 -0.0403972997
820295080.0 0.0102579714 -0.0447902901 -0.1349523108 -0.7825526697 -0.1349622402 -0.7826913348 0.0093406705 -0.0397664225
825295050.0 0.0095236919 -0.0447593928 -0.1437793038 -0.7802761666 -0.1434921454 -0.7808650367 0.0091191884 -0.039604246
830295020.0 0.00883268 -0.0443327274 -0.1520576563 -0.7789997128 -0.1526662316 -0.7793541883 0.0081704234 -0.0398817485
