!Created with skrf (http://scikit-rf.org).
# Hz S RI R 50.0 
!freq ReS11 ImS11 ReS21 ImS21 ReS12 ImS12 ReS22 ImS22
300000.0 -0.7798836501 -0.1459567616 0.0023455032 0.000165505 9.30696e-05 0.0018373275 -0.7700016911 -0.1669262883
5299970.0 -0.7854804521 -0.0068246424 0.0001274902 -0.0001082976 -0.0002086434 3.4542e-05 -0.7843896477 -0.0087218899
10299940.0 -0.7879773857 -0.0042627311 6.92757e-05 -5.86106e-05 6.52228e-05 -7.2835e-05 -0.7879055011 -0.0052821234
15299910.0 -0.7933701642 -0.0013691545 -0.0002064635 0.0001241496 -0.0001147092 -1.17291e-05 -0.7933733044 -0.0028040224
20299880.0 -0.7994997593 0.0024268021 2.55544e-05 -9.08065e-05 -0.0001427207 0.0002533084 -0.8001545813 0.0018487987
25299850.0 -0.8062388722 0.0085017732 9.21265e-05 7.6819e-06 -0.0001117801 4.71254e-05 -0.8067972303 0.0074384875
30299820.0 -0.8115569938 0.0163736576 8.07825e-05 2.03477e-05 7.56443e-05 -0.0002379112 -0.8122800379 0.0147371946
35299790.0 -0.8167071296 0.0254103533 5.66603e-05 -9.46361e-05 0.0002569394 -0.0001906308 -0.817815787 0.0237250317
40299760.0 -0.821370691 0.034130179 -1.45864e-05 -0.0001622898 0.0001909844 -0.0002263723 -0.8214309659 0.0332138585
45299730.0 -0.824655241 0.0439751805 8.77183e-05 -0.0002778366 -0.0002178106 -8.48674e-05 -0.8249340402 0.0424976659
50299700.0 -0.8268567058 0.0540778532 -2.6206e-05 0.0001273141 0.0001159628 -5.41264e-05 -0.8277320524 0.0527504383
55299670.0 -0.8283506809 0.0645253101 -0.0002016869 4.345e-07 -0.00015345 5.75422e-05 -0.8296609465 0.062895451
60299640.0 -0.8297842119 0.0740750695 -0.0001077427 -5.5198e-05 -6.63488e-05 2.73248e-05 -0.8309562872 0.0730488805
65299610.0 -0.8313482754 0.0847045096 -2.4007e-05 -6.31632e-05 9.30978e-05 0.0001091329 -0.8309761745 0.0831460155
70299580.0 -0.8311951199 0.0948148781 0.0001328263 -5.08262e-05 0.0001015239 -0.0001613169 -0.8320056414 0.0929533326
75299550.0 -0.8313890425 0.1048456963 2.35865e-05 -7.98658e-05 -8.6592e-06 2.21457e-05 -0.8327814886 0.102696379
80299520.0 -0.8313614506 0.1147753915 -8.12937e-05 0.0001364684 -2.73782e-05 0.0001814013 -0.8318567935 0.112131402
85299490.0 -0.8301428723 0.1239474651 0.0001284264 2.56147e-05 8.59775e-05 -6.53923e-05 -0.8315869174 0.1220189491
90299460.0 -0.8300432251 0.1339247713 4.63093e-05 0.0001541117 -0.0001717628 -0.000256732 -0.8305487206 0.1315044202
95299430.0 -0.8282118523 0.1437080681 -7.57232e-05 -4.95361e-05 -0.0001395308 0.0002996814 -0.8299430493 0.1413349053
100299400.0 -0.827403566 0.1528561445 -2.13122e-05 0.0001412423 -8.4019e-06 8.28171e-05 -0.8289149232 0.1492511137
105299370.0 -0.8263009319 0.162246829 5.00135e-05 -0.0001233693 -0.0003042183 -0.0001625654 -0.827138695 0.1587606862
110299340.0 -0.8257456507 0.1711847636 -0.0001801956 4.39406e-05 -6.0175e-05 0.0001418772 -0.8265944851 0.1688437122
115299310.0 -0.823569207 0.1806819402 -9.98969e-05 -9.49733e-05 0.0001498959 1.45731e-05 -0.8244747259 0.1774884531
120299280.0 -0.8215384902 0.1894633531 -9.42354e-05 0.0001752659 1.15605e-05 -1.72432e-05 -0.8240148228 0.1862196601
125299250.0 -0.8203998077 0.1987622469 3.48733e-05 2.99588e-05 -0.0002865163 6.51057e-05 -0.8217795963 0.1952352684
130299220.0 -0.8185396748 0.2074990483 4.61418e-05 -4.3906e-05 5.08098e-05 -0.0001022541 -0.8203950995 0.2043771104
135299190.0 -0.8164891932 0.2167563251 -1.7907e-06 1.6577e-06 1.96108e-05 -0.0002113842 -0.8174949587 0.2128230671
140299160.0 -0.8145456486 0.2254753486 8.1764e-06 -6.89082e-05 -7.10669e-05 -0.0001071037 -0.8161781191 0.2215943002
145299130.0 -0.8122048651 0.2342245112 2.8703e-06 -4.2867e-06 5.12968e-05 3.45503e-05 -0.8142739299 0.2300598952
150299100.0 -0.810106274 0.2426022618 -5.84098e-05 3.79462e-05 -9.4291e-06 3.48876e-05 -0.8118936331 0.2382666315
155299070.0 -0.8078707615 0.2519309993 -0.0001001637 8.18492e-05 -1.08692e-05 0.0001487919 -0.8095821213 0.2475527061
160299040.0 -0.8047347124 0.2611564962 -6.77647e-05 -0.0001299634 -8.81961e-05 1.51235e-05 -0.8077939054 0.2571836226
165299010.0 -0.8021076133 0.269240325 9.53938e-05 -3.79675e-05 0.000283954 -5.20187e-05 -0.8041604763 0.2653481531
170298980.0 -0.7995671527 0.278197701 -0.0002285904 2.3854e-05 -4.89723e-05 0.0003998654 -0.8023017879 0.2735188205
175298950.0 -0.7967874531 0.2870331756 5.73053e-05 0.0001098281 2.82959e-05 2.46198e-05 -0.798996873 0.2820169784
180298920.0 -0.79393674 0.2948855918 -6.97824e-05 0.0001239405 -5.79799e-05 9.919e-06 -0.7956113378 0.2905551797
185298890.0 -0.7910022826 0.3043500684 -0.0001303015 -0.0001790124 -4.63415e-05 4.79983e-05 -0.7935505804 0.2986352727
190298860.0 -0.7872936151 0.312987017 -0.0002167799 -1.53232e-05 -0.000234967 -0.0001804094 -0.7895574055 0.3068609627
195298830.0 -0.7841082336 0.3208471175 1.96852e-05 -0.0003346951 2.53646e-05 4.86827e-05 -0.7865043885 0.315514457
200298800.0 -0.7809059843 0.3296520759 0.0001314271 3.79592e-05 -0.0001698705 3.67506e-05 -0.7830583599 0.3237725316
205298770.0 -0.7774433997 0.3376134331 5.9334e-05 -3.45754e-05 0.0004431466 8.87592e-05 -0.7797936181 0.3322195139
210298740.0 -0.7728621847 0.3459202483 -0.0001665359 -8.79391e-05 -0.0002244825 0.0001134416 -0.7771387834 0.3401468155
215298710.0 -0.7703053894 0.3543873881 -0.0001675337 -2.13324e-05 0.00010221 9.37862e-05 -0.7733864663 0.348247115
220298680.0 -0.7671415606 0.3624250476 9.36973e-05 -0.0002152915 -3.91297e-05 -0.0001425132 -0.7697943249 0.3564220561
225298650.0 -0.7628820416 0.3712694321 2.46861e-05 -0.0002180031 0.0001261368 -5.7542e-06 -0.7660333098 0.36498567
230298620.0 -0.7590365652 0.3782931131 7.99029e-05 6.4308e-05 -0.000206522 -0.0001048122 -0.7617319595 0.3725483422
235298590.0 -0.7544858755 0.3867814527 7.37742e-05 -0.0002696705 2.55734e-05 -2.18742e-05 -0.75788662 0.3804606892
240298560.0 -0.7503413336 0.394381168 4.56473e-05 -3.7653e-05 -0.0002204265 -5.14864e-05 -0.7539658775 0.3882253325
245298530.0 -0.7464286873 0.4032903144 -3.08134e-05 -0.000287877 0.00010687 0.0002218307 -0.7497560122 0.3960798953
250298500.0 -0.7424531176 0.4105961414 -0.0001631202 -0.0002532629 6.63555e-05 -0.0001333947 -0.7450820985 0.4045254966
255298470.0 -0.7378641197 0.4186941157 -0.0001902573 -0.0002058206 -9.99622e-05 -7.21187e-05 -0.7409714953 0.4124489823
260298440.0 -0.7337398354 0.4261890816 8.58265e-05 -0.0001164294 -6.99275e-05 0.0001621016 -0.7364175224 0.4195767808
265298410.0 -0.7291506656 0.4344572844 0.000199535 -0.0001288552 -5.53128e-05 -0.0002330024 -0.7324515157 0.4271183355
270298380.0 -0.7241658872 0.4412761627 0.0002291108 -3.70798e-05 0.0001343003 0.0002575527 -0.7272946753 0.4354590629
275298350.0 -0.7193020147 0.4493845067 4.93217e-05 -0.0001741942 -7.26908e-05 7.35605e-05 -0.7226743043 0.4433307082
280298320.0 -0.7151245742 0.4565346647 2.80675e-05 -0.0001140698 -3.95465e-05 -0.0001610687 -0.7182929591 0.4498262606
285298290.0 -0.7100574492 0.4639542717 -3.79209e-05 -0.0002023942 -0.0001303898 -0.0001519589 -0.7136839671 0.457666013
290298260.0 -0.7051029692 0.4716620324 1.36762e-05 0.0002942113 0.0002082559 -4.0895e-05 -0.7085686301 0.4657342363
295298230.0 -0.7003928447 0.4796113475 1.11676e-05 2.32994e-05 -6.71368e-05 5.98543e-05 -0.7035805678 0.4725500821
300298200.0 -0.6948336189 0.4869161558 4.39558e-05 5.0368e-06 0.0001795647 -6.2373e-06 -0.6983085429 0.4800023536
305298170.0 -0.690144281 0.4942941651 -2.01738e-05 -8.07789e-05 0.0001094734 -8.4389e-05 -0.6931663045 0.4875617226
310298140.0 -0.684708167 0.5006831249 -9.83495e-05 -0.0001678705 -2.69121e-05 0.0001271442 -0.6882751804 0.4947549806
315298110.0 -0.679510706 0.507875751 3.659e-07 0.0001859312 0.0001054912 -8.59127e-05 -0.682862445 0.50199861
320298080.0 -0.6738967047 0.5157634012 0.0002511284 0.0001400993 -4.81663e-05 1.18823e-05 -0.6775713214 0.509253453
325298050.0 -0.6683953033 0.5216819091 0.0001009272 4.3471e-06 -8.36604e-05 -5.70463e-05 -0.6722055865 0.5158521729
330298020.0 -0.6629869589 0.529216167 -0.0002302246 -0.0001529909 3.62673e-05 0.0001504585 -0.6662622872 0.5229659942
335297990.0 -0.6572632472 0.5359174376 -8.58421e-05 2.42851e-05 5.85404e-05 0.0002517115 -0.6612747357 0.5300102334
340297960.0 -0.6517065259 0.5428767849 7.37554e-05 4.16389e-05 -3.71837e-05 -0.0001204245 -0.6552565893 0.5369334205
345297930.0 -0.6463898404 0.5492373796 -1.02393e-05 -7.71712e-05 -0.0001519975 -9.71932e-05 -0.6496299376 0.5440684377
350297900.0 -0.6400790199 0.5563216072 0.000109969 0.0002160716 -8.63581e-05 3.4735e-05 -0.6439699368 0.5512840202
355297870.0 -0.6346274401 0.5626499382 -2.86974e-05 -0.0001960954 0.0001119277 0.0001721444 -0.6382995644 0.5574689758
360297840.0 -0.6286869136 0.5686098101 0.0001750627 -0.0001039771 0.0001332527 -4.23119e-05 -0.6319810456 0.5637336787
365297810.0 -0.6215478437 0.5754959324 -0.0003143475 5.45042e-05 0.0001256457 7.5818e-06 -0.6259237703 0.5708348783
370297780.0 -0.6159397458 0.5821330368 7.4486e-05 -2.16545e-05 -9.27921e-05 8.16711e-05 -0.6201040299 0.5763826574
375297750.0 -0.61048962 0.5884542664 0.0001473343 6.47283e-05 -3.43001e-05 -0.0002102128 -0.6140856571 0.5835617116
380297720.0 -0.6036266443 0.5949691099 0.0001376259 -4.42651e-05 -6.66528e-05 -2.63721e-05 -0.6077409294 0.5906408116
385297690.0 -0.5976975014 0.6012989278 2.97061e-05 0.0001731588 -3.77004e-05 -1.67954e-05 -0.6021642252 0.596125191
390297660.0 -0.5912546298 0.6071567405 -6.30282e-05 3.52758e-05 -0.0001099859 -9.84924e-05 -0.5949825316 0.6015897033
395297630.0 -0.585397741 0.6137599204 -2.39354e-05 0.0001518328 -4.602e-07 9.39321e-05 -0.5888628233 0.6083788606
400297600.0 -0.5788465473 0.6190787516 -1.7396e-05 -6.15347e-05 8.25852e-05 -5.08221e-05 -0.5827942324 0.6133187917
405297570.0 -0.5728575082 0.6250874624 -4.56683e-05 5.3513e-06 0.0001138777 0.0001663703 -0.5770405443 0.6199835812
410297540.0 -0.5653696936 0.630934923 8.37149e-05 -1.6747e-06 -0.000143129 3.29566e-05 -0.5701731686 0.625665725
415297510.0 -0.5594200633 0.6365937767 0.0001578606 8.00653e-05 3.97108e-05 -3.61065e-05 -0.5636569176 0.6317568842
420297480.0 -0.5523610533 0.642466923 -0.000133009 -2.72569e-05 -2.01678e-05 -6.82931e-05 -0.5572645065 0.6371040566
425297450.0 -0.5453757881 0.6477552421 0.0002197577 -4.87827e-05 -2.76826e-05 -0.0002018638 -0.5503329194 0.6432757356
430297420.0 -0.5397318329 0.6531468725 0.0001820498 -0.000180062 3.3178e-06 5.26219e-05 -0.5439508347 0.6484621645
435297390.0 -0.5320307326 0.6585521017 0.0001176023 -8.96344e-05 -6.25316e-05 8.8646e-06 -0.5369247056 0.6539448414
440297360.0 -0.5251048671 0.6644570115 0.0001730199 3.35758e-05 -5.55807e-05 1.64941e-05 -0.530327925 0.6587929504
445297330.0 -0.5182601156 0.6695702242 -0.0001268888 -9.97244e-05 0.0001349374 3.217e-07 -0.5238774293 0.6643259256
450297300.0 -0.5109882566 0.6749695383 -4.01363e-05 3.09159e-05 0.0001924705 -0.0001145242 -0.5166948367 0.6698352943
455297270.0 -0.5047884116 0.679818777 0.0001341914 8.94681e-05 -0.0001312486 7.441e-06 -0.5097097124 0.6753235666
460297240.0 -0.4982187982 0.6853702557 -0.0001080905 -2.91159e-05 -9.52474e-05 -1.62658e-05 -0.5026810706 0.6805229546
465297210.0 -0.4899053495 0.6902907823 0.0001211712 -0.0001760228 7.87097e-05 -0.0001912405 -0.4960521407 0.6848604147
470297180.0 -0.4829616597 0.6948260396 1.86283e-05 0.0001304281 2.09383e-05 -0.0001763544 -0.4895656772 0.6900862864
475297150.0 -0.4757376894 0.7004643089 -0.0001001519 0.0003241583 0.0001090285 -0.000282502 -0.4819430045 0.6945950813
480297120.0 -0.4687773818 0.7047580248 -5.39238e-05 -1.2474e-06 -4.84911e-05 -3.7937e-05 -0.4753714291 0.6999249154
485297090.0 -0.4610299642 0.7094106638 0.0003872411 0.0001170146 0.0001484577 8.20795e-05 -0.4677073481 0.7041501908
490297060.0 -0.4535961217 0.7141400624 3.47758e-05 -3.44301e-05 0.0002952507 6.07589e-05 -0.4608727318 0.7084894981
495297030.0 -0.4470257287 0.7190304946 3.66865e-05 7.78297e-05 3.12933e-05 -9.33219e-05 -0.4534537548 0.7129277783
500297000.0 -0.4386895835 0.7231925607 -6.37933e-05 4.19477e-05 -3.79079e-05 -0.0001381258 -0.446367876 0.7176582339
505296970.0 -0.4315667361 0.727188857 9.57756e-05 2.12885e-05 -3.63278e-05 -8.2255e-06 -0.4403902029 0.7215137301
510296940.0 -0.4243132018 0.732026058 -0.0002096928 3.56086e-05 0.0001379953 5.9018e-06 -0.4317696597 0.726147038
515296910.0 -0.4170959372 0.7363082359 -0.0001221011 -7.38077e-05 -0.0001075149 3.86226e-05 -0.42473202 0.7305467241
520296880.0 -0.4085799614 0.7407386527 -8.91239e-05 8.48216e-05 -3.46423e-05 0.0001825589 -0.4171916161 0.7344902329
525296850.0 -0.4016052881 0.7447497174 -1.91873e-05 -0.0001261685 6.92482e-05 -5.17868e-05 -0.4096915808 0.7392732462
530296820.0 -0.3945628047 0.7483115292 4.56746e-05 6.78758e-05 6.2656e-05 3.70346e-05 -0.4033931644 0.7425727032
535296790.0 -0.3863159726 0.7522070527 -4.5842e-06 -8.71195e-05 9.11088e-05 4.7394e-06 -0.3954694175 0.7463545017
540296760.0 -0.3783000448 0.756330666 0.0002074561 0.0002185273 -0.000272795 -0.0001619224 -0.3881822572 0.7503442777
545296730.0 -0.3709559667 0.7599253133 0.0002481211 -0.000155607 -0.0001587261 3.78025e-05 -0.3804364976 0.7536854861
550296700.0 -0.3634681354 0.7637618837 0.0001746456 -5.36692e-05 9.7923e-06 8.42684e-05 -0.3732332718 0.7580846995
555296670.0 -0.3549443376 0.7670005941 0.0001513517 3.83725e-05 -4.98209e-05 -1.60396e-05 -0.3653210658 0.7614372824
560296640.0 -0.3473762966 0.7705284504 2.78389e-05 -0.0002220388 -2.68278e-05 9.60011e-05 -0.3577352951 0.7652416608
565296610.0 -0.339862926 0.7742038335 0.0002815847 2.59138e-05 3.3029e-06 8.09137e-05 -0.3501354164 0.7688072496
570296580.0 -0.3319834235 0.7778244718 0.0001007325 -3.37487e-05 -0.000123591 -9.18816e-05 -0.3430875801 0.7721378118
575296550.0 -0.323970957 0.780610335 -9.49175e-05 0.0001440232 0.0001689694 -0.0001185993 -0.3348158381 0.7755348438
580296520.0 -0.3151633678 0.784235709 1.09601e-05 -8.97794e-05 0.0001529903 1.06873e-05 -0.3272417884 0.7787694211
585296490.0 -0.3077252235 0.7860134459 8.10751e-05 -0.0001285924 0.0001512599 8.24534e-05 -0.3196200606 0.7816509463
590296460.0 -0.2999129597 0.7899455606 -1.13684e-05 -0.0002540082 -1.4428e-06 2.71057e-05 -0.3114035883 0.7846050862
595296430.0 -0.2915747389 0.7937848242 7.12597e-05 -0.0001144308 4.0023e-05 -0.0001197083 -0.3035264742 0.7874372158
600296400.0 -0.2836534027 0.7959933484 4.09001e-05 -0.0001749526 0.0001069998 3.87753e-05 -0.2958416477 0.7908343746
605296370.0 -0.2751952268 0.7988446022 1.5642e-06 -2.644e-07 -7.54846e-05 -1.57775e-05 -0.2887066808 0.7940454316
610296340.0 -0.267363871 0.8018142938 -0.0001098239 2.1747e-06 0.0002036275 5.86824e-05 -0.2803541015 0.7967518226
615296310.0 -0.2590409996 0.8040961354 0.0001912386 -4.33182e-05 -6.56104e-05 -0.0001756186 -0.2723705515 0.7992515833
620296280.0 -0.2507309271 0.806416207 -0.0001634511 -0.0002187242 -2.34394e-05 -6.84555e-05 -0.2641340931 0.8017787504
625296250.0 -0.2425412499 0.808941438 -0.000100776 -0.0001042 4.9752e-05 -7.96403e-05 -0.2563868943 0.8044992228
630296220.0 -0.2343355419 0.8119730224 5.7819e-06 -0.000121589 0.0001921426 -0.0001896275 -0.2482260132 0.8072109307
635296190.0 -0.2260559718 0.8140566218 -1.6867e-06 -0.0002371709 -3.68775e-05 9.22405e-05 -0.2408185004 0.8096031109
640296160.0 -0.2176374279 0.815483794 -6.78846e-05 0.0001375817 0.0001574535 -0.0001763986 -0.2322314765 0.8114605779
645296130.0 -0.2099360115 0.8180730184 0.0001418631 -6.64578e-05 0.0001009049 0.0002863535 -0.224941168 0.8139081827
650296100.0 -0.2015143603 0.8200314783 -0.0001662325 -4.6122e-05 9.08418e-05 1.85648e-05 -0.216401728 0.8161996376
655296070.0 -0.1928134759 0.8217847479 9.60409e-05 -4.16051e-05 0.0001529694 -8.15675e-05 -0.208145459 0.8179673549
660296040.0 -0.1853649933 0.82389024 7.63969e-05 0.000156049 0.0001356825 -7.51488e-05 -0.2004168022 0.820224179
665296010.0 -0.1768101424 0.8260453164 -1.49188e-05 -1.15778e-05 7.52583e-05 6.7435e-05 -0.1927456107 0.8223462756
670295980.0 -0.1679409483 0.8273251074 -3.43036e-05 0.0001151728 -7.21062e-05 -8.05437e-05 -0.185036817 0.8241233784
675295950.0 -0.1598808284 0.8286805557 0.0003116617 -0.0001373302 0.0001557941 -0.0001536089 -0.1762612278 0.8257115143
680295920.0 -0.1516409553 0.8311022508 -5.46279e-05 4.7201e-05 0.000100857 -0.0002734627 -0.1678422694 0.8277762881
685295890.0 -0.1429595121 0.8317280807 6.76028e-05 0.0001996213 2.46343e-05 -0.0001914886 -0.1599745937 0.8293489497
690295860.0 -0.1345090076 0.8339047604 -0.0001411513 0.0002526608 -6.31329e-05 4.87572e-05 -0.1516247281 0.8304162062
695295830.0 -0.1261392562 0.834225791 -1.46543e-05 -0.0001197166 -7.39111e-05 -0.0001022419 -0.1433311502 0.8324871845
700295800.0 -0.1177890256 0.8357835692 0.0001268447 -0.0001747448 0.0001170811 7.34645e-05 -0.1348895486 0.833607088
705295770.0 -0.1088887408 0.8370477578 0.0001872491 9.66577e-05 -0.0001071133 3.68922e-05 -0.1269108358 0.8352867931
710295740.0 -0.1009939106 0.8386159707 -1.09556e-05 -7.77997e-05 6.65256e-05 -9.16123e-05 -0.1191400176 0.8362838598
715295710.0 -0.0929268035 0.8392143574 1.41661e-05 7.03294e-05 0.0001177164 0.0001043701 -0.110738077 0.8375816234
720295680.0 -0.0844111446 0.8395025037 6.30703e-05 -4.92582e-05 0.0001456707 -4.52393e-05 -0.1022275499 0.8382638735
725295650.0 -0.0748697417 0.8411300463 -3.9655e-06 0.0001828879 0.0001593209 -0.0001605572 -0.094149067 0.8395542322
730295620.0 -0.0673185607 0.8412523275 -2.78512e-05 0.0001465941 9.01252e-05 -6.56274e-05 -0.0857009478 0.8401375531
735295590.0 -0.0579331581 0.8421465787 -6.61662e-05 -0.0001877165 -9.63156e-05 -2.5543e-06 -0.0767612798 0.8408260733
740295560.0 -0.0499102713 0.8427732278 0.0001865047 -0.0001937859 -9.01158e-05 -1.27304e-05 -0.0690448458 0.8415765295
745295530.0 -0.0418671755 0.8428903906 -4.5939e-06 4.12062e-05 -0.0001475707 2.43647e-05 -0.060802754 0.8421696833
750295500.0 -0.0339210523 0.843112034 -0.0002561016 0.0001478668 -7.30134e-05 5.92436e-05 -0.052875717 0.8422485198
755295470.0 -0.0237716747 0.8437816402 -6.02862e-05 0.0002448336 -0.0001551993 3.32946e-05 -0.0443852671 0.8433270339
760295440.0 -0.0164520817 0.8438871652 -4.5415e-05 -2.05763e-05 -0.0001849992 3.59304e-05 -0.0361098786 0.8438426364
765295410.0 -0.0079472753 0.8437019459 -4.68314e-05 0.0001753066 -2.57523e-05 0.0001060614 -0.0273762895 0.8440513904
770295380.0 0.0006057242 0.8441634425 -7.64437e-05 -9.71944e-05 -3.80007e-05 0.0002999126 -0.0186621105 0.8442665224
775295350.0 0.0090168158 0.844293389 1.49556e-05 -6.39119e-05 0.0002213403 -2.48919e-05 -0.0111156693 0.8439244202
780295320.0 0.0179398742 0.8434165338 -2.84929e-05 -5.15526e-05 -2.60845e-05 -7.22725e-05 -0.0031424345 0.8448683788
785295290.0 0.0259456608 0.8438619496 -6.1116e-06 -6.48322e-05 -0.0001125297 7.09229e-05 0.0052881867 0.8442968862
790295260.0 0.0348906626 0.8429302377 -0.0001243111 2.14099e-05 4.3971e-05 -7.17064e-05 0.0146945317 0.8441761716
795295230.0 0.0427386062 0.8433473459 4.30947e-05 -0.0002702498 -0.0002187209 6.28989e-05 0.0220921527 0.8445747539
800295200.0 0.0510974499 0.8425878423 -0.0002304882 -6.5724e-06 -6.40362e-05 0.0001018406 0.0304021291 0.8434852751
805295170.0 0.0598361431 0.8420263487 -6.02119e-05 1.87498e-05 0.0001700124 -4.4585e-05 0.0382417001 0.8428398169
810295140.0 0.0679075762 0.8414994668 -0.0002160073 5.10157e-05 0.0001051127 -1.85392e-05 0.0467913503 0.8434724539
815295110.0 0.0770334778 0.8400242534 7.8224e-06 0.0002102008 7.4225e-05 2.73103e-05 0.0553618964 0.8424610183
820295080.0 0.0849807023 0.839152911 -0.0001069492 -0.0001928248 1.34005e-05 0.0001546956 0.0634161281 0.8419846895
825295050.0 0.0939123905 0.838224775 -6.7823e-05 6.68065e-05 2.53843e-05 -0.000111487 0.071739083 0.841334312
830295020.0 0.1020656146 0.8380008151 3.87846e-05 0.0001475815 2.2724e-06 5.90311e-05 0.0795759903 0.8403585983
835294990.0 0.109894101 0.8367695955 2.92876e-05 4.1464e-05 0.0002059788 -0.0001565467 0.0882085393 0.839465956
840294960.0 0.1185888522 0.8352905667 -3.55338e-05 2.70041e-05 1.06742e-05 0.0001258356 0.0959965339 0.839010484
845294930.0 0.1271484476 0.8341331411 -6.27921e-05 -0.0002302561 -4.49029e-05 0.0001385123 0.104642843 0.837562752
850294900.0 0.1354678121 0.8329287064 3.00583e-05 -0.0002102358 0.0001674329 -3.51421e-05 0.1127811361 0.8365592527
