!Created with skrf (http://scikit-rf.org).
# Hz S RI R 50.0 
!freq ReS11 ImS11 ReS21 ImS21 ReS12 ImS12 ReS22 ImS22
300000.0 -0.2434228188 -0.0811543441 0.4729161588 0.0541685826 0.4710039117 0.0510626247 -0.2400688869 -0.0898676604
5299970.0 -0.2450769072 0.0068284761 0.4753001816 0.0049436935 0.4752032896 0.004664171 -0.2415281263 0.0076477414
10299940.0 -0.2419293474 0.0179800923 0.4770620234 0.0059445964 0.4767621781 0.0064165844 -0.2381059388 0.0204722348
15299910.0 -0.2376328914 0.0269470139 0.4805001196 0.0073682809 0.4806914135 0.0073564449 -0.2335728618 0.030099762
20299880.0 -0.2331761417 0.034017596 0.4851401995 0.0083143358 0.484945054 0.0079116497 -0.2281517924 0.0379594645
25299850.0 -0.2277457327 0.0402913108 0.4901283666 0.0072103856 0.4902125694 0.0070990082 -0.2222214397 0.0444835518
30299820.0 -0.2225826995 0.0451907563 0.4956068846 0.0050832702 0.4958667054 0.0050009292 -0.2164495906 0.0501011384
35299790.0 -0.2175722492 0.0489610709 0.5005451098 0.0014952484 0.5008995901 0.0012544253 -0.2108738315 0.0542310064
40299760.0 -0.2126343048 0.052380975 0.5057510833 -0.0024923004 0.5061768408 -0.0024286021 -0.2055140974 0.0573655288
45299730.0 -0.2076581716 0.0546843881 0.5101178267 -0.0072760919 0.5108628702 -0.0067940843 -0.2004783843 0.0599735227
50299700.0 -0.203988899 0.0568596846 0.5151464025 -0.0126607681 0.5152609498 -0.0120332282 -0.1957844761 0.0619466498
55299670.0 -0.1999619718 0.0584352888 0.5185684467 -0.0186150325 0.5186886236 -0.0183814768 -0.1915228235 0.0639497313
60299640.0 -0.1961382145 0.0599860512 0.5225814169 -0.0250349813 0.5221031685 -0.0245347711 -0.1871768764 0.0651151519
65299610.0 -0.1929239988 0.0607655305 0.5248378771 -0.0312987685 0.5250095644 -0.0310294201 -0.1841393314 0.0663504444
70299580.0 -0.1899891555 0.0620712557 0.5272034239 -0.0376836878 0.5274016286 -0.0372831361 -0.1807133169 0.0671952078
75299550.0 -0.1871272136 0.0628144717 0.5292814371 -0.0441480652 0.5287794026 -0.0445501722 -0.1778220469 0.0682304431
80299520.0 -0.1844649346 0.0635078237 0.5308552953 -0.0515936566 0.531403437 -0.0516505963 -0.1751181445 0.0693352501
85299490.0 -0.182414138 0.0642956805 0.5318130588 -0.0582168585 0.5325874714 -0.0580151075 -0.1729625414 0.0697557438
90299460.0 -0.1803471545 0.0645725674 0.5329566148 -0.0652205098 0.5338349347 -0.0652094215 -0.1704265404 0.070301596
95299430.0 -0.1781954419 0.0650799939 0.5342457118 -0.0719018924 0.5340510423 -0.0723419964 -0.1683340147 0.0713414388
100299400.0 -0.1765741925 0.0661800076 0.5340036103 -0.0788982593 0.5342323286 -0.0788610334 -0.1659662042 0.0716214783
105299370.0 -0.1745861434 0.066781324 0.5342111988 -0.0860190678 0.5351651945 -0.0855407371 -0.1640066303 0.0725332818
110299340.0 -0.1734552796 0.0673631109 0.5350887912 -0.0923669039 0.5347747912 -0.0924334031 -0.1629387494 0.0733037341
115299310.0 -0.1719576889 0.0681286804 0.535104002 -0.0994868605 0.5349596446 -0.0991761687 -0.1612288916 0.0741924704
120299280.0 -0.1708386588 0.0684019203 0.5347476288 -0.1062947338 0.5346251245 -0.1059925281 -0.1596867988 0.0747870278
125299250.0 -0.1696019972 0.0690935835 0.5343154158 -0.1129099654 0.5345554856 -0.1125158698 -0.1585774325 0.0751323482
130299220.0 -0.1687045075 0.0700493522 0.5334301678 -0.1198119304 0.5336342952 -0.1197703473 -0.1570333484 0.0760660387
135299190.0 -0.1676712196 0.0711459145 0.5330196194 -0.1266917862 0.5330381018 -0.1261864001 -0.1557757905 0.0770976483
140299160.0 -0.1667423053 0.0720405886 0.5322882867 -0.1330528336 0.5324941837 -0.1330904547 -0.1547834489 0.0782570986
145299130.0 -0.1656197096 0.0730034997 0.5314129057 -0.1390883407 0.5311686108 -0.1393197097 -0.1538234084 0.0791034419
150299100.0 -0.1646121988 0.0739256486 0.5298952004 -0.1458179884 0.5302900511 -0.1456017028 -0.1526267142 0.0806629519
155299070.0 -0.1641812657 0.0747372776 0.5294160549 -0.1530811608 0.528654843 -0.1524064051 -0.1515184929 0.0815132301
160299040.0 -0.1628811478 0.0759530645 0.5272929024 -0.1587726937 0.5270657785 -0.1587149467 -0.151053273 0.0824068529
165299010.0 -0.1623373159 0.0770848884 0.5259671034 -0.1656166744 0.5259366346 -0.1654054027 -0.1495723745 0.083960918
170298980.0 -0.1617178206 0.0779229777 0.5242764757 -0.1719385876 0.5249444631 -0.1719221908 -0.1486350036 0.084796214
175298950.0 -0.1609361186 0.0788631271 0.5233370556 -0.1782191093 0.5227041596 -0.1777969675 -0.1481192744 0.0859592312
180298920.0 -0.1602003563 0.0800727075 0.5214741306 -0.1844881098 0.5213285097 -0.1840863158 -0.1472624236 0.0873757589
185298890.0 -0.1590645266 0.0809979868 0.5191057009 -0.1905671368 0.519485142 -0.1904968723 -0.1461923587 0.088756841
190298860.0 -0.1585666866 0.0823676096 0.5178035659 -0.1965957255 0.5175280071 -0.1966037709 -0.1451538975 0.0896511002
195298830.0 -0.1578902694 0.0833474727 0.5154408192 -0.2026960209 0.5155566357 -0.2026872134 -0.143972092 0.0910846199
200298800.0 -0.1569477267 0.0847228783 0.513326787 -0.2088720084 0.5136848364 -0.2092247306 -0.1434348113 0.0921477577
205298770.0 -0.1562107135 0.0860314134 0.5110623284 -0.2152434931 0.5109883257 -0.214642161 -0.1424273658 0.0928589639
210298740.0 -0.1554507742 0.0870146975 0.5087325312 -0.2202656028 0.5088768773 -0.2208974452 -0.1411781277 0.0953113491
215298710.0 -0.1550390551 0.0885316872 0.506381082 -0.2270260185 0.5066244475 -0.2268602412 -0.1403560602 0.0962066334
220298680.0 -0.154125097 0.089262772 0.5035618444 -0.2325276918 0.5039481754 -0.2325502956 -0.1397033392 0.0973150617
225298650.0 -0.1532844885 0.0906681061 0.5015491886 -0.2388312598 0.502022353 -0.2385246077 -0.1388590783 0.0987829525
230298620.0 -0.1524659995 0.0924216357 0.4993094306 -0.2439916861 0.4998132443 -0.2442126931 -0.1380404939 0.0997061009
235298590.0 -0.1519712514 0.0937986955 0.4966942032 -0.24979119 0.4965805637 -0.2495787794 -0.1366476557 0.1014964552
240298560.0 -0.1509721626 0.0947731655 0.4933780796 -0.2555805074 0.4936721022 -0.2561005391 -0.1358695381 0.1031629945
245298530.0 -0.1503477121 0.0962071249 0.4912130984 -0.2617311167 0.4910063659 -0.2617406026 -0.1345650655 0.1038433728
250298500.0 -0.1493369779 0.0976039216 0.4873562798 -0.2672097469 0.487856694 -0.2671307819 -0.1338163928 0.1057414402
255298470.0 -0.1487202401 0.0981839578 0.4844195627 -0.2723408146 0.4851706478 -0.2727115731 -0.1324293563 0.1066027577
260298440.0 -0.1481594664 0.0998108676 0.4821964608 -0.2782991421 0.4824300106 -0.2781472319 -0.1311407341 0.1082669053
265298410.0 -0.146911651 0.1016190697 0.4788602675 -0.2838038308 0.4792900604 -0.2835111847 -0.1303069234 0.1098854106
270298380.0 -0.1459821383 0.1028827368 0.4762781719 -0.2887308545 0.4759533829 -0.2891938744 -0.129487043 0.1113880105
275298350.0 -0.1449739633 0.1042927481 0.4730455641 -0.2946508099 0.4732740667 -0.2946011424 -0.1282168056 0.1125953322
280298320.0 -0.1439146347 0.1056550466 0.4698835318 -0.299959138 0.4700221829 -0.2996380167 -0.1266899264 0.1139285299
285298290.0 -0.1430128114 0.1072561975 0.4668422645 -0.3054715495 0.4665691119 -0.3052452398 -0.1255550226 0.1152838685
290298260.0 -0.1419268759 0.1085783632 0.4636113988 -0.3107498528 0.4632608405 -0.3108375173 -0.1246905483 0.1168088123
295298230.0 -0.1408554821 0.1093881777 0.4601488333 -0.315328087 0.4600410809 -0.3155121802 -0.1227877666 0.1180247381
300298200.0 -0.14037042 0.1110904425 0.4570490829 -0.320977665 0.4567754162 -0.3212052611 -0.1218952152 0.119541789
305298170.0 -0.1390139181 0.1123281953 0.4527675801 -0.3266816154 0.4528839746 -0.3261400419 -0.1203317187 0.120483485
310298140.0 -0.1381602914 0.1135398089 0.4498028416 -0.3312784789 0.4499165762 -0.3313294555 -0.1192863479 0.1217917341
315298110.0 -0.137184384 0.1146898667 0.4459156525 -0.3366535557 0.4462287817 -0.3365939272 -0.1179238002 0.1230158223
320298080.0 -0.1360435238 0.1160880695 0.4415530211 -0.3418539775 0.4423423018 -0.3414732305 -0.1166423232 0.1244685152
325298050.0 -0.1351981585 0.1173211594 0.4386506043 -0.3468776903 0.4382448422 -0.3466836653 -0.1157851411 0.1257199636
330298020.0 -0.1342613401 0.1181889692 0.4340916092 -0.3514636856 0.4345599357 -0.3517287046 -0.1146969763 0.1267292417
335297990.0 -0.1332125068 0.119645832 0.4301903917 -0.3566787557 0.4304394009 -0.356836862 -0.1139006031 0.1287579973
340297960.0 -0.1325800351 0.1210355439 0.4258703357 -0.3610808985 0.4256796357 -0.3615485727 -0.1120476973 0.1299312541
345297930.0 -0.1315800493 0.1226637058 0.4218749718 -0.3659172455 0.4217732664 -0.3666349404 -0.1109352099 0.1305569437
350297900.0 -0.1307640425 0.1238048414 0.4176370921 -0.3709651645 0.417922057 -0.3710644939 -0.1098433291 0.1329084587
355297870.0 -0.1291808885 0.1258030591 0.4137577443 -0.3754228905 0.4138502797 -0.3753763828 -0.1084143259 0.1338222912
360297840.0 -0.1283224632 0.1269284219 0.410124481 -0.3798775328 0.4099680132 -0.3797835464 -0.1070500685 0.1353696474
365297810.0 -0.1272408268 0.1284545 0.4056564975 -0.3843694166 0.405769721 -0.3842791196 -0.1057090345 0.1363976256
370297780.0 -0.1259605849 0.1295660857 0.4010853835 -0.3885735841 0.4017084164 -0.3884753551 -0.1041229884 0.1381160341
375297750.0 -0.1245098869 0.1308536069 0.3965103222 -0.3929912423 0.3973577589 -0.3931737047 -0.1023720807 0.1391051276
380297720.0 -0.1232823255 0.1320593607 0.392328049 -0.3973548775 0.3926946695 -0.3970124634 -0.1013564778 0.140369006
385297690.0 -0.1225308542 0.1334232961 0.3878385055 -0.401625421 0.3881693927 -0.4017193659 -0.0996885892 0.1418850372
390297660.0 -0.1210619329 0.1349282426 0.3835542458 -0.4061056454 0.3835915303 -0.4059116559 -0.0983847443 0.142974445
395297630.0 -0.1197883552 0.1362474368 0.3795024348 -0.4103654673 0.3792810195 -0.4107144319 -0.0961427493 0.144446294
400297600.0 -0.1188961679 0.1376106182 0.3744557718 -0.4143388297 0.375020259 -0.4146384892 -0.0951792795 0.14564626
405297570.0 -0.117533227 0.1388755963 0.3699095408 -0.41850428 0.3703835436 -0.4180578476 -0.0937663957 0.146281162
410297540.0 -0.1162825048 0.1400818672 0.3659305498 -0.422321371 0.3661801499 -0.42265269 -0.092304856 0.1482523327
415297510.0 -0.1145355955 0.1411904674 0.3608147113 -0.426991748 0.3612595349 -0.4268462216 -0.0901872869 0.1493448866
420297480.0 -0.1135794402 0.1429825393 0.3558739739 -0.4305279558 0.3562489026 -0.430512939 -0.088829968 0.1499587814
425297450.0 -0.1119883784 0.1435686292 0.3516067823 -0.4340912788 0.352081747 -0.4343368775 -0.0878454375 0.1518204982
430297420.0 -0.1107846707 0.1447721001 0.3467652964 -0.4374191911 0.3470450019 -0.4376717681 -0.0860163039 0.1523928954
435297390.0 -0.1095307059 0.1459838309 0.3414784525 -0.4415320557 0.3414844341 -0.4420330299 -0.0835052927 0.1535687937
440297360.0 -0.1082289023 0.1473209192 0.3370482058 -0.4451914224 0.3371450251 -0.4454141228 -0.0821726173 0.1545694474
445297330.0 -0.1069437031 0.1482870492 0.3320239382 -0.4491032465 0.3326019585 -0.4488297577 -0.0806491167 0.1552537427
450297300.0 -0.104987368 0.1493870221 0.3270434167 -0.4527183328 0.3273574907 -0.4528591842 -0.0789277611 0.1561142274
455297270.0 -0.1037862214 0.1506305993 0.3218851279 -0.4565090782 0.3226790094 -0.4560322977 -0.0771935663 0.1575866812
460297240.0 -0.1025783913 0.1519037195 0.3169743493 -0.4594364101 0.3175030086 -0.4599171939 -0.075610051 0.1589340344
465297210.0 -0.100726392 0.1529258658 0.3120666035 -0.463345217 0.3122519723 -0.4630279165 -0.0737951828 0.1595841694
470297180.0 -0.0993516258 0.1541342156 0.3064416434 -0.4667678313 0.3073116704 -0.4665758144 -0.0718216741 0.1607914835
475297150.0 -0.0980768198 0.1549094566 0.3018029311 -0.4694025822 0.3021463608 -0.4693650645 -0.0696869961 0.1611337431
480297120.0 -0.0964907598 0.1564418599 0.2965931181 -0.4730085521 0.2966630024 -0.473416495 -0.0682017883 0.1624188566
485297090.0 -0.0951336378 0.1572702621 0.2919176351 -0.4763494802 0.2919804639 -0.4760156022 -0.0665060718 0.1629328704
490297060.0 -0.0938089153 0.1585450639 0.2874389176 -0.4794038638 0.2867158911 -0.4791206961 -0.0646879061 0.1644081496
495297030.0 -0.0920353594 0.1595287857 0.2810624913 -0.4823061913 0.2818479179 -0.482532419 -0.0633347937 0.1650687843
500297000.0 -0.0904811645 0.1605319262 0.2758576809 -0.4850403295 0.2756336124 -0.4849476966 -0.0609530399 0.1663616677
505296970.0 -0.0888995246 0.1616974381 0.2708828523 -0.4881085198 0.2706104261 -0.4884836635 -0.0594341404 0.1668198138
510296940.0 -0.0874440497 0.1626075108 0.2649906954 -0.4912869311 0.2653108605 -0.4914769509 -0.0572762996 0.1678661444
515296910.0 -0.0856937299 0.1636239768 0.2599693837 -0.4940881975 0.2599600007 -0.4940064507 -0.0552380578 0.1684983047
520296880.0 -0.0843945516 0.1646149725 0.2544963856 -0.4972178889 0.2546678653 -0.4966733267 -0.0535731858 0.1692241726
525296850.0 -0.0826154803 0.1650158257 0.2492734205 -0.4994783401 0.2493424283 -0.4996288013 -0.0519020982 0.1699674713
530296820.0 -0.0807835114 0.1665166615 0.2437680808 -0.5023137405 0.2436539819 -0.502462942 -0.0498221113 0.1705410604
535296790.0 -0.0798145414 0.1670805355 0.2386091166 -0.5044915583 0.2385142985 -0.5042186062 -0.0484024964 0.1710099099
540296760.0 -0.0781143357 0.1680554337 0.2327989487 -0.5074357032 0.2329694751 -0.5073938258 -0.0465667878 0.1724248819
545296730.0 -0.0763866963 0.1690453745 0.226749598 -0.5096425625 0.2273697417 -0.5099795202 -0.044499271 0.1726070461
550296700.0 -0.0741441953 0.169667464 0.221413598 -0.5116170772 0.2217516317 -0.5124951106 -0.0425535306 0.1732418758
555296670.0 -0.0730835525 0.1705086319 0.216277654 -0.5145678514 0.2163148061 -0.5144367753 -0.0405476908 0.1742285289
560296640.0 -0.0711758975 0.1718244174 0.210595122 -0.5168177002 0.2102883791 -0.5169772972 -0.0385636597 0.1745715523
565296610.0 -0.0697472988 0.1724735064 0.204588783 -0.5189974818 0.2050907134 -0.5191540733 -0.0366942463 0.1747951129
570296580.0 -0.0682714766 0.1731589394 0.1991721144 -0.5218236769 0.1991181574 -0.5218744295 -0.0348491248 0.1761351922
575296550.0 -0.0664069164 0.1741413202 0.1935833351 -0.5236932299 0.1936981111 -0.5237442951 -0.0329598081 0.1764314407
580296520.0 -0.0647622334 0.1747918751 0.1876848195 -0.5258527179 0.1879273418 -0.5257871621 -0.0307753837 0.1769342679
585296490.0 -0.0632694116 0.1754546312 0.1824335235 -0.5272343386 0.1824293594 -0.5275099502 -0.0286141726 0.1773798502
590296460.0 -0.0609714418 0.1761174817 0.1762781978 -0.5288673744 0.1767195643 -0.529231951 -0.0274095813 0.177692388
595296430.0 -0.0594588979 0.1771392996 0.1705546273 -0.531427949 0.1707988381 -0.53116184 -0.025058363 0.1780676463
600296400.0 -0.0579388181 0.1777611493 0.1648409282 -0.5332142847 0.1648556622 -0.5326648775 -0.0230096671 0.1786402508
605296370.0 -0.0559929781 0.1785602266 0.1591147327 -0.5344694537 0.1593530446 -0.5345768236 -0.0210201647 0.1789209127
610296340.0 -0.0543983399 0.1791603235 0.1528583738 -0.5363481665 0.153576861 -0.5364095146 -0.0190016959 0.1793553708
615296310.0 -0.0525437147 0.1796847098 0.1473003194 -0.5379781011 0.147393062 -0.5383861042 -0.0169742689 0.1798099263
620296280.0 -0.0509237607 0.1799587107 0.1414575465 -0.5390011203 0.1417981067 -0.5394858377 -0.015482815 0.1800357329
625296250.0 -0.0494960616 0.18080941 0.1361791654 -0.5412261739 0.1357485728 -0.5414556555 -0.012540244 0.1802848042
630296220.0 -0.0468127146 0.1814440403 0.1294215631 -0.5421311532 0.1296020214 -0.5422644024 -0.0108284738 0.1807440393
635296190.0 -0.0461498953 0.1821749359 0.1240496362 -0.5433586731 0.124009785 -0.5437733969 -0.0088143718 0.1811611154
640296160.0 -0.0439528732 0.1831045957 0.1181412622 -0.5448859457 0.1180080912 -0.5450816052 -0.0070220436 0.1813263533
645296130.0 -0.0421230003 0.183575809 0.1122011753 -0.546306291 0.1124282606 -0.5461318715 -0.0050019739 0.1817664011
650296100.0 -0.0403344512 0.1837842875 0.1062387331 -0.5470970289 0.1063208736 -0.5473616866 -0.0026342976 0.1813909179
655296070.0 -0.0385983131 0.1845471582 0.1005116308 -0.548220283 0.1006985493 -0.5482827206 -0.0008388042 0.1821631514
660296040.0 -0.037197705 0.1847168636 0.0946904048 -0.5491921186 0.0948643968 -0.5494074967 0.0017284649 0.1819092592
665296010.0 -0.0346713144 0.1850421394 0.0880078293 -0.5498812782 0.0887623696 -0.5505760414 0.0034951329 0.1827195748
670295980.0 -0.0341094864 0.1858307292 0.0830997969 -0.5508715014 0.0828345288 -0.551170353 0.0049017263 0.1825978829
675295950.0 -0.0317407118 0.1864601008 0.0767572371 -0.5519013075 0.0767017597 -0.5517874201 0.0068914067 0.1824243571
680295920.0 -0.0299731825 0.1865810945 0.0706442902 -0.5523226562 0.0703829141 -0.553124997 0.0093090586 0.1832000241
685295890.0 -0.0279440508 0.187723183 0.0646571337 -0.5536854142 0.0649883556 -0.5536862096 0.0110966849 0.1828819672
690295860.0 -0.0262157445 0.1876735761 0.0588131039 -0.5538636099 0.0588451676 -0.5542780365 0.0132077868 0.1834796263
695295830.0 -0.0240818864 0.1878589134 0.0530025683 -0.5544978082 0.0529519155 -0.5547243431 0.0151325892 0.183012535
700295800.0 -0.0226047244 0.1882265965 0.0469378469 -0.5550755457 0.0466933708 -0.5548400773 0.0167802166 0.1831966071
705295770.0 -0.0208989593 0.1890951114 0.0405007174 -0.5554548666 0.0409276533 -0.5559585644 0.0191022206 0.1832486111
710295740.0 -0.01901099 0.1891518 0.0348446979 -0.5561554285 0.035263402 -0.556168886 0.0211040731 0.1827515425
715295710.0 -0.0174447666 0.1891461985 0.0293383286 -0.5560185225 0.0285239902 -0.5560664792 0.0233323931 0.1825901895
720295680.0 -0.0150746426 0.1895338577 0.0226350124 -0.5563435919 0.0230545796 -0.5565172748 0.0257897117 0.1828511067
725295650.0 -0.013528033 0.1901637628 0.0168212473 -0.5568456268 0.0167390118 -0.5567319644 0.0270298821 0.1828011979
730295620.0 -0.0113624387 0.1905593567 0.0108006502 -0.5569465926 0.0112127688 -0.5570282711 0.0288137584 0.1823503182
735295590.0 -0.0096070237 0.1908338002 0.0048633328 -0.5570772306 0.0047300062 -0.556927283 0.0310328275 0.1821312031
740295560.0 -0.0080479391 0.1909084612 -0.0007922271 -0.5566390505 -0.0009920532 -0.5571690363 0.0335503091 0.1820189654
745295530.0 -0.005930198 0.1914182502 -0.0071465035 -0.5564003065 -0.0073015642 -0.5568250993 0.0354174438 0.1816331609
750295500.0 -0.0040200293 0.1913376715 -0.0130482873 -0.556266599 -0.0133453878 -0.5567112344 0.0374206342 0.181722886
755295470.0 -0.0022554522 0.19136228 -0.0191773253 -0.5564085885 -0.0189017517 -0.5569419646 0.039743756 0.1807897497
760295440.0 -0.0006106515 0.1919231257 -0.0253926358 -0.5565698239 -0.0251883743 -0.556439052 0.0416416984 0.1809019316
765295410.0 0.0015336758 0.1918822675 -0.0310818262 -0.5556917608 -0.0312858393 -0.5563224474 0.0436728637 0.1805638631
770295380.0 0.0029759789 0.1917846776 -0.0371235408 -0.5554717306 -0.0370644136 -0.5553478682 0.045608753 0.180186197
775295350.0 0.0046913244 0.1915278772 -0.0430617357 -0.5549134975 -0.042771986 -0.5551406007 0.047025736 0.1801359101
780295320.0 0.0067740836 0.1921064304 -0.0492312461 -0.5542299427 -0.0481183375 -0.5546173022 0.0493367371 0.1791799451
785295290.0 0.0084342275 0.191662645 -0.0552791535 -0.5533245912 -0.0549922579 -0.5538674576 0.0518573349 0.1792224589
790295260.0 0.0108412685 0.1924348334 -0.0605308711 -0.5530368681 -0.060200051 -0.5533684796 0.0538365698 0.178665202
795295230.0 0.0124766764 0.1919544839 -0.0666275438 -0.5521814562 -0.0660750943 -0.5525874544 0.0558426844 0.178353578
800295200.0 0.0142672373 0.1923835462 -0.0738217241 -0.5514967163 -0.0725953583 -0.551669286 0.0577485019 0.1780413239
805295170.0 0.0163196732 0.1921797641 -0.0787850182 -0.5506050009 -0.078687673 -0.5510107088 0.0595382867 0.1775205583
810295140.0 0.017898615 0.19171194 -0.0842530427 -0.5497334268 -0.084647113 -0.5499347941 0.0617230535 0.1772732427
815295110.0 0.0199456777 0.1918095184 -0.0905254467 -0.5489696149 -0.090172484 -0.5489554896 0.0633567436 0.1765509166
820295080.0 0.0214249216 0.1923318121 -0.0965422614 -0.5477713966 -0.0958566349 -0.5481560685 0.0654937258 0.1761861363
825295050.0 0.0240197007 0.1918776144 -0.1020328562 -0.5465841859 -0.1016636417 -0.5465340042 0.0675468053 0.175570045
830295020.0 0.0255510212 0.1918840871 -0.10841136 -0.5453375519 -0.1084182152 -0.5457949546 0.0701242136 0.1749450747
