!Created with skrf (http://scikit-rf.org).
# Hz S RI R 50.0 
!freq ReS11 ImS11 ReS21 ImS21 ReS12 ImS12 ReS22 ImS22
300000.0 -0.7727877303 -0.1502480575 -0.0004677693 0.0019248915 0.0003473611 0.0004224635 -0.0490564706 -0.0676925946
5299970.0 -0.785485324 -0.0072157845 -7.55535e-05 -0.0001658887 -5.11586e-05 -0.0002755674 -0.0493325364 0.0145542289
10299940.0 -0.7874565342 -0.0043565351 -8.17414e-05 -1.62641e-05 -6.79547e-05 -8.787e-07 -0.0440629195 0.0321820069
15299910.0 -0.7936276865 -0.0017810823 0.000239618 -0.0001258821 -0.0001506077 -2.05795e-05 -0.0353698704 0.0465122014
20299880.0 -0.799398866 0.0021213431 -0.0001163442 -0.000120119 0.0001807389 0.0001016318 -0.0258381934 0.0583990898
25299850.0 -0.8064137742 0.0079246969 7.913e-06 6.92751e-05 0.0002635746 0.0001059091 -0.0152540376 0.067724154
30299820.0 -0.8117088064 0.0165601869 -1.92239e-05 0.0002826501 2.0914e-05 2.22552e-05 -0.0037334117 0.0747090557
35299790.0 -0.8169257511 0.0251324461 -7.29665e-05 -0.0001311261 0.0001081132 -7.23036e-05 0.0078960578 0.0794209939
40299760.0 -0.8213414538 0.0343020008 -0.0001126438 0.0001635808 0.0001335342 -9.4622e-05 0.0188708961 0.0824106986
45299730.0 -0.8247406957 0.044830757 2.7036e-05 0.0001390517 -9.04974e-05 -0.0001596534 0.029304247 0.0840294715
50299700.0 -0.8267478094 0.0536927765 -0.000151313 8.31455e-05 -0.0001820212 0.0003289654 0.0395015392 0.0844320731
55299670.0 -0.8285111467 0.0640352774 -2.9075e-06 6.71864e-05 -7.2389e-06 0.0001158964 0.0482194776 0.0833557554
60299640.0 -0.8297071334 0.0743650027 -0.0001093676 2.52771e-05 -5.4415e-06 -1.77065e-05 0.0570899096 0.0816731221
65299610.0 -0.830916848 0.0850693461 5.76453e-05 -6.92004e-05 7.87409e-05 -8.88905e-05 0.0647844061 0.0798034053
70299580.0 -0.8312256308 0.0950368225 2.15063e-05 0.0001246763 1.82169e-05 -0.000113276 0.071858012 0.0767021879
75299550.0 -0.8317054815 0.1048333427 -9.88418e-05 8.62456e-05 5.36873e-05 -4.32948e-05 0.0780921054 0.07374913
80299520.0 -0.8311016296 0.1147133607 -7.35911e-05 0.0001079941 -2.53563e-05 0.0001277052 0.083463918 0.0702840668
85299490.0 -0.8309311827 0.124284284 -4.009e-06 0.0001164514 -0.0001009922 -1.02241e-05 0.0886039181 0.0666830363
90299460.0 -0.8301045269 0.134286583 8.97374e-05 0.0001151871 7.18682e-05 8.5469e-05 0.0934866881 0.0629802558
95299430.0 -0.8285554836 0.143829608 -0.0002823088 -0.0001365271 6.71274e-05 -2.99309e-05 0.0974183428 0.0591544865
100299400.0 -0.8281657806 0.1533562106 0.0001087615 -6.04601e-05 1.94911e-05 0.0003122731 0.1009594026 0.0551510973
105299370.0 -0.8264901805 0.1621786419 -2.24867e-05 1.08677e-05 -4.7698e-05 -5.71132e-05 0.1047077931 0.0514157636
110299340.0 -0.8252414611 0.1710655068 -0.0001587832 4.31535e-05 0.0001713127 0.0001143049 0.1070968336 0.047765747
115299310.0 -0.8238298698 0.180658485 2.8206e-06 9.64954e-05 0.0001941795 0.0001252336 0.1099508233 0.0433054872
120299280.0 -0.8221804844 0.1891819241 8.29725e-05 0.0002160178 0.0002534888 2.92536e-05 0.112323569 0.0399621634
125299250.0 -0.820314699 0.1985734333 6.55293e-05 0.0001083513 5.50042e-05 0.0002977444 0.1143284867 0.0358045514
130299220.0 -0.8185339955 0.2074263471 -0.0001397822 -4.62482e-05 1.86703e-05 0.0001452147 0.115869067 0.032584374
135299190.0 -0.816609159 0.2165504351 0.0002126392 -0.000193815 -3.11646e-05 0.0002613898 0.1174566114 0.0289273752
140299160.0 -0.8146644078 0.2257960287 6.2367e-06 0.0001694999 -3.81232e-05 1.91874e-05 0.118994631 0.0252446483
145299130.0 -0.8123307457 0.2342255673 5.17709e-05 0.0002151739 8.68719e-05 0.0001718363 0.1196648335 0.0220581383
150299100.0 -0.8104543513 0.2428234202 -6.0031e-06 -6.02582e-05 6.47835e-05 0.0002439017 0.1206746072 0.018637375
155299070.0 -0.807335544 0.252555772 0.0002933846 9.87342e-05 0.0001251108 5.14183e-05 0.1214739264 0.0155321954
160299040.0 -0.805100615 0.2611056106 5.65669e-05 5.63333e-05 0.0001163209 7.92485e-05 0.1224041048 0.0122978921
165299010.0 -0.8020300805 0.2697443029 -7.15054e-05 0.0002869804 6.33159e-05 0.0001578959 0.1228171955 0.0088223683
170298980.0 -0.79946722 0.2780494496 0.0001897972 0.0001361999 0.0001789857 0.0002573883 0.1235238698 0.0063232569
175298950.0 -0.7968388739 0.2873056653 5.30414e-05 -2.38118e-05 0.0001032772 0.0001842906 0.1235887394 0.0028146507
180298920.0 -0.7940304505 0.2950516923 5.13593e-05 -1.051e-07 0.000190324 0.0003650745 0.1240245572 -8.10155e-05
185298890.0 -0.7905365645 0.304161665 -6.799e-06 0.0002870467 6.82798e-05 2.51833e-05 0.1240766428 -0.0034464562
190298860.0 -0.7868198254 0.3120657766 -0.000101008 -4.41262e-05 -4.87195e-05 0.0001771957 0.1244985713 -0.0055249774
195298830.0 -0.7837338688 0.3210452152 0.0001763973 -8.58586e-05 0.0001138253 -4.17368e-05 0.1244015194 -0.0085367472
200298800.0 -0.7812558663 0.3294119512 0.0001229444 -6.27203e-05 -0.0001424298 0.0001521971 0.1246121218 -0.0114291637
205298770.0 -0.7771761164 0.3380119072 1.88769e-05 0.0001373594 3.93829e-05 -4.2652e-05 0.1244803673 -0.0138018925
210298740.0 -0.77332661 0.3457830692 7.02778e-05 -3.78583e-05 8.73664e-05 6.15808e-05 0.1241223866 -0.0165157217
215298710.0 -0.7707971526 0.354394798 1.74599e-05 1.9979e-05 -5.50287e-05 0.0001366949 0.1235955261 -0.0186537682
220298680.0 -0.7672658238 0.3624598357 0.0002813764 8.06571e-05 1.92317e-05 0.0001799913 0.123725276 -0.0212111342
225298650.0 -0.7626313149 0.3710137741 0.0001145681 -3.40805e-05 7.65696e-05 2.00023e-05 0.1228782721 -0.0231850588
230298620.0 -0.7585973585 0.3788824693 0.000193796 0.0002120314 0.0001157384 7.91626e-05 0.1226126237 -0.0259884781
235298590.0 -0.754542966 0.3872311182 0.0002233617 0.0001922324 0.0002504492 0.0001435685 0.1220309672 -0.0282831827
240298560.0 -0.7513756181 0.3952643789 0.0001169451 1.84302e-05 0.0002139137 0.0001194264 0.1216623882 -0.0302869431
245298530.0 -0.7465181189 0.4030358949 0.0002936393 6.8809e-05 0.0001220625 5.48638e-05 0.1212265152 -0.0323901944
250298500.0 -0.7420398126 0.4105277783 0.0001905208 0.0001950065 1.24768e-05 -0.000162013 0.1210771141 -0.0343045459
255298470.0 -0.737557883 0.4186191308 0.0005265015 0.0002363673 0.0001563842 5.04541e-05 0.1203147543 -0.036738169
260298440.0 -0.7338852903 0.4261976324 8.0752e-05 5.71793e-05 1.10316e-05 0.0002025083 0.1195392357 -0.0386721109
265298410.0 -0.7297802721 0.4343731741 7.35238e-05 2.6757e-05 8.0598e-05 0.0001796776 0.1189325111 -0.0409132738
270298380.0 -0.724619391 0.4419054075 6.78053e-05 6.4522e-06 0.0002271058 0.0001262045 0.1182544641 -0.0427555406
275298350.0 -0.7194253422 0.4489863621 0.0003322814 0.0001114701 0.0002511977 0.0001257027 0.117876228 -0.0444736598
280298320.0 -0.7148305546 0.4569557248 9.08088e-05 0.000353086 -9.47386e-05 1.78815e-05 0.1169734001 -0.0465803163
285298290.0 -0.7102705555 0.4649262805 3.98464e-05 4.1698e-05 9.55897e-05 1.4129e-05 0.1160592261 -0.0479061375
290298260.0 -0.7054323419 0.4718265643 0.0002800093 0.0003232405 0.0002193335 0.0001813126 0.115802797 -0.0498572586
295298230.0 -0.7007951973 0.4788435269 0.000267628 0.0002383533 -9.5291e-06 0.0002312613 0.1146807556 -0.0515426637
300298200.0 -0.6949574273 0.4867496817 0.0001721473 5.25019e-05 0.0001758431 0.0004275605 0.1139267159 -0.0532149822
305298170.0 -0.6900753311 0.4944084818 0.000303132 0.0001343695 0.000124701 -1.85482e-05 0.1132644258 -0.0548984359
310298140.0 -0.6846984057 0.5007808447 3.42648e-05 0.0002171624 0.0004287309 0.0001030691 0.1127427743 -0.0565513866
315298110.0 -0.6794002345 0.5080662036 0.0002363047 0.000238923 0.0001129232 3.9884e-05 0.1118428322 -0.0586077602
320298080.0 -0.6740056545 0.5156838127 0.0002617774 0.0002029941 0.0001807673 7.25138e-05 0.1107383122 -0.0602862089
325298050.0 -0.6689392524 0.521940518 0.0003738023 0.0001734004 0.0003324125 1.13319e-05 0.1096852704 -0.0621956807
330298020.0 -0.6627265933 0.5294718207 0.000201577 0.0001448134 0.0002389698 0.0002244325 0.1086099005 -0.0637561201
335297990.0 -0.6575741015 0.5366477765 9.72145e-05 0.0001346577 8.9899e-05 -8.5871e-06 0.1074846892 -0.0652876655
340297960.0 -0.6519494568 0.5430054802 7.34082e-05 0.0002713533 0.0002348443 0.0003444557 0.106436022 -0.0669938678
345297930.0 -0.6459940322 0.5489868089 0.0002046693 9.96481e-05 0.0001351135 0.0001423907 0.1049781804 -0.0678219149
350297900.0 -0.6403292254 0.5564313029 0.0004120801 0.0001771385 0.0002729056 8.42107e-05 0.1040133877 -0.0692202567
355297870.0 -0.634491411 0.5622101857 0.0005595855 8.0984e-06 3.20126e-05 0.0001215466 0.1027401209 -0.0704736238
360297840.0 -0.6283976454 0.5688424719 -0.0001276435 0.0001682376 0.0004442619 0.0003329912 0.101673589 -0.071544475
365297810.0 -0.6220602377 0.5759187955 0.0003026716 -6.035e-06 0.000125346 7.49095e-05 0.1004206745 -0.0733020744
370297780.0 -0.6166148748 0.5817520326 0.0002522088 0.0003056014 0.0001953744 0.0001308284 0.0992131535 -0.0744664401
375297750.0 -0.6101229355 0.5881557382 0.0002505855 4.96874e-05 0.0002531487 0.0003603974 0.0980608125 -0.075020233
380297720.0 -0.6038778939 0.5947989578 0.0002327661 -1.23735e-05 0.0002662992 2.73951e-05 0.0969241923 -0.0761439755
385297690.0 -0.5975633878 0.6005132837 0.0001940486 0.0001641513 0.0002144194 0.000189778 0.0958099774 -0.0772054489
390297660.0 -0.5916773462 0.6075615999 0.0002028089 0.0001571229 0.000254866 0.0002649203 0.0944480418 -0.0788934131
395297630.0 -0.5848978599 0.6134519064 0.0001971602 0.0001921272 1.66733e-05 0.0002095164 0.093208607 -0.0794349171
400297600.0 -0.5787295462 0.6193108777 0.0003162873 0.0001391378 0.000140242 6.9305e-05 0.0918726263 -0.0806725084
405297570.0 -0.5726270074 0.6248159681 0.0002790626 0.0002996522 0.0003509282 3.84899e-05 0.0905772605 -0.0817629367
410297540.0 -0.5657065589 0.6306531762 0.0003490434 9.90467e-05 0.0001914167 0.00023466 0.0897938549 -0.0827243217
415297510.0 -0.5588937603 0.6365781456 0.0001522453 0.000240331 6.04081e-05 0.000137611 0.0880878561 -0.0832115722
420297480.0 -0.5517415434 0.641904168 9.59924e-05 9.35423e-05 1.61056e-05 1.14159e-05 0.0869077093 -0.0847953089
425297450.0 -0.5454136821 0.6479076594 0.0002024372 0.0001271611 0.000261169 -2.24495e-05 0.0856421388 -0.0855846298
430297420.0 -0.5390581978 0.6529607528 -3.81682e-05 5.64564e-05 0.0002513476 0.0002268974 0.0844208747 -0.086300745
435297390.0 -0.5320103108 0.6592086152 0.0003366626 0.0002252153 0.0001800915 0.0002378321 0.0833614567 -0.0871194263
440297360.0 -0.5255755144 0.664538831 0.0001593234 4.51759e-05 0.0001756061 1.9365e-06 0.0816010105 -0.0881790565
445297330.0 -0.5184350885 0.6700795365 0.0002974382 0.0001267335 9.18336e-05 0.0001974292 0.0805857274 -0.08910133
450297300.0 -0.5111160196 0.6751285781 9.8853e-06 0.000118546 0.0003387873 0.0001497997 0.0787075233 -0.0897401924
455297270.0 -0.5045405463 0.6798815542 0.0002024362 0.0002460517 0.0002320665 0.0001178061 0.0778512748 -0.0906645759
460297240.0 -0.4976613901 0.6856301894 0.0004257117 0.000229152 0.0001908892 0.0002947856 0.0767897014 -0.091371268
465297210.0 -0.4900554328 0.6904684393 0.0003586527 8.13331e-05 0.0001241841 0.0003026685 0.0749811032 -0.0923173832
470297180.0 -0.482914457 0.6950695562 0.0001425069 0.0003431941 0.0002527925 0.0002735938 0.0732984228 -0.0928974659
475297150.0 -0.4755381892 0.7003187254 0.0005327229 8.41188e-05 0.0001442612 7.43512e-05 0.0724370359 -0.0934749351
480297120.0 -0.4685956619 0.7048950801 0.0004177712 9.82753e-05 0.0002392214 -3.08822e-05 0.0710332782 -0.0945025792
485297090.0 -0.4613758093 0.7091291373 8.2144e-06 -9.0475e-05 0.0003136256 3.73024e-05 0.0693754558 -0.0951968031
490297060.0 -0.4544862353 0.7144963634 0.0004297683 9.06553e-05 0.0002345612 6.3355e-05 0.0680814531 -0.095700518
495297030.0 -0.4469706898 0.7189224926 7.35799e-05 0.0002233112 0.0001145148 0.0001628932 0.0667273671 -0.0966059216
500297000.0 -0.4386514816 0.7236516348 0.0002612329 5.88819e-05 0.0002752125 0.0001054713 0.0653347311 -0.0971574853
505296970.0 -0.4314614052 0.7273138925 0.0003531627 0.0002855203 -0.0001220038 5.77799e-05 0.0638404097 -0.0977766807
510296940.0 -0.4245211019 0.7323503686 0.0005458402 0.0001207396 0.0001838374 0.0002547406 0.0625173242 -0.0981596048
515296910.0 -0.4176549287 0.7361900809 0.0002800853 0.000282995 0.0003002094 7.50204e-05 0.0611820167 -0.0986725215
520296880.0 -0.4091023263 0.7404818206 0.0004097101 0.0001109716 0.0003528035 2.69554e-05 0.0595442744 -0.0993734743
525296850.0 -0.4018701134 0.7446339236 0.00037081 8.89477e-05 0.0003873207 0.0001235059 0.0585046826 -0.1002098499
530296820.0 -0.3942447733 0.7479698246 0.0003092315 0.0001053148 0.0005930916 2.79979e-05 0.0566733717 -0.1006646223
535296790.0 -0.3862034172 0.7521411528 6.15113e-05 9.8633e-06 0.0001622462 -1.67119e-05 0.0550950111 -0.101544087
540296760.0 -0.3782440651 0.7562396929 0.0002095073 0.0001005431 0.0003079401 0.0002163407 0.0534258542 -0.1016321743
545296730.0 -0.3708913653 0.7595980373 0.0004090106 0.0001650666 0.0002392614 0.0001976379 0.0522651926 -0.1023010062
550296700.0 -0.3630780343 0.7638928419 0.0005271655 2.04227e-05 0.0002961081 -3.03605e-05 0.0509894719 -0.1027572356
555296670.0 -0.3546435883 0.7669179663 0.0002057842 5.05183e-05 0.000104054 5.59308e-05 0.0492721677 -0.1029090476
560296640.0 -0.3471701982 0.77058935 0.0001903439 0.0002677164 0.000489813 0.0001344131 0.0479617295 -0.1033869646
565296610.0 -0.3400426451 0.7743360566 0.0003950346 0.0001909172 0.0004069204 0.0002347498 0.0465242702 -0.103988691
570296580.0 -0.3317180875 0.7774423983 0.0001662356 0.0001915448 0.0002812109 0.000179216 0.0448594287 -0.1040066427
575296550.0 -0.3238041359 0.7806420914 0.0005997389 0.00027067 0.0003313715 4.1073e-06 0.0434683043 -0.1043942532
580296520.0 -0.3159189658 0.7841853137 0.0002972268 0.000158553 0.000241227 -6.2334e-05 0.0421170346 -0.1050687535
585296490.0 -0.3079555623 0.7865252414 0.0001958665 0.0002359974 0.0001787665 1.21648e-05 0.0401041051 -0.1057972447
590296460.0 -0.2991366739 0.7897686144 0.0003746468 6.36346e-05 0.0002784954 7.3757e-06 0.0391905866 -0.1053938984
595296430.0 -0.291402997 0.7938580985 0.0002401421 0.0003206187 0.0003423893 0.0001930392 0.0376376769 -0.1058518159
600296400.0 -0.2833477523 0.7960614365 0.00052171 7.72175e-05 0.0002434169 -5.21114e-05 0.0360749221 -0.1059933837
605296370.0 -0.275358165 0.7987441001 0.000543433 0.0002360896 0.0003587048 0.0001743535 0.034720756 -0.1061091336
610296340.0 -0.2672712493 0.8013997041 0.0002495456 0.0001032579 0.0003032897 0.0001462481 0.0334131093 -0.1061478982
615296310.0 -0.2590399289 0.8038673707 0.0002558115 -0.0001045478 0.0002001568 -8.32399e-05 0.0318029458 -0.1069610543
620296280.0 -0.2506546062 0.8064026935 0.0004236862 -9.98437e-05 0.0002429597 0.0001184681 0.030210998 -0.1072437011
625296250.0 -0.2425547969 0.8088178045 0.0004151134 -0.0001522834 0.0003254701 0.0001035431 0.0287510347 -0.1069770835
630296220.0 -0.2346648377 0.8113702696 0.0002700532 -7.00249e-05 0.0002877158 0.0001595679 0.0274055645 -0.1071272596
635296190.0 -0.2262603426 0.8143152958 0.0004330362 0.0003286758 0.0001645243 6.78688e-05 0.0261276307 -0.1072655011
640296160.0 -0.218243679 0.8152626606 0.000313352 0.0001124324 0.0004187552 0.000127029 0.0243816294 -0.1075960524
645296130.0 -0.2099376596 0.8183101503 0.0007089514 6.57838e-05 0.0004025683 -1.28967e-05 0.0226926431 -0.1075138691
650296100.0 -0.2020155201 0.8206182956 0.0003780557 5.1706e-05 0.0002915152 3.49855e-05 0.0211014211 -0.1074284506
655296070.0 -0.1928637835 0.8217967615 0.0003917076 0.0002482941 0.0004469731 0.0001777437 0.0197733228 -0.1078587402
660296040.0 -0.1851235251 0.8239712196 0.0003399579 3.04264e-05 0.0003654803 5.08322e-05 0.0185527298 -0.1078561684
665296010.0 -0.1766835646 0.8256383191 0.000392526 -4.30473e-05 0.0003929633 7.9337e-06 0.017092158 -0.1077309571
670295980.0 -0.1675760355 0.8275869436 0.000266804 -3.6435e-05 0.0003869586 2.58073e-05 0.0156210239 -0.1074735524
675295950.0 -0.1598883378 0.8287683511 0.0002516546 1.02383e-05 0.0003615103 -0.0002150048 0.013959473 -0.107444692
680295920.0 -0.1516694924 0.8308260582 0.0002768225 -3.50682e-05 0.0006829859 5.28491e-05 0.012609954 -0.1077449972
685295890.0 -0.1431243758 0.8321195946 0.0005138469 -0.0001677009 0.0003836291 -5.40453e-05 0.0113164629 -0.1076443972
690295860.0 -0.1345058009 0.8331896095 0.0001228652 -0.0002071584 0.0003478736 0.0001315858 0.0099513861 -0.107658956
695295830.0 -0.1261996014 0.8342101586 0.0004589126 -7.0722e-05 0.0003371643 0.0002007652 0.0081592172 -0.1072955699
700295800.0 -0.1175969676 0.8351272766 0.0004176903 -0.0001099252 0.0002035884 -1.10632e-05 0.0066192811 -0.1075079205
705295770.0 -0.109011939 0.8370384562 0.0006426905 5.42584e-05 0.0003243079 -0.0001973163 0.005372778 -0.1069964984
710295740.0 -0.101308091 0.838542074 0.0003431722 -0.0001197239 0.0003906395 -2.35648e-05 0.0036213965 -0.106823568
715295710.0 -0.0930811544 0.8392982886 0.000362768 -0.0001701786 0.0004529246 -9.90935e-05 0.0024464364 -0.1067664118
720295680.0 -0.0836781027 0.839372578 0.0006596309 -2.63247e-05 0.0004390722 -0.0001130616 0.0011995438 -0.1066059177
725295650.0 -0.0749502694 0.8406900536 0.0004727019 6.18571e-05 0.0004021735 0.000239945 -0.0003669458 -0.1064145495
730295620.0 -0.0675003168 0.8413928429 0.0005154222 1.40797e-05 0.0002397481 -4.40326e-05 -0.001877088 -0.106248301
735295590.0 -0.0581702379 0.841529879 0.0005073089 -0.0002268838 0.0002526498 -6.89279e-05 -0.0033224059 -0.1057960839
740295560.0 -0.0499184864 0.8424800441 0.0004754667 -9.78225e-05 0.0002228773 3.03209e-05 -0.0045445068 -0.1057759136
745295530.0 -0.0420454285 0.8426620618 0.0002861735 -0.0001279583 0.0003039737 -9.46896e-05 -0.0063023763 -0.1055662241
750295500.0 -0.0334518047 0.8431367287 0.0003397775 -0.0002510393 0.0004115848 -0.0002110261 -0.0076131603 -0.1052422069
755295470.0 -0.0241633372 0.8436188429 0.0003093813 1.14918e-05 0.0004590897 -0.0002718654 -0.0089955344 -0.1047460471
760295440.0 -0.0160757477 0.8439227076 0.0004017571 -5.96146e-05 0.0004783067 0.0002369072 -0.0106400437 -0.1044130597
765295410.0 -0.0080629078 0.8439289614 0.0003757409 1.042e-05 0.0005224589 -0.0002275188 -0.0116184037 -0.1041889864
770295380.0 0.0006422008 0.8440403195 0.000364515 -0.0001312309 0.0002512481 9.03702e-05 -0.0129070433 -0.1037324216
775295350.0 0.0089841882 0.8439144049 0.0004775655 -0.0001126231 0.000594789 7.336e-06 -0.014585801 -0.1036110653
780295320.0 0.0177521043 0.8432442696 0.0005087663 2.599e-06 0.0005213981 8.51741e-05 -0.0159083417 -0.1028604492
785295290.0 0.0260598352 0.8438477974 0.0002063087 -0.0002586521 0.0005843576 -0.0001350083 -0.0171001329 -0.1022226228
790295260.0 0.0346380022 0.8428528212 0.000440707 -0.0001776643 0.0004731037 1.26704e-05 -0.0185212033 -0.1021476492
795295230.0 0.0429300649 0.8437134754 0.000368401 -5.03721e-05 0.0004403034 -0.0001219773 -0.0196465371 -0.1016076086
800295200.0 0.051802065 0.8426225684 0.0004759589 -0.0001476259 0.0006207012 -0.0002276652 -0.0213214359 -0.1014162756
805295170.0 0.0598258658 0.841923833 0.0003674822 -0.0001410343 0.0005029083 -5.81059e-05 -0.0227899758 -0.1007184517
810295140.0 0.0682109568 0.8414198517 0.00044324 -0.0001677196 0.0002029348 7.22178e-05 -0.0238902959 -0.0999111493
815295110.0 0.0769272592 0.8405733771 0.0003132411 9.28888e-05 0.000412382 -0.0001792379 -0.0253122476 -0.0997461039
820295080.0 0.0850044116 0.8390850605 0.0005806073 -9.93005e-05 0.0002214113 7.89296e-05 -0.0267833569 -0.0991905384
825295050.0 0.0943491684 0.8384291069 0.000368375 -2.52339e-05 0.0003650547 0.0001282706 -0.0278646756 -0.0985804404
830295020.0 0.1019358444 0.8372113842 0.000440944 -9.3843e-05 0.0005106607 -0.0002427573 -0.0292868614 -0.0982233038
835294990.0 0.1098194465 0.8365192827 0.0003776525 -0.0001609861 0.0003076118 -0.0002951586 -0.0302759674 -0.0972527966
840294960.0 0.1185532942 0.8356397635 0.0004402273 -0.0003655185 0.0003490226 -0.0001377873 -0.0319136667 -0.0964947751
845294930.0 0.1267716153 0.8343180651 0.0004711103 0.0001214455 0.000472169 -0.0004122871 -0.03278205 -0.0960922811
850294900.0 0.1353638649 0.8327137948 0.0005322462 -0.0002965356 0.0002941099 -0.0003314801 -0.034111041 -0.0953233666
