!Created with skrf (http://scikit-rf.org).
# Hz S RI R 50.0 
!freq ReS11 ImS11 ReS21 ImS21 ReS12 ImS12 ReS22 ImS22
300000.0 -0.7823659615 -0.1232067178 -0.0011904999 0.000186606 -0.000202916 0.0002032741 0.8595454132 -0.0025257577
5299970.0 -0.7853755249 -0.006497605 -1.7074e-06 -0.0001424904 -7.35283e-05 0.0001455128 0.8591200437 -0.0099546686
10299940.0 -0.7880448615 -0.0043417085 -5.90026e-05 0.0001264783 2.55601e-05 1.33394e-05 0.8584979062 -0.0188144642
15299910.0 -0.7934240746 -0.0022795246 0.0001618982 -1.99006e-05 5.99973e-05 -3.61875e-05 0.8573005206 -0.0274316242
20299880.0 -0.8002500751 0.0020957715 -8.944e-05 3.1267e-05 7.89569e-05 0.0001211726 0.8570126051 -0.035776428
25299850.0 -0.8062641004 0.0077419115 5.85541e-05 -0.0001020236 6.70697e-05 4.50318e-05 0.856680221 -0.0432774563
30299820.0 -0.8123742883 0.015144137 7.79175e-05 6.37421e-05 5.2214e-06 -0.0001333607 0.8550565681 -0.0515975006
35299790.0 -0.8175437218 0.0242307387 -3.80529e-05 0.0002497179 -9.39448e-05 0.0001458628 0.8545285217 -0.059819546
40299760.0 -0.8218442265 0.0336565496 1.05567e-05 0.0001374248 0.0001290508 2.96714e-05 0.8532221727 -0.068590751
45299730.0 -0.8245564163 0.0432575973 -1.52119e-05 0.0001048125 0.0001167238 -2.06665e-05 0.8525589616 -0.0762371342
50299700.0 -0.8273588562 0.0530664383 9.53695e-05 5.51554e-05 -3.45755e-05 2.97585e-05 0.8519187006 -0.0848892084
55299670.0 -0.8295223531 0.0628102798 -0.0001000178 0.0001501426 4.5893e-05 7.32964e-05 0.8510494074 -0.0927080521
60299640.0 -0.8302157444 0.073616802 7.81948e-05 -3.17557e-05 3.06783e-05 -0.0001268882 0.849549222 -0.1007785976
65299610.0 -0.8312316319 0.0831197951 7.38398e-05 -0.0001888301 1.2829e-05 -8.33372e-05 0.8488550268 -0.1085027888
70299580.0 -0.8318283868 0.0935917613 -0.00013835 0.0002475114 0.0001764288 -8.64118e-05 0.8474338984 -0.1170639186
75299550.0 -0.8317874409 0.1035833383 -0.0002010394 -0.0002021135 -0.0001290374 -8.69811e-05 0.8461929296 -0.1257563088
80299520.0 -0.8321385366 0.1133400918 -0.0001004373 -0.0002567209 0.0001046803 0.0001001284 0.8452735725 -0.1333261545
85299490.0 -0.831124389 0.1224901873 -9.48945e-05 6.0173e-05 -0.000154387 7.16461e-05 0.8441055329 -0.141610353
90299460.0 -0.8302806858 0.1325089755 -0.0001954623 1.17655e-05 0.0001142662 -0.0001134431 0.8421816476 -0.1499726457
95299430.0 -0.8290375093 0.1415566644 8.67068e-05 0.0002130718 8.82064e-05 -9.17183e-05 0.8402129024 -0.1583899934
100299400.0 -0.8278118062 0.1505079481 0.0001194575 -1.4957e-05 1.1478e-05 8.44133e-05 0.8393685838 -0.1665903898
105299370.0 -0.8265290972 0.160108113 -9.442e-07 1.4946e-05 0.0002409154 -8.4806e-06 0.8372997361 -0.1747028994
110299340.0 -0.8253913383 0.1692475968 0.0002239721 0.0001031182 -0.0001239097 0.0001190493 0.8362315134 -0.1827116339
115299310.0 -0.8239709401 0.1787744156 -0.0002857937 -0.0001540307 2.88454e-05 9.52063e-05 0.8339981466 -0.1905584392
120299280.0 -0.8222889813 0.1871197916 -8.1524e-05 5.74117e-05 6.62376e-05 2.88726e-05 0.8320834885 -0.198871803
125299250.0 -0.8205182554 0.1958873535 -0.0003271531 0.0002854381 -8.47656e-05 -0.0001748752 0.8306653316 -0.2066160354
130299220.0 -0.8187538547 0.2054619665 0.000116888 -2.35738e-05 0.0001495757 -4.47404e-05 0.8287083155 -0.2154780049
135299190.0 -0.8172127034 0.2139796715 -0.0001100682 -2.26944e-05 7.9511e-06 -0.0001507347 0.8266783299 -0.2228773474
140299160.0 -0.8149420073 0.2231068556 -2.77183e-05 -0.0002109723 0.0001283653 -0.0003093155 0.8242531987 -0.2305134138
145299130.0 -0.8128173366 0.2326767952 2.76154e-05 -6.68885e-05 -9.02884e-05 0.0003479499 0.8215114167 -0.2385628389
150299100.0 -0.8103339963 0.2409172401 2.72126e-05 1.46399e-05 -9.53757e-05 -4.63151e-05 0.8197640429 -0.2463019354
155299070.0 -0.8078203884 0.2496050056 -2.61802e-05 0.000149944 0.0001081631 0.0001688162 0.8169343721 -0.254475459
160299040.0 -0.8054779428 0.2581522376 6.06883e-05 1.15532e-05 0.000101271 -9.39877e-05 0.814459222 -0.2621520808
165299010.0 -0.8026508661 0.266827273 -3.20372e-05 4.11577e-05 -0.0001935635 2.7317e-05 0.8117826647 -0.2704975555
170298980.0 -0.8005232403 0.2756940695 -8.84587e-05 -3.05152e-05 0.0001184973 -8.04886e-05 0.80890283 -0.2782325536
175298950.0 -0.7975033202 0.2840035168 1.06905e-05 -3.6099e-05 0.000119308 0.0001577175 0.8071642402 -0.2859511328
180298920.0 -0.7945848476 0.2926135536 -8.2306e-06 0.0002006335 8.72315e-05 0.000238396 0.80371908 -0.2936024847
185298890.0 -0.7909323984 0.3007830685 0.0001346756 -0.0001280286 -6.99072e-05 5.24322e-05 0.8004375841 -0.3018541699
190298860.0 -0.7885314376 0.3094845232 -4.16501e-05 -0.0001042953 9.16848e-05 -0.0001534904 0.7975956643 -0.3090795019
195298830.0 -0.7849699723 0.318218907 -1.843e-07 -4.03045e-05 -7.64738e-05 -1.89413e-05 0.7944037884 -0.3168334627
200298800.0 -0.7813224057 0.3262429279 -5.53567e-05 -0.0002787755 0.0001126599 8.58306e-05 0.79166066 -0.3245463588
205298770.0 -0.7785843967 0.3346122247 0.0001702167 -1.8728e-05 -4.53393e-05 1.39746e-05 0.7879936163 -0.3321579538
210298740.0 -0.7754180517 0.3424713643 -7.1335e-06 -0.0002430525 7.1839e-06 -5.89253e-05 0.7841417912 -0.339412677
215298710.0 -0.7719087614 0.3511951841 -5.8213e-05 -0.0001268709 1.3499e-06 1.94383e-05 0.7813944728 -0.3471143964
220298680.0 -0.7677880819 0.3588499253 4.46938e-05 5.31535e-05 0.0002213076 0.000105717 0.7776315479 -0.3545988377
225298650.0 -0.7645734449 0.3663694713 -0.0002027531 -6.29753e-05 -4.32802e-05 -3.3868e-05 0.7738770985 -0.3621369944
230298620.0 -0.7602573003 0.3745177877 0.0003144276 0.000126512 3.9092e-05 0.0001033716 0.7703018537 -0.3695198291
235298590.0 -0.7563171306 0.3831282925 -0.0002000719 -0.0001067777 -0.0001044521 0.0001738599 0.7666760238 -0.3772805817
240298560.0 -0.7529345504 0.3909799034 2.06828e-05 9.84918e-05 -7.23879e-05 -0.0002833885 0.7633867497 -0.3848715599
245298530.0 -0.7492152226 0.3986676267 0.0001497856 7.86973e-05 0.0001161587 -8.981e-07 0.7595205914 -0.3917135748
250298500.0 -0.7447968926 0.4065083534 -7.75923e-05 7.90697e-05 0.0001019409 0.0001599391 0.7556358471 -0.3995873658
255298470.0 -0.7397439565 0.4135292177 0.0001059318 -5.83407e-05 -0.0001701588 4.24643e-05 0.7518207153 -0.406893546
260298440.0 -0.7358632352 0.4214754095 -6.23957e-05 0.0001304652 0.0002483695 -5.7865e-06 0.7479718306 -0.4135612121
265298410.0 -0.7312595339 0.4294497108 4.28394e-05 8.71217e-05 0.0001179029 -3.24236e-05 0.7443630882 -0.4209377238
270298380.0 -0.7271207949 0.4370678265 -8.15622e-05 -4.547e-07 5.6969e-06 -9.80188e-05 0.7399180432 -0.4275444245
275298350.0 -0.7225022147 0.4446789122 -8.06192e-05 -5.0017e-06 -3.27467e-05 -7.83941e-05 0.7356982091 -0.4351841893
280298320.0 -0.7173065376 0.4524640476 -6.06875e-05 5.9049e-05 7.77789e-05 -0.0001975861 0.7323096585 -0.442753563
285298290.0 -0.7132688124 0.4599771844 7.0778e-06 6.49287e-05 -0.0001399149 3.59051e-05 0.7281913506 -0.4496429991
290298260.0 -0.7081486027 0.4673177388 -0.0001891365 5.62527e-05 -0.0001788196 0.0001269787 0.72412798 -0.4569045443
295298230.0 -0.7028164717 0.4743350297 7.74064e-05 -7.66756e-05 -9.24831e-05 1.31257e-05 0.7202171167 -0.4637807441
300298200.0 -0.6981147345 0.4819323975 -1.5137e-05 6.6519e-06 5.20862e-05 -0.0001120713 0.7157207045 -0.4714270809
305298170.0 -0.6924552652 0.4883491397 -0.0001491354 -1.11684e-05 -1.55226e-05 0.0001837085 0.7111750852 -0.4791083579
310298140.0 -0.6879020877 0.4963345014 0.0001759608 1.44106e-05 -0.0001020325 -5.2133e-05 0.706021823 -0.4866782654
315298110.0 -0.68276875 0.5034774713 5.41302e-05 0.0001101162 -2.97469e-05 -1.39116e-05 0.701260142 -0.4947882576
320298080.0 -0.6775598398 0.5102541251 0.0001399047 0.0001044582 -2.64332e-05 3.0116e-06 0.6956995399 -0.5011039789
325298050.0 -0.6716786607 0.5176133354 -9.17423e-05 -2.80535e-05 -3.29302e-05 0.0001643947 0.6904892702 -0.5081135522
330298020.0 -0.6664071741 0.5237980613 -1.01219e-05 -7.11268e-05 0.0001742237 6.84818e-05 0.683774895 -0.5149344395
335297990.0 -0.6609373132 0.5307552146 4.28587e-05 0.0001005857 2.66269e-05 5.59052e-05 0.6785987872 -0.5204943128
340297960.0 -0.6564249755 0.5378632379 0.0002258845 0.0002103199 -6.92083e-05 -4.56865e-05 0.6735884077 -0.527466876
345297930.0 -0.6498892223 0.5442759988 6.61796e-05 6.93951e-05 4.17528e-05 0.0002450131 0.6676305431 -0.5338817441
350297900.0 -0.644711475 0.5509890667 -0.0001942889 6.8754e-06 -0.0001681572 -5.55562e-05 0.6621435654 -0.5395579081
355297870.0 -0.6379865281 0.5575609699 -0.0002205834 -0.0001262613 4.73865e-05 -4.50847e-05 0.6566670851 -0.5457621965
360297840.0 -0.6329599211 0.5640683272 1.29132e-05 -0.0001435806 -0.0001039541 6.38642e-05 0.651969096 -0.5522134148
365297810.0 -0.6273461221 0.5708195124 -4.35152e-05 -3.21251e-05 0.0001354698 2.68134e-05 0.6461716442 -0.5582225465
370297780.0 -0.6210119477 0.5767184578 -1.65162e-05 -4.66598e-05 1.23959e-05 0.0001116278 0.6404557992 -0.5637490149
375297750.0 -0.6146557501 0.583066813 0.0001210251 5.05827e-05 9.76454e-05 0.0002089516 0.635307963 -0.5706203207
380297720.0 -0.6092898266 0.5891727696 0.0001559326 -4.12986e-05 8.35222e-05 -4.69874e-05 0.628432727 -0.5764561271
385297690.0 -0.6030994108 0.5948949824 -0.0001314301 0.0001957525 0.000307841 -2.32901e-05 0.6234508691 -0.581914733
390297660.0 -0.5972284702 0.6015518866 0.0001053196 -0.00018251 4.2989e-05 -3.92548e-05 0.6173595173 -0.5878023677
395297630.0 -0.590519319 0.607990771 -8.91929e-05 9.83755e-05 7.9468e-06 -0.0001509544 0.6114885146 -0.5937405164
400297600.0 -0.5837057232 0.6139153884 9.27453e-05 9.19622e-05 -6.9369e-06 0.0001424961 0.6056600409 -0.5995724405
405297570.0 -0.5784064501 0.6192859792 4.63268e-05 -1.41383e-05 0.000213349 6.12073e-05 0.599478589 -0.6058227363
410297540.0 -0.5713811414 0.6251500819 -6.94659e-05 -8.2908e-05 -9.74323e-05 0.0001401952 0.5937400154 -0.6114162407
415297510.0 -0.5647181554 0.6308999662 -2.12694e-05 -0.0001915975 0.0001146468 -8.02846e-05 0.587392724 -0.6173524179
420297480.0 -0.5595133665 0.6368133724 -0.0002659006 0.000166863 -7.08906e-05 -4.35428e-05 0.5819996759 -0.6224401431
425297450.0 -0.5514861797 0.6425899745 -0.0002851495 -5.22714e-05 8.9352e-05 0.0002202991 0.5756201157 -0.6286653792
430297420.0 -0.5455739338 0.6484740885 -0.0002702259 4.54654e-05 0.0001023866 -5.03941e-05 0.5687048293 -0.6346603679
435297390.0 -0.5393442113 0.6531209998 0.0001721444 9.6476e-05 9.0552e-06 0.0002379451 0.5630734242 -0.6395304835
440297360.0 -0.5319190603 0.6590465168 -9.2807e-06 0.0001294239 1.06449e-05 -0.0002295664 0.5563202692 -0.6446410325
445297330.0 -0.5247675852 0.6643434362 -0.0001506494 -1.57866e-05 -4.73315e-05 -3.44727e-05 0.5507407468 -0.6511950627
450297300.0 -0.5184865257 0.6692640145 2.57354e-05 -0.0001318075 7.38701e-05 -8.68769e-05 0.5438224929 -0.6551652288
455297270.0 -0.5113759159 0.6749785084 -0.0001410805 -8.82959e-05 0.0001056817 7.65257e-05 0.5378298742 -0.6612206359
460297240.0 -0.5052530101 0.6799944576 2.28863e-05 -0.0003387003 0.0001161502 6.83869e-05 0.5313639914 -0.6662613202
465297210.0 -0.4981776622 0.6849468784 -4.28504e-05 -1.6828e-05 -1.45711e-05 -0.0001393779 0.5245975754 -0.6708730853
470297180.0 -0.4903564787 0.6899904016 -2.23195e-05 3.37213e-05 -2.21997e-05 6.99015e-05 0.5178945837 -0.6759014224
475297150.0 -0.4833445533 0.6938952602 0.000104492 -1.25542e-05 0.0002020494 -0.0001486986 0.5108275829 -0.6816480476
480297120.0 -0.4769726832 0.6994526507 -5.79304e-05 4.00957e-05 -7.84041e-05 0.0001936918 0.504752897 -0.6853542434
485297090.0 -0.4692443741 0.7045564035 -0.0001481471 0.0001187072 8.55473e-05 0.0002221816 0.4980167093 -0.6910456394
490297060.0 -0.4622971251 0.7089295973 1.02189e-05 3.00932e-05 -0.0001267916 -8.6504e-06 0.4911147196 -0.6960611795
495297030.0 -0.4547925409 0.7128650814 0.0001116018 -1.17071e-05 2.31062e-05 3.95145e-05 0.4843798588 -0.7002098105
500297000.0 -0.4474773204 0.7183695611 0.00021338 0.0002143924 2.44494e-05 -2.68015e-05 0.4774886141 -0.7047403199
505296970.0 -0.4400688569 0.7226513507 -0.0001425082 -9.32575e-05 0.0002746113 9.85889e-05 0.4701775549 -0.7091789159
510296940.0 -0.433007998 0.7264701432 -0.0002264509 -0.0002353039 -0.0002938551 -3.061e-06 0.4626760262 -0.7139894561
515296910.0 -0.4248030365 0.7308475273 0.000108356 -0.0002131246 4.22417e-05 6.70409e-05 0.4565996002 -0.7180519494
520296880.0 -0.4184177701 0.735342845 0.0001335122 8.46651e-05 -2.52996e-05 1.87837e-05 0.4489722903 -0.722946393
525296850.0 -0.4101411966 0.7387354133 -6.46513e-05 9.07738e-05 6.57539e-05 -3.05081e-05 0.441991208 -0.7261904093
530296820.0 -0.4028486143 0.7437950166 -1.83465e-05 5.43642e-05 2.66352e-05 -8.89473e-05 0.4347945085 -0.7309858317
535296790.0 -0.3958885417 0.746974907 1.91955e-05 -4.36116e-05 -8.53397e-05 4.07375e-05 0.4270664846 -0.7351596356
540296760.0 -0.3879001421 0.7509490645 8.52713e-05 -0.0001227865 0.0001287822 2.87975e-05 0.4200673997 -0.7388818042
545296730.0 -0.380568309 0.755560606 0.0002132969 0.0001658097 2.32689e-05 0.0001705662 0.4124696308 -0.7434130427
550296700.0 -0.3731810599 0.7590475439 1.70555e-05 0.0003050092 0.0001517382 -1.19882e-05 0.4051085922 -0.747731968
555296670.0 -0.3652974475 0.761945133 0.0001101168 -0.0001310176 1.2518e-05 -0.0001453143 0.3976465864 -0.7507566212
560296640.0 -0.3574451609 0.7663477181 0.0001234667 0.0001564075 7.20789e-05 -0.0001224131 0.3899857061 -0.75429911
565296610.0 -0.3500378385 0.7702903686 -0.000145759 -5.88715e-05 0.0001467117 -0.0002800101 0.3827116683 -0.758192212
570296580.0 -0.3425314076 0.7731502673 -6.56249e-05 0.0001307082 4.99318e-05 -2.0972e-05 0.3751069827 -0.7618652308
575296550.0 -0.3345031539 0.7769421472 -0.0002913465 9.39058e-05 -0.0001584212 -0.0001671401 0.3674702381 -0.7652552161
580296520.0 -0.3262588764 0.7798105996 -9.71289e-05 -6.17271e-05 0.0002549641 -2.27641e-05 0.3605638281 -0.7693175725
585296490.0 -0.3192462695 0.7826959405 -0.0001324174 0.0001197979 -0.0001926081 -0.0001798412 0.3523979027 -0.7722493507
590296460.0 -0.3104038987 0.7864709974 -1.40399e-05 4.11132e-05 -2.06577e-05 -0.0002811932 0.3445890905 -0.7751886255
595296430.0 -0.3029279599 0.7886772279 -0.0003075331 -0.0001351356 0.0001200466 2.73643e-05 0.3369197135 -0.7788022006
600296400.0 -0.2952937587 0.7920014225 5.7523e-05 -0.0001175453 3.5879e-06 0.0002081442 0.3298286709 -0.7821152043
605296370.0 -0.2877018545 0.7947454115 7.03245e-05 8.96324e-05 0.0001059114 0.0001202792 0.3217703099 -0.7853764812
610296340.0 -0.2792528637 0.7973775448 3.80593e-05 -0.0001822875 2.36093e-05 -3.82392e-05 0.3140972562 -0.7881778491
615296310.0 -0.2706089641 0.8000703846 -0.0001835777 0.0001350294 8.61164e-05 1.99282e-05 0.3064015288 -0.7914198315
620296280.0 -0.2631552954 0.8022158351 -0.0001098168 -0.0001760166 1.21531e-05 0.000239031 0.2990520698 -0.7945441244
625296250.0 -0.2547840982 0.8055403856 5.92193e-05 3.5845e-05 5.38448e-05 -1.06543e-05 0.2911803546 -0.7970154323
630296220.0 -0.2465411077 0.808232991 0.0001955212 -0.0001236618 -0.0002748499 0.0002165355 0.2819384762 -0.7999420086
635296190.0 -0.2388080955 0.8104868043 6.49377e-05 1.93507e-05 9.97722e-05 -0.000114628 0.2757906385 -0.8023463432
640296160.0 -0.23095705 0.8121101209 0.0002537442 -5.46304e-05 -5.11895e-05 8.57169e-05 0.2671006313 -0.8050365971
645296130.0 -0.2228966808 0.8158121197 -3.95609e-05 0.0001131587 -4.18237e-05 -8.59638e-05 0.2592206621 -0.8067121322
650296100.0 -0.2147735217 0.8168923556 -0.0001208579 -1.75687e-05 8.206e-07 0.0001435845 0.2516242634 -0.8104866995
655296070.0 -0.2065036369 0.8194391342 9.3001e-05 0.0001395361 3.79575e-05 0.0001155651 0.2440376058 -0.8119727385
660296040.0 -0.1980749749 0.820678767 8.59071e-05 -5.21211e-05 0.0001387348 -4.14896e-05 0.2356146381 -0.8148618913
665296010.0 -0.189565005 0.8224450843 -0.0001257686 4.11815e-05 -4.61283e-05 -9.95068e-05 0.2275091518 -0.817115944
670295980.0 -0.1819812986 0.8245383983 -5.53331e-05 -2.17324e-05 9.02592e-05 6.36263e-05 0.2188856609 -0.8189418974
675295950.0 -0.1736304148 0.8262578151 0.0001044041 -3.19736e-05 -0.0001197504 0.0002387682 0.2109356105 -0.8200496192
680295920.0 -0.1646899066 0.8283268711 -3.71172e-05 -0.0001316665 3.8226e-05 -3.40422e-05 0.2029107551 -0.8227304134
685295890.0 -0.1568409362 0.8300581439 -0.0002842242 4.9644e-06 1.28759e-05 0.0001984046 0.195026425 -0.8242866813
690295860.0 -0.1490308224 0.8316761118 -6.218e-06 -1.97329e-05 0.0001284446 0.000134898 0.1865681194 -0.8254459073
695295830.0 -0.1405936759 0.832139356 0.0001870769 3.71224e-05 -5.0535e-05 0.0002404943 0.1786176822 -0.8274711604
700295800.0 -0.1319325123 0.8338463555 0.0001989986 -0.0002919925 -3.62849e-05 7.54543e-05 0.170528512 -0.8292786505
705295770.0 -0.1240530361 0.8354882316 -0.0001385217 -5.65097e-05 -0.0001380744 6.07248e-05 0.1621435895 -0.8298090235
710295740.0 -0.1157188267 0.8364873779 1.70441e-05 0.0001839558 -0.0001569616 6.11528e-05 0.1536819935 -0.8317794008
715295710.0 -0.1077589927 0.8373135773 -9.89302e-05 0.0001059021 0.0001474586 -0.0001446178 0.1450567532 -0.8332298025
720295680.0 -0.0992457314 0.8382303818 6.21998e-05 -2.38801e-05 0.0002055706 -0.0001683883 0.1371499864 -0.8341563259
725295650.0 -0.0903313091 0.8396196224 0.000114044 -0.0002109291 -3.82511e-05 -0.000138797 0.1286959743 -0.8348668123
730295620.0 -0.0822788153 0.8401822641 2.37051e-05 -2.42026e-05 0.0001729942 -1.21934e-05 0.1199989341 -0.8364177699
735295590.0 -0.0741304909 0.8415307276 -6.82445e-05 0.0001192042 -2.51187e-05 0.0001699608 0.1120183424 -0.8381732615
740295560.0 -0.0657680227 0.8423686613 8.3951e-06 0.000293122 0.0001785787 0.000184447 0.1035980068 -0.8386575714
745295530.0 -0.0580166727 0.8429484521 -0.0001545363 1.81595e-05 2.02701e-05 -8.94035e-05 0.0956847 -0.8390840214
750295500.0 -0.0488762109 0.8430131446 -1.31779e-05 -7.5087e-06 1.26443e-05 0.0001583886 0.0868952993 -0.8398239665
755295470.0 -0.0409411042 0.843383887 0.0001559153 -2.15893e-05 -3.30516e-05 0.0001175409 0.0793066255 -0.8413573572
760295440.0 -0.0328550546 0.8432697036 -0.0002173588 -7.9556e-05 0.0001922787 -3.98077e-05 0.0710531562 -0.8414949439
765295410.0 -0.0242603697 0.8441959982 -0.0001105179 0.0001539333 1.55304e-05 3.55172e-05 0.0623522449 -0.8418477059
770295380.0 -0.0164586666 0.8444353396 8.00407e-05 9.1988e-06 0.0002100629 6.53442e-05 0.0533835535 -0.8425272551
775295350.0 -0.0074523451 0.8444096445 0.0001530862 -4.4434e-06 -7.68644e-05 -0.0002657639 0.0447837042 -0.8435433209
780295320.0 0.000857907 0.844322513 -4.29935e-05 -0.0001989346 -2.62897e-05 -4.1522e-06 0.0375819068 -0.8438970005
785295290.0 0.0087651686 0.8435001602 1.26947e-05 0.0002981729 -0.0001223002 -9.26464e-05 0.0289818755 -0.8438571496
790295260.0 0.0180044669 0.8440674839 0.0001025906 9.45e-07 -4.71288e-05 2.93072e-05 0.0211349544 -0.84381748
795295230.0 0.0257616919 0.8437644728 -0.000111476 -2.13252e-05 -0.0001810186 6.8109e-05 0.0125418544 -0.8445358828
800295200.0 0.0340750638 0.8430326637 2.92162e-05 6.7893e-06 -0.0002380482 -4.60625e-05 0.0033856831 -0.8431551857
805295170.0 0.0425993766 0.8436135899 1.99562e-05 0.0001513687 -5.97631e-05 1.78454e-05 -0.0046919841 -0.843809692
810295140.0 0.0509282168 0.8429997229 1.16471e-05 0.0002410267 -0.0001482685 -0.0002962156 -0.0120073772 -0.8441385025
815295110.0 0.0593407281 0.8423321327 -4.02969e-05 9.0644e-06 -0.0001998697 -0.0002902908 -0.0210156024 -0.8428207212
820295080.0 0.0673453491 0.841453549 0.0001160298 5.78125e-05 -0.0001054407 -6.411e-07 -0.0291538004 -0.8425629627
825295050.0 0.0763733999 0.8403650041 -5.15192e-05 -7.97075e-05 0.0001214165 -6.62091e-05 -0.037017504 -0.8424073589
830295020.0 0.0841987326 0.84021745 -5.38443e-05 -0.0002355472 -0.0001466289 -0.0001216204 -0.0454904376 -0.8414501923
835294990.0 0.0921200035 0.8390634929 3.772e-06 0.000133974 -8.10128e-05 -0.0001479728 -0.0541770223 -0.8414728302
840294960.0 0.100127799 0.8381287585 -3.14728e-05 -6.2208e-05 1.87714e-05 0.00015133 -0.0625602095 -0.8401548887
845294930.0 0.1084324533 0.8367748313 -0.0002586102 0.0001703441 0.0001921649 -0.000101459 -0.0707272335 -0.8389072239
