!Created with skrf (http://scikit-rf.org).
# Hz S RI R 50.0 
!freq ReS11 ImS11 ReS21 ImS21 ReS12 ImS12 ReS22 ImS22
300000.0 -0.2402724891 -0.1021210467 0.4691896116 0.0676707843 0.4693932382 0.0708524619 -0.2384777503 -0.1117672265
5299970.0 -0.2437886078 0.0071468263 0.4739830304 0.0054307377 0.474152033 0.0057230074 -0.2442117071 0.0057552853
10299940.0 -0.2402558581 0.0197474681 0.4759310176 0.0066536763 0.475699572 0.0067590893 -0.2407514215 0.0183790725
15299910.0 -0.235950699 0.0294554357 0.4793483556 0.0077575331 0.479434467 0.0082229953 -0.2364967133 0.0274465645
20299880.0 -0.2305967998 0.0373668492 0.4841219839 0.0082816946 0.4845042981 0.0083446336 -0.2318091317 0.0353692611
25299850.0 -0.2248473124 0.0433916764 0.4895503434 0.0074864738 0.489448162 0.0073201601 -0.2268669922 0.0416231594
30299820.0 -0.2186507138 0.0485382318 0.4952559219 0.005380134 0.494833266 0.0053646396 -0.2216288657 0.0469109378
35299790.0 -0.2133531993 0.0527326537 0.5005460547 0.0021841872 0.5000709654 0.0020848219 -0.2159107721 0.0511201019
40299760.0 -0.2076199662 0.0557556304 0.5053800988 -0.0013802055 0.5053555724 -0.0017327345 -0.211399683 0.0548592477
45299730.0 -0.2025532606 0.0585577159 0.5104266327 -0.0067414975 0.5102250254 -0.0065236371 -0.2063747535 0.0576891182
50299700.0 -0.1976024076 0.0602617509 0.5140426029 -0.0123147664 0.5142642852 -0.0124656498 -0.2018884339 0.0598039063
55299670.0 -0.1934359172 0.0617231297 0.5174082074 -0.0179639251 0.5182528241 -0.0182119517 -0.1983697634 0.061556106
60299640.0 -0.1893895974 0.0625567907 0.5210802127 -0.0242320535 0.5214657916 -0.0243332873 -0.1944453569 0.0631128576
65299610.0 -0.1862476144 0.0639711379 0.5242639863 -0.0302692919 0.5247690484 -0.0304408398 -0.1909643175 0.0644595407
70299580.0 -0.1828444317 0.0642951934 0.5264130878 -0.0368288725 0.5269625138 -0.03741498 -0.1879090947 0.0657549689
75299550.0 -0.1794547643 0.064945055 0.5284893667 -0.0438791924 0.5287439802 -0.044316099 -0.1851027932 0.0671430037
80299520.0 -0.1771144316 0.0656823597 0.5308671237 -0.0509797592 0.5308675144 -0.0509266478 -0.1824750582 0.0674927252
85299490.0 -0.1744753643 0.0659160202 0.5318358808 -0.0580932199 0.5319390639 -0.0577079178 -0.1804466427 0.0681446245
90299460.0 -0.1725730212 0.0666583562 0.533001985 -0.0645005408 0.5329611214 -0.0649392441 -0.1776314674 0.069189949
95299430.0 -0.1705607566 0.0672348467 0.5340453523 -0.0721200048 0.5341672081 -0.0715205893 -0.1758203809 0.0702318194
100299400.0 -0.1688432973 0.0676083375 0.5342217927 -0.0787948356 0.5343959211 -0.0785819897 -0.1742751908 0.071095903
105299370.0 -0.166813676 0.068252643 0.5343187169 -0.0855929301 0.5346945239 -0.0855328622 -0.1722345484 0.0718208778
110299340.0 -0.1655748028 0.068483025 0.5346227719 -0.0921061006 0.5346131698 -0.0921850702 -0.1706792122 0.0726270753
115299310.0 -0.1640651806 0.0687258248 0.534584382 -0.0985830157 0.5350853848 -0.0986868994 -0.1693322925 0.0727886066
120299280.0 -0.1628062406 0.0693624957 0.5343746198 -0.1059572707 0.5346936339 -0.1060950286 -0.1679975364 0.0742646415
125299250.0 -0.1617292001 0.069972511 0.5345343334 -0.1124179246 0.5344465519 -0.1129075006 -0.1664329779 0.0749233637
130299220.0 -0.160509897 0.0705957361 0.5332827892 -0.1192280873 0.5334580125 -0.1195856669 -0.1651163156 0.0759240006
135299190.0 -0.1592844729 0.0711950863 0.5330562634 -0.1258170955 0.5327928479 -0.126544452 -0.1642007932 0.0772190929
140299160.0 -0.1586994468 0.0721982294 0.532213508 -0.1326237717 0.5322508303 -0.1328207312 -0.1627530437 0.0778888192
145299130.0 -0.157577738 0.0728769385 0.531650586 -0.1394236247 0.5311776319 -0.1389622067 -0.1622560797 0.0786992779
150299100.0 -0.1565641615 0.0736015781 0.5305120133 -0.1460379083 0.5301525561 -0.1457321378 -0.1610423784 0.07993725
155299070.0 -0.1556500096 0.0748311199 0.5289885942 -0.1528213848 0.5290048592 -0.1526881869 -0.1601404122 0.0809172341
160299040.0 -0.1546345601 0.0752672031 0.5270410904 -0.1585255597 0.5278351218 -0.1587432837 -0.1591323619 0.0825630583
165299010.0 -0.1542759923 0.0762604843 0.5261776595 -0.1653553793 0.5263979884 -0.165282333 -0.1582749299 0.0830985839
170298980.0 -0.1536002768 0.0772999469 0.5237148554 -0.1715514957 0.5246728212 -0.1717231651 -0.1567657628 0.0844543997
175298950.0 -0.1526120593 0.0781707773 0.5233525494 -0.177577804 0.5231973594 -0.1779246597 -0.1558635656 0.085606304
180298920.0 -0.1516160227 0.0791550629 0.5213071199 -0.1843659897 0.5213413332 -0.1840465933 -0.1547892199 0.0871464614
185298890.0 -0.1509651798 0.0802797655 0.5192928151 -0.1906171509 0.5194633396 -0.1904764753 -0.1539897457 0.0881460682
190298860.0 -0.1500239264 0.0811248971 0.5170321809 -0.1966716176 0.5178018303 -0.1968071936 -0.1526320994 0.0891723125
195298830.0 -0.1495623292 0.082090207 0.5154451184 -0.2025570983 0.5158096557 -0.2030465604 -0.1520293373 0.0905398077
200298800.0 -0.1487633878 0.0834837293 0.513613473 -0.2086066385 0.5135686698 -0.2084786664 -0.1507269499 0.0921348689
205298770.0 -0.1482760941 0.0845951889 0.5117641118 -0.2147658093 0.5114483923 -0.2146214316 -0.1503219103 0.0932287361
210298740.0 -0.1474073037 0.0855734314 0.5093565029 -0.2213629706 0.5091627842 -0.221332201 -0.1494275459 0.0947534844
215298710.0 -0.1464428545 0.0867727693 0.5068892358 -0.2265780224 0.5068602087 -0.2268337101 -0.1483678043 0.096207351
220298680.0 -0.145877062 0.0878406387 0.5042767824 -0.2328685089 0.5044939117 -0.2326064605 -0.1470603337 0.0976033738
225298650.0 -0.1449597244 0.0895126837 0.5017612272 -0.2385399953 0.5018101675 -0.2385609801 -0.1462285663 0.0990399391
230298620.0 -0.1443028357 0.0907787546 0.4995066938 -0.2444689402 0.4995617261 -0.2443936391 -0.1450583904 0.1000116436
235298590.0 -0.1434107468 0.0915392411 0.4967124816 -0.249994127 0.496908777 -0.2503319031 -0.1439039563 0.1012519935
240298560.0 -0.1427681081 0.092984363 0.4940425623 -0.2559218812 0.4940649352 -0.2556494541 -0.1430466476 0.1031645934
245298530.0 -0.1419451849 0.0941374457 0.490626546 -0.2615180464 0.491072639 -0.2617540635 -0.1417412325 0.1046701115
250298500.0 -0.1413721479 0.0954130807 0.4883707329 -0.2668018626 0.4886702598 -0.2667618758 -0.1408135793 0.1057112592
255298470.0 -0.1406705626 0.0969959422 0.48552555 -0.2731688661 0.4855241177 -0.2729417904 -0.139459458 0.1070347192
260298440.0 -0.1396258143 0.0979791525 0.4824002495 -0.2781726305 0.4826370724 -0.2785682696 -0.13793013 0.1085546578
265298410.0 -0.1386349639 0.099466245 0.4796137484 -0.2842043419 0.4796288797 -0.2837609096 -0.1370879911 0.1103449335
270298380.0 -0.1374846032 0.1004624737 0.4759049487 -0.2891487728 0.4765195671 -0.2894256715 -0.1357297315 0.111921114
275298350.0 -0.1372054914 0.1021133955 0.473392612 -0.2949313525 0.4734666608 -0.2949266135 -0.1346030365 0.1131337747
280298320.0 -0.1362280898 0.1034044899 0.4699178101 -0.299671121 0.4698381008 -0.3002630711 -0.1333493465 0.1150273285
285298290.0 -0.1350917379 0.1046394221 0.4663798972 -0.3049451842 0.4669317715 -0.3054518496 -0.1322821651 0.1161925683
290298260.0 -0.1341354279 0.105659395 0.4634471564 -0.3105753957 0.4634961255 -0.3107941241 -0.1306479686 0.1177315866
295298230.0 -0.1331484199 0.1070115437 0.4603558672 -0.3157532935 0.459849699 -0.3158014106 -0.1295634375 0.1192060878
300298200.0 -0.1320366443 0.1083989501 0.4565653222 -0.3215490798 0.4569605331 -0.3213133822 -0.1285733312 0.1209990579
305298170.0 -0.131091731 0.1095656481 0.4536947835 -0.3269688275 0.4535285069 -0.326669167 -0.1266696166 0.1222861093
310298140.0 -0.1296840144 0.1106924759 0.4496278558 -0.3318888134 0.4500109542 -0.332526214 -0.1254019899 0.1240779759
315298110.0 -0.1291866535 0.1119500481 0.4463332624 -0.337082937 0.4460165284 -0.3371750497 -0.1235426948 0.125161737
320298080.0 -0.1281623622 0.1131698771 0.4425031719 -0.3420142767 0.4425367745 -0.3423776084 -0.1224822681 0.1266456312
325298050.0 -0.1272128677 0.1141003582 0.4387154091 -0.3471517405 0.4385638306 -0.347394844 -0.1211945231 0.1274168733
330298020.0 -0.1262777745 0.1157349772 0.4340930475 -0.3524480216 0.4344153965 -0.3521057522 -0.1201263126 0.128901881
335297990.0 -0.1254419272 0.1165810152 0.4306378299 -0.357131398 0.4304941831 -0.3570516718 -0.1189594825 0.1301460393
340297960.0 -0.1249591972 0.1183690046 0.4262010926 -0.3619514682 0.4266399513 -0.3620293684 -0.1175655401 0.1319878124
345297930.0 -0.1239264561 0.1194525015 0.4221407116 -0.3660708114 0.4218698691 -0.3664361567 -0.1161333635 0.1331865346
350297900.0 -0.1223553397 0.1208873081 0.4179651781 -0.3706289992 0.4181827119 -0.3711333448 -0.1151473766 0.1350699658
355297870.0 -0.1217361813 0.1221035279 0.4140995377 -0.3756015836 0.4139345819 -0.3755933696 -0.1136587243 0.1364214709
360297840.0 -0.1202687912 0.1233538478 0.4096118528 -0.3803294404 0.4096030274 -0.3804987568 -0.111849773 0.1379421835
365297810.0 -0.1189100906 0.1246385425 0.405425833 -0.3845790434 0.4053263781 -0.385230291 -0.110613073 0.1394726394
370297780.0 -0.1178827422 0.1258505806 0.4011095258 -0.3888335864 0.4013734674 -0.3895473705 -0.109023451 0.1407958249
375297750.0 -0.1167501245 0.1273358897 0.3972229014 -0.3936841138 0.3970349289 -0.3937805785 -0.1074621085 0.1424654373
380297720.0 -0.1154627622 0.1284514104 0.3924490676 -0.3978378663 0.3927965541 -0.3980133363 -0.1061276155 0.1440381914
385297690.0 -0.1143403842 0.1295994545 0.3882399811 -0.4014443687 0.3880610955 -0.4022767773 -0.1045823964 0.1452641736
390297660.0 -0.1132534226 0.1308229813 0.3836233999 -0.4065139037 0.3835870825 -0.4069212183 -0.1027086502 0.1466931612
395297630.0 -0.111645069 0.1321877253 0.3791310508 -0.4103388819 0.3793750671 -0.4108099547 -0.1015560561 0.1482877458
400297600.0 -0.1107358939 0.1336088409 0.3748633235 -0.414964437 0.3750858484 -0.4147501706 -0.100192689 0.149085841
405297570.0 -0.1093316436 0.1349097139 0.3700024492 -0.4190667453 0.3702649189 -0.4190470498 -0.0984691124 0.1508609708
410297540.0 -0.1079454037 0.1358236325 0.3649199057 -0.4227572747 0.3653190611 -0.4231168265 -0.0968921099 0.1520088161
415297510.0 -0.1065661544 0.1373459336 0.3606089726 -0.4267165552 0.3607009037 -0.4266664264 -0.0953756202 0.1533142418
420297480.0 -0.105086532 0.1379641573 0.3557008559 -0.4309666601 0.356433961 -0.4307309748 -0.0936795035 0.154253568
425297450.0 -0.1037690225 0.139307817 0.351104908 -0.4349246035 0.3512535285 -0.4347293815 -0.0914844448 0.155894256
430297420.0 -0.1027711187 0.1406736082 0.3464079769 -0.4387259876 0.3466924365 -0.4388627151 -0.0901594459 0.1569330628
435297390.0 -0.1010978995 0.1414681906 0.3418310275 -0.4420907647 0.3418996762 -0.4420795805 -0.088433739 0.1585818426
440297360.0 -0.0997548405 0.1425696562 0.3365239228 -0.4460291903 0.3365803548 -0.445951317 -0.0867312259 0.1591932894
445297330.0 -0.0981534775 0.1436735269 0.3314231361 -0.450187635 0.3315651084 -0.4498348505 -0.0853340956 0.1604674108
450297300.0 -0.0966730998 0.1445257098 0.3262040918 -0.4531272038 0.3270284061 -0.4533563142 -0.0836190244 0.1616020783
455297270.0 -0.0957983332 0.145834662 0.3221314164 -0.4565643075 0.3223293067 -0.4569154476 -0.0814592969 0.162910776
460297240.0 -0.0944573469 0.1469080669 0.3170047914 -0.4600782375 0.316702772 -0.4601852017 -0.0795665356 0.1640996199
465297210.0 -0.0927471014 0.1479514668 0.3120068303 -0.4639157871 0.3121072832 -0.4638468666 -0.0786454425 0.1647532755
470297180.0 -0.0912733839 0.1488986947 0.3072977993 -0.4668252219 0.3070943718 -0.4670101237 -0.0768639662 0.1659230333
475297150.0 -0.0901475571 0.1495499333 0.301652468 -0.4699010402 0.3017412391 -0.469833421 -0.074639747 0.1671220617
480297120.0 -0.0881369029 0.1505673827 0.2964098519 -0.4732732125 0.296609752 -0.4735189439 -0.0731247396 0.1683016723
485297090.0 -0.0867157649 0.1516957698 0.2917449886 -0.4766042525 0.2916486373 -0.4764081609 -0.0715139579 0.1690515
490297060.0 -0.0852140999 0.1523157894 0.2858116982 -0.4799455026 0.286370671 -0.479930967 -0.0692562748 0.1701469548
495297030.0 -0.0839930013 0.1536381005 0.2810620339 -0.4824598639 0.2809483694 -0.4829433095 -0.06757815 0.1708293253
500297000.0 -0.0822614667 0.15440461 0.2756304462 -0.485757555 0.2755450664 -0.4858785137 -0.0659736272 0.1716956965
505296970.0 -0.0811058713 0.1554910516 0.2700356055 -0.4881402561 0.2702771094 -0.4886549113 -0.0644408294 0.1728231464
510296940.0 -0.0795286495 0.1562338437 0.2651020901 -0.4916001082 0.2648655129 -0.4912804469 -0.0621256925 0.1739880654
515296910.0 -0.078145248 0.1573879281 0.2593153739 -0.4939899251 0.2598696892 -0.49466491 -0.060461491 0.1746116625
520296880.0 -0.0765573715 0.1579921627 0.2540142226 -0.4972821817 0.2546353295 -0.4970020899 -0.0582128364 0.1753086953
525296850.0 -0.0749086006 0.1588314538 0.2487509979 -0.4996902876 0.248852026 -0.5002101363 -0.0564199537 0.1759646301
530296820.0 -0.0736865971 0.1594999553 0.2435358747 -0.5019377167 0.2434742112 -0.5024428761 -0.0548954658 0.1767030765
535296790.0 -0.0719940029 0.1604361038 0.2373860394 -0.5045040285 0.2379783507 -0.5049068 -0.0529208032 0.1774548647
540296760.0 -0.0702547247 0.1611219266 0.2323723468 -0.5078241175 0.2318764253 -0.5077007906 -0.0510758165 0.1784046654
545296730.0 -0.068866814 0.1623490398 0.2265638362 -0.5099132801 0.2266023597 -0.5100847801 -0.0488317772 0.1787284852
550296700.0 -0.0674028305 0.1630291289 0.2213129269 -0.5128549622 0.2216958407 -0.5125952552 -0.0472547719 0.1803902357
555296670.0 -0.0655074236 0.1637214546 0.2159439292 -0.5151691132 0.2154956995 -0.5148934369 -0.0451592028 0.1807105976
560296640.0 -0.0641699754 0.164266742 0.2103309336 -0.5167258678 0.210417422 -0.5170688853 -0.0431689326 0.1814301856
565296610.0 -0.0629242971 0.1652692161 0.2044486353 -0.5193023244 0.2042960519 -0.5192684338 -0.0412617891 0.1817544483
570296580.0 -0.0605537447 0.1657070431 0.1986780571 -0.5211335703 0.1990982367 -0.5214570204 -0.0392159217 0.1829724958
575296550.0 -0.0592827874 0.1666545239 0.1931530957 -0.5228937244 0.1932537973 -0.5233626304 -0.0368755919 0.1831358872
580296520.0 -0.0579918497 0.1675557744 0.1878848357 -0.5252970076 0.1876610919 -0.5254222588 -0.0353345077 0.1836785999
585296490.0 -0.0560871121 0.1678799202 0.1820038419 -0.5275718775 0.18166322 -0.5273870181 -0.033884844 0.1838401778
590296460.0 -0.0547037862 0.1684683937 0.1759227335 -0.5293860145 0.176147168 -0.5296032 -0.0312668955 0.184682528
595296430.0 -0.0530429079 0.1695042956 0.1707944442 -0.5313965397 0.170220027 -0.5315168108 -0.0293201828 0.185074999
600296400.0 -0.0514109006 0.1699826434 0.1650370841 -0.532959351 0.1647296437 -0.5332404864 -0.0270576975 0.1856329637
605296370.0 -0.0492946983 0.1710914003 0.1586675105 -0.5352074948 0.1590828139 -0.5349769246 -0.0250403497 0.1862756847
610296340.0 -0.0480936578 0.1712672138 0.1532368602 -0.5363152072 0.1532337524 -0.5367605573 -0.0230818557 0.1870414422
615296310.0 -0.046381356 0.171985207 0.1468989316 -0.5376638642 0.1470097127 -0.5381255014 -0.0212696036 0.1870234998
620296280.0 -0.0447426334 0.1723246331 0.1415319456 -0.5394278435 0.1417310355 -0.5396682705 -0.019351426 0.1870413421
625296250.0 -0.0429132989 0.1732400225 0.13524905 -0.5415375361 0.1354321068 -0.5411398605 -0.0172344724 0.1878031029
630296220.0 -0.0411527246 0.1737997227 0.1294936979 -0.5426980416 0.1301395154 -0.5424508113 -0.0152492768 0.1884973841
635296190.0 -0.0395514194 0.174268036 0.1234955363 -0.5435789824 0.1235375454 -0.5432070243 -0.0131790558 0.1884576528
640296160.0 -0.0379094 0.1745069585 0.1183064177 -0.5448707395 0.1180990644 -0.5451911414 -0.010902795 0.1885122992
645296130.0 -0.036007173 0.1754863597 0.1117006068 -0.5465728057 0.1122673461 -0.5462888712 -0.009472438 0.1887102312
650296100.0 -0.0344290443 0.1762639235 0.1066597964 -0.5472501086 0.1064137164 -0.5474226924 -0.0072658273 0.1891030598
655296070.0 -0.0326777173 0.1762941752 0.1004264233 -0.5483530565 0.1002394542 -0.5482605918 -0.00448522 0.1898681725
660296040.0 -0.0314614877 0.1769077334 0.0945063468 -0.5493991975 0.0945322252 -0.5490555391 -0.0031931045 0.1894545544
665296010.0 -0.029405283 0.1769965767 0.0881831732 -0.5504668322 0.0886052945 -0.550543403 -0.0009965636 0.1900839469
670295980.0 -0.0274090376 0.1778902116 0.0825147694 -0.551041113 0.0827884828 -0.5514395256 0.0005595215 0.1902436359
675295950.0 -0.0256165918 0.1780550047 0.0766217602 -0.5519814612 0.0765140804 -0.5528162719 0.0034043976 0.1902610272
680295920.0 -0.0240924465 0.1788110534 0.0707199876 -0.5529347725 0.0700754285 -0.5529122795 0.0053591776 0.1901279149
685295890.0 -0.0222866737 0.1789771747 0.0647169783 -0.5537072697 0.0645701312 -0.553670096 0.0072219306 0.1907599117
690295860.0 -0.0201953501 0.1794770408 0.0586316749 -0.5536471235 0.0584542957 -0.553993028 0.0097031882 0.1908491719
695295830.0 -0.0186133223 0.1792764008 0.0520118585 -0.5547147775 0.0521290601 -0.5549870923 0.0112382233 0.1907973371
700295800.0 -0.0165811471 0.1797783568 0.0465663992 -0.5551508025 0.0465217228 -0.5553453231 0.0133389515 0.1900886425
705295770.0 -0.0151834528 0.1805058874 0.0406786371 -0.5556282058 0.0408366701 -0.5559835165 0.0152242132 0.1904078702
710295740.0 -0.0133170414 0.1807751043 0.0342686839 -0.5557312305 0.0347188975 -0.5560967559 0.0167426442 0.191069137
715295710.0 -0.0117882605 0.1811301364 0.0286927853 -0.5564760373 0.0285810247 -0.5561177435 0.0194186387 0.1901968083
720295680.0 -0.0097796307 0.1810224514 0.0224560043 -0.5564912947 0.0229393618 -0.5572090838 0.0218627018 0.1904390444
725295650.0 -0.0080449813 0.1815463992 0.0161253224 -0.5568101196 0.0167097702 -0.5570678445 0.0238773065 0.1905315274
730295620.0 -0.0064452987 0.1815240836 0.0104056749 -0.5567577559 0.0102881282 -0.557032252 0.0258666429 0.1896320727
735295590.0 -0.0042631227 0.1818030343 0.0047757614 -0.5568798478 0.0051040868 -0.5570849271 0.0280953373 0.190231045
740295560.0 -0.0026113393 0.1822853218 -0.0015229777 -0.5564737566 -0.0017048703 -0.5566664775 0.0300907869 0.1897429146
745295530.0 -0.0007351714 0.1822808629 -0.0079902204 -0.5567852415 -0.007497479 -0.5570654504 0.0318333241 0.1897079578
750295500.0 0.0010499709 0.1825239031 -0.0134866931 -0.5565664353 -0.0132909212 -0.5564221991 0.0341616443 0.18905451
755295470.0 0.0032159408 0.182438549 -0.0195197474 -0.5562782847 -0.0192975796 -0.5565141369 0.0358554112 0.1894165745
760295440.0 0.0046459678 0.1826073839 -0.0256528139 -0.5559040426 -0.0255048325 -0.556203154 0.0374961455 0.1886172524
765295410.0 0.0063165593 0.1825387639 -0.0309066261 -0.5555115546 -0.031192074 -0.5559532303 0.040545315 0.1888958823
770295380.0 0.0083231302 0.1827509418 -0.0377099271 -0.555101737 -0.0372549569 -0.5559306684 0.042504087 0.1884848178
775295350.0 0.0099979175 0.1830923251 -0.0433694049 -0.554802498 -0.0432320361 -0.5550873447 0.0440383595 0.1876357616
780295320.0 0.0119390433 0.182953191 -0.0489261069 -0.5543060615 -0.0490287886 -0.5547102096 0.0462949808 0.187974325
785295290.0 0.013731824 0.1831888325 -0.0554494207 -0.5530635134 -0.0553609982 -0.5539523799 0.0480039694 0.187683049
790295260.0 0.0151529855 0.1832358084 -0.0606901303 -0.553285214 -0.0612411234 -0.553327703 0.050472281 0.1868593325
795295230.0 0.0169409022 0.1833100765 -0.0668617488 -0.552161603 -0.0670866188 -0.5524592594 0.052607873 0.1870241853
800295200.0 0.0190665815 0.183143167 -0.0733396646 -0.5520027867 -0.0734611559 -0.5522260726 0.054452306 0.1862078426
805295170.0 0.0204889607 0.1831198516 -0.0788546434 -0.5503658407 -0.079087367 -0.5507444 0.0562625653 0.1854767802
810295140.0 0.0226335801 0.1831670524 -0.0846264062 -0.549693472 -0.0849483778 -0.5504068158 0.0584059701 0.1855834902
815295110.0 0.0243947717 0.1829063244 -0.0912207522 -0.5487676197 -0.0910447336 -0.5493018762 0.0602325878 0.1847391935
820295080.0 0.0260813152 0.182719242 -0.0966821994 -0.5480191977 -0.0968129526 -0.548169667 0.0623573456 0.1843582471
825295050.0 0.0280372121 0.1828224577 -0.1027798738 -0.5464247159 -0.1028912728 -0.5470512019 0.064760297 0.1839875076
830295020.0 0.0298409477 0.1827721796 -0.1088081643 -0.5454406103 -0.1091129236 -0.5454755254 0.0664727975 0.1829963222
