!Created with skrf (http://scikit-rf.org).
# Hz S RI R 50.0 
!freq ReS11 ImS11 ReS21 ImS21 ReS12 ImS12 ReS22 ImS22
300000.0 -0.2159558878 -0.064293865 -0.0001524858 -0.0016405763 0.0008659499 -0.0002690704 -0.7754441888 -0.1433320931
5299970.0 -0.216800718 0.0078868346 0.0001398654 -0.0001492717 1.08939e-05 -2.79441e-05 -0.7847520633 -0.0069692127
10299940.0 -0.2130772971 0.0191454102 1.92467e-05 0.0001821211 5.601e-05 8.76795e-05 -0.7879107411 -0.0037543384
15299910.0 -0.2086426052 0.0282609719 -4.76043e-05 0.000103042 -2.99411e-05 -0.0001187517 -0.7930526516 -0.001883693
20299880.0 -0.2033684664 0.035948849 -2.36586e-05 0.0001203194 0.0002551561 5.11667e-05 -0.799847427 0.0020537629
25299850.0 -0.1978151663 0.0420617091 -0.0001603086 -5.17424e-05 -7.62698e-05 0.0001121533 -0.8057982527 0.0082451475
30299820.0 -0.1920905722 0.046672948 -0.0002074017 -4.9785e-06 -0.0001688816 2.20508e-05 -0.8121666811 0.0164398958
35299790.0 -0.1864748537 0.0505967565 0.0001175671 -8.07275e-05 0.0001764412 0.0001044489 -0.8170487454 0.0248656662
40299760.0 -0.180714332 0.0535017982 -3.6136e-06 0.000156022 6.48465e-05 2.31062e-05 -0.8212615162 0.0347016479
45299730.0 -0.1753220818 0.0553744231 0.0001500914 -3.66237e-05 0.0002168372 0.0001772935 -0.8253102817 0.0440510498
50299700.0 -0.1709080274 0.0568753385 -4.26582e-05 7.78322e-05 3.94775e-05 3.49069e-05 -0.8271997376 0.0537611272
55299670.0 -0.1664176182 0.0580128057 -0.0001319008 1.1978e-05 -6.7533e-06 0.0001039193 -0.8297330097 0.0646928713
60299640.0 -0.1622026431 0.0589624644 3.43008e-05 0.0001737019 0.0001580158 -0.0002601546 -0.8305417198 0.0740026743
65299610.0 -0.1588146189 0.0591884597 4.97857e-05 7.23841e-05 7.64357e-05 0.0002406063 -0.8320937832 0.0839202319
70299580.0 -0.1558223378 0.0596220936 8.35664e-05 -0.0001167141 -7.04167e-05 9.70678e-05 -0.8313931915 0.0943111161
75299550.0 -0.1525315671 0.0599613051 -0.0001370023 -1.9283e-06 0.0001045776 6.90879e-05 -0.8316318663 0.1042587225
80299520.0 -0.1498500134 0.0601478256 0.0001183959 -4.35885e-05 -3.15616e-05 -3.56489e-05 -0.8323006243 0.1135293728
85299490.0 -0.1478544257 0.0600854623 2.041e-07 5.72705e-05 -3.3335e-05 0.0001631864 -0.8314561838 0.1239039531
90299460.0 -0.1455831439 0.0600935457 -0.0001221293 0.0002427642 0.0001450873 0.0001325989 -0.8309743631 0.1328344892
95299430.0 -0.1434723854 0.0597229977 -0.0001837321 0.0003894265 6.60721e-05 0.0002460215 -0.8291860089 0.142605786
100299400.0 -0.1418251868 0.0600250468 0.000129725 -4.00488e-05 0.0001687601 5.27306e-05 -0.8280984108 0.1527086175
105299370.0 -0.1401742127 0.0600176915 3.85638e-05 5.77813e-05 2.41282e-05 4.0491e-06 -0.8268303633 0.1607110454
110299340.0 -0.1384223679 0.0601586352 0.0001251958 -5.8697e-05 3.91746e-05 0.0001424064 -0.8254157737 0.1703732303
115299310.0 -0.1367918076 0.0599531847 0.0002636377 -4.62869e-05 0.0001237352 7.98698e-05 -0.8245084783 0.1802061634
120299280.0 -0.1360484679 0.0597912472 0.0001330469 0.0002207915 -9.81176e-05 0.0001097768 -0.8220777707 0.1891931583
125299250.0 -0.1349388349 0.0600061955 0.0001478529 -8.27746e-05 7.51422e-05 0.0001392678 -0.8204456676 0.1973983119
130299220.0 -0.134325782 0.0603187925 5.33548e-05 3.62415e-05 -2.69962e-05 -2.7437e-06 -0.8191220692 0.2066680813
135299190.0 -0.1330049038 0.0605913228 0.0001095514 -0.0001210733 -5.02357e-05 -2.12948e-05 -0.8163014862 0.216063289
140299160.0 -0.132491145 0.0608345774 8.6743e-06 2.74835e-05 0.0001908991 -3.01217e-05 -0.8139373428 0.2250514168
145299130.0 -0.1312283193 0.0611993862 -4.8528e-06 -3.80737e-05 0.00013564 0.0001029117 -0.8119066469 0.2335792276
150299100.0 -0.1306277671 0.0613389408 -7.45818e-05 3.9377e-05 0.0003443931 0.0001344619 -0.8100496936 0.2430948875
155299070.0 -0.130180243 0.0619411849 7.34646e-05 -2.91388e-05 -8.52049e-05 -4.37532e-05 -0.8073021035 0.2517783995
160299040.0 -0.1296288637 0.062430535 2.99191e-05 0.0002318125 0.0003394597 0.0001716227 -0.8049483894 0.2604203359
165299010.0 -0.1289594696 0.0626150215 0.0001154174 0.0001384812 2.29784e-05 -2.92151e-05 -0.8023495798 0.2691145182
170298980.0 -0.1286741317 0.0635748499 0.0001429271 5.31554e-05 -5.93213e-05 0.0001348029 -0.7994690581 0.2784715313
175298950.0 -0.1276172868 0.0642665497 4.44517e-05 8.10561e-05 0.0001893071 0.0001132538 -0.7965612189 0.2867815765
180298920.0 -0.1273125046 0.0647108435 0.0001107245 0.0001214004 0.0001600707 0.000159455 -0.793800602 0.2949566615
185298890.0 -0.1267294515 0.0651710507 -5.11288e-05 0.0001076672 0.00021001 0.0002037479 -0.7902528847 0.3033308074
190298860.0 -0.1261424913 0.0659279567 -2.1261e-05 -3.95543e-05 2.29123e-05 0.0001175504 -0.7877921669 0.3124632748
195298830.0 -0.1259262857 0.0669105102 4.05054e-05 6.32734e-05 0.0001500775 -1.81597e-05 -0.7842583462 0.3208472245
200298800.0 -0.1249173024 0.0674945546 5.79663e-05 0.0003717515 0.000180539 0.0001726637 -0.7814202927 0.3292905707
205298770.0 -0.1248868965 0.0682893781 8.09062e-05 -0.0003105185 0.000251402 0.0001413224 -0.7776942735 0.337498318
210298740.0 -0.1245380585 0.0688776541 -9.74935e-05 -2.1446e-06 0.0002366606 -8.35911e-05 -0.774493407 0.3458172941
215298710.0 -0.1240490723 0.0699455185 0.0002081818 0.0001906718 3.08107e-05 0.0001419817 -0.7708285219 0.3537366841
220298680.0 -0.123752929 0.0702906237 0.000153097 0.000108443 4.7339e-06 8.092e-07 -0.7671606658 0.3616345454
225298650.0 -0.1232968894 0.071016138 9.50658e-05 0.0001006124 0.0001294871 -0.0001064357 -0.7636961538 0.3699438526
230298620.0 -0.1226179662 0.0724932401 7.63152e-05 6.5274e-06 3.34986e-05 -8.89883e-05 -0.7597465654 0.3788796044
235298590.0 -0.1221999739 0.0732806956 8.09687e-05 0.0003216427 8.18808e-05 0.0002877763 -0.7555848711 0.386827135
240298560.0 -0.1216149541 0.0738326964 -0.0001112946 6.67888e-05 -0.0001110812 0.0001176834 -0.7516478729 0.3949925034
245298530.0 -0.1213260192 0.0747958504 9.03656e-05 3.85323e-05 9.192e-05 0.0001910356 -0.7479216956 0.4021578824
250298500.0 -0.1207760985 0.0759111141 0.000116872 0.0001894837 -6.4615e-05 7.12062e-05 -0.7437198194 0.4102921473
255298470.0 -0.1205996917 0.076927078 -0.0001343812 0.0002392861 0.0002009931 0.0001173775 -0.7390624175 0.4179219367
260298440.0 -0.1198612354 0.0775100866 4.8199e-05 0.0001591233 -0.0001281402 7.69376e-05 -0.7346012104 0.4264303549
265298410.0 -0.1193902013 0.0790486614 3.75693e-05 9.13565e-05 -4.27042e-05 0.0001400982 -0.7303211469 0.4330928647
270298380.0 -0.1191109717 0.0798239029 3.92246e-05 0.0001228494 3.6652e-06 6.79395e-05 -0.7259334224 0.4410121281
275298350.0 -0.1183864634 0.0808610092 0.0001612788 0.0002934796 4.37126e-05 9.96761e-05 -0.7210419318 0.44861528
280298320.0 -0.1176652745 0.0817536108 -1.79268e-05 0.0002238687 3.73165e-05 8.21124e-05 -0.7158456237 0.4558508497
285298290.0 -0.1170206393 0.0830411589 6.8534e-06 0.0001809677 3.3368e-06 1.18789e-05 -0.7107396763 0.4635021584
290298260.0 -0.1165494712 0.083802755 7.79301e-05 0.0002111157 0.0002446743 5.91145e-05 -0.7059326537 0.4706218618
295298230.0 -0.115842254 0.0847157982 0.0001722319 3.19371e-05 0.0001350263 0.0001448043 -0.701286716 0.4774681848
300298200.0 -0.1151937054 0.0858627436 0.0002045983 0.0003879983 -1.69915e-05 1.81802e-05 -0.6959138554 0.4852225916
305298170.0 -0.1147224446 0.0868027862 -0.0001152714 1.41779e-05 0.0001948431 7.68406e-05 -0.690253536 0.4929260136
310298140.0 -0.1140977901 0.0880591936 0.0002963856 0.000113081 -3.8638e-05 9.2908e-06 -0.6858081414 0.4996774808
315298110.0 -0.1135255814 0.0888394819 0.000137059 -1.4742e-06 -2.99853e-05 7.83513e-05 -0.6796917676 0.5068026507
320298080.0 -0.1126702147 0.0896110985 -4.2164e-05 0.000103322 -2.9063e-06 0.0001445095 -0.6745886025 0.5142996476
325298050.0 -0.1121157472 0.0909380531 4.69977e-05 0.0001887606 8.74219e-05 -3.32793e-05 -0.6693224702 0.5206252925
330298020.0 -0.111541128 0.0915177131 0.0001207264 0.0001995995 2.85982e-05 0.0002697109 -0.6636762653 0.5279173526
335297990.0 -0.1109073371 0.0923196723 0.0001509293 0.0001687305 0.0002401414 -0.0001587377 -0.6585344261 0.535295098
340297960.0 -0.1106687388 0.093845332 0.0001085669 0.0002090967 0.0003251967 0.0001173673 -0.6527102283 0.5423956007
345297930.0 -0.1100599726 0.094983601 -4.30313e-05 0.0003811727 -4.48304e-05 0.000148714 -0.6468293426 0.5485038883
350297900.0 -0.1092261953 0.0960637919 5.95948e-05 -3.8862e-06 0.0001527968 0.0001014713 -0.6415438253 0.5553306883
355297870.0 -0.1085197135 0.0973096856 0.0005050066 -0.0002103503 6.2988e-06 2.39947e-05 -0.6361284735 0.5620348435
360297840.0 -0.1075711596 0.0982802622 3.33942e-05 2.16255e-05 4.94202e-05 0.000183475 -0.6298140829 0.5690065686
365297810.0 -0.1072629029 0.0994077627 4.43821e-05 2.11382e-05 0.0001213155 -3.24395e-05 -0.6233519427 0.5748355639
370297780.0 -0.1063571603 0.1006346076 0.0002770063 0.0002082451 8.37741e-05 3.93901e-05 -0.6175478716 0.5811202138
375297750.0 -0.1053869118 0.1015981838 0.0001412171 0.000185958 2.60346e-05 0.0002627419 -0.6116642998 0.5877012967
380297720.0 -0.1047161436 0.1026436072 0.0003036473 0.000118285 0.0001041543 0.0002839186 -0.6056583206 0.5942118618
385297690.0 -0.104219129 0.103986985 0.000209194 0.0001526993 0.0003659073 0.0001331509 -0.598773039 0.6011204201
390297660.0 -0.1034474766 0.1051889106 0.0001023241 0.0002791421 -5.63734e-05 8.93782e-05 -0.5937637604 0.6067986296
395297630.0 -0.10242803 0.1064806391 -2.33358e-05 1.39517e-05 3.84249e-05 0.0001224369 -0.5865804671 0.6132290524
400297600.0 -0.1015107555 0.1074813611 0.0001673194 1.22131e-05 0.0001027231 0.0001440269 -0.5806679669 0.6190190784
405297570.0 -0.1010657961 0.1082305307 0.0001635591 4.44988e-05 -3.07737e-05 5.6295e-06 -0.5740158159 0.6247517465
410297540.0 -0.0999526536 0.1092939237 9.83566e-05 0.0002079249 0.0001551948 -1.25193e-05 -0.5674166934 0.630535448
415297510.0 -0.0989665841 0.1102409989 0.0002345747 -3.13478e-05 0.0003021979 0.0001261739 -0.5609557977 0.6362503745
420297480.0 -0.0981797055 0.1116622772 0.0001845108 0.000171601 0.0003353871 9.5417e-05 -0.5543004312 0.6421977621
425297450.0 -0.0972318649 0.1124392006 9.55093e-05 0.0001229528 9.23111e-05 0.0001621539 -0.5479489416 0.6480910112
430297420.0 -0.0964765448 0.1136477856 3.39781e-05 -2.4116e-05 0.0002423723 0.0003312471 -0.5408481132 0.6526124059
435297390.0 -0.0953459405 0.1147269088 0.0003020189 0.0002797708 0.0002510637 0.0001901677 -0.5341431469 0.6582023399
440297360.0 -0.0945144805 0.1155321578 0.0003393427 0.0001253755 0.0001425072 0.000306041 -0.5279690258 0.6635053892
445297330.0 -0.0932413893 0.116740445 0.0001360682 1.3648e-06 0.0001129968 0.0002418656 -0.5206920572 0.66872328
450297300.0 -0.0923912673 0.1174542709 5.13021e-05 -9.84916e-05 0.0002949858 0.000288832 -0.513139178 0.6738442852
455297270.0 -0.091879433 0.118862499 0.000292888 0.000109281 0.0003555981 -3.67388e-05 -0.5064547315 0.6784094302
460297240.0 -0.0907870454 0.1195312862 0.0001630543 -9.62651e-05 0.0001834786 -6.60004e-05 -0.4997493695 0.6839318715
465297210.0 -0.0894849017 0.1208183071 6.25007e-05 8.18055e-05 0.0004013126 -5.07207e-05 -0.4922666186 0.6888346317
470297180.0 -0.0884084845 0.1217607987 0.0001416199 3.21331e-05 1.67272e-05 -6.78109e-05 -0.4848568366 0.6941679226
475297150.0 -0.0873195624 0.1225637697 0.0002222119 0.0001726407 0.0001688591 0.0001010567 -0.4775677217 0.6986723763
480297120.0 -0.0864034941 0.1236768813 0.000134406 0.0001563791 0.0002614769 2.46072e-05 -0.4703636667 0.7035971072
485297090.0 -0.0853679705 0.1245931276 0.0002890343 0.0001067453 0.000106634 7.40793e-05 -0.463535542 0.7082476455
490297060.0 -0.0845254004 0.1259534123 -2.07233e-05 0.0001066657 -2.87913e-05 -8.10439e-05 -0.4558173598 0.7125248095
495297030.0 -0.0833497939 0.1267191631 0.0003722929 2.8099e-05 0.0001593688 3.33662e-05 -0.4488958046 0.717815606
500297000.0 -0.0819165581 0.1276059962 9.38263e-05 -0.0002012516 0.0003451811 -0.0001356563 -0.4407804285 0.7224039301
505296970.0 -0.0809738732 0.1287520003 0.000386211 -6.78442e-05 0.0003776836 0.0001068262 -0.4339970795 0.7268342357
510296940.0 -0.0798508955 0.129454634 0.0005023091 0.0001343758 0.0002115434 0.0001865906 -0.4260186303 0.7303946952
515296910.0 -0.0783598262 0.1302563178 6.75314e-05 0.000119071 0.0002301148 -0.000101368 -0.4188409797 0.7353085195
520296880.0 -0.0779281869 0.1312719342 0.0002370682 -2.94137e-05 0.0001083503 -0.0001043806 -0.4113384301 0.7391434552
525296850.0 -0.0763371485 0.1320518969 0.000276117 0.0001230968 0.0003349895 3.33508e-05 -0.4041841015 0.7438746216
530296820.0 -0.0751635193 0.1333036657 0.0002120106 0.0002171768 0.0001949529 7.09334e-05 -0.3965914794 0.747567747
535296790.0 -0.0742660699 0.1339137209 0.0002061591 -5.4132e-06 0.0001994075 -5.06074e-05 -0.3891468041 0.7511637741
540296760.0 -0.0729340816 0.1347070529 0.0003008035 0.0002331666 -7.72084e-05 -2.85596e-05 -0.3808619233 0.7557371831
545296730.0 -0.0718567013 0.1358967953 0.0002160713 1.94155e-05 0.0001561875 5.2258e-06 -0.3735690582 0.7593034091
550296700.0 -0.0702823809 0.1367372867 0.0002925855 5.36007e-05 0.0002247049 2.38489e-05 -0.3656664961 0.7633076679
555296670.0 -0.0693324435 0.137339044 -7.1212e-06 4.61639e-05 6.4205e-05 4.39844e-05 -0.3583693839 0.7673998985
560296640.0 -0.0680930475 0.1384467738 0.0002984755 -8.76651e-05 0.0003759315 -4.61148e-05 -0.3502916542 0.7711131885
565296610.0 -0.0670085834 0.1392125609 3.70104e-05 0.0002574119 0.0002013216 4.91148e-05 -0.3424857761 0.7740389656
570296580.0 -0.0660546622 0.1397894902 0.0002466008 5.66521e-05 8.45303e-05 0.0003205626 -0.3352655655 0.7778863682
575296550.0 -0.0645865157 0.1409636 0.0001858557 0.0002643467 0.0002828887 1.70526e-05 -0.3273647503 0.7808253305
580296520.0 -0.0631243454 0.1414633459 0.000417137 -0.0001193114 0.0002611858 0.0001342519 -0.3186522321 0.7839116713
585296490.0 -0.0621708594 0.1425111609 0.0003110552 0.0001005184 0.0003855219 2.77978e-05 -0.3106326116 0.7871801736
590296460.0 -0.0604566336 0.143013913 0.0003510342 -8.33862e-05 6.48892e-05 -8.54161e-05 -0.3030297197 0.7900150508
595296430.0 -0.0593187615 0.1438089993 0.0001229045 0.0001435881 0.0001624572 8.4893e-06 -0.2946067405 0.7924735543
600296400.0 -0.0583234209 0.1445664318 0.0002865135 -7.80812e-05 0.0003465481 2.89141e-05 -0.2874622669 0.7953615501
605296370.0 -0.0570096807 0.145262685 0.0002297214 -1.82178e-05 0.0004531411 7.64349e-05 -0.2783893966 0.7983681445
610296340.0 -0.0556503628 0.1459799032 0.0003855379 8.80335e-05 0.0001957274 0.0002036467 -0.2710751851 0.8011046608
615296310.0 -0.0541579045 0.1467445499 0.0001523245 7.08855e-05 0.0003655269 0.0002398586 -0.261798071 0.8030988787
620296280.0 -0.0531810081 0.1470186962 0.0003871967 -0.0001952412 0.0001057138 0.0001023656 -0.2544160846 0.8062726748
625296250.0 -0.0515733819 0.1478105763 0.0002099241 -9.89017e-05 0.0003925623 0.0001864089 -0.2456329337 0.8082788557
630296220.0 -0.0499720357 0.1484214555 0.0003714248 -0.0001462795 0.0002497354 4.06953e-05 -0.2376963572 0.8106108986
635296190.0 -0.0490470557 0.1493462561 0.0002021751 -0.0002386706 0.0001323568 -0.0001813017 -0.2297047385 0.8126112046
640296160.0 -0.0473605789 0.1499849194 7.68531e-05 1.24187e-05 0.0003314049 -4.7881e-06 -0.2210322723 0.8154311765
645296130.0 -0.046115561 0.1508886317 0.0003245317 3.52026e-05 0.0001741495 3.2111e-05 -0.2132419598 0.8174380226
650296100.0 -0.0448984084 0.1514228846 0.0004029489 0.0001405376 8.59751e-05 -1.13547e-05 -0.2053321 0.8182906254
655296070.0 -0.0433894117 0.151945964 0.0002205123 0.0001435212 0.0004057463 -8.52422e-05 -0.1961029619 0.8212960633
660296040.0 -0.0419628728 0.1523834265 0.0003013797 -5.67315e-05 9.46338e-05 6.96336e-05 -0.1877315656 0.8232512601
665296010.0 -0.040280188 0.152773748 0.0001310423 6.3917e-06 0.0001162115 0.0001355523 -0.1794968639 0.8253526251
670295980.0 -0.0391482785 0.1537210834 -0.0001781824 -6.56257e-05 0.0003009617 -9.9232e-05 -0.1720717946 0.8265071581
675295950.0 -0.0379248244 0.1541440154 0.0002700248 -6.33172e-05 0.0002699516 0.0002597652 -0.1639106739 0.8287246052
680295920.0 -0.0363478253 0.1548774436 0.0004873788 0.0001587132 0.0002746477 0.0001659445 -0.1549915297 0.8307329164
685295890.0 -0.0347234634 0.1556603497 8.04542e-05 0.0001314722 0.000226331 6.75262e-05 -0.1463073203 0.831696119
690295860.0 -0.0333707328 0.1559708305 0.0003438603 4.20504e-05 0.0002300363 -0.0001260284 -0.1384619135 0.8336196363
695295830.0 -0.0322318929 0.1565517581 0.0002957235 8.68276e-05 0.000291734 0.0002545812 -0.1296139706 0.8343235628
700295800.0 -0.0305762351 0.156760382 1.18315e-05 -0.0001312986 0.000128984 4.15604e-05 -0.1223447031 0.836296666
705295770.0 -0.0292787559 0.1576317589 0.0003379615 4.26337e-05 0.0001249419 4.71893e-05 -0.1133862434 0.8381027102
710295740.0 -0.0277184849 0.1579615073 0.0003372045 -0.0001110593 0.0001845002 0.0001217641 -0.1050015422 0.8384427602
715295710.0 -0.0262246747 0.1581241526 0.000413685 0.0001672326 0.0002117051 4.53833e-05 -0.0962875388 0.8397539386
720295680.0 -0.0248241415 0.1586859444 0.0002552012 -7.58606e-05 0.000204461 -8.39676e-05 -0.0881421271 0.8408663445
725295650.0 -0.0231033482 0.1592377297 0.0002077669 2.87786e-05 0.0002878653 0.0001330042 -0.0799501212 0.8420154065
730295620.0 -0.0219557442 0.1597361261 9.94612e-05 1.396e-07 0.0002949157 -4.96167e-05 -0.0720673238 0.8424029984
735295590.0 -0.0203884391 0.160197114 0.0001389009 8.29583e-05 0.0003375781 5.10558e-05 -0.0634678349 0.8426980466
740295560.0 -0.0190569987 0.1607774757 0.0003275489 -8.5684e-05 0.0003753037 -0.0001600009 -0.054289704 0.8436511644
745295530.0 -0.0177275018 0.1608281856 0.0003737203 -0.0002358366 0.0003598073 -3.63961e-05 -0.0461919766 0.8438782742
750295500.0 -0.0158564764 0.1613751476 0.0003889402 -0.0001174265 0.0001290289 -6.71445e-05 -0.0381397869 0.8437704958
755295470.0 -0.0143554036 0.1614929545 0.000313279 7.39961e-05 0.0003042206 -0.0001326695 -0.0292825175 0.8438444124
760295440.0 -0.0132197122 0.1618275621 0.0003798551 -0.0003858016 0.0001438976 -0.0001156864 -0.0213036649 0.8439136448
765295410.0 -0.0114590174 0.162313452 0.000421377 0.0002650401 0.0001458616 -3.5179e-05 -0.0127347875 0.8448155654
770295380.0 -0.0098629366 0.1626262424 0.0002267849 0.000186693 0.0002387304 7.24927e-05 -0.0041216666 0.8446584405
775295350.0 -0.0087449287 0.1629295541 0.0003669145 4.1351e-06 0.0002868585 -1.90748e-05 0.0034842537 0.8439800546
780295320.0 -0.0069921434 0.1633923909 0.0004021524 7.63597e-05 0.0002263536 -0.0003640426 0.0122165411 0.8441163066
785295290.0 -0.0055950197 0.1633353727 0.0001712147 1.16359e-05 0.000286845 0.0001223521 0.0209989746 0.8435867903
790295260.0 -0.0037306664 0.1638704457 0.0001161096 0.0001144778 0.0002440593 5.6881e-06 0.0296467634 0.8444633591
795295230.0 -0.0022918519 0.1640338142 9.54942e-05 -1.74386e-05 0.0005113289 0.0001482193 0.0384896635 0.8426812727
800295200.0 -0.0011288229 0.1640939849 0.0003565281 -0.0002256805 0.0001817156 -6.44519e-05 0.0469273403 0.8426422921
805295170.0 0.0008012727 0.1643199726 0.0003634277 -0.0002079206 1.55432e-05 9.1174e-05 0.0542688588 0.8423379714
810295140.0 0.0023419733 0.1645697 0.0004201759 -5.75804e-05 0.0001927719 -0.0003186465 0.0634437968 0.8411783795
815295110.0 0.0035032 0.1645022446 0.0002477486 3.42616e-05 0.0002972281 -0.0001661263 0.0719468286 0.8413373072
820295080.0 0.005184868 0.1650937216 0.000534163 -0.0002524557 0.0001899586 -0.0001835789 0.0804257754 0.8403499946
825295050.0 0.0073011452 0.1648487216 3.54163e-05 2.85549e-05 0.000223079 6.84914e-05 0.0884484104 0.8402292234
830295020.0 0.008253427 0.1650925031 0.0003346789 -4.53405e-05 0.0003780092 -0.0001202226 0.0976096336 0.8383836156
835294990.0 0.0099870804 0.165293707 0.0003961587 -0.0003424083 0.000256881 -0.0002030511 0.1048333922 0.8373863398
840294960.0 0.0114038492 0.165566189 0.0004478409 -0.0001191638 0.0003127246 -0.0002605537 0.113671384 0.8365621706
845294930.0 0.0130274676 0.1654586617 6.45854e-05 -4.11785e-05 0.0004012057 -0.0001566419 0.1217633996 0.8349847903
850294900.0 0.0145111966 0.1657066323 0.0002796186 -7.34646e-05 0.0001683486 -0.0002325422 0.1301349833 0.8336869455
