!Created with skrf (http://scikit-rf.org).
# Hz S RI R 50.0 
!freq ReS11 ImS11 ReS21 ImS21 ReS12 ImS12 ReS22 ImS22
300000.0 -0.2417592058 -0.0966904412 0.468479036 0.0630494223 0.4703196495 0.0668172581 -0.2385065494 -0.1048442838
5299970.0 -0.2438690444 0.0072137766 0.4736696667 0.0050425128 0.4736980721 0.0057429825 -0.2440597549 0.0057485965
10299940.0 -0.2405734476 0.0197741518 0.4760494623 0.006395392 0.4758112462 0.0066111937 -0.2411168457 0.0182685406
15299910.0 -0.2359809376 0.0292439828 0.4796415121 0.0077663326 0.4793709635 0.0080733761 -0.2368214313 0.0276447382
20299880.0 -0.2304597062 0.0373038261 0.48403903 0.0081656819 0.4840646561 0.0083844547 -0.2322019291 0.0353637249
25299850.0 -0.2247884181 0.0435822222 0.4894428858 0.0070012053 0.4897114645 0.0073744502 -0.2269493172 0.0418726954
30299820.0 -0.2188262674 0.0483510199 0.4952173734 0.0057017626 0.4944911381 0.0054695854 -0.2218454016 0.0467522931
35299790.0 -0.2129585483 0.0530635518 0.5005283185 0.0023058777 0.5001653587 0.0022063607 -0.2162585557 0.0509223376
40299760.0 -0.2075636287 0.0556967529 0.5055627804 -0.0013497683 0.5057744245 -0.0016535835 -0.211623913 0.0547313357
45299730.0 -0.2024049743 0.0584507658 0.5101511287 -0.0068156573 0.5104855886 -0.0064489489 -0.2066231972 0.0573808993
50299700.0 -0.1976396703 0.0599449052 0.5138326811 -0.0121900149 0.5143996121 -0.0122376048 -0.2019832431 0.0596668436
55299670.0 -0.1936401751 0.0619050773 0.5179596683 -0.0182878634 0.5181974232 -0.0181379641 -0.1983732367 0.0615449579
60299640.0 -0.1896102659 0.0628233175 0.5212310847 -0.0243717996 0.5214620261 -0.0240904311 -0.1946855221 0.0631249914
65299610.0 -0.1860035176 0.0638095081 0.5243126868 -0.0304092083 0.5244491609 -0.0305039702 -0.191064549 0.0644659
70299580.0 -0.1826958003 0.0642824462 0.5267798187 -0.0371054738 0.5266228249 -0.0371868436 -0.1878288669 0.0655612162
75299550.0 -0.1795674625 0.0654112969 0.5287821527 -0.0444659529 0.5287796654 -0.0443408781 -0.1850686215 0.0667830129
80299520.0 -0.177092318 0.0656832517 0.5308168242 -0.0507015457 0.5306695885 -0.0509635544 -0.1826247704 0.0674588867
85299490.0 -0.1745152881 0.0658451315 0.53221216 -0.0578133394 0.5316607328 -0.057895486 -0.1801427366 0.0681413801
90299460.0 -0.1724581954 0.066626609 0.5331583497 -0.0646581643 0.5333171562 -0.0648165938 -0.177419947 0.0694133282
95299430.0 -0.1705447811 0.0670647411 0.5341855901 -0.0722899343 0.5338851189 -0.0714660415 -0.1755783348 0.070155665
100299400.0 -0.1689677147 0.0678138132 0.534432289 -0.0788052517 0.5343665347 -0.0786549797 -0.1742330118 0.0706940583
105299370.0 -0.1666333705 0.0680544392 0.5340869234 -0.0850841918 0.5347782136 -0.0856656007 -0.1720329427 0.071864126
110299340.0 -0.1655791269 0.0683567413 0.534608923 -0.0919096517 0.5347033417 -0.0927241584 -0.1704046228 0.0727007161
115299310.0 -0.1640675697 0.0685048088 0.5347648476 -0.0987058667 0.5349700843 -0.0990215184 -0.1690959126 0.0729215728
120299280.0 -0.162950331 0.0692840331 0.5347840786 -0.1058527333 0.5349694419 -0.1060349492 -0.167891566 0.0740547324
125299250.0 -0.1616531733 0.0699114226 0.5339163861 -0.112769832 0.5345462022 -0.113052899 -0.1663909052 0.0747517313
130299220.0 -0.1606135866 0.0708028033 0.5340538075 -0.1191572175 0.5335614435 -0.1195041873 -0.1651462602 0.0761515296
135299190.0 -0.1593309367 0.0709694644 0.5328593907 -0.1257931998 0.5327498642 -0.1260648285 -0.1641564275 0.076805165
140299160.0 -0.1585553938 0.0722005626 0.5324803458 -0.132637023 0.532491661 -0.1329354493 -0.1627943397 0.0778913784
145299130.0 -0.157491943 0.0725913561 0.5313008336 -0.1392716259 0.530993771 -0.1390631793 -0.1621079412 0.0788076282
150299100.0 -0.1565320813 0.0734950122 0.5301009993 -0.1459113689 0.5303114918 -0.1459478139 -0.1609840576 0.0801377693
155299070.0 -0.1558981282 0.0746230716 0.5291587537 -0.1528775491 0.5288065483 -0.1526926026 -0.1600574727 0.0808944764
160299040.0 -0.154859116 0.0749877195 0.527449625 -0.158419902 0.5275687351 -0.1591626867 -0.1588010806 0.0824445163
165299010.0 -0.1542675458 0.0761342325 0.5266225973 -0.1653151054 0.5262642798 -0.1650304978 -0.158154918 0.083194084
170298980.0 -0.1536067076 0.0771034962 0.523889723 -0.1718917629 0.5243507232 -0.1718169371 -0.1566834399 0.0845438502
175298950.0 -0.1527010111 0.0779454551 0.5234019073 -0.1778956232 0.523163209 -0.1778816099 -0.1559076922 0.0853656506
180298920.0 -0.151592028 0.0791677373 0.5211757457 -0.1847979815 0.5214326389 -0.1842382548 -0.1547284064 0.0874955908
185298890.0 -0.1507844919 0.0804365042 0.5194899855 -0.1907999633 0.5194977587 -0.1903418835 -0.1540851651 0.0881145505
190298860.0 -0.1503005037 0.0812014933 0.5173358796 -0.1967858231 0.5179124909 -0.1967093731 -0.1525546259 0.0894478823
195298830.0 -0.1496866366 0.0819450643 0.5154980414 -0.2025265092 0.515836743 -0.20294296 -0.1518742649 0.0904066496
200298800.0 -0.1488555937 0.0835504681 0.5137375917 -0.2081826284 0.5136814914 -0.2089330018 -0.1509968565 0.0923249454
205298770.0 -0.1481269733 0.0845439374 0.5115760424 -0.2147981326 0.5111783867 -0.2146864923 -0.1500972917 0.0933475786
210298740.0 -0.1476860068 0.0856180254 0.5092161852 -0.2212338966 0.5090540268 -0.2210893325 -0.1491463358 0.094759507
215298710.0 -0.1467722274 0.0868517598 0.5067773348 -0.2266402675 0.5068830137 -0.2265187634 -0.1485297035 0.0962153218
220298680.0 -0.1459561414 0.087919832 0.5043274208 -0.2327097272 0.5046556297 -0.2329619986 -0.1469882399 0.0979178065
225298650.0 -0.1448824804 0.0892901816 0.5014310315 -0.2385013237 0.5017471112 -0.238255387 -0.1461803366 0.0990810252
230298620.0 -0.1446120982 0.0905465297 0.4994805921 -0.2445370956 0.4998249026 -0.2443253153 -0.1450733674 0.1005052571
235298590.0 -0.1439221527 0.091495736 0.4967298683 -0.2498185639 0.4969782938 -0.2505392559 -0.1440240126 0.1016914777
240298560.0 -0.1431175721 0.0927680814 0.4940259525 -0.2552895674 0.4940954554 -0.2554080881 -0.1432750777 0.1033095618
245298530.0 -0.1420533781 0.0942232312 0.4908023647 -0.2615233473 0.4910705922 -0.2616572381 -0.1419309211 0.1047937649
250298500.0 -0.1415064175 0.0950708475 0.4885100538 -0.2665932187 0.4886353596 -0.26666156 -0.1406754755 0.1056072396
255298470.0 -0.1407382118 0.0966822138 0.4856546272 -0.2727864783 0.4855593646 -0.2727569967 -0.1395427876 0.1072065809
260298440.0 -0.1399590643 0.0978485015 0.482875731 -0.2781855167 0.4827481744 -0.27848191 -0.1380739589 0.1091933693
265298410.0 -0.1387596206 0.0994465111 0.479911697 -0.2844504011 0.4795905294 -0.2838650414 -0.1374475894 0.1104124721
270298380.0 -0.1378878971 0.1006331593 0.4764793946 -0.2892727639 0.476254121 -0.2895151486 -0.1361811816 0.1119029103
275298350.0 -0.1371524838 0.1020743658 0.4731781467 -0.2950045839 0.4736999762 -0.2949211838 -0.1347814172 0.1132314966
280298320.0 -0.1362775339 0.103130898 0.470120225 -0.2993944523 0.469981457 -0.3001752559 -0.1337536588 0.1148845434
285298290.0 -0.1350572895 0.1046713798 0.4667551247 -0.3053839703 0.467030467 -0.3056515033 -0.1326241574 0.1164168991
290298260.0 -0.1344389443 0.1060221663 0.4636111784 -0.3105301308 0.4636839671 -0.3106924093 -0.1306645349 0.1181073335
295298230.0 -0.1332652175 0.1071119652 0.4599621204 -0.3160154403 0.4599444383 -0.3162819376 -0.12971284 0.1192520698
300298200.0 -0.1322289686 0.1083894559 0.4568747547 -0.3213915941 0.456955564 -0.3211210101 -0.128520893 0.1209306462
305298170.0 -0.1310358368 0.109583448 0.4533790079 -0.3268833765 0.4535018327 -0.3266310488 -0.126893584 0.122600958
310298140.0 -0.1296366527 0.1107380644 0.4499452834 -0.3319758722 0.4497099114 -0.3323353412 -0.125683254 0.1240352362
315298110.0 -0.1290768614 0.11186571 0.445616609 -0.33693721 0.446264817 -0.3369056408 -0.1239919088 0.1248338991
320298080.0 -0.1282164302 0.1130297146 0.4422835816 -0.3424552925 0.4427073722 -0.342227085 -0.1227897733 0.1263874042
325298050.0 -0.1271162347 0.1141107657 0.4388095496 -0.3476596717 0.4386054909 -0.3477228695 -0.1216417681 0.1276109671
330298020.0 -0.1262171707 0.1155799272 0.4339213333 -0.3522772702 0.434325683 -0.3523424024 -0.1206432154 0.1287935588
335297990.0 -0.1254822377 0.1164340536 0.4307301003 -0.357179284 0.4304669149 -0.357198563 -0.1192811733 0.1302897699
340297960.0 -0.124714378 0.1180823937 0.4261896139 -0.3618769669 0.4263873811 -0.3617537622 -0.1180561584 0.1316299537
345297930.0 -0.1240661713 0.119419461 0.4221626392 -0.3664447709 0.4217818787 -0.3662507663 -0.1161861787 0.1329753153
350297900.0 -0.122290551 0.120960961 0.4178685891 -0.3706904264 0.4181916171 -0.3711422093 -0.1150849687 0.1348421932
355297870.0 -0.1214560713 0.1220066973 0.4137883014 -0.3757835649 0.414233913 -0.3755945097 -0.1142077314 0.1364723219
360297840.0 -0.120221183 0.1234578017 0.4097139865 -0.380512078 0.4096180308 -0.3803401862 -0.1122809489 0.13774416
365297810.0 -0.119264159 0.1245653044 0.4053106373 -0.384726494 0.4053864783 -0.3850135972 -0.1107816655 0.139715071
370297780.0 -0.117895626 0.1258070914 0.4009838637 -0.3892770712 0.4014752667 -0.3895173531 -0.1093805819 0.1408202976
375297750.0 -0.1169062977 0.1273907624 0.3974880676 -0.393757349 0.3967785843 -0.394030434 -0.1077835785 0.142360478
380297720.0 -0.115494099 0.1284318322 0.3926975352 -0.3980421846 0.3926648838 -0.3977009461 -0.1062472673 0.1437904625
385297690.0 -0.1142993372 0.1297972345 0.3880284118 -0.4021038157 0.3878485733 -0.4024243781 -0.1046449995 0.1452393598
390297660.0 -0.1134182199 0.1310676333 0.3838041113 -0.4066760769 0.3836192157 -0.4067943803 -0.1031069389 0.1462155658
395297630.0 -0.1116833678 0.1321015296 0.3792731902 -0.410229873 0.3790714447 -0.4110437051 -0.1013212451 0.1480996656
400297600.0 -0.1107746642 0.1335287334 0.3745803187 -0.4153298683 0.3749366918 -0.415085503 -0.1004403383 0.1491021085
405297570.0 -0.1093681712 0.1348174893 0.3701500833 -0.4188793318 0.3702110136 -0.4191928153 -0.0982898745 0.1504728167
410297540.0 -0.1079903675 0.1355497169 0.3650875787 -0.4228868886 0.3653087577 -0.4229166907 -0.0968843679 0.151887173
415297510.0 -0.106891684 0.1371601475 0.3607249459 -0.4269050536 0.360961039 -0.4269732263 -0.0954055002 0.1531468861
420297480.0 -0.1054010634 0.1381678448 0.3558189416 -0.4315122937 0.3559321996 -0.4308481714 -0.0932796967 0.154066711
425297450.0 -0.1036933475 0.1388326507 0.351063925 -0.4346629023 0.3516132419 -0.4346540424 -0.0916404218 0.1557870963
430297420.0 -0.1025511889 0.1406420758 0.3466389845 -0.438642314 0.346602403 -0.4384822452 -0.0902467035 0.1561837247
435297390.0 -0.1012652234 0.1414113208 0.3415105724 -0.4423605293 0.3417625807 -0.4420652261 -0.0883857956 0.1581865241
440297360.0 -0.0995826946 0.142484082 0.3363610682 -0.4460346295 0.3364564292 -0.4458968929 -0.0865588085 0.158797173
445297330.0 -0.0979967393 0.1435000924 0.3311203063 -0.4498131003 0.3317481021 -0.4495760485 -0.0850199019 0.1600181369
450297300.0 -0.0968223208 0.1445554815 0.3267183731 -0.4533125227 0.3268936707 -0.4534491255 -0.0833783613 0.1618312224
455297270.0 -0.0959571905 0.1456652058 0.3220395761 -0.4568675729 0.3222029307 -0.4568182501 -0.0811877927 0.1628204968
460297240.0 -0.0945493807 0.1469091638 0.3171627001 -0.4604219959 0.316774727 -0.4600396395 -0.0796448445 0.164157268
465297210.0 -0.0925880399 0.1476925979 0.3118430325 -0.4636435271 0.3119930739 -0.4638389815 -0.0783949187 0.1643681663
470297180.0 -0.0914955036 0.1487213447 0.3069114712 -0.4665979476 0.30688731 -0.4669097926 -0.0768300264 0.1659911213
475297150.0 -0.0901663313 0.1493726334 0.3016561936 -0.4696738549 0.3020325166 -0.4695913068 -0.0745495884 0.1668663086
480297120.0 -0.0884859512 0.1505805954 0.296267958 -0.4736842428 0.296829912 -0.4735623379 -0.072963557 0.1681423224
485297090.0 -0.0868691932 0.1515250671 0.2915904199 -0.4769641843 0.291495346 -0.4765671755 -0.0711024028 0.1688671578
490297060.0 -0.085360587 0.1525541436 0.2858925751 -0.4800262083 0.2859074896 -0.4796575475 -0.0690243461 0.1702248513
495297030.0 -0.0844313194 0.1537128955 0.2806999787 -0.4827245818 0.2809881018 -0.4831135597 -0.0676523913 0.1706587087
500297000.0 -0.082500035 0.1543307846 0.2752199745 -0.4862376197 0.2753330088 -0.4857584218 -0.0657888017 0.1718560216
505296970.0 -0.0813202499 0.1553960651 0.2701469789 -0.4885904837 0.2701890113 -0.488274617 -0.064124555 0.1725236622
510296940.0 -0.0794325702 0.1563071264 0.2645803802 -0.4920631109 0.2649900914 -0.4915527609 -0.0617083396 0.1738734508
515296910.0 -0.0782700178 0.1574015034 0.2595018157 -0.4942600918 0.2598723724 -0.4946622141 -0.0601264144 0.1746860493
520296880.0 -0.0767263628 0.1581486734 0.2538517006 -0.4974562278 0.2544258446 -0.4969191504 -0.0581620122 0.1756691649
525296850.0 -0.0751702623 0.1587214199 0.2489287755 -0.5000880582 0.2485973722 -0.5004426614 -0.0559246074 0.1762221135
530296820.0 -0.0732247821 0.1595623036 0.2435379343 -0.5020166853 0.2431834045 -0.5025269143 -0.0547195752 0.1765706295
535296790.0 -0.0720002997 0.1603724547 0.2376587316 -0.5048513592 0.2379597402 -0.5049105892 -0.0524644422 0.1775530269
540296760.0 -0.0705362982 0.1610744266 0.2324913245 -0.5078491351 0.2320527024 -0.5079653005 -0.0511242617 0.1786886273
545296730.0 -0.0689177535 0.1623643962 0.2265689256 -0.5098236519 0.2267473984 -0.5105822222 -0.0492013842 0.1790415788
550296700.0 -0.0676632664 0.1628564734 0.2211929318 -0.5126060002 0.2216129761 -0.5128738933 -0.0469001228 0.1802041864
555296670.0 -0.0657067292 0.1635518244 0.2157250261 -0.5150715757 0.2158055309 -0.5147021922 -0.0452071008 0.1810504357
560296640.0 -0.0639336538 0.1644032723 0.2099548493 -0.516832198 0.2104514494 -0.5170303232 -0.0431725204 0.1813449488
565296610.0 -0.0628987271 0.1650472901 0.2045279271 -0.5193021052 0.2040084857 -0.5193422722 -0.0413076979 0.1818598559
570296580.0 -0.0606717247 0.1659415838 0.1987910884 -0.5216412585 0.1989939643 -0.5218586053 -0.0392411534 0.1831441713
575296550.0 -0.0593447225 0.166953564 0.1931555294 -0.5235640908 0.1935007601 -0.5235594917 -0.0370472234 0.1831854309
580296520.0 -0.0576667428 0.1671318912 0.1877470475 -0.5254643011 0.1871882043 -0.5255526797 -0.0353704083 0.1838844711
585296490.0 -0.0558236095 0.1676848751 0.1818456283 -0.5275195266 0.1816398928 -0.5275572076 -0.0334992018 0.1838342594
590296460.0 -0.0546492266 0.1683670997 0.1759794192 -0.5294667868 0.1759573168 -0.5295332062 -0.0312926082 0.1848433598
595296430.0 -0.0528455054 0.1693359963 0.1701671636 -0.5316986589 0.1700803649 -0.5313065154 -0.0295872108 0.1852946349
600296400.0 -0.05137192 0.1701412219 0.1645727288 -0.5331499165 0.1649661208 -0.5332731864 -0.0271500915 0.1859997169
605296370.0 -0.0497186784 0.1708052737 0.1590229804 -0.5349795293 0.1589720257 -0.5347374381 -0.0253218608 0.1861508909
610296340.0 -0.0481289988 0.1714121569 0.15305699 -0.5366503851 0.1530348717 -0.5366932514 -0.0234618629 0.1870548861
615296310.0 -0.0460941849 0.1721582683 0.1469667798 -0.5381538675 0.1469152293 -0.5382606476 -0.0210735624 0.1870678774
620296280.0 -0.0446194906 0.1723305648 0.1416014069 -0.5395874327 0.1413385407 -0.5394895738 -0.0193019203 0.1873571705
625296250.0 -0.0428573698 0.1730152154 0.1350555461 -0.5413790264 0.1352117852 -0.5414316309 -0.0171009481 0.1880183893
630296220.0 -0.0411186507 0.173662346 0.1294651485 -0.5426873653 0.1298335355 -0.542664704 -0.0154602229 0.1884754089
635296190.0 -0.0394147334 0.1742069457 0.1236331428 -0.5439411455 0.123531683 -0.543265964 -0.0133509712 0.1884739461
640296160.0 -0.0379879784 0.1746431583 0.1179734832 -0.5451474095 0.1179978945 -0.5449457889 -0.0109459941 0.1885639873
645296130.0 -0.0363164267 0.1753060942 0.1115399573 -0.5464986032 0.1119717633 -0.5463277646 -0.0097823926 0.1887223165
650296100.0 -0.0347207064 0.176017799 0.1064781448 -0.5471563311 0.1062759535 -0.5471349624 -0.007489234 0.1892758745
655296070.0 -0.0329493302 0.1761514246 0.1003481437 -0.5484013594 0.1000898134 -0.5487998822 -0.0047201362 0.189854879
660296040.0 -0.0314932475 0.1770073958 0.0942972965 -0.5491323253 0.0941985308 -0.5494511662 -0.0031408379 0.1895055967
665296010.0 -0.02927087 0.1770253605 0.0884601653 -0.5503053248 0.0888945059 -0.5501361531 -0.0010820435 0.1900012249
670295980.0 -0.0271948427 0.1777834651 0.0823360273 -0.5512571853 0.0825587701 -0.551353599 0.0005845916 0.1900285194
675295950.0 -0.0257892248 0.1780530371 0.0764077114 -0.5524263997 0.0767327013 -0.5525368065 0.0030700792 0.1903538799
680295920.0 -0.0242403255 0.1787674115 0.0704635848 -0.553178609 0.0703508346 -0.5530548008 0.0050376135 0.1901213333
685295890.0 -0.0224262952 0.1788691584 0.0641779942 -0.5533820412 0.0641449941 -0.5538802469 0.0075595617 0.1905884017
690295860.0 -0.020376515 0.1793466771 0.0585986908 -0.5539835012 0.0581010732 -0.554094649 0.0095262318 0.1905622582
695295830.0 -0.0184016083 0.1797021029 0.0513867692 -0.5548398182 0.0522328474 -0.5549011283 0.0110508309 0.1905903635
700295800.0 -0.0167084412 0.1798681242 0.0461180558 -0.5553956893 0.0465446349 -0.5556675614 0.0134681213 0.1901364624
705295770.0 -0.0149999359 0.1802848206 0.0404921032 -0.5556977109 0.040446088 -0.5559181187 0.0151658798 0.1904217664
710295740.0 -0.0135151539 0.1806192613 0.0346473338 -0.5560188478 0.0343696259 -0.5558632777 0.0166259262 0.1905726209
715295710.0 -0.0117197259 0.1807663064 0.0285506809 -0.5564953745 0.0286743021 -0.556529096 0.0194942318 0.1901614129
720295680.0 -0.0099666669 0.1808006164 0.0223630128 -0.5565360432 0.022539935 -0.5570169762 0.0220568328 0.1907810041
725295650.0 -0.0077354764 0.1813665335 0.0158362654 -0.556716042 0.0165565316 -0.5571263339 0.0235567117 0.1904879894
730295620.0 -0.0064679369 0.1814616933 0.0103154091 -0.5574259068 0.0103046414 -0.5571152613 0.026058937 0.189756561
735295590.0 -0.0040393463 0.1817849931 0.0045328793 -0.5568203152 0.0046802224 -0.5573078394 0.0279929762 0.1900983603
740295560.0 -0.0027221312 0.1821077617 -0.001643884 -0.5566675575 -0.0017138517 -0.5570912388 0.0301116892 0.1895495693
745295530.0 -0.0008378994 0.1819955376 -0.0073871008 -0.5568768594 -0.0074420848 -0.5566065737 0.0320584929 0.1893747835
750295500.0 0.000872717 0.1821844448 -0.0133403634 -0.5561893043 -0.0134090538 -0.556499271 0.034204886 0.1889769103
755295470.0 0.0031186116 0.1827114613 -0.0198382208 -0.5564829534 -0.019371937 -0.5564883281 0.0360524387 0.1892544763
760295440.0 0.0043953343 0.1828383408 -0.0258138872 -0.5562040004 -0.0257793759 -0.5563644573 0.037752793 0.1885003356
765295410.0 0.0062344222 0.1826388208 -0.0311365251 -0.5557921951 -0.0316218659 -0.5561543037 0.0406038699 0.1889585146
770295380.0 0.0083406015 0.1828900038 -0.0378227965 -0.5555730967 -0.0374447324 -0.5556160396 0.0425657587 0.1883737039
775295350.0 0.0098462687 0.1829197243 -0.0434823616 -0.5545756036 -0.0433802082 -0.5550917004 0.0441306878 0.1872954984
780295320.0 0.0118630585 0.1829283123 -0.049179586 -0.5546394191 -0.0493461334 -0.5546523903 0.0464934482 0.1879080557
785295290.0 0.0133471423 0.1835615971 -0.0554484707 -0.5533853549 -0.0554811395 -0.5541731385 0.0480588337 0.1872000634
790295260.0 0.0153105962 0.1831425525 -0.0613744318 -0.553406008 -0.0614933548 -0.5535641958 0.0507468217 0.186766947
795295230.0 0.0173285912 0.1833192268 -0.0667348222 -0.5521455626 -0.0669518678 -0.5524810965 0.0526629168 0.1869539542
800295200.0 0.0189712818 0.1832545336 -0.0738620382 -0.5516937022 -0.0738128797 -0.5517258731 0.054611932 0.1860672233
805295170.0 0.0204751309 0.1831373047 -0.0787778255 -0.5502911182 -0.0792945689 -0.5504984252 0.0565069933 0.1852606169
810295140.0 0.0222757903 0.1830262284 -0.0849681591 -0.5500507237 -0.0848408156 -0.5501381032 0.0588273229 0.1855080625
815295110.0 0.0243791457 0.1830915538 -0.0911229456 -0.5488893862 -0.0914116427 -0.548682285 0.0605331236 0.1844542135
820295080.0 0.0263009959 0.1827528609 -0.0966935933 -0.5478860018 -0.096724315 -0.548159383 0.0625035477 0.1843537242
825295050.0 0.0281377284 0.1824865464 -0.1026171589 -0.5461295277 -0.1028338646 -0.5467316383 0.0648756351 0.183692115
830295020.0 0.0298274104 0.1827053932 -0.1090979693 -0.5456817979 -0.1091498396 -0.5457937014 0.0664179544 0.1830402075
