!Created with skrf (http://scikit-rf.org).
# Hz S RI R 50.0 
!freq ReS11 ImS11 ReS21 ImS21 ReS12 ImS12 ReS22 ImS22
300000.0 -0.241242736 -0.0776590645 0.4735221943 0.0521267555 0.4687165754 0.0511876706 -0.2440251879 -0.090103823
5299970.0 -0.24440285 0.0073466871 0.4733753852 0.0046354233 0.4737033222 0.0053047134 -0.24401278 0.0075066357
10299940.0 -0.2408816523 0.0189212199 0.4751098265 0.0058647072 0.4755443423 0.0063536856 -0.2406777822 0.0203154523
15299910.0 -0.2366851293 0.0281002536 0.4793718628 0.0076133089 0.4793998485 0.007609377 -0.2364327148 0.0296692391
20299880.0 -0.232140188 0.0353483229 0.4837424192 0.0086397583 0.483883899 0.0082886944 -0.2311734944 0.0374237918
25299850.0 -0.2268299296 0.0420037247 0.489221048 0.0075184971 0.4890784525 0.0073709272 -0.2247693496 0.0441240481
30299820.0 -0.2217366337 0.047243136 0.4945178124 0.005330224 0.4945345083 0.0051227745 -0.2190681833 0.0492213205
35299790.0 -0.216191912 0.0511182986 0.49982639 0.0019049544 0.500027887 0.0019513594 -0.2136177211 0.053421712
40299760.0 -0.2112730244 0.0551099519 0.5045634136 -0.0019512479 0.5051509668 -0.0015505171 -0.208447542 0.0561176713
45299730.0 -0.206528308 0.0576806234 0.5091841369 -0.0066166829 0.5099310373 -0.0064258297 -0.2033465709 0.0586959998
50299700.0 -0.202545533 0.0599429025 0.5144698159 -0.012105395 0.5141241661 -0.0120037319 -0.1985455615 0.0605615333
55299670.0 -0.1982844824 0.0615689902 0.5183442314 -0.0180139725 0.5179750879 -0.0180009345 -0.1942305669 0.0620176778
60299640.0 -0.1941128702 0.0634555883 0.5211301793 -0.0241395651 0.5214386336 -0.0240745642 -0.1902617429 0.0632499653
65299610.0 -0.1910267452 0.0647700149 0.5240839699 -0.0309487409 0.5242972216 -0.0304873275 -0.1873748244 0.063894998
70299580.0 -0.1879889677 0.066157472 0.526601846 -0.0373292091 0.5267163777 -0.0373469847 -0.1838761945 0.0650099047
75299550.0 -0.1850716736 0.0674673174 0.5282456855 -0.0442443257 0.5284067117 -0.0440870427 -0.1809875497 0.0653231465
80299520.0 -0.182535688 0.0680806792 0.5306928174 -0.050868513 0.5305011936 -0.050993865 -0.1781003457 0.0660481281
85299490.0 -0.1802988031 0.0689030023 0.5314896919 -0.0577878179 0.5320594295 -0.0575038375 -0.1761666072 0.0661754972
90299460.0 -0.1779884367 0.0698068648 0.5326464713 -0.0649020314 0.5329429168 -0.0649763883 -0.1737833364 0.0670112559
95299430.0 -0.1756755594 0.0703590979 0.5338102257 -0.0714343549 0.533653314 -0.0719801155 -0.1716153028 0.067368832
100299400.0 -0.1741805286 0.0717872522 0.5338093472 -0.0784571194 0.5340402987 -0.0786562248 -0.169422097 0.0673561167
105299370.0 -0.1719835764 0.0724661862 0.5342007336 -0.0857950676 0.5344272032 -0.0859043547 -0.1677235416 0.0681988276
110299340.0 -0.170201919 0.0733581062 0.5346217896 -0.0921737375 0.5345446679 -0.0922096395 -0.1665402622 0.0684330275
115299310.0 -0.1687700228 0.0741866434 0.5343871192 -0.0993630102 0.5342633303 -0.0992019824 -0.1649675328 0.0690446851
120299280.0 -0.1673586152 0.0744973689 0.5344634426 -0.1058920807 0.5344848704 -0.1060036045 -0.1633729379 0.0693773554
125299250.0 -0.1660795599 0.075575734 0.5339578519 -0.1126497553 0.534386157 -0.1128428784 -0.1625500399 0.0698652527
130299220.0 -0.165067955 0.0769395262 0.5329424266 -0.1196336045 0.5331139783 -0.1195257415 -0.1611883565 0.070444175
135299190.0 -0.1638217045 0.0777270042 0.5327637361 -0.1261253674 0.532531608 -0.1259601468 -0.1598434369 0.0711369151
140299160.0 -0.1627251453 0.0788138073 0.5317738166 -0.1328693352 0.532135718 -0.1328654172 -0.1589149305 0.0720666047
145299130.0 -0.1613478282 0.0797104634 0.5309699979 -0.1392047208 0.5305865166 -0.1391954677 -0.1578151872 0.0727823551
150299100.0 -0.1600686394 0.0814002441 0.5295573385 -0.1455397437 0.5298223288 -0.1454709188 -0.1568713358 0.0738961308
155299070.0 -0.1594955683 0.0820458983 0.5284903581 -0.1526164304 0.5284005896 -0.1525066504 -0.1557338338 0.0747788202
160299040.0 -0.1582917633 0.0835552235 0.5271680348 -0.1591281025 0.5271705869 -0.1589703752 -0.1554788679 0.0756189535
165299010.0 -0.1574264664 0.0848718557 0.5258677284 -0.1655778937 0.5261206181 -0.1656112775 -0.1543508145 0.0765326953
170298980.0 -0.1564890212 0.0855437439 0.5239307728 -0.1718478526 0.5243979099 -0.1717219204 -0.1537520341 0.0775896496
175298950.0 -0.1556292477 0.0870808294 0.5229647183 -0.1780281815 0.5223753248 -0.1776443673 -0.1528938014 0.078647457
180298920.0 -0.1549042213 0.0881836613 0.5211568175 -0.1842361142 0.5207848574 -0.1840543269 -0.1522872689 0.0798393239
185298890.0 -0.1532626495 0.0894280031 0.519083563 -0.1902297799 0.5188776527 -0.1906634509 -0.1512155747 0.0807802287
190298860.0 -0.1528387533 0.0911510313 0.5175251204 -0.196962976 0.5176737164 -0.1967508877 -0.1507857483 0.0816910722
195298830.0 -0.1517360405 0.0922156577 0.5151994613 -0.20283123 0.5153353914 -0.2027940742 -0.149781277 0.0828615296
200298800.0 -0.150549589 0.0939393286 0.5127445195 -0.2090065636 0.5131739629 -0.20929007 -0.1492376881 0.0842095027
205298770.0 -0.1498484091 0.0951418385 0.5107456462 -0.2153608101 0.5107847245 -0.2147638519 -0.1484274816 0.0848708316
210298740.0 -0.1486576447 0.096399225 0.5084074692 -0.2209422751 0.5085311319 -0.2205744989 -0.1474132693 0.0866301532
215298710.0 -0.1481894798 0.0976190417 0.5063225274 -0.226967454 0.5061850834 -0.2269012618 -0.1476133754 0.0875578268
220298680.0 -0.1471369542 0.0989728045 0.5035272364 -0.232630676 0.5034882386 -0.2327739969 -0.1468528065 0.0883681596
225298650.0 -0.1460578991 0.1004120992 0.501473166 -0.2384520819 0.5019870449 -0.2385671393 -0.1463071347 0.0898718261
230298620.0 -0.1451820027 0.1019580195 0.4988768359 -0.2440270363 0.4993874363 -0.2447719956 -0.1453485539 0.0908243206
235298590.0 -0.1441628023 0.1036407705 0.4962858139 -0.2501244887 0.4962181826 -0.249829336 -0.1444358194 0.0923495539
240298560.0 -0.1431590634 0.1052230372 0.4936852339 -0.2562586703 0.4936052745 -0.2558039577 -0.1440631101 0.0938469662
245298530.0 -0.142292924 0.1064161881 0.4910779969 -0.2616883997 0.4907385392 -0.2620152792 -0.1429738346 0.0941986959
250298500.0 -0.141003376 0.1080359998 0.4874534338 -0.2673854821 0.4876816838 -0.2668844438 -0.1425462039 0.0953968742
255298470.0 -0.1397793221 0.1090648097 0.4842802139 -0.2724466519 0.4845425702 -0.2724859857 -0.1413459585 0.0968308366
260298440.0 -0.1390308106 0.1105176607 0.4818107024 -0.2788560402 0.482098667 -0.2782596662 -0.1403623258 0.0982869552
265298410.0 -0.1374395177 0.1124849952 0.4787830247 -0.283996975 0.4791586555 -0.2838129942 -0.1397944684 0.0995695194
270298380.0 -0.1365270992 0.1139332669 0.4758094462 -0.2890451449 0.4760566729 -0.2893840244 -0.1390060478 0.1005753235
275298350.0 -0.1352159927 0.1151544068 0.4727584162 -0.2947549503 0.4731866158 -0.2948537011 -0.1380001772 0.1017024817
280298320.0 -0.1340955546 0.116825142 0.4696395262 -0.300315218 0.469898256 -0.3000608037 -0.1369349017 0.1029709401
285298290.0 -0.1329565114 0.1184846414 0.4662163798 -0.3057433392 0.4664739227 -0.3054763592 -0.1358997554 0.104288341
290298260.0 -0.1314757938 0.1195332309 0.4629636919 -0.3104381842 0.4631403735 -0.3109734307 -0.1350004877 0.1058001274
295298230.0 -0.1298447679 0.1206248069 0.4597531332 -0.3160513609 0.4594363785 -0.3162196814 -0.1337451966 0.1066727042
300298200.0 -0.1291495944 0.1223711422 0.4565222819 -0.3209687054 0.4565189246 -0.3213356852 -0.1329048716 0.1077746945
305298170.0 -0.1277909306 0.1235092077 0.4523098214 -0.3265962714 0.4526576699 -0.3268359449 -0.1313134033 0.1090467715
310298140.0 -0.1267011202 0.1249318363 0.4490790926 -0.3315101881 0.4493035009 -0.3316863601 -0.1304751795 0.1103362267
315298110.0 -0.1253987379 0.1262378133 0.4454297951 -0.3364919383 0.4456059613 -0.336818858 -0.1297373716 0.1116260172
320298080.0 -0.1237757732 0.1274361425 0.44151151 -0.3423209922 0.4417116256 -0.3419814509 -0.1287109332 0.1128752462
325298050.0 -0.1225943751 0.1290679613 0.4379048761 -0.3475697954 0.4378599604 -0.347250509 -0.1281643463 0.1140853094
330298020.0 -0.1212770592 0.1301045114 0.4334075886 -0.3523067073 0.4338227805 -0.3522788306 -0.127023268 0.1150859143
335297990.0 -0.1201736719 0.1311929825 0.4296264856 -0.3568480255 0.4296904399 -0.3571131283 -0.1265414724 0.1170841859
340297960.0 -0.1193069973 0.1328908371 0.4256731205 -0.3616543389 0.4254207789 -0.3615188172 -0.1249423659 0.1182388665
345297930.0 -0.1178016418 0.1346875824 0.4215102993 -0.3664109207 0.421229682 -0.3665280809 -0.1244490524 0.119060957
350297900.0 -0.1163514608 0.1356406486 0.4170299614 -0.3711519762 0.4169509028 -0.3710488617 -0.1236454011 0.1208177729
355297870.0 -0.1152521071 0.1373069752 0.4132111806 -0.3751316567 0.4133960591 -0.3752467363 -0.1227318805 0.1220003188
360297840.0 -0.113621653 0.1386506827 0.4093113968 -0.3801254922 0.4095104915 -0.3799977959 -0.1214198048 0.1237418073
365297810.0 -0.1124808734 0.1403462927 0.4048052742 -0.3843668897 0.4049846475 -0.3846988335 -0.1200153227 0.1250872942
370297780.0 -0.1107145908 0.1413531024 0.4000474502 -0.3886315577 0.4008141657 -0.3888581877 -0.1190210095 0.1264768122
375297750.0 -0.1090964301 0.1425071632 0.3962356228 -0.3930411595 0.3966321431 -0.3936880342 -0.1179148989 0.1275787729
380297720.0 -0.1076724451 0.1442715368 0.3918465301 -0.3982125418 0.3921106185 -0.3975706529 -0.1172431307 0.1288290998
385297690.0 -0.1066429612 0.1454792758 0.3873061668 -0.4017950019 0.3872873989 -0.401879362 -0.1158410193 0.1301874029
390297660.0 -0.1048463997 0.1470477965 0.383166805 -0.406628911 0.3831180965 -0.4058915541 -0.115037682 0.131226402
395297630.0 -0.1031042666 0.1484858404 0.3788253849 -0.4103802905 0.3789263479 -0.4103880215 -0.1133947069 0.1325166847
400297600.0 -0.1017539952 0.1493612831 0.3736480523 -0.4150576702 0.3738655332 -0.4146831094 -0.1123414973 0.1337826263
405297570.0 -0.1002992687 0.1506793043 0.3693173193 -0.4181808027 0.3696047473 -0.4184602191 -0.1111568549 0.1349717614
410297540.0 -0.0984338223 0.1518204715 0.3651809924 -0.4230443498 0.3655785246 -0.4227410196 -0.1099049655 0.1364077195
415297510.0 -0.0964796342 0.1526849518 0.3598452841 -0.4266973423 0.3604045635 -0.4268698661 -0.1089379672 0.1373135248
420297480.0 -0.0951790003 0.1545458978 0.3558481593 -0.4310019591 0.3554536643 -0.4306797885 -0.1074977283 0.138484952
425297450.0 -0.0932948339 0.1554714115 0.3510680553 -0.434356739 0.35139571 -0.4345892636 -0.1067241686 0.1402210764
430297420.0 -0.092001474 0.1566418655 0.3459900046 -0.4380180169 0.3459515483 -0.4380460764 -0.1052701102 0.1408338367
435297390.0 -0.0902188345 0.1577479123 0.3406445416 -0.4418580309 0.3410786678 -0.4422848187 -0.10318327 0.1420194596
440297360.0 -0.0884573553 0.1589879938 0.3360565205 -0.4457165603 0.3363634155 -0.4455718462 -0.1023102308 0.1430084978
445297330.0 -0.0867516891 0.1597144351 0.3319156859 -0.4491685153 0.3315651646 -0.4489480946 -0.1007564001 0.1437622064
450297300.0 -0.0850075529 0.1610625115 0.3266091811 -0.4527742094 0.3264237367 -0.4531758301 -0.0996293798 0.1448713401
455297270.0 -0.083218296 0.1620966379 0.3211674281 -0.456539649 0.3214537508 -0.4565953507 -0.098389392 0.1459205605
460297240.0 -0.0817238328 0.1631338033 0.316580363 -0.4597514759 0.3166550793 -0.4599276547 -0.0969474228 0.147099636
465297210.0 -0.0793237996 0.164065465 0.3116034025 -0.4631639616 0.3110825572 -0.463763046 -0.0949697391 0.1478220847
470297180.0 -0.0776934751 0.1651435191 0.3059810499 -0.4668593067 0.3062241874 -0.4666089801 -0.0936349768 0.1492845942
475297150.0 -0.075873564 0.1656611049 0.3009037632 -0.4693647354 0.3011851362 -0.4697480845 -0.0920524901 0.1498178778
480297120.0 -0.0741809728 0.1673282298 0.2958625697 -0.4734616039 0.2956678173 -0.473572887 -0.0904852895 0.1513980229
485297090.0 -0.0724154735 0.1680062358 0.2910676047 -0.4762200939 0.2910023492 -0.4762786509 -0.0892957354 0.1522014763
490297060.0 -0.0709111107 0.16908988 0.2858355266 -0.4798527537 0.2858740748 -0.4793430542 -0.0874902981 0.1533389793
495297030.0 -0.0689430119 0.1700186294 0.2801432581 -0.4825391832 0.2809502944 -0.4824396622 -0.0864038805 0.1544338349
500297000.0 -0.0668666319 0.1706865531 0.2748699418 -0.4850552717 0.2746698721 -0.485127855 -0.0846118631 0.1556049982
505296970.0 -0.0648263783 0.1713714773 0.2695014903 -0.4885443511 0.2696136379 -0.488526057 -0.0831814766 0.156472086
510296940.0 -0.0632352819 0.1725803529 0.2643739392 -0.4914236794 0.264669137 -0.4916370193 -0.0815810876 0.1577663094
515296910.0 -0.0611991464 0.1736755817 0.258981779 -0.4941445694 0.2591444768 -0.4943852292 -0.0798417162 0.1585166719
520296880.0 -0.059270116 0.1741787231 0.2536227118 -0.497430845 0.2536873075 -0.4967449438 -0.0788090879 0.1590259227
525296850.0 -0.0571136152 0.1744385146 0.2478785743 -0.4996052966 0.2484685328 -0.49990082 -0.0772901275 0.1603057259
530296820.0 -0.0554524547 0.1757230676 0.2428889257 -0.5027776424 0.2424997657 -0.5024718042 -0.0753543124 0.1613706535
535296790.0 -0.0539511102 0.1764454714 0.23778256 -0.5048659733 0.2375112171 -0.5045966624 -0.0743679481 0.1619953565
540296760.0 -0.0518644088 0.1771414432 0.2321894416 -0.507537605 0.2314788866 -0.5076137005 -0.0726950436 0.1634154131
545296730.0 -0.049888094 0.1780243435 0.2259374173 -0.5103189789 0.2258127564 -0.5100529953 -0.0712688574 0.163707842
550296700.0 -0.0474921448 0.1788825761 0.2207402647 -0.5123069334 0.2205682493 -0.5125809206 -0.0696510054 0.1649019202
555296670.0 -0.0459712394 0.1791372002 0.2152363232 -0.5147485259 0.214986036 -0.5144903131 -0.0681960308 0.1658276745
560296640.0 -0.0435930228 0.1804398377 0.2099812051 -0.5171667358 0.2096394215 -0.5169290348 -0.0667036488 0.166608648
565296610.0 -0.0422508248 0.1804825653 0.2038263062 -0.5195784229 0.2039916661 -0.5191491453 -0.0651840941 0.1672087094
570296580.0 -0.0400463886 0.1812684851 0.1981298064 -0.5220132246 0.1977724361 -0.5215514557 -0.0636390982 0.168351629
575296550.0 -0.0380819907 0.1823108225 0.1923420022 -0.5237700257 0.1923884571 -0.5235445335 -0.0619114112 0.1689174675
580296520.0 -0.0358272959 0.182524219 0.1867771422 -0.5259281679 0.1869295497 -0.5258879155 -0.060117538 0.169649315
585296490.0 -0.0341097206 0.1825961952 0.1812094164 -0.5272627574 0.1810396081 -0.5277836015 -0.0583065764 0.1705737948
590296460.0 -0.0316025652 0.1834578199 0.1751591941 -0.5288272901 0.1755254696 -0.5294881163 -0.0574505982 0.1713524471
595296430.0 -0.0296589808 0.184020746 0.169307416 -0.5317631294 0.1695179665 -0.5311568256 -0.0555438389 0.1714119988
600296400.0 -0.0280129458 0.1843085688 0.1636853428 -0.5330242522 0.1636375762 -0.5331806676 -0.054093117 0.1722492023
605296370.0 -0.0259208956 0.1848896092 0.1578317348 -0.5348798062 0.1582018523 -0.5348960574 -0.0521968313 0.1730503269
610296340.0 -0.0235618871 0.1850783743 0.151635944 -0.5361667081 0.1523221366 -0.5362445652 -0.0503712986 0.1735437358
615296310.0 -0.0213826929 0.1854533494 0.1462355401 -0.5379171233 0.1460260712 -0.5381790389 -0.0482854836 0.1737333385
620296280.0 -0.0197807174 0.1855848185 0.1404830118 -0.5391868253 0.1405735771 -0.5391535351 -0.0473081221 0.1746897379
625296250.0 -0.0175970848 0.1859345112 0.1350736633 -0.5409742851 0.1349571889 -0.5411752902 -0.0446604798 0.1751542055
630296220.0 -0.0150627833 0.1865495922 0.1283953183 -0.5423996249 0.1285149042 -0.5423810747 -0.0432935911 0.1758515058
635296190.0 -0.0137728124 0.1864240568 0.1228391896 -0.543540333 0.1231639062 -0.5435211902 -0.0414078737 0.1762489103
640296160.0 -0.0116694158 0.1869902153 0.1171781652 -0.5444691847 0.1171391789 -0.5448292419 -0.039829578 0.1767713014
645296130.0 -0.0095639473 0.1872639981 0.1109600549 -0.5458799636 0.1113174707 -0.5459852434 -0.0381023212 0.1776921318
650296100.0 -0.0073108102 0.1873721567 0.1053025928 -0.5468732843 0.104973165 -0.5472922852 -0.0358325918 0.1775794842
655296070.0 -0.0054396255 0.1876427285 0.0994894964 -0.5481934512 0.0995564315 -0.5484270596 -0.0343314358 0.1784018309
660296040.0 -0.0035814882 0.1875120429 0.093604371 -0.5491445717 0.0935577844 -0.549356495 -0.0322714061 0.178950283
665296010.0 -0.000970999 0.1874292194 0.0869094419 -0.549817939 0.0874287608 -0.5501148602 -0.0308752677 0.1797764121
670295980.0 0.0003856055 0.1882789457 0.0814367265 -0.5509406189 0.0813443446 -0.5509035122 -0.0291948022 0.1799835483
675295950.0 0.002691267 0.1883139375 0.0758732513 -0.5518814579 0.0756334803 -0.5514430344 -0.0276459426 0.1805265476
680295920.0 0.0046664349 0.188345023 0.0694863538 -0.5525636445 0.068771978 -0.5530423638 -0.0256332623 0.1814421645
685295890.0 0.0066425059 0.1889884241 0.0636939059 -0.5532548571 0.0634003891 -0.5532679208 -0.0236642839 0.1814846313
690295860.0 0.0091542945 0.1886711824 0.0574606858 -0.5533380066 0.0575259294 -0.5541690613 -0.0224839316 0.1824027949
695295830.0 0.0110994621 0.1885561802 0.0518845757 -0.5541383071 0.0512149994 -0.5545481322 -0.0204908853 0.1826049136
700295800.0 0.0133139167 0.1882108537 0.0458154717 -0.5548713355 0.0450294327 -0.5549354127 -0.0187969525 0.183357387
705295770.0 0.0153057934 0.1888715038 0.0389298088 -0.5550575126 0.0397054086 -0.5551742024 -0.0170700371 0.1836256655
710295740.0 0.0174972927 0.1887031204 0.033978155 -0.5561525462 0.0337805551 -0.5560726 -0.0151573412 0.1835967133
715295710.0 0.0193301912 0.1885888379 0.0277224401 -0.5564444449 0.0276713254 -0.5561615725 -0.013600297 0.1837280112
720295680.0 0.0214885198 0.1884556412 0.0216302959 -0.5564953271 0.0216636733 -0.5565253012 -0.0116007554 0.1847874519
725295650.0 0.0235000581 0.1883159229 0.0157962607 -0.5565077206 0.0156424744 -0.5568419782 -0.0102677156 0.1850626066
730295620.0 0.0257266855 0.1882002047 0.0094510049 -0.5564117781 0.0096539217 -0.5568139723 -0.008496971 0.1848335753
735295590.0 0.0278651321 0.1883291972 0.0036070799 -0.5569834678 0.0035573622 -0.5566212437 -0.0069322478 0.1852144076
740295560.0 0.0295689692 0.188372057 -0.0022468876 -0.5565512551 -0.0026099688 -0.5567942983 -0.0043583669 0.1855881384
745295530.0 0.0315906616 0.1881365037 -0.0084006761 -0.5557781158 -0.0084479192 -0.5564405617 -0.0028435783 0.185495527
750295500.0 0.0341212014 0.1878334922 -0.014417166 -0.5561843555 -0.0145501033 -0.5563745198 -0.0013942348 0.1857869489
755295470.0 0.0359482716 0.1873694867 -0.0203855985 -0.5561305816 -0.0205025484 -0.5563300657 0.0007585368 0.1854530179
760295440.0 0.0381655902 0.187313011 -0.0264959123 -0.556373747 -0.0264488216 -0.5560590399 0.0024536854 0.1855752071
765295410.0 0.0401514433 0.1871485604 -0.0327056008 -0.5554516709 -0.0326749321 -0.5559206144 0.0043760198 0.1857965229
770295380.0 0.0418011463 0.1864468265 -0.0386546829 -0.5550663261 -0.0385421045 -0.5550154121 0.0058103529 0.1856401956
775295350.0 0.0440084307 0.1858685231 -0.044731385 -0.5542490071 -0.0440416214 -0.554427941 0.0072512954 0.1860298998
780295320.0 0.0460655054 0.185953161 -0.0504139119 -0.553809053 -0.0497329303 -0.5540834967 0.009595948 0.1856265832
785295290.0 0.0480641787 0.1848914877 -0.0565251198 -0.5528592718 -0.0563905532 -0.5534495576 0.011803921 0.1859602762
790295260.0 0.0506177526 0.1853822752 -0.0621815355 -0.5525443488 -0.0617592222 -0.5527233294 0.0131956785 0.1859053147
795295230.0 0.0520950198 0.1842206631 -0.0681605805 -0.5519450339 -0.0681565054 -0.5520920008 0.0155660499 0.1862296779
800295200.0 0.0542249003 0.1840831905 -0.0748055701 -0.5505813634 -0.0739478559 -0.5507971907 0.0171411709 0.1860072752
805295170.0 0.0563643123 0.1835114721 -0.0801870261 -0.5503390483 -0.0801239485 -0.5503193216 0.0191998673 0.1860636274
810295140.0 0.0581931471 0.1826380767 -0.085776649 -0.5491267349 -0.0860397623 -0.5491575848 0.0212274146 0.1861530104
815295110.0 0.0601353637 0.1821681021 -0.0916318973 -0.5477887592 -0.0915607005 -0.5482151815 0.0228318011 0.1858620517
820295080.0 0.0619683255 0.1822322177 -0.0976822534 -0.5468813275 -0.0977164665 -0.5471042677 0.0246833345 0.186163349
825295050.0 0.0648558994 0.1813635004 -0.1034537951 -0.545671338 -0.1034838647 -0.5462820873 0.0267803158 0.1859200896
830295020.0 0.0663135655 0.1809592907 -0.1094928176 -0.5442052975 -0.1096339186 -0.54487424 0.0292304702 0.1857603481
