!Created with skrf (http://scikit-rf.org).
# Hz S RI R 50.0 
!freq ReS11 ImS11 ReS21 ImS21 ReS12 ImS12 ReS22 ImS22
300000.0 -0.2428624763 -0.0968295747 0.472599147 0.0649991089 0.4702624241 0.0605694074 -0.2378600101 -0.1032846071
5299970.0 -0.2447742954 0.0064386025 0.4749968901 0.0047254987 0.4749284718 0.0050565206 -0.2409781759 0.0073823034
10299940.0 -0.2415949256 0.0178865447 0.476622783 0.0058452543 0.4765228396 0.0059868369 -0.2373263419 0.0205886409
15299910.0 -0.2373272481 0.026862912 0.4802601628 0.0072375679 0.4801724551 0.0071647869 -0.2326613513 0.0303443235
20299880.0 -0.2326935957 0.0339946476 0.4847893135 0.0083123791 0.485049801 0.0081444662 -0.2275369467 0.0383321745
25299850.0 -0.22765048 0.0402871358 0.4902715093 0.0070195519 0.4901541158 0.0071432567 -0.2216314846 0.044876251
30299820.0 -0.2225228304 0.0451512329 0.4953701557 0.0048697319 0.4952835341 0.0050923601 -0.2159985734 0.0502908814
35299790.0 -0.2172744244 0.0491339021 0.5010448186 0.0011906265 0.5007374858 0.0012588537 -0.2102995083 0.0547168313
40299760.0 -0.2124995828 0.0524721901 0.5058212352 -0.0024567093 0.5058247423 -0.0021533995 -0.2050252668 0.057663222
45299730.0 -0.2078727533 0.0547664607 0.5104120425 -0.0072270836 0.510798939 -0.0072050254 -0.2002517076 0.0607630415
50299700.0 -0.2037448847 0.0567016813 0.5149156142 -0.0126695737 0.5146936492 -0.012182325 -0.1955284808 0.062409799
55299670.0 -0.1999077589 0.0584911006 0.5184717319 -0.0189760136 0.5184561353 -0.0185693766 -0.1916979481 0.0646214814
60299640.0 -0.1960066002 0.0598140446 0.5215923254 -0.0250318792 0.5221610618 -0.0248402538 -0.1878032235 0.065622264
65299610.0 -0.1930682973 0.0609788904 0.5244649376 -0.0311817023 0.5246542545 -0.0313214005 -0.1840672423 0.0669758214
70299580.0 -0.1901036393 0.062232741 0.5271986217 -0.0381785016 0.5268185578 -0.037714762 -0.1809408087 0.067557481
75299550.0 -0.1870783234 0.0632094597 0.5286820109 -0.0447704427 0.5285911091 -0.0446956998 -0.1778212294 0.0683132997
80299520.0 -0.1850068615 0.0636452771 0.5310874984 -0.0518902558 0.5307125773 -0.0517363018 -0.1752541373 0.0693183336
85299490.0 -0.1826462711 0.0642245139 0.5322099599 -0.058288913 0.5321749564 -0.0579620577 -0.1729688315 0.0695420246
90299460.0 -0.1804313609 0.0649159382 0.5329703915 -0.0656376697 0.533704025 -0.0653752019 -0.1709214175 0.0702969603
95299430.0 -0.178289888 0.065250435 0.5339854575 -0.0722987599 0.5340640326 -0.0724134582 -0.1685213388 0.0711363042
100299400.0 -0.1766159275 0.0664709769 0.5335042809 -0.0788473907 0.5339053867 -0.0791623091 -0.1661329909 0.071535164
105299370.0 -0.1748706915 0.0668659931 0.5344540925 -0.0864316097 0.5345473931 -0.086025551 -0.1640715061 0.0723184238
110299340.0 -0.1733735805 0.0676458119 0.5347682347 -0.0929664095 0.5345025172 -0.0927856629 -0.1632879157 0.0727528753
115299310.0 -0.1719954076 0.0681742516 0.5349153171 -0.0997923833 0.534783633 -0.0999947028 -0.1612308378 0.0736232759
120299280.0 -0.1706560561 0.0686066188 0.534156964 -0.1064536848 0.5345176236 -0.1067718414 -0.1595412402 0.0742720057
125299250.0 -0.1694235219 0.0691568144 0.5339019296 -0.1131931237 0.5341614245 -0.1126562563 -0.1586018734 0.0746562335
130299220.0 -0.1683171954 0.0703011433 0.5331964882 -0.1200585585 0.5333444728 -0.1198203975 -0.1568995819 0.0756070419
135299190.0 -0.1674624497 0.0712995369 0.5328973151 -0.1266814478 0.5326371348 -0.1264567822 -0.1556230797 0.0764422777
140299160.0 -0.1666333955 0.0722652925 0.5319018668 -0.1335285311 0.5321734128 -0.1335280539 -0.1542801911 0.0778568546
145299130.0 -0.1655730167 0.0728759445 0.5312289736 -0.1397096853 0.5304664363 -0.1392828531 -0.1531157199 0.0784844902
150299100.0 -0.1644428137 0.0738659552 0.5298542463 -0.1460913394 0.5299856103 -0.1456247257 -0.1521826028 0.0800247679
155299070.0 -0.1635728308 0.0748686153 0.5285948067 -0.153322636 0.5284464487 -0.1527462081 -0.1510291579 0.0807888526
160299040.0 -0.1625352964 0.0758902028 0.5271384588 -0.1593315951 0.526910392 -0.1593886626 -0.1503386298 0.0822358174
165299010.0 -0.1619218729 0.0769928736 0.5259396538 -0.1655813586 0.5257119281 -0.1658145691 -0.1485963117 0.083490801
170298980.0 -0.1613449592 0.0775581445 0.5240390685 -0.1720093649 0.5240985795 -0.172056635 -0.1478364023 0.0845923741
175298950.0 -0.1603662727 0.0786470044 0.522842488 -0.1780184141 0.5226404297 -0.1781879965 -0.1469824282 0.0860478956
180298920.0 -0.1599115233 0.0800388157 0.5208864067 -0.184386918 0.5204093555 -0.1843119855 -0.146317858 0.0873661898
185298890.0 -0.1587277737 0.0809594529 0.5189850168 -0.1907534428 0.5187612248 -0.1904813299 -0.1451649137 0.0887775481
190298860.0 -0.1582436939 0.08236055 0.5168755121 -0.1972889633 0.517436322 -0.1968492851 -0.1443556386 0.0899331357
195298830.0 -0.1575730364 0.0833169116 0.5149760621 -0.2032436756 0.5150424581 -0.2027499403 -0.1432952252 0.0911430435
200298800.0 -0.1568175786 0.0846449688 0.5128718475 -0.2091249045 0.5129864595 -0.2092622264 -0.1427123225 0.0924632283
205298770.0 -0.1561445556 0.0859324636 0.510881104 -0.2155886431 0.5109187698 -0.2148320196 -0.142048365 0.0932995158
210298740.0 -0.1552738434 0.0870043795 0.5081624007 -0.2208229708 0.5085471975 -0.2205600836 -0.1408235952 0.0953945281
215298710.0 -0.1550975443 0.0883462172 0.5066449769 -0.2268320573 0.5062882167 -0.2275581345 -0.1402226866 0.0965911581
220298680.0 -0.1541329684 0.0894948558 0.5034509519 -0.232977886 0.5037972136 -0.2329405556 -0.1398529412 0.0976484884
225298650.0 -0.1536452307 0.090693263 0.5011377842 -0.2386341288 0.5012557421 -0.2385409376 -0.1389466611 0.0990278894
230298620.0 -0.1525166127 0.0923646516 0.4988364785 -0.2440373836 0.499135767 -0.2444467047 -0.1377105765 0.1003591563
235298590.0 -0.151735533 0.0938511397 0.496312628 -0.2504574497 0.4962627143 -0.2499755118 -0.1370573722 0.1018256158
240298560.0 -0.1510501174 0.0951364876 0.4935537768 -0.2561894835 0.4935629275 -0.2561327605 -0.1360584126 0.1030568819
245298530.0 -0.1504184166 0.0962498828 0.4913013973 -0.261945859 0.490440276 -0.2619426249 -0.1347415804 0.1040180217
250298500.0 -0.1491452083 0.0976255872 0.4870761872 -0.267592081 0.4873158936 -0.2672067415 -0.1340705307 0.1057598581
255298470.0 -0.1487080645 0.098834726 0.4841398674 -0.2725880627 0.4846579456 -0.2727207189 -0.132876962 0.107008797
260298440.0 -0.1480025257 0.0999403396 0.4818488819 -0.2787267266 0.482029779 -0.2783463908 -0.131432316 0.1084017
265298410.0 -0.146803726 0.10188513 0.4787108259 -0.2842849946 0.4791437236 -0.2838370427 -0.1311299761 0.1098932259
270298380.0 -0.1460955988 0.1030133586 0.4760511028 -0.2892927306 0.4760421853 -0.2895719627 -0.129842783 0.1107888878
275298350.0 -0.144611944 0.104578078 0.4727221553 -0.295222986 0.4727282504 -0.2946587923 -0.1283321462 0.1119330308
280298320.0 -0.1439491046 0.1058161652 0.4697260155 -0.3005559438 0.4693494857 -0.300102255 -0.1271679618 0.1136636121
285298290.0 -0.1429485089 0.1073018898 0.4664499415 -0.3054768089 0.4661535608 -0.3056466555 -0.1257209106 0.1149922873
290298260.0 -0.142044464 0.1086138997 0.4628432555 -0.3103926101 0.46313915 -0.3105579206 -0.124490748 0.1162706148
295298230.0 -0.1405943934 0.1097295787 0.4597918785 -0.3159120041 0.459331045 -0.3158267227 -0.1225453027 0.1174521286
300298200.0 -0.1401994384 0.1110236479 0.4565017558 -0.3208408371 0.4563656077 -0.321460148 -0.12166017 0.1190609461
305298170.0 -0.1389724222 0.112140223 0.4525097437 -0.3268701363 0.4524644967 -0.3262880817 -0.1197351633 0.1197926235
310298140.0 -0.1377759596 0.1136460154 0.4491449877 -0.331631061 0.4492442601 -0.3313290637 -0.1187306305 0.1212446156
315298110.0 -0.136921037 0.1143346875 0.4453294399 -0.3366685926 0.4455890836 -0.3368577264 -0.1174118759 0.1222147618
320298080.0 -0.1357765211 0.1158704434 0.4414152769 -0.3423565468 0.4417925022 -0.3418194871 -0.1164249299 0.123825804
325298050.0 -0.1350866235 0.1168388906 0.4379917928 -0.3466698365 0.4378027731 -0.3466953992 -0.115228915 0.1248251374
330298020.0 -0.1341036779 0.1180412132 0.4337024447 -0.3522276392 0.433785466 -0.3518651942 -0.1139733952 0.1265050022
335297990.0 -0.1331074928 0.1194882514 0.4298926041 -0.3566832266 0.4297377872 -0.3569139313 -0.1132005676 0.1283300975
340297960.0 -0.1324529772 0.1209421972 0.4253876584 -0.3616207556 0.4252068912 -0.3618584003 -0.1111408481 0.129578185
345297930.0 -0.1312767426 0.1227200329 0.4213222083 -0.3665319363 0.4215382672 -0.3664694921 -0.1099909581 0.1304587685
350297900.0 -0.1304439603 0.1232868225 0.4167400262 -0.3709744965 0.4168573661 -0.3709797879 -0.1090452803 0.1327280688
355297870.0 -0.1292556164 0.1253495193 0.4131809198 -0.3753410452 0.4133383253 -0.3748496387 -0.107968053 0.1335841344
360297840.0 -0.1282467803 0.1266873378 0.409749215 -0.3797813302 0.4095270347 -0.3799870121 -0.1066906945 0.13566932
365297810.0 -0.1273236639 0.1283180543 0.4048149684 -0.3848034675 0.4052414126 -0.3846676408 -0.1047217642 0.1368165364
370297780.0 -0.1255223596 0.129092728 0.4001855428 -0.3887423437 0.4008617554 -0.3887182341 -0.1036133296 0.1383675921
375297750.0 -0.1243043741 0.1308838193 0.3963572721 -0.3933906228 0.3968506632 -0.3934061552 -0.1022717876 0.1393709695
380297720.0 -0.1234821994 0.1320903299 0.3921825301 -0.3980243583 0.3920745503 -0.397241388 -0.1008215615 0.140551199
385297690.0 -0.1226524921 0.133520413 0.3877030723 -0.4019673307 0.3875048491 -0.4018421958 -0.0994371525 0.1420313977
390297660.0 -0.1211123355 0.1350552558 0.3832499806 -0.4063738843 0.3829400456 -0.4060938369 -0.0980742014 0.1435169419
395297630.0 -0.1199494555 0.1363588059 0.3787306024 -0.4103668573 0.3787349358 -0.4104581077 -0.0962872735 0.1448186721
400297600.0 -0.118698494 0.1376767669 0.3737521586 -0.4146130678 0.3741015031 -0.4145433748 -0.0948851465 0.1458969513
405297570.0 -0.1178298453 0.138926828 0.3697061956 -0.4186027577 0.3696186767 -0.4184897515 -0.0936918395 0.1473115485
410297540.0 -0.1160581598 0.1399701744 0.3649461557 -0.4224787272 0.3653959887 -0.4226830112 -0.0922579352 0.1483975116
415297510.0 -0.1146538817 0.1411235386 0.3601210547 -0.4268622497 0.3604820015 -0.4265316106 -0.0907047303 0.1491047313
420297480.0 -0.1134706548 0.1429925522 0.3553377521 -0.4304956249 0.3556414374 -0.4308508576 -0.0893797124 0.1501098902
425297450.0 -0.1121567142 0.1435111415 0.3516379466 -0.4342416676 0.3513590557 -0.4345192412 -0.0878453787 0.1516344917
430297420.0 -0.1105835797 0.1449959242 0.3460036511 -0.4379470325 0.3460796128 -0.4378585298 -0.0859811722 0.1523177535
435297390.0 -0.1094419186 0.1461684667 0.340831065 -0.4420071854 0.340919733 -0.4422597255 -0.0839339115 0.1533043571
440297360.0 -0.1078799173 0.1475300663 0.3364233877 -0.4454863417 0.3368159866 -0.445416703 -0.0827834199 0.1543609581
445297330.0 -0.1065681527 0.1483674929 0.3317072843 -0.4492965089 0.3316615208 -0.4485653765 -0.0807858046 0.1548979507
450297300.0 -0.104984458 0.1493385445 0.3268387379 -0.452800811 0.3264057583 -0.4527988895 -0.0791608228 0.1557133034
455297270.0 -0.1036724963 0.1507592153 0.321299514 -0.4563089247 0.3218658532 -0.4566765555 -0.0777047096 0.1568090077
460297240.0 -0.1023639101 0.1515746118 0.3163642691 -0.4597999399 0.3167618576 -0.4599994185 -0.0755756003 0.1582752113
465297210.0 -0.1008031474 0.1528834451 0.3119477069 -0.4632822903 0.3115520164 -0.4631827157 -0.0735011558 0.1587105676
470297180.0 -0.0992933372 0.1537913955 0.3064435076 -0.4666987804 0.3064173568 -0.4666500766 -0.0716373851 0.1599680035
475297150.0 -0.097858284 0.15468203 0.3014022781 -0.4694481307 0.3011516626 -0.4692867363 -0.0693632876 0.1607213628
480297120.0 -0.0963521112 0.1562405612 0.2957008981 -0.4732249407 0.2962119173 -0.4732020454 -0.0677599154 0.1616644966
485297090.0 -0.094696501 0.1569726384 0.2913208982 -0.4757304145 0.2911243485 -0.4760619412 -0.0661605008 0.1627908205
490297060.0 -0.0939241323 0.1582018618 0.2860683441 -0.4795878134 0.2862681161 -0.4792920501 -0.0640984188 0.1637878794
495297030.0 -0.0920444738 0.1591517371 0.2806555023 -0.4823266047 0.2809487307 -0.4822723704 -0.0625150009 0.1645846241
500297000.0 -0.0903789014 0.1601417429 0.2754401526 -0.4852891724 0.2750201396 -0.4850629946 -0.0606339869 0.1656481584
505296970.0 -0.0887330491 0.1611281932 0.2699813446 -0.4879424847 0.2697580754 -0.4884322917 -0.0585866132 0.1661830091
510296940.0 -0.0872834579 0.1623581916 0.264558749 -0.4915219699 0.2647634651 -0.4911885402 -0.0567181663 0.1673140117
515296910.0 -0.0856061621 0.1633112644 0.2592924626 -0.4940220189 0.2592095466 -0.4939322565 -0.0547510023 0.168191913
520296880.0 -0.0843116776 0.1641230933 0.2541556906 -0.497165146 0.2539552747 -0.4968152368 -0.0530236383 0.169013368
525296850.0 -0.0825170765 0.1647428386 0.2481865994 -0.4994268445 0.2487438286 -0.4994207894 -0.0512797445 0.1698472139
530296820.0 -0.0808840425 0.1661784664 0.2432015492 -0.502344517 0.2432961762 -0.5021454674 -0.0495217595 0.1708824199
535296790.0 -0.0796546934 0.1670207424 0.2379373484 -0.5047930499 0.2376938828 -0.5040991927 -0.0478788211 0.1709148543
540296760.0 -0.0779652516 0.1682037558 0.2323971073 -0.507687843 0.2319864259 -0.507608175 -0.0459168523 0.1723040018
545296730.0 -0.076219848 0.1688222538 0.226296768 -0.509790406 0.226574841 -0.5095885884 -0.0440688838 0.1727575749
550296700.0 -0.0744140057 0.1700013334 0.2213209011 -0.5124573211 0.2210494255 -0.5124357913 -0.042199121 0.1739259685
555296670.0 -0.0731140162 0.1703843573 0.21579733 -0.5148506002 0.2157137854 -0.5146057 -0.0403212632 0.1746851439
560296640.0 -0.0709747526 0.1718211523 0.2097592425 -0.5170558171 0.2097206718 -0.51695239 -0.0385140764 0.1750817151
565296610.0 -0.0696156453 0.1724022059 0.2041101143 -0.5191070757 0.2046312747 -0.5188042927 -0.0368996333 0.1752068831
570296580.0 -0.0680496353 0.172996179 0.198787454 -0.5210780238 0.1980735695 -0.5212457796 -0.0348545477 0.1764845524
575296550.0 -0.0664618835 0.1744179644 0.1933180268 -0.5235443434 0.1928655717 -0.5231905144 -0.0328668667 0.1764993884
580296520.0 -0.0645227328 0.1749498481 0.1874413113 -0.5255113271 0.1871795151 -0.5251951126 -0.0311646113 0.1771304052
585296490.0 -0.0630030909 0.1753807835 0.1817454928 -0.5270341636 0.1814083176 -0.527551277 -0.029083984 0.177503675
590296460.0 -0.0610292507 0.1766051443 0.1756724329 -0.5286359048 0.1758514034 -0.5289568725 -0.0278830409 0.1778344708
595296430.0 -0.0592877379 0.1771309367 0.1697961214 -0.5314652588 0.1697594515 -0.5312015195 -0.0252987311 0.1780984838
600296400.0 -0.0578032571 0.1777593893 0.1641631398 -0.5330141535 0.1641579598 -0.5325087857 -0.023482297 0.1781747091
605296370.0 -0.0562105856 0.1783095575 0.1584084886 -0.5346112152 0.1587486467 -0.5342641418 -0.0213440295 0.178821929
610296340.0 -0.0541718872 0.1791318493 0.152081852 -0.5364384153 0.152736154 -0.5360411576 -0.0193493532 0.1792146071
615296310.0 -0.0521608218 0.1793137425 0.1470013196 -0.5373462845 0.1465619679 -0.5378846684 -0.0173513228 0.1791013139
620296280.0 -0.0509142322 0.1800225539 0.1408316773 -0.5393581599 0.1406824584 -0.5391871993 -0.0154479779 0.17946199
625296250.0 -0.0492317783 0.1805978668 0.1355804649 -0.5411819561 0.1349244805 -0.5412414951 -0.0129437176 0.1797547745
630296220.0 -0.0467404249 0.1814388194 0.1287942906 -0.5424514849 0.1287603784 -0.5418622795 -0.0113397092 0.180137724
635296190.0 -0.0458168736 0.1818228506 0.1230704611 -0.543548533 0.1233084731 -0.5435539454 -0.0092231598 0.1803952885
640296160.0 -0.0440479925 0.1824755139 0.1174745122 -0.544593117 0.1177390738 -0.5450380783 -0.0068597246 0.1803405231
645296130.0 -0.0421172433 0.1833166469 0.1110197795 -0.5457013644 0.1119563074 -0.5458872281 -0.0047934688 0.1807821969
650296100.0 -0.0402529269 0.1832718032 0.1054544271 -0.5467409136 0.1059554319 -0.5470425679 -0.0024956894 0.1805061013
655296070.0 -0.0387301278 0.183590386 0.1000419023 -0.5480509687 0.0997977106 -0.5482292039 -0.0003371037 0.1809823776
660296040.0 -0.0372487026 0.1842900555 0.0941887416 -0.5490704738 0.0937418109 -0.5491821873 0.0018580223 0.1813115748
665296010.0 -0.0348179073 0.1846772899 0.0874464773 -0.5499014586 0.0879135652 -0.5504151169 0.0039355528 0.1818541399
670295980.0 -0.0340292715 0.1856260842 0.0822282018 -0.5510299621 0.0819625841 -0.5508436459 0.0056381462 0.1818253112
675295950.0 -0.0317650267 0.1860748692 0.0759810619 -0.5514754875 0.0760827862 -0.5513372111 0.0074133109 0.1820794195
680295920.0 -0.02985594 0.1861924529 0.0699311087 -0.5522925853 0.069875681 -0.5527805804 0.0099738589 0.1827351032
685295890.0 -0.0279730439 0.1874333541 0.0638290273 -0.5527210416 0.0640116744 -0.5532028644 0.0118052562 0.1822183211
690295860.0 -0.0259760796 0.1874141404 0.0585191967 -0.5536698398 0.0579715252 -0.5542862966 0.013838615 0.1834035782
695295830.0 -0.0243142432 0.1877185607 0.0524818058 -0.5545982225 0.051849107 -0.5540786826 0.0160894449 0.1829462466
700295800.0 -0.0225755843 0.1875082578 0.0461521498 -0.5546870154 0.0458536256 -0.5545706198 0.017684587 0.1834785015
705295770.0 -0.0209111953 0.1888980988 0.0400304705 -0.5551818335 0.0405233583 -0.5550366303 0.0194840488 0.1831437873
710295740.0 -0.0184870724 0.1891362215 0.0342487171 -0.5564977847 0.0344315696 -0.556120298 0.0219362605 0.1827372814
715295710.0 -0.0173044353 0.1892498329 0.0289370905 -0.5563202611 0.0278923771 -0.5559161406 0.0237977524 0.1830944074
720295680.0 -0.0151219316 0.1895020144 0.022368159 -0.5562507197 0.0222311884 -0.5564170112 0.0259900061 0.183599959
725295650.0 -0.0132010299 0.1897826938 0.0159665861 -0.5562946505 0.0164487542 -0.5568302173 0.0273039906 0.1832269132
730295620.0 -0.0111110013 0.1903421459 0.0102088521 -0.5564062246 0.0102979498 -0.5566840313 0.0292029443 0.1828395673
735295590.0 -0.0097604969 0.1907069012 0.0041140021 -0.5567974035 0.0041296178 -0.5566196074 0.0308784922 0.1826186928
740295560.0 -0.007648894 0.1909254409 -0.0016394168 -0.5564755732 -0.001986785 -0.5569277165 0.0337145488 0.1826051677
745295530.0 -0.0060333077 0.1912693923 -0.0078607445 -0.5559008224 -0.0080216437 -0.5565580057 0.0357346225 0.1817946848
750295500.0 -0.0039449064 0.1914126166 -0.0136550166 -0.5563636619 -0.0137648578 -0.5565618403 0.0373895969 0.1816705375
755295470.0 -0.0020762257 0.1912824291 -0.0194775717 -0.5562743057 -0.019814234 -0.5562266039 0.0395479218 0.1808397333
760295440.0 -0.0004530374 0.1916069679 -0.0259406444 -0.5561247346 -0.0259917093 -0.5562319826 0.0413557695 0.1807523009
765295410.0 0.0014838624 0.1918287645 -0.0318578654 -0.5559588183 -0.0318585171 -0.5560339875 0.042938159 0.1804725589
770295380.0 0.00306386 0.1915107971 -0.0378158918 -0.5554049385 -0.0379775675 -0.5548688793 0.0449368904 0.1798378758
775295350.0 0.0052719681 0.1913933204 -0.0441534163 -0.5540197176 -0.043236325 -0.5544299329 0.0462829295 0.1798498043
780295320.0 0.0070994343 0.1918872953 -0.0497773313 -0.5537870751 -0.0491853133 -0.5537005407 0.0488102691 0.1788861089
785295290.0 0.0088360242 0.1914549951 -0.0563884377 -0.553039487 -0.0554417492 -0.5533628899 0.0514188469 0.1785750922
790295260.0 0.011071211 0.1921880061 -0.0612781105 -0.5528550267 -0.0606116654 -0.5528944339 0.0531870548 0.1782549507
795295230.0 0.0126627406 0.191759018 -0.067296553 -0.5521492212 -0.0671190863 -0.5521197741 0.0555946527 0.1779295432
800295200.0 0.0142208486 0.1922715935 -0.0738459573 -0.551217293 -0.073491186 -0.5509801575 0.0573457876 0.1769785737
805295170.0 0.0162577468 0.1916087798 -0.079392929 -0.5503897103 -0.0793754019 -0.5505773878 0.0591177672 0.1765956351
810295140.0 0.0182146904 0.191292859 -0.0851408997 -0.5490098564 -0.0851073739 -0.5495530402 0.0618295207 0.1762190402
815295110.0 0.019807131 0.1913316923 -0.0909896158 -0.5482857542 -0.0904238077 -0.5481428593 0.0636049111 0.1760827037
820295080.0 0.021409551 0.1917742155 -0.0964718066 -0.5469339955 -0.0968544414 -0.5470806006 0.0657415665 0.1750004508
825295050.0 0.023972201 0.1913752547 -0.1021647648 -0.5461332842 -0.1027261252 -0.5464709767 0.0677453421 0.1745741033
830295020.0 0.0255508073 0.191494246 -0.1085181008 -0.5451374064 -0.1088521208 -0.5449150278 0.0701847654 0.1740599852
