!Created with skrf (http://scikit-rf.org).
# Hz S RI R 50.0 
!freq ReS11 ImS11 ReS21 ImS21 ReS12 ImS12 ReS22 ImS22
300000.0 -0.2359684442 -0.1081585171 0.4674157041 0.0713093172 0.4703650279 0.073738518 -0.2378187045 -0.1128587229
5299970.0 -0.2407125416 0.0070799822 0.4750860025 0.0055871908 0.4749958844 0.0055847676 -0.2445462231 0.0055476216
10299940.0 -0.2371725275 0.0199231889 0.4772646515 0.0062656339 0.4771210122 0.006227886 -0.2417051935 0.0175360678
15299910.0 -0.2330503232 0.0299722267 0.480454357 0.0074643844 0.4804969471 0.00765855 -0.2373381853 0.0264057993
20299880.0 -0.2273604119 0.0380452333 0.4852690049 0.0078271778 0.4851178721 0.0079914559 -0.2329018181 0.033981666
25299850.0 -0.2216122057 0.0443298165 0.4907682114 0.0066582881 0.4906912437 0.0071839921 -0.2279686858 0.0400479999
30299820.0 -0.2157183243 0.0495175628 0.4960681125 0.0051631596 0.4956210411 0.0049949358 -0.2225121903 0.0447763637
35299790.0 -0.210067424 0.054211148 0.501189184 0.0014377305 0.5012321364 0.0016771379 -0.2173600202 0.0486501656
40299760.0 -0.2045548156 0.0568728474 0.506237732 -0.0020427464 0.5062923046 -0.002185691 -0.2126529255 0.0520779233
45299730.0 -0.1993952611 0.0599104217 0.5106662634 -0.0070413679 0.5109869102 -0.0073182208 -0.2077100297 0.0545926197
50299700.0 -0.1947515271 0.0620902085 0.5150156758 -0.0126651052 0.5153027828 -0.0128323424 -0.203714944 0.0565936254
55299670.0 -0.1905541113 0.0640362866 0.5185370395 -0.0185980868 0.51881578 -0.0185385172 -0.1999419647 0.0580164238
60299640.0 -0.1863825789 0.0649849043 0.521798564 -0.0252226805 0.5218659673 -0.0249304066 -0.196147436 0.0596213908
65299610.0 -0.1829170539 0.0663183786 0.5250548861 -0.0305761541 0.5251132477 -0.0311923562 -0.1927423209 0.0605269833
70299580.0 -0.1797201125 0.0670272152 0.5269959303 -0.0377549959 0.5273103981 -0.0377337649 -0.190223993 0.061723689
75299550.0 -0.1764126475 0.0680450657 0.5289817562 -0.044712966 0.5293069434 -0.0448839996 -0.1871638607 0.0627958437
80299520.0 -0.1742662218 0.0687246888 0.5316144166 -0.0515469117 0.5313587135 -0.0515464354 -0.1848232687 0.0629445444
85299490.0 -0.1712813883 0.069393715 0.5324807211 -0.0584889171 0.5324095046 -0.0584076397 -0.1824720084 0.063558934
90299460.0 -0.1692442543 0.0702263363 0.5332950449 -0.0649018382 0.5333820164 -0.0651294861 -0.1799613302 0.0642874269
95299430.0 -0.1671337348 0.0709166071 0.5347075138 -0.0724105909 0.5342891244 -0.0724015135 -0.1784210087 0.0649056265
100299400.0 -0.1654047068 0.0715751366 0.5344073257 -0.078834578 0.5346018893 -0.0792136332 -0.1769423354 0.0656428465
105299370.0 -0.1631665403 0.0722524682 0.5349367235 -0.0860269007 0.5351066282 -0.0863266538 -0.1749347071 0.06659913
110299340.0 -0.1617108864 0.073175905 0.5346631522 -0.0925397294 0.535115592 -0.0932655815 -0.173589237 0.0670362731
115299310.0 -0.1602085331 0.0735485548 0.5348956438 -0.0993922461 0.5350232919 -0.0993123471 -0.172134909 0.0672182154
120299280.0 -0.1591159794 0.0743558838 0.5352288908 -0.1064967819 0.5347250944 -0.1066429794 -0.171073764 0.0677971902
125299250.0 -0.1579145291 0.0748624323 0.5346159079 -0.1127564366 0.5347696724 -0.1133028778 -0.1696469789 0.0683956268
130299220.0 -0.1565925004 0.0759621445 0.5339949345 -0.119448547 0.5341076807 -0.1200575058 -0.1691312087 0.0692679629
135299190.0 -0.1554187381 0.0769032444 0.5328699091 -0.1263399425 0.5326823764 -0.1263157817 -0.1682134949 0.0700054659
140299160.0 -0.154390007 0.0780942746 0.5325012122 -0.1332063895 0.5324600009 -0.1331484608 -0.1668004684 0.0709640288
145299130.0 -0.1531054782 0.078733039 0.5319164996 -0.1395433274 0.5315739007 -0.1396664596 -0.1662233167 0.0719255042
150299100.0 -0.1520659213 0.0799394543 0.530556514 -0.1463474387 0.5303515735 -0.1459658858 -0.1652912642 0.0724187642
155299070.0 -0.1512267491 0.0812378209 0.5292000853 -0.1530515223 0.5290526735 -0.153028863 -0.1644092351 0.0733958
160299040.0 -0.1500321002 0.0820564125 0.5278820123 -0.1587118802 0.5279108377 -0.1591776512 -0.1635464336 0.0748143693
165299010.0 -0.1493391871 0.0830585084 0.5263652998 -0.1653671179 0.526449485 -0.1657516867 -0.1627935927 0.0756923622
170298980.0 -0.1485353944 0.0843635568 0.5238906116 -0.1719904482 0.524606582 -0.1716413983 -0.1618074716 0.076438604
175298950.0 -0.1472442253 0.0854837056 0.5237068551 -0.1780444642 0.5233536079 -0.1779107797 -0.1609896919 0.0773173045
180298920.0 -0.1461412695 0.0867187319 0.5215843356 -0.1846244688 0.5212201197 -0.184167716 -0.160338351 0.0786495551
185298890.0 -0.1450775861 0.0878620105 0.519291152 -0.1906417224 0.5199329863 -0.1903477641 -0.1597734452 0.0793557781
190298860.0 -0.1443262267 0.0890007466 0.5176374976 -0.1965845746 0.5177802287 -0.196966646 -0.1583953726 0.0807133243
195298830.0 -0.1435977799 0.0900794112 0.5157781844 -0.202693316 0.5155569036 -0.2031516039 -0.1577383926 0.0817910925
200298800.0 -0.1426404527 0.0917476423 0.5138882706 -0.2083629674 0.5139904335 -0.208973117 -0.1569205878 0.0832468164
205298770.0 -0.1416911383 0.0929756828 0.5117571514 -0.2149659567 0.5117590033 -0.2151433439 -0.1564855297 0.0838952475
210298740.0 -0.1407623833 0.0941534527 0.5096782806 -0.2211722696 0.5093958008 -0.2214678424 -0.1554602739 0.085847283
215298710.0 -0.1398437268 0.0956874226 0.5072430295 -0.2269228393 0.5069187127 -0.2270898992 -0.1551081215 0.0867711109
220298680.0 -0.1388930369 0.0969112748 0.5045113935 -0.2329647749 0.5048182117 -0.2327423141 -0.1541356664 0.0882103916
225298650.0 -0.1375710959 0.0985906642 0.5017407918 -0.2384928376 0.5017169536 -0.2380544015 -0.1535211293 0.0892024583
230298620.0 -0.1369425283 0.0998184093 0.4995964231 -0.2446407874 0.4997840955 -0.2447281303 -0.1526450575 0.0902815418
235298590.0 -0.1359334623 0.1009629212 0.4972260343 -0.2501089491 0.4970842588 -0.250322982 -0.1518262403 0.0914809222
240298560.0 -0.1349507068 0.1026740224 0.49448594 -0.2559460269 0.4942076675 -0.2556473206 -0.1508164834 0.0933157804
245298530.0 -0.1338669742 0.1038613634 0.4912716325 -0.2614848313 0.4914630743 -0.2615895912 -0.1500452343 0.0944328489
250298500.0 -0.1328630413 0.1051735533 0.4884627961 -0.2669064755 0.4888021371 -0.2665785867 -0.1490914432 0.0955199747
255298470.0 -0.1319002172 0.1065941119 0.485487425 -0.273042498 0.4856144908 -0.272640031 -0.1481993783 0.0967644063
260298440.0 -0.1306331134 0.1081493004 0.4826831601 -0.2783709872 0.482210404 -0.2782452658 -0.1471282335 0.0981805457
265298410.0 -0.1293949641 0.1097620447 0.479462392 -0.284341514 0.4793780322 -0.2836760246 -0.1465614804 0.099632043
270298380.0 -0.1281532577 0.1108786337 0.4760426169 -0.2891232058 0.4766459453 -0.2893794226 -0.145229883 0.1009172314
275298350.0 -0.1273159644 0.1124179187 0.4732558103 -0.29517514 0.4737685041 -0.2949838984 -0.1445825631 0.1024159905
280298320.0 -0.1263062682 0.1138241055 0.4701956164 -0.2995899301 0.4702408549 -0.3006306516 -0.1431007769 0.103992979
285298290.0 -0.1248428778 0.115379732 0.4668287371 -0.3051094716 0.4669626744 -0.3055019778 -0.1426818678 0.1051118573
290298260.0 -0.1237567253 0.1167330763 0.4640216888 -0.3106594068 0.4639323247 -0.3109608896 -0.1412483347 0.1066756673
295298230.0 -0.1226000191 0.1181761809 0.4606594305 -0.3161412817 0.46037754 -0.3161669899 -0.1400301061 0.1078903335
300298200.0 -0.1211378907 0.1191572384 0.4570976384 -0.3211244406 0.4567521019 -0.321219176 -0.1393902172 0.1093767679
305298170.0 -0.1194855596 0.1205042228 0.4535325749 -0.326375344 0.4535955939 -0.3264429571 -0.1377782095 0.1107113679
310298140.0 -0.118097276 0.1218842486 0.4500259051 -0.3319959147 0.4502149089 -0.3321408544 -0.1370366745 0.1122704196
315298110.0 -0.1172607516 0.1231049366 0.4463123415 -0.3368527944 0.4465993104 -0.3369948921 -0.1356999359 0.1133574882
320298080.0 -0.1158734302 0.124295958 0.4426270513 -0.3419444626 0.4426618987 -0.3423042897 -0.1349749202 0.1144521409
325298050.0 -0.1146909699 0.1255363787 0.4389785767 -0.347344533 0.4389540096 -0.3472846167 -0.1337143136 0.1159749519
330298020.0 -0.1132840626 0.1269228341 0.4340140925 -0.3520865433 0.4347204657 -0.3521427708 -0.1331278317 0.1170815726
335297990.0 -0.1122058186 0.1280020065 0.4306276019 -0.3571754453 0.430753079 -0.3569559161 -0.1321152587 0.118402291
340297960.0 -0.1115361275 0.1297456721 0.4266333485 -0.361921879 0.4264761565 -0.3617677068 -0.1308701347 0.1197417477
345297930.0 -0.1101655236 0.1309829021 0.42261002 -0.3660360235 0.4221843546 -0.3660132278 -0.1297479737 0.121205209
350297900.0 -0.1080932267 0.1323780586 0.4179399613 -0.3706916966 0.4185907348 -0.3711466818 -0.1290248725 0.1229682887
355297870.0 -0.1071191981 0.1337284747 0.4140201476 -0.3754663706 0.4138981876 -0.3757035122 -0.1279953377 0.124314138
360297840.0 -0.1057325842 0.1351489162 0.4096024111 -0.3804297516 0.4096924677 -0.380165606 -0.1265385628 0.1257785252
365297810.0 -0.1043296476 0.1362524724 0.4056219355 -0.3845327108 0.4057321698 -0.3845572257 -0.1255834053 0.1272237361
370297780.0 -0.1025096337 0.1375646513 0.4015035596 -0.3891214986 0.4014573785 -0.3891855297 -0.1242837594 0.1284226742
375297750.0 -0.101297035 0.1392777794 0.3977985274 -0.3936200462 0.3967147204 -0.3938815981 -0.1228705363 0.130204119
380297720.0 -0.0995554138 0.140036431 0.3930062602 -0.3972997203 0.3929785354 -0.3975583406 -0.1220429844 0.131770966
385297690.0 -0.0982724243 0.1416135218 0.3883993718 -0.4016588989 0.3884306475 -0.4017580282 -0.1206176385 0.1330044869
390297660.0 -0.0966053775 0.1426598262 0.3838666045 -0.4063285055 0.3839912618 -0.4070503687 -0.1193848361 0.1342440754
395297630.0 -0.0949214568 0.1436194301 0.3795953957 -0.410147093 0.3796218653 -0.4105461597 -0.1180122492 0.1360935339
400297600.0 -0.0933356037 0.1454226591 0.3744724759 -0.4146477136 0.3753434344 -0.4147197935 -0.1174051352 0.1365999133
405297570.0 -0.09152301 0.1465192489 0.3702742459 -0.4190186696 0.3703485024 -0.4192266111 -0.1157353151 0.1385878034
410297540.0 -0.0900849686 0.1475839684 0.3654465235 -0.4228579469 0.3655856341 -0.422854207 -0.1143599801 0.13956269
415297510.0 -0.0885760549 0.14920317 0.3611952459 -0.426958276 0.3613601201 -0.4266056653 -0.1132180851 0.1413022823
420297480.0 -0.0869453765 0.149652523 0.3565988821 -0.4308079319 0.356496763 -0.4305418392 -0.1117055959 0.1420906166
425297450.0 -0.0850445135 0.1507362998 0.3516686099 -0.4346737861 0.3520394472 -0.4346539767 -0.1102634287 0.1436678514
430297420.0 -0.0835150648 0.1518843405 0.34695925 -0.4388286467 0.3469166039 -0.4386459188 -0.1090792919 0.1447390172
435297390.0 -0.0818353247 0.152844218 0.3419287121 -0.4419558175 0.3422664505 -0.4419287423 -0.1077312873 0.146371082
440297360.0 -0.0798909294 0.1540321382 0.3370687498 -0.4460207201 0.3367714941 -0.4457507065 -0.106475211 0.1475063091
445297330.0 -0.0781335124 0.1550565085 0.3321354075 -0.4496757769 0.3320651034 -0.449589107 -0.1051296223 0.1485038085
450297300.0 -0.0762054647 0.1560354802 0.3270281453 -0.4530856507 0.3275548816 -0.4532861429 -0.1038044237 0.149956249
455297270.0 -0.0748996041 0.156747563 0.3224203386 -0.4564767778 0.3224764113 -0.4567969478 -0.1019333335 0.1510604766
460297240.0 -0.0732218642 0.1580176729 0.3171740753 -0.4600559853 0.3173958727 -0.4603200136 -0.1005997342 0.1525395868
465297210.0 -0.0712586011 0.1590210022 0.3125001304 -0.4636824695 0.3126635981 -0.4636444698 -0.0994239009 0.1532119878
470297180.0 -0.0695036069 0.1597205135 0.3075717192 -0.466737662 0.3074194527 -0.466928335 -0.0981240789 0.154728621
475297150.0 -0.0677246921 0.1603304957 0.3016588753 -0.4699586833 0.3023339564 -0.4697022064 -0.0963104556 0.1555600698
480297120.0 -0.0658452047 0.1611353684 0.2969990191 -0.4730757484 0.2972004634 -0.4731380451 -0.0951481737 0.1571360096
485297090.0 -0.0636757694 0.162059185 0.2918800892 -0.4765872967 0.2920113659 -0.4763427255 -0.0934816507 0.1576758151
490297060.0 -0.062295853 0.1629264544 0.2867010478 -0.4799077013 0.2865280522 -0.4796656744 -0.0922728538 0.1593771847
495297030.0 -0.060698467 0.1640101432 0.2815624209 -0.4826165682 0.2811259833 -0.4827886703 -0.0905940572 0.1600863466
500297000.0 -0.0584437519 0.1645616114 0.2757831297 -0.4857311196 0.2763264887 -0.485696249 -0.0893278766 0.1612566735
505296970.0 -0.0568576674 0.1653085359 0.2703087013 -0.4883652828 0.2705487456 -0.4883828662 -0.0879763682 0.1622481081
510296940.0 -0.0548965506 0.1664767934 0.2656812261 -0.4919266109 0.2653890624 -0.4915976387 -0.0859054254 0.163706109
515296910.0 -0.0531613488 0.1672341315 0.2598851172 -0.4941030076 0.2598078474 -0.4943901667 -0.0848247255 0.1645085536
520296880.0 -0.0513379121 0.1676568661 0.2543092031 -0.4971148822 0.2545270424 -0.4971230461 -0.0829424481 0.1654937186
525296850.0 -0.0493918435 0.1680972565 0.2490499317 -0.4998626659 0.2491654255 -0.4999343411 -0.0811924472 0.1663536892
530296820.0 -0.0477565541 0.1689102238 0.2441393395 -0.5020264371 0.2435997439 -0.5025728181 -0.0802074368 0.1671156399
535296790.0 -0.0456844954 0.1697721325 0.2377442988 -0.504823439 0.2385840479 -0.504615177 -0.0786560837 0.1677679039
540296760.0 -0.0437515087 0.1699377049 0.232698214 -0.5076888248 0.2324742662 -0.5076568057 -0.0770639168 0.1691871523
545296730.0 -0.042156048 0.1709810519 0.2272675069 -0.5098411773 0.2273958027 -0.5101295598 -0.0755341102 0.1698724456
550296700.0 -0.0401822098 0.1715359885 0.2217604889 -0.5123771701 0.2222450255 -0.5130721561 -0.0739145094 0.1712005549
555296670.0 -0.0377480246 0.1718892733 0.2162565288 -0.5146746321 0.2163136275 -0.514798212 -0.0722184714 0.1719722192
560296640.0 -0.0360715426 0.1724630214 0.2106065649 -0.5170357082 0.2107753998 -0.5166433296 -0.0706305776 0.1727663595
565296610.0 -0.0345994078 0.1729873992 0.2049008584 -0.5192214689 0.2044159572 -0.519469139 -0.0693275732 0.1733783732
570296580.0 -0.0321223458 0.1734890172 0.1989474753 -0.52127357 0.1995307902 -0.5212463739 -0.0674782678 0.1747684104
575296550.0 -0.0303763739 0.1742746589 0.1935340149 -0.5231470741 0.1939116413 -0.5234913871 -0.0654772658 0.1751731454
580296520.0 -0.028553958 0.1745080195 0.1881380231 -0.5253221984 0.1877705963 -0.5258528034 -0.0639812377 0.175983349
585296490.0 -0.0263737081 0.1748644123 0.182450693 -0.5276533271 0.1824453161 -0.5275194964 -0.062362539 0.1763350665
590296460.0 -0.0248530176 0.17514488 0.1765988031 -0.5295110164 0.1765013003 -0.5295321853 -0.0605375701 0.1778396913
595296430.0 -0.0229286056 0.1757997755 0.1711370536 -0.5312473013 0.1706252825 -0.5314589867 -0.0587322989 0.1779359329
600296400.0 -0.0205829216 0.1765076667 0.1651920166 -0.5331778161 0.1657235678 -0.5332117808 -0.0572405302 0.1789598134
605296370.0 -0.0187625911 0.176947254 0.1594961116 -0.5352653517 0.1594950546 -0.5347222428 -0.0556867815 0.1796424735
610296340.0 -0.0168754975 0.1769340944 0.1540306629 -0.5361367038 0.153844265 -0.536774941 -0.0539830239 0.1805467161
615296310.0 -0.0147949682 0.1775729708 0.1473632634 -0.5383254577 0.1478704289 -0.5380061693 -0.0520195223 0.1809238864
620296280.0 -0.0129303943 0.1775286038 0.142314913 -0.5395286109 0.1422023785 -0.5397064016 -0.0503393855 0.1816369034
625296250.0 -0.0108109963 0.1777761037 0.1359232422 -0.5412352685 0.1359615997 -0.5410664206 -0.0487070699 0.1825871477
630296220.0 -0.0087218741 0.1783395094 0.1300753908 -0.5424890959 0.1307099711 -0.542723209 -0.0471323084 0.182981357
635296190.0 -0.0068733892 0.1784660117 0.1241079846 -0.5432286192 0.1241961862 -0.5434679655 -0.0453182671 0.1832423356
640296160.0 -0.0048644286 0.178452867 0.1185070616 -0.5448055931 0.1183619604 -0.5452249445 -0.0429018232 0.1839987446
645296130.0 -0.0030300846 0.178979858 0.112376366 -0.5467873596 0.1126650493 -0.5461902485 -0.042409809 0.1843050317
650296100.0 -0.0012148139 0.1794301268 0.1068930561 -0.5476283095 0.1069317539 -0.5470346206 -0.0402328773 0.1850786992
655296070.0 0.0009094183 0.1793130178 0.1005994732 -0.5486638593 0.1008767306 -0.5483816555 -0.0381380561 0.1856308455
660296040.0 0.0025994476 0.1797455962 0.0950449557 -0.5490232754 0.0952383113 -0.5494689488 -0.036836688 0.1862169224
665296010.0 0.0048082929 0.1792778252 0.0891865148 -0.5504305398 0.0893882347 -0.5504056144 -0.0348391228 0.1869667457
670295980.0 0.0074892862 0.1797921872 0.0825976238 -0.551285236 0.0837149759 -0.5512419527 -0.0336292974 0.187077229
675295950.0 0.0092295321 0.1797277596 0.0769620878 -0.5517935706 0.0773190337 -0.552190077 -0.031141591 0.18761876
680295920.0 0.0108635984 0.1800220678 0.0712598694 -0.552892045 0.0710700175 -0.5528296368 -0.0294509722 0.1880016303
685295890.0 0.0128318859 0.1802864792 0.0656828825 -0.5534293711 0.0648401765 -0.5539106188 -0.0276585265 0.1887595924
690295860.0 0.0154430877 0.1797914619 0.0588765328 -0.5542564833 0.0587685182 -0.5540386096 -0.0256869208 0.1891788142
695295830.0 0.0170973613 0.1796601916 0.0526528485 -0.5548669239 0.0528980055 -0.5549068207 -0.0243282707 0.1894832143
700295800.0 0.0195907536 0.1796844338 0.0470536347 -0.5554170869 0.0472783616 -0.5558284242 -0.0223150334 0.1897386677
705295770.0 0.0214155959 0.179789071 0.0409741231 -0.5558524967 0.0413251629 -0.5562164676 -0.0207536391 0.1903963851
710295740.0 0.0233915199 0.1797842574 0.0351604684 -0.5561506263 0.0348495611 -0.5561672893 -0.0190451402 0.1909838623
715295710.0 0.0251507367 0.1799051942 0.0293485229 -0.5562311771 0.0298449937 -0.5566695905 -0.0173429212 0.1907322055
720295680.0 0.0272163715 0.1792300068 0.0227037171 -0.5563821942 0.0231760418 -0.557086401 -0.0150365775 0.1911876586
725295650.0 0.0297866324 0.1793092079 0.0167981466 -0.5566740241 0.0171607575 -0.5570193525 -0.0131603977 0.1914942058
730295620.0 0.0312996957 0.1789694684 0.0110618086 -0.5570521293 0.0111131648 -0.556966381 -0.0114177082 0.1913919638
735295590.0 0.0335019427 0.1789855529 0.0052677947 -0.5572528424 0.0053325458 -0.5572431276 -0.0094724021 0.1920193458
740295560.0 0.0355822105 0.1788718087 -0.0012078472 -0.5567334662 -0.0012480353 -0.5571435346 -0.0075239446 0.1921510377
745295530.0 0.0373728945 0.1784402267 -0.0065302026 -0.5570827188 -0.0066908642 -0.5571754545 -0.0060214725 0.1926106589
750295500.0 0.0393423707 0.1779404399 -0.0126773901 -0.5561279496 -0.0127425342 -0.5569143782 -0.0039117562 0.1921663567
755295470.0 0.0417918892 0.1782316239 -0.0184738242 -0.5566441432 -0.0187005013 -0.5567390093 -0.0025322051 0.1930455529
760295440.0 0.0432798992 0.1778747845 -0.0250218862 -0.5564875615 -0.0247225079 -0.5566850716 -0.000777371 0.1930175002
765295410.0 0.0452136202 0.1770706194 -0.0304421232 -0.5558985481 -0.0304168775 -0.556330829 0.0017662419 0.1934916292
770295380.0 0.0475758108 0.1768645041 -0.0368540395 -0.5557589858 -0.036671858 -0.5563649925 0.0036272419 0.1934273397
775295350.0 0.0491362633 0.1766705283 -0.0428828821 -0.5548600426 -0.0426694907 -0.5550159984 0.0050503189 0.1928317562
780295320.0 0.0514982107 0.1759210435 -0.0486478467 -0.5550729513 -0.048449155 -0.5546890119 0.0072203559 0.1937144639
785295290.0 0.0533969638 0.1759125682 -0.0547083734 -0.5533579446 -0.0546151455 -0.5541493834 0.0083629889 0.1933920279
790295260.0 0.0552265702 0.1754369952 -0.06053666 -0.5531764061 -0.0604539141 -0.5540861319 0.0111620439 0.1937217065
795295230.0 0.0574052587 0.175116838 -0.066111017 -0.5527104756 -0.0660467198 -0.5530733012 0.0128458802 0.1939724046
800295200.0 0.0593864391 0.1748284734 -0.0728431529 -0.552388947 -0.0729101074 -0.5521760205 0.0146819588 0.1937146081
805295170.0 0.0611188477 0.1740290954 -0.0782033073 -0.5505045521 -0.078275942 -0.5509647542 0.0162964985 0.1934871376
810295140.0 0.0630627206 0.173393152 -0.0838521232 -0.5500899754 -0.0841764163 -0.5504447402 0.0183986062 0.1941603585
815295110.0 0.0651650194 0.1731124858 -0.0903263721 -0.5492295124 -0.090263375 -0.5490426518 0.0199251315 0.1935540241
820295080.0 0.0671814019 0.1720802401 -0.0961435376 -0.548178733 -0.0961284077 -0.5483694447 0.021841136 0.1936827832
825295050.0 0.0688951326 0.1713256277 -0.1015830894 -0.5467090199 -0.1020535402 -0.5472519877 0.0242413224 0.1936394874
830295020.0 0.0709139828 0.1712760821 -0.1080862916 -0.5458273523 -0.1082919784 -0.5460905788 0.025621682 0.1933101891
