!Created with skrf (http://scikit-rf.org).
# Hz S RI R 50.0 
!freq ReS11 ImS11 ReS21 ImS21 ReS12 ImS12 ReS22 ImS22
300000.0 -0.1018270292 -0.06199836 0.6312602521 0.0586259335 0.6253288952 0.0588201916 -0.1019942593 -0.0708470395
5299970.0 -0.1020111828 0.0134635563 0.6305615915 0.0098015757 0.6308759149 0.0102549449 -0.1012395038 0.0133678303
10299940.0 -0.0973133048 0.0294986411 0.6340230452 0.0154802924 0.6342739638 0.0155899276 -0.0961609874 0.0302712572
15299910.0 -0.0902480693 0.0426947747 0.6404745529 0.0203838657 0.6408296564 0.0205151453 -0.0890312816 0.0436414183
20299880.0 -0.0818376018 0.0529892949 0.6484832972 0.0246991426 0.6485088264 0.0242575817 -0.0802832422 0.0544265009
25299850.0 -0.0725093746 0.0621814651 0.6581716146 0.0254583698 0.6579251942 0.0255764687 -0.0699914236 0.063074668
30299820.0 -0.0624002243 0.0688237695 0.6676119643 0.0243594893 0.6672438389 0.0245184726 -0.059978383 0.0700112567
35299790.0 -0.0526259814 0.0735602779 0.6768072187 0.0212635167 0.6774790097 0.0217116137 -0.0500986377 0.0747131936
40299760.0 -0.0435033056 0.0770954556 0.6862058413 0.0176110209 0.6866663806 0.0174669176 -0.0406192485 0.0772362391
45299730.0 -0.0340294036 0.0793139058 0.6949349261 0.0122659877 0.6956564729 0.0120605472 -0.0315316052 0.0796491089
50299700.0 -0.0256315163 0.0801380818 0.703445946 0.0049031396 0.703639366 0.0055773488 -0.0227990029 0.0805275212
55299670.0 -0.0175486883 0.0802931946 0.7107491361 -0.0031483257 0.7109438635 -0.0025054817 -0.0148465641 0.0802670514
60299640.0 -0.010020484 0.0802180174 0.7174110338 -0.011476423 0.7179913947 -0.0108027731 -0.0075860582 0.0793273463
65299610.0 -0.0036472063 0.0787554579 0.7229477071 -0.019752146 0.7234131197 -0.019839041 -0.0008457722 0.0784979323
70299580.0 0.0025435986 0.0777057699 0.7289574531 -0.029344378 0.7285505984 -0.0289124288 0.0051389116 0.0767206667
75299550.0 0.0081558828 0.0758562775 0.7324481065 -0.0385211376 0.7327731532 -0.0388314463 0.0104524131 0.0748608479
80299520.0 0.0132346548 0.0737027107 0.7372755678 -0.0486942319 0.7377559439 -0.0485571173 0.0150921572 0.0728539635
85299490.0 0.0177215988 0.0714099185 0.7402697328 -0.0584505262 0.7405060623 -0.0581539538 0.0196343297 0.0700580741
90299460.0 0.021867359 0.0690930161 0.7430239563 -0.0690606787 0.7439098294 -0.0685527886 0.0236631411 0.0678690081
95299430.0 0.0259798679 0.0663706093 0.7456506499 -0.0787149576 0.7459892446 -0.0794093002 0.0277531442 0.0656339751
100299400.0 0.0289521802 0.0645136277 0.7469911457 -0.0882976254 0.7473652102 -0.0889109494 0.0312909869 0.0629266869
105299370.0 0.0323620415 0.061851225 0.7485896658 -0.0994413248 0.7493840316 -0.0987817436 0.0342980796 0.0608315705
110299340.0 0.0352296716 0.0596526147 0.7501456301 -0.1089538296 0.7497821462 -0.1088600894 0.0364656288 0.0580779366
115299310.0 0.0375484216 0.0573751376 0.7506506557 -0.1192402936 0.751017579 -0.11930491 0.0389313667 0.0556073766
120299280.0 0.0398903639 0.054399005 0.7510060445 -0.1292415907 0.7519523502 -0.1292656894 0.0416454523 0.0533937318
125299250.0 0.041896899 0.0521892454 0.7515114625 -0.1387644671 0.7520791717 -0.1386417688 0.0429250307 0.0505770567
130299220.0 0.0434241193 0.0501117679 0.7511986917 -0.1489261359 0.7517217765 -0.1484221682 0.0449424747 0.0484073535
135299190.0 0.0451787343 0.0482995005 0.7517408797 -0.1589289225 0.7510568465 -0.1585325347 0.0462843327 0.046395498
140299160.0 0.0465677527 0.0462936976 0.7509589247 -0.1684824153 0.7511408851 -0.1688004308 0.047979556 0.0447144914
145299130.0 0.0479859976 0.0439429968 0.7498772896 -0.179036605 0.7497932708 -0.1779909879 0.0490957837 0.0426654677
150299100.0 0.0495309326 0.0422546105 0.748591123 -0.1870487721 0.749078247 -0.1875570926 0.0504141546 0.0403250958
155299070.0 0.0500220978 0.0397324089 0.7479027625 -0.1982815996 0.747805181 -0.1973798224 0.0515947094 0.0385439702
160299040.0 0.05158345 0.0382838016 0.7460468618 -0.2067033205 0.746017785 -0.2072601079 0.0519158593 0.0364240616
165299010.0 0.0522453247 0.036552472 0.7446093387 -0.2169275891 0.744907697 -0.2169311676 0.0532438217 0.0348860892
170298980.0 0.0531155729 0.0341808804 0.74243256 -0.2262137025 0.7432919434 -0.226153613 0.0537548214 0.0333197139
175298950.0 0.0535868285 0.0325221786 0.7417636925 -0.2353364609 0.741140354 -0.2354167796 0.0544650477 0.0314966064
180298920.0 0.0541428679 0.0307830377 0.7392607834 -0.2443056185 0.7391523925 -0.2442690119 0.0551975436 0.0298972984
185298890.0 0.0555609391 0.0290987604 0.7371077672 -0.2532871466 0.7366157671 -0.2538153048 0.0554442722 0.0283685604
190298860.0 0.0552990381 0.027530705 0.7341356293 -0.2631106539 0.735039109 -0.2626752122 0.0561651216 0.0263930819
195298830.0 0.0561767556 0.0254890818 0.7318861721 -0.2718921756 0.7322869613 -0.2716140518 0.0569716948 0.0249941065
200298800.0 0.0565102162 0.0240842616 0.7289601189 -0.2809733785 0.7292317057 -0.2814142765 0.0569666615 0.0236984843
205298770.0 0.0568673875 0.0230497967 0.7258727063 -0.2898509957 0.7265849404 -0.2893768228 0.0570943694 0.0214136367
210298740.0 0.0571195353 0.0211011227 0.7235164436 -0.2981080297 0.7232899032 -0.2977177766 0.0578388822 0.0208211741
215298710.0 0.0569386933 0.0198374057 0.7208040224 -0.307085438 0.7204965379 -0.3071069881 0.05783728 0.019377253
220298680.0 0.0576617733 0.017710178 0.7169790313 -0.3155821765 0.7172505377 -0.3156859445 0.057605947 0.0176886661
225298650.0 0.0579540353 0.0167324223 0.7138047887 -0.3245016553 0.714333532 -0.3244629308 0.0574325355 0.0160853294
230298620.0 0.0581378681 0.015788608 0.7108329496 -0.3324276767 0.7114705301 -0.3327209839 0.0575556474 0.0146831779
235298590.0 0.057891359 0.014711124 0.707040513 -0.3414582855 0.7070049032 -0.3404706523 0.0579098629 0.0136438626
240298560.0 0.0581316551 0.0134928867 0.7033286974 -0.3496953864 0.7033173421 -0.3501277125 0.0580047301 0.012834586
245298530.0 0.0580411144 0.0121689521 0.7000255156 -0.3585017275 0.7003511252 -0.3581853579 0.058608508 0.0108717472
250298500.0 0.058616911 0.0112092578 0.6955824845 -0.3662272531 0.6949755914 -0.3657880704 0.058238404 0.0104842425
255298470.0 0.0585619037 0.0093303833 0.6916906103 -0.3743957469 0.6921813844 -0.3740734767 0.058529943 0.0089735345
260298440.0 0.0581862503 0.0080398628 0.6880600114 -0.3826252421 0.6879985961 -0.382189609 0.0586223692 0.0078950584
265298410.0 0.0589379487 0.0076679485 0.6836689439 -0.3908583368 0.6843674015 -0.3901214707 0.0584265376 0.0068093594
270298380.0 0.0584659473 0.0062093038 0.6800992724 -0.3984373766 0.6796312784 -0.3983879341 0.0583993469 0.00607282
275298350.0 0.05889371 0.0051285835 0.6756281254 -0.4069517664 0.6756906507 -0.4065177865 0.0585789958 0.0043708146
280298320.0 0.0585694791 0.0044025836 0.6711525225 -0.414635295 0.6708308119 -0.4140198005 0.058977501 0.0036813929
285298290.0 0.0586667741 0.0031815869 0.6670126865 -0.4220052724 0.6669395017 -0.4221434056 0.058627997 0.0026219587
290298260.0 0.0588468799 0.0020858561 0.66240603 -0.4292952695 0.6624933445 -0.4299258381 0.0589250814 0.0019395552
295298230.0 0.0589365188 0.0008426118 0.6578175282 -0.4378629495 0.6575363949 -0.43732592 0.0594879951 0.0006919166
300298200.0 0.0581607319 -0.0002128633 0.65321317 -0.4448667149 0.6533001265 -0.4456624579 0.0587945692 -0.0002314248
305298170.0 0.0588319955 -0.0011493218 0.6478207642 -0.453565697 0.6477309282 -0.4530384651 0.0593308032 -0.0019566418
310298140.0 0.0583504338 -0.002377553 0.6429418049 -0.4606548159 0.6435811843 -0.4601226241 0.0590942596 -0.0024096961
315298110.0 0.0581720791 -0.0039244773 0.6379348212 -0.4680961629 0.6385791856 -0.4683456496 0.0584058429 -0.0039609237
320298080.0 0.0586626887 -0.0048129353 0.6321644266 -0.476655792 0.6324794855 -0.4754810924 0.0585234637 -0.0051615763
325298050.0 0.0576607424 -0.0059942075 0.6273192167 -0.4839276034 0.6272563636 -0.4832398275 0.0579177775 -0.0060228022
330298020.0 0.0573929615 -0.0070188512 0.6216957409 -0.4907980894 0.6221872738 -0.4907260247 0.0570028626 -0.0072955099
335297990.0 0.0569221618 -0.0083963564 0.6163504901 -0.4977542675 0.6156969125 -0.497116662 0.0562536472 -0.0074406177
340297960.0 0.0562127776 -0.0090910755 0.6099121858 -0.5046972185 0.6096506519 -0.5049338014 0.0566858639 -0.008466202
345297930.0 0.0559499249 -0.008891119 0.6048462103 -0.5117359262 0.6046078786 -0.5120440372 0.0563196524 -0.0096051799
350297900.0 0.0552272541 -0.0108584537 0.5979300459 -0.518969153 0.5977051872 -0.5179169938 0.0550305419 -0.0097526028
355297870.0 0.0549214064 -0.0103523434 0.5925355687 -0.5249804224 0.5929529018 -0.5249774264 0.0550732747 -0.0106275951
360297840.0 0.0548767773 -0.0112407579 0.5873950255 -0.5316547021 0.5878037336 -0.5314260467 0.0548902304 -0.0112275433
365297810.0 0.0539923036 -0.0115986412 0.5814925936 -0.5384833509 0.5818761255 -0.5386333104 0.0544631217 -0.0118448282
370297780.0 0.0544096778 -0.0128988655 0.5751153323 -0.5444376399 0.5755881886 -0.5440936645 0.0540856142 -0.012451145
375297750.0 0.054069908 -0.0135582232 0.569085017 -0.5511896057 0.5698659369 -0.5513139696 0.0542479576 -0.013041451
380297720.0 0.0534496144 -0.0142193881 0.5627825076 -0.5580315517 0.5633531001 -0.5567975463 0.0533541644 -0.0139132653
385297690.0 0.0531233166 -0.0151437058 0.5567712553 -0.5635431882 0.5567556841 -0.5630736267 0.0533734179 -0.0145487485
390297660.0 0.0529769373 -0.0150557913 0.5513797325 -0.5702255016 0.5502596748 -0.5694219928 0.0529572619 -0.0152598958
395297630.0 0.0523248554 -0.0161236177 0.5441799451 -0.5758078318 0.5444930205 -0.5763666541 0.0531253285 -0.0157719328
400297600.0 0.052032934 -0.0166283409 0.5375691104 -0.5828540513 0.5378439074 -0.5821279794 0.0523667191 -0.0162013105
405297570.0 0.0513773437 -0.0175569548 0.5315011485 -0.588000918 0.5314374205 -0.5876914219 0.0517943966 -0.0171163472
410297540.0 0.0515739251 -0.0182028156 0.525300084 -0.5940394127 0.5251772136 -0.5942647563 0.0516345607 -0.0173514246
415297510.0 0.0513642376 -0.0187897839 0.5179891993 -0.5999391012 0.5187010196 -0.6000807199 0.0511646711 -0.0178793763
420297480.0 0.0508677851 -0.0189810369 0.511577613 -0.6054442238 0.5114698044 -0.6056071405 0.0509447335 -0.0190869789
425297450.0 0.0504747014 -0.0203299039 0.5054424628 -0.6110562975 0.5056988353 -0.6109236631 0.0498614724 -0.0189993967
430297420.0 0.0497672392 -0.0211110429 0.4979455789 -0.6161368462 0.4985711378 -0.6163222847 0.0500173311 -0.0200959711
435297390.0 0.0496198838 -0.0211623663 0.4912372313 -0.6221723332 0.4914682122 -0.6222411581 0.0503812642 -0.0204128288
440297360.0 0.0494531943 -0.0216827808 0.4842777998 -0.627536286 0.4848970645 -0.6281828515 0.0490362839 -0.0215041291
445297330.0 0.0485818367 -0.0227647712 0.4786465459 -0.6331368277 0.4785027518 -0.6324438493 0.0494135198 -0.0221172951
450297300.0 0.0485596896 -0.0231480834 0.4707091728 -0.6380945533 0.4709940295 -0.6388810202 0.0486270315 -0.0227957619
455297270.0 0.0483195517 -0.0235269356 0.4633717458 -0.6431440747 0.4639407619 -0.64362501 0.048164986 -0.0228935431
460297240.0 0.0476211469 -0.0241784969 0.4565647931 -0.6483929101 0.456779333 -0.6486543852 0.0478632601 -0.0230153777
465297210.0 0.0476904202 -0.0248261805 0.4496894338 -0.6540374156 0.4498327293 -0.6538924141 0.0477036059 -0.0243383432
470297180.0 0.0470397434 -0.0254246079 0.441872999 -0.6585692088 0.4423080354 -0.6587391442 0.0470703696 -0.0243782591
475297150.0 0.0467194532 -0.0261854552 0.4342363745 -0.6629463817 0.4352802199 -0.6630406118 0.0473352112 -0.0254514105
480297120.0 0.0460024517 -0.0258685551 0.4273784086 -0.668701099 0.4282189007 -0.6686567279 0.0467130023 -0.0255455038
485297090.0 0.0453455337 -0.0267187887 0.4207486024 -0.6725574455 0.4204450081 -0.6727873608 0.0465420036 -0.0264888211
490297060.0 0.044853692 -0.0275007576 0.4133962461 -0.677884937 0.4133183673 -0.6769778593 0.0460238356 -0.0260672138
495297030.0 0.0447486784 -0.0278519383 0.4055554819 -0.6817583652 0.4062879539 -0.6819785911 0.0451238397 -0.0271610795
500297000.0 0.0442083569 -0.0284226189 0.3979642367 -0.6864122688 0.3977129675 -0.6860252226 0.0448027102 -0.0274077146
505296970.0 0.0438530211 -0.0290487574 0.3903207691 -0.6904379684 0.3903980793 -0.6909308196 0.0443840518 -0.027905525
510296940.0 0.0434281813 -0.0290625836 0.3828595235 -0.6954438281 0.3830752901 -0.6951455852 0.0445268127 -0.0280142186
515296910.0 0.0426202026 -0.0294214126 0.3749218756 -0.6995967983 0.3752305069 -0.6986869644 0.0436718318 -0.0286740802
520296880.0 0.0424217722 -0.0303038586 0.3676411569 -0.7043662794 0.3674615055 -0.703345582 0.0430251626 -0.0296186232
525296850.0 0.0424203885 -0.0311914508 0.3597539084 -0.707363606 0.3600956782 -0.7073333344 0.0421537008 -0.0297642975
530296820.0 0.0415256133 -0.0312053555 0.3515655542 -0.711945562 0.3517122685 -0.7112433904 0.0422198801 -0.0300010231
535296790.0 0.0405767534 -0.0316426667 0.3441750916 -0.7153921786 0.344443839 -0.7147351668 0.0418000926 -0.0312275447
540296760.0 0.0404081544 -0.0315946178 0.3363509188 -0.7195218244 0.336163763 -0.7188526937 0.0408183462 -0.0305818608
545296730.0 0.0397110791 -0.0326642828 0.3278497688 -0.722404853 0.3287728304 -0.7226166804 0.040272033 -0.0314103973
550296700.0 0.0397817743 -0.0325668961 0.3202123309 -0.7262572325 0.3204036986 -0.7263297049 0.0397396072 -0.0319455254
555296670.0 0.0388897121 -0.0331463438 0.3129264604 -0.729485789 0.3128289379 -0.7296184624 0.0395758414 -0.0319971835
560296640.0 0.038672248 -0.0333375603 0.3046330747 -0.7328117736 0.3046309589 -0.7331811332 0.0390540798 -0.0328725956
565296610.0 0.0375712098 -0.0339603495 0.295997067 -0.7363576143 0.2965482856 -0.7364969911 0.0382368625 -0.0334195557
570296580.0 0.0373561583 -0.0339805859 0.2882447063 -0.7399896687 0.2875418106 -0.7393792119 0.0379761737 -0.0328913103
575296550.0 0.0362871141 -0.0342572799 0.2800742426 -0.7429011623 0.2806443359 -0.7428568373 0.0376095171 -0.0338461337
580296520.0 0.0360350771 -0.0345941555 0.2718233158 -0.7458830803 0.2724688359 -0.7457016257 0.0369017436 -0.0341685659
585296490.0 0.0355383907 -0.03570961 0.2641898107 -0.7480838375 0.2642132882 -0.7486818384 0.036325491 -0.0342386738
590296460.0 0.0355894409 -0.0355823058 0.2556296127 -0.7507474891 0.2559460329 -0.7513259825 0.0351764584 -0.034617427
595296430.0 0.0351220561 -0.0357421154 0.2471906551 -0.7546832291 0.2472412953 -0.7541178446 0.0353832734 -0.0352739652
600296400.0 0.0340445873 -0.0364321021 0.2392821597 -0.7568393742 0.2393578838 -0.756522043 0.0344433477 -0.0357208338
605296370.0 0.0334648641 -0.0363585424 0.2310687752 -0.7591967589 0.2312900322 -0.7595576463 0.0339664912 -0.0356375674
610296340.0 0.0331533431 -0.0368747439 0.2221710961 -0.7617141596 0.2230968866 -0.7616437123 0.0339460638 -0.0360149524
615296310.0 0.032765228 -0.0377757428 0.21439251 -0.7640656406 0.2139047889 -0.7645450642 0.0333265225 -0.0361738171
620296280.0 0.0321492836 -0.0376628301 0.2061954441 -0.7665134408 0.2058491141 -0.7660897765 0.0325136302 -0.0366684538
625296250.0 0.0310201527 -0.0384508297 0.1983304939 -0.7689724171 0.1980167524 -0.769092403 0.0328838625 -0.0366646706
630296220.0 0.0318396227 -0.0382185167 0.1887003438 -0.7710033894 0.1888347972 -0.7704191663 0.0318958706 -0.036682621
635296190.0 0.0297424213 -0.0388066997 0.1810239313 -0.7726084776 0.1809134532 -0.772805869 0.0315006295 -0.0373197708
640296160.0 0.029665408 -0.0387469298 0.1720856123 -0.7743496868 0.1728462136 -0.7749162217 0.0306283032 -0.0375946637
645296130.0 0.0292216335 -0.038900538 0.1640201313 -0.7762056686 0.1641872257 -0.7764753992 0.0301650349 -0.037634772
650296100.0 0.0287086668 -0.0393704572 0.1554759135 -0.7779250671 0.1560146135 -0.7783758168 0.0303436843 -0.0386527172
655296070.0 0.0278141175 -0.039867342 0.147084851 -0.7799915445 0.1471807183 -0.7800423404 0.0295788297 -0.0380332355
660296040.0 0.0266337618 -0.040339394 0.1385333457 -0.7816149902 0.1387739486 -0.7815509276 0.028858946 -0.0385706692
665296010.0 0.0272943218 -0.0401770722 0.1294228276 -0.7828374682 0.1297581241 -0.7826864258 0.0282577441 -0.0381000033
670295980.0 0.0249436896 -0.0402795305 0.1212949518 -0.7840313453 0.1211793078 -0.7841980912 0.0271601659 -0.038797072
675295950.0 0.0253260334 -0.0401425339 0.1132631339 -0.7851594517 0.1129282323 -0.7853680961 0.0265350774 -0.0390920515
680295920.0 0.0241063237 -0.0410116482 0.103677418 -0.7862178906 0.103578908 -0.7868814947 0.0260963141 -0.0385048773
685295890.0 0.0241251347 -0.040364013 0.0951898955 -0.7876607003 0.09489151 -0.7880772906 0.0253570595 -0.0391061497
690295860.0 0.0236862935 -0.040679431 0.087176999 -0.7880160948 0.0871609237 -0.7888712034 0.0244997019 -0.0384442761
695295830.0 0.0231468515 -0.0412491471 0.0790110952 -0.7894507074 0.0780137967 -0.7893694213 0.0242511912 -0.0391477273
700295800.0 0.0223264526 -0.0415850684 0.0698858119 -0.7902136288 0.0696445874 -0.7899174405 0.0234359367 -0.0385617471
705295770.0 0.0214728435 -0.0407172161 0.0609620022 -0.7907957393 0.0618731828 -0.7912952954 0.0225122257 -0.0389534639
710295740.0 0.0213743725 -0.0411032532 0.0531507839 -0.7920734722 0.0530486453 -0.7923124392 0.0225314569 -0.0401130685
715295710.0 0.020014657 -0.0415935983 0.0442718784 -0.7924393435 0.0440712348 -0.7923929723 0.0220917313 -0.0398782219
720295680.0 0.0196097351 -0.0418584796 0.0356057834 -0.7930796886 0.036055321 -0.7924740723 0.0211967996 -0.039367522
725295650.0 0.0192632579 -0.0416322725 0.0263845813 -0.7931866325 0.0269392206 -0.7932888573 0.0201724828 -0.0395437366
730295620.0 0.0189596459 -0.0415881556 0.0184750687 -0.7926167607 0.0180324806 -0.7934466586 0.0194558473 -0.0401606001
735295590.0 0.0180296013 -0.041450323 0.0097165732 -0.7936891215 0.0093664182 -0.7933974434 0.01900741 -0.0406050991
740295560.0 0.0169923075 -0.0417003571 0.0008434691 -0.7928853908 0.0008182722 -0.793349832 0.0187603094 -0.0400015784
745295530.0 0.0169046831 -0.0416278146 -0.0076208013 -0.7923175534 -0.0080177555 -0.7934680159 0.0184891582 -0.0405128301
750295500.0 0.0162199342 -0.0420790522 -0.0163300373 -0.7926222413 -0.0160226697 -0.7932504166 0.0176995439 -0.0404254546
755295470.0 0.0156506271 -0.0422499344 -0.0244059702 -0.7923873475 -0.0243814575 -0.79330826 0.017585694 -0.0410815125
760295440.0 0.0147894237 -0.0419239334 -0.0337432338 -0.7929166514 -0.0338436221 -0.7927179612 0.0165088923 -0.0405415651
765295410.0 0.0142672139 -0.0418279216 -0.0427331824 -0.7918289044 -0.0428978904 -0.7927612564 0.0162942863 -0.0406557478
770295380.0 0.0133119417 -0.0421964125 -0.0510484208 -0.7919043128 -0.0508387287 -0.7916741667 0.0153060909 -0.0409920295
775295350.0 0.0128076184 -0.0427428539 -0.0595046419 -0.7905376322 -0.0595705426 -0.790812274 0.0139439317 -0.0400444502
780295320.0 0.0126728216 -0.0421920423 -0.0681157507 -0.7898670724 -0.0674188102 -0.7903833 0.0137658251 -0.0410816321
785295290.0 0.0114906796 -0.0428669197 -0.0769477283 -0.7889732156 -0.0765691937 -0.7894945757 0.0138716758 -0.0407714262
790295260.0 0.0117184605 -0.0416991923 -0.0845692991 -0.7882613253 -0.0840519601 -0.7880245805 0.0131880483 -0.0406325804
795295230.0 0.0108108521 -0.0423577221 -0.0938287193 -0.7870866518 -0.0932669279 -0.7875379245 0.0130855293 -0.0402593428
800295200.0 0.0097909724 -0.0417451485 -0.1032899921 -0.7857184329 -0.1020627013 -0.7864375183 0.0121374162 -0.0408318105
805295170.0 0.0092552295 -0.0424054036 -0.1108458141 -0.7852505606 -0.1111030007 -0.7853733517 0.0109831169 -0.0404357375
810295140.0 0.0080253038 -0.0426067054 -0.1190943273 -0.7836687172 -0.1191540115 -0.7841373414 0.011282236 -0.0400727675
815295110.0 0.0080815646 -0.0428566736 -0.1279842771 -0.7818495666 -0.1277034096 -0.7825919808 0.0100489242 -0.0401520341
820295080.0 0.0069161822 -0.0417292379 -0.1361821208 -0.7807797144 -0.135584564 -0.7811559956 0.0095716399 -0.0401410706
825295050.0 0.0072600806 -0.0421079283 -0.1442678517 -0.7794027314 -0.1446688392 -0.7796024585 0.0093508109 -0.040068652
830295020.0 0.0062548393 -0.0416951285 -0.1537234009 -0.777287406 -0.1532215517 -0.777425598 0.0095674959 -0.0395730713
