!Created with skrf (http://scikit-rf.org).
# Hz S RI R 50.0 
!freq ReS11 ImS11 ReS21 ImS21 ReS12 ImS12 ReS22 ImS22
300000.0 -0.0476509915 -0.0398676694 -0.0004306221 0.0003869368 -0.0005125688 0.0010881226 -0.7797145546 -0.1178472243
5299970.0 -0.0500317166 0.0160253465 -0.000142927 6.27793e-05 6.1352e-06 0.0003260024 -0.7859355697 -0.0068553079
10299940.0 -0.0443652289 0.0326600656 0.0002128584 -0.0001324899 -0.0001036884 -1.78462e-05 -0.7886924963 -0.00330188
15299910.0 -0.036111209 0.0473643132 0.000133714 -3.93025e-05 -0.0001094943 4.16376e-05 -0.7940044877 -0.0013034529
20299880.0 -0.0264428065 0.058826889 -8.79037e-05 6.8498e-06 -1.8963e-06 -3.7469e-06 -0.8007534833 0.0021991919
25299850.0 -0.0154364535 0.0682109762 -1.86032e-05 0.0002003209 -8.51246e-05 0.000108734 -0.8066740582 0.0079437204
30299820.0 -0.0041517163 0.0748191426 1.3562e-05 7.45873e-05 -8.6433e-06 -9.21502e-05 -0.812906334 0.0161739157
35299790.0 0.0070670727 0.0796921458 5.39119e-05 7.08788e-05 1.39459e-05 -6.29714e-05 -0.8179955811 0.0251880408
40299760.0 0.018397907 0.0829689808 0.0001831003 -1.40055e-05 0.0002152047 4.59713e-05 -0.8215913679 0.0342803959
45299730.0 0.0292394383 0.0843858568 3.45128e-05 -7.36602e-05 0.0001208064 0.0002007712 -0.8254238021 0.0437650317
50299700.0 0.039003615 0.084493288 0.000151578 -0.0002456558 -3.8081e-06 6.8947e-06 -0.8279598041 0.0537634323
55299670.0 0.0483294023 0.0833540085 -2.29601e-05 0.0002445007 0.0001767406 0.0002388598 -0.8296163868 0.0640749339
60299640.0 0.0568215138 0.0820040161 -8.43802e-05 0.0001383579 3.70483e-05 3.69378e-05 -0.830491317 0.0737971337
65299610.0 0.0645987679 0.0793784707 -2.88862e-05 2.56367e-05 2.52399e-05 -0.0001137007 -0.8316592449 0.0838841113
70299580.0 0.071526475 0.0769602811 0.0001682144 0.0001985402 -8.48311e-05 5.46077e-05 -0.8318400666 0.0945100662
75299550.0 0.0779560678 0.0737463084 0.0001078868 -6.19077e-05 0.0001947272 9.89884e-05 -0.832219383 0.1034262171
80299520.0 0.0836596012 0.0706200604 3.35575e-05 2.38725e-05 -2.17734e-05 0.0001590326 -0.8320058847 0.1136290685
85299490.0 0.0887608863 0.0668339592 0.0001760151 1.07527e-05 -1.71342e-05 -0.0002005269 -0.8318786066 0.1232508642
90299460.0 0.0934266337 0.0634132641 0.0002222078 2.56618e-05 -0.0001684403 9.26776e-05 -0.8309015512 0.1329213365
95299430.0 0.0975547788 0.0592017069 -0.0002602429 7.82216e-05 0.0001071227 0.0001019968 -0.8293223921 0.1428314534
100299400.0 0.1011634943 0.0558156291 0.0001201828 -2.99617e-05 -0.0001426797 9.35595e-05 -0.8285954924 0.1522897612
105299370.0 0.104312238 0.0519716101 0.0001040902 9.29123e-05 -0.0002152284 0.0001448833 -0.8268648037 0.1608489823
110299340.0 0.1074918734 0.0480262541 6.86798e-05 0.0002341868 -5.6314e-06 -2.43856e-05 -0.8256976681 0.1708987391
115299310.0 0.1102778065 0.0442228915 0.0001136016 0.000194022 9.04539e-05 -0.0001263088 -0.8243584512 0.1800940166
120299280.0 0.1121811529 0.0402652248 -0.0001156313 5.0556e-05 -2.50458e-05 3.881e-07 -0.8224857247 0.1889491828
125299250.0 0.1139899854 0.0365778241 -9.28014e-05 5.4773e-06 5.4483e-06 -2.58292e-05 -0.8211472693 0.1981179533
130299220.0 0.1157878143 0.0333104073 7.99429e-05 7.38386e-05 -0.0001270851 -7.82213e-05 -0.8195583254 0.2069460401
135299190.0 0.1177958597 0.0300417321 0.000267119 0.0003697309 0.0003546792 0.0001330063 -0.8171607142 0.2162530721
140299160.0 0.1185767009 0.0262660738 0.0001531906 3.96248e-05 -2.38321e-05 5.77148e-05 -0.8153735238 0.2250303185
145299130.0 0.1196968093 0.0227278532 0.0002404817 1.79321e-05 2.21589e-05 6.06268e-05 -0.8131052119 0.234020128
150299100.0 0.1210892492 0.0194781101 0.0002574666 -0.0001581232 5.71407e-05 8.7508e-06 -0.8113165712 0.2429135178
155299070.0 0.1214485036 0.0161641263 4.45925e-05 -7.0428e-06 0.000127323 0.000111355 -0.8086434281 0.2519897163
160299040.0 0.1222858144 0.0133660209 0.0001841441 0.0001865403 9.73578e-05 -8.47126e-05 -0.8062827938 0.2605612995
165299010.0 0.1229799419 0.0099061369 0.0001670684 1.49676e-05 0.0001275801 0.0001587264 -0.8036683557 0.2693592946
170298980.0 0.1231029909 0.0070671293 -2.6148e-05 0.0002765372 0.0002372816 0.0001485173 -0.8007127011 0.2777694991
175298950.0 0.123503655 0.0040553969 -1.4527e-06 -1.69423e-05 7.49051e-05 0.0002332872 -0.7976688981 0.2869674672
180298920.0 0.1237553257 0.0012249619 0.0001175113 0.0001819851 -7.23836e-05 0.0002950005 -0.7945655056 0.2952945325
185298890.0 0.1241704668 -0.0015205821 -1.57515e-05 0.0001076821 -0.0001249396 0.0002730315 -0.7911888518 0.3037142851
190298860.0 0.1241029716 -0.0043477444 -0.0002010654 4.48732e-05 -0.0001184195 0.0001538526 -0.7887413099 0.3117059107
195298830.0 0.1238076621 -0.0071893854 4.79807e-05 -3.52677e-05 0.000122398 -2.74768e-05 -0.7855092678 0.3203429883
200298800.0 0.1239647584 -0.0097402291 0.000222928 0.0001579078 0.0002919349 -6.25286e-05 -0.7826490602 0.3288213528
205298770.0 0.1238050029 -0.0121263394 0.0001540136 3.21173e-05 0.0002536164 0.000112969 -0.7781385668 0.3372287329
210298740.0 0.1235141174 -0.0148932058 0.0004020543 0.0001824217 7.8646e-06 8.38665e-05 -0.7750498276 0.3450776044
215298710.0 0.1230529295 -0.0171320203 0.0001389472 0.0002600513 0.0001809821 -7.06953e-05 -0.7713159503 0.3535257832
220298680.0 0.1228203123 -0.0198097633 3.697e-07 -5.9464e-06 -5.91732e-05 0.0001995729 -0.7679212148 0.3614350071
225298650.0 0.1223863163 -0.0219842835 0.0002127347 -1.03476e-05 4.48256e-05 0.0001087223 -0.764116312 0.3694426998
230298620.0 0.1218246783 -0.0243562491 0.0002739553 5.00274e-05 0.0001611108 0.0002297245 -0.7601029414 0.3778580984
235298590.0 0.1214076759 -0.0264605395 0.0002270889 0.00025706 8.02709e-05 0.0001520643 -0.7561918622 0.3863529602
240298560.0 0.1209806144 -0.029032732 -5.95851e-05 0.000181756 0.0001176751 2.76431e-05 -0.7515575426 0.3945515284
245298530.0 0.120325701 -0.0309502052 9.61824e-05 0.0001400487 0.0002331081 0.0002217357 -0.7475529922 0.4018791178
250298500.0 0.1197743728 -0.0329299353 2.83782e-05 0.0001690229 1.4844e-06 0.0001030633 -0.7435213105 0.4096021306
255298470.0 0.1187601535 -0.0353213624 0.0002101304 0.000133502 0.0001438174 0.0001476992 -0.7387593284 0.4174455814
260298440.0 0.118258742 -0.0371286783 0.0001338504 0.0001975997 0.000174426 2.75854e-05 -0.7350784924 0.4257290333
265298410.0 0.1174473619 -0.0389701634 0.0002669723 0.0001082995 -1.5031e-05 0.000104739 -0.7304090422 0.4333996742
270298380.0 0.1167982403 -0.0411128136 0.0001940332 0.0002423452 0.0001122595 0.000211693 -0.725220087 0.4410989701
275298350.0 0.1162943983 -0.0429209491 0.0001001383 2.4112e-06 4.10483e-05 0.0001874393 -0.7209191546 0.4481593506
280298320.0 0.115182764 -0.044945781 -7.66781e-05 0.00036831 0.0002798795 0.0001632883 -0.716392603 0.4558754317
285298290.0 0.1148541109 -0.0465716361 0.0003358602 0.0002022311 0.0002066624 0.0001209291 -0.7111381273 0.4635210922
290298260.0 0.1141048254 -0.0483283861 -9.63391e-05 7.2467e-06 0.0001315497 0.0002304715 -0.7067595879 0.4711755055
295298230.0 0.1132129914 -0.0503824372 0.0001254135 0.0002580449 0.0001993647 0.0001150831 -0.7016434864 0.4780154311
300298200.0 0.1122311032 -0.0519060381 0.0002034233 0.0001030413 3.76055e-05 0.0001277947 -0.6969318643 0.4856349901
305298170.0 0.1114948427 -0.0537165107 9.55442e-05 0.0001412592 -3.87337e-05 0.0001488338 -0.6910139641 0.4933595078
310298140.0 0.1104822048 -0.0552419263 -3.61825e-05 6.6299e-06 0.0001547661 4.86075e-05 -0.6865069311 0.5000904384
315298110.0 0.1101924471 -0.0573280447 0.0001099094 -0.0001135115 2.31627e-05 0.0001962754 -0.6811676727 0.5074874427
320298080.0 0.1087354016 -0.0592928829 0.0001517135 0.0001961487 0.0001715399 0.0001586474 -0.6756763898 0.5146425801
325298050.0 0.1076975522 -0.0610332426 -8.7177e-06 0.0003188483 0.0001754232 0.0002611873 -0.6700554495 0.5214172712
330298020.0 0.1062813302 -0.062865691 0.0002998516 0.0001378452 -6.68949e-05 1.27775e-05 -0.6645829023 0.5283379318
335297990.0 0.1050397709 -0.0644521904 -7.41186e-05 1.45027e-05 0.0003638739 0.0001002596 -0.6597505732 0.5354696327
340297960.0 0.1034606452 -0.0658153161 9.21592e-05 0.000130901 8.67522e-05 0.000233403 -0.6537230344 0.5423978754
345297930.0 0.1023360804 -0.0670299896 6.93909e-05 -0.0001529373 2.63924e-05 0.0003089542 -0.6476114356 0.5484551339
350297900.0 0.1011402458 -0.0682353251 0.0002022665 0.0001036006 0.0003632648 7.93715e-05 -0.6420240319 0.555642458
355297870.0 0.1000264861 -0.0696259233 9.21513e-05 0.000155666 0.0002235118 7.5772e-05 -0.6364712512 0.5615980495
360297840.0 0.0989462553 -0.0709479614 0.0001549494 0.0001706491 0.0003286954 -4.718e-05 -0.6303329594 0.5686722801
365297810.0 0.0974172702 -0.0720150838 0.0002910971 0.0001332531 0.0002431258 8.43482e-05 -0.6239444977 0.5750374771
370297780.0 0.0965987919 -0.0734096561 0.0003905441 6.14915e-05 0.0002607794 0.0001336312 -0.6178602186 0.5815536725
375297750.0 0.0954995603 -0.0745547605 0.0002454138 0.0001074709 -0.0001296876 0.0001579534 -0.6125955442 0.5876615193
380297720.0 0.0942281222 -0.0758617164 -4.38874e-05 2.92236e-05 0.00028621 0.0001631685 -0.6065226882 0.5940750157
385297690.0 0.0928350631 -0.0769680029 0.0002432418 0.0001691695 0.0001713103 -7.29308e-05 -0.6000600205 0.6005189942
390297660.0 0.0914818409 -0.0779803994 0.0002433372 0.0002427058 0.0003352398 0.0001665986 -0.5936769606 0.6063090061
395297630.0 0.0906982971 -0.0792807622 0.000164703 -0.0002044933 4.0328e-05 0.0001427472 -0.5865897162 0.6124873427
400297600.0 0.089345856 -0.0802248975 0.0002341259 6.45663e-05 0.0001977573 0.0002109365 -0.5808104754 0.6183116868
405297570.0 0.0879023933 -0.0812899137 0.0002009903 1.59749e-05 8.2598e-06 0.0001689409 -0.5743406615 0.6247291698
410297540.0 0.086536469 -0.0825702391 0.0002761425 0.000153651 0.0002389791 0.0001364508 -0.5680716598 0.6303848515
415297510.0 0.0855556877 -0.0838766298 0.000309675 0.0002300685 0.0003839195 4.90902e-05 -0.5609469898 0.6359886841
420297480.0 0.0842481727 -0.0845523408 0.0001131813 9.85569e-05 0.0001365436 0.0001264916 -0.5547122345 0.6422345775
425297450.0 0.0829185735 -0.0856422091 0.0002390827 -1.8042e-06 0.0003727462 0.0002139473 -0.5483528382 0.6474036653
430297420.0 0.0817783658 -0.0867228804 0.0002493513 0.0001458233 0.0002248706 0.0001736668 -0.5415725005 0.6527598591
435297390.0 0.0804562832 -0.087564914 0.0002679367 4.48086e-05 8.81263e-05 1.15547e-05 -0.5343547548 0.6584393987
440297360.0 0.0789258558 -0.0885141719 0.0002157287 0.0002814335 0.0002428022 8.47343e-05 -0.5277273352 0.6641875905
445297330.0 0.0775800332 -0.0895737796 0.0002924423 0.0001301538 0.0002047409 3.91733e-05 -0.5208497509 0.6686615006
450297300.0 0.0764275933 -0.0904589756 0.0003841311 0.000100879 0.0001457279 4.1537e-06 -0.5137872577 0.674365623
455297270.0 0.0749069962 -0.0911826142 0.0003085166 1.39775e-05 0.000415048 0.0003420785 -0.5069007491 0.6789098546
460297240.0 0.073616655 -0.0918519067 0.0003706125 0.0002214504 0.0002377526 0.0001090017 -0.5004079012 0.6844237339
465297210.0 0.0724042615 -0.0928736124 0.0001821924 0.0001836102 0.0004102466 0.0001784581 -0.4929777257 0.6893576179
470297180.0 0.0711020608 -0.093461588 0.0003475869 -3.4246e-05 0.0003235565 9.34805e-05 -0.4854709957 0.6945868093
475297150.0 0.0696963808 -0.0945076969 0.0004058916 0.0003918542 9.3968e-05 0.0002593026 -0.4785910925 0.6989572956
480297120.0 0.0683250558 -0.0950007778 0.0002288619 -0.0001447682 0.0002043034 0.0003243364 -0.47109352 0.7040302385
485297090.0 0.0668718618 -0.0958194884 0.0002923566 7.08792e-05 0.0002996841 8.5829e-06 -0.464377382 0.709104255
490297060.0 0.0651710929 -0.0962980167 0.0001946486 0.0002579186 0.000215871 0.0002223961 -0.45680842 0.713304357
495297030.0 0.0639905577 -0.0971865917 0.000160418 -0.0001021993 0.0002395542 -9.2852e-06 -0.4494446684 0.7180425644
500297000.0 0.0626906469 -0.0978986417 0.0002229101 0.0002617757 0.0001658585 0.0001064345 -0.4422437867 0.7229501823
505296970.0 0.0616093866 -0.0983950017 0.0001918765 -4.97571e-05 0.0001766388 0.0001698495 -0.434527046 0.7268766145
510296940.0 0.0601711292 -0.0993171055 0.0001543654 8.67303e-05 0.0003076171 0.0001517165 -0.4269059691 0.7315431812
515296910.0 0.0586627818 -0.0998671562 0.0002302033 0.0003297812 0.0001915039 7.32912e-05 -0.4197916421 0.7356109363
520296880.0 0.0570069854 -0.1002061675 0.0003327498 7.77783e-05 8.47462e-05 -2.78913e-05 -0.4118918428 0.739400473
525296850.0 0.0560490042 -0.1013008474 4.22975e-05 1.43941e-05 0.0004949642 0.0001746739 -0.4044561984 0.7437911544
530296820.0 0.0545948769 -0.1016157513 0.0002424475 0.0001486186 0.0001868522 6.99686e-05 -0.3970739446 0.7477272659
535296790.0 0.0528708796 -0.1019472162 0.0004454 0.0001854159 0.0003530787 -2.09171e-05 -0.3900204605 0.751689517
540296760.0 0.0513820349 -0.1025580227 0.0001810215 -7.2974e-06 0.0003359712 0.0001248778 -0.3821452524 0.7553411605
545296730.0 0.049814221 -0.1029593383 0.0002915266 6.13103e-05 0.0003896721 -4.21438e-05 -0.3743134523 0.7592375611
550296700.0 0.0488796177 -0.103359406 0.0002133772 0.0001174606 0.0003083282 0.0001076257 -0.3664452636 0.7629342361
555296670.0 0.0470183387 -0.1039852765 0.0001528763 0.0001170426 0.0002065332 1.73049e-05 -0.3585445018 0.7669264267
560296640.0 0.045995614 -0.104369052 0.0003063241 1.69234e-05 0.0004162609 -9.16886e-05 -0.3505132946 0.7702367842
565296610.0 0.0442457139 -0.1048330751 0.000251657 0.0002456961 0.0002318483 0.0001300043 -0.3430348806 0.7737079596
570296580.0 0.0428359154 -0.1050749119 0.0004175331 -8.68621e-05 0.0004333923 9.6848e-05 -0.3352612789 0.7770685198
575296550.0 0.0413705297 -0.1052225722 0.0004217729 4.90914e-05 0.0003852991 0.0002883943 -0.3271544056 0.7808470516
580296520.0 0.0403270757 -0.1058722914 0.000309729 0.0001121818 0.0001693908 -9.5862e-06 -0.3191536671 0.7834314972
585296490.0 0.0383347189 -0.1065673939 0.0003129255 -0.0001279277 0.0001958192 1.35249e-05 -0.3109496383 0.7869361633
590296460.0 0.0372356141 -0.1064056412 0.0004709203 3.88263e-05 0.0003862449 -9.03971e-05 -0.3035602227 0.7901796427
595296430.0 0.0358204543 -0.1069307434 0.0001215039 2.67254e-05 0.000115455 7.43068e-05 -0.2953783794 0.7930809183
600296400.0 0.0341223958 -0.1071565807 0.000349552 -3.5785e-05 0.0004555428 3.26069e-05 -0.2873570602 0.7957559633
605296370.0 0.0328073789 -0.1072301285 0.0002462966 -1.88306e-05 0.0003859049 -8.45454e-05 -0.2786965019 0.7985512282
610296340.0 0.0310444919 -0.1075746521 0.0004058477 -4.6604e-06 0.0003492641 -0.0001704706 -0.2704952322 0.8010134325
615296310.0 0.0301152506 -0.1075147018 0.0004469513 -7.16e-06 0.0004029106 -1.21851e-05 -0.2618608651 0.8035080237
620296280.0 0.028390462 -0.1079210304 0.000256226 3.8518e-05 0.0002797812 8.79054e-05 -0.255150867 0.8070364314
625296250.0 0.0269161504 -0.1083128971 0.0002572346 -5.767e-07 0.0002990978 -3.90438e-05 -0.2460969242 0.8086673957
630296220.0 0.0257352981 -0.1083987238 0.0002575892 3.16828e-05 0.0002633933 -9.4014e-06 -0.2376839066 0.8114959406
635296190.0 0.0240388009 -0.1083465206 0.0005488502 0.000205045 0.0001923294 0.0001132677 -0.2301997472 0.8136687155
640296160.0 0.0227035267 -0.1082966957 0.0002853324 -4.97905e-05 0.0002080453 4.68935e-05 -0.2222800471 0.8163764743
645296130.0 0.02107635 -0.1085989726 0.0003703949 8.63514e-05 0.0005378672 0.0002272328 -0.2136930561 0.8184177074
650296100.0 0.0199811192 -0.1083368272 0.0004709825 3.83747e-05 0.000409201 -0.0002012841 -0.2057011644 0.8201791051
655296070.0 0.0182326271 -0.1085781725 0.0003266956 2.40135e-05 0.0003847589 -0.0001012498 -0.1967797158 0.8220066486
660296040.0 0.016783474 -0.1084673385 0.000263411 0.0002115987 0.0002251776 -0.0001204567 -0.1884228307 0.8242459494
665296010.0 0.0158608372 -0.1089537273 0.0002385131 0.0001230804 0.0003819498 -8.04954e-05 -0.1801174122 0.8264004683
670295980.0 0.013773188 -0.1084616204 0.0004934668 3.19309e-05 0.0005697624 0.0001103733 -0.1729862954 0.8272375512
675295950.0 0.0124683871 -0.1084424517 0.000471655 -0.0001283158 0.0002463933 -5.86599e-05 -0.1650779477 0.8297836644
680295920.0 0.0109991379 -0.1084898608 0.0001951645 1.38625e-05 0.0001987205 0.0002190436 -0.1557877739 0.8319730465
685295890.0 0.0099794949 -0.1082043589 0.0005038058 -0.0002613458 0.0003744725 -0.0002155513 -0.1470940858 0.8320741186
690295860.0 0.0082786046 -0.1081292283 0.0003272 -6.50941e-05 0.0005705812 -0.0001119859 -0.1391690532 0.8339939398
695295830.0 0.0067523039 -0.1080093014 0.0003913779 -3.50971e-05 0.0003638584 0.0001327422 -0.1302124503 0.8353548633
700295800.0 0.0051472898 -0.108070601 0.0002196231 -0.0001508797 0.0003366232 -2.43522e-05 -0.1230964995 0.8361801421
705295770.0 0.0035976613 -0.1077747941 0.0002979338 8.0918e-05 0.000549684 -5.64835e-05 -0.1144805651 0.8385980105
710295740.0 0.0022736206 -0.1077135945 0.0001635579 0.0001029363 0.0004873266 -2.97121e-05 -0.105346853 0.838525455
715295710.0 0.0007877515 -0.1077107547 0.000374244 -9.04942e-05 0.0004002879 -6.68838e-05 -0.0968420935 0.839359839
720295680.0 -0.0007038916 -0.1075650902 0.0003439237 1.04602e-05 0.00048587 -0.0001732615 -0.0889078574 0.8405900734
725295650.0 -0.0018955618 -0.1071183826 0.0003747066 -0.0003163855 0.0004095193 -5.30024e-05 -0.0807545743 0.8418972718
730295620.0 -0.003213858 -0.1066388997 0.0002949108 -2.45639e-05 0.0004140293 -0.0001608267 -0.0728555656 0.8419964279
735295590.0 -0.004621946 -0.1064006266 0.0004311965 4.03426e-05 0.0003100801 9.55877e-05 -0.0639924925 0.8424477629
740295560.0 -0.0063336506 -0.1061501672 0.0006111822 -0.000190924 0.0002430387 0.000120637 -0.0548099165 0.8436120297
745295530.0 -0.0077587171 -0.105925837 0.0004120237 -0.0001201827 5.06463e-05 6.2821e-06 -0.0466112046 0.8439666967
750295500.0 -0.0087919577 -0.1056228063 0.0005307557 -0.0001742166 0.000501097 -0.0001317844 -0.0385136545 0.8443077328
755295470.0 -0.0105290426 -0.1054727696 0.0002882879 -0.0001337323 0.0004771422 -0.0002373043 -0.029449335 0.8439701206
760295440.0 -0.0118729252 -0.1050747794 0.0004624708 0.0002032272 0.0001501288 6.33022e-05 -0.021546501 0.845056549
765295410.0 -0.0131567064 -0.104774611 0.0003185656 0.0001401594 0.0003687259 8.22344e-05 -0.0124163834 0.8450267082
770295380.0 -0.0146372925 -0.1044047286 0.0003293725 -0.0001378305 0.0004878413 -0.0001509292 -0.0046930047 0.8448218365
775295350.0 -0.0163101035 -0.1039465313 0.000418845 2.01955e-05 0.000422735 -0.0001365427 0.0035898767 0.84453578
780295320.0 -0.017251925 -0.1033339781 0.000269289 -0.0002393176 0.0004755456 -7.14567e-05 0.0122208754 0.8449661637
785295290.0 -0.0188192725 -0.1034163036 0.0004176998 -0.0001106858 0.0002120722 0.0001009197 0.0208242845 0.8447348104
790295260.0 -0.0198920126 -0.1024191097 0.0005291517 -0.0003398906 0.0004425794 4.20796e-05 0.0296625489 0.8449904306
795295230.0 -0.0213812578 -0.1020198122 0.0004456259 -2.1605e-06 0.0003707578 -0.0001233555 0.0382182465 0.8438627196
800295200.0 -0.0225137044 -0.1016447968 0.000429214 5.7721e-05 0.0004717346 -8.72415e-05 0.046470442 0.8439391626
805295170.0 -0.0238055953 -0.1013882474 0.0001166409 -0.0002963266 0.0006065434 -0.0002413827 0.0541006399 0.8435273402
810295140.0 -0.0250376355 -0.1007306151 0.0004473157 -7.79527e-05 0.0004393537 -0.0002864958 0.0625719994 0.8424146897
815295110.0 -0.0266362996 -0.1003369525 0.0005794415 -0.0002196784 0.0004155893 -0.0002409673 0.0713532785 0.8419045755
820295080.0 -0.0278402761 -0.0997713827 0.0004202297 0.0001660321 0.0003659688 -8.78202e-05 0.0795926093 0.8415273262
825295050.0 -0.0288676867 -0.09923034 0.0004829271 1.4049e-06 0.0003360927 -0.0001288436 0.0883024433 0.8406327775
830295020.0 -0.0302947285 -0.0982962241 0.0004496764 -0.0001302938 0.0003221423 -0.0002599321 0.0971219805 0.8397309228
835294990.0 -0.0316382215 -0.0977073835 0.0005544772 3.0348e-06 0.0004314072 -3.25867e-05 0.104457962 0.8384865629
840294960.0 -0.0328678958 -0.0971691681 0.000363867 -0.0003398011 0.0006679706 -6.25654e-05 0.1132897197 0.8373997298
845294930.0 -0.0342189783 -0.0965176411 0.0006206384 -0.000215807 0.0005865798 -0.0001704713 0.1212568936 0.8357912441
