!Created with skrf (http://scikit-rf.org).
# Hz S RI R 50.0 
!freq ReS11 ImS11 ReS21 ImS21 ReS12 ImS12 ReS22 ImS22
300000.0 -0.3168749625 -0.1067556167 0.3712697104 0.0528851808 0.3731529033 0.0567649295 -0.3156609532 -0.1137266874
5299970.0 -0.3238464716 0.0052198017 0.3786703539 0.002322881 0.3785038323 0.0029175028 -0.3263814947 0.0028945384
10299940.0 -0.3210874293 0.0154655001 0.379887318 0.0023710489 0.379654235 0.0023786011 -0.3243421439 0.0126786181
15299910.0 -0.3182633881 0.0234587314 0.3819276036 0.0021881293 0.382069239 0.0021559711 -0.3215881024 0.0197967592
20299880.0 -0.3144460731 0.0300954143 0.3852474695 0.0015201362 0.3852116178 0.0016566321 -0.3189596323 0.0260530727
25299850.0 -0.3106850222 0.0356570896 0.3882877928 -4.21604e-05 0.3885066569 -0.0001654166 -0.3160598088 0.0310342615
30299820.0 -0.3067451825 0.0403972863 0.3922127489 -0.0020660694 0.3916780324 -0.0018545964 -0.3131238987 0.0354967713
35299790.0 -0.3030204532 0.0450586906 0.395223678 -0.0053685623 0.3951967019 -0.0051618478 -0.3099263875 0.0394164227
40299760.0 -0.2996209027 0.0479662023 0.3984042503 -0.008720802 0.3986513958 -0.0088629901 -0.3072557883 0.0430150369
45299730.0 -0.2966778331 0.0514794808 0.4011459867 -0.013025767 0.4011358941 -0.0123305763 -0.3050525904 0.0460234005
50299700.0 -0.2932684141 0.0540292582 0.4031474866 -0.0169811664 0.403562233 -0.0172734534 -0.3024922945 0.0491514579
55299670.0 -0.2909726094 0.0569382497 0.4053247801 -0.0221925732 0.4061007551 -0.0219144605 -0.3005814168 0.0516625943
60299640.0 -0.288175294 0.0588885677 0.4074899658 -0.0268447323 0.4075274543 -0.0269405824 -0.2983065636 0.0544549497
65299610.0 -0.2862618694 0.0615442642 0.4094771224 -0.0314475004 0.4097656546 -0.0316282849 -0.2963041499 0.0568401902
70299580.0 -0.2839266542 0.0635686141 0.4105120505 -0.0368679034 0.4107126847 -0.0369144611 -0.2946632523 0.0595601621
75299550.0 -0.2818142435 0.0656914819 0.4113522135 -0.042146199 0.4116087289 -0.0421070696 -0.2931825588 0.0618513017
80299520.0 -0.2804123389 0.0679466319 0.4130690461 -0.0473004749 0.412892404 -0.0475240752 -0.2916877266 0.0642307583
85299490.0 -0.2785457038 0.0699793618 0.4133118296 -0.0527413457 0.4132340619 -0.0526538346 -0.2904955038 0.0660333339
90299460.0 -0.27719793 0.0720100576 0.4136454777 -0.0573141192 0.4136649548 -0.0578558021 -0.2889188389 0.068578441
95299430.0 -0.2755602318 0.0740907513 0.4142696852 -0.0634452372 0.4140396951 -0.0630425029 -0.2877101634 0.0711229364
100299400.0 -0.2742095433 0.0764823091 0.4138365267 -0.0682920613 0.4138542439 -0.0685162302 -0.2866574066 0.0732884794
105299370.0 -0.2729481474 0.078414729 0.4134492202 -0.0735035241 0.4137953313 -0.0735507363 -0.2849268327 0.0754564365
110299340.0 -0.2720370649 0.0802243271 0.413489067 -0.0783712997 0.413569654 -0.0788761653 -0.2847011611 0.0777287391
115299310.0 -0.2708412398 0.0823484119 0.4133279308 -0.083270038 0.413059142 -0.0835273622 -0.2827811559 0.0799298575
120299280.0 -0.2698966614 0.0846367421 0.4130876894 -0.0890067179 0.4129339016 -0.0890226471 -0.2825263145 0.0824846086
125299250.0 -0.2691170836 0.0868336797 0.4124365701 -0.0937151108 0.4125897026 -0.0942508845 -0.2811047371 0.0847584394
130299220.0 -0.2679383722 0.0890962052 0.4116977284 -0.0987400289 0.4116897004 -0.0991614791 -0.2804911555 0.0872850713
135299190.0 -0.2666694284 0.0911781554 0.4107561241 -0.1034562514 0.4107553171 -0.1041234638 -0.2798586789 0.0896116288
140299160.0 -0.2659590334 0.0936790523 0.4101545982 -0.1091323927 0.4104546762 -0.1092340212 -0.2786562392 0.0920183214
145299130.0 -0.2646645559 0.0958193232 0.4095048241 -0.1139188957 0.4090284527 -0.113607956 -0.2779068976 0.0942957103
150299100.0 -0.2638046846 0.0981168541 0.408392137 -0.1190970324 0.4082732948 -0.1185390848 -0.2769224843 0.0969166479
155299070.0 -0.263244543 0.1008489522 0.4070092519 -0.1241961434 0.4070708281 -0.1239733466 -0.2762813323 0.099548998
160299040.0 -0.2618365169 0.102989374 0.405718457 -0.1283835439 0.406214785 -0.1288497608 -0.2752872084 0.1022913611
165299010.0 -0.2610029704 0.1055698873 0.4047535204 -0.1336844775 0.4046288328 -0.1338277038 -0.2743540795 0.1043707704
170298980.0 -0.2604127065 0.1078668448 0.4030007052 -0.1384068298 0.4034105843 -0.1383902396 -0.2730266709 0.1074195009
175298950.0 -0.2589951139 0.1104110614 0.4020278833 -0.1430933207 0.402152516 -0.1434271527 -0.2720943933 0.1099243634
180298920.0 -0.2578326094 0.1125552615 0.4004070083 -0.1479475396 0.4010214352 -0.1478000454 -0.2710692368 0.1123318433
185298890.0 -0.2570231284 0.115221514 0.3988015729 -0.1530326873 0.3989216741 -0.1526031684 -0.2703580615 0.1149549176
190298860.0 -0.2558656853 0.1178663704 0.3969396941 -0.157419062 0.3976764756 -0.1572765802 -0.2688027766 0.1173775522
195298830.0 -0.2548056563 0.1200056211 0.3956614802 -0.1617548129 0.3957869808 -0.1619355249 -0.2679560644 0.1201238299
200298800.0 -0.2536019584 0.1231125234 0.3940188237 -0.1663906984 0.3940843643 -0.1664370837 -0.2664127916 0.1229759391
205298770.0 -0.2525820464 0.1253083918 0.3924721519 -0.1708877586 0.3925659128 -0.171128581 -0.2659126533 0.125454813
210298740.0 -0.2515532222 0.1277488161 0.390389884 -0.1756487192 0.390490326 -0.1759776334 -0.2643641331 0.1283721045
215298710.0 -0.2503235745 0.1304204643 0.3885389609 -0.1801460048 0.3884481418 -0.1803020436 -0.263765618 0.130904175
220298680.0 -0.2495302489 0.1332432232 0.38663366 -0.1847342178 0.3868214866 -0.1848089013 -0.2623725997 0.1337016377
225298650.0 -0.2477423861 0.135487239 0.3841663494 -0.1886980432 0.3845288141 -0.1890962434 -0.2610814724 0.1366087927
230298620.0 -0.2465728637 0.1378731079 0.3824985374 -0.1932692811 0.3827153491 -0.1933503623 -0.2597597683 0.1389533434
235298590.0 -0.2455208647 0.140533276 0.3803940384 -0.1975457257 0.3803257555 -0.1983584003 -0.2583596381 0.1415594791
240298560.0 -0.2444345123 0.1434171517 0.3787313545 -0.201753803 0.3785921778 -0.201940258 -0.2571081696 0.1443392411
245298530.0 -0.2425317378 0.1456266968 0.3754049034 -0.2065807281 0.376062609 -0.2065034063 -0.2557581929 0.1473976806
250298500.0 -0.2416967296 0.1483123417 0.3737372845 -0.2104334546 0.3741295584 -0.2103900826 -0.254160716 0.1499388034
255298470.0 -0.2401870621 0.150977178 0.3712032826 -0.2151907273 0.3717221144 -0.2149150487 -0.2527574468 0.1522840134
260298440.0 -0.2386189799 0.153415579 0.3693065203 -0.2191296909 0.3689190324 -0.2194533264 -0.2510054334 0.1552067984
265298410.0 -0.2372254605 0.156139572 0.3664723724 -0.223671143 0.366699597 -0.2230920812 -0.2495512052 0.1577432558
270298380.0 -0.2356067891 0.1586640331 0.3638706427 -0.2273661229 0.3642498766 -0.2279033035 -0.2479778973 0.1606826429
275298350.0 -0.2344499922 0.1614434768 0.3616880969 -0.2320549181 0.361954214 -0.2320402376 -0.2465370363 0.1633003678
280298320.0 -0.2326779512 0.1638397039 0.3591143128 -0.2355787204 0.3591276624 -0.2357495376 -0.2449794816 0.1658808284
285298290.0 -0.2308879908 0.1665357776 0.3563234332 -0.2397626886 0.3564074649 -0.2401541569 -0.2432947926 0.1685808826
290298260.0 -0.229297865 0.1689022199 0.3540606285 -0.2437106308 0.354069839 -0.2437378232 -0.2414644915 0.1713486641
295298230.0 -0.2274624435 0.1711081532 0.3511889441 -0.2478548057 0.3509344583 -0.247825819 -0.2393523677 0.1739600031
300298200.0 -0.2258747425 0.1736955214 0.3483190529 -0.2518947499 0.3487832269 -0.2519860741 -0.2378821111 0.1765292361
305298170.0 -0.2239293536 0.176225435 0.3460698092 -0.255843573 0.3458897037 -0.2559836891 -0.2359036218 0.1791533669
310298140.0 -0.2222632664 0.1782409721 0.3429887614 -0.259709413 0.3432924382 -0.2601620599 -0.2341764286 0.1820011649
315298110.0 -0.2205940696 0.1811238829 0.3400590777 -0.2641431801 0.3403094709 -0.2639265658 -0.2322933897 0.1842738418
320298080.0 -0.2187812963 0.1836418833 0.3372267756 -0.268038617 0.3369632071 -0.2677557189 -0.230396568 0.1866412826
325298050.0 -0.2171955141 0.1855088062 0.3342603121 -0.2717215776 0.334131893 -0.2720065521 -0.2286456129 0.1893925913
330298020.0 -0.2153859919 0.1879655938 0.3306687563 -0.275309746 0.3308896239 -0.2754826685 -0.2267346924 0.1919929103
335297990.0 -0.2133012207 0.1903642334 0.3275478975 -0.2791295773 0.3279359948 -0.2791224828 -0.2250700842 0.1943932226
340297960.0 -0.2119630144 0.1926645942 0.324470536 -0.2826185068 0.3248092039 -0.2824929901 -0.2227235714 0.1967982776
345297930.0 -0.2102846471 0.1954267491 0.321505506 -0.286049699 0.321071376 -0.2859573403 -0.2207344452 0.1993166979
350297900.0 -0.2076133192 0.1977289589 0.3179000321 -0.2895982091 0.3180753954 -0.2899785873 -0.218999097 0.2026289803
355297870.0 -0.2061887826 0.1999995569 0.3149620196 -0.2928661845 0.3149775834 -0.2930798794 -0.217076778 0.2046934109
360297840.0 -0.2036724003 0.2021285173 0.3110696326 -0.2967490634 0.3114817882 -0.2968862401 -0.2148212907 0.2073209067
365297810.0 -0.2016885766 0.204494496 0.3079058051 -0.3001335286 0.308272164 -0.3001408701 -0.2128923394 0.2098286144
370297780.0 -0.1998341546 0.2066638082 0.3047755877 -0.3031198698 0.3046887223 -0.303504178 -0.2101548687 0.2122686137
375297750.0 -0.1975373723 0.2095832765 0.3019263511 -0.3070633161 0.3013722158 -0.3070534534 -0.208203919 0.2149609873
380297720.0 -0.1954449308 0.2113455031 0.2978480431 -0.3096039483 0.2981868325 -0.3099975018 -0.2057784609 0.2174308702
385297690.0 -0.1932555151 0.2139179266 0.2947011153 -0.3129729093 0.2942301736 -0.3131683965 -0.203514055 0.21992504
390297660.0 -0.1911398412 0.2159828403 0.2910015582 -0.3166812879 0.2910537137 -0.3167393784 -0.2016318771 0.2217595917
395297630.0 -0.1887362599 0.2182611374 0.2877832715 -0.3195093181 0.2874312455 -0.3194627978 -0.1991395001 0.2244309306
400297600.0 -0.186482298 0.2203569723 0.2838898818 -0.3228902192 0.2845273397 -0.3229770797 -0.1973232105 0.2264720952
405297570.0 -0.1845086376 0.2223025593 0.280411992 -0.3257136118 0.2806331979 -0.3262201107 -0.1949118676 0.2293466068
410297540.0 -0.1816978987 0.2244795132 0.2761321019 -0.3291796778 0.2765697666 -0.3287756665 -0.192199981 0.2316345083
415297510.0 -0.1794227797 0.2265917831 0.2730164347 -0.331953742 0.2733423855 -0.3320877945 -0.1901917395 0.2341866347
420297480.0 -0.176875744 0.2287593051 0.2691227455 -0.3351677457 0.269452797 -0.3348919879 -0.1875187242 0.2355251397
425297450.0 -0.1749488938 0.2304533782 0.2658398127 -0.3377669912 0.2657804015 -0.337988204 -0.1845445067 0.2384661262
430297420.0 -0.1724910362 0.2324376033 0.261978231 -0.3410099069 0.2620403365 -0.3407992409 -0.1826898268 0.2400919303
435297390.0 -0.169870054 0.2347075273 0.2583427464 -0.343423447 0.258138657 -0.343460235 -0.1799678775 0.2427694892
440297360.0 -0.167449248 0.2366872348 0.2541487651 -0.3465573682 0.2542341384 -0.3463811708 -0.1777480424 0.2447399578
445297330.0 -0.1647046675 0.238353083 0.2499594889 -0.3491553986 0.2503828141 -0.34890456 -0.1751163252 0.2465335623
450297300.0 -0.1622628217 0.2402247366 0.2462445473 -0.3516257233 0.2467657211 -0.3516722006 -0.172883765 0.2485839757
455297270.0 -0.1597459663 0.2420752352 0.2428500068 -0.3546776386 0.2430182282 -0.3542709346 -0.1698856865 0.2508010266
460297240.0 -0.1577218934 0.2441824215 0.2391114748 -0.3567141591 0.2385890174 -0.3571699653 -0.1672035438 0.253393071
465297210.0 -0.1545572096 0.2458681787 0.2347776569 -0.3597654207 0.2352771717 -0.3598684999 -0.1651090148 0.2548121534
470297180.0 -0.1521412023 0.2477124221 0.2311211477 -0.3620809979 0.2311431312 -0.3620410917 -0.1626353071 0.2567999911
475297150.0 -0.1496369957 0.2490302964 0.2269844608 -0.3645851691 0.2271947175 -0.3641569853 -0.1595286155 0.2585278007
480297120.0 -0.1471521684 0.2509020366 0.2228589524 -0.366757548 0.2232780454 -0.3670142372 -0.1571595922 0.2610732422
485297090.0 -0.1441879526 0.252532965 0.2188667813 -0.3693237125 0.2192190658 -0.3693007872 -0.1546318261 0.2620803217
490297060.0 -0.1415919104 0.254513338 0.2146786077 -0.3718223345 0.2150115016 -0.3718245071 -0.1517828051 0.2644197959
495297030.0 -0.1389717667 0.2563450362 0.2105968785 -0.3741707332 0.2107667022 -0.3740614987 -0.1489821496 0.2657639806
500297000.0 -0.1361114271 0.2577080912 0.206399082 -0.3762317889 0.206739735 -0.3762595228 -0.1464706822 0.2678219094
505296970.0 -0.1336103676 0.2591174082 0.2020834611 -0.3781097943 0.2025055469 -0.3782564763 -0.1442518441 0.2695674041
510296940.0 -0.1307255387 0.2610300146 0.1981470168 -0.3807932101 0.1985536396 -0.3804999285 -0.1409499207 0.271305682
515296910.0 -0.1284448512 0.2629435319 0.1940032583 -0.3826154763 0.1941061892 -0.3826308358 -0.1380410134 0.2732713953
520296880.0 -0.1255718948 0.2636969269 0.1899911391 -0.3845212399 0.1902185072 -0.3845849718 -0.1354411467 0.274694325
525296850.0 -0.1230641926 0.2651096143 0.1861345712 -0.3862774181 0.1859446571 -0.386726272 -0.1322363266 0.2762415935
530296820.0 -0.1200936758 0.2667860371 0.1817301032 -0.3881370415 0.1813901976 -0.3885011076 -0.1299950748 0.2773543953
535296790.0 -0.1167211394 0.2678361523 0.1771341287 -0.3901064619 0.1773169613 -0.3901717615 -0.1269505707 0.2791889363
540296760.0 -0.1141289959 0.2689914004 0.172978229 -0.3924267909 0.1727612103 -0.3924838126 -0.1242929811 0.2807657166
545296730.0 -0.1113699249 0.2710293001 0.1686157616 -0.3943018658 0.1687880282 -0.3941928043 -0.1214837825 0.28198059
550296700.0 -0.108741846 0.2721413922 0.1644722342 -0.395910161 0.1650535846 -0.3960365412 -0.1185302465 0.2837526514
555296670.0 -0.1053023272 0.2734457511 0.1599283625 -0.3975781688 0.1601667368 -0.3977346207 -0.1154400414 0.2854883893
560296640.0 -0.1027804009 0.2746017927 0.1555956973 -0.3990476161 0.1560090434 -0.3991591997 -0.1125911612 0.2867143502
565296610.0 -0.0999547908 0.2757411031 0.1511219468 -0.400669038 0.1514943578 -0.4009820588 -0.1098458363 0.2877604096
570296580.0 -0.096941863 0.2772190124 0.1465849209 -0.4025265179 0.1474723115 -0.4025439003 -0.1069337298 0.2895912362
575296550.0 -0.0942694148 0.2785056575 0.1426184222 -0.4039409217 0.1427965012 -0.4038348794 -0.1031130153 0.2901857358
580296520.0 -0.0913009359 0.2792837604 0.1386009131 -0.4054437924 0.1382681794 -0.405677674 -0.1008780453 0.291799247
585296490.0 -0.0879922772 0.2806620123 0.1340817034 -0.407147685 0.1337312243 -0.4069435396 -0.0976415324 0.2925107639
590296460.0 -0.0854609901 0.2815219071 0.1291071509 -0.4084020446 0.1293198131 -0.4084799042 -0.0945899171 0.2939430593
595296430.0 -0.0820735018 0.282518752 0.1248000166 -0.4097695707 0.1250707052 -0.4099550344 -0.0917874834 0.2947480102
600296400.0 -0.0796938835 0.2834017489 0.1205292625 -0.4108882429 0.1207165704 -0.4107948889 -0.0891149845 0.2963239259
605296370.0 -0.0764287409 0.2846649098 0.1161555122 -0.4126487736 0.1161966663 -0.4122965041 -0.0856322433 0.2973559279
610296340.0 -0.0733438937 0.285646034 0.111938022 -0.4134543986 0.1118104115 -0.4135445994 -0.0825623608 0.2985708967
615296310.0 -0.070167569 0.2864587103 0.1069826022 -0.4143907442 0.1072519954 -0.4145166167 -0.0795203786 0.2992642569
620296280.0 -0.0671004003 0.2871890353 0.1027042451 -0.4153871092 0.1028652762 -0.4157955466 -0.0762750438 0.3002566176
625296250.0 -0.0642165159 0.2883062536 0.0976879899 -0.4168736182 0.0978350813 -0.4170671577 -0.0731068648 0.3012221027
630296220.0 -0.0609206087 0.2891934561 0.0934723651 -0.4180347947 0.0938071839 -0.4176520063 -0.0702173484 0.3021517947
635296190.0 -0.0579984145 0.2898333493 0.0889254188 -0.4182608231 0.0891718978 -0.4180151155 -0.0673714792 0.3027097849
640296160.0 -0.055106742 0.2904013739 0.0846776715 -0.4194266535 0.0844247255 -0.4194052695 -0.063745279 0.3037484216
645296130.0 -0.0521376469 0.2914601966 0.0797177248 -0.4206842885 0.0800179116 -0.4206213763 -0.0612374528 0.3046914915
650296100.0 -0.0487416251 0.2922234179 0.0753880528 -0.4212582613 0.0753861783 -0.4211696929 -0.0577868481 0.3057913213
655296070.0 -0.0458855453 0.2926012097 0.0708614027 -0.4218011769 0.0704088307 -0.4218499088 -0.0540954489 0.3060345756
660296040.0 -0.0430956482 0.2934870296 0.0663691864 -0.4224724181 0.0663843397 -0.4222253561 -0.051434056 0.3065735324
665296010.0 -0.0395552378 0.2935752128 0.0617556961 -0.423211692 0.061966017 -0.423245178 -0.0482703175 0.3075433982
670295980.0 -0.0362271163 0.2945997997 0.0569586314 -0.4240523206 0.0574515454 -0.4238502609 -0.04537654 0.3080972407
675295950.0 -0.0334689487 0.2951216721 0.052169443 -0.4246615247 0.0526572569 -0.4246874263 -0.0419655994 0.308787959
680295920.0 -0.0302846841 0.29581592 0.047674655 -0.424785331 0.0476739448 -0.4249970078 -0.0388893374 0.3094865452
685295890.0 -0.0272302478 0.2962239358 0.0433616741 -0.4254225993 0.0430703991 -0.4255675864 -0.0354069207 0.3099316918
690295860.0 -0.023815721 0.2967059639 0.0383865072 -0.4253696246 0.0385607071 -0.4257913877 -0.0319915686 0.3107985343
695295830.0 -0.0207409294 0.2966407939 0.0335148534 -0.4260556111 0.033970159 -0.4261889345 -0.0289162263 0.3109001025
700295800.0 -0.0173499529 0.2972507385 0.028751893 -0.4266902817 0.0291116397 -0.4266306237 -0.0255544199 0.3112072916
705295770.0 -0.0142032549 0.2974583121 0.024894248 -0.4267442876 0.0250401012 -0.4267789059 -0.0228341625 0.3120223063
710295740.0 -0.0113745221 0.2980265927 0.0197351229 -0.4267404627 0.0200527594 -0.4266420175 -0.0198655314 0.3124001954
715295710.0 -0.0083645146 0.2984268079 0.0152831296 -0.4273188024 0.0157700904 -0.4268262779 -0.0163485375 0.3122392658
720295680.0 -0.0050091174 0.2981329475 0.010824406 -0.4267669467 0.0109393871 -0.4275025049 -0.0124913427 0.3128637112
725295650.0 -0.0015293995 0.2986933224 0.0058514872 -0.4271584977 0.0061699722 -0.4270518267 -0.0093691819 0.3130752461
730295620.0 0.0009877242 0.2987687349 0.0015387147 -0.4271307178 0.0012931853 -0.4270886964 -0.0060992089 0.3130127719
735295590.0 0.0047171331 0.298720615 -0.0031970641 -0.426919499 -0.0029712925 -0.4272956459 -0.0028901743 0.3136513631
740295560.0 0.0076232257 0.29908476 -0.0077398844 -0.4267840071 -0.0080574835 -0.4267240663 0.0006704913 0.3135003998
745295530.0 0.0106027121 0.2987956312 -0.012593278 -0.426837273 -0.0121666596 -0.4270146 0.0035213337 0.313774431
750295500.0 0.0138432072 0.2989085895 -0.0167476789 -0.4263832465 -0.0169347535 -0.4268619134 0.0064706714 0.3137149777
755295470.0 0.0174320616 0.2992420764 -0.0215445881 -0.4262988975 -0.0212793247 -0.42661794 0.009674667 0.3138984096
760295440.0 0.0204855991 0.2989858109 -0.0263566116 -0.4259525145 -0.0258254892 -0.4264924093 0.0128952826 0.314176105
765295410.0 0.0233671418 0.298699415 -0.0304383051 -0.4258140563 -0.0304863783 -0.4259085779 0.0167238827 0.3141361169
770295380.0 0.0270058872 0.2987826911 -0.0352384521 -0.4248569255 -0.0353316718 -0.4255687582 0.0197194054 0.3140127014
775295350.0 0.029910722 0.2989942393 -0.0399939324 -0.424793713 -0.0400926748 -0.4247012376 0.0229821034 0.3136737857
780295320.0 0.0332154037 0.298403477 -0.0443297112 -0.4247664489 -0.0443155763 -0.4248763899 0.026120496 0.3141808806
785295290.0 0.0361902383 0.2984097232 -0.0487915714 -0.4234512202 -0.0492282173 -0.4240443776 0.0293158331 0.3136721812
790295260.0 0.0394198996 0.298239744 -0.0537872727 -0.4233288756 -0.053576607 -0.4236746508 0.0327683202 0.3135914706
795295230.0 0.0424062765 0.2982465791 -0.0579275158 -0.4221932078 -0.057848075 -0.4231868346 0.0360310152 0.3136714288
800295200.0 0.0456904883 0.2975514625 -0.0628068509 -0.4221350275 -0.0628076281 -0.4222380991 0.0392319772 0.3130737783
805295170.0 0.048693473 0.2973388181 -0.0672986489 -0.4211083657 -0.0670871886 -0.4211939533 0.0420794719 0.3127782061
810295140.0 0.051920563 0.2970591299 -0.0715021735 -0.4204644417 -0.0717357564 -0.4207614072 0.0456427282 0.312902856
815295110.0 0.0553020198 0.2966849975 -0.076609611 -0.4196309379 -0.0766544114 -0.4195657107 0.0488755124 0.3124868252
820295080.0 0.0582196339 0.2958517471 -0.0809648483 -0.4185556382 -0.0807063137 -0.4188872141 0.051957448 0.3117255291
825295050.0 0.0617505499 0.2954445088 -0.0853015446 -0.4172717224 -0.085653154 -0.4177150965 0.0550921761 0.3116515258
830295020.0 0.0647521199 0.2951555332 -0.0901967613 -0.4165374632 -0.0900276949 -0.4169798302 0.0581510573 0.3110209934
