!Created with skrf (http://scikit-rf.org).
# Hz S RI R 50.0 
!freq ReS11 ImS11 ReS21 ImS21 ReS12 ImS12 ReS22 ImS22
300000.0 -0.7757636013 -0.0960290652 -0.0014200494 -0.0008717589 -0.0015150928 0.0001926015 -0.0437808099 -0.0619639299
5299970.0 -0.7849140779 -0.0055623947 -4.723e-06 -6.41687e-05 -0.0001207522 6.2148e-05 -0.045856886 0.0155718173
10299940.0 -0.7876384095 -0.0040759228 0.0001468525 -0.0001792699 -0.0001145526 8.36628e-05 -0.0398115672 0.0338834478
15299910.0 -0.7932277 -0.0019650227 -8.10147e-05 3.90025e-05 -7.83533e-05 1.58744e-05 -0.0315674526 0.0481071127
20299880.0 -0.8004067441 0.0018074556 -5.86148e-05 0.0001866419 -4.71198e-05 6.35008e-05 -0.0208862192 0.0602261318
25299850.0 -0.8060935499 0.0082716784 -3.39382e-05 -0.0002447904 -7.53812e-05 0.0001123667 -0.0098991444 0.0699446377
30299820.0 -0.8128233479 0.0152897536 0.0003213687 7.76754e-05 -0.0001237912 -0.0001104742 0.0018364718 0.0762496205
35299790.0 -0.8174390883 0.024647125 1.26561e-05 -0.0002609903 -0.000101308 -2.7406e-05 0.0135217677 0.0811585359
40299760.0 -0.8214437848 0.0333870597 -0.0001098846 0.0001344263 6.84634e-05 6.43533e-05 0.024726598 0.0837564214
45299730.0 -0.8243027203 0.0429329354 -4.04308e-05 -4.38733e-05 0.0001064675 -8.74393e-05 0.0352070383 0.0858023557
50299700.0 -0.8271761586 0.0537719541 3.16723e-05 6.18119e-05 5.9078e-06 9.75474e-05 0.0454591711 0.0851498268
55299670.0 -0.8289241512 0.0628611259 -0.0001975702 -2.04494e-05 7.74214e-05 5.25544e-05 0.0546481524 0.0842887993
60299640.0 -0.830283776 0.073302337 1.84412e-05 9.51707e-05 0.0001604158 0.0001530019 0.0632920389 0.0825583893
65299610.0 -0.8312041554 0.0833459558 0.0001422305 0.0001177946 -6.969e-06 9.22862e-05 0.070517674 0.0799896644
70299580.0 -0.8309689979 0.0935999582 0.0003022131 -2.10078e-05 -0.0002535904 0.0001675988 0.0776212922 0.0771514882
75299550.0 -0.8318355347 0.1039597449 -6.25432e-05 6.00972e-05 0.0001171558 -3.22858e-05 0.0838779378 0.0737228939
80299520.0 -0.8321661515 0.1131579302 1.82898e-05 0.0001752551 1.19249e-05 0.0001183342 0.0896627646 0.0703658797
85299490.0 -0.8309020908 0.1226983731 -6.44689e-05 -0.0001060204 -7.36516e-05 -3.50205e-05 0.0944298762 0.0666624354
90299460.0 -0.8302100904 0.1323373934 0.0001386754 0.0001028594 -0.0001662804 0.0002038525 0.0994364095 0.0629650064
95299430.0 -0.8294620873 0.142209015 -5.59205e-05 2.3067e-06 2.76268e-05 2.1637e-06 0.103279728 0.058856868
100299400.0 -0.8276942109 0.1505818823 8.37611e-05 -8.73109e-05 0.0001220097 1.45314e-05 0.1073788335 0.0550503487
105299370.0 -0.8269953801 0.1606512265 0.0001941464 -7.3527e-06 -1.21403e-05 -4.49521e-05 0.1106991884 0.0510437294
110299340.0 -0.8254995115 0.1692058418 0.0002380491 -0.0001528019 7.32711e-05 0.0002524844 0.113156886 0.0470643225
115299310.0 -0.8237166593 0.1782405568 -1.32111e-05 2.8038e-05 0.0001190828 -0.0001677152 0.1160121224 0.0432799826
120299280.0 -0.8219659086 0.1868876007 0.000309517 4.40159e-05 0.0001677397 -2.48817e-05 0.1183387468 0.0398371177
125299250.0 -0.820026157 0.1961187734 -1.33335e-05 4.6346e-05 8.31796e-05 2.0985e-06 0.1201886083 0.0355764665
130299220.0 -0.8188418333 0.2058573649 5.17591e-05 3.04645e-05 4.58711e-05 5.84323e-05 0.1221553385 0.0318711735
135299190.0 -0.8166090791 0.2141408456 -9.05992e-05 6.01044e-05 0.0001091156 0.0001731629 0.12343572 0.0285835215
140299160.0 -0.8146514757 0.2232961188 4.38219e-05 6.98591e-05 0.0001126991 5.30807e-05 0.1249393902 0.0251008252
145299130.0 -0.8128264041 0.232223246 -0.0001126439 7.28311e-05 1.68812e-05 -1.35385e-05 0.1259443417 0.0217128261
150299100.0 -0.8097430508 0.240764529 -5.92525e-05 7.0597e-06 3.28873e-05 0.0001394617 0.1272373802 0.0188630284
155299070.0 -0.8079291653 0.2496293885 1.78668e-05 2.164e-07 3.53622e-05 -0.0001547128 0.12820684 0.0154095026
160299040.0 -0.8053024432 0.2583033265 2.59387e-05 0.0001141943 0.0002470223 1.41144e-05 0.1281762603 0.0124320049
165299010.0 -0.8029724689 0.2670293896 4.60411e-05 0.000132113 -5.36852e-05 0.0003421351 0.1291206133 0.0092866928
170298980.0 -0.8002877179 0.2752476666 7.99502e-05 0.0001650548 0.0001592217 0.000179645 0.1295077213 0.0059221745
175298950.0 -0.7974588476 0.2842831168 -6.6719e-06 0.0001718582 0.0001007383 -5.9727e-06 0.1297136368 0.0030814792
180298920.0 -0.7950070994 0.2928477534 5.73296e-05 0.0001089806 6.3021e-06 0.0001982109 0.130128663 0.0006559482
185298890.0 -0.7911115006 0.3007396913 0.0001798487 0.0001507343 0.0001287765 0.0001822448 0.1302867598 -0.0022091676
190298860.0 -0.7880270004 0.3097214006 6.12859e-05 -7.29671e-05 -3.44268e-05 6.5509e-05 0.1302877348 -0.0048941979
195298830.0 -0.7852377256 0.3181566326 -2.89928e-05 -6.22095e-05 5.50759e-05 6.54713e-05 0.1302493892 -0.0076409469
200298800.0 -0.7811669239 0.3262661731 0.0001333075 0.0003327064 7.53714e-05 0.0001161267 0.1300883847 -0.0105144671
205298770.0 -0.7785122129 0.3343054423 0.0002023707 0.0001921507 7.7037e-06 0.000215844 0.1297819426 -0.0129173503
210298740.0 -0.7746859011 0.3424301385 8.33276e-05 7.92794e-05 0.0002669067 0.0002293693 0.129429386 -0.0152386853
215298710.0 -0.7715383339 0.3507552773 0.0003132896 0.0001096471 4.99221e-05 8.81035e-05 0.1291265671 -0.017881529
220298680.0 -0.7681269591 0.3590433613 7.15123e-05 0.0001831061 2.88093e-05 0.0001247273 0.1285951099 -0.0204672811
225298650.0 -0.7638388255 0.3664674209 -4.60355e-05 0.0003230364 8.84941e-05 0.0001146282 0.1277246118 -0.0227670759
230298620.0 -0.7599201218 0.3746427866 0.0001107151 2.68615e-05 -0.0001168294 5.89119e-05 0.1277553353 -0.0251310918
235298590.0 -0.7565960961 0.3831478121 -0.0002736219 0.0001687463 0.0003284151 5.99365e-05 0.1272382196 -0.0273429138
240298560.0 -0.7522898865 0.3912089928 0.0001679562 0.0002734553 0.0001352416 0.0001977794 0.1266955944 -0.0295484387
245298530.0 -0.7481725163 0.3985602107 2.27207e-05 -5.05925e-05 -8.69961e-05 1.10263e-05 0.1261877591 -0.031935739
250298500.0 -0.7439468468 0.4070952463 1.5217e-05 0.0001582625 0.0001723927 -3.01801e-05 0.1251280058 -0.0341980627
255298470.0 -0.7396882128 0.4140470869 8.59373e-05 0.000217848 0.0001407772 0.0001451868 0.1246376836 -0.0364588723
260298440.0 -0.735653084 0.4215305253 -9.32313e-05 -0.0001284393 7.96088e-05 0.0001041093 0.1242880986 -0.0384156932
265298410.0 -0.7315158613 0.4297945872 0.0002745909 0.0001165642 -0.0001317312 0.0001272814 0.1234888787 -0.0402407549
270298380.0 -0.7267820622 0.4373935776 0.0002400342 5.01555e-05 0.0002485637 -2.2733e-06 0.1228693928 -0.0422160626
275298350.0 -0.7218158337 0.4450193147 0.0001508438 -0.0001755099 3.45225e-05 5.24332e-05 0.1220360257 -0.0444303976
280298320.0 -0.7169348343 0.4526324974 0.0002072792 0.0001824669 -0.0001177931 0.0001280094 0.1216263552 -0.0460827249
285298290.0 -0.7129239914 0.4601985664 1.07728e-05 0.0002099008 4.43652e-05 0.0003062049 0.120726176 -0.048287044
290298260.0 -0.707645254 0.4677947528 0.0001917953 0.0003224626 -3.5557e-05 3.57934e-05 0.1200973589 -0.0497631122
295298230.0 -0.7024836534 0.4742115916 0.0001198318 0.0002174621 9.13111e-05 0.0002544246 0.1197569049 -0.0520187876
300298200.0 -0.6981600923 0.481714196 0.0001108525 0.0002337455 1.52861e-05 0.0002333488 0.1185937834 -0.0539075146
305298170.0 -0.6925428602 0.4880341961 0.000108301 -2.27375e-05 7.4881e-06 0.0001085095 0.1178712702 -0.0559215551
310298140.0 -0.6876294145 0.4961104981 0.0002344807 -0.0001493213 0.0001800026 -3.78163e-05 0.1169097318 -0.057404186
315298110.0 -0.6829393098 0.5034369028 7.90578e-05 0.0001330557 5.99646e-05 7.93837e-05 0.1158808947 -0.0594381472
320298080.0 -0.6772801586 0.5103029405 6.50032e-05 1.85832e-05 0.0002635307 0.0001194319 0.1151125722 -0.0611463946
325298050.0 -0.6720534511 0.5173499241 0.0001350411 7.34913e-05 7.8559e-06 0.0002033743 0.1134162176 -0.0627282428
330298020.0 -0.6662542528 0.5241443553 0.0001491423 0.0002256683 -4.72174e-05 3.10067e-05 0.1123398338 -0.0645448708
335297990.0 -0.6607936125 0.5307408363 0.0001473357 8.75135e-05 0.0003508022 3.79233e-05 0.11116593 -0.0652572692
340297960.0 -0.65575238 0.5378112747 0.0001901817 4.01611e-05 0.0002632737 9.69647e-05 0.1105124871 -0.0671372009
345297930.0 -0.6497256206 0.5445952538 0.0002095332 0.0001234532 0.0001044396 0.0002067723 0.1086559143 -0.0683643509
350297900.0 -0.6440175658 0.5508317249 0.0001275341 0.0002903791 5.72772e-05 0.000131786 0.1078131499 -0.0693357707
355297870.0 -0.6382506385 0.5580922733 0.0001558929 -1.5476e-05 0.0001106627 -5.24217e-05 0.1065275031 -0.070873451
360297840.0 -0.6325075316 0.5636187158 0.0001485408 8.78183e-05 0.0001356646 6.63456e-05 0.104817278 -0.0722242315
365297810.0 -0.6275309523 0.5704071579 0.0001499638 0.0002831929 8.56568e-05 6.16035e-05 0.104368234 -0.0732935327
370297780.0 -0.6209599044 0.5768913219 0.0001709771 3.96844e-05 4.27843e-05 3.95493e-05 0.1029402903 -0.0745987523
375297750.0 -0.6138265327 0.5831542357 8.99915e-05 0.0003160377 0.0001901122 0.0001735423 0.1016279054 -0.0762634696
380297720.0 -0.60864114 0.5890271943 0.0002183383 0.0001067504 0.0001261009 -6.67694e-05 0.0999815732 -0.077032518
385297690.0 -0.6029210814 0.5951839422 0.0003089935 0.0003673558 0.0003612455 6.85061e-05 0.0991575169 -0.0782947491
390297660.0 -0.597025555 0.6015019338 0.0001724487 0.0001109422 -8.26978e-05 0.0001583627 0.0978355654 -0.0793584597
395297630.0 -0.590027878 0.6080298982 0.0001797294 0.0003640743 7.2406e-05 -7.94625e-05 0.0968758325 -0.0807261091
400297600.0 -0.5837446252 0.6135831629 5.64734e-05 -0.0001260006 7.59783e-05 5.07984e-05 0.0956985479 -0.0818355781
405297570.0 -0.5780706569 0.620016232 8.2374e-06 0.0002653317 0.0002968122 -0.0001229944 0.094429638 -0.0830670339
410297540.0 -0.5705894834 0.6252783028 0.0002027104 4.8908e-05 0.0002876088 -6.648e-07 0.0929496288 -0.0843302394
415297510.0 -0.5645549683 0.6309939911 0.000184969 0.0004863691 0.0001850548 3.1407e-05 0.0918132843 -0.0853610114
420297480.0 -0.5593456246 0.6368933223 0.0002404851 -9.72438e-05 0.0003179989 3.29835e-05 0.090384656 -0.0863207557
425297450.0 -0.5513646332 0.6427319444 0.0001090161 0.0002025349 0.0004205424 0.0001884644 0.0892136212 -0.0874851437
430297420.0 -0.5454439979 0.6481509942 0.000126423 0.0002821071 0.0001227234 0.0001017304 0.0876236122 -0.0886508024
435297390.0 -0.5388868321 0.6529720158 0.0002672736 0.0002480318 0.0001733148 -0.0001346382 0.0866775715 -0.089561385
440297360.0 -0.5318199137 0.6589729542 8.06373e-05 0.0002239012 0.0001355539 5.50575e-05 0.0851771971 -0.0906878983
445297330.0 -0.524698118 0.6642452516 0.0001798734 3.02358e-05 0.0002002959 3.97813e-05 0.0840157889 -0.0921325968
450297300.0 -0.5178725084 0.6691206584 0.0003304951 0.0001691519 0.0002951125 0.0002483868 0.0828706403 -0.0928070335
455297270.0 -0.5112163973 0.674597334 0.0003962899 0.0002214698 0.0003499299 0.0001457967 0.0814592881 -0.0936096784
460297240.0 -0.5052577175 0.6795339031 0.0004059458 0.0002474448 9.90606e-05 0.0003399007 0.0801034404 -0.0946640304
465297210.0 -0.4979287857 0.6848792761 0.000272443 5.78797e-05 0.0002582283 -1.6483e-05 0.0790135561 -0.0953619667
470297180.0 -0.4902539759 0.6899137059 0.0001847851 -9.98915e-05 0.0003095231 7.52315e-05 0.0779022208 -0.0960000509
475297150.0 -0.4834062195 0.6943627888 0.0002234539 0.0002030424 0.0002074297 -0.0001447334 0.0764210688 -0.0974276246
480297120.0 -0.476456311 0.6994920695 0.0002425337 0.0001345491 0.0001428528 -9.3523e-06 0.0754625267 -0.0979701079
485297090.0 -0.4688947115 0.7040212057 0.0001064184 0.0001684605 0.0002123782 0.0001243831 0.0738490558 -0.0986946193
490297060.0 -0.4620027257 0.7086861454 0.0001331523 1.84703e-05 0.0001853596 9.84466e-05 0.072183588 -0.0996519265
495297030.0 -0.4550252742 0.7132462987 0.000227469 0.0001937637 0.0004370477 -5.17346e-05 0.0710458559 -0.1001177825
500297000.0 -0.4474262123 0.7181757479 0.0002282828 8.64877e-05 0.0002741458 1.8376e-06 0.0700596714 -0.100523959
505296970.0 -0.4398513052 0.7222657966 0.0003329687 6.15567e-05 0.0001166396 0.0002640326 0.0684012313 -0.1013015319
510296940.0 -0.432921151 0.7264510689 0.0002415473 0.000306042 0.0001711702 -0.0001145025 0.0668590761 -0.1020224082
515296910.0 -0.4244381407 0.7304406414 0.0001739509 2.39706e-05 0.0002165291 1.08454e-05 0.0656126494 -0.1027939186
520296880.0 -0.4179058057 0.7351235384 0.0005658667 9.96704e-05 0.0003022015 0.0001238728 0.0641687995 -0.1034946263
525296850.0 -0.409906543 0.7392623491 0.0001633368 0.0001819725 0.0002643765 0.0001618566 0.0629885552 -0.103684321
530296820.0 -0.4028078201 0.743440267 0.0002198556 -7.32491e-05 0.0003224017 0.0001747629 0.0615211507 -0.1043285619
535296790.0 -0.3955463323 0.7473853711 0.0002289214 0.0001452028 0.0004665268 8.27275e-05 0.0594499606 -0.1052302139
540296760.0 -0.388221208 0.7514952241 0.0001009642 0.0003695815 0.0001323123 0.0001126672 0.058365885 -0.1056079928
545296730.0 -0.3806305589 0.7549410719 0.000364312 0.0002292054 0.0004581013 -2.19194e-05 0.0569110619 -0.1061829882
550296700.0 -0.3724519247 0.7593934113 0.0003365936 0.0001728496 0.0002637654 0.0001386051 0.0553587067 -0.1066894465
555296670.0 -0.364735072 0.7616938089 0.0004388574 0.0001271266 0.0005176751 5.4589e-06 0.0540012023 -0.1070470379
560296640.0 -0.357581684 0.7658345864 0.000170708 5.60041e-05 0.0002948612 -2.67366e-05 0.0527252773 -0.1072717364
565296610.0 -0.3495041574 0.7694430205 0.0004075949 -0.0002549121 0.0001094078 0.0001396552 0.0509161771 -0.1080611443
570296580.0 -0.3423770116 0.772487237 3.83488e-05 0.0001102238 0.0003034701 3.48817e-05 0.0494256108 -0.1082593198
575296550.0 -0.3345465893 0.7767434817 0.0002299574 -7.31171e-05 0.0005735578 -4.22658e-05 0.0479888107 -0.1088436448
580296520.0 -0.3256839626 0.7797968699 0.0001393586 0.0001097061 0.0001808732 9.67154e-05 0.0463862348 -0.109284326
585296490.0 -0.3186584701 0.7824406598 7.21979e-05 -0.0001059175 0.0002148665 0.0001900371 0.0452995758 -0.1098414022
590296460.0 -0.310412484 0.7858502991 5.62856e-05 1.96579e-05 9.18692e-05 -1.6484e-05 0.0433220484 -0.1100493988
595296430.0 -0.3028710607 0.7884214038 5.89814e-05 6.18334e-05 0.0001957433 0.0001480489 0.0421062526 -0.1104612724
600296400.0 -0.2947267732 0.7918681508 0.0002746251 0.0001448312 6.80044e-05 -2.67468e-05 0.0407207766 -0.1112350624
605296370.0 -0.287528259 0.7945113612 0.0002413384 -1.52911e-05 0.0002840487 0.0001879179 0.0393227285 -0.1112602197
610296340.0 -0.2788158824 0.7968732081 0.0003388695 0.0001510981 0.0003688075 9.68592e-05 0.0377631178 -0.1116657514
615296310.0 -0.2703147003 0.8000304631 0.0001583483 8.72236e-05 0.0002491034 6.7899e-06 0.0364398621 -0.112226718
620296280.0 -0.2626181882 0.8021973756 0.000231741 3.84534e-05 0.0004382267 -5.7633e-06 0.0348158075 -0.1120684975
625296250.0 -0.2543282351 0.8056064512 0.0002874685 -7.64359e-05 0.0003641895 1.67129e-05 0.0340276737 -0.1126408415
630296220.0 -0.2459729814 0.8080477996 0.0002495132 0.0001150945 0.0003682714 3.94397e-05 0.0323286115 -0.1121898363
635296190.0 -0.2383487613 0.8097716967 0.0004032882 -0.0001543517 0.0002199852 7.91814e-05 0.0308122881 -0.1126066123
640296160.0 -0.2309640392 0.8122222916 0.000279507 0.000140469 0.0003293744 3.85374e-05 0.0294262921 -0.1130337926
645296130.0 -0.2228290249 0.8153412273 0.0003058158 -0.0001402434 0.0003254032 0.0001724967 0.0280240287 -0.1130801717
650296100.0 -0.2141419026 0.8167229995 0.0003588632 2.34007e-05 0.0004540377 0.0001133433 0.0266071242 -0.113459186
655296070.0 -0.2057538809 0.8193080126 0.000297489 0.0001902539 0.0003025766 -9.08975e-05 0.0257104485 -0.1133766516
660296040.0 -0.1977736171 0.8206289247 0.0004738638 -7.31816e-05 0.0003804913 -7.77486e-05 0.0240914628 -0.1137504869
665296010.0 -0.189344898 0.8219064362 0.0003770787 1.32755e-05 0.0004507379 4.45158e-05 0.0224700785 -0.1136633624
670295980.0 -0.181413418 0.8247248706 0.000493435 6.96347e-05 0.0004350249 0.0002205783 0.0208008562 -0.1134905235
675295950.0 -0.1730038731 0.8261181506 0.0002256589 6.74517e-05 0.0002819598 -9.38849e-05 0.0193051287 -0.1132766186
680295920.0 -0.1643372099 0.8282976305 0.0001175841 -6.7139e-05 0.0004350057 -0.0001787246 0.0182687003 -0.1131903315
685295890.0 -0.1565763056 0.8301309194 0.000398213 5.8217e-05 0.0003006355 1.13768e-05 0.0168158322 -0.1132579191
690295860.0 -0.1488003459 0.8305510522 0.0005192806 -0.0001944137 0.0002507966 4.07384e-05 0.0153644867 -0.1128766051
695295830.0 -0.1402240609 0.8320277499 0.0004933373 -0.0001462855 0.000298709 9.40723e-05 0.0139853687 -0.1129419162
700295800.0 -0.131402804 0.8339516204 0.0002366303 3.79555e-05 0.0002608922 -8.96378e-05 0.0120853735 -0.1129893714
705295770.0 -0.1242403286 0.835040096 0.0004394576 0.0001140998 0.0002658505 -2.87876e-05 0.0108437163 -0.1125407235
710295740.0 -0.1151227233 0.8363656868 0.0003994796 -4.899e-06 0.0001090397 2.81381e-05 0.0090924888 -0.1126656673
715295710.0 -0.1072213465 0.8375390257 0.0003591339 0.000103756 0.0004795902 -0.000247815 0.0080634011 -0.1125961648
720295680.0 -0.0987294762 0.8383357328 0.0002593455 -7.95356e-05 0.0003812674 -4.81866e-05 0.0067041791 -0.1123954155
725295650.0 -0.0905650358 0.8393449272 0.0002830247 -0.0002860023 0.0005494366 0.000188833 0.0047154729 -0.1118198511
730295620.0 -0.0815585482 0.840552521 0.0002988358 0.0001105847 0.0001132018 -1.8343e-06 0.003216898 -0.1120395118
735295590.0 -0.0744872527 0.841161766 0.0001880878 -0.0004964143 0.0002772829 8.65266e-05 0.0015497 -0.1121271067
740295560.0 -0.0661443427 0.84224005 0.0005997062 -0.0001996432 0.0004460854 9.3836e-06 0.0006259534 -0.1115897188
745295530.0 -0.0571651299 0.8422773189 0.0002105232 0.0001096383 0.0003467069 -8.41752e-05 -0.0010224432 -0.1113645081
750295500.0 -0.0483708033 0.8422321723 0.0001748024 -0.0001449494 0.0003566596 3.88949e-05 -0.0024067427 -0.1112889192
755295470.0 -0.0401515381 0.8428280898 0.0002394777 -0.0001981476 0.0003992021 0.0001341587 -0.0036219703 -0.1112270801
760295440.0 -0.0317373123 0.8434801665 0.0005427294 -8.18993e-05 0.0002714508 -3.49425e-05 -0.0053188022 -0.1110015706
765295410.0 -0.0237665882 0.843685484 0.0002976208 7.00129e-05 0.0003701003 6.95365e-05 -0.0065170675 -0.1103632062
770295380.0 -0.0158380219 0.844335194 0.0005784824 -0.0001051516 0.0004567414 -0.0002051284 -0.0083458648 -0.1102041093
775295350.0 -0.0074109558 0.8438939472 0.000348274 -0.0001819794 0.0002452623 -0.000177872 -0.0097713367 -0.109827556
780295320.0 0.0013272033 0.8434229604 0.0003635392 -1.9014e-06 0.0002443035 1.7974e-05 -0.0111648995 -0.1097969528
785295290.0 0.0095551038 0.8431635713 0.0004227592 0.0002390844 0.0002646299 4.1883e-05 -0.0119914448 -0.1096112959
790295260.0 0.0182387249 0.8436422199 0.0005051841 -0.0001207231 0.0005018074 -4.3156e-05 -0.0133012168 -0.1091753243
795295230.0 0.0260344105 0.843383333 0.0003573359 -0.0001956932 0.0003366006 0.0001699454 -0.0150132626 -0.1085259955
800295200.0 0.034584412 0.8428061691 0.0004256928 -0.0001203297 0.0002521814 -0.0001343081 -0.016211555 -0.108077422
805295170.0 0.043079517 0.8424147072 0.0001199947 -8.46425e-05 0.0004473841 -0.0001629628 -0.0176117902 -0.1077739251
810295140.0 0.0513295944 0.8422496431 0.0002908309 0.0001755362 0.0003928048 -0.0001487625 -0.0183692957 -0.1075005438
815295110.0 0.0597076215 0.8416038296 0.0003786362 -9.76642e-05 0.000198764 -0.0001021477 -0.0198715204 -0.1066650323
820295080.0 0.0678998835 0.8411825075 0.0004274063 0.0001736416 0.0004982307 -0.0002032022 -0.0211279942 -0.1064960246
825295050.0 0.0767910553 0.8405415157 0.0003251087 -0.0001698056 0.0003432695 -0.0001849612 -0.0223550393 -0.1061146277
830295020.0 0.0846714629 0.8397018689 0.0002626639 -0.0003187845 0.0005143616 -7.28688e-05 -0.0234945076 -0.1051826684
835294990.0 0.0927290606 0.8389519586 0.0002830212 1.47705e-05 0.0003410771 4.23908e-05 -0.0248744407 -0.1047976999
840294960.0 0.1005458347 0.8380738825 0.0002791875 5.64576e-05 0.0005496972 -6.62655e-05 -0.026370718 -0.1042184085
845294930.0 0.1090675675 0.8368963005 0.0002674817 -0.000241926 0.0001339964 -7.34268e-05 -0.0276722433 -0.1038319097
850294900.0 0.1173123274 0.8358590384 0.0003198646 -0.0002187423 0.0006002471 -6.15983e-05 -0.0288939719 -0.1029581408
