!Created with skrf (http://scikit-rf.org).
# Hz S RI R 50.0 
!freq ReS11 ImS11 ReS21 ImS21 ReS12 ImS12 ReS22 ImS22
300000.0 -0.2438838129 -0.075925354 0.4730753954 0.0487388915 0.4687559141 0.0486338539 -0.2405285299 -0.0845972102
5299970.0 -0.2443093157 0.0074631376 0.4737780165 0.0048000937 0.473801548 0.0052318689 -0.2446720524 0.0074203306
10299940.0 -0.2410841681 0.0189271474 0.4755909382 0.0060262952 0.4756009572 0.0064470188 -0.2413970422 0.0202144735
15299910.0 -0.2367889612 0.0279753431 0.4790711937 0.0075879096 0.4794488487 0.0076730628 -0.2367243912 0.0295564956
20299880.0 -0.2321556763 0.0353516457 0.4837186531 0.0088793992 0.4841266423 0.0083750561 -0.231490607 0.0372715281
25299850.0 -0.2269908873 0.0420250048 0.4890879538 0.0074852926 0.4891800459 0.0076616529 -0.2253829802 0.0436478406
30299820.0 -0.2212967729 0.0471247605 0.4946613049 0.0056560028 0.4945087659 0.0053471444 -0.2195292319 0.0489461037
35299790.0 -0.2165670741 0.0511261157 0.5003419438 0.0019906438 0.4999394418 0.0020608186 -0.2137893324 0.0529758308
40299760.0 -0.2113301639 0.0552671148 0.5050533819 -0.0020379614 0.5053531224 -0.001624437 -0.2087001513 0.0557285811
45299730.0 -0.2067463133 0.0577398283 0.5094350264 -0.0064564345 0.5101043483 -0.0061410188 -0.203718538 0.058665583
50299700.0 -0.2024361071 0.0597151361 0.5142228924 -0.0118351011 0.5141964272 -0.0116583641 -0.198681288 0.0601349285
55299670.0 -0.1983602568 0.0616738262 0.5181391815 -0.0184863228 0.5180022582 -0.0177401511 -0.1945522798 0.0618999541
60299640.0 -0.1942890839 0.063617004 0.5210973252 -0.0245928821 0.5214950373 -0.0235993388 -0.1903248956 0.0628015334
65299610.0 -0.1912455735 0.0648607974 0.5245729335 -0.0303856049 0.5241330691 -0.0305199 -0.1868717106 0.063868959
70299580.0 -0.1879601615 0.0660565298 0.5268772868 -0.037112029 0.5266856938 -0.0372192265 -0.1835317884 0.064931569
75299550.0 -0.1851701005 0.0673335032 0.5285851238 -0.0437649018 0.5282207866 -0.0438548813 -0.1811169291 0.0649047125
80299520.0 -0.1825646034 0.0680539009 0.5305697147 -0.0507125301 0.5306862792 -0.050873251 -0.1783247269 0.066002257
85299490.0 -0.1800793726 0.0686249161 0.5314564784 -0.05750915 0.5320575144 -0.057209582 -0.17595337 0.066114867
90299460.0 -0.1777936013 0.0695649603 0.532690376 -0.0645763231 0.5333242914 -0.064614677 -0.17358245 0.0667573614
95299430.0 -0.1755449081 0.0703507061 0.5341026575 -0.0716121694 0.5336530399 -0.0716503495 -0.1714511667 0.0673913771
100299400.0 -0.1737268929 0.0714117929 0.5337020926 -0.0781664953 0.5340565215 -0.0784591982 -0.1692768372 0.06757244
105299370.0 -0.1721535236 0.0724520576 0.5343990502 -0.0854436399 0.5345842457 -0.0852583697 -0.1672245776 0.0682363465
110299340.0 -0.1703469616 0.0731685958 0.5347839184 -0.0919542039 0.5344402735 -0.0919178742 -0.1662691726 0.0687494094
115299310.0 -0.168797406 0.0738647406 0.5347458075 -0.0992564935 0.5343636208 -0.0987656717 -0.1647426482 0.0696344379
120299280.0 -0.1673972661 0.0746825125 0.5343554144 -0.1059700524 0.5347403755 -0.1056049178 -0.1635332281 0.069793276
125299250.0 -0.1660706144 0.075439144 0.5340175892 -0.1128214946 0.5343565972 -0.1121914698 -0.1627123749 0.070032685
130299220.0 -0.1650370847 0.076633024 0.5331337575 -0.1191972156 0.5333159389 -0.1190250869 -0.1614126253 0.0706116539
135299190.0 -0.1637377005 0.0778451957 0.532879773 -0.1259949314 0.5325896734 -0.1256707474 -0.1599387889 0.0715195006
140299160.0 -0.1628794128 0.0788828235 0.5318476722 -0.1327256089 0.53222965 -0.13227573 -0.1588066982 0.0725484877
145299130.0 -0.1615084112 0.0799902888 0.5311036773 -0.139430908 0.5310797719 -0.1388767515 -0.1584819767 0.0731885038
150299100.0 -0.1601851614 0.0811434444 0.5297680709 -0.1452503647 0.5298010893 -0.145242135 -0.1572851989 0.0741780238
155299070.0 -0.1597342176 0.0821225431 0.5286459632 -0.1527223126 0.5289332566 -0.1524137604 -0.1562462788 0.0750112495
160299040.0 -0.1583672932 0.0833864184 0.5271872638 -0.1585089363 0.5271616018 -0.1585795118 -0.1561017868 0.075486122
165299010.0 -0.1576667809 0.0848459203 0.5262012065 -0.165685889 0.5261087381 -0.1651168879 -0.1549415848 0.0766788225
170298980.0 -0.1565934104 0.0858400367 0.5243753002 -0.1714137525 0.5247018117 -0.1714265714 -0.1538365039 0.0777686899
175298950.0 -0.1556735307 0.0870207398 0.5233844688 -0.1776175419 0.5224208252 -0.1777948475 -0.1532948896 0.0788222221
180298920.0 -0.1547223092 0.0885550807 0.5215613337 -0.1843691319 0.521224452 -0.1838778236 -0.1527198337 0.0798852088
185298890.0 -0.1535834231 0.0891228155 0.518954664 -0.1901675868 0.5192571076 -0.1899016015 -0.1519386425 0.080994556
190298860.0 -0.152870721 0.0909757207 0.5173186962 -0.1966206214 0.5175672163 -0.1962024916 -0.1508582541 0.0815722804
195298830.0 -0.1519883523 0.091995038 0.5156234617 -0.2024954011 0.5152493923 -0.2023708137 -0.1500780841 0.0827828122
200298800.0 -0.1506604876 0.0936556145 0.5129742517 -0.2084946747 0.5136978387 -0.208981544 -0.150036742 0.0839327322
205298770.0 -0.1496284707 0.0950512992 0.5107758009 -0.2149539663 0.5110077555 -0.2146007827 -0.1486381545 0.0843571509
210298740.0 -0.1492709057 0.0960791493 0.508923828 -0.2202596778 0.5087079055 -0.2203683016 -0.1478268458 0.0863799819
215298710.0 -0.1482823711 0.0977384663 0.5067086537 -0.2268015091 0.5063106579 -0.2270648848 -0.1472830703 0.0873561267
220298680.0 -0.1469783596 0.0986647542 0.5036069436 -0.2322299795 0.5038851898 -0.2321101784 -0.1468020916 0.0886163388
225298650.0 -0.1462748861 0.1004926692 0.5012364269 -0.2387014082 0.5018308567 -0.2382477625 -0.1461182627 0.0894675425
230298620.0 -0.1450649423 0.1020118221 0.498952227 -0.2438783545 0.4994384881 -0.2441847018 -0.1452230806 0.0904594758
235298590.0 -0.1441032213 0.1035598719 0.4965683599 -0.2502269994 0.4964537703 -0.2495473736 -0.1445867577 0.0916860529
240298560.0 -0.1430322742 0.1049214553 0.4939313756 -0.2560654918 0.4938596866 -0.255901857 -0.1437743118 0.0933111383
245298530.0 -0.1420943579 0.1064154132 0.4916637531 -0.2613382434 0.4907610403 -0.2616418774 -0.1424461208 0.0939843896
250298500.0 -0.1409104292 0.108001651 0.4876367586 -0.2672455802 0.4878448074 -0.2666757447 -0.1425567648 0.0955250359
255298470.0 -0.1396409878 0.1088464453 0.4843423101 -0.2721010767 0.4850943651 -0.2722629273 -0.1412030576 0.0968431714
260298440.0 -0.1390920707 0.1103359374 0.4820840776 -0.2780030258 0.4824828863 -0.2779911632 -0.1401043558 0.0979873284
265298410.0 -0.1374576692 0.1124499231 0.4791635635 -0.2835987598 0.4796052212 -0.2835057358 -0.1395323662 0.0993571674
270298380.0 -0.1366086026 0.1137796317 0.4762437122 -0.2887502384 0.4764878142 -0.2889693354 -0.1388043747 0.1006136454
275298350.0 -0.1353408236 0.1149971359 0.4730468795 -0.2945098351 0.4729976307 -0.2943118935 -0.1374650096 0.1017508187
280298320.0 -0.1340246091 0.1166618383 0.4699559764 -0.3000296839 0.4698265591 -0.299990549 -0.1367224807 0.1033972979
285298290.0 -0.1328727233 0.1180045586 0.4666046431 -0.3052040675 0.4665157469 -0.3055123297 -0.1357208819 0.10467837
290298260.0 -0.131533625 0.1198223826 0.4633502927 -0.3102438337 0.4634540321 -0.3106858167 -0.1349995807 0.1061655443
295298230.0 -0.1302402709 0.1208732075 0.459706678 -0.3157785888 0.4599747595 -0.3158711235 -0.133813606 0.1069871447
300298200.0 -0.1293303926 0.1224475729 0.4569102548 -0.3211605467 0.4565181158 -0.3211335605 -0.1329659015 0.1083053509
305298170.0 -0.1276869062 0.1234188277 0.4526577233 -0.3260909067 0.4531088733 -0.3260917443 -0.131352571 0.1094386302
310298140.0 -0.1267774056 0.1251770805 0.4496420976 -0.3317172139 0.4499498236 -0.3315264028 -0.1305822807 0.1105554186
315298110.0 -0.1253421519 0.1264525768 0.4456826168 -0.3368784777 0.4460519572 -0.3365468984 -0.1298337023 0.1117208813
320298080.0 -0.1237816681 0.1278673535 0.4417093984 -0.3421263945 0.442152362 -0.3416441565 -0.1289330855 0.113192656
325298050.0 -0.12282954 0.1290733153 0.4380870891 -0.3468773561 0.4382734313 -0.3466831221 -0.1281478641 0.1142189771
330298020.0 -0.1214215311 0.130197128 0.433713198 -0.3519044714 0.4344181556 -0.3517706276 -0.1273772422 0.1153501515
335297990.0 -0.1203184832 0.1314201604 0.4303741499 -0.3563450046 0.4299107874 -0.3567747926 -0.1267457195 0.117232754
340297960.0 -0.1193542121 0.133150399 0.4255586221 -0.3613726723 0.4257212517 -0.3614515203 -0.1253044844 0.1185115496
345297930.0 -0.1178774828 0.1349896504 0.4219461641 -0.3666760159 0.4215955733 -0.3662065077 -0.1247345408 0.1193277639
350297900.0 -0.1168399628 0.1356483449 0.4171473544 -0.3708043376 0.4174025224 -0.3708030734 -0.1238756545 0.1210068963
355297870.0 -0.1150504328 0.1376445138 0.4131308544 -0.3754384763 0.4136734683 -0.3754501637 -0.1227807498 0.1221625787
360297840.0 -0.1138608394 0.1390120913 0.4096924426 -0.3797851944 0.4099144093 -0.3798290422 -0.1217043075 0.1236014115
365297810.0 -0.1122063841 0.1405152655 0.4051789536 -0.3844536382 0.405486771 -0.3845808233 -0.1204803853 0.1246910593
370297780.0 -0.1107384562 0.1414192154 0.4004012445 -0.3884381545 0.4010703196 -0.3884919919 -0.1193585464 0.126185975
375297750.0 -0.1091030181 0.1431739742 0.3964823144 -0.3932432598 0.3971408365 -0.393129609 -0.1181789366 0.1269712662
380297720.0 -0.1077832379 0.1442130016 0.3920305606 -0.3977404089 0.3924241554 -0.3967210239 -0.1175361187 0.1284563121
385297690.0 -0.1062959779 0.1455392348 0.3878848466 -0.4018371706 0.387917291 -0.4019155385 -0.1158391984 0.1301324804
390297660.0 -0.104795141 0.1470918277 0.3835693572 -0.4062288716 0.3833365838 -0.4054397592 -0.1149701847 0.1309498318
395297630.0 -0.1032337304 0.1483242743 0.3788727741 -0.4104844803 0.3791313264 -0.4102660548 -0.1131223893 0.1324485769
400297600.0 -0.1016931842 0.1496289095 0.374332776 -0.4150362593 0.3743974796 -0.4142951733 -0.1121769724 0.1334018132
405297570.0 -0.1003662182 0.1506971843 0.3701481146 -0.4183083874 0.3698113028 -0.4183444374 -0.1110863099 0.1349366639
410297540.0 -0.098485154 0.1519493826 0.3653273074 -0.4224987749 0.365664057 -0.4227581867 -0.1097484041 0.1360371705
415297510.0 -0.0967770496 0.1532999074 0.3606874275 -0.4269932393 0.3608657861 -0.4266163703 -0.1086463192 0.137223966
420297480.0 -0.0952748429 0.1546498663 0.3558841143 -0.430623275 0.3561561022 -0.4308488606 -0.1075762295 0.1385099418
425297450.0 -0.0938077351 0.1552053128 0.3515544867 -0.4342647061 0.3519489919 -0.4342017518 -0.1065156623 0.1399903941
430297420.0 -0.0918495559 0.1564735153 0.3466601965 -0.4376307894 0.3466603225 -0.438073507 -0.1050761382 0.140622959
435297390.0 -0.0905022971 0.1578418386 0.3416146198 -0.4418204481 0.3414978581 -0.4418316828 -0.103171515 0.1419995055
440297360.0 -0.0885853054 0.1590797886 0.3365895962 -0.4454644647 0.3369795633 -0.4456627496 -0.1021956361 0.1430617517
445297330.0 -0.0867148679 0.1596999352 0.3319022212 -0.4491681735 0.3323342776 -0.4487028313 -0.100796225 0.1437143681
450297300.0 -0.0848725339 0.1609283873 0.326964893 -0.4531062305 0.3272921941 -0.452826239 -0.09928684 0.1448850365
455297270.0 -0.0833399832 0.16228136 0.3219197511 -0.4567556869 0.3220163803 -0.4562913143 -0.0980398984 0.1462908916
460297240.0 -0.0817669876 0.1632731768 0.3166617463 -0.4598329724 0.3170272883 -0.4595418463 -0.0966632439 0.1475349019
465297210.0 -0.0796697074 0.1642908735 0.3119925019 -0.4638429112 0.3119615412 -0.4638146204 -0.0950284807 0.1481689018
470297180.0 -0.0778109053 0.1653619355 0.306423752 -0.4667297184 0.3069944683 -0.4665431502 -0.0937191782 0.1496838043
475297150.0 -0.0760283654 0.1659789131 0.3013872513 -0.4694713711 0.3022130862 -0.4695158361 -0.0920942553 0.1502560139
480297120.0 -0.0741095709 0.1675531004 0.2963362272 -0.473249173 0.2964823699 -0.4732258752 -0.090600201 0.1514500993
485297090.0 -0.0725036656 0.1683512426 0.2914684413 -0.476091474 0.2913883835 -0.4758839083 -0.0893565848 0.152537198
490297060.0 -0.0709951165 0.1692083096 0.2865941751 -0.4796464439 0.2866576075 -0.4791968427 -0.0877338062 0.1537791767
495297030.0 -0.0689435492 0.1701238216 0.2808952924 -0.4822536218 0.2813591702 -0.4823122641 -0.0865221517 0.1545536181
500297000.0 -0.0667757624 0.1711979856 0.2752244878 -0.4853320741 0.2753192345 -0.4853649983 -0.0845800089 0.1561208278
505296970.0 -0.0648818593 0.1718041723 0.2701920754 -0.4883255642 0.2704876119 -0.488233632 -0.0837541469 0.1569105468
510296940.0 -0.0631279242 0.1728340582 0.2650101304 -0.4914703706 0.2647490426 -0.4916231765 -0.0818371288 0.1579002785
515296910.0 -0.0609968897 0.173870213 0.259397892 -0.4942369658 0.2595763616 -0.494224447 -0.0802529657 0.1587727687
520296880.0 -0.0594394565 0.1745448086 0.2538933147 -0.497313316 0.2541999467 -0.4970700059 -0.078931283 0.1592145605
525296850.0 -0.057351545 0.1745307229 0.248557375 -0.4994618827 0.2491561564 -0.4998292436 -0.0776566735 0.1606014533
530296820.0 -0.0551954629 0.1760555719 0.2430775376 -0.5022788488 0.2433011293 -0.5027343943 -0.0757072109 0.1613164094
535296790.0 -0.0539659383 0.1769790047 0.2379188281 -0.504940727 0.2384547724 -0.5045699406 -0.0745754946 0.1619261918
540296760.0 -0.051650731 0.177654248 0.2324298669 -0.5075935668 0.2321053106 -0.5074474364 -0.0730364528 0.1627309041
545296730.0 -0.0500847402 0.1780386418 0.2267969645 -0.5096819118 0.2267235769 -0.5099829755 -0.0715083278 0.1637288011
550296700.0 -0.0476231889 0.1787758773 0.2209640338 -0.5124395554 0.2214512102 -0.5123985976 -0.0699650028 0.1648181796
555296670.0 -0.0457666401 0.179341599 0.2156830423 -0.5145765363 0.2160170705 -0.5144042055 -0.0682205779 0.1656840995
560296640.0 -0.0434135675 0.1806137256 0.2098957836 -0.5172499159 0.2099811029 -0.5172629818 -0.0664913153 0.1666829769
565296610.0 -0.0420995468 0.1806800885 0.2044570833 -0.5191775238 0.2045383735 -0.5192543184 -0.0649854136 0.1669842898
570296580.0 -0.0400125282 0.1815250799 0.1984014014 -0.5217306125 0.1983608406 -0.5212110392 -0.0635360711 0.1683531067
575296550.0 -0.0380922326 0.1825319324 0.1928358199 -0.5237963249 0.1927593725 -0.5236969879 -0.0615613671 0.1686427507
580296520.0 -0.0358148094 0.1825872197 0.1871820711 -0.5258095993 0.187407303 -0.5258426301 -0.0601067424 0.1693795521
585296490.0 -0.0341701688 0.1826838357 0.181953256 -0.5270178909 0.181783646 -0.5275742394 -0.0584528494 0.1701025037
590296460.0 -0.0318310109 0.1836439325 0.1760954215 -0.5286845159 0.1762174096 -0.529220446 -0.0572884492 0.1710717923
595296430.0 -0.0299514806 0.1841758616 0.1698496514 -0.5312678919 0.1701996668 -0.5314525675 -0.0551604179 0.1714439663
600296400.0 -0.0280431204 0.1843022215 0.164312359 -0.5329541453 0.164451162 -0.5327901842 -0.0538615566 0.1721699571
605296370.0 -0.026020311 0.1847564709 0.1586006743 -0.5348151433 0.1589330688 -0.5346408438 -0.0516689629 0.1726865178
610296340.0 -0.0236986025 0.1854589738 0.1522076903 -0.536308052 0.1525270681 -0.5361616145 -0.0499618343 0.173605153
615296310.0 -0.0216188305 0.1854701326 0.1466700769 -0.5375521081 0.1467964185 -0.5384707297 -0.0483625325 0.1741939412
620296280.0 -0.0197612246 0.185683249 0.1410043318 -0.5392113236 0.1415342886 -0.5391848864 -0.0468285938 0.17488727
625296250.0 -0.0179371319 0.1859699965 0.1356387306 -0.5409972322 0.135050391 -0.5411945058 -0.0446455474 0.1754077811
630296220.0 -0.0149209672 0.186794683 0.1287543933 -0.542516472 0.1289326007 -0.5421791226 -0.0430865338 0.1763468629
635296190.0 -0.0139246361 0.1869658134 0.1237196682 -0.5434171985 0.1233743533 -0.5439246125 -0.0412856843 0.1767814956
640296160.0 -0.011474764 0.1874675492 0.117645743 -0.5446995306 0.1181131052 -0.5448739194 -0.040198688 0.1771372229
645296130.0 -0.0093946609 0.1879681545 0.1113291185 -0.5458529786 0.1120474617 -0.5463732345 -0.0381311126 0.1779667474
650296100.0 -0.0071807732 0.187880602 0.1055089409 -0.5471302107 0.1059998191 -0.5473937505 -0.0360984379 0.1779863824
655296070.0 -0.0054303592 0.1878576032 0.0997760849 -0.5482003824 0.1000688822 -0.5480640801 -0.034586974 0.1787537171
660296040.0 -0.0037380688 0.1877811562 0.094161829 -0.5490860792 0.0942178327 -0.5494064907 -0.0325110761 0.1791496105
665296010.0 -0.0008166444 0.188037264 0.0875207099 -0.5499981785 0.0882938659 -0.5504426762 -0.0310501656 0.180407439
670295980.0 0.0002426465 0.1885566471 0.0819803623 -0.5511207684 0.0822439607 -0.5511022795 -0.029514883 0.1803487174
675295950.0 0.0025480551 0.1888098414 0.0764240028 -0.5517445117 0.0766213959 -0.5512205874 -0.0282842423 0.1807764322
680295920.0 0.0045730356 0.1886427707 0.069496078 -0.5525187869 0.0696719269 -0.5531239667 -0.0259307659 0.1816939913
685295890.0 0.0072855685 0.1891837549 0.0639304626 -0.5537504378 0.0639106723 -0.5532360281 -0.0243183124 0.1817377543
690295860.0 0.0090227356 0.1888998196 0.0584626277 -0.5537860904 0.0584657676 -0.5544142709 -0.0226460488 0.1829522826
695295830.0 0.0110917306 0.1890188717 0.0526791963 -0.5541575518 0.0520515925 -0.5541422751 -0.0206719831 0.1827309067
700295800.0 0.0133138774 0.1888798221 0.0460296041 -0.5551137914 0.0456660735 -0.5549278479 -0.0191056344 0.1833305582
705295770.0 0.0149968781 0.1893309187 0.0400867941 -0.5553027647 0.0405436515 -0.5556545157 -0.0173166404 0.1834422473
710295740.0 0.0175269875 0.189013671 0.0343374769 -0.5563375487 0.0348348726 -0.5563215508 -0.0153447189 0.1834994225
715295710.0 0.0190847526 0.1889002731 0.0286630793 -0.5564447155 0.0286047429 -0.556152392 -0.0138216865 0.1839138006
720295680.0 0.0215061519 0.1886932402 0.0220976326 -0.5563694514 0.0225614032 -0.5563071616 -0.0118123297 0.1846553411
725295650.0 0.0234621283 0.1887810754 0.0160125448 -0.5564369041 0.0165955481 -0.5570099286 -0.0106679024 0.1847441009
730295620.0 0.0259089273 0.1890004279 0.0102716606 -0.5564697788 0.0105223797 -0.5570116797 -0.0085877591 0.1850098614
735295590.0 0.0276426033 0.18880394 0.0040563624 -0.5571525951 0.0044053922 -0.5567641004 -0.0071842906 0.184557343
740295560.0 0.0294297362 0.1883719273 -0.0015038887 -0.5567848747 -0.0016559835 -0.5568160413 -0.0044796485 0.1852817303
745295530.0 0.031839107 0.188452984 -0.0078104177 -0.5566227985 -0.0078574179 -0.5564734369 -0.0028750459 0.1847980636
750295500.0 0.0340435714 0.1881793177 -0.013883126 -0.5563316502 -0.0134461564 -0.5566574534 -0.0012198385 0.1854110843
755295470.0 0.0361277508 0.1876139057 -0.0196161651 -0.5564356764 -0.0195270371 -0.5562366178 0.0011416212 0.1852299202
760295440.0 0.0377616445 0.1873035702 -0.0259422849 -0.5563211533 -0.0254886903 -0.5565822533 0.0023234138 0.1855599837
765295410.0 0.0400484221 0.1872734638 -0.0316963863 -0.5558576472 -0.0321894184 -0.5558456709 0.0046742327 0.1859922372
770295380.0 0.0418285366 0.1868163396 -0.0381594329 -0.5549811783 -0.0378015862 -0.55524248 0.0057592051 0.1858687581
775295350.0 0.0440622402 0.1861825555 -0.0441459582 -0.5543619147 -0.0436364397 -0.5549225099 0.0074048124 0.1862143089
780295320.0 0.0462177927 0.1861563984 -0.0499559513 -0.5542870134 -0.048882652 -0.5542823508 0.0093817285 0.185689635
785295290.0 0.0478516496 0.1852190919 -0.0557640598 -0.5533078276 -0.055340727 -0.5536603515 0.0119128406 0.1860212344
790295260.0 0.0505512834 0.1855972415 -0.0613903581 -0.5527036086 -0.060571675 -0.5528277673 0.0137571482 0.1862621301
795295230.0 0.0524332205 0.1847536339 -0.0677200369 -0.5518369694 -0.0666182771 -0.5523719592 0.0154563502 0.18654795
800295200.0 0.054167158 0.1846399019 -0.0741672785 -0.5514530633 -0.0734360276 -0.551258517 0.0172986644 0.1862663442
805295170.0 0.0565365342 0.1838157772 -0.0794037795 -0.5501948168 -0.0792553376 -0.5507363082 0.019002179 0.1864983881
810295140.0 0.0582522417 0.1831798769 -0.0849654907 -0.5495959806 -0.084942812 -0.549815588 0.0212330953 0.186593898
815295110.0 0.0602519219 0.1824548578 -0.0912016205 -0.5482002909 -0.090823747 -0.5488620417 0.0227425677 0.1864114265
820295080.0 0.0620555904 0.182695775 -0.0969449793 -0.5470963836 -0.0967121794 -0.5476428731 0.0246998676 0.1866002148
825295050.0 0.065093428 0.1818825934 -0.1030615032 -0.5461803322 -0.1028124702 -0.5466090716 0.0264959728 0.1864253586
830295020.0 0.066213742 0.181266932 -0.108852214 -0.5448663801 -0.1084682721 -0.5449252087 0.0286528288 0.1862610822
