!Created with skrf (http://scikit-rf.org).
# Hz S RI R 50.0 
!freq ReS11 ImS11 ReS21 ImS21 ReS12 ImS12 ReS22 ImS22
300000.0 -0.3173047915 -0.1017355254 0.3721879765 0.0525368678 0.3731135847 0.0552094594 -0.3156228016 -0.1110283196
5299970.0 -0.3238778365 0.0051226281 0.3785876843 0.0026873105 0.3783967877 0.0028838593 -0.3260166087 0.002928726
10299940.0 -0.3211252896 0.0157188021 0.3798064936 0.0020178685 0.3797506681 0.0023743016 -0.3240756162 0.0128530353
15299910.0 -0.3181512725 0.0236552415 0.3819702735 0.0019442225 0.3819583105 0.0025014132 -0.3213852238 0.0199818206
20299880.0 -0.3144410906 0.0302786564 0.3850349025 0.001864724 0.3851679532 0.0016004511 -0.3187540956 0.0256712813
25299850.0 -0.3106411882 0.0357262326 0.3884584707 -0.0001616875 0.3885824769 -0.0001290003 -0.3158452153 0.0311144562
30299820.0 -0.3066918214 0.0404046732 0.3919257695 -0.0022533495 0.3915644806 -0.0021174779 -0.3127685462 0.0354412752
35299790.0 -0.3030582385 0.0449337087 0.3954533341 -0.005028626 0.395335949 -0.0052561972 -0.309940644 0.0395974601
40299760.0 -0.2993987403 0.0481081401 0.3984681994 -0.008774954 0.3985019398 -0.0089213545 -0.3071240411 0.0430522203
45299730.0 -0.2964417846 0.0512371454 0.4009498983 -0.0125475331 0.4012426986 -0.0127392373 -0.3045083235 0.0461529575
50299700.0 -0.2932211762 0.0541348586 0.4035840879 -0.0174518768 0.40388351 -0.0175799483 -0.3020587772 0.0494580016
55299670.0 -0.291023505 0.0566948298 0.4055767735 -0.0218786274 0.4058663483 -0.022013886 -0.3003353867 0.0521842631
60299640.0 -0.2882299388 0.0591175091 0.4076173185 -0.027259769 0.4077625545 -0.0268336056 -0.298373621 0.0545176622
65299610.0 -0.2861438453 0.0616773415 0.4095980481 -0.0314589802 0.409452835 -0.0316735487 -0.2961822504 0.0572202221
70299580.0 -0.2839620784 0.0637525863 0.4108038902 -0.0366683204 0.4106645086 -0.0369606513 -0.2946100401 0.0596857179
75299550.0 -0.2817974715 0.0658193132 0.4116812723 -0.0418974054 0.4116332499 -0.0421400868 -0.2930935686 0.0620189671
80299520.0 -0.2801292614 0.0678412462 0.4122397456 -0.0472547971 0.4126535763 -0.0476698572 -0.291374855 0.0643048616
85299490.0 -0.2784972611 0.0697450332 0.4130774658 -0.0523965038 0.4131357346 -0.0524190214 -0.2901652498 0.0662934081
90299460.0 -0.2770403118 0.0721186009 0.4135044222 -0.057790835 0.4136506875 -0.0579671633 -0.2889370007 0.0688661635
95299430.0 -0.2755675954 0.0742881281 0.4138940126 -0.0631450875 0.4141409354 -0.0631768654 -0.287518573 0.0713834542
100299400.0 -0.2743208668 0.0764337293 0.4135725568 -0.0681992664 0.4137157232 -0.0685420155 -0.286656586 0.0733947359
105299370.0 -0.2731437141 0.0783422984 0.413699633 -0.0733780917 0.4136970992 -0.0737276411 -0.284917719 0.0756768362
110299340.0 -0.2718908503 0.0803885215 0.4133240113 -0.0785283532 0.4136506001 -0.0789716631 -0.2845340618 0.0781923325
115299310.0 -0.2706857692 0.0822527198 0.4132660246 -0.0835470167 0.4133643129 -0.083746218 -0.2830836258 0.0802109389
120299280.0 -0.2696554751 0.0847310825 0.4129655234 -0.0886753983 0.4129800826 -0.0890982977 -0.2824875615 0.0827730597
125299250.0 -0.2690563004 0.0866290689 0.4124137012 -0.0936880464 0.4124917809 -0.094218665 -0.2809995382 0.0851802144
130299220.0 -0.2676395168 0.0892275201 0.4113191905 -0.0988332785 0.4116475577 -0.099255429 -0.2806237395 0.0872524971
135299190.0 -0.2663982468 0.0909245798 0.4108971144 -0.104014852 0.4105460746 -0.1041969725 -0.2795693675 0.0896325581
140299160.0 -0.2659426388 0.0936025182 0.4099762269 -0.1089519355 0.4102239025 -0.1093173808 -0.2784599541 0.0919986298
145299130.0 -0.2647485371 0.095637183 0.4093907667 -0.1139480904 0.4089721575 -0.1138473998 -0.2778718458 0.0946445197
150299100.0 -0.2638685532 0.0978673779 0.4083425255 -0.1189821175 0.4080961861 -0.1191532949 -0.2768989311 0.0968919458
155299070.0 -0.2628447491 0.1010484895 0.4070399743 -0.1243350297 0.4069356879 -0.1241673027 -0.2761818194 0.0998111619
160299040.0 -0.2618691606 0.1028309464 0.4057668406 -0.1282455476 0.4060070349 -0.1287987616 -0.2752718709 0.1023525218
165299010.0 -0.2611272707 0.1053811049 0.4049218224 -0.1336403532 0.4045973903 -0.1337738209 -0.2742989212 0.1044842522
170298980.0 -0.2601516849 0.1077574996 0.4027999397 -0.138293092 0.4032095653 -0.1385603518 -0.2729665348 0.1073234869
175298950.0 -0.2589703375 0.1105493743 0.4021403537 -0.1431965484 0.4023113202 -0.1432843546 -0.272279493 0.1097462746
180298920.0 -0.2578929452 0.1124748237 0.4005354867 -0.1481554299 0.4003475064 -0.1480735906 -0.2708912728 0.1127974683
185298890.0 -0.2568570132 0.1153313043 0.3984797323 -0.1525914704 0.3990728064 -0.1525624331 -0.2704606858 0.115102257
190298860.0 -0.255772443 0.1175993442 0.3971941076 -0.1574312921 0.3973406441 -0.1574309233 -0.2686615976 0.1174547399
195298830.0 -0.2546895213 0.1198740673 0.3958525176 -0.1617144332 0.3957757532 -0.1622637218 -0.2679727979 0.1202622648
200298800.0 -0.2539198713 0.1227622845 0.3941697474 -0.1663886956 0.3937608202 -0.1666912894 -0.2667151314 0.1233615561
205298770.0 -0.2526493295 0.1252119129 0.3926354163 -0.1710211195 0.3923776556 -0.1709304368 -0.265619104 0.1251570417
210298740.0 -0.2513447117 0.1277967058 0.3906778785 -0.1760299927 0.3904896176 -0.1758493746 -0.2645245387 0.1285161656
215298710.0 -0.2501627423 0.130255326 0.3884750173 -0.1802533902 0.3887208757 -0.179875996 -0.2637148545 0.1307828002
220298680.0 -0.2496789266 0.1326776018 0.3864891847 -0.1847199722 0.3868895334 -0.1848840841 -0.2626425499 0.1338081874
225298650.0 -0.2477950283 0.1356591206 0.384374598 -0.1890516202 0.3843409768 -0.1889101434 -0.2609881338 0.1366735096
230298620.0 -0.2467082708 0.1380746918 0.3826631067 -0.1935850041 0.382533499 -0.1934845098 -0.2597081026 0.1390187647
235298590.0 -0.2453836173 0.1404897439 0.380171766 -0.1976676532 0.3805089328 -0.1980899743 -0.2585446095 0.1412914404
240298560.0 -0.2443612069 0.1434179057 0.3781678926 -0.2018893989 0.3781122096 -0.2018431066 -0.2570426789 0.144364162
245298530.0 -0.242653614 0.145960783 0.3755469723 -0.2068326611 0.3758433156 -0.206795219 -0.2556801732 0.1472074068
250298500.0 -0.2416322897 0.1481974244 0.3735483536 -0.2105534097 0.3739709946 -0.2103885572 -0.2537972353 0.150048211
255298470.0 -0.2402503665 0.1509143923 0.3710455795 -0.2154213024 0.3711314084 -0.2149661983 -0.2530215637 0.1524474481
260298440.0 -0.2383086019 0.1534326801 0.3689534241 -0.2190909364 0.3690086923 -0.2194706806 -0.251018746 0.1554180674
265298410.0 -0.2370327538 0.1562527147 0.3665093109 -0.2239714121 0.3665713148 -0.2235593675 -0.2498066097 0.157354097
270298380.0 -0.2354297824 0.1584263204 0.3635776546 -0.2276888129 0.3641416511 -0.2277326809 -0.2481677978 0.1606213158
275298350.0 -0.234326912 0.1613440277 0.3616997889 -0.2319987112 0.3620285267 -0.231955882 -0.2462743171 0.1631704543
280298320.0 -0.2325832753 0.1635632636 0.3590775736 -0.2353747252 0.3590580699 -0.2357800068 -0.2447234171 0.1657560391
285298290.0 -0.2309712239 0.1662704392 0.3564454259 -0.2395133824 0.3566186459 -0.2399149385 -0.2434511215 0.1684502277
290298260.0 -0.2293600877 0.1688347216 0.3539307437 -0.2439859 0.3538690822 -0.2440140804 -0.2412399319 0.1713758887
295298230.0 -0.227915539 0.1713861802 0.3514347433 -0.2478223201 0.3510280588 -0.2480093156 -0.239758666 0.173842197
300298200.0 -0.2255830918 0.1736013833 0.3485526619 -0.2518891661 0.3487130706 -0.2520540356 -0.237961313 0.1766847386
305298170.0 -0.2239418787 0.176150721 0.3455202609 -0.2560520174 0.3459007058 -0.2561941653 -0.2360272118 0.179309148
310298140.0 -0.222269461 0.17840754 0.343125518 -0.2598499355 0.3429701821 -0.2602924504 -0.2343330869 0.1819256253
315298110.0 -0.220851844 0.180883558 0.3396939807 -0.2639001809 0.3401314815 -0.2641872615 -0.2321756976 0.1841374014
320298080.0 -0.2184527687 0.183318326 0.3367668472 -0.2680665452 0.3369978004 -0.2676136337 -0.2300663332 0.1867644102
325298050.0 -0.2168427779 0.1854431513 0.334011542 -0.2716539509 0.3339624379 -0.2718761458 -0.2282713743 0.1891918901
330298020.0 -0.2152890307 0.1880520422 0.3306285298 -0.275402032 0.3307445338 -0.2753805703 -0.2266554918 0.1919071621
335297990.0 -0.2132414553 0.1902813725 0.3274558704 -0.2792944655 0.3276602473 -0.279286044 -0.2247388512 0.1943708812
340297960.0 -0.2118162384 0.1929076521 0.3243281622 -0.2827498952 0.324490278 -0.2827008381 -0.2226048294 0.1969037147
345297930.0 -0.2099795158 0.1949986373 0.3210312831 -0.2859857086 0.3209829381 -0.2861211489 -0.2206534084 0.1996527798
350297900.0 -0.2078183741 0.1974998696 0.3179106189 -0.289352857 0.3179805469 -0.2897478107 -0.2187353439 0.2020709475
355297870.0 -0.2060068897 0.1999756952 0.3143943807 -0.2932533853 0.3145595391 -0.2934329775 -0.2167929401 0.2045477697
360297840.0 -0.2036682652 0.2021849386 0.3111620195 -0.296903012 0.3111966734 -0.2969346774 -0.2142872067 0.2073594122
365297810.0 -0.2017553881 0.2044668302 0.3079960971 -0.299984678 0.30808288 -0.3000717481 -0.2126568225 0.2098678327
370297780.0 -0.1994613304 0.2065892725 0.3045643151 -0.3033396528 0.3046982177 -0.3037713102 -0.2103018114 0.212070067
375297750.0 -0.1975123577 0.2094503394 0.3020596512 -0.3068584215 0.3013501301 -0.306962242 -0.2081495416 0.2148379835
380297720.0 -0.1953724189 0.2112887906 0.29796614 -0.3098092805 0.2980675508 -0.3101265694 -0.2059364395 0.2173170454
385297690.0 -0.1931347922 0.2136377444 0.2943555183 -0.3130132333 0.2946059787 -0.3132776892 -0.2038337279 0.2196898598
390297660.0 -0.1908703366 0.2159976345 0.290985887 -0.3167435281 0.2908982542 -0.3170063572 -0.2011665831 0.2219632249
395297630.0 -0.1887179542 0.2181535568 0.2874090294 -0.3198403326 0.2873530376 -0.3197562127 -0.1991194203 0.224104093
400297600.0 -0.1863211399 0.2206151465 0.2838478042 -0.3229550776 0.2842491664 -0.3230365984 -0.1971384653 0.2264383396
405297570.0 -0.1841160906 0.2225417942 0.2800512422 -0.3260062275 0.2802043124 -0.3262314792 -0.1945219543 0.2290441368
410297540.0 -0.181595053 0.2244595983 0.2762725839 -0.328724401 0.2764407953 -0.328974405 -0.1923305937 0.2313077528
415297510.0 -0.1795663419 0.2266892953 0.2731149078 -0.33198779 0.2732058935 -0.3317600352 -0.1901761951 0.2337574286
420297480.0 -0.1769865264 0.2283539088 0.269308194 -0.3352927404 0.2695156806 -0.3347292895 -0.1873659179 0.2354664843
425297450.0 -0.1746307703 0.2304686138 0.2657303821 -0.3377480991 0.2659583974 -0.3379815321 -0.1848520948 0.2381581103
430297420.0 -0.1727460131 0.2326693909 0.2620634122 -0.3412443169 0.2618773412 -0.3408641703 -0.1825060285 0.2402785036
435297390.0 -0.1697507934 0.2345718637 0.2581400377 -0.3436585393 0.2581664835 -0.3431920056 -0.1801665921 0.2423113709
440297360.0 -0.1673563821 0.2363309613 0.2541329912 -0.3461186658 0.2540310741 -0.3462992551 -0.1774090927 0.2443211954
445297330.0 -0.1650662194 0.2385018882 0.2500418756 -0.3494519626 0.2503160596 -0.3490402628 -0.1747493148 0.2465875951
450297300.0 -0.162261962 0.2402817815 0.2463226215 -0.3516622867 0.246659635 -0.3517267628 -0.1725759134 0.2486274133
455297270.0 -0.159991559 0.2421822765 0.2426921614 -0.3544745243 0.2429089571 -0.3540291415 -0.1696754856 0.2505258542
460297240.0 -0.1576038769 0.244420016 0.2386789156 -0.357126012 0.2385241904 -0.3571266171 -0.16680171 0.2529531222
465297210.0 -0.1545006728 0.2458393783 0.2347601093 -0.3596951012 0.2352853574 -0.3596527799 -0.1650495305 0.2544772645
470297180.0 -0.1525032367 0.2474025978 0.2310654366 -0.3619129144 0.2309657657 -0.3622724884 -0.1626487914 0.2566181007
475297150.0 -0.1497435684 0.2492144223 0.2268393191 -0.3641424097 0.2270237838 -0.3641537661 -0.1593070653 0.2583500229
480297120.0 -0.1470149281 0.2509861451 0.2226104321 -0.3669874676 0.2230981184 -0.3670049996 -0.1569033316 0.2609092662
485297090.0 -0.1442740579 0.2527020236 0.2189260372 -0.3695543642 0.2188313694 -0.3694237653 -0.1544741831 0.2624406843
490297060.0 -0.1414894428 0.2543164328 0.2146986625 -0.3715632671 0.2147977887 -0.3717933628 -0.1516050191 0.2642732534
495297030.0 -0.1392205753 0.2561762652 0.2105088427 -0.3740374444 0.2104918426 -0.374027374 -0.1487515626 0.2657665012
500297000.0 -0.1361263146 0.257561928 0.2061787645 -0.376010106 0.2062156831 -0.3762859853 -0.1461108132 0.2678159906
505296970.0 -0.1338276809 0.2591276787 0.2023018623 -0.3783035174 0.2020565525 -0.3782162944 -0.1436411503 0.2695997578
510296940.0 -0.1307982449 0.2610156097 0.1982554162 -0.3807180893 0.1982398446 -0.3806540157 -0.1403565631 0.271349827
515296910.0 -0.1283299469 0.2624308632 0.1941751839 -0.3823632369 0.1941986756 -0.3824354298 -0.1377517579 0.2729605921
520296880.0 -0.1254474363 0.2636508873 0.1896198153 -0.3845733717 0.1898204795 -0.38462432 -0.1354397127 0.2745571635
525296850.0 -0.1225075704 0.2651979145 0.1856943123 -0.3862873698 0.1854846565 -0.3866458394 -0.1320178417 0.2760907596
530296820.0 -0.1200476589 0.2664284209 0.1814775031 -0.3877828138 0.1814919353 -0.38841619 -0.1297086469 0.2774205845
535296790.0 -0.1170233165 0.2679787981 0.1770939467 -0.3904184453 0.1772534949 -0.3902595625 -0.1268281684 0.2789407858
540296760.0 -0.1144015879 0.2693149823 0.1731944897 -0.392739552 0.1726785654 -0.3925612955 -0.124144404 0.2806619195
545296730.0 -0.1112025346 0.2707533928 0.1682488918 -0.3937158798 0.1688358572 -0.3941413387 -0.1211698455 0.2820281425
550296700.0 -0.1085317015 0.2722412076 0.1638114016 -0.3959361942 0.1646594788 -0.3961078605 -0.1183595315 0.283499845
555296670.0 -0.1053668578 0.2735369467 0.1597070243 -0.3979104323 0.159949231 -0.3975545892 -0.1154881892 0.2851718088
560296640.0 -0.1026258549 0.2745174397 0.155720943 -0.3993098821 0.1558797197 -0.3991910896 -0.1123676705 0.2866017413
565296610.0 -0.1000864352 0.2757560735 0.1510203401 -0.4006565427 0.1509323042 -0.4006020172 -0.1094312186 0.2876558256
570296580.0 -0.0969323579 0.277068168 0.1467376042 -0.4024430509 0.1470812536 -0.4028021449 -0.1064758102 0.2895955503
575296550.0 -0.0941208814 0.2782224823 0.1425613191 -0.4035538368 0.1425739685 -0.4040281904 -0.1032905643 0.2906514186
580296520.0 -0.0913543413 0.2791562009 0.138257213 -0.4056378742 0.138122685 -0.4055394954 -0.1005706301 0.2915965103
585296490.0 -0.0883484226 0.2803194102 0.1340078439 -0.4065818007 0.1338756612 -0.4072421198 -0.0979899903 0.2925526039
590296460.0 -0.0853341014 0.2816061043 0.1291270938 -0.4083398363 0.1290591447 -0.4085596183 -0.0945103569 0.2939558873
595296430.0 -0.0823691864 0.2825916626 0.1247762039 -0.4097522943 0.1245912503 -0.4098681722 -0.091405309 0.2947042261
600296400.0 -0.0791578004 0.2835579823 0.1203150805 -0.41128276 0.1206499706 -0.410890363 -0.0886838849 0.2963428569
605296370.0 -0.0762680804 0.2847939025 0.1158023047 -0.412428776 0.1162609849 -0.4121288267 -0.0856119992 0.2974508023
610296340.0 -0.0733497238 0.2851357168 0.1113470987 -0.4132104951 0.1114391298 -0.4136522706 -0.0820599741 0.2987166691
615296310.0 -0.0702635813 0.2865858765 0.1071035917 -0.4144131094 0.1067907357 -0.4147148024 -0.0793686942 0.2995047357
620296280.0 -0.0671522822 0.2870062779 0.10240264 -0.4153941495 0.1020908543 -0.415688002 -0.0760762251 0.3001501627
625296250.0 -0.0640944867 0.2881082177 0.0974858024 -0.416852108 0.0978062026 -0.4170364902 -0.0730908921 0.3012609208
630296220.0 -0.0609265471 0.2889375841 0.0931704165 -0.4177892648 0.0937713634 -0.4178433438 -0.069981267 0.3021088188
635296190.0 -0.0581549031 0.2895869941 0.0883634165 -0.4180803441 0.0886368253 -0.4180723695 -0.0671236077 0.3028314095
640296160.0 -0.0549511026 0.2902622409 0.0841094031 -0.4192921814 0.0839131855 -0.4193042375 -0.063624763 0.3033992929
645296130.0 -0.0519674076 0.2912092381 0.0793544691 -0.4203684166 0.0798254298 -0.4201736425 -0.0608760973 0.3041778892
650296100.0 -0.0488147002 0.292157665 0.0753227708 -0.4212445591 0.0753496165 -0.4207781602 -0.0577279047 0.3052669753
655296070.0 -0.0458806398 0.2924346165 0.0703725264 -0.421716749 0.0704729389 -0.4217437709 -0.0540658638 0.3063017728
660296040.0 -0.0430507639 0.2934649737 0.0661431574 -0.4224929586 0.0661445816 -0.4224205163 -0.0513818051 0.3065526124
665296010.0 -0.0395477094 0.2937136685 0.0613581896 -0.4228866983 0.0619669542 -0.4231139324 -0.0483950438 0.3072214955
670295980.0 -0.0361820142 0.2944650978 0.0566371365 -0.4238662622 0.0572452556 -0.4237531694 -0.0453334345 0.3078959246
675295950.0 -0.0333656073 0.294967393 0.0520206317 -0.424211588 0.0522144793 -0.4247471614 -0.041794864 0.3085096865
680295920.0 -0.0303504362 0.2955463181 0.0474111643 -0.4250921574 0.0473541031 -0.4253535487 -0.0386736836 0.3093971569
685295890.0 -0.0270968319 0.2959540821 0.0430793158 -0.4253736974 0.0429098735 -0.4256259301 -0.0350947364 0.3096765624
690295860.0 -0.0238191028 0.2964749472 0.0382761676 -0.4252061798 0.0378343603 -0.4258016641 -0.0318133959 0.3102761759
695295830.0 -0.0205749075 0.2964392792 0.0332034044 -0.4259803622 0.0331133633 -0.4264021238 -0.0287629008 0.3111091096
700295800.0 -0.0174793711 0.2970961264 0.0288681468 -0.4266704679 0.0292274472 -0.4265832112 -0.0258466311 0.3107371377
705295770.0 -0.0143465656 0.2975316435 0.024438747 -0.4264093946 0.0243716382 -0.4266135671 -0.0224252749 0.3115463348
710295740.0 -0.0113492147 0.2977775281 0.0198455931 -0.4263413584 0.0198306849 -0.4266774708 -0.0198805547 0.3119178986
715295710.0 -0.0084091006 0.2981713251 0.0149837889 -0.4269722884 0.0153891856 -0.427181572 -0.0158518279 0.3124384689
720295680.0 -0.0053390909 0.2980040477 0.0105214485 -0.4268053556 0.0106782724 -0.4272663727 -0.0124923497 0.3123638835
725295650.0 -0.0015457237 0.298593665 0.0054621418 -0.4270744263 0.0058045187 -0.4272966369 -0.0094124207 0.3127351511
730295620.0 0.0007079635 0.2981711549 0.0015354591 -0.4266608161 0.0012354729 -0.4268985139 -0.0060487681 0.3127220604
735295590.0 0.0048947863 0.2985636882 -0.0032072808 -0.4269144566 -0.0031899664 -0.4273716474 -0.0028166847 0.313142163
740295560.0 0.0081266806 0.2991834336 -0.0082093003 -0.4266850139 -0.0079422285 -0.4267918488 0.0002379302 0.3130207506
745295530.0 0.0108631227 0.2986678725 -0.0123767824 -0.4266165401 -0.0125243897 -0.4268626416 0.0035315507 0.3136413036
750295500.0 0.0138399762 0.2988576453 -0.0172060985 -0.4263454113 -0.0172722319 -0.4266207346 0.0070456284 0.3130466011
755295470.0 0.0176838254 0.2989100804 -0.0216470602 -0.4263040988 -0.021523514 -0.4266066886 0.0098312893 0.3137903502
760295440.0 0.0202354259 0.2988357824 -0.0265794418 -0.4260571123 -0.0265279727 -0.4260399072 0.0131000657 0.3135213571
765295410.0 0.0235846748 0.2987358354 -0.0307685894 -0.4256318926 -0.0308024047 -0.4260851518 0.0170740228 0.3139018517
770295380.0 0.0267351673 0.2987872594 -0.0353940171 -0.4250404086 -0.0356319722 -0.4255551455 0.0201117874 0.3137334394
775295350.0 0.0298233931 0.2987249564 -0.0402313659 -0.4246735169 -0.0399601784 -0.4250772114 0.022615018 0.3131908678
780295320.0 0.0331596986 0.2982132634 -0.044476759 -0.4241861689 -0.0446606168 -0.424674969 0.0262990991 0.3137138112
785295290.0 0.0363750558 0.2984532839 -0.0494804326 -0.423199275 -0.0490364562 -0.424058829 0.0292117667 0.3134248044
790295260.0 0.0392105701 0.2979771602 -0.0535722165 -0.4231560068 -0.0538295749 -0.4235371909 0.033111312 0.31312693
795295230.0 0.0425066871 0.2980973898 -0.0580711482 -0.4220730081 -0.0582758624 -0.4227859385 0.0363269073 0.3132765702
800295200.0 0.0459028255 0.2975203036 -0.063446001 -0.4221670919 -0.0631667721 -0.4220295953 0.0394717973 0.3126212088
805295170.0 0.0489487336 0.2971904803 -0.0675217093 -0.4209136906 -0.0674248002 -0.4211434157 0.0425756149 0.312284768
810295140.0 0.0522986461 0.2967518461 -0.0720915235 -0.4201683659 -0.071910214 -0.4209161725 0.0458390334 0.3125214568
815295110.0 0.0553141606 0.2965412811 -0.0769811477 -0.419155946 -0.07664024 -0.4195213613 0.0489828839 0.3121165768
820295080.0 0.0580878603 0.2956499899 -0.0810911166 -0.4185601063 -0.081135392 -0.4187429811 0.0519993032 0.311408049
825295050.0 0.0616690482 0.295172509 -0.0855554508 -0.4171377388 -0.0857240518 -0.4177375181 0.0556084675 0.3112501306
830295020.0 0.0646452108 0.2951316622 -0.090100853 -0.4166495304 -0.0906570638 -0.4168902107 0.0583379754 0.3107162872
