!Created with skrf (http://scikit-rf.org).
# Hz S RI R 50.0 
!freq ReS11 ImS11 ReS21 ImS21 ReS12 ImS12 ReS22 ImS22
300000.0 -0.2419378235 -0.0977012052 0.468553472 0.0628597147 0.46969449 0.0681165428 -0.2363273404 -0.1072743052
5299970.0 -0.2434719442 0.0072400458 0.4737723107 0.0053076353 0.4737342929 0.0055497227 -0.2440865032 0.006009532
10299940.0 -0.2402666651 0.0200297163 0.4757630032 0.0060131762 0.4755443832 0.0065530593 -0.2412768006 0.0183038524
15299910.0 -0.2360838431 0.0294883776 0.4793335988 0.0075716199 0.4794951648 0.0077113028 -0.2366445891 0.0275153912
20299880.0 -0.2306169414 0.0373566418 0.4840690537 0.008366629 0.4840860782 0.0083173342 -0.2319292328 0.0353701266
25299850.0 -0.2249262401 0.0436374117 0.4893137666 0.0070536829 0.4897804865 0.0073191527 -0.226721816 0.0418968052
30299820.0 -0.2188290744 0.0485127204 0.4952103088 0.0053446367 0.4948455605 0.0051705627 -0.2215537546 0.0467744417
35299790.0 -0.2129627231 0.0529682516 0.5000675393 0.0022975761 0.5003988162 0.0023417333 -0.2161034914 0.0512836628
40299760.0 -0.2074503877 0.0555711577 0.5050408046 -0.0018978398 0.5055728908 -0.0017982052 -0.2114732319 0.0546868301
45299730.0 -0.2025039954 0.0585942839 0.5102048524 -0.0069416354 0.5101911573 -0.0063393352 -0.2067688247 0.0570510621
50299700.0 -0.1975890895 0.0601114336 0.5140891149 -0.0122421427 0.5145319031 -0.0120859712 -0.2019739137 0.0594933778
55299670.0 -0.1935711417 0.061609179 0.5176035401 -0.0178355745 0.518092218 -0.0179988006 -0.1983004828 0.061141511
60299640.0 -0.1893761586 0.0625014277 0.5208437243 -0.0246836257 0.5214720716 -0.024112949 -0.1947529532 0.0631726996
65299610.0 -0.1859072694 0.0640651331 0.524339258 -0.0299665361 0.5246173906 -0.0304455212 -0.1909748743 0.0644515929
70299580.0 -0.1828299618 0.0642853688 0.5265514371 -0.0371163853 0.5268404417 -0.0371542793 -0.1882334512 0.0655134358
75299550.0 -0.1796872052 0.0650875608 0.5286604063 -0.0440849432 0.528772686 -0.0441328544 -0.1853836966 0.0667315478
80299520.0 -0.1770826687 0.0658103328 0.5310808584 -0.0513847405 0.5308083731 -0.0508951736 -0.1825553344 0.0673577144
85299490.0 -0.1745232742 0.0658906914 0.5317939672 -0.0579395863 0.5318788119 -0.0579366931 -0.180273815 0.0682312125
90299460.0 -0.1726794141 0.0665726346 0.5331217827 -0.0645426807 0.5332695351 -0.0649751808 -0.1775143781 0.0692782179
95299430.0 -0.1704807682 0.0671757449 0.5340231261 -0.0719121188 0.5342732695 -0.0717871847 -0.175819585 0.0701683743
100299400.0 -0.1689305488 0.0677904813 0.5342137947 -0.0786465812 0.5342970653 -0.0789642283 -0.1739976479 0.0709807791
105299370.0 -0.1667165694 0.0679752425 0.534436432 -0.0855463096 0.5347147272 -0.0853694838 -0.1721027739 0.0718770362
110299340.0 -0.1655871681 0.0684856121 0.5349839667 -0.0919273681 0.534821671 -0.0929609188 -0.1707777284 0.0729205488
115299310.0 -0.1640378378 0.0687467405 0.5349000832 -0.0986535273 0.5349730094 -0.0988199208 -0.1690969497 0.0729624488
120299280.0 -0.1628848807 0.0693649565 0.5347910361 -0.1062198862 0.5346848347 -0.1062349455 -0.16783187 0.0743810809
125299250.0 -0.1618777806 0.0700715953 0.5343228662 -0.1127620044 0.534533805 -0.1130659328 -0.1663880205 0.0748641718
130299220.0 -0.1604781574 0.0705357509 0.533504775 -0.1191056168 0.5337351229 -0.1196279573 -0.1651966603 0.0758791537
135299190.0 -0.1593410888 0.0710508458 0.5331109164 -0.1259237576 0.5327864777 -0.1259876763 -0.1642664082 0.0767971783
140299160.0 -0.1585036394 0.0723792199 0.532233439 -0.1328715231 0.5325295308 -0.1329952525 -0.1627186808 0.0779488102
145299130.0 -0.1575343806 0.0729105577 0.5316448893 -0.1396134273 0.530916993 -0.1392560648 -0.1619984681 0.0789290865
150299100.0 -0.1568339718 0.0734632994 0.5302787966 -0.1461554699 0.530301035 -0.1459658139 -0.1607395262 0.0798751561
155299070.0 -0.1559978319 0.0748849077 0.5291863493 -0.1526371592 0.5291530314 -0.1525268805 -0.1602448745 0.0810168921
160299040.0 -0.1549266898 0.0754497923 0.5273055316 -0.1585435686 0.5278378946 -0.1589709766 -0.1587110643 0.0823385678
165299010.0 -0.1543976819 0.0761057317 0.5260546172 -0.1652344681 0.5262604412 -0.1656071929 -0.1580275606 0.0833501764
170298980.0 -0.1536013573 0.0772330717 0.524061323 -0.1715335995 0.5245739646 -0.1717206339 -0.1567870322 0.0843955377
175298950.0 -0.1527206788 0.0784408382 0.5235047579 -0.1776364054 0.5233544984 -0.1780719064 -0.1557128829 0.0858237773
180298920.0 -0.1519464984 0.0788659602 0.5213317782 -0.1841273674 0.5213719261 -0.1841764859 -0.1551122075 0.087070888
185298890.0 -0.1509602477 0.079892715 0.5193661225 -0.1905379958 0.5194209154 -0.1903847523 -0.1543602715 0.0881648518
190298860.0 -0.1503347639 0.0811252803 0.5173320338 -0.1967767196 0.5181293594 -0.1969371228 -0.1524833595 0.0894356464
195298830.0 -0.1494818118 0.0818685045 0.515357404 -0.2023947282 0.5154323759 -0.2030679351 -0.1520537084 0.0906253929
200298800.0 -0.1486612818 0.0834761296 0.5135963227 -0.2081420118 0.5134468593 -0.208766022 -0.1506616838 0.0924891679
205298770.0 -0.1482574633 0.0845566242 0.511497601 -0.2149772656 0.511683217 -0.215048483 -0.1501117842 0.0931297814
210298740.0 -0.1475823288 0.0856376479 0.5092596089 -0.2212682673 0.5093048567 -0.2212172384 -0.1493300136 0.0949104584
215298710.0 -0.1466377087 0.086796836 0.5069531051 -0.2268802302 0.5066985153 -0.2268634687 -0.1486529196 0.096127873
220298680.0 -0.1460946321 0.0879044195 0.5043138319 -0.232722449 0.5046878739 -0.2331551211 -0.1470103556 0.0979458419
225298650.0 -0.1448476439 0.0892477068 0.5014894359 -0.2381478743 0.5019109118 -0.2384797078 -0.1462203048 0.0991041928
230298620.0 -0.1447010152 0.0906283703 0.4997305128 -0.2447215367 0.4996270092 -0.244512604 -0.1452908694 0.1004479771
235298590.0 -0.1434388507 0.0916723088 0.4968996487 -0.2498863641 0.4968068934 -0.2504247537 -0.1441647566 0.1015084202
240298560.0 -0.1430190759 0.0931200757 0.4943043202 -0.2555678109 0.4940528045 -0.2557223019 -0.143011169 0.1033087158
245298530.0 -0.1417261147 0.0943304777 0.4905794319 -0.2614629811 0.4912683736 -0.2617612319 -0.1421034287 0.1048784156
250298500.0 -0.1415487771 0.0949659158 0.4883633848 -0.2669418736 0.4888434709 -0.2669176325 -0.1408262153 0.1061984356
255298470.0 -0.1407449634 0.0966521656 0.4852336046 -0.2725579306 0.485537252 -0.2729653418 -0.1397274025 0.1074048713
260298440.0 -0.139595479 0.0979421989 0.4825838105 -0.2781648527 0.4824702907 -0.2786039214 -0.1380501501 0.109024261
265298410.0 -0.1389537977 0.0993598148 0.4796836346 -0.2843158895 0.4791079172 -0.2836652746 -0.1373136596 0.1101989682
270298380.0 -0.1378355037 0.1007831699 0.4762267105 -0.2892170635 0.4764220425 -0.2890852217 -0.1360941559 0.1120946368
275298350.0 -0.1373520984 0.1018472555 0.4731455618 -0.2950187444 0.4735811585 -0.2952140562 -0.1350106445 0.1136847982
280298320.0 -0.1363273554 0.103410889 0.4701702583 -0.2997654521 0.470063692 -0.3002299824 -0.1336866319 0.1148618782
285298290.0 -0.1350530493 0.1047503289 0.4666068797 -0.3055338992 0.466592692 -0.3056280553 -0.1325661823 0.116527743
290298260.0 -0.1343938717 0.1058218976 0.4638086631 -0.3104786308 0.4635188162 -0.310973376 -0.1309192798 0.1178537756
295298230.0 -0.1332986004 0.1070261787 0.4604122385 -0.3162050941 0.4599508359 -0.3160137906 -0.1296653174 0.1193690242
300298200.0 -0.1321333411 0.1083515857 0.456688094 -0.3211503909 0.4568048621 -0.3214085959 -0.1284178129 0.1207945165
305298170.0 -0.1308914579 0.109692074 0.4533397244 -0.3269009959 0.4536139553 -0.3267817716 -0.1266273087 0.1226945272
310298140.0 -0.1300206197 0.1108182526 0.449896804 -0.3320832045 0.4498974264 -0.332194554 -0.1255953857 0.1240796036
315298110.0 -0.1291717327 0.11193113 0.4459373901 -0.3371990107 0.4463229792 -0.3372928883 -0.1239271997 0.1248178707
320298080.0 -0.1281691954 0.1132691753 0.4426751551 -0.3423188858 0.4425733415 -0.3421902943 -0.1228362076 0.1262917868
325298050.0 -0.1271648582 0.1140206297 0.4384593251 -0.3472990416 0.4389305829 -0.347593833 -0.1215675022 0.1275644661
330298020.0 -0.1265934299 0.1154535486 0.4343540323 -0.3521727615 0.4343289018 -0.3523600083 -0.120690587 0.1290702741
335297990.0 -0.1252599604 0.1165402826 0.4300929608 -0.3572901133 0.4304139845 -0.3574363973 -0.1191119065 0.1302451191
340297960.0 -0.1248399326 0.1181695758 0.425883114 -0.3618444205 0.4263328876 -0.3619491959 -0.1177131307 0.1316302211
345297930.0 -0.1238616326 0.119483985 0.4221162708 -0.3665376133 0.4218222145 -0.3663201109 -0.1162965085 0.1329847781
350297900.0 -0.1222792632 0.120733785 0.4177326045 -0.370864083 0.4185258537 -0.3710499418 -0.1154836646 0.1350354903
355297870.0 -0.1217615553 0.1220255755 0.4137429604 -0.3756695714 0.4134500689 -0.3758797407 -0.1136775775 0.1363866272
360297840.0 -0.1201717991 0.1233862466 0.4097558132 -0.3804765186 0.4094870797 -0.3805367236 -0.1121041684 0.1379255205
365297810.0 -0.1192806788 0.1246319498 0.4053105528 -0.3849100969 0.405586642 -0.384886409 -0.1110928149 0.1394846594
370297780.0 -0.117988482 0.1257083583 0.4008907258 -0.389071406 0.401250475 -0.3893142414 -0.1094487605 0.1406352826
375297750.0 -0.1168916031 0.1276485689 0.397240693 -0.3937625303 0.3967210925 -0.3938982463 -0.1074695879 0.1420992933
380297720.0 -0.1156845352 0.1282491213 0.3926860108 -0.3976225551 0.392173091 -0.3979951419 -0.1060246911 0.1435453226
385297690.0 -0.1144030139 0.1297912417 0.3879736289 -0.4015247225 0.388145361 -0.402248949 -0.1046183869 0.145170377
390297660.0 -0.1132287003 0.1309406006 0.3836548218 -0.4068445467 0.3833207447 -0.4066308083 -0.1029219381 0.1461185437
395297630.0 -0.1119090502 0.1319477806 0.3791616986 -0.4102711154 0.379090656 -0.4107542503 -0.1011054399 0.1477700453
400297600.0 -0.1108354256 0.1335027724 0.3744648586 -0.4150733415 0.3749890184 -0.4151402072 -0.1005494343 0.1487666179
405297570.0 -0.1094073477 0.1347567949 0.3701110759 -0.4190143562 0.3701809302 -0.419091473 -0.0983466149 0.1504179899
410297540.0 -0.1079655547 0.1358022395 0.3650024409 -0.4229767945 0.3650864829 -0.4233693495 -0.0967067064 0.1518484755
415297510.0 -0.1067509467 0.1371339273 0.3605690526 -0.4268998866 0.3607379244 -0.4270188625 -0.0954663203 0.1530770181
420297480.0 -0.1052906648 0.1379781656 0.355621311 -0.4309150166 0.355858588 -0.4309449262 -0.0934166174 0.1540153723
425297450.0 -0.103906414 0.1389885066 0.3512147322 -0.4347427391 0.3516504853 -0.4351412886 -0.0917049429 0.1559128144
430297420.0 -0.1027806762 0.1406502725 0.3464311884 -0.4389843506 0.3467128918 -0.4387227499 -0.0900517191 0.1565258489
435297390.0 -0.1011593728 0.141610882 0.3414435018 -0.4424457651 0.3416767605 -0.4416479519 -0.0883478713 0.1580479687
440297360.0 -0.0995634029 0.1427174255 0.3361968713 -0.4461402349 0.3363890278 -0.445831462 -0.0867304746 0.1586615454
445297330.0 -0.0983452102 0.143616949 0.3314712082 -0.4501719685 0.3319056949 -0.449897938 -0.0850965622 0.1601801298
450297300.0 -0.096829821 0.1444481605 0.3263668613 -0.453053002 0.3268950316 -0.4534347211 -0.0831434079 0.1613779764
455297270.0 -0.0956578132 0.1457833118 0.3219818595 -0.4566493917 0.3220771714 -0.456663283 -0.0812589467 0.1625958981
460297240.0 -0.094332779 0.1470114169 0.3166864366 -0.4603900972 0.3165633473 -0.4606108766 -0.0794226523 0.1640440514
465297210.0 -0.0925670667 0.1477346109 0.3118168864 -0.4635217958 0.3118119495 -0.4638368598 -0.0783537016 0.1645962166
470297180.0 -0.0914990133 0.1488615315 0.3065094294 -0.4670115522 0.3071725212 -0.4673339649 -0.0767842953 0.1657232189
475297150.0 -0.0900824408 0.1495657191 0.3012771098 -0.4699763008 0.3017245468 -0.4698835149 -0.0745010591 0.1668422054
480297120.0 -0.0883095165 0.1502891076 0.2968695089 -0.4733508259 0.2971358264 -0.4735038335 -0.0729454498 0.1683350531
485297090.0 -0.0865755405 0.1516027385 0.2917511109 -0.4766677384 0.291326058 -0.4766857018 -0.0711436936 0.1690409687
490297060.0 -0.0853995514 0.1523620438 0.2858483385 -0.4800220366 0.2859934515 -0.4800355151 -0.0691780987 0.1700541518
495297030.0 -0.0843153342 0.1537230873 0.2808637779 -0.4829455914 0.280566748 -0.483069403 -0.0671575555 0.1705460355
500297000.0 -0.0826005018 0.1543528197 0.2751358083 -0.4860591256 0.2755152546 -0.4858997301 -0.0658965628 0.171618037
505296970.0 -0.0812367768 0.155462125 0.2696122974 -0.4884549274 0.2701518908 -0.4888033342 -0.064262994 0.1729050016
510296940.0 -0.0794732305 0.1561714277 0.2645058214 -0.4920754199 0.2650380899 -0.4918892102 -0.0621360221 0.1738746076
515296910.0 -0.0781913719 0.1574570762 0.259236023 -0.4944264429 0.2595378322 -0.4945295406 -0.0601661504 0.1744148879
520296880.0 -0.0763396455 0.1579293956 0.2539873937 -0.4971745374 0.2544115172 -0.4971043054 -0.0579312074 0.175454138
525296850.0 -0.0748882591 0.158678758 0.2484486118 -0.4998583911 0.248559803 -0.5003569007 -0.0557065603 0.1762961007
530296820.0 -0.0736030814 0.159762213 0.2433667872 -0.5021075753 0.2429421385 -0.5026898047 -0.0544275407 0.1767513592
535296790.0 -0.0721370492 0.1603772712 0.2377453657 -0.5048554523 0.2379782181 -0.5048243922 -0.0523960619 0.1774122276
540296760.0 -0.0703614844 0.1609512819 0.2321594102 -0.5078781021 0.2319339983 -0.5076287425 -0.0511607488 0.1786303833
545296730.0 -0.0688334915 0.1623981005 0.2264173363 -0.5099890948 0.2264582111 -0.5106234869 -0.0489725268 0.1789929696
550296700.0 -0.067649261 0.1627638566 0.221048026 -0.5122037855 0.2214340877 -0.5127444076 -0.046887072 0.1800086348
555296670.0 -0.0657929843 0.1636495178 0.2154561309 -0.5153910273 0.2155529978 -0.5148350869 -0.0451429929 0.1809036886
560296640.0 -0.064182783 0.1641570716 0.2100888448 -0.5168439372 0.2101177881 -0.5169307337 -0.0428951867 0.1813111543
565296610.0 -0.0628393166 0.1651359251 0.2044789567 -0.5196538688 0.2041784209 -0.5192630566 -0.0415388643 0.181878613
570296580.0 -0.0610374434 0.1656748617 0.1988236776 -0.5211632506 0.1989738323 -0.5216785922 -0.0391936851 0.1830721519
575296550.0 -0.0590363572 0.1670095883 0.1929307316 -0.5230886647 0.1934627505 -0.5234013838 -0.0369659088 0.1831961136
580296520.0 -0.0581248758 0.1672884011 0.188009087 -0.5256998804 0.1873925553 -0.5257956175 -0.0355782061 0.1837702972
585296490.0 -0.0560069246 0.1678001734 0.1820033655 -0.5274848048 0.1814948656 -0.5273216653 -0.0335526801 0.1839245817
590296460.0 -0.0547620844 0.1682967986 0.1757150798 -0.5293296217 0.1760006846 -0.5295668158 -0.0311811821 0.1848121717
595296430.0 -0.0529235609 0.1693056711 0.1702844281 -0.5314235488 0.1701418678 -0.531779352 -0.029273749 0.1853804451
600296400.0 -0.051162223 0.1701355424 0.1644524285 -0.5330963808 0.1648052372 -0.5334173695 -0.0273316148 0.1858959593
605296370.0 -0.0495224216 0.1709101499 0.1586946707 -0.5354543163 0.1588192476 -0.5350171084 -0.0253940216 0.1863759965
610296340.0 -0.0480511315 0.171326517 0.1532147064 -0.5365140772 0.1530012374 -0.5367180608 -0.0231408909 0.187063338
615296310.0 -0.046117943 0.1719503767 0.1468808241 -0.538135279 0.146943163 -0.5384642136 -0.0212135377 0.1873757248
620296280.0 -0.0448071834 0.1721699913 0.1413593994 -0.5394724286 0.1411522069 -0.5394739236 -0.0194002492 0.1871651444
625296250.0 -0.0428122568 0.1730502781 0.1350883187 -0.5414289284 0.1353856121 -0.5413269293 -0.0174807185 0.1881717112
630296220.0 -0.0412450136 0.173781887 0.1294222536 -0.5427768643 0.1297459833 -0.5424043284 -0.0155424886 0.1879594678
635296190.0 -0.0394562659 0.174296812 0.1235953277 -0.5432593561 0.1233290619 -0.5434994623 -0.0135235702 0.1886706895
640296160.0 -0.0379483206 0.1744786346 0.118221022 -0.5449926683 0.1177140916 -0.5450449637 -0.0109016912 0.1886156945
645296130.0 -0.0362502654 0.1752700564 0.111715094 -0.5463554877 0.1119412666 -0.546616868 -0.0094634471 0.189040096
650296100.0 -0.0345988171 0.1763535277 0.1066050621 -0.5476763015 0.1060167435 -0.54734239 -0.0073372222 0.1890313226
655296070.0 -0.0329199017 0.1764469486 0.1004304515 -0.5487399587 0.1003410304 -0.5483501175 -0.0049185227 0.1896499351
660296040.0 -0.0311962907 0.1769916867 0.0939379759 -0.5495304659 0.0944065791 -0.5492943205 -0.0031737197 0.1895131752
665296010.0 -0.0293264438 0.1769364452 0.0882949817 -0.5503119019 0.0887480242 -0.5503102176 -0.0013477077 0.1899405367
670295980.0 -0.0271924126 0.1775195585 0.0823403355 -0.5513237668 0.082795326 -0.55123691 0.000508604 0.1900521885
675295950.0 -0.0257107438 0.178187174 0.0761070506 -0.5522829178 0.0764433266 -0.5522590627 0.0030508256 0.1901867914
680295920.0 -0.0242203544 0.178755411 0.0702854032 -0.5529133821 0.070213619 -0.5530883166 0.0051925626 0.190095262
685295890.0 -0.0223560966 0.1788013141 0.0646091497 -0.5536295092 0.0640994405 -0.5539855814 0.0074131398 0.1904914449
690295860.0 -0.0203380967 0.1790645183 0.058410084 -0.5539373636 0.057912064 -0.5542113893 0.0094166025 0.1906931236
695295830.0 -0.0186269542 0.1791609307 0.0519133518 -0.5545174077 0.0520532936 -0.5549943668 0.0108875451 0.1908752102
700295800.0 -0.0166790738 0.1797667285 0.0461855132 -0.5550750837 0.0461985584 -0.5554913736 0.0135701256 0.1901585652
705295770.0 -0.0152537986 0.1802443307 0.0401216021 -0.555691575 0.0404700949 -0.5560110773 0.0152398376 0.1907355607
710295740.0 -0.0132438999 0.1807124435 0.0341934604 -0.5559791825 0.0342768806 -0.555995349 0.016994339 0.1905822956
715295710.0 -0.0117903371 0.1807964056 0.0285719966 -0.5563510624 0.0286900027 -0.5564118337 0.0192242093 0.1901857691
720295680.0 -0.0099278991 0.1811126546 0.0221203444 -0.556726143 0.0223633243 -0.5569805593 0.0216672009 0.1901781534
725295650.0 -0.0078400599 0.1812587186 0.0161623013 -0.5563649428 0.0161188509 -0.5566215591 0.0237167072 0.1904363961
730295620.0 -0.0064061128 0.1813217747 0.0102370784 -0.5568545467 0.0101948378 -0.5568555554 0.0259284349 0.1895029858
735295590.0 -0.0042102458 0.1817286245 0.0042991574 -0.5569465882 0.0044827079 -0.5567776612 0.0280666562 0.1898214277
740295560.0 -0.0025388606 0.1820731389 -0.0019644817 -0.5566090797 -0.0018625469 -0.5567684535 0.0302899929 0.1897347942
745295530.0 -0.0008615302 0.1819458382 -0.0077731848 -0.5569331788 -0.0075959067 -0.5571961181 0.0318349774 0.189691827
750295500.0 0.0008102513 0.182429855 -0.0134315711 -0.5564523267 -0.0138220598 -0.5565885335 0.0342976143 0.1890486337
755295470.0 0.0030455843 0.1826003561 -0.0194643226 -0.5565675918 -0.0191011602 -0.5566080424 0.0358314154 0.189069309
760295440.0 0.0045405477 0.1826031296 -0.0257752172 -0.556238025 -0.0254961334 -0.556337659 0.0378274697 0.1886457732
765295410.0 0.0061887286 0.1825915168 -0.0310920781 -0.5560226382 -0.0315620631 -0.5560419522 0.0407200065 0.1889625277
770295380.0 0.008290843 0.1829575705 -0.0376131735 -0.5552737522 -0.0375630341 -0.5558624751 0.0425962605 0.1884625993
775295350.0 0.0098472015 0.1830338562 -0.0435757914 -0.5548396786 -0.0435664006 -0.5550364623 0.0441733643 0.1873383972
780295320.0 0.0117496635 0.1827647679 -0.0495194406 -0.5546344054 -0.0492445606 -0.5545606956 0.0465483529 0.1878285344
785295290.0 0.0135597141 0.183306377 -0.0556810349 -0.5536063245 -0.0553192857 -0.5539190679 0.0481445689 0.1873326308
790295260.0 0.0152519716 0.1830528895 -0.0613157778 -0.5532818033 -0.0614538953 -0.5535318383 0.050423476 0.1867679407
795295230.0 0.0171420003 0.1834552213 -0.0669028634 -0.5523194012 -0.0670945449 -0.5524351524 0.0528037771 0.1869145002
800295200.0 0.0192207758 0.183036777 -0.073901787 -0.5516414324 -0.073876723 -0.5522138817 0.0547962481 0.1860456088
805295170.0 0.0203757956 0.1831775412 -0.0787185145 -0.5506227913 -0.0792128433 -0.550656316 0.0561816185 0.1853569165
810295140.0 0.0227345445 0.1829522556 -0.0852629456 -0.5500246615 -0.0853745064 -0.5504773183 0.0587308747 0.1857823933
815295110.0 0.0244814975 0.1832494572 -0.0914561135 -0.548492292 -0.0914738467 -0.5485131276 0.0603728372 0.1844172315
820295080.0 0.0262022813 0.1826534652 -0.0967493315 -0.5478841879 -0.0968243062 -0.5483105088 0.0625268377 0.1840669116
825295050.0 0.0279339511 0.1824133674 -0.1027118249 -0.5463515693 -0.102752918 -0.5468975776 0.0649025699 0.1835912336
830295020.0 0.029842073 0.1827322592 -0.1090298347 -0.5451121515 -0.1092664483 -0.5459650046 0.066664389 0.1828728323
