!Created with skrf (http://scikit-rf.org).
# Hz S RI R 50.0 
!freq ReS11 ImS11 ReS21 ImS21 ReS12 ImS12 ReS22 ImS22
300000.0 -0.3201688012 -0.1049059425 0.3718885617 0.0526263852 0.374448281 0.0582511476 -0.3191946029 -0.1154409871
5299970.0 -0.3236129154 0.0048774698 0.3783773341 0.0024901541 0.3787241185 0.003090858 -0.3262089019 0.0029295529
10299940.0 -0.3210401282 0.015709863 0.379956649 0.0022133573 0.379614081 0.0026099718 -0.3240360641 0.0128391431
15299910.0 -0.3180397978 0.023436949 0.3816645707 0.00221798 0.3823653227 0.0023295369 -0.3214453735 0.0197611761
20299880.0 -0.3141476629 0.0304113066 0.3850278422 0.0013993018 0.3852299618 0.001586402 -0.3186861081 0.0262048489
25299850.0 -0.3103502911 0.0355876352 0.3882272852 -0.0003294812 0.3883071653 0.0001265622 -0.3156730068 0.0311963483
30299820.0 -0.3065663794 0.0404260173 0.391870276 -0.0020156649 0.3917738075 -0.0020166622 -0.3128347707 0.0355564276
35299790.0 -0.3028190702 0.044760938 0.3948814034 -0.0055986406 0.3953731094 -0.0053373371 -0.3096600843 0.0395004084
40299760.0 -0.2993483535 0.0481007196 0.3980458249 -0.0086212281 0.3987455036 -0.0087881173 -0.3072404941 0.0431563593
45299730.0 -0.2965011666 0.0514597241 0.4013830068 -0.012880317 0.4012517675 -0.0125913277 -0.3047881721 0.0460138909
50299700.0 -0.2931302141 0.0541836422 0.4034582056 -0.017188093 0.4038987214 -0.0174187123 -0.3022990727 0.0491550191
55299670.0 -0.2909192695 0.0571522473 0.4054582291 -0.0223080476 0.4063950216 -0.0221895962 -0.3003394376 0.0521082212
60299640.0 -0.2882781199 0.0589197849 0.4074711354 -0.0269493956 0.407724343 -0.0267938819 -0.2981523879 0.0547058649
65299610.0 -0.2860621561 0.0617573716 0.4092309475 -0.0316272066 0.4093323529 -0.0321033619 -0.2961234409 0.0574206748
70299580.0 -0.2836791566 0.0637264692 0.4105596489 -0.0365065245 0.4107112324 -0.0369890207 -0.2944990146 0.0593999674
75299550.0 -0.2819498818 0.0658179246 0.4114901133 -0.0422895046 0.4116686984 -0.0420066064 -0.2931928735 0.0620402115
80299520.0 -0.2801406397 0.0678711684 0.4124791999 -0.0473492444 0.4125717036 -0.0472964068 -0.2917881442 0.0637822931
85299490.0 -0.2784604172 0.0698152429 0.4132469125 -0.052413567 0.4130793055 -0.0527476769 -0.2900554508 0.0662594821
90299460.0 -0.2771031361 0.0722249715 0.4133571463 -0.0579681397 0.4136608096 -0.0578739935 -0.2887402078 0.0686984746
95299430.0 -0.2753988275 0.0742045301 0.4140508768 -0.0632567247 0.4139099128 -0.063199402 -0.287460802 0.0711790405
100299400.0 -0.2744456179 0.0764465484 0.4136980092 -0.0682395951 0.4136068458 -0.0684456839 -0.2867710236 0.0732712884
105299370.0 -0.2731078873 0.0784607142 0.4135688876 -0.0739004693 0.4138641701 -0.0737693306 -0.28512248 0.0758689464
110299340.0 -0.2718451829 0.080541176 0.4134029074 -0.0784558588 0.4134537681 -0.0790900512 -0.284368403 0.078157143
115299310.0 -0.2705244213 0.0826535004 0.4129767193 -0.0837061235 0.4133011172 -0.083580957 -0.2830311657 0.0803104538
120299280.0 -0.270086276 0.084749476 0.4129765012 -0.0889857635 0.4129727311 -0.0890113135 -0.2824709991 0.0827141578
125299250.0 -0.2690758894 0.0866145508 0.4123086723 -0.0935902499 0.4122906179 -0.0940771827 -0.2809974857 0.0847976578
130299220.0 -0.267784006 0.0891433531 0.4113534031 -0.0986843227 0.4115138593 -0.0990365678 -0.2804187628 0.0871495609
135299190.0 -0.2666096848 0.0909564922 0.4107207145 -0.1038410541 0.4104031227 -0.1039953065 -0.2797014396 0.0896358664
140299160.0 -0.265934694 0.0936153012 0.410109148 -0.1090936072 0.410356542 -0.109376809 -0.2785904819 0.0920121812
145299130.0 -0.2647943715 0.0957294507 0.4092725769 -0.1140674301 0.4090058175 -0.1137401916 -0.277908887 0.0949877087
150299100.0 -0.2635656184 0.0981250189 0.4077822908 -0.1192619493 0.4083084418 -0.1190437636 -0.2768000176 0.0970104898
155299070.0 -0.2629078726 0.100950423 0.4072198546 -0.124436228 0.4070069 -0.1241820885 -0.2761073454 0.0992897221
160299040.0 -0.2619434715 0.1030226025 0.4055844976 -0.1284493633 0.4061166922 -0.1286641671 -0.275278125 0.1023345332
165299010.0 -0.261110469 0.1052629482 0.404702268 -0.1337593489 0.4046188613 -0.1338242042 -0.2740818196 0.1042022419
170298980.0 -0.260199555 0.1077793058 0.4029313164 -0.1385259768 0.4032023416 -0.1384260696 -0.2729641489 0.1071904268
175298950.0 -0.2590114386 0.1104939983 0.4022826102 -0.1429671931 0.4021756816 -0.1430034021 -0.2720719511 0.1097583115
180298920.0 -0.2578306812 0.1125738297 0.400285849 -0.1479317275 0.4007625515 -0.1480378792 -0.2709574244 0.1125056536
185298890.0 -0.2567758207 0.11514117 0.3984126694 -0.152742712 0.3991995643 -0.1527880672 -0.2704050153 0.1148922418
190298860.0 -0.255756616 0.1175912324 0.3968580502 -0.1572664721 0.397539932 -0.1572559188 -0.2688107903 0.117781989
195298830.0 -0.2547887438 0.1202028757 0.395772955 -0.1618662544 0.3955143303 -0.1621061674 -0.2678218933 0.1199101556
200298800.0 -0.2536536583 0.1230898858 0.3940897012 -0.1662437673 0.3940284798 -0.16626548 -0.2668183657 0.1227567651
205298770.0 -0.2526302929 0.1252550663 0.3924826545 -0.1710882163 0.3920699451 -0.1710351533 -0.2657210194 0.1253713904
210298740.0 -0.2513659561 0.1277399897 0.3905142842 -0.1757830615 0.3906376056 -0.1757895955 -0.2646467739 0.128175179
215298710.0 -0.2502688469 0.1304233309 0.3886046173 -0.180276242 0.3886278449 -0.179906338 -0.2638817987 0.1307818189
220298680.0 -0.2491314123 0.132828419 0.3862143124 -0.1844020553 0.3866395073 -0.1846877294 -0.2621126395 0.1337198193
225298650.0 -0.2476457413 0.1354145482 0.3844889896 -0.1888079236 0.3842837887 -0.1889543253 -0.2610416101 0.1364787039
230298620.0 -0.2467705025 0.1382417737 0.3826926361 -0.1937107822 0.382668008 -0.1936591633 -0.2596214539 0.1389296071
235298590.0 -0.2454441552 0.1403774085 0.3803335084 -0.1975009193 0.3803987624 -0.198089758 -0.2584857419 0.1416675555
240298560.0 -0.2441590643 0.1434697682 0.378484973 -0.2020720555 0.3784990628 -0.2018036309 -0.2570621657 0.1442738823
245298530.0 -0.242563171 0.1458373672 0.3756407071 -0.2066302963 0.3760034478 -0.2068168812 -0.2557405196 0.1473160841
250298500.0 -0.2416370445 0.1482547924 0.3737266451 -0.210404345 0.3741984256 -0.2104413134 -0.2539778054 0.1499199688
255298470.0 -0.240029173 0.1510463168 0.3713783835 -0.2152672904 0.3713956097 -0.214987135 -0.2525745704 0.1522662301
260298440.0 -0.2385803495 0.153367824 0.3689095518 -0.2189325947 0.3689686437 -0.2196001131 -0.2510343982 0.155192358
265298410.0 -0.2372789664 0.1562043026 0.3663969868 -0.2238002493 0.3666727211 -0.2234847839 -0.249860675 0.1575362704
270298380.0 -0.235394498 0.1583974617 0.3638001787 -0.2274659519 0.3640458624 -0.2276828875 -0.2477541065 0.1603909525
275298350.0 -0.2339330937 0.1610118942 0.3612553274 -0.2317530716 0.3619860342 -0.2319319615 -0.2462942855 0.1631891551
280298320.0 -0.2325506438 0.1637177172 0.3590334081 -0.235603976 0.3587905818 -0.2358714592 -0.2444990652 0.1657776814
285298290.0 -0.2310335953 0.1666127129 0.3565476003 -0.2398875794 0.356555064 -0.2398434728 -0.243210129 0.1684380977
290298260.0 -0.2293659215 0.1688719549 0.3538833302 -0.2437647996 0.3538828993 -0.2439452374 -0.2412188687 0.1712890577
295298230.0 -0.2276291856 0.1714755401 0.35126878 -0.2479015662 0.351037567 -0.2478133499 -0.2394111989 0.1738394004
300298200.0 -0.2256483948 0.1738841833 0.3483826969 -0.2522508756 0.3486612957 -0.2517506582 -0.2378949948 0.1764874407
305298170.0 -0.2240522522 0.1759617679 0.3462216724 -0.255847498 0.3459142744 -0.2561039826 -0.2358798813 0.1792600605
310298140.0 -0.2219956912 0.1784553558 0.3430324414 -0.2599588991 0.3428947633 -0.2603654883 -0.2340501099 0.1822897081
315298110.0 -0.2205933772 0.1810703645 0.3398398569 -0.2641128049 0.3402659897 -0.2638919859 -0.2322421318 0.1841942306
320298080.0 -0.2188039583 0.1833309513 0.3370871326 -0.2677064598 0.3375003708 -0.2677845228 -0.2301119724 0.186826487
325298050.0 -0.217062955 0.1853419268 0.3342350412 -0.2717061958 0.334436865 -0.2717400129 -0.2283823535 0.1896082217
330298020.0 -0.2154054714 0.1880610617 0.3307408792 -0.2755849088 0.3306128476 -0.2753199825 -0.2264080338 0.1919696887
335297990.0 -0.2133742173 0.1900465165 0.3278135769 -0.2789106515 0.3277889957 -0.2789598552 -0.2249827261 0.1945863032
340297960.0 -0.2120709384 0.1928023977 0.3244086018 -0.282702993 0.3247107983 -0.2824664651 -0.2227779983 0.1967740232
345297930.0 -0.2101631586 0.195354722 0.3213748369 -0.2858726894 0.3209829931 -0.2858143187 -0.2208019763 0.1995493109
350297900.0 -0.2076370405 0.197933794 0.3179387484 -0.2897577785 0.3183948832 -0.2898366066 -0.2189623391 0.2022469884
355297870.0 -0.2058982072 0.1999286145 0.314506852 -0.2931819188 0.3148225335 -0.2933346087 -0.216857878 0.2047239001
360297840.0 -0.2037212082 0.2022199569 0.3114119288 -0.2968451257 0.3114688307 -0.2964241125 -0.2147237045 0.2074382649
365297810.0 -0.2016543719 0.2044060722 0.3078917575 -0.2998425636 0.3084093595 -0.2999881394 -0.2124395141 0.2101500533
370297780.0 -0.19983946 0.206406368 0.3047811367 -0.3031501903 0.3049215584 -0.3034942357 -0.210451418 0.2119973709
375297750.0 -0.1975976989 0.2090945594 0.3017332066 -0.306603862 0.3012231161 -0.307150403 -0.2082261123 0.215058569
380297720.0 -0.1952583671 0.2111945272 0.2980372159 -0.3098345731 0.2980596365 -0.3100866592 -0.2060581826 0.2174396124
385297690.0 -0.1929030615 0.2137710687 0.2940696455 -0.3129944399 0.2945264258 -0.3132469903 -0.2036535424 0.2200620852
390297660.0 -0.1912261906 0.2160680701 0.2910499697 -0.3166172858 0.2907685148 -0.3168474847 -0.2009904467 0.2217411597
395297630.0 -0.1885857104 0.2178786314 0.2872399215 -0.319470806 0.2874366895 -0.3198299249 -0.199006787 0.2247861134
400297600.0 -0.1863098503 0.2204453441 0.2835964385 -0.3229248218 0.2842700068 -0.3227302937 -0.1970882162 0.2266901578
405297570.0 -0.1843079318 0.222318216 0.2804375158 -0.3259685375 0.280367537 -0.3260540244 -0.1945675687 0.2290561936
410297540.0 -0.1821072357 0.2246773269 0.2764140036 -0.3291021677 0.2764569823 -0.3288439503 -0.192192202 0.231300479
415297510.0 -0.1795586592 0.2265869758 0.2732603989 -0.331813163 0.2731113706 -0.3320596315 -0.1899971693 0.2339081201
420297480.0 -0.1771555809 0.2284869143 0.2692203685 -0.3351235989 0.2693496624 -0.3348755605 -0.1873173567 0.2355654688
425297450.0 -0.1746761207 0.230496077 0.2655347655 -0.337584441 0.2656047802 -0.337872872 -0.1847441518 0.2383818369
430297420.0 -0.1724997406 0.2328484353 0.2621301438 -0.3411249733 0.2618573617 -0.3408809137 -0.1826424173 0.2403656605
435297390.0 -0.1700786736 0.2346205432 0.2582431795 -0.3434376 0.2584570019 -0.343620605 -0.1803138199 0.242757927
440297360.0 -0.1673050824 0.2367051697 0.2542070587 -0.3462600992 0.2539194499 -0.3461334608 -0.1775955424 0.2441558607
445297330.0 -0.1649269091 0.2384775054 0.250085934 -0.3491429291 0.2504687772 -0.3490467655 -0.1751890046 0.2465124431
450297300.0 -0.1624213261 0.2400063404 0.2462385178 -0.3516087984 0.2465370963 -0.3518412435 -0.1728568298 0.2488038052
455297270.0 -0.1596005183 0.2424625856 0.242952135 -0.3545164385 0.242818088 -0.3542527062 -0.1697405949 0.2509422565
460297240.0 -0.1577420338 0.2442115144 0.2389466258 -0.3567856046 0.2386235626 -0.356895843 -0.1671740073 0.2527490749
465297210.0 -0.154376456 0.2457670568 0.2347466316 -0.3593161765 0.2353980072 -0.3596685984 -0.1654666282 0.2546477478
470297180.0 -0.1520806205 0.247554341 0.230943853 -0.3618311813 0.2309986904 -0.3620353798 -0.1626100085 0.2568457298
475297150.0 -0.1499184047 0.2493090486 0.2271774777 -0.3641180615 0.227168064 -0.364045917 -0.1595393203 0.2585943777
480297120.0 -0.1468080673 0.2509794809 0.222641316 -0.3667356434 0.2229887454 -0.3667837143 -0.1568727902 0.2607865835
485297090.0 -0.1438951606 0.2528637817 0.2187475462 -0.3694739776 0.2190258206 -0.3692315857 -0.1546465954 0.2624348786
490297060.0 -0.1416088848 0.2546188914 0.2150407828 -0.3719582457 0.2148039071 -0.3716588401 -0.1516505985 0.264133479
495297030.0 -0.1393530338 0.2560545286 0.2105339335 -0.3736989473 0.2108349762 -0.3739473506 -0.1489187288 0.2657492796
500297000.0 -0.1361768333 0.2574601211 0.2067282737 -0.3762039293 0.2065528584 -0.3758930326 -0.1461681368 0.2678013345
505296970.0 -0.133773424 0.2590897667 0.202251371 -0.3779297752 0.2022970268 -0.3783649183 -0.1442201709 0.2694843343
510296940.0 -0.1307905448 0.2606957874 0.1981235512 -0.380621436 0.1984096403 -0.380614381 -0.1405912543 0.2714559289
515296910.0 -0.1282804369 0.2625471654 0.1939951824 -0.3824840832 0.1941137745 -0.3822956597 -0.1378462403 0.2727095858
520296880.0 -0.1255651971 0.2638923331 0.189989758 -0.3846024133 0.1900577769 -0.3844256352 -0.1354168018 0.2744491171
525296850.0 -0.1226634862 0.265057055 0.1858183497 -0.3866547748 0.1860061381 -0.3866121655 -0.132135476 0.2761388923
530296820.0 -0.1198738629 0.2665247681 0.1816420163 -0.3880605495 0.181146374 -0.3884776611 -0.1295790175 0.2776432077
535296790.0 -0.1168187181 0.2680902436 0.177192668 -0.3901678625 0.177303632 -0.3900062013 -0.1270964859 0.2787459182
540296760.0 -0.1142810786 0.2692935859 0.1729623495 -0.3923372546 0.1725325776 -0.3921668697 -0.1242659052 0.280561386
545296730.0 -0.1112727946 0.2710633382 0.1683070496 -0.394010218 0.1686404854 -0.3942189197 -0.1214572867 0.2819194366
550296700.0 -0.1087587084 0.2718832009 0.1643602614 -0.3955568525 0.1649557665 -0.3959798814 -0.1184093754 0.2836441798
555296670.0 -0.1054057275 0.2734566337 0.1600367926 -0.3975239346 0.1600939067 -0.397481521 -0.1155165877 0.2849426342
560296640.0 -0.1027237881 0.2745349912 0.1555116281 -0.3988708576 0.1555496462 -0.3990626924 -0.1122269819 0.2864486278
565296610.0 -0.1002808327 0.275891509 0.1514029588 -0.4010566141 0.1510519474 -0.4008949632 -0.1096545378 0.2874233062
570296580.0 -0.0969971435 0.2772972366 0.1470062878 -0.4023342525 0.1471807324 -0.4023614944 -0.1066179529 0.289144855
575296550.0 -0.0938719491 0.2786039699 0.1424745343 -0.4040560001 0.1427106713 -0.4036898574 -0.1034399386 0.2902433054
580296520.0 -0.0909177826 0.279346839 0.1380329424 -0.4052864821 0.1382272013 -0.4054097934 -0.1007255045 0.291552837
585296490.0 -0.088146076 0.2800005995 0.1335471107 -0.406773617 0.1337416005 -0.406669059 -0.0976467743 0.2923177874
590296460.0 -0.0854034027 0.2812256146 0.1290102686 -0.4079886081 0.1292978668 -0.40833545 -0.0944313896 0.2937336903
595296430.0 -0.0821600527 0.2826998893 0.12474711 -0.4096933778 0.1247179081 -0.4098278808 -0.0915622267 0.2947848284
600296400.0 -0.0790682149 0.2833077893 0.1201558839 -0.4107363539 0.1208531646 -0.4110358078 -0.0885898868 0.2963401509
605296370.0 -0.0761340012 0.2847769015 0.1155777207 -0.4121219915 0.1158636719 -0.4117852129 -0.0853383063 0.2969630282
610296340.0 -0.0736349236 0.2856425478 0.1118412115 -0.4135743063 0.1114793673 -0.4138022618 -0.0822311802 0.2982925296
615296310.0 -0.0700472252 0.2868043551 0.1068316007 -0.4144576767 0.1069249695 -0.4145345088 -0.0793484535 0.29908148
620296280.0 -0.0675402511 0.2873143509 0.1026042557 -0.4152397648 0.102473411 -0.4153707451 -0.0762796803 0.299947838
625296250.0 -0.0641369917 0.2881315971 0.0976429026 -0.4167612789 0.0976821113 -0.4168167952 -0.0731979817 0.3009177652
630296220.0 -0.0609855724 0.2895313509 0.0931323765 -0.4177710558 0.0937333052 -0.4179095971 -0.0700477206 0.3023324786
635296190.0 -0.0579599914 0.2899308289 0.0886973887 -0.4184830464 0.0887848847 -0.4181275038 -0.067060634 0.302718211
640296160.0 -0.055034534 0.2903593774 0.0843875356 -0.4190439437 0.084477573 -0.4195541975 -0.0634992391 0.3038335407
645296130.0 -0.0519359127 0.2913794012 0.0795879917 -0.420266346 0.0799869071 -0.4204380918 -0.0610595723 0.3043451627
650296100.0 -0.0488779392 0.2923282667 0.0753346674 -0.4212567635 0.0754408155 -0.4208237827 -0.0576932427 0.3054584313
655296070.0 -0.0458935804 0.2927586506 0.0707472462 -0.4218464795 0.0704487424 -0.4220162904 -0.0540171971 0.3060541253
660296040.0 -0.0428846186 0.2936386105 0.0666093504 -0.4221728974 0.0660220665 -0.4223554074 -0.0512610966 0.3062915241
665296010.0 -0.0396184964 0.2937060432 0.0615637952 -0.4230622748 0.0620375496 -0.4232285446 -0.0485626873 0.3078525731
670295980.0 -0.0362318563 0.2947364518 0.0567136458 -0.4238540362 0.0571930274 -0.4235721192 -0.0455599024 0.3076939388
675295950.0 -0.0333036826 0.2949561947 0.0522082644 -0.4245575597 0.0525611229 -0.4249045944 -0.0418715858 0.3088726726
680295920.0 -0.0304156581 0.2961140362 0.0476519849 -0.4250449905 0.047507231 -0.4251791718 -0.0384930327 0.3096133383
685295890.0 -0.0270848882 0.2958976104 0.0429001345 -0.4251767459 0.0430125636 -0.425519837 -0.0352586271 0.3103204911
690295860.0 -0.0236978115 0.2965854325 0.0384854083 -0.4251586687 0.038109781 -0.4256717779 -0.0318968146 0.3104186797
695295830.0 -0.0208530318 0.2967868633 0.0332568287 -0.4260256417 0.0336408916 -0.4263748916 -0.0293255489 0.3111422214
700295800.0 -0.0176947437 0.2970553175 0.029124721 -0.4263523689 0.0292103285 -0.4264975281 -0.0258077068 0.3108702279
705295770.0 -0.0141760374 0.2977664596 0.0246034181 -0.4265064718 0.0247199574 -0.426644277 -0.0226545444 0.3118275186
710295740.0 -0.0113439637 0.2981374143 0.020132721 -0.4266928038 0.0197794152 -0.4264686482 -0.019669674 0.3121433861
715295710.0 -0.0083122478 0.2982166132 0.0153281886 -0.4270281013 0.0155355213 -0.4269423461 -0.0164686934 0.3123735618
720295680.0 -0.0048995984 0.2981099749 0.0103168848 -0.426711443 0.0109180309 -0.4272249895 -0.0127652793 0.3128164555
725295650.0 -0.0014149987 0.2987266044 0.0057065301 -0.4268298471 0.0061766458 -0.4270082129 -0.0096593488 0.3131507882
730295620.0 0.0009189117 0.2986389701 0.001295388 -0.4273339836 0.0013075697 -0.4269346296 -0.0062550635 0.3130839821
735295590.0 0.0046830135 0.2988198476 -0.0030844887 -0.4269845628 -0.0029784466 -0.4272302687 -0.0025635366 0.3131409915
740295560.0 0.0075495573 0.2988758588 -0.0076749498 -0.4264525243 -0.0078463304 -0.4269297766 -4.4288e-06 0.3134710239
745295530.0 0.0108079276 0.2989668024 -0.0123616663 -0.4267846298 -0.0122462347 -0.426861264 0.0031285961 0.313655501
750295500.0 0.0140722865 0.2990430174 -0.0169586989 -0.4262380384 -0.0172413379 -0.4264342089 0.006852566 0.3133851329
755295470.0 0.0173250744 0.2987475429 -0.0214534338 -0.4260979974 -0.0216008926 -0.426499321 0.0097890269 0.3142522816
760295440.0 0.0204619268 0.2987082174 -0.0263282606 -0.4257647238 -0.0262956366 -0.426080538 0.0128479712 0.3135333543
765295410.0 0.0234033868 0.2989232205 -0.0304259844 -0.4254493517 -0.0307996201 -0.4259902438 0.0168923393 0.3139244589
770295380.0 0.0269366744 0.2988277531 -0.0353749416 -0.42519831 -0.0353876591 -0.4256115583 0.020011163 0.3139760396
775295350.0 0.0296949643 0.2987526313 -0.0398405174 -0.424570293 -0.0397769434 -0.4248127527 0.0224104118 0.3134165486
780295320.0 0.033264611 0.2981453609 -0.0445398797 -0.4240285977 -0.0445088155 -0.4246458214 0.0260071894 0.3136069947
785295290.0 0.0363436479 0.2984829932 -0.0489003708 -0.423212856 -0.0491251971 -0.4240462325 0.0288750043 0.3135610544
790295260.0 0.0393924551 0.2983633135 -0.0539343099 -0.4234525057 -0.0538046277 -0.4232982444 0.0328597079 0.3134288174
795295230.0 0.0424686102 0.2978771337 -0.0580770354 -0.4222872297 -0.0579742639 -0.4225712111 0.0362100311 0.3135902699
800295200.0 0.045740494 0.2978637771 -0.0632119693 -0.4221793053 -0.0633174626 -0.4220712922 0.039135927 0.3129414584
805295170.0 0.0485817688 0.2973204117 -0.0671368768 -0.4212138326 -0.0672947214 -0.4211870777 0.0419456341 0.3124135559
810295140.0 0.0520705004 0.2968053128 -0.0717759537 -0.4202787569 -0.0717131886 -0.4208172152 0.0457302924 0.3126713572
815295110.0 0.0551440269 0.2962989909 -0.076547178 -0.4191291928 -0.0768908482 -0.4193379603 0.0484384127 0.3119968659
820295080.0 0.0584019691 0.2953941159 -0.0809957598 -0.4183512139 -0.0810086182 -0.4190173932 0.0516968865 0.311768675
825295050.0 0.0616834714 0.2953191165 -0.0851767712 -0.4172614584 -0.0855850341 -0.4176024524 0.0552592991 0.3114570442
830295020.0 0.0648679892 0.2952601498 -0.0903352473 -0.4168088016 -0.0901356003 -0.4170961867 0.0583088103 0.3108553321
