!Created with skrf (http://scikit-rf.org).
# Hz S RI R 50.0 
!freq ReS11 ImS11 ReS21 ImS21 ReS12 ImS12 ReS22 ImS22
300000.0 -0.7767070213 -0.0933165351 8.93759e-05 3.163e-07 3.51375e-05 0.0008224219 -0.0525482065 -0.0585453351
5299970.0 -0.7852767446 -0.0054289772 9.14158e-05 0.0001016014 -8.21727e-05 6.09795e-05 -0.0502819548 0.0158571783
10299940.0 -0.7883447377 -0.0040317137 0.0001533389 8.22871e-05 -1.33154e-05 -3.69048e-05 -0.0447453522 0.0337178957
15299910.0 -0.7934517216 -0.0019853662 -2.5574e-05 1.83471e-05 0.0001054045 -0.0001242773 -0.0358935522 0.0480887696
20299880.0 -0.8000222034 0.0017352234 -2.58972e-05 -3.86447e-05 4.42764e-05 6.268e-06 -0.0257123419 0.0598127781
25299850.0 -0.806628244 0.0077610727 -0.00016288 0.0002906092 0.0001641386 8.78051e-05 -0.014407415 0.0691539907
30299820.0 -0.8125735909 0.015478354 4.71784e-05 0.0001134343 5.11024e-05 9.68315e-05 -0.0025942992 0.0760569008
35299790.0 -0.8175365393 0.0243831353 -9.28586e-05 -5.86689e-05 -0.0001050467 -3.88105e-05 0.009082569 0.0807627031
40299760.0 -0.8210173182 0.0334726632 -2.23671e-05 7.27587e-05 -3.92926e-05 4.35297e-05 0.0203388411 0.0829852205
45299730.0 -0.8244023147 0.0425388247 2.60469e-05 4.8693e-06 -0.000156749 -3.96099e-05 0.0314552084 0.0846925972
50299700.0 -0.8273293168 0.0525519917 4.47299e-05 3.3046e-06 -0.0001378187 -0.0001981171 0.0415958138 0.084376918
55299670.0 -0.8291629667 0.0629593676 3.65947e-05 -2.6606e-06 -5.55913e-05 -0.000140308 0.050829926 0.0828725897
60299640.0 -0.8302429802 0.0728591131 -0.0001130438 0.0002043185 -8.96439e-05 -2.21706e-05 0.0597623536 0.0813754016
65299610.0 -0.8312587866 0.0827187625 6.3474e-05 -1.1212e-05 0.000143313 -1.49877e-05 0.0671560179 0.0790227081
70299580.0 -0.8318120483 0.0931033103 8.6871e-06 -0.0001226122 2.34809e-05 -9.01321e-05 0.0740394779 0.0759108398
75299550.0 -0.8316867706 0.1038184235 5.05324e-05 -3.756e-07 -0.0001030605 0.0002166553 0.0806654213 0.0721229763
80299520.0 -0.8314615094 0.1134723401 -7.94418e-05 -5.0561e-06 0.0001738208 -0.0001067006 0.0865905971 0.0687721343
85299490.0 -0.8312328068 0.1223173967 2.45052e-05 -0.0001848033 5.58185e-05 0.0001054654 0.0915866699 0.065230971
90299460.0 -0.830057517 0.1321967774 3.644e-05 -0.0002703163 -0.0001827799 -1.74682e-05 0.0960724531 0.0612132569
95299430.0 -0.8294957816 0.1413304456 -8.20247e-05 0.0001717713 9.50838e-05 -3.58047e-05 0.0998876852 0.0571027243
100299400.0 -0.8281595579 0.1504849889 0.0001024253 0.0001130248 4.42122e-05 -2.78529e-05 0.1038540899 0.0531222319
105299370.0 -0.8268894711 0.1597950075 -0.0002207285 9.2152e-05 -7.369e-05 0.0001243414 0.1071305725 0.0490444695
110299340.0 -0.8257883046 0.1691831769 8.3861e-06 5.42711e-05 -1.95781e-05 4.98576e-05 0.1095738464 0.0449634312
115299310.0 -0.8239727577 0.1781085843 7.34018e-05 -0.000170169 -2.63022e-05 8.37459e-05 0.1125342248 0.0411609339
120299280.0 -0.8220543323 0.1869823317 -9.81937e-05 -0.0001593894 -5.0703e-06 -6.65255e-05 0.1146508861 0.037153718
125299250.0 -0.820226715 0.1952999141 -6.9014e-06 0.000217445 0.0002186421 5.35965e-05 0.1164543478 0.0330202288
130299220.0 -0.818683581 0.2050652088 -6.49082e-05 3.01629e-05 -6.75355e-05 0.0002356622 0.1181843968 0.028952743
135299190.0 -0.8168727234 0.2141123197 0.0001218345 1.67996e-05 8.66178e-05 3.16478e-05 0.1198043708 0.0255612971
140299160.0 -0.8149096285 0.2229249105 0.0002847534 0.0001730456 -7.41468e-05 -0.0001942375 0.120954796 0.0218835425
145299130.0 -0.8129610231 0.2323036309 -0.0001072362 0.0001263458 0.0001127972 0.0002013866 0.121772226 0.0183209932
150299100.0 -0.8104417509 0.2406723 -3.89606e-05 0.0002257732 7.68699e-05 -5.06956e-05 0.1227604752 0.0154956824
155299070.0 -0.8078952224 0.2490429608 2.15776e-05 -5.05367e-05 5.11174e-05 -5.2405e-06 0.1236865583 0.0116207429
160299040.0 -0.8053333422 0.2580506057 -9.36372e-05 0.0001535263 9.60351e-05 -0.00014185 0.1238029477 0.0084552723
165299010.0 -0.8025352821 0.2667051882 9.88613e-05 1.60103e-05 6.15585e-05 0.0001607626 0.1244808051 0.0050578492
170298980.0 -0.8000823147 0.2752595735 -1.80033e-05 -0.0001095304 4.49262e-05 0.0002140079 0.1248590659 0.0016239435
175298950.0 -0.7976989708 0.284383658 -6.56691e-05 -0.0001078567 0.0001680875 -0.0002009989 0.1249376063 -0.001130564
180298920.0 -0.7946025271 0.2928315333 0.000146562 -0.0001686882 -9.53032e-05 -9.55863e-05 0.1249920809 -0.0042448229
185298890.0 -0.7911868665 0.300691477 0.0002465323 8.93256e-05 -4.30967e-05 2.20649e-05 0.1248151646 -0.0073603005
190298860.0 -0.7884152129 0.3096552167 5.5321e-05 1.5787e-05 -7.35535e-05 -2.50641e-05 0.1253943725 -0.0099731908
195298830.0 -0.7855728464 0.3176709678 -3.66281e-05 0.0001827089 1.78258e-05 6.14511e-05 0.1251542549 -0.0130215019
200298800.0 -0.7823641016 0.3259625105 -9.54359e-05 0.0001321731 1.59439e-05 2.72639e-05 0.1246267283 -0.0160853424
205298770.0 -0.7788516263 0.3336441967 3.71298e-05 0.0001612195 0.0002436366 -5.15328e-05 0.1243842606 -0.0188903152
210298740.0 -0.7745031246 0.3419828962 -0.000141925 -6.47117e-05 -6.57113e-05 -0.0001541365 0.1239930839 -0.0212178598
215298710.0 -0.7717637851 0.3501652978 -2.26685e-05 9.29235e-05 2.26546e-05 0.0001026993 0.1235753203 -0.0239861051
220298680.0 -0.7676567273 0.3584771322 4.51889e-05 4.55818e-05 0.0001541735 6.04577e-05 0.1227190581 -0.0265473721
225298650.0 -0.7643971235 0.3663178525 -2.45764e-05 9.05354e-05 0.0001742727 2.26042e-05 0.1223678115 -0.0292234649
230298620.0 -0.7601584596 0.3741629122 -2.89047e-05 7.85634e-05 -0.0001275003 0.0001946001 0.1218547119 -0.0315882591
235298590.0 -0.7564272547 0.382788574 5.54375e-05 8.0706e-06 -6.3102e-05 9.82889e-05 0.1214218879 -0.0338325581
240298560.0 -0.7524532965 0.3908560242 -0.0002674824 4.878e-05 -6.5559e-06 2.80193e-05 0.1207684053 -0.0361894449
245298530.0 -0.7489730843 0.3984592205 0.00019122 0.0001185966 -3.81699e-05 -4.50323e-05 0.1200109914 -0.0386222354
250298500.0 -0.7441196474 0.4062280152 -1.0225e-06 0.0001905623 0.000166435 2.94616e-05 0.1193001393 -0.0408059795
255298470.0 -0.7397572742 0.4140244316 9.62127e-05 -0.0001582292 0.0003165101 0.0001053717 0.118179248 -0.0435221476
260298440.0 -0.7354649195 0.4207631623 0.0002350987 -8.617e-06 -4.70782e-05 0.0001325094 0.1177184516 -0.0452214055
265298410.0 -0.7311228425 0.42896721 -6.24806e-05 9.75648e-05 -1.32774e-05 0.0001010551 0.1169839586 -0.0470374698
270298380.0 -0.7271401791 0.4370691452 -0.0001019594 0.0001359458 3.13656e-05 0.0002496836 0.11605092 -0.0489720865
275298350.0 -0.7223428703 0.4445297361 0.0001734615 -4.08065e-05 -6.3425e-06 0.000162921 0.1150331925 -0.0511160881
280298320.0 -0.7175606434 0.4520212597 3.65313e-05 5.9063e-05 -3.7238e-06 0.0001029753 0.1144049102 -0.0532594642
285298290.0 -0.7132791167 0.4595933311 -0.0001202566 -0.0001139135 0.0001491661 -3.1001e-05 0.1130931837 -0.0555151684
290298260.0 -0.70777154 0.467177217 8.64451e-05 0.0001744765 -2.92439e-05 1.12192e-05 0.1126412011 -0.0569623168
295298230.0 -0.7025430302 0.4739639812 -8.98876e-05 -5.74956e-05 -0.0001762918 4.77022e-05 0.1116069844 -0.0592918037
300298200.0 -0.6982906996 0.4815466589 0.0001369227 9.11463e-05 -3.44112e-05 9.33935e-05 0.1103226241 -0.0608353366
305298170.0 -0.6928008981 0.4880827205 0.0001908787 -2.36456e-05 0.0001470908 -1.77332e-05 0.1096896652 -0.0631957134
310298140.0 -0.6880100453 0.4960058728 9.04331e-05 -3.70726e-05 0.0001455731 8.66376e-05 0.1080820855 -0.0651247821
315298110.0 -0.6830964025 0.5029604659 3.69165e-05 -8.65858e-05 0.0001269925 5.73386e-05 0.106932287 -0.0669036219
320298080.0 -0.677509857 0.509719185 -8.15055e-05 6.2668e-05 7.97178e-05 5.60397e-05 0.1059769687 -0.0690912631
325298050.0 -0.6721352566 0.5171826169 -1.96141e-05 7.03394e-05 2.66409e-05 0.0001050449 0.1041764366 -0.0707059027
330298020.0 -0.6664035178 0.5236600137 0.0002437673 0.0001498921 5.42285e-05 5.72903e-05 0.1026127763 -0.0720652385
335297990.0 -0.6615282376 0.5302678877 0.0001217066 0.0001527634 8.28723e-05 -3.71019e-05 0.1012018607 -0.0735044124
340297960.0 -0.6560970943 0.5373595009 7.84809e-05 0.0002133161 4.60156e-05 0.0001998682 0.1000697853 -0.0751007159
345297930.0 -0.6502957718 0.5442176212 1.31279e-05 0.0002538635 7.76071e-05 4.76545e-05 0.0982825178 -0.0765772195
350297900.0 -0.6449681336 0.5503497386 -8.15893e-05 -6.12277e-05 7.13045e-05 0.0001746576 0.0968840909 -0.0775249119
355297870.0 -0.6386744849 0.5581606889 0.0001162688 0.0002351856 0.0001984713 2.61434e-05 0.0954361732 -0.0793976611
360297840.0 -0.6329953107 0.5633725155 3.88735e-05 0.0001127949 -4.55829e-05 7.71135e-05 0.0943022187 -0.0807315568
365297810.0 -0.6283335715 0.5702068996 0.0002395475 -3.43204e-05 -9.54782e-05 0.0001296619 0.0929529715 -0.0822370464
370297780.0 -0.6213798577 0.5764311678 1.92647e-05 0.0001520355 1.48492e-05 4.6731e-06 0.091768981 -0.0832111639
375297750.0 -0.6148250195 0.5833858457 4.30156e-05 6.2451e-05 8.0325e-05 -3.08419e-05 0.0899583942 -0.0847540626
380297720.0 -0.6091725537 0.5891928551 8.58837e-05 0.0001759172 8.47993e-05 -5.13436e-05 0.0883637523 -0.0859838311
385297690.0 -0.6036292356 0.5949477499 0.0002231593 -0.0003579915 -9.91156e-05 -9.48546e-05 0.087633897 -0.0872359371
390297660.0 -0.5972535891 0.6010613791 -2.51912e-05 -8.83355e-05 0.0001522255 8.5508e-05 0.0856420933 -0.0883931259
395297630.0 -0.5901132263 0.6079368065 6.78952e-05 4.52972e-05 -0.0001149273 0.0002770976 0.0845632844 -0.0897979003
400297600.0 -0.5846249522 0.6141205326 -0.0001879426 9.90056e-05 -8.60728e-05 1.92142e-05 0.083206253 -0.0904446029
405297570.0 -0.5776763524 0.6191294529 2.21952e-05 -7.75136e-05 0.0002622359 -3.03095e-05 0.0817528723 -0.0917760187
410297540.0 -0.5711645359 0.6247286399 0.0005421624 -3.67199e-05 0.0001504118 0.0001408209 0.0802200562 -0.0928703048
415297510.0 -0.5648524669 0.6304194443 -4.79024e-05 -0.0001440704 1.2291e-06 -1.22183e-05 0.0788054116 -0.0942119656
420297480.0 -0.5590891428 0.637098703 0.0004036793 5.41255e-05 0.0002783846 5.375e-06 0.0773202131 -0.0951377042
425297450.0 -0.5517242853 0.6424829885 3.85174e-05 -0.0001620246 -3.86608e-05 4.54562e-05 0.0756439294 -0.0963090567
430297420.0 -0.5456327482 0.6482368116 0.0001252654 -5.94767e-05 0.0001096471 -0.0002004923 0.0741646659 -0.0974388543
435297390.0 -0.5390362037 0.6531476015 6.04225e-05 0.0002540713 9.30726e-05 5.24183e-05 0.0725052223 -0.0982900595
440297360.0 -0.5322092831 0.6589460792 3.27436e-05 -7.88008e-05 5.80752e-05 -0.0002947056 0.0712040614 -0.0989428857
445297330.0 -0.5250505103 0.6645017804 0.0001111256 -0.0001175476 -1.13674e-05 -4.84448e-05 0.0695233767 -0.1002842632
450297300.0 -0.5187189893 0.6687030731 8.4511e-05 -8.96351e-05 -2.36297e-05 0.000113433 0.0680766692 -0.1008572694
455297270.0 -0.5121218838 0.6743491296 -1.46619e-05 8.6574e-05 0.0001557269 0.0001430147 0.0665644887 -0.1016680079
460297240.0 -0.5049192767 0.6796930716 -6.52862e-05 -8.9432e-06 6.32472e-05 -1.1129e-06 0.0649118405 -0.1023661938
465297210.0 -0.4983565809 0.6849007518 0.0002390504 -0.0001814774 -8.68185e-05 1.64936e-05 0.0634763618 -0.103434057
470297180.0 -0.490590038 0.6895088643 9.8911e-05 0.0001391057 9.87101e-05 -2.29743e-05 0.061945171 -0.1038232125
475297150.0 -0.4839962617 0.6945670345 0.0003602425 7.25069e-05 -2.89004e-05 9.18331e-05 0.0600999129 -0.1047470101
480297120.0 -0.4767905707 0.6997578165 -7.97328e-05 -0.0001171743 -9.7826e-06 0.0001391549 0.058695327 -0.1054292542
485297090.0 -0.4696240125 0.7037913559 6.04656e-05 -6.7891e-05 0.0001491158 -0.000120799 0.0570385082 -0.1064681911
490297060.0 -0.4627546872 0.7088242072 5.39789e-05 6.65816e-05 0.0001763556 4.63258e-05 0.05561103 -0.1072592886
495297030.0 -0.4554405682 0.712898348 0.0001316152 -0.0001372809 8.49281e-05 -0.0001184648 0.0535541315 -0.1075469337
500297000.0 -0.4480285729 0.7180342602 2.66552e-05 0.0001562466 9.61762e-05 5.02616e-05 0.0522063478 -0.1083160458
505296970.0 -0.4405028489 0.7222410361 -0.0001084725 2.57222e-05 0.0001767191 -1.22211e-05 0.0503777292 -0.1088000675
510296940.0 -0.4333560519 0.7266675306 6.74719e-05 9.49148e-05 0.0001833052 -4.32254e-05 0.0487601509 -0.1099828494
515296910.0 -0.4252901195 0.7305546055 0.0002371605 6.32811e-05 0.0001846841 7.4677e-05 0.0472695953 -0.1102833504
520296880.0 -0.418735784 0.7350944542 -8.11862e-05 2.7174e-05 -0.0002059024 6.75006e-05 0.0453190738 -0.1108709749
525296850.0 -0.4104195466 0.7386008588 -2.46387e-05 0.0001807977 0.0002396898 0.0001744617 0.0440722975 -0.1109810982
530296820.0 -0.4033090855 0.7432689214 0.0001612017 -8.78893e-05 0.0004015887 0.0001226585 0.0424349504 -0.1113845209
535296790.0 -0.3963349299 0.7464692141 -9.65055e-05 -6.289e-07 0.0002193433 0.0001463143 0.0402854795 -0.1123545648
540296760.0 -0.3889652719 0.7507182686 0.0001229503 1.27215e-05 7.70137e-05 9.35264e-05 0.0387780485 -0.1127572462
545296730.0 -0.3813605214 0.7551754795 2.62011e-05 -8.81747e-05 6.53866e-05 0.0001056121 0.0371097248 -0.1132167018
550296700.0 -0.3735875914 0.7585012071 0.0002173065 -1.7793e-05 -1.97419e-05 -0.0001318385 0.0353263741 -0.1136704785
555296670.0 -0.365330669 0.7610890041 4.1442e-06 -5.4714e-05 0.0003878522 4.64443e-05 0.0338297172 -0.1138016657
560296640.0 -0.3579107887 0.7661607258 -2.48688e-05 4.16416e-05 0.000233742 5.94372e-05 0.032169336 -0.1141206585
565296610.0 -0.3498798696 0.769341177 -0.0001907982 -3.05115e-05 1.94253e-05 -1.887e-07 0.0305538916 -0.1148280558
570296580.0 -0.3427444142 0.77281922 8.31057e-05 -7.35509e-05 2.2502e-06 8.14384e-05 0.0286789269 -0.1150070952
575296550.0 -0.3347686271 0.7766842963 0.0001668872 -0.0001274883 7.90201e-05 -9.15558e-05 0.0269290522 -0.1150921493
580296520.0 -0.326472233 0.7792809557 9.40519e-05 -0.0001790866 7.48645e-05 -4.86052e-05 0.025251668 -0.1156191905
585296490.0 -0.3194215288 0.7827208632 4.494e-07 0.0002354032 0.0001512936 -6.6808e-05 0.0236671855 -0.1161218451
590296460.0 -0.3109590329 0.7855283716 -0.0001729375 -1.22909e-05 0.0001169201 -0.0002382267 0.0219617031 -0.1154337273
595296430.0 -0.3032244709 0.7880051752 0.0002434503 0.00016958 0.0002492297 -0.0001109248 0.0205261369 -0.1163953079
600296400.0 -0.2950773338 0.7919974768 0.0001855998 0.0001017057 -2.53851e-05 0.000108112 0.0186483576 -0.1164649426
605296370.0 -0.2881511343 0.7940381193 -6.0409e-06 4.88311e-05 0.0001698987 -6.0834e-06 0.0170833463 -0.1164439415
610296340.0 -0.2795140404 0.7970245882 7.0532e-06 -2.44403e-05 1.60745e-05 -4.5285e-06 0.015614163 -0.1164408748
615296310.0 -0.271192029 0.7998513316 0.0002001027 6.46378e-05 0.0001650011 0.0002381036 0.0137732799 -0.1168647387
620296280.0 -0.2633002355 0.8021805996 0.0002652288 -0.0001731207 9.32952e-05 -0.0001239864 0.0122105143 -0.1166571216
625296250.0 -0.2552337137 0.8050478517 5.694e-05 7.79453e-05 -2.46202e-05 0.0001042891 0.0107420539 -0.1164457244
630296220.0 -0.246282866 0.8075395424 0.0002851437 -7.1028e-06 -0.0001171206 -1.91084e-05 0.0087498052 -0.1162781034
635296190.0 -0.2388972871 0.8106079913 0.0001841637 -0.0002084272 0.000149888 7.96877e-05 0.0070917094 -0.1168052336
640296160.0 -0.2313709525 0.8118392494 0.0003202519 -5.0234e-06 0.0001668637 -0.0001475283 0.0053321381 -0.1166210216
645296130.0 -0.2229693283 0.8150644846 0.0002376134 6.98508e-05 3.62899e-05 0.0001321591 0.0035483827 -0.1162958651
650296100.0 -0.2146669952 0.8166987833 5.15201e-05 2.65643e-05 -1.7937e-06 0.0002592943 0.0020099789 -0.1165670759
655296070.0 -0.2063594182 0.819072701 0.0003221172 0.0001666404 0.0001982681 -0.0001987555 0.0007155678 -0.1163337287
660296040.0 -0.1983641859 0.8206145135 0.0001988159 4.66076e-05 0.0002595447 0.0001029866 -0.0010640502 -0.1161088428
665296010.0 -0.1902934059 0.8223645334 0.0003244963 2.48369e-05 0.0002293121 -1.90705e-05 -0.0029990652 -0.1156102281
670295980.0 -0.1824656793 0.8245188781 -7.04514e-05 -7.35288e-05 4.95706e-05 -0.0001200702 -0.0049174757 -0.1158184176
675295950.0 -0.1736271834 0.8265582458 0.000222073 -0.0002128263 0.0003412946 0.0001063669 -0.0064240511 -0.1154369523
680295920.0 -0.165386123 0.8278067862 -0.0001720292 -0.0001420076 -5.04349e-05 -7.70365e-05 -0.0078759828 -0.1151297051
685295890.0 -0.1570971218 0.8304416798 0.0002164613 -7.0268e-05 0.0002074868 5.15724e-05 -0.0098705295 -0.114902218
690295860.0 -0.1492257656 0.8309992447 -8.133e-07 -0.0001716161 0.0001684699 -4.27086e-05 -0.0114736111 -0.1142628558
695295830.0 -0.1408677496 0.8319573534 8.27951e-05 0.0002331773 0.0003287772 9.61154e-05 -0.0130343009 -0.1143064121
700295800.0 -0.1322735473 0.8338707346 0.0001755584 -0.0001431175 0.0003008435 -3.16521e-05 -0.0152299912 -0.1139472593
705295770.0 -0.1247986972 0.8350279753 0.0001726836 2.85372e-05 0.000130734 -1.73093e-05 -0.016427857 -0.1132923239
710295740.0 -0.1160668851 0.8359975326 0.0002839173 -1.52094e-05 2.07943e-05 6.96517e-05 -0.0183811934 -0.1135951833
715295710.0 -0.1076523868 0.8377536119 1.02049e-05 -9.08167e-05 0.0001388809 6.46754e-05 -0.0199131236 -0.1130042996
720295680.0 -0.0996362037 0.8386458626 0.0001993954 -8.69984e-05 0.0001432834 0.0001030804 -0.0212929592 -0.1125362787
725295650.0 -0.0906260047 0.8392938471 0.0001835636 7.12184e-05 8.64256e-05 0.0001205903 -0.0230555144 -0.1119144278
730295620.0 -0.0829244869 0.8395928962 0.0001546884 -5.04263e-05 -9.3817e-05 5.3453e-05 -0.0249099051 -0.111846903
735295590.0 -0.0749771173 0.8413045724 0.0001911839 0.0001766547 0.0003120732 4.42178e-05 -0.0266605213 -0.1117017268
740295560.0 -0.0663828308 0.8418604461 -4.15127e-05 -8.44143e-05 0.0003566659 -2.30659e-05 -0.0275935379 -0.1109880367
745295530.0 -0.0578453378 0.8421927363 0.0003545747 -6.57968e-05 9.29909e-05 -5.5005e-06 -0.0291004726 -0.1104607972
750295500.0 -0.0493878684 0.8428597477 0.0001579209 3.7446e-06 0.0001115674 -9.90724e-05 -0.0308871238 -0.1095801367
755295470.0 -0.0411338314 0.8432241463 0.0003874 -7.97318e-05 0.0001825443 -3.8739e-06 -0.0325317575 -0.1097648754
760295440.0 -0.0331546787 0.8435066285 0.0002296307 0.0003409545 0.0002477103 -0.0001626946 -0.0341295853 -0.108843633
765295410.0 -0.024604936 0.84394487 0.0002210059 -0.000119213 0.0001263817 -0.0001931117 -0.035647312 -0.1082952953
770295380.0 -0.0163713748 0.8441030419 6.63164e-05 6.73469e-05 3.33271e-05 0.0002092451 -0.0375255421 -0.1073246681
775295350.0 -0.0083598144 0.8440068186 0.0001560577 -6.88398e-05 0.0001904703 7.98258e-05 -0.0390514313 -0.1069209493
780295320.0 0.0007229767 0.8443005268 0.0002432736 0.000106908 0.0001223594 4.92296e-05 -0.0400794768 -0.1065336402
785295290.0 0.0084960009 0.8433252911 1.09116e-05 -0.0001734277 7.78194e-05 0.0001393254 -0.0414911951 -0.1056629251
790295260.0 0.0169799909 0.8439645611 0.0001050631 1.40198e-05 0.0001669877 -1.70867e-05 -0.0429817838 -0.1049303585
795295230.0 0.0251013794 0.8435052589 0.0001164587 -7.89548e-05 0.0001175686 0.0001065438 -0.0445948116 -0.1042224491
800295200.0 0.0335324877 0.8431622305 0.0002733348 -5.33654e-05 7.92839e-05 -0.0001429564 -0.0461529124 -0.1031923004
805295170.0 0.0425634663 0.8432573372 0.0001444579 0.0002630867 0.0001038562 -0.0002191485 -0.0478028644 -0.1026011268
810295140.0 0.0504426918 0.8423573216 7.58013e-05 -6.55837e-05 3.7957e-05 -3.79761e-05 -0.0487128143 -0.1017327737
815295110.0 0.0587531168 0.841860584 -5.1239e-06 -0.000100971 3.93292e-05 0.0001545948 -0.050858621 -0.1009081102
820295080.0 0.066887171 0.8418331551 7.02324e-05 -6.73109e-05 0.0002788798 -0.0001578589 -0.0517279773 -0.0999926203
825295050.0 0.0762388287 0.8403251339 0.000204303 1.20405e-05 3.5333e-05 1.2275e-05 -0.0533627737 -0.099093436
830295020.0 0.0834731139 0.8399428704 0.0001474953 -0.0002289426 0.0001671927 -1.66826e-05 -0.0546789035 -0.0984508299
835294990.0 0.0917369077 0.8389398765 0.0002010275 -8.27684e-05 0.0002048422 0.0001090309 -0.0563445098 -0.0973420775
840294960.0 0.0998803405 0.838487109 -2.02235e-05 -7.52444e-05 7.25173e-05 -0.0001808564 -0.0578496521 -0.0962792764
845294930.0 0.1079204122 0.8369136464 5.16046e-05 -0.0002278986 4.80735e-05 -0.0002060503 -0.0593566897 -0.0956534558
850294900.0 0.1163821295 0.8362768956 0.0001367971 -0.0001722221 7.39223e-05 -0.0002572722 -0.0607565824 -0.0946246868
