!Created with skrf (http://scikit-rf.org).
# Hz S RI R 50.0 
!freq ReS11 ImS11 ReS21 ImS21 ReS12 ImS12 ReS22 ImS22
300000.0 -0.7739483709 -0.1420531374 0.0001144208 -1.88788e-05 -0.0001353593 0.0001616371 0.8597890404 -0.0020677266
5299970.0 -0.7845993864 -0.0073473121 -3.0686e-06 -0.0001116939 -0.0001950707 -0.0001545497 0.8587761558 -0.0103871575
10299940.0 -0.787402624 -0.0040583788 -1.64924e-05 5.49681e-05 -8.9674e-06 -2.46106e-05 0.8581314325 -0.018664729
15299910.0 -0.7932947495 -0.0018388138 -0.000187733 -2.02249e-05 4.42953e-05 -7.17078e-05 0.8572319954 -0.0275284426
20299880.0 -0.8000169867 0.0022864485 -4.902e-05 5.46679e-05 -4.25248e-05 0.0001283793 0.8566034622 -0.0357803059
25299850.0 -0.8062761826 0.0081964642 -5.09681e-05 7.81614e-05 -6.46269e-05 -0.0001537591 0.8556906522 -0.043471427
30299820.0 -0.8118130505 0.0162669335 6.0886e-06 -0.0001638992 -0.0001133756 -5.56777e-05 0.8552022748 -0.0524222034
35299790.0 -0.8171607184 0.0251293437 -2.4018e-06 4.99724e-05 5.28026e-05 6.58726e-05 0.8540053769 -0.0608515327
40299760.0 -0.8215988814 0.0345894678 -1.62371e-05 6.34184e-05 -7.65352e-05 4.74322e-05 0.8532788269 -0.0690166194
45299730.0 -0.8250808482 0.0442408038 -7.11259e-05 6.09961e-05 1.13666e-05 -4.26982e-05 0.8526523812 -0.0768429319
50299700.0 -0.8267997763 0.0539864068 6.76945e-05 -0.0001573271 -2.3408e-05 -9.864e-07 0.8513100378 -0.0849705213
55299670.0 -0.8287564262 0.0641356799 -6.13132e-05 -8.1432e-06 -5.85162e-05 -0.0001191552 0.8506713838 -0.09354663
60299640.0 -0.8300645258 0.0744898499 0.0001348367 3.67449e-05 7.51416e-05 1.21054e-05 0.8493608174 -0.1019810735
65299610.0 -0.8310296204 0.0850251505 1.29123e-05 0.000110469 -0.0001065805 -3.70014e-05 0.8483560482 -0.1101580906
70299580.0 -0.8316651364 0.0946021291 7.76156e-05 -0.0001822761 0.0001384623 -7.32077e-05 0.8473697029 -0.1188883731
75299550.0 -0.831407731 0.104670837 -6.33482e-05 -4.75092e-05 6.7855e-06 -7.80141e-05 0.8468834068 -0.1264362476
80299520.0 -0.8314153615 0.1147418748 0.0001271698 -0.0002075222 -9.60886e-05 -0.0001073148 0.8452512068 -0.1349638461
85299490.0 -0.8304573428 0.1240515593 4.37815e-05 5.13927e-05 0.0001315535 0.0001229275 0.8440138807 -0.1430297166
90299460.0 -0.8299536001 0.1342844203 -0.0001791925 -0.0001639126 -0.0001459746 -0.0002092455 0.8416767721 -0.1511519606
95299430.0 -0.8286657887 0.1436346795 3.44627e-05 -0.0001482413 -0.0001880143 -0.0001337504 0.8404945696 -0.1593876992
100299400.0 -0.8278280389 0.1530400654 -0.0001012905 0.000211418 9.31502e-05 0.0001091577 0.8388126728 -0.1681124178
105299370.0 -0.8265791134 0.1625898535 -2.84129e-05 0.0001105593 -8.18345e-05 0.0001433475 0.8370621453 -0.175841977
110299340.0 -0.8252056498 0.1709540351 0.0002279295 -5.80046e-05 6.39901e-05 -0.0001048178 0.8353265358 -0.1837045592
115299310.0 -0.823976836 0.1803970071 3.49862e-05 3.4541e-06 -4.23556e-05 8.868e-06 0.8332686654 -0.1922721543
120299280.0 -0.8217281886 0.1896796068 -1.74305e-05 -2.05996e-05 4.97143e-05 8.11611e-05 0.8312373671 -0.2000596687
125299250.0 -0.8204273339 0.1988099337 0.0001223625 -0.0001692575 -3.16137e-05 0.0001468533 0.829074873 -0.2087032966
130299220.0 -0.8183352187 0.2077092184 2.91421e-05 -6.79724e-05 7.74334e-05 -0.0001183029 0.8269474737 -0.2164214006
135299190.0 -0.8165363931 0.2167065295 -0.000134406 -0.0001041294 3.50728e-05 4.81476e-05 0.8253941214 -0.2246044197
140299160.0 -0.8147151729 0.2255577166 -4.33425e-05 -3.46167e-05 2.24479e-05 0.0001615058 0.8228732627 -0.2325623098
145299130.0 -0.8126337426 0.2346653051 0.0001219259 0.0001386514 -5.42789e-05 0.0001061666 0.8200917655 -0.2407795104
150299100.0 -0.8098857799 0.2432219378 6.97825e-05 -1.40455e-05 -0.0001360825 9.2686e-06 0.8175820842 -0.2487297661
155299070.0 -0.807869926 0.2524999905 9.7336e-05 -1.64632e-05 -6.34687e-05 -8.19404e-05 0.815638031 -0.2567125618
160299040.0 -0.8048132436 0.2611462786 -0.0001067968 -3.84716e-05 -3.41916e-05 -1.7465e-06 0.8133376489 -0.2651238952
165299010.0 -0.8019325798 0.2695401028 0.0003061225 0.0001978505 0.0001237317 5.509e-07 0.8105674139 -0.2728303097
170298980.0 -0.7995797509 0.2781533008 -3.59711e-05 -0.0003076963 0.0001291212 1.85524e-05 0.8076654557 -0.2803902151
175298950.0 -0.7972260341 0.2870839512 0.0002324733 0.0001669511 -3.09743e-05 0.0001342593 0.8047904435 -0.2883335103
180298920.0 -0.7941467815 0.2952206288 -0.0001669833 0.0001052793 -0.0001907802 -0.0001628208 0.8020864364 -0.2960523894
185298890.0 -0.7909258186 0.3047779639 -0.0002529188 -0.0001495402 -0.0001014784 -6.23761e-05 0.7990873525 -0.3045956695
190298860.0 -0.7873795476 0.3126341363 0.0001533162 6.7345e-06 6.915e-07 -1.91263e-05 0.7958437031 -0.3112439564
195298830.0 -0.7840303509 0.3207510662 -0.0001235173 -5.24941e-05 -0.0001577558 3.27578e-05 0.7925367587 -0.3194164274
200298800.0 -0.7810413796 0.3298878751 -8.53458e-05 -0.0002237078 4.3792e-06 0.000132473 0.7897815817 -0.3277737159
205298770.0 -0.7774412209 0.3371775168 -0.0001129111 -0.0001669448 2.31138e-05 4.26759e-05 0.786456298 -0.3349420435
210298740.0 -0.7734520179 0.3455560993 -0.0001326383 -0.0002184445 1.75681e-05 -1.43656e-05 0.7832237929 -0.3427377954
215298710.0 -0.7706210722 0.3540588695 -8.52315e-05 0.0001272822 -2.6253e-05 -0.0002563146 0.7798253174 -0.3501876851
220298680.0 -0.7672103589 0.3626030777 1.40402e-05 -0.000183632 -4.26073e-05 1.04962e-05 0.7768777071 -0.3572793271
225298650.0 -0.7627701641 0.3709972567 7.67648e-05 0.0001597496 -1.49774e-05 -7.7586e-05 0.7729982141 -0.3646260917
230298620.0 -0.7589586365 0.3790314966 -9.41612e-05 -0.0001240729 1.59143e-05 4.6747e-06 0.7692041732 -0.3730227878
235298590.0 -0.75478654 0.3871489474 -2.38728e-05 9.68509e-05 6.80397e-05 -5.24933e-05 0.7656899666 -0.3799997069
240298560.0 -0.7509109028 0.3947399966 3.52467e-05 -0.0001700136 9.74381e-05 -0.0001023225 0.7621356041 -0.3876113988
245298530.0 -0.746514761 0.4027847828 -3.40388e-05 -0.0003173159 -0.0001210112 6.66962e-05 0.7579053762 -0.3948218303
250298500.0 -0.7423861406 0.4107716937 -6.81611e-05 -1.837e-05 7.67571e-05 -0.000163703 0.7539776658 -0.4024518968
255298470.0 -0.7378921271 0.4184024661 0.000112413 4.44955e-05 9.07714e-05 8.30653e-05 0.7510798936 -0.4093836195
260298440.0 -0.7335385298 0.4258620864 9.41082e-05 -5.48486e-05 0.0001506485 7.13869e-05 0.746288922 -0.4168309678
265298410.0 -0.7294341962 0.4343099452 -6.03673e-05 -2.77084e-05 -9.50406e-05 -9.73221e-05 0.7427117994 -0.4243987093
270298380.0 -0.7244744887 0.4415925837 -0.0001455546 -8.77456e-05 -9.91712e-05 -4.628e-06 0.7388067017 -0.4307715374
275298350.0 -0.7192819136 0.4493624666 -1.83875e-05 9.71121e-05 -2.58472e-05 9.31e-08 0.7343544118 -0.4377831695
280298320.0 -0.7153877142 0.4570023594 -2.4696e-06 0.000207565 -0.0001524834 2.95245e-05 0.7309612004 -0.4455257915
285298290.0 -0.7103689782 0.4650096228 2.8285e-06 -0.000213915 -0.0001278518 4.46786e-05 0.7265747114 -0.4524870362
290298260.0 -0.70569874 0.4721467181 8.93693e-05 -0.0001429474 0.0002582553 -4.24963e-05 0.7221527926 -0.4599067991
295298230.0 -0.7008189177 0.4795448406 9.52904e-05 -0.0001978667 -0.0002130413 -2.95294e-05 0.7177544992 -0.4659155544
300298200.0 -0.6947947357 0.4868585032 -3.26071e-05 -0.0001215683 0.0001677225 3.06704e-05 0.7134372238 -0.4732897093
305298170.0 -0.6904343415 0.4939755969 -0.0001925979 -0.0001797622 8.44078e-05 9.26078e-05 0.7095394308 -0.4797174683
310298140.0 -0.6846132376 0.5008442876 -1.01413e-05 -5.14404e-05 0.0001237181 -4.87465e-05 0.7050175416 -0.4870337254
315298110.0 -0.6795152066 0.5077805631 0.0001623487 -0.0001597818 3.79781e-05 0.0001326212 0.7000955546 -0.494583129
320298080.0 -0.6742703711 0.5158353331 -5.4574e-06 0.0001742101 -0.0001393389 -5.19331e-05 0.6962404002 -0.501939758
325298050.0 -0.6684240632 0.5224268063 0.0001542309 -3.51225e-05 -2.15751e-05 -0.0001107953 0.6903183819 -0.5094805354
330298020.0 -0.663189876 0.5297045549 -0.0002241274 -6.09203e-05 -0.0001879611 3.91491e-05 0.6851112333 -0.5170788455
335297990.0 -0.6575357126 0.5365253962 -8.487e-07 -0.0001455501 -9.3941e-06 8.15e-05 0.6795856375 -0.523552538
340297960.0 -0.6519138828 0.5426504612 4.66212e-05 -1.44958e-05 -7.3127e-06 2.94833e-05 0.6736505924 -0.5301374071
345297930.0 -0.6462153348 0.5491896969 1.15005e-05 -7.82831e-05 -8.23066e-05 -2.51071e-05 0.6679486981 -0.5363799978
350297900.0 -0.6398373349 0.5563567729 -9.48795e-05 -0.0001206005 0.000135611 6.34575e-05 0.6627494485 -0.5419284441
355297870.0 -0.6345594362 0.5626114766 2.80138e-05 -0.0001780873 8.0476e-06 1.00136e-05 0.65695613 -0.5486850095
360297840.0 -0.6284749563 0.56943155 -3.51905e-05 -5.43118e-05 4.88548e-05 1.43877e-05 0.6516776809 -0.5545897776
365297810.0 -0.6223844949 0.5760792491 -0.0002021528 0.0002486397 5.62113e-05 -0.0002322307 0.6459941792 -0.5610090191
370297780.0 -0.6160676625 0.5813281096 -0.0003396311 2.86566e-05 6.76348e-05 -2.0999e-06 0.6409020215 -0.5663247027
375297750.0 -0.6099102841 0.5880813828 4.7508e-06 2.18111e-05 4.52437e-05 0.0001467004 0.6348396593 -0.5722562017
380297720.0 -0.6042535127 0.5950493319 -0.0002256706 8.9606e-06 1.75912e-05 0.0001270072 0.62961086 -0.5783475772
385297690.0 -0.5980656446 0.601520405 -0.0002252073 -9.09566e-05 -9.80146e-05 -7.5734e-05 0.623652389 -0.5839743152
390297660.0 -0.5911731898 0.607150842 -0.0001402943 -4.59624e-05 6.37271e-05 -0.000205076 0.6180025547 -0.5904519208
395297630.0 -0.5856627034 0.6129818894 0.0001753729 5.681e-07 -7.45102e-05 -4.29496e-05 0.6121991227 -0.595944894
400297600.0 -0.5788695028 0.6192429754 -0.0002081281 -2.82216e-05 -8.80175e-05 8.96013e-05 0.6067200111 -0.6015446165
405297570.0 -0.572356876 0.6251035098 -0.0003232846 -8.16334e-05 9.83428e-05 0.0001389101 0.6008270201 -0.6071703158
410297540.0 -0.5659062346 0.6305755248 -0.0001612068 9.04608e-05 -2.70479e-05 3.19309e-05 0.5945295843 -0.6129794959
415297510.0 -0.5589370166 0.6365487662 0.0001888769 -3.3649e-06 -0.0001549516 -0.000135149 0.5888080422 -0.6187179808
420297480.0 -0.5522018907 0.6422865746 7.13393e-05 7.7967e-05 7.10104e-05 -4.06929e-05 0.582409984 -0.624405408
425297450.0 -0.5461382463 0.6480769594 9.48165e-05 5.67359e-05 4.96817e-05 -5.12492e-05 0.5767058407 -0.6293970148
430297420.0 -0.5395336968 0.6534179036 -0.0001217587 1.67175e-05 5.56229e-05 -0.0001689351 0.5702298118 -0.6356864143
435297390.0 -0.532247507 0.6590157376 1.8049e-06 0.0002862353 -0.0001310113 0.0001306671 0.5641849805 -0.6404580001
440297360.0 -0.5254608342 0.6650221749 -5.29607e-05 -0.0001574777 1.22096e-05 0.0002531488 0.5576927423 -0.6458903802
445297330.0 -0.5188730772 0.6701868371 0.0001389045 6.64882e-05 -6.96018e-05 -0.0002406728 0.5514744634 -0.6514670697
450297300.0 -0.5115401654 0.6747271183 0.00018492 -9.16364e-05 0.0001941428 3.09348e-05 0.5447564632 -0.6566460068
455297270.0 -0.504218859 0.6803137395 -4.94795e-05 3.2058e-06 -0.0001928933 9.16422e-05 0.5377872563 -0.662524673
460297240.0 -0.4974156901 0.6858039958 0.0001862651 -8.88391e-05 7.1796e-06 -0.0001191209 0.5322199003 -0.6668962054
465297210.0 -0.4898504433 0.690686711 -2.2803e-06 -0.0001060064 -2.2861e-05 4.40707e-05 0.5254260692 -0.6726257882
470297180.0 -0.4825847179 0.6949341866 -0.0001370569 -6.92816e-05 0.0002592393 7.61175e-05 0.518063328 -0.6778032273
475297150.0 -0.4756626872 0.7002819973 -0.0001153403 2.01675e-05 -0.0001582565 -5.68204e-05 0.5121263129 -0.6822381982
480297120.0 -0.4683308893 0.7043959538 4.16664e-05 0.0001154006 0.0001118848 -0.0001653698 0.5045566222 -0.6870529355
485297090.0 -0.4612882892 0.7090244928 -4.4861e-06 -5.08464e-05 0.0001219885 0.0001121181 0.4983287796 -0.6924661566
490297060.0 -0.4542598871 0.7140582725 -0.0002653467 0.000121798 0.0001222562 5.62236e-05 0.4914590044 -0.6971069679
495297030.0 -0.4471208981 0.71910016 0.000121699 8.615e-07 -5.6884e-06 -6.48899e-05 0.484699639 -0.7016986057
500297000.0 -0.4387061878 0.7234272153 -6.8676e-05 2.89436e-05 -1.95936e-05 0.0001303073 0.4773337138 -0.7062758827
505296970.0 -0.4312668119 0.7274879272 -6.115e-07 0.0001855725 5.53094e-05 0.0001039214 0.4700052213 -0.7109005055
510296940.0 -0.4239733123 0.7316338408 -2.98478e-05 8.18593e-05 0.0001071748 -0.0001900758 0.4631623718 -0.7149610456
515296910.0 -0.416948518 0.7364845378 -4.30431e-05 -8.68247e-05 3.30583e-05 9.89167e-05 0.4556692083 -0.7196736844
520296880.0 -0.4091455073 0.7407847041 -5.1949e-05 4.00243e-05 -0.0001372755 0.0002713803 0.4490254167 -0.7242714217
525296850.0 -0.4014941917 0.7444774632 4.32047e-05 1.59431e-05 9.82102e-05 0.0001692099 0.441523596 -0.7282144199
530296820.0 -0.3941061697 0.7480763539 -0.0001089249 0.0002466845 0.0001301316 -4.86157e-05 0.4342347353 -0.732644633
535296790.0 -0.3858194638 0.7519862574 -5.81476e-05 -0.0001964691 -2.78104e-05 -0.0001512374 0.4268691852 -0.7373263101
540296760.0 -0.3784347427 0.7562858005 -5.79392e-05 1.39128e-05 -0.000114851 -6.81533e-05 0.4190682707 -0.7411475112
545296730.0 -0.3706559548 0.7594054651 4.39308e-05 0.0001456165 -6.95708e-05 0.0001525556 0.4123033747 -0.7454145271
550296700.0 -0.3633238259 0.7636867858 1.45807e-05 0.0001359588 5.61276e-05 -0.0001536805 0.4046935339 -0.7497878081
555296670.0 -0.3546479239 0.7670656785 -2.69612e-05 -4.04273e-05 -2.4903e-06 3.4369e-05 0.3968385858 -0.7530515114
560296640.0 -0.3466782507 0.7705712029 -0.0001908834 9.39315e-05 3.78603e-05 -7.1928e-05 0.3895251249 -0.7568323698
565296610.0 -0.3393943326 0.7737995348 -0.0001235356 -4.45727e-05 -4.37216e-05 -7.11391e-05 0.3816061574 -0.7605834223
570296580.0 -0.3317924313 0.7775059549 -5.21571e-05 0.0001815569 -7.55182e-05 -8.57381e-05 0.3742227604 -0.7634857266
575296550.0 -0.3234389137 0.7803334098 -1.27433e-05 9.31276e-05 1.66807e-05 -0.0002534069 0.3661425413 -0.7677069232
580296520.0 -0.3156693715 0.7842491888 -2.4699e-06 -0.0001685092 5.8086e-06 3.07831e-05 0.3584508755 -0.7708502377
585296490.0 -0.307670999 0.7863095655 -0.0003092575 0.0001913961 -6.05211e-05 -5.53079e-05 0.3510743161 -0.7753194358
590296460.0 -0.299513397 0.7898922338 9.24375e-05 5.27368e-05 -5.24149e-05 9.29846e-05 0.3432802367 -0.7772925897
595296430.0 -0.2914131093 0.7937265645 0.00024832 2.425e-06 -0.0001326082 2.7787e-06 0.334783598 -0.7810933256
600296400.0 -0.2832397489 0.7956422354 -3.02595e-05 8.96791e-05 -6.87241e-05 -2.25217e-05 0.327908769 -0.7842327362
605296370.0 -0.2752604428 0.7990248719 1.7469e-06 7.96959e-05 1.801e-06 7.81021e-05 0.3193069818 -0.7877877103
610296340.0 -0.2675153755 0.8016664944 -0.0002817746 4.2299e-06 -0.0001016466 0.0001540215 0.3114921243 -0.7898982757
615296310.0 -0.2592732004 0.8045762772 -7.73978e-05 0.000182593 -0.0001940765 -8.12701e-05 0.3039113581 -0.7941892774
620296280.0 -0.2504785074 0.8062145218 5.14188e-05 -0.0001926412 0.0002172995 -5.44981e-05 0.2961499519 -0.7969369096
625296250.0 -0.2427551536 0.8091870037 3.81144e-05 -0.000145126 -4.73603e-05 5.98387e-05 0.2875992574 -0.7984808138
630296220.0 -0.233790268 0.8117208766 0.0001389468 0.0002005931 6.34619e-05 9.43315e-05 0.2795291539 -0.8016594783
635296190.0 -0.2262305151 0.8146227041 0.0001695645 -0.0001725467 -9.69296e-05 5.97652e-05 0.2717112224 -0.8040810393
640296160.0 -0.2178138509 0.8149541459 -4.58061e-05 -0.0001925295 0.0001061239 5.29262e-05 0.2635350133 -0.807070006
645296130.0 -0.2098727737 0.8179944975 -2.06509e-05 -4.21221e-05 5.45449e-05 0.0001585513 0.2555888738 -0.8094467923
650296100.0 -0.2017590096 0.8205537459 0.0001282849 -5.99149e-05 -0.0001765638 2.78879e-05 0.2471014518 -0.8110759699
655296070.0 -0.1926385827 0.822195964 -5.43316e-05 -2.22956e-05 3.73971e-05 9.94998e-05 0.2388871213 -0.8137434118
660296040.0 -0.1849783112 0.8243925247 -0.0001592961 5.19493e-05 8.73314e-05 4.90918e-05 0.2306300852 -0.8159698575
665296010.0 -0.1767347865 0.8259898072 -0.0001006751 6.0723e-05 -2.04895e-05 -0.0001666658 0.2227941317 -0.8179063883
670295980.0 -0.1676166916 0.8275519252 0.0002300886 -0.0001127365 4.40141e-05 0.0001506469 0.2151889117 -0.8199161059
675295950.0 -0.1601631898 0.8286474502 8.0829e-06 7.94535e-05 -3.86026e-05 -0.0001600508 0.2063501906 -0.8214511416
680295920.0 -0.1512819952 0.8309437927 -5.25011e-05 5.9244e-05 -0.0001243267 1.63812e-05 0.1982229837 -0.8241858549
685295890.0 -0.1426582016 0.8319551961 4.95511e-05 0.0001024333 7.35677e-05 9.4864e-06 0.1900576204 -0.8258009832
690295860.0 -0.1337900974 0.8337255227 0.0002128458 3.36862e-05 0.0001820432 3.41436e-05 0.1821132823 -0.8267698178
695295830.0 -0.1259218226 0.8343123295 4.24168e-05 8.1595e-05 9.68551e-05 -0.000212764 0.1729038578 -0.828960436
700295800.0 -0.1175384593 0.835485444 0.0001115531 -0.0001724508 3.45706e-05 -2.0236e-06 0.1648183333 -0.8305420225
705295770.0 -0.1086844443 0.837409707 4.20108e-05 3.35847e-05 4.10933e-05 -4.06582e-05 0.1569999961 -0.831524591
710295740.0 -0.1008485561 0.8380410924 -0.0001945853 -5.898e-05 0.0002007969 -0.000124358 0.1479382998 -0.8325554582
715295710.0 -0.0930641691 0.8389862562 0.0001822148 -6.8711e-05 1.79215e-05 0.0001757459 0.1401072824 -0.8343162373
720295680.0 -0.0839970508 0.839996445 0.0001339236 0.0003416049 0.0001292843 -5.59323e-05 0.1317977799 -0.8359937085
725295650.0 -0.0743984225 0.8407117549 -2.54987e-05 0.000249751 0.0001281734 -1.95034e-05 0.1235587491 -0.8368147327
730295620.0 -0.067764069 0.8411498165 2.46349e-05 -0.0001296132 -2.0775e-06 -2.89661e-05 0.1153638709 -0.8380182525
735295590.0 -0.0582785282 0.8418214357 4.1092e-05 -8.1591e-06 3.86925e-05 -4.1885e-06 0.1070347307 -0.8390301203
740295560.0 -0.050103767 0.8425037825 -0.0001340414 0.0001540762 0.0001352129 -4.14775e-05 0.0986350229 -0.8400145038
745295530.0 -0.0421607182 0.8426141702 -0.0002247026 -0.0002473592 -2.57194e-05 -1.63415e-05 0.0901229402 -0.8405698684
750295500.0 -0.0332987152 0.8429696864 -7.60798e-05 -0.0001257173 4.37757e-05 0.0001388355 0.0813511713 -0.8420452522
755295470.0 -0.0239908412 0.8435459281 0.0001857356 9.973e-06 -6.61826e-05 0.0001129972 0.0729673165 -0.8413784533
760295440.0 -0.0158449781 0.8436546639 0.000117391 -0.0001250642 -2.32083e-05 0.0002263265 0.0641708428 -0.8425859895
765295410.0 -0.0080247938 0.8435262663 -3.21048e-05 -2.72147e-05 -7.2311e-05 -0.0001206387 0.0565510876 -0.8428541968
770295380.0 0.0008638032 0.8444473234 -8.21057e-05 0.0001216912 -0.0002378964 -0.0001739874 0.0484652418 -0.8433097558
775295350.0 0.0091863496 0.8437457492 0.0001951466 0.0001405121 -0.0001540246 -4.57754e-05 0.0394718256 -0.8444114914
780295320.0 0.0181478976 0.8436723776 -0.0001790293 -0.0002465923 -8.06163e-05 1.74245e-05 0.03100063 -0.8437886066
785295290.0 0.0261475196 0.8434879324 -5.6672e-05 2.75252e-05 -5.94309e-05 0.0001326818 0.0222323751 -0.8440132863
790295260.0 0.0346760436 0.8430633894 -0.0001208834 -8.04528e-05 -5.68891e-05 0.0001051199 0.0147688413 -0.843368374
795295230.0 0.0426162958 0.8428736429 -0.0001283346 4.17573e-05 -2.99831e-05 -6.1425e-06 0.0059793503 -0.8435918847
800295200.0 0.0513809289 0.842712109 0.0001799262 7.33038e-05 0.0001278803 1.84177e-05 -0.0019343117 -0.8441440887
805295170.0 0.0601000271 0.8417531108 9.1292e-06 2.5369e-05 7.59173e-05 0.0002318089 -0.0109246865 -0.843842875
810295140.0 0.0685179339 0.8414915464 -1.7176e-05 -3.29274e-05 0.0002412849 -0.0001263164 -0.0193522592 -0.8427641669
815295110.0 0.0772933493 0.8401926486 -0.0001899478 2.95091e-05 4.9834e-05 -0.0001507156 -0.0279543176 -0.8428304174
820295080.0 0.0851061511 0.8388273114 8.78099e-05 -5.50245e-05 -3.85823e-05 -0.0001009609 -0.036599666 -0.8425928104
825295050.0 0.0934422205 0.8382585981 1.08287e-05 -0.0001132901 -0.0001165862 0.0001314649 -0.0448071088 -0.8419888274
830295020.0 0.1023238408 0.8379266789 -6.8071e-05 0.0001180373 -0.0001326655 1.11352e-05 -0.0538977844 -0.8412500297
835294990.0 0.1103918505 0.8369289495 0.0001176987 -9.67635e-05 -0.0001207918 -4.33648e-05 -0.0613946161 -0.8413158741
840294960.0 0.1184850944 0.83556332 2.5214e-06 -0.0001404738 -9.23202e-05 7.14834e-05 -0.0701033063 -0.8394511418
845294930.0 0.1273906884 0.8342373902 -0.0001653042 9.46052e-05 5.97433e-05 -1.80041e-05 -0.0781350135 -0.8388753644
