!Created with skrf (http://scikit-rf.org).
# Hz S RI R 50.0 
!freq ReS11 ImS11 ReS21 ImS21 ReS12 ImS12 ReS22 ImS22
300000.0 -0.2086474653 -0.0838826368 -0.0012333693 -0.0011336243 -0.0007220793 0.001168497 -0.7653837105 -0.1735414724
5299970.0 -0.2141803393 0.0082744561 4.4447e-05 5.0846e-05 7.76916e-05 7.19436e-05 -0.7842937109 -0.0092006209
10299940.0 -0.2104635248 0.0210670319 -4.6553e-05 4.51112e-05 2.91117e-05 -0.0002593357 -0.7883147681 -0.0057168802
15299910.0 -0.2054105871 0.0311756773 -9.69468e-05 -0.0002083005 1.71452e-05 -7.79326e-05 -0.7934254497 -0.0028278855
20299880.0 -0.1993960764 0.0390459263 -0.0001777886 -4.90452e-05 0.0002933196 -0.0002253866 -0.8002583903 0.001543455
25299850.0 -0.1930383352 0.0455069171 -7.90267e-05 0.0001131303 4.06596e-05 -0.00010192 -0.8067202383 0.0071412348
30299820.0 -0.1863347819 0.0504319032 1.01065e-05 0.0001532596 6.85024e-05 -2.06937e-05 -0.812226312 0.0148470338
35299790.0 -0.1799878336 0.0544296682 -0.0001450661 9.54297e-05 -0.0002618415 -3.90863e-05 -0.8177683042 0.0239738144
40299760.0 -0.1739690084 0.0571124197 4.5736e-05 -8.80036e-05 -3.4393e-06 1.49715e-05 -0.8215596377 0.0333331777
45299730.0 -0.1681760011 0.0595021094 -3.51141e-05 -7.57391e-05 -2.55589e-05 -2.88548e-05 -0.8253943846 0.0423048217
50299700.0 -0.1627417593 0.06074896 0.0001986432 0.0001173926 -0.0001216041 -7.07733e-05 -0.827744178 0.0528203726
55299670.0 -0.1583051001 0.0619596259 4.12707e-05 6.06354e-05 2.23497e-05 5.24942e-05 -0.8295212131 0.0629242653
60299640.0 -0.1536729532 0.0620691266 0.0002124974 0.0001012474 -0.000164398 6.05497e-05 -0.8306117354 0.0730847181
65299610.0 -0.1499071774 0.0627680575 6.89109e-05 5.1023e-05 -3.06757e-05 0.00010063 -0.8312484081 0.0828931937
70299580.0 -0.1460903273 0.0626746666 0.0001784888 -0.0002018557 -0.0002497434 -0.0001708703 -0.8318959071 0.0924340631
75299550.0 -0.1431407409 0.0623390902 1.39161e-05 5.17091e-05 2.48646e-05 9.46662e-05 -0.8327569141 0.1024966009
80299520.0 -0.1405488116 0.0629925579 0.0002317125 7.51811e-05 7.8337e-05 -3.9109e-06 -0.8313234553 0.1122993087
85299490.0 -0.1377311944 0.0623384588 0.0001283452 -0.0001101856 -9.91307e-05 0.0002050681 -0.8314290834 0.1219059569
90299460.0 -0.1355487762 0.0622071627 -7.08894e-05 7.19621e-05 -4.5636e-05 1.86159e-05 -0.8305962646 0.1315347551
95299430.0 -0.1333249253 0.0619339769 3.84141e-05 3.33457e-05 -1.6591e-05 -0.0002495352 -0.8301861887 0.1413529487
100299400.0 -0.1315642471 0.0620856235 1.85333e-05 3.95306e-05 -0.0001232879 0.0001440689 -0.8291163021 0.1499132231
105299370.0 -0.1297419138 0.0618678204 -3.62442e-05 4.202e-07 -0.0001823956 8.02043e-05 -0.827494123 0.159090473
110299340.0 -0.1282586789 0.0614509916 4.51014e-05 -7.8453e-05 -0.0001245225 9.7501e-05 -0.8271753455 0.168328509
115299310.0 -0.1268504016 0.0611488242 -6.33491e-05 0.0001474743 9.99309e-05 0.0002520914 -0.8245866227 0.1771516063
120299280.0 -0.1257421456 0.0611589178 1.02736e-05 -0.0001045228 -2.79297e-05 5.83262e-05 -0.8234601593 0.1856560853
125299250.0 -0.1246819731 0.0609988664 -1.46881e-05 -6.82716e-05 0.0001364252 4.00917e-05 -0.8220259576 0.1955887232
130299220.0 -0.1234540573 0.0613823606 8.72085e-05 0.0001492017 -9.0672e-06 1.54666e-05 -0.8200281289 0.20455951
135299190.0 -0.1224753715 0.0612593235 -1.76782e-05 0.000144451 2.09949e-05 0.0001124943 -0.8177604366 0.2127173242
140299160.0 -0.1217768625 0.0614269084 0.0001408516 -2.0575e-06 0.0001616956 9.58333e-05 -0.8162048193 0.2212135244
145299130.0 -0.1206295195 0.0614940359 0.0001451283 3.5749e-05 0.0002114038 -0.0001612637 -0.8137499766 0.2301631524
150299100.0 -0.1202289949 0.0617295923 0.0001157504 0.0001672188 0.0001346673 0.0001054858 -0.8121696666 0.2382073918
155299070.0 -0.1192972596 0.0620919439 -8.13336e-05 -0.00018556 0.0002156639 -0.000158093 -0.8097577815 0.2477265996
160299040.0 -0.1187214116 0.0622619979 6.59339e-05 -0.0001804276 -9.23963e-05 0.0001807818 -0.807122451 0.2563247032
165299010.0 -0.1182757243 0.0623368107 0.0001100104 0.0002075021 0.0001072727 -9.85599e-05 -0.8044315603 0.2652139768
170298980.0 -0.1175806789 0.0628125316 5.65544e-05 0.0002849161 0.0001576123 8.25834e-05 -0.8021919449 0.2734370187
175298950.0 -0.1167666686 0.0636184451 0.0001671474 9.65235e-05 0.0001064639 -0.0001523834 -0.7987633223 0.282130325
180298920.0 -0.1165491808 0.0636676428 6.62202e-05 0.0002299621 -1.67592e-05 -9.0539e-06 -0.7956643081 0.2903952862
185298890.0 -0.1159895286 0.0641749686 5.86578e-05 0.0001110457 -7.7792e-06 0.0002651524 -0.792883323 0.2985034685
190298860.0 -0.1154068153 0.0646456414 -2.60149e-05 -1.09954e-05 5.65987e-05 0.0001660035 -0.7896269427 0.3075331973
195298830.0 -0.1145965567 0.064941639 3.62745e-05 0.0001151124 1.46846e-05 0.0001106089 -0.7865889962 0.3157775737
200298800.0 -0.1143529669 0.0661281476 -3.23342e-05 -3.0434e-05 1.02248e-05 -2.28029e-05 -0.7833971415 0.3241096408
205298770.0 -0.1138226341 0.0664741282 -8.66734e-05 7.90866e-05 0.0001732343 2.47214e-05 -0.7800690493 0.3322646611
210298740.0 -0.1131980543 0.0674521887 0.0001672901 3.61448e-05 5.7962e-06 -0.0001993532 -0.7768627591 0.3401020402
215298710.0 -0.112872921 0.0679587719 2.05728e-05 0.0001031469 0.0001261792 8.32426e-05 -0.7733342294 0.348249823
220298680.0 -0.1125777528 0.0686200246 5.22961e-05 7.99105e-05 2.33797e-05 0.0001391187 -0.7697923875 0.3569588345
225298650.0 -0.1120264361 0.0694804546 0.0001244904 -6.59363e-05 0.0001278899 0.0001852762 -0.7655562976 0.364554316
230298620.0 -0.111402076 0.0701724479 0.0001451379 4.5531e-05 0.0002041873 0.0001355202 -0.76149499 0.3722829333
235298590.0 -0.1111856805 0.0707802443 -0.0001376204 6.46173e-05 -3.95373e-05 0.0001427317 -0.75726987 0.3805039573
240298560.0 -0.1107902999 0.0717327348 0.0001009459 7.23098e-05 3.16987e-05 8.0968e-05 -0.754290159 0.3880194427
245298530.0 -0.109865846 0.0722922242 -0.0001013176 -0.0001260351 0.0001195302 4.16638e-05 -0.7499598516 0.3963917714
250298500.0 -0.1097513256 0.073242695 0.0002209789 0.0001448623 0.0001820791 0.0002763707 -0.7455217147 0.4045623973
255298470.0 -0.109265656 0.0740882663 -0.0001558056 4.54771e-05 4.02386e-05 0.0002070047 -0.7415634313 0.4122440053
260298440.0 -0.1085380465 0.0749387937 -6.22853e-05 8.26608e-05 0.0001919492 0.0002200193 -0.736528214 0.4199814021
265298410.0 -0.1082899684 0.0758571288 2.43513e-05 0.0002161034 0.0001074175 0.0001445975 -0.7325918516 0.4274541314
270298380.0 -0.1074336738 0.0764796519 0.0001457151 0.0002778138 0.0002196688 0.0001465564 -0.7274149954 0.4351358648
275298350.0 -0.1070752209 0.0776502305 0.0001055184 -2.1011e-05 -9.66297e-05 0.0002520093 -0.7226970283 0.4432455252
280298320.0 -0.1064688344 0.0783414606 -3.52533e-05 0.0001393993 0.0001979977 8.57587e-05 -0.7186453992 0.4499424339
285298290.0 -0.106174575 0.079656618 0.000275684 0.0002611048 0.0001210158 4.42087e-05 -0.7128628136 0.4576383203
290298260.0 -0.1054569154 0.080474313 -6.50884e-05 9.8616e-05 0.0001775657 2.19853e-05 -0.7085821235 0.4655169666
295298230.0 -0.104722102 0.0813106422 0.0002444279 0.0001473014 0.0004224509 0.0003099397 -0.7038843973 0.4727870586
300298200.0 -0.104016871 0.0817342338 0.0002285003 0.000211441 0.0001625141 8.9685e-05 -0.6985220775 0.4796487242
305298170.0 -0.1032873576 0.0829530734 0.0001344257 9.37582e-05 3.00233e-05 -1.56648e-05 -0.6929589261 0.4876960969
310298140.0 -0.1027665022 0.0835716371 -7.3052e-05 -0.0001793573 0.000115188 0.0001529031 -0.6890028612 0.4948762191
315298110.0 -0.1025059276 0.0843807697 -2.35025e-05 0.0002601197 0.0001446353 0.0002361162 -0.6828813402 0.5019388723
320298080.0 -0.1018331595 0.085410142 9.65933e-05 -0.0001385906 -0.0001854294 0.0001335187 -0.6774594487 0.5088508413
325298050.0 -0.101227734 0.0862845405 6.4994e-06 0.0002619086 1.82061e-05 -3.77875e-05 -0.672234068 0.5158478698
330298020.0 -0.1007692329 0.0872837749 0.0002543229 0.0001727493 9.09873e-05 0.0001663706 -0.6668193682 0.5233564395
335297990.0 -0.1003663111 0.0881605777 0.0002773601 -0.0001045931 0.0001332793 0.0001118648 -0.6612769048 0.5297529336
340297960.0 -0.099831397 0.0892166928 0.0001730387 0.0001860333 3.7676e-06 -8.89207e-05 -0.6552905307 0.5372883171
345297930.0 -0.0992734912 0.0903421749 6.5069e-06 -0.00011718 0.0001102511 0.0001796897 -0.6492746644 0.5437466506
350297900.0 -0.0984465529 0.0912908159 4.13361e-05 0.0001483774 6.6102e-06 0.000216197 -0.6441914865 0.5511037369
355297870.0 -0.0982471844 0.0921680104 4.69645e-05 6.29454e-05 0.0004890202 0.0001826512 -0.6379676346 0.5576150252
360297840.0 -0.0974500234 0.093273158 8.5116e-05 0.0001554158 -4.25838e-05 -1.17777e-05 -0.6322876966 0.5640492633
365297810.0 -0.0964824891 0.09428909 -1.31663e-05 0.0002232187 0.0001913746 -7.12273e-05 -0.6260278999 0.5706494494
370297780.0 -0.0959069918 0.0952809385 -1.87277e-05 2.39697e-05 0.0002093487 5.48201e-05 -0.6207416662 0.5765569563
375297750.0 -0.0952785711 0.0963990082 0.0001990617 0.0001932005 3.74229e-05 0.0001713437 -0.613565983 0.5830344487
380297720.0 -0.0940811522 0.0973529572 0.0001991978 0.0001349538 0.0001705163 0.00013245 -0.6077993378 0.5901024878
385297690.0 -0.0935177763 0.0984569436 0.0001439138 0.0001015947 0.0001748655 -0.0001979331 -0.602430951 0.5965556063
390297660.0 -0.0927213648 0.0996234602 0.0001135851 9.37541e-05 0.0003095561 1.35844e-05 -0.5953797725 0.6019410949
395297630.0 -0.0918789649 0.100234206 0.0002169478 -1.70867e-05 0.0001418035 0.0001146675 -0.5895226823 0.6082947999
400297600.0 -0.0912287793 0.1014623261 0.0001251496 0.0001037492 9.50174e-05 8.58726e-05 -0.5827450949 0.6141048647
405297570.0 -0.0902033828 0.1021855679 0.0002587042 0.0002062569 5.96432e-05 -1.84576e-05 -0.5767139808 0.6199628295
410297540.0 -0.0891909418 0.1031982916 -1.35145e-05 0.0002944386 0.0001915092 0.0001418281 -0.5702408291 0.6254328282
415297510.0 -0.0885104476 0.1042255808 4.42907e-05 0.0001226602 2.86772e-05 0.0002088274 -0.5640405649 0.6320243154
420297480.0 -0.0879671582 0.1050512127 0.0001016141 -6.20907e-05 6.34458e-05 9.64756e-05 -0.5571366479 0.6365669586
425297450.0 -0.0869024526 0.1060967111 -0.0002098572 0.0001738617 0.0001287919 -4.25403e-05 -0.5503576861 0.643338205
430297420.0 -0.0863852697 0.1072252833 0.0003391226 0.0001540662 0.0001138718 -5.35471e-05 -0.5440903629 0.6484755499
435297390.0 -0.0852219271 0.1079610754 0.0002509174 0.0002484034 -0.0001663951 -0.0001662479 -0.5370402259 0.6538869475
440297360.0 -0.0842765999 0.1090227491 5.45969e-05 -5.2519e-06 0.0003525128 0.0003024458 -0.5304133068 0.6588282808
445297330.0 -0.0832983783 0.110072022 0.000220282 0.0001578214 -8.52183e-05 9.26173e-05 -0.5235894579 0.6644873459
450297300.0 -0.0823917442 0.110712977 0.0002339133 0.0001237098 0.0002585133 0.0001087814 -0.5165642424 0.6697283467
455297270.0 -0.0812281246 0.1120700433 0.0001548009 -0.0001229532 6.61388e-05 -6.24099e-05 -0.5103277463 0.6748907379
460297240.0 -0.0807379903 0.1130327964 0.0002508041 0.000218176 0.0001590857 0.0001335771 -0.5028966173 0.6802184435
465297210.0 -0.0791799114 0.1136933682 0.0001462934 0.000178551 0.000167304 0.0003347223 -0.4961245183 0.6849713144
470297180.0 -0.0788197222 0.1147238599 0.0003729621 0.0001537346 0.0001510361 1.24227e-05 -0.4895356206 0.6892193528
475297150.0 -0.0774528985 0.1155686932 0.0001593282 -3.97284e-05 4.46811e-05 0.0001759431 -0.4819003763 0.6947185596
480297120.0 -0.0765953763 0.1164359064 -7.36556e-05 0.0001438931 9.98263e-05 4.56388e-05 -0.4752332934 0.6999019085
485297090.0 -0.0754340041 0.1173106349 0.0003759852 0.000153385 0.0001643017 5.84111e-05 -0.4678626937 0.7034517938
490297060.0 -0.0744137117 0.1181847955 -8.94287e-05 0.0001737181 0.0003033156 -5.9383e-05 -0.4608263088 0.7082593301
495297030.0 -0.073612899 0.1191961742 8.7463e-05 0.0003212669 0.0001603596 4.98153e-05 -0.453448782 0.7124052163
500297000.0 -0.0722321302 0.119953539 0.0003652689 -5.9118e-05 0.0002711948 0.0001887714 -0.4469676842 0.7174044009
505296970.0 -0.0714178381 0.1206429147 0.0001450928 -0.0001138056 0.0003375546 0.0001118437 -0.4400663912 0.721813308
510296940.0 -0.0703629312 0.121818624 0.0002496715 -0.000137492 0.0001854194 -3.53568e-05 -0.431615778 0.725817404
515296910.0 -0.0693389286 0.1226187766 0.0001516481 0.0001784901 0.0001577865 0.0001428045 -0.4246016028 0.7305589563
520296880.0 -0.0683185228 0.123517636 0.0002268575 -3.84319e-05 0.0002072405 4.81953e-05 -0.4180793156 0.7347178329
525296850.0 -0.0669384382 0.1240656738 0.000101767 7.15703e-05 6.97929e-05 -1.52519e-05 -0.4100689926 0.7391494787
530296820.0 -0.0659621959 0.125006176 0.0003654869 0.0003009 0.0002026116 -1.90539e-05 -0.4033820186 0.7423632965
535296790.0 -0.0646966244 0.1259132454 0.0002746772 -0.0001588574 0.0001272304 -2.03545e-05 -0.3952958735 0.7461443026
540296760.0 -0.0638073528 0.1264305108 7.69542e-05 0.0001249788 0.0002111839 0.0001242953 -0.3878419723 0.7507923862
545296730.0 -0.0624247077 0.1276133991 2.82401e-05 -4.55295e-05 0.0002021874 1.88212e-05 -0.3807170668 0.7538214806
550296700.0 -0.0616963717 0.1282589054 6.69434e-05 -0.0001410624 0.0001088702 6.06318e-05 -0.3730956381 0.7578153121
555296670.0 -0.0600116706 0.1290857097 0.0001284028 -0.0001011168 0.0002308873 -9.25392e-05 -0.3656209868 0.7615752047
560296640.0 -0.0590589822 0.129555396 0.0005649083 9.85861e-05 0.0001768733 0.0003926713 -0.3574102269 0.765474894
565296610.0 -0.057783261 0.1304400961 -4.4811e-05 -6.1639e-06 3.49248e-05 1.14048e-05 -0.3502030733 0.7689420902
570296580.0 -0.0568131213 0.1311184118 0.0001333492 0.0001652878 0.0004432005 1.26601e-05 -0.3429311189 0.7724267322
575296550.0 -0.0553470304 0.1318739917 0.000249035 -3.31836e-05 7.4923e-05 -8.69658e-05 -0.3345084983 0.7755079295
580296520.0 -0.0542501571 0.1327628758 0.0002441174 -0.0001388518 3.5577e-05 -1.36062e-05 -0.3271998278 0.778679375
585296490.0 -0.0530461675 0.1333003988 0.0001176843 0.0002119961 0.0001656713 0.000156633 -0.3190398027 0.7815826406
590296460.0 -0.0518468109 0.1342094209 8.59504e-05 -8.20901e-05 0.0001743154 0.0001232633 -0.3117888709 0.7847905543
595296430.0 -0.0504574479 0.1346662002 9.65271e-05 8.89128e-05 6.67225e-05 9.0795e-06 -0.3035104226 0.7875842557
600296400.0 -0.049586911 0.1354182604 -3.50492e-05 0.0002339118 0.0002654976 2.1637e-05 -0.2959546798 0.7913610638
605296370.0 -0.0482294409 0.1360521782 0.0002754812 8.9125e-06 0.0002872574 7.46649e-05 -0.288354248 0.7941914514
610296340.0 -0.0465717437 0.136548499 0.0003267677 7.1212e-06 0.0003255984 -0.000102773 -0.2802782775 0.7974044632
615296310.0 -0.0456833869 0.1376229558 0.0001377063 0.0002030518 0.0002041912 2.18064e-05 -0.2724147464 0.7994761088
620296280.0 -0.0442680223 0.1380637468 0.0002295038 0.0002557959 -0.0001020216 0.0001334438 -0.2647687491 0.8018016778
625296250.0 -0.0430234159 0.138660781 0.0002866863 -0.0001053853 0.0002478033 5.90334e-05 -0.2567732562 0.8045314033
630296220.0 -0.0417254279 0.1392428205 0.0003230438 6.9282e-06 0.0001641316 -3.60584e-05 -0.2482219195 0.80717751
635296190.0 -0.0403685288 0.1398836106 0.0001630205 1.83122e-05 0.0003274379 -7.36001e-05 -0.2408553058 0.8096563815
640296160.0 -0.0388333205 0.1402392101 4.12507e-05 0.0001707909 0.0001819911 0.0001463658 -0.2324556671 0.8118023511
645296130.0 -0.0378705574 0.1409525083 3.03931e-05 -3.79352e-05 0.000335372 6.17604e-05 -0.2249411791 0.8139383348
650296100.0 -0.036570864 0.1416316981 0.0003512654 -4.53366e-05 0.0002024408 4.29322e-05 -0.2163872524 0.8166690142
655296070.0 -0.035208526 0.1420383672 0.000162589 3.31991e-05 0.0002686208 0.0001709767 -0.2089446622 0.817817928
660296040.0 -0.0339491336 0.1429571315 0.000218009 -0.0002161774 0.0003823589 -6.00132e-05 -0.2004679323 0.8204180745
665296010.0 -0.0325274922 0.1432804447 0.0001446617 -1.1996e-06 0.0002826555 -0.0001421266 -0.1926888623 0.8223183157
670295980.0 -0.0309701195 0.1436552043 0.0002900905 -0.0001005505 0.0002576522 -8.63285e-05 -0.1855836411 0.8238081864
675295950.0 -0.0298875529 0.1440304016 0.0002254262 0.0001435928 0.0001659908 -0.0001320844 -0.1762180217 0.8261019143
680295920.0 -0.0283675342 0.1449345942 0.0002801752 0.0002281566 0.0002460106 1.19858e-05 -0.1680082169 0.8276886882
685295890.0 -0.0271350626 0.1454359058 0.0003391293 -0.0001439478 0.0002487579 2.81528e-05 -0.1598893054 0.8292641592
690295860.0 -0.0255161701 0.1456798502 0.0003476857 0.0001241516 0.0001378051 -2.57396e-05 -0.1519630267 0.830605462
695295830.0 -0.0243394158 0.1459845242 0.0003337347 -3.80083e-05 0.0002521341 0.0001522091 -0.1438266884 0.8326652803
700295800.0 -0.0231390158 0.1464722548 3.91783e-05 2.45754e-05 0.0001545229 0.0001051452 -0.1349238768 0.833462449
705295770.0 -0.0213451523 0.146917664 0.0003408179 -8.4534e-05 7.57148e-05 -0.0001795119 -0.1274281329 0.8352970666
710295740.0 -0.019843029 0.1473307784 0.0002180542 -0.0001044937 0.0003491764 -9.17487e-05 -0.1196120364 0.836421136
715295710.0 -0.0188770144 0.147784487 0.0001962997 0.0001252991 8.7941e-05 2.49579e-05 -0.1108113139 0.837678481
720295680.0 -0.0175784047 0.1481345081 0.0002878115 -0.0001398015 0.0001419986 0.0001102469 -0.1023507547 0.8387490745
725295650.0 -0.0157883814 0.1486928284 0.0002659626 -4.33184e-05 5.5228e-05 -9.47351e-05 -0.0936351739 0.8398549707
730295620.0 -0.0147055968 0.1489019569 0.0002617302 -6.19634e-05 0.0002575806 2.2821e-06 -0.0858842907 0.8402085413
735295590.0 -0.0128798024 0.1492932692 0.0001101682 -0.0002575585 0.0002007228 -0.0002409436 -0.0772840818 0.8407431753
740295560.0 -0.0113922598 0.1497025115 0.0003099465 7.03856e-05 0.0001989419 -0.0001717247 -0.0689312341 0.8412189651
745295530.0 -0.0105657774 0.1499409883 0.0003277158 8.09779e-05 0.0001882745 0.0001442736 -0.0607289299 0.8421898998
750295500.0 -0.0088854554 0.1500859063 0.0003041857 8.75223e-05 0.0002814735 -1.1625e-05 -0.0522079694 0.8427172629
755295470.0 -0.0069854008 0.1505364025 5.35685e-05 7.50867e-05 0.0001976357 -9.15006e-05 -0.0442627993 0.8429635013
760295440.0 -0.0060648439 0.1506630042 0.0002573322 0.0002799289 0.0001849968 -4.06228e-05 -0.036285404 0.8435339936
765295410.0 -0.0047400815 0.1508037531 0.0003492578 -0.0002341157 0.000291233 4.75092e-05 -0.0270702922 0.8442826494
770295380.0 -0.0029226244 0.1515088311 0.0002391589 5.68622e-05 0.0001071402 0.0001300452 -0.019178044 0.843994174
775295350.0 -0.0016622273 0.1516882922 0.0003253407 -0.0001221425 0.0002841462 0.0001307074 -0.0112548058 0.8438447421
780295320.0 -0.0001511934 0.1514832124 0.0003073445 -6.15935e-05 0.0003067411 0.000120541 -0.0029285886 0.8442633918
785295290.0 0.0012632998 0.1523450955 0.000354041 -0.0001624761 2.79069e-05 8.77422e-05 0.0048942134 0.8441698594
790295260.0 0.0026351527 0.1521117766 0.0003697988 5.63322e-05 0.0003789816 -0.000114247 0.014414083 0.8448030651
795295230.0 0.0042643535 0.1524750656 0.0002334169 -6.14787e-05 0.0002103426 -5.14905e-05 0.0222248653 0.844614923
800295200.0 0.0059680812 0.1527509319 0.0003484422 -0.000129972 0.0002695027 -0.0001992922 0.0304115357 0.8434057173
805295170.0 0.0071972253 0.1527827242 0.0003325494 0.0001607585 0.0003078193 7.751e-07 0.0384639371 0.8431979206
810295140.0 0.0088833219 0.1529677045 9.55065e-05 -0.0003054523 0.000360363 -6.07588e-05 0.0475154373 0.8436118747
815295110.0 0.0103607403 0.1529930011 0.0001460042 -0.0002999577 0.0002252783 -9.88628e-05 0.0550189976 0.8427284053
820295080.0 0.011808518 0.1528998144 0.000454173 0.0001339456 0.0001924492 6.15351e-05 0.0633494752 0.8416296219
825295050.0 0.013182039 0.1529630975 0.0001720523 6.0213e-06 0.0002968997 -8.43913e-05 0.071686287 0.8411922274
830295020.0 0.0148399663 0.1534112823 7.91013e-05 -0.0001468212 0.0003958811 -9.10053e-05 0.0799434771 0.8406349914
835294990.0 0.0158382678 0.1535176856 0.0002015314 6.283e-06 0.000246597 -2.29266e-05 0.0882672854 0.8395353774
840294960.0 0.0178171302 0.1532874062 0.0004856494 -1.14715e-05 0.0003336164 -7.59464e-05 0.095886912 0.8387804733
845294930.0 0.0191259775 0.1535787888 0.0004444041 -0.0001280724 0.0002225965 -1.1158e-06 0.1042389378 0.8375863065
850294900.0 0.0206408372 0.1535857089 8.68448e-05 -8.13977e-05 0.0001320217 -0.0001198395 0.1121278263 0.8371933962
