!Created with skrf (http://scikit-rf.org).
# Hz S RI R 50.0 
!freq ReS11 ImS11 ReS21 ImS21 ReS12 ImS12 ReS22 ImS22
300000.0 -0.2403492152 -0.0767033214 0.4712979284 0.0509851359 0.4680591341 0.0505107424 -0.2422633001 -0.0902978339
5299970.0 -0.2443271028 0.0076026865 0.4734473623 0.0046069451 0.4735333788 0.0046855601 -0.2437805396 0.0073437805
10299940.0 -0.2409229175 0.0190838334 0.4751173321 0.005878054 0.4757416544 0.0061991741 -0.2405230527 0.020583719
15299910.0 -0.2365898967 0.0280489063 0.4791111217 0.0075742855 0.4795023741 0.0076646743 -0.2362120394 0.029765429
20299880.0 -0.2319637053 0.0355155066 0.4836353294 0.0086389754 0.4837775121 0.0084572846 -0.2309977151 0.0371948257
25299850.0 -0.2267760307 0.0418581974 0.4894394676 0.0075391609 0.4889597106 0.0077792316 -0.2249466121 0.0436880031
30299820.0 -0.2215523332 0.046960736 0.494354166 0.0052306837 0.494462907 0.0053465055 -0.2192723141 0.0492458788
35299790.0 -0.2161947802 0.0512134436 0.5001805678 0.0022180727 0.5000195127 0.0020847305 -0.213473374 0.0532919622
40299760.0 -0.2112099153 0.0548624539 0.5048644923 -0.002083997 0.5051792125 -0.0017668403 -0.208355482 0.0560426673
45299730.0 -0.2064102832 0.0576802496 0.5094663596 -0.006914051 0.5099780001 -0.0066766078 -0.203234763 0.0587085344
50299700.0 -0.2026823822 0.0597791588 0.5145681666 -0.0120413436 0.5138934839 -0.0118003281 -0.1984609286 0.0606016898
55299670.0 -0.1983541971 0.0619046801 0.5178754295 -0.0186241485 0.5178494787 -0.0182740159 -0.1944091241 0.0623752307
60299640.0 -0.194265932 0.0636706787 0.5211403075 -0.024505026 0.5215715553 -0.0243302104 -0.1903224591 0.0632171808
65299610.0 -0.1911815925 0.0647219359 0.5239028578 -0.0305675998 0.5244947535 -0.03069409 -0.1871590801 0.0641172932
70299580.0 -0.1881766233 0.0664473294 0.5268539108 -0.0373590506 0.5265221255 -0.0371794417 -0.1838253019 0.0650081822
75299550.0 -0.184875748 0.0673127706 0.5283252604 -0.0439557828 0.5283606919 -0.0440666831 -0.1808315665 0.0655809688
80299520.0 -0.1824468585 0.0680047103 0.5304423065 -0.0511859256 0.5303897276 -0.0511261346 -0.1785142415 0.0661216878
85299490.0 -0.1800958845 0.0687573311 0.5317452132 -0.0574937446 0.5319384463 -0.0574607416 -0.1762974375 0.0659090279
90299460.0 -0.1778520353 0.0694451379 0.5323786003 -0.0648571405 0.5329992281 -0.064646314 -0.1738487359 0.0667383874
95299430.0 -0.1756748327 0.0705021928 0.5336998611 -0.0715920544 0.5333122283 -0.0717913704 -0.1713554906 0.0672914476
100299400.0 -0.1739016713 0.0716273318 0.533922496 -0.0786378969 0.5336799607 -0.0786653208 -0.1694114265 0.0671313748
105299370.0 -0.1723128669 0.0725229702 0.5346550508 -0.0858711801 0.534637329 -0.0856862311 -0.1675093672 0.0679880796
110299340.0 -0.1704145937 0.0732851823 0.5347834314 -0.0924078512 0.5347519445 -0.0920064352 -0.1665881571 0.0683854142
115299310.0 -0.1687913505 0.0741496401 0.5343546823 -0.0991785582 0.5346176014 -0.0993044821 -0.1647902765 0.0688801254
120299280.0 -0.1674862638 0.0746371085 0.5343652881 -0.1059801226 0.5340608503 -0.1058638491 -0.1630485706 0.0696556882
125299250.0 -0.1661845147 0.0755439211 0.533940845 -0.1126537741 0.5340929908 -0.1125876531 -0.1625190902 0.069627
130299220.0 -0.1649756742 0.0765685299 0.5332734851 -0.1196520451 0.5332067783 -0.1192109393 -0.1608271531 0.0702707876
135299190.0 -0.1635905557 0.0778928653 0.5329950823 -0.1262020462 0.5324693913 -0.1261255939 -0.1601030503 0.0710374764
140299160.0 -0.1626228084 0.0789718847 0.5317801629 -0.133099438 0.5323550043 -0.1327082385 -0.1587911503 0.072119309
145299130.0 -0.1614773471 0.0799568244 0.5309834511 -0.1396051226 0.5309345584 -0.1393599689 -0.1578850224 0.0728388658
150299100.0 -0.1602471036 0.0810499064 0.5296864443 -0.1453763085 0.5297465663 -0.1455153848 -0.1567980541 0.0740504251
155299070.0 -0.1595578547 0.082128486 0.5288268809 -0.1529655122 0.5286874959 -0.152491962 -0.1559840503 0.0745978575
160299040.0 -0.1582714657 0.0836470293 0.5275885251 -0.1591661651 0.5269367972 -0.159009978 -0.1553535835 0.0755264588
165299010.0 -0.1572806255 0.0845221625 0.52566476 -0.1657750514 0.5258545026 -0.1652454716 -0.1542971728 0.0769466674
170298980.0 -0.1565605397 0.0858406511 0.5243737812 -0.1715631148 0.5244990938 -0.1716592789 -0.153558785 0.0775974937
175298950.0 -0.1556536817 0.0869497402 0.5233039309 -0.1779807697 0.5224702699 -0.1779052606 -0.1529893184 0.0785687422
180298920.0 -0.1547769537 0.0884481824 0.5208697936 -0.1842757374 0.5209580207 -0.1840749259 -0.1521263334 0.0799176483
185298890.0 -0.1532470297 0.0892710488 0.5190052142 -0.1906523936 0.5187325151 -0.1900939115 -0.1514020967 0.0810850422
190298860.0 -0.1527697699 0.0910929698 0.5168457893 -0.1969393844 0.5175890362 -0.1964387259 -0.1506565803 0.0816047182
195298830.0 -0.1519212834 0.091929051 0.5152661974 -0.2031773726 0.5153437421 -0.2026717296 -0.1497276064 0.0829207232
200298800.0 -0.1507064035 0.0935074534 0.513023035 -0.2091392777 0.5132335594 -0.2090878672 -0.1494405168 0.0842592793
205298770.0 -0.1497857486 0.094986495 0.5106284689 -0.2150462532 0.5108526314 -0.2150454714 -0.1484394698 0.0847405946
210298740.0 -0.1489382604 0.0961668973 0.5085387088 -0.2206376941 0.5082855812 -0.2206105734 -0.1475715864 0.0865067574
215298710.0 -0.148352292 0.0977498129 0.5064134484 -0.2269957448 0.5063546619 -0.2271434427 -0.1472567431 0.0877573879
220298680.0 -0.1471304336 0.0986898698 0.5034799356 -0.2326472694 0.5034665755 -0.2331053364 -0.1465606173 0.0888078277
225298650.0 -0.1459955376 0.1004376383 0.5009868311 -0.2388511904 0.5015980392 -0.2388296241 -0.1465362989 0.0899693347
230298620.0 -0.1450667495 0.1019319802 0.4990974301 -0.2442860573 0.4994532402 -0.2444789153 -0.145588404 0.0906429709
235298590.0 -0.1441409962 0.1037744098 0.4961066579 -0.2502766795 0.4962219365 -0.250081006 -0.1447007742 0.0922003945
240298560.0 -0.1432493271 0.1052680164 0.4938825885 -0.2562004268 0.4934243823 -0.2562177117 -0.1437371513 0.0936556287
245298530.0 -0.1423528798 0.1066120613 0.4911076603 -0.2620486244 0.4907501036 -0.261692174 -0.143005818 0.0941557906
250298500.0 -0.1407769682 0.1081597249 0.4874415662 -0.2676394139 0.4872240267 -0.2672221337 -0.1426360108 0.0959250627
255298470.0 -0.1399296942 0.1089457031 0.4845393972 -0.2724569876 0.4850391217 -0.2724033765 -0.1416062015 0.0969775935
260298440.0 -0.1389948139 0.1104981928 0.4820672179 -0.2784603684 0.4821617868 -0.2780300152 -0.140558058 0.0979471525
265298410.0 -0.137421042 0.112594491 0.4784773769 -0.2841421878 0.4791896969 -0.2836866916 -0.1400348574 0.0996906627
270298380.0 -0.1367716395 0.1138865974 0.4762780016 -0.2893668772 0.4761207614 -0.2893038649 -0.1392571964 0.1006036803
275298350.0 -0.1353257319 0.1151142245 0.4725676582 -0.2949235428 0.4731204433 -0.29523787 -0.1381283886 0.1018346101
280298320.0 -0.1340539724 0.1167134353 0.4698825392 -0.3000335394 0.4698237391 -0.3002858764 -0.1367759542 0.1030231358
285298290.0 -0.1327591667 0.1182937642 0.4663286713 -0.305602365 0.4664162538 -0.3055668844 -0.1361769304 0.1041081986
290298260.0 -0.1313153403 0.1197189957 0.4628398209 -0.310409875 0.4629455832 -0.3108781194 -0.1350497331 0.1057648169
295298230.0 -0.1303320646 0.1208335125 0.4596571423 -0.3158673693 0.4596882342 -0.3159802504 -0.1337111871 0.1067585753
300298200.0 -0.1292160175 0.1223545135 0.4568544264 -0.321317403 0.4566578565 -0.3214195535 -0.133081568 0.1081711584
305298170.0 -0.1277092037 0.1235430927 0.4523694427 -0.3267125892 0.4526892757 -0.326529073 -0.1313807686 0.1089920793
310298140.0 -0.1266046507 0.1252364876 0.4488068545 -0.3315988905 0.4494274912 -0.3317953733 -0.1308650172 0.1101646607
315298110.0 -0.1251158681 0.1261062204 0.4451544372 -0.3369738421 0.4456248768 -0.3370597831 -0.1298183429 0.1114591893
320298080.0 -0.123711822 0.1275651861 0.4414130889 -0.3421180356 0.4417815657 -0.3418101282 -0.1288409908 0.112782798
325298050.0 -0.1226513123 0.1286826403 0.4373541577 -0.3470401202 0.4376037422 -0.3470290525 -0.1282570258 0.1140244252
330298020.0 -0.1213903905 0.1298045549 0.4335940515 -0.3520781356 0.4338895061 -0.3520600253 -0.1273425284 0.1151037835
335297990.0 -0.1201025654 0.131232536 0.4298377789 -0.3564222755 0.4296606681 -0.3570299491 -0.1264876016 0.1168689673
340297960.0 -0.1192828781 0.1331046162 0.4255504836 -0.361772863 0.4252540762 -0.3618272241 -0.1250330426 0.1182262294
345297930.0 -0.1181692843 0.1348631439 0.421588118 -0.3666139874 0.4211095941 -0.366614604 -0.1242335703 0.1190587661
350297900.0 -0.1166425637 0.1353949757 0.41693957 -0.3710554295 0.4172459573 -0.3710990801 -0.1233639928 0.1209753786
355297870.0 -0.1149884579 0.1376549219 0.4129515555 -0.3759558445 0.4134442183 -0.3757107478 -0.122509325 0.1221644861
360297840.0 -0.1136563702 0.1386909003 0.4090855865 -0.3800463614 0.4096840612 -0.3803475872 -0.1212243531 0.1239626564
365297810.0 -0.11242824 0.1404013433 0.404549985 -0.3848331798 0.4050110168 -0.3848021255 -0.1199414929 0.1248497946
370297780.0 -0.110650159 0.1414825264 0.4002708799 -0.3889808698 0.4009723068 -0.3884746338 -0.1192546552 0.1261604425
375297750.0 -0.1089990797 0.1427260396 0.3963132168 -0.3936606315 0.3967353705 -0.3936205348 -0.1179997342 0.1275516466
380297720.0 -0.1079290971 0.144222526 0.3919074895 -0.3978648618 0.39185043 -0.3971351193 -0.1173686048 0.1286425823
385297690.0 -0.1065714968 0.1451780788 0.3873346321 -0.4018871086 0.3873367233 -0.4019730376 -0.1155874719 0.1301188996
390297660.0 -0.1047443691 0.1469882025 0.3830730527 -0.4065277904 0.3830256479 -0.4060685405 -0.1152332002 0.1313049644
395297630.0 -0.1030651455 0.1483030545 0.3787323212 -0.410701758 0.3789385981 -0.410753052 -0.1133937074 0.1324853566
400297600.0 -0.1018572912 0.1496283062 0.3737308898 -0.414680615 0.3741598115 -0.4149494827 -0.1119952331 0.1340281117
405297570.0 -0.1004814246 0.1509278838 0.3695732688 -0.4188013468 0.369424952 -0.4184273007 -0.1113053736 0.1349389459
410297540.0 -0.0984375998 0.151875353 0.3651868006 -0.4226551574 0.3652918496 -0.4230044915 -0.1098006016 0.1364390723
415297510.0 -0.0967244883 0.1530708416 0.3598568711 -0.4268506062 0.3601818451 -0.4269263074 -0.1086670303 0.1376088254
420297480.0 -0.0950550978 0.1546700047 0.3551208123 -0.4309032803 0.3552783692 -0.4311086887 -0.1074589194 0.1385745384
425297450.0 -0.0932951737 0.1551305346 0.3511475828 -0.4345513649 0.3510646917 -0.4342912735 -0.1064405726 0.1397718823
430297420.0 -0.0919907848 0.1565312829 0.3457161213 -0.4380249046 0.3457694272 -0.4379499803 -0.104997085 0.140675071
435297390.0 -0.0904195475 0.1578114295 0.3409076479 -0.4421670967 0.3408848479 -0.4425291457 -0.1031213908 0.1419216346
440297360.0 -0.0883143963 0.1589208431 0.3362638355 -0.4459119037 0.3363883183 -0.4460237693 -0.1024372546 0.1429406148
445297330.0 -0.0867152127 0.159984063 0.3316808943 -0.4493474304 0.3316512162 -0.4489268667 -0.1006538319 0.1437413358
450297300.0 -0.0846800439 0.1609668727 0.3265044999 -0.4529704605 0.326359968 -0.4531167627 -0.0994996472 0.1446621781
455297270.0 -0.0829228724 0.1619924996 0.3213843412 -0.4561907131 0.3219003613 -0.4567102594 -0.0983849404 0.1458883167
460297240.0 -0.0815076974 0.1630416814 0.3164264881 -0.4598689843 0.3166080501 -0.4597768404 -0.0968086994 0.1473594356
465297210.0 -0.0795555155 0.1642081473 0.3116618853 -0.4634880872 0.3112148023 -0.4637821331 -0.0951104343 0.147904292
470297180.0 -0.0778367678 0.1652022335 0.3059970391 -0.4667705196 0.3064657609 -0.4669224116 -0.0936439336 0.149252115
475297150.0 -0.0759806616 0.1659783088 0.3011792284 -0.4699405022 0.3010697547 -0.4695693517 -0.0920618831 0.1498425736
480297120.0 -0.0742848883 0.1671081685 0.2957551145 -0.473199308 0.2962359343 -0.4733823302 -0.0905517048 0.151276071
485297090.0 -0.0724543142 0.1680497849 0.2910346244 -0.4760570546 0.2908072667 -0.4762552484 -0.0890061911 0.1521595123
490297060.0 -0.0707887944 0.1689640324 0.2861319747 -0.4797710606 0.2858530319 -0.4792363923 -0.0880186179 0.1532589347
495297030.0 -0.0689877997 0.1698547782 0.280338527 -0.4825406203 0.2806667641 -0.4823435373 -0.0865149998 0.1542916063
500297000.0 -0.0668226393 0.1706451648 0.2747626753 -0.4853794795 0.2747416569 -0.4850604767 -0.0847297149 0.1557954186
505296970.0 -0.0648864913 0.1716418738 0.2697007222 -0.4886272249 0.2695651962 -0.4884153823 -0.0831722299 0.1565290373
510296940.0 -0.0630775993 0.172445758 0.2641970736 -0.491493136 0.2642521809 -0.4914089062 -0.0815683355 0.1574048691
515296910.0 -0.0609676905 0.173443046 0.2586354975 -0.4943775639 0.2587424338 -0.4942356147 -0.0799579591 0.1583874459
520296880.0 -0.0595506871 0.1743458211 0.2537592889 -0.4974940262 0.2536929365 -0.496551593 -0.0788240192 0.1591289366
525296850.0 -0.0572375512 0.1745130221 0.2480357011 -0.4998427905 0.2483844078 -0.4996612427 -0.0773045905 0.1605087139
530296820.0 -0.0553089204 0.1756892818 0.2424730868 -0.5024428901 0.2425843511 -0.5025065285 -0.0755674108 0.1613474364
535296790.0 -0.0537046801 0.1764210199 0.2379213224 -0.5051421355 0.2370926793 -0.5044168553 -0.0741181345 0.1618866654
540296760.0 -0.0517151549 0.1773204676 0.231877375 -0.5080748793 0.2313926323 -0.5077595786 -0.072780434 0.1634017414
545296730.0 -0.0498907502 0.1778497797 0.2260927181 -0.5096452072 0.2261046973 -0.5102033481 -0.0712273599 0.1640694332
550296700.0 -0.0474422442 0.1788396492 0.2203268393 -0.5125367782 0.2209567563 -0.5124053578 -0.0697925552 0.1650063843
555296670.0 -0.045943594 0.179190922 0.2149084997 -0.5144823194 0.2151619585 -0.514621385 -0.0680614622 0.1657496997
560296640.0 -0.0436231846 0.1797694196 0.2095613288 -0.5170579383 0.209333954 -0.5170822454 -0.0663920175 0.1665914789
565296610.0 -0.0419433991 0.1808008733 0.2037365546 -0.5195506639 0.2040645286 -0.5192377091 -0.0649611217 0.1671217612
570296580.0 -0.0399977965 0.1815223536 0.1980671551 -0.5220084241 0.1978053731 -0.5213117745 -0.0635497529 0.1682211954
575296550.0 -0.0381877665 0.1818398113 0.1926596792 -0.5235994091 0.1923593351 -0.523672631 -0.0616188181 0.1688295612
580296520.0 -0.0359996577 0.1826610876 0.1867198003 -0.526046185 0.1867000811 -0.5259481638 -0.0602741651 0.1695592281
585296490.0 -0.0340206232 0.1827633495 0.1809766918 -0.5272781129 0.1812516553 -0.5278027942 -0.0585378924 0.1706625069
590296460.0 -0.0317000105 0.1833664526 0.1754564856 -0.5289995599 0.1750789604 -0.5295280626 -0.0574686095 0.171035862
595296430.0 -0.0293139002 0.1839152278 0.1690215994 -0.5316637255 0.1693234974 -0.5313341386 -0.0556114052 0.1715346317
600296400.0 -0.0279104997 0.1844282895 0.1636456388 -0.5334009875 0.163771095 -0.5327894069 -0.0540079978 0.1722079694
605296370.0 -0.0258691289 0.1847182782 0.1578915646 -0.5347652973 0.1580246426 -0.5348783583 -0.0522154766 0.1727797947
610296340.0 -0.0235501104 0.1852125833 0.1516754144 -0.5365827176 0.1525334427 -0.5365477535 -0.0503004132 0.1734501067
615296310.0 -0.0213249965 0.1850664545 0.1465014018 -0.5376763905 0.1460654541 -0.5382470016 -0.0483249115 0.1740894979
620296280.0 -0.0198453179 0.1855982945 0.1408078955 -0.5389012124 0.1405746455 -0.53939173 -0.0471137714 0.1745737249
625296250.0 -0.0178759777 0.1858799206 0.1351445469 -0.5407917671 0.1348442798 -0.5415284686 -0.0446913695 0.1751486252
630296220.0 -0.0148954842 0.1863462978 0.1282401354 -0.5423667028 0.1280376708 -0.5423649266 -0.0431221083 0.1757945778
635296190.0 -0.0137184893 0.1866073347 0.1225543122 -0.5436573632 0.1230035736 -0.5436757014 -0.0414056632 0.1762904834
640296160.0 -0.0117213917 0.1867071224 0.1171278565 -0.5446809266 0.1172998393 -0.5448568929 -0.0395984748 0.1766019056
645296130.0 -0.0092881299 0.187483457 0.11081043 -0.5459754197 0.1114345067 -0.5461691658 -0.038116742 0.1777405003
650296100.0 -0.0070576853 0.1872348635 0.1047444998 -0.546920868 0.1051213403 -0.5473077509 -0.0360600775 0.1773223951
655296070.0 -0.0053922279 0.1876892259 0.0991293162 -0.5482566417 0.0992781272 -0.5483075465 -0.034156476 0.1783384548
660296040.0 -0.0037686932 0.1874767019 0.0933255518 -0.5489887731 0.0936370226 -0.5495558096 -0.032457589 0.178693538
665296010.0 -0.0010383504 0.1876884197 0.0870402352 -0.5502480467 0.0873781187 -0.550263531 -0.0307062647 0.1797696667
670295980.0 0.0001877473 0.1882449791 0.0816503913 -0.5512768303 0.081326534 -0.5509434794 -0.0294906003 0.1798307641
675295950.0 0.0024313719 0.1884795311 0.0755818098 -0.5519145068 0.0756575118 -0.5514502154 -0.0278957308 0.1806158938
680295920.0 0.004614656 0.1882018525 0.0692550826 -0.5521569884 0.069110243 -0.5530630788 -0.025481167 0.181660349
685295890.0 0.0070292421 0.18894409 0.0632163978 -0.5534753393 0.0630829639 -0.5535566919 -0.024164629 0.1815097044
690295860.0 0.0093464646 0.1886773786 0.0573898053 -0.553539534 0.0574707968 -0.5541260176 -0.0220422458 0.1823146069
695295830.0 0.0110835458 0.1884865399 0.0519638049 -0.554214855 0.0514163375 -0.5543942107 -0.0205902579 0.182913863
700295800.0 0.0132341686 0.1883449336 0.0454329639 -0.5546991224 0.0451429302 -0.5548122262 -0.0188458987 0.1833632128
705295770.0 0.0151607074 0.1890637568 0.0393877603 -0.5556103821 0.0397943543 -0.5560661628 -0.0169962415 0.1838737006
710295740.0 0.0173269665 0.188769521 0.0336956396 -0.5563180384 0.0339913293 -0.5559111989 -0.0152739601 0.1833830862
715295710.0 0.0191002989 0.1887813634 0.0279090031 -0.5565889049 0.0274842148 -0.5561454791 -0.0132013089 0.1840904557
720295680.0 0.0214359619 0.1885285534 0.0216629325 -0.5563699286 0.0218016546 -0.5563115678 -0.0114266769 0.1845755667
725295650.0 0.0234576411 0.1885856273 0.0155921871 -0.5565847547 0.0154094486 -0.5566741663 -0.0105357331 0.1852535271
730295620.0 0.0259087282 0.1888677008 0.0094832586 -0.5567814543 0.0098508458 -0.5565729363 -0.0086688062 0.1849649544
735295590.0 0.0278038639 0.1882792829 0.0035902682 -0.5567794606 0.0034887376 -0.5565739901 -0.0068543458 0.184999931
740295560.0 0.0296986085 0.1881870494 -0.0026738775 -0.5561297152 -0.0022983712 -0.5567411581 -0.0044546361 0.1857253307
745295530.0 0.0316247107 0.1881029149 -0.008600439 -0.5560751978 -0.0086118796 -0.5565383549 -0.0029613851 0.1851817061
750295500.0 0.0341052033 0.187577183 -0.0141221232 -0.5560217118 -0.0145786924 -0.5565385064 -0.0011597883 0.1857196362
755295470.0 0.0362326261 0.1872689548 -0.0204559332 -0.5561089547 -0.0203169279 -0.5564911004 0.0010598913 0.1852445428
760295440.0 0.0378932191 0.1872325044 -0.0266753224 -0.5558685729 -0.0265976065 -0.5561712172 0.0027214259 0.1855998613
765295410.0 0.0398946364 0.1869077205 -0.0325843494 -0.5552966993 -0.0327703015 -0.5557706477 0.004501159 0.1860162228
770295380.0 0.0418157039 0.1864640896 -0.0385466835 -0.5551667013 -0.0385890018 -0.5551429325 0.0059074087 0.1860621713
775295350.0 0.0439585221 0.1857318043 -0.044809222 -0.5540269459 -0.0441726271 -0.5542483387 0.0074585289 0.1860715865
780295320.0 0.0462604816 0.1858472297 -0.05079262 -0.5535840667 -0.0497048214 -0.5538704176 0.0093654206 0.1856047175
785295290.0 0.0477944987 0.1847897339 -0.0565575309 -0.5529109517 -0.0562467477 -0.5536917169 0.0120027884 0.185945025
790295260.0 0.0505515062 0.1850495141 -0.0615784995 -0.5527064189 -0.0616137362 -0.5525226736 0.013328504 0.1859894974
795295230.0 0.052478257 0.1843116912 -0.0681877236 -0.5515698627 -0.0678991227 -0.552166437 0.0153688598 0.1860974774
800295200.0 0.0539196066 0.184320894 -0.074633205 -0.5507139248 -0.0742676553 -0.5508625661 0.0173056547 0.1859231923
805295170.0 0.0564341956 0.1835425886 -0.0799151788 -0.5500295828 -0.0801725453 -0.5505188778 0.0188781789 0.1862505589
810295140.0 0.058213343 0.1827650479 -0.0858822345 -0.5494202859 -0.0861540475 -0.5494113438 0.0211756856 0.186273754
815295110.0 0.0600362469 0.1821692518 -0.0916103819 -0.5480891786 -0.0916315886 -0.5480123247 0.0224356383 0.186019671
820295080.0 0.0619830134 0.182027906 -0.0979034252 -0.546921702 -0.0974223485 -0.5473389879 0.0244906138 0.1858510141
825295050.0 0.0648387134 0.1815504621 -0.1034170765 -0.5457560602 -0.1032859224 -0.5461666438 0.0265673768 0.1860633082
830295020.0 0.0663412726 0.1807493803 -0.1096138112 -0.5446390041 -0.1095234139 -0.5450503742 0.0290860816 0.1859569775
