!Created with skrf (http://scikit-rf.org).
# Hz S RI R 50.0 
!freq ReS11 ImS11 ReS21 ImS21 ReS12 ImS12 ReS22 ImS22
300000.0 -0.0466947513 -0.0700686902 -0.00070268 0.0026903107 0.0003294992 0.0012837948 -0.767839406 -0.1904639477
5299970.0 -0.0501602426 0.0143965354 8.10531e-05 -0.0001712051 -6.51085e-05 -0.0002564787 -0.7853521601 -0.0091856837
10299940.0 -0.0445381394 0.0328593413 0.0001560243 -6.24033e-05 2.6347e-05 0.0001692411 -0.7877745839 -0.0054584749
15299910.0 -0.0358183043 0.0474169391 6.7494e-06 1.09143e-05 1.23599e-05 0.000100625 -0.7929809595 -0.0024039577
20299880.0 -0.0257198592 0.0594727106 0.0001112486 -2.05567e-05 3.79908e-05 0.0001252499 -0.7998132631 0.0013648252
25299850.0 -0.0141920805 0.0685456439 -0.0001612867 4.43129e-05 -8.05717e-05 -1.91666e-05 -0.8061509703 0.0079114467
30299820.0 -0.0026083181 0.0753425351 6.01291e-05 1.13977e-05 9.71351e-05 0.0002484129 -0.8121273612 0.0158228865
35299790.0 0.0090752893 0.0798647363 -2.86545e-05 -3.98476e-05 4.04551e-05 7.00764e-05 -0.8173246225 0.0245869813
40299760.0 0.0207172073 0.0827603891 8.62431e-05 6.68618e-05 6.98514e-05 0.0002300212 -0.8213748261 0.0342945929
45299730.0 0.0313537037 0.0836717998 0.0001305964 3.9455e-06 -4.32804e-05 4.3951e-05 -0.8242484189 0.0437386335
50299700.0 0.0416691049 0.0835091181 -0.0001225398 -0.0002354442 -0.0002912609 0.000122578 -0.8267847136 0.0535252779
55299670.0 0.0510669796 0.0826471692 3.71021e-05 -4.6995e-05 -0.0001550839 -1.7879e-06 -0.8288082173 0.0637581874
60299640.0 0.0595025549 0.0806978684 0.0001408598 -0.0003754769 -1.34477e-05 -5.99754e-05 -0.8298652736 0.073932889
65299610.0 0.0677017681 0.0781161327 -0.0002630736 2.50405e-05 -6.02477e-05 0.0001687519 -0.8301228685 0.0838689456
70299580.0 0.0745339895 0.0749025387 3.1577e-05 8.1587e-05 -6.417e-07 0.000187482 -0.8314939744 0.0939486375
75299550.0 0.0808928752 0.0715483584 0.000101208 6.62756e-05 -6.57451e-05 6.26363e-05 -0.8312595123 0.1038634638
80299520.0 0.0868708913 0.0680199208 4.07249e-05 -8.47141e-05 2.79463e-05 2.25921e-05 -0.8313027606 0.1142761496
85299490.0 0.091955204 0.0638530567 9.3286e-06 6.7875e-05 5.0089e-05 0.0001133737 -0.8301041063 0.1234082351
90299460.0 0.0971159536 0.0599460909 0.0001447584 -0.0001054903 5.16542e-05 0.000117146 -0.8293537879 0.1330516173
95299430.0 0.1009477485 0.0560681764 -1.2994e-06 -6.72646e-05 -2.74153e-05 0.0003374049 -0.8286934587 0.1425579881
100299400.0 0.1044512922 0.0519270061 -4.78472e-05 -0.0001177888 -3.1242e-05 9.38735e-05 -0.8273659494 0.1516508618
105299370.0 0.107975313 0.0477451679 -0.0002628355 0.0003012716 2.64411e-05 -4.44788e-05 -0.8260425123 0.1610356373
110299340.0 0.1110049108 0.0438180443 -0.0001358178 0.0001971081 0.0001901578 0.000110252 -0.8247680824 0.1696941995
115299310.0 0.1132015259 0.0400200969 -8.70008e-05 9.78514e-05 4.02492e-05 -0.0001392891 -0.8232664791 0.1793913887
120299280.0 0.115868529 0.0361759444 0.0001051502 -0.0001051904 -1.56403e-05 0.0001271479 -0.8212649497 0.1880440001
125299250.0 0.1176192228 0.0320454283 0.0003390939 -4.4895e-05 -0.0002613752 5.90542e-05 -0.8200738624 0.1971217608
130299220.0 0.1193514847 0.0280956832 -5.42897e-05 -6.91972e-05 -8.98061e-05 -1.6175e-05 -0.8176134756 0.2058887273
135299190.0 0.1211571367 0.024338668 0.0001415548 -2.22964e-05 -8.85509e-05 0.0001090968 -0.8164729275 0.2151360062
140299160.0 0.12215624 0.020734628 -1.69268e-05 -2.77398e-05 2.95223e-05 0.0002343547 -0.8139953639 0.2232825135
145299130.0 0.1232529205 0.0173421939 -0.0002776802 -1.72813e-05 0.0001115416 -4.2051e-06 -0.8125308793 0.232585412
150299100.0 0.1242969485 0.0136128192 -0.000139593 -6.90351e-05 7.75977e-05 -0.000101962 -0.8098483918 0.2412603795
155299070.0 0.1249888349 0.0105570483 8.29199e-05 6.8565e-06 -1.5614e-05 -4.70265e-05 -0.8073668646 0.2507314437
160299040.0 0.1256036533 0.0072355534 -1.90139e-05 0.0001232488 -0.0001054254 -0.0002355325 -0.8046620291 0.2589870889
165299010.0 0.1263102022 0.0041286059 2.23849e-05 8.22513e-05 4.97824e-05 0.0001889293 -0.8018162743 0.2669329787
170298980.0 0.1263653388 0.0009452905 0.0002065761 1.40901e-05 3.30723e-05 1.99976e-05 -0.7994231002 0.2758304809
175298950.0 0.1268547799 -0.00236433 3.2e-07 7.08003e-05 -4.11661e-05 0.0001074556 -0.7965338439 0.2850921588
180298920.0 0.1266429283 -0.0052878111 6.49593e-05 -0.0001719068 0.0001227702 6.10623e-05 -0.7935447995 0.293576364
185298890.0 0.1270639972 -0.0082772408 0.0002439762 9.70979e-05 -7.04254e-05 0.000138758 -0.7908139609 0.3017045027
190298860.0 0.1268183988 -0.0108918318 0.0001141131 0.0001583733 -7.5515e-05 2.51533e-05 -0.787504864 0.3097513383
195298830.0 0.1272889148 -0.0135252657 2.58523e-05 -0.0001679089 4.22557e-05 -8.13221e-05 -0.7839500856 0.3180586337
200298800.0 0.1268159418 -0.0166597498 0.0001596627 0.0001940031 2.23883e-05 8.56103e-05 -0.7811159476 0.3266799681
205298770.0 0.1261441744 -0.0190971075 -2.7963e-06 0.0001987983 -9.42265e-05 0.0001866773 -0.7775495726 0.3351624271
210298740.0 0.1262180604 -0.0218798542 1.7753e-06 0.0001355494 0.0001349065 0.0001252255 -0.7743856705 0.34339304
215298710.0 0.1256018359 -0.0244652459 2.00333e-05 0.0002682309 0.0002551692 -6.16073e-05 -0.7707493252 0.3512763869
220298680.0 0.1254595342 -0.0269166411 0.0003285628 0.0001432337 0.0001365856 -0.0001917252 -0.7667672031 0.3594382429
225298650.0 0.124963488 -0.0293388684 4.42922e-05 -3.06616e-05 -1.34238e-05 0.0001514279 -0.7631336302 0.3678542243
230298620.0 0.1241701484 -0.0313336607 0.0003215583 -1.42529e-05 -7.68245e-05 6.01443e-05 -0.7593664115 0.3754857642
235298590.0 0.1234950664 -0.0340479397 0.0002405163 0.0001200879 4.12569e-05 -1.78516e-05 -0.7551076656 0.3832109038
240298560.0 0.1227859771 -0.0360845232 0.000103955 8.51575e-05 -7.6201e-06 -1.94312e-05 -0.7510124729 0.3909825507
245298530.0 0.1222800318 -0.0385194702 0.0001643073 0.0001111731 8.72164e-05 3.75851e-05 -0.7473745447 0.3994217501
250298500.0 0.1215413367 -0.0407021545 -3.96282e-05 0.0001160487 -1.531e-07 9.38229e-05 -0.7430008377 0.4072172409
255298470.0 0.1204961157 -0.0424313791 0.0002001754 4.62617e-05 4.25591e-05 -2.3497e-06 -0.7389886133 0.4147061331
260298440.0 0.1197244128 -0.0447953129 0.000231462 1.38378e-05 -8.82772e-05 0.0001020959 -0.7341753775 0.4218182578
265298410.0 0.1187290897 -0.0468504664 -9.54664e-05 -8.01979e-05 1.70353e-05 -0.0001326814 -0.7301216536 0.4300110708
270298380.0 0.1177808984 -0.0491469286 -9.40425e-05 1.45203e-05 -4.70589e-05 6.94363e-05 -0.7253030785 0.4382769093
275298350.0 0.1172177737 -0.05084402 0.0001962668 -7.93255e-05 7.84341e-05 0.0001912256 -0.7208481775 0.4452850605
280298320.0 0.1160161667 -0.0526157474 1.85048e-05 -0.0001101236 0.0002269976 -9.9456e-06 -0.7162904 0.452889251
285298290.0 0.115002005 -0.0546411369 -9.07986e-05 2.15338e-05 7.18143e-05 -9.94422e-05 -0.711969436 0.4605769796
290298260.0 0.1141039297 -0.0562892165 4.43064e-05 3.14219e-05 2.9773e-05 -4.14731e-05 -0.7065044695 0.4676431941
295298230.0 0.1128859849 -0.0584467595 8.08973e-05 0.0002079598 8.14012e-05 0.0001137326 -0.7017358755 0.4753067244
300298200.0 0.1119888071 -0.0602178982 0.0001665103 -3.39251e-05 -2.75122e-05 3.723e-05 -0.6964544391 0.4822235208
305298170.0 0.11116016 -0.0624274639 -1.40286e-05 0.0001605197 0.0001881625 9.1137e-06 -0.6918629231 0.4896863164
310298140.0 0.1096654072 -0.0645541516 -0.0001985804 -2.125e-07 3.32922e-05 -0.0002316351 -0.686340976 0.4963182072
315298110.0 0.1085197199 -0.0663225581 0.000386026 0.0001397706 8.11992e-05 -8.36688e-05 -0.6816271152 0.5036426623
320298080.0 0.1070860891 -0.0681576647 0.0001036377 8.82405e-05 -0.0001010373 0.0001765882 -0.6763028898 0.5109947566
325298050.0 0.1052607406 -0.0701663433 -6.35939e-05 -6.97019e-05 0.0001312821 0.0001000549 -0.6701524209 0.5176173653
330298020.0 0.1037799677 -0.0714247291 6.15016e-05 -2.318e-07 0.0001563485 -6.21001e-05 -0.6653737145 0.5245783672
335297990.0 0.1024046484 -0.0727991415 0.0001154934 -4.74655e-05 0.000190391 4.30592e-05 -0.6593847928 0.5314223398
340297960.0 0.1008768702 -0.0743625787 7.5534e-06 0.0001548484 -0.0001193144 1.2338e-06 -0.6542678522 0.5386207228
345297930.0 0.0994984816 -0.0759170343 -0.0001112438 3.60653e-05 -6.28306e-05 3.98639e-05 -0.6488381998 0.5446242878
350297900.0 0.0982927175 -0.0776085882 -5.3648e-05 -0.0002180254 0.0001349774 0.0001616627 -0.6430384828 0.5513237641
355297870.0 0.0965314716 -0.078645998 0.0003495812 2.83753e-05 3.605e-06 -0.00019997 -0.6368774626 0.5586417846
360297840.0 0.0955513959 -0.0801121412 3.01022e-05 -5.16731e-05 8.2655e-06 0.0002430725 -0.630574183 0.5652245697
365297810.0 0.0938312832 -0.0815661985 -3.6294e-05 -9.9981e-06 -4.23037e-05 1.8001e-05 -0.6261516009 0.5716035082
370297780.0 0.0926120672 -0.0829575982 2.29829e-05 0.0001184587 4.73117e-05 -2.5354e-05 -0.6195363315 0.5777560318
375297750.0 0.091044908 -0.0843069099 1.49639e-05 0.0001748441 0.000117039 0.0001157102 -0.6133561848 0.5839193271
380297720.0 0.0896034979 -0.0850725945 0.0001644059 -4.33076e-05 0.0001980907 0.000172401 -0.6072525939 0.590574901
385297690.0 0.0881120217 -0.0868571655 0.0003126134 -4.21017e-05 -3.69663e-05 8.12664e-05 -0.6010614023 0.5965769174
390297660.0 0.0866773638 -0.0882847075 9.27289e-05 0.0001779548 0.0001693118 0.0001589218 -0.5945667595 0.6021393418
395297630.0 0.085474974 -0.0891357731 5.03487e-05 1.39018e-05 -6.68269e-05 0.000199664 -0.5878206506 0.6082006607
400297600.0 0.083609642 -0.0904231474 9.75206e-05 -5.80235e-05 0.0003343264 -1.45254e-05 -0.5826325861 0.6143329908
405297570.0 0.0820558266 -0.0919735482 7.7481e-06 0.0001866621 0.0001285423 -0.0001059343 -0.5755531009 0.6204868367
410297540.0 0.0812839529 -0.0928976394 -0.0001912082 0.0001548606 -6.29268e-05 0.0002213418 -0.5695228836 0.6262460134
415297510.0 0.0792516271 -0.0940440149 0.0001884251 9.7659e-05 0.0001072777 6.91998e-05 -0.5627789935 0.6317250639
420297480.0 0.077776647 -0.0954878731 0.0001172481 7.75194e-05 0.0001122306 -6.06641e-05 -0.5560811474 0.638123002
425297450.0 0.0767569282 -0.0963865568 6.64954e-05 -1.11176e-05 6.43769e-05 0.0002137372 -0.5500255447 0.6424676028
430297420.0 0.0748328435 -0.0974430323 0.0001013734 7.77484e-05 -2.47436e-05 0.0001856975 -0.5429217807 0.6484123382
435297390.0 0.0733771967 -0.0986499895 -0.0001136366 0.0002202368 0.0001799091 0.000135423 -0.5364225276 0.6543782563
440297360.0 0.0718737354 -0.0995286812 -5.83281e-05 1.82819e-05 0.000283895 2.84018e-05 -0.5298222308 0.6598114636
445297330.0 0.0702295285 -0.1006878149 0.0002022099 -1.36799e-05 0.0001846592 -3.87957e-05 -0.5227606918 0.6654241096
450297300.0 0.0689041673 -0.1018021319 0.0001851011 -5.24896e-05 0.0001189062 6.37035e-05 -0.5156293281 0.6694646792
455297270.0 0.0673068538 -0.1024917817 1.34417e-05 -9.50836e-05 -4.5696e-05 -0.0001866043 -0.509522345 0.6751763734
460297240.0 0.0658112158 -0.1034721258 0.0002029986 -2.58865e-05 6.00243e-05 2.91928e-05 -0.5020119387 0.6801672131
465297210.0 0.0643494578 -0.1042911415 5.28748e-05 -8.85789e-05 0.0003043543 6.07795e-05 -0.4951456139 0.68560222
470297180.0 0.0626629394 -0.1050395177 5.70084e-05 -3.83742e-05 0.0001351873 0.0001366076 -0.4880475682 0.6898255327
475297150.0 0.0608509016 -0.1058003572 0.0002456829 -2.48906e-05 0.0001005272 1.03683e-05 -0.4816405295 0.6954462646
480297120.0 0.0597331721 -0.106916443 0.0002189059 0.0001426938 0.0001475355 -0.000200586 -0.4746747821 0.7004997654
485297090.0 0.0579004397 -0.107564137 3.3065e-06 -1.45933e-05 0.0002747128 6.66491e-05 -0.4672072681 0.7047628116
490297060.0 0.056748717 -0.1085357363 0.000152214 0.0001598315 -0.0001137866 -8.35312e-05 -0.4596545634 0.7090159082
495297030.0 0.0550001901 -0.1090615981 0.0002623967 -5.5418e-05 0.0001417734 3.71715e-05 -0.4525976758 0.7137893776
500297000.0 0.0536189953 -0.1099732354 -4.28764e-05 2.57728e-05 0.0002951493 4.57529e-05 -0.4451802924 0.7183712181
505296970.0 0.0520559465 -0.1105474393 -2.23897e-05 -2.51716e-05 0.0001962048 -3.36826e-05 -0.4374870358 0.7230546534
510296940.0 0.0506607701 -0.1110317348 0.0001588842 0.0001602525 0.0001905655 0.0001510981 -0.4302892728 0.7276363963
515296910.0 0.0486677515 -0.1116861201 0.000228764 -8.82319e-05 0.0001609772 0.0001204608 -0.4233438537 0.7310709177
520296880.0 0.0472350877 -0.1128287443 0.0001418518 2.08908e-05 0.0001253157 0.0001302725 -0.415249573 0.7361538006
525296850.0 0.0456212672 -0.113253108 0.000109401 2.02637e-05 2.22296e-05 0.0001119045 -0.4082882139 0.7400980119
530296820.0 0.0438742264 -0.1134813021 8.95837e-05 0.00011639 0.0001418314 -8.05587e-05 -0.4005648294 0.7441003096
535296790.0 0.0427276774 -0.1139534892 0.0002670903 0.0001600975 0.0002685452 -6.60885e-05 -0.3929402654 0.7481266052
540296760.0 0.0411533758 -0.1145278075 4.21084e-05 4.19918e-05 3.29245e-05 -5.1175e-06 -0.3848838165 0.751750566
545296730.0 0.0390618327 -0.1147114238 -5.23362e-05 0.0001188258 0.000245294 8.52573e-05 -0.378318409 0.755613156
550296700.0 0.0377493574 -0.1149665255 -0.000168218 0.0001043388 0.0001766118 2.07607e-05 -0.3699241633 0.7593828676
555296670.0 0.0361805164 -0.1155285348 9.49628e-05 6.06452e-05 5.15638e-05 7.13782e-05 -0.3626219479 0.7621354066
560296640.0 0.0348470612 -0.1159654071 9.8506e-05 -0.0002793505 0.0001552943 0.0002253853 -0.3547003255 0.7668100867
565296610.0 0.0329374655 -0.1160786434 0.0003207899 -6.63898e-05 0.0001275819 9.52386e-05 -0.3468984626 0.7696123409
570296580.0 0.0312742111 -0.1165832612 0.0002672227 -2.29847e-05 9.41016e-05 5.90025e-05 -0.3393175584 0.772982981
575296550.0 0.029848927 -0.1168774596 0.0002161303 3.45372e-05 0.0001124403 -0.0001058657 -0.3307525756 0.7765131952
580296520.0 0.0280813304 -0.1167043588 4.87977e-05 7.82597e-05 1.56093e-05 0.0001123055 -0.3236379665 0.7798727186
585296490.0 0.0268561502 -0.117064609 -0.0001017742 0.0001336353 0.0001287882 1.41163e-05 -0.3157550223 0.7833651489
590296460.0 0.0254151605 -0.117348011 0.0002544468 0.0001078495 9.63187e-05 0.0001383858 -0.3077410724 0.7859567406
595296430.0 0.0232870669 -0.1174631355 0.0002966926 0.0001633053 0.0002785828 0.0001304296 -0.3000413971 0.7891821644
600296400.0 0.0219337205 -0.117731779 8.36608e-05 0.0001224305 3.89293e-05 -8.53074e-05 -0.2918784066 0.7921467707
605296370.0 0.0199212758 -0.1174931109 0.0002122417 -0.0001585193 0.0001640109 -6.42794e-05 -0.2834542621 0.7958758584
610296340.0 0.0186907406 -0.1176355823 0.0002080507 -1.55496e-05 0.0002765367 -2.01963e-05 -0.2766476919 0.7980044675
615296310.0 0.0171561573 -0.1176085558 0.000167505 4.68096e-05 9.42324e-05 -5.0654e-05 -0.267254551 0.8003566256
620296280.0 0.0152957201 -0.117196672 6.53538e-05 -0.000215709 2.89935e-05 0.0001012614 -0.2599611637 0.8036628383
625296250.0 0.0132643392 -0.1175174426 -1.67174e-05 7.58604e-05 6.89172e-05 -0.0001503939 -0.2513851452 0.8048695685
630296220.0 0.0119720254 -0.1175013615 9.0844e-06 5.02059e-05 0.0001177798 -5.95058e-05 -0.2437776178 0.8087588043
635296190.0 0.0103502443 -0.1172535093 0.0003101145 -9.98429e-05 6.796e-07 2.09426e-05 -0.235303448 0.8101234063
640296160.0 0.0090510428 -0.1171508416 0.0002722057 -0.0001012731 8.91812e-05 5.25462e-05 -0.2272495841 0.8125690993
645296130.0 0.0073963385 -0.1171362891 0.0002341371 -0.0001168702 0.0003325229 -5.03061e-05 -0.2192718365 0.8144875787
650296100.0 0.0054734928 -0.116838709 1.1146e-05 0.0001617961 7.68898e-05 -8.37901e-05 -0.210846879 0.8169034074
655296070.0 0.0036805469 -0.1168472331 0.0002543327 0.0001986914 0.0001221467 7.94409e-05 -0.2031626686 0.8190172456
660296040.0 0.0019200614 -0.1164022202 0.0001579906 0.0002235701 0.0002938081 -0.0001036278 -0.1942788593 0.8210279018
665296010.0 0.0003392813 -0.1159740628 4.21115e-05 -1.489e-05 9.26353e-05 -7.4481e-06 -0.1864795877 0.822267787
670295980.0 -0.0014148472 -0.1159017771 0.000148601 0.0003534988 0.0002173533 -4.69677e-05 -0.17857827 0.8245255065
675295950.0 -0.0030556973 -0.1157008467 -1.20154e-05 9.5966e-05 0.0002452001 -0.0001016134 -0.1695735089 0.8265634674
680295920.0 -0.0049365536 -0.1151434134 -3.95265e-05 -0.0001300632 0.0001637389 3.7951e-06 -0.1612899775 0.8282488042
685295890.0 -0.0063877997 -0.1148293185 0.0001625734 -0.000111981 0.0001626773 7.14447e-05 -0.1534418619 0.8300102325
690295860.0 -0.0081825403 -0.1145624935 0.0001754181 -0.0003089672 0.0002995477 -5.56075e-05 -0.144839773 0.8314368797
695295830.0 -0.0098988175 -0.1143972084 0.0001397518 3.88509e-05 0.000254619 5.24851e-05 -0.1370880778 0.8325540285
700295800.0 -0.0113994844 -0.113541298 0.000179276 0.0001018805 0.0001921261 -1.98179e-05 -0.128537642 0.8337198784
705295770.0 -0.0131505108 -0.1133809142 0.0003469321 1.4577e-06 0.0001599574 8.14825e-05 -0.120143753 0.8354625918
710295740.0 -0.0147401925 -0.1129002634 9.80157e-05 8.02262e-05 0.0002647073 -6.78405e-05 -0.1122907623 0.8366269887
715295710.0 -0.0162354755 -0.1126400409 5.47456e-05 2.70825e-05 0.0002337938 -5.3361e-06 -0.1032815725 0.8364333496
720295680.0 -0.0179021716 -0.1120925753 3.25633e-05 -0.0001549661 0.0002920317 5.3889e-05 -0.0948901576 0.8373893733
725295650.0 -0.0197687881 -0.1113021183 0.0001776606 2.49262e-05 3.8159e-05 5.0909e-05 -0.0867338722 0.8396341523
730295620.0 -0.0218974562 -0.1110090744 0.0002673109 -1.88571e-05 0.0001543774 4.7086e-05 -0.0788406892 0.8401255527
735295590.0 -0.0229936594 -0.1105375225 0.0002679553 0.0001606946 0.0001497485 -0.0002018256 -0.0697860592 0.8407521493
740295560.0 -0.0250688405 -0.1099657743 -5.36769e-05 -0.0002367779 0.0001431981 -1.8671e-06 -0.0615450576 0.8416486398
745295530.0 -0.0265186412 -0.1092902115 8.74589e-05 -0.0002317073 -2.88221e-05 -0.0001123649 -0.0535733146 0.8416214204
750295500.0 -0.0283126642 -0.1086250833 -4.60068e-05 2.32067e-05 8.38071e-05 -0.0001002641 -0.0448357946 0.841873916
755295470.0 -0.0299496414 -0.1082000171 -3.75243e-05 -0.0003445064 0.0001262525 0.0001018003 -0.0369592803 0.8433790806
760295440.0 -0.0316091623 -0.1071667321 0.0001099721 -0.0001026436 0.0002294117 -3.89448e-05 -0.0282217211 0.8428749479
765295410.0 -0.0330651085 -0.1070271241 0.0001640666 -2.8614e-05 9.48403e-05 0.0001541794 -0.0195066201 0.8433187543
770295380.0 -0.0349182322 -0.1058784452 0.0001023849 -0.0002024873 0.0002520635 9.26987e-05 -0.0114173909 0.8434084051
775295350.0 -0.0365046554 -0.1053548272 2.13633e-05 9.95239e-05 0.0003093642 7.672e-06 -0.0035169431 0.8437893926
780295320.0 -0.0380799404 -0.104712754 0.0002615595 -2.00973e-05 -5.38491e-05 1.21866e-05 0.0053836526 0.8438462569
785295290.0 -0.0397236838 -0.1042513383 -3.51413e-05 -2.22973e-05 8.61108e-05 -1.27542e-05 0.0131297619 0.843747244
790295260.0 -0.041387665 -0.1036991174 0.0001633118 0.0001173485 0.000107968 4.78981e-05 0.0219690152 0.8437044671
795295230.0 -0.0429100048 -0.1027291049 6.43914e-05 -6.38705e-05 0.0002667074 3.16108e-05 0.0298593385 0.8421011156
800295200.0 -0.0446800816 -0.1021029104 0.0002032576 -6.89897e-05 0.0001911804 2.30856e-05 0.0383685461 0.8425300288
805295170.0 -0.0458866743 -0.101115903 -3.85732e-05 8.74756e-05 0.0003238286 -0.0001281497 0.0473186156 0.842120165
810295140.0 -0.0473709913 -0.1002537285 0.0002120807 5.4293e-06 0.0002330635 -6.58161e-05 0.0557047067 0.8414783414
815295110.0 -0.0494967365 -0.0996217729 3.87151e-05 -1.26262e-05 0.0003248507 6.61074e-05 0.0635177429 0.8411416605
820295080.0 -0.0510295528 -0.0987085338 8.66227e-05 -8.53197e-05 0.0001886614 -7.43573e-05 0.0711978562 0.8406461149
825295050.0 -0.0526667779 -0.097961989 -7.64882e-05 1.24239e-05 0.0002935897 -9.60568e-05 0.0801415816 0.8395374491
830295020.0 -0.0539276474 -0.0971457955 -9.4945e-05 -9.1039e-05 0.0002822834 -6.10866e-05 0.088104444 0.8384118925
835294990.0 -0.0555182086 -0.0965094902 0.0003367895 -0.000110662 0.0001273355 -5.07906e-05 0.0965781919 0.8382749693
840294960.0 -0.0569489945 -0.0956704871 0.0002078533 -0.000280476 4.4057e-06 3.2596e-06 0.1059154809 0.8368102416
845294930.0 -0.058342486 -0.0945672063 0.0002726867 0.0001073639 7.28604e-05 -0.0001639415 0.1137305444 0.835525358
850294900.0 -0.0596173966 -0.0937780163 0.0002821121 6.09298e-05 0.0002136665 -0.0001299828 0.1214969754 0.8347121329
