!Created with skrf (http://scikit-rf.org).
# Hz S RI R 50.0 
!freq ReS11 ImS11 ReS21 ImS21 ReS12 ImS12 ReS22 ImS22
300000.0 -0.2406153566 -0.0907060248 0.4720272366 0.0598468633 0.4692447421 0.0576856454 -0.2388362183 -0.0984276434
5299970.0 -0.2449052168 0.0065075447 0.4750860416 0.0052177796 0.4747342117 0.0050176921 -0.2411533809 0.0072843053
10299940.0 -0.2419243941 0.017751431 0.4766173903 0.0061328933 0.4768207013 0.006206521 -0.2378055711 0.0205429993
15299910.0 -0.2377014816 0.026577661 0.4802753864 0.0075702522 0.4805424405 0.0073706046 -0.2330432993 0.0301807485
20299880.0 -0.2329333366 0.03397941 0.484927843 0.0083211244 0.4850519125 0.0079691043 -0.2278488288 0.0378895647
25299850.0 -0.2277620088 0.0403706583 0.4903817519 0.0071189714 0.4904466744 0.0069604451 -0.2218571148 0.0447647415
30299820.0 -0.2224750908 0.0452083 0.4956712056 0.0047099564 0.4956002584 0.00492531 -0.2161704144 0.0502499503
35299790.0 -0.2172883509 0.0489019943 0.5005479321 0.0013151315 0.5014125097 0.0015236696 -0.2105046215 0.0547200315
40299760.0 -0.2125845961 0.0525358186 0.5060935482 -0.0023631305 0.5059198442 -0.0022801061 -0.2050662058 0.0572643576
45299730.0 -0.2077438575 0.0548970811 0.510402575 -0.0070599834 0.5110527918 -0.0068309573 -0.2004026273 0.0604731552
50299700.0 -0.2039093967 0.0568028176 0.5152900408 -0.0126487611 0.5149994281 -0.0123616643 -0.1954774468 0.0623414594
55299670.0 -0.1999904405 0.0584337178 0.5186966003 -0.0187738214 0.5185309678 -0.0181826242 -0.1915019567 0.0639479971
60299640.0 -0.1960751462 0.0600537614 0.5217355749 -0.0248171856 0.5220816037 -0.0245599038 -0.1873046658 0.0653224637
65299610.0 -0.1928404313 0.0608606664 0.5248550607 -0.0313542126 0.5245646671 -0.0312019657 -0.1839464932 0.0665066083
70299580.0 -0.1897041416 0.0618977168 0.5268529287 -0.0377019173 0.5268746499 -0.0377317352 -0.1809065278 0.067528404
75299550.0 -0.1869958522 0.0631780999 0.5288675185 -0.0444204158 0.5289087283 -0.0446000488 -0.1776879496 0.0683595236
80299520.0 -0.1846264574 0.0636730905 0.5308212546 -0.0517414501 0.5310075458 -0.0513739941 -0.1752480357 0.0691562902
85299490.0 -0.1826290371 0.063953395 0.5319065427 -0.0579011253 0.531999093 -0.0578980829 -0.1729591265 0.0695757582
90299460.0 -0.180470685 0.0649183047 0.5328182075 -0.0654224332 0.533212769 -0.0651288667 -0.1703891588 0.0704163573
95299430.0 -0.1781202626 0.065238321 0.5342823995 -0.0719581651 0.5340011215 -0.0722199489 -0.1680056528 0.0712261855
100299400.0 -0.1766385652 0.0662873273 0.5341455358 -0.07924546 0.5341632434 -0.0791912962 -0.1658175562 0.0716153036
105299370.0 -0.1749743744 0.0668432956 0.5345464758 -0.0859796321 0.5344777651 -0.0858893896 -0.1639789076 0.0725088011
110299340.0 -0.1731288405 0.0677846477 0.534863447 -0.0928703298 0.5347742252 -0.0924255332 -0.1629382279 0.0727440966
115299310.0 -0.1719864231 0.0681818976 0.5348615743 -0.0996084975 0.5347744796 -0.0994370946 -0.1611043867 0.073773139
120299280.0 -0.1706542197 0.0685964977 0.5344382934 -0.10648895 0.534568898 -0.1065320384 -0.1596038288 0.0745781248
125299250.0 -0.169587877 0.0692703437 0.5341987139 -0.1129801833 0.5343847461 -0.1130670162 -0.1585941693 0.07502232
130299220.0 -0.1687401981 0.0701605078 0.5336168448 -0.1198883621 0.5338069699 -0.1194625591 -0.1569072642 0.0759118239
135299190.0 -0.1675867307 0.0712379762 0.5328265825 -0.1267035658 0.5328928771 -0.1262357228 -0.1554693633 0.0767884847
140299160.0 -0.1665682354 0.0722003742 0.5321084809 -0.1335578472 0.5323167181 -0.1331513533 -0.1545130038 0.0781240111
145299130.0 -0.1656402804 0.072624135 0.5313037524 -0.1391473564 0.5306971572 -0.1392255718 -0.153454302 0.0787983491
150299100.0 -0.1644869748 0.0739536173 0.5298575674 -0.1453707047 0.5298323329 -0.145623208 -0.1521938467 0.0804164514
155299070.0 -0.1637246469 0.0747323137 0.5289015317 -0.1529215559 0.5286681121 -0.1521999102 -0.1510120678 0.0812252979
160299040.0 -0.1628831092 0.0759943348 0.5274241026 -0.1590257151 0.5272317993 -0.1592657801 -0.1507387287 0.0822762313
165299010.0 -0.1622176437 0.076786181 0.526115045 -0.1657959835 0.5259342632 -0.1657739842 -0.1492500581 0.0835858413
170298980.0 -0.1613960847 0.0776924743 0.5243352604 -0.1719705854 0.5243600985 -0.1717752002 -0.1485826208 0.0850103698
175298950.0 -0.1607758827 0.0787610449 0.5230985529 -0.1776034515 0.5227994184 -0.1783110412 -0.1477106969 0.0860324908
180298920.0 -0.1599889265 0.0802540156 0.5208483393 -0.18449117 0.5210080213 -0.1839910245 -0.1467312938 0.0875442033
185298890.0 -0.1588156533 0.0808094925 0.5188914702 -0.1903955327 0.5191226617 -0.1902702915 -0.1457011394 0.0887753301
190298860.0 -0.1584566933 0.0823864574 0.5175396614 -0.1969904156 0.5178317383 -0.1963805502 -0.1447821767 0.089968204
195298830.0 -0.1576807915 0.0833661681 0.5151216619 -0.2028961628 0.5156119053 -0.2025285584 -0.1436464256 0.0909191403
200298800.0 -0.156753283 0.0844754876 0.5132996435 -0.2091570412 0.5135021609 -0.2090659332 -0.143263864 0.0924846051
205298770.0 -0.1561999201 0.086233068 0.5106122634 -0.2153668702 0.5110995048 -0.2148864987 -0.1420002517 0.0933156992
210298740.0 -0.1553952426 0.0869868331 0.5085153532 -0.2206749711 0.5085837881 -0.2206782092 -0.1409346752 0.0953811814
215298710.0 -0.1549956273 0.0883244569 0.5066149034 -0.226707329 0.5064148066 -0.2270899066 -0.1404323274 0.0966036164
220298680.0 -0.1539247851 0.0891695728 0.5034470605 -0.2327591471 0.5040380164 -0.2327594945 -0.1395811709 0.0976326304
225298650.0 -0.1534461838 0.0908291415 0.5014138251 -0.2386656031 0.5019121536 -0.2386067859 -0.1389328481 0.0988879559
230298620.0 -0.1525702232 0.0926308641 0.4988192031 -0.2442905967 0.4996529881 -0.2441026681 -0.1380884937 0.0999969067
235298590.0 -0.151827834 0.0936768124 0.4966291523 -0.2502083626 0.4967427361 -0.2495538427 -0.1367726141 0.1015578549
240298560.0 -0.150883914 0.0949829622 0.4941097049 -0.256230942 0.4937118739 -0.2558456532 -0.1356718665 0.1031218144
245298530.0 -0.1503887394 0.0963181035 0.4910438483 -0.2617484361 0.4910038016 -0.2616955321 -0.1347112813 0.10381215
250298500.0 -0.1493536005 0.0977689594 0.4876192777 -0.2676610439 0.4873355188 -0.2668896013 -0.1339917629 0.1054768606
255298470.0 -0.1487073672 0.0983718637 0.4844117242 -0.2722910604 0.4851319361 -0.2724488822 -0.1328349579 0.1068438743
260298440.0 -0.1480989964 0.0998561187 0.4822732777 -0.2784092006 0.4822771296 -0.2779188471 -0.1314363512 0.1082331555
265298410.0 -0.1465979479 0.1019340135 0.4790329118 -0.2840584308 0.479494478 -0.283473112 -0.1308482858 0.1096574842
270298380.0 -0.1460433262 0.1030681759 0.4764090115 -0.2890880455 0.4766815434 -0.2890327329 -0.1296958036 0.1110647921
275298350.0 -0.1447381705 0.1043664672 0.4728597864 -0.2947124786 0.4733163876 -0.2947131304 -0.1280325729 0.112185036
280298320.0 -0.1437729679 0.105871802 0.4697957527 -0.3000073563 0.4702034764 -0.2999682885 -0.1270368605 0.1138018894
285298290.0 -0.1430368895 0.1072766317 0.466878021 -0.3051554473 0.4665320081 -0.3052621662 -0.1257872007 0.114888952
290298260.0 -0.1419107989 0.1086166289 0.4630325849 -0.3104558062 0.463265781 -0.310475261 -0.1243234744 0.1167758829
295298230.0 -0.1409900694 0.1096595446 0.4599823795 -0.3158083622 0.4596644117 -0.3157190043 -0.1226510511 0.1175789023
300298200.0 -0.140135491 0.1110592876 0.4568341605 -0.3206946931 0.4570002983 -0.3210680344 -0.1216680162 0.1191691991
305298170.0 -0.1389744122 0.1120851209 0.452573975 -0.326490939 0.4528342897 -0.3262024959 -0.1198430425 0.1200757368
310298140.0 -0.1382697673 0.1137280849 0.4494191748 -0.3316889207 0.449824831 -0.331504942 -0.1188095605 0.1215087194
315298110.0 -0.137304115 0.1147671797 0.4457193062 -0.3368031174 0.4457983246 -0.3363490201 -0.117759714 0.1226970142
320298080.0 -0.1357628776 0.1161008071 0.4417049195 -0.3420627797 0.4419812895 -0.3417469769 -0.1163561837 0.1240579261
325298050.0 -0.1350927343 0.117172964 0.4382531832 -0.3471054631 0.4382275236 -0.3465911491 -0.1153426006 0.1255401939
330298020.0 -0.1343920785 0.118003773 0.434157858 -0.3516453319 0.4342917786 -0.3517949273 -0.1143676262 0.1266583114
335297990.0 -0.1330411929 0.1193764525 0.4299883033 -0.3565573743 0.429896577 -0.3563050993 -0.1134009109 0.1283623656
340297960.0 -0.132524724 0.1214772964 0.4261003928 -0.3615221755 0.4257955608 -0.3616085689 -0.1115801739 0.1299526396
345297930.0 -0.131531289 0.12285045 0.4217283493 -0.3663860538 0.4217740149 -0.366277983 -0.1105450828 0.1307611595
350297900.0 -0.130390281 0.1238702996 0.4167296935 -0.3712424892 0.4174825115 -0.3705272639 -0.109366683 0.1327313223
355297870.0 -0.1293065674 0.1257149152 0.4134028673 -0.3752146153 0.4137015803 -0.3752421215 -0.1082254782 0.1340223198
360297840.0 -0.1281998086 0.1267603905 0.4094471341 -0.3795566187 0.4099898522 -0.3797493197 -0.1065231675 0.1354637572
365297810.0 -0.1274294899 0.128637012 0.4052394774 -0.3845483749 0.405370069 -0.3844630626 -0.1051330244 0.1369141621
370297780.0 -0.1258087076 0.1294490102 0.4008835058 -0.388661143 0.4012505227 -0.3885890355 -0.1038243025 0.1381283658
375297750.0 -0.1243748295 0.131057934 0.3964190675 -0.3930182013 0.3973928078 -0.3932135452 -0.1025169842 0.1393506884
380297720.0 -0.1232625337 0.1318635104 0.3922464073 -0.3973557129 0.3927087557 -0.39702635 -0.1013389283 0.1408067843
385297690.0 -0.1225373808 0.1335951528 0.3877741938 -0.4017247911 0.3879553464 -0.401520543 -0.0997067716 0.1419528246
390297660.0 -0.1213594589 0.1349569483 0.3835746384 -0.4062672919 0.3831555381 -0.4054476171 -0.0982125514 0.143046299
395297630.0 -0.1198718618 0.1362100444 0.3793838355 -0.4101931309 0.3791976022 -0.4102256995 -0.0961001955 0.1444602463
400297600.0 -0.1186616377 0.1374848815 0.3741535141 -0.4146421204 0.3747454137 -0.4144543078 -0.0948476016 0.1457429674
405297570.0 -0.1178000097 0.1388769355 0.3700652745 -0.4183515967 0.3702898805 -0.4180857133 -0.0939055405 0.1468633128
410297540.0 -0.1160718247 0.1400930172 0.3654165197 -0.4227808022 0.3657057451 -0.4221316838 -0.0918377538 0.1482262716
415297510.0 -0.1146171427 0.1413457678 0.3602309159 -0.4265152155 0.3611389758 -0.4264897525 -0.0905403575 0.1494440755
420297480.0 -0.1134280492 0.1426325047 0.356092966 -0.4303179081 0.3559021901 -0.4304165537 -0.0892229494 0.1502218932
425297450.0 -0.1120469577 0.1434791828 0.3516993674 -0.4342745964 0.351635748 -0.4344724485 -0.0878331167 0.1515252182
430297420.0 -0.1107041539 0.144757785 0.3465302404 -0.4376401618 0.3470179655 -0.4378144584 -0.0858882134 0.1521640913
435297390.0 -0.1095811204 0.1461779959 0.3415291932 -0.4419759342 0.3415971022 -0.4417580147 -0.0836209588 0.1533361069
440297360.0 -0.1079094974 0.1475341098 0.3366346049 -0.4452939108 0.3371127407 -0.4451481507 -0.0823622374 0.1543391237
445297330.0 -0.106583955 0.1482663449 0.3322160036 -0.4489288014 0.3323142128 -0.4487747416 -0.0807732601 0.1553118134
450297300.0 -0.1051136026 0.1495225462 0.3271244059 -0.4524670532 0.3268459267 -0.4525967501 -0.0789217942 0.1563144074
455297270.0 -0.1037137823 0.1509499068 0.3217086741 -0.4562468534 0.3223912954 -0.4565015395 -0.0771382642 0.1572116447
460297240.0 -0.1024829893 0.1519538873 0.3171596105 -0.4594990361 0.3169369145 -0.4595665359 -0.0753343429 0.1586440714
465297210.0 -0.1005293505 0.1532677692 0.3124838744 -0.463149354 0.3120120881 -0.4632779421 -0.073466409 0.1590179685
470297180.0 -0.0993076284 0.153835593 0.3065266569 -0.4665811342 0.3072328958 -0.466627158 -0.0715718615 0.160421847
475297150.0 -0.0978125301 0.1548790001 0.3018602491 -0.469110876 0.3019445157 -0.4692717184 -0.0696216388 0.1609559977
480297120.0 -0.0964531645 0.1562629677 0.2965982533 -0.4732906959 0.2966962548 -0.4732682663 -0.0678834974 0.1620799769
485297090.0 -0.0947749708 0.1575141346 0.2916517151 -0.4758353666 0.2919332256 -0.47585486 -0.0662600948 0.1628915308
490297060.0 -0.0936302138 0.1584553425 0.2866050411 -0.4795470171 0.2864184108 -0.4792003341 -0.0644865937 0.1642266784
495297030.0 -0.0921423886 0.1592430267 0.2809296217 -0.4821337784 0.2816898633 -0.4821094614 -0.0629492599 0.1647775726
500297000.0 -0.0902933247 0.1604384208 0.2753975478 -0.4848962372 0.2759404312 -0.4850772998 -0.0608319252 0.1665337026
505296970.0 -0.0885648114 0.1613793873 0.2708258156 -0.4879116069 0.2702082658 -0.4883003286 -0.0591094837 0.1663680452
510296940.0 -0.0869994047 0.1622687183 0.2651005006 -0.4910999136 0.2652705878 -0.4915163277 -0.0569978373 0.1676922945
515296910.0 -0.0855363662 0.1634221448 0.2596061339 -0.4941536976 0.2599815001 -0.4939956232 -0.055083641 0.1684376779
520296880.0 -0.0841862109 0.1642047313 0.2542946912 -0.4969997824 0.2545656296 -0.4966877006 -0.0532539108 0.1690404205
525296850.0 -0.0826107392 0.1648309455 0.2489774275 -0.4992003678 0.2496555102 -0.4997455566 -0.0512524896 0.1703777129
530296820.0 -0.0808582138 0.1662428766 0.2432822223 -0.5021841616 0.2433496954 -0.5018789893 -0.0497151983 0.1706695031
535296790.0 -0.0798119352 0.1674148321 0.2382858522 -0.5051583633 0.2383999222 -0.5041349108 -0.0479569782 0.1713252615
540296760.0 -0.0778407868 0.1680913631 0.2324025307 -0.5075502533 0.2325174482 -0.5073351018 -0.0464243747 0.1724440255
545296730.0 -0.0761028875 0.1689240763 0.2268684875 -0.5099850511 0.2270647884 -0.5096158556 -0.0445256507 0.1728261726
550296700.0 -0.0743490322 0.1699877207 0.2213647061 -0.5120408586 0.2217162239 -0.5121906251 -0.0425181864 0.173386456
555296670.0 -0.0727814149 0.1707922087 0.2159170222 -0.5147535881 0.2164865614 -0.5142211271 -0.040460329 0.1744909658
560296640.0 -0.0712500501 0.1719309664 0.2104290862 -0.5170768711 0.2107552803 -0.516929699 -0.038381953 0.1749326704
565296610.0 -0.0696877986 0.1726196349 0.2045250216 -0.5192086243 0.2052735696 -0.5187160796 -0.0369961357 0.1751151268
570296580.0 -0.0682021738 0.1735259909 0.1990191392 -0.5215660413 0.1986489374 -0.5214421333 -0.034973343 0.1762676766
575296550.0 -0.0668335001 0.1745319463 0.1936103587 -0.5236488416 0.1936093826 -0.5236805512 -0.0326246482 0.1763294513
580296520.0 -0.0646155209 0.1749258699 0.1878454118 -0.5258745053 0.1878977217 -0.5253755277 -0.0311107461 0.1768209182
585296490.0 -0.0632826414 0.1756569207 0.182219876 -0.5273628604 0.1821876771 -0.5274899014 -0.029078907 0.1775095553
590296460.0 -0.0610663772 0.1764683574 0.176135338 -0.5289958168 0.1767756169 -0.5291221506 -0.0276571853 0.1779853938
595296430.0 -0.0595434387 0.1775426946 0.1702992703 -0.5316504425 0.1705306845 -0.5311101932 -0.0254066741 0.1780329437
600296400.0 -0.0578924445 0.1778875798 0.1646202047 -0.5330058388 0.1650964984 -0.5326755842 -0.0235815824 0.178573912
605296370.0 -0.0563736917 0.1785067293 0.1590116258 -0.5343696651 0.1591834791 -0.5344841103 -0.0211744556 0.17885745
610296340.0 -0.0542567304 0.1793840353 0.1524662597 -0.5363205709 0.1533900793 -0.5363010087 -0.0191963591 0.1793642465
615296310.0 -0.0523440774 0.17978871 0.1471794672 -0.5376652516 0.1472344352 -0.5385520258 -0.0170557066 0.1794784566
620296280.0 -0.0510714537 0.1800384342 0.1415310218 -0.5392515864 0.1416791027 -0.539033016 -0.0156613267 0.1798222846
625296250.0 -0.049203004 0.1806708162 0.136523653 -0.5409965137 0.1359782578 -0.5412033505 -0.0127563132 0.1802871002
630296220.0 -0.046680785 0.1815392195 0.1295313854 -0.542162227 0.129570608 -0.5423881139 -0.0109087772 0.1809725035
635296190.0 -0.045926897 0.1819091815 0.1237327282 -0.5433640232 0.1241094782 -0.5438441935 -0.0087546424 0.180510423
640296160.0 -0.0440089811 0.182755903 0.1179006033 -0.5446184142 0.1182966371 -0.5448436063 -0.0069724838 0.1812124166
645296130.0 -0.0420764272 0.1832910671 0.1120284404 -0.5458391765 0.1127366925 -0.5459555793 -0.0047314161 0.181360748
650296100.0 -0.0403238213 0.1837705371 0.1060103209 -0.5466818544 0.1065154519 -0.5473647395 -0.002532806 0.1809591427
655296070.0 -0.0386766765 0.1843240882 0.1003219853 -0.5481763555 0.1007304427 -0.5484454356 -0.0002997233 0.1814098853
660296040.0 -0.0374328767 0.1845527886 0.0945521479 -0.5493981023 0.0946327661 -0.5495720455 0.001623611 0.1817485908
665296010.0 -0.034870901 0.1849670704 0.0884400726 -0.5497848728 0.0887445326 -0.5502246988 0.0034352274 0.1823768698
670295980.0 -0.033665175 0.1858757809 0.0828067045 -0.5506973441 0.0825001301 -0.5516293983 0.0052172032 0.1820417679
675295950.0 -0.0317125838 0.1862709938 0.0768480949 -0.551908284 0.0772835215 -0.5512951468 0.007033154 0.1822189343
680295920.0 -0.0301397687 0.1865398212 0.0706066668 -0.5523464143 0.0704172442 -0.5531562138 0.0093693951 0.1831819659
685295890.0 -0.0279019997 0.1876864229 0.0645138634 -0.5532871336 0.0646503168 -0.5533726583 0.0116762619 0.1826155281
690295860.0 -0.025894664 0.187699706 0.0586844144 -0.5535684517 0.0587644353 -0.5542394851 0.0133517999 0.1833943862
695295830.0 -0.0244760325 0.1879522205 0.0532895747 -0.5541938268 0.0525085363 -0.5545753884 0.0154452253 0.1831049681
700295800.0 -0.0223935962 0.187976694 0.0467066687 -0.5549279016 0.0462920875 -0.5545677928 0.0170465117 0.1832429743
705295770.0 -0.0208204195 0.189199235 0.0403774041 -0.5558469671 0.0414183852 -0.5554361258 0.0189756161 0.1833730686
710295740.0 -0.0186826115 0.1891103687 0.0348881762 -0.5561707183 0.0348151045 -0.5563471051 0.0218565177 0.1827133124
715295710.0 -0.017232212 0.1892898041 0.0292259466 -0.5562890836 0.0287532375 -0.555914736 0.023480711 0.1822300541
720295680.0 -0.0153566269 0.1898578131 0.0224390505 -0.5568026067 0.023343971 -0.5563810672 0.0254506863 0.1829968358
725295650.0 -0.0130937529 0.1899759793 0.0168691396 -0.5567249608 0.0169683951 -0.5568530397 0.0270232603 0.1829517483
730295620.0 -0.0113944291 0.190694731 0.0106709463 -0.5562431283 0.0109510239 -0.5569961185 0.0286140302 0.1825501064
735295590.0 -0.0094703124 0.1909228898 0.0048620355 -0.5572229725 0.004895252 -0.5565180313 0.0308318986 0.1821256769
740295560.0 -0.0081437698 0.191027184 -0.0013889115 -0.5564011926 -0.0011372864 -0.556852647 0.0335584918 0.1824488181
745295530.0 -0.0063174554 0.1912862927 -0.0072144104 -0.5562298421 -0.0075371708 -0.5568372925 0.0353746661 0.1816866761
750295500.0 -0.0039416641 0.1914240555 -0.0131090527 -0.556289768 -0.013050315 -0.5568040511 0.03722746 0.1819268525
755295470.0 -0.0021866847 0.1915018638 -0.0187959999 -0.5563698582 -0.0191818727 -0.5566516781 0.0397729639 0.1809503559
760295440.0 -0.0005343073 0.1915717484 -0.0252567952 -0.556210903 -0.0251027864 -0.5561723384 0.0411219483 0.18078705
765295410.0 0.0013862101 0.191797646 -0.0315233577 -0.5559145826 -0.0310684833 -0.5562096151 0.0433914467 0.1805332815
770295380.0 0.0028655697 0.1918034645 -0.0371100898 -0.555458183 -0.0370529349 -0.5554348371 0.0453530142 0.1800318577
775295350.0 0.0050764199 0.1916509486 -0.0433191333 -0.5547762113 -0.0426596042 -0.5548845662 0.0467549548 0.1802024258
780295320.0 0.0070073479 0.191904751 -0.0492647683 -0.5540949216 -0.0485609842 -0.5541628117 0.0489895114 0.1789335836
785295290.0 0.0084007561 0.1916637387 -0.0551080566 -0.5535159594 -0.0546794201 -0.5537488993 0.0515849097 0.1787019266
790295260.0 0.0109246367 0.1925371721 -0.0604140629 -0.5532115208 -0.0603389696 -0.5526531916 0.0532412124 0.1785691946
795295230.0 0.0127732978 0.1919268451 -0.0668135725 -0.5522380801 -0.0662846825 -0.5524059172 0.0554145231 0.178148512
800295200.0 0.0142986843 0.1921572351 -0.0732994021 -0.5508739378 -0.0727680896 -0.5513349931 0.0574682166 0.1774671449
805295170.0 0.0164548699 0.1918897538 -0.0790508103 -0.5505272649 -0.078817636 -0.5512482196 0.0595498924 0.1769904873
810295140.0 0.0180184267 0.1916725816 -0.0844112958 -0.5493011864 -0.0841779406 -0.5497767403 0.0615322678 0.1768154507
815295110.0 0.0198100809 0.191642839 -0.0905674096 -0.5484871058 -0.0899820207 -0.5485967006 0.063189002 0.1760132407
820295080.0 0.0215837915 0.1922653564 -0.0962884152 -0.547661871 -0.096043157 -0.5475237353 0.0655645802 0.1756051699
825295050.0 0.0240019872 0.1916141314 -0.1020218541 -0.5462517377 -0.1019289308 -0.5464916877 0.0676925929 0.174855038
830295020.0 0.0254182084 0.1918867755 -0.1084666434 -0.5445917108 -0.1081845635 -0.5450962683 0.0702350917 0.1747758592
