!Created with skrf (http://scikit-rf.org).
# Hz S RI R 50.0 
!freq ReS11 ImS11 ReS21 ImS21 ReS12 ImS12 ReS22 ImS22
300000.0 -0.2369525129 -0.1193776218 0.467210098 0.0779836294 0.4654398256 0.0792457329 -0.236172396 -0.1242796436
5299970.0 -0.2453324508 0.0054330519 0.473683124 0.0060272048 0.474213672 0.0061532 -0.2434987224 0.0051418198
10299940.0 -0.2419156757 0.0185890211 0.4763029709 0.0068220409 0.4760771175 0.0072224589 -0.2402857462 0.0181746125
15299910.0 -0.236884388 0.0281818169 0.4795620315 0.0087377822 0.4798070348 0.0082213007 -0.2363013206 0.0275812575
20299880.0 -0.2316813472 0.0360957871 0.4839923537 0.0087422096 0.4844017979 0.0085956213 -0.2313386841 0.0352900691
25299850.0 -0.2257002655 0.0427611569 0.489799174 0.0078960487 0.4901689942 0.00772114 -0.2261083863 0.0417404576
30299820.0 -0.2201504994 0.0477624325 0.4951377871 0.0056112518 0.4952115338 0.0055098829 -0.2208456078 0.0468064044
35299790.0 -0.2143747487 0.0520055744 0.4999971885 0.0023289691 0.5007070705 0.0023468971 -0.2159878838 0.051520847
40299760.0 -0.2090951611 0.0547263177 0.5055107392 -0.0014240852 0.5058394259 -0.0013609735 -0.2107010182 0.054660618
45299730.0 -0.2041529577 0.0572375041 0.5105907066 -0.0060354627 0.5105741599 -0.0060754779 -0.2057860619 0.0575112775
50299700.0 -0.1991783096 0.0590044947 0.5142766867 -0.0117960111 0.5147398376 -0.0121098209 -0.2011949005 0.0601895656
55299670.0 -0.194893384 0.060482997 0.5182462484 -0.0171002047 0.5183882354 -0.0176322147 -0.1976585881 0.0619109154
60299640.0 -0.1907864715 0.0616671675 0.5219490399 -0.0240518838 0.5218839628 -0.0241098482 -0.193743498 0.0631213992
65299610.0 -0.1872574031 0.0626922231 0.5247999513 -0.0301927962 0.5248374073 -0.0306939868 -0.1901177195 0.0647090535
70299580.0 -0.183849008 0.063185582 0.5271354709 -0.0368194566 0.5273773462 -0.0369245743 -0.1872613971 0.0660068024
75299550.0 -0.1808967437 0.0637942018 0.5289477494 -0.0439736661 0.5292883629 -0.0439842916 -0.184239212 0.0669143644
80299520.0 -0.1783610341 0.0644052298 0.5309922294 -0.0507916898 0.5314748804 -0.0507407288 -0.1817365772 0.0680873999
85299490.0 -0.1756412645 0.0648980927 0.5322639066 -0.0578488047 0.5325287467 -0.0574880965 -0.1793053672 0.0687080374
90299460.0 -0.1735880747 0.0653909605 0.5329842817 -0.0646107686 0.533236043 -0.0643498103 -0.1768797265 0.0696540586
95299430.0 -0.1713332795 0.0656357753 0.5339935865 -0.0711387989 0.5346742293 -0.0714382457 -0.1751251189 0.0707933632
100299400.0 -0.169405153 0.0660346128 0.5346246352 -0.0780318825 0.5348069732 -0.0785801221 -0.1730442086 0.071834824
105299370.0 -0.1674525004 0.0666165589 0.5348115625 -0.0852964366 0.5350930345 -0.0852496586 -0.1710849799 0.072089455
110299340.0 -0.1658749696 0.0663642045 0.5351953676 -0.0911847508 0.5353473061 -0.0918068256 -0.1696929327 0.0733185764
115299310.0 -0.1644984049 0.0676446281 0.5348191189 -0.0988794776 0.5352111262 -0.0988227706 -0.1683183059 0.0744041598
120299280.0 -0.1633046548 0.0681988525 0.5349305176 -0.105744873 0.535079228 -0.1060823489 -0.1670541304 0.0746456555
125299250.0 -0.161946088 0.0686110873 0.5346468912 -0.1124391159 0.534518481 -0.112360938 -0.165244833 0.0761467542
130299220.0 -0.1606948601 0.0690146002 0.5341839702 -0.1189480759 0.5340115728 -0.1197094677 -0.1641229642 0.0770721782
135299190.0 -0.1598684136 0.0700954311 0.5336334539 -0.1258501525 0.5335463429 -0.1259932068 -0.1631553327 0.0775248213
140299160.0 -0.158290779 0.0708695566 0.5328491088 -0.1324965433 0.5326108248 -0.1323421804 -0.1621566431 0.0785485218
145299130.0 -0.1577626139 0.0717804076 0.5318906221 -0.1389988467 0.5317113879 -0.1393235648 -0.1608468542 0.079836803
150299100.0 -0.1565841555 0.0725820116 0.5304697129 -0.1458795029 0.5308599454 -0.1459563306 -0.1601019006 0.0811327243
155299070.0 -0.1557839202 0.0735445974 0.5289664453 -0.1524498248 0.5294632503 -0.152153172 -0.1589151585 0.0822795192
160299040.0 -0.1548878394 0.0744426228 0.528379729 -0.1586587622 0.5279194377 -0.1587989669 -0.1580846275 0.0835768425
165299010.0 -0.1536828365 0.0751021568 0.5264418068 -0.1650166681 0.5264692744 -0.1654663739 -0.1567967949 0.0844942064
170298980.0 -0.1530913846 0.0763767088 0.5244018349 -0.1715372215 0.5250990439 -0.171606011 -0.1561014202 0.0860457549
175298950.0 -0.1523038213 0.0771838741 0.5235879262 -0.1776718653 0.523652069 -0.1782202294 -0.1553081592 0.0873887998
180298920.0 -0.1514238027 0.0786140561 0.5215752804 -0.1844165077 0.5217045169 -0.1843056649 -0.1540702476 0.0887503751
185298890.0 -0.1508566405 0.0794610541 0.5202350441 -0.1903503832 0.5199969246 -0.1901629143 -0.1529153438 0.0894415496
190298860.0 -0.1496750524 0.0808095968 0.5176278348 -0.196193375 0.518011285 -0.1965444272 -0.1523500524 0.0910339699
195298830.0 -0.1493067594 0.0819012396 0.5158768272 -0.2026617188 0.5163066761 -0.2027066718 -0.15136259 0.0926124742
200298800.0 -0.1481883007 0.0826852197 0.5142221646 -0.2090697902 0.5142019251 -0.2091791844 -0.1502791621 0.0936274982
205298770.0 -0.1480773526 0.0840644968 0.5116980281 -0.2148069173 0.5116482232 -0.2145767235 -0.1490979122 0.0949872405
210298740.0 -0.1468917213 0.0855339112 0.5093867161 -0.2210077016 0.5089392548 -0.2206107725 -0.1484012062 0.0960573668
215298710.0 -0.146033741 0.0868840378 0.5066824234 -0.2264872096 0.507076247 -0.2267696419 -0.1473226626 0.0976923731
220298680.0 -0.1450980681 0.087879507 0.5043791791 -0.23238037 0.5047073616 -0.2326137052 -0.146271127 0.0990656478
225298650.0 -0.144702133 0.0892562213 0.5017643258 -0.2385064846 0.5024034422 -0.2382733018 -0.1455041348 0.1003640181
230298620.0 -0.1437396429 0.090620207 0.4996039629 -0.2443902578 0.5000226388 -0.2446127723 -0.144715851 0.101930156
235298590.0 -0.1432236361 0.0918478705 0.4974120044 -0.2503821547 0.497456299 -0.2500615484 -0.1433002769 0.1034238989
240298560.0 -0.1422951692 0.0932123087 0.4942684678 -0.2556584972 0.4944587041 -0.2558804031 -0.1424912913 0.1049224833
245298530.0 -0.1417087455 0.0942161765 0.4913724679 -0.2615518893 0.4915912088 -0.2613259343 -0.1414280755 0.1062868735
250298500.0 -0.1405941797 0.095530742 0.4888778054 -0.2669739309 0.4892573804 -0.2669307884 -0.1408424804 0.1077168552
255298470.0 -0.1398498562 0.0973936401 0.4860237564 -0.2726431267 0.4864870302 -0.2726697126 -0.1394176399 0.1095330436
260298440.0 -0.1391155682 0.0983320271 0.4830158725 -0.2777210943 0.48338801 -0.2778997733 -0.1386426312 0.1102848675
265298410.0 -0.1384955086 0.099699379 0.4800476857 -0.2837197654 0.4797033488 -0.2838944411 -0.1367638124 0.111622239
270298380.0 -0.1377113721 0.1007466396 0.4771710937 -0.2891675483 0.4772244314 -0.2891891534 -0.1358777544 0.1133674585
275298350.0 -0.1366730221 0.1023877092 0.4733888849 -0.2942424246 0.4735951551 -0.2944490572 -0.1347860903 0.1152745035
280298320.0 -0.1362632771 0.1036268224 0.470808028 -0.299401083 0.4709934301 -0.2998348254 -0.1336000385 0.1165014387
285298290.0 -0.1352109048 0.1049786915 0.4670944724 -0.3048930922 0.4675696777 -0.3047954385 -0.1325379758 0.1179836993
290298260.0 -0.1343474862 0.1065170275 0.4644548824 -0.3103346982 0.4641546879 -0.3107212613 -0.1311816653 0.1193489514
295298230.0 -0.133514557 0.1073681934 0.4607915422 -0.315853361 0.4607928933 -0.3160853214 -0.1301017415 0.1207168683
300298200.0 -0.1324352076 0.1090496437 0.4573804536 -0.3211959462 0.4577378505 -0.3209727457 -0.1289132173 0.1220846885
305298170.0 -0.1316160842 0.1100053988 0.4542609858 -0.3265513597 0.4540828887 -0.3265546645 -0.1273835148 0.1231245639
310298140.0 -0.1301762387 0.1111653875 0.4502622296 -0.3314060892 0.450806138 -0.3310961086 -0.1259960146 0.1246114689
315298110.0 -0.1297441576 0.1121551382 0.4466844517 -0.3368940243 0.446689162 -0.3367189738 -0.1246940617 0.1259447708
320298080.0 -0.1286216615 0.1137953289 0.442740824 -0.3418465258 0.4436864364 -0.342205456 -0.1236557078 0.1271557489
325298050.0 -0.1281012437 0.1144025579 0.438933531 -0.3463418389 0.4394573438 -0.3468943583 -0.1219713556 0.128258969
330298020.0 -0.1277755257 0.1161274468 0.4349195487 -0.3522090894 0.4355129807 -0.3521021242 -0.1213311821 0.1296289613
335297990.0 -0.1267421009 0.1172339745 0.4311235624 -0.3564909827 0.4314592503 -0.356612898 -0.1201739881 0.1310244493
340297960.0 -0.1259392772 0.1186107487 0.4268828031 -0.3618188745 0.4271249834 -0.3615114905 -0.1187213621 0.1326233684
345297930.0 -0.124941796 0.1197985989 0.4229165328 -0.3662948137 0.4227976654 -0.3664260178 -0.1175176092 0.1339339091
350297900.0 -0.124046906 0.1212358732 0.419435154 -0.3705413861 0.4193108678 -0.3707852823 -0.1162142221 0.1349920051
355297870.0 -0.1231959479 0.1223854599 0.414778983 -0.3750011502 0.4150061567 -0.3750477765 -0.1144980895 0.1365663023
360297840.0 -0.122034225 0.1239979073 0.4105146605 -0.3801275782 0.4106501933 -0.3802524965 -0.1133740696 0.1381609134
365297810.0 -0.1210798284 0.1252053129 0.4057684531 -0.3843995691 0.4068037021 -0.3843520908 -0.1123479742 0.1391518407
370297780.0 -0.1201803596 0.1262968956 0.4016392787 -0.3888953127 0.4023078579 -0.3889650413 -0.1107353086 0.1408103979
375297750.0 -0.1187836291 0.1278784245 0.39785843 -0.3931588558 0.3980906259 -0.3932516847 -0.1090286819 0.1421131129
380297720.0 -0.118311451 0.1290014589 0.393846417 -0.3979973346 0.3936552218 -0.3978246674 -0.1075445993 0.1435710893
385297690.0 -0.1170853573 0.130317229 0.3891565922 -0.4020019638 0.389361647 -0.4021922876 -0.1059981974 0.1451625559
390297660.0 -0.1155174104 0.1312531034 0.384687217 -0.405845514 0.3848159398 -0.4063396493 -0.1039890861 0.1459669736
395297630.0 -0.1141373157 0.1328212099 0.3805732677 -0.410334079 0.3803177264 -0.4103081996 -0.1027411539 0.1473295817
400297600.0 -0.1133629092 0.1337346566 0.3758176025 -0.4149617731 0.3759108437 -0.4145683691 -0.1009941268 0.1488832367
405297570.0 -0.1123412913 0.1346508221 0.3713393042 -0.4186451251 0.3717455442 -0.4186173354 -0.0994762684 0.1501774387
410297540.0 -0.1108623406 0.136169046 0.3665665458 -0.4230194893 0.3668989201 -0.4225565507 -0.098058084 0.1514739886
415297510.0 -0.1098119911 0.1373507368 0.3617751888 -0.4269307971 0.3628094661 -0.4266969946 -0.0963661383 0.1527167627
420297480.0 -0.1087037935 0.1381475401 0.3572457144 -0.4304573117 0.3574803093 -0.4309016214 -0.094164101 0.1539004299
425297450.0 -0.1069950158 0.1394377018 0.3532149078 -0.4344282791 0.3524391849 -0.4342852072 -0.0926967714 0.1545800202
430297420.0 -0.106202028 0.140636065 0.3482938626 -0.43835324 0.3485393291 -0.4378590264 -0.0909866987 0.1563896711
435297390.0 -0.1049268504 0.1418120635 0.343032628 -0.4426841957 0.3431391103 -0.4421181774 -0.0896508013 0.1577464446
440297360.0 -0.1032407088 0.1427233511 0.3381201984 -0.4460926084 0.3380202518 -0.4457367104 -0.0878737497 0.1585441203
445297330.0 -0.1018422081 0.1434456765 0.3337399979 -0.4494418098 0.3334026358 -0.4495933416 -0.0857584076 0.1596884894
450297300.0 -0.1005893234 0.144723538 0.3287841589 -0.4528036176 0.3285175207 -0.4529924802 -0.0839185757 0.1608866943
455297270.0 -0.0996165472 0.1460124934 0.3235380454 -0.4568883991 0.3236622834 -0.4566967531 -0.0821331543 0.1618635306
460297240.0 -0.0976118511 0.1471734297 0.3186078245 -0.460885082 0.3184750872 -0.4601649308 -0.0805734842 0.1626874567
465297210.0 -0.0963620343 0.1478968707 0.3132416965 -0.4639898505 0.3129881165 -0.4639139061 -0.0787184111 0.1646604065
470297180.0 -0.0951242722 0.1487526838 0.3083161537 -0.4665985727 0.3084020977 -0.4668139176 -0.0766828557 0.1651288729
475297150.0 -0.0939156761 0.1502032782 0.3029492886 -0.4706314801 0.3033915453 -0.4705814409 -0.0749728253 0.1658700595
480297120.0 -0.0917588601 0.1513743196 0.2978122746 -0.4737908051 0.2981744286 -0.4736339839 -0.0735063066 0.1670002366
485297090.0 -0.0905109426 0.1517967204 0.2924109482 -0.4771358753 0.2927751749 -0.4768438378 -0.0714039258 0.1682683523
490297060.0 -0.0884235739 0.1530989537 0.2873029073 -0.4799583301 0.2875542524 -0.4804021377 -0.0696632828 0.1687891468
495297030.0 -0.0873480471 0.1537590736 0.2825411313 -0.4829775247 0.2823735071 -0.4830984402 -0.0674534804 0.1698198894
500297000.0 -0.0860133973 0.1548527173 0.2770050902 -0.4859826601 0.277203787 -0.4863633758 -0.0656446402 0.1707391461
505296970.0 -0.0841210026 0.1558625313 0.2715343045 -0.489141855 0.2716833927 -0.488885804 -0.0634898593 0.1710740219
510296940.0 -0.0826378773 0.1567115379 0.2666504464 -0.4924071646 0.2667999049 -0.492504098 -0.0614031562 0.1724574903
515296910.0 -0.0812597154 0.1580579002 0.2608111456 -0.4949448494 0.2606781294 -0.4949294754 -0.0598743354 0.172706219
520296880.0 -0.0797397303 0.158533259 0.2556573979 -0.497633788 0.2553259858 -0.4977012977 -0.0574437884 0.1742755241
525296850.0 -0.0776203749 0.1594752133 0.2500196986 -0.5005357862 0.2496985675 -0.5002609477 -0.0553642814 0.1746999501
530296820.0 -0.0765874387 0.1602932262 0.2442354584 -0.5032419524 0.2443624235 -0.5030646093 -0.0537219558 0.1751987987
535296790.0 -0.0742422915 0.1612004897 0.2389733553 -0.5055536247 0.23901754 -0.5056927494 -0.0512401444 0.1761350762
540296760.0 -0.0729551027 0.1621948311 0.2331913054 -0.508480625 0.2330992453 -0.5083740019 -0.0494777052 0.1767260997
545296730.0 -0.0717115271 0.1632799364 0.2277582817 -0.5106248369 0.227936468 -0.5105501469 -0.0475559855 0.1774334331
550296700.0 -0.0695761734 0.1639499801 0.2226894278 -0.5130402672 0.221727029 -0.5135128312 -0.0453714102 0.1782774254
555296670.0 -0.0679307486 0.1648477453 0.2165957696 -0.5159720123 0.21664145 -0.5157275633 -0.043600408 0.1784131929
560296640.0 -0.0658218695 0.1654451462 0.2108252319 -0.5177798217 0.2111920187 -0.5178628588 -0.041639553 0.1794918628
565296610.0 -0.0645167952 0.1665294868 0.205574667 -0.5199501157 0.2056078908 -0.5197742379 -0.0392288282 0.1801226047
570296580.0 -0.063126317 0.1673822178 0.1994403811 -0.5223019532 0.1998767301 -0.521976548 -0.037868505 0.18028429
575296550.0 -0.0609112339 0.1678702389 0.1940093807 -0.5245824233 0.1940739863 -0.524492154 -0.0355536323 0.180948086
580296520.0 -0.0594125893 0.1691252783 0.1884382618 -0.526257286 0.1884205517 -0.5264891827 -0.0337743029 0.1816227358
585296490.0 -0.057560527 0.1696434304 0.1826818452 -0.5284725077 0.182600984 -0.5284441916 -0.031138402 0.1821600128
590296460.0 -0.055284966 0.1704564092 0.1770739754 -0.5303800509 0.1769779833 -0.5307879099 -0.029553917 0.1824312638
595296430.0 -0.0540478974 0.1713149467 0.1707731778 -0.5322650922 0.1706744864 -0.5323549891 -0.0274629784 0.183015342
600296400.0 -0.051979177 0.1720034095 0.1649921626 -0.5336770129 0.1653074254 -0.533742662 -0.0252219292 0.1833048445
605296370.0 -0.0508263235 0.1727744291 0.1600658974 -0.5353870273 0.1594323498 -0.5358860284 -0.0233466457 0.1837152792
610296340.0 -0.0486694971 0.1738745389 0.1539725107 -0.5367652368 0.1540523229 -0.5372978498 -0.0213567593 0.1843329938
615296310.0 -0.0468241967 0.1742373879 0.1479988591 -0.5392638017 0.1473832497 -0.5391575788 -0.0189360283 0.1848532105
620296280.0 -0.0455243113 0.1754359239 0.141943819 -0.5406584152 0.141844613 -0.5403037322 -0.0172270385 0.185229332
625296250.0 -0.0437768013 0.1757065207 0.1356648181 -0.5420724791 0.1362093938 -0.5422160766 -0.0155824717 0.1850580353
630296220.0 -0.0420009932 0.1762412208 0.1296220209 -0.5434365441 0.1297635152 -0.543258344 -0.0130246496 0.1856856273
635296190.0 -0.0403081301 0.1773907636 0.1245510645 -0.544738582 0.124078061 -0.5446000854 -0.0110049058 0.1859221736
640296160.0 -0.0381727046 0.177826272 0.1182557847 -0.5460853589 0.1181784943 -0.5458456718 -0.0090225375 0.1859639859
645296130.0 -0.0361585014 0.1786427099 0.1123135793 -0.5470215789 0.1120989675 -0.5469092608 -0.0070663638 0.1859193465
650296100.0 -0.0347248546 0.1789370776 0.1063596476 -0.5485907162 0.1060703867 -0.5484835976 -0.0042873473 0.1865474479
655296070.0 -0.0330510457 0.1794148643 0.1003428956 -0.5494518038 0.1005429758 -0.5493263401 -0.0032052318 0.1870203868
660296040.0 -0.0313126361 0.1801179542 0.0946803805 -0.5503931117 0.0946193483 -0.5505570959 -0.0007387703 0.1866802985
665296010.0 -0.0295720932 0.1808760774 0.0883587095 -0.5510761725 0.0883218752 -0.5512969431 0.0013730064 0.1869344702
670295980.0 -0.0275221242 0.1815161437 0.082731293 -0.552600325 0.0827572206 -0.5517006705 0.0031488034 0.1870570866
675295950.0 -0.0256731708 0.1819841475 0.0764750517 -0.5530120586 0.0764495646 -0.5532711232 0.0054812875 0.18725356
680295920.0 -0.0243954723 0.1824041656 0.0709120336 -0.5533941313 0.0707181797 -0.5538616917 0.0075254224 0.1871031305
685295890.0 -0.0223969477 0.1832868902 0.0646602824 -0.5545994716 0.0645570032 -0.5545586187 0.0098803451 0.1875209933
690295860.0 -0.0208510952 0.1835662263 0.0586206152 -0.5552200648 0.0584992763 -0.5552382896 0.0118937665 0.1874104022
695295830.0 -0.0187872995 0.1838746894 0.0528858097 -0.5553859433 0.0526535945 -0.5556387539 0.013667412 0.1874831769
700295800.0 -0.0169620938 0.1848041985 0.0473478805 -0.5561291498 0.0470627586 -0.5562452787 0.0158151412 0.1872861572
705295770.0 -0.0153774593 0.1848309295 0.0411192 -0.5570818866 0.0408128989 -0.5567113914 0.0178733666 0.1879308915
710295740.0 -0.0139076937 0.1850939798 0.0347655073 -0.5568304015 0.0343722918 -0.5573001513 0.0202480621 0.1876749156
715295710.0 -0.0118172694 0.1859147859 0.0286746793 -0.5573515167 0.0289183072 -0.5577284784 0.0220191374 0.1871641661
720295680.0 -0.0098795148 0.1859341219 0.0226612796 -0.5571625936 0.0226674954 -0.5578936464 0.0243104446 0.1870149014
725295650.0 -0.0085857565 0.1866792897 0.016928798 -0.5579684194 0.0168233073 -0.5576325436 0.026227838 0.1873875765
730295620.0 -0.0070297723 0.1866010691 0.0109872845 -0.5577790186 0.0106101776 -0.5575342124 0.0280101374 0.1874047267
735295590.0 -0.0050322489 0.1873731227 0.0050071242 -0.5581191725 0.0045144657 -0.5583158712 0.0303563299 0.1869623677
740295560.0 -0.003715355 0.1871906338 -0.0008729773 -0.5579768886 -0.0009436519 -0.558413461 0.0319261574 0.1868031425
745295530.0 -0.0014867111 0.1875116466 -0.0069363972 -0.5569802493 -0.0065494032 -0.5580016719 0.033877275 0.1867345735
750295500.0 -1.24343e-05 0.1878429411 -0.0129456256 -0.5576858349 -0.0129744409 -0.5573119488 0.0360132592 0.1860421247
755295470.0 0.0015386054 0.1883430532 -0.0184931932 -0.5581022838 -0.0188917745 -0.5580345764 0.0382241272 0.1867545333
760295440.0 0.0035376341 0.188684152 -0.0256818189 -0.5573307183 -0.0253191109 -0.5568115615 0.0405683571 0.185675842
765295410.0 0.0053159921 0.1883955514 -0.0307829572 -0.5566984473 -0.0305937887 -0.5570883621 0.0422116845 0.1856482182
770295380.0 0.0069730054 0.1891182836 -0.0367599032 -0.556182563 -0.036807047 -0.5570394364 0.0442028113 0.1854351506
775295350.0 0.0085768957 0.1887873589 -0.0426779906 -0.5560483545 -0.0427047664 -0.5555858993 0.0464641121 0.1851745077
780295320.0 0.0102951052 0.1895492101 -0.0486739252 -0.5556098402 -0.0488284767 -0.5554148523 0.0487910065 0.1847063912
785295290.0 0.012161749 0.1892199793 -0.054907598 -0.5549351111 -0.0546418279 -0.5552905305 0.0501598692 0.1845392471
790295260.0 0.0138746626 0.1892244868 -0.0605056541 -0.5542104818 -0.0607451786 -0.5548374629 0.0522621645 0.1845987597
795295230.0 0.015480973 0.1891282767 -0.0665529551 -0.5539114552 -0.0663452514 -0.5537396448 0.0544075439 0.1831903836
800295200.0 0.0173240209 0.1896904483 -0.0721205616 -0.5522448542 -0.0727348059 -0.5528669788 0.0558914501 0.1829273012
805295170.0 0.0188487089 0.1895155761 -0.0780454889 -0.5521921608 -0.0782773083 -0.5523273486 0.0588256891 0.1830067966
810295140.0 0.020619968 0.1896815576 -0.084049612 -0.5513151167 -0.0845429364 -0.5512323717 0.0604049842 0.1821114114
815295110.0 0.0223207336 0.1896849911 -0.0899875594 -0.55049979 -0.0899672477 -0.5504817235 0.0624764189 0.1816993467
820295080.0 0.0241468342 0.1895026836 -0.095761628 -0.5489849683 -0.0959483365 -0.5494194482 0.0636372929 0.1818025062
825295050.0 0.0256970576 0.189454578 -0.101890794 -0.5480680542 -0.1021992983 -0.5483096851 0.0664875436 0.1810710382
830295020.0 0.0273688851 0.1892843793 -0.1077428486 -0.5467399442 -0.1076352726 -0.5472045319 0.0683753713 0.180123394
