!Created with skrf (http://scikit-rf.org).
# Hz S RI R 50.0 
!freq ReS11 ImS11 ReS21 ImS21 ReS12 ImS12 ReS22 ImS22
300000.0 -0.3151430163 -0.133693398 0.3730722669 0.0670040156 0.3725638762 0.0643307527 -0.316484944 -0.1313099107
5299970.0 -0.3248704397 0.0026637899 0.3783499653 0.0033046254 0.3786965614 0.0033077535 -0.3257679746 0.0020689912
10299940.0 -0.3222516555 0.0140158062 0.3798428847 0.0030594703 0.380021586 0.0028659437 -0.3231886667 0.0124993293
15299910.0 -0.3188332117 0.0225000058 0.3819879131 0.0026293351 0.3822656758 0.002594962 -0.3203516742 0.0198983886
20299880.0 -0.3155679672 0.028832798 0.3850815585 0.0016590542 0.3851226805 0.0020839656 -0.3176869078 0.0260109761
25299850.0 -0.3115215268 0.0346278243 0.3884216975 0.0006349317 0.3887882903 0.0002933968 -0.314513929 0.031286753
30299820.0 -0.308127382 0.0393082509 0.3921977579 -0.0019214591 0.3921945427 -0.0020564734 -0.3118232987 0.0357739979
35299790.0 -0.3042992682 0.0435656903 0.3948242917 -0.0051982244 0.3954574459 -0.0052773727 -0.3090702354 0.0400393586
40299760.0 -0.3013177584 0.0468937173 0.3983215941 -0.0085892903 0.3987345145 -0.0088772164 -0.3061643488 0.0431993246
45299730.0 -0.2981704649 0.0499930933 0.4010243363 -0.0124316888 0.4014788872 -0.012495676 -0.3036442084 0.0466758761
50299700.0 -0.2948245994 0.0528507469 0.403391694 -0.0170701282 0.4038101856 -0.0173632382 -0.3010774329 0.0497859434
55299670.0 -0.2923859807 0.055390107 0.4059469803 -0.0213046438 0.4061915284 -0.0217566742 -0.2992724799 0.0522712143
60299640.0 -0.2895675482 0.0577351982 0.4078851045 -0.0268192439 0.4076750768 -0.0271437522 -0.2969466021 0.0547446313
65299610.0 -0.2875048344 0.0600778369 0.4095740226 -0.0314992138 0.4097067709 -0.0314733383 -0.2948907716 0.0575623836
70299580.0 -0.2855015443 0.0623150829 0.4107951133 -0.0365231 0.4109386381 -0.0367155725 -0.2937609084 0.0596604057
75299550.0 -0.2834409997 0.0642057033 0.4115294172 -0.042240428 0.4120274898 -0.0420362117 -0.2917554833 0.0622302733
80299520.0 -0.281605434 0.0664386334 0.4127044265 -0.0472820313 0.4128906949 -0.0471232803 -0.2901649021 0.0647228365
85299490.0 -0.2799765529 0.0684090342 0.4132210673 -0.0526735416 0.413577059 -0.0522639931 -0.2889903327 0.0672095741
90299460.0 -0.2781982482 0.0705961378 0.4136702989 -0.0577414687 0.4137609582 -0.0579905466 -0.2876538229 0.0691979613
95299430.0 -0.2768897224 0.0727888493 0.4139291647 -0.0629788227 0.414226753 -0.0631350504 -0.2863904355 0.0718067891
100299400.0 -0.2754022869 0.0747037115 0.4143343476 -0.0681489159 0.4142942715 -0.0683845201 -0.2853241864 0.0745401737
105299370.0 -0.2739490339 0.0766138949 0.4138991424 -0.0730111376 0.4144133357 -0.0731829684 -0.2837321296 0.0764181172
110299340.0 -0.2728513731 0.0785925076 0.4137911013 -0.0779717806 0.4140686362 -0.0784812539 -0.283154945 0.0787316341
115299310.0 -0.2714706563 0.0809128935 0.4133792694 -0.0831751238 0.413371121 -0.0835009467 -0.2820072313 0.0812745533
120299280.0 -0.2704662358 0.0834329338 0.4133490615 -0.0889169208 0.4129859385 -0.0890551586 -0.280907758 0.0830722958
125299250.0 -0.2691350609 0.0851229194 0.4123304009 -0.0939571028 0.4124829095 -0.0936589586 -0.2796982357 0.0858795035
130299220.0 -0.2682999225 0.0874228664 0.4119047724 -0.0989748549 0.4120691176 -0.0993858959 -0.2788808514 0.0883060294
135299190.0 -0.2671796463 0.0898273596 0.4112246503 -0.1037458391 0.411491313 -0.1044740927 -0.2780697246 0.0908045633
140299160.0 -0.2662833673 0.0920422697 0.4102254875 -0.1092093386 0.4102952419 -0.1087635591 -0.2775508563 0.0930788577
145299130.0 -0.2652202084 0.0946975449 0.4091447675 -0.1138874964 0.4095691367 -0.1141263349 -0.276259828 0.0957150568
150299100.0 -0.2640111368 0.0970075522 0.4081515832 -0.1189481287 0.4085968974 -0.1190051537 -0.2756419773 0.0986329211
155299070.0 -0.2632664895 0.0994052703 0.4069747002 -0.1234402389 0.40733766 -0.1238774684 -0.2746344831 0.1009022141
160299040.0 -0.2620185734 0.1018555185 0.4060579421 -0.1285812203 0.4060680751 -0.1290990675 -0.2738904866 0.1040047949
165299010.0 -0.261168865 0.1044437365 0.4049050043 -0.1331807393 0.4048074433 -0.1337444101 -0.2725382728 0.1060832513
170298980.0 -0.2602153942 0.1067314454 0.4034803955 -0.138404256 0.4035510244 -0.1384679294 -0.2716944846 0.1089542892
175298950.0 -0.2592919642 0.1091593462 0.4024282647 -0.1427669371 0.4024144772 -0.1434145555 -0.2707716052 0.1115419826
180298920.0 -0.2582721059 0.1118825869 0.400638794 -0.1479969593 0.4010298483 -0.1479375931 -0.2697031096 0.1141458676
185298890.0 -0.2571070071 0.1144794908 0.3993667231 -0.1526884591 0.3991233689 -0.1525359285 -0.2686434512 0.11654159
190298860.0 -0.2561763451 0.1172438952 0.3972873224 -0.1572123247 0.397942508 -0.1570813077 -0.2677960234 0.1194816107
195298830.0 -0.2549274051 0.1196680408 0.3960517737 -0.1617958202 0.3961443376 -0.1619103863 -0.2669150909 0.1219504209
200298800.0 -0.2535131529 0.1218207412 0.3944831901 -0.1666436004 0.3944551558 -0.1667006824 -0.2654920033 0.1247491367
205298770.0 -0.2527219152 0.124744082 0.3923302028 -0.1710012144 0.3924116314 -0.1709542428 -0.2644037443 0.1274619598
210298740.0 -0.2515734519 0.1274417678 0.3903233171 -0.1755586239 0.3904366042 -0.1758208849 -0.2633283173 0.1300076724
215298710.0 -0.2503566046 0.1301266017 0.3885611698 -0.1799854598 0.3889889878 -0.1803967359 -0.2624087589 0.1327120288
220298680.0 -0.2488298654 0.1327404742 0.38660798 -0.1848874532 0.3864177141 -0.1847683566 -0.2611049168 0.1353509954
225298650.0 -0.2478052788 0.1350596597 0.3844947054 -0.1887284758 0.3848547752 -0.1887455141 -0.2597322572 0.1380635828
230298620.0 -0.2464878365 0.1379423971 0.3824958715 -0.1935884309 0.3828575172 -0.1935267804 -0.2587893901 0.1404191713
235298590.0 -0.2456521151 0.1407317648 0.3807703115 -0.198185379 0.3806871458 -0.197871886 -0.2572744446 0.1436383357
240298560.0 -0.2440463749 0.1432584798 0.3782363217 -0.201918277 0.3783330155 -0.2021562802 -0.2560178079 0.1458782112
245298530.0 -0.242889287 0.1456091237 0.3764687975 -0.2065807889 0.3763353215 -0.2067164908 -0.254578395 0.1487433526
250298500.0 -0.2414657953 0.1484100522 0.3736435672 -0.2108811576 0.374096487 -0.2107629169 -0.2534204617 0.1514926687
255298470.0 -0.2399890658 0.1513894084 0.3717531491 -0.2148612165 0.3719827276 -0.2150451155 -0.2520787559 0.1540834949
260298440.0 -0.2385980972 0.153293714 0.3691537599 -0.2185447249 0.3696669339 -0.2191004112 -0.2505743628 0.1566971199
265298410.0 -0.2374823521 0.1562697076 0.3668205697 -0.2234925668 0.3667721949 -0.2235621133 -0.2486953002 0.1594083173
270298380.0 -0.2360522054 0.1586259269 0.364318889 -0.2273608237 0.3644600448 -0.2275295611 -0.2472289264 0.1623868126
275298350.0 -0.2344615953 0.1614984413 0.3618388151 -0.2313830529 0.3618641639 -0.2314989955 -0.2457252193 0.165048739
280298320.0 -0.2331541517 0.1640624597 0.3595914653 -0.2352556861 0.3596796066 -0.235575316 -0.2441692135 0.1676525259
285298290.0 -0.2314680699 0.1667872024 0.3564038329 -0.2396406164 0.3571639941 -0.2396761437 -0.2429182267 0.170365457
290298260.0 -0.2300668508 0.1692213427 0.3544333945 -0.2438409801 0.3543587352 -0.2437033679 -0.2409403369 0.172902878
295298230.0 -0.2282444212 0.171499458 0.3513053561 -0.2475696426 0.3516753728 -0.2478987122 -0.2394222255 0.1751974616
300298200.0 -0.2266293835 0.1742690698 0.3486304857 -0.251733008 0.349066534 -0.2518174994 -0.237438615 0.1781592777
305298170.0 -0.225137775 0.1764754811 0.3463696989 -0.2556273035 0.3466684648 -0.2557893662 -0.2358369528 0.180511877
310298140.0 -0.2231962688 0.178848964 0.3430633608 -0.2593833403 0.3434552052 -0.2592111736 -0.2333544137 0.182951243
315298110.0 -0.2217874559 0.1814070225 0.340714135 -0.263876648 0.3406162036 -0.2636878624 -0.2317108196 0.1855009062
320298080.0 -0.2201445451 0.1838924035 0.3372668794 -0.2672708474 0.3381121293 -0.2672865681 -0.2305992905 0.1879813603
325298050.0 -0.2186546879 0.1856551664 0.3344890018 -0.2709802564 0.3350668767 -0.2709421354 -0.2281634789 0.1900761435
330298020.0 -0.2171494353 0.1884176339 0.3312278339 -0.2748706835 0.3317409924 -0.2751431265 -0.2266793147 0.1930834735
335297990.0 -0.2153099693 0.1906909916 0.3283641771 -0.2786219269 0.3281861697 -0.2786205602 -0.2245123156 0.1953853297
340297960.0 -0.213614516 0.1931536493 0.3249558355 -0.2822232733 0.3249209335 -0.282487377 -0.2230138536 0.1979877881
345297930.0 -0.2117995752 0.1957708573 0.3217079492 -0.2862558556 0.3219755828 -0.2857152229 -0.2213102402 0.2001551927
350297900.0 -0.2100701946 0.1980467765 0.3186788534 -0.2894302839 0.3191547428 -0.2890316289 -0.2194364857 0.2028476264
355297870.0 -0.2081738443 0.2001918907 0.3153902241 -0.2923169023 0.3155680183 -0.2927641455 -0.2167062368 0.2057163561
360297840.0 -0.2062212258 0.2026768363 0.3119324716 -0.2960828381 0.3123278129 -0.2967260836 -0.214701078 0.2079275087
365297810.0 -0.2044453266 0.2051118851 0.3089438652 -0.2996689029 0.3090935075 -0.2998912414 -0.2134788941 0.2100712639
370297780.0 -0.2023619778 0.2073624346 0.3051315588 -0.3033466098 0.3057012193 -0.3030993883 -0.2109599055 0.2128500318
375297750.0 -0.2006690722 0.2097240983 0.3024330196 -0.3061215552 0.302386075 -0.3062388665 -0.20889559 0.2150464824
380297720.0 -0.1987744224 0.2118146583 0.2991400292 -0.309851831 0.2988358969 -0.3100450676 -0.2065307157 0.2176531314
385297690.0 -0.1966430367 0.2140777556 0.2951776013 -0.3128815273 0.2953757166 -0.3131118679 -0.2041602407 0.2199242805
390297660.0 -0.1941324456 0.216229261 0.2921584584 -0.3160076082 0.2921823535 -0.3161890882 -0.2020556417 0.2220278215
395297630.0 -0.1917677593 0.2183849901 0.2884953842 -0.3190407766 0.2888152386 -0.3191786596 -0.1998390853 0.2242539387
400297600.0 -0.1900110738 0.2208807253 0.2852342366 -0.3227757051 0.2851329005 -0.3225837022 -0.1974797407 0.2267105966
405297570.0 -0.1880897787 0.222340258 0.2817212362 -0.3253958478 0.2815214221 -0.3256351333 -0.1949990533 0.2290767652
410297540.0 -0.1854461247 0.2248714313 0.2777548668 -0.3287530401 0.2779366683 -0.3285143315 -0.1928808955 0.2311757157
415297510.0 -0.18349898 0.2270642912 0.2740916635 -0.3317367449 0.2744404795 -0.3317280757 -0.1904239907 0.2333316436
420297480.0 -0.1813245171 0.2285725861 0.2704886459 -0.3347512589 0.2708900753 -0.3348329698 -0.1877872055 0.2360561884
425297450.0 -0.1785528219 0.2309034852 0.2666055458 -0.3374518218 0.2667271484 -0.3376246121 -0.1855063194 0.2378188208
430297420.0 -0.1765484276 0.2325725862 0.2634112039 -0.3406307944 0.2632384983 -0.340363149 -0.1826634839 0.2400504461
435297390.0 -0.1741317882 0.2348168588 0.2591962704 -0.3437868745 0.2591901363 -0.3434811443 -0.1807037174 0.2425331301
440297360.0 -0.1714164978 0.2364006272 0.2552863167 -0.3461245215 0.2554810597 -0.3464150684 -0.178201825 0.2443798709
445297330.0 -0.168982076 0.2379833582 0.2515374051 -0.3487150039 0.2517398733 -0.3491428128 -0.1750919036 0.2462963526
450297300.0 -0.1665715714 0.2402939544 0.2478955234 -0.3514687666 0.2482040576 -0.3517177941 -0.1728064453 0.2486101993
455297270.0 -0.1644439473 0.242217588 0.2441695458 -0.3543374211 0.244237339 -0.3545163771 -0.1700297997 0.2503635561
460297240.0 -0.1615920145 0.243947997 0.2401726936 -0.3574455618 0.2400587571 -0.357380939 -0.1676082561 0.2523811389
465297210.0 -0.1590276196 0.2458163883 0.235931331 -0.3598677215 0.2359121113 -0.3602709143 -0.1645150721 0.2548573456
470297180.0 -0.1565785117 0.2473954348 0.2320842577 -0.3616353863 0.2321912003 -0.3622876836 -0.1622657187 0.2561485835
475297150.0 -0.1540918849 0.2494261213 0.2282094034 -0.3644230403 0.2281990817 -0.3647691446 -0.1593724164 0.2579128328
480297120.0 -0.151342733 0.2513465926 0.2242220996 -0.3674415958 0.2241728344 -0.3669344997 -0.1571219426 0.2601749635
485297090.0 -0.1483867054 0.2525650141 0.2198503912 -0.3693470793 0.2201325028 -0.3694213726 -0.1542211972 0.2616932092
490297060.0 -0.1452159234 0.2545371531 0.2153120587 -0.3721411152 0.2158850661 -0.3719445299 -0.151371834 0.263044438
495297030.0 -0.1431147064 0.2559909148 0.2119962495 -0.3742224763 0.2120085717 -0.3743158813 -0.1487036997 0.264873068
500297000.0 -0.1401549129 0.2576890917 0.2076435487 -0.3762385989 0.2080059569 -0.3765158814 -0.1457580073 0.2666509982
505296970.0 -0.136949207 0.259387085 0.2037195811 -0.3787217449 0.2035856865 -0.378564609 -0.1428310184 0.2680357375
510296940.0 -0.1344812559 0.260875177 0.1994320213 -0.3815190154 0.1996462937 -0.381173742 -0.1396725362 0.2701675167
515296910.0 -0.1318348441 0.2627255369 0.1951881253 -0.3831205374 0.1947833664 -0.3828730351 -0.1372089732 0.2712030264
520296880.0 -0.1289647142 0.2638666633 0.1910921428 -0.3849606245 0.1907650977 -0.3850901888 -0.1340297335 0.2735819507
525296850.0 -0.1259951873 0.2655124079 0.1865112938 -0.3872366648 0.1865919247 -0.3869108483 -0.1313242026 0.2749219288
530296820.0 -0.1234402737 0.2670488176 0.1821522467 -0.3890851167 0.1824256956 -0.3889128908 -0.1283068732 0.2759752685
535296790.0 -0.1201044066 0.2685121619 0.1781137576 -0.3910097434 0.1780652811 -0.3912294827 -0.1252914011 0.2782420604
540296760.0 -0.1171562071 0.269984974 0.1738888508 -0.3929003139 0.1736761046 -0.3924846948 -0.1223777069 0.2790942627
545296730.0 -0.1146372777 0.2718640201 0.1696079489 -0.3945128795 0.1693761482 -0.3947360086 -0.1196539808 0.2807524728
550296700.0 -0.1111306038 0.272845857 0.1651055011 -0.3966502394 0.1650727535 -0.3966136636 -0.1163963111 0.2821150733
555296670.0 -0.108439429 0.2741274123 0.1607824156 -0.3982668539 0.1608125539 -0.3980731889 -0.1137661969 0.2831922942
560296640.0 -0.1049304115 0.27516401 0.156101886 -0.3999315926 0.1566704584 -0.3999815967 -0.1103485997 0.2850056251
565296610.0 -0.1026017217 0.2769259338 0.152497155 -0.4016226765 0.1520410947 -0.4013206183 -0.1076852838 0.2860833629
570296580.0 -0.0995879288 0.2784036898 0.1476624751 -0.4035180998 0.1476364207 -0.4031001648 -0.1046039344 0.2872222561
575296550.0 -0.0963404602 0.279346599 0.143486666 -0.4048236089 0.1430556087 -0.4046115589 -0.1013732548 0.2886098047
580296520.0 -0.0932408358 0.2807619035 0.1387422341 -0.4063886183 0.1388344973 -0.4064613175 -0.0988032716 0.2896267941
585296490.0 -0.0902404283 0.2818771201 0.1347334663 -0.407660648 0.1339568133 -0.4077232964 -0.0951331993 0.2908835795
590296460.0 -0.0865837745 0.2830654377 0.1298108934 -0.409248519 0.1299908355 -0.4094152963 -0.092303096 0.2918017053
595296430.0 -0.0838876833 0.283985134 0.1250336145 -0.4101766259 0.1252668204 -0.4103315358 -0.0892396535 0.2927958571
600296400.0 -0.0809128093 0.2848945509 0.1207269259 -0.4114398875 0.1204560684 -0.4116552819 -0.0860165025 0.294000264
605296370.0 -0.07796205 0.2864040521 0.1169410868 -0.4130063005 0.1163217082 -0.4131517731 -0.0829555293 0.2954888224
610296340.0 -0.0746357525 0.2875030834 0.1122639972 -0.4134912537 0.1122328549 -0.4139974962 -0.0801464829 0.2962985391
615296310.0 -0.0713184632 0.2882840791 0.1075069874 -0.4153967589 0.1071319742 -0.4154884891 -0.0766019791 0.2972449876
620296280.0 -0.0684716855 0.2898795179 0.1028276755 -0.4164623923 0.1027603828 -0.4163895087 -0.0739189596 0.2982153097
625296250.0 -0.0653553774 0.2905148684 0.0981934891 -0.4176879914 0.0981023738 -0.4174820082 -0.0706440611 0.2989524197
630296220.0 -0.0620916111 0.2914894119 0.0935119491 -0.4185730209 0.0932710032 -0.4184875772 -0.0673338598 0.3000902699
635296190.0 -0.059245268 0.2925225566 0.0896050366 -0.4192073663 0.0889981405 -0.4193787342 -0.0644901982 0.300753785
640296160.0 -0.0560247261 0.2931228129 0.0847330534 -0.4205004474 0.0842025469 -0.4206695169 -0.061336215 0.3014417869
645296130.0 -0.0525783982 0.2944919538 0.0800568485 -0.421162079 0.0798216335 -0.4212592539 -0.0579963551 0.3022258905
650296100.0 -0.0496252702 0.2949513082 0.0754031388 -0.422114193 0.0752550109 -0.422246184 -0.0545065203 0.3030636823
655296070.0 -0.0465921744 0.2957326101 0.0707409311 -0.4230311894 0.0706943559 -0.4225514374 -0.0517085498 0.3039268445
660296040.0 -0.0434704722 0.2963404922 0.0662457224 -0.4235686375 0.0659495807 -0.4234653497 -0.0482026044 0.3041540383
665296010.0 -0.0403948619 0.2973340059 0.0613631991 -0.4237531012 0.0614580421 -0.4239713453 -0.045118688 0.3050779556
670295980.0 -0.0372236804 0.298130995 0.0570219571 -0.4245308994 0.0565861124 -0.4241347354 -0.0420148912 0.3055896948
675295950.0 -0.0340162626 0.2984614362 0.0524065079 -0.4249337296 0.0523513543 -0.4252297868 -0.0388635 0.3062128966
680295920.0 -0.0313150236 0.2994006766 0.0477916841 -0.4252737349 0.0476359603 -0.4255334582 -0.0353171426 0.3064013604
685295890.0 -0.0279757584 0.299916782 0.0430830693 -0.4261946177 0.0431185506 -0.4262372651 -0.0319924804 0.3073213805
690295860.0 -0.0247772432 0.3003382607 0.0382151081 -0.4263313517 0.0383720349 -0.4268722737 -0.0290408088 0.3081323321
695295830.0 -0.0214415681 0.3008225906 0.0340739116 -0.4268626762 0.0339142177 -0.4267534364 -0.0257296644 0.3083297867
700295800.0 -0.0180998924 0.3016286481 0.0293218063 -0.4270140327 0.0289082753 -0.4272094669 -0.0223478516 0.3086636756
705295770.0 -0.0156419751 0.3020201268 0.0247267544 -0.4275753803 0.0246810465 -0.4269887542 -0.0193015811 0.3089234093
710295740.0 -0.0125140769 0.3023624553 0.0203369445 -0.4274819454 0.0198521712 -0.4279519535 -0.0159573753 0.3096877371
715295710.0 -0.0093547632 0.302930483 0.0157588554 -0.4278447312 0.0153712869 -0.4279365579 -0.0129430423 0.3095239999
720295680.0 -0.0058337392 0.3029827579 0.0108684917 -0.427712143 0.0106896209 -0.4282918658 -0.0094279024 0.3098232835
725295650.0 -0.0030638437 0.3037049691 0.0066153182 -0.4279557705 0.0058741099 -0.4278870793 -0.0064181703 0.3103604057
730295620.0 -0.0001504738 0.3042477208 0.0015780437 -0.4277722761 0.0014779153 -0.4276873674 -0.0032456037 0.3108337786
735295590.0 0.0033282083 0.3045640774 -0.0031136267 -0.4278691794 -0.003371401 -0.4280766154 2.74373e-05 0.3107516987
740295560.0 0.0058024775 0.3040720037 -0.0075959092 -0.4279615791 -0.0074290077 -0.4280270137 0.0032798967 0.3109275932
745295530.0 0.0093792231 0.3046300753 -0.011958408 -0.4275539955 -0.0116271347 -0.4278617359 0.0061170707 0.311117964
750295500.0 0.0120317662 0.3044494684 -0.0164980114 -0.4272509938 -0.0170370612 -0.4272898083 0.0098167906 0.3110206128
755295470.0 0.014962426 0.3047928125 -0.0209219757 -0.4276312925 -0.0213951705 -0.4279100646 0.013095744 0.3116131231
760295440.0 0.018169432 0.3053416804 -0.0263566508 -0.4271810445 -0.026153757 -0.4266479109 0.0164356652 0.3105104826
765295410.0 0.0215465975 0.3046367807 -0.0308616884 -0.4263719442 -0.0306687362 -0.4266267217 0.0198468365 0.3112400663
770295380.0 0.0242801937 0.3052913776 -0.0348408939 -0.4261688347 -0.0350585236 -0.4265284776 0.0226307197 0.3110877061
775295350.0 0.0272263921 0.304999062 -0.0394701214 -0.4257150603 -0.0396732696 -0.4255936763 0.0261662241 0.3109705767
780295320.0 0.0306804149 0.3051867199 -0.0439328278 -0.4250995433 -0.0443426341 -0.4250755149 0.0294950704 0.3107963122
785295290.0 0.0337259514 0.3045007713 -0.0491274774 -0.4247489879 -0.0488221421 -0.4250170483 0.0324595001 0.3108215675
790295260.0 0.036447449 0.3043249736 -0.0530960735 -0.4242045652 -0.0532465208 -0.4244242388 0.0356955122 0.3105742553
795295230.0 0.0398213861 0.3044488587 -0.0580110201 -0.4236482715 -0.0578687684 -0.4234107579 0.0388609933 0.3097137671
800295200.0 0.0425537026 0.3042017503 -0.0617574682 -0.4226830574 -0.0622923393 -0.4231576594 0.0420990303 0.3099066948
805295170.0 0.0453262203 0.3039514912 -0.0670946905 -0.4220503971 -0.0670177694 -0.4224778719 0.0457278372 0.3096579215
810295140.0 0.0490591847 0.3036921832 -0.0714546447 -0.4215208544 -0.0714571082 -0.4213781243 0.0488516589 0.3090764101
815295110.0 0.0514647191 0.3031533157 -0.0754868615 -0.42060483 -0.0757720929 -0.4206812016 0.0519044187 0.3087451454
820295080.0 0.0545857477 0.3030769649 -0.0802268779 -0.4196000901 -0.0804470842 -0.4201953696 0.0546722733 0.3090555371
825295050.0 0.0578750007 0.3025948561 -0.0851814725 -0.4190545505 -0.0851205997 -0.4190375133 0.0586925433 0.3082412284
830295020.0 0.060900978 0.3021925155 -0.0897103007 -0.4178024041 -0.0896643326 -0.4180320574 0.0613225746 0.3074550398
