!Created with skrf (http://scikit-rf.org).
# Hz S RI R 50.0 
!freq ReS11 ImS11 ReS21 ImS21 ReS12 ImS12 ReS22 ImS22
300000.0 -0.236066146 -0.1138894243 0.4665523757 0.075134934 0.4653427628 0.0764120819 -0.2360875527 -0.121193126
5299970.0 -0.2451612405 0.0055063492 0.4734941572 0.005511462 0.4742830755 0.0057260125 -0.2437699608 0.0053698552
10299940.0 -0.2418258413 0.0185620916 0.4759558668 0.0069148397 0.4760802388 0.0073280141 -0.240365218 0.0179041167
15299910.0 -0.2370999617 0.0284246009 0.4792588268 0.0081312749 0.4797257976 0.0087309859 -0.2361704179 0.0273502637
20299880.0 -0.2317851488 0.0362531342 0.4840070667 0.008446725 0.4845649488 0.0086872207 -0.2312948275 0.0353472643
25299850.0 -0.2257767784 0.0427786493 0.4898310501 0.007934123 0.4896851262 0.0077348882 -0.2262173313 0.0417174909
30299820.0 -0.2202332914 0.0476003359 0.4950334097 0.0057849861 0.4951195489 0.0052570042 -0.2207019107 0.046891346
35299790.0 -0.2146056478 0.052005063 0.5002245946 0.0022942782 0.5001435581 0.0024163238 -0.2158564983 0.0513647541
40299760.0 -0.2091940735 0.0547884519 0.5056445332 -0.0015470494 0.5055269758 -0.0015186015 -0.2107660227 0.0547585699
45299730.0 -0.2041761071 0.057185944 0.5102800386 -0.0059385155 0.5106095295 -0.0062681886 -0.2057116638 0.0577449608
50299700.0 -0.1989498739 0.0589375401 0.5145444406 -0.0116706406 0.5142570073 -0.0119987774 -0.2011236713 0.0601125419
55299670.0 -0.1948810205 0.0606905385 0.5184844746 -0.0172557692 0.5183362245 -0.0177866299 -0.197585459 0.0616414314
60299640.0 -0.1907962349 0.0617069009 0.521971149 -0.0242056529 0.5219958384 -0.0240124266 -0.1937271271 0.0632616262
65299610.0 -0.1874505945 0.0624873323 0.525119821 -0.0300965861 0.5249937004 -0.0305644518 -0.1901669755 0.0647227617
70299580.0 -0.1839536814 0.063033159 0.5268742369 -0.0364423821 0.5270561765 -0.0370207495 -0.1873590408 0.0659724323
75299550.0 -0.1809171795 0.0638088815 0.5289933749 -0.0444008408 0.5292053833 -0.0439867261 -0.1840663101 0.0670844546
80299520.0 -0.1783322839 0.0643585871 0.5308220638 -0.0506085476 0.5313877061 -0.0506483818 -0.1817009244 0.0679936011
85299490.0 -0.1757433999 0.0646107056 0.5322059142 -0.057574642 0.5324439841 -0.0577516025 -0.1794871599 0.0687601479
90299460.0 -0.1736054642 0.0655502037 0.5330914935 -0.0647018371 0.5332845985 -0.0643025877 -0.1767696595 0.0697227056
95299430.0 -0.1713369838 0.0657067964 0.5339125318 -0.0713765366 0.5344879462 -0.0716381045 -0.1749946132 0.0704962699
100299400.0 -0.169333846 0.0661541354 0.534702061 -0.0781957369 0.5346432284 -0.0784671906 -0.1733654181 0.0718735228
105299370.0 -0.1674966312 0.0664761588 0.5349093538 -0.0851727664 0.535107862 -0.0850681708 -0.1709757005 0.072107719
110299340.0 -0.1656388267 0.0669986371 0.53486549 -0.0917441424 0.5353804735 -0.0920170449 -0.1699898132 0.0731017369
115299310.0 -0.1645432783 0.0676462831 0.5351646651 -0.0987512473 0.5351797402 -0.0985104752 -0.1683869002 0.0742367949
120299280.0 -0.1633828349 0.0683439237 0.5352879622 -0.1065143001 0.5351914696 -0.1058465947 -0.1671910898 0.0745722692
125299250.0 -0.161788446 0.0686238789 0.5347420367 -0.112407642 0.5346314575 -0.1122375897 -0.165390114 0.0756415439
130299220.0 -0.1607826233 0.0691824781 0.5340442537 -0.1194530739 0.5341473751 -0.119866103 -0.1640551557 0.0771307509
135299190.0 -0.1596610245 0.0700069059 0.5338210701 -0.1256749409 0.5335669089 -0.1263142161 -0.1631379363 0.0774709475
140299160.0 -0.1584516844 0.0709391051 0.5328422906 -0.1327060801 0.5326402945 -0.132416901 -0.1624124484 0.0785846239
145299130.0 -0.1578136928 0.0718309618 0.5319305315 -0.1392540141 0.5317829505 -0.1392599873 -0.1610411615 0.0798930347
150299100.0 -0.1567187479 0.0726667838 0.530851116 -0.1457732007 0.5305498497 -0.1461420799 -0.1599425748 0.0813863549
155299070.0 -0.1554288234 0.0734427706 0.529073686 -0.1524141837 0.5295070676 -0.1524731574 -0.1587384553 0.0823157574
160299040.0 -0.1548546163 0.0745134528 0.5279652042 -0.1588248179 0.52818783 -0.158996101 -0.1580915461 0.0834917695
165299010.0 -0.1538698905 0.075040919 0.5266186312 -0.1649040055 0.5263825203 -0.1651731521 -0.1567200412 0.0842768813
170298980.0 -0.1531158817 0.0762382798 0.5248978368 -0.1715208635 0.5249679542 -0.1714335417 -0.1559356821 0.0855744905
175298950.0 -0.151982225 0.0772567428 0.5233452863 -0.1778065022 0.5237076529 -0.1787847177 -0.1549529577 0.0872761455
180298920.0 -0.1519204051 0.0784035694 0.5218029808 -0.1843040181 0.5218026292 -0.1845763105 -0.1542649391 0.0884194856
185298890.0 -0.1506423715 0.0796261931 0.5204105192 -0.1901141289 0.5198658124 -0.1905308006 -0.1529729694 0.089391731
190298860.0 -0.1498300933 0.0810383669 0.5176183293 -0.1964555283 0.5180279324 -0.1963290996 -0.1521393609 0.0904987725
195298830.0 -0.1492484485 0.0818184014 0.5163853816 -0.2022574842 0.5163731878 -0.2028490593 -0.1510557834 0.0922967143
200298800.0 -0.1481763643 0.0827552242 0.5138506458 -0.2091404396 0.5140098415 -0.208707222 -0.1502706611 0.0934142668
205298770.0 -0.1478441973 0.0839041218 0.5111731954 -0.2148193098 0.5119344111 -0.2145228929 -0.14946189 0.0949125286
210298740.0 -0.1468332277 0.0854116244 0.5095093498 -0.2205758677 0.5097090158 -0.2211590452 -0.1486270026 0.0964022789
215298710.0 -0.146168074 0.08653254 0.5068126254 -0.2265256521 0.5070855732 -0.2268945523 -0.147278575 0.0974460384
220298680.0 -0.1451938121 0.0879028347 0.5043717972 -0.2324387236 0.5047932323 -0.232844289 -0.1464952105 0.0990292238
225298650.0 -0.1445651042 0.0891037839 0.5020360275 -0.2385381322 0.5020552584 -0.2381853199 -0.1456565563 0.0999973584
230298620.0 -0.1437458468 0.0906428228 0.4996337124 -0.2446060523 0.4997994876 -0.2445051051 -0.1448250746 0.1017044638
235298590.0 -0.1433016008 0.0919049109 0.4971330684 -0.2504596324 0.4972631249 -0.2502178935 -0.1434747234 0.1032199539
240298560.0 -0.1424028758 0.0934809529 0.4945069352 -0.255736757 0.4943459704 -0.255911959 -0.142673458 0.1045013011
245298530.0 -0.1417411725 0.0941868484 0.4912748165 -0.2616136174 0.4917398363 -0.2616920186 -0.1415233604 0.1059523348
250298500.0 -0.1409202788 0.0953489106 0.488935219 -0.266978038 0.4888607577 -0.2667700096 -0.1407751989 0.1075682372
255298470.0 -0.1398287351 0.0971131264 0.4858505425 -0.2725815858 0.4865257829 -0.2730087681 -0.1395875867 0.1091619252
260298440.0 -0.1390116082 0.0981525314 0.483107729 -0.277584118 0.4829645875 -0.2780926358 -0.1385152458 0.1103417445
265298410.0 -0.1386702545 0.0997700905 0.4799198984 -0.2839319237 0.479631104 -0.2838808479 -0.1368543765 0.1115598613
270298380.0 -0.137851474 0.100708253 0.4767609012 -0.2887169992 0.4770813338 -0.2890097579 -0.1362595614 0.1135948749
275298350.0 -0.1368053653 0.1028299769 0.4733123961 -0.2944909293 0.4735219424 -0.2944276201 -0.1349582642 0.1149958297
280298320.0 -0.1360799177 0.1038026638 0.4702764957 -0.2996443489 0.4707503243 -0.3001673924 -0.1336227861 0.1163064511
285298290.0 -0.1351559894 0.1052131852 0.4674560527 -0.3051495938 0.4672976233 -0.3049906911 -0.1324664004 0.1176550856
290298260.0 -0.1341833787 0.1064184764 0.4643008945 -0.3103361626 0.4642834635 -0.310609931 -0.1313686854 0.1191698488
295298230.0 -0.1333613725 0.1073693329 0.4605988266 -0.3158984259 0.4607912874 -0.3163102785 -0.1301626155 0.1203954782
300298200.0 -0.1322226347 0.1090601122 0.4572190243 -0.3210157359 0.4573482158 -0.321167998 -0.1288321714 0.1218590557
305298170.0 -0.1314388902 0.1100343007 0.4540879674 -0.3264487066 0.4542115558 -0.3265565005 -0.1274026073 0.122852846
310298140.0 -0.1300273401 0.1112517405 0.4503340688 -0.3316945862 0.4506871511 -0.3315406892 -0.1261194276 0.1244606576
315298110.0 -0.1296417999 0.1122698878 0.4469292004 -0.3367018859 0.4468457278 -0.3371155813 -0.124790117 0.1257799503
320298080.0 -0.1288033072 0.1134843456 0.4424551267 -0.3419519061 0.4434896797 -0.3421272304 -0.1237581245 0.1268178241
325298050.0 -0.1284330951 0.1142616978 0.4389378097 -0.3468427645 0.4393727353 -0.3471090729 -0.1224311217 0.1282786896
330298020.0 -0.1275446821 0.1160473275 0.4350829818 -0.3520367958 0.4356499056 -0.352131386 -0.1211525923 0.1299014804
335297990.0 -0.1266283316 0.1173265651 0.4310897245 -0.3569448407 0.4315202648 -0.3568476736 -0.1202253149 0.1308339167
340297960.0 -0.1258370551 0.1187354049 0.4269782984 -0.3621327333 0.426903353 -0.3615932082 -0.1187024863 0.1326143346
345297930.0 -0.1250626984 0.1199409351 0.4233894412 -0.3663622656 0.4226239482 -0.3661757695 -0.1171762672 0.1335564558
350297900.0 -0.1242965978 0.121080883 0.4193092119 -0.3704333499 0.4191412779 -0.3707562055 -0.1164052036 0.1348434771
355297870.0 -0.1230709217 0.1226923873 0.4147513801 -0.3748840021 0.4149485197 -0.3752792404 -0.1147208905 0.1365751651
360297840.0 -0.1220121698 0.1239318277 0.4105092193 -0.3799199611 0.4107130453 -0.380287713 -0.1133998255 0.1378280052
365297810.0 -0.1209213732 0.1252125426 0.4063870552 -0.3844002478 0.4065214006 -0.3845914722 -0.1124922981 0.1391453983
370297780.0 -0.1198654755 0.1264113176 0.4018082501 -0.3887991483 0.4026077637 -0.3885199957 -0.1107572465 0.1404258078
375297750.0 -0.118946374 0.1277581247 0.398108772 -0.3932246119 0.3979127071 -0.3931630009 -0.1090259258 0.1419700391
380297720.0 -0.1180814561 0.129180161 0.3938314989 -0.398175354 0.3934283276 -0.3978647035 -0.1075446646 0.1437152451
385297690.0 -0.11688053 0.1302253781 0.3892022451 -0.4021716553 0.3893072804 -0.4026137464 -0.1060249011 0.1450865487
390297660.0 -0.115660923 0.1312668266 0.3846381021 -0.4059880889 0.3847643274 -0.4063086875 -0.104098574 0.1458986286
395297630.0 -0.1143532755 0.1325496651 0.3804459046 -0.4100892882 0.3799172837 -0.4100736581 -0.1029358469 0.1471729191
400297600.0 -0.1134641838 0.1338669645 0.3756266786 -0.4144747623 0.3761088807 -0.4146078479 -0.1011402183 0.1487401904
405297570.0 -0.1123294138 0.1347627538 0.3712598952 -0.4185468399 0.3715096633 -0.4184130224 -0.0996204374 0.1498782352
410297540.0 -0.110996101 0.1361542601 0.3666422517 -0.4230218436 0.3668756784 -0.42255644 -0.0980790288 0.1511605181
415297510.0 -0.1099031015 0.1377125538 0.3617817334 -0.4270496862 0.3625415837 -0.4268869369 -0.0961668717 0.1526073222
420297480.0 -0.1086809851 0.1382990895 0.3570185343 -0.4307835095 0.3575139613 -0.43075184 -0.0945564059 0.1539426065
425297450.0 -0.1071942984 0.1397716064 0.3526800874 -0.4343501432 0.3527206163 -0.4343444967 -0.0928675892 0.154547365
430297420.0 -0.1060088631 0.1406154693 0.3480392692 -0.4382610911 0.3481150104 -0.4378944474 -0.0910738161 0.1560453309
435297390.0 -0.1047071931 0.1416939123 0.3428592403 -0.4424042621 0.3430982655 -0.4421635242 -0.0899157744 0.1574033164
440297360.0 -0.1033247761 0.1423423419 0.3377151333 -0.4455603344 0.3379874173 -0.4461214951 -0.0879313186 0.1584804626
445297330.0 -0.101965665 0.1436159307 0.3333457341 -0.4494375231 0.3333208828 -0.4497172723 -0.085916425 0.1596113116
450297300.0 -0.1004383833 0.1445954949 0.3283097659 -0.4526599728 0.3288483083 -0.4528049359 -0.0842662305 0.1608969528
455297270.0 -0.0993519147 0.1458770538 0.3234902596 -0.4564307085 0.3234224385 -0.4568062983 -0.0822120281 0.1618074274
460297240.0 -0.0978816853 0.1468905703 0.3186561752 -0.4608698996 0.3180499841 -0.4603850375 -0.080555537 0.1625937156
465297210.0 -0.0962279944 0.1482160582 0.3128111628 -0.4643310623 0.3130430903 -0.4637506575 -0.0783730236 0.1644004962
470297180.0 -0.0950282469 0.1487397202 0.308103297 -0.4667305494 0.3085315033 -0.4671237201 -0.0767651115 0.1648063254
475297150.0 -0.0937919418 0.1498511488 0.303055332 -0.4701215821 0.3030798804 -0.4706572894 -0.0749504355 0.1662625204
480297120.0 -0.0918471444 0.1512801802 0.2978627445 -0.4736652477 0.2981408024 -0.4732704124 -0.0734256609 0.1669375862
485297090.0 -0.0902645353 0.1519058091 0.2926773112 -0.4769385137 0.2926892613 -0.4767963883 -0.0716158516 0.1679836935
490297060.0 -0.0886040556 0.1530710005 0.2869746853 -0.4802815262 0.2876063092 -0.4802204362 -0.069350072 0.1685152857
495297030.0 -0.0876346422 0.153620803 0.2825737989 -0.4830253925 0.2825804182 -0.483280249 -0.0673780354 0.1695247822
500297000.0 -0.0861898534 0.1549267305 0.2771657561 -0.4861979669 0.2768614092 -0.486596172 -0.0654524067 0.1707279348
505296970.0 -0.0841234119 0.1556459121 0.2717401994 -0.4896414376 0.2716507556 -0.4888456246 -0.0635934652 0.1712529119
510296940.0 -0.0825210525 0.1566130249 0.2660556219 -0.4925970856 0.2669026241 -0.4924910816 -0.061563254 0.1724810311
515296910.0 -0.0813186347 0.1579290066 0.2604900385 -0.4950517474 0.2605817165 -0.4946717887 -0.0597945991 0.1726243751
520296880.0 -0.0796105047 0.1587160126 0.2556583676 -0.4979120396 0.2550609418 -0.4976209278 -0.0573654241 0.1739434215
525296850.0 -0.0779791735 0.1592945623 0.2497938618 -0.5002377177 0.2496879159 -0.5001101603 -0.0554990542 0.174291679
530296820.0 -0.0767253621 0.1602327159 0.2440961542 -0.5033642003 0.2443794071 -0.5028344075 -0.0535165891 0.1750768316
535296790.0 -0.0742851164 0.1613813703 0.2390440251 -0.5055030424 0.2392442899 -0.5058378106 -0.0514220202 0.1761687668
540296760.0 -0.0729160608 0.1623526637 0.2335836383 -0.5079937398 0.233303496 -0.5080251393 -0.0495345549 0.1764935377
545296730.0 -0.0716168575 0.1633116097 0.2278594677 -0.5106324668 0.2276953777 -0.5108609951 -0.0474067407 0.1775449724
550296700.0 -0.0694802084 0.1640044427 0.2221597913 -0.5132264831 0.2220513687 -0.5134207864 -0.045490296 0.1781281633
555296670.0 -0.0680999144 0.1649288661 0.2166626689 -0.5158022406 0.2165333094 -0.5156974592 -0.0439851173 0.1782454929
560296640.0 -0.0657646151 0.1654915384 0.2103816241 -0.5176447921 0.211309072 -0.517881 -0.0417184326 0.1793663953
565296610.0 -0.0648098771 0.1666651053 0.2054936803 -0.5204512959 0.2058010644 -0.5195942303 -0.0396115033 0.1799172735
570296580.0 -0.0630089118 0.1673923156 0.1994670396 -0.5224245714 0.1994819521 -0.5222107066 -0.0374277969 0.1801463117
575296550.0 -0.0610397455 0.1680502976 0.1941047027 -0.5243773112 0.1934013978 -0.5241904326 -0.035304869 0.1809449333
580296520.0 -0.0593950169 0.1690118262 0.1883023937 -0.5262605455 0.1883290918 -0.5263913619 -0.0336976389 0.181359646
585296490.0 -0.0575778063 0.1698191551 0.1828909824 -0.5281197438 0.1825055188 -0.5282572721 -0.0313357311 0.1820022741
590296460.0 -0.0553395775 0.1704646924 0.1767884165 -0.5301689608 0.177059541 -0.5301907398 -0.0298007953 0.1825741939
595296430.0 -0.0541197169 0.1713084749 0.1706698682 -0.5321062404 0.1707989446 -0.531923385 -0.0273147204 0.1828876016
600296400.0 -0.0523966001 0.1719865829 0.1649678771 -0.5338230522 0.1650933239 -0.533915035 -0.0251426369 0.182948687
605296370.0 -0.0507233028 0.1727830927 0.1595369207 -0.5355504448 0.1592693578 -0.5357895182 -0.0232045371 0.1835311453
610296340.0 -0.0487038669 0.1737839619 0.1534008233 -0.5366974336 0.1541476604 -0.5372154035 -0.0212995596 0.1839914384
615296310.0 -0.0466784058 0.1742924196 0.1477806434 -0.5393536745 0.1471191106 -0.5390290319 -0.0189619663 0.1844670115
620296280.0 -0.0454074817 0.175280206 0.1419000546 -0.5406322554 0.1415344003 -0.5404106236 -0.0171450831 0.185215365
625296250.0 -0.0436089396 0.1757027372 0.1359236251 -0.5422190869 0.1361487503 -0.5421178724 -0.0154096162 0.1852031228
630296220.0 -0.0416801083 0.1766731921 0.1298653071 -0.543466643 0.1298072367 -0.5431547117 -0.0128608709 0.1858371694
635296190.0 -0.0401537802 0.177184429 0.1244795031 -0.5444735772 0.1240674149 -0.5446010867 -0.0108447432 0.1857520943
640296160.0 -0.0384095581 0.1778024838 0.1185419205 -0.5461281485 0.118050617 -0.545887225 -0.0091248297 0.1859786557
645296130.0 -0.0361475705 0.1784956579 0.1119720219 -0.5473193931 0.1122907276 -0.547189912 -0.0072075713 0.1859174459
650296100.0 -0.0348486385 0.1791570912 0.1062489835 -0.5482946061 0.1060914325 -0.5486538839 -0.0044739638 0.1864049288
655296070.0 -0.0328602989 0.1798719431 0.1001075323 -0.5496249681 0.1003651272 -0.5489276811 -0.0029042818 0.1864555385
660296040.0 -0.0312526386 0.1805009594 0.0946768645 -0.5505777651 0.0943743771 -0.5503601054 -0.0005493765 0.1863975862
665296010.0 -0.0293576409 0.1807711419 0.0881837124 -0.5512569538 0.0882615929 -0.5513458236 0.0014516922 0.1867803706
670295980.0 -0.0277445659 0.1816003077 0.0825520779 -0.5521562994 0.0822425788 -0.5518161747 0.0033025672 0.1866528054
675295950.0 -0.0258045354 0.1817149916 0.0766533209 -0.5526607186 0.0765390449 -0.5530021407 0.0055071096 0.187118428
680295920.0 -0.0244313318 0.1823357467 0.0706312469 -0.5533360659 0.0702409116 -0.5537312977 0.0078198076 0.1869990049
685295890.0 -0.0223473067 0.1831768154 0.0644053527 -0.5548353058 0.064415565 -0.5547340281 0.009689773 0.1873662113
690295860.0 -0.0208440581 0.1835088986 0.0585133631 -0.5549865568 0.058270207 -0.5553439795 0.0115867963 0.1869991677
695295830.0 -0.018725156 0.1838465953 0.0527381805 -0.5560000822 0.0525584696 -0.5557400142 0.0136177806 0.1872474183
700295800.0 -0.0169651378 0.1847904423 0.0468511418 -0.5563816879 0.0467225512 -0.5563219985 0.015904691 0.1871290101
705295770.0 -0.0155138147 0.1851287696 0.040361022 -0.556985062 0.0404792642 -0.556439325 0.0177934468 0.1875599277
710295740.0 -0.013509591 0.1852528125 0.0348041368 -0.5572124872 0.0342885011 -0.5572845632 0.0203841384 0.1873756746
715295710.0 -0.0118143117 0.185819457 0.0287975673 -0.5576008123 0.0287902919 -0.5572716471 0.0219926035 0.1869293051
720295680.0 -0.0099096464 0.1860620771 0.022500582 -0.5575852067 0.0226195189 -0.557727649 0.0241160176 0.1869285402
725295650.0 -0.0085137405 0.1867049467 0.0170419756 -0.5578789386 0.0167326245 -0.5579200149 0.0257999039 0.18725099
730295620.0 -0.0073690107 0.1868939338 0.0106911477 -0.5575231354 0.0107581224 -0.5575021439 0.0277263379 0.1871818226
735295590.0 -0.0049719369 0.1870770511 0.0046314927 -0.5583634976 0.0049025767 -0.5577894687 0.0299628761 0.186441098
740295560.0 -0.0035263154 0.1872000011 -0.0009905698 -0.5578660113 -0.0008998571 -0.5581337161 0.0318852081 0.1867640595
745295530.0 -0.0015528162 0.1876397178 -0.0069737492 -0.5571008172 -0.006808948 -0.5575062109 0.0338237749 0.1864239426
750295500.0 -0.0002617369 0.1882671475 -0.0128461701 -0.5578329953 -0.013537322 -0.5577963828 0.0360398302 0.1864510327
755295470.0 0.0018126968 0.1883195272 -0.0189479001 -0.5581016627 -0.0189679187 -0.5579059904 0.0382009441 0.1865022472
760295440.0 0.0036344661 0.1889778243 -0.0257765583 -0.5572068511 -0.0250375206 -0.5570660116 0.0404531405 0.185141736
765295410.0 0.0052885659 0.1884188293 -0.0308990357 -0.5566809332 -0.031152086 -0.5569347564 0.0424865192 0.1853514848
770295380.0 0.0068424461 0.1891869988 -0.0368205574 -0.5562989991 -0.0370743846 -0.5567376114 0.0441202122 0.1851856375
775295350.0 0.0087007793 0.1890391835 -0.0423854545 -0.5559309114 -0.0430045547 -0.5556982451 0.0465381661 0.1848416158
780295320.0 0.0103014346 0.1892909088 -0.0487020301 -0.5554018568 -0.0487905483 -0.5556407759 0.0486057765 0.1844850617
785295290.0 0.0122879404 0.1892518574 -0.0548476601 -0.5548812859 -0.0549395935 -0.5552447851 0.0499896702 0.1844419615
790295260.0 0.0141096545 0.1889377892 -0.0608440989 -0.5543069663 -0.0607160192 -0.5543244294 0.0521969181 0.1840731693
795295230.0 0.0155001511 0.189336271 -0.0665772127 -0.5538969425 -0.0670149751 -0.5537905789 0.054360416 0.1830788961
800295200.0 0.017152218 0.189532244 -0.0721493844 -0.5523245151 -0.0726804068 -0.5529668976 0.0561365134 0.1828657673
805295170.0 0.0188454974 0.1897280568 -0.0785898316 -0.5518158252 -0.0785232807 -0.5523210585 0.0589981588 0.182294521
810295140.0 0.0211196382 0.1898543969 -0.0842351905 -0.5509307437 -0.0846024739 -0.5512713041 0.0605787245 0.1820251656
815295110.0 0.0226363565 0.1897972949 -0.0901662568 -0.5502154862 -0.0905457736 -0.550131744 0.0623870507 0.181600648
820295080.0 0.0239980246 0.1896273965 -0.0957229426 -0.5490298981 -0.0958903788 -0.5493759565 0.0638637885 0.1815338731
825295050.0 0.0258191985 0.1896513173 -0.1024681081 -0.548198766 -0.1021784522 -0.5482358365 0.0667933732 0.1806424432
830295020.0 0.0277172264 0.1894584356 -0.1083165046 -0.5469147117 -0.1081170584 -0.5471467755 0.0680442627 0.179761533
