!Created with skrf (http://scikit-rf.org).
# Hz S RI R 50.0 
!freq ReS11 ImS11 ReS21 ImS21 ReS12 ImS12 ReS22 ImS22
300000.0 -0.3158783557 -0.1319089575 0.3725184507 0.0654316327 0.3731814281 0.066329829 -0.3163274117 -0.1292053318
5299970.0 -0.3247881258 0.002829485 0.3785000059 0.0032186774 0.378699276 0.0034407406 -0.3262035638 0.0021850822
10299940.0 -0.3226643695 0.0140577765 0.3801631246 0.0029563636 0.3798704438 0.0030476211 -0.3230139016 0.0123039273
15299910.0 -0.3190381725 0.0222710316 0.3820082565 0.0026063516 0.3823481177 0.0024738165 -0.320565876 0.0201579973
20299880.0 -0.315619754 0.0290481378 0.3851900821 0.0016586647 0.385208917 0.0020383371 -0.3177754654 0.0260462454
25299850.0 -0.3115595439 0.0349074552 0.3884771931 0.0004425407 0.3886471889 0.0001471148 -0.3149756641 0.0315574738
30299820.0 -0.3080770068 0.0393935911 0.3918005723 -0.0020122715 0.3920104542 -0.0020434884 -0.3118722234 0.0356536743
35299790.0 -0.3043325227 0.0434531763 0.3948814225 -0.0047760383 0.3954049684 -0.0049689314 -0.3091702818 0.0398188424
40299760.0 -0.3011682195 0.046829738 0.3985297413 -0.0087328616 0.3986773218 -0.0086332161 -0.3063748259 0.0432256527
45299730.0 -0.2978766255 0.0497971606 0.4011666939 -0.012310048 0.4016303224 -0.0124824029 -0.3036220674 0.0463206358
50299700.0 -0.2948995717 0.0531870417 0.403723809 -0.0174746668 0.4036286721 -0.0172311614 -0.3012234887 0.0497425745
55299670.0 -0.2924744583 0.055338994 0.4061839613 -0.0215489799 0.4059506457 -0.0220010996 -0.2994684669 0.0523563642
60299640.0 -0.2896500092 0.0579519075 0.4079071347 -0.0270337794 0.4081389589 -0.0265167451 -0.2971800523 0.0550660115
65299610.0 -0.2876108579 0.0601418441 0.4098723292 -0.0313507075 0.4097785152 -0.0319126199 -0.2951831011 0.0576056159
70299580.0 -0.2853287086 0.0620081231 0.4108766177 -0.0365449293 0.4108830041 -0.0367448502 -0.293692477 0.0599225373
75299550.0 -0.2835640772 0.0643943406 0.4118582851 -0.0419653842 0.4121271462 -0.0420852397 -0.291641048 0.0624707054
80299520.0 -0.281668139 0.0667509605 0.4126234408 -0.047357772 0.4131330718 -0.0473619116 -0.2905206734 0.0649072049
85299490.0 -0.2800529447 0.0684817452 0.4135061709 -0.0527472963 0.4135865276 -0.0524460246 -0.2892678272 0.0670912258
90299460.0 -0.2780404342 0.0706706609 0.4133980172 -0.0576301458 0.4137060784 -0.0577799326 -0.2876269881 0.0695386743
95299430.0 -0.2766241838 0.0723561759 0.4137690719 -0.062609423 0.4145678354 -0.0633602203 -0.2865546673 0.0720543079
100299400.0 -0.2755108968 0.0745860766 0.4142877441 -0.0678240479 0.4140811548 -0.0681555078 -0.2855296338 0.0744520085
105299370.0 -0.2739682171 0.0770549836 0.413842126 -0.0734348388 0.4140607369 -0.073319197 -0.284105907 0.0761618411
110299340.0 -0.2726154125 0.078494577 0.413849818 -0.0779707003 0.4140247529 -0.0785611002 -0.2830706246 0.0787841595
115299310.0 -0.2714323434 0.0813006216 0.4131382717 -0.0834816287 0.4135219536 -0.0835872338 -0.2822827132 0.0811093481
120299280.0 -0.2705594413 0.0834710045 0.413260499 -0.0893534341 0.4129424464 -0.0890962222 -0.2810066478 0.0831769547
125299250.0 -0.2691871762 0.0852580309 0.4121015863 -0.0939063684 0.4125139466 -0.0935894313 -0.2802996269 0.0857519858
130299220.0 -0.2682643223 0.0874335409 0.4121018033 -0.0993450189 0.411847878 -0.0992309434 -0.2791292879 0.0884034702
135299190.0 -0.2671036365 0.0902591493 0.411283122 -0.1041722116 0.4114117587 -0.1042297185 -0.2782578036 0.0905557228
140299160.0 -0.2663370396 0.0920481175 0.4105735219 -0.1088159042 0.4104339867 -0.1087943996 -0.2774790869 0.0930010211
145299130.0 -0.2653436248 0.0945311297 0.4096177331 -0.1138136102 0.4093252405 -0.1139919051 -0.2763993258 0.0955894954
150299100.0 -0.2642709687 0.0967201425 0.4084409213 -0.1188045293 0.4083878185 -0.1191602602 -0.2757558831 0.0985350856
155299070.0 -0.2633961372 0.0993928506 0.4072183805 -0.1236604366 0.4075152309 -0.1239441636 -0.274716681 0.1009057795
160299040.0 -0.2622041064 0.1017526299 0.4058439821 -0.1285994867 0.4062258288 -0.1289307498 -0.2736617073 0.1037789185
165299010.0 -0.2610731909 0.104355962 0.404984685 -0.1336939192 0.4046618384 -0.1333420094 -0.2727812478 0.105792214
170298980.0 -0.2603770502 0.1067272592 0.4035431302 -0.1382975629 0.4034016424 -0.138456856 -0.2719970093 0.1085314968
175298950.0 -0.2590306792 0.1090749577 0.4019012765 -0.1427605559 0.4023451505 -0.143213962 -0.2709542668 0.1115878584
180298920.0 -0.2581313156 0.1119264816 0.4006937746 -0.1478778067 0.4006057847 -0.1482412473 -0.2698012602 0.1137456677
185298890.0 -0.2571150257 0.1145650394 0.399405995 -0.1528302692 0.3990057408 -0.1526105903 -0.2689079689 0.1165900079
190298860.0 -0.255518594 0.1175192438 0.3970202397 -0.1575061384 0.3976249035 -0.1573711518 -0.2676665079 0.1193461762
195298830.0 -0.2547002396 0.1198402088 0.3962384074 -0.1616863391 0.396104166 -0.1620537738 -0.267094361 0.1218147661
200298800.0 -0.2533437183 0.1221131267 0.3940168137 -0.1668635985 0.3943065634 -0.1667250804 -0.2655236017 0.1243991302
205298770.0 -0.2529116895 0.1247250558 0.3925976407 -0.171027969 0.3925644944 -0.1708625178 -0.2645861885 0.127228698
210298740.0 -0.2514321902 0.1276097547 0.3905708975 -0.1757173745 0.3907570777 -0.1757560996 -0.2636836286 0.1300139174
215298710.0 -0.2503469848 0.1299348444 0.3882381271 -0.1797517 0.3885455691 -0.1804923719 -0.2621660904 0.1326689525
220298680.0 -0.248737074 0.1325529343 0.386461985 -0.1845370782 0.3866190004 -0.1848615354 -0.2609826783 0.1353528702
225298650.0 -0.247824383 0.1354752033 0.3842414043 -0.1889545705 0.3848960425 -0.1886074159 -0.2599094165 0.1381008268
230298620.0 -0.2464742774 0.1379468418 0.382818993 -0.193528606 0.382721299 -0.1935982261 -0.2585218533 0.140612127
235298590.0 -0.2452662857 0.1405818268 0.3804691291 -0.1982042493 0.3806076668 -0.1979553836 -0.2573855726 0.1434998945
240298560.0 -0.2439039957 0.1432476479 0.378334997 -0.2017575984 0.3784236828 -0.2020817834 -0.2561875707 0.1458362995
245298530.0 -0.2429434245 0.14562281 0.3761695812 -0.2064551169 0.3761043649 -0.2064415154 -0.2546244961 0.1486994313
250298500.0 -0.2416780594 0.1484922839 0.3741563724 -0.2103769707 0.3739473314 -0.2108284875 -0.2535782004 0.1518437746
255298470.0 -0.2399664404 0.1512611057 0.3714552781 -0.2146959059 0.3722487864 -0.214998004 -0.2521568842 0.1540452443
260298440.0 -0.2386118988 0.1535594935 0.3695141187 -0.2187932547 0.3694717024 -0.2190187051 -0.2506517087 0.1565754952
265298410.0 -0.2374661255 0.1563659283 0.366881434 -0.223557908 0.3665805222 -0.2235638359 -0.2485705979 0.1594451256
270298380.0 -0.2359500383 0.1587625521 0.3644579547 -0.2274256036 0.3645284953 -0.2273941861 -0.2474042948 0.1620917943
275298350.0 -0.2345964499 0.1615848256 0.3616548052 -0.2313862549 0.3618875591 -0.2313945699 -0.2456560159 0.1649184294
280298320.0 -0.2331053332 0.1639586168 0.3596986006 -0.2352727444 0.3599672707 -0.235954954 -0.2443642863 0.1677024923
285298290.0 -0.2315724567 0.1666989898 0.3563606355 -0.239698514 0.3569740351 -0.2394454009 -0.2425829787 0.1703179317
290298260.0 -0.229830014 0.1692224311 0.3541234376 -0.2435957736 0.3541891841 -0.2439847363 -0.2409535371 0.1728786442
295298230.0 -0.2285464102 0.1713669003 0.3513879996 -0.2476722985 0.3516120162 -0.2478263055 -0.2394611088 0.1750143496
300298200.0 -0.2264575395 0.1744129956 0.3488269882 -0.2521297925 0.3493033608 -0.2516608607 -0.2377329746 0.1781429968
305298170.0 -0.2252271144 0.1763173752 0.3460860554 -0.2553065202 0.3463605788 -0.2558486299 -0.235588991 0.1803352682
310298140.0 -0.223186314 0.1788142251 0.3430990433 -0.259677583 0.3436770618 -0.2591998245 -0.2338477215 0.1830446603
315298110.0 -0.2216919392 0.1812071871 0.3404719081 -0.2638622671 0.3404269824 -0.2635734193 -0.232039184 0.1855160559
320298080.0 -0.2200156794 0.1838160167 0.3372819828 -0.2674126243 0.3378823533 -0.2677631782 -0.2308092267 0.1879454029
325298050.0 -0.218882078 0.1854399333 0.3344184061 -0.2709042275 0.3349079309 -0.2713466061 -0.2282413273 0.1902120162
330298020.0 -0.2168400227 0.1883743318 0.3313823497 -0.275218682 0.3314974649 -0.2751713559 -0.2268628191 0.1928326756
335297990.0 -0.2153180627 0.1908057595 0.328175864 -0.2784383881 0.3284084246 -0.2786493709 -0.2248766895 0.1955625862
340297960.0 -0.2136854444 0.1932074711 0.3246136251 -0.2823842876 0.3248963274 -0.2826342477 -0.2230700311 0.1983022051
345297930.0 -0.2119517292 0.1955470647 0.3220222797 -0.2860757925 0.3219361467 -0.2859630201 -0.2210660391 0.2001851482
350297900.0 -0.2101368524 0.1977638452 0.3187640515 -0.2889461733 0.3191141168 -0.2891132428 -0.2194979971 0.2026538038
355297870.0 -0.2085090061 0.2002927904 0.3155148913 -0.2925763408 0.3155128659 -0.2923867021 -0.2170092155 0.2054056011
360297840.0 -0.2063441026 0.2026551548 0.3119901397 -0.29596207 0.312519418 -0.2964983878 -0.2150745713 0.2080745258
365297810.0 -0.2042811395 0.205212284 0.3089631937 -0.2995685482 0.3090528926 -0.2996681986 -0.2134918544 0.2098814464
370297780.0 -0.2023726532 0.2073327835 0.3053021641 -0.3031026806 0.3056746503 -0.3028939815 -0.2109960105 0.2127311012
375297750.0 -0.2003390605 0.2095305901 0.3022326957 -0.3060587391 0.302238618 -0.3064375714 -0.2086611208 0.215020667
380297720.0 -0.1988700206 0.2119086331 0.2990606259 -0.3097105494 0.298956164 -0.3099062064 -0.2066364469 0.2175202972
385297690.0 -0.1965803978 0.2141357262 0.2955005536 -0.3130101672 0.2955526317 -0.3131467681 -0.2045424632 0.2197044555
390297660.0 -0.1937584069 0.2161181797 0.2916156404 -0.3160502631 0.2921452023 -0.3160558871 -0.2018558085 0.2219251646
395297630.0 -0.1919932229 0.2184463484 0.2886190892 -0.3188252207 0.2881548501 -0.3190533176 -0.199833328 0.2240839427
400297600.0 -0.1901038915 0.2205815831 0.2849050327 -0.3223343746 0.2851438993 -0.3224499889 -0.1973019904 0.2268605581
405297570.0 -0.1881576676 0.2222214041 0.2815462539 -0.3249736118 0.2816009551 -0.3256524431 -0.1949721601 0.2291385055
410297540.0 -0.1858848191 0.2247616729 0.2780642735 -0.3288092654 0.2780284024 -0.328474711 -0.1927502765 0.2310757942
415297510.0 -0.1834871203 0.2267810993 0.2742092433 -0.3318984019 0.2744979703 -0.332052112 -0.1902290106 0.2334770161
420297480.0 -0.1813026582 0.2285738004 0.2703510735 -0.3346759546 0.2706090094 -0.3349019566 -0.1875672551 0.2358924164
425297450.0 -0.1784855901 0.2307749512 0.2669956161 -0.3375507108 0.2667369002 -0.3375961969 -0.1855917698 0.2372287007
430297420.0 -0.1765446304 0.232721737 0.2633186841 -0.3402861515 0.2633989282 -0.3400437902 -0.1827245751 0.2398045185
435297390.0 -0.1743378405 0.2346399491 0.2594357222 -0.3437737427 0.2591569277 -0.3431024854 -0.1806844329 0.2424061784
440297360.0 -0.1714176782 0.2364763039 0.2553242113 -0.3461861229 0.2555499932 -0.3463994161 -0.178140288 0.2443432679
445297330.0 -0.1691094392 0.2382690857 0.2517841539 -0.3488189427 0.2517507766 -0.3491606692 -0.1752163051 0.2462223948
450297300.0 -0.1665382012 0.2402050124 0.248007174 -0.3515625057 0.248169167 -0.3513497463 -0.1727705907 0.2478868775
455297270.0 -0.1644318674 0.242196817 0.2441115964 -0.3542437597 0.2441724991 -0.3545387746 -0.1700989343 0.2501610447
460297240.0 -0.1615931053 0.2441215926 0.2402484219 -0.3573703526 0.2400683277 -0.3571381095 -0.167483527 0.2520983031
465297210.0 -0.1589475071 0.2455842223 0.2355799683 -0.359439637 0.2359335838 -0.3599791616 -0.1646093742 0.2544713258
470297180.0 -0.1564899022 0.2475961731 0.2321905985 -0.3619523466 0.2322830607 -0.3622493087 -0.1622887691 0.2558780666
475297150.0 -0.1540653575 0.2492312883 0.2282705041 -0.3642134409 0.228244452 -0.3648479627 -0.1594379236 0.258225283
480297120.0 -0.1510357423 0.2514009477 0.2239984058 -0.3671517716 0.2242153399 -0.3669438017 -0.157060926 0.2596005976
485297090.0 -0.1485556863 0.2526474674 0.2200113596 -0.3695352579 0.2199605457 -0.3693669054 -0.1543169275 0.2611391487
490297060.0 -0.1451162183 0.2545238694 0.2155841933 -0.3721349032 0.2159365082 -0.3718809402 -0.1512064991 0.2630718888
495297030.0 -0.1430381313 0.2558809156 0.2121310936 -0.374020581 0.2116039854 -0.3740335105 -0.1483873838 0.2647910223
500297000.0 -0.1404553197 0.2578975909 0.2077953536 -0.3764590255 0.2080915847 -0.3765450312 -0.1458862261 0.2669161605
505296970.0 -0.1372569559 0.2594284839 0.203826617 -0.37904736 0.203567478 -0.3784970002 -0.1429493354 0.2682462915
510296940.0 -0.1345950194 0.2607777131 0.1997369818 -0.3813125994 0.1994481671 -0.3814863584 -0.1396814578 0.2704668132
515296910.0 -0.1317795547 0.2626389303 0.1950042468 -0.3830548171 0.1950245301 -0.3828734527 -0.1375515962 0.2714115041
520296880.0 -0.1286761664 0.2641786893 0.1908284421 -0.3852761955 0.1910171469 -0.3850804998 -0.1341456755 0.2734484972
525296850.0 -0.1260582264 0.2654100903 0.1866577754 -0.3870383756 0.1864277354 -0.3870114911 -0.131040875 0.2745436162
530296820.0 -0.1234045134 0.266984527 0.1825378098 -0.3891080075 0.1823594132 -0.3888925088 -0.1284984818 0.2760481327
535296790.0 -0.1199332488 0.2685733106 0.1780204143 -0.390898325 0.178103612 -0.3911477679 -0.1252992958 0.2780414598
540296760.0 -0.1172074718 0.2702771719 0.1736025519 -0.3930844934 0.1737875874 -0.3929621096 -0.1224509938 0.2788576162
545296730.0 -0.1145630006 0.2718122381 0.1695501095 -0.394286213 0.1695039896 -0.3943986009 -0.1194931192 0.2807360772
550296700.0 -0.1112398346 0.2727232386 0.1651196967 -0.3964730933 0.1648971342 -0.3967634779 -0.1165877033 0.2820550437
555296670.0 -0.1082687389 0.2742097684 0.1609615022 -0.3983237541 0.1607531138 -0.3980097451 -0.1136894062 0.2829166237
560296640.0 -0.1051573302 0.2754084401 0.1563803613 -0.3999420373 0.1567481363 -0.4002017568 -0.1104807008 0.2850220408
565296610.0 -0.1028275328 0.2768851298 0.1522341105 -0.4017531715 0.152052905 -0.4014456567 -0.107332586 0.2865188423
570296580.0 -0.0996106258 0.2782889303 0.147709571 -0.4031743146 0.1475163309 -0.4031707234 -0.1044758176 0.2872364353
575296550.0 -0.096020612 0.2794129818 0.1431188902 -0.4052221058 0.1434217753 -0.4047156261 -0.1015840931 0.2882942777
580296520.0 -0.0934800457 0.280805422 0.1390102349 -0.4061491099 0.1384095295 -0.4063683163 -0.098230554 0.2895286894
585296490.0 -0.0904858194 0.2817448375 0.1348654154 -0.4077359946 0.1339332857 -0.4075954434 -0.0948571969 0.2907145094
590296460.0 -0.0866004365 0.2829535377 0.1301769841 -0.4088608525 0.1298011637 -0.4091620706 -0.0924566411 0.2920508502
595296430.0 -0.0838649285 0.2842078703 0.1252694244 -0.4103506169 0.1251409755 -0.4104804957 -0.089199863 0.2931981078
600296400.0 -0.0808381796 0.2850190883 0.1206661941 -0.4116267814 0.1205515013 -0.4117405275 -0.0858083658 0.2937733423
605296370.0 -0.0780372949 0.2866083215 0.1166325352 -0.4129794131 0.1160384762 -0.4128994983 -0.083190719 0.2952013175
610296340.0 -0.0745381686 0.2877276199 0.1121454056 -0.4138109339 0.1120846134 -0.4138882094 -0.0802274967 0.2963374511
615296310.0 -0.0713253213 0.2884421913 0.1073466165 -0.4155478766 0.1069190055 -0.4153606857 -0.076580486 0.2972931371
620296280.0 -0.0688146685 0.2899548252 0.102922885 -0.4166061987 0.1029548972 -0.4163757057 -0.0739370335 0.2983115036
625296250.0 -0.0657320868 0.2905419336 0.098185244 -0.4175472928 0.0981378263 -0.4176592211 -0.0706692916 0.2991867718
630296220.0 -0.0622853325 0.2914413399 0.0936874633 -0.4186299897 0.0935569172 -0.4185295868 -0.0674063787 0.2999487473
635296190.0 -0.0593456354 0.2926404316 0.0891569065 -0.4191941512 0.088804753 -0.4191881799 -0.063963757 0.3006887743
640296160.0 -0.0560774518 0.2930598913 0.0849054391 -0.4201753872 0.0841945056 -0.420524372 -0.0611694115 0.3016911853
645296130.0 -0.0526683737 0.2946218905 0.0800002159 -0.4210539009 0.0797253177 -0.4208760457 -0.0578807289 0.3021781819
650296100.0 -0.0497084426 0.2949038674 0.0754156923 -0.4222430638 0.075157961 -0.4219653484 -0.0543916274 0.3029982915
655296070.0 -0.0465454679 0.2956842573 0.070521453 -0.4226550291 0.0705012756 -0.4227172757 -0.0516675624 0.3040115623
660296040.0 -0.0435254567 0.2965781265 0.0661194008 -0.4238252257 0.0659514534 -0.4235334708 -0.0484013993 0.3041034155
665296010.0 -0.0403866686 0.2975260457 0.0614270863 -0.4238095899 0.0613916828 -0.42381446 -0.0452013685 0.3048243377
670295980.0 -0.0373085961 0.2981599198 0.0569072772 -0.4248140862 0.0570430988 -0.424592844 -0.0423565744 0.3055400369
675295950.0 -0.0340310374 0.2986491758 0.0524487584 -0.4248518607 0.0523977574 -0.425732621 -0.0388364712 0.306515157
680295920.0 -0.0313027703 0.2994625689 0.0477709282 -0.4256016227 0.0476891052 -0.4256608826 -0.035428308 0.3066375846
685295890.0 -0.0275384723 0.3000078045 0.0429773852 -0.4261320953 0.0431407566 -0.4262388245 -0.0321228658 0.3073875576
690295860.0 -0.0247153225 0.3006880569 0.0385701781 -0.4267317147 0.0383316281 -0.42669889 -0.029085678 0.307870878
695295830.0 -0.0216214751 0.3007693716 0.0342815742 -0.4268422322 0.0337568918 -0.4268684314 -0.026170378 0.3083840913
700295800.0 -0.0184135398 0.3018221591 0.0293997449 -0.4272667422 0.029266211 -0.4271206412 -0.02263047 0.3085857893
705295770.0 -0.0154851093 0.3021340517 0.0247500813 -0.427964448 0.0247167358 -0.4274469176 -0.0195344971 0.3093599665
710295740.0 -0.0125306262 0.3024236393 0.0203888745 -0.4278085297 0.019719523 -0.4280822598 -0.0160337197 0.3094334931
715295710.0 -0.0086327467 0.3028223299 0.0155085077 -0.4279495688 0.0152666698 -0.4278225815 -0.0126636187 0.309530992
720295680.0 -0.0061165971 0.3032425717 0.0107507551 -0.4277736832 0.0108425486 -0.4280738511 -0.0096256237 0.3096349318
725295650.0 -0.0029298104 0.3036994063 0.0064049088 -0.4278777865 0.0061456382 -0.4278356794 -0.006496577 0.3105246669
730295620.0 -0.0002998856 0.303821719 0.001796522 -0.4276671358 0.0014318426 -0.4275462411 -0.0032503342 0.3105321543
735295590.0 0.0030228767 0.3043409455 -0.0028894522 -0.4279757662 -0.0032562801 -0.4279659601 0.0003341012 0.3105936251
740295560.0 0.0057758727 0.3043373329 -0.0072957513 -0.428135755 -0.0073520407 -0.4283403491 0.0033868999 0.3110753554
745295530.0 0.0091809723 0.3044022288 -0.0115629401 -0.427279322 -0.0118313835 -0.4276205677 0.0061171822 0.311211998
750295500.0 0.0118380439 0.304828641 -0.016319484 -0.4274845284 -0.0168752342 -0.4274933744 0.0097273951 0.3109036076
755295470.0 0.0151953177 0.3050300252 -0.0210341996 -0.4274814121 -0.0213277048 -0.4277254655 0.0129050029 0.3114283806
760295440.0 0.018409322 0.305377912 -0.0261997916 -0.4269611626 -0.0257799569 -0.4266736634 0.016586921 0.3104662422
765295410.0 0.0215061202 0.3046702676 -0.0307308332 -0.4264382435 -0.0306174861 -0.4267803823 0.0193305633 0.3109778959
770295380.0 0.0242869645 0.3052901231 -0.0347210712 -0.4261593433 -0.0352366364 -0.4264739336 0.022965113 0.3107475252
775295350.0 0.0275000829 0.3049228201 -0.0396862209 -0.4256766288 -0.0397883692 -0.4255988312 0.0260183687 0.3107397039
780295320.0 0.030579736 0.305045773 -0.0435671298 -0.4251098511 -0.0441440039 -0.4254584158 0.0296038498 0.3108306551
785295290.0 0.0336223712 0.3047897252 -0.0486309278 -0.4246508556 -0.048902587 -0.4249735369 0.0321930559 0.3108353146
790295260.0 0.0367962077 0.3043890962 -0.0531503871 -0.4240318951 -0.053156023 -0.4245751002 0.0358504769 0.3106768039
795295230.0 0.0394308569 0.3043400349 -0.0576964842 -0.4236784328 -0.0584070555 -0.4238057269 0.0389706264 0.3098520699
800295200.0 0.0423090744 0.3042385781 -0.0618820998 -0.4228405707 -0.0626420992 -0.4232142453 0.0419762691 0.3098526191
805295170.0 0.0455736949 0.3042241864 -0.0664867421 -0.422234842 -0.0669353028 -0.4225710922 0.0458118556 0.3094803849
810295140.0 0.0490166153 0.3039211936 -0.071676292 -0.4212525221 -0.0715155773 -0.4215540233 0.0488515961 0.3091375366
815295110.0 0.0516240364 0.3034619592 -0.0758225352 -0.4206308959 -0.0759079144 -0.4209423236 0.0516782811 0.3089259963
820295080.0 0.0547739153 0.3029939388 -0.0799376087 -0.4195014051 -0.080263166 -0.4200468251 0.0545377901 0.3087192778
825295050.0 0.0578763001 0.3026202209 -0.0847592019 -0.4191840848 -0.0850894729 -0.4188647532 0.058631069 0.3083090201
830295020.0 0.0607933375 0.3023561675 -0.0892167532 -0.4179488782 -0.0895093536 -0.4181254954 0.0614230785 0.3074780466
