!Created with skrf (http://scikit-rf.org).
# Hz S RI R 50.0 
!freq ReS11 ImS11 ReS21 ImS21 ReS12 ImS12 ReS22 ImS22
300000.0 -0.0947338991 -0.0983358801 0.6243775285 0.0909036428 0.6215268723 0.0920584171 -0.0968473653 -0.1026220408
5299970.0 -0.101686468 0.011558798 0.6303854924 0.0108990196 0.6308597958 0.0109348871 -0.1018873497 0.0114441294
10299940.0 -0.0970620903 0.028820172 0.6349090651 0.0158080452 0.6343283768 0.0165907838 -0.0964316128 0.0284954834
15299910.0 -0.089123843 0.0422202297 0.6403153312 0.021107244 0.6409340588 0.021036105 -0.0898749072 0.0418024467
20299880.0 -0.080402239 0.0536481962 0.6485807781 0.0241914441 0.6492201784 0.0243173577 -0.0809793722 0.0528925013
25299850.0 -0.070426122 0.062307654 0.6582501387 0.026184879 0.6583364054 0.0260231505 -0.0717483907 0.0617490333
30299820.0 -0.060923337 0.0687799293 0.6681786342 0.0245818374 0.6678833115 0.0242801 -0.0620311748 0.0684460709
35299790.0 -0.0505116538 0.0734608327 0.677409487 0.0221492822 0.6772122773 0.0218380484 -0.052257377 0.073547205
40299760.0 -0.0413550066 0.0764592072 0.6868701723 0.0178176693 0.6872006806 0.0180023587 -0.0426625814 0.0771261962
45299730.0 -0.0320496282 0.0783520645 0.6960012384 0.0123860452 0.6960994599 0.0122036447 -0.0331604367 0.0792834275
50299700.0 -0.0228205831 0.0790111331 0.7038434895 0.0050354701 0.7037452875 0.0052514857 -0.0246763684 0.0804979893
55299670.0 -0.0151094037 0.0789535261 0.7114969881 -0.0022436148 0.7111949736 -0.0026240467 -0.0172660104 0.0804677135
60299640.0 -0.007723394 0.0787063111 0.7176426063 -0.0110413192 0.7179604694 -0.0112396917 -0.0097974018 0.0795695904
65299610.0 -0.0012817137 0.0771249204 0.7245907045 -0.0198124686 0.7244748882 -0.0199179125 -0.0027121728 0.0786385708
70299580.0 0.0052384228 0.0751873682 0.729409361 -0.0288081873 0.7293292079 -0.0290526828 0.0027532635 0.0770474584
75299550.0 0.0104652598 0.0734084225 0.7335151578 -0.0395285628 0.7336546758 -0.039066078 0.0086613155 0.0753685757
80299520.0 0.0152709075 0.0715271866 0.737817247 -0.0486283568 0.737781285 -0.0485857115 0.0136067684 0.073374764
85299490.0 0.0197785448 0.06921322 0.7411438018 -0.0587494599 0.7410039108 -0.0582727147 0.0180028451 0.0709843735
90299460.0 0.0239181778 0.0667517864 0.7432559113 -0.0690060286 0.7435187359 -0.0685872748 0.0224319954 0.0693422598
95299430.0 0.0280320716 0.0642066236 0.7461924708 -0.0792753652 0.7463418916 -0.079051068 0.0259076056 0.0664893454
100299400.0 0.0312573685 0.0615762399 0.7476438358 -0.0885326549 0.7476582974 -0.0888760814 0.0290599824 0.0645754714
105299370.0 0.0345114028 0.0591981089 0.7492130151 -0.0989393773 0.7499812506 -0.0993852775 0.0326978345 0.0614482223
110299340.0 0.0373334904 0.0565395412 0.7509618145 -0.1089746132 0.7511923165 -0.1084355345 0.0349162717 0.0596051269
115299310.0 0.0395222065 0.0545184489 0.7515755194 -0.1186785798 0.7511895572 -0.1187968532 0.037613978 0.0575466669
120299280.0 0.0414935503 0.0521555042 0.7524724142 -0.1295230452 0.7517176092 -0.1293051166 0.0397245364 0.0543721889
125299250.0 0.0436813928 0.0496876529 0.7522521341 -0.1389000064 0.7516643725 -0.1384116627 0.0418120923 0.0528961849
130299220.0 0.0454587502 0.0468832006 0.7522959364 -0.1491155079 0.7521622716 -0.1491511988 0.0438330879 0.0507880315
135299190.0 0.0470027136 0.0451976048 0.752169479 -0.1582907667 0.7524186985 -0.1587443852 0.0454135446 0.0478668524
140299160.0 0.0489802895 0.043271015 0.7517706935 -0.1691017566 0.7511011333 -0.1680549269 0.0462226265 0.0455054448
145299130.0 0.0491929789 0.0411220755 0.7503977924 -0.1781962539 0.7505655763 -0.1783247097 0.0480496707 0.0437136386
150299100.0 0.0508959696 0.0391633798 0.7492140703 -0.1881052773 0.7492660411 -0.1876310859 0.0492038049 0.0419894871
155299070.0 0.0525850353 0.0371102792 0.7479056354 -0.197186465 0.7484449315 -0.1980269051 0.0505038659 0.0394782505
160299040.0 0.0532826786 0.0356140814 0.7472039973 -0.2072826526 0.7464837903 -0.2071020502 0.0509427183 0.0380874492
165299010.0 0.0542186348 0.033463063 0.7451843959 -0.2165615882 0.7445760593 -0.2164660131 0.0522285104 0.0358596774
170298980.0 0.0551095285 0.0319127342 0.742780794 -0.2258047676 0.7433151441 -0.2259196357 0.0523813314 0.0338412607
175298950.0 0.0559706161 0.0304805134 0.7418984931 -0.2351970461 0.7419448498 -0.2360761295 0.0533480345 0.0322526059
180298920.0 0.0562778716 0.0289147884 0.7393643497 -0.2446392485 0.7395603892 -0.2446659064 0.0538853344 0.0306987523
185298890.0 0.056728435 0.0271785735 0.7377888884 -0.2536507334 0.7373185989 -0.2535193078 0.0552189844 0.0286125367
190298860.0 0.057689449 0.0257727075 0.7342736417 -0.26314014 0.7352172401 -0.2623696508 0.0551396633 0.0272551072
195298830.0 0.0577673971 0.0242935802 0.7327842389 -0.2719182325 0.7329616241 -0.2715502479 0.0554551914 0.0261281228
200298800.0 0.0584004328 0.0225246205 0.7299229571 -0.2812202423 0.7294885818 -0.2808233686 0.0563510461 0.0238666703
205298770.0 0.0583861334 0.020692931 0.7268716839 -0.2895962782 0.7269572733 -0.2896680641 0.0569805365 0.0225082055
210298740.0 0.0588680741 0.020046315 0.7241244943 -0.2986594393 0.7238198524 -0.2982936404 0.0565104951 0.0206508199
215298710.0 0.059318726 0.0185660597 0.7211492665 -0.3066902454 0.7210945723 -0.3075563135 0.0572075376 0.0195019741
220298680.0 0.059666403 0.0176760106 0.7176863958 -0.3152692202 0.7171357377 -0.3159789667 0.0570224288 0.0179664544
225298650.0 0.0597767348 0.016077245 0.7141326155 -0.3241738235 0.7145632083 -0.3235506753 0.0574993104 0.0165201569
230298620.0 0.0601427532 0.015209187 0.711441908 -0.3325209885 0.7113816303 -0.332904223 0.057250188 0.0150334002
235298590.0 0.0596873839 0.0137695303 0.7082199519 -0.3419864414 0.7075724095 -0.3408084214 0.0576056628 0.0140594517
240298560.0 0.0603327139 0.0130036196 0.7041272427 -0.3490668064 0.7043989443 -0.349434662 0.057710382 0.0128621024
245298530.0 0.0601031694 0.0113187607 0.7003599619 -0.358137714 0.7001963223 -0.3579323059 0.0577731182 0.0117496338
250298500.0 0.060024496 0.0104952474 0.6967164592 -0.3662152344 0.696911775 -0.3659287807 0.0575483911 0.0107318929
255298470.0 0.0604692565 0.0097530134 0.6934579899 -0.3738350396 0.6933579442 -0.3742904276 0.0577540332 0.0098110476
260298440.0 0.0606833235 0.0083450665 0.6891805308 -0.3816442045 0.6889660966 -0.3824474626 0.0577150183 0.0077476927
265298410.0 0.0599903586 0.0075982953 0.6848671005 -0.3910628207 0.6848020048 -0.3907690956 0.058647356 0.0067325219
270298380.0 0.0599261931 0.0061287156 0.6801609197 -0.3982813098 0.6806947363 -0.3982310384 0.0582253728 0.0056883018
275298350.0 0.0604025278 0.0055948528 0.675546582 -0.4062778462 0.6758803325 -0.4060565446 0.0576721613 0.0048318716
280298320.0 0.0598436338 0.0042706488 0.6723936414 -0.4138374165 0.6721087549 -0.4143368015 0.0584611402 0.0036354036
285298290.0 0.0600100093 0.0036767332 0.6673946898 -0.4215935292 0.6678145556 -0.4215375148 0.0580477767 0.0026406777
290298260.0 0.0601564443 0.0027768965 0.6639055084 -0.4295935376 0.6633968568 -0.4295763075 0.0582872037 0.0015614031
295298230.0 0.0599240741 0.0013999305 0.6585360375 -0.4381077657 0.658712073 -0.437937222 0.0576855723 0.0005330258
300298200.0 0.060209373 0.001065892 0.6537745136 -0.4450407676 0.6535598075 -0.4449708033 0.0577733528 -0.0008616123
305298170.0 0.0599306843 -0.0007332977 0.6487422626 -0.4528228059 0.6493116049 -0.4531605935 0.0577121368 -0.0021558618
310298140.0 0.0603230031 -0.0017277795 0.6445311267 -0.4606897661 0.6443801691 -0.4601832105 0.0582048864 -0.0039640486
315298110.0 0.0597198945 -0.0029933702 0.6397679939 -0.4689206256 0.6391895056 -0.4684254922 0.0575885134 -0.0046409111
320298080.0 0.0594200989 -0.0038521038 0.6332516684 -0.4752574274 0.6345068827 -0.4761684387 0.0571354709 -0.0056038401
325298050.0 0.0584798716 -0.0052661707 0.6284418999 -0.4829062553 0.6288990546 -0.4831660662 0.0568178766 -0.0069402703
330298020.0 0.0574221956 -0.0058909779 0.622715579 -0.4905979216 0.6228255673 -0.4906976578 0.0560558759 -0.0081537275
335297990.0 0.0574662257 -0.0065963801 0.6176895747 -0.4974976759 0.6172051533 -0.4976006399 0.0557175926 -0.0089243814
340297960.0 0.0568299274 -0.007690799 0.6107617171 -0.5045767745 0.6109593384 -0.5047804973 0.0551556997 -0.0092311426
345297930.0 0.056231331 -0.0081856447 0.6059523082 -0.5116084728 0.6053363034 -0.5118514748 0.0552900651 -0.0106921546
350297900.0 0.0557086146 -0.0090953489 0.6003515408 -0.5179007001 0.6006876749 -0.5180255832 0.0545786197 -0.0116752762
355297870.0 0.0557997716 -0.0097797933 0.5944056018 -0.5244166723 0.5942398057 -0.5248579475 0.0542822447 -0.0120512509
360297840.0 0.0551647195 -0.0103236474 0.5880665529 -0.5316598701 0.5881237515 -0.5319199108 0.0535436152 -0.0121050882
365297810.0 0.0543981955 -0.0110308535 0.5823524777 -0.5378444984 0.5821129038 -0.5381635307 0.0528398243 -0.0135611662
370297780.0 0.0547932617 -0.0114961101 0.5758947632 -0.5449536843 0.5766982996 -0.5445445344 0.0529818442 -0.014159125
375297750.0 0.0543798626 -0.0122781536 0.5707524804 -0.5507817943 0.5704848391 -0.5511610384 0.0530047446 -0.0149165974
380297720.0 0.0534667505 -0.0127623978 0.5646257451 -0.5579427536 0.5641150693 -0.5576154035 0.0522931287 -0.0152515977
385297690.0 0.053062534 -0.0138269716 0.558157616 -0.5634316284 0.5578811892 -0.5641844362 0.0523696713 -0.0156980828
390297660.0 0.0530844632 -0.0145008444 0.551801392 -0.5691758599 0.5522702704 -0.5693476067 0.0520457587 -0.0170029755
395297630.0 0.0529978462 -0.0150367778 0.5459172261 -0.5751098339 0.5452795781 -0.5752427192 0.0512165094 -0.0174087861
400297600.0 0.052080235 -0.0157871301 0.5396516934 -0.5822301597 0.539807521 -0.5817740461 0.0515179098 -0.0175669732
405297570.0 0.0519734223 -0.0168097808 0.5329975512 -0.5876938043 0.5331017411 -0.5881827891 0.0509646771 -0.0179391154
410297540.0 0.0519285278 -0.0166769745 0.5264499467 -0.5944513774 0.5271027167 -0.5941560087 0.0503187001 -0.0190870637
415297510.0 0.0510194011 -0.0173751535 0.5198752845 -0.5994286766 0.5206062126 -0.5993887604 0.0506898394 -0.0192997267
420297480.0 0.0505540485 -0.0184771973 0.5132949904 -0.6056025231 0.5137277562 -0.6053815626 0.0502074197 -0.0198457001
425297450.0 0.0510019274 -0.0188217282 0.5069246946 -0.6104025661 0.5069056919 -0.6112954814 0.0498341498 -0.0208806468
430297420.0 0.0498202617 -0.0191718287 0.5006616306 -0.6167714772 0.500300499 -0.6163258157 0.049827749 -0.0213747144
435297390.0 0.0498752857 -0.0201916093 0.4934353563 -0.6229699244 0.4933585293 -0.622340118 0.0486345781 -0.0216774721
440297360.0 0.049747523 -0.0209354485 0.4862211057 -0.6281708695 0.4860178628 -0.6277676355 0.0485158519 -0.0219270415
445297330.0 0.0491381209 -0.0217326125 0.4796132518 -0.6326660586 0.479417152 -0.6331514748 0.0482457376 -0.0225043851
450297300.0 0.0489406005 -0.022280612 0.4727539107 -0.6384057195 0.4728106817 -0.637835937 0.0481006152 -0.0230333773
455297270.0 0.0480425392 -0.0227256099 0.4656388978 -0.643284401 0.4658379703 -0.6438571703 0.0477433945 -0.0234836825
460297240.0 0.0482773988 -0.0235502524 0.459191687 -0.6493950197 0.4583476707 -0.6492356803 0.0475830983 -0.0243270443
465297210.0 0.0475868496 -0.0239437858 0.4514071917 -0.6536591912 0.4509156224 -0.6538789562 0.0472422111 -0.0241759555
470297180.0 0.0471411462 -0.0247639377 0.4440249844 -0.6588325268 0.4442030807 -0.6587308157 0.0471030058 -0.0252210209
475297150.0 0.0463902056 -0.0248827188 0.4368526172 -0.6636846576 0.4366141135 -0.6640343202 0.0462654603 -0.0258136912
480297120.0 0.046648774 -0.025038149 0.4293552435 -0.668855222 0.4295916271 -0.6681675489 0.0459199466 -0.0263761435
485297090.0 0.0461196451 -0.0267527019 0.4222621674 -0.6733350635 0.4225541818 -0.6729700638 0.0456590861 -0.0266285254
490297060.0 0.0463305295 -0.0267510287 0.4146140213 -0.6779796211 0.4145857102 -0.6779065293 0.0451605488 -0.0272519743
495297030.0 0.0450543685 -0.0274984312 0.4079003967 -0.6825663633 0.4073844457 -0.6827501548 0.0453803517 -0.0281146004
500297000.0 0.044818798 -0.0278491774 0.4002240735 -0.6865563581 0.4000326337 -0.6871623852 0.0446430449 -0.0280306422
505296970.0 0.0450484244 -0.0280413526 0.3930113345 -0.6912538611 0.3922862677 -0.6908945412 0.0444408919 -0.0295010858
510296940.0 0.0442219577 -0.0290827887 0.3849945581 -0.6968633618 0.3847062628 -0.6965026976 0.0442492643 -0.0290157724
515296910.0 0.0438144094 -0.0291862785 0.3766930349 -0.6998779462 0.3766421651 -0.6999092952 0.0435883697 -0.0304979134
520296880.0 0.0434111569 -0.0295364373 0.3690518804 -0.7034379809 0.3693028538 -0.7037379558 0.0438038269 -0.02992295
525296850.0 0.0430040179 -0.030466227 0.3617180212 -0.7074913023 0.3613814966 -0.7078186025 0.0435213445 -0.0307938598
530296820.0 0.0426239876 -0.0308453164 0.3536566006 -0.7118955954 0.3541511125 -0.7114616668 0.0425601328 -0.0317611792
535296790.0 0.042963113 -0.0310050013 0.3465969794 -0.7154492333 0.3465219797 -0.7155226372 0.0430397165 -0.031590213
540296760.0 0.0420908363 -0.031203382 0.3379335816 -0.7192485935 0.337785337 -0.7191951799 0.0421741802 -0.0326358113
545296730.0 0.0408049101 -0.0317608852 0.3302344646 -0.7228154296 0.3302501547 -0.7228583716 0.0418733419 -0.0328335275
550296700.0 0.0414320146 -0.0319481125 0.3223151304 -0.7269670047 0.3221194701 -0.7267479893 0.0417558691 -0.0332115677
555296670.0 0.0405504401 -0.0326145422 0.3141907318 -0.7310490356 0.3145133116 -0.7302718246 0.0409562663 -0.0343085688
560296640.0 0.0411621162 -0.0331928202 0.3057899036 -0.7335364367 0.3069417468 -0.7334713676 0.0405831156 -0.0339152132
565296610.0 0.0396440192 -0.0332930343 0.2986186555 -0.7373588524 0.2984721542 -0.7367398847 0.0401771378 -0.034188691
570296580.0 0.0393870106 -0.0336593273 0.2900501566 -0.7403797838 0.2905873378 -0.7403038588 0.0397192878 -0.0350809723
575296550.0 0.0390159424 -0.0343798593 0.2825631005 -0.7434075969 0.2820799374 -0.7431023791 0.0392366209 -0.0353318411
580296520.0 0.0386687889 -0.0342787421 0.2740456675 -0.7463210719 0.2738606715 -0.7467472362 0.038428516 -0.0359416824
585296490.0 0.0380674062 -0.0346664434 0.2658624508 -0.7490793897 0.2653875034 -0.7489564867 0.0387595048 -0.0357518713
590296460.0 0.0385589319 -0.034902961 0.2578805722 -0.7524177971 0.2578855319 -0.7524316778 0.0375126967 -0.0364873286
595296430.0 0.037639684 -0.0353084075 0.2487028972 -0.7551420326 0.2489390849 -0.7553660217 0.037330942 -0.0374055702
600296400.0 0.0375203547 -0.0353818257 0.2404384671 -0.7575162683 0.2409630591 -0.7576586759 0.0369793642 -0.0373745032
605296370.0 0.0359226103 -0.0357869245 0.2329475048 -0.7602105105 0.232202096 -0.760369253 0.0362128182 -0.0375485963
610296340.0 0.0362644844 -0.0354812582 0.2247270362 -0.7618460942 0.2247946669 -0.7627074215 0.0355299917 -0.0378654587
615296310.0 0.0359491879 -0.0363086025 0.216046491 -0.7653171468 0.2157129786 -0.7651180928 0.0355564752 -0.0380339775
620296280.0 0.0346806288 -0.0357983358 0.2068721151 -0.7674046022 0.2071989081 -0.7674682019 0.0344671866 -0.0384000803
625296250.0 0.0346161364 -0.0366645899 0.1992574517 -0.7698762636 0.1992783089 -0.769932186 0.0334949309 -0.0390366447
630296220.0 0.0340704827 -0.0365375831 0.1905045422 -0.772914492 0.1906203111 -0.7716761752 0.0337123152 -0.0391294379
635296190.0 0.0333913669 -0.0364868815 0.1822345523 -0.7741225875 0.1823112331 -0.7734935544 0.0332319554 -0.0395885042
640296160.0 0.032754852 -0.0370736805 0.1741119849 -0.7762410942 0.1738097516 -0.7762677129 0.0319587447 -0.0397683103
645296130.0 0.0328967899 -0.036657579 0.1650829097 -0.7773870256 0.1653182115 -0.7776320565 0.0314393635 -0.0407710095
650296100.0 0.0320124634 -0.0372163409 0.1569407927 -0.7797562394 0.1568066222 -0.7798738634 0.0319270972 -0.0406355189
655296070.0 0.0315796072 -0.0373338644 0.14807084 -0.7817216024 0.1482873946 -0.7807739485 0.0307266146 -0.0406732259
660296040.0 0.0309359815 -0.0374605324 0.1394931589 -0.7831466284 0.1398801301 -0.7832621992 0.0298868296 -0.041384104
665296010.0 0.0305641377 -0.0378221616 0.1307060516 -0.7842770606 0.1311267434 -0.7837182635 0.0294607303 -0.0412387188
670295980.0 0.0301139517 -0.0376041879 0.1222495177 -0.7853044411 0.122593769 -0.7852478071 0.028332557 -0.0419631168
675295950.0 0.0293331459 -0.0380251259 0.1141785868 -0.7867717492 0.1140736698 -0.7865948402 0.0278346825 -0.0414864687
680295920.0 0.0287236599 -0.0376453554 0.1055601281 -0.7882990598 0.1063099472 -0.7876856039 0.0277716272 -0.0424392267
685295890.0 0.0284070236 -0.0376357392 0.0963979872 -0.7893620804 0.097423296 -0.7891630727 0.0272069447 -0.0419098779
690295860.0 0.0272578242 -0.0379272295 0.0885028077 -0.7899024162 0.0881122846 -0.7900610976 0.0265112136 -0.042400782
695295830.0 0.0271051741 -0.0384598122 0.0801159579 -0.7913023106 0.0798804191 -0.7906324011 0.0260892277 -0.0424047195
700295800.0 0.0268431702 -0.0379870731 0.0717506803 -0.791862663 0.0715746359 -0.7919901547 0.0249091083 -0.0422699468
705295770.0 0.025644908 -0.0380701453 0.0620068826 -0.7926649668 0.062537059 -0.7923224997 0.024433633 -0.0423751059
710295740.0 0.0252814886 -0.0384105354 0.0535330432 -0.7930122285 0.0540359947 -0.7931179729 0.0240562942 -0.0424294038
715295710.0 0.0245366006 -0.038031868 0.0456691487 -0.7935948967 0.0454786857 -0.794160868 0.0230831588 -0.0429387656
720295680.0 0.0246067967 -0.0380296767 0.0365397599 -0.7941739185 0.036881281 -0.7944053655 0.0226921659 -0.0428316181
725295650.0 0.0231064061 -0.0378504444 0.0285955912 -0.7946831117 0.028432859 -0.7945354184 0.0213641024 -0.0424063878
730295620.0 0.0222623648 -0.0386332927 0.0192488033 -0.7944219087 0.019436969 -0.7938852463 0.0208503351 -0.042399145
735295590.0 0.0222594807 -0.0384910455 0.0110695669 -0.7953138013 0.0106843565 -0.7947282244 0.0203024109 -0.0432611602
740295560.0 0.0217879326 -0.0389207015 0.0023238394 -0.7953159418 0.0024975919 -0.794819056 0.0192609161 -0.0426491133
745295530.0 0.0207049158 -0.0382862187 -0.0061851878 -0.7944931367 -0.0054639234 -0.7949650346 0.0180263799 -0.043089133
750295500.0 0.0200864931 -0.0383459514 -0.0146251666 -0.7946774634 -0.0151803625 -0.7946779807 0.017887693 -0.0427761118
755295470.0 0.0192726475 -0.0383546233 -0.0229538151 -0.7946435644 -0.0232196122 -0.7947002549 0.0176168817 -0.042544814
760295440.0 0.0187837149 -0.0375320548 -0.0333034594 -0.7942316318 -0.0322051374 -0.7937385522 0.0169120498 -0.0438534078
765295410.0 0.0187931248 -0.0384993708 -0.0408822858 -0.7936121974 -0.0408218933 -0.793256105 0.0162380139 -0.0429991144
770295380.0 0.0179030943 -0.0380037224 -0.0490948613 -0.792735344 -0.0492673218 -0.7933471858 0.0154014749 -0.0430359758
775295350.0 0.0171262274 -0.0383587836 -0.0574912042 -0.7926062347 -0.0575587636 -0.7924868694 0.015042166 -0.0428747988
780295320.0 0.0163990838 -0.0377540169 -0.0663247943 -0.791021197 -0.0659634458 -0.7917406055 0.0145216945 -0.0431582448
785295290.0 0.0155457854 -0.0380571824 -0.0746891186 -0.7909928173 -0.0753769923 -0.7910202432 0.0129204815 -0.0425398724
790295260.0 0.015467635 -0.038339164 -0.0833044 -0.7905733093 -0.0832970958 -0.7905525352 0.0126644241 -0.0421478957
795295230.0 0.0144958192 -0.0384592274 -0.0918914519 -0.789513225 -0.0924521862 -0.7896251669 0.0122163131 -0.0431450197
800295200.0 0.0134893679 -0.0379369625 -0.1000414828 -0.7881798446 -0.1006750611 -0.7885089665 0.0113342659 -0.0425654259
805295170.0 0.0129732428 -0.0379385915 -0.1092761701 -0.7872972836 -0.1090331364 -0.7868147264 0.0114919903 -0.0420031152
810295140.0 0.0128487898 -0.037844321 -0.1178329217 -0.7857605208 -0.1174011402 -0.7858150361 0.0105066583 -0.0425522445
815295110.0 0.012195381 -0.037583765 -0.1260671201 -0.7839388279 -0.1255052591 -0.7844830119 0.0095272482 -0.0422914716
820295080.0 0.0114598349 -0.0377006215 -0.1341027814 -0.7823318472 -0.1340932156 -0.783090614 0.0081501721 -0.0411575927
825295050.0 0.010457277 -0.03739356 -0.1433843466 -0.7818127528 -0.1430568519 -0.7811155955 0.0089866125 -0.0410557839
830295020.0 0.00973779 -0.0375140844 -0.151997017 -0.7797513067 -0.1515355064 -0.7800461822 0.007767705 -0.0418624686
