!Created with skrf (http://scikit-rf.org).
# Hz S RI R 50.0 
!freq ReS11 ImS11 ReS21 ImS21 ReS12 ImS12 ReS22 ImS22
300000.0 -0.0488727504 -0.0405748654 0.0002304374 0.0005285009 0.0002915226 0.0005453607 -0.7784410739 -0.1212224118
5299970.0 -0.0496966815 0.0160441626 0.0002713048 0.0002831774 0.0001015439 -4.8916e-05 -0.7854734288 -0.0065779923
10299940.0 -0.0441300945 0.0327675606 -8.54245e-05 -2.21808e-05 -7.263e-06 1.79884e-05 -0.7883987295 -0.0030603898
15299910.0 -0.0361695111 0.0471064209 4.41965e-05 3.91234e-05 -0.0001003342 -0.0001391563 -0.7941864165 -0.001392711
20299880.0 -0.0262726074 0.0586179097 0.0001794695 -6.38576e-05 -7.95007e-05 6.3325e-05 -0.8007340141 0.0021457395
25299850.0 -0.0154613359 0.068164483 -6.8868e-05 -5.52996e-05 -0.0001017254 0.0002077923 -0.8062632605 0.0081719001
30299820.0 -0.0042614286 0.0750759354 0.0001537426 -0.0001618823 3.80041e-05 -5.74014e-05 -0.8128227646 0.0162748837
35299790.0 0.007312392 0.0797258026 4.3926e-06 0.0001376832 0.0001204235 3.46678e-05 -0.8176640209 0.0248956915
40299760.0 0.0186305312 0.0829137329 0.0001000391 6.04917e-05 0.0001679938 2.72415e-05 -0.8218330824 0.0343619598
45299730.0 0.0291806363 0.0841923274 -0.0001550293 1.68022e-05 -0.0001664858 -0.0001374616 -0.8254713505 0.043676057
50299700.0 0.0392156785 0.084465088 4.92847e-05 0.0002146691 -3.24935e-05 4.92628e-05 -0.827516651 0.0534613476
55299670.0 0.048251351 0.0833937392 -0.0001695196 0.0001061864 -6.36835e-05 0.0001051802 -0.8296586298 0.0639249456
60299640.0 0.0568472268 0.0818651913 -4.51181e-05 9.13003e-05 6.50849e-05 6.1204e-06 -0.8305298478 0.0738452612
65299610.0 0.0647963604 0.0795253146 7.02119e-05 0.0002608984 -9.95165e-05 1.02375e-05 -0.8319138674 0.0838839823
70299580.0 0.071459336 0.0770044945 -0.0001029997 -7.2842e-05 -0.0001113929 -2.29094e-05 -0.8317854418 0.0937318554
75299550.0 0.0781452938 0.0739483693 -0.0001394565 1.94768e-05 -1.39862e-05 0.0002704458 -0.8320960847 0.1040537928
80299520.0 0.0837064573 0.0705195428 -0.0001599804 5.3001e-06 6.65238e-05 -1.95529e-05 -0.8320294429 0.1136897168
85299490.0 0.0887112892 0.0666998643 -7.3119e-06 -8.88784e-05 -2.47191e-05 -4.87679e-05 -0.8315034426 0.1233653296
90299460.0 0.0934079 0.0632709827 0.0001364267 9.44296e-05 -2.00549e-05 -9.19023e-05 -0.8307718793 0.1329191867
95299430.0 0.0976855126 0.0592672329 8.1076e-05 -3.04064e-05 -0.0001540716 2.9558e-05 -0.8287584628 0.1428464851
100299400.0 0.101040542 0.0556985723 0.0002044722 7.2145e-06 -4.74172e-05 -1.94538e-05 -0.8285795866 0.1518412943
105299370.0 0.1044104319 0.0519537078 -3.6804e-06 0.0001838627 4.95983e-05 0.0001768436 -0.8270694327 0.1608627323
110299340.0 0.1075523054 0.0479892846 0.0001558615 2.68452e-05 2.77899e-05 0.000113757 -0.8254767915 0.1708488858
115299310.0 0.1102957581 0.0440768934 -1.10964e-05 0.0001131197 5.23649e-05 9.4907e-05 -0.8243607763 0.1796350755
120299280.0 0.112227388 0.0404600239 0.0001407425 9.46485e-05 0.0002067512 4.53875e-05 -0.8225078083 0.1889056574
125299250.0 0.1141525431 0.0365486728 0.0003013292 9.89168e-05 -4.5267e-06 0.0001588991 -0.8213145434 0.1979647685
130299220.0 0.1157895352 0.0333709197 0.0001221687 0.0001634887 -0.0001993924 3.84591e-05 -0.8195161215 0.2067674986
135299190.0 0.1171326399 0.0299459866 -2.08167e-05 0.0001410322 -3.61377e-05 0.0002609574 -0.8170207835 0.215871204
140299160.0 0.1187195902 0.0262241652 0.0001329266 0.0001264465 -7.4043e-05 3.04602e-05 -0.815097029 0.2249014916
145299130.0 0.1199808013 0.0226394155 -0.0001240701 8.37624e-05 -3.24362e-05 -5.55947e-05 -0.813095838 0.2340653832
150299100.0 0.1211486167 0.0193818719 -0.0001372039 4.53185e-05 4.4105e-06 -0.0001946368 -0.8111653346 0.243267837
155299070.0 0.1217482981 0.0162109104 3.6132e-05 -8.35929e-05 0.0003304874 3.985e-05 -0.8082869249 0.2515201994
160299040.0 0.1220734938 0.0130353102 0.0001000503 0.0002361691 -0.0001246379 0.0003073317 -0.8056220654 0.2604294064
165299010.0 0.1229525935 0.0097592011 7.98531e-05 0.0003932762 -1.21588e-05 0.0001703686 -0.8035942596 0.269278749
170298980.0 0.1230251652 0.0069475759 8.79621e-05 4.7579e-05 0.0002220773 0.0002128117 -0.8003405198 0.2780663396
175298950.0 0.123483179 0.0041617779 -9.35096e-05 7.74577e-05 -3.86959e-05 -1.465e-06 -0.7979895026 0.2867316695
180298920.0 0.123848006 0.0013676784 0.000186954 8.04755e-05 -0.000143262 5.2231e-06 -0.7947504735 0.2948725833
185298890.0 0.1241696983 -0.001853322 5.31583e-05 0.0001377262 -0.000116525 0.0001704296 -0.7913575314 0.3035507841
190298860.0 0.1242072247 -0.0042644288 0.0002014211 0.0001184061 8.13669e-05 -9.7799e-05 -0.7887728391 0.3122502941
195298830.0 0.1239531593 -0.0070024737 -5.115e-07 0.0003716398 -5.9234e-06 0.0002261015 -0.7853752477 0.3209851818
200298800.0 0.1239492299 -0.0094418822 0.0001410573 0.0001748319 0.0001436216 -5.76659e-05 -0.7825623122 0.328310979
205298770.0 0.123742598 -0.0124036941 0.0001993292 0.0002787655 1.70211e-05 5.87316e-05 -0.7783212354 0.3373700575
210298740.0 0.1235215126 -0.0147576248 8.2193e-06 8.12419e-05 0.0001366898 0.000196786 -0.7745974665 0.3454700029
215298710.0 0.123130786 -0.0171025005 0.0002047947 -0.0001228713 0.0001261293 8.77637e-05 -0.7717858199 0.353426549
220298680.0 0.1227584649 -0.0198180448 0.0001133346 -2.49057e-05 5.88232e-05 -1.23898e-05 -0.7676664496 0.3616258169
225298650.0 0.1222314791 -0.0222028066 0.0001690251 0.00015534 -9.65777e-05 4.55368e-05 -0.7642566464 0.3696591072
230298620.0 0.1215918584 -0.0240339973 -7.79792e-05 0.0002285621 2.75827e-05 5.5799e-05 -0.7600819299 0.3777938
235298590.0 0.1214807971 -0.026454158 3.38941e-05 8.18582e-05 -5.13609e-05 3.2693e-06 -0.7556803838 0.3866354003
240298560.0 0.1206537216 -0.0289683726 0.000378292 0.0001760417 0.000301338 6.73413e-05 -0.7515918478 0.3949016617
245298530.0 0.1201899401 -0.0309843022 0.0001629309 6.80065e-05 -9.3449e-06 0.0001004533 -0.7476769687 0.4022857696
250298500.0 0.1198457518 -0.0330321714 8.00523e-05 0.0001901019 5.77739e-05 0.0001882038 -0.7436009838 0.4097734225
255298470.0 0.1187171332 -0.0351942322 -4.32997e-05 -5.14809e-05 -4.39948e-05 0.0002553278 -0.7386995918 0.4178967872
260298440.0 0.1179985687 -0.037372495 0.0001002592 0.0002631488 -1.15265e-05 2.22271e-05 -0.7349260854 0.42557818
265298410.0 0.1175586199 -0.0390947772 0.0001901622 0.0001859568 0.0001851686 0.0001231702 -0.7307023734 0.4329900542
270298380.0 0.1168158694 -0.0409571255 0.000206408 0.000216609 7.3379e-05 -4.16483e-05 -0.7254029377 0.440970023
275298350.0 0.11600355 -0.0429097193 0.0001998343 0.0002306759 2.41154e-05 3.93958e-05 -0.7210975829 0.4483672076
280298320.0 0.1154837026 -0.0447707921 4.91962e-05 0.0003200338 9.59544e-05 -2.36746e-05 -0.7161168563 0.4559581171
285298290.0 0.1148435541 -0.0465820424 0.0001430842 0.0003201651 0.0001140693 0.0003094737 -0.7112556084 0.4632038136
290298260.0 0.1138988269 -0.0482514318 7.44921e-05 0.0001195576 0.000135531 3.20208e-05 -0.7066402544 0.4713345314
295298230.0 0.1131439461 -0.0504961684 0.0003374711 7.92351e-05 5.55086e-05 0.0002451064 -0.7016304077 0.4778926482
300298200.0 0.1121502525 -0.0519482726 2.43585e-05 0.0001208095 6.67637e-05 0.0001907277 -0.696827395 0.4855104067
305298170.0 0.1113595648 -0.0536939452 3.00859e-05 -0.0001071751 -3.33148e-05 -6.056e-05 -0.6908683038 0.4934881954
310298140.0 0.1104699834 -0.0552183691 6.45185e-05 0.0002414924 7.53055e-05 0.0001307819 -0.6872057169 0.500289124
315298110.0 0.1097641669 -0.0573663415 -0.0002509668 0.0002241115 1.92392e-05 0.0001813408 -0.6808419016 0.5070217257
320298080.0 0.1087340398 -0.0592534846 0.0002086032 0.0002420962 0.000108275 0.0002018514 -0.6756169052 0.5144794622
325298050.0 0.1077042233 -0.0610226477 0.0002472566 0.0001139484 0.0003026257 -7.3242e-06 -0.6701256332 0.5214461501
330298020.0 0.1062734159 -0.0626657414 0.0004800607 0.0001550963 -6.55067e-05 0.0001011075 -0.6644440531 0.5285168539
335297990.0 0.1051161658 -0.0645524963 0.0001514031 0.0002471169 6.9337e-05 0.0001055719 -0.6595970389 0.5353840061
340297960.0 0.1036712192 -0.0655608613 -7.5459e-06 -3.0181e-05 0.0003034071 0.0001164646 -0.6531725512 0.5429073491
345297930.0 0.1023621749 -0.0669531911 0.0002854105 0.0002591867 0.0002288774 0.0001669121 -0.6480458463 0.548394328
350297900.0 0.1012432464 -0.0682773384 0.0003138252 0.0002668355 0.000118213 7.69883e-05 -0.6425717096 0.5553253481
355297870.0 0.1001106941 -0.0697264055 3.59539e-05 -9.3837e-06 -4.79749e-05 -0.0001227876 -0.6362608781 0.561964988
360297840.0 0.0990558268 -0.0708821548 0.0001178166 -7.6071e-05 0.0002276068 0.0001861847 -0.6305505616 0.5688019509
365297810.0 0.0973661231 -0.0719868497 4.96812e-05 0.000115158 0.0001247485 5.67341e-05 -0.6240588457 0.5748783953
370297780.0 0.0962965165 -0.0735837854 -7.95099e-05 0.000193912 0.0002530134 0.0001723138 -0.6177680633 0.5811563944
375297750.0 0.0954716105 -0.0745618782 0.0001142991 0.0002044984 0.0001125659 0.0001245195 -0.6126711329 0.5876482163
380297720.0 0.0942226856 -0.0758944631 0.0001967476 7.9941e-06 0.0003064593 -0.0001220385 -0.6061348327 0.5939748476
385297690.0 0.0928293021 -0.0769294562 0.0002439801 3.76024e-05 0.0001683925 0.0001884913 -0.6000135475 0.6001925747
390297660.0 0.091413428 -0.0779807503 0.0002968244 7.82101e-05 0.0002571707 0.0001510419 -0.5938566621 0.6067271925
395297630.0 0.0906017824 -0.0792296972 0.0004133598 6.36891e-05 0.0002075363 0.0001253663 -0.5866332077 0.6128143631
400297600.0 0.0895059473 -0.0803634199 0.0002480136 0.0001928245 0.0002864981 4.80898e-05 -0.5809788287 0.6184101332
405297570.0 0.0878118811 -0.0814822272 0.0003775924 0.0001329315 0.0001771213 0.0001465719 -0.5739514154 0.6242816552
410297540.0 0.0865277197 -0.0824337964 0.0001998488 -2.55373e-05 0.0002330917 0.0001458975 -0.5677339505 0.63044817
415297510.0 0.0853038785 -0.0839240019 1.49942e-05 0.0001318233 0.0003465543 0.0001625696 -0.5615635969 0.6360538416
420297480.0 0.084222549 -0.0843904518 0.0001795593 0.0001627442 2.5226e-05 8.8597e-05 -0.5546871593 0.6417498416
425297450.0 0.0829886918 -0.0853611935 0.0003330932 0.0001019099 0.0004482296 7.05508e-05 -0.5478506661 0.6478952889
430297420.0 0.081662646 -0.0866202758 -2.34589e-05 4.55126e-05 0.0002735766 6.63512e-05 -0.5417854474 0.6529427598
435297390.0 0.0803647974 -0.0871970698 0.0001848092 0.0001764257 0.0001848832 0.0001094855 -0.5345161592 0.658442921
440297360.0 0.0789634811 -0.0887295359 0.000340318 8.27391e-05 0.0002019324 0.0001864783 -0.527817121 0.6635800315
445297330.0 0.0777516346 -0.0893828668 5.68327e-05 2.5233e-05 0.0001969549 4.9925e-06 -0.5206306926 0.6689876601
450297300.0 0.0765901467 -0.0904685999 0.0002941912 8.35015e-05 0.0001367074 0.0001818135 -0.5132776302 0.6742825809
455297270.0 0.0749497844 -0.0909426996 0.00029215 0.0001237969 0.0002963079 0.0001499934 -0.5068595474 0.6789081832
460297240.0 0.0736607942 -0.0920088731 1.91231e-05 2.22033e-05 0.0001973234 3.61835e-05 -0.5004403103 0.684355939
465297210.0 0.0724520766 -0.0927606575 0.0002125092 2.6091e-05 0.0002224788 9.47078e-05 -0.4925570974 0.6889887696
470297180.0 0.0709202183 -0.0935994348 0.0001100809 -5.20482e-05 0.0002457426 0.0001244253 -0.4852112473 0.6949576258
475297150.0 0.0695104985 -0.0946238959 0.0004271359 0.0001484526 0.0003585733 0.00015407 -0.4784037605 0.698995778
480297120.0 0.0681014352 -0.0948610125 0.0004385678 0.0002342762 0.0001831413 0.000253419 -0.4705712284 0.7043940769
485297090.0 0.0670057799 -0.0959286448 0.0004594907 4.08103e-05 0.0001437839 -1.95161e-05 -0.4639794359 0.7088899548
490297060.0 0.0653368068 -0.0961906546 0.0005221124 4.24349e-05 0.0003351312 0.0002559628 -0.4568605594 0.7130958858
495297030.0 0.0641561037 -0.0972161317 0.0003640618 3.10871e-05 0.0001599031 3.71127e-05 -0.4498158845 0.7183938699
500297000.0 0.0628806326 -0.0979684614 0.0003077613 -3.1055e-05 0.000573339 0.000213992 -0.4416229984 0.7231579996
505296970.0 0.0614633627 -0.0985409234 0.0003435038 5.79365e-05 0.000140535 6.9585e-06 -0.4345979291 0.7268299375
510296940.0 0.0601111855 -0.0992419468 0.0003436253 7.18423e-05 0.0002467245 0.0001032395 -0.4270041135 0.7318199434
515296910.0 0.0587462822 -0.0998042246 0.0005329034 -3.7771e-05 0.0005190188 0.0001513479 -0.4200654685 0.7355956905
520296880.0 0.0568651785 -0.100410926 0.0005898554 0.0002037324 0.000429789 0.0002031899 -0.4119684922 0.7391158226
525296850.0 0.0558292468 -0.1013615588 0.0002683079 0.0001286402 0.0002263889 7.68409e-05 -0.4047072642 0.7440651429
530296820.0 0.0544791624 -0.1016438641 0.0003040077 0.0001918742 0.0002004185 7.97915e-05 -0.39697288 0.7477473736
535296790.0 0.0528701216 -0.1018746347 0.0002080487 8.90989e-05 0.0004669839 9.88343e-05 -0.3897232927 0.7514506957
540296760.0 0.051486666 -0.1025025422 0.0002217776 0.0001500687 0.000557356 6.73789e-05 -0.3819700055 0.7549318378
545296730.0 0.0499675863 -0.1030251629 0.0002017672 9.25414e-05 0.0002050887 0.0002604884 -0.3742019869 0.7593523192
550296700.0 0.048975553 -0.1034957575 0.0005192699 1.4117e-05 0.0001899975 6.89662e-05 -0.3660746547 0.7626674021
555296670.0 0.0472736789 -0.1040313867 0.000410368 0.0003540808 0.000266505 0.0002391752 -0.3583509127 0.7668766079
560296640.0 0.0459093159 -0.1043333451 0.0004030079 0.0001080368 0.0002044556 0.0002089516 -0.3507133625 0.7707675764
565296610.0 0.0443330821 -0.1046343348 0.000193711 6.09828e-05 0.0001705871 0.0002213699 -0.3431738465 0.7734283245
570296580.0 0.0428868359 -0.1053418159 0.0003454563 -6.73678e-05 0.0003285802 0.0002396689 -0.3351804891 0.776975653
575296550.0 0.0414841891 -0.1052885437 0.000329647 9.12555e-05 0.00025353 -8.89962e-05 -0.3273805552 0.7802285413
580296520.0 0.0400749044 -0.1058796028 0.0004529774 0.0002037802 0.0001940384 4.97081e-05 -0.3187289372 0.7832976847
585296490.0 0.0383595652 -0.1061592534 0.0002364435 0.0001266239 0.0002387383 0.0001155539 -0.3110141309 0.7871656753
590296460.0 0.0374486374 -0.1062886402 0.000221639 -0.0001507179 0.0003269211 0.0001833169 -0.303206485 0.7900481313
595296430.0 0.0359450414 -0.1067567696 0.0001753222 -2.43154e-05 0.0003302778 7.11319e-05 -0.2951770052 0.79282161
600296400.0 0.0341681358 -0.1069219244 0.00038981 0.0003376706 0.000284165 8.9886e-06 -0.2872125542 0.795642176
605296370.0 0.0327750251 -0.1070375083 0.0006191497 0.0001628165 0.0002762905 0.0001254935 -0.2783000319 0.7987148616
610296340.0 0.0311123502 -0.1072879077 0.0004098689 -9.23787e-05 0.0004382689 -9.4888e-06 -0.2708923626 0.8010234713
615296310.0 0.0299471896 -0.1079428522 7.19041e-05 7.77957e-05 0.0003315853 -2.18409e-05 -0.2624551443 0.8033989758
620296280.0 0.0283216841 -0.1080843532 0.0003572492 4.55397e-05 0.0002445852 3.55177e-05 -0.2545901097 0.8064999709
625296250.0 0.0271175855 -0.1081937552 0.0003271774 -3.10191e-05 0.0002336527 5.67133e-05 -0.2459295764 0.8084001496
630296220.0 0.0259228643 -0.1083125658 0.0004932508 0.000242335 0.000509254 -2.62309e-05 -0.2383708555 0.8116133255
635296190.0 0.0237710232 -0.1082725334 0.0005778004 8.29194e-05 0.0005979465 1.24202e-05 -0.2298963011 0.8131221312
640296160.0 0.0224855345 -0.1085907012 0.000210502 -0.000180342 0.0004919281 4.39531e-05 -0.2218294473 0.8162849613
645296130.0 0.021254391 -0.1081972264 0.0002632218 -5.59264e-05 0.000498616 -2.9189e-05 -0.213329652 0.8183199866
650296100.0 0.0198474105 -0.1084340738 0.0003135287 0.0001136002 0.000217932 -0.0001086793 -0.2052501654 0.819843915
655296070.0 0.0182749669 -0.1087272453 0.0001677536 7.87553e-05 0.0004733294 4.16686e-05 -0.1967850514 0.8217124025
660296040.0 0.016528116 -0.1086110478 0.0003637691 0.0002675991 0.0003666621 0.0001199078 -0.1882073799 0.8242125068
665296010.0 0.0154430414 -0.1086997842 0.0002543678 -0.0001971101 0.0005660917 0.0001356538 -0.179824156 0.82643139
670295980.0 0.0136285492 -0.1083562504 0.0004543398 0.0001465046 0.0002828467 0.0001070021 -0.1730184955 0.8275189577
675295950.0 0.01236788 -0.108685524 0.0004771385 4.33542e-05 0.0002958043 0.0001644097 -0.1642325496 0.8294877456
680295920.0 0.0110671971 -0.1082922352 0.0003036914 0.0001258613 0.0004356763 9.53842e-05 -0.1554100766 0.8309226729
685295890.0 0.0096764396 -0.1080886819 0.0002067523 -0.0001574043 0.000343581 -0.0001462725 -0.1474224516 0.8324841018
690295860.0 0.0083041284 -0.1080229001 0.0005799355 0.0001063013 0.0004333137 -0.0001701635 -0.1386776643 0.8337263407
695295830.0 0.0067590405 -0.1079919446 0.0002428659 6.13007e-05 0.0004067264 0.0001153721 -0.1299776874 0.8352961294
700295800.0 0.0051966434 -0.1079035761 0.0004052062 0.0001898377 0.0002895508 0.0001125182 -0.1230002499 0.8368365521
705295770.0 0.0034863336 -0.1078942223 0.0003639091 -0.0002479024 0.0003572815 -0.0001027321 -0.1143329864 0.8380165667
710295740.0 0.0022604479 -0.1075236389 0.0002541767 3.18262e-05 0.0002211105 -0.0001594148 -0.1057243547 0.8384691129
715295710.0 0.0010805892 -0.1074103219 0.0003329504 -2.10022e-05 0.0004151125 -2.41466e-05 -0.097598174 0.8396262717
720295680.0 -0.0006132392 -0.1074238886 0.0005695407 2.44661e-05 0.0005372761 -8.7637e-05 -0.0881329468 0.8406841727
725295650.0 -0.0017568313 -0.1071010526 0.0004823245 -5.33788e-05 0.0004967068 -0.0002409079 -0.080880088 0.8417869183
730295620.0 -0.0032425352 -0.106946045 0.000471487 -0.0001013522 0.0003757534 6.15531e-05 -0.0726378665 0.8419743828
735295590.0 -0.0044698858 -0.106552158 0.000346785 -3.83866e-05 0.0003998962 -0.0001257684 -0.0637147019 0.8424498096
740295560.0 -0.0062140516 -0.1060491162 0.0003511551 -0.000140945 0.0004255825 -0.0001265032 -0.054524813 0.8439786351
745295530.0 -0.0077300577 -0.1060435274 0.0001534315 -4.36073e-05 0.0004219287 2.17683e-05 -0.0466104091 0.8436042648
750295500.0 -0.009091914 -0.1057146814 0.0004988481 -0.0002048551 0.0003816745 -0.0001916215 -0.0387319593 0.8443078886
755295470.0 -0.0102539569 -0.1054392038 0.0002651637 -9.00235e-05 0.0005190109 -0.0001185189 -0.029509314 0.8439627031
760295440.0 -0.0117352662 -0.105011075 0.0004127183 1.50603e-05 0.0003964564 -7.6079e-06 -0.0211763869 0.8444415129
765295410.0 -0.0129116581 -0.1045241023 0.0004341585 0.0001530742 0.0002614976 -0.000182938 -0.0127695867 0.8451122587
770295380.0 -0.014439772 -0.1040682937 0.0003243768 7.61672e-05 0.0003962589 6.12407e-05 -0.0043797816 0.8451242459
775295350.0 -0.0162970999 -0.1040082779 0.0005118228 -0.0003318703 0.0006123103 -0.0001035639 0.0033810671 0.8445143883
780295320.0 -0.0170739881 -0.1032941583 0.000376014 0.0001129869 0.0003975672 0.000104305 0.0119707534 0.8446043179
785295290.0 -0.0186482871 -0.1033748052 0.0004296402 -0.000277676 0.0002814823 -5.0148e-06 0.020656828 0.8447235402
790295260.0 -0.0197625213 -0.1025005954 0.0003778248 -0.0001048699 0.0004356272 -2.07026e-05 0.0295054877 0.8449156681
795295230.0 -0.0211943035 -0.1020438967 0.0002651138 -0.00021 0.0003399964 -0.0001685674 0.0379773931 0.8435669638
800295200.0 -0.0227413745 -0.1015288851 0.0004297715 -0.0001369497 0.0004304513 -0.0001060437 0.0465999088 0.8437311484
805295170.0 -0.0240557333 -0.101238196 0.0006422476 -0.0001241709 0.0003467944 -0.0001695491 0.0545494206 0.8434624531
810295140.0 -0.0249599817 -0.1005943488 0.000532942 -6.48062e-05 0.0003704393 -0.0001693178 0.0629064474 0.8426755426
815295110.0 -0.0263938683 -0.1003625273 0.0003674054 4.6408e-06 0.0004312566 -6.90543e-05 0.071698891 0.8419631042
820295080.0 -0.0278556223 -0.0994288867 0.0003945406 -0.0003204521 0.0002115936 -1.9224e-06 0.0800417962 0.8416128904
825295050.0 -0.028906848 -0.0989845546 0.0003401007 -0.0004317913 0.000141161 0.0001460514 0.0879463546 0.8405485403
830295020.0 -0.0303635871 -0.09857752 0.0005546464 -0.0001110353 0.0005537898 -0.0001516463 0.0973615527 0.8395324113
835294990.0 -0.0318196364 -0.0976435088 0.0003515166 -6.12932e-05 0.0004644997 -0.00028797 0.1044129166 0.8388276184
840294960.0 -0.0330665585 -0.0970628933 0.0004868456 -6.92345e-05 0.000276451 -0.000173365 0.1133239947 0.8373156427
845294930.0 -0.0341473962 -0.0962491614 0.0003997268 -0.0002975847 0.0004732592 -0.0001190483 0.1207815326 0.8365359012
850294900.0 -0.0353133984 -0.0955731369 0.0005158956 -0.0002708315 0.000503235 -0.0002743146 0.1290974983 0.8344952852
