!Created with skrf (http://scikit-rf.org).
# Hz S RI R 50.0 
!freq ReS11 ImS11 ReS21 ImS21 ReS12 ImS12 ReS22 ImS22
300000.0 -0.7759849558 -0.0881021272 -0.0025135423 0.0018655306 0.000558397 0.0013123817 -0.7738828506 -0.127204922
5299970.0 -0.7847864678 -0.0051952877 0.0001055669 -0.0005247396 6.2824e-05 9.59349e-05 -0.7849475784 -0.007206606
10299940.0 -0.7879270702 -0.0036761755 -1.80425e-05 -0.0001759446 9.71526e-05 -0.0001305875 -0.7878488044 -0.0034062871
15299910.0 -0.7936615028 -0.0020053251 -0.0002235622 0.0002177944 -0.000166636 -0.0001563839 -0.7930848621 -0.001743649
20299880.0 -0.8002183127 0.0025793678 8.49724e-05 0.0001059055 0.0001113386 -2.2926e-05 -0.799825183 0.002091934
25299850.0 -0.806363247 0.0078174175 -9.34644e-05 -9.56283e-05 4.91393e-05 5.12785e-05 -0.8061844088 0.0082761721
30299820.0 -0.8126964663 0.0150340087 0.0003142913 4.84265e-05 5.33541e-05 0.0001516562 -0.8123070573 0.0162008641
35299790.0 -0.8172413429 0.024407835 3.92669e-05 9.98287e-05 -0.0002892058 -0.000284344 -0.8175007169 0.025154275
40299760.0 -0.8216633171 0.0336677008 -2.87401e-05 -0.0001502837 -0.0001860221 2.69637e-05 -0.821581729 0.0344947792
45299730.0 -0.8245158399 0.0428431581 5.1629e-06 -6.50785e-05 -0.0001046017 -0.0001183523 -0.8253684528 0.0439784787
50299700.0 -0.8269825669 0.0532027481 -6.11258e-05 -0.0001216866 0.0001172987 6.2716e-06 -0.8275396387 0.053976819
55299670.0 -0.8296606536 0.0631507415 3.8318e-06 -0.0001194883 6.69328e-05 -0.0001049792 -0.8295580267 0.0642857512
60299640.0 -0.8301979579 0.0738468321 -0.0001643813 -0.000121683 -5.7459e-05 -2.05185e-05 -0.8304055363 0.0738861979
65299610.0 -0.8313571252 0.0833554959 -0.0001273097 0.0001414663 -2.70992e-05 -0.000119611 -0.8318039363 0.0844318261
70299580.0 -0.8314865553 0.093739285 8.46166e-05 0.0001564824 3.02982e-05 2.57857e-05 -0.8319879376 0.0941889321
75299550.0 -0.8320847121 0.1043193289 -7.16451e-05 0.0001091773 -5.87998e-05 -7.41723e-05 -0.8323939982 0.1045045118
80299520.0 -0.8320185534 0.1130865646 5.07264e-05 -0.0001380307 -6.4953e-06 1.1764e-06 -0.8317676448 0.1140850447
85299490.0 -0.8310355177 0.1227997683 2.6157e-06 6.55594e-05 4.26742e-05 -4.52753e-05 -0.8317118515 0.1235589031
90299460.0 -0.8297770798 0.1320300552 -2.70958e-05 -4.70399e-05 -0.0001710752 -0.0001442263 -0.8312363314 0.1331212319
95299430.0 -0.8291824021 0.1420229474 -3.48612e-05 -0.0001247524 4.10861e-05 -7.69201e-05 -0.8293985178 0.1431700945
100299400.0 -0.8277511416 0.1512170557 3.47218e-05 -0.0001854658 1.48573e-05 -8.23113e-05 -0.8288545821 0.1521355223
105299370.0 -0.8268432269 0.1603331073 3.2008e-05 -1.71771e-05 -2.81137e-05 -5.05637e-05 -0.8271617038 0.1607247047
110299340.0 -0.8253004575 0.1698280249 0.0001064833 6.88175e-05 0.0001179218 -4.3825e-06 -0.8258326295 0.1706348997
115299310.0 -0.8240604459 0.178784067 -9.38501e-05 -8.07023e-05 -0.00012877 7.44438e-05 -0.8238838146 0.1798055021
120299280.0 -0.8221114907 0.1873208029 1.00072e-05 -0.0001547754 -0.0001740309 5.6646e-06 -0.8225367578 0.1890695897
125299250.0 -0.8201503839 0.19586612 -9.77962e-05 0.0002403396 5.38657e-05 0.000123275 -0.820810414 0.1983066354
130299220.0 -0.8189593319 0.2056872198 7.7743e-05 0.0001293918 8.72414e-05 -5.03899e-05 -0.8189264873 0.2070344042
135299190.0 -0.8171131018 0.2142877827 0.0001356816 -1.30914e-05 -0.0001441996 -7.81252e-05 -0.816806228 0.2161263545
140299160.0 -0.8150338955 0.2228830273 -2.13189e-05 0.0002538444 4.7791e-05 9.11336e-05 -0.8141420716 0.2250574486
145299130.0 -0.8129910481 0.2325739963 -0.0001997207 2.5679e-06 0.0001292476 -7.90446e-05 -0.812651613 0.2339963814
150299100.0 -0.810216422 0.2411124712 -7.33612e-05 7.01659e-05 0.0002361183 -0.0001313649 -0.810806751 0.2432923236
155299070.0 -0.8076491434 0.249653239 -6.5541e-05 -1.99455e-05 -7.816e-05 0.0002778296 -0.8074447372 0.25181213
160299040.0 -0.8055425785 0.2583469692 0.0001226015 -0.0002285638 0.0001049029 -6.45925e-05 -0.8055291434 0.2606116984
165299010.0 -0.8027146176 0.2668415773 -0.0001176819 0.000203065 -4.27e-08 0.0001082366 -0.8026542532 0.269588447
170298980.0 -0.8002772475 0.2757644567 3.85622e-05 -0.0001553362 -6.77377e-05 -5.23092e-05 -0.7996391095 0.2778756114
175298950.0 -0.7972415122 0.2842371411 2.70169e-05 -0.0001265547 7.18617e-05 -6.9941e-05 -0.7972198274 0.2871186224
180298920.0 -0.7946338858 0.2928899306 -0.0001885421 -2.71271e-05 6.33657e-05 0.0002134516 -0.7936747732 0.2951295437
185298890.0 -0.7908176728 0.3007663503 -5.86638e-05 4.04599e-05 9.25631e-05 2.75146e-05 -0.7904551843 0.3038026821
190298860.0 -0.7886443409 0.3095405119 7.19202e-05 8.8612e-05 -0.0001470075 -5.22334e-05 -0.7881817006 0.3123996569
195298830.0 -0.7853178178 0.318027674 -7.40182e-05 -0.0002439672 -2.726e-05 -0.0002538827 -0.7844041734 0.3211313437
200298800.0 -0.7813912333 0.3261894187 4.08516e-05 -0.0001011567 -0.0002529572 -7.82234e-05 -0.781582421 0.3292939564
205298770.0 -0.7782282651 0.3345433012 -0.0001121999 1.19045e-05 0.0001341044 -2.63072e-05 -0.7773418781 0.3371690507
210298740.0 -0.7749926051 0.342541088 4.55716e-05 0.0001138218 8.68571e-05 -1.00374e-05 -0.7749000743 0.3459666622
215298710.0 -0.7722433817 0.3511944977 -1.70429e-05 -1.90023e-05 0.0001375291 -2.40723e-05 -0.7707746847 0.353949132
220298680.0 -0.7669537378 0.3585802475 -0.0001708639 -0.0001562667 -0.0001032931 6.63822e-05 -0.7677316964 0.3621890193
225298650.0 -0.7642308202 0.3667375921 7.40788e-05 0.0001513992 -6.16489e-05 -0.0001321116 -0.7642550903 0.3699598824
230298620.0 -0.7601051907 0.3749724141 1.70403e-05 -8.93236e-05 0.0001237997 -0.0001701765 -0.7601275924 0.3784900404
235298590.0 -0.7560706477 0.3839650651 3.82147e-05 0.0001163265 -0.0001402047 4.56397e-05 -0.7557926538 0.3868485003
240298560.0 -0.7524914798 0.3911022723 2.72716e-05 5.05679e-05 -0.0001324953 1.77513e-05 -0.7516812604 0.3952744981
245298530.0 -0.7485673483 0.3989640865 -3.8013e-06 0.0001849787 -2.76929e-05 0.0001724958 -0.7484150087 0.4022861735
250298500.0 -0.7443904492 0.4065268706 -7.58678e-05 -5.61312e-05 0.0001452676 2.24157e-05 -0.7436714806 0.4105369493
255298470.0 -0.7395272143 0.414523833 -0.0001624952 6.15379e-05 -0.000226981 0.0001441775 -0.7385682778 0.4180705547
260298440.0 -0.7354727302 0.421925977 -4.2924e-06 -4.90561e-05 0.0001166307 4.29441e-05 -0.7348653058 0.426253159
265298410.0 -0.7312625659 0.4299514595 2.9556e-06 0.0001386425 2.31064e-05 -3.51e-07 -0.7305056471 0.4339841882
270298380.0 -0.7270550461 0.4373611688 3.56966e-05 0.0001010734 0.0001061762 -0.000109921 -0.7257906599 0.4409752279
275298350.0 -0.7220421868 0.444776751 -0.0001160223 0.0001516964 1.71478e-05 -0.0001076139 -0.7209734818 0.4488012936
280298320.0 -0.7170278313 0.4525028259 0.0001546738 -8.84196e-05 -5.8189e-06 1.35448e-05 -0.7160603521 0.4559015929
285298290.0 -0.7129837265 0.4602730078 -1.90064e-05 -0.0004696034 -7.64271e-05 -0.0002313793 -0.7109420632 0.463617349
290298260.0 -0.7081095195 0.467736389 -4.15161e-05 -0.0001239891 -0.0001053427 -2.96993e-05 -0.7064447977 0.4709045951
295298230.0 -0.702381393 0.4746484878 0.0001140947 1.09064e-05 -4.03054e-05 -2.78068e-05 -0.7012731119 0.4780179766
300298200.0 -0.6979290767 0.4822505679 5.15924e-05 2.2627e-06 3.85305e-05 0.0001642008 -0.6960124047 0.4857438866
305298170.0 -0.6927463946 0.4883442838 0.0001480353 -0.0002221639 9.63258e-05 0.0001847896 -0.6901423193 0.4933092497
310298140.0 -0.6874159307 0.496138233 6.17795e-05 -7.49246e-05 -7.59205e-05 -0.0001316394 -0.6859242828 0.5003582513
315298110.0 -0.6825608242 0.5031713314 -6.49855e-05 -0.0001805381 6.6668e-06 0.0001804493 -0.6798616282 0.5068141307
320298080.0 -0.6773833451 0.5102246833 -9.09539e-05 -0.0002263942 -0.0001494657 9.73073e-05 -0.6750219419 0.5151507582
325298050.0 -0.6716878864 0.5175897421 7.94901e-05 0.0002080035 6.02813e-05 -3.78577e-05 -0.6690160232 0.5214582102
330298020.0 -0.6664119494 0.5240316217 -8.82842e-05 6.67333e-05 -2.95774e-05 5.38286e-05 -0.6634614955 0.5285323378
335297990.0 -0.6609602305 0.5313039884 -7.83322e-05 -6.404e-07 2.39626e-05 -9.12271e-05 -0.6582356115 0.5358900839
340297960.0 -0.6557315831 0.5380657523 -0.0002196466 -4.29171e-05 2.86138e-05 -2.86584e-05 -0.6527170641 0.5423590184
345297930.0 -0.6500436962 0.5439401808 -0.0001310363 -1.76044e-05 0.0003268926 3.3684e-05 -0.6468520369 0.5488021625
350297900.0 -0.6446698784 0.5510677981 -0.0001286279 0.0002155993 3.97512e-05 2.45446e-05 -0.6410349214 0.5552585998
355297870.0 -0.6381846106 0.5579415616 0.0002448751 0.0003197574 -5.04269e-05 0.0002881224 -0.6356134299 0.5621604915
360297840.0 -0.6326359109 0.5639840528 -0.0002123516 0.000104973 7.3915e-06 0.000107365 -0.629837497 0.5689547566
365297810.0 -0.6270745134 0.5707103063 6.31829e-05 4.62301e-05 0.0002439946 0.0001734957 -0.6227966904 0.5756845287
370297780.0 -0.6211112848 0.5771420435 -5.26762e-05 -3.54822e-05 -7.06878e-05 -0.0001348509 -0.617279559 0.5821069001
375297750.0 -0.6143446557 0.58329507 0.000207438 -0.0001675363 0.0002063841 0.0001614199 -0.6118539837 0.588005433
380297720.0 -0.6085810885 0.5888904711 9.12284e-05 9.86827e-05 -9.97375e-05 -0.0001660993 -0.6058061295 0.5944142128
385297690.0 -0.6032311652 0.5953058057 0.000146619 4.2846e-05 -3.49256e-05 -3.87138e-05 -0.5991278428 0.6009334456
390297660.0 -0.5970210617 0.6014109546 -2.7356e-06 6.504e-06 0.0001384971 -0.0001387651 -0.5932105138 0.6064868627
395297630.0 -0.5905010675 0.6082678338 0.0001162936 -5.34944e-05 8.87056e-05 -0.0001262999 -0.5863479764 0.61329295
400297600.0 -0.5839163374 0.614115888 -0.0001028006 -9.60558e-05 -1.77204e-05 9.10361e-05 -0.580776338 0.6188665042
405297570.0 -0.5770974949 0.6196036096 -1.89871e-05 6.86633e-05 0.0002212717 -5.0168e-05 -0.5739764765 0.6255234592
410297540.0 -0.5711525561 0.6254183289 -2.82638e-05 -0.0002367936 -7.1281e-06 9.32769e-05 -0.5674722258 0.630922505
415297510.0 -0.5641654746 0.6312314846 0.0001560896 -0.0001970361 -4.61537e-05 1.25961e-05 -0.5609558273 0.6368158418
420297480.0 -0.5588557868 0.6372711928 0.0001924685 -0.0001760904 -8.74568e-05 2.50861e-05 -0.5544312267 0.642696315
425297450.0 -0.5517652812 0.6429035527 6.63331e-05 -7.78746e-05 -0.0002216146 -5.45112e-05 -0.5485466043 0.6479758286
430297420.0 -0.5452991599 0.6482077056 0.0001541867 -9.91935e-05 -2.84635e-05 -7.74438e-05 -0.5412425394 0.6528704443
435297390.0 -0.5387756645 0.6532121286 -5.1641e-06 7.1783e-06 6.88395e-05 7.93333e-05 -0.5333755689 0.6588305882
440297360.0 -0.5319405674 0.6591206296 0.0001937839 0.0001235126 -0.0001004459 -2.30226e-05 -0.5272545043 0.663719465
445297330.0 -0.5245856642 0.6651452984 0.0002055638 -0.0001175158 -7.08028e-05 -0.0002886599 -0.5202614265 0.6684938116
450297300.0 -0.5177782653 0.6692334004 -0.0001573716 -6.38583e-05 9.80455e-05 -0.0001638871 -0.5132201348 0.6741068564
455297270.0 -0.5114996442 0.6746277639 -6.6324e-05 -9.7443e-06 -2.34768e-05 0.0001059817 -0.506657383 0.6792563033
460297240.0 -0.5047432426 0.6795298899 -0.0001418041 -8.6201e-05 8.37532e-05 6.91045e-05 -0.4995597321 0.6844051982
465297210.0 -0.4975211945 0.6850252065 -8.36093e-05 0.0001987783 2.38374e-05 1.0228e-06 -0.491855559 0.6892655262
470297180.0 -0.4902935753 0.6899442881 0.0001863596 7.18972e-05 1.59582e-05 2.43329e-05 -0.4849099265 0.6941754184
475297150.0 -0.4831875706 0.6945088908 -0.0001565522 0.0001838408 -0.0001589563 0.0001374139 -0.4777598491 0.6987744078
480297120.0 -0.4766272582 0.6996134453 0.0002176191 3.2775e-05 0.0001628408 -0.0001010116 -0.4702610093 0.7036027028
485297090.0 -0.4689716252 0.7039695529 0.0001214205 -9.22848e-05 0.0001225026 -0.0002434414 -0.4631777946 0.7085427892
490297060.0 -0.4620908135 0.7088047654 5.3222e-06 2.97058e-05 -4.20279e-05 -0.000201562 -0.4557736952 0.7132268538
495297030.0 -0.4547480288 0.7133086281 -1.69721e-05 -0.0002022572 0.000165485 -9.67623e-05 -0.4487469367 0.7177015697
500297000.0 -0.4471658276 0.7180322534 0.0001841024 -3.6413e-05 -4.28766e-05 1.4748e-05 -0.4407622666 0.7228741643
505296970.0 -0.4400062676 0.7224941756 0.0001017425 -9.96825e-05 0.0001948633 0.000130056 -0.4335449362 0.7265741239
510296940.0 -0.4329039082 0.7265487732 8.13042e-05 -0.0002540903 -7.90699e-05 -4.1379e-06 -0.4268886603 0.7315034968
515296910.0 -0.4243269965 0.7305758282 7.9449e-06 0.0001097659 4.86771e-05 0.0001167851 -0.4185392435 0.7353373905
520296880.0 -0.4181236284 0.7354152505 -0.0001609767 -6.81134e-05 1.03665e-05 6.83494e-05 -0.4112640841 0.7392461636
525296850.0 -0.4096471238 0.7391484986 -0.0003635878 7.56394e-05 0.0001009382 0.0001433303 -0.4041355155 0.7436478786
530296820.0 -0.4022148369 0.7436413389 -0.0001026842 0.0001521899 9.56043e-05 4.52717e-05 -0.3959344967 0.7476016614
535296790.0 -0.3957599805 0.7474622577 -0.0003565926 0.0003510303 4.45787e-05 -0.000139114 -0.3890107164 0.7516620334
540296760.0 -0.3881206775 0.7509661972 -0.0001556899 -0.0001107191 0.0001881144 -5.56829e-05 -0.3812268308 0.7557917561
545296730.0 -0.380489493 0.7550942725 -8.58424e-05 6.5016e-06 -0.0001559496 0.0001104204 -0.3735448849 0.7593324164
550296700.0 -0.373045217 0.7595027335 -4.45964e-05 0.0001924859 -0.0001229286 6.22391e-05 -0.3652912106 0.763518395
555296670.0 -0.3643058771 0.7618459701 2.85487e-05 -0.0001204293 -6.38834e-05 -6.45536e-05 -0.357816718 0.7670471958
560296640.0 -0.3570961461 0.7661592912 0.0001469338 -9.6404e-06 0.0001589465 -0.0001387494 -0.3503637957 0.7706423966
565296610.0 -0.3490664867 0.769424865 0.0001164373 -1.35201e-05 0.0001695451 5.36411e-05 -0.3422124146 0.7741956349
570296580.0 -0.3419339201 0.77287674 -0.0001393946 -0.0002079352 0.0001518982 0.000171924 -0.3348553216 0.7782970874
575296550.0 -0.3344423946 0.7766292106 9.27219e-05 -5.96813e-05 4.71212e-05 0.0001069022 -0.3265615885 0.7809269131
580296520.0 -0.3259247237 0.7792904227 -2.7799e-06 -6.5453e-05 -3.4799e-05 -1.1081e-06 -0.3181326104 0.7842437696
585296490.0 -0.3186607672 0.7827994538 3.71855e-05 -9.44998e-05 -6.7236e-06 -0.000106426 -0.3101942587 0.787336447
590296460.0 -0.3101478809 0.785313488 -0.0001034985 -0.0001799435 -0.0001579463 0.0001444268 -0.3029310351 0.7906458026
595296430.0 -0.3024073571 0.7888310667 -4.67139e-05 1.46475e-05 2.57572e-05 0.0001780454 -0.2946405902 0.7928509016
600296400.0 -0.2946416009 0.7921279092 8.38319e-05 0.00012065 -0.000173564 6.1296e-05 -0.2864203603 0.795633136
605296370.0 -0.2877151841 0.7946219198 -0.0001257351 -9.40234e-05 1.22014e-05 4.54666e-05 -0.2779545164 0.7988314412
610296340.0 -0.2787178028 0.7974301821 -3.12291e-05 0.0001110456 1.12194e-05 5.14472e-05 -0.2706601749 0.8009932243
615296310.0 -0.2702668551 0.8001143049 -3.13689e-05 -0.0001284764 -6.04375e-05 0.0001459052 -0.261761401 0.8035589433
620296280.0 -0.2622113985 0.8024874435 -8.74075e-05 -0.0001148654 -4.13521e-05 -5.56788e-05 -0.2540938468 0.8067523634
625296250.0 -0.2545962933 0.805551061 -5.86827e-05 -3.51534e-05 -0.0003062284 7.806e-07 -0.2457121258 0.8081413933
630296220.0 -0.2458402414 0.8082302443 9.08416e-05 0.0001726151 -6.4783e-05 1.24972e-05 -0.2378587051 0.8112446273
635296190.0 -0.2380184111 0.8103220526 3.1833e-05 5.4596e-05 -5.31431e-05 -9.04455e-05 -0.2292621854 0.813240381
640296160.0 -0.2309577348 0.8123632407 5.15119e-05 0.0002391071 3.2618e-06 5.29972e-05 -0.2211255769 0.8156121633
645296130.0 -0.2221606761 0.8152849605 -8.27981e-05 0.0002023328 -0.0001988136 7.24141e-05 -0.2130912854 0.8175638523
650296100.0 -0.2138102406 0.8171445933 -5.27029e-05 -0.0003405675 0.0001121789 0.0001621916 -0.2045531232 0.8191842452
655296070.0 -0.205886493 0.819301454 5.0435e-06 0.0001549 1.20409e-05 7.38049e-05 -0.1960090081 0.8214177317
660296040.0 -0.1974680305 0.8206246332 2.3248e-05 2.3873e-06 -4.41911e-05 9.76382e-05 -0.1877037023 0.8234927298
665296010.0 -0.1893210971 0.8224884782 1.47975e-05 -8.92578e-05 7.77178e-05 4.18983e-05 -0.1791341362 0.825258145
670295980.0 -0.1816514095 0.8243370223 4.61667e-05 -5.43957e-05 -1.55798e-05 0.0002106368 -0.1717833064 0.8268320374
675295950.0 -0.1732990231 0.8264946232 -0.0001649742 -6.70853e-05 0.0002295857 -7.18604e-05 -0.1632580829 0.8291474839
680295920.0 -0.1643779093 0.8279757762 8.02465e-05 -2.62905e-05 1.09922e-05 8.49237e-05 -0.1545097072 0.8310602459
685295890.0 -0.1559102137 0.8304229675 -0.0001496688 7.21152e-05 -2.0455e-05 -9.7819e-06 -0.1458397028 0.8320730073
690295860.0 -0.1484701876 0.8311671076 0.0001939354 0.0001086859 -0.000137476 1.5242e-05 -0.1378594709 0.8337948217
695295830.0 -0.1401492332 0.8320337519 -5.13237e-05 0.0001006823 -0.0001508707 2.47584e-05 -0.1290233912 0.8346709127
700295800.0 -0.1312397301 0.833704694 -8.65483e-05 -8.43587e-05 0.0001928639 -0.0001628787 -0.121960137 0.8358568352
705295770.0 -0.1239294853 0.835087345 5.99657e-05 0.0001385995 -7.99474e-05 0.000142488 -0.1129599352 0.8382787834
710295740.0 -0.1154289045 0.8362407464 1.77571e-05 5.73736e-05 -2.75913e-05 -7.28141e-05 -0.1045001714 0.8383832777
715295710.0 -0.1063411382 0.837386348 -4.7898e-05 2.4723e-05 0.0001870899 1.71902e-05 -0.0961798802 0.8393129058
720295680.0 -0.0986112878 0.8386023731 9.27654e-05 -8.2284e-06 0.0002520012 -3.48763e-05 -0.0880431876 0.8411478859
725295650.0 -0.0902113726 0.8394373245 -1.85929e-05 1.23304e-05 0.0001634488 -2.0637e-06 -0.0798709195 0.8419038366
730295620.0 -0.0813687752 0.8401919742 9.82789e-05 -0.0001872861 -5.5298e-06 0.0001351152 -0.0718950139 0.8422415727
735295590.0 -0.0739937621 0.8408897249 0.0001165488 -0.0002681661 9.34449e-05 9.8101e-06 -0.0628819217 0.8427994166
740295560.0 -0.0656926393 0.8422247631 -9.6568e-06 -0.0002414728 3.48286e-05 -3.55853e-05 -0.0536662116 0.8435980181
745295530.0 -0.0568676091 0.8425383383 0.000324207 -8.7783e-06 -5.70225e-05 0.0001171924 -0.0455486659 0.843788503
750295500.0 -0.0481847091 0.8427283026 6.15041e-05 -1.21608e-05 0.0002467836 -6.2798e-05 -0.0375202383 0.8440999185
755295470.0 -0.0397900983 0.8430933583 -9.09454e-05 -7.08032e-05 0.0001076377 6.99573e-05 -0.0287791841 0.8445642699
760295440.0 -0.0323118735 0.8435583466 1.85056e-05 -5.13744e-05 -2.73446e-05 -4.21891e-05 -0.0207548086 0.844507012
765295410.0 -0.023649464 0.8441203958 -0.0002441384 4.93329e-05 -0.0001818772 -4.04739e-05 -0.0122543439 0.8452701394
770295380.0 -0.0155263169 0.8442282917 0.0001937272 3.91162e-05 7.38345e-05 5.0809e-06 -0.0039838507 0.8446848576
775295350.0 -0.0069928805 0.8437162912 3.74003e-05 -1.83622e-05 7.65812e-05 0.0001111597 0.004136642 0.8441366122
780295320.0 0.0014048573 0.8442808954 -0.0001200703 6.99202e-05 5.50559e-05 -0.0001388318 0.0126686438 0.8438460683
785295290.0 0.0096154728 0.8434678771 0.0001586684 -0.0002940597 -0.0002279009 4.3351e-05 0.021207043 0.8436171433
790295260.0 0.0186221954 0.8435993772 -0.0003105142 3.4694e-05 2.5862e-06 8.67494e-05 0.030509053 0.8442748953
795295230.0 0.0259640048 0.8436157215 9.44877e-05 0.0001812113 -7.5753e-05 0.0001187629 0.0386032259 0.8429317281
800295200.0 0.0345863962 0.8434054234 0.0001692215 0.0002367937 -7.07592e-05 -0.0001774997 0.0473112588 0.8425564694
805295170.0 0.0433665031 0.8431787574 -0.0001391153 0.0001246136 -1.7502e-06 0.0001542829 0.0547696863 0.8426210469
810295140.0 0.051492318 0.8421617655 2.25256e-05 -0.0001219349 -5.09254e-05 -9.07535e-05 0.0637294309 0.8414883435
815295110.0 0.0596645503 0.8417732035 7.5344e-05 -2.1292e-06 -0.0002551591 3.0489e-06 0.071817514 0.8407396697
820295080.0 0.0678009829 0.8412228489 -9.11114e-05 0.000277634 -6.63501e-05 6.29223e-05 0.0807070345 0.8403793369
825295050.0 0.0772495611 0.8399295678 9.94099e-05 9.37414e-05 1.66208e-05 -6.91799e-05 0.0883168453 0.839849101
830295020.0 0.0844657221 0.8400343736 0.0001458706 9.14426e-05 -3.83378e-05 5.63289e-05 0.0977488698 0.8387127014
835294990.0 0.0924480466 0.8387902616 -0.0002163975 0.0001488181 -0.0001087604 -0.0001691234 0.1054151533 0.8384094487
840294960.0 0.1005006648 0.8384780308 -0.0003791652 2.63973e-05 -2.59105e-05 0.0002631867 0.1138616162 0.8365020475
845294930.0 0.1084732643 0.8368484608 5.04145e-05 0.0001293221 -0.0002286397 6.98991e-05 0.1222024473 0.8349565201
850294900.0 0.1169662102 0.8358248931 4.35756e-05 -6.50405e-05 -1.96187e-05 8.01362e-05 0.1301650941 0.8335430809
