!Created with skrf (http://scikit-rf.org).
# Hz S RI R 50.0 
!freq ReS11 ImS11 ReS21 ImS21 ReS12 ImS12 ReS22 ImS22
300000.0 -0.770079866 -0.1826133056 -0.0011520741 -1.04658e-05 -0.0008621092 0.0005195782 -0.2085189675 -0.1088618037
5299970.0 -0.7858810288 -0.0093483869 0.000145809 -0.0002021297 4.05514e-05 0.000153285 -0.2158658773 0.0062403388
10299940.0 -0.7888945298 -0.0058957557 -2.45467e-05 0.0001190403 -3.67307e-05 -4.01495e-05 -0.2121627829 0.0187712665
15299910.0 -0.7941840961 -0.0035294034 -4.3041e-05 0.0001908392 -9.58553e-05 3.0874e-05 -0.2075601906 0.0279146766
20299880.0 -0.8009384418 0.0007998123 -5.46486e-05 -3.44304e-05 -0.0001801727 -6.4625e-05 -0.2024654579 0.035633613
25299850.0 -0.8079849941 0.0067580621 4.45549e-05 -0.0001109738 -0.0001049829 -1.80051e-05 -0.1965314307 0.0418356903
30299820.0 -0.8140091921 0.0137440605 0.000164914 -1.3811e-06 0.0001520915 2.92587e-05 -0.1906468889 0.0466846184
35299790.0 -0.8185007714 0.0230856175 3.98543e-05 0.0001067985 0.0002269205 -0.0001747111 -0.1852049485 0.0506650545
40299760.0 -0.8235633519 0.0319047992 0.000147084 7.52533e-05 -4.66271e-05 -1.24517e-05 -0.1795244107 0.053100324
45299730.0 -0.8269014011 0.0415781809 0.0002202954 0.0001285821 0.0001409817 7.82521e-05 -0.1742086102 0.0553547547
50299700.0 -0.8291544159 0.0519545323 -1.73866e-05 1.22507e-05 0.0001395958 1.11719e-05 -0.1694145005 0.0573404132
55299670.0 -0.831354868 0.0614138819 1.73123e-05 2.37029e-05 6.45517e-05 -4.0688e-06 -0.1653910336 0.0579178885
60299640.0 -0.8325217789 0.0715020123 0.0002240886 3.23242e-05 3.88843e-05 1.0002e-05 -0.1610161003 0.0587549339
65299610.0 -0.8336984356 0.0818579958 7.45564e-05 -0.0002119972 0.0001372869 -2.6413e-05 -0.1577302181 0.0593378911
70299580.0 -0.8337379837 0.0915329606 -5.27414e-05 7.05645e-05 5.35092e-05 8.38008e-05 -0.1541862642 0.0594351361
75299550.0 -0.8341858168 0.1021481196 -0.0001419139 0.0001089074 5.52256e-05 6.67829e-05 -0.1509915152 0.0598201306
80299520.0 -0.833995405 0.1122231438 9.60457e-05 4.22869e-05 -1.34493e-05 0.0001963039 -0.1489393465 0.0599502149
85299490.0 -0.8326033715 0.1208183663 9.87271e-05 -0.0001718841 1.61056e-05 0.0002047499 -0.146251082 0.059774741
90299460.0 -0.8322457124 0.1318573197 1.2903e-05 0.0001127242 -0.0001874652 -2.68019e-05 -0.1438337409 0.059852432
95299430.0 -0.8314977828 0.140320418 -0.0002861553 -0.0002421472 -3.8963e-06 5.35773e-05 -0.1420569597 0.0599484051
100299400.0 -0.8306880668 0.1501892843 7.37981e-05 0.0001746844 3.0309e-06 0.0001882941 -0.1402912079 0.0601997377
105299370.0 -0.8289863321 0.1594834901 0.0001529925 -2.86073e-05 -4.88007e-05 -8.2243e-06 -0.138675884 0.0597673396
110299340.0 -0.8275058051 0.1688246038 5.21819e-05 -4.50579e-05 0.0001091683 3.71099e-05 -0.1374688861 0.0597680786
115299310.0 -0.8266412524 0.1771320314 0.0001143087 7.1832e-06 -0.0001768342 -4.0254e-05 -0.1362270446 0.0601320739
120299280.0 -0.8246250367 0.1865990561 -9.08938e-05 -1.59e-07 1.48965e-05 -8.95187e-05 -0.1347217707 0.0598324137
125299250.0 -0.8225155499 0.1955573775 0.0001519284 -0.000137739 -2.41788e-05 0.0001196591 -0.1335132225 0.060001988
130299220.0 -0.8199986614 0.2052979631 0.000248525 3.38361e-05 8.5507e-05 0.0001264324 -0.132916445 0.0600841146
135299190.0 -0.8190162552 0.2143508775 -0.0001245843 0.000324396 -0.0001373293 2.91649e-05 -0.1315659339 0.0603363755
140299160.0 -0.8168078501 0.2230505758 8.4769e-06 -6.07516e-05 3.45939e-05 -0.0002049852 -0.1310919823 0.0606119651
145299130.0 -0.8145710747 0.2324415639 -0.000164213 -8.417e-05 6.32193e-05 3.63484e-05 -0.1300748908 0.060951552
150299100.0 -0.8121188995 0.2408733434 -0.0001715243 9.00415e-05 0.0002032012 0.0001825566 -0.1295713505 0.0615661891
155299070.0 -0.8099538263 0.250159551 1.52318e-05 0.0002189968 0.0001805236 2.28883e-05 -0.1291264866 0.0621079257
160299040.0 -0.8078632821 0.258847346 2.37889e-05 -0.000110514 3.00922e-05 2.77748e-05 -0.1283783985 0.0624331602
165299010.0 -0.8052721779 0.2673932533 0.0002696766 7.35805e-05 -8.97407e-05 0.0001136177 -0.1275352828 0.0626683
170298980.0 -0.8016769262 0.2762373315 7.6835e-05 8.84651e-05 0.0001609221 4.29647e-05 -0.126891891 0.0632384173
175298950.0 -0.7986189045 0.2845390221 0.0001577477 -0.0001568725 0.0001671845 0.000187762 -0.1268271775 0.0642105987
180298920.0 -0.7960041622 0.2933391082 3.79284e-05 4.88273e-05 7.4572e-06 0.0003198057 -0.1257448238 0.0645001993
185298890.0 -0.7929861893 0.3020046676 -6.42976e-05 -1.58463e-05 -0.0001551977 0.0001529931 -0.1253801641 0.0648767679
190298860.0 -0.7896816608 0.3112280912 -3.97402e-05 9.49477e-05 0.0001627854 6.38448e-05 -0.1249952904 0.0657284107
195298830.0 -0.7864072899 0.3195105653 0.0001257286 -0.0001552818 -9.79444e-05 7.32371e-05 -0.1245826924 0.0662225974
200298800.0 -0.7824691163 0.327661413 6.48264e-05 9.22e-06 0.0001375518 9.14954e-05 -0.1240370297 0.0669670738
205298770.0 -0.7789613457 0.3365970805 9.11498e-05 0.0002353722 -7.53213e-05 6.78141e-05 -0.1236970337 0.0680050167
210298740.0 -0.7764500228 0.3445879188 0.0002104207 3.00777e-05 8.96926e-05 7.53286e-05 -0.1233525073 0.0686056365
215298710.0 -0.7722217336 0.3532579329 0.0002440473 -0.0001233365 4.30518e-05 -0.000241372 -0.1227795777 0.0691548555
220298680.0 -0.7684974474 0.3607982962 -8.68402e-05 7.03571e-05 0.0001395063 0.0003062934 -0.1220500245 0.0702568194
225298650.0 -0.7648818324 0.369663047 -1.60869e-05 5.848e-07 8.88378e-05 6.68222e-05 -0.1215604684 0.0712847955
230298620.0 -0.7609375717 0.377912805 -1.1323e-06 -7.3584e-06 9.56879e-05 0.0001110719 -0.1214356239 0.0718382137
235298590.0 -0.7574613687 0.3862413226 1.97202e-05 0.0001242803 -0.0001417105 1.23384e-05 -0.1208867191 0.0727038604
240298560.0 -0.7529440518 0.3935239723 7.52455e-05 -5.56411e-05 5.4116e-06 5.1547e-05 -0.120701687 0.0737031653
245298530.0 -0.7488548374 0.4013964173 0.0001474147 0.0001736971 -0.0001053823 -1.98582e-05 -0.120145653 0.0743642563
250298500.0 -0.7443351586 0.4089827719 -0.0001315746 9.89553e-05 -0.0001075864 -3.51833e-05 -0.1195273207 0.0755580903
255298470.0 -0.740457642 0.4172666938 -2.82228e-05 7.97371e-05 9.09185e-05 0.0001267102 -0.1188960891 0.0762840309
260298440.0 -0.7361171674 0.4252730227 -0.0001726912 3.19694e-05 0.0002443228 -8.25595e-05 -0.1188880449 0.077336855
265298410.0 -0.7317519648 0.4325732667 0.000198089 -3.97622e-05 -1.37085e-05 0.0002316462 -0.1178656401 0.0783153523
270298380.0 -0.7272749729 0.4404709793 -3.99816e-05 0.0002729223 3.33571e-05 5.075e-07 -0.1174568063 0.0793538664
275298350.0 -0.7233646143 0.4481193187 -0.0002333737 3.79944e-05 4.21617e-05 8.9441e-06 -0.1166079439 0.0802712949
280298320.0 -0.7185022473 0.455497441 0.0001102909 -6.29288e-05 4.25117e-05 0.0001590023 -0.1164940801 0.0811819572
285298290.0 -0.7134219767 0.4630540518 1.3011e-06 0.0002376096 0.0002218787 5.81098e-05 -0.1159347458 0.0827524004
290298260.0 -0.7089289592 0.4711898007 6.53496e-05 0.0001132808 0.0001411787 -7.65689e-05 -0.1153975475 0.0835611402
295298230.0 -0.70407579 0.4777561329 0.0001233996 0.0001490229 -5.22714e-05 4.91361e-05 -0.1149686205 0.0840947953
300298200.0 -0.6993123933 0.4857952772 -2.50727e-05 4.47923e-05 6.25328e-05 -3.1684e-05 -0.1140789947 0.085369837
305298170.0 -0.6947498906 0.4927267949 -3.51299e-05 1.16253e-05 0.0002622244 4.1554e-06 -0.1132297304 0.0863442811
310298140.0 -0.6885954687 0.4993406817 0.0001555221 0.0001928745 -2.92157e-05 0.0001566411 -0.1125359497 0.0876769285
315298110.0 -0.6843586185 0.5067309558 -4.41461e-05 3.29524e-05 0.0001094721 8.94769e-05 -0.1117459873 0.0885252878
320298080.0 -0.6790360245 0.5142514872 -0.000141766 -5.20339e-05 0.0002276023 1.11483e-05 -0.1113858513 0.0891763736
325298050.0 -0.6738658755 0.5209975096 8.19213e-05 3.9524e-06 -3.4421e-06 -1.02798e-05 -0.1104892268 0.0900342036
330298020.0 -0.6685620612 0.5276769514 0.0001223067 2.65824e-05 7.4739e-05 7.04496e-05 -0.1100268121 0.0912357495
335297990.0 -0.6633939725 0.5348765634 1.42874e-05 -6.26813e-05 7.13049e-05 2.83933e-05 -0.1095853089 0.092308417
340297960.0 -0.6579278902 0.5411164248 0.0001244357 0.0002718784 0.0001487976 3.15835e-05 -0.1086759726 0.093420555
345297930.0 -0.6520755504 0.5481565689 6.1143e-05 -6.00131e-05 8.58171e-05 1.07695e-05 -0.1085019764 0.0942749651
350297900.0 -0.6461727082 0.555122377 0.0003807262 0.0002623091 0.0001207745 -6.8231e-06 -0.1080687072 0.0952685417
355297870.0 -0.6411887846 0.5612716951 -0.0002733458 0.0001079779 0.0001430053 5.97719e-05 -0.107300295 0.0969046981
360297840.0 -0.6349024763 0.5681238326 0.0002286384 -7.602e-06 0.0003245053 3.66351e-05 -0.1062500765 0.0977299573
365297810.0 -0.6291855268 0.5746896973 -1.33439e-05 0.0001017114 3.55185e-05 0.0003045644 -0.1058427539 0.0988319755
370297780.0 -0.6235449081 0.5807364639 0.0001169565 1.12125e-05 -3.927e-06 0.0002624646 -0.1052987528 0.0998162777
375297750.0 -0.6178495684 0.5870071863 8.06475e-05 8.20241e-05 -0.0001170731 -8.25829e-05 -0.104509443 0.1006810579
380297720.0 -0.6117997988 0.5939283568 -6.57061e-05 -0.0001017753 0.0002365298 0.0002401387 -0.1032456981 0.1022673971
385297690.0 -0.6060536843 0.5991774364 0.0001895039 -3.23817e-05 0.0001466619 4.0892e-06 -0.1028207538 0.1033888125
390297660.0 -0.5985541404 0.6056536626 7.29851e-05 3.42811e-05 0.000156496 -5.46908e-05 -0.1018221642 0.1043797042
395297630.0 -0.5930344451 0.6122964515 0.0001410669 0.0001459659 0.0001653686 0.0001526218 -0.1010357599 0.1053230026
400297600.0 -0.5869589392 0.618327159 0.000151347 0.000246383 8.22855e-05 -6.51117e-05 -0.1001313622 0.106647143
405297570.0 -0.5806088288 0.6233585762 0.000181891 0.0002157077 0.0001494075 6.9071e-05 -0.0992669086 0.1079282605
410297540.0 -0.5735483067 0.6296123561 8.017e-07 0.0002106828 0.0001451758 8.75069e-05 -0.0984243152 0.1088240723
415297510.0 -0.5678311091 0.6353763678 0.0002074409 -4.41e-05 -1.48971e-05 0.0001835688 -0.0977240616 0.1095455589
420297480.0 -0.5609033727 0.641020959 0.0001630544 4.9043e-06 0.0001579031 0.0001658088 -0.0965283349 0.111017339
425297450.0 -0.5545408619 0.6464100359 0.0003461372 0.0002134775 0.0002118612 9.66693e-05 -0.0959268346 0.1114632705
430297420.0 -0.5483542705 0.6518780088 0.0003321511 0.0001290026 0.0002561377 -1.90977e-05 -0.0945857804 0.1130685239
435297390.0 -0.5413658734 0.6575369569 0.0001250337 -0.0001274012 0.0001674947 8.1729e-05 -0.0941210518 0.1142480118
440297360.0 -0.5343276379 0.6627839785 4.4602e-05 0.0001730083 0.0001907129 0.0002339311 -0.0931211435 0.1150937515
445297330.0 -0.5270921062 0.6673988736 0.0001947588 7.14965e-05 0.000251082 7.89872e-05 -0.0916584612 0.1159493721
450297300.0 -0.52011611 0.6738897421 5.34708e-05 -2.45663e-05 0.000150105 0.0002455283 -0.0910449514 0.1167826062
455297270.0 -0.5137740332 0.6785654995 0.0003437388 0.0002734232 0.0001583616 -0.0001650071 -0.0899391528 0.1175805789
460297240.0 -0.5065823638 0.684370647 -0.0001274402 0.0002672232 0.0001698301 1.98065e-05 -0.0891657999 0.1186450143
465297210.0 -0.4994093941 0.6885204534 0.0003595985 4.9193e-05 0.0001150305 0.000134334 -0.0877765731 0.1200662179
470297180.0 -0.4920166621 0.694250115 0.0002178263 0.0001624172 5.54868e-05 -9.54356e-05 -0.0869103242 0.1210578877
475297150.0 -0.4849810779 0.6986293926 0.0001756728 0.0002584725 0.0001536662 0.0002234492 -0.0857824305 0.1220206687
480297120.0 -0.4766509292 0.7039136257 9.57564e-05 8.58313e-05 0.0001772847 -2.21e-08 -0.0849307846 0.1231167345
485297090.0 -0.4701014277 0.7085402816 4.39053e-05 -7.88436e-05 0.0001419008 -4.06875e-05 -0.0840814247 0.1237791483
490297060.0 -0.4621922855 0.7137996381 0.0001183201 7.2553e-05 0.0001705356 9.29725e-05 -0.0826927976 0.1245386616
495297030.0 -0.4546959033 0.7180255047 -1.30208e-05 0.0001662798 6.78989e-05 6.90685e-05 -0.081720694 0.1256864319
500297000.0 -0.447329772 0.7219188796 0.0002639632 0.0001137308 9.1101e-06 0.0002331628 -0.0805851332 0.1267625963
505296970.0 -0.4395326233 0.7270445554 0.000272295 -2.1416e-06 0.0003596408 -1.71016e-05 -0.0793387907 0.1274729697
510296940.0 -0.4321782865 0.73132315 6.56164e-05 0.0001720774 0.0005069833 0.0001574547 -0.0782350743 0.1289738648
515296910.0 -0.4242624663 0.7353606037 0.0001148622 0.0001560494 0.0003747499 0.000143529 -0.0772250993 0.1294887539
520296880.0 -0.4166438215 0.7398734844 0.000284004 -5.649e-05 0.0001237879 1.76961e-05 -0.0758992977 0.1301802046
525296850.0 -0.4086149854 0.7437580438 0.0002603363 -1.86631e-05 0.0002540478 0.0001261586 -0.074976736 0.1313580904
530296820.0 -0.4015066641 0.7478397228 0.0004208402 -0.0001800195 0.0002068945 0.0002230231 -0.0737615078 0.1321566787
535296790.0 -0.3928057747 0.7519083084 0.0001868067 1.72116e-05 0.0001355669 0.0001401329 -0.0723387227 0.1331724533
540296760.0 -0.3849734132 0.7560840384 0.0002708322 3.62582e-05 0.0002712835 -0.0001173011 -0.071428705 0.1336204042
545296730.0 -0.3778166927 0.7599720566 0.0002161227 3.47546e-05 0.00017181 -2.7655e-05 -0.0702195037 0.1346902156
550296700.0 -0.3693710935 0.7632428595 9.17023e-05 0.0002498321 0.0002537767 -7.77637e-05 -0.0687412209 0.1354840917
555296670.0 -0.3612426087 0.767347689 0.0002690713 6.42256e-05 3.07257e-05 -1.24699e-05 -0.0678304235 0.136122196
560296640.0 -0.3531326117 0.7706603909 0.0002669638 5.76155e-05 0.0002507659 -9.8779e-05 -0.0665865144 0.1370611838
565296610.0 -0.3453965386 0.7743431678 0.0002057052 0.0003162376 0.0003484591 0.0002340469 -0.0652293392 0.1383435402
570296580.0 -0.3372650277 0.7782755526 -2.29772e-05 -8.64439e-05 0.0003350617 -4.80903e-05 -0.064171832 0.1389134152
575296550.0 -0.3284153899 0.7811719072 7.39301e-05 7.88744e-05 0.0003984344 0.0001846808 -0.0627037133 0.1394208708
580296520.0 -0.3212435122 0.784343104 0.0002961144 -8.67881e-05 0.0003430647 0.0001418105 -0.0617526124 0.1403248599
585296490.0 -0.3123594282 0.7875555585 0.0001529396 0.0001375422 0.0001919253 -7.90272e-05 -0.060250439 0.1413123177
590296460.0 -0.3037161621 0.7909925872 0.0002718029 -0.0002310791 0.0003912191 0.0001112516 -0.059145792 0.1418279027
595296430.0 -0.2966466448 0.7939165643 0.000371007 -8.31786e-05 0.0003325244 4.9575e-05 -0.0580673154 0.1426880844
600296400.0 -0.2883645915 0.7968256671 7.7481e-06 3.90008e-05 0.0003503942 -9.77501e-05 -0.0563504537 0.1434207167
605296370.0 -0.27974577 0.7990675562 0.000263658 -0.0001586157 0.0003472984 7.43828e-05 -0.054998473 0.1439629361
610296340.0 -0.2716997954 0.8023830449 0.0003853066 0.0002115113 0.0001955277 0.0001489256 -0.054074045 0.1447390884
615296310.0 -0.2631071625 0.8056739679 0.0002035005 0.0002465546 0.0001983592 0.0002476257 -0.0523250482 0.1457165364
620296280.0 -0.2551302129 0.8083303495 -1.67072e-05 1.45156e-05 0.0002319145 4.75091e-05 -0.0509977269 0.146217868
625296250.0 -0.2476038056 0.8100751372 -3.25393e-05 6.69912e-05 0.0003453842 7.4045e-05 -0.0498764061 0.1470137946
630296220.0 -0.2387389592 0.8129566657 0.0002984869 7.4846e-06 0.0002028136 -7.30658e-05 -0.0482615642 0.1477030984
635296190.0 -0.2303902823 0.8155742881 0.0002142253 1.21701e-05 0.0001926465 6.36075e-05 -0.0475187225 0.1483595207
640296160.0 -0.2215380612 0.8176296179 0.000113159 0.0001989117 0.0003351946 -2.94437e-05 -0.0458048787 0.1490467703
645296130.0 -0.2135660336 0.8203235875 -9.12952e-05 8.90737e-05 0.0002096434 -5.53255e-05 -0.044879339 0.1491793974
650296100.0 -0.2055234546 0.8218142916 0.0003813356 -5.84111e-05 0.0002551057 0.000158729 -0.0430803826 0.1501648522
655296070.0 -0.1975600517 0.8242076 0.0003156091 9.84e-08 2.97768e-05 0.0001407544 -0.0420889985 0.1505687282
660296040.0 -0.189122208 0.8259450981 0.0001928814 4.2426e-05 0.0002778017 3.79146e-05 -0.0401324987 0.1511128294
665296010.0 -0.1813097568 0.8286546163 0.000448211 -0.0001729475 0.000359853 -9.26214e-05 -0.0386802227 0.1518021029
670295980.0 -0.1730078593 0.8302186111 0.0002387476 -1.8965e-06 0.0002832877 -2.43258e-05 -0.0379370538 0.152380752
675295950.0 -0.1638812188 0.8317306407 -1.0133e-05 -4.37722e-05 0.0003949021 -9.42518e-05 -0.0363737502 0.1529020263
680295920.0 -0.156670986 0.8342336025 0.0003314892 -0.0001204382 0.0003103044 -1.71446e-05 -0.034728626 0.1533045098
685295890.0 -0.1478640376 0.8354493631 0.0004983059 0.0001646346 0.0002413686 2.30804e-05 -0.0336859906 0.1542219902
690295860.0 -0.1389012662 0.8372806307 0.0003749261 0.000253619 1.57236e-05 3.62844e-05 -0.0320124417 0.1547462208
695295830.0 -0.1312293597 0.8383596743 0.0002713092 6.71866e-05 0.0002945513 0.000140347 -0.0304696339 0.1551266103
700295800.0 -0.1230314945 0.8398993687 -2.27589e-05 -0.0001044896 0.000253632 9.13068e-05 -0.0289085741 0.1555221541
705295770.0 -0.1146613831 0.8411926618 7.72194e-05 -0.0001383215 0.0002834396 5.25578e-05 -0.0276976254 0.1562312158
710295740.0 -0.1068119356 0.8420399767 0.0002209643 -0.0001281986 0.0002992971 -8.75909e-05 -0.0261359034 0.1566122714
715295710.0 -0.0973758099 0.8435474567 0.0003427179 -4.8976e-05 0.0002078138 -0.0001319514 -0.0244724692 0.1568317025
720295680.0 -0.0892517252 0.8447675761 0.0002675675 -6.34478e-05 0.0003650083 4.9086e-06 -0.0232144336 0.1572008608
725295650.0 -0.0812632165 0.8461435647 0.0001687628 0.0001090454 0.0003273514 9.0876e-06 -0.0216643012 0.158003074
730295620.0 -0.0737055701 0.846791374 0.0002443069 -0.0001785793 0.0003675095 -9.24736e-05 -0.0202284212 0.1583791005
735295590.0 -0.0655118159 0.8473860139 0.0002747068 4.17815e-05 0.0004387179 -0.0001327027 -0.0187345313 0.1587236452
740295560.0 -0.0572065199 0.8474050839 7.20579e-05 -6.35155e-05 0.0002687351 9.87415e-05 -0.0173430437 0.159178573
745295530.0 -0.0490944482 0.8489339349 0.0001601874 -7.1365e-05 0.0003227123 -0.0001401447 -0.0159395049 0.1594110003
750295500.0 -0.0410027647 0.849303304 0.0002407442 1.4581e-05 0.0001671879 -0.0001501845 -0.0142416739 0.1598472525
755295470.0 -0.0325965096 0.8497060387 0.000113144 2.63554e-05 0.0001757949 -0.000245659 -0.0129840508 0.1603817073
760295440.0 -0.0239852655 0.8507308084 0.0003654874 -7.20323e-05 0.0004434188 -0.000147465 -0.0111027865 0.1601233701
765295410.0 -0.0160790863 0.8501362648 0.0003053947 -5.36938e-05 0.0003912266 -6.54755e-05 -0.0096788618 0.1606403422
770295380.0 -0.0082362474 0.8512043423 0.0003262854 1.97842e-05 0.0004121931 7.47233e-05 -0.0083631632 0.160970923
775295350.0 -0.0002383431 0.8511422664 0.000210678 -0.0001306221 0.0002046264 -0.0001833154 -0.0067026896 0.1611530141
780295320.0 0.00896407 0.8512254549 0.0002815482 4.51264e-05 0.0003058495 8.803e-06 -0.0049408827 0.1614340572
785295290.0 0.0171554306 0.8508273135 0.0002333145 -0.0002360033 0.000395805 4.01618e-05 -0.0036863202 0.1618095911
790295260.0 0.0249715468 0.850929024 0.0001678688 -0.000181812 0.0002562419 0.0001779473 -0.00227545 0.1622442053
795295230.0 0.0333234393 0.8506873366 0.0001573285 0.000165457 0.0003099958 -0.0003168235 -0.0007557351 0.1619357626
800295200.0 0.0412167751 0.8506184742 0.0002331143 -4.26771e-05 0.0002914761 -0.0001883355 0.0008620581 0.1620525007
805295170.0 0.0492642569 0.8507654 0.0004118772 -7.42165e-05 0.0001991227 -0.0001696957 0.0022665332 0.1621691574
810295140.0 0.0578450821 0.8507678863 0.0001902714 -0.0001512535 0.0004291591 7.9371e-05 0.0042958331 0.1627351193
815295110.0 0.0651558313 0.8491927358 0.0002172388 -4.7453e-05 0.0005017522 -3.12241e-05 0.0052750922 0.1627417258
820295080.0 0.0736625193 0.8488275808 0.0002573932 -8.10194e-05 0.0003344603 -0.0001920637 0.0065626138 0.1632379465
825295050.0 0.081896501 0.8480290151 0.0003616266 -3.57014e-05 0.0002330019 -0.0001894368 0.0087324972 0.1632740858
830295020.0 0.0908523117 0.8477754375 0.0003187896 -0.0001704597 9.23252e-05 -2.97879e-05 0.0100614552 0.1632036161
835294990.0 0.0981244228 0.8467967017 0.0002716539 3.8742e-05 0.0002825239 -0.0001772705 0.0116172916 0.1636198231
840294960.0 0.1064149577 0.8451483351 0.0003210669 -0.000149526 0.0002485513 -2.39715e-05 0.0134666507 0.1636128878
845294930.0 0.1145039829 0.8444443764 0.0002898404 -0.0001707159 0.0002577985 5.80513e-05 0.014592188 0.163736458
850294900.0 0.1242768437 0.8433495064 0.0002524371 1.38463e-05 0.000325436 -0.0001271648 0.0162480211 0.1639745455
