!Created with skrf (http://scikit-rf.org).
# Hz S RI R 50.0 
!freq ReS11 ImS11 ReS21 ImS21 ReS12 ImS12 ReS22 ImS22
300000.0 -0.237674742 -0.1144234971 0.4676806961 0.0747783925 0.4717927858 0.0757407388 -0.2389494734 -0.1184352688
5299970.0 -0.2407496676 0.0070689181 0.474893082 0.005340511 0.4751394402 0.0058017016 -0.2448661393 0.0052847832
10299940.0 -0.2371581223 0.0199336927 0.4772426239 0.0063129539 0.4767226232 0.0063581827 -0.2414854757 0.017481845
15299910.0 -0.232958395 0.0298610007 0.4806095551 0.0075413078 0.4807191499 0.0078393702 -0.2372173577 0.0265028053
20299880.0 -0.2273102964 0.0378348633 0.4851351052 0.0081966533 0.4854516626 0.0078811735 -0.2328767621 0.0339393802
25299850.0 -0.22189167 0.044255678 0.4905686315 0.0070280567 0.4905726244 0.0070777949 -0.2277646216 0.0397762805
30299820.0 -0.2157904333 0.0493905706 0.4960269388 0.0049699156 0.4956055794 0.0046423034 -0.2222696295 0.044599501
35299790.0 -0.2100683714 0.0538246802 0.5014301802 0.0016371146 0.5015314059 0.0018596996 -0.2172416559 0.0488951556
40299760.0 -0.2045107082 0.057072131 0.5064260601 -0.0022113416 0.5062669649 -0.0022225788 -0.2126485185 0.0521078083
45299730.0 -0.1995399412 0.0600188088 0.5110727969 -0.0070875626 0.5111440573 -0.0072605021 -0.2079172185 0.0545389817
50299700.0 -0.1944204277 0.0620551164 0.5150210246 -0.0123619796 0.5153369505 -0.0126146141 -0.2036591244 0.0566099116
55299670.0 -0.1905629401 0.0640578703 0.5183680277 -0.018851838 0.5186419319 -0.01877993 -0.1998120667 0.0581876757
60299640.0 -0.18641648 0.0649819251 0.5216605099 -0.025034757 0.5221511949 -0.0249630565 -0.1962077174 0.0597963618
65299610.0 -0.1831556284 0.0663034542 0.5252567743 -0.0307333552 0.5252951377 -0.0312657928 -0.1928289665 0.0607533863
70299580.0 -0.1796414257 0.0671595126 0.5271804453 -0.0372907582 0.5272016144 -0.0380251818 -0.1897037363 0.0617526041
75299550.0 -0.1764190932 0.0682930769 0.5289203977 -0.0443321687 0.5292842437 -0.0448462233 -0.1870327816 0.0628775846
80299520.0 -0.1741650908 0.0690484376 0.531408424 -0.0515161474 0.5313994806 -0.0513629387 -0.1847292899 0.0629242492
85299490.0 -0.1713698392 0.0692568456 0.5326181843 -0.0585418417 0.5325935852 -0.05834041 -0.1827982688 0.0638747636
90299460.0 -0.1692046203 0.070392387 0.5334223128 -0.0650064389 0.5336500236 -0.0649760773 -0.180122184 0.0643692907
95299430.0 -0.1672999082 0.0712429295 0.5348672024 -0.0725990674 0.5345233121 -0.0720710732 -0.1784422224 0.0652098115
100299400.0 -0.1652902997 0.0718375473 0.5347388103 -0.0791768184 0.5345697213 -0.0791769433 -0.1771560646 0.0657259646
105299370.0 -0.1632299238 0.0723187028 0.5347295931 -0.0860723202 0.5349423111 -0.0861030036 -0.1750079075 0.0661415931
110299340.0 -0.1620813248 0.0730368989 0.5348210315 -0.0922412991 0.5353891332 -0.0931533452 -0.1739424071 0.0671478007
115299310.0 -0.1602145048 0.0737644836 0.5352402794 -0.0991869645 0.5350946197 -0.0994465031 -0.1722846579 0.0672993984
120299280.0 -0.1590937376 0.0744100021 0.5351899346 -0.1060792396 0.5352377009 -0.1062933574 -0.1714413928 0.0682176913
125299250.0 -0.157867222 0.0752049727 0.5344834641 -0.112796884 0.5348735778 -0.1131929214 -0.1701204966 0.0686114122
130299220.0 -0.1565426731 0.0761824614 0.5337820488 -0.119553049 0.5338279906 -0.119928675 -0.1690211228 0.0697555037
135299190.0 -0.1551994502 0.0766847488 0.5330702695 -0.1260639257 0.5329277288 -0.1264399961 -0.1679593766 0.0702127153
140299160.0 -0.1543406748 0.0781087447 0.532388432 -0.1327772546 0.5326065277 -0.1331008218 -0.1671017479 0.0710732387
145299130.0 -0.1532930377 0.0790967181 0.5318532251 -0.1399144341 0.5314986414 -0.1392671549 -0.1664556067 0.0719626349
150299100.0 -0.1522095661 0.0798646512 0.5304467293 -0.1463288064 0.5304652256 -0.145931531 -0.1651675509 0.0726036994
155299070.0 -0.1511936974 0.0814143928 0.5291639826 -0.1531035022 0.5293498476 -0.1531304339 -0.1648589583 0.0738628509
160299040.0 -0.1497470015 0.082062998 0.5273725229 -0.1588985225 0.5277662582 -0.1591192324 -0.1637382381 0.0749660284
165299010.0 -0.1494154272 0.0829611917 0.5269229804 -0.1655473107 0.526389899 -0.1655083799 -0.1629609837 0.0752768772
170298980.0 -0.1484402948 0.0844344784 0.5241667177 -0.1716770547 0.5245417854 -0.1717744871 -0.1617024893 0.0763517484
175298950.0 -0.1473199812 0.0855484745 0.5236656584 -0.177740876 0.5233410659 -0.1781083076 -0.1608992467 0.0775589305
180298920.0 -0.1462625928 0.0870425006 0.5214757054 -0.1849609663 0.5216655073 -0.1842403692 -0.1603709895 0.0786708436
185298890.0 -0.1450921624 0.0878800427 0.519147669 -0.1907244 0.5197739992 -0.1903366264 -0.159827388 0.0792756488
190298860.0 -0.1444496296 0.0890283695 0.5172607999 -0.1968304137 0.5180013163 -0.1967648114 -0.1585162246 0.0808528041
195298830.0 -0.1435311124 0.0903122385 0.5160343 -0.2026330291 0.5161573949 -0.2030950429 -0.1580699703 0.0815885443
200298800.0 -0.1425147281 0.0920072444 0.5137323251 -0.2084955982 0.5136312278 -0.208785169 -0.1569007737 0.0831858018
205298770.0 -0.1416334457 0.0929439892 0.5115985737 -0.2148149455 0.5116999895 -0.2149144892 -0.1563450243 0.0837716775
210298740.0 -0.1407681402 0.0943889767 0.509231022 -0.2213529857 0.5094758029 -0.2211730036 -0.1557729006 0.0854177834
215298710.0 -0.1397514875 0.0956691462 0.5069471845 -0.2266898741 0.5070278903 -0.2266347144 -0.1551958678 0.0864826778
220298680.0 -0.1390785158 0.0970093088 0.5047181157 -0.2326202445 0.5047136439 -0.2327670971 -0.1542108199 0.0878345893
225298650.0 -0.1376170551 0.0984792576 0.5019709305 -0.2384079599 0.5021457856 -0.2385045681 -0.1536574061 0.0891525281
230298620.0 -0.1368337273 0.0997799933 0.4997414551 -0.2444296537 0.4997433328 -0.2441178743 -0.1525668014 0.0903098881
235298590.0 -0.135779416 0.1008689879 0.4968548147 -0.2500292215 0.4971236472 -0.2503068392 -0.1516562802 0.0914662882
240298560.0 -0.1350664136 0.1026944759 0.4945565392 -0.2556225459 0.4945053389 -0.2553603874 -0.1508474516 0.0930114565
245298530.0 -0.1335077805 0.1040188377 0.4906568344 -0.2614376509 0.4912588237 -0.2614510654 -0.1500129943 0.0946259349
250298500.0 -0.133013371 0.105382295 0.4886216983 -0.2667622731 0.4889092276 -0.2666528265 -0.148777497 0.0955626841
255298470.0 -0.1316618547 0.1068075814 0.4854371957 -0.2727584113 0.4857958654 -0.2727876588 -0.1483034301 0.0964923842
260298440.0 -0.1308792298 0.1081428518 0.4828383566 -0.27804899 0.4828570492 -0.278438891 -0.146819162 0.0980851997
265298410.0 -0.1294486293 0.109841441 0.4798233945 -0.2844402722 0.4795569676 -0.2839607918 -0.1464764389 0.0995013101
270298380.0 -0.128202459 0.1109968636 0.4760965995 -0.2892845578 0.4768390974 -0.2889233564 -0.145203914 0.1010346187
275298350.0 -0.1272235713 0.1123983562 0.4731450858 -0.2947386783 0.4735610556 -0.2945923153 -0.144085939 0.1024554924
280298320.0 -0.1262697247 0.1139808957 0.4701606069 -0.299774916 0.4698147772 -0.2998318135 -0.1433628285 0.1036673608
285298290.0 -0.1248246236 0.1154900775 0.467118628 -0.3051730684 0.4671204065 -0.3055064589 -0.1424872537 0.1051346428
290298260.0 -0.1237925491 0.1166080178 0.4642615206 -0.3106793395 0.4637619209 -0.3102439999 -0.1411956571 0.1066999818
295298230.0 -0.1227353744 0.1180931181 0.4607150314 -0.3158428401 0.460308101 -0.3160798734 -0.1402779065 0.1080382046
300298200.0 -0.1209037972 0.1193478296 0.456873497 -0.3209866146 0.4570839788 -0.3215631843 -0.139311615 0.1095986247
305298170.0 -0.1194140674 0.1206399092 0.453905362 -0.3263301362 0.4533030287 -0.3266352856 -0.13761122 0.1109510948
310298140.0 -0.1180956634 0.1217419679 0.4495814733 -0.3317276279 0.450100085 -0.3322622028 -0.1368301322 0.1126598469
315298110.0 -0.1171296906 0.123215896 0.4461464162 -0.3367235282 0.4466030995 -0.3371815823 -0.1354513172 0.1133963597
320298080.0 -0.1156657003 0.1246433078 0.4423744638 -0.3420721882 0.4427746537 -0.3421194348 -0.1348130574 0.1145592036
325298050.0 -0.1147221184 0.1254662853 0.4391730182 -0.3470481591 0.439156577 -0.3472383925 -0.1335968232 0.115838692
330298020.0 -0.1135227719 0.1270902723 0.4343106488 -0.3523408474 0.4344188909 -0.3518835075 -0.1328392254 0.1170346767
335297990.0 -0.1120139195 0.1281231866 0.430674923 -0.3570970568 0.4303288432 -0.3570854968 -0.1319239683 0.1186948258
340297960.0 -0.1112022562 0.1297974837 0.4262919454 -0.3616467523 0.4267077883 -0.3619332876 -0.1309878122 0.1201384464
345297930.0 -0.110047465 0.1312638549 0.4226627265 -0.3659737529 0.4223305758 -0.3659505599 -0.1297364172 0.1211336968
350297900.0 -0.1083007527 0.1324125626 0.4182009418 -0.3701939265 0.4186244291 -0.3711593314 -0.1288159578 0.1232212776
355297870.0 -0.1073053645 0.1338617082 0.4141993854 -0.3756018576 0.4141193195 -0.3755205515 -0.1277520583 0.1243617362
360297840.0 -0.1056277862 0.135044995 0.4101482633 -0.3802270592 0.4101048301 -0.3798174507 -0.1270170698 0.1259468653
365297810.0 -0.1040799065 0.1363736963 0.40534033 -0.3845328542 0.4057255316 -0.3848843829 -0.1254457258 0.1275199991
370297780.0 -0.1027330791 0.1377173547 0.4015500387 -0.3888937431 0.4016448835 -0.3895882917 -0.1243324764 0.1289012661
375297750.0 -0.1012339994 0.1393981659 0.3979415546 -0.3936593875 0.397301133 -0.3939986622 -0.1227386523 0.1304279811
380297720.0 -0.0994606486 0.1402653107 0.3928877443 -0.3977656566 0.3929132969 -0.3976595957 -0.1216572333 0.1317485011
385297690.0 -0.0980490017 0.1417859516 0.3883582049 -0.401656913 0.3883280274 -0.4018582466 -0.1206887928 0.1333350021
390297660.0 -0.0964988114 0.1427886638 0.3837142273 -0.4065862296 0.3840093077 -0.4065352753 -0.1192904195 0.1342092023
395297630.0 -0.0948476601 0.143782833 0.3797828919 -0.4102916002 0.3794680019 -0.4106307061 -0.1179349305 0.1362675963
400297600.0 -0.0935705317 0.1452053485 0.3748852037 -0.4144431918 0.3754045035 -0.4151223356 -0.1172523414 0.1371081856
405297570.0 -0.0918505793 0.1466599261 0.3707163002 -0.4190044544 0.3704347672 -0.4191427682 -0.1156598697 0.1387223716
410297540.0 -0.0901065137 0.1474535964 0.3656717774 -0.4226605559 0.3655069456 -0.4225835487 -0.1141669101 0.1399033699
415297510.0 -0.0884760816 0.1489336654 0.3611791098 -0.4266049019 0.3611710145 -0.4264929435 -0.1132740634 0.1415787598
420297480.0 -0.0868160798 0.1498195984 0.3561431614 -0.4305698763 0.3564981663 -0.4306502069 -0.1118123687 0.1425017206
425297450.0 -0.0846719395 0.1506270587 0.3514789345 -0.4342477052 0.3521188992 -0.4347474428 -0.1100947355 0.1440042788
430297420.0 -0.0834682033 0.1520416231 0.346969001 -0.4387537114 0.3473239888 -0.438727832 -0.1094381521 0.1450002056
435297390.0 -0.0815844187 0.1531439148 0.3420712928 -0.4422770209 0.3423440356 -0.4419356687 -0.1078942912 0.1467798419
440297360.0 -0.0797950447 0.1539582113 0.3369644231 -0.4456530783 0.3368120185 -0.4455517304 -0.1063642434 0.1471691191
445297330.0 -0.0776643248 0.155119974 0.3320153666 -0.4495817792 0.3324348061 -0.4495324481 -0.1051282484 0.1485490622
450297300.0 -0.0761625557 0.1559572201 0.3275637599 -0.453297817 0.3274719002 -0.4531619667 -0.1034882519 0.1499095166
455297270.0 -0.0750296047 0.1571416618 0.3227535942 -0.4566270035 0.3226719499 -0.4568982371 -0.1020058825 0.1512803541
460297240.0 -0.0733488161 0.1581794215 0.317618023 -0.4599984479 0.3170063683 -0.460145005 -0.1005930988 0.152696466
465297210.0 -0.0710718848 0.1590298801 0.3123554711 -0.4634546494 0.3128033863 -0.4636346708 -0.0996802512 0.1534474628
470297180.0 -0.0695371888 0.1599661306 0.3075449187 -0.4667866754 0.307872028 -0.4671063787 -0.0986068286 0.1545604076
475297150.0 -0.0676603081 0.1605370833 0.3019708913 -0.469715029 0.3025244423 -0.469728427 -0.0966653427 0.1558884557
480297120.0 -0.0659300283 0.1613572306 0.2971316237 -0.4732444428 0.2973822394 -0.4730954655 -0.0952887293 0.1573837215
485297090.0 -0.0637296569 0.1622308053 0.2918237381 -0.4765675112 0.2918722691 -0.476643995 -0.0937282459 0.1576387945
490297060.0 -0.0618942924 0.1627387556 0.2867400509 -0.4796486985 0.287089068 -0.4797081906 -0.0921476893 0.1594472063
495297030.0 -0.0607303511 0.1641566919 0.2814730669 -0.4827268499 0.281056597 -0.4826952115 -0.0907331593 0.1599984437
500297000.0 -0.058391557 0.1646151721 0.276075961 -0.4858306091 0.2762780513 -0.4856388615 -0.0891995508 0.1613534705
505296970.0 -0.0569733547 0.1655255187 0.2706322135 -0.4884271086 0.2708360888 -0.4886560028 -0.088267028 0.162583543
510296940.0 -0.0549214281 0.1663410493 0.2653839361 -0.4918004528 0.2653488195 -0.4918679381 -0.0861839461 0.1640297925
515296910.0 -0.053221128 0.1675102237 0.2599214889 -0.4943024032 0.2601220404 -0.4942175083 -0.0847776517 0.164521883
520296880.0 -0.0511780259 0.1675808395 0.2545350682 -0.4969251917 0.2548939663 -0.4969888249 -0.0829679517 0.1652137983
525296850.0 -0.049458557 0.1682564165 0.2490541142 -0.4998856049 0.2493813632 -0.5000576423 -0.081313316 0.1664944555
530296820.0 -0.0474730044 0.1691960858 0.2438313609 -0.5018393966 0.2437356197 -0.5023678748 -0.0803467336 0.1671642607
535296790.0 -0.0457038593 0.1697251136 0.2385804456 -0.5045604243 0.2386905414 -0.5044208566 -0.0784745398 0.1679729126
540296760.0 -0.0437970025 0.1702515593 0.2326476588 -0.5077014702 0.2326546377 -0.5078992742 -0.0774394804 0.1694018024
545296730.0 -0.0420359872 0.1711109755 0.22762051 -0.5097675909 0.2270324743 -0.5101329365 -0.0757558805 0.1697198699
550296700.0 -0.0401949439 0.1716717061 0.2220931393 -0.5124780458 0.2225291459 -0.5125112853 -0.0739556705 0.1711268125
555296670.0 -0.0379561328 0.1719483525 0.2164980074 -0.514979715 0.2162306543 -0.5151200462 -0.0721962209 0.1720964266
560296640.0 -0.036182199 0.1727369909 0.211246095 -0.5170638919 0.2110727845 -0.5169427196 -0.0705905447 0.1731155669
565296610.0 -0.0343670305 0.1733214892 0.2050977772 -0.5192214755 0.2049138271 -0.5194429275 -0.0690381077 0.1733493511
570296580.0 -0.0321863436 0.1736312092 0.1992885889 -0.521146434 0.1997851472 -0.5214690328 -0.0674453227 0.1746192507
575296550.0 -0.030389942 0.1743107635 0.1938530398 -0.5230148138 0.194197798 -0.5234097651 -0.065551194 0.1751373325
580296520.0 -0.0284577194 0.1747190097 0.1884852814 -0.5255472807 0.1880797771 -0.5255591879 -0.063986242 0.1759547938
585296490.0 -0.0262768413 0.1748758661 0.1826214338 -0.5276894021 0.1823135178 -0.5273534994 -0.0623485491 0.1763926775
590296460.0 -0.0249523458 0.1751864653 0.1766449723 -0.5293964499 0.1766705038 -0.5293684659 -0.0607284449 0.1778231834
595296430.0 -0.0227011484 0.1758093067 0.1713942967 -0.5311322402 0.1710690957 -0.5317199224 -0.058838918 0.1780723809
600296400.0 -0.0207392358 0.1763814011 0.1653167669 -0.5329570387 0.1657756076 -0.5333880046 -0.057456497 0.1793359373
605296370.0 -0.0187437242 0.1768608323 0.1595216318 -0.535005097 0.1598304768 -0.5345402671 -0.0556947712 0.1795304073
610296340.0 -0.0166781469 0.1769531552 0.1541472444 -0.536166271 0.1541078561 -0.5364898244 -0.05395108 0.1807801214
615296310.0 -0.0145867301 0.1776954662 0.147769432 -0.537833976 0.1482408053 -0.5378705167 -0.0520842001 0.1811544543
620296280.0 -0.0129128569 0.1775052816 0.1421764888 -0.5392030072 0.1421681917 -0.53955745 -0.0501593776 0.18137659
625296250.0 -0.0107535691 0.1778851375 0.1359945533 -0.5412380227 0.1359813842 -0.5412152599 -0.0488147253 0.182564681
630296220.0 -0.0086626476 0.1785158993 0.1303890271 -0.5427946431 0.130776808 -0.542507789 -0.0473932311 0.1830882019
635296190.0 -0.0069183674 0.178528108 0.1245956475 -0.5435690648 0.1244679091 -0.5433672312 -0.045497079 0.1835675261
640296160.0 -0.0047596673 0.1786114937 0.1187154149 -0.5447006636 0.1184339235 -0.5449414991 -0.0432985676 0.1841497749
645296130.0 -0.0029371718 0.1790958817 0.1123803079 -0.5464026976 0.1128656865 -0.5459592763 -0.0420362769 0.1842596875
650296100.0 -0.0007854169 0.1795722951 0.1072634035 -0.547221169 0.1074222161 -0.5472652951 -0.0401404221 0.1851808581
655296070.0 0.0009565359 0.1791170352 0.1010063266 -0.5480587169 0.1009979523 -0.5484454838 -0.0385442934 0.1861432745
660296040.0 0.0026363108 0.1796767935 0.0953247336 -0.5492231251 0.0954841009 -0.5493051981 -0.036572583 0.1863027307
665296010.0 0.0052095575 0.1795276791 0.0894542046 -0.550252908 0.0896188074 -0.5504279224 -0.0350125293 0.1868901282
670295980.0 0.0072995465 0.1796467578 0.0831598277 -0.5509877694 0.0838665637 -0.5510342407 -0.0333584339 0.1870841351
675295950.0 0.0092263428 0.1798480215 0.0772844512 -0.5519111262 0.0777822701 -0.5525093617 -0.0313600984 0.1881204876
680295920.0 0.0110816829 0.1803842726 0.0713614909 -0.5531893572 0.0712624601 -0.5533934487 -0.0293828339 0.1881187143
685295890.0 0.0129185099 0.1800329147 0.0658027315 -0.5536764098 0.0652725895 -0.554126592 -0.027730905 0.1888918297
690295860.0 0.015188433 0.1798142507 0.0597913003 -0.5538240464 0.0590810145 -0.5541266402 -0.0257762497 0.1895599231
695295830.0 0.0176299347 0.179829085 0.0530374308 -0.5549190315 0.0531740521 -0.5552245239 -0.0244180156 0.1897810339
700295800.0 0.0196205007 0.1798751873 0.047123486 -0.5551570696 0.0472655933 -0.5556087378 -0.0221228512 0.1897993757
705295770.0 0.0215073849 0.1799424832 0.0411482552 -0.5559291068 0.0413898996 -0.5559214442 -0.020628962 0.1903653959
710295740.0 0.0232225846 0.1800650054 0.0353808822 -0.5559327708 0.03547129 -0.5560939252 -0.0193007735 0.1910416053
715295710.0 0.0252802109 0.1794869507 0.0294074172 -0.5567004852 0.0298714706 -0.5565878627 -0.0173754137 0.1908508127
720295680.0 0.0272370538 0.1793817919 0.0233142899 -0.5566928528 0.0235080478 -0.557162656 -0.0151653488 0.1913610601
725295650.0 0.0295450483 0.179624563 0.0167643314 -0.5568085901 0.017486383 -0.5569136989 -0.0131153433 0.1919674594
730295620.0 0.0310775834 0.1790852708 0.0111613978 -0.5568908838 0.0112370021 -0.5567943589 -0.0112278601 0.1913779174
735295590.0 0.0338819426 0.1789446812 0.0053117372 -0.5568481269 0.0056954585 -0.5570741943 -0.0093852264 0.1924797678
740295560.0 0.0355995879 0.1789149174 -0.000857902 -0.5566090273 -0.000932971 -0.5572412245 -0.0077184906 0.192550326
745295530.0 0.0374434268 0.1783654191 -0.0064030909 -0.5570310999 -0.0064155632 -0.557266438 -0.0060303836 0.1925996081
750295500.0 0.0394391002 0.1780589795 -0.0124306568 -0.5565252748 -0.0124986548 -0.5568630527 -0.0039350695 0.1925054308
755295470.0 0.0418522864 0.1781666842 -0.0187298838 -0.5566118036 -0.0182962037 -0.55704811 -0.0024866744 0.1930367779
760295440.0 0.0434249147 0.1775740018 -0.0246696808 -0.5559630463 -0.024793776 -0.5562150013 -0.0007563396 0.1928442759
765295410.0 0.0453521433 0.1771934521 -0.0300116349 -0.5560436429 -0.0303623366 -0.5562748514 0.0018626561 0.1934830882
770295380.0 0.0475876773 0.1772613853 -0.0364140246 -0.5557122036 -0.0365274916 -0.5560607021 0.0036946751 0.1936114398
775295350.0 0.0495570848 0.1765938914 -0.0423880862 -0.5547512548 -0.0423253687 -0.5552958003 0.0050413317 0.1930616039
780295320.0 0.0514573317 0.1761328613 -0.0481770391 -0.5546750228 -0.0480202986 -0.5549737487 0.0071330471 0.1939805212
785295290.0 0.0532869574 0.1758580163 -0.0543532211 -0.5533748702 -0.0542183966 -0.5541556531 0.0085155014 0.1935586408
790295260.0 0.0553815355 0.1755489896 -0.0600265969 -0.5533911035 -0.0603043612 -0.5539089509 0.0107662139 0.1937349586
795295230.0 0.0573560231 0.174922958 -0.0661136576 -0.5527156167 -0.0659650549 -0.5528608083 0.0128263171 0.1943511447
800295200.0 0.0593884896 0.1747972913 -0.0724511773 -0.5522703686 -0.0723324347 -0.5525026109 0.0144439577 0.1938160223
805295170.0 0.0610939824 0.1739567745 -0.0781065021 -0.5505435942 -0.0781368626 -0.5510432147 0.0160387732 0.1937450862
810295140.0 0.0630572332 0.1732868732 -0.083766946 -0.5500714016 -0.0841529781 -0.5506494159 0.0182376403 0.1943333869
815295110.0 0.0653707743 0.1730090601 -0.0900708651 -0.5492442419 -0.09014908 -0.5494242379 0.0199761624 0.193565625
820295080.0 0.0670823107 0.1721413645 -0.0957981907 -0.5482079861 -0.0958934518 -0.5485041742 0.0218751096 0.1938003396
825295050.0 0.0692193698 0.1715538982 -0.101833483 -0.546600027 -0.1016088522 -0.5470084452 0.0237356951 0.1938059546
830295020.0 0.0709322346 0.1714121311 -0.1077888509 -0.5460375319 -0.1077519858 -0.546065889 0.0253454447 0.1938798362
