!Created with skrf (http://scikit-rf.org).
# Hz S RI R 50.0 
!freq ReS11 ImS11 ReS21 ImS21 ReS12 ImS12 ReS22 ImS22
300000.0 -0.2434575063 -0.0884802481 0.4726796493 0.0579545836 0.4720950563 0.0564454497 -0.2403534047 -0.0964745153
5299970.0 -0.2449987088 0.0062074625 0.4746994534 0.0051053615 0.4750250735 0.0050286418 -0.2410656759 0.0073605511
10299940.0 -0.2419490935 0.0182352685 0.4766857464 0.0055994644 0.4767711942 0.0062820115 -0.2376786423 0.0205720192
15299910.0 -0.2375633975 0.0268555395 0.4805102107 0.0073047478 0.4804630259 0.0072908347 -0.2331563793 0.0302103862
20299880.0 -0.2330040528 0.0340149498 0.4848775759 0.0082290722 0.4848552723 0.0079028879 -0.2277722943 0.0380593901
25299850.0 -0.2278289297 0.0404068972 0.4904288009 0.0070458966 0.4901388962 0.0072099877 -0.2219435955 0.0446155542
30299820.0 -0.2224653603 0.0448993426 0.4955971292 0.0048511442 0.495404768 0.004946692 -0.215980353 0.0502240965
35299790.0 -0.2176756892 0.0490648062 0.5012587503 0.0014923937 0.5008083225 0.0013848089 -0.2105913153 0.0544553532
40299760.0 -0.2127355453 0.0521701848 0.5057659999 -0.0023423538 0.5060539276 -0.002149039 -0.2052896556 0.0574889184
45299730.0 -0.2078015433 0.0549084299 0.5106180865 -0.0073541799 0.5111511651 -0.0069515816 -0.2003724235 0.0606892395
50299700.0 -0.2041763627 0.0567856011 0.5152437585 -0.0126294772 0.5149352884 -0.0122990281 -0.1953104271 0.0626395691
55299670.0 -0.200015191 0.0584855316 0.5186756797 -0.019133768 0.5184107161 -0.0185177033 -0.1913638639 0.0641975701
60299640.0 -0.1959127431 0.0599159716 0.5218195955 -0.0250077646 0.5224060778 -0.0245131445 -0.1873402025 0.0652849261
65299610.0 -0.1930534861 0.0606279112 0.5244964603 -0.0306837445 0.5250120343 -0.0312711509 -0.1839939299 0.0666227396
70299580.0 -0.190142729 0.0621107992 0.5271856985 -0.037882424 0.5272493309 -0.0378040994 -0.1807806108 0.0678107335
75299550.0 -0.1871992358 0.0630488315 0.5288313119 -0.0443551842 0.5289428661 -0.0445977667 -0.1780544895 0.0681575945
80299520.0 -0.1848298692 0.0636379292 0.5309283218 -0.0513670904 0.5310719934 -0.0515800745 -0.1750618467 0.069044862
85299490.0 -0.182727444 0.0640817151 0.532249551 -0.0581223607 0.532306214 -0.0579472837 -0.1729901122 0.0696043114
90299460.0 -0.1804043644 0.0647729703 0.5329703697 -0.0655091268 0.533362514 -0.0653692684 -0.1703771505 0.0705766607
95299430.0 -0.1781663377 0.0652450221 0.533928096 -0.0721017272 0.5342432972 -0.0721162567 -0.1683364756 0.0713891336
100299400.0 -0.176639528 0.0660675336 0.5340896805 -0.0787357054 0.5343723871 -0.0789110093 -0.1661278089 0.0714313056
105299370.0 -0.1749752617 0.0669991717 0.5343930537 -0.0863594834 0.5348546226 -0.0860991315 -0.1639163254 0.0722590226
110299340.0 -0.1734321811 0.0675237323 0.5348316423 -0.0924482866 0.5344982986 -0.0928602802 -0.1629604485 0.0729773172
115299310.0 -0.1720932556 0.0680951941 0.5352434203 -0.099591567 0.5347220098 -0.0997537851 -0.1610494712 0.0740307947
120299280.0 -0.1707103731 0.0685651456 0.5343934829 -0.1064429874 0.534657519 -0.1063411969 -0.1597732472 0.0744358598
125299250.0 -0.1696982371 0.0691346003 0.5343847137 -0.1128869278 0.5343721322 -0.1128472895 -0.158715147 0.0749625594
130299220.0 -0.1687247597 0.0701816711 0.5332978404 -0.1198373767 0.5336093943 -0.119969343 -0.1570788091 0.075528109
135299190.0 -0.1675604946 0.07124139 0.5329245749 -0.1266681239 0.5327090318 -0.126496174 -0.1556655084 0.076865962
140299160.0 -0.1665355261 0.072017161 0.5320250363 -0.1333556661 0.5322495136 -0.1329328441 -0.1543626827 0.0782655612
145299130.0 -0.1654843916 0.0729121925 0.5310042211 -0.1395141031 0.5308413111 -0.1396593358 -0.1534920307 0.0788918619
150299100.0 -0.1645162013 0.0739245683 0.5297387403 -0.1456911013 0.5303087984 -0.1451934618 -0.1523946499 0.0801571579
155299070.0 -0.1640354232 0.0747058412 0.5288896083 -0.1531335061 0.5286441343 -0.1526941761 -0.1513474479 0.0812391564
160299040.0 -0.1628171819 0.0759138983 0.5274423368 -0.1592526697 0.527104853 -0.1590623695 -0.1505919761 0.0822331706
165299010.0 -0.1620235548 0.0769354708 0.5254807912 -0.1656056533 0.5260586287 -0.1655864234 -0.1494076882 0.0839454067
170298980.0 -0.1613419365 0.0779550742 0.5242943305 -0.172020181 0.5242988948 -0.171912448 -0.1486193385 0.0849741051
175298950.0 -0.160899307 0.0788179949 0.5233090184 -0.1783132105 0.5227738233 -0.1779805757 -0.1476354085 0.085858183
180298920.0 -0.1600711294 0.0800897642 0.5213898094 -0.1842208747 0.5210678363 -0.1840347895 -0.1465152739 0.0874313973
185298890.0 -0.1587223391 0.0810490057 0.5190272383 -0.1907265471 0.5189617496 -0.1904316074 -0.1453311002 0.0886718931
190298860.0 -0.1584130455 0.0823009806 0.5174057416 -0.1970478603 0.5177483712 -0.1969298511 -0.1447709683 0.0897998605
195298830.0 -0.1577253093 0.0831728526 0.5151570002 -0.2031054727 0.5152784186 -0.2027861027 -0.1435575055 0.0910395906
200298800.0 -0.1567589215 0.0848045636 0.5128550265 -0.2093971956 0.5133106005 -0.209367184 -0.1434357119 0.0923725908
205298770.0 -0.1561737791 0.0859354195 0.5105646333 -0.2157141004 0.5109407348 -0.2149472375 -0.1420914477 0.093296777
210298740.0 -0.1555879181 0.0869254732 0.5087382812 -0.2205587806 0.5085076874 -0.2210432606 -0.14075777 0.0951451971
215298710.0 -0.1553406689 0.0882557206 0.506513661 -0.227039253 0.5064347043 -0.2268165923 -0.1404683521 0.0963832651
220298680.0 -0.1542075792 0.0893280932 0.5035493201 -0.2327493006 0.5036679999 -0.2325991624 -0.1396391772 0.0975395675
225298650.0 -0.1533813173 0.0907619892 0.5015070858 -0.2386659403 0.5020310825 -0.2386976016 -0.1391396003 0.0990455107
230298620.0 -0.1524521318 0.0923735859 0.4988704063 -0.2443979514 0.4995229073 -0.2447223991 -0.1379656582 0.1005136314
235298590.0 -0.1518241897 0.0936677798 0.4962759001 -0.2501507116 0.4963268455 -0.2498497094 -0.1371919195 0.101639618
240298560.0 -0.1510800438 0.0949965209 0.4936565849 -0.2560802747 0.4933965897 -0.2561051754 -0.1359189174 0.1031220364
245298530.0 -0.1502878098 0.0963343456 0.4911985053 -0.2616702035 0.4907243216 -0.261628405 -0.1347537646 0.1039322551
250298500.0 -0.149066663 0.0977124904 0.4876876927 -0.2673180918 0.4874524578 -0.26678015 -0.1337198014 0.1054344747
255298470.0 -0.1485507253 0.0985260108 0.4846123394 -0.2725129861 0.4852331174 -0.2725808897 -0.1328360904 0.1068759868
260298440.0 -0.1479295139 0.1000446652 0.4819115995 -0.2785918129 0.4823397109 -0.2782471667 -0.1314059172 0.1083893094
265298410.0 -0.1467255667 0.101962772 0.4789903795 -0.2840770214 0.4792597967 -0.2836563078 -0.130838838 0.1098728342
270298380.0 -0.1459455935 0.1030198082 0.4763247685 -0.2891056242 0.4762712316 -0.2891873665 -0.1297334673 0.1111345288
275298350.0 -0.1451009681 0.1043798529 0.473177367 -0.2952040145 0.473113277 -0.2946533521 -0.1280421131 0.112325715
280298320.0 -0.1438608275 0.1059543076 0.4701804654 -0.3003665679 0.4699728293 -0.2999129395 -0.1270683838 0.1138765679
285298290.0 -0.1432269867 0.1073245241 0.4664235916 -0.3055949321 0.4666253568 -0.3055912737 -0.125825313 0.1150308257
290298260.0 -0.1420205362 0.1085807433 0.4630846835 -0.3103695863 0.4630893391 -0.3106071004 -0.1246380788 0.1166508613
295298230.0 -0.1409060687 0.1095685888 0.4596398575 -0.3156516565 0.4598353376 -0.3160327805 -0.1226416548 0.117679721
300298200.0 -0.1401973905 0.1109301075 0.4566782149 -0.3208812682 0.4568030748 -0.3212055103 -0.1218297327 0.119276746
305298170.0 -0.1389648015 0.1121640083 0.4526075391 -0.3264766244 0.4530168844 -0.3263460963 -0.1200846034 0.1202096269
310298140.0 -0.1381166527 0.1136224662 0.4495258216 -0.3314888183 0.4496259571 -0.3313211876 -0.119029628 0.1214727824
315298110.0 -0.1371536714 0.1145873969 0.4457288117 -0.3372465222 0.4458930873 -0.3366314166 -0.1180178966 0.1228510896
320298080.0 -0.1359652999 0.1158742589 0.4414026801 -0.3423718909 0.4421040192 -0.3417590099 -0.116240243 0.1243101622
325298050.0 -0.1352367602 0.1171134776 0.4379928489 -0.3470310294 0.4379216611 -0.3466870989 -0.115333236 0.1254079821
330298020.0 -0.1340417814 0.1182019776 0.4338286245 -0.3518250028 0.4341704747 -0.3519916517 -0.113992807 0.1267156976
335297990.0 -0.1330931591 0.1193768092 0.4299662888 -0.3567574594 0.4301620571 -0.3568747937 -0.1134245017 0.1286814494
340297960.0 -0.1325632245 0.1212051731 0.4258871743 -0.3616619106 0.4254983217 -0.3615488103 -0.1116732329 0.1298872997
345297930.0 -0.1314256538 0.1227226767 0.4216386126 -0.3661465408 0.4212130197 -0.3665680183 -0.1107546659 0.13077069
350297900.0 -0.1304682612 0.1237984745 0.4173627791 -0.3710612321 0.4176881604 -0.3710609736 -0.1095596993 0.1329103971
355297870.0 -0.1292456953 0.125666786 0.4135675594 -0.3755153136 0.4137491193 -0.3753321819 -0.1081926335 0.1339025304
360297840.0 -0.1282392439 0.1268351179 0.409348442 -0.3797502633 0.4097128573 -0.3798138919 -0.1067606968 0.1354224704
365297810.0 -0.127378878 0.1281580781 0.4052793693 -0.3845642171 0.4051327013 -0.3850761763 -0.1050393656 0.1368184584
370297780.0 -0.1257077905 0.1294879265 0.4007567453 -0.3886239567 0.4013242084 -0.3885436375 -0.1036863646 0.1382453046
375297750.0 -0.1244724698 0.1309873462 0.3968450264 -0.3932788631 0.3970622454 -0.3934774019 -0.1023675806 0.139221206
380297720.0 -0.1235311196 0.132178311 0.3919657268 -0.3975299529 0.3924290288 -0.3970674652 -0.1015085814 0.1404261641
385297690.0 -0.122436137 0.1334521706 0.3874642491 -0.4013671933 0.3875501009 -0.4018439994 -0.0993678849 0.1416927337
390297660.0 -0.1212173288 0.1351640341 0.3836243053 -0.4061840897 0.3832996933 -0.4055080347 -0.0987017625 0.1429035894
395297630.0 -0.1197293996 0.1364351645 0.3793050834 -0.4101379629 0.3790687059 -0.4105745386 -0.0962790948 0.1444549617
400297600.0 -0.1184810692 0.1374830699 0.37411794 -0.4147415505 0.3745796059 -0.4146858369 -0.0950094607 0.1459679156
405297570.0 -0.1177606019 0.1384543556 0.3699680673 -0.4183030113 0.3700600411 -0.4185243666 -0.0935734945 0.1468554201
410297540.0 -0.1162568329 0.1402180708 0.3654754126 -0.4225639291 0.3654642985 -0.4226454241 -0.0919923408 0.1482114596
415297510.0 -0.1147310338 0.1411484641 0.360400789 -0.4267495125 0.3608335382 -0.4267561571 -0.0904450281 0.1493172629
420297480.0 -0.1133763684 0.142616757 0.3558540562 -0.4305996384 0.3557180756 -0.430970115 -0.0891959449 0.1502743576
425297450.0 -0.111808008 0.1436065037 0.3512220611 -0.4343134155 0.3513343231 -0.4343637174 -0.0874994435 0.1515712959
430297420.0 -0.1107670602 0.1447178833 0.3465734304 -0.4380583729 0.346558796 -0.4376777843 -0.0862915317 0.152359972
435297390.0 -0.1095039526 0.1461967268 0.3417063575 -0.4413299369 0.3411918732 -0.4415879326 -0.083650507 0.1536293442
440297360.0 -0.1080937769 0.1473466734 0.336561145 -0.4454456867 0.3368081272 -0.4456626837 -0.0825243022 0.1544048575
445297330.0 -0.1068400444 0.1481334876 0.3322370746 -0.4492522701 0.3320054919 -0.4488416621 -0.0805817561 0.1548772803
450297300.0 -0.1048214591 0.1494538244 0.327077942 -0.4525168914 0.3270514197 -0.4530142833 -0.0789685016 0.1560731407
455297270.0 -0.1036352429 0.1508170757 0.3218869239 -0.4564059487 0.3223693414 -0.4564732898 -0.0773650828 0.1573986732
460297240.0 -0.1026157869 0.1516664231 0.3167891121 -0.4593820659 0.3170195055 -0.4596234553 -0.075660748 0.1583824538
465297210.0 -0.1008382863 0.153321683 0.3122004279 -0.4635470017 0.3121162614 -0.4635524068 -0.0735757941 0.1590929848
470297180.0 -0.0990572877 0.1539801137 0.3066343611 -0.4664070551 0.3071250083 -0.466875073 -0.0717919388 0.160159952
475297150.0 -0.0979038679 0.1550508464 0.3016111716 -0.4694792427 0.3018614492 -0.4692619361 -0.069822547 0.1606743229
480297120.0 -0.0965666022 0.1564002957 0.2966972765 -0.4734218336 0.2963451975 -0.4733799649 -0.0679271856 0.162164879
485297090.0 -0.0951427847 0.1572579011 0.2916761302 -0.4759443436 0.2914991494 -0.4759154023 -0.0661399644 0.162673831
490297060.0 -0.0938845115 0.1584432439 0.2868917993 -0.4795383539 0.2865494574 -0.4792741457 -0.0643382945 0.1639508967
495297030.0 -0.0919829251 0.1594863243 0.2807309307 -0.4824009063 0.2815693561 -0.482309276 -0.0628737921 0.1647237993
500297000.0 -0.0905291363 0.1604143147 0.2755537123 -0.4852597396 0.2754740609 -0.4853652492 -0.0607861146 0.1661261629
505296970.0 -0.0887648667 0.1613082457 0.2703346267 -0.4881674355 0.2701932101 -0.4883472657 -0.0591115206 0.166626542
510296940.0 -0.0872818077 0.1621719708 0.2649774142 -0.4912022192 0.2647647614 -0.4917024814 -0.0569347567 0.1676994505
515296910.0 -0.0857995292 0.1634345375 0.2594009318 -0.4941361512 0.2592554586 -0.4940204191 -0.0552231094 0.1683339849
520296880.0 -0.0843091056 0.1644349908 0.2542165443 -0.4974500834 0.254211575 -0.4965678024 -0.0537488849 0.1687860867
525296850.0 -0.0825362043 0.1647613926 0.2487390026 -0.4993950871 0.2489761524 -0.4993550235 -0.0515653816 0.170093895
530296820.0 -0.0807460255 0.1662305276 0.2435289791 -0.5024539367 0.2436429464 -0.5020974223 -0.0496645825 0.1708417202
535296790.0 -0.0795153338 0.16703243 0.2383080684 -0.5047909694 0.2381961891 -0.5044038547 -0.0478182188 0.1712018019
540296760.0 -0.0780273136 0.1678959972 0.2324360239 -0.5075398794 0.2321510839 -0.507631544 -0.0460409606 0.1722722268
545296730.0 -0.0762388488 0.169143985 0.2267028542 -0.5094295623 0.226913189 -0.5097183951 -0.044599208 0.172651432
550296700.0 -0.0743582412 0.1700719589 0.2213531215 -0.5123303463 0.2216374732 -0.5125017448 -0.0427224294 0.1735546681
555296670.0 -0.0729543066 0.1707421215 0.2158032941 -0.5145361455 0.2161004505 -0.51459833 -0.0407529779 0.1744937254
560296640.0 -0.0711647168 0.1718094771 0.2099724588 -0.516742119 0.2100483757 -0.5168563496 -0.0384471025 0.1749925322
565296610.0 -0.069769423 0.1724928246 0.2043862174 -0.5189592103 0.2044705882 -0.519292668 -0.0366711807 0.1752661612
570296580.0 -0.0682555185 0.1732821261 0.1991155972 -0.5216073898 0.1983664278 -0.5216759243 -0.0347958065 0.1764488834
575296550.0 -0.0666155077 0.1743405413 0.1933661413 -0.5234095327 0.1931999808 -0.523696595 -0.0328396139 0.176614314
580296520.0 -0.064557892 0.1748412804 0.1876641903 -0.525646828 0.1876667495 -0.5255179453 -0.0310477523 0.1768576021
585296490.0 -0.0630748017 0.1753727011 0.1822340114 -0.5273867921 0.1822230513 -0.5274656539 -0.0290584566 0.1773575395
590296460.0 -0.0610316725 0.1763606647 0.1763593155 -0.5288191508 0.1764354032 -0.529118147 -0.0276051979 0.1777445444
595296430.0 -0.0594078196 0.1771820665 0.1699112102 -0.5314159306 0.1704696625 -0.5312634183 -0.0253958072 0.1780607557
600296400.0 -0.058072167 0.1778245198 0.16462811 -0.5333674663 0.1647621775 -0.5328581016 -0.023720961 0.178561181
605296370.0 -0.0562833884 0.1783409259 0.1587675136 -0.5342800819 0.1589587303 -0.5342686042 -0.0211483299 0.179000427
610296340.0 -0.0543105789 0.1789902958 0.1524752907 -0.5361199024 0.1530810798 -0.5364262302 -0.0192070234 0.1792836809
615296310.0 -0.0523009232 0.1794277895 0.1466541108 -0.5375379712 0.1469794005 -0.5384288822 -0.0170596167 0.1795131141
620296280.0 -0.0507317379 0.1801380132 0.1415387269 -0.5390870866 0.1413343799 -0.5391830591 -0.0155433481 0.179878256
625296250.0 -0.0491966882 0.1807335904 0.1359040986 -0.5409730396 0.1354703843 -0.5410557464 -0.0127526914 0.1800795762
630296220.0 -0.0467656966 0.1815562386 0.1287635461 -0.5424276874 0.1292984794 -0.5420057383 -0.0110155464 0.1805060412
635296190.0 -0.045868365 0.1820365554 0.1239906634 -0.5435514053 0.1234470543 -0.5437054376 -0.0087652765 0.1807560722
640296160.0 -0.0440452536 0.1826564788 0.1181281144 -0.5447402783 0.1180425685 -0.5449332718 -0.0070678445 0.1811057841
645296130.0 -0.0420910269 0.183513144 0.1117087193 -0.5456532667 0.1120171722 -0.5461544086 -0.0048364998 0.1815133337
650296100.0 -0.0402052894 0.1837337473 0.1061355143 -0.5470226704 0.1059732339 -0.5470698873 -0.0027525733 0.1809294073
655296070.0 -0.0387515355 0.1841787967 0.1001721736 -0.5482568228 0.1003221477 -0.5481863473 -0.0005053827 0.1815456253
660296040.0 -0.0372483963 0.184394008 0.0943932097 -0.5492561296 0.0943994706 -0.5494861679 0.0019110619 0.1817620297
665296010.0 -0.0348915458 0.1851487395 0.087684475 -0.550192003 0.0885471818 -0.550356683 0.0037278689 0.1823295074
670295980.0 -0.0339843857 0.185822811 0.082697272 -0.551202652 0.0824076974 -0.5510494033 0.0051569229 0.1820307303
675295950.0 -0.0315315105 0.1862106045 0.0763394757 -0.551599959 0.0764231287 -0.5511319491 0.0070875744 0.1822846299
680295920.0 -0.0297300552 0.1865847725 0.0702862401 -0.5528100526 0.0699024058 -0.5527053889 0.0096881439 0.1828176763
685295890.0 -0.027866965 0.1874350416 0.0646067753 -0.5534408141 0.0640753692 -0.5534224403 0.0116730228 0.1822785153
690295860.0 -0.0260713686 0.1875294632 0.0585074557 -0.5533926123 0.0586950799 -0.5540735562 0.0134448129 0.1832816628
695295830.0 -0.0244164921 0.1877372309 0.0530291974 -0.5541228062 0.0525222278 -0.5545305119 0.0155555827 0.1828137108
700295800.0 -0.0227056866 0.1880917235 0.0464042119 -0.5549957334 0.046241864 -0.5548553515 0.017261977 0.1835410483
705295770.0 -0.0209271352 0.1891917778 0.0404375302 -0.5556141553 0.04102533 -0.5555276652 0.0193703262 0.1835410879
710295740.0 -0.0189136042 0.1891593612 0.0347452926 -0.5562043207 0.0347210885 -0.556110678 0.0213019068 0.1822744548
715295710.0 -0.0174597228 0.1890684881 0.0293624673 -0.5565497616 0.0285140879 -0.5561874796 0.0234854781 0.1826620567
720295680.0 -0.0152296872 0.1895805062 0.0223316642 -0.5566889151 0.0227302315 -0.556376412 0.0256426719 0.1831512938
725295650.0 -0.0132502448 0.1900985952 0.0168641852 -0.5564104117 0.0164616105 -0.5569280099 0.0272237186 0.1833672897
730295620.0 -0.0112682625 0.1904681759 0.0104634556 -0.5563377754 0.0109643395 -0.5571639494 0.0288136339 0.1825403887
735295590.0 -0.0097798318 0.190947326 0.0049058336 -0.5568780835 0.0044409606 -0.556966688 0.0310448063 0.1821714264
740295560.0 -0.0080394349 0.1908982998 -0.0011282459 -0.5563895765 -0.0014792234 -0.5566255898 0.0338043409 0.182191542
745295530.0 -0.0061454986 0.1911460032 -0.0072979795 -0.5561997768 -0.0079783948 -0.556534075 0.0355633669 0.1817958284
750295500.0 -0.0040389026 0.1912736505 -0.0131914376 -0.5565344656 -0.0134765266 -0.5568618513 0.0371671248 0.1818804014
755295470.0 -0.00225832 0.1910662907 -0.0192451993 -0.5561990784 -0.0194339654 -0.556474375 0.0395687717 0.1810019295
760295440.0 -0.0004870325 0.1918248797 -0.0253139848 -0.5565690525 -0.0252461723 -0.5562719752 0.0411376004 0.1807541213
765295410.0 0.0014600891 0.1919738766 -0.0316713645 -0.555738768 -0.0316187355 -0.5558612958 0.0434177469 0.180674856
770295380.0 0.0030315998 0.1916882464 -0.0373937617 -0.555046324 -0.0375032419 -0.5555659344 0.0449096504 0.1799161289
775295350.0 0.0047776837 0.1913483435 -0.0432693363 -0.5545075088 -0.0430260285 -0.5546778631 0.0468112413 0.1795931263
780295320.0 0.0071700753 0.1918499899 -0.049171468 -0.5540268521 -0.048955093 -0.5543886895 0.0487864764 0.1791346833
785295290.0 0.008612532 0.1914674847 -0.0555195147 -0.5532783946 -0.0550432788 -0.5537831627 0.0516135889 0.1789735095
790295260.0 0.0109429651 0.1922939439 -0.0604264623 -0.5533363564 -0.0602920081 -0.5531148977 0.0536176261 0.178239499
795295230.0 0.012635243 0.1919440956 -0.067613898 -0.5518727286 -0.0667144249 -0.5520799057 0.0555010061 0.1781057429
800295200.0 0.0141325206 0.1920840858 -0.0734532375 -0.551269927 -0.0730694389 -0.5514296869 0.057544455 0.1774962822
805295170.0 0.0163454421 0.1919602505 -0.0787139685 -0.5506470412 -0.0791430619 -0.5509320911 0.0594250635 0.177234146
810295140.0 0.0180255646 0.1916963677 -0.0846515045 -0.5495147683 -0.0848944033 -0.5497295512 0.0616784581 0.176693789
815295110.0 0.0198149215 0.1916302575 -0.0904119829 -0.5481678993 -0.090390349 -0.5486353495 0.0636108829 0.1764011064
820295080.0 0.0216537282 0.1921429046 -0.0967902299 -0.5477541673 -0.0962524033 -0.5476318818 0.0654693819 0.1758092645
825295050.0 0.0240015875 0.1916893103 -0.102365419 -0.5463761251 -0.102505483 -0.5466917053 0.0677769874 0.1751939926
830295020.0 0.0253899502 0.1916825902 -0.1084182927 -0.5454182548 -0.1083784086 -0.5451007207 0.0700706272 0.1743388979
