!Created with skrf (http://scikit-rf.org).
# Hz S RI R 50.0 
!freq ReS11 ImS11 ReS21 ImS21 ReS12 ImS12 ReS22 ImS22
300000.0 -0.318288374 -0.130631692 0.3730787337 0.0651544482 0.3725740774 0.0658519028 -0.3165296909 -0.131181949
5299970.0 -0.3248597243 0.0030272993 0.3780701217 0.0031153025 0.3789312086 0.0033044011 -0.3258688746 0.0021629023
10299940.0 -0.3225736207 0.0142910243 0.3801742588 0.0027089195 0.3798790922 0.0031782636 -0.3231940125 0.0124421233
15299910.0 -0.3190923546 0.0225212063 0.3819145431 0.0027108071 0.3820943256 0.0029097015 -0.3205608287 0.0197757373
20299880.0 -0.315423365 0.0289992082 0.3847504041 0.0016094769 0.3853114985 0.0018458229 -0.3176419255 0.0260393615
25299850.0 -0.3115551127 0.0349877543 0.3886255131 0.0005400474 0.388669878 0.0004326099 -0.3147014709 0.0313014058
30299820.0 -0.3082924161 0.0395124956 0.3922004926 -0.0021401882 0.3919950106 -0.0023119596 -0.311851954 0.0356897833
35299790.0 -0.3044439133 0.0431932712 0.3949532 -0.0045770062 0.3953675621 -0.0051655504 -0.3090770603 0.0399270616
40299760.0 -0.3013183463 0.0468761643 0.3984330363 -0.0085599188 0.3984842579 -0.0087376356 -0.3063307137 0.0433858038
45299730.0 -0.2980633894 0.0499434059 0.4012064399 -0.0125711145 0.4015739699 -0.012530393 -0.3038038146 0.0467191117
50299700.0 -0.2948618201 0.0526661471 0.403515115 -0.017175398 0.4037538495 -0.0173192923 -0.3011150709 0.0495123357
55299670.0 -0.2921305166 0.0551127328 0.4060992346 -0.0213403985 0.4059754961 -0.0220664667 -0.2993744571 0.0522446563
60299640.0 -0.2896958252 0.0577756358 0.4079662093 -0.026687689 0.4079509426 -0.0267541444 -0.2970746237 0.0546314828
65299610.0 -0.2875536889 0.0600623564 0.4097498304 -0.0315718542 0.4098654777 -0.031749535 -0.2953297562 0.057385539
70299580.0 -0.285430545 0.0620268761 0.4107424468 -0.0363479912 0.4111911824 -0.0368128854 -0.2937415765 0.0596821043
75299550.0 -0.2835957251 0.0641801912 0.4118863307 -0.042186892 0.4120618126 -0.0419504241 -0.2920386241 0.0623275963
80299520.0 -0.2816939273 0.0669034933 0.4131543829 -0.0475157852 0.4128269972 -0.0477503088 -0.2901927253 0.0650955855
85299490.0 -0.2798512455 0.0685937885 0.4134052093 -0.0524982573 0.4135633023 -0.0524482336 -0.2892884672 0.0669285962
90299460.0 -0.2783358217 0.0706085717 0.4138663697 -0.057716482 0.4134210379 -0.0574056642 -0.2876961504 0.0694256462
95299430.0 -0.2766931757 0.0726757441 0.4139144284 -0.0630132787 0.4142399416 -0.0631049079 -0.2864104449 0.0719156336
100299400.0 -0.2752587097 0.0743676683 0.4139718028 -0.0679287159 0.4143309469 -0.0683081127 -0.2851998667 0.0742492093
105299370.0 -0.2739637684 0.0767113815 0.4136292928 -0.0732683582 0.4141758066 -0.0733606993 -0.2836947777 0.0764083923
110299340.0 -0.2725473597 0.0788401429 0.413557159 -0.0783523812 0.4138596644 -0.0783695159 -0.283220365 0.0786597253
115299310.0 -0.2716637207 0.0808960774 0.4136088865 -0.0832594809 0.4137207285 -0.083354045 -0.2822542226 0.0812841167
120299280.0 -0.2704147225 0.083205409 0.4131938669 -0.088834419 0.4130469088 -0.0892660232 -0.2812337409 0.0834215884
125299250.0 -0.2692244334 0.0852531329 0.4125803974 -0.0939895823 0.4124330007 -0.0939134045 -0.2800919298 0.0859488174
130299220.0 -0.2682701026 0.0875277299 0.4115373545 -0.0996368924 0.4118388712 -0.0996410971 -0.2789073459 0.0885096339
135299190.0 -0.2670713385 0.0900337481 0.4112225909 -0.1038651867 0.4112590794 -0.1041377641 -0.2782799402 0.0906387675
140299160.0 -0.2663562065 0.0924254636 0.4105761464 -0.109300723 0.4104327729 -0.1088635963 -0.2777422619 0.0931080619
145299130.0 -0.2650921533 0.0946817983 0.4095860914 -0.1139764221 0.4095191556 -0.1138771302 -0.2766402814 0.0957532477
150299100.0 -0.2641071485 0.0970247064 0.4081471709 -0.1190206727 0.4085021978 -0.1192654454 -0.2754995772 0.0985634573
155299070.0 -0.2631448228 0.0994049503 0.4069028238 -0.1235905588 0.4074406241 -0.1238914573 -0.2744691077 0.1009641951
160299040.0 -0.2620938061 0.1020064716 0.4059270072 -0.1286684249 0.4060050345 -0.1288444382 -0.2739956474 0.1035742837
165299010.0 -0.261163482 0.1041967718 0.4048366021 -0.1330275157 0.4048551782 -0.1337851506 -0.272430265 0.1060508151
170298980.0 -0.2601688214 0.1069270565 0.4030023382 -0.1382638339 0.4038806608 -0.138491332 -0.2719360021 0.1089281405
175298950.0 -0.2591253291 0.1092926354 0.402350928 -0.1432316418 0.4025558647 -0.1432570019 -0.270935602 0.1117340399
180298920.0 -0.2580652993 0.1117375489 0.4004964934 -0.1479316827 0.4006888914 -0.148242026 -0.2697110006 0.1141457494
185298890.0 -0.257054079 0.1142927623 0.3994237599 -0.152590729 0.3988178246 -0.1529552172 -0.2685192409 0.1166918438
190298860.0 -0.2558292942 0.1172824665 0.3970976949 -0.1574364382 0.397729036 -0.1575158547 -0.2676690722 0.1195636881
195298830.0 -0.2548214893 0.1197981248 0.3961672157 -0.1618695571 0.3959527714 -0.161977835 -0.2668047011 0.1219044049
200298800.0 -0.2536547719 0.122012488 0.3944704691 -0.1669385576 0.394238644 -0.1669095584 -0.2655022533 0.1245812732
205298770.0 -0.2530737014 0.1246478379 0.3922681529 -0.1709124811 0.392550271 -0.1710982983 -0.2643563331 0.1272936759
210298740.0 -0.2514938299 0.1270825219 0.3905284245 -0.1757321655 0.39046095 -0.1758012995 -0.2635904408 0.129936897
215298710.0 -0.2502815379 0.129937122 0.3883737036 -0.1796969705 0.3887515273 -0.1804625787 -0.2623799264 0.1327323246
220298680.0 -0.2489034737 0.1325364384 0.3863560562 -0.1849541382 0.3867780254 -0.1846532852 -0.2610926015 0.1352120949
225298650.0 -0.2478699863 0.1352746536 0.3842403844 -0.1890209044 0.3848016303 -0.1887259318 -0.2600246781 0.13806587
230298620.0 -0.2465732059 0.1379673835 0.3825177266 -0.1934620431 0.3828365618 -0.1938351719 -0.2584915037 0.1407199685
235298590.0 -0.2454517626 0.1404551708 0.3804880774 -0.1978512882 0.3805219323 -0.1978282487 -0.2572763768 0.1434458671
240298560.0 -0.2439774856 0.1434016414 0.3782254695 -0.2021393385 0.3783319763 -0.2022404009 -0.2560877934 0.1459699332
245298530.0 -0.2427902129 0.1457565362 0.3760269615 -0.2065851613 0.3764034091 -0.2066922363 -0.2547639085 0.1487688469
250298500.0 -0.2414790104 0.1483094579 0.3741623471 -0.2107050301 0.3737632795 -0.2105970996 -0.2532215202 0.1515572422
255298470.0 -0.2401517851 0.1511825956 0.3719938709 -0.21478847 0.3718376375 -0.2151521388 -0.2518637025 0.1541379044
260298440.0 -0.2386572489 0.1536225109 0.3694338177 -0.2187568534 0.3694094828 -0.2190578838 -0.2507555559 0.156876589
265298410.0 -0.2374913577 0.1561880961 0.3668968807 -0.2234547058 0.3669059604 -0.2235617593 -0.2486935318 0.1592946856
270298380.0 -0.2358336324 0.1588226346 0.3640436143 -0.2275260805 0.3644803144 -0.227600966 -0.2470002025 0.162363627
275298350.0 -0.2343562454 0.1614560119 0.3614119994 -0.231521883 0.361537041 -0.2315217918 -0.2456320687 0.1650026319
280298320.0 -0.2333398924 0.1638951249 0.3595214297 -0.2354326348 0.35979512 -0.2357274233 -0.2442575138 0.1676476771
285298290.0 -0.2316033755 0.1665999812 0.3567561356 -0.2396170902 0.3570696168 -0.239504313 -0.2428653658 0.1705701912
290298260.0 -0.2298661118 0.1691588068 0.3544643035 -0.2436052711 0.3542540053 -0.2439672573 -0.2410777654 0.1728628498
295298230.0 -0.2285243454 0.1714205077 0.3518339571 -0.2478186335 0.351822898 -0.2478455864 -0.2394482178 0.1752986358
300298200.0 -0.2267008279 0.1742538004 0.3486829325 -0.251518767 0.3493047265 -0.2518968648 -0.2376488727 0.1781319146
305298170.0 -0.2251718158 0.1762896978 0.3464971231 -0.2557545312 0.3464238685 -0.2558512097 -0.2357236686 0.1804611062
310298140.0 -0.2231429884 0.1789071751 0.3433131244 -0.2595165334 0.3435790268 -0.2594816971 -0.2339193254 0.1830939226
315298110.0 -0.2217757809 0.181178718 0.3407132001 -0.2639149383 0.3408566482 -0.2637180179 -0.2322577744 0.1857637586
320298080.0 -0.2200360141 0.183728757 0.3372381078 -0.2678524083 0.3377659669 -0.2676311204 -0.2302015857 0.1879006225
325298050.0 -0.2187190877 0.1859577879 0.3344695649 -0.2711328684 0.3347790327 -0.2712104614 -0.2283471915 0.1901199406
330298020.0 -0.2170529469 0.1881522755 0.3314367998 -0.2746618427 0.3315550079 -0.2749249202 -0.2267813373 0.1929038297
335297990.0 -0.2152171219 0.1908940028 0.3282953879 -0.2787600449 0.328580649 -0.2786560326 -0.2247888337 0.1953710428
340297960.0 -0.2140110415 0.1935485203 0.324875297 -0.2823567721 0.3252130003 -0.2822285974 -0.2230894327 0.1981134607
345297930.0 -0.2118482843 0.1955131393 0.3219029885 -0.2859463176 0.3219820442 -0.2860566515 -0.2211991924 0.2004595277
350297900.0 -0.2099865945 0.1978893946 0.318809909 -0.2891929607 0.3190528148 -0.2894476134 -0.2192790197 0.2029286936
355297870.0 -0.2082717738 0.200365814 0.3154085231 -0.2928138306 0.3155378009 -0.2926004991 -0.2170404378 0.2054228954
360297840.0 -0.2065173524 0.2028197274 0.3121634154 -0.2961279874 0.3124360661 -0.2963744073 -0.2152676996 0.207723945
365297810.0 -0.2045185046 0.2054342746 0.3087583484 -0.2998039906 0.3091884003 -0.2994100744 -0.2134568535 0.2100849574
370297780.0 -0.2023490432 0.2073639832 0.3051938872 -0.3029813496 0.3056246247 -0.3027258134 -0.2112074028 0.2127568721
375297750.0 -0.2005473203 0.209926983 0.3022557313 -0.3063991262 0.3024792283 -0.3065583975 -0.2089322365 0.2149586432
380297720.0 -0.1987068402 0.2121749917 0.2991912626 -0.3101730678 0.2990061542 -0.3098800374 -0.2065562792 0.2174640289
385297690.0 -0.196517214 0.2141018965 0.2953259777 -0.3128658371 0.2955256221 -0.3133176455 -0.204559167 0.2198157301
390297660.0 -0.1939576654 0.2159482902 0.2917129393 -0.3158106081 0.2919530305 -0.3160209106 -0.201829009 0.2218705653
395297630.0 -0.1920230711 0.2181489412 0.2885126473 -0.3188345161 0.2885991822 -0.3191051251 -0.1997447398 0.2240201467
400297600.0 -0.1901579961 0.2207072228 0.2850065774 -0.3229400828 0.2853213025 -0.3225054088 -0.1975009931 0.2268557904
405297570.0 -0.1879207167 0.2224734479 0.2814422951 -0.3254453469 0.2814520903 -0.3255721858 -0.1947941378 0.2289734689
410297540.0 -0.1858074591 0.2248115017 0.2776328347 -0.3290434477 0.2780994902 -0.3287424844 -0.1929779397 0.2313270828
415297510.0 -0.1834428717 0.2271850768 0.2743176459 -0.3316986653 0.2745557981 -0.3318297503 -0.1903991322 0.2333970445
420297480.0 -0.1812558768 0.2287606216 0.2705537112 -0.3346575448 0.2706259699 -0.3347063307 -0.1874961626 0.2359632625
425297450.0 -0.1787711661 0.2307434876 0.2668852539 -0.3375216564 0.2668078833 -0.3375534774 -0.1854605455 0.2377431508
430297420.0 -0.1764424502 0.2328419552 0.2635020821 -0.3406824536 0.2631577253 -0.3403822158 -0.1826102553 0.2398970466
435297390.0 -0.1739954198 0.2345886225 0.2588831021 -0.3438724592 0.2593681469 -0.3434350833 -0.1808270206 0.2423898803
440297360.0 -0.171293983 0.2365482673 0.2550166735 -0.3462098297 0.2553931388 -0.3464748358 -0.1781937711 0.2441781216
445297330.0 -0.1689785283 0.2382520609 0.2518487081 -0.3488721436 0.2519687383 -0.3492130604 -0.1751801956 0.2463368015
450297300.0 -0.1664909501 0.2402763772 0.2478585931 -0.3516527001 0.2480909499 -0.3514415057 -0.1726752775 0.2482553743
455297270.0 -0.1645953319 0.2419935007 0.2439875586 -0.3543072365 0.2438189373 -0.3546380151 -0.1701098405 0.2505687391
460297240.0 -0.1615810354 0.2438464043 0.2403007012 -0.3572267245 0.2399113128 -0.3571088799 -0.1673263376 0.2519874454
465297210.0 -0.1589435038 0.2457740701 0.2358622775 -0.3598574434 0.2359170138 -0.3599668651 -0.1647142517 0.2544531104
470297180.0 -0.1564790425 0.247611682 0.2323818708 -0.3619098429 0.2324582642 -0.3620628661 -0.1617859086 0.2556837851
475297150.0 -0.1541034413 0.2495870043 0.228008851 -0.3646197845 0.2283346841 -0.3647838874 -0.1593120974 0.2582360942
480297120.0 -0.1506630466 0.2515652634 0.2234739803 -0.3674413067 0.2242864818 -0.3671665742 -0.1568013042 0.2599139657
485297090.0 -0.1485104224 0.2527175097 0.2198968634 -0.3694890311 0.2199435403 -0.3695496993 -0.1543859357 0.2617982999
490297060.0 -0.145463519 0.2547901272 0.2158082323 -0.371850399 0.2159697329 -0.3720906771 -0.1515450686 0.2634853784
495297030.0 -0.1430179206 0.2561785905 0.2119852301 -0.3746572615 0.2117620071 -0.3744235078 -0.1484973819 0.2649503433
500297000.0 -0.1404624514 0.2578736235 0.2076693759 -0.3762644908 0.2077869069 -0.3765595403 -0.145697101 0.2669021693
505296970.0 -0.1371860786 0.2597418299 0.2036549482 -0.3790419795 0.2037615813 -0.3782803183 -0.1428338422 0.2678535463
510296940.0 -0.1345318261 0.2608067967 0.1997471311 -0.3813693885 0.1995989378 -0.3812719693 -0.1397184019 0.2701943801
515296910.0 -0.1318872546 0.2625108691 0.1951287214 -0.3828288691 0.1950506691 -0.3829031393 -0.1373383905 0.2713933068
520296880.0 -0.1289375267 0.2641257761 0.1910045087 -0.3850753333 0.1909479741 -0.3853622064 -0.1339916878 0.2735166694
525296850.0 -0.1259541232 0.2655916518 0.1867142143 -0.3871043737 0.1863682605 -0.3871245713 -0.1313322124 0.2746735557
530296820.0 -0.1233681625 0.267011471 0.182333762 -0.3891343076 0.1822920972 -0.3890679004 -0.1282357082 0.275969351
535296790.0 -0.1198762376 0.2685039315 0.1781973449 -0.3909038806 0.177989027 -0.3912527588 -0.1251064411 0.2778967664
540296760.0 -0.1170511312 0.2701290889 0.1736529519 -0.3931013436 0.1736014812 -0.3927172107 -0.1223956558 0.2789146593
545296730.0 -0.1147967749 0.2719411362 0.1696880277 -0.3950929181 0.1694948552 -0.3943827095 -0.1192718646 0.2806341267
550296700.0 -0.1112060747 0.2726747712 0.1651137498 -0.3966454091 0.1646923241 -0.3966502288 -0.1164991278 0.282080647
555296670.0 -0.1084256912 0.2741715858 0.1609256131 -0.3986978385 0.1606273501 -0.3984054048 -0.113697403 0.283117086
560296640.0 -0.1051072252 0.2753941416 0.1562102657 -0.400070898 0.1564677057 -0.4000990104 -0.1105591394 0.2849324567
565296610.0 -0.1023885892 0.2769993088 0.1519767165 -0.4021224572 0.1519893264 -0.4011663728 -0.1070993806 0.2858592302
570296580.0 -0.0993155651 0.2784401528 0.1473400446 -0.4033854303 0.1473588225 -0.4030807869 -0.1045105324 0.2870838503
575296550.0 -0.0960059219 0.279189669 0.1434848635 -0.4049646003 0.143122462 -0.4047375786 -0.1014689567 0.288435007
580296520.0 -0.0931441469 0.2807683825 0.1390428525 -0.4064524815 0.1388906079 -0.4062238091 -0.0987466542 0.2897226345
585296490.0 -0.0902847681 0.2819094453 0.1347366622 -0.4076699479 0.1340386428 -0.4078288786 -0.0952715402 0.291117512
590296460.0 -0.0866363373 0.2829586892 0.1300953127 -0.4090029741 0.1298300879 -0.4092911195 -0.0926463604 0.2921913734
595296430.0 -0.0837931739 0.2839691275 0.1249808907 -0.4104840031 0.1251774831 -0.4101839261 -0.0892814974 0.292888133
600296400.0 -0.0806882569 0.2850470942 0.1203469597 -0.4116292629 0.1207634071 -0.411661248 -0.0863118935 0.2938097883
605296370.0 -0.077889646 0.2863671163 0.1168264882 -0.4131676367 0.1160450524 -0.4131392199 -0.0830421625 0.2954953432
610296340.0 -0.074329185 0.2875366677 0.111987485 -0.4138062312 0.111923324 -0.4140755567 -0.0799830006 0.2963988469
615296310.0 -0.0712487806 0.288448902 0.1076033043 -0.4154279178 0.107031767 -0.4155013086 -0.0764931467 0.2973991592
620296280.0 -0.0686110721 0.2900268649 0.1024685551 -0.4163391221 0.1024773886 -0.4163922645 -0.0739015205 0.2984374356
625296250.0 -0.0659724028 0.2905267776 0.0985055817 -0.4177157777 0.0982998687 -0.4175616123 -0.0705779605 0.2987007093
630296220.0 -0.062115476 0.2916837284 0.0936407235 -0.4188417212 0.0935276324 -0.4184357193 -0.0669847717 0.3000237018
635296190.0 -0.0593622153 0.2926030442 0.0893835378 -0.4193943465 0.0890254462 -0.4190982018 -0.0645028248 0.3005904788
640296160.0 -0.0559261729 0.2933337263 0.0847786089 -0.4204914089 0.0844867351 -0.4204658828 -0.0613554385 0.3015666699
645296130.0 -0.0527859952 0.2941433959 0.0802994567 -0.4213348971 0.0799767108 -0.4208724103 -0.0582311106 0.3018622679
650296100.0 -0.0495223086 0.2948749539 0.075611896 -0.4220543055 0.0749336571 -0.4220627681 -0.0542961904 0.3028490817
655296070.0 -0.0466846501 0.2955691585 0.0705028159 -0.4226163753 0.070858892 -0.4222608706 -0.0517474537 0.3036027355
660296040.0 -0.0435547283 0.2965344558 0.0661464089 -0.4233978893 0.0661327973 -0.423746978 -0.0483272462 0.3043105668
665296010.0 -0.0401238472 0.2972752803 0.0609064632 -0.4237289877 0.0612801364 -0.42412225 -0.0451464411 0.3052442787
670295980.0 -0.0370166004 0.2979570212 0.0570314561 -0.4245176754 0.0565490943 -0.4244185026 -0.0422975647 0.3057165997
675295950.0 -0.0339053179 0.2985052637 0.0522520066 -0.4250914085 0.0521578773 -0.4255412113 -0.0387438811 0.3066988203
680295920.0 -0.0314254176 0.2997086654 0.0481411172 -0.4255356225 0.0477487393 -0.4254732959 -0.0355050724 0.3064994561
685295890.0 -0.0276759296 0.3001216277 0.0429998014 -0.4263697704 0.0427785763 -0.4263843643 -0.0323065979 0.3075169869
690295860.0 -0.0246633928 0.3004801973 0.0388492814 -0.4265505749 0.0381970402 -0.4266980067 -0.0289355739 0.3078526839
695295830.0 -0.0217276387 0.3010482757 0.0343487473 -0.4269040695 0.0338293097 -0.4268987592 -0.0259266611 0.3082853626
700295800.0 -0.0183467362 0.3017431919 0.0293912312 -0.4271968495 0.0292691568 -0.4274350007 -0.0224756714 0.3084388865
705295770.0 -0.0155375329 0.3020690271 0.0246376083 -0.427561645 0.0248336117 -0.4273783529 -0.019467269 0.3090154331
710295740.0 -0.012623342 0.3025600556 0.0204247621 -0.4276897137 0.0196056604 -0.4275467633 -0.0156688948 0.3091923539
715295710.0 -0.0089749046 0.3031869435 0.0156516765 -0.42821263 0.015422522 -0.4277765496 -0.0128970914 0.3091611211
720295680.0 -0.0055924212 0.3032121999 0.0108455712 -0.4278242075 0.0105577291 -0.4280137632 -0.0094421168 0.3096957019
725295650.0 -0.0032501881 0.3037200012 0.0063891752 -0.4280511999 0.0062682727 -0.4278236786 -0.0067454607 0.3103214646
730295620.0 -0.0003724401 0.3038054071 0.0015926074 -0.4275531859 0.001697813 -0.4276099898 -0.0034182914 0.3108772147
735295590.0 0.0032540666 0.3044127917 -0.0031617571 -0.4278706107 -0.0030577015 -0.4279716246 0.0001041927 0.3105389897
740295560.0 0.0061061875 0.3041943127 -0.007567434 -0.4278194464 -0.0074277392 -0.4281593281 0.0035546831 0.3107713066
745295530.0 0.0092108252 0.3044219037 -0.0118803256 -0.4271613422 -0.0116686129 -0.4277213822 0.0063612421 0.3109992691
750295500.0 0.0122689595 0.304902311 -0.016909452 -0.4272578106 -0.0171323823 -0.4275883082 0.0096358135 0.3110106245
755295470.0 0.0151789576 0.3050126159 -0.020960339 -0.4272897419 -0.0211571686 -0.4280081028 0.0126881832 0.3114738995
760295440.0 0.0182188948 0.3052941804 -0.0260969217 -0.4272586622 -0.0262427033 -0.4267032021 0.0166558504 0.3106912996
765295410.0 0.0213760246 0.3050805028 -0.0306083111 -0.4268566853 -0.0305181847 -0.4265314497 0.0195793873 0.3109992192
770295380.0 0.0243908522 0.3052108295 -0.0348279379 -0.4260056385 -0.0350773729 -0.4268242908 0.0225978634 0.3109637029
775295350.0 0.0275084436 0.3049546558 -0.0395446761 -0.4259259516 -0.0396604983 -0.4255850569 0.0260755998 0.3108727711
780295320.0 0.0305023061 0.3051115592 -0.0438449508 -0.4253206705 -0.0442033711 -0.4249966728 0.0294266423 0.3105124867
785295290.0 0.0338196477 0.3044485674 -0.0492346535 -0.4249706958 -0.0487403336 -0.4250448748 0.0322849645 0.3107708217
790295260.0 0.0367258978 0.3045247705 -0.0533595437 -0.4243791911 -0.0532941103 -0.424464844 0.0352414245 0.3105317069
795295230.0 0.0398021803 0.3041615081 -0.0579765977 -0.4234179091 -0.0581384557 -0.4236470092 0.0388237794 0.3093172049
800295200.0 0.0427294171 0.3044160986 -0.0619870667 -0.4225922434 -0.0626064793 -0.4229998512 0.0418843032 0.3098494665
805295170.0 0.0454626388 0.3041333367 -0.0669093463 -0.4220474087 -0.0670697427 -0.4227528306 0.0457385267 0.309344173
810295140.0 0.0490356953 0.3038606484 -0.0717336703 -0.4212432436 -0.0715457202 -0.4213780111 0.0485882474 0.3090671253
815295110.0 0.051799611 0.3034634033 -0.0758371018 -0.4201610758 -0.0758972118 -0.4209012257 0.0518771649 0.3088668417
820295080.0 0.0547315417 0.3031769455 -0.08017962 -0.4195972394 -0.0803339522 -0.4200734645 0.054645829 0.3087137793
825295050.0 0.0576488969 0.3026517825 -0.0850365298 -0.4188970072 -0.0848200955 -0.4190400332 0.0586478762 0.3081788578
