!Created with skrf (http://scikit-rf.org).
# Hz S RI R 50.0 
!freq ReS11 ImS11 ReS21 ImS21 ReS12 ImS12 ReS22 ImS22
300000.0 -0.2378696882 -0.1004050604 0.4663346989 0.0666886867 0.4701441156 0.0713646151 -0.237083716 -0.1133180778
5299970.0 -0.2437360621 0.0072653859 0.4737596555 0.0051781978 0.4739560173 0.0060161812 -0.2443232859 0.0061220449
10299940.0 -0.2402598683 0.0198988941 0.475981509 0.0061801419 0.4759154337 0.0066110916 -0.2410985584 0.0182849008
15299910.0 -0.236103384 0.029399946 0.4792658753 0.0078384051 0.4794395489 0.0082960295 -0.2366555047 0.0274315329
20299880.0 -0.2305330299 0.0372681754 0.4840558137 0.0083028601 0.4843937275 0.0084443772 -0.2320453808 0.0356217434
25299850.0 -0.2247514653 0.0435438298 0.4894805456 0.0072973445 0.4894823881 0.0074895331 -0.2269828251 0.0415020091
30299820.0 -0.2189026767 0.0485855975 0.4953282327 0.0055327136 0.4948558959 0.005231404 -0.2217836961 0.0471111864
35299790.0 -0.2130444015 0.0529548865 0.5005009608 0.0021612309 0.5005670645 0.0023587073 -0.2161847315 0.0511429208
40299760.0 -0.2074614351 0.0556884623 0.5054060779 -0.001340735 0.5052871654 -0.0017803391 -0.2114724836 0.054671944
45299730.0 -0.202415087 0.0585070237 0.5101263222 -0.0069556892 0.5103343168 -0.0064970155 -0.2069119689 0.0576637842
50299700.0 -0.1974855134 0.0601638723 0.5139583281 -0.0123152266 0.5143847844 -0.0121010781 -0.2021161854 0.0596078666
55299670.0 -0.1935975086 0.0616842434 0.5177354579 -0.0179809534 0.5185418124 -0.0177898263 -0.198362053 0.0615381765
60299640.0 -0.1895374755 0.0628950767 0.5212545542 -0.0245302626 0.5213790414 -0.0244793653 -0.1943221078 0.0630872193
65299610.0 -0.1861192303 0.0638653224 0.5248133133 -0.0300634901 0.5248332811 -0.0302484272 -0.1910443602 0.0644931604
70299580.0 -0.1827686147 0.0644801266 0.5267819748 -0.0369019042 0.5266476292 -0.0371198894 -0.1880720041 0.0655162258
75299550.0 -0.1795296883 0.0651698458 0.5286557129 -0.0435757645 0.5288092831 -0.0442221673 -0.1850805305 0.0668194646
80299520.0 -0.1773137871 0.0657144566 0.5311049754 -0.0509981828 0.5307433582 -0.0510482612 -0.1825680052 0.0673481425
85299490.0 -0.1745349666 0.0659888422 0.5321872697 -0.0579175862 0.5320599687 -0.0579100304 -0.1802811207 0.0680611986
90299460.0 -0.1726369214 0.0666179605 0.5332258056 -0.064192794 0.533391285 -0.0647100372 -0.1775582925 0.0692669249
95299430.0 -0.1704844316 0.0671996443 0.5339149621 -0.071955314 0.5343626247 -0.0718643148 -0.1761581573 0.0702552128
100299400.0 -0.1689516392 0.0676680832 0.534373871 -0.0784446155 0.5342340301 -0.0787540433 -0.1741729942 0.0707756985
105299370.0 -0.1667415984 0.0682308113 0.5341665815 -0.085196376 0.5348525504 -0.0857105642 -0.1721765927 0.0720097724
110299340.0 -0.1655037392 0.0684168064 0.5344589648 -0.0921204531 0.5349837731 -0.092580311 -0.1708126479 0.0727778628
115299310.0 -0.1641197505 0.0688318046 0.5348338718 -0.0986581634 0.5351806093 -0.0988578013 -0.1689429593 0.0731911891
120299280.0 -0.1629810767 0.0697447836 0.535091258 -0.1059911906 0.5347243673 -0.1060024056 -0.1679191747 0.074357475
125299250.0 -0.1618484953 0.0700152068 0.5341662166 -0.1124677491 0.5344924206 -0.1129137711 -0.1665174506 0.0749118624
130299220.0 -0.1606446993 0.0704915644 0.5338958702 -0.1187191388 0.5336927148 -0.1197036761 -0.1650732005 0.0760337084
135299190.0 -0.1595280348 0.0711064648 0.5331915703 -0.125598311 0.5327001494 -0.1261532635 -0.1640081682 0.0768583839
140299160.0 -0.1587445258 0.0721283585 0.5324767419 -0.1323777475 0.5323060789 -0.1326832011 -0.1629872462 0.0778369221
145299130.0 -0.1574978054 0.0728391582 0.5314428913 -0.1392467511 0.5313784601 -0.138958529 -0.1621697488 0.0789631833
150299100.0 -0.1565082914 0.0734569221 0.5302203171 -0.145662346 0.5303624794 -0.1455693917 -0.1612153894 0.0797315838
155299070.0 -0.1557318798 0.0746425913 0.5288660073 -0.1526194135 0.529360698 -0.1526854329 -0.1602164871 0.0811427748
160299040.0 -0.1548849628 0.0752538613 0.5273933216 -0.1585933606 0.5276089238 -0.1586380658 -0.1588715851 0.0824828967
165299010.0 -0.1542460812 0.0762813519 0.526370817 -0.1655448787 0.52669618 -0.165216458 -0.1581265477 0.0832170812
170298980.0 -0.1535362103 0.0772232896 0.5238627324 -0.1714295842 0.524614005 -0.1715434525 -0.1566603681 0.0846103236
175298950.0 -0.1525753953 0.0779873669 0.523484776 -0.1775283759 0.5234027619 -0.1779512749 -0.1558525068 0.0858014968
180298920.0 -0.1518361759 0.0791904532 0.5214542439 -0.1844389048 0.5213385677 -0.1840921334 -0.1548628687 0.0870928907
185298890.0 -0.1510968658 0.0800937548 0.5196244931 -0.1905751474 0.5197461096 -0.1900971159 -0.1542434048 0.0881425522
190298860.0 -0.1503354992 0.0811196532 0.5175485526 -0.1968045666 0.5177600103 -0.1966665418 -0.1523768188 0.0893425826
195298830.0 -0.1494539531 0.0819605543 0.5156094479 -0.2023345298 0.5158289642 -0.202927082 -0.1521114289 0.0905962502
200298800.0 -0.1487745994 0.083523217 0.5138465543 -0.2084159404 0.5136238773 -0.20846257 -0.1507949712 0.0922908582
205298770.0 -0.1482470562 0.0845089076 0.5117464958 -0.214798108 0.5116307289 -0.2150183911 -0.1502460868 0.0932397948
210298740.0 -0.1475542675 0.0855694002 0.5091634558 -0.221259193 0.5093378074 -0.2211685965 -0.1490942145 0.0949580857
215298710.0 -0.1466748424 0.0868312197 0.5070021011 -0.2265694086 0.506984932 -0.2267136383 -0.1485093131 0.0960094695
220298680.0 -0.1459947232 0.0878891681 0.5045925141 -0.2326615889 0.5046482278 -0.2325619768 -0.1471993878 0.0977990791
225298650.0 -0.1449627191 0.0894312467 0.501673271 -0.2384416738 0.5017381178 -0.2384886631 -0.1462699201 0.0990504862
230298620.0 -0.1444990576 0.0906641315 0.4996695912 -0.2443361648 0.4993034173 -0.2441552221 -0.1450595925 0.1003751777
235298590.0 -0.1437475978 0.0915533902 0.496708559 -0.2496808839 0.49696627 -0.2505912343 -0.1441864728 0.1016075271
240298560.0 -0.1429943092 0.09306942 0.4944188359 -0.2555699168 0.4941548513 -0.255418583 -0.1433111878 0.1034132186
245298530.0 -0.1420601727 0.0943703511 0.4909586008 -0.2617113694 0.4915197754 -0.2615831802 -0.1419158787 0.1048979645
250298500.0 -0.1414605862 0.0955977756 0.48845531 -0.2669898523 0.4885044788 -0.2667201823 -0.1406779782 0.1062078014
255298470.0 -0.1407825707 0.0968665699 0.4855275893 -0.2729034648 0.4857750698 -0.2725810205 -0.1396357833 0.1073245044
260298440.0 -0.1399334576 0.0980456701 0.4828291233 -0.277904899 0.4826552119 -0.2783270148 -0.1381926333 0.109126939
265298410.0 -0.138636144 0.0995849349 0.4795398716 -0.2838828478 0.4795286512 -0.2838789629 -0.1375855107 0.1104887844
270298380.0 -0.1376121414 0.1007706735 0.4760506011 -0.2892000128 0.4768709069 -0.2895258056 -0.1360991837 0.1120492255
275298350.0 -0.1371640219 0.1021133686 0.4733371488 -0.2948943609 0.4736451804 -0.294897867 -0.134869137 0.1135415294
280298320.0 -0.136266616 0.1035433784 0.4703097697 -0.2994779614 0.4701083902 -0.3001974851 -0.1336032614 0.1150640935
285298290.0 -0.135302245 0.1048846929 0.4666946616 -0.3050713053 0.4668706584 -0.3054532854 -0.1325229662 0.1161942581
290298260.0 -0.1341729418 0.1061768255 0.4635996027 -0.3110454568 0.4636658598 -0.3110960317 -0.1308538262 0.1180687234
295298230.0 -0.1334142608 0.1069359871 0.4604309884 -0.3156831647 0.460230771 -0.3158875331 -0.1293940114 0.1195611198
300298200.0 -0.1320307563 0.1082949109 0.456276805 -0.3210678625 0.456966992 -0.3215511106 -0.1284412464 0.1208422362
305298170.0 -0.1312481188 0.1097984005 0.4536292321 -0.3267980299 0.4538268877 -0.3265590721 -0.1265918389 0.1226993871
310298140.0 -0.1298047882 0.1104970835 0.4501135605 -0.3314636331 0.4498244421 -0.3319567754 -0.1256501373 0.1240631703
315298110.0 -0.1292541035 0.111908472 0.4461703552 -0.3368435756 0.4464271112 -0.3370836551 -0.1238146461 0.1250033237
320298080.0 -0.1281543711 0.1131688686 0.4424766643 -0.3420169807 0.4429125351 -0.342319766 -0.1229798283 0.1264484858
325298050.0 -0.1272009174 0.1141797937 0.4386568087 -0.3474951669 0.4390923284 -0.3473618947 -0.1217383025 0.1276199309
330298020.0 -0.1263625522 0.115453087 0.4339815592 -0.3525151651 0.4341067348 -0.3521140315 -0.1204319171 0.1288976278
335297990.0 -0.1253302206 0.1167536812 0.4304410995 -0.3572436345 0.4307582636 -0.357057336 -0.1190529537 0.1302333684
340297960.0 -0.1248207005 0.1181215161 0.4262739807 -0.3617813776 0.4266360772 -0.3618886961 -0.1180157407 0.1318598631
345297930.0 -0.123760368 0.11961462 0.422241967 -0.366216635 0.4220944964 -0.3664180243 -0.1161811196 0.1332825025
350297900.0 -0.1222312927 0.1208765531 0.4180108392 -0.3706931965 0.4184080279 -0.3708715378 -0.1151221801 0.1348558067
355297870.0 -0.1216522962 0.1219502651 0.4139203571 -0.3755480238 0.413951241 -0.3757077516 -0.1137849181 0.1363442848
360297840.0 -0.1203178301 0.1234335304 0.4096891745 -0.3801577738 0.4098272378 -0.3804215368 -0.1121049267 0.1380537951
365297810.0 -0.1190656493 0.1246297451 0.4051583435 -0.3842589624 0.4054254429 -0.3844353021 -0.1106635043 0.1393977003
370297780.0 -0.117848267 0.1259321187 0.4014042025 -0.3892776424 0.4016625755 -0.3891633481 -0.1093707608 0.1408377875
375297750.0 -0.1168531447 0.1275694565 0.3975698781 -0.3938136575 0.3971459151 -0.3937358261 -0.1078687473 0.1424841781
380297720.0 -0.1155665154 0.1285528968 0.3926284203 -0.3979593181 0.3927210732 -0.3977586652 -0.1061282857 0.1439127676
385297690.0 -0.1141877864 0.1299550436 0.3881851579 -0.4017015253 0.3879616771 -0.4020370262 -0.1045694005 0.1452696075
390297660.0 -0.1133934933 0.1311111992 0.3837864843 -0.4065133749 0.3836996589 -0.4066928515 -0.1027466188 0.1464107351
395297630.0 -0.1116059824 0.1321200997 0.3795014299 -0.4102711418 0.3794528737 -0.4107114969 -0.1015542739 0.1480714981
400297600.0 -0.1108487158 0.1336266946 0.3748873929 -0.414780486 0.3752760788 -0.4148293079 -0.100501085 0.148853365
405297570.0 -0.1091159938 0.1349324482 0.3703651331 -0.419222595 0.3703143813 -0.419314528 -0.0984115911 0.1508633161
410297540.0 -0.1077024734 0.135767346 0.3650766673 -0.4230179804 0.3654394142 -0.4227941719 -0.0969070422 0.1517315808
415297510.0 -0.1065977277 0.1375746934 0.3604073679 -0.4271107711 0.3608155511 -0.4271086935 -0.0950622599 0.1533917087
420297480.0 -0.1052202142 0.1380013594 0.3560048579 -0.431036889 0.3560884196 -0.4308250909 -0.0932909528 0.1539950204
425297450.0 -0.1038665318 0.1391169485 0.3514921671 -0.4345502044 0.3521277804 -0.4347305212 -0.0917868897 0.1557934494
430297420.0 -0.1027253547 0.1406367679 0.3467736163 -0.4386878533 0.3469999433 -0.4386833031 -0.0900737223 0.1568022761
435297390.0 -0.1009935668 0.1416187278 0.341998577 -0.4420057258 0.3420636419 -0.4420410064 -0.0886781015 0.1582077873
440297360.0 -0.0994942046 0.1426116821 0.3366306274 -0.4458908925 0.3364637569 -0.4460681575 -0.0866475579 0.1591763021
445297330.0 -0.0982952788 0.1439159444 0.3318182079 -0.4501902627 0.3319477317 -0.4495382024 -0.0849480699 0.1601891694
450297300.0 -0.0968851306 0.1448782554 0.3266338134 -0.45302899 0.3272608549 -0.4533216049 -0.083388847 0.1617711161
455297270.0 -0.0955838581 0.1459032747 0.3220937181 -0.4569716239 0.3224006205 -0.4570178015 -0.0815922512 0.1630538054
460297240.0 -0.0943566767 0.146848252 0.3168692665 -0.4598453501 0.3168234519 -0.4603174489 -0.0797372588 0.1641153989
465297210.0 -0.0925485413 0.1476994069 0.3122708663 -0.4635603503 0.3121120143 -0.4636656156 -0.0781029537 0.1649010901
470297180.0 -0.0912788904 0.1490749238 0.3069176152 -0.4671315034 0.3072931612 -0.4673435384 -0.0770300685 0.1660151841
475297150.0 -0.090133994 0.1495977096 0.30155895 -0.4698711044 0.3020331677 -0.4698933037 -0.0742541003 0.1671998169
480297120.0 -0.0882491303 0.1505408595 0.2965659681 -0.4728741546 0.297334051 -0.4730611571 -0.0732130063 0.1683961178
485297090.0 -0.0869245354 0.1514610712 0.2918455951 -0.4765126689 0.2915657927 -0.4765413198 -0.071357503 0.1691260302
490297060.0 -0.0851699526 0.1523978829 0.2863502602 -0.4796178834 0.2865537807 -0.4798910996 -0.0693689909 0.1703130184
495297030.0 -0.0841851952 0.1538023269 0.2812950392 -0.48259908 0.2806446298 -0.4829845466 -0.0673245582 0.1709537782
500297000.0 -0.0821856895 0.1543051852 0.2757715728 -0.4856443442 0.2757073841 -0.4858998376 -0.0660035582 0.1721178123
505296970.0 -0.0810849671 0.1552927746 0.2699521021 -0.4880186162 0.2703866372 -0.4887436619 -0.0642904155 0.173128174
510296940.0 -0.0794749319 0.1566508565 0.2648595588 -0.4917145092 0.2650229488 -0.4916444324 -0.0618866449 0.1740710431
515296910.0 -0.0781975369 0.1574834918 0.2596728722 -0.4943163019 0.2598617816 -0.4943438388 -0.0600951766 0.1748390349
520296880.0 -0.0765353939 0.1581220996 0.2541488786 -0.4969709275 0.2544548007 -0.4969987268 -0.0584768225 0.1756435913
525296850.0 -0.0750348571 0.1589247533 0.248959785 -0.4999592242 0.2488753459 -0.5002543984 -0.055969868 0.176339986
530296820.0 -0.0735927659 0.1596479782 0.2435863083 -0.5019515117 0.2433757854 -0.5026757937 -0.0546555178 0.1768232885
535296790.0 -0.0719686691 0.1605324561 0.2378265392 -0.5046496 0.2385225511 -0.5049571637 -0.052838138 0.1775492033
540296760.0 -0.070524812 0.1612867664 0.2322842272 -0.5078484784 0.2321901422 -0.5079253787 -0.0510408864 0.1787591895
545296730.0 -0.0688233538 0.1622410864 0.2265222561 -0.5097179097 0.227235681 -0.5103646579 -0.0491395121 0.179381273
550296700.0 -0.0677372556 0.1629183982 0.2218490517 -0.5123467233 0.2219683292 -0.5126905691 -0.0471883597 0.180469165
555296670.0 -0.0653125121 0.1634171615 0.2158703967 -0.5144126879 0.2158719829 -0.5149552446 -0.0453696549 0.1811039135
560296640.0 -0.0639971791 0.1644953678 0.210103786 -0.5170639354 0.2105811969 -0.516860433 -0.0433944635 0.1815218021
565296610.0 -0.0627146799 0.1650704208 0.2045530376 -0.5188762893 0.2046934803 -0.5192726139 -0.0417553185 0.1818180895
570296580.0 -0.0607427219 0.1658471108 0.1984710973 -0.5212605555 0.1991247534 -0.5216424711 -0.0392165605 0.183041576
575296550.0 -0.0592559621 0.1667920118 0.1929836163 -0.5230285275 0.1938191405 -0.5233381412 -0.0372021073 0.1834604217
580296520.0 -0.0577366692 0.167469733 0.1879208153 -0.5253921503 0.1874632129 -0.5256416613 -0.0353678997 0.1838972095
585296490.0 -0.0558487049 0.1677649242 0.1819287213 -0.5273294931 0.1820693039 -0.5276624126 -0.0335447601 0.1842169267
590296460.0 -0.054772745 0.1685084424 0.1763025935 -0.5293882357 0.1759734704 -0.5296357651 -0.0313461656 0.1849714083
595296430.0 -0.052757884 0.1695739864 0.1708714089 -0.5315030148 0.1706652669 -0.5315409569 -0.0293151478 0.1853564828
600296400.0 -0.0511778348 0.170055027 0.1646688419 -0.5330360051 0.1651543962 -0.5332519529 -0.0274871189 0.1861041064
605296370.0 -0.049573622 0.170869989 0.1592067316 -0.534999072 0.1590090444 -0.5349771345 -0.0256390979 0.1862170475
610296340.0 -0.0481942042 0.1714046791 0.1534719254 -0.536569867 0.1539217644 -0.5368416928 -0.0234406804 0.1873539748
615296310.0 -0.0461912303 0.1722088607 0.147023362 -0.5378368397 0.1472093041 -0.5379418559 -0.0211999878 0.1871910718
620296280.0 -0.0444171342 0.1724360836 0.141696219 -0.5395963394 0.1419191234 -0.5397305985 -0.019571852 0.1872567622
625296250.0 -0.0430462665 0.1730780781 0.1355274678 -0.5410588066 0.1354008221 -0.5412557324 -0.0173610598 0.1879584471
630296220.0 -0.0409674339 0.1738749169 0.1293529745 -0.5423170519 0.1299921545 -0.5426537278 -0.0153310829 0.1881406728
635296190.0 -0.0395575285 0.1742538515 0.1238817192 -0.5433698477 0.1238663429 -0.5431156419 -0.0135765578 0.1885525559
640296160.0 -0.0377053082 0.1746433444 0.1181531439 -0.5448828498 0.1180862857 -0.544973466 -0.0107965334 0.1889986338
645296130.0 -0.0361479139 0.1753916716 0.1119212987 -0.5464077081 0.1122306602 -0.546219462 -0.0096189488 0.1888521916
650296100.0 -0.0344602031 0.1760183042 0.1065902208 -0.547170669 0.1064099326 -0.5471317776 -0.0073481289 0.1894416332
655296070.0 -0.0327313089 0.1761162189 0.1005179416 -0.5485500837 0.1002158912 -0.5481891572 -0.0047049138 0.1895668802
660296040.0 -0.0313198016 0.1771079327 0.0948403443 -0.5490766361 0.0947173625 -0.5491418717 -0.0031440097 0.1894661102
665296010.0 -0.0293682617 0.1772464877 0.0889633711 -0.5501429441 0.0891701463 -0.5505657132 -0.0009576727 0.1901868835
670295980.0 -0.0274260742 0.1776199977 0.0826830405 -0.5511471669 0.0833994652 -0.551371962 0.000540903 0.1902353043
675295950.0 -0.0256491916 0.1780421962 0.0766484623 -0.5522687819 0.0768130479 -0.5524307473 0.0030933445 0.1905552074
680295920.0 -0.0241393611 0.1786532914 0.0706328607 -0.5527577802 0.0707397319 -0.5530466554 0.0052488435 0.1903995453
685295890.0 -0.0222539511 0.1789452265 0.0650490589 -0.5537441596 0.0643888785 -0.553934406 0.0076402324 0.1904958883
690295860.0 -0.0202558545 0.1793130086 0.0588814673 -0.5536783809 0.0585824801 -0.5541309271 0.0094431174 0.1910065689
695295830.0 -0.0185526899 0.1794641081 0.0516991027 -0.5550870599 0.0525133522 -0.5547954896 0.0112911577 0.1909329869
700295800.0 -0.0164743383 0.1801546873 0.0462874409 -0.5551743886 0.047090037 -0.5553707859 0.0134148338 0.1904234993
705295770.0 -0.0149966018 0.1802817282 0.040815096 -0.555594287 0.0410142965 -0.5557077221 0.0149041644 0.1906246291
710295740.0 -0.0131912994 0.1806290069 0.0343174747 -0.5558082799 0.0348151311 -0.556169099 0.0167956727 0.1911789981
715295710.0 -0.0117068198 0.1811162142 0.0285769821 -0.5560651712 0.0290490552 -0.5567947067 0.0192698899 0.1903855001
720295680.0 -0.0100764004 0.1810265617 0.0226093834 -0.5564119776 0.0226644888 -0.5569103181 0.0220404263 0.1903573181
725295650.0 -0.0078970954 0.1814462114 0.0162964062 -0.5563328459 0.0166178366 -0.5567701683 0.023737361 0.190570592
730295620.0 -0.0066658413 0.1814913991 0.0107518812 -0.5569095062 0.0106099018 -0.5570073186 0.0259498392 0.1897800757
735295590.0 -0.0039535613 0.181880881 0.0050583644 -0.5569500271 0.0049017296 -0.5572336379 0.028018782 0.1903178965
740295560.0 -0.0026915961 0.1821917428 -0.0014298389 -0.5565442795 -0.0013575968 -0.556905181 0.0302119401 0.189724489
745295530.0 -0.0007651941 0.1820343449 -0.0077264541 -0.556915734 -0.0069237542 -0.5570796908 0.0315955586 0.1899285003
750295500.0 0.000889926 0.1823033333 -0.0130408133 -0.5565616266 -0.0131530216 -0.5568432757 0.0340414518 0.1892680286
755295470.0 0.0030204185 0.1825039325 -0.0189641618 -0.556517891 -0.0190259631 -0.5570171266 0.0358804408 0.1895643526
760295440.0 0.0043953989 0.1827029306 -0.0255931304 -0.5562365799 -0.0254970789 -0.5566415798 0.0376069054 0.1891545211
765295410.0 0.0060292795 0.1826281291 -0.030826422 -0.5557838231 -0.0310033439 -0.5562350174 0.0405986937 0.1891020774
770295380.0 0.0081753333 0.182801081 -0.037085544 -0.5551096286 -0.0372509059 -0.555797324 0.0428245992 0.1885093701
775295350.0 0.0098707605 0.1830963255 -0.043082552 -0.5548050831 -0.0431764112 -0.5552283164 0.0439404655 0.1878126098
780295320.0 0.0117082016 0.1830388696 -0.049079874 -0.5548450161 -0.0491087286 -0.554417717 0.0464552643 0.1881181252
785295290.0 0.0134721628 0.1831876806 -0.054983567 -0.5533054533 -0.0549721671 -0.5539241068 0.0480997859 0.1876854678
790295260.0 0.0151762149 0.1832308362 -0.0608276374 -0.5533925556 -0.060934745 -0.553843785 0.0507118731 0.1872922788
795295230.0 0.0169372874 0.1834155447 -0.066479277 -0.5520465123 -0.0668966131 -0.5527050469 0.0526221125 0.1871767781
800295200.0 0.0188770867 0.1832027864 -0.0732199208 -0.5518547208 -0.0732119339 -0.5522488856 0.0545799908 0.186184191
805295170.0 0.0207401991 0.1831163253 -0.0787249498 -0.5506175303 -0.0788857955 -0.5508397014 0.0563357696 0.1858280507
810295140.0 0.0224745607 0.1829533663 -0.0845455354 -0.5498369743 -0.0846525077 -0.5504377475 0.0588208356 0.1855779751
815295110.0 0.0242150487 0.1831416769 -0.0908770572 -0.5484626978 -0.0905972752 -0.5490844863 0.0605311774 0.1846756569
820295080.0 0.0262902922 0.1826390191 -0.0960998577 -0.5478391508 -0.0966992789 -0.5481645639 0.0622206599 0.1843477365
825295050.0 0.027762412 0.1828862915 -0.1025935752 -0.5467382985 -0.1024624377 -0.5473531485 0.064594565 0.1840385329
830295020.0 0.0297492288 0.1829675587 -0.1089811623 -0.5455400997 -0.1088672807 -0.5459332556 0.0666110606 0.1829870345
