!Created with skrf (http://scikit-rf.org).
# Hz S RI R 50.0 
!freq ReS11 ImS11 ReS21 ImS21 ReS12 ImS12 ReS22 ImS22
300000.0 -0.2423341084 -0.0889570315 0.4724109426 0.0606615364 0.4694915179 0.0567240372 -0.2392377014 -0.0972971987
5299970.0 -0.2450410429 0.0060137624 0.4749014955 0.0050540616 0.4747717542 0.0050336484 -0.2411206725 0.0072272321
10299940.0 -0.2417230875 0.0179237738 0.4767187424 0.0061898342 0.4769628428 0.00644225 -0.2377103465 0.0204207467
15299910.0 -0.2372894957 0.0269020222 0.4801678368 0.0071089272 0.4809050247 0.007379791 -0.2331459377 0.0299335212
20299880.0 -0.2331426735 0.0339161988 0.4852596811 0.0083298992 0.4851316786 0.0079663827 -0.2279220582 0.0380202281
25299850.0 -0.2277935981 0.0403121141 0.490206068 0.0070792078 0.4901888026 0.0074414171 -0.2219999468 0.0449382689
30299820.0 -0.222619301 0.0451611697 0.4954020998 0.0050015791 0.4952943451 0.0049591173 -0.2162081648 0.0499965034
35299790.0 -0.2174228203 0.0491736442 0.50092038 0.001518411 0.5007480508 0.0019456994 -0.2106878798 0.0543512422
40299760.0 -0.2126082984 0.0523376173 0.5057441779 -0.0023160125 0.5062582822 -0.0022818928 -0.205443777 0.0573505308
45299730.0 -0.2080370398 0.0547944209 0.5105896126 -0.0071612493 0.5109101957 -0.006839443 -0.2003896096 0.0604789869
50299700.0 -0.2038106413 0.0567278799 0.5149133443 -0.0124721724 0.5147679715 -0.0124773229 -0.1955235507 0.0625383066
55299670.0 -0.1998943713 0.058441169 0.5186181976 -0.0187645127 0.5184684307 -0.0184634275 -0.1914487521 0.0643989621
60299640.0 -0.196048124 0.0598178578 0.521648742 -0.024775737 0.5223622116 -0.0246311367 -0.1874094472 0.065574047
65299610.0 -0.1929745353 0.0608341228 0.5251552865 -0.0313741351 0.524566984 -0.0310272115 -0.1837608024 0.0666257193
70299580.0 -0.18966708 0.062223131 0.5273361525 -0.0379842195 0.5271866383 -0.0376678807 -0.1807870621 0.0676122963
75299550.0 -0.1872012728 0.0631280372 0.5288404022 -0.0445123075 0.5287990756 -0.0445558284 -0.1777226935 0.0681705416
80299520.0 -0.1848630566 0.063650635 0.531180295 -0.0514884471 0.5311009492 -0.051558258 -0.175143551 0.0691685248
85299490.0 -0.1827462673 0.0640811639 0.5321184477 -0.0581700191 0.5320279639 -0.0575257095 -0.1728221687 0.0694562851
90299460.0 -0.1803626124 0.0647938242 0.5329742816 -0.065276884 0.5335506538 -0.0654104748 -0.1704686354 0.0703837586
95299430.0 -0.1781226073 0.0652995495 0.5343187237 -0.0720870571 0.5341389213 -0.0721149934 -0.1679955858 0.0713598013
100299400.0 -0.1766911215 0.0662637111 0.5339468456 -0.0787853224 0.533788688 -0.0789520568 -0.1657169408 0.07156698
105299370.0 -0.1752081396 0.066900741 0.5347995823 -0.0857725791 0.534746384 -0.0857367329 -0.1641118435 0.0722703844
110299340.0 -0.1733804659 0.0675374652 0.5351017539 -0.0924930268 0.5346832183 -0.0927141007 -0.1627390868 0.0730217369
115299310.0 -0.1718940004 0.0682133989 0.5350382302 -0.0996397251 0.5346663977 -0.0996092323 -0.1610613682 0.0737930421
120299280.0 -0.1706266195 0.0685608457 0.5344360673 -0.1062690458 0.5347064813 -0.1062208911 -0.1594561984 0.0747146387
125299250.0 -0.1695433966 0.0692763796 0.53428973 -0.1129009589 0.5341425822 -0.1129409814 -0.158494455 0.0751380601
130299220.0 -0.1686292295 0.0703158104 0.5332185938 -0.1200145769 0.5335066971 -0.1197365621 -0.1570291947 0.0759123115
135299190.0 -0.1676570666 0.0712289445 0.5327532872 -0.126243596 0.5328706327 -0.1264000361 -0.1558549392 0.0768749235
140299160.0 -0.1665412399 0.0720663526 0.5321566776 -0.1329479797 0.5322307298 -0.1330634134 -0.1546671674 0.0782684588
145299130.0 -0.1655624217 0.0730842519 0.5314786409 -0.1396686018 0.5305923755 -0.1393766642 -0.1536861517 0.0791668499
150299100.0 -0.1643408365 0.0738911031 0.5298537845 -0.1456463077 0.5300808736 -0.1456178482 -0.1520897454 0.0803134001
155299070.0 -0.1638321616 0.0746690742 0.5288027214 -0.1530514425 0.5286142353 -0.1524219681 -0.1513559333 0.0813647628
160299040.0 -0.1625958104 0.0757447219 0.5275195075 -0.1590142983 0.5269871029 -0.159063474 -0.1507077666 0.0822678818
165299010.0 -0.1620334333 0.0769588217 0.5260306348 -0.1658065919 0.5263251516 -0.1659251743 -0.1493007023 0.083644918
170298980.0 -0.1613096198 0.0778575819 0.5243252871 -0.1718319638 0.5248391409 -0.1718352148 -0.1485038058 0.0847201112
175298950.0 -0.1608372845 0.0790894407 0.5232929221 -0.1780991895 0.5226725802 -0.1777575794 -0.1475982972 0.0863141839
180298920.0 -0.1599002172 0.0800201487 0.5211348223 -0.1842516665 0.5211613253 -0.1842740156 -0.1467629404 0.0875660364
185298890.0 -0.1589975065 0.0810766614 0.5192463241 -0.1904988459 0.5193729997 -0.1903389591 -0.1456218276 0.088577972
190298860.0 -0.1583474003 0.0823308954 0.517255727 -0.1966594548 0.5175408819 -0.1967151348 -0.144838652 0.0896177594
195298830.0 -0.157784278 0.0833219965 0.5154638373 -0.2028131158 0.5153407449 -0.2026404174 -0.1436542259 0.0911006385
200298800.0 -0.1565985415 0.0847220816 0.5131168721 -0.2090502092 0.5131829958 -0.2089430672 -0.1429435494 0.0925522192
205298770.0 -0.1559093505 0.0856987416 0.5104703352 -0.2150137937 0.5109715026 -0.2149149795 -0.1421293166 0.0931923027
210298740.0 -0.1554263211 0.0868716908 0.5087319595 -0.2204524074 0.5086535973 -0.220419435 -0.1409560024 0.095324089
215298710.0 -0.1551163999 0.088257932 0.5066017122 -0.2270230689 0.506451414 -0.2272531868 -0.1402840953 0.0964933938
220298680.0 -0.1538020368 0.0892223675 0.5037607103 -0.232554209 0.504050242 -0.2325288619 -0.1398392918 0.0976212769
225298650.0 -0.1532339112 0.0908121888 0.5007880609 -0.2385713232 0.5016219678 -0.2387525187 -0.1388565074 0.0989799355
230298620.0 -0.1525253874 0.0922578124 0.4987557106 -0.2443511251 0.4994188129 -0.2443663155 -0.1378934841 0.1000562219
235298590.0 -0.1517829063 0.0938072209 0.4967195656 -0.2503787491 0.4965013938 -0.2495094645 -0.1369953121 0.1012916565
240298560.0 -0.1509715702 0.0951355519 0.4937145203 -0.2559903318 0.4940428744 -0.2558886953 -0.1361834002 0.1030632273
245298530.0 -0.1506099458 0.0962411209 0.4914314489 -0.2616917251 0.490907934 -0.2614589365 -0.1347609845 0.1037709193
250298500.0 -0.1492190896 0.0979965536 0.487658255 -0.2674789633 0.4878231751 -0.2664070888 -0.134132629 0.1053939557
255298470.0 -0.1486091139 0.0987775125 0.4846085654 -0.2729111296 0.4850208284 -0.2723743275 -0.1327552683 0.1069150944
260298440.0 -0.1480324525 0.1001729257 0.4817672859 -0.278361266 0.4818624878 -0.2782290195 -0.1310886684 0.1083280438
265298410.0 -0.1466993594 0.1017851942 0.4791882568 -0.28381708 0.4796277446 -0.2834040394 -0.1304158914 0.1096791272
270298380.0 -0.1460596964 0.1030601594 0.4765254544 -0.2891194534 0.4762365449 -0.2891653013 -0.1296222831 0.1112780434
275298350.0 -0.1448479521 0.1043813046 0.4730220787 -0.2949782111 0.4732225299 -0.2943304123 -0.1281612337 0.112269395
280298320.0 -0.1438826766 0.1057800103 0.4701101371 -0.3002385343 0.4700590713 -0.2996896235 -0.1267962813 0.1137683901
285298290.0 -0.1429488209 0.1073276191 0.466692357 -0.3052255112 0.4666213984 -0.3053169032 -0.1257248336 0.1149468275
290298260.0 -0.1419108119 0.1084497826 0.4632547918 -0.310150926 0.4633992502 -0.3105935943 -0.1242059622 0.1164546394
295298230.0 -0.1411019148 0.1096039162 0.460029035 -0.315708303 0.4599197787 -0.3154226815 -0.1225074377 0.1175811004
300298200.0 -0.1404843628 0.1112132385 0.4571778405 -0.3210864284 0.4567118868 -0.3210599148 -0.1219957984 0.1189654187
305298170.0 -0.1390265572 0.1120819735 0.4528088202 -0.3266255356 0.4528727909 -0.3257500138 -0.120080354 0.1205362606
310298140.0 -0.1379568828 0.1136722686 0.4494726806 -0.3312564625 0.4499881896 -0.3310385698 -0.1189645366 0.1216439129
315298110.0 -0.1367287596 0.1143972241 0.4460533095 -0.336527664 0.4460028088 -0.3366832012 -0.1175643737 0.1228498668
320298080.0 -0.1360219486 0.1159953476 0.4414657221 -0.341903716 0.4419971317 -0.3416916053 -0.1163065069 0.1242493013
325298050.0 -0.1352276596 0.1173649362 0.4384636693 -0.3471178276 0.4380104646 -0.3465735426 -0.1157028583 0.1254270664
330298020.0 -0.1341167944 0.1184397988 0.4340033882 -0.3521785084 0.4343567205 -0.3517394486 -0.11420348 0.126551807
335297990.0 -0.1330884773 0.1195060579 0.4300284483 -0.3561788086 0.4300395121 -0.3567206264 -0.1136803219 0.1287091784
340297960.0 -0.1327365846 0.1213318603 0.4259441905 -0.3613351243 0.4256475908 -0.3614643073 -0.1113773819 0.1297283677
345297930.0 -0.1315436908 0.1226715729 0.4219409296 -0.3662500246 0.4216214948 -0.3660459169 -0.1105743853 0.1308578598
350297900.0 -0.130550511 0.1238015518 0.4175750305 -0.3706208691 0.4175693156 -0.3703714222 -0.1096962063 0.1326993931
355297870.0 -0.129238448 0.1258036565 0.4134726014 -0.3756712457 0.4139712587 -0.375191997 -0.1083156974 0.1338532105
360297840.0 -0.1284092482 0.1267715592 0.4101021876 -0.3797152026 0.410206501 -0.3791501968 -0.1069931626 0.1352447375
365297810.0 -0.1271800806 0.1284747125 0.4052730596 -0.3845419519 0.4056522578 -0.3841980723 -0.1052697919 0.1365805226
370297780.0 -0.1254902714 0.12945937 0.4007567988 -0.3884646796 0.4014255183 -0.3881966153 -0.1038362621 0.1380919095
375297750.0 -0.1244975703 0.1306945159 0.3965665758 -0.3927743046 0.3969932047 -0.392996759 -0.1023252015 0.139254909
380297720.0 -0.1234276827 0.1323364855 0.3925379484 -0.3978583833 0.3925125356 -0.396681023 -0.1013307125 0.140350727
385297690.0 -0.1224708816 0.1336678788 0.3879127374 -0.4015888681 0.3880815628 -0.4014706374 -0.0996986245 0.1417270133
390297660.0 -0.1212218533 0.1350831973 0.3837183009 -0.4060252179 0.3833708467 -0.4056700147 -0.0981728467 0.1432663429
395297630.0 -0.1199383165 0.1363185012 0.3794543409 -0.4103706488 0.3793370849 -0.410082615 -0.0962274525 0.144274521
400297600.0 -0.1188439827 0.137528077 0.3743022365 -0.4145548845 0.3746185145 -0.4142725751 -0.0951424593 0.1453902446
405297570.0 -0.1177308558 0.1387412329 0.3697580901 -0.4182617211 0.3702020227 -0.4180901184 -0.0937796582 0.1466111775
410297540.0 -0.1158607507 0.1400165211 0.3655017684 -0.4224289589 0.3658519315 -0.4224246416 -0.0921508806 0.1482344702
415297510.0 -0.1145071733 0.1411989788 0.3606182923 -0.4268071287 0.3610577284 -0.4265595566 -0.0905060015 0.1494646348
420297480.0 -0.1132733728 0.1427367527 0.3560439022 -0.4304841159 0.3561305552 -0.4305758916 -0.0889882494 0.1501790016
425297450.0 -0.1119435905 0.1434758261 0.3516108609 -0.43421897 0.352046299 -0.4342974214 -0.0877548001 0.1517714302
430297420.0 -0.1107473487 0.1447352877 0.3467675511 -0.4376390597 0.3469251465 -0.4376254348 -0.0860761873 0.152093714
435297390.0 -0.1094888515 0.1462805233 0.3415127279 -0.4417404948 0.3416008175 -0.441575931 -0.0835622364 0.1535379851
440297360.0 -0.107753319 0.1475737213 0.3367701299 -0.4455610605 0.3369650455 -0.4453053574 -0.0823467691 0.1544581217
445297330.0 -0.1066000755 0.1481551004 0.332386713 -0.4489092564 0.3322171233 -0.4485451742 -0.0805817253 0.1551476065
450297300.0 -0.1051237099 0.1495929156 0.3271629048 -0.4527069664 0.3269547079 -0.4530758223 -0.079068458 0.1561061807
455297270.0 -0.1036556523 0.1506965891 0.3218187323 -0.456103509 0.3224245685 -0.4564010179 -0.0773869368 0.1570639817
460297240.0 -0.1024269157 0.1515857449 0.3173468575 -0.4594133796 0.3171807523 -0.459790253 -0.0752936917 0.1583542459
465297210.0 -0.1005392984 0.1530203207 0.3120863658 -0.4632128279 0.3122536831 -0.4634002035 -0.0735420791 0.159269327
470297180.0 -0.0992233719 0.1540085275 0.306657292 -0.4661790579 0.3074084657 -0.4664731784 -0.0718967286 0.1603734761
475297150.0 -0.0979158983 0.1551336019 0.3016118773 -0.4694454829 0.3023282021 -0.4693087956 -0.0696092008 0.1610797007
480297120.0 -0.0964490776 0.1563783025 0.2966453531 -0.4731654567 0.2968325666 -0.4734855169 -0.0680147338 0.1620918089
485297090.0 -0.0950073459 0.1573490229 0.2918076122 -0.4757868749 0.2917832939 -0.4758232915 -0.0662457032 0.1626366618
490297060.0 -0.0934829286 0.1584617318 0.2866241636 -0.4794006491 0.2867964 -0.4791338372 -0.0643090513 0.164142059
495297030.0 -0.0921804223 0.1594879525 0.2810542147 -0.4821894631 0.2816334514 -0.4822937332 -0.0625869285 0.1648355132
500297000.0 -0.090379069 0.1605768776 0.2754781629 -0.4850530016 0.2757695164 -0.4847566197 -0.0607982614 0.1662131265
505296970.0 -0.0887502502 0.1612338058 0.2709256838 -0.4882352239 0.270489281 -0.4880905564 -0.0591143761 0.1666608397
510296940.0 -0.0873113937 0.1624654336 0.2651175051 -0.4910853021 0.2652957607 -0.4913741958 -0.0566222953 0.1676666709
515296910.0 -0.0856716575 0.163528705 0.2599851984 -0.4943263857 0.2598298425 -0.49363923 -0.055100479 0.1681970432
520296880.0 -0.0843066388 0.1643765476 0.254724745 -0.4971385069 0.2547087403 -0.4966906684 -0.0535549932 0.1689555637
525296850.0 -0.082459612 0.1647863312 0.2486047123 -0.4992832881 0.2492264501 -0.4995719571 -0.0515701957 0.1699988787
530296820.0 -0.0809923358 0.1662396688 0.2438168524 -0.5024606978 0.2436866526 -0.5021627872 -0.0496593496 0.1709841735
535296790.0 -0.0798871246 0.1671423198 0.2381388304 -0.5045985195 0.238430426 -0.5043521866 -0.0480697902 0.1711997267
540296760.0 -0.0781179472 0.1683820302 0.2325865635 -0.5072090593 0.2325150491 -0.5075591027 -0.0461459251 0.172247991
545296730.0 -0.0763198293 0.1688026774 0.2266726938 -0.509394536 0.2272171893 -0.5097589315 -0.0444456872 0.1729074707
550296700.0 -0.0743792407 0.170202859 0.2214369239 -0.5122599943 0.2217939133 -0.5125191984 -0.0426505017 0.1737395548
555296670.0 -0.0728623556 0.1706735757 0.2160512484 -0.5145407092 0.216238574 -0.5143778239 -0.0405870453 0.1743800172
560296640.0 -0.0712705741 0.1720692614 0.2105479799 -0.5172238023 0.2105624575 -0.516982466 -0.0387119679 0.1747118935
565296610.0 -0.0697426964 0.1724131445 0.2046145672 -0.5192614511 0.2049704774 -0.5191519109 -0.036874109 0.1749256596
570296580.0 -0.068385386 0.1734508451 0.1991288931 -0.5217803896 0.1990554006 -0.5210813244 -0.0351858394 0.17605911
575296550.0 -0.0666452388 0.1744484664 0.1937254371 -0.5234194623 0.1934764689 -0.5231944855 -0.0326587303 0.1762563546
580296520.0 -0.0645404571 0.1748831507 0.1876572475 -0.5258569322 0.1876470966 -0.5254447266 -0.0309015786 0.1769030515
585296490.0 -0.063388947 0.1755358182 0.1821330592 -0.5270922137 0.1825147502 -0.5270701997 -0.0290238431 0.1772971977
590296460.0 -0.0609197091 0.1765080305 0.176261835 -0.528732187 0.1768491502 -0.5293871462 -0.0276723606 0.1779351941
595296430.0 -0.0592648171 0.1771854219 0.1700575761 -0.5315965421 0.1704167199 -0.5312570418 -0.0253243797 0.1779240511
600296400.0 -0.0580333251 0.1777964941 0.1650346475 -0.532907134 0.1650702722 -0.5327760468 -0.0235384063 0.1784561866
605296370.0 -0.0563705086 0.1784742136 0.1590969325 -0.5343922422 0.1593252309 -0.5344664539 -0.0212091705 0.1788829856
610296340.0 -0.0544156438 0.1794390002 0.1529998514 -0.5362813353 0.1533650448 -0.5361817783 -0.0189230419 0.1792654965
615296310.0 -0.0523475732 0.179499823 0.1468510217 -0.5369769662 0.1472722101 -0.5379812912 -0.0169201442 0.1796620431
620296280.0 -0.0508095638 0.1801752481 0.1413025904 -0.5393356174 0.1416429273 -0.5391862665 -0.0152554782 0.1799890025
625296250.0 -0.0492961455 0.1807500284 0.1360916077 -0.5409578396 0.1357446855 -0.5411039002 -0.0127060892 0.1800644367
630296220.0 -0.0470387245 0.1814573826 0.1294719144 -0.5420361376 0.1297382841 -0.542343284 -0.0110838042 0.1804859859
635296190.0 -0.0461180526 0.1819723706 0.1242077667 -0.5432959207 0.1240284395 -0.5434457433 -0.0088331631 0.180863882
640296160.0 -0.0439188385 0.1827543093 0.1177384281 -0.5445402526 0.1184266506 -0.545125098 -0.006928053 0.1807579962
645296130.0 -0.0420496476 0.1836562718 0.1117142947 -0.5460892306 0.1122643976 -0.5459721891 -0.0049514421 0.1812984489
650296100.0 -0.0402363951 0.183613636 0.1063433893 -0.5468615736 0.1066829673 -0.5470938212 -0.0025182068 0.1808223551
655296070.0 -0.0388208347 0.1840127369 0.1001079676 -0.5481599878 0.1008412128 -0.5482252475 -0.0004733245 0.1816846452
660296040.0 -0.0371198576 0.1844588502 0.0949641252 -0.5494045618 0.0947073758 -0.5495554065 0.0015581879 0.1819157351
665296010.0 -0.034895821 0.1852785345 0.0882479188 -0.5501773763 0.088554637 -0.5501098227 0.0037106373 0.1822763007
670295980.0 -0.0337248706 0.185827757 0.0823582586 -0.5510905852 0.082663159 -0.5506657119 0.0051274704 0.1820427703
675295950.0 -0.0316124375 0.1864572835 0.0765990701 -0.551770102 0.0768060753 -0.5513335533 0.007282928 0.1823605575
680295920.0 -0.0300113801 0.1866592494 0.0706170784 -0.5521132781 0.070520607 -0.5531630007 0.0097359153 0.1831459095
685295890.0 -0.0280813978 0.1873772297 0.0645161484 -0.5529263194 0.0643897368 -0.5533457375 0.0114223734 0.1827782485
690295860.0 -0.0259607692 0.1877221459 0.0588358329 -0.553498242 0.0588497671 -0.5544841425 0.0133773084 0.1830790321
695295830.0 -0.024152493 0.1878580014 0.0531942174 -0.5541124065 0.0523552875 -0.554768182 0.0156440954 0.1829661012
700295800.0 -0.0224018258 0.1880321777 0.0466188099 -0.5547937629 0.0466655565 -0.5549370733 0.0172229551 0.183517357
705295770.0 -0.0209178893 0.1892662519 0.0408159707 -0.5558269446 0.0411607053 -0.5557527622 0.0191745688 0.1833944978
710295740.0 -0.0185292241 0.1893393216 0.0349767217 -0.5560497069 0.0350096329 -0.556215115 0.0214193663 0.1828230012
715295710.0 -0.0175241467 0.189510822 0.0289810501 -0.5563265169 0.02879767 -0.5560630141 0.0235722593 0.1827196822
720295680.0 -0.0150693924 0.189738675 0.0227432588 -0.556759848 0.0230783422 -0.5564629199 0.0255564972 0.1829813342
725295650.0 -0.0131441369 0.1900158833 0.0167575993 -0.5565815291 0.0171000345 -0.5569980773 0.0267972396 0.1830278403
730295620.0 -0.0108876578 0.1906836982 0.0104220789 -0.5562605371 0.0110977102 -0.5568722693 0.028857354 0.1826403816
735295590.0 -0.0096496752 0.1909231727 0.0052312468 -0.5572281367 0.0049198941 -0.556877614 0.030764063 0.1821770679
740295560.0 -0.0080967173 0.1913353371 -0.0013030155 -0.5567785841 -0.0008855506 -0.5569776388 0.0332024818 0.1822376948
745295530.0 -0.0060769321 0.1913588927 -0.0074031308 -0.5566512566 -0.0074798804 -0.5565955211 0.0354492354 0.1817890854
750295500.0 -0.0039732171 0.1914308832 -0.0131101971 -0.5559888549 -0.0130762472 -0.5564796493 0.0372764081 0.1813527479
755295470.0 -0.0021062729 0.1915576615 -0.0191563127 -0.5565269785 -0.0189153919 -0.5567704808 0.0396035537 0.1811625492
760295440.0 -0.0005109544 0.1919506553 -0.0250571984 -0.5564834984 -0.0249327305 -0.556595107 0.0412569723 0.1805884077
765295410.0 0.0015587334 0.1919358203 -0.0311428379 -0.5558782338 -0.031164978 -0.5559745703 0.0434115534 0.1808120846
770295380.0 0.003090898 0.1918599048 -0.0372580201 -0.555265567 -0.0370629135 -0.555419683 0.044983971 0.1797797614
775295350.0 0.0048154636 0.191691541 -0.0435606184 -0.5546950834 -0.0427753513 -0.554671109 0.046623545 0.179758219
780295320.0 0.0068716127 0.1919220117 -0.0489279391 -0.5540712498 -0.0482626258 -0.5542334226 0.0487454707 0.1788999113
785295290.0 0.008658104 0.1916636456 -0.0554902274 -0.553220187 -0.0545881933 -0.5537470143 0.0517172865 0.1789049664
790295260.0 0.0108607925 0.1921705616 -0.0605061265 -0.552991141 -0.0598210945 -0.552974699 0.0534075936 0.1785094573
795295230.0 0.0125442199 0.1919718729 -0.0664968143 -0.5521302611 -0.0664276982 -0.5524737422 0.0557456999 0.178188813
800295200.0 0.0141764904 0.1921668837 -0.0730417627 -0.55124347 -0.0728426419 -0.5513581734 0.0574509583 0.177165482
805295170.0 0.0161024277 0.1922703545 -0.0785868423 -0.5506253063 -0.0786629245 -0.5511859057 0.0594858298 0.1771847152
810295140.0 0.0180125638 0.1919397492 -0.0845343327 -0.5494153755 -0.0844496288 -0.5499046133 0.0618354204 0.1767033957
815295110.0 0.0198946238 0.1917926624 -0.0907594225 -0.5483679752 -0.0900156535 -0.548976487 0.063585805 0.1759847283
820295080.0 0.021286799 0.1920569738 -0.0963115848 -0.547318258 -0.0956683038 -0.5476517762 0.0658378775 0.1754095683
825295050.0 0.0238897769 0.1920909297 -0.1020547556 -0.5463364243 -0.1017085225 -0.5468225571 0.0675968835 0.1754466387
830295020.0 0.0255674495 0.1918040095 -0.1082866057 -0.5452557526 -0.1080908678 -0.5454000032 0.070098576 0.1743087511
