!Created with skrf (http://scikit-rf.org).
# Hz S RI R 50.0 
!freq ReS11 ImS11 ReS21 ImS21 ReS12 ImS12 ReS22 ImS22
300000.0 -0.7765387557 -0.1372771657 -0.0002287287 0.002037382 0.0004105301 0.0003760435 -0.2119439522 -0.0915605538
5299970.0 -0.7850521721 -0.0067066707 8.83176e-05 -8.30906e-05 -3.9703e-06 -5.96034e-05 -0.2164929808 0.0071011211
10299940.0 -0.7877661336 -0.0038669736 -3.2868e-05 -0.0001127984 6.93548e-05 1.86125e-05 -0.213508204 0.0185548792
15299910.0 -0.7933138664 -0.0014463529 4.69108e-05 -6.62891e-05 -0.0001948393 0.000104157 -0.2083476015 0.0279743117
20299880.0 -0.799665578 0.0024077429 1.8266e-05 -2.61639e-05 0.0001020319 -1.63065e-05 -0.2032560049 0.0357109073
25299850.0 -0.8066112601 0.0082380251 6.2399e-06 4.3939e-06 2.61374e-05 -5.66093e-05 -0.1977394926 0.0416609652
30299820.0 -0.8119689555 0.0163313734 0.0001188798 0.00017775 8.28535e-05 -0.0001628961 -0.1918045015 0.0463820023
35299790.0 -0.816990494 0.0254499786 -2.47627e-05 0.0003029876 0.0003457087 7.61458e-05 -0.1862603356 0.0499670536
40299760.0 -0.8211258495 0.0341607809 0.0002742627 3.06633e-05 -7.3397e-05 -0.0001490862 -0.1804234144 0.052580073
45299730.0 -0.8247927196 0.0443023403 2.85381e-05 4.46429e-05 0.0003214702 4.5964e-05 -0.1758278707 0.0548874058
50299700.0 -0.8267779331 0.0540872101 -0.000131826 0.0001130889 8.39013e-05 -8.87285e-05 -0.1705442378 0.0568286924
55299670.0 -0.8288267432 0.0640357545 -7.05736e-05 0.0001460155 0.0001446557 7.12259e-05 -0.1666655481 0.0577275655
60299640.0 -0.8295106629 0.0741171968 0.0002382827 0.0001371286 0.0001170863 -1.14207e-05 -0.1624916144 0.0582887713
65299610.0 -0.8309698164 0.0846164846 2.36517e-05 0.0002298055 -0.0001346647 -1.07339e-05 -0.1588144656 0.0588390956
70299580.0 -0.8314771398 0.0945850082 -0.0001674275 7.85773e-05 -3.82491e-05 -0.000180423 -0.1552921777 0.0593194291
75299550.0 -0.8316736975 0.1049504003 1.56693e-05 5.25809e-05 6.76885e-05 9.01913e-05 -0.1529212137 0.0591746014
80299520.0 -0.8311487605 0.1147318576 -9.9006e-05 0.0001037146 -0.0001938169 7.23337e-05 -0.1504184237 0.059533334
85299490.0 -0.8306517644 0.1241527065 7.41656e-05 -9.5806e-06 -5.46612e-05 3.85409e-05 -0.1478975633 0.0594091999
90299460.0 -0.8295682088 0.1340565037 0.0001016783 -1.73544e-05 2.39325e-05 8.70969e-05 -0.1452936589 0.0594833155
95299430.0 -0.8290840954 0.1433669654 -0.0002054182 5.61291e-05 -1.32928e-05 0.0001890326 -0.1433919148 0.0593214825
100299400.0 -0.8280165126 0.1528999671 4.50913e-05 -4.6315e-06 -9.3594e-05 6.32526e-05 -0.1419478356 0.0593724895
105299370.0 -0.8264363193 0.1619247791 -2.99205e-05 9.67193e-05 -0.0001449762 0.0002272235 -0.1398252586 0.0592100947
110299340.0 -0.8249865454 0.1713278284 6.43572e-05 -9.00927e-05 0.0001119352 -0.0001632227 -0.1386890075 0.0594543721
115299310.0 -0.8236118831 0.1800405151 -0.0001158378 2.95888e-05 0.0001402484 0.0002866329 -0.1374012599 0.0591609247
120299280.0 -0.8220408866 0.1895968397 -0.0001093408 -1.49153e-05 8.48056e-05 2.99718e-05 -0.1360395575 0.059358513
125299250.0 -0.8207713814 0.1985261473 -0.0001328229 8.44944e-05 -0.0001645274 2.85177e-05 -0.1349913104 0.0592880628
130299220.0 -0.8185961795 0.2076389638 5.79961e-05 0.0001540793 -2.07755e-05 -6.71449e-05 -0.1344167288 0.0597959237
135299190.0 -0.8167133162 0.2166605288 0.000141163 9.86721e-05 -0.0001325598 -0.000150874 -0.1330615837 0.059624326
140299160.0 -0.8145702967 0.2255007628 6.61021e-05 0.0002690849 0.000137281 -5.75142e-05 -0.132099867 0.0600375237
145299130.0 -0.8121097999 0.2341424341 0.0001153828 0.0001258743 -0.0001090445 5.2658e-05 -0.1320039269 0.0602941592
150299100.0 -0.8104089849 0.242867995 0.0001644009 0.0001286964 -5.21449e-05 -7.70866e-05 -0.1309019077 0.0601933036
155299070.0 -0.8075776763 0.2523136893 0.0001004389 -0.000175439 -0.0001031254 4.66369e-05 -0.130271625 0.0609056145
160299040.0 -0.8051548232 0.2612972325 -0.000145026 -0.0002341943 0.000242527 0.0001655918 -0.1294692106 0.0614321178
165299010.0 -0.8023794436 0.2692068583 0.0003160287 0.0001012071 -0.000116589 7.70816e-05 -0.1290174628 0.0617294875
170298980.0 -0.7991479119 0.2773748899 7.50092e-05 0.0001260288 0.0001645554 1.95496e-05 -0.1284907212 0.0621730198
175298950.0 -0.796544625 0.2871125479 -1.71676e-05 3.83162e-05 4.23936e-05 6.60211e-05 -0.1280364218 0.0625806775
180298920.0 -0.7938240056 0.2946925727 -0.0001113724 0.0002268227 0.0001184366 0.0001468273 -0.1272496498 0.0633470112
185298890.0 -0.7906340975 0.3042451017 0.0001047913 -3.38932e-05 9.61723e-05 -6.29048e-05 -0.1268305293 0.0636554477
190298860.0 -0.7873454483 0.3123577671 0.0001470065 -0.0001483825 -1.42688e-05 9.00651e-05 -0.1259953713 0.0643961875
195298830.0 -0.7839701976 0.3204657755 3.5365e-06 -0.0002365159 7.43692e-05 0.0002200931 -0.1257708286 0.0652014909
200298800.0 -0.7807805667 0.329580973 9.8332e-05 0.0001891199 0.0001031743 5.0521e-05 -0.1248756425 0.0657895828
205298770.0 -0.777357423 0.3374333996 0.0001895663 2.80549e-05 -6.91689e-05 0.0001988648 -0.1245143446 0.0664002698
210298740.0 -0.7738002372 0.3457955011 -5.09626e-05 8.6039e-06 -0.0001525264 -2.5927e-05 -0.1239264999 0.0671774455
215298710.0 -0.7702745559 0.3543302597 0.0001102482 1.7907e-05 8.57522e-05 7.07895e-05 -0.1241924788 0.0682636108
220298680.0 -0.7673083999 0.3623678464 -2.50191e-05 -1.80137e-05 0.0001289789 0.0002006756 -0.1230820896 0.0691254836
225298650.0 -0.7629840034 0.3708006116 0.0002768063 7.74633e-05 6.3635e-05 -1.30418e-05 -0.1230145817 0.0701055256
230298620.0 -0.7589415141 0.3784274687 5.9703e-05 0.000122611 -9.47884e-05 0.0001198683 -0.1222587105 0.0705811934
235298590.0 -0.7545862233 0.3874460649 0.0001075047 0.0001143199 2.75887e-05 1.1416e-05 -0.1217289611 0.0711802911
240298560.0 -0.7507464342 0.3949993039 -2.4722e-05 9.77692e-05 -9.46739e-05 5.4642e-05 -0.1212585208 0.0722588336
245298530.0 -0.7464222133 0.4030051275 0.0001101601 0.0002247217 0.0001910337 0.0001149072 -0.1208793119 0.0732310474
250298500.0 -0.7424979113 0.4105154214 0.0001483752 0.0001432006 0.0002157716 0.00014293 -0.1199353958 0.0746306926
255298470.0 -0.7377380253 0.4191623581 -7.19729e-05 -7.5703e-06 2.16916e-05 9.94598e-05 -0.1194489714 0.0751287633
260298440.0 -0.7340091609 0.4259575597 6.417e-06 0.0003119303 -2.44619e-05 -4.57267e-05 -0.119205825 0.0758768546
265298410.0 -0.7291063325 0.4342881221 9.63913e-05 -7.1057e-06 0.0001934277 -0.0001306643 -0.1186163715 0.0767943106
270298380.0 -0.7243301122 0.4412473343 0.0001212691 -1.24411e-05 -0.0001121621 -2.70931e-05 -0.1178371947 0.0778836923
275298350.0 -0.7197037845 0.4489700558 0.0002044503 3.63095e-05 0.0001085945 8.61093e-05 -0.1171486699 0.0790423967
280298320.0 -0.715085501 0.4562338007 6.51788e-05 0.0001167661 -4.98906e-05 9.53717e-05 -0.1169410508 0.0798532191
285298290.0 -0.7103295096 0.4646393057 1.31249e-05 0.0001502146 0.0001475558 0.0001814592 -0.1162242254 0.0810309767
290298260.0 -0.7053131523 0.4717434169 0.0001185562 -6.857e-06 0.0001627923 2.09849e-05 -0.1153883388 0.0823020441
295298230.0 -0.7003789366 0.4792035236 0.0001903926 0.0002109739 0.0001543695 5.58649e-05 -0.1147878176 0.0829976275
300298200.0 -0.695026072 0.4864182046 0.000253446 -4.36974e-05 0.0001463604 3.51543e-05 -0.1140242135 0.0844783381
305298170.0 -0.690318921 0.4939748013 -4.40244e-05 0.0001680865 6.07929e-05 0.0001425594 -0.1131507334 0.085526943
310298140.0 -0.6842891694 0.5009162124 -0.0001033251 4.4116e-05 4.23214e-05 0.0001799849 -0.1126641188 0.0865336833
315298110.0 -0.6793131703 0.5078677473 -0.0001660418 6.47114e-05 9.7066e-05 2.63508e-05 -0.1119204656 0.0870086526
320298080.0 -0.6739020624 0.5155957849 0.000234551 -9.59046e-05 -3.36e-07 1.31573e-05 -0.111438816 0.0880640938
325298050.0 -0.6682817273 0.522321438 0.0001430596 0.0001693264 -0.000183874 7.56885e-05 -0.1105522161 0.0893792678
330298020.0 -0.6624718935 0.5286904462 0.0002851723 0.0002742916 0.0001354988 0.0002017473 -0.1100521247 0.0901197102
335297990.0 -0.6567984289 0.536368506 0.0001322654 0.0001421243 6.73254e-05 9.35956e-05 -0.1095223872 0.0912091548
340297960.0 -0.6519618449 0.5424436217 6.60983e-05 -3.11588e-05 1.07761e-05 -0.0001101394 -0.1085537651 0.0922117765
345297930.0 -0.6465800466 0.5490664494 0.0001457056 0.0001963066 -4.37452e-05 0.0003479121 -0.1079707831 0.093503502
350297900.0 -0.6403742259 0.555982254 9.49923e-05 0.0001247716 8.45774e-05 0.0001269237 -0.10719485 0.0948110363
355297870.0 -0.6345270877 0.5627357793 -3.9687e-06 -0.0001052673 4.37967e-05 0.0001521945 -0.1065976294 0.0961573214
360297840.0 -0.6285077614 0.5688855415 0.0002724228 0.0001083868 7.50817e-05 0.0001667493 -0.1059689999 0.0971783405
365297810.0 -0.621995042 0.5763061164 0.0002990729 2.38227e-05 0.0002317938 9.88739e-05 -0.1048500876 0.0982823286
370297780.0 -0.6160149872 0.5816160308 9.91997e-05 -2.504e-07 0.0002101186 7.06834e-05 -0.1046201046 0.0995660182
375297750.0 -0.6102155418 0.5881617059 0.0003992243 5.49326e-05 5.54615e-05 7.08345e-05 -0.1033942181 0.1006956935
380297720.0 -0.6042355771 0.5946763291 -9.39732e-05 0.0001890391 0.0001584024 0.0001428982 -0.1026267445 0.1019810993
385297690.0 -0.5977699984 0.6011038814 0.0002912481 2.25527e-05 -5.78338e-05 -4.4277e-05 -0.1020152812 0.1032596898
390297660.0 -0.5912726237 0.6070733333 0.0001663805 0.0002139702 -8.13734e-05 6.70632e-05 -0.1014125894 0.104079849
395297630.0 -0.5846980664 0.6130089463 -1.80241e-05 0.0001850398 0.0001590561 8.41052e-05 -0.100292598 0.1054347446
400297600.0 -0.5788854023 0.6192476794 5.42355e-05 0.0003118914 0.0001842811 -9.14967e-05 -0.0996001946 0.1062783821
405297570.0 -0.5727075041 0.6249695234 0.0003061833 7.5059e-06 0.0001506584 0.0001744965 -0.0989850163 0.1073894039
410297540.0 -0.5656942312 0.6307302141 8.05647e-05 0.0002173849 0.0001878726 0.0001746211 -0.0978892098 0.108798613
415297510.0 -0.5589427164 0.6364957906 0.0001067546 -9.55847e-05 -1.6321e-05 0.000125122 -0.0969009734 0.1104293619
420297480.0 -0.5520612527 0.6425627307 -2.03902e-05 3.80961e-05 0.0001479574 -2.66874e-05 -0.0960854434 0.1111614849
425297450.0 -0.5455404694 0.6479521546 -4.43898e-05 -0.0001672839 0.0001645041 4.3214e-05 -0.094860638 0.1121946707
430297420.0 -0.5395061962 0.6531457713 1.30279e-05 -3.59527e-05 0.0001155791 7.77337e-05 -0.0943538314 0.1131701722
435297390.0 -0.5322144432 0.6590589325 0.0002969631 -2.92496e-05 0.0002521645 -8.877e-07 -0.0932436087 0.1147571066
440297360.0 -0.5256528985 0.6644192878 0.0002446267 1.20202e-05 0.0001133389 -4.43222e-05 -0.0926018087 0.1152658448
445297330.0 -0.518779842 0.6698896211 0.0002801157 0.0001179789 8.48024e-05 0.0002545979 -0.0913843985 0.1169334299
450297300.0 -0.5113975967 0.6743050105 0.0001832808 0.0001705972 -0.0001163693 3.27326e-05 -0.0905408813 0.1174548774
455297270.0 -0.5042908394 0.6799276066 0.0001250495 -0.0002029599 0.0002368571 0.0001487468 -0.0894011842 0.1188646585
460297240.0 -0.4975322419 0.6852447471 0.0002944874 -6.714e-05 5.65478e-05 -0.0001941961 -0.0882749448 0.120076274
465297210.0 -0.4902497563 0.6905054031 5.17566e-05 -7.36934e-05 -5.294e-07 0.0002247291 -0.0878501388 0.1207278007
470297180.0 -0.4829383727 0.6945682726 0.0002337222 0.0001725493 0.0001652223 0.0002170379 -0.0864960043 0.1221554662
475297150.0 -0.4755494861 0.7003263037 0.000335547 1.5915e-06 0.0002379548 6.3784e-06 -0.0855588558 0.1228894634
480297120.0 -0.4688550502 0.7042854283 1.92806e-05 0.0001877175 0.000127317 0.0002351212 -0.0845894012 0.1243310139
485297090.0 -0.4613675364 0.7092569978 0.0003040743 0.0002722322 0.0002486812 0.0001081524 -0.0834347949 0.1251753966
490297060.0 -0.4541141385 0.7141130088 0.0002529315 1.52118e-05 0.0001800787 0.0001044848 -0.0826383721 0.1264163924
495297030.0 -0.4474368328 0.7186864234 0.0001999832 0.0002456669 0.0001439371 0.0001994843 -0.0813662316 0.1268124649
500297000.0 -0.4383528324 0.7235083984 0.000190275 0.0001655882 0.0001481475 0.0001239127 -0.0803241557 0.1282811355
505296970.0 -0.4313627499 0.7271900765 0.0003312796 -1.46263e-05 0.000147046 2.18967e-05 -0.0797506428 0.1292600958
510296940.0 -0.4248990831 0.7322213808 0.0002533823 0.000195604 8.28037e-05 8.27229e-05 -0.0783698468 0.1303427836
515296910.0 -0.4169532072 0.7361115636 0.0001955452 0.0002818069 0.0001660543 6.60429e-05 -0.0773749085 0.1312405876
520296880.0 -0.4094718621 0.7403380946 0.0002841943 1.70076e-05 0.0001334151 4.5421e-05 -0.0760168735 0.1318595534
525296850.0 -0.4016842547 0.7443408957 0.0001949053 0.0001952326 0.0001781986 4.3116e-06 -0.0749641787 0.1331106375
530296820.0 -0.3943011554 0.7479663378 0.0001606218 0.0002895261 0.0003557621 4.38351e-05 -0.0741644849 0.1337876298
535296790.0 -0.3860795034 0.7522266295 0.0001816819 0.0001126408 0.000120643 0.0001599283 -0.0730343533 0.1344720929
540296760.0 -0.3785402686 0.7556571617 0.0001520348 0.0001104335 0.0002819279 0.0001441933 -0.0721225668 0.1356109886
545296730.0 -0.3714445795 0.7595300909 -2.2231e-06 6.53152e-05 0.0002914804 9.72248e-05 -0.0709355252 0.1361866146
550296700.0 -0.3629253978 0.7637395597 0.0003592407 -0.0001696355 0.0003081694 0.0001730682 -0.0695877075 0.1373269501
555296670.0 -0.3546941089 0.7669071444 0.0001929015 0.0001786177 0.0002947535 0.0001594791 -0.0682271703 0.1384980134
560296640.0 -0.3472297732 0.7701749284 8.24823e-05 9.41258e-05 0.0002332382 0.0001179742 -0.0670793711 0.1389954969
565296610.0 -0.3394394113 0.7737010735 1.92799e-05 0.0001036123 0.0003041936 -9.1093e-05 -0.0658049129 0.1399483274
570296580.0 -0.3320228786 0.7771092638 0.0001930521 -0.000115514 0.0002334033 -0.0001735502 -0.0649453575 0.1408113926
575296550.0 -0.3239950331 0.7806646497 0.0003196795 7.12197e-05 0.0002748597 1.97159e-05 -0.0635622021 0.1417802133
580296520.0 -0.3157099058 0.7841585749 0.0001252551 2.51816e-05 7.94535e-05 0.0001450978 -0.0622762895 0.1423511479
585296490.0 -0.3077998037 0.7862491985 0.0001774159 8.84092e-05 0.0002498798 8.74544e-05 -0.0611705021 0.1428632427
590296460.0 -0.2996507614 0.7896860263 0.0003445254 0.0001255014 0.0001510903 3.10203e-05 -0.0596181644 0.1439622681
595296430.0 -0.2915176274 0.7934225917 0.0004799311 0.0002087937 0.0002448705 -6.31098e-05 -0.0587811588 0.1444338487
600296400.0 -0.2834504898 0.7955335188 0.0001392319 -2.02643e-05 0.0001279461 -5.26195e-05 -0.0574123348 0.1456905496
605296370.0 -0.2757621134 0.7987606362 0.0003487184 -1.91557e-05 -5.30914e-05 6.63258e-05 -0.055895085 0.146462221
610296340.0 -0.2675559689 0.8012994237 -3.6204e-06 -5.14973e-05 0.0002180472 5.71206e-05 -0.0549202881 0.1467286737
615296310.0 -0.2593285035 0.804135967 0.0002003283 6.31512e-05 0.0002494097 9.1579e-05 -0.0535196326 0.1475241074
620296280.0 -0.2506909776 0.8059832026 0.000454192 1.18176e-05 0.0001757941 -0.0001931697 -0.0525255661 0.148041575
625296250.0 -0.2429127748 0.8093208346 0.0005742932 -0.0001249069 0.0003072503 -2.30003e-05 -0.0511615691 0.1489508502
630296220.0 -0.2343396595 0.8120334718 0.0002489052 -0.0001380817 6.07262e-05 -7.73113e-05 -0.0496609543 0.1497462119
635296190.0 -0.2264315736 0.8142657144 0.0001478579 0.0001434433 8.17775e-05 0.0001882439 -0.0485110062 0.1503231423
640296160.0 -0.2180297683 0.8152286002 0.0001499886 9.04191e-05 0.000158318 3.25535e-05 -0.047102815 0.1509437987
645296130.0 -0.2099050468 0.8182922093 0.0002257838 8.04358e-05 0.0002152914 -6.96826e-05 -0.0456958982 0.1513273454
650296100.0 -0.2018683737 0.8200269379 0.0002773102 7.54619e-05 0.0002415785 0.0001276827 -0.0444668966 0.1518734663
655296070.0 -0.1928609186 0.8222854541 0.0001575098 0.0002885367 0.0003384705 -7.5022e-06 -0.0430924979 0.1530575152
660296040.0 -0.1849874057 0.8241808251 0.0002462713 4.96396e-05 0.0002057492 -2.6956e-06 -0.0417754395 0.1532234299
665296010.0 -0.1770289858 0.8259960371 0.0004370083 7.02497e-05 0.000254306 1.46845e-05 -0.0401268943 0.1538681712
670295980.0 -0.1682108051 0.8270804101 0.0002060724 -0.0002305871 0.0002893223 -3.98908e-05 -0.0389186428 0.1543941913
675295950.0 -0.1600194232 0.8284092979 0.000296373 0.0001088678 5.54935e-05 0.0001086824 -0.0377431853 0.1552780819
680295920.0 -0.1514931679 0.8308223818 0.000266388 -3.7612e-05 0.0002950474 1.74285e-05 -0.0360597667 0.1553090798
685295890.0 -0.1428882408 0.8318553009 7.34663e-05 -0.0001528766 0.0001904091 -6.25408e-05 -0.0347302274 0.1562050554
690295860.0 -0.1346301516 0.8336387263 0.0002584638 0.0003836978 0.0003335861 2.27889e-05 -0.0332091921 0.1568259853
695295830.0 -0.1257959158 0.8341445106 0.0003118836 -4.11472e-05 0.0002635218 -0.0001807009 -0.032025712 0.1574329205
700295800.0 -0.1177435097 0.8354293883 0.0001375868 7.31433e-05 0.0002724164 -4.75174e-05 -0.0302649625 0.1576770694
705295770.0 -0.1088225387 0.8375481708 0.0002974062 3.85571e-05 0.000147519 9.81662e-05 -0.0289886642 0.1585478354
710295740.0 -0.1011932654 0.8382850577 0.0001725698 -2.47322e-05 0.0001855537 -1.1104e-05 -0.0277115025 0.1589927217
715295710.0 -0.0933156455 0.8393131905 0.0002728117 0.0001042749 0.0002199154 -0.0002681455 -0.0262454412 0.1591283728
720295680.0 -0.0846263686 0.8396390472 0.0003869614 -8.95454e-05 0.00021884 5.05802e-05 -0.0244829559 0.1594020643
725295650.0 -0.0751113215 0.8407631785 0.0001978258 -0.000228772 0.0002642635 -6.95892e-05 -0.0231869827 0.1602068705
730295620.0 -0.0673746968 0.8412545414 0.0003817609 -0.0001280188 0.0002139442 -8.3478e-06 -0.0217652155 0.1604679817
735295590.0 -0.0585264262 0.8411677843 0.0003077201 -5.39578e-05 0.000376701 4.31857e-05 -0.0200179499 0.1609721373
740295560.0 -0.0499626957 0.8423622584 0.000481296 3.59634e-05 0.0002743114 -0.0001122099 -0.0188746816 0.1612927687
745295530.0 -0.041563143 0.8427070285 0.0001200018 -0.0001283022 0.0003710736 5.46951e-05 -0.017415913 0.1618581725
750295500.0 -0.0339613819 0.8432654179 0.00031956 0.000153726 0.0004778782 -0.0001207352 -0.015921743 0.1617712735
755295470.0 -0.0244695106 0.8432952778 0.0004663925 -0.0001124762 0.0003027657 0.0003605204 -0.0145790537 0.1627929474
760295440.0 -0.0166252414 0.8436229441 0.0002272067 -0.0002837336 0.0001444622 -7.76634e-05 -0.013152789 0.1630448918
765295410.0 -0.0083848065 0.8439287966 0.000335559 -3.29023e-05 0.0003539053 6.07442e-05 -0.0112989513 0.1634422183
770295380.0 0.0001383218 0.8441537586 0.0004407669 0.0001074488 0.0003204708 -0.0001102851 -0.0097528487 0.1636047323
775295350.0 0.0083902955 0.8443737297 0.0002521171 -3.69575e-05 0.0001517109 -9.4972e-06 -0.0086345462 0.1635988249
780295320.0 0.0179226051 0.843229262 0.000186344 -0.0001818338 0.0004004507 -0.0001301605 -0.0071556403 0.1641159785
785295290.0 0.0254970477 0.8436436496 0.00031233 5.41223e-05 0.0001294464 -9.3797e-05 -0.0057265601 0.164751551
790295260.0 0.0342833714 0.8427347016 0.0003101865 1.30481e-05 0.0002711291 0.0001175354 -0.0035579816 0.1646982155
795295230.0 0.0424044268 0.8434699577 0.0001230002 -0.0002349537 0.0004945031 -0.0001596356 -0.0022417865 0.1652758986
800295200.0 0.0516724543 0.8424166304 0.0004270613 -4.73645e-05 0.0004298197 -7.7598e-06 -0.0008062194 0.1650823177
805295170.0 0.0598427963 0.8421517373 0.0003781519 0.0001705083 0.0003076481 -5.89676e-05 0.0004208024 0.1652894739
810295140.0 0.0682798602 0.841371707 0.0004295347 -0.0001959925 0.0002856281 0.0001811344 0.002167327 0.1660927423
815295110.0 0.0767991856 0.8402470678 0.0002101436 0.0002610797 0.0001644764 0.000105173 0.0036871332 0.1659533613
820295080.0 0.0849445383 0.838894226 0.0003231023 -0.0001589607 0.0003343919 2.5505e-05 0.0050966902 0.1661533749
825295050.0 0.0934167876 0.8382314625 0.0004285974 -0.0002700286 0.0003843477 -3.40839e-05 0.0067284954 0.1662838161
830295020.0 0.1021042066 0.8379377912 0.0003340281 8.89922e-05 0.0002455803 -0.0002576647 0.0079498575 0.1665355675
835294990.0 0.1095875245 0.8369469403 0.000170899 -0.0002956242 0.0004302808 -0.0002715304 0.0099122119 0.1665069578
840294960.0 0.1185918876 0.8349439322 0.0001876191 1.16271e-05 0.0003837225 -0.0001069833 0.0114100061 0.1671621945
845294930.0 0.1269765158 0.8343689108 0.0001069875 -9.9822e-05 0.0001724533 -0.0001547411 0.0128025728 0.166859681
850294900.0 0.1351524418 0.8327027356 0.0002105702 -7.75851e-05 0.0005192595 -0.000223846 0.0143721116 0.1671833384
