!Created with skrf (http://scikit-rf.org).
# Hz S RI R 50.0 
!freq ReS11 ImS11 ReS21 ImS21 ReS12 ImS12 ReS22 ImS22
300000.0 -0.043977677 -0.0554926706 0.0006580458 0.00037021 -0.0002444441 0.0020222509 -0.7746622501 -0.1560028586
5299970.0 -0.0450638771 0.015997416 -0.0001929493 -3.0409e-06 -3.89037e-05 0.0001201278 -0.7847012729 -0.0079860363
10299940.0 -0.0390882543 0.0335835719 0.0001888185 -2.98642e-05 5.84328e-05 0.0001058161 -0.7887365481 -0.0048351025
15299910.0 -0.0309135494 0.0480361309 -4.21052e-05 -4.47212e-05 0.0001166555 4.69662e-05 -0.7937036257 -0.0030403519
20299880.0 -0.0207071332 0.0601059879 3.41258e-05 4.1544e-05 2.3339e-06 -0.0002019771 -0.8004128063 0.0015997361
25299850.0 -0.0093591523 0.0692689681 8.95483e-05 0.0001263937 3.20766e-05 -0.0002178252 -0.8066380675 0.0073385763
30299820.0 0.0028301338 0.0759365814 -0.0001117628 -4.47e-06 7.5178e-06 5.45249e-05 -0.8129690478 0.0149912619
35299790.0 0.0143371382 0.0808894394 -4.84778e-05 7.8241e-06 -0.0002041817 5.02962e-05 -0.8177489591 0.0238014615
40299760.0 0.0257260993 0.0838301524 -9.82305e-05 0.0001758937 -8.89848e-05 5.2114e-05 -0.8218062126 0.0331209049
45299730.0 0.0364299716 0.0850939858 -2.53231e-05 0.000103568 -0.000170609 -7.73916e-05 -0.825516743 0.0428023654
50299700.0 0.0466010043 0.0850290071 5.01614e-05 6.08018e-05 -8.07411e-05 0.0002463496 -0.8281622155 0.0525801866
55299670.0 0.055972539 0.0841823185 0.0001023372 4.15753e-05 0.0001971086 -7.12487e-05 -0.8299236012 0.062640634
60299640.0 0.0644920967 0.0820786186 -9.00696e-05 -8.59703e-05 -0.0001843536 0.0002699084 -0.8312051427 0.072825571
65299610.0 0.0723347552 0.0800634146 3.45398e-05 0.0001638442 -0.0001128116 2.08916e-05 -0.8317556737 0.0828145367
70299580.0 0.0790946796 0.0769050676 0.0001481639 -4.93461e-05 2.91673e-05 0.000101675 -0.8322068245 0.0929054061
75299550.0 0.0857154822 0.0733924277 0.0001179979 -0.0002231793 -0.0001793834 -5.88147e-05 -0.8323624034 0.1024179536
80299520.0 0.0910960856 0.0706676891 -1.52831e-05 9.4412e-06 -9.3399e-06 -1.9297e-05 -0.8322464406 0.1118472006
85299490.0 0.0965329618 0.0662180278 -5.69004e-05 -0.0001492439 1.20668e-05 -0.0001779808 -0.8317737784 0.1219432046
90299460.0 0.1008471247 0.0627918775 0.0001016849 -1.38573e-05 -0.0001137232 5.4466e-05 -0.8306731463 0.130903874
95299430.0 0.1049895094 0.0588728078 -3.03275e-05 -2.92339e-05 4.89303e-05 -0.0001137977 -0.8303559704 0.1420676482
100299400.0 0.1082095357 0.0551889096 -5.45124e-05 6.23822e-05 0.0001257712 -2.49089e-05 -0.828740902 0.1493944857
105299370.0 0.1119463605 0.0511924456 0.0001210383 5.7689e-06 -3.07369e-05 7.35114e-05 -0.8281163074 0.159181722
110299340.0 0.1144543811 0.0471269055 -0.0001377058 0.0001348251 5.2404e-06 -0.0003093256 -0.8269003723 0.1688181807
115299310.0 0.117191846 0.0430724058 -8.21793e-05 5.38896e-05 -0.0001309124 -0.0001760506 -0.8245012414 0.176494477
120299280.0 0.1191288075 0.039669534 9.10496e-05 0.0001662384 -0.0001900566 -0.0001244431 -0.8232739971 0.1857757354
125299250.0 0.1210905774 0.0355158072 -3.73744e-05 0.0001645183 0.0001543739 3.14693e-05 -0.8218277739 0.1952652153
130299220.0 0.1229146078 0.0322924909 -2.24245e-05 -1.89319e-05 0.0001551524 0.0002275676 -0.8199191267 0.2042764649
135299190.0 0.1244836119 0.0284312128 0.000171006 0.0001309849 -9.80455e-05 9.30646e-05 -0.8180292823 0.2125738985
140299160.0 0.1259470487 0.025120158 1.14056e-05 0.0001018569 0.0002169535 -3.10781e-05 -0.815596533 0.2216251527
145299130.0 0.1270366678 0.0214992938 -8.27661e-05 9.09171e-05 0.0002523044 -0.0001117185 -0.8137999597 0.2295717986
150299100.0 0.1279995504 0.0180229621 -1.2732e-06 3.61731e-05 0.0001544082 0.0001849435 -0.8119455207 0.2382457099
155299070.0 0.1288257254 0.0149360468 -1.57609e-05 0.0001458715 3.9895e-06 0.0002012885 -0.8098136566 0.2473425152
160299040.0 0.1292602071 0.0116132989 -0.0001037727 -0.0001690994 4.23704e-05 -9.32782e-05 -0.8071306217 0.2569816485
165299010.0 0.1296207237 0.0085044397 -9.5527e-06 0.0001629205 -1.79569e-05 3.52673e-05 -0.8045125333 0.2646462124
170298980.0 0.1301239513 0.0053869798 0.0001245157 0.0002314538 -4.90761e-05 -7.98786e-05 -0.8022466592 0.2736047427
175298950.0 0.1308079519 0.0027618073 7.09563e-05 0.0001747952 -0.000123426 0.0001007351 -0.7989263576 0.2821542413
180298920.0 0.1306574932 -0.0002360432 5.796e-07 6.05017e-05 -9.7088e-06 1.74415e-05 -0.7956591111 0.2902694231
185298890.0 0.1305391799 -0.0031840128 0.0001210223 -1.93799e-05 3.50114e-05 -3.94139e-05 -0.7929680301 0.2982875819
190298860.0 0.1309243758 -0.0062602532 0.0001217706 0.0001448889 0.000274107 -6.35959e-05 -0.7894315739 0.3072916338
195298830.0 0.1310696363 -0.0088978377 0.0001775453 0.0002904089 6.03639e-05 -7.99434e-05 -0.7869611719 0.3151831605
200298800.0 0.1306644575 -0.0115326652 5.8946e-05 5.48891e-05 2.66971e-05 4.23882e-05 -0.7834100659 0.3243941157
205298770.0 0.1306256744 -0.0143085307 -1.61398e-05 0.000100603 2.95294e-05 2.07638e-05 -0.7805684273 0.3320286213
210298740.0 0.1305392614 -0.0163221667 -7.165e-07 1.19407e-05 5.9449e-05 0.0002387977 -0.7770764301 0.3410419584
215298710.0 0.1300750104 -0.0191518286 9.11992e-05 0.0002420819 5.12932e-05 6.71391e-05 -0.7737754337 0.3486038411
220298680.0 0.1299821794 -0.0215144486 0.0001632641 -1.8979e-06 9.05151e-05 0.000263755 -0.7702997556 0.3569707871
225298650.0 0.1294111366 -0.0238828838 6.88192e-05 4.18395e-05 -0.0001503375 6.86325e-05 -0.7662492785 0.3651207309
230298620.0 0.1290743527 -0.0261622372 -2.91819e-05 2.11674e-05 0.0001586711 8.92881e-05 -0.7620644565 0.3724432479
235298590.0 0.1283502152 -0.028684862 0.0001705963 0.0002915243 0.0001108242 1.66426e-05 -0.7577969134 0.3807613549
240298560.0 0.1279973084 -0.0308973523 3.08638e-05 -0.0001069286 0.000124272 4.30648e-05 -0.7543205763 0.3887144932
245298530.0 0.1274764728 -0.0329235513 0.0001152063 0.0001044731 0.0001917129 6.89e-07 -0.7503097479 0.3968371577
250298500.0 0.1266821367 -0.035245996 0.0001976229 0.0002185261 6.28809e-05 0.0001204324 -0.7462450247 0.4046368563
255298470.0 0.1262787437 -0.037264766 3.00948e-05 -2.36233e-05 2.55541e-05 0.0002045067 -0.7412678968 0.4124906367
260298440.0 0.1255803279 -0.03902854 4.12387e-05 0.0004004733 -0.0001084273 0.000215456 -0.7369167982 0.4197956371
265298410.0 0.1247095555 -0.0410596896 0.0002505685 0.0002234997 0.0002345063 0.0002380302 -0.7328357439 0.4278511033
270298380.0 0.1241549292 -0.0429061371 -9.95979e-05 0.0002890577 0.0004263935 0.0001444391 -0.7278532756 0.4355226632
275298350.0 0.1234746418 -0.0451043146 5.22481e-05 0.0002993298 8.06672e-05 0.0001362441 -0.7231077113 0.4433203184
280298320.0 0.1227522953 -0.046823388 0.0001729644 3.49471e-05 0.0001932901 0.0004348441 -0.7188012612 0.4504446522
285298290.0 0.1218637296 -0.0485436129 0.0001713795 9.6956e-05 -2.86471e-05 -0.0001124345 -0.7138277749 0.4580198022
290298260.0 0.1212324919 -0.0505673497 0.0002095893 9.31139e-05 4.18994e-05 9.91641e-05 -0.7087150598 0.4660041061
295298230.0 0.1203967204 -0.0527589595 0.0001502173 0.0001269462 1.54088e-05 7.57371e-05 -0.7036765082 0.4728407984
300298200.0 0.1194863446 -0.0548583002 -2.1071e-06 0.0001148961 0.0001165712 0.0001719367 -0.6990749779 0.4804083644
305298170.0 0.1190945581 -0.0563171826 0.0001931119 5.96831e-05 3.45009e-05 0.0004029853 -0.6932671314 0.4881178647
310298140.0 0.1180149679 -0.0586177528 0.0002195729 -0.0001161629 0.0001585502 0.0001255088 -0.6891768246 0.4948079116
315298110.0 0.116594114 -0.0603385466 7.16259e-05 0.0001505926 0.0001435465 -6.76215e-05 -0.6833752692 0.5025386834
320298080.0 0.1158168573 -0.0619865069 3.9825e-05 4.38536e-05 0.0001799418 0.0002783666 -0.6778855935 0.5095094481
325298050.0 0.1142199748 -0.0639005531 0.0001899842 6.55649e-05 0.0002057226 0.000265521 -0.6721520798 0.51622385
330298020.0 0.1130630036 -0.065260496 0.0004021203 0.0001889912 4.90756e-05 0.0002307695 -0.6671168415 0.5235841597
335297990.0 0.1119623846 -0.0669932523 0.000187332 7.82851e-05 -7.3322e-06 -6.03683e-05 -0.6619680504 0.5303000918
340297960.0 0.1104718984 -0.0681818874 0.0001553423 8.33924e-05 0.0001847335 0.0002912863 -0.6558258749 0.5373134384
345297930.0 0.109273324 -0.0696763886 0.0001870946 0.0002681198 9.55217e-05 0.0001056361 -0.6501385334 0.54431474
350297900.0 0.1085621118 -0.0711616443 0.0001177315 -1.99184e-05 6.50551e-05 0.0001685378 -0.6439919255 0.5515748998
355297870.0 0.1071486459 -0.0726162722 -2.75178e-05 0.0002160479 1.63192e-05 0.0002756731 -0.6387133945 0.5573930879
360297840.0 0.1059566527 -0.0739351116 0.0001181561 0.000185012 0.0002446404 9.96154e-05 -0.6321831246 0.5639641674
365297810.0 0.1047983198 -0.0752967871 0.0002846074 0.0002693696 0.0001344749 -6.675e-06 -0.6264399662 0.5708546939
370297780.0 0.1036566848 -0.0764851537 2.88417e-05 0.0001565248 2.82073e-05 0.0003092024 -0.6212819092 0.575956764
375297750.0 0.1024698287 -0.0773959494 0.0002050841 1.26803e-05 0.0002448358 7.40172e-05 -0.6143384769 0.5828928672
380297720.0 0.1015843153 -0.0789596791 0.0002399146 0.0002401831 -0.0002237793 0.0001375176 -0.6081761777 0.5901434478
385297690.0 0.1001838405 -0.0800891798 0.000260803 0.0002481135 0.0003558977 0.0001385349 -0.6026003479 0.596246491
390297660.0 0.099108934 -0.081295454 -1.75313e-05 7.05975e-05 -5.0333e-05 0.0002377804 -0.5954485036 0.6018682247
395297630.0 0.0977936332 -0.0824711655 0.0001720408 0.0001469204 2.56102e-05 0.0001639644 -0.5895050332 0.6081954603
400297600.0 0.0964526751 -0.0834458638 0.000194991 7.01479e-05 0.0001387287 5.81847e-05 -0.583082188 0.6135852015
405297570.0 0.0955192266 -0.0847986291 0.0001865322 8.77008e-05 0.0002206207 3.6332e-06 -0.5771655382 0.6200113304
410297540.0 0.0944633939 -0.0859489192 0.0001002791 0.0001887608 0.0001794303 8.28859e-05 -0.5698355554 0.6256309233
415297510.0 0.0929200267 -0.0871551182 0.0001610482 0.0003002815 0.0002317601 0.0001363725 -0.5632659243 0.6320614894
420297480.0 0.0915738131 -0.0883447166 -4.9295e-06 0.0001364885 0.0003127551 1.25378e-05 -0.5569305883 0.636764247
425297450.0 0.0905172143 -0.0891107995 0.0001780329 6.29497e-05 0.0001839393 0.0003238066 -0.5500467002 0.6432948515
430297420.0 0.0889260226 -0.0902926615 0.0002294658 0.0003166104 0.0002757205 3.32879e-05 -0.5441002387 0.6487794013
435297390.0 0.0877166144 -0.0913132132 0.0001875881 0.0001111693 0.0001746527 7.55785e-05 -0.5371112223 0.6539232015
440297360.0 0.0866289728 -0.0922214565 0.0003473845 0.000177952 0.0002015918 0.0002050824 -0.5299619096 0.6588379185
445297330.0 0.0852460428 -0.0931416491 0.0002889491 -6.55073e-05 0.0003701404 -3.66035e-05 -0.5236779287 0.6646305878
450297300.0 0.0839330415 -0.0942445832 0.0002542371 0.0001952579 0.0001129884 -4.32912e-05 -0.5167886212 0.6698720421
455297270.0 0.0823854662 -0.0951211626 0.0001047462 4.36372e-05 8.12967e-05 0.0001286091 -0.5097055265 0.6751463502
460297240.0 0.0810573026 -0.0956114911 0.0002305237 -9.51549e-05 0.0003981138 8.01953e-05 -0.5027244818 0.6806061753
465297210.0 0.0798819927 -0.0967359613 0.0002521007 8.4281e-06 0.0001048844 0.0001701317 -0.4958157258 0.6850445581
470297180.0 0.0784507113 -0.0976806389 0.0002982434 6.46441e-05 0.0003069903 -7.2498e-06 -0.4895507032 0.6896343132
475297150.0 0.077200185 -0.0983610178 0.0001079702 -0.0001080493 0.0002170089 0.0002162928 -0.4817482671 0.6947205839
480297120.0 0.0757819472 -0.0992196027 0.0003658294 -0.0001602437 0.0001157976 9.43161e-05 -0.4750535092 0.700459555
485297090.0 0.0746600705 -0.1000366119 -7.74485e-05 0.0002220303 0.0001329909 0.0001122076 -0.4678853572 0.7041563411
490297060.0 0.0731519853 -0.1008037657 0.0002770675 0.0002588676 0.0001661761 8.57616e-05 -0.4607770115 0.7086920576
495297030.0 0.0717146418 -0.1017378242 0.0002737381 0.0004031786 0.0001580015 8.07876e-05 -0.4533709597 0.7129604847
500297000.0 0.070480139 -0.102594823 0.0001814781 -0.0002522571 0.0002736842 2.2999e-05 -0.446410336 0.7178605139
505296970.0 0.0687066443 -0.1031119432 2.62533e-05 0.0001862645 0.0003491543 0.0001485544 -0.4399766732 0.7221995263
510296940.0 0.067627909 -0.1034173295 9.46097e-05 6.70458e-05 0.000334075 -6.5012e-05 -0.432006545 0.726379518
515296910.0 0.0659290533 -0.1044345823 0.0003217208 -3.7753e-05 0.0002469658 0.0001259657 -0.4241864622 0.7308151723
520296880.0 0.0647983711 -0.1049462153 0.0003499327 0.0001459222 0.0002275763 0.0002806001 -0.4174361938 0.7347496435
525296850.0 0.063516501 -0.1058391122 0.0002650411 0.0001904604 0.000243159 0.0002080585 -0.4097541506 0.7392737984
530296820.0 0.0617851606 -0.1061836355 0.0002572984 0.0003022534 0.0001228319 0.0002521141 -0.4030085656 0.7428329221
535296790.0 0.06078595 -0.1066374761 0.0003007923 4.6404e-06 0.0002431664 -0.0001906577 -0.3956049358 0.7465936016
540296760.0 0.059042216 -0.107536482 0.0001397416 -7.7434e-05 0.0003182653 0.0001625181 -0.3880186948 0.7512844712
545296730.0 0.057591606 -0.108011603 0.0003853451 -3.31819e-05 0.0005122994 -8.69253e-05 -0.3803456526 0.7542546992
550296700.0 0.0561469462 -0.1083402572 0.0001017654 0.0001363579 0.0003108037 0.0001482955 -0.3730028036 0.758667286
555296670.0 0.0549457506 -0.1089552089 0.0001913052 2.80718e-05 0.0003114987 8.74459e-05 -0.3653469971 0.7618378385
560296640.0 0.0533846661 -0.1098892971 0.0001306099 5.15596e-05 0.0003656604 1.98032e-05 -0.3573825316 0.7660646931
565296610.0 0.0520868122 -0.1098424294 0.000251882 8.24958e-05 0.0003488074 -0.0001407474 -0.3501961462 0.769150248
570296580.0 0.0506885115 -0.1106175581 -9.1816e-06 -6.74022e-05 5.13179e-05 0.000119488 -0.3428810279 0.7727870329
575296550.0 0.0493963763 -0.1107950727 0.0002308043 -0.0001742232 0.0003000352 -9.76074e-05 -0.3348653755 0.7761658204
580296520.0 0.0477690692 -0.1114315542 0.0001667799 -2.69042e-05 0.0002093025 5.23706e-05 -0.3271075817 0.779259475
585296490.0 0.0458880702 -0.1116496978 0.0002788773 0.0001433696 0.0002831569 0.0001381085 -0.3193245131 0.7819013209
590296460.0 0.044601346 -0.1120167897 0.0002801497 5.63527e-05 0.0003320932 -0.0001622349 -0.3113926121 0.7852962035
595296430.0 0.043182391 -0.1125313695 0.0004522248 9.91045e-05 0.0004194305 -3.10391e-05 -0.3037279064 0.7877435948
600296400.0 0.0416530573 -0.1126617319 0.0002450678 0.0001400177 0.0002308616 0.000261305 -0.2964756258 0.7913554638
605296370.0 0.0406542233 -0.113010156 0.0002503913 6.33196e-05 0.0001983249 8.0037e-05 -0.2882986061 0.7947684185
610296340.0 0.0390522578 -0.1132982737 0.000389409 4.49507e-05 0.0004211973 -9.393e-06 -0.2796470242 0.7971183118
615296310.0 0.0373221936 -0.1136477689 0.000326097 -5.89007e-05 0.0002809937 -3.32269e-05 -0.2728940383 0.8000332886
620296280.0 0.0361179898 -0.1140725896 0.0003648526 7.7666e-05 -2.01603e-05 3.42223e-05 -0.2648398854 0.8018535389
625296250.0 0.0346749875 -0.1140625926 0.0004159695 7.39738e-05 0.0002943012 0.000144471 -0.2565357221 0.8048330675
630296220.0 0.0331902419 -0.1142696918 -7.481e-07 -9.64955e-05 0.0002990267 -6.22348e-05 -0.2483247511 0.8079636501
635296190.0 0.0316973152 -0.1145880749 0.0002946154 0.0002060891 0.0002741216 -1.9657e-06 -0.2403104017 0.8093439112
640296160.0 0.0302232006 -0.1146995803 0.0004014093 -5.01373e-05 0.0002347685 3.12849e-05 -0.2321378218 0.8120657292
645296130.0 0.0286295098 -0.1146499022 0.0001014937 3.72945e-05 0.0003362824 -1.20107e-05 -0.2251831728 0.8143490068
650296100.0 0.0274155426 -0.1147982759 0.0003371767 9.1995e-05 0.0005488457 0.0002539763 -0.2160770504 0.8168506889
655296070.0 0.0260009518 -0.1150358138 0.0003399451 0.0001405344 0.0003646805 -4.43473e-05 -0.2082279252 0.818201584
660296040.0 0.0240708257 -0.1150878363 0.0001666574 -2.01927e-05 0.0003068399 1.61653e-05 -0.2003734735 0.8203774046
665296010.0 0.0229757541 -0.1150982174 0.0003439423 -9.6054e-05 0.0003921248 1.51765e-05 -0.1926283481 0.8224964978
670295980.0 0.0215336285 -0.1152826167 0.0003402364 -1.12016e-05 0.0002607763 -0.0001249474 -0.1849795313 0.8245647151
675295950.0 0.0200004741 -0.1153186823 0.0005394309 -4.80475e-05 0.000462214 0.0001555118 -0.1762554697 0.8264897846
680295920.0 0.0183918873 -0.1152436768 0.0002846114 0.0001002168 0.0005219448 0.0001115346 -0.1678630628 0.828146586
685295890.0 0.0168787281 -0.1149949811 0.0003139917 6.95197e-05 0.0004380204 -1.04284e-05 -0.159746177 0.8288768995
690295860.0 0.0157514842 -0.1153004703 0.000402629 0.0001065121 0.0004210631 0.0001268503 -0.1514995048 0.830590398
695295830.0 0.0143168253 -0.1154293256 4.7982e-05 -2.57149e-05 0.0003242076 -7.23314e-05 -0.1435771813 0.8324759065
700295800.0 0.0128462526 -0.115265947 0.0004393259 7.61746e-05 0.0003640093 0.0001369399 -0.1349326488 0.8334372297
705295770.0 0.0113204592 -0.115318711 0.0003089993 -0.0002631377 0.0003489473 -5.54341e-05 -0.1270958852 0.8351216642
710295740.0 0.0099293178 -0.1149477741 0.0004024196 -9.24315e-05 0.0004523461 -3.2261e-05 -0.119449285 0.8368022644
715295710.0 0.0082592988 -0.1147591729 0.0001036603 0.0001075696 0.000243809 -4.09525e-05 -0.1105930594 0.8371838597
720295680.0 0.0068848683 -0.1147428019 0.0002500217 2.50122e-05 0.0005231236 -0.0001038824 -0.1022639167 0.838349796
725295650.0 0.0055626782 -0.114530193 0.0005160142 7.21671e-05 0.0004689935 -0.0001025379 -0.0936505413 0.8392998565
730295620.0 0.0040058671 -0.1144773648 0.0002553032 -7.42401e-05 0.0002954186 -7.06074e-05 -0.0855548954 0.8404756631
735295590.0 0.0027978097 -0.114396645 0.000434283 -9.71211e-05 0.0003035486 -0.000133012 -0.0769449675 0.8407206331
740295560.0 0.0014551399 -0.1142117321 0.0001552579 -7.60161e-05 0.0004075343 1.62927e-05 -0.0687900605 0.8414816453
745295530.0 -0.0001708707 -0.1141919061 0.0003448787 -9.66326e-05 0.0003165562 1.11082e-05 -0.0610391654 0.8422926282
750295500.0 -0.0014435391 -0.1137714608 0.0005724898 -0.0001610096 0.0004149393 -5.29751e-05 -0.0517827163 0.8429222851
755295470.0 -0.0027343099 -0.1131883342 0.0004644792 -6.98907e-05 0.0003708436 -0.0001093176 -0.0442911672 0.8437035344
760295440.0 -0.0043735121 -0.1130635121 0.0002134125 -0.0003561234 0.0003930195 -6.02221e-05 -0.0358562442 0.8440311768
765295410.0 -0.0056263604 -0.1129225615 0.0004780782 0.0001356708 0.0003166749 4.52855e-05 -0.0265588571 0.8446621626
770295380.0 -0.0070162209 -0.1123328738 0.0003791437 -0.0001081775 0.0003726682 -0.0001268017 -0.0188677768 0.8444000116
775295350.0 -0.0085289144 -0.1121668826 0.0003680287 -0.000129002 0.0001923064 -1.89313e-05 -0.0111364736 0.8444589811
780295320.0 -0.0099982894 -0.1119857814 0.0006521916 -0.000389354 0.0002957494 -8.08975e-05 -0.0023728477 0.8448233233
785295290.0 -0.011182653 -0.1115386265 0.0002932992 2.32282e-05 0.000356192 1.00813e-05 0.0057211112 0.8444337408
790295260.0 -0.0126741887 -0.111125352 0.0003695177 -0.0003456924 0.0002298473 2.2177e-06 0.0149565699 0.8447831669
795295230.0 -0.0140266978 -0.1104651012 0.0003666608 0.0001837524 0.0002115224 -0.0001817796 0.0227309039 0.8444309904
800295200.0 -0.0151498769 -0.1102466941 0.0006359107 -0.0001266213 0.0004590577 -0.0001533213 0.030914421 0.8436853694
805295170.0 -0.0165553674 -0.1099136764 0.0003177058 -8.33439e-05 0.0004436259 -0.0001060975 0.039080129 0.8431096359
810295140.0 -0.0176192644 -0.1092640891 0.0003576822 -6.13426e-05 0.0002878357 4.0518e-05 0.0475258542 0.8436612877
815295110.0 -0.0193531814 -0.1088998165 0.0005107772 -6.66857e-05 0.0004987235 -0.000101973 0.0556685954 0.8431244968
820295080.0 -0.0206770098 -0.108495919 0.0005047417 -2.68744e-05 0.0001467431 -0.0001881048 0.0637077649 0.8422007618
825295050.0 -0.0218077314 -0.1079204545 0.0002048617 -0.0001395399 0.0005741391 -7.32035e-05 0.0723301867 0.841766688
830295020.0 -0.0232954816 -0.1073065065 0.0003621809 -0.0002835952 0.0005744342 -0.0001147941 0.08046131 0.8406650837
835294990.0 -0.0246657928 -0.1067644327 0.000351071 -0.0002486626 0.0003151819 9.02943e-05 0.0890285301 0.8398442215
840294960.0 -0.0258990892 -0.1064930379 0.00038019 -0.0001004493 0.0006176643 -4.58069e-05 0.0970996109 0.8393018033
845294930.0 -0.02716689 -0.1059156429 0.0003832439 8.12506e-05 0.0003518553 -0.0001439996 0.1050563652 0.8379144061
850294900.0 -0.0284582934 -0.105228403 9.90883e-05 -0.00015239 0.0004941619 -0.0002570751 0.1131757669 0.837028795
