!Created with skrf (http://scikit-rf.org).
# Hz S RI R 50.0 
!freq ReS11 ImS11 ReS21 ImS21 ReS12 ImS12 ReS22 ImS22
300000.0 -0.7743477878 -0.1404439478 -0.0005355807 0.0022668517 -0.0004909375 0.0006168902 -0.0476714232 -0.0669515235
5299970.0 -0.7853803994 -0.007712349 -3.7782e-06 7.28711e-05 -3.71087e-05 6.55582e-05 -0.0496294803 0.0144866659
10299940.0 -0.7876733825 -0.0041187307 -0.0002056099 0.0001323801 -0.0001377378 3.31504e-05 -0.0439410633 0.032267797
15299910.0 -0.7936106745 -0.0015072404 -1.25241e-05 0.0001063691 8.61089e-05 -7.28587e-05 -0.0355861199 0.0465554627
20299880.0 -0.7994985066 0.0025458819 0.0002741203 -0.0001010823 -7.85174e-05 -3.93549e-05 -0.0260964005 0.058581333
25299850.0 -0.8063607163 0.0082083996 4.60678e-05 5.34365e-05 -0.0001965775 -0.0001700232 -0.0153397357 0.0678466936
30299820.0 -0.8117904873 0.0162901981 -6.32391e-05 0.0001805976 -8.02457e-05 0.0001005603 -0.0038748034 0.0748371606
35299790.0 -0.816671747 0.0252454646 -0.0001008974 -1.5874e-05 5.56073e-05 -2.47549e-05 0.0078044757 0.0793338784
40299760.0 -0.8208395937 0.0344032044 -5.7242e-05 0.0001187938 -1.051e-07 2.53069e-05 0.018555712 0.0824056607
45299730.0 -0.8250576541 0.0444448198 -4.58734e-05 -2.1055e-05 -0.0001917352 7.1761e-05 0.0294270853 0.0838518508
50299700.0 -0.8262887916 0.0539601883 -8.46029e-05 -1.75567e-05 3.02598e-05 6.37687e-05 0.0394410373 0.0839396087
55299670.0 -0.8285077494 0.0640568596 0.0001048543 2.6737e-05 0.0001977084 -5.95024e-05 0.048358547 0.0833038484
60299640.0 -0.8300084182 0.0746282307 0.0001210538 0.000112133 -4.76739e-05 2.23783e-05 0.0570701283 0.0815664927
65299610.0 -0.8309714213 0.0846216702 0.0002387773 5.70918e-05 9.63147e-05 -4.78488e-05 0.0644734604 0.0795423902
70299580.0 -0.8308830747 0.095121346 0.0001790844 2.43954e-05 0.0001859563 -2.05732e-05 0.0717649963 0.0764809689
75299550.0 -0.8314212562 0.1049589349 -3.41055e-05 0.0002044673 -0.0001197248 -5.59393e-05 0.0782501287 0.0734353915
80299520.0 -0.8309329082 0.1143741394 0.000122632 -0.0001305038 0.0001196344 0.0001170852 0.0834387844 0.0701663995
85299490.0 -0.8307063499 0.1241534546 -5.53776e-05 3.64873e-05 5.46011e-05 7.90028e-05 0.0883470979 0.0666239001
90299460.0 -0.8296911247 0.1340529453 -8.98237e-05 0.0001338828 -1.82119e-05 -4.51659e-05 0.0935917517 0.0625794629
95299430.0 -0.8287256041 0.1431876157 0.0001060211 0.0001542473 -9.23252e-05 0.0001005968 0.0976116843 0.0592294842
100299400.0 -0.8275994975 0.1531820777 -0.0001591688 4.43531e-05 -0.0001456525 0.0002384296 0.1012296106 0.0552210854
105299370.0 -0.8263173437 0.1618760938 0.0001383278 4.98382e-05 0.0002294559 -3.52861e-05 0.1046081001 0.0513670323
110299340.0 -0.8250609941 0.1709038927 0.0001332707 5.6719e-06 0.0003843898 5.71618e-05 0.1072261862 0.0477180066
115299310.0 -0.8237197856 0.1802299386 0.0002126365 -9.25097e-05 6.4566e-06 -3.98109e-05 0.1101549775 0.0437224063
120299280.0 -0.8218261999 0.1896419508 4.90638e-05 0.0001180362 0.0001205584 0.000189078 0.1123290439 0.0400132877
125299250.0 -0.8204996976 0.1983762406 0.0002147222 0.0001301241 0.0001797613 9.65736e-05 0.1144160242 0.0359645669
130299220.0 -0.8183046366 0.2078871436 0.000245578 -7.91486e-05 1.30702e-05 0.0001059805 0.1159166557 0.0327639207
135299190.0 -0.8165121868 0.2168451872 -0.0002048777 5.39904e-05 -0.000156503 0.0001563898 0.1174397988 0.0288017574
140299160.0 -0.8150641098 0.2255123225 -1.50891e-05 4.2141e-06 -1.30002e-05 -1.5591e-05 0.1188325733 0.025444809
145299130.0 -0.8123975258 0.2344121604 0.0001582282 0.0001329444 5.80637e-05 0.0002114684 0.1197815462 0.0219191762
150299100.0 -0.8102104647 0.2433922761 0.0001969219 0.000104997 2.34499e-05 0.0002023514 0.120777826 0.018648922
155299070.0 -0.807340985 0.2527656833 0.0001263525 0.0001788668 -0.0001121658 3.86981e-05 0.1216073354 0.0153333604
160299040.0 -0.8050121471 0.260644326 8.54902e-05 -7.55216e-05 8.03331e-05 0.0001039064 0.1227151503 0.011901878
165299010.0 -0.8018982676 0.2699009686 0.000346571 0.0001624908 0.0002592377 -9.1102e-06 0.1230069838 0.0089395031
170298980.0 -0.7994098523 0.2780028698 0.0001301616 1.826e-05 3.30357e-05 8.39174e-05 0.1237699143 0.0060729898
175298950.0 -0.7965909309 0.2868591526 2.21552e-05 0.0002253555 0.0001729004 1.59343e-05 0.1238685209 0.0027781792
180298920.0 -0.7934256789 0.2950020406 0.000200441 0.0002157085 0.0002475295 -0.0001088071 0.1244454986 0.0002514611
185298890.0 -0.7905652538 0.3041528286 0.0001436218 0.0002032753 4.0779e-05 8.22726e-05 0.1240833777 -0.0029558138
190298860.0 -0.7878001782 0.3122156349 -5.30047e-05 0.0001082072 -7.64592e-05 0.0001401672 0.1244565069 -0.005922238
195298830.0 -0.784309654 0.3207518371 4.87231e-05 0.0003120956 6.60877e-05 0.0002418858 0.1245504351 -0.0083196632
200298800.0 -0.7809174378 0.329371106 0.0002063297 7.29622e-05 6.16832e-05 9.2865e-05 0.1249700185 -0.0113604254
205298770.0 -0.7771148279 0.3369771511 0.0001807947 2.6583e-05 0.0001011903 0.0001427601 0.12443921 -0.013628894
210298740.0 -0.7734091191 0.3456725877 0.0002339172 9.66627e-05 0.0001243324 -1.6417e-06 0.1243893225 -0.0164792444
215298710.0 -0.7708063466 0.353997961 -4.00515e-05 6.01439e-05 -3.29692e-05 -6.82831e-05 0.1235189783 -0.0186976551
220298680.0 -0.7668530288 0.3624103649 0.0002895834 0.0002600882 5.7679e-06 0.0001776606 0.1235733056 -0.020936229
225298650.0 -0.7627643176 0.3706346788 0.0002843801 7.01626e-05 0.0002692946 9.81315e-05 0.1228067401 -0.0233346623
230298620.0 -0.7585948111 0.3786768338 0.0001744595 0.0001013643 -4.83947e-05 0.0002383193 0.1225662671 -0.0259027555
235298590.0 -0.7548732844 0.3863544222 0.0002971068 8.24462e-05 0.000205582 6.24603e-05 0.1221962861 -0.0283198349
240298560.0 -0.7508293533 0.394942812 0.0001499441 0.0001184165 -2.17686e-05 9.22148e-05 0.1217317525 -0.0301031109
245298530.0 -0.7459149249 0.4027061278 0.0004080206 0.0003036707 8.55636e-05 0.000207329 0.1210392181 -0.0324840663
250298500.0 -0.7423213297 0.4102601357 0.0002235008 0.0001448736 4.4362e-06 1.56483e-05 0.1210884198 -0.0342693052
255298470.0 -0.7378492881 0.418447555 0.0003826442 0.0002419569 0.0001251545 -3.89906e-05 0.120161602 -0.0367564606
260298440.0 -0.7341234416 0.4260901928 0.0001592252 1.5928e-05 3.25218e-05 0.0002236856 0.1194836683 -0.0386513092
265298410.0 -0.7292826053 0.4335581233 -9.46712e-05 3.72282e-05 0.0001887505 0.0001075354 0.1189969921 -0.0405282538
270298380.0 -0.7241255272 0.4414993382 0.0001069515 -0.0001002984 7.0493e-05 0.0001650508 0.1183884475 -0.0426786784
275298350.0 -0.7191637438 0.4490768002 0.0002472462 0.0001418056 0.0003113062 0.0003219882 0.1177067774 -0.0443968837
280298320.0 -0.715020974 0.4566239953 0.000162436 2.22221e-05 0.0002106272 7.7552e-05 0.1168999231 -0.0463427449
285298290.0 -0.7108449734 0.4646542834 0.0002207158 -0.0002132992 0.0001553452 -3.64671e-05 0.1162206334 -0.0480505412
290298260.0 -0.7056681668 0.4716701055 0.0004857228 0.0001308127 6.61304e-05 0.0002401716 0.1154915504 -0.0499605829
295298230.0 -0.7005694612 0.4792212631 0.0002015117 -2.32586e-05 1.47204e-05 0.0001010463 0.1146897748 -0.0516844302
300298200.0 -0.6950774533 0.486716288 0.000218399 0.0003142331 0.000192224 0.0003157308 0.1138866192 -0.0530423944
305298170.0 -0.6900379401 0.4942002978 0.0004085917 2.70912e-05 0.0001999516 8.36923e-05 0.1134474282 -0.0550088131
310298140.0 -0.6849872701 0.500758766 0.0001828696 -1.6204e-05 0.0003455838 0.0002196963 0.1125034064 -0.0565030408
315298110.0 -0.6791253918 0.5079152079 1.71269e-05 0.0002263698 0.0002132494 0.0003507764 0.1115932105 -0.0583369271
320298080.0 -0.6739537886 0.5157970947 0.0002480572 0.0003649635 0.0001386027 -3.09157e-05 0.1108851012 -0.0602002674
325298050.0 -0.6684430127 0.5220507792 0.0001306819 0.0001214316 0.0002837348 0.0001795629 0.1097788226 -0.062023427
330298020.0 -0.662547394 0.5294181503 0.0003401155 0.0002483443 0.0001718623 0.0002229766 0.1083644944 -0.0642041201
335297990.0 -0.6569296662 0.5359721297 0.0001769829 0.0002341145 0.0002124574 2.79232e-05 0.1072535474 -0.0653543668
340297960.0 -0.6521183217 0.5426720994 0.0002611349 6.06948e-05 0.0002942717 0.0002224371 0.10627378 -0.0666902773
345297930.0 -0.6464236429 0.5489392311 0.0003188236 0.0002513646 0.0001721144 0.0001676464 0.1051501886 -0.0682075175
350297900.0 -0.6404481029 0.5562582223 0.0003662979 0.0001044937 -3.4238e-06 0.0002169119 0.1039289537 -0.0692734637
355297870.0 -0.6346821291 0.5627081852 0.0001913138 0.0002379091 0.000136334 0.0002079659 0.1027360341 -0.0706507676
360297840.0 -0.6287622728 0.5690201442 0.0002706551 0.0001916073 0.0001367624 0.0001395237 0.1014506739 -0.0717956492
365297810.0 -0.6223736924 0.5755978767 0.0004053278 0.0002675625 0.0002352198 0.0001892737 0.1002384003 -0.07283645
370297780.0 -0.6159701116 0.5817669916 0.0002248526 -0.0001534832 0.0002314267 0.0001301972 0.0992086012 -0.0742660921
375297750.0 -0.6101342179 0.588502745 0.0005169164 0.0002455222 0.0001373708 0.0002223546 0.0982055686 -0.0752170715
380297720.0 -0.603481597 0.5946252086 0.0001862555 0.000123881 0.0001929614 0.0001502806 0.0971808764 -0.0763524006
385297690.0 -0.598018173 0.6008646269 -0.0001690243 0.000298411 0.0002295037 3.93046e-05 0.0957263563 -0.0769695812
390297660.0 -0.5910505456 0.6072523978 0.0002097977 0.0001239236 0.0003399705 1.0818e-06 0.0946613712 -0.0785192075
395297630.0 -0.5852018902 0.6138261079 0.0001778912 0.0001940916 0.0002109396 -7.33039e-05 0.0932851866 -0.0795622481
400297600.0 -0.5785465693 0.6197534559 0.0002598042 0.0002842432 0.0001317951 0.0002114539 0.0919021732 -0.0808369704
405297570.0 -0.5723591126 0.6250003368 -7.04678e-05 3.64045e-05 0.0001285084 7.61662e-05 0.0908773639 -0.0815405441
410297540.0 -0.5655811569 0.630988869 0.000217041 -2.56175e-05 0.0001788549 0.0001504595 0.089648399 -0.0825054387
415297510.0 -0.5588744681 0.636682599 0.00041022 -6.72472e-05 0.0003089721 -1.65124e-05 0.0881020995 -0.0835434234
420297480.0 -0.5522054821 0.6422560515 0.000552979 0.0002072814 0.0002618114 9.8165e-05 0.0870244612 -0.0845966061
425297450.0 -0.5452240233 0.6479266282 0.0002503902 0.0002213706 0.0003055607 -4.70888e-05 0.0859529586 -0.0857856512
430297420.0 -0.5394097176 0.6529844641 0.0002613478 4.39177e-05 2.05617e-05 6.69416e-05 0.0844427761 -0.0862989251
435297390.0 -0.5323939541 0.6587001199 0.0002163018 0.0001489357 0.0003398898 0.0001571196 0.0833898855 -0.0871363577
440297360.0 -0.5254581416 0.6637837452 8.0999e-05 0.0001169424 0.0001714799 4.43567e-05 0.0817851845 -0.0881871302
445297330.0 -0.5183449348 0.6695742624 0.0003526898 9.16533e-05 0.0001854615 0.0002002388 0.0806814195 -0.0892094855
450297300.0 -0.5113178052 0.6744142218 0.0002072956 0.0001041001 5.8788e-06 0.0001971276 0.0791621877 -0.0898043341
455297270.0 -0.5046124307 0.6800405832 0.0001826089 0.0002662002 3.68624e-05 0.0001594059 0.0781256404 -0.0905908321
460297240.0 -0.4973715358 0.6855201847 0.0001074488 0.0002666505 0.000236186 0.0001870947 0.0769183337 -0.091205773
465297210.0 -0.4900156287 0.6903601404 0.0003743729 -1.98125e-05 0.000218667 0.0001820603 0.0751189026 -0.0923554899
470297180.0 -0.4826048352 0.6949421687 0.0003021117 -0.0001658336 0.000299434 0.0001438534 0.0733767904 -0.0928224043
475297150.0 -0.475700899 0.699971008 0.0002615267 0.0001241694 0.0003316554 0.0001224798 0.0724757326 -0.0936360469
480297120.0 -0.4685442989 0.7047108973 0.0003605521 0.0002674647 0.0001972441 9.38826e-05 0.0713167532 -0.0944252071
485297090.0 -0.4616664783 0.7092132247 0.000410685 0.0001949809 0.0002517599 0.0002050057 0.069489096 -0.0949930545
490297060.0 -0.4541458623 0.7143286061 0.0003371895 0.0001409883 0.0001974784 7.1424e-05 0.0681937663 -0.0955546857
495297030.0 -0.4470432892 0.7187822175 0.0004229783 -8.62488e-05 0.0002082529 2.83755e-05 0.0667275742 -0.0969260558
500297000.0 -0.4386204672 0.7233026887 0.0001588233 0.0001833872 0.0003775821 0.000217974 0.0653473784 -0.0970731875
505296970.0 -0.4316028548 0.7271405023 0.0003310429 -0.0001351512 0.0001795959 2.63005e-05 0.0636495162 -0.0975912376
510296940.0 -0.4239840886 0.7316522097 0.0002174456 0.0002789027 0.0001448919 2.36066e-05 0.0623372508 -0.0980647127
515296910.0 -0.417099232 0.7361967044 0.0004541197 0.0002453668 0.0001871814 5.91071e-05 0.061341894 -0.0984388104
520296880.0 -0.4091750584 0.7404512554 0.0003890667 -2.58081e-05 0.0002972539 0.0001341678 0.0599781301 -0.0994914648
525296850.0 -0.401621421 0.7446311522 0.0001756966 1.8293e-06 0.0002818082 0.0001033096 0.0584953117 -0.0998593749
530296820.0 -0.3941630722 0.7483234105 0.0004395313 0.000143397 0.0002489735 2.51146e-05 0.0567451897 -0.1004397118
535296790.0 -0.3864513202 0.7524555302 0.0003198314 0.0001744808 0.000324173 8.50803e-05 0.055114124 -0.1012282112
540296760.0 -0.378527783 0.7559145247 0.0001530317 -1.96173e-05 0.00039952 0.0001509752 0.0539130055 -0.101346314
545296730.0 -0.3713129214 0.7594547919 0.0002740407 0.0001932128 0.0002772156 0.0001045424 0.0523446897 -0.1020372458
550296700.0 -0.3630174222 0.7639128495 0.0001971223 -4.05077e-05 0.000286014 -0.0001252282 0.0509321861 -0.1027270769
555296670.0 -0.3549346214 0.7668816536 8.94224e-05 5.37436e-05 0.0002586986 -6.42116e-05 0.0491724295 -0.1027060808
560296640.0 -0.3472648923 0.7706144646 0.0002971223 0.0002078845 0.0003432597 4.64176e-05 0.0480158725 -0.1034735426
565296610.0 -0.3399365968 0.7743058003 7.40805e-05 0.0002113912 0.0003613554 9.83331e-05 0.0463646968 -0.1036432784
570296580.0 -0.3317936641 0.7773521796 0.0003341926 5.9437e-06 0.0002366844 6.0007e-06 0.04482899 -0.1038476168
575296550.0 -0.3240459823 0.7801629566 0.0003579607 -2.08064e-05 0.0001835059 -5.9029e-05 0.0435646593 -0.1041659919
580296520.0 -0.3159010698 0.7838840344 0.0003524131 0.0001787388 0.0002397018 0.0001674324 0.0420589316 -0.104746421
585296490.0 -0.30755924 0.7863968345 0.0002796488 -8.6765e-06 0.0002773701 3.74228e-05 0.0404480191 -0.1053058266
590296460.0 -0.2998281973 0.789633107 0.0002880795 7.70279e-05 0.0003486769 0.0002070328 0.0391862057 -0.1055930829
595296430.0 -0.2914673789 0.7932462921 0.0002605498 1.30467e-05 0.0003223457 2.38131e-05 0.0375652143 -0.1059672581
600296400.0 -0.2832323267 0.7954402106 0.0004511691 -1.90647e-05 0.0002216606 6.3053e-06 0.0364506783 -0.1058986826
605296370.0 -0.2751973415 0.7989584977 0.0001910898 8.48099e-05 0.0004822115 4.48491e-05 0.0348263163 -0.1063203666
610296340.0 -0.2676930111 0.8013481051 0.0002637868 8.76891e-05 0.0004046987 -8.85599e-05 0.0330982993 -0.106343857
615296310.0 -0.2595646572 0.8044261263 0.0002658075 2.94274e-05 0.0004180626 0.0001481732 0.0317848905 -0.1070756445
620296280.0 -0.2509926962 0.8058007432 0.0003399853 -2.98531e-05 0.0004146754 -0.0001315732 0.0301574019 -0.1073406216
625296250.0 -0.2426963677 0.8089990854 0.0001974763 -8.791e-06 0.0004192801 5.67972e-05 0.0288680065 -0.1071091742
630296220.0 -0.2340454089 0.8118201853 0.0003829955 8.08688e-05 0.000150139 0.000208075 0.0272411502 -0.1072485107
635296190.0 -0.226430491 0.8139327323 0.0004140288 -5.73295e-05 0.0006455025 -0.0002978189 0.0256679592 -0.1074800845
640296160.0 -0.2180942014 0.8149633094 0.0004646226 0.0001066653 0.0003521006 -0.0002847387 0.0242708032 -0.1077955544
645296130.0 -0.209541303 0.8180518407 0.0003907799 4.08492e-05 0.0003334649 4.12346e-05 0.022715237 -0.1077467306
650296100.0 -0.2015127345 0.8201225751 0.0003105397 7.61614e-05 0.000347423 -9.19808e-05 0.0213566354 -0.1074546919
655296070.0 -0.1930635585 0.822319221 0.0002220149 0.0001982699 0.0002717077 1.4907e-05 0.0200088148 -0.1077340815
660296040.0 -0.184837553 0.8240023934 0.0004494698 0.0001113624 0.0002944967 5.2382e-06 0.0183437679 -0.1078182307
665296010.0 -0.1767408223 0.8256795889 0.0002056324 0.0001319063 0.0003082396 8.1973e-05 0.0167605112 -0.1077803329
670295980.0 -0.168117804 0.8272184873 0.0004986411 -8.09916e-05 0.0001783806 7.9858e-05 0.0155154389 -0.1077478206
675295950.0 -0.1598361002 0.8284140183 0.0003932644 -0.000180969 0.0004456688 -0.0001181273 0.0140885944 -0.1076098364
680295920.0 -0.1519394608 0.8307216783 0.0003352721 8.49677e-05 0.0002151175 -0.0001750369 0.0122720853 -0.1079469497
685295890.0 -0.1427305902 0.8318320063 0.0004847595 0.0001748125 0.0005126406 0.000186502 0.0113266242 -0.1076875544
690295860.0 -0.134428712 0.8335680828 0.000364597 1.44407e-05 0.0002704333 -3.09738e-05 0.0099535326 -0.1075154078
695295830.0 -0.1260197098 0.833866323 0.0005186536 -5.00438e-05 0.000567545 -0.0002815114 0.0083852972 -0.1076345658
700295800.0 -0.1177335092 0.8353836729 0.0004187174 4.77192e-05 0.0003325635 -0.0001062205 0.0068266292 -0.10768131
705295770.0 -0.1090684618 0.8371305632 0.0004699203 5.13668e-05 0.0001972221 -7.9452e-05 0.0051524526 -0.1070300454
710295740.0 -0.101310558 0.8380712378 0.0003758611 -8.82743e-05 0.0005384611 -8.2463e-05 0.0036318522 -0.1068207091
715295710.0 -0.0930780375 0.8392610456 0.0002065725 -7.65488e-05 0.0002474652 -0.0002370377 0.0023654272 -0.106906179
720295680.0 -0.0845743157 0.8397121572 0.0003497665 0.0001132598 0.0002447324 -2.44959e-05 0.0013232331 -0.1066682271
725295650.0 -0.0745409262 0.840762176 0.0002256932 -6.4243e-05 0.0002653581 4.10928e-05 -0.0002950595 -0.106390133
730295620.0 -0.0676008786 0.84088647 0.0004830987 0.0001084211 0.0004075133 -0.0001231676 -0.0015811444 -0.1064084273
735295590.0 -0.0583618588 0.8418346817 0.0002980947 0.0001386567 0.0003984797 -0.0001169103 -0.0029146018 -0.1060299027
740295560.0 -0.0497651937 0.8426111677 0.0004806407 -0.0003768649 0.0003609716 -9.19813e-05 -0.0046581311 -0.1059075179
745295530.0 -0.0418616195 0.8425306407 0.0004758778 -8.36092e-05 0.0003885597 -5.29498e-05 -0.0062153708 -0.1053708744
750295500.0 -0.0336511298 0.8427717356 0.0004527043 -6.24193e-05 0.0003300823 -3.33074e-05 -0.0074344343 -0.105610643
755295470.0 -0.0246204689 0.8430066379 0.0004550906 -8.88138e-05 0.000329426 -4.59403e-05 -0.0089282132 -0.1047820352
760295440.0 -0.0165226866 0.843796996 0.0004889531 -0.0001735539 0.0001530715 -9.1638e-05 -0.0106544975 -0.1042543339
765295410.0 -0.0083418758 0.8438448417 0.0002974028 -0.0001577531 0.0003935297 -0.0002371053 -0.0113284294 -0.1038944734
770295380.0 0.0004154517 0.8443958824 0.000366006 -8.92716e-05 0.0003477131 -8.06492e-05 -0.0127459336 -0.1035692324
775295350.0 0.0083836113 0.8437069688 0.0004335454 -0.0002795606 0.0004889076 -3.22232e-05 -0.0147979033 -0.1037401088
780295320.0 0.0177509264 0.8431824099 0.0003224992 -6.69243e-05 0.0002942397 0.0001396059 -0.0156583018 -0.1028354125
785295290.0 0.026166242 0.8438200802 0.0003989786 -0.0002242966 0.000371749 4.61529e-05 -0.017289984 -0.1026582437
790295260.0 0.0344330266 0.8428103981 0.0004412471 -0.0001320825 0.0003899801 -0.0001253422 -0.0183703935 -0.1023436809
795295230.0 0.0426099958 0.8434809006 0.0005452125 -4.8122e-05 0.000411492 -5.22212e-05 -0.0196246061 -0.1016080846
800295200.0 0.0516051083 0.8424771376 0.00049131 -1.26213e-05 0.0004197541 -9.44688e-05 -0.0212155067 -0.1010674523
805295170.0 0.0599810182 0.8415791398 0.0004040143 -0.0001913894 0.0003476366 -9.46447e-05 -0.0226374989 -0.1007259261
810295140.0 0.0682019166 0.8411341501 0.0004735748 -0.0001166773 0.0004892342 -6.36377e-05 -0.0236349441 -0.0999018704
815295110.0 0.0766235565 0.8398246909 0.0003320739 -5.63472e-05 0.0002511732 -0.0002038022 -0.0252097809 -0.0995820691
820295080.0 0.0853791193 0.8392176294 0.0003061479 -5.05342e-05 0.000469303 4.93647e-05 -0.0264789149 -0.0988359545
825295050.0 0.0936044474 0.8384257196 0.0004597107 -0.0001644521 0.0003265905 -0.0001045412 -0.0276946539 -0.0986802142
830295020.0 0.1023914476 0.8376846773 0.0005455766 -0.0001627347 0.0005382893 -5.55514e-05 -0.029204071 -0.0976674096
835294990.0 0.1093528706 0.8366016836 0.0004339316 5.32727e-05 0.0004719214 -9.84231e-05 -0.030348234 -0.0971586719
840294960.0 0.1185362347 0.8352958368 0.0006083384 -0.0002086623 0.000332835 -0.0001588833 -0.0316242935 -0.0962571198
845294930.0 0.126801764 0.8346145009 0.0003240302 -7.75089e-05 0.0004379608 -7.32654e-05 -0.0328918252 -0.0956408473
