!Created with skrf (http://scikit-rf.org).
# Hz S RI R 50.0 
!freq ReS11 ImS11 ReS21 ImS21 ReS12 ImS12 ReS22 ImS22
300000.0 -0.3186419662 -0.1041244816 0.3728150604 0.0546128974 0.3739082825 0.0575290902 -0.3178089594 -0.1161028324
5299970.0 -0.3241719029 0.0047750822 0.378689067 0.0026710766 0.3785142104 0.0033606249 -0.3260356486 0.0027896605
10299940.0 -0.3208039371 0.0156122534 0.3797472614 0.0022823151 0.3796584912 0.0025242346 -0.3241791431 0.0127769277
15299910.0 -0.3182062912 0.0235490253 0.382040454 0.0021034779 0.3821433107 0.0022510978 -0.3213615477 0.020082189
20299880.0 -0.3143393667 0.0300803815 0.3851498086 0.0015526964 0.3851857568 0.0016650659 -0.3185848206 0.0261978973
25299850.0 -0.3106551841 0.035910766 0.3884128695 -0.0001308701 0.3885103373 -0.0002636431 -0.3157442208 0.0310913967
30299820.0 -0.3068139159 0.0405157216 0.3921270522 -0.002167795 0.3917771906 -0.0022424235 -0.3130542092 0.0355269993
35299790.0 -0.3030220131 0.0445834741 0.3952455955 -0.0050351178 0.3952636847 -0.0050667779 -0.3098843933 0.0393779704
40299760.0 -0.2993707485 0.0480313188 0.3983164146 -0.0085966053 0.3984366245 -0.0089934962 -0.307095982 0.04304908
45299730.0 -0.2963499122 0.0516749778 0.4011709415 -0.0127056642 0.4011817518 -0.0127256543 -0.3046351483 0.0459714891
50299700.0 -0.2934633709 0.0543382748 0.4035689003 -0.0173792662 0.4039036138 -0.0173089671 -0.3022922992 0.0489895355
55299670.0 -0.2907364207 0.0570435204 0.4053694472 -0.0218928977 0.4058838704 -0.021842648 -0.3002657139 0.0519149902
60299640.0 -0.2882537309 0.0589834729 0.4074941122 -0.0270878879 0.4078336842 -0.0268392089 -0.2980591793 0.054678978
65299610.0 -0.2860444325 0.0614991714 0.4094136127 -0.031485047 0.4093022438 -0.0316783995 -0.2961574945 0.0570880625
70299580.0 -0.2838732173 0.0635466288 0.4106080294 -0.0367993845 0.4106014081 -0.0369432128 -0.2946269447 0.0595986695
75299550.0 -0.2817452574 0.0657978734 0.4112915724 -0.0422770865 0.4117432225 -0.042135763 -0.2930872666 0.0620603885
80299520.0 -0.2803263001 0.0679837443 0.4125429391 -0.0472720293 0.4124619102 -0.0474872528 -0.291394656 0.0641868487
85299490.0 -0.2785056794 0.0697975264 0.4128613938 -0.0524844371 0.4131911371 -0.0526515273 -0.290513371 0.0662492988
90299460.0 -0.2772765219 0.0719352883 0.4133320732 -0.0578501262 0.413719654 -0.0579419502 -0.2886709641 0.0688146523
95299430.0 -0.2756572078 0.074402158 0.4139760136 -0.0635367271 0.4137575524 -0.0632622514 -0.2875729889 0.0712598679
100299400.0 -0.2745230397 0.076402535 0.4138441377 -0.0683066343 0.4138965095 -0.0683194869 -0.286741328 0.0733427268
105299370.0 -0.2730575966 0.0783222235 0.4134252414 -0.0732046226 0.4135157093 -0.0736824679 -0.2848258399 0.0756093051
110299340.0 -0.2720476356 0.0804863733 0.4132410883 -0.0785831836 0.4137178973 -0.0789269327 -0.2844311783 0.0782978588
115299310.0 -0.2707245054 0.0824274218 0.4131626522 -0.0834675263 0.4133866416 -0.0836465266 -0.2834386495 0.0801997799
120299280.0 -0.2697937975 0.0846949611 0.4129483071 -0.0889738349 0.4131367064 -0.0889362892 -0.2824126487 0.0825329336
125299250.0 -0.2688312437 0.0867155188 0.4121719564 -0.0938815472 0.4125777593 -0.094140993 -0.2813770268 0.0847965513
130299220.0 -0.267547493 0.0892022239 0.4116287555 -0.0988058285 0.4117006427 -0.0993279067 -0.2805739662 0.087537929
135299190.0 -0.2665806152 0.0911239905 0.4109265293 -0.1036143299 0.4105055828 -0.1041793729 -0.279592044 0.0897545806
140299160.0 -0.2657984305 0.093819702 0.4102412233 -0.109230684 0.4104418255 -0.1091557976 -0.2785157332 0.0922894527
145299130.0 -0.2646581278 0.095751833 0.4092149335 -0.1139164071 0.4090887542 -0.1137696498 -0.2780039671 0.0942780552
150299100.0 -0.2637825227 0.0981894201 0.4081248664 -0.1192559576 0.4081491083 -0.1192134665 -0.2770497986 0.0966939789
155299070.0 -0.2630587882 0.1009195619 0.4072574767 -0.1241669126 0.4071622485 -0.1241654109 -0.2761024815 0.0995110131
160299040.0 -0.2618066844 0.1031273218 0.4056191456 -0.1289220961 0.4061398219 -0.1289085256 -0.275019979 0.1025304813
165299010.0 -0.2610494038 0.1054328597 0.4047880313 -0.1336279895 0.4046891231 -0.1336611738 -0.274074721 0.10443927
170298980.0 -0.2604433292 0.1077686729 0.402944209 -0.1387184018 0.4030500461 -0.1386166497 -0.2730180572 0.1071451159
175298950.0 -0.2590586042 0.1105365614 0.4021660108 -0.1430959365 0.4021185745 -0.1432776038 -0.2721467008 0.1098559478
180298920.0 -0.2578996599 0.1127323294 0.400785219 -0.1480441258 0.4003755549 -0.1480193762 -0.2707236242 0.1122705039
185298890.0 -0.256990654 0.1151273817 0.3986604026 -0.1527146917 0.3991303934 -0.1524690162 -0.270374912 0.1144442356
190298860.0 -0.2559193588 0.1178745382 0.3970732762 -0.1573629137 0.397370548 -0.1574656757 -0.2687956814 0.1174749839
195298830.0 -0.2548979564 0.1202277731 0.3956758751 -0.1616743581 0.395687415 -0.1621313195 -0.2680015291 0.1199691772
200298800.0 -0.2536901515 0.1228817738 0.3939634557 -0.1661224596 0.3939400473 -0.1666493477 -0.2667975351 0.1231483214
205298770.0 -0.2528208007 0.1253714891 0.3924554389 -0.1713520419 0.3924713056 -0.171165016 -0.2658463265 0.1253056751
210298740.0 -0.2513364221 0.1278282237 0.3903033731 -0.1759031196 0.3907137735 -0.1758014088 -0.2643653916 0.1280611396
215298710.0 -0.2505217824 0.13033512 0.388636051 -0.1800099122 0.3884581397 -0.1799959706 -0.2637458926 0.1306962427
220298680.0 -0.2489415647 0.1327950563 0.3860842344 -0.1848204106 0.3866783014 -0.184766143 -0.2622389304 0.1335111828
225298650.0 -0.2476414166 0.1356701509 0.3843150976 -0.1888497783 0.3845628365 -0.1885899539 -0.2613214615 0.1362214872
230298620.0 -0.2466824794 0.1382978299 0.3825394929 -0.1935607911 0.3827307589 -0.1937909324 -0.2595783361 0.1388303051
235298590.0 -0.2453326404 0.1406795959 0.3803909782 -0.1977213592 0.3806111601 -0.1982635719 -0.2583605883 0.1414900265
240298560.0 -0.2440625537 0.1434499775 0.3783704082 -0.2020235503 0.378420602 -0.2018721912 -0.2572394464 0.1444196525
245298530.0 -0.2428375204 0.1459788988 0.3759613601 -0.2066805964 0.3758884952 -0.2067538239 -0.2554370975 0.1471171966
250298500.0 -0.2414005145 0.1484215955 0.3736238454 -0.2103999997 0.3739525878 -0.2104327673 -0.2540407817 0.1499109631
255298470.0 -0.2399995874 0.1510385688 0.3712704365 -0.2151689468 0.3712523601 -0.2149522818 -0.2525443356 0.1523827911
260298440.0 -0.2384192747 0.1536658826 0.3691285983 -0.2194814183 0.3688369628 -0.2191596068 -0.2510129528 0.1551636643
265298410.0 -0.2368961918 0.1564181308 0.3665653816 -0.2239525505 0.3664932895 -0.2233175749 -0.2495754243 0.1575761221
270298380.0 -0.2354852376 0.1585762074 0.3640048175 -0.2276224653 0.3640873585 -0.2275565021 -0.2479583507 0.1606910789
275298350.0 -0.2340485037 0.1612309981 0.3616681926 -0.2320617717 0.3618650133 -0.2318364717 -0.2464179077 0.1632218233
280298320.0 -0.2325946236 0.1639289413 0.359149673 -0.2355947652 0.3590454214 -0.2360943371 -0.2444023785 0.1658032147
285298290.0 -0.2309424904 0.1667006181 0.3562767184 -0.2400830094 0.3567123941 -0.2400284511 -0.2431243276 0.1685246349
290298260.0 -0.229563799 0.1690493514 0.3538135223 -0.2441059109 0.3538878296 -0.2437325274 -0.2411095739 0.1712258476
295298230.0 -0.227703658 0.1713563963 0.3515938949 -0.2477480802 0.3510530521 -0.2479172619 -0.2397445744 0.1738093643
300298200.0 -0.2257434574 0.1736340059 0.3483485071 -0.2519586637 0.3488829812 -0.2518704747 -0.2379915164 0.1766346337
305298170.0 -0.2237452981 0.1761713369 0.3457701918 -0.2560189888 0.3458327086 -0.2562332385 -0.2354500973 0.1792581985
310298140.0 -0.221948988 0.178317107 0.342989566 -0.2599325735 0.3429221083 -0.2599355829 -0.2339497489 0.182092044
315298110.0 -0.2204777175 0.1807950222 0.3402260913 -0.263900441 0.3402767308 -0.263919684 -0.232010542 0.1842024651
320298080.0 -0.2185934783 0.1836223975 0.3370809238 -0.2680690648 0.3373532709 -0.2679369696 -0.2303242547 0.1867735744
325298050.0 -0.2172068109 0.1854270315 0.3344465918 -0.2716284498 0.3341093478 -0.2717742542 -0.2283919632 0.1895902704
330298020.0 -0.2152616324 0.1881911478 0.3306010361 -0.2755734117 0.3309144243 -0.275431679 -0.2267144551 0.1917435736
335297990.0 -0.2132078744 0.1903849292 0.3276367884 -0.2790645191 0.327628307 -0.278904469 -0.2246455072 0.194239323
340297960.0 -0.2119133287 0.1927176188 0.3245882218 -0.2826042313 0.3246878592 -0.2826421649 -0.2226265793 0.196809652
345297930.0 -0.2100498655 0.1951810685 0.3211898497 -0.2860039559 0.321210212 -0.2861760227 -0.2205287312 0.1997340161
350297900.0 -0.2075801966 0.1976210895 0.3179933724 -0.2892708272 0.3184266362 -0.2898863498 -0.2185843669 0.2023466706
355297870.0 -0.2061813288 0.1999061652 0.3148946495 -0.2931034776 0.3145936983 -0.2932395369 -0.2168713881 0.2047087413
360297840.0 -0.2040552758 0.2021924953 0.311251284 -0.2968219425 0.3116076973 -0.2964411453 -0.2145799677 0.2071574465
365297810.0 -0.2017595156 0.2044262652 0.3079765122 -0.300022294 0.3082388756 -0.3000181188 -0.2125159991 0.2100546343
370297780.0 -0.1994031122 0.207028456 0.3045287301 -0.3032731079 0.304730254 -0.3038164059 -0.2103569585 0.2124683401
375297750.0 -0.1976773171 0.2090865286 0.3020571982 -0.3068238045 0.3013750088 -0.3068926921 -0.2083510491 0.2147028356
380297720.0 -0.1953872118 0.211366466 0.2979051832 -0.3098420847 0.2982086966 -0.3100300555 -0.2060296536 0.2174550485
385297690.0 -0.1929805314 0.2135905225 0.2940721881 -0.3132311148 0.2943638669 -0.3131109512 -0.2039747596 0.2198501268
390297660.0 -0.1912062357 0.2159678409 0.2910240903 -0.3165416768 0.2909338951 -0.3165928886 -0.2012801408 0.2217061682
395297630.0 -0.1886115591 0.217979287 0.2872895642 -0.3199034616 0.2873961127 -0.3196396786 -0.1992538294 0.2246552384
400297600.0 -0.1863822663 0.2202589518 0.283837184 -0.322769039 0.2844166788 -0.3227840994 -0.1973776865 0.2263422501
405297570.0 -0.1841533821 0.2222361604 0.2802608969 -0.3259268385 0.2806200455 -0.3261128942 -0.1949872751 0.2292299166
410297540.0 -0.1818208837 0.2243238848 0.2764130582 -0.3288845915 0.2765539013 -0.3289342859 -0.1922164745 0.2315607556
415297510.0 -0.1795455141 0.2266019057 0.2730189222 -0.3316802577 0.2731750874 -0.3319839896 -0.1901725447 0.2340243913
420297480.0 -0.1770478702 0.2285521488 0.2693518484 -0.3352278233 0.2693658063 -0.3349834015 -0.1876245378 0.2356587874
425297450.0 -0.1744364267 0.2304952862 0.2654464524 -0.3378083963 0.2659971009 -0.338151727 -0.1850426355 0.2384321427
430297420.0 -0.1723549443 0.2327889248 0.2620627269 -0.3408584209 0.2619907288 -0.34089232 -0.1828237253 0.2403655295
435297390.0 -0.1697107734 0.2343990952 0.2582335529 -0.3432232297 0.2582462369 -0.3433467721 -0.1803097706 0.2427223548
440297360.0 -0.1675383999 0.2363238719 0.2541343029 -0.3460761302 0.2539193526 -0.3463575942 -0.1774819672 0.244718245
445297330.0 -0.1648057102 0.2385436272 0.2502859667 -0.3492543679 0.2503545606 -0.3492220941 -0.1752306545 0.2464667526
450297300.0 -0.1622588723 0.2402065732 0.2464369446 -0.3518775557 0.246577104 -0.3519944303 -0.1730350316 0.2487286759
455297270.0 -0.1599972343 0.2422375846 0.2429101071 -0.3544809274 0.2429205718 -0.3543021236 -0.169963899 0.2509623285
460297240.0 -0.1575405879 0.2441141553 0.2388075982 -0.3568341165 0.2382574821 -0.3572694328 -0.1672249024 0.2533272149
465297210.0 -0.1545455939 0.2459168604 0.2348182516 -0.3595215039 0.2352086549 -0.3595453199 -0.1653123533 0.2548231349
470297180.0 -0.152238885 0.2477871099 0.2309079079 -0.3621827916 0.2313127209 -0.3618747765 -0.1629562789 0.2567112912
475297150.0 -0.1497119192 0.249291478 0.2269924611 -0.3643596554 0.2270117778 -0.3640989115 -0.1596023627 0.2582966584
480297120.0 -0.1469385441 0.2509368727 0.2228319168 -0.3668038673 0.2232630478 -0.3668531927 -0.1572669142 0.2606513067
485297090.0 -0.1441681249 0.2528261409 0.2188940877 -0.3695421522 0.2190829958 -0.369024214 -0.1545087202 0.2619958403
490297060.0 -0.1415135147 0.2543205826 0.2147771172 -0.3714545262 0.2148584205 -0.371657752 -0.1517225793 0.2642473089
495297030.0 -0.1393478481 0.2560143476 0.2106397203 -0.3738851884 0.2103420368 -0.3739793812 -0.1489831348 0.2657998459
500297000.0 -0.1363017279 0.2577931431 0.2065456684 -0.3760242284 0.2065997966 -0.3762119611 -0.1467010166 0.2674941326
505296970.0 -0.1333893296 0.2590339852 0.2021796667 -0.3777925683 0.2023343581 -0.378167607 -0.1439487829 0.2694626001
510296940.0 -0.1309999999 0.2607070077 0.1980861699 -0.3806813161 0.1983455701 -0.3804675007 -0.1408764577 0.2711795643
515296910.0 -0.1281938935 0.2626642832 0.194128475 -0.3823703186 0.1940858104 -0.3823536008 -0.1380515283 0.2727020133
520296880.0 -0.1254476646 0.2638803629 0.189640877 -0.384559891 0.1899298818 -0.3844145811 -0.1352014527 0.274248747
525296850.0 -0.1227237922 0.2650304836 0.185538227 -0.3863433599 0.1859280236 -0.3868273151 -0.1322182458 0.2762301975
530296820.0 -0.120104003 0.2665355122 0.1817589356 -0.3882067284 0.181314067 -0.3883194506 -0.1298433727 0.2777802545
535296790.0 -0.1169970118 0.2679065554 0.1773072883 -0.3901565394 0.1775686718 -0.3902069844 -0.1269761118 0.2790603824
540296760.0 -0.1143641961 0.2694007626 0.1732033827 -0.392541693 0.1729756585 -0.3925633468 -0.1242508851 0.2807661799
545296730.0 -0.1112688778 0.2709934029 0.1684127735 -0.393925865 0.1686806773 -0.3941990792 -0.1211749086 0.2820477327
550296700.0 -0.1088198085 0.2720648303 0.1643426656 -0.3958900545 0.1646606699 -0.3959619108 -0.1185525003 0.2835792214
555296670.0 -0.1055000329 0.2734726498 0.1599869314 -0.3976656758 0.159974123 -0.3976604904 -0.1154887805 0.2849824263
560296640.0 -0.1027659223 0.2747044975 0.1557109434 -0.3993083016 0.155647786 -0.3991048881 -0.1126737451 0.2862504601
565296610.0 -0.0997936214 0.2759808903 0.1509707945 -0.4008887163 0.1512713033 -0.4008822502 -0.1097962589 0.2877238273
570296580.0 -0.0969954092 0.2769687948 0.1465797485 -0.4023638098 0.1473596872 -0.402524474 -0.1067613774 0.2894239382
575296550.0 -0.0939998555 0.2783629651 0.1427915236 -0.4038560947 0.1425728344 -0.403945651 -0.1035294683 0.290409648
580296520.0 -0.0911702094 0.2792874897 0.1382747823 -0.4057332045 0.1381326916 -0.4055153055 -0.1007317097 0.2915694557
585296490.0 -0.0880685897 0.2800372445 0.1338659493 -0.4067918676 0.1338129778 -0.4070101173 -0.0977609032 0.29240342
590296460.0 -0.0852197649 0.2812587861 0.129251744 -0.4082575706 0.1290975902 -0.4087001089 -0.0944640046 0.2938381448
595296430.0 -0.0824346939 0.2824631522 0.1248874532 -0.4095261461 0.1250748928 -0.4096779535 -0.0914805623 0.2948330443
600296400.0 -0.0794141806 0.2836565497 0.1204964461 -0.4110903658 0.1204995586 -0.4109453787 -0.088483453 0.2961450881
605296370.0 -0.0763154631 0.2846719243 0.1160708445 -0.4125109792 0.115771124 -0.4121623718 -0.0853762605 0.2972699288
610296340.0 -0.0733557758 0.2852816808 0.1115569851 -0.4135641766 0.1115533844 -0.4136094348 -0.0821073656 0.2984489731
615296310.0 -0.070240308 0.2867494388 0.1069070621 -0.4144859368 0.107250986 -0.4146341393 -0.079423511 0.299138344
620296280.0 -0.0672714582 0.2869804448 0.1025008508 -0.4152427452 0.1026161788 -0.41553964 -0.0764971667 0.3000547067
625296250.0 -0.0641875536 0.2879760232 0.0977710407 -0.4166596437 0.0978422228 -0.4168960071 -0.0733030695 0.3008828307
630296220.0 -0.0610748595 0.2890215212 0.0935188146 -0.4177682254 0.0937516477 -0.4178707005 -0.0699501899 0.3022773363
635296190.0 -0.0580812484 0.2901948066 0.0889046995 -0.4183784876 0.0887977439 -0.4183125953 -0.0674616738 0.3029076249
640296160.0 -0.0549673051 0.2901727498 0.0840312796 -0.4195252199 0.0840205675 -0.4193921775 -0.0633812982 0.3033881541
645296130.0 -0.0523218953 0.291692743 0.0797806174 -0.4206880193 0.0801404084 -0.4201407046 -0.0610987731 0.304273484
650296100.0 -0.0489389863 0.292325952 0.0754773312 -0.4211542529 0.0752967839 -0.4212849296 -0.0574428512 0.3056593953
655296070.0 -0.0460037421 0.2923982995 0.0709680248 -0.421710514 0.0703712809 -0.4217436774 -0.0539714788 0.3059646244
660296040.0 -0.0429407485 0.293793549 0.0662430767 -0.4222688644 0.06631569 -0.4224722289 -0.051169006 0.306881004
665296010.0 -0.0396202177 0.2938732325 0.0615752497 -0.4230793246 0.0620301983 -0.4233367615 -0.048432111 0.3074171093
670295980.0 -0.0363646157 0.2947630698 0.0568678376 -0.4238332238 0.0574045728 -0.4236290493 -0.0453928648 0.3080029398
675295950.0 -0.0334578537 0.2950434108 0.0520625962 -0.4241444442 0.0526372928 -0.4246935695 -0.0418547125 0.3089994849
680295920.0 -0.0302174622 0.2955211173 0.0476899843 -0.4247643787 0.0477012351 -0.4249751055 -0.0385950316 0.3092110965
685295890.0 -0.0273012926 0.2958275787 0.043565848 -0.4251346751 0.0431992264 -0.4258341033 -0.0353065902 0.3099298421
690295860.0 -0.0238134746 0.296331912 0.0386506131 -0.4252217605 0.0384089405 -0.4256937299 -0.0320090955 0.31051584
695295830.0 -0.0204166648 0.2968103244 0.0332444441 -0.4260771357 0.0335224052 -0.4262066629 -0.0289441912 0.3107673744
700295800.0 -0.0174897515 0.2972026164 0.0291072432 -0.4264117774 0.0290934447 -0.4265905121 -0.0253272352 0.3113629022
705295770.0 -0.0142879919 0.2977087004 0.0247211127 -0.4264863353 0.024658179 -0.4264502663 -0.0226182148 0.3117077062
710295740.0 -0.0111989727 0.2982018941 0.0197599471 -0.4269065305 0.0196717719 -0.4265121105 -0.0193935461 0.312326735
715295710.0 -0.0083492757 0.2981331122 0.0153922558 -0.4270698731 0.0154359605 -0.4274645517 -0.0161543771 0.3127233543
720295680.0 -0.0051768611 0.298202805 0.0105670525 -0.4269675133 0.0107660638 -0.4277017014 -0.0126829315 0.3126467373
725295650.0 -0.0015899838 0.2985673519 0.0057260462 -0.4269409676 0.0061657179 -0.4272912623 -0.0095489198 0.3134990555
730295620.0 0.0011436381 0.2988029141 0.0012779874 -0.4272584001 0.0011894465 -0.4270051152 -0.006127302 0.3130343316
735295590.0 0.0048277572 0.2985551846 -0.0031146762 -0.4271640616 -0.0029758609 -0.4272322179 -0.0026451638 0.3131973369
740295560.0 0.007778117 0.2993827589 -0.007850481 -0.4269216893 -0.0079082941 -0.4266822869 0.0003239996 0.3134716742
745295530.0 0.0109341692 0.2988131314 -0.0125425937 -0.4267560785 -0.0122956916 -0.427163716 0.0032671311 0.3136745091
750295500.0 0.014193228 0.2987612836 -0.0170544692 -0.4258219673 -0.0170971661 -0.42643844 0.0068186633 0.3134007164
755295470.0 0.0177472096 0.2989602478 -0.0217743966 -0.4262271326 -0.0214834038 -0.4266646808 0.0097939718 0.3139185176
760295440.0 0.0206860903 0.2990870479 -0.0264061987 -0.426101299 -0.0261286841 -0.4261034828 0.0126957135 0.3137329883
765295410.0 0.0234958166 0.2986115715 -0.0304764024 -0.4254797578 -0.0307033726 -0.4257931324 0.0170932644 0.3140186406
770295380.0 0.0267381806 0.2987629642 -0.0353878159 -0.4249810591 -0.0354003579 -0.4258857113 0.0200405079 0.3141406311
775295350.0 0.0297334928 0.2990369632 -0.0401204574 -0.4248554318 -0.0399690885 -0.4247106701 0.0225873381 0.3135430257
780295320.0 0.0331403054 0.2983633526 -0.0444027088 -0.4242791373 -0.0440940864 -0.4246582316 0.0261858246 0.3135679557
785295290.0 0.0364436464 0.2983217937 -0.0490918922 -0.4233605387 -0.0492198763 -0.4238902592 0.0291066537 0.3135186975
790295260.0 0.0392721623 0.2980869486 -0.0533687676 -0.4234643851 -0.0538022059 -0.4236183427 0.0327773274 0.3134533825
795295230.0 0.0428347126 0.2978239038 -0.058181116 -0.4219046641 -0.0578396179 -0.4226579608 0.0360890557 0.3136847649
800295200.0 0.04592849 0.2977975998 -0.062958207 -0.4219895146 -0.0629642724 -0.4222394737 0.0394034968 0.3129065313
805295170.0 0.0489134806 0.2973821685 -0.0672150549 -0.421140523 -0.0671088193 -0.4208795023 0.042284105 0.3124864842
810295140.0 0.0519263078 0.2966826577 -0.0714938149 -0.4202329286 -0.0722004991 -0.4206714998 0.0457593313 0.3126850354
815295110.0 0.055192002 0.2967357755 -0.0764614023 -0.4196702191 -0.0765018472 -0.419590342 0.0485669843 0.3122612358
820295080.0 0.0583746813 0.2955118064 -0.0809306652 -0.4186177401 -0.0808122835 -0.4188526469 0.0519646302 0.3119015365
825295050.0 0.0614801976 0.2955084722 -0.0853135492 -0.4173440296 -0.0852760245 -0.4177079538 0.0554917249 0.3112927356
830295020.0 0.0646255287 0.295265945 -0.090060242 -0.4168451534 -0.0901648474 -0.416943742 0.0584102227 0.3108433692
