!Created with skrf (http://scikit-rf.org).
# Hz S RI R 50.0 
!freq ReS11 ImS11 ReS21 ImS21 ReS12 ImS12 ReS22 ImS22
300000.0 -0.0505048989 -0.0602455925 -0.0010734637 0.000190311 -0.0008676964 0.001601065 -0.7676541282 -0.1661672464
5299970.0 -0.0489298968 0.0155765511 -0.0001252456 1.59821e-05 -0.0001593883 -5.0398e-05 -0.7849885822 -0.0089370294
10299940.0 -0.0432389149 0.0331995386 -0.0001277388 -0.0001435695 -8.85336e-05 0.0001954274 -0.788281881 -0.0052610898
15299910.0 -0.0351939355 0.0480919763 -0.0001160482 -0.0001271051 -8.23678e-05 -1.5936e-05 -0.7936913275 -0.0034968951
20299880.0 -0.0245017414 0.0598080652 -5.04659e-05 0.0001928163 -4.07582e-05 0.0002231682 -0.8001876032 0.0018156994
25299850.0 -0.0133467194 0.0689510604 0.0001960526 5.77056e-05 0.0001262347 0.0001017731 -0.8066558033 0.0074310419
30299820.0 -0.0013952964 0.0757270727 4.75836e-05 3.3824e-05 5.58672e-05 -5.94724e-05 -0.8128777702 0.0148228128
35299790.0 0.0102066679 0.080604033 -0.0001079568 0.0002390075 -0.0001569968 -9.5663e-06 -0.8175940979 0.0240380012
40299760.0 0.0218191407 0.0831928224 9.35146e-05 -4.68822e-05 -3.01127e-05 0.0002000468 -0.8213708 0.0332393666
45299730.0 0.0324134245 0.0846963266 -2.03111e-05 0.0001199115 -0.0003635904 6.39682e-05 -0.8253768055 0.0424458466
50299700.0 0.0429309125 0.0843123647 0.0001165938 6.25933e-05 4.88628e-05 0.0001514308 -0.8278010252 0.0525568921
55299670.0 0.0518848612 0.0834070924 7.56113e-05 2.10451e-05 -2.94177e-05 0.000123972 -0.8299553718 0.0631046985
60299640.0 0.0606586125 0.0813323602 -0.0001146681 -6.92106e-05 6.71943e-05 3.21655e-05 -0.8314553778 0.0727314646
65299610.0 0.0683188609 0.0788989446 3.34712e-05 0.000105931 -4.37395e-05 0.0001110714 -0.8313824667 0.0830013319
70299580.0 0.0757624603 0.0755724224 8.85579e-05 -7.67647e-05 -0.0001224395 -6.44903e-05 -0.8320237929 0.0928669764
75299550.0 0.0820897837 0.072097816 -0.0001285524 1.7365e-05 2.4945e-06 0.0001214444 -0.8326831568 0.1022085018
80299520.0 0.0876453177 0.0689432408 -7.86726e-05 0.0001353242 5.18141e-05 -0.000104013 -0.8322577839 0.1115935659
85299490.0 0.0927998377 0.0646720511 9.6213e-06 0.0001485658 0.0001308099 9.18632e-05 -0.8320192736 0.1215863234
90299460.0 0.0973123966 0.0609611663 -3.07165e-05 0.0001919311 -9.5347e-06 0.000180713 -0.8302839723 0.1312972868
95299430.0 0.1014655612 0.0568437482 -0.0001402639 0.0002302406 -5.83748e-05 0.0001128954 -0.8301502395 0.1414215149
100299400.0 0.1046727835 0.0531024426 -0.0001165424 -1.31421e-05 -7.77874e-05 -5.2215e-05 -0.8290149492 0.1491209318
105299370.0 0.1080470086 0.0487038733 -0.0001597334 -6.45174e-05 8.04013e-05 -9.24497e-05 -0.8274735991 0.158566382
110299340.0 0.1108999183 0.0446107581 -3.62724e-05 -3.6713e-05 6.98292e-05 -5.09158e-05 -0.8269989068 0.1686999579
115299310.0 0.1136228042 0.0403355537 -4.12784e-05 4.88874e-05 2.8822e-06 0.0001697488 -0.8249877949 0.1771358713
120299280.0 0.1155369522 0.0367742 1.03555e-05 0.0001145007 -0.0001302602 4.50099e-05 -0.8233786877 0.1858219073
125299250.0 0.1173127285 0.0327417459 -6.60074e-05 0.0001367409 -3.56889e-05 1.68992e-05 -0.8216748886 0.1954408121
130299220.0 0.1190090252 0.0290588107 -0.0001249512 7.7266e-05 -0.0001057936 0.0001209401 -0.8198636356 0.2041824253
135299190.0 0.1205916363 0.0250392979 5.51996e-05 0.0001129556 6.84998e-05 -7.36866e-05 -0.8178896061 0.2128827365
140299160.0 0.1221598513 0.0215830654 -4.34483e-05 3.29096e-05 -7.6007e-06 0.0001149465 -0.8163349141 0.2213875811
145299130.0 0.123137461 0.0177881152 0.0001208886 2.81195e-05 6.64164e-05 -1.48004e-05 -0.8140991004 0.2300886283
150299100.0 0.1236600869 0.014336428 -7.38275e-05 1.93377e-05 -8.58208e-05 0.000173642 -0.811624404 0.2386052431
155299070.0 0.1246364589 0.0110858097 5.78165e-05 8.00158e-05 -6.4041e-06 -9.54654e-05 -0.809530948 0.2474639067
160299040.0 0.1250184222 0.0074788796 -5.7771e-06 5.38788e-05 -5.39139e-05 -8.01158e-05 -0.8074320877 0.2563435619
165299010.0 0.125283469 0.0044301245 -0.0001611769 4.12137e-05 1.56283e-05 -2.9357e-06 -0.8037099709 0.2646312832
170298980.0 0.1256364508 0.0008494246 5.46751e-05 -5.4252e-06 -1.71407e-05 3.73e-06 -0.8018384004 0.2732942537
175298950.0 0.1262602733 -0.0017317239 0.0001283742 9.6258e-06 6.51545e-05 0.0004009315 -0.7985291918 0.2816158552
180298920.0 0.1261246769 -0.0051330735 -0.0001637814 1.90374e-05 -0.0001309215 3.04385e-05 -0.7956930549 0.2899876929
185298890.0 0.1260285339 -0.0083790707 3.44082e-05 2.52027e-05 1.70055e-05 0.0001118354 -0.7934402948 0.2978737906
190298860.0 0.1259788055 -0.0113185349 0.0001898171 -7.26458e-05 3.0842e-05 -6.85927e-05 -0.7898282327 0.3071967328
195298830.0 0.1261523891 -0.0142908926 -0.0001547727 0.0001446644 0.0003699566 5.6958e-06 -0.7871810242 0.3148889397
200298800.0 0.1259725183 -0.0168622534 -0.000135048 4.02437e-05 9.9772e-06 2.55444e-05 -0.7838474519 0.3239971274
205298770.0 0.1253566448 -0.0195273652 9.12787e-05 7.77839e-05 -9.91028e-05 0.0002464751 -0.7800875594 0.3320156649
210298740.0 0.1254975105 -0.0220789362 -0.0001254833 0.000125259 5.97458e-05 2.83395e-05 -0.7769338138 0.3404085248
215298710.0 0.1245469654 -0.0250428977 0.0001672999 0.0002278571 -7.53536e-05 0.0003066664 -0.7736540368 0.3483737389
220298680.0 0.1241926903 -0.0275316788 -6.9823e-05 -0.0001899367 -0.0001829542 6.05431e-05 -0.7699828526 0.3564632902
225298650.0 0.1235002997 -0.0300031703 7.4811e-05 -3.46882e-05 5.77072e-05 0.000135621 -0.7659467821 0.3646277138
230298620.0 0.1232566949 -0.0323602394 -1.33341e-05 9.45813e-05 0.0003619108 0.0002101753 -0.7616862005 0.3726258825
235298590.0 0.1221607178 -0.0350400472 0.0002965396 -6.23885e-05 -0.0001047644 -8.5032e-05 -0.7575470087 0.3808261985
240298560.0 0.1217401949 -0.0374164985 7.42013e-05 0.0001844407 3.06682e-05 0.0002098549 -0.7547432293 0.3886456926
245298530.0 0.1211582836 -0.0394884352 0.0001615812 -3.24824e-05 9.88876e-05 9.93242e-05 -0.7505761383 0.3963159968
250298500.0 0.1202457316 -0.0417946751 -6.80014e-05 0.0002099872 0.0001748537 -5.70804e-05 -0.7463125697 0.4047259048
255298470.0 0.1194869587 -0.0438678613 6.30291e-05 5.5607e-05 -6.40168e-05 0.0003091009 -0.7415701927 0.4120836897
260298440.0 0.1186578986 -0.0460267657 -1.18539e-05 0.0002165963 -5.999e-05 8.30351e-05 -0.7370837229 0.4200056385
265298410.0 0.1178050686 -0.0482385658 0.0001823844 1.91933e-05 6.7641e-05 7.23506e-05 -0.7326432667 0.4276979808
270298380.0 0.1167821202 -0.0502588774 0.0002945476 -0.0001636404 5.50061e-05 9.60304e-05 -0.7272785348 0.4352364054
275298350.0 0.1160405335 -0.0522845704 4.72791e-05 2.60419e-05 0.0001956889 0.0001606917 -0.7228962869 0.4428172541
280298320.0 0.1151446737 -0.0541437343 0.0002774372 1.04e-08 -1.60126e-05 -4.71193e-05 -0.7185609544 0.4502908263
285298290.0 0.114007903 -0.0559549172 5.60757e-05 -3.97336e-05 2.84162e-05 -3.0639e-06 -0.7138717745 0.4581991961
290298260.0 0.1133725758 -0.0580124155 0.0002634517 0.0001065219 -8.86037e-05 -7.18946e-05 -0.7091441929 0.4657772775
295298230.0 0.1121195673 -0.0602640264 0.0003546065 -9.66666e-05 2.25384e-05 4.96479e-05 -0.7038752217 0.4726853893
300298200.0 0.1110549537 -0.0623665596 0.000182305 -3.92118e-05 5.14043e-05 -0.0003071538 -0.6990560278 0.4803832394
305298170.0 0.1105973845 -0.0640021822 0.0002820553 -0.0001252211 -5.31479e-05 8.03729e-05 -0.6933460831 0.4877240781
310298140.0 0.1091472532 -0.0662805972 0.0001440995 1.34711e-05 3.63557e-05 6.1268e-06 -0.6892025749 0.4950523042
315298110.0 0.1076093855 -0.0678493418 -0.0001765932 -3.94537e-05 9.34176e-05 9.06598e-05 -0.6834565594 0.5018405519
320298080.0 0.1063315384 -0.0701005315 -3.43317e-05 2.18381e-05 0.0001358527 0.0001520784 -0.6777246431 0.5097464609
325298050.0 0.1050218843 -0.0718215112 9.26903e-05 -2.60627e-05 0.0001902923 -5.87205e-05 -0.6722095516 0.5164931213
330298020.0 0.1036992814 -0.0733181321 0.0003172194 -0.0001212021 5.20903e-05 8.75641e-05 -0.666788607 0.523441761
335297990.0 0.1021983657 -0.0747176679 8.21096e-05 4.05832e-05 0.0002555115 7.87963e-05 -0.6614514899 0.5297773243
340297960.0 0.1007352717 -0.0763246624 0.0002215211 4.41319e-05 7.47272e-05 0.000120534 -0.655551653 0.5368833888
345297930.0 0.0991208772 -0.0778877927 -2.8084e-05 0.0002198021 -5.7963e-06 8.75956e-05 -0.6500052927 0.5437188101
350297900.0 0.0981146711 -0.0793381976 0.000241902 6.30727e-05 0.0001206315 0.0002003297 -0.6445485257 0.5507447108
355297870.0 0.0964714699 -0.0807563402 -3.49626e-05 4.12107e-05 0.0002149257 4.06105e-05 -0.6381021038 0.5576052396
360297840.0 0.0950708078 -0.0821246504 8.039e-06 0.0002241805 -6.76316e-05 0.0001813804 -0.6323646361 0.5640672115
365297810.0 0.0937871435 -0.0835549835 0.0001522889 9.28378e-05 0.0002157569 -1.98638e-05 -0.6264660091 0.570715905
370297780.0 0.0923084494 -0.0850564484 0.0001517904 5.77018e-05 4.71431e-05 3.44898e-05 -0.6206759875 0.5769196512
375297750.0 0.09091996 -0.0860640726 5.12399e-05 0.0001689519 -1.7983e-05 4.39383e-05 -0.6145342101 0.5826796906
380297720.0 0.0899818507 -0.0873624998 0.0002547321 -2.08842e-05 0.0002024977 0.0003921922 -0.6083300101 0.5902144391
385297690.0 0.0881026631 -0.0884209824 5.61664e-05 6.89941e-05 0.0001945087 -6.27881e-05 -0.601993805 0.5958985891
390297660.0 0.08687996 -0.0898276958 -8.6397e-06 1.25639e-05 0.0002741972 0.0001094197 -0.5958517512 0.6011884209
395297630.0 0.0853498454 -0.0910835414 3.6339e-06 0.0001209153 0.0002907085 -0.0001772551 -0.5889587992 0.6082505406
400297600.0 0.0839796205 -0.0919082271 6.33535e-05 -0.0001786802 3.34274e-05 2.63104e-05 -0.5835647878 0.6140446918
405297570.0 0.0826343007 -0.0933084352 0.0001563177 5.75636e-05 0.0003266251 0.0001298743 -0.5770254638 0.6197935438
410297540.0 0.0812266389 -0.0941919172 0.000204129 6.9866e-05 7.96706e-05 8.60342e-05 -0.570507096 0.6254014548
415297510.0 0.079694117 -0.0955040792 0.0001098439 -0.000103983 -9.0101e-06 -3.21911e-05 -0.5639080985 0.6315115932
420297480.0 0.0777960136 -0.0968101938 8.53754e-05 0.0001091989 9.30097e-05 4.5313e-06 -0.5568977341 0.6368851745
425297450.0 0.0767011785 -0.097679267 6.31566e-05 5.65023e-05 -4.80639e-05 3.39597e-05 -0.550523479 0.6431164306
430297420.0 0.0746929146 -0.0986066276 0.0001971592 0.0002362154 4.11095e-05 4.26177e-05 -0.5437667765 0.6486681215
435297390.0 0.073489307 -0.0995131582 8.06251e-05 -7.69853e-05 1.40536e-05 4.356e-07 -0.5368376476 0.653399076
440297360.0 0.071979693 -0.1004529449 6.70612e-05 4.45524e-05 8.22852e-05 -1.76236e-05 -0.5301851597 0.6588578635
445297330.0 0.0704348457 -0.101321807 0.0001608189 5.32992e-05 5.8624e-05 3.90342e-05 -0.5236974014 0.6639378079
450297300.0 0.0688633485 -0.1025387842 0.0001346115 1.55409e-05 6.12745e-05 -7.06665e-05 -0.5172137451 0.6698713345
455297270.0 0.0671865032 -0.1034363287 0.0001194813 -7.905e-07 0.0003283395 0.0001824648 -0.5098053978 0.6746746375
460297240.0 0.0657353699 -0.1040721028 0.0002225731 0.0002056492 7.23062e-05 -0.0001649036 -0.5031349089 0.6803724992
465297210.0 0.064175272 -0.1050460027 6.15899e-05 -0.00033085 0.000164415 1.52579e-05 -0.4967746598 0.6848520511
470297180.0 0.0625205956 -0.1058106637 -3.50246e-05 8.63497e-05 1.3146e-05 5.60267e-05 -0.4893360575 0.689587957
475297150.0 0.0610631143 -0.1065551153 0.0001184554 -0.0001726184 4.04723e-05 -3.09811e-05 -0.4819305978 0.6945921009
480297120.0 0.059270082 -0.1075030574 0.0001513195 0.0001877935 0.0001367955 4.62885e-05 -0.4757285313 0.7000449079
485297090.0 0.0578731494 -0.1081321878 0.0001254911 0.0001057362 0.0001028248 0.0001938329 -0.4681881233 0.7038483156
490297060.0 0.056127093 -0.1088846406 0.0002364704 0.0001986507 -0.0001130188 -1.46751e-05 -0.4612181473 0.7090142818
495297030.0 0.0545309058 -0.1095211672 -7.86932e-05 -0.0001185586 2.34674e-05 -5.56334e-05 -0.4534957507 0.7127759435
500297000.0 0.0529628046 -0.1101598377 0.0002098566 0.0001803376 1.02556e-05 0.0001405823 -0.4467208181 0.7175294583
505296970.0 0.0510412155 -0.1104673859 0.0002059563 -0.0001527288 -6.43957e-05 3.34922e-05 -0.4401735152 0.7219880623
510296940.0 0.0497654223 -0.11138432 0.0001127639 -4.54217e-05 -7.02837e-05 0.0001819838 -0.4323135675 0.7258387365
515296910.0 0.0479147398 -0.1117879136 -7.09634e-05 8.44427e-05 4.53678e-05 -6.88494e-05 -0.4249963366 0.7304411322
520296880.0 0.046293189 -0.1123024527 0.000238812 -3.27188e-05 3.49898e-05 0.0001149473 -0.4177115251 0.7352551365
525296850.0 0.0445106705 -0.1132140712 5.85061e-05 -9.51628e-05 0.0002411051 0.0001290143 -0.4102263101 0.7394853816
530296820.0 0.0426173398 -0.1135113171 1.41054e-05 -8.01563e-05 3.43382e-05 -1.377e-07 -0.4032722315 0.7430320034
535296790.0 0.0414149479 -0.1140263673 6.71996e-05 0.0002071354 0.0001136157 -5.78537e-05 -0.3956322128 0.74621204
540296760.0 0.0395913187 -0.1148322149 -0.0001234355 -3.55074e-05 0.000190049 -0.0002293916 -0.388414989 0.7511979625
545296730.0 0.0381269851 -0.1148159291 8.84122e-05 0.0002139644 0.0002049929 8.73378e-05 -0.3809356121 0.7542673838
550296700.0 0.0359676259 -0.1151242103 -2.2576e-06 0.0002442509 0.00010024 0.0002067261 -0.3730520812 0.7583108498
555296670.0 0.0347972418 -0.1155587536 -4.51561e-05 0.0002065067 -0.0001808254 4.42236e-05 -0.3660925768 0.7617573051
560296640.0 0.0328118896 -0.1160921557 0.0002035311 4.01104e-05 0.0002467179 -0.0001730507 -0.3578736375 0.7655197958
565296610.0 0.0311540965 -0.1161259234 9.30296e-05 0.0003520859 0.0001194701 -8.62117e-05 -0.3507535081 0.7688128445
570296580.0 0.0295847656 -0.1167780901 7.76955e-05 6.30887e-05 -2.86025e-05 6.39655e-05 -0.3431109134 0.7721238484
575296550.0 0.0281256429 -0.1168222283 -0.0001129928 4.71072e-05 8.96966e-05 4.7059e-06 -0.3349684373 0.775319592
580296520.0 0.0262022836 -0.117071646 -0.0002226449 -0.0001003237 5.15578e-05 5.39206e-05 -0.3273276149 0.7790389537
585296490.0 0.0243735708 -0.1173694039 0.00028152 -0.0001593548 0.0001292405 8.86219e-05 -0.3197605805 0.7818322373
590296460.0 0.0226185604 -0.1176468211 -0.0001222363 -6.85638e-05 0.000102065 0.0001026768 -0.3120213295 0.7853598179
595296430.0 0.0211264505 -0.1178600964 -3.7941e-06 1.41183e-05 -9.76312e-05 -2.78524e-05 -0.3041146443 0.7875756518
600296400.0 0.019291754 -0.1178885284 0.0002774465 4.83108e-05 9.98675e-05 -6.45831e-05 -0.2964725509 0.7912018968
605296370.0 0.0177986538 -0.1180779507 0.0001477171 -8.0237e-05 0.0001542653 1.65896e-05 -0.2881990259 0.7941859152
610296340.0 0.0161448069 -0.1183525408 0.0001514819 -2.2591e-05 0.0002108234 0.0001477113 -0.28067304 0.7972063692
615296310.0 0.0143845801 -0.117979421 0.0002179825 6.38518e-05 0.0002124807 -5.00191e-05 -0.273180926 0.799468856
620296280.0 0.0128111441 -0.1183689543 -9.15736e-05 -5.40295e-05 0.000260457 -0.0001442982 -0.2649905447 0.8019758427
625296250.0 0.0112513024 -0.1183824273 0.000281327 -9.81699e-05 0.0002299799 -8.367e-05 -0.257110967 0.8047353089
630296220.0 0.0093675768 -0.1183790344 2.4213e-06 -7.86092e-05 0.0002944772 1.40348e-05 -0.2488405607 0.8071915389
635296190.0 0.0075920599 -0.1183763635 9.52621e-05 4.56417e-05 0.0001872773 -2.45794e-05 -0.2412526633 0.8092137414
640296160.0 0.0060631614 -0.118452421 5.96016e-05 1.59304e-05 0.0001697416 -8.8913e-06 -0.2329192978 0.8114784668
645296130.0 0.0038934803 -0.1182046268 0.0002500335 -0.0001568929 0.0001946355 -3.0258e-05 -0.2256427208 0.8136517454
650296100.0 0.0024875081 -0.1182598768 8.76921e-05 -2.18741e-05 0.0001187935 3.77487e-05 -0.2174437482 0.8164193034
655296070.0 0.0007789264 -0.1182469185 0.0001094104 -4.92507e-05 -1.9289e-05 -0.0002114129 -0.2087840289 0.8180043011
660296040.0 -0.0008332727 -0.1180022884 0.000212532 -1.00415e-05 3.0831e-05 -0.0001407692 -0.2000440904 0.8204429728
665296010.0 -0.0025395491 -0.1177418199 0.0001583729 -4.02959e-05 0.0001114479 -0.0001048775 -0.1928225666 0.8222391455
670295980.0 -0.0040958847 -0.1178918032 0.0001608602 -0.0001291346 0.0001669102 -0.0001894042 -0.1853856828 0.8240982548
675295950.0 -0.005885758 -0.117724718 0.0002878844 -3.32663e-05 0.0002038104 5.66442e-05 -0.1764091922 0.8257821795
680295920.0 -0.0076725782 -0.1171794431 0.000168451 0.0001186298 0.0002541323 -4.85299e-05 -0.1681723919 0.8278639867
685295890.0 -0.0091346888 -0.1169472666 0.0002241317 -4.8507e-06 0.0001585505 2.06402e-05 -0.1601670538 0.829161086
690295860.0 -0.0103695858 -0.1168221364 5.81441e-05 -9.04443e-05 8.26031e-05 -4.34531e-05 -0.1519181032 0.8305759685
695295830.0 -0.0123356828 -0.1165618913 0.0001611844 4.2832e-06 0.0001381042 3.80327e-05 -0.1441490255 0.8324618943
700295800.0 -0.0139689321 -0.116018647 0.0001673885 -3.87238e-05 -6.67953e-05 2.88503e-05 -0.1350217152 0.8329318662
705295770.0 -0.0155255399 -0.116001594 0.0002005112 -5.37762e-05 0.0003427992 0.0001126821 -0.1277522479 0.8351665978
710295740.0 -0.0172565512 -0.1156811131 5.53646e-05 -0.0001057632 0.0001224444 -0.0001452997 -0.1192881339 0.8367430401
715295710.0 -0.019299017 -0.1150734061 9.29637e-05 8.36577e-05 0.0001718744 2.98323e-05 -0.1111965272 0.8373155305
720295680.0 -0.0205074718 -0.1149716741 0.0001432629 -0.0002793763 4.52807e-05 -0.0001228252 -0.1028210923 0.8382388048
725295650.0 -0.0220798948 -0.1142028118 0.0002322171 -0.0001317227 0.0001329992 -0.0001659735 -0.0938830224 0.8394339717
730295620.0 -0.023955979 -0.1141052721 0.0003186809 -7.24671e-05 0.0001586967 -9.56e-05 -0.0854761408 0.840574636
735295590.0 -0.0253246958 -0.1136796957 0.0001979111 2.52452e-05 0.0002587161 -2.40632e-05 -0.077267697 0.840670201
740295560.0 -0.0270819426 -0.1129891257 -1.76739e-05 -5.3302e-05 0.0001224642 -8.58616e-05 -0.0694586152 0.8409230492
745295530.0 -0.0286603716 -0.1127481845 0.0001066892 0.0001077248 0.0001153956 -0.0001768679 -0.0609990847 0.8424264808
750295500.0 -0.0302371721 -0.1119929835 3.96459e-05 -0.0002108305 6.4076e-05 -5.72941e-05 -0.0523635306 0.8423942796
755295470.0 -0.0317094015 -0.1113348648 6.1718e-05 -0.0002780631 8.75236e-05 -7.99599e-05 -0.0445720448 0.8436973999
760295440.0 -0.0334244372 -0.1106615433 0.0003060469 6.42755e-05 5.74436e-05 2.8613e-06 -0.0367290369 0.8435078009
765295410.0 -0.0350275322 -0.1105567195 0.0003398421 -0.0001392993 0.000283935 -0.0001466645 -0.0270986718 0.8444241077
770295380.0 -0.0365316996 -0.1095397706 0.0001319852 -9.87501e-05 9.67583e-05 -0.000128691 -0.0190144087 0.8438428067
775295350.0 -0.0381054499 -0.108803546 0.0003231585 -0.0002476348 0.0001657733 -3.1502e-05 -0.0118773085 0.8441628005
780295320.0 -0.0396782568 -0.1086346786 3.7573e-06 8.11306e-05 4.97946e-05 -4.6545e-05 -0.0027780065 0.8445568784
785295290.0 -0.041350233 -0.1073900318 8.16581e-05 8.4029e-06 0.0003212764 -0.0001581982 0.0050581442 0.8446558039
790295260.0 -0.0427361267 -0.1069615454 0.0002495277 1.4805e-05 0.0003193626 -0.0002027424 0.0144573921 0.844409646
795295230.0 -0.044293858 -0.1060455418 0.0002684914 -0.0001321063 0.0003957485 5.03467e-05 0.0221748326 0.8447648056
800295200.0 -0.0455615515 -0.1054164062 0.0001353671 -0.0002350797 0.0002173153 9.10287e-05 0.030023757 0.8436109823
805295170.0 -0.0471418711 -0.1048229997 -9.0656e-06 0.0001685357 0.0002752358 -0.0001190736 0.0385648507 0.8429591996
810295140.0 -0.0484153766 -0.1039458425 0.0002500095 -4.36962e-05 0.0001185672 -9.07277e-05 0.046605738 0.8440045608
815295110.0 -0.0499558124 -0.1029889974 7.92977e-05 0.0001525531 7.9631e-06 0.000117132 0.0551330894 0.8431656875
820295080.0 -0.0514385927 -0.1024101079 0.0002072852 1.819e-06 0.0001819205 7.96779e-05 0.0631527242 0.8422608516
825295050.0 -0.0527723286 -0.1014196579 -1.95463e-05 3.94614e-05 0.0001097392 6.97786e-05 0.0715806308 0.841659879
830295020.0 -0.054501722 -0.1003859612 0.0001033501 -0.0001721814 5.66078e-05 -0.0001481555 0.0795199422 0.841165323
835294990.0 -0.0556020005 -0.0996574331 0.0002915487 -9.27704e-05 0.0001903075 -0.0001316664 0.0883283542 0.8401325441
840294960.0 -0.0573203219 -0.0992074531 0.0001377621 0.0002201206 7.1136e-05 -1.81749e-05 0.0963173237 0.8391437077
845294930.0 -0.0588072435 -0.0977369182 0.0002910335 -6.44488e-05 -6.812e-07 -1.88716e-05 0.1043374543 0.837647819
850294900.0 -0.0599361363 -0.0971229161 0.0002361725 3.59594e-05 8.61202e-05 -0.0001376288 0.11215488 0.837201378
