!Created with skrf (http://scikit-rf.org).
# Hz S RI R 50.0 
!freq ReS11 ImS11 ReS21 ImS21 ReS12 ImS12 ReS22 ImS22
300000.0 -0.1022887287 -0.0627099085 0.6315510273 0.0573713161 0.6241615195 0.0596337446 -0.1011322737 -0.068985777
5299970.0 -0.1021413367 0.0135343718 0.6307635639 0.0095693992 0.6306952234 0.0101851631 -0.1011703593 0.0132074855
10299940.0 -0.0973090299 0.0295676341 0.6341133319 0.0151767407 0.6341200336 0.0154958274 -0.0962287581 0.0305033359
15299910.0 -0.0900315836 0.0426569426 0.6405055919 0.0205325251 0.6405643639 0.020423209 -0.0890118777 0.0436446075
20299880.0 -0.0817919104 0.0531185028 0.6485525398 0.0244463926 0.6485923408 0.024477073 -0.0800860347 0.054296258
25299850.0 -0.0724809196 0.0623232165 0.6581186648 0.0250447842 0.6579799311 0.0256506556 -0.0700439225 0.0633605522
30299820.0 -0.0621879499 0.0689815052 0.6672769407 0.0243856823 0.6673794672 0.0244735805 -0.0599272412 0.0702013545
35299790.0 -0.0526838869 0.0737299719 0.6771487651 0.0212907585 0.6772855686 0.0216144616 -0.0501280996 0.0746648234
40299760.0 -0.0433760616 0.0771557827 0.6863653704 0.017319987 0.6870876514 0.0176400771 -0.0404241594 0.0775356528
45299730.0 -0.0339993125 0.0793980551 0.6948522886 0.0119148991 0.695760976 0.0120253041 -0.0311998624 0.0794873224
50299700.0 -0.0255793805 0.0800580025 0.7039834065 0.0050037508 0.7036571684 0.0055928291 -0.0226516714 0.080330528
55299670.0 -0.0177472523 0.0805543836 0.711404376 -0.0032358211 0.710865016 -0.0025849299 -0.0148227851 0.0802425249
60299640.0 -0.0099053238 0.0799206105 0.7173531976 -0.0110321183 0.7176625368 -0.0107333765 -0.0076444074 0.0796142722
65299610.0 -0.0038336877 0.0789189653 0.7232529455 -0.0202491054 0.723566111 -0.0197037894 -0.001378517 0.0784950425
70299580.0 0.0026027337 0.0777057973 0.7287231055 -0.029462171 0.7287876169 -0.0291909678 0.0047627163 0.0766675008
75299550.0 0.0082582622 0.0758193505 0.7325908102 -0.0385925595 0.7328797788 -0.038436475 0.0101937317 0.0746797989
80299520.0 0.0132625715 0.0736694012 0.7372419086 -0.0491704502 0.737565304 -0.0487238323 0.0151826968 0.0728529121
85299490.0 0.0180251154 0.0715219427 0.7406720964 -0.0585568453 0.7409505038 -0.0580595067 0.0194961588 0.0700867481
90299460.0 0.0218607541 0.0690803278 0.7429870453 -0.0691396038 0.7434394777 -0.0681856144 0.0235946785 0.0681436574
95299430.0 0.0259636847 0.0664803949 0.7456806723 -0.078703328 0.7457916041 -0.0789941543 0.0277089665 0.0657659339
100299400.0 0.0289051651 0.0648046791 0.7465991639 -0.0887665425 0.7471675297 -0.0890228974 0.0314949661 0.0626913219
105299370.0 0.0322984018 0.0619244056 0.7486074203 -0.0995771523 0.7489685422 -0.0990381218 0.0341780256 0.0608939698
110299340.0 0.0352783032 0.059696089 0.7503760425 -0.1088656965 0.74972066 -0.1087275529 0.0363662908 0.0581088751
115299310.0 0.0375582237 0.0572547073 0.7509770537 -0.1191322798 0.7508365573 -0.1190092898 0.0391790546 0.0559350462
120299280.0 0.0397359838 0.0543675536 0.7508158803 -0.129245669 0.7515744752 -0.1292485631 0.0414064279 0.05347428
125299250.0 0.0420662941 0.0522540245 0.75180876 -0.1386322119 0.7521050855 -0.1384556301 0.0428161506 0.050604558
130299220.0 0.0435075567 0.0504436463 0.7514791872 -0.1492517433 0.7514282719 -0.1492320328 0.0447117454 0.0486211087
135299190.0 0.0452312264 0.0483425449 0.7516936549 -0.1589004889 0.7515142464 -0.1585625121 0.0466651905 0.0466480367
140299160.0 0.046568289 0.0464381222 0.7510727624 -0.1685012556 0.7511814404 -0.1686343408 0.0478360657 0.0448499083
145299130.0 0.0482231617 0.0437536809 0.7503165306 -0.1783769334 0.7498194322 -0.1780749459 0.0492706968 0.0423768795
150299100.0 0.0496930947 0.0423572381 0.7488783864 -0.1873390047 0.7487801109 -0.1875176535 0.0506158465 0.0404629408
155299070.0 0.0504249548 0.0399344805 0.7478925802 -0.1980669655 0.7474922404 -0.1981029455 0.051382906 0.0385331685
160299040.0 0.0519935321 0.0384132387 0.7462505866 -0.2070603524 0.7462058713 -0.2070734552 0.0518850186 0.0362869174
165299010.0 0.0522785814 0.0363983997 0.7450233389 -0.2170061712 0.7451967862 -0.2166539017 0.0532788427 0.0351765743
170298980.0 0.0533069883 0.0341423431 0.7431249028 -0.226091814 0.7432449634 -0.2260985825 0.0539127133 0.0330133978
175298950.0 0.0536457579 0.0322604256 0.7413630431 -0.2352464417 0.7408706449 -0.2353410999 0.0546040003 0.0313549239
180298920.0 0.0543618942 0.0307682692 0.7390909708 -0.2447407112 0.7395128272 -0.2442363131 0.0551474121 0.0300218728
185298890.0 0.0556017481 0.0289584817 0.7364111482 -0.2537199965 0.7362381571 -0.2534539806 0.0552229638 0.0284055769
190298860.0 0.0551951826 0.0277867922 0.7344468731 -0.2624433981 0.7347086485 -0.2626590545 0.0559693029 0.0264950716
195298830.0 0.0560218202 0.0253645309 0.7317008526 -0.2714059805 0.7323659449 -0.2715425989 0.0570728838 0.0248446564
200298800.0 0.056132034 0.0242017002 0.7294359328 -0.280981172 0.7293546675 -0.2808752334 0.0566687461 0.0236054661
205298770.0 0.0567882958 0.0228879422 0.7261069477 -0.2904027868 0.7262213566 -0.2897221073 0.057310757 0.0211670417
210298740.0 0.0570433243 0.0213088466 0.7232646708 -0.2980275032 0.7238158153 -0.2978371202 0.0581082185 0.0212809401
215298710.0 0.0568753204 0.0198654973 0.7205213747 -0.3074117764 0.7207039129 -0.3073155741 0.0577512847 0.019373621
220298680.0 0.0575536513 0.0180159286 0.7170325208 -0.3156890293 0.7173304526 -0.3155914162 0.0576213291 0.0179208468
225298650.0 0.057920174 0.0169621288 0.7141251833 -0.3244266095 0.7142274421 -0.3243840596 0.0574188225 0.0160525554
230298620.0 0.057898852 0.0157789956 0.7111039705 -0.3327528832 0.711165574 -0.3330878112 0.0574569865 0.0147278353
235298590.0 0.0577267347 0.014735056 0.707290934 -0.3411279658 0.7069468945 -0.3405415744 0.0580226318 0.0136804205
240298560.0 0.0580408749 0.013469897 0.7035007405 -0.3494169078 0.7034476125 -0.3499952646 0.0577326883 0.012959201
245298530.0 0.0580022054 0.0120408655 0.700095606 -0.3583070382 0.6996548542 -0.3578911284 0.0583934488 0.010759547
250298500.0 0.0585301561 0.0109459579 0.6953974113 -0.3665080563 0.6953122479 -0.3659835257 0.0582543867 0.0104499388
255298470.0 0.0585108833 0.0093352248 0.6916072445 -0.3741510481 0.6921299905 -0.3739848987 0.0586474423 0.0091136813
260298440.0 0.0580278802 0.0080435917 0.6878219046 -0.3827920955 0.6882020005 -0.382446663 0.0586464599 0.0079675619
265298410.0 0.0587041028 0.0074639176 0.6841116153 -0.3906811551 0.6847320084 -0.3904965062 0.0585591251 0.0068471471
270298380.0 0.0584122603 0.0062769434 0.6798381881 -0.3981919941 0.6799077661 -0.3984280903 0.0581263559 0.0062457936
275298350.0 0.0589236716 0.0051335378 0.6757971478 -0.4067692482 0.6760230117 -0.4067221107 0.0587236335 0.0044897778
280298320.0 0.058812065 0.0043162561 0.6714915617 -0.4146875315 0.6713346525 -0.4140847792 0.0585512568 0.0036608155
285298290.0 0.0585944084 0.0031902531 0.6669957386 -0.4217955064 0.6662114923 -0.4224034843 0.0585349573 0.0025838797
290298260.0 0.0589787884 0.0020073999 0.6621509583 -0.4292056567 0.6623710281 -0.4298690989 0.0587109288 0.0020143993
295298230.0 0.0590473338 0.0009895172 0.6576189718 -0.4374180375 0.6576513703 -0.4371754302 0.0595034398 0.0011336275
300298200.0 0.0581599488 -0.0001855731 0.6534343027 -0.4450682057 0.6531524695 -0.4456404122 0.0588671174 -0.0003076435
305298170.0 0.0588034409 -0.0013287261 0.6480794761 -0.45381747 0.6480100931 -0.4530434275 0.0593494949 -0.0018151087
310298140.0 0.0584829999 -0.0023675826 0.6434369036 -0.4612799116 0.6435718232 -0.4606372319 0.0591872679 -0.0026006594
315298110.0 0.0582863041 -0.0039288132 0.638319266 -0.4682277786 0.6382338663 -0.4684933728 0.0587812592 -0.0040275255
320298080.0 0.0583633203 -0.00477023 0.632086632 -0.4763384307 0.6332097284 -0.4756916805 0.0585877679 -0.0049239671
325298050.0 0.0578861526 -0.0059710607 0.6279447081 -0.4833362144 0.6273884766 -0.4831742649 0.0576941551 -0.0058909931
330298020.0 0.0573778468 -0.0070336251 0.6212024593 -0.4911987775 0.6222769502 -0.4906902142 0.0572130304 -0.0073284568
335297990.0 0.0570340215 -0.0083714062 0.6161653033 -0.4975363215 0.6162231503 -0.4976501186 0.0561649827 -0.0075625365
340297960.0 0.0563663577 -0.0087455857 0.610442232 -0.5047665444 0.6096271374 -0.5049578219 0.0566443422 -0.008422609
345297930.0 0.0558937648 -0.0088912284 0.6042835298 -0.5116281457 0.6042824304 -0.512111426 0.0562566541 -0.0096247571
350297900.0 0.0552883719 -0.01069893 0.5980369815 -0.5187397337 0.5982902941 -0.5186964905 0.0553654924 -0.0098232816
355297870.0 0.0549435885 -0.0102522444 0.5930305477 -0.5249304014 0.5930852054 -0.5245588194 0.0551422817 -0.0105946149
360297840.0 0.0545529696 -0.0112103535 0.5875360689 -0.531295333 0.5877870585 -0.5314242177 0.0548110168 -0.011202254
365297810.0 0.0542039162 -0.0116423763 0.5815554827 -0.5387588289 0.5816670419 -0.5382621977 0.0546394588 -0.0118463641
370297780.0 0.0542606372 -0.0130115862 0.5746800455 -0.5445301271 0.5756163764 -0.5442318745 0.0540874156 -0.0123705696
375297750.0 0.0539903733 -0.0135924027 0.5692351598 -0.551212684 0.5701396248 -0.5508212207 0.0541347583 -0.0128329273
380297720.0 0.0537379171 -0.0139860656 0.5628925706 -0.5576167678 0.5636380873 -0.5565553515 0.0532018699 -0.0141631786
385297690.0 0.0530182699 -0.0150099513 0.5570678827 -0.563560139 0.5565593836 -0.5636332479 0.0533607614 -0.0142865865
390297660.0 0.0530163776 -0.0154402774 0.5509179975 -0.570407641 0.5503492282 -0.5693430473 0.0526914451 -0.0156310064
395297630.0 0.0523450979 -0.0160605467 0.5444683614 -0.5757667801 0.5445743487 -0.5761570157 0.0531894362 -0.0160422531
400297600.0 0.0517674937 -0.0166936028 0.5373495063 -0.5818377344 0.5379014801 -0.5823250915 0.0526088 -0.0161758565
405297570.0 0.0512282471 -0.017453404 0.5316650748 -0.5877471145 0.5318148589 -0.587776144 0.0517771674 -0.0170522063
410297540.0 0.0516167636 -0.0181221497 0.5253624711 -0.5943386108 0.5256904232 -0.5939995425 0.0515093471 -0.0171694142
415297510.0 0.0513396385 -0.0187334878 0.5183099396 -0.600135993 0.5187673992 -0.5997819565 0.0514263636 -0.0180849619
420297480.0 0.0509936614 -0.0190732009 0.5117821776 -0.6053964443 0.5117060008 -0.6060426242 0.0506580636 -0.0190790741
425297450.0 0.0503896667 -0.0204505123 0.5054023435 -0.6113285891 0.5055381191 -0.6111228036 0.0498823097 -0.0192349473
430297420.0 0.0499764948 -0.0208212947 0.4980521346 -0.6163756422 0.4989283353 -0.6164226132 0.0499226055 -0.0200536138
435297390.0 0.0493474281 -0.021278961 0.4912294291 -0.6225899684 0.4912803063 -0.622080752 0.0503183496 -0.0206219795
440297360.0 0.0494001032 -0.0215364305 0.48466814 -0.6274184792 0.484722764 -0.6277526097 0.0490098306 -0.0212374616
445297330.0 0.0485825578 -0.0227556938 0.4778547912 -0.6329722046 0.4780883197 -0.6325178045 0.0493483057 -0.0221743768
450297300.0 0.0485322293 -0.0229166344 0.4711500846 -0.6380944777 0.4708493499 -0.63874236 0.0485489366 -0.0224799584
455297270.0 0.0483284809 -0.0237864579 0.4635137828 -0.6436824074 0.4639291873 -0.6435784766 0.0481460475 -0.0229140072
460297240.0 0.0477522615 -0.0241909697 0.4570355938 -0.6487036326 0.4570157532 -0.6489529421 0.0479895033 -0.023136602
465297210.0 0.0476847585 -0.0246539001 0.4494663224 -0.653914372 0.449507753 -0.6539698183 0.0475935789 -0.0242982293
470297180.0 0.0470101745 -0.0255336838 0.4416532371 -0.6583906557 0.4421166425 -0.6586779241 0.0472274636 -0.024569826
475297150.0 0.0467038129 -0.0260870042 0.4348023633 -0.6629111697 0.4354177159 -0.6632509912 0.0471893439 -0.0255725186
480297120.0 0.0460251142 -0.0260492882 0.4274513305 -0.6686588073 0.4277752219 -0.668497464 0.0470329992 -0.025653992
485297090.0 0.0453906726 -0.0266067682 0.4203724312 -0.6727878859 0.4208361565 -0.6728057038 0.046185773 -0.0264236436
490297060.0 0.0448166589 -0.0275933312 0.4134965071 -0.6781639021 0.4134475113 -0.677107511 0.045743832 -0.0264224382
495297030.0 0.0445974199 -0.0277340299 0.4050621262 -0.6822199352 0.4064318243 -0.6825610422 0.0451686208 -0.0273711573
500297000.0 0.0441227608 -0.0286707779 0.397511074 -0.6858471986 0.3977031597 -0.685980968 0.0448973925 -0.0272058792
505296970.0 0.0440143155 -0.0288583103 0.3902735707 -0.6904477241 0.3903121159 -0.6905756497 0.0442525068 -0.0278841353
510296940.0 0.0434763585 -0.0291016504 0.3826864679 -0.6951295704 0.3827786446 -0.6954698733 0.0441251925 -0.0282412916
515296910.0 0.0426952325 -0.0294271875 0.3745866477 -0.6996880704 0.3753906991 -0.6996075768 0.0436693682 -0.0284356012
520296880.0 0.0424698158 -0.030299353 0.367643526 -0.7037764784 0.3674558617 -0.7032616461 0.0429095555 -0.0297030277
525296850.0 0.0422016309 -0.031116353 0.3596922348 -0.707472548 0.360097773 -0.7072611816 0.0424719919 -0.0297330416
530296820.0 0.0417911884 -0.0312643044 0.3516941801 -0.7113908624 0.3523562593 -0.7111611641 0.0421413356 -0.0299735926
535296790.0 0.0408627658 -0.0316498001 0.3446231261 -0.7148677079 0.3446873029 -0.7149108906 0.041803228 -0.0310858769
540296760.0 0.0400483448 -0.0318428899 0.3362188696 -0.7196169005 0.3363031775 -0.7191756482 0.0406451398 -0.0308038446
545296730.0 0.0400877352 -0.0325345948 0.3282042532 -0.7227216293 0.3282848557 -0.7224706938 0.0404977495 -0.0313136461
550296700.0 0.0399473988 -0.0323835008 0.3201967826 -0.7259197147 0.3206810801 -0.7264375079 0.0395792662 -0.0318973321
555296670.0 0.0389397144 -0.0328868522 0.3124505309 -0.7291801236 0.312679109 -0.7295335732 0.0393300991 -0.0321844303
560296640.0 0.0388431191 -0.0332395151 0.3042034672 -0.7324522459 0.3048011938 -0.7329201896 0.0390603408 -0.0327523075
565296610.0 0.0376282686 -0.0339255962 0.2960464325 -0.7364746472 0.2965211225 -0.7362701537 0.0381357287 -0.0332427678
570296580.0 0.0371542263 -0.0340146282 0.2885800092 -0.7401989634 0.2878238057 -0.7393325852 0.0380608302 -0.0328372023
575296550.0 0.0363622271 -0.0339860095 0.2803971578 -0.7428236029 0.2806370158 -0.7426878984 0.0379080424 -0.0335932706
580296520.0 0.0362868387 -0.0345220813 0.2721584911 -0.7455847232 0.2725615326 -0.7459308208 0.0368661309 -0.034234495
585296490.0 0.0355258058 -0.0357187608 0.2642864545 -0.7482819903 0.264552552 -0.7490262171 0.0364516778 -0.0343937004
590296460.0 0.0354470651 -0.0354951193 0.2562250078 -0.7502997446 0.2556211105 -0.7517247277 0.0352770242 -0.0346542281
595296430.0 0.0348856549 -0.035514067 0.2471437987 -0.7542307297 0.2475219843 -0.754358867 0.0354174123 -0.0351470526
600296400.0 0.0339286282 -0.0362527226 0.239512317 -0.7568341455 0.2393486076 -0.7565385754 0.034648422 -0.0354559264
605296370.0 0.0336382433 -0.0368038584 0.2312107262 -0.7593883275 0.2310592232 -0.7593914455 0.03422526 -0.0354483823
610296340.0 0.0331210172 -0.0368951143 0.2223490129 -0.7614642469 0.2231350491 -0.7620674559 0.0340467918 -0.035968228
615296310.0 0.0329546844 -0.0373791479 0.2142259297 -0.7642446452 0.2136643876 -0.7649660525 0.0334673263 -0.0362372907
620296280.0 0.0320598788 -0.0377959584 0.2059890743 -0.7665863811 0.2060108288 -0.7665712957 0.0325063813 -0.0364937936
625296250.0 0.0311589395 -0.0386038939 0.1979811145 -0.7689342306 0.1979742668 -0.7695192713 0.0330693481 -0.0368770826
630296220.0 0.0319972179 -0.037860532 0.1888302913 -0.7703182091 0.1890018169 -0.7706322853 0.031958147 -0.0369260878
635296190.0 0.0299603781 -0.0389366771 0.1811664059 -0.7731800482 0.1806121445 -0.7730722722 0.0312493268 -0.0370509457
640296160.0 0.0296314099 -0.0386988582 0.1723008575 -0.7745634234 0.1728545292 -0.7747619308 0.0305198698 -0.0376951498
645296130.0 0.0290393253 -0.0389634407 0.1638258007 -0.7762049418 0.1644311957 -0.7766458639 0.030221303 -0.0378432127
650296100.0 0.028760971 -0.0392837186 0.1551114778 -0.7780594092 0.156173062 -0.778306382 0.0302276359 -0.0388022404
655296070.0 0.0277987965 -0.0399323245 0.1468869173 -0.779805981 0.1473560828 -0.7802388472 0.0293777631 -0.0380598168
660296040.0 0.026851801 -0.0406132721 0.1386989 -0.7814728999 0.139107636 -0.7813013362 0.0289969602 -0.0386005136
665296010.0 0.0270268872 -0.0402139831 0.1294169061 -0.7825447586 0.1298919493 -0.7829083871 0.0282678659 -0.0383395132
670295980.0 0.0251501163 -0.0402334574 0.1208882471 -0.7841199839 0.1213643547 -0.7843496213 0.0272320164 -0.0388245647
675295950.0 0.0252198952 -0.0403230132 0.113245313 -0.7853143382 0.1129294467 -0.7850243254 0.0262310567 -0.0388366467
680295920.0 0.0243460441 -0.0409057783 0.1036923375 -0.7867698382 0.1039380927 -0.7868774221 0.0264421083 -0.0384419348
685295890.0 0.0241301356 -0.0402043119 0.0955761202 -0.7876609391 0.0957681406 -0.7877636188 0.0254348331 -0.0388546497
690295860.0 0.0238289811 -0.0404435963 0.0869911976 -0.7878506613 0.0867100309 -0.789133264 0.0246729259 -0.0384461658
695295830.0 0.0230747205 -0.0410644342 0.079206023 -0.7894542403 0.0782577538 -0.7900567294 0.0240573757 -0.0392585787
700295800.0 0.02241768 -0.0415048151 0.0695078689 -0.7900471684 0.0697719138 -0.7900420463 0.0236660264 -0.0384117057
705295770.0 0.0215452499 -0.0404939875 0.0605142177 -0.7913524347 0.0618633467 -0.7907730263 0.0228049708 -0.0391755825
710295740.0 0.0215594911 -0.0412673355 0.0525915681 -0.7924510835 0.0530633584 -0.7923492049 0.0228037813 -0.0401059741
715295710.0 0.0199061567 -0.0416192216 0.044575565 -0.7925641588 0.0438608775 -0.7923116795 0.0221795354 -0.039674704
720295680.0 0.0197095264 -0.0417507251 0.0349728169 -0.7931969665 0.035533813 -0.7923161668 0.0214264736 -0.0392476751
725295650.0 0.0193862944 -0.0417128706 0.0265645378 -0.7932816328 0.0270245308 -0.7935681325 0.020477761 -0.0393031284
730295620.0 0.0190232022 -0.0415014747 0.0185196683 -0.7926403642 0.0181619601 -0.7934005711 0.0197785673 -0.0401272949
735295590.0 0.0179558906 -0.0413095818 0.0097881881 -0.7930387281 0.0093125313 -0.7935400462 0.0192022308 -0.0406327189
740295560.0 0.0172257164 -0.0417177759 0.0011630453 -0.793470743 0.0008074292 -0.793429229 0.0189643421 -0.0398721047
745295530.0 0.0169627092 -0.0413842789 -0.0077678582 -0.7922459388 -0.0076873629 -0.7934588739 0.0182623648 -0.0408046545
750295500.0 0.0161924846 -0.0418714704 -0.0159321538 -0.7926746734 -0.0163730422 -0.7935693338 0.0177270964 -0.040389269
755295470.0 0.0156239568 -0.0420732919 -0.0245338135 -0.7927822727 -0.0243187845 -0.7931999047 0.0178262093 -0.0408128841
760295440.0 0.014634155 -0.0416816969 -0.0339165105 -0.793217385 -0.0340085586 -0.7933343066 0.0167450579 -0.0404203023
765295410.0 0.0142609421 -0.0418404049 -0.0423712785 -0.7923100619 -0.0427538334 -0.7926295083 0.0163179092 -0.0405414676
770295380.0 0.0131939094 -0.0421308137 -0.0516165082 -0.7917915915 -0.0512647964 -0.7916216308 0.0155894856 -0.0407857764
775295350.0 0.0128157181 -0.0427339609 -0.0594939658 -0.7912128939 -0.0590980204 -0.7904884057 0.0139161719 -0.0402401307
780295320.0 0.0125927816 -0.0421450975 -0.068004654 -0.7900344793 -0.0673110573 -0.7902726284 0.0138817434 -0.0413356165
785295290.0 0.011333412 -0.0427295813 -0.0770711034 -0.7896368193 -0.0761834268 -0.7895045153 0.0142552457 -0.0406918409
790295260.0 0.0116927251 -0.0418024491 -0.0846026208 -0.7887502104 -0.0839451906 -0.7886174184 0.0129659212 -0.0407451303
795295230.0 0.0107452255 -0.0423431266 -0.0936469282 -0.7874950766 -0.0931576621 -0.7876328106 0.0126125663 -0.040260259
800295200.0 0.0095597181 -0.0419089237 -0.1028525708 -0.7859685588 -0.1023411306 -0.7867263913 0.0123023768 -0.0405227673
805295170.0 0.0093436033 -0.042323761 -0.110824429 -0.7850245802 -0.111100108 -0.7857219168 0.0113384315 -0.0404162674
810295140.0 0.0084355986 -0.0426382777 -0.1188872155 -0.7839868942 -0.119188886 -0.783961534 0.0114281276 -0.0401217391
815295110.0 0.0082535262 -0.0426693717 -0.1276339204 -0.7817678427 -0.1277534808 -0.782481995 0.0100546014 -0.0400226888
820295080.0 0.0069094545 -0.0415179666 -0.1364875787 -0.7807676998 -0.1357686846 -0.7813114771 0.0097801352 -0.0401958356
825295050.0 0.0074360814 -0.0418147243 -0.1441002289 -0.7791782032 -0.1443435948 -0.7795318034 0.0094687236 -0.0400687891
830295020.0 0.0064680811 -0.0416430287 -0.1533715372 -0.7774709574 -0.1530193934 -0.77734236 0.0094660268 -0.0397396421
