!Created with skrf (http://scikit-rf.org).
# Hz S RI R 50.0 
!freq ReS11 ImS11 ReS21 ImS21 ReS12 ImS12 ReS22 ImS22
300000.0 -0.0423479676 -0.056028895 -0.0021612616 -4.64636e-05 -0.0001993338 0.0010567242 -0.7718431315 -0.1536252213
5299970.0 -0.044798928 0.016003224 0.0001039051 0.0002059563 0.000275303 -9.37711e-05 -0.7848248849 -0.0084402067
10299940.0 -0.0388993124 0.0336696579 0.0002195097 0.0001840684 -6.39087e-05 -0.000124916 -0.7883305354 -0.0047485208
15299910.0 -0.0306806103 0.0483376982 3.61034e-05 -0.000112646 -0.0002222826 9.72848e-05 -0.793713734 -0.0032598438
20299880.0 -0.0204984084 0.0599712041 -4.32454e-05 -0.0002125143 -3.13861e-05 -0.0001046697 -0.8005764911 0.0017373219
25299850.0 -0.0092680818 0.0692541344 -9.83034e-05 0.0001646156 3.5663e-06 -2.57339e-05 -0.8069564742 0.0073418381
30299820.0 0.0025548336 0.0759956465 -4.08657e-05 0.0001430267 5.20819e-05 4.85079e-05 -0.8125555437 0.0146580778
35299790.0 0.0145731038 0.0808950008 -4.60118e-05 7.16356e-05 -1.27272e-05 9.65708e-05 -0.817956319 0.0236050732
40299760.0 0.0258308661 0.0834674583 1.35549e-05 5.94016e-05 -9.89814e-05 0.0001483609 -0.8217476999 0.0334624463
45299730.0 0.0365559805 0.0852592733 -0.0002090045 0.0001749012 5.32914e-05 2.82066e-05 -0.8253953326 0.042353483
50299700.0 0.04648809 0.0849974041 -5.37667e-05 7.89503e-05 6.65567e-05 -5.1125e-05 -0.827855283 0.0526019042
55299670.0 0.0557485811 0.0840025195 -0.0001439679 -4.01207e-05 0.0001510089 7.32844e-05 -0.830122924 0.0628342402
60299640.0 0.064313359 0.0821451156 -0.0003520804 6.54639e-05 -6.04259e-05 8.39545e-05 -0.8314728762 0.073343907
65299610.0 0.0722339993 0.0800366972 1.35975e-05 -8.33862e-05 0.0001218921 1.513e-06 -0.8310646477 0.0825440562
70299580.0 0.0791414882 0.0769861761 2.12278e-05 -5.6213e-05 8.37673e-05 -1.43227e-05 -0.832107983 0.0928229525
75299550.0 0.0856757078 0.0735355476 0.0002910563 0.0001099577 -7.96396e-05 5.36057e-05 -0.8325560116 0.1024904231
80299520.0 0.0910360559 0.0703745743 0.0002629988 9.07603e-05 -5.64852e-05 0.0001782902 -0.831798631 0.1122614744
85299490.0 0.096392718 0.0662097349 3.18564e-05 -3.92826e-05 -6.14817e-05 0.0001079145 -0.8317550676 0.1218464219
90299460.0 0.1009658563 0.0629495545 4.66405e-05 0.0001104609 8.19838e-05 3.68126e-05 -0.8305643202 0.1312832584
95299430.0 0.1051190912 0.0586201966 0.0001231549 0.0001548418 -0.0002331916 -1.47728e-05 -0.8297298837 0.1414138491
100299400.0 0.1083563287 0.0550910535 3.32429e-05 9.8564e-05 -9.064e-06 3.45824e-05 -0.8290418201 0.1495525883
105299370.0 0.111879926 0.0509948817 6.84216e-05 -0.0001701933 0.0001821534 3.8982e-05 -0.8272117476 0.1588692484
110299340.0 0.1145570083 0.0472764805 -3.2179e-06 0.0001369071 -1.2428e-06 -0.000111263 -0.8267013917 0.1685581094
115299310.0 0.1171667717 0.0429554726 0.0002332182 -5.98902e-05 -4.50927e-05 0.0001301652 -0.8245443925 0.1774082606
120299280.0 0.1191948337 0.0395567637 0.0001128417 0.000195722 -0.0001040656 7.32666e-05 -0.8235548482 0.1863644769
125299250.0 0.1212317756 0.0356317518 -2.94713e-05 0.0001784514 -2.059e-07 -5.9965e-06 -0.8217096537 0.1958686708
130299220.0 0.1230227245 0.0322607434 -0.0001134067 7.72061e-05 -6.9728e-05 7.01366e-05 -0.8200426105 0.2046626936
135299190.0 0.1247193594 0.0286070251 2.61079e-05 -0.0001012244 -0.0002011606 9.81971e-05 -0.817847891 0.2126316919
140299160.0 0.1261212758 0.0249672239 -6.8885e-06 0.0001212789 -5.47713e-05 0.000266089 -0.8158058425 0.2212381892
145299130.0 0.1271445967 0.0214921818 -0.0002217442 0.0002149901 0.0002195246 0.0001087162 -0.8141043764 0.2300671032
150299100.0 0.1277797545 0.0182312437 -0.0001651996 -0.0001198164 -6.7657e-05 0.0002484889 -0.8119526339 0.2387350897
155299070.0 0.1286167881 0.0149276167 5.35444e-05 9.05131e-05 0.0001087204 0.000139678 -0.8092934613 0.2473973941
160299040.0 0.1294549365 0.0115903533 0.0002744167 4.11274e-05 -1.45347e-05 2.1913e-05 -0.8073223652 0.2569205061
165299010.0 0.1297105555 0.0085278657 0.0001270605 0.000226058 -0.0001042351 0.0001208381 -0.8042840918 0.265597661
170298980.0 0.1302499999 0.0055407844 9.2077e-06 0.0001085954 5.6618e-05 0.0002068124 -0.8020113157 0.2736080235
175298950.0 0.1305336161 0.0027182549 0.0001669841 1.97602e-05 6.91062e-05 1.77698e-05 -0.7993443549 0.2819982816
180298920.0 0.1309348613 -0.0005243152 -1.74485e-05 -3.84773e-05 0.0001941533 0.0001507575 -0.7955858651 0.2907873971
185298890.0 0.1306780071 -0.0033112264 -8.7523e-06 0.0001383053 0.0003622015 0.0002602105 -0.7928355723 0.2986874264
190298860.0 0.1310095425 -0.006140778 -0.000108147 -7.7756e-05 4.00343e-05 0.0001667529 -0.7893873798 0.3079564801
195298830.0 0.1313586213 -0.0088760016 0.0001720757 0.0001078177 5.5845e-06 0.0002278305 -0.7868070569 0.3157017264
200298800.0 0.1308011023 -0.0114671936 0.0001612634 0.0001872274 6.9946e-05 -6.82672e-05 -0.7829695617 0.3245013208
205298770.0 0.1306671559 -0.0141719871 0.0001060604 0.0001617596 0.0001669399 0.000135448 -0.7798006881 0.3326407596
210298740.0 0.1303277379 -0.0164171499 0.0001460006 9.6503e-06 0.0001320957 0.0001716172 -0.7770285315 0.34046421
215298710.0 0.1300045097 -0.0190892334 0.0001232952 3.95712e-05 8.5145e-06 0.0001296602 -0.7732314312 0.3483776954
220298680.0 0.1297874608 -0.0216726642 -0.0001430575 -4.22785e-05 -7.59979e-05 5.7508e-05 -0.7694905119 0.3570148878
225298650.0 0.1294996065 -0.0239939173 -5.20259e-05 0.0001494249 0.0002056423 9.29509e-05 -0.766122734 0.3649338972
230298620.0 0.1290288826 -0.0262848273 0.00012841 0.0002073969 7.40425e-05 3.34052e-05 -0.7616526696 0.3730834109
235298590.0 0.128191729 -0.0286670304 0.0001280535 0.000180192 0.0001484879 0.0001083623 -0.7577881102 0.3809261778
240298560.0 0.1279263731 -0.031088199 0.0001604915 9.29934e-05 0.0002793128 0.0001724757 -0.7542658606 0.388365098
245298530.0 0.1273715062 -0.0330007976 9.97187e-05 -2.6227e-05 -0.0001098983 0.0001219943 -0.750374863 0.3966381801
250298500.0 0.1268216176 -0.0350568766 -1.95406e-05 3.77268e-05 9.59719e-05 0.0004357314 -0.7455760922 0.4051895218
255298470.0 0.1261873258 -0.0373438196 -7.47207e-05 0.0001288014 7.74801e-05 -0.0001282325 -0.7415521818 0.412871198
260298440.0 0.125555964 -0.0392074445 0.0001131858 -2.47742e-05 0.000160203 -1.20077e-05 -0.7368908661 0.4199363445
265298410.0 0.1248673082 -0.0410227669 0.0001195039 8.72829e-05 9.73881e-05 1.46936e-05 -0.7322836586 0.4275949106
270298380.0 0.1242990506 -0.0431645779 8.06601e-05 0.0002332971 0.0004332421 0.0001994049 -0.727713663 0.4354764039
275298350.0 0.1234790022 -0.0449656215 0.0001432159 5.91853e-05 8.03589e-05 0.0002644033 -0.722697208 0.4432684355
280298320.0 0.1227289776 -0.0468697487 -1.88133e-05 0.0002845667 -0.0001243992 7.85716e-05 -0.7185966761 0.4502344511
285298290.0 0.1219373247 -0.0487852046 0.0002213486 0.0002393653 -8.7611e-05 0.0002256029 -0.7132562451 0.458006332
290298260.0 0.1211068656 -0.050560559 8.8722e-05 -5.48473e-05 0.0002524307 0.0001247047 -0.708891995 0.4657241132
295298230.0 0.1203663155 -0.0526088411 0.0001220571 2.46556e-05 8.96417e-05 0.0002079104 -0.7034424139 0.4731933273
300298200.0 0.1194907475 -0.0545600892 0.0001128895 5.05328e-05 0.0001323052 0.0001620914 -0.698564121 0.4800514301
305298170.0 0.1191412851 -0.0562068477 0.0001468876 2.64689e-05 0.0002349772 5.65409e-05 -0.6931638347 0.4876869958
310298140.0 0.1180404804 -0.0584355364 0.0001184647 0.0004339272 0.0002276229 -3.36327e-05 -0.6883889513 0.49522313
315298110.0 0.1165681901 -0.059942945 0.0001512241 4.09122e-05 -0.0002549361 0.000238873 -0.6830279869 0.5023364728
320298080.0 0.1158070804 -0.0619927294 9.06034e-05 0.0003799795 0.0003985413 9.08705e-05 -0.6778353146 0.5096536205
325298050.0 0.1145262603 -0.0640947143 0.0001576487 0.0002497687 8.27679e-05 0.0002640485 -0.6722662317 0.5160938591
330298020.0 0.1133269698 -0.0653925522 0.0002647702 0.0001166198 0.0001778004 2.10386e-05 -0.6667019263 0.5231645086
335297990.0 0.1118159339 -0.0667598736 8.12846e-05 -3.00938e-05 0.0001513544 7.40375e-05 -0.6614502395 0.5302830521
340297960.0 0.1108126452 -0.0681563735 0.0001026423 0.0001993015 7.57504e-05 0.0001088455 -0.6554933131 0.5371160651
345297930.0 0.1093224797 -0.0696064945 0.0001462495 0.0002244341 0.0001869551 -9.4508e-05 -0.6499344713 0.5445808178
350297900.0 0.10851029 -0.071072871 0.0002513304 9.6067e-05 3.44228e-05 8.4319e-05 -0.6436898024 0.5508122072
355297870.0 0.1069342802 -0.0726325351 0.0003501063 0.0001247844 -0.0001004813 0.0001384133 -0.6384704416 0.5570246223
360297840.0 0.1059773459 -0.0739109101 0.0003935556 5.23935e-05 0.0003729445 0.000181549 -0.6319980869 0.5638265115
365297810.0 0.1048449273 -0.0753095695 0.0002449734 7.23673e-05 0.0004164689 0.000289645 -0.6257611815 0.5705793568
370297780.0 0.1036366083 -0.0764922452 1.91499e-05 9.62358e-05 0.000194222 0.0002472506 -0.6202977245 0.5766770546
375297750.0 0.1021790596 -0.077478778 9.29729e-05 4.88749e-05 9.03478e-05 4.07983e-05 -0.6144585128 0.5830197168
380297720.0 0.1015718745 -0.0789718069 0.0001567298 3.96375e-05 0.0003123387 0.0001256707 -0.6077391967 0.5901064279
385297690.0 0.1002152055 -0.0801756115 0.0003703402 -6.7979e-06 0.00012077 -1.34107e-05 -0.6014062678 0.5958338416
390297660.0 0.098982737 -0.0812966759 7.42589e-05 2.60366e-05 0.0001052145 0.0002797223 -0.594904735 0.6011204108
395297630.0 0.0976439596 -0.0825814637 0.0001961029 0.0001243066 0.0001000205 0.0001057741 -0.5890511736 0.6085534001
400297600.0 0.0965507226 -0.0835884839 0.0001680473 0.0001771302 0.000162433 7.99151e-05 -0.5824318676 0.6137358035
405297570.0 0.0956182803 -0.084875237 -2.34355e-05 7.48292e-05 0.0005566414 7.93311e-05 -0.5774942198 0.6197717227
410297540.0 0.0940896502 -0.0857668904 0.0002619417 0.0002964189 0.000264385 4.88534e-05 -0.5694683008 0.6256142798
415297510.0 0.0929174781 -0.0869850671 0.0002112077 -6.5033e-06 0.0001902985 7.06357e-05 -0.5634614661 0.631842535
420297480.0 0.0915030832 -0.0882156284 0.0001189555 3.87215e-05 6.01561e-05 3.01223e-05 -0.5570451456 0.6368473882
425297450.0 0.0903431479 -0.0893390241 3.95572e-05 0.0001281755 0.0002721651 3.36568e-05 -0.5498655758 0.6432786201
430297420.0 0.0889943891 -0.0902545748 0.0002696789 0.0001363361 0.0002965067 7.44341e-05 -0.5434831157 0.6488208095
435297390.0 0.087841576 -0.0912681862 9.173e-06 0.0001191263 9.33069e-05 4.07212e-05 -0.5367941453 0.6539053434
440297360.0 0.0865902048 -0.0921692498 0.0002231035 -2.51086e-05 0.0002004756 0.0002007402 -0.529874447 0.6583788888
445297330.0 0.0851997135 -0.092897523 0.0002284535 -4.46223e-05 0.0003380973 0.0001242906 -0.5235503727 0.6639876191
450297300.0 0.0837827134 -0.094428227 0.0003288153 -8.07795e-05 0.0001638611 -8.20375e-05 -0.5168034715 0.6698883792
455297270.0 0.0825288053 -0.0951252903 0.000390136 -0.0001161595 0.0001632767 5.87301e-05 -0.5093705055 0.6753537887
460297240.0 0.0812214807 -0.0957940323 0.0001133536 1.83387e-05 0.0001815602 -7.11959e-05 -0.5021870086 0.6809432524
465297210.0 0.0800241974 -0.0966669246 0.0002802372 0.0001088447 0.0002177729 9.73185e-05 -0.4958567099 0.6850543911
470297180.0 0.078567949 -0.0975490411 0.0001004046 -1.15172e-05 0.000231217 -8.60874e-05 -0.488932925 0.6893823493
475297150.0 0.0770907141 -0.0985174965 0.000245619 0.0001390244 0.0001733549 0.0001692163 -0.4813987805 0.6952304368
480297120.0 0.0757734133 -0.0994515988 0.0002538239 0.0001148164 0.0002854021 -2.86686e-05 -0.474904421 0.7001631377
485297090.0 0.0747297394 -0.100253987 0.000267112 0.0002138474 0.0004019794 7.81965e-05 -0.4672429887 0.7042671219
490297060.0 0.0733101835 -0.1009562188 0.0001140086 0.000109722 0.0004777375 9.97646e-05 -0.4609326215 0.7090200036
495297030.0 0.0717950067 -0.1015133174 0.0001673327 -6.52083e-05 0.0003359951 0.0001227367 -0.4526806869 0.7129772356
500297000.0 0.0704414221 -0.1025857208 0.0003483708 -8.31563e-05 0.0001733517 8.55492e-05 -0.4463508665 0.7180714729
505296970.0 0.0687734079 -0.1030598242 0.0002829906 9.43908e-05 0.000371722 -7.68807e-05 -0.4393880098 0.7218863457
510296940.0 0.067488483 -0.1038456994 0.0002668914 2.74483e-05 0.0003034865 -5.35038e-05 -0.431881755 0.7266201847
515296910.0 0.0659751942 -0.1042730843 0.0003065964 8.23446e-05 0.0003465762 5.20117e-05 -0.4238761166 0.7313000158
520296880.0 0.0646385413 -0.1050930134 0.0001481093 6.89052e-05 8.92521e-05 9.55688e-05 -0.4168634037 0.734819921
525296850.0 0.0631590952 -0.1058742111 0.0001286971 4.00949e-05 0.0004683803 -8.63261e-05 -0.4093720591 0.7398396715
530296820.0 0.0618261623 -0.1063687331 0.0003721013 7.77e-07 0.0003551438 0.0002082659 -0.4026336681 0.7428431072
535296790.0 0.0607252015 -0.1070189295 0.0002309187 0.0001237578 5.67471e-05 0.0001569427 -0.3950514292 0.7463781422
540296760.0 0.0591030549 -0.1078569646 2.44797e-05 -3.82902e-05 0.0002828505 0.0001639011 -0.3875596266 0.7512150992
545296730.0 0.0578663709 -0.1078214097 0.000215993 0.0001861897 0.0001937529 8.04742e-05 -0.380083691 0.7540305666
550296700.0 0.0561448754 -0.1086881453 0.0003015431 0.000125353 0.0003237988 -1.20872e-05 -0.3725515811 0.7585675756
555296670.0 0.0547717273 -0.1088815828 0.0001991486 0.0001437894 0.0004021883 0.0001291995 -0.3647602399 0.7620034943
560296640.0 0.0533803627 -0.1098991243 0.0004389383 0.0001139025 0.0002345053 -2.19899e-05 -0.3569277239 0.7658361988
565296610.0 0.0517536196 -0.1099494718 0.0002784656 0.0001035585 0.0002896497 1.05602e-05 -0.3498459113 0.7688289469
570296580.0 0.0505884148 -0.1106633942 0.0004180519 0.0001226999 0.0002636384 0.0003099876 -0.3423979966 0.7724615924
575296550.0 0.0493124693 -0.1108681136 5.47194e-05 0.0002650488 0.000199751 -6.23843e-05 -0.3342035362 0.7758281413
580296520.0 0.0477084781 -0.1113121186 2.96327e-05 -9.0708e-05 0.0002457223 -1.73307e-05 -0.3266237367 0.7792730249
585296490.0 0.0460931232 -0.1119973618 8.4523e-06 0.0002673246 0.000139131 -0.0001850389 -0.3191814425 0.7817269564
590296460.0 0.0445492416 -0.1120644066 0.0004764147 8.3675e-06 0.0001325501 2.13316e-05 -0.3112922594 0.7847562254
595296430.0 0.0433388233 -0.1124563141 0.0003192852 0.0001956867 0.0001413994 1.66132e-05 -0.3035004382 0.7876916648
600296400.0 0.0419249396 -0.112663883 0.0003436927 -6.87107e-05 0.0001227077 -3.39308e-05 -0.2956474984 0.7915130932
605296370.0 0.040540413 -0.1131921834 0.0001936239 6.5366e-06 9.4885e-05 5.52776e-05 -0.2879997471 0.7943510108
610296340.0 0.0388590098 -0.1135511149 0.0003154366 0.0001055575 0.0003189027 0.0001107364 -0.2800955419 0.7972958733
615296310.0 0.0374068702 -0.1133126746 0.0002741769 0.0001037452 0.0001098627 4.9553e-06 -0.2723027611 0.7991992523
620296280.0 0.0361941596 -0.1139571338 0.0001364813 8.4514e-06 0.0001366285 0.0001584331 -0.2639728535 0.802019857
625296250.0 0.0345170061 -0.1141521682 0.0003879893 0.0002286101 0.0004043681 1.11317e-05 -0.2567124481 0.8050964098
630296220.0 0.0330392726 -0.1143624715 0.0002528149 -0.0001170796 0.0003911668 6.93336e-05 -0.2486800459 0.8075665335
635296190.0 0.0317321351 -0.1147507802 0.0002765453 -0.0002986812 0.0004425487 2.81586e-05 -0.24041064 0.8096609572
640296160.0 0.0300195968 -0.1147173331 0.0003654176 -0.0001042336 0.0002968908 0.0003310161 -0.2320792613 0.8118619668
645296130.0 0.0285146895 -0.1150944864 0.0002055494 -5.25638e-05 0.0003234317 -5.77541e-05 -0.2245031866 0.8144101014
650296100.0 0.0273587414 -0.1149417781 0.0002378241 -0.0001041741 0.0002524577 -2.97878e-05 -0.2160169395 0.8170515431
655296070.0 0.0260409271 -0.1151798219 0.0003191035 -9.82771e-05 0.000184829 0.0001664961 -0.2081443651 0.818092843
660296040.0 0.0240378271 -0.115030771 0.0002835984 8.85215e-05 0.000190833 7.56644e-05 -0.2000982539 0.8203180516
665296010.0 0.0229356137 -0.1154967652 0.0004615638 -0.0001316195 0.0005156473 6.065e-06 -0.1921730829 0.8221929999
670295980.0 0.0214441456 -0.1152929272 0.0004061084 -6.22275e-05 0.0003651488 -0.0001007251 -0.1851048874 0.8240847142
675295950.0 0.0199561483 -0.115595506 0.0001868633 5.02338e-05 0.0003327974 2.9303e-06 -0.1761370643 0.8258228608
680295920.0 0.0183094458 -0.1154291332 0.0002510594 -1.98742e-05 0.0001175731 -0.0002473531 -0.1678301124 0.8273795522
685295890.0 0.0169593703 -0.1152878501 0.0002998011 -5.37739e-05 0.0003586433 7.7905e-06 -0.1593890546 0.8292585768
690295860.0 0.0158266532 -0.1152408593 0.0001435243 0.000115326 0.0002988896 2.36862e-05 -0.1512123049 0.830176405
695295830.0 0.0143101701 -0.1153251529 0.00024862 -0.0001117518 0.0002575441 0.0001180259 -0.1432606257 0.8326901752
700295800.0 0.0126025443 -0.1151947596 0.0002981987 -5.63585e-05 0.0003495259 0.0001488817 -0.134862981 0.8330524127
705295770.0 0.011237777 -0.1153708947 0.0005370585 4.86948e-05 0.000362734 -8.31529e-05 -0.1268402705 0.8350367409
710295740.0 0.0101343728 -0.115068313 0.0005358617 -8.05705e-05 0.0002642749 -8.39826e-05 -0.1191287922 0.8359197474
715295710.0 0.0084148039 -0.114738899 0.0003447927 6.06612e-05 0.0001903354 1.53106e-05 -0.1104416865 0.8369978058
720295680.0 0.0070197278 -0.1148467512 0.000289577 -0.0001442537 0.000387606 -8.57397e-05 -0.101598565 0.8380702848
725295650.0 0.0057097604 -0.114563174 0.0003672291 4.8015e-06 0.0003528527 -4.91335e-05 -0.0936535342 0.8394344141
730295620.0 0.0040285754 -0.1147098185 0.0002352383 -7.50979e-05 0.0004669374 -6.46729e-05 -0.0849642216 0.8402307322
735295590.0 0.0029946561 -0.1142776271 0.0002686872 -0.000178109 0.0003890233 3.21871e-05 -0.0763791614 0.8407975502
740295560.0 0.0013344652 -0.1142212638 0.0003926431 -3.89607e-05 0.0001903479 4.33781e-05 -0.068534377 0.8410037447
745295530.0 -0.0002154822 -0.1140262371 0.0001165415 8.17822e-05 0.0004623933 -0.000143949 -0.0605396593 0.8423105676
750295500.0 -0.0014555486 -0.1138159746 0.0003813812 -4.71851e-05 0.0003578462 -0.0001397485 -0.0512979381 0.8423862914
755295470.0 -0.0027387144 -0.1133160981 0.0001717457 -3.35049e-05 0.0002296672 -6.99389e-05 -0.043731751 0.8433482346
760295440.0 -0.004284194 -0.113105832 0.0004706663 3.26468e-05 0.0003273693 4.3686e-06 -0.035373074 0.843366139
765295410.0 -0.0060001701 -0.1128574863 0.000244224 -0.000100622 0.0001618855 -1.32188e-05 -0.0266250769 0.8445043084
770295380.0 -0.0068208212 -0.112302654 0.0004751814 0.0001823893 0.0004196084 -6.06427e-05 -0.0180183542 0.8441414478
775295350.0 -0.008541277 -0.1119846644 0.0005181938 -0.0002684792 0.0003466001 -3.32838e-05 -0.0107746533 0.8438299091
780295320.0 -0.009843097 -0.1122224683 0.0003845076 5.50659e-05 0.0005414853 -5.9489e-06 -0.0020889737 0.8446805132
785295290.0 -0.0114575884 -0.1113521026 0.0004795348 8.79344e-05 0.0002512917 -5.74473e-05 0.0058817074 0.8441536814
790295260.0 -0.0127566846 -0.1111045363 0.0003509241 -0.0002907588 0.0002133025 -7.33522e-05 0.0154090327 0.8441823663
795295230.0 -0.0137932171 -0.1104813574 0.0004737924 -5.95531e-05 0.0002923451 -0.0001511724 0.0233122022 0.8444007927
800295200.0 -0.0154104392 -0.1101509192 0.0003782753 -0.0003595191 0.0002310408 -0.000193117 0.0315004186 0.843427556
805295170.0 -0.0167655377 -0.1099439447 0.0006399204 2.18221e-05 0.0004047125 1.35799e-05 0.0394091422 0.8429420306
810295140.0 -0.0182390936 -0.1094893559 0.0005858018 -0.0001225887 0.0005913906 -0.000221916 0.0476826648 0.8436223959
815295110.0 -0.0193819081 -0.1088295764 0.0003115519 -0.0002397726 0.0005805589 -0.0001846968 0.0559910701 0.8424400873
820295080.0 -0.02087173 -0.1084709593 0.000554818 4.244e-05 0.0005096749 -8.66974e-05 0.0638063589 0.841855009
825295050.0 -0.0220849136 -0.1079167032 0.0004551393 -4.31089e-05 0.0005840751 -0.0001713548 0.0725352766 0.8409806039
830295020.0 -0.0231780962 -0.1073149079 0.0003983777 -4.7043e-05 0.0004412673 6.48999e-05 0.0807395434 0.8401586585
835294990.0 -0.0246351277 -0.106832902 0.0004215988 9.8282e-06 0.0002242004 -1.93806e-05 0.0894632209 0.8398015919
840294960.0 -0.0258836563 -0.1064231547 0.0005488208 -0.0003570292 0.0003127193 2.36635e-05 0.0974686993 0.838606761
845294930.0 -0.0270600649 -0.1060372811 0.0003144079 -0.0001404365 0.000633875 -0.0001947677 0.1056873404 0.8378201244
850294900.0 -0.0283489438 -0.1051925074 0.0005667058 3.72725e-05 0.0003947929 6.47359e-05 0.1138323664 0.8368460502
