!Created with skrf (http://scikit-rf.org).
# Hz S RI R 50.0 
!freq ReS11 ImS11 ReS21 ImS21 ReS12 ImS12 ReS22 ImS22
300000.0 -0.7783799738 -0.1505820769 -0.0006963956 0.0002956328 0.0006747954 0.0002643666 -0.0475358022 -0.0716486912
5299970.0 -0.7854672396 -0.0075001091 1.7415e-06 -9.55706e-05 0.0001842193 0.0001671302 -0.0494897254 0.0146939298
10299940.0 -0.7877310525 -0.0043778468 0.0001251577 2.00736e-05 5.31717e-05 2.89421e-05 -0.0441656928 0.0321150099
15299910.0 -0.7936022742 -0.0012603289 0.0001041886 -0.0002205784 -0.0001350352 3.44708e-05 -0.0354052913 0.046567532
20299880.0 -0.7998389603 0.0027286045 -9.45621e-05 -8.57e-05 6.28754e-05 0.0001076694 -0.0257412073 0.0583268513
25299850.0 -0.8064951386 0.0080325815 -4.94886e-05 -2.43695e-05 -0.0002018049 0.0001618985 -0.0150550072 0.0676348023
30299820.0 -0.8120399627 0.0164372253 4.08489e-05 -1.7199e-06 0.0002658307 2.72084e-05 -0.0036477414 0.0746892235
35299790.0 -0.8170537264 0.0251262673 -0.0001472821 0.0001721497 -0.0001153512 0.0002266333 0.0076181003 0.0793979808
40299760.0 -0.8212548985 0.0343124568 5.54952e-05 0.0001001487 -3.4528e-06 -4.49505e-05 0.0190767839 0.0824918255
45299730.0 -0.8247950166 0.0444063697 -6.18347e-05 -2.8325e-05 0.0001301339 0.0002404829 0.0293702161 0.0840689575
50299700.0 -0.8269103545 0.0540068865 8.93723e-05 1.49909e-05 -4.65249e-05 0.0002331225 0.0395352814 0.0844441365
55299670.0 -0.8287658278 0.0641422553 4.78683e-05 7.1142e-06 -1.91291e-05 -3.06018e-05 0.0484793503 0.0835068374
60299640.0 -0.8300089981 0.0746506137 0.0001140332 -5.08919e-05 7.80076e-05 3.22636e-05 0.0570130405 0.0816628499
65299610.0 -0.8312800039 0.0848997873 0.0001402512 2.35193e-05 -0.0001519682 6.408e-06 0.064880315 0.0794929933
70299580.0 -0.8313521587 0.0945772155 4.25805e-05 3.38842e-05 2.51754e-05 1.0648e-05 0.0719334209 0.0766637191
75299550.0 -0.8315958804 0.1044472414 1.25493e-05 -1.76898e-05 -1.7888e-05 -0.0001637972 0.0783475857 0.0737780277
80299520.0 -0.8310924732 0.1145344254 -9.92641e-05 0.0002151448 -6.4154e-06 0.00022751 0.0831655982 0.0701645594
85299490.0 -0.8305624427 0.1242758768 0.0001477038 3.39697e-05 7.23183e-05 5.63973e-05 0.0886537965 0.0668075429
90299460.0 -0.8300862201 0.1339570306 -4.27698e-05 1.08559e-05 0.0001055234 0.0002243431 0.0934230888 0.0628345588
95299430.0 -0.8286635401 0.1434516343 3.9278e-06 2.74288e-05 0.0001507234 0.0002335396 0.0974895599 0.0591324301
100299400.0 -0.8278514985 0.1528933795 4.79208e-05 0.0001304187 -9.06599e-05 -0.0001052753 0.1011061896 0.0552799291
105299370.0 -0.8267999787 0.1625603558 4.6093e-06 -4.44021e-05 0.0001473252 4.61409e-05 0.1048425901 0.0516261796
110299340.0 -0.8254575187 0.1711956126 -6.10116e-05 6.08694e-05 -0.0001163293 -1.98656e-05 0.1070673253 0.0477856274
115299310.0 -0.8237088562 0.1803471223 2.68525e-05 0.0001157241 0.0001004337 6.54991e-05 0.1098070455 0.0434885548
120299280.0 -0.8215080888 0.1896468288 8.50996e-05 4.77447e-05 7.69091e-05 0.0001786262 0.1122392985 0.040160095
125299250.0 -0.8206097487 0.198608301 8.28847e-05 0.0002334171 0.0001881538 -8.39249e-05 0.1142455581 0.0359898685
130299220.0 -0.8181075334 0.2078326677 2.40782e-05 6.26068e-05 -9.46675e-05 -7.92618e-05 0.1156346014 0.0326759445
135299190.0 -0.8166263877 0.2164343253 -8.57125e-05 0.0002034247 0.0002077862 0.0001556277 0.1174985063 0.0288051463
140299160.0 -0.8146880097 0.2254159464 7.3765e-06 0.0001718417 0.0001118871 0.0001805463 0.1188104063 0.0254088914
145299130.0 -0.8122702214 0.2339847341 -1.17413e-05 0.000179051 -0.0001631022 0.0002077439 0.1194102877 0.0222151701
150299100.0 -0.8101928305 0.2432861382 -2.60446e-05 9.88474e-05 0.0002826026 -7.10714e-05 0.1206136961 0.0187513475
155299070.0 -0.8079537607 0.2525328605 -0.0001363969 8.34701e-05 -0.0001290164 0.0002509621 0.1215309445 0.0154602878
160299040.0 -0.8047727911 0.2609993344 -2.49696e-05 0.0001118957 -8.13485e-05 -3.63602e-05 0.1224009915 0.0123815338
165299010.0 -0.8026496703 0.2693735432 5.25094e-05 6.80445e-05 3.6196e-05 0.0002080646 0.1226938858 0.0092217625
170298980.0 -0.8000929249 0.2781633709 0.0001421632 8.92907e-05 0.000272277 6.76138e-05 0.1234802465 0.0060884815
175298950.0 -0.7969881489 0.2871865266 0.0001384061 0.0001710634 8.062e-05 0.0001636041 0.1238054795 0.002860888
180298920.0 -0.793777389 0.2951047508 -0.0001050083 0.0001475227 9.23123e-05 -1.45351e-05 0.1244399505 5.2217e-06
185298890.0 -0.7902259509 0.304388895 4.62112e-05 -9.3693e-05 5.6839e-05 4.73e-07 0.123840374 -0.0031612312
190298860.0 -0.7872860279 0.3125426378 0.0001606677 0.0001586199 -5.42909e-05 2.78203e-05 0.1244474246 -0.0059028866
195298830.0 -0.7844550722 0.3208814973 3.00812e-05 8.34267e-05 5.03156e-05 0.0001391886 0.1241670357 -0.0088535707
200298800.0 -0.7808828047 0.3295442299 0.0002720657 -7.1741e-06 0.0001947391 -4.21292e-05 0.1246449372 -0.011099168
205298770.0 -0.7773149784 0.3374178903 -6.2603e-05 0.0001646346 0.000193947 7.68196e-05 0.1242192075 -0.0137496896
210298740.0 -0.7739986115 0.3462545908 0.000324129 8.58832e-05 2.92139e-05 0.0002573192 0.1241966909 -0.0163598221
215298710.0 -0.7703590573 0.3550505896 0.0002522934 0.0001239195 -3.72078e-05 8.70958e-05 0.1234026402 -0.0187849047
220298680.0 -0.7676566172 0.3626561569 0.0002705238 -7.96833e-05 0.000228701 0.00017366 0.1235360909 -0.0211937387
225298650.0 -0.7628981798 0.370909868 4.80071e-05 -4.48803e-05 5.06759e-05 0.0001197347 0.1228798635 -0.023487227
230298620.0 -0.7586571555 0.3789617213 -0.0001084881 7.34303e-05 0.0001516195 0.0001449645 0.122764692 -0.0258124343
235298590.0 -0.754757537 0.3873059236 -6.67917e-05 0.0001791787 8.00799e-05 0.0003688135 0.1221726492 -0.0283559591
240298560.0 -0.7508866315 0.3952842991 0.0001973136 0.0001422533 0.0001645084 3.5878e-05 0.1217158115 -0.0303545776
245298530.0 -0.7468742463 0.4028252777 9.5472e-06 2.987e-07 -0.0001126173 0.0002214494 0.1212250885 -0.0323301349
250298500.0 -0.7424138016 0.410751265 0.0002108823 5.7464e-05 0.0001253443 0.0001212614 0.1210151464 -0.034277037
255298470.0 -0.7375208308 0.4186374691 3.435e-05 -2.20498e-05 0.0001103219 0.0002960437 0.1200246168 -0.0368826124
260298440.0 -0.7339090606 0.4257861882 0.0002558794 0.0003892301 8.97857e-05 0.0001528102 0.1194691937 -0.0388952193
265298410.0 -0.729896148 0.4340786554 8.36806e-05 9.56029e-05 0.0002893529 -0.0001185227 0.118848983 -0.0406455331
270298380.0 -0.7244730547 0.4420672358 0.0001199843 0.0004019703 0.0002631114 0.0001604067 0.1184488702 -0.042839155
275298350.0 -0.7192600343 0.4488756635 0.0002487482 0.0002856079 -6.08029e-05 4.82026e-05 0.1177570258 -0.0442624524
280298320.0 -0.714988002 0.4564647638 -0.0001652939 0.0001215885 0.0001573711 0.0002365977 0.1172320918 -0.0463518979
285298290.0 -0.7099700489 0.4646846892 0.0001060434 0.0001572566 0.0001911881 4.92851e-05 0.1159818539 -0.0482256361
290298260.0 -0.7055361645 0.4718079918 4.28116e-05 0.0001452257 2.9281e-05 0.0002047333 0.115554955 -0.0499393194
295298230.0 -0.7005286448 0.4795353667 0.0002345442 9.26662e-05 9.47324e-05 0.0001121047 0.1148252283 -0.0517248185
300298200.0 -0.6945123329 0.4865114441 0.0002317676 0.000153117 8.78295e-05 -2.53361e-05 0.1141700756 -0.0532288735
305298170.0 -0.6898568801 0.4943608082 0.0001857352 -5.28428e-05 0.0001606338 0.0001186032 0.1134460865 -0.0548176199
310298140.0 -0.6846776409 0.5013474777 0.0001063309 1.5205e-06 0.0002797216 0.0001865763 0.1127545708 -0.0564228967
315298110.0 -0.6795078052 0.508362858 6.57608e-05 1.76043e-05 0.0001593589 0.000159744 0.1118909387 -0.0588407157
320298080.0 -0.6743480593 0.5158954943 0.0003646133 0.0001742239 0.000111426 0.0001337948 0.1109660568 -0.0604240157
325298050.0 -0.6682113464 0.5223263839 0.0002148927 0.0001990522 0.0002058113 4.90464e-05 0.1098758174 -0.0622459536
330298020.0 -0.6631167254 0.5293095371 -1.62929e-05 0.0003362337 -8.76039e-05 7.23782e-05 0.108932429 -0.0638535042
335297990.0 -0.6568960375 0.5362998023 0.0001955415 -2.25941e-05 0.0003650388 -9.02287e-05 0.1075749738 -0.065458159
340297960.0 -0.6523594949 0.5429169697 0.0002311366 9.95138e-05 2.61864e-05 0.0001921781 0.1063975869 -0.0666331345
345297930.0 -0.6467628554 0.5493455332 0.0002626198 -0.0001571509 0.0002989703 0.0001339915 0.105226936 -0.0681989904
350297900.0 -0.6406800116 0.5560379735 0.0001886228 0.0001719059 6.45103e-05 9.52819e-05 0.1038822243 -0.069174238
355297870.0 -0.6345982687 0.5627591723 -6.3968e-06 0.0001450006 0.0003469447 0.0003058338 0.1026258655 -0.0705672373
360297840.0 -0.6286364732 0.5693722063 0.0001730149 0.0002501564 8.32108e-05 0.0001970781 0.1017162331 -0.0716250411
365297810.0 -0.6225508603 0.5757327843 0.0002191559 -1.47984e-05 0.000108431 5.64225e-05 0.1004934113 -0.0728341484
370297780.0 -0.6163924151 0.5819045348 2.36886e-05 1.6967e-06 0.0002009744 0.0001956029 0.0990101426 -0.0741249804
375297750.0 -0.6106166646 0.5881107581 0.0002442723 0.0003375065 0.0002220185 -1.52015e-05 0.0981538521 -0.0753139738
380297720.0 -0.6041175763 0.5951577105 0.0001710161 0.000290647 0.0002581484 0.0002248732 0.0971261255 -0.0763853593
385297690.0 -0.5974624993 0.6013379807 0.0003980794 8.53262e-05 -3.29292e-05 3.89897e-05 0.0957415768 -0.0771647078
390297660.0 -0.591532902 0.6073428558 0.0003830235 0.0001540825 0.0001922393 0.000216421 0.0945211699 -0.0787176221
395297630.0 -0.5853542706 0.6135315219 0.0003131066 -0.0001352427 0.0001394595 0.0001309492 0.0931876174 -0.0794979178
400297600.0 -0.5788905719 0.6193702205 0.0004148592 0.000408154 0.0002235723 0.0002414642 0.0920114222 -0.0804693158
405297570.0 -0.5722317417 0.6252602742 0.0002371308 -0.000150111 0.0003231533 0.0002071054 0.0906074865 -0.0817159258
410297540.0 -0.5659663272 0.631202234 -2.76945e-05 0.0001742554 0.0001004662 6.68747e-05 0.0891028297 -0.0825078237
415297510.0 -0.5589427668 0.6363328815 0.0001566717 6.31275e-05 -6.32319e-05 -3.43792e-05 0.0879689273 -0.0833013564
420297480.0 -0.5518597116 0.6422906334 -6.55368e-05 9.39378e-05 0.0001041182 0.000189062 0.0868549004 -0.0846165581
425297450.0 -0.545853497 0.6486260804 0.0004444112 -2.59955e-05 0.0004077476 0.0002674533 0.085912945 -0.0858582871
430297420.0 -0.5395510311 0.6533267461 0.0003774014 0.0002096194 0.0001907339 4.0027e-05 0.0844917868 -0.0865082679
435297390.0 -0.5318791805 0.6591209475 8.70865e-05 5.25444e-05 0.000224082 7.3292e-06 0.083292332 -0.0870962712
440297360.0 -0.5251144894 0.664527187 0.0003426107 -3.26224e-05 0.0002891393 0.0001809824 0.0817214243 -0.0882028833
445297330.0 -0.5182019797 0.6702934453 0.0001872582 0.0002045474 0.000396626 9.02247e-05 0.0802744171 -0.0892620495
450297300.0 -0.5117620925 0.6751315159 0.0004296053 5.42994e-05 -6.174e-07 2.72722e-05 0.0788981146 -0.0898809135
455297270.0 -0.5037376891 0.679519088 8.8619e-05 6.00582e-05 -3.29637e-05 0.0002053979 0.077760994 -0.0908036106
460297240.0 -0.4974460274 0.6852461563 0.0001179211 -4.99196e-05 0.0003435995 -4.3472e-06 0.076691921 -0.0912578084
465297210.0 -0.4896295339 0.690614143 0.0002404602 -2.15204e-05 0.0001302515 0.0001793519 0.0749806086 -0.0924374005
470297180.0 -0.4830124175 0.6947458167 9.32849e-05 0.0001240077 0.0001567609 9.0667e-06 0.0736394632 -0.0931534471
475297150.0 -0.4754928041 0.7004654447 0.0004363336 0.0002246065 0.0002930078 0.0002480639 0.0723581182 -0.0937435987
480297120.0 -0.468853958 0.7052315606 0.0003534231 0.000255097 0.0004623388 0.000161892 0.0709182792 -0.0942405235
485297090.0 -0.4612842974 0.709654467 0.0001459307 7.20262e-05 0.0003289898 7.665e-05 0.0694616657 -0.0950932554
490297060.0 -0.4541585194 0.7142888794 0.0003214155 0.0001113989 0.0004130762 -2.69696e-05 0.0681349704 -0.0961143718
495297030.0 -0.447306908 0.7187919217 0.0001463089 -3.28545e-05 0.000195843 8.69556e-05 0.0666192071 -0.0966685772
500297000.0 -0.4380895158 0.7234086823 0.0003701328 0.0001074697 0.0003050681 0.0001867959 0.0652329447 -0.0972412253
505296970.0 -0.4310248163 0.7273286011 0.0003935758 0.0002062334 0.0003102184 4.80751e-05 0.0634484187 -0.0977667397
510296940.0 -0.4246982305 0.7321911338 0.0003928909 -1.42096e-05 0.000447849 0.0001256224 0.0623721035 -0.0980155451
515296910.0 -0.4173216341 0.7369235703 0.0004364416 0.0002968778 0.0003476463 0.0001889411 0.0609386923 -0.0988397003
520296880.0 -0.4087250526 0.740818299 0.0002383968 0.0001236758 0.0002929509 0.000158109 0.0595889259 -0.0996034722
525296850.0 -0.4016982222 0.7447262402 0.0005115735 0.0002618085 0.0003321631 0.0001076216 0.0583425664 -0.1002903391
530296820.0 -0.3942667806 0.7486430824 0.0002418279 0.0001083819 0.0002942816 0.0003191444 0.0566464203 -0.1004912325
535296790.0 -0.3860573324 0.7524898699 0.00023862 -0.0001500871 0.0002634083 5.5035e-05 0.0551794261 -0.1014879959
540296760.0 -0.3781525848 0.7563468112 0.0002360523 -3.36896e-05 0.0003980554 3.12549e-05 0.05364862 -0.1017052733
545296730.0 -0.3711936272 0.759844038 0.000254686 5.60667e-05 0.0003540809 0.0002507806 0.0522087168 -0.1022211306
550296700.0 -0.3633173667 0.7636153251 0.0003125845 0.000188565 0.0002787899 -6.21123e-05 0.0508235511 -0.1029661113
555296670.0 -0.354639666 0.7673316545 0.0003949675 -6.01455e-05 0.0002021158 9.83098e-05 0.0492703042 -0.102959109
560296640.0 -0.3467840872 0.7708406795 0.0003193642 -9.3761e-06 0.0002142131 0.0001791234 0.0482687206 -0.1036656999
565296610.0 -0.3397944831 0.7742775599 0.0002932096 0.000161206 0.0002696201 5.82439e-05 0.0463097445 -0.1038360463
570296580.0 -0.3317508448 0.7775625702 0.0001925631 0.0001637227 0.0003508065 1.63909e-05 0.0448073194 -0.1040520196
575296550.0 -0.3233418176 0.7811086436 0.0003640246 -0.0001696641 0.0001923894 0.0001260468 0.0434232799 -0.1043970156
580296520.0 -0.3155300185 0.7838428166 0.0002808725 -4.07349e-05 0.00027703 -4.25966e-05 0.042169555 -0.1047210005
585296490.0 -0.3078726191 0.7864298656 -1.91991e-05 0.0001814679 0.000550841 -9.01616e-05 0.0406057539 -0.1058088442
590296460.0 -0.2993700195 0.7897629331 0.0004560767 -9.8891e-06 0.000303478 -0.0002328271 0.0393286339 -0.1055365174
595296430.0 -0.2913885286 0.7929110419 0.0003925916 -8.46426e-05 0.000360359 -0.0001125295 0.0375517215 -0.1061204033
600296400.0 -0.283279344 0.7958407544 0.0004411717 -0.0002023728 0.0003516582 -0.0001010538 0.0362300411 -0.1060490273
605296370.0 -0.2754966556 0.7991587904 9.15169e-05 -4.01632e-05 0.000349262 0.000212837 0.0349325067 -0.1065076015
610296340.0 -0.2676483341 0.8014120743 0.0004980327 0.0002174857 0.000497293 6.65407e-05 0.0331224432 -0.106527911
615296310.0 -0.2593593992 0.8046826853 2.47883e-05 -2.51955e-05 0.0005662995 9.63268e-05 0.0317740023 -0.1069154335
620296280.0 -0.250822198 0.8062654282 0.0005552107 -0.0003098592 0.0004275659 -0.0001221489 0.0301006036 -0.1074130318
625296250.0 -0.2428161387 0.8094676452 0.0002435906 7.6075e-06 0.0003287617 4.9192e-05 0.0286537429 -0.1068532286
630296220.0 -0.2338032638 0.8117104432 0.0004338644 0.0001044436 0.0003089773 0.0002044248 0.027553157 -0.1071639004
635296190.0 -0.2265146901 0.8142623296 0.0002870282 -0.0001467757 0.0002188503 9.84432e-05 0.025822301 -0.1073798368
640296160.0 -0.2179987278 0.8157409787 0.000539735 5.68865e-05 0.0004857641 7.3399e-06 0.0245281701 -0.1075726274
645296130.0 -0.2094769852 0.8179246013 0.0002453198 -5.74029e-05 0.0003475931 -0.0001217081 0.0228090298 -0.1078349118
650296100.0 -0.2016551861 0.8205483516 0.0004315895 2.46203e-05 0.000342876 8.67025e-05 0.0212179384 -0.1077189894
655296070.0 -0.1928688603 0.8220616222 0.0005480629 -7.77415e-05 0.0002235111 9.08512e-05 0.01971258 -0.1075114903
660296040.0 -0.1848039815 0.8244984519 0.0006644708 4.12519e-05 0.0004091732 -0.000131305 0.0183693802 -0.1078687804
665296010.0 -0.176692292 0.8260358976 0.0006343975 0.0001766928 0.0003912995 8.69727e-05 0.0169007057 -0.1077078439
670295980.0 -0.1677803002 0.8273264229 0.0003767214 -8.44155e-05 0.0004229112 -5.10784e-05 0.0154517785 -0.1077504854
675295950.0 -0.159948299 0.8289695579 0.0003033854 0.0001434358 0.0006351763 3.27214e-05 0.0142389039 -0.1076930543
680295920.0 -0.1516609103 0.8307342827 0.0002869692 0.0001065289 0.0004893455 -9.2074e-06 0.0121788604 -0.1076056377
685295890.0 -0.1429788751 0.832100665 0.0003031516 0.0002481053 0.0003077784 0.0001312136 0.0112103874 -0.1077234914
690295860.0 -0.134150129 0.8342163881 0.0003525931 3.10042e-05 0.0002216778 -0.0001212807 0.0097982456 -0.1076450598
695295830.0 -0.1258814627 0.8341282148 0.0002965917 -3.74212e-05 0.0005337682 7.27608e-05 0.0080281723 -0.1072534058
700295800.0 -0.1180868986 0.835613565 0.0001513679 -0.000195343 0.0003085007 -0.0001346299 0.0065788377 -0.1070907023
705295770.0 -0.1089774166 0.837543018 0.0005087397 0.0001789069 0.0004609251 -7.48634e-05 0.0053784179 -0.1069076492
710295740.0 -0.1006097928 0.8380820159 0.0002953698 9.25122e-05 0.0004465506 -2.43564e-05 0.0036050862 -0.1066749802
715295710.0 -0.0928237773 0.838912241 0.0004730413 -0.0001223207 0.0004596463 6.14049e-05 0.0024359743 -0.1067670048
720295680.0 -0.0843127697 0.8394460071 0.0005630789 -6.90511e-05 0.0003943978 -0.0001977882 0.0007749972 -0.1065227174
725295650.0 -0.0749416523 0.8412311632 0.000308728 -3.92658e-05 0.0004677141 -0.0001633527 -0.0002919856 -0.106314145
730295620.0 -0.0672968902 0.8414131587 0.0002795458 0.0001508644 0.0004259079 -0.000134084 -0.0018039897 -0.1063157405
735295590.0 -0.057622639 0.8414029226 0.0004690458 8.20329e-05 0.0003024732 -5.46174e-05 -0.0034650735 -0.1058716566
740295560.0 -0.0500428394 0.8428287696 0.0002575598 1.90148e-05 0.0005350927 -0.0003641618 -0.0047221498 -0.1059426843
745295530.0 -0.0415359075 0.8425791904 0.0006842089 7.25517e-05 0.0004307542 -0.0001379688 -0.006581494 -0.1054288806
750295500.0 -0.0333960735 0.8435132036 0.0004534787 -2.56628e-05 0.0003797165 0.00014102 -0.0076602361 -0.1054714582
755295470.0 -0.024010486 0.8438592667 0.0003278946 0.0001323166 0.0005067256 -0.0001603542 -0.0093428211 -0.1047366667
760295440.0 -0.0160859908 0.8439389028 0.000295061 -0.0001433595 0.0002365814 -6.28464e-05 -0.0106963075 -0.1045689628
765295410.0 -0.0077540414 0.843839585 0.0006098968 4.83566e-05 0.0002845726 -4.7498e-06 -0.0116883631 -0.1039206742
770295380.0 0.0009198 0.8444100932 0.0004111326 -0.0001221949 0.0004109543 -0.0001869327 -0.0127420584 -0.1038480568
775295350.0 0.0091793229 0.8440059933 0.0004201374 -7.3e-09 0.0004520475 -1.19735e-05 -0.014573692 -0.103706913
780295320.0 0.0178766483 0.8433283441 0.0005403294 -1.40494e-05 0.0001879063 4.30612e-05 -0.0161511947 -0.1027642866
785295290.0 0.0265107654 0.8440767195 0.0003674523 -1.71558e-05 0.000558322 -0.0001563 -0.0170364871 -0.1025158887
790295260.0 0.0344702629 0.8430121376 0.0006520042 -0.0001219042 0.0004986345 -5.79344e-05 -0.0185274307 -0.1021471375
795295230.0 0.0428549773 0.8430890334 0.0001798544 -0.0001524423 0.0004924441 -0.0001163061 -0.0200495494 -0.1013679601
800295200.0 0.0514222033 0.8426559053 0.0005617694 -0.0002539702 0.0002738585 -2.45724e-05 -0.0212821729 -0.1014894685
805295170.0 0.0595870324 0.841893905 0.0003243621 -5.88328e-05 0.000613913 -0.0001021081 -0.0225657343 -0.1006227505
810295140.0 0.0683499106 0.84153322 0.0003161984 -9.67089e-05 0.0004664375 -0.0002897513 -0.0236167033 -0.0999428253
815295110.0 0.0767148472 0.8403119528 0.0004162809 -4.913e-06 0.0005786293 -0.0002744828 -0.0253529123 -0.0997666854
820295080.0 0.0854150271 0.8392731519 0.0004146371 -0.0003534429 0.0004158812 -0.0002476769 -0.0267485325 -0.0994330513
825295050.0 0.094056373 0.8380662802 0.0003029393 -1.86237e-05 0.0003722081 -0.0001982485 -0.0275344949 -0.0987021471
830295020.0 0.1025513439 0.8380588262 0.0005263168 -0.0001748313 0.0003079376 -8.57939e-05 -0.0296186518 -0.0979797668
835294990.0 0.1097993493 0.8367859858 0.000472461 -0.0002966092 0.0005586746 -0.0001032248 -0.0305018421 -0.0977528263
840294960.0 0.1187183776 0.8354002204 0.0001728601 -0.0002039616 0.0004112986 -5.98244e-05 -0.0317225262 -0.096505966
845294930.0 0.127052938 0.8342084248 0.0004460629 8.0611e-06 0.0005790978 1.18029e-05 -0.0330271042 -0.0958973685
850294900.0 0.1351833442 0.8332134712 0.0005519776 -0.0002348702 0.0007067593 -2.51706e-05 -0.0341045689 -0.0953904809
