!Created with skrf (http://scikit-rf.org).
# Hz S RI R 50.0 
!freq ReS11 ImS11 ReS21 ImS21 ReS12 ImS12 ReS22 ImS22
300000.0 -0.2106060001 -0.0816170782 -0.0010220068 0.0007994224 7.03614e-05 0.0008371125 -0.7707395897 -0.1646673075
5299970.0 -0.2141537375 0.0083922139 7.84454e-05 -1.38215e-05 1.3672e-06 1.22334e-05 -0.7846493435 -0.0086671491
10299940.0 -0.2104456764 0.0212772274 -1.21556e-05 -0.0001575851 -5.76973e-05 5.05087e-05 -0.7885898388 -0.0050200351
15299910.0 -0.2054177718 0.0311189174 -0.0003491524 -0.0001361217 -7.75915e-05 -9.62601e-05 -0.7937004406 -0.002786346
20299880.0 -0.1993231057 0.0392303592 4.17926e-05 -0.000132783 9.82565e-05 0.0001333696 -0.8000756807 0.0017363291
25299850.0 -0.1929093088 0.0454976599 3.58377e-05 0.0001115031 -0.0001168393 -3.35861e-05 -0.8066844529 0.0073898044
30299820.0 -0.1865737208 0.05057841 -0.00018648 0.0001529608 0.0001366097 -7.00482e-05 -0.8126780699 0.0146885291
35299790.0 -0.1797418603 0.0543580658 -6.77271e-05 7.71408e-05 -0.000101744 7.939e-06 -0.8178933145 0.0236522485
40299760.0 -0.1737331705 0.0574325002 -6.64815e-05 -0.0001314101 -6.21897e-05 8.87772e-05 -0.8215772219 0.0333788401
45299730.0 -0.1682299782 0.0595540117 0.0002364813 1.17761e-05 -0.0002291182 -2.47357e-05 -0.8254843507 0.042612836
50299700.0 -0.1629034528 0.0607244899 0.0001587075 4.65869e-05 -6.2406e-06 -6.82101e-05 -0.827953975 0.0526836448
55299670.0 -0.1583360597 0.0616499174 -0.0002019854 -3.9256e-06 -0.0001391259 5.40269e-05 -0.8297976467 0.0629491989
60299640.0 -0.153970951 0.0621260095 0.0001678238 -0.0001181516 -1.4899e-06 3.64119e-05 -0.8309146346 0.0732231016
65299610.0 -0.1501580954 0.0627193543 -0.0001944692 0.0002641517 7.7176e-06 4.43841e-05 -0.8310982767 0.0828908147
70299580.0 -0.1461734722 0.062536981 0.0001007803 -9.5829e-05 -0.0001353237 -0.0001617079 -0.8317214635 0.0929090127
75299550.0 -0.1431320651 0.0624895587 -4.97485e-05 0.0001288957 -0.0002181655 8.0437e-05 -0.8326416314 0.1024505901
80299520.0 -0.1405107047 0.0627010609 5.52142e-05 -5.96403e-05 9.80326e-05 -8.271e-06 -0.8321853715 0.1121139856
85299490.0 -0.1377012243 0.0622904679 0.0002345615 0.0002852457 -2.03123e-05 -0.000146918 -0.8317762659 0.122063836
90299460.0 -0.1355269703 0.0621080245 9.90571e-05 -3.46273e-05 8.00365e-05 -1.89435e-05 -0.8307381624 0.1313053745
95299430.0 -0.1332838872 0.0621008511 -0.0001229615 -4.72492e-05 6.04879e-05 -1.3389e-06 -0.829759738 0.1411723718
100299400.0 -0.1315641738 0.0622170574 7.96107e-05 -5.65156e-05 -6.43341e-05 0.0001711438 -0.8288939572 0.1493591567
105299370.0 -0.1297643839 0.0617412265 -0.0001114805 0.0002817592 -0.0001242027 -4.25632e-05 -0.8272887667 0.1591241404
110299340.0 -0.1284428949 0.0615204593 0.0001907818 0.0001001364 -8.94008e-05 5.20358e-05 -0.8265837994 0.1683743875
115299310.0 -0.1267620174 0.0611145748 -0.0001698359 4.92851e-05 0.0001130986 0.0001655032 -0.8248072737 0.1770090707
120299280.0 -0.1256314108 0.0614616382 -6.0487e-06 1.43443e-05 1.70005e-05 4.94405e-05 -0.8231116159 0.1859071529
125299250.0 -0.124754641 0.0609191211 9.50177e-05 -8.38627e-05 1.07027e-05 0.0002421978 -0.8218110503 0.1956789132
130299220.0 -0.1233773129 0.0617001854 3.1354e-06 4.8653e-06 0.0001523211 3.56323e-05 -0.8202624429 0.2040683068
135299190.0 -0.1226402643 0.0612216425 -7.68215e-05 0.0001452723 -0.0001193244 5.9875e-06 -0.8177376951 0.213074356
140299160.0 -0.1215447635 0.0613111926 0.0001944002 0.0001488335 0.0001116623 5.93725e-05 -0.8156217187 0.2213693101
145299130.0 -0.1208911328 0.0614559976 0.0001342735 9.15233e-05 -3.84009e-05 -0.0001227448 -0.8135771122 0.2303179996
150299100.0 -0.1201543009 0.0614645149 -0.000171671 6.35073e-05 -0.000112231 9.24973e-05 -0.8116802668 0.2379581709
155299070.0 -0.1195412107 0.062020828 8.22706e-05 -0.000110685 0.0001098005 -9.08919e-05 -0.8096745216 0.2476976403
160299040.0 -0.118670978 0.0622833035 2.15094e-05 -3.66107e-05 0.000146764 -3.5898e-05 -0.8074532167 0.2568516627
165299010.0 -0.1182629509 0.0625105551 0.000178144 -5.10982e-05 -0.0001307086 7.4729e-06 -0.8042171175 0.2646437472
170298980.0 -0.1175629034 0.0626008152 0.0002318555 9.00266e-05 0.0001441947 9.99555e-05 -0.8023577576 0.2731280444
175298950.0 -0.1168613791 0.0635873907 0.0001182015 0.0001074891 3.35532e-05 0.0001227442 -0.7989238358 0.2820614816
180298920.0 -0.116392503 0.0636317887 -6.00113e-05 3.92832e-05 7.29168e-05 6.58101e-05 -0.7956454878 0.290280718
185298890.0 -0.1160078874 0.0642916099 -3.0134e-06 -7.45676e-05 0.0001141067 -1.9512e-06 -0.7926598221 0.2984203263
190298860.0 -0.1152088393 0.0646806675 -3.76881e-05 -2.20087e-05 8.18819e-05 0.0001699385 -0.789826223 0.3076343692
195298830.0 -0.114446174 0.0651203847 0.0001824356 0.0001949741 6.76653e-05 0.0003042824 -0.7870713167 0.3153622679
200298800.0 -0.1144046765 0.065901949 1.91741e-05 8.5285e-05 0.0001670464 0.0001905427 -0.7834435259 0.3240430723
205298770.0 -0.1138336538 0.0666457346 8.14283e-05 2.61744e-05 -0.000126357 0.0001776344 -0.7800306553 0.3321201853
210298740.0 -0.1132813188 0.0672288729 0.0001438672 0.0001206889 8.9619e-05 -1.5826e-05 -0.7766251402 0.3405372632
215298710.0 -0.1129381692 0.0678594522 -1.1569e-06 2.24898e-05 1.8461e-05 0.000118515 -0.773597416 0.3480555505
220298680.0 -0.1123097486 0.0686549205 0.0001861295 -3.31809e-05 0.0001845127 0.0002052969 -0.7696334653 0.3568330452
225298650.0 -0.1120047761 0.0691936793 2.13537e-05 1.1408e-05 0.0002602068 -4.50583e-05 -0.7660979902 0.3645575055
230298620.0 -0.1113398004 0.0700670693 2.86737e-05 8.16561e-05 0.0002003505 -6.24345e-05 -0.7613686628 0.3725165043
235298590.0 -0.1111057042 0.0707509691 -9.80242e-05 8.65122e-05 9.61465e-05 0.000115868 -0.7578162458 0.3803675583
240298560.0 -0.1104551143 0.0717850069 -0.0001133485 -5.85558e-05 0.0001524083 -5.84536e-05 -0.7540817814 0.3889934966
245298530.0 -0.110076881 0.0722988026 4.1193e-06 0.0001561882 2.23962e-05 0.000284165 -0.7502762557 0.3964196561
250298500.0 -0.1097192203 0.0729228197 -0.0001728901 0.000196259 -5.01973e-05 1.30704e-05 -0.7457577368 0.4045445377
255298470.0 -0.1090360038 0.074089444 0.0001052706 -1.38313e-05 -6.6325e-05 4.01615e-05 -0.7414618778 0.41231276
260298440.0 -0.1084465227 0.074824855 0.0001971481 -2.6093e-05 6.04595e-05 0.0001877016 -0.7368130399 0.4194925699
265298410.0 -0.1080544763 0.0757885969 0.000168347 -6.93816e-05 0.0001504078 0.0001755789 -0.732196177 0.4274730074
270298380.0 -0.1074615082 0.0765167697 -1.49672e-05 -3.8656e-06 -4.11556e-05 -0.0001388202 -0.7274059328 0.4352980485
275298350.0 -0.1072277092 0.0775050908 -1.36098e-05 -0.000120648 0.0001337686 -1.73334e-05 -0.7227302188 0.4431538987
280298320.0 -0.1066052743 0.0784985713 0.0001215245 8.44274e-05 0.0001213445 6.95373e-05 -0.7185888926 0.4503105421
285298290.0 -0.105930404 0.0794153643 0.0001615361 7.97273e-05 0.0001908308 3.4362e-05 -0.7134436381 0.4578281091
290298260.0 -0.1054272153 0.0804008312 -3.03855e-05 -6.56114e-05 -2.1601e-06 0.0002369124 -0.7088571298 0.4656365713
295298230.0 -0.1045463691 0.0811114352 0.0004843683 -0.0001423449 -9.03325e-05 1.89225e-05 -0.7036929541 0.4729697445
300298200.0 -0.1042754758 0.0820525256 -2.81818e-05 0.0002259504 6.20583e-05 0.0002190634 -0.6987711117 0.4797527184
305298170.0 -0.1030967965 0.0828606524 0.0004851582 7.20648e-05 0.000121818 -8.6789e-05 -0.6936186892 0.4879685314
310298140.0 -0.1028363329 0.0835445096 3.91947e-05 -3.89434e-05 4.82118e-05 0.0004590071 -0.6887174017 0.4948011465
315298110.0 -0.1027467913 0.0844210027 0.0002659448 0.0001660957 6.4895e-05 0.0002608014 -0.6833621547 0.5021454794
320298080.0 -0.1018865605 0.0856093838 5.4312e-06 2.67699e-05 -3.85466e-05 0.0001113754 -0.6781613771 0.5094953024
325298050.0 -0.1014663963 0.0860466031 0.0001685395 0.0002033778 0.0001617021 -8.132e-06 -0.6725522597 0.5158316798
330298020.0 -0.1010393256 0.0873295673 0.0002062542 -0.000107619 4.29781e-05 0.0002696764 -0.66641502 0.5231290841
335297990.0 -0.1004036039 0.0881777715 0.0001043342 0.0001867074 7.322e-06 9.22857e-05 -0.6613439533 0.5298310092
340297960.0 -0.0999122953 0.0893940538 -2.68954e-05 4.29537e-05 0.0002665936 1.94508e-05 -0.6557504523 0.5374714949
345297930.0 -0.0992851289 0.090138262 1.19978e-05 0.0001083676 -2.74976e-05 0.000370735 -0.6499101046 0.5438740404
350297900.0 -0.0983802973 0.0913002396 0.0001125978 0.0001171657 -4.60364e-05 6.07221e-05 -0.6438589248 0.5512404261
355297870.0 -0.0980423554 0.0921389189 0.0001520667 8.8526e-05 0.000107752 -4.64044e-05 -0.6379956189 0.5572867489
360297840.0 -0.0973974006 0.0931399389 -2.0438e-06 -0.0001912427 0.0001488718 -5.86727e-05 -0.6321780352 0.5636863399
365297810.0 -0.0966982785 0.094072124 5.2634e-05 0.0003243024 -2.714e-07 -0.0001230476 -0.6262118001 0.5705448565
370297780.0 -0.0960018587 0.0952036736 0.0001603403 1.74693e-05 8.17644e-05 -8.0526e-05 -0.6202461664 0.5766623635
375297750.0 -0.0950186583 0.0961855704 9.1979e-06 -6.23213e-05 -5.46363e-05 -6.9515e-05 -0.614185271 0.5831285422
380297720.0 -0.0944256106 0.097360023 8.06578e-05 8.75462e-05 0.0003415597 4.11056e-05 -0.6077193187 0.5901951555
385297690.0 -0.093715245 0.098279052 0.0001806793 -8.4914e-06 6.67678e-05 -2.31889e-05 -0.6018602778 0.5960980257
390297660.0 -0.0926702069 0.0993779172 0.0002260146 8.56261e-05 -1.3837e-06 -7.33596e-05 -0.5955229162 0.6014735465
395297630.0 -0.0919082939 0.1003643618 0.0002218791 1.66782e-05 0.0002695311 0.000180285 -0.5888942909 0.6076793916
400297600.0 -0.0912159835 0.1013526879 8.628e-07 0.0001232523 0.0001389516 -2.13831e-05 -0.5834674034 0.6137084249
405297570.0 -0.0905235972 0.102336358 0.0002883588 0.000214005 0.0001136871 3.50281e-05 -0.5770397864 0.6196537366
410297540.0 -0.0894363271 0.1031231739 -0.00011237 -8.36389e-05 0.0001473394 5.66403e-05 -0.5698814028 0.6255953118
415297510.0 -0.0887188065 0.1041811779 0.0003259677 6.52502e-05 0.0002336761 7.8896e-06 -0.5636845086 0.6319800363
420297480.0 -0.0878298675 0.1049890332 0.0001175824 -4.28149e-05 0.0001466231 0.0002502241 -0.5572452893 0.636477995
425297450.0 -0.0871455194 0.1062391397 -3.24756e-05 1.8556e-06 -1.57487e-05 8.30626e-05 -0.5502380454 0.6427708013
430297420.0 -0.0862031645 0.1071858779 9.62628e-05 0.0001025656 6.6489e-05 0.0001134777 -0.5439383073 0.6484683977
435297390.0 -0.0851661132 0.1081389242 -8.44565e-05 9.46412e-05 0.0001360346 4.41093e-05 -0.5371205197 0.6534144066
440297360.0 -0.0840644362 0.1091420033 0.00022613 -7.80093e-05 0.0002621908 -7.3575e-06 -0.5303589896 0.6591854359
445297330.0 -0.0834616358 0.1099578909 0.0001580462 -0.0001898545 0.000220979 -5.40641e-05 -0.5228972816 0.6641952877
450297300.0 -0.0822523847 0.1110392831 6.67888e-05 -7.06789e-05 0.0002187726 8.13063e-05 -0.5172203016 0.6695956002
455297270.0 -0.0814834781 0.1119355376 1.4679e-06 0.0001047236 0.0002218594 0.0001539837 -0.5095925248 0.6749213388
460297240.0 -0.0804894083 0.1129331515 0.00027062 -3.03526e-05 0.0002396214 0.0001096249 -0.5026649107 0.6803662515
465297210.0 -0.0794389836 0.1138341838 6.65809e-05 4.7879e-06 0.0003320692 1.97466e-05 -0.4965347552 0.6849421263
470297180.0 -0.0787804888 0.1146051455 0.0002206321 0.0001778415 0.0001798817 0.0001334988 -0.489225097 0.689551812
475297150.0 -0.0775546669 0.1155720119 0.0001527454 2.91412e-05 0.0001836227 0.0001624084 -0.4820929112 0.6943456354
480297120.0 -0.0767871686 0.1161655943 0.0002913825 3.26897e-05 0.0002071542 -2.35976e-05 -0.4752200552 0.6999260789
485297090.0 -0.0755473829 0.1173107772 0.0004141346 -0.000230553 -1.00937e-05 0.000313653 -0.4677840505 0.7039064972
490297060.0 -0.0744357252 0.1180897834 -4.29828e-05 -0.0001970839 4.59394e-05 0.0002019795 -0.4612998112 0.7085413671
495297030.0 -0.0736482696 0.1189924846 0.0003267638 5.47445e-05 9.36062e-05 9.83103e-05 -0.4535164147 0.7126714749
500297000.0 -0.072426162 0.1196968426 0.0001137298 0.000280699 3.06387e-05 2.73442e-05 -0.4467950221 0.717812283
505296970.0 -0.0713995328 0.1207974162 0.0002371565 -3.20857e-05 0.0001037617 -0.000113089 -0.4405495849 0.7220153009
510296940.0 -0.0702054255 0.1218383564 0.0002451822 0.0001116693 0.0001923788 9.53114e-05 -0.4320036313 0.7261625353
515296910.0 -0.0694400701 0.1229655362 0.0002151162 0.0003276966 0.0001292635 7.11102e-05 -0.4246572253 0.730524264
520296880.0 -0.0680572644 0.1231941646 0.0003658521 0.0001405131 0.0002842906 2.55815e-05 -0.4177317449 0.7346413896
525296850.0 -0.0671113723 0.124246502 0.0001364572 0.0001293925 0.0002051624 7.76888e-05 -0.4098931858 0.7396029223
530296820.0 -0.0661704287 0.1250866869 0.0001468784 4.45354e-05 -0.0001521185 9.03131e-05 -0.4032563205 0.742733418
535296790.0 -0.0647610841 0.1256496696 -8.6244e-05 0.0001058936 0.000174479 0.0001712904 -0.3957724477 0.7466667124
540296760.0 -0.0638844555 0.1264019939 0.0001788933 2.99225e-05 0.0002599414 0.0001084489 -0.3879154901 0.7507099552
545296730.0 -0.0625189469 0.1273148902 0.000413298 -5.4494e-06 0.0002402282 7.35764e-05 -0.3805330649 0.7538180998
550296700.0 -0.0615437562 0.1282191591 0.0002849746 0.000177735 0.000144336 -1.21378e-05 -0.3731777894 0.7584391007
555296670.0 -0.0603254774 0.1289379432 0.0003103637 0.0001701005 0.0002815249 6.43385e-05 -0.3654409409 0.7616024811
560296640.0 -0.0590651235 0.12937301 0.0002726463 0.0002136526 0.0002665549 -0.0001472968 -0.3575217035 0.7652670952
565296610.0 -0.0580731254 0.1302670492 0.0002432847 3.24153e-05 0.0002955826 0.0001093209 -0.3504057665 0.7687472295
570296580.0 -0.0569485243 0.1313801038 0.0002152852 1.70765e-05 0.0003124975 0.000160012 -0.3429538125 0.7724658885
575296550.0 -0.0554121798 0.1318043698 0.0001884354 0.000175769 -4.4433e-06 5.88608e-05 -0.3346442018 0.7758217468
580296520.0 -0.0540830125 0.1325865575 0.000112479 2.6292e-06 0.0001187454 -4.63503e-05 -0.3271634538 0.7790897857
585296490.0 -0.0531372702 0.1332329862 0.0002560295 -0.0002675421 0.0002199588 7.40984e-05 -0.3192238035 0.7818151944
590296460.0 -0.0523186034 0.1337736168 0.0002397148 0.0001487619 1.20983e-05 -4.7107e-05 -0.3115563059 0.7847120347
595296430.0 -0.0504934717 0.1346884779 9.07024e-05 3.557e-06 0.0001694979 -7.66193e-05 -0.3040968669 0.7873333991
600296400.0 -0.0495277866 0.135371732 0.0003567206 9.66935e-05 0.0002558178 0.0001267041 -0.2964683637 0.7914268522
605296370.0 -0.0480713006 0.1357948413 8.07346e-05 2.77868e-05 0.0003552756 0.0001740699 -0.288547908 0.7941018954
610296340.0 -0.0468272147 0.1364221044 0.0004531835 -8.87181e-05 0.000147608 -0.0002303577 -0.2804357007 0.797468926
615296310.0 -0.0454440434 0.1374105495 0.0001664929 2.47126e-05 0.0001059056 0.0002368582 -0.2723674327 0.7994667627
620296280.0 -0.0441046654 0.137976217 0.0003638151 -0.0001006566 0.0004281615 8.78864e-05 -0.2644198584 0.8020568601
625296250.0 -0.0431245062 0.1388724893 0.0002725537 7.36826e-05 0.0003983151 -3.64828e-05 -0.2568718086 0.8048541405
630296220.0 -0.0416387367 0.1390861747 0.0002198897 -4.81358e-05 0.0003337916 1.78407e-05 -0.2486918772 0.8072223712
635296190.0 -0.0404223337 0.1397745268 7.69062e-05 6.1662e-06 7.45252e-05 -7.5849e-05 -0.2411458209 0.8094933338
640296160.0 -0.0391964553 0.140017766 8.72128e-05 1.21641e-05 0.0003732494 -6.1348e-06 -0.2324890609 0.8114964089
645296130.0 -0.0380819006 0.1408920475 0.000179512 -2.66762e-05 0.0003041005 -3.65931e-05 -0.2247666135 0.813987842
650296100.0 -0.0365404513 0.1416412574 0.000297329 -0.0002000488 -1.34635e-05 -2.80596e-05 -0.2166300338 0.8164452516
655296070.0 -0.0352959387 0.1419494204 0.0002315077 5.41278e-05 0.0002615788 -0.0001231303 -0.2084216953 0.8177988835
660296040.0 -0.0340718368 0.1427203978 0.0003857472 -3.12123e-05 0.000130206 6.89952e-05 -0.200559653 0.8206201021
665296010.0 -0.0325202069 0.1430700519 3.39892e-05 0.0001626357 0.0003115672 0.000185116 -0.1931754767 0.8222480743
670295980.0 -0.0310221477 0.1435912585 0.0001074491 -0.0001310166 0.0002462219 2.20319e-05 -0.185227465 0.8240619118
675295950.0 -0.0298203406 0.1441111194 0.0002517307 -0.000129562 0.0002555789 2.01544e-05 -0.1762602733 0.8262353591
680295920.0 -0.0285813232 0.1448106769 0.0001702149 0.0001364661 0.0001346394 -6.35003e-05 -0.1680483493 0.827695247
685295890.0 -0.0273333925 0.1452432955 0.0002067671 -1.07341e-05 0.0002587584 -2.96077e-05 -0.1596355327 0.8291038224
690295860.0 -0.0255314646 0.1457767841 0.0001678536 -5.48046e-05 7.02825e-05 6.2434e-05 -0.151714897 0.8303172823
695295830.0 -0.0241780953 0.146155774 0.0003474562 7.36578e-05 0.0001310977 9.917e-05 -0.1437870302 0.8327930513
700295800.0 -0.0229451401 0.1464720512 0.0001885942 1.1749e-06 0.0002816513 -6.3292e-05 -0.1351406341 0.8331313808
705295770.0 -0.0215110457 0.1469564085 0.0001814992 0.0001447945 0.0002447753 -4.34546e-05 -0.1271868234 0.83533926
710295740.0 -0.020371318 0.1473378953 0.0002489931 -5.52961e-05 0.0003129251 0.0001408132 -0.1194029509 0.8367573283
715295710.0 -0.0190516832 0.1477451412 0.0001560986 -0.0001000131 0.0003567321 3.04566e-05 -0.1108492104 0.8374210066
720295680.0 -0.0175528402 0.1479717229 0.0003175174 -5.8628e-05 0.0001397122 -3.6788e-05 -0.1023380314 0.838594116
725295650.0 -0.0158621866 0.1486449956 0.0001919641 -2.3595e-06 0.0002102915 0.0001150091 -0.0937277297 0.8397732325
730295620.0 -0.0144577103 0.1488874134 0.0002731252 -2.71779e-05 0.0002399 1.48408e-05 -0.0856721368 0.8402613723
735295590.0 -0.0129024105 0.149184291 0.0002390408 -9.89097e-05 0.0001600595 2.38184e-05 -0.0765417653 0.8408362932
740295560.0 -0.0116063417 0.1497374875 0.0001556795 0.0001553321 0.0001214434 0.0001243369 -0.0692143184 0.8409973991
745295530.0 -0.0102980645 0.1496304357 0.000210583 0.0001338097 0.0001545041 -6.77611e-05 -0.0608193621 0.8420749775
750295500.0 -0.0089885998 0.1500525719 0.0002139373 -9.83976e-05 0.000187158 -5.2622e-06 -0.0519061813 0.8425692873
755295470.0 -0.0070003911 0.1504408413 0.0001078472 0.0002375491 0.000182507 9.2969e-06 -0.0444289566 0.843238012
760295440.0 -0.0057168125 0.1508307295 0.0002346693 7.2425e-05 0.0002253729 -0.0001832588 -0.0366946102 0.8432949252
765295410.0 -0.0045403277 0.1506658849 0.0001569361 -0.0001878225 0.0002622906 7.12432e-05 -0.0272923143 0.8442548616
770295380.0 -0.0033152113 0.1513951964 0.0002508369 1.46365e-05 -2.04748e-05 -6.96511e-05 -0.0190727174 0.8441879937
775295350.0 -0.0015074821 0.1516917545 0.0001682543 -4.61013e-05 0.0001272068 9.9843e-05 -0.0111119923 0.8439533913
780295320.0 -0.000183379 0.1516487807 7.17815e-05 -9.7765e-06 9.3755e-06 -0.0001319456 -0.0027413467 0.8444415255
785295290.0 0.0013782511 0.1518288809 0.000531799 -0.000193632 0.0002939903 -2.48535e-05 0.0046298513 0.8444588313
790295260.0 0.0027219392 0.1519921311 0.0002925461 0.0001427783 0.0002743334 -0.0002003137 0.0144517441 0.8443855937
795295230.0 0.0042390497 0.152799599 0.0001083737 0.0001152109 0.0002871551 -6.53565e-05 0.0224578061 0.8446258241
800295200.0 0.0058009094 0.1527026518 0.0002266251 -0.0001715602 0.000232317 8.18777e-05 0.030690613 0.8436890357
805295170.0 0.0072723116 0.1528782234 0.0001262818 -8.68171e-05 0.0001785527 0.000147529 0.0383251306 0.8432241962
810295140.0 0.0084761944 0.1529215349 0.000206611 -0.0001284086 0.0001388192 -1.1337e-05 0.0470335532 0.8444799782
815295110.0 0.01035257 0.1530221764 0.0002827615 -0.0001177077 0.0002941226 -0.0001724667 0.0551295499 0.8427347956
820295080.0 0.0118466902 0.1529608744 1.9093e-05 -2.13202e-05 0.0002553695 -3.15852e-05 0.0631783012 0.8420630753
825295050.0 0.013267318 0.1532021173 0.0002644786 -0.0001523501 0.0002334396 -0.0001948061 0.0713604909 0.8413270751
830295020.0 0.0146988743 0.1532942079 0.0004497046 -1.82042e-05 0.0002552036 -0.0001069532 0.0796664376 0.8404954479
835294990.0 0.0163478073 0.153667115 0.0002247613 -6.10918e-05 0.0003908249 -8.93523e-05 0.0878361463 0.8397906783
840294960.0 0.0177837426 0.1530185539 0.0002119363 -2.81556e-05 0.0001748554 -4.53926e-05 0.0962115141 0.8391311497
845294930.0 0.0191399716 0.1534193901 0.0002317477 -5.66639e-05 0.0003369093 -0.0001998893 0.1046470153 0.8379042222
850294900.0 0.0206475008 0.1534358597 0.0002608754 -3.2487e-06 3.40236e-05 -0.0001049829 0.1128459159 0.8368730869
