!Created with skrf (http://scikit-rf.org).
# Hz S RI R 50.0 
!freq ReS11 ImS11 ReS21 ImS21 ReS12 ImS12 ReS22 ImS22
300000.0 -0.2330364427 -0.1373540491 0.4650614713 0.0887687276 0.4676349902 0.088796771 -0.2331816331 -0.1350998218
5299970.0 -0.241646276 0.0049625495 0.4746454536 0.0062955496 0.4752949638 0.006197223 -0.2440553089 0.0042772026
10299940.0 -0.2386590824 0.0187945545 0.4776066299 0.0066530104 0.477041756 0.0069951953 -0.2406238836 0.0172475315
15299910.0 -0.2336904443 0.0287228661 0.4805843957 0.0081840784 0.4809642937 0.00823405 -0.2364663467 0.026197867
20299880.0 -0.2286176472 0.0367321975 0.4852668162 0.0083534675 0.4854967177 0.0083170346 -0.2317472212 0.0337278454
25299850.0 -0.2226599748 0.0437433584 0.4907387786 0.0074027841 0.4906588799 0.0069760846 -0.2263887167 0.0399821018
30299820.0 -0.2170893032 0.0487442736 0.4960544134 0.0048179598 0.4958539061 0.0050031678 -0.2213810294 0.0448744517
35299790.0 -0.2114404093 0.0530872019 0.5012419177 0.0020348305 0.501479408 0.0016813464 -0.2166679873 0.049117065
40299760.0 -0.2059089594 0.0559796979 0.5063713647 -0.0020876238 0.5065086729 -0.0021589335 -0.2115571049 0.052157941
45299730.0 -0.2011136914 0.0588768892 0.5110758991 -0.0067350224 0.5114207186 -0.0072508602 -0.2067422578 0.0547917868
50299700.0 -0.1959641359 0.0608727243 0.5152030487 -0.0125602726 0.5152470899 -0.0127211443 -0.202332524 0.0571525095
55299670.0 -0.1919430138 0.0626452688 0.5192749758 -0.0180246564 0.5190167558 -0.0180507012 -0.1990527103 0.0584537163
60299640.0 -0.1877253899 0.0641720375 0.5226732288 -0.0246637258 0.5223926085 -0.0247974385 -0.1951732072 0.059831986
65299610.0 -0.1839021443 0.0652555042 0.5251274714 -0.0311596402 0.5253813579 -0.0311721772 -0.1916162531 0.0605883099
70299580.0 -0.1808506129 0.0657781633 0.5273042832 -0.0375291761 0.5278553665 -0.0375079293 -0.1888417913 0.0618874141
75299550.0 -0.1779722531 0.0668046652 0.5294285709 -0.0446737109 0.5296050138 -0.0445975649 -0.1857185902 0.062619107
80299520.0 -0.1750287088 0.0676263726 0.5315602438 -0.0514945057 0.5315612445 -0.0512054258 -0.1836428565 0.0636905504
85299490.0 -0.1724246472 0.068290005 0.5327207863 -0.0580829842 0.532807896 -0.0583117211 -0.1817929497 0.0639028029
90299460.0 -0.1702394469 0.0691345932 0.5336572009 -0.0652594296 0.5336407805 -0.0648110279 -0.1792031766 0.0649368244
95299430.0 -0.1679204817 0.0697091458 0.5342654444 -0.0718447829 0.5348103505 -0.0721814075 -0.1772272153 0.0658699366
100299400.0 -0.1656801594 0.0702895676 0.535208774 -0.0785844964 0.53470039 -0.0791850217 -0.1756711581 0.0666177641
105299370.0 -0.1640595685 0.0708984674 0.5353152825 -0.0855837039 0.5354808407 -0.0857245864 -0.1736238272 0.0667815404
110299340.0 -0.1621226508 0.071650435 0.5355876291 -0.0921773209 0.5358714433 -0.0921972066 -0.1727277609 0.0672058182
115299310.0 -0.1607201524 0.0722502468 0.5352021334 -0.0989930188 0.5353856778 -0.099422537 -0.1711474462 0.068430518
120299280.0 -0.1591695547 0.0734830309 0.5352616828 -0.1065263991 0.5350556414 -0.1064751602 -0.1698623427 0.0686371737
125299250.0 -0.1577215285 0.0737836474 0.5349666032 -0.1128685073 0.5346680036 -0.1128012738 -0.1685884694 0.0699217892
130299220.0 -0.1565153858 0.0747941392 0.5336607764 -0.1199362645 0.5340694255 -0.1200667103 -0.1675797319 0.0705444268
135299190.0 -0.1557149013 0.0758624012 0.5340578253 -0.126080312 0.5336246869 -0.1265838269 -0.1665948285 0.0712005597
140299160.0 -0.1540590127 0.0769894116 0.5332640735 -0.1332615359 0.5327016364 -0.132942435 -0.1657754421 0.0719368779
145299130.0 -0.1534661617 0.0778978518 0.5321877252 -0.1395653856 0.5319360796 -0.1393261536 -0.1649650409 0.0727596712
150299100.0 -0.1518948515 0.0787821831 0.5305348981 -0.1458384208 0.5307154627 -0.1463658576 -0.1637305674 0.0740881225
155299070.0 -0.1503684532 0.0798997054 0.5286190334 -0.1522968635 0.5294725206 -0.1526347635 -0.162820326 0.0749070824
160299040.0 -0.149977204 0.0811630052 0.5281462869 -0.1590652506 0.5277576354 -0.1591910725 -0.1624311315 0.0761125955
165299010.0 -0.1486034363 0.0818987007 0.5267368835 -0.1648645975 0.5265098743 -0.1656166619 -0.1612964789 0.0767731488
170298980.0 -0.1478973274 0.0833578246 0.5248619973 -0.1717120523 0.5253570253 -0.1719540293 -0.1609164137 0.0778527293
175298950.0 -0.1468579632 0.0847862206 0.5238751265 -0.1781216484 0.5239214963 -0.1785570381 -0.1598314671 0.079319591
180298920.0 -0.146159381 0.0859758424 0.5215412044 -0.1843788186 0.5221388991 -0.1846711977 -0.1592687215 0.0802165794
185298890.0 -0.1450641913 0.0872015912 0.5203613881 -0.1902690972 0.5200322575 -0.190717352 -0.158169427 0.0811879747
190298860.0 -0.1438032872 0.0884520842 0.5174237522 -0.196343832 0.518259012 -0.1966118857 -0.1577242172 0.0823757573
195298830.0 -0.1430651348 0.0900664784 0.5162247229 -0.2027865839 0.5161514538 -0.2029147341 -0.1569968039 0.0837965474
200298800.0 -0.1416689424 0.0909748805 0.5142356618 -0.2093594637 0.51405191 -0.2090929235 -0.1559907531 0.0846813826
205298770.0 -0.1412866444 0.0924066938 0.5113476692 -0.2146258377 0.5118835222 -0.21496414 -0.1553572537 0.0862131875
210298740.0 -0.1402023566 0.0941132975 0.509706066 -0.2211239393 0.5095686086 -0.2212561757 -0.1550932641 0.0870659785
215298710.0 -0.1394193684 0.0956173736 0.5072234261 -0.2269027971 0.5072686991 -0.2269705371 -0.1540164346 0.088449709
220298680.0 -0.1381826111 0.0968203556 0.5046490219 -0.2325449077 0.5047179407 -0.23284231 -0.1531182552 0.0898075093
225298650.0 -0.1369986358 0.0983558125 0.5017341819 -0.2384258334 0.5021307779 -0.2384310844 -0.1523128404 0.0907020729
230298620.0 -0.13595179 0.1000689191 0.4994977594 -0.2447155931 0.5001518934 -0.2444499515 -0.1520327249 0.0918614935
235298590.0 -0.1355777934 0.1012126406 0.4971846366 -0.2505550613 0.4975103337 -0.2502266975 -0.1509967723 0.0936174697
240298560.0 -0.1342282608 0.102661771 0.4943603698 -0.2558528989 0.4945256663 -0.2562437045 -0.1501185529 0.0946242062
245298530.0 -0.1330645673 0.1039467215 0.491284892 -0.2618922156 0.4915579758 -0.2618009246 -0.1494751984 0.0960340384
250298500.0 -0.1323369671 0.1054954626 0.4889642553 -0.2670602018 0.4886080145 -0.2670424848 -0.1486530596 0.0974615112
255298470.0 -0.1310574363 0.1070578424 0.4860055913 -0.2724421799 0.4864722194 -0.2726416499 -0.1478548083 0.0987667815
260298440.0 -0.1300651538 0.1083722718 0.483175575 -0.2777575916 0.4835700319 -0.2780424579 -0.1473069388 0.1000447615
265298410.0 -0.129504238 0.1101337546 0.4796835606 -0.2841638653 0.4797073126 -0.2841824308 -0.1454257008 0.1011127498
270298380.0 -0.1284607685 0.1111787543 0.4769975348 -0.28911014 0.4770699159 -0.2890523503 -0.1450198675 0.1029163054
275298350.0 -0.1269630858 0.1130489809 0.4731192989 -0.2943009113 0.473925236 -0.2942839761 -0.1442618234 0.104310251
280298320.0 -0.1262334413 0.114391579 0.4706329839 -0.299814878 0.4710524637 -0.2999903374 -0.1432035789 0.1055793869
285298290.0 -0.124941617 0.1159028354 0.4669095965 -0.305238658 0.4676603788 -0.304912018 -0.1427185498 0.1069039986
290298260.0 -0.123597353 0.1173978908 0.4648232879 -0.3104018963 0.4641522923 -0.3104797262 -0.1413752507 0.1082355779
295298230.0 -0.1224862472 0.1183698681 0.460683295 -0.3156276273 0.4610959126 -0.316098719 -0.1406749783 0.109507577
300298200.0 -0.1213642073 0.1202045779 0.4574895974 -0.3214467452 0.4576920044 -0.3209956342 -0.1397251951 0.110636095
305298170.0 -0.1200571883 0.1212678849 0.4542390775 -0.3262201673 0.4543763621 -0.3262205752 -0.1385303935 0.1120177626
310298140.0 -0.1186154916 0.1224602143 0.4509054559 -0.3313241206 0.4506773608 -0.3309255491 -0.1376151038 0.1129776782
315298110.0 -0.1176870101 0.1236805264 0.4471382972 -0.3367182261 0.447084226 -0.3368071242 -0.1362515981 0.1145636049
320298080.0 -0.1164569575 0.1250960301 0.4424455411 -0.3416204118 0.4438819227 -0.3419862299 -0.1356316272 0.1155217099
325298050.0 -0.1155344268 0.1259867929 0.4390791738 -0.3462838648 0.4399595821 -0.3468015159 -0.1344409337 0.1168689109
330298020.0 -0.1145584699 0.1276077116 0.4352785425 -0.351970276 0.4358296066 -0.3516929283 -0.1339553304 0.1178825538
335297990.0 -0.1134248938 0.1289946435 0.4314831182 -0.3566208583 0.4313933484 -0.3569260992 -0.1328100398 0.1192180481
340297960.0 -0.1125115703 0.1304026656 0.4269645492 -0.3611939492 0.426762833 -0.3618692992 -0.1319053395 0.1212261517
345297930.0 -0.1111610099 0.1315833363 0.4231569436 -0.3660987781 0.4233552091 -0.3664738765 -0.1308286368 0.12213356
350297900.0 -0.1098971584 0.1330013001 0.4195976397 -0.3701169193 0.4192113051 -0.3706993184 -0.1299021681 0.123113025
355297870.0 -0.1088028735 0.1342559527 0.4149451208 -0.3746283365 0.4148491446 -0.375063044 -0.1285279254 0.1249881167
360297840.0 -0.1074434311 0.1360019391 0.4108587789 -0.3799437843 0.4112219178 -0.380264631 -0.1278269576 0.1266598228
365297810.0 -0.1060837139 0.1371381974 0.4063376262 -0.3838717062 0.4070334873 -0.3845832475 -0.1268810428 0.1279799397
370297780.0 -0.1048562885 0.1386883854 0.4021869076 -0.3888994643 0.4023741763 -0.3888621339 -0.1255609875 0.1289591468
375297750.0 -0.1035162432 0.1398716309 0.3984206898 -0.3927141902 0.3986058769 -0.3934553979 -0.1244208042 0.1303055584
380297720.0 -0.1023540823 0.141118986 0.3944021559 -0.3976049227 0.3938831173 -0.3977797838 -0.1228585454 0.1317565006
385297690.0 -0.1010669237 0.1421395281 0.3894756487 -0.4014659263 0.3896058922 -0.402333309 -0.1217305283 0.1332708125
390297660.0 -0.0993779404 0.1433490172 0.3848446466 -0.4054433738 0.3852876386 -0.4062039268 -0.1204679867 0.1342095478
395297630.0 -0.0974622248 0.1445223302 0.3806419304 -0.4097256627 0.3805443916 -0.4102875832 -0.1193819771 0.1356032291
400297600.0 -0.0964571409 0.1458148322 0.3761444552 -0.4144821377 0.3765317764 -0.4143291454 -0.1180431258 0.1369333114
405297570.0 -0.094800935 0.1465266104 0.3715960006 -0.4181248591 0.3717239148 -0.4186766547 -0.1164671783 0.1385786551
410297540.0 -0.0935324843 0.1482156784 0.3675046627 -0.4226503548 0.3673397746 -0.4224131439 -0.1156561071 0.1397924956
415297510.0 -0.0917836619 0.14932729 0.3619784237 -0.4264746721 0.3628882373 -0.4265050257 -0.1141407779 0.1407851441
420297480.0 -0.0903797427 0.1502913765 0.3578729782 -0.4304836766 0.3581561306 -0.4304864241 -0.1127384235 0.142484792
425297450.0 -0.0883032471 0.1514387982 0.3534020357 -0.4341376175 0.3529566286 -0.4346885306 -0.1111193225 0.143215841
430297420.0 -0.0869471189 0.1524151296 0.3487615666 -0.4383153427 0.3485446917 -0.4376098765 -0.1098366144 0.1443238633
435297390.0 -0.085278609 0.153305234 0.3430467604 -0.4426770019 0.3433864276 -0.4421427667 -0.1089918251 0.1463071409
440297360.0 -0.0835996533 0.154328278 0.3386115287 -0.4458265521 0.3383278927 -0.4458196916 -0.1074967459 0.1470898358
445297330.0 -0.0819253339 0.155017342 0.3338746192 -0.4491515153 0.3337348211 -0.4496575085 -0.1058289619 0.1481650078
450297300.0 -0.0803880792 0.1563633454 0.329116468 -0.4527747294 0.3291414787 -0.4528881359 -0.1042885111 0.1496810033
455297270.0 -0.078646304 0.1572724896 0.3239542004 -0.4563562486 0.3242311605 -0.4567462821 -0.1027123811 0.1506667097
460297240.0 -0.0764742808 0.1581920047 0.3187713681 -0.4603791213 0.3191018829 -0.4603168589 -0.1016487445 0.1516485278
465297210.0 -0.0748630466 0.1592903764 0.3134073319 -0.4638582555 0.3137132032 -0.464073985 -0.099931469 0.1532911308
470297180.0 -0.0731512829 0.1600874086 0.3083049388 -0.4665686349 0.3092525702 -0.4669327845 -0.0982291621 0.1538020451
475297150.0 -0.071693127 0.1614041061 0.303672076 -0.4701333011 0.3037864442 -0.4704568739 -0.0966713011 0.1552223349
480297120.0 -0.0693740326 0.1623231139 0.2983975576 -0.4736325245 0.2985146865 -0.4732810952 -0.0954277183 0.15606167
485297090.0 -0.0677169667 0.1626749611 0.2928878336 -0.4767598444 0.2930991933 -0.4765162699 -0.0939463437 0.1575165396
490297060.0 -0.0654333626 0.163496658 0.2875823912 -0.4798959659 0.2878067841 -0.480083497 -0.0922014641 0.158314206
495297030.0 -0.0640451793 0.16413611 0.2830567761 -0.4831319808 0.2828515898 -0.4833210108 -0.0904941973 0.1591565394
500297000.0 -0.0623423435 0.1654457866 0.2776597961 -0.4860981456 0.2774821503 -0.4862841098 -0.0889720287 0.1606743506
505296970.0 -0.0598689575 0.1661142668 0.2720151195 -0.4888417698 0.2724410617 -0.488717421 -0.0874490295 0.1608297946
510296940.0 -0.0581668017 0.1669766756 0.2669053577 -0.4925290857 0.2668340773 -0.4926950921 -0.085347731 0.1625106188
515296910.0 -0.0563299907 0.1678074715 0.2609681047 -0.4948327028 0.260936252 -0.4947892682 -0.0841780101 0.1631663404
520296880.0 -0.0544487065 0.1684926741 0.2561001495 -0.4975363029 0.2558138737 -0.4976524054 -0.0821539156 0.1645447657
525296850.0 -0.0524178145 0.1691548761 0.2505232754 -0.5000108226 0.2502540255 -0.5002298432 -0.0808678716 0.1649885519
530296820.0 -0.0508153538 0.1697726947 0.2450457408 -0.5032435612 0.2447358616 -0.5029245098 -0.0789961567 0.1658372072
535296790.0 -0.0480182263 0.170694011 0.2397693771 -0.5052721349 0.239623008 -0.5055996106 -0.0772857664 0.1670820547
540296760.0 -0.0462985972 0.1712251593 0.2335768057 -0.5079615463 0.2341553409 -0.5082726433 -0.0760296273 0.1675823417
545296730.0 -0.0449561853 0.1723670589 0.2289476677 -0.5103890083 0.2285646763 -0.5101139679 -0.0739882574 0.1686568311
550296700.0 -0.0422401535 0.172693786 0.223103086 -0.5129233305 0.2224712173 -0.5133156702 -0.0723089938 0.1694300212
555296670.0 -0.0404707604 0.1733754063 0.2173576569 -0.5153690203 0.2174594097 -0.5153776121 -0.0712032681 0.169940113
560296640.0 -0.03803643 0.1737389172 0.2116790461 -0.5176175917 0.2116124407 -0.5178268292 -0.0689272115 0.1711319208
565296610.0 -0.0365234882 0.1744423661 0.206417307 -0.5197672667 0.2063420358 -0.5196233072 -0.0672734505 0.1718376381
570296580.0 -0.0342990217 0.1753331018 0.2000268677 -0.521964219 0.2003965761 -0.5221589311 -0.0658615103 0.1727946339
575296550.0 -0.0320291751 0.1756940908 0.1951417497 -0.524231064 0.1949095144 -0.5242534133 -0.0638382553 0.1732094215
580296520.0 -0.0300147434 0.1766979616 0.1887474291 -0.5264917556 0.188980536 -0.5268085428 -0.0627830226 0.1742539418
585296490.0 -0.0279455499 0.1770341269 0.1837517163 -0.528019456 0.1829897116 -0.5282510674 -0.0603491816 0.1751384907
590296460.0 -0.0256529431 0.1775377052 0.1778126872 -0.5300435818 0.1774075902 -0.5306163116 -0.0588218138 0.1757398437
595296430.0 -0.0236013292 0.1781143746 0.1713441366 -0.5320393849 0.1716833959 -0.5323480881 -0.0572165083 0.1761335155
600296400.0 -0.0216555193 0.1785401142 0.1654936007 -0.5335982972 0.1658440762 -0.5340741355 -0.0554928455 0.1766263589
605296370.0 -0.0196285531 0.1791636909 0.1605419419 -0.5355168707 0.1601764014 -0.5359380415 -0.0538037838 0.1777530203
610296340.0 -0.0172051813 0.1795419236 0.1542610666 -0.5368566144 0.154651162 -0.5370242378 -0.0521492058 0.1782385928
615296310.0 -0.0149569802 0.1800129077 0.1486501527 -0.5394081004 0.1482105024 -0.5389591066 -0.0499472388 0.1790734297
620296280.0 -0.0134800654 0.1807023211 0.1424415742 -0.5403500371 0.1420839979 -0.5405146728 -0.0485052111 0.179988025
625296250.0 -0.0114208367 0.1808011631 0.1370054791 -0.5420712854 0.1365566512 -0.5418539439 -0.0470409262 0.1801759373
630296220.0 -0.0092003957 0.181223349 0.130559312 -0.5434231731 0.1308504179 -0.543334348 -0.0450587654 0.1808587209
635296190.0 -0.0075133225 0.1818062993 0.1251439841 -0.5443319894 0.1250300505 -0.5444564398 -0.0431550387 0.1811982301
640296160.0 -0.0049707396 0.1819649864 0.1189462477 -0.5460132493 0.1191004357 -0.5462809651 -0.0418869856 0.1815717804
645296130.0 -0.0027411704 0.1827342579 0.1132975297 -0.5471181484 0.1130105457 -0.5466698982 -0.0396818616 0.1820898326
650296100.0 -0.0010376614 0.1828001689 0.107466431 -0.548644656 0.1073545717 -0.5483073008 -0.0370257121 0.1825353262
655296070.0 0.000972294 0.182940269 0.1012800061 -0.5496347742 0.1010593041 -0.5491723917 -0.0364397767 0.1836479834
660296040.0 0.0032182648 0.1833115656 0.0950848657 -0.5505228515 0.0952786509 -0.5505810808 -0.0344160065 0.1837266327
665296010.0 0.005375841 0.1834119281 0.0886590637 -0.5510297674 0.0893203121 -0.551465093 -0.0327721951 0.1842062924
670295980.0 0.0069019204 0.183609902 0.0837552901 -0.5522109093 0.0835171948 -0.5517204201 -0.0310356747 0.1845838503
675295950.0 0.0090849072 0.1836833819 0.0774393867 -0.5529463959 0.077524614 -0.5534350475 -0.0291195459 0.1852694533
680295920.0 0.0108192266 0.1841193495 0.071389973 -0.5537587718 0.0713271747 -0.553565931 -0.0269392662 0.1852529498
685295890.0 0.0134306594 0.1843628761 0.0654401224 -0.5544789984 0.0652113676 -0.5547571943 -0.0253838491 0.1861466241
690295860.0 0.0152671489 0.1843937056 0.0595859302 -0.5549463975 0.0592207052 -0.5555904017 -0.0237157742 0.1863975766
695295830.0 0.0176143846 0.1845318119 0.0534674184 -0.5560590073 0.0533972712 -0.556125193 -0.0217325566 0.1873379471
700295800.0 0.019367245 0.1849215512 0.04823326 -0.5563298346 0.0472325604 -0.5563748656 -0.0199198559 0.1870516917
705295770.0 0.021153132 0.1848686472 0.0416727503 -0.5567177526 0.0415359115 -0.5571104126 -0.0184068305 0.1878297469
710295740.0 0.0233124935 0.1844667705 0.0359940974 -0.5572425152 0.0354613988 -0.557380334 -0.0160592577 0.1879277946
715295710.0 0.0253320042 0.1846446637 0.0297373233 -0.5575211297 0.0295109864 -0.5576178338 -0.0143644697 0.1879730806
720295680.0 0.0276303442 0.1847305532 0.0236446099 -0.5575847948 0.0231933574 -0.5580240753 -0.0128005134 0.188356563
725295650.0 0.0290010552 0.1851546944 0.0183507972 -0.5580118979 0.0178369963 -0.5579869939 -0.0111258523 0.1892227327
730295620.0 0.0308508951 0.1845407992 0.0114811165 -0.5576089999 0.0116054773 -0.5579168702 -0.0093888168 0.1895115924
735295590.0 0.0332819256 0.1846796812 0.0057773762 -0.5581802904 0.0054624515 -0.5579874119 -0.0074329467 0.189222366
740295560.0 0.0350393356 0.1842626123 -0.0002942171 -0.558529489 -9.55928e-05 -0.5585279779 -0.0058822196 0.1899177904
745295530.0 0.0371275018 0.1844690639 -0.0058208258 -0.5576173704 -0.0057573753 -0.5578560866 -0.0041603564 0.1896959296
750295500.0 0.0386290155 0.1840757974 -0.0118392098 -0.5575947306 -0.0126479806 -0.5579850984 -0.0021205707 0.190182239
755295470.0 0.0405611439 0.1839352493 -0.0177464763 -0.5580629242 -0.0181268208 -0.5580203743 -0.0002228838 0.1908011482
760295440.0 0.0425763711 0.1840849228 -0.024778253 -0.5572596229 -0.0242256413 -0.5569472252 0.0019177265 0.1896929811
765295410.0 0.0448215001 0.1833373615 -0.030380987 -0.5568776075 -0.0296601699 -0.5574601787 0.0036153484 0.1904620586
770295380.0 0.0463008769 0.1836525229 -0.0358056554 -0.5561462768 -0.0360885914 -0.5571884692 0.0052240493 0.1907057918
775295350.0 0.0482815757 0.1830591712 -0.0421515824 -0.5564025604 -0.0420886641 -0.5560585169 0.0072702897 0.1910368743
780295320.0 0.0505238985 0.1829875379 -0.0476460716 -0.5552181063 -0.0480394199 -0.5556255125 0.0093088465 0.1909474328
785295290.0 0.0521230957 0.1821957009 -0.0538568934 -0.555030338 -0.0538522105 -0.5554258121 0.0107489643 0.191196767
790295260.0 0.0542948098 0.1818914312 -0.0602944921 -0.5546600777 -0.0596891401 -0.5550112026 0.0128747622 0.1913331284
795295230.0 0.0559798126 0.1816294365 -0.0657582076 -0.5538154323 -0.0660898683 -0.554283664 0.0146736394 0.1906988277
800295200.0 0.0577755903 0.181363347 -0.0712320142 -0.552568546 -0.0716605023 -0.5533756248 0.0158690932 0.1909463912
805295170.0 0.0596424866 0.1808749603 -0.0776485071 -0.552480092 -0.0775584838 -0.5524020904 0.018596914 0.1910739778
810295140.0 0.0618400337 0.1805863405 -0.0832953543 -0.5512246327 -0.0835831351 -0.5515908797 0.0203937604 0.1909193844
815295110.0 0.0632853922 0.1801649168 -0.0894046987 -0.5506929707 -0.0893260928 -0.550870736 0.0217550632 0.1908879712
820295080.0 0.0654028791 0.1796295336 -0.0948558825 -0.5492371615 -0.095134855 -0.5501260795 0.0230066176 0.1916546498
825295050.0 0.067174117 0.1789541557 -0.1011066289 -0.5485343252 -0.1012728583 -0.5483441149 0.0261166715 0.1913201521
830295020.0 0.0691916662 0.1783336354 -0.1069302627 -0.5471802343 -0.10733254 -0.5475576534 0.0273137529 0.1907931406
