!Created with skrf (http://scikit-rf.org).
# Hz S RI R 50.0 
!freq ReS11 ImS11 ReS21 ImS21 ReS12 ImS12 ReS22 ImS22
300000.0 -0.0998575784 -0.0718799072 0.630580424 0.0677770764 0.624785814 0.0690436802 -0.0998852436 -0.0805360124
5299970.0 -0.1019995886 0.0129316165 0.6307213797 0.0102146116 0.6306425744 0.0101672209 -0.1004414722 0.013063845
10299940.0 -0.0970163819 0.0291945626 0.6342947831 0.0151638117 0.6340265901 0.0156349457 -0.0953627415 0.0300934838
15299910.0 -0.0898158552 0.0424905624 0.6406242122 0.0202931734 0.640213882 0.0201692199 -0.0884297416 0.0435829875
20299880.0 -0.0815348028 0.0531204276 0.6483877203 0.024461154 0.6486648299 0.0241235294 -0.079828863 0.0545930761
25299850.0 -0.0720176893 0.0622383546 0.6575135415 0.0251501528 0.6574897451 0.0253613694 -0.0696019305 0.0634421737
30299820.0 -0.0622058683 0.0689911001 0.6678459403 0.0243076625 0.6672027034 0.0244882389 -0.0597340546 0.0702059073
35299790.0 -0.0525305924 0.0736233654 0.6768961079 0.0215832976 0.6766286873 0.0214938194 -0.0498963525 0.0749563346
40299760.0 -0.0432524121 0.0771367202 0.6859381898 0.0174239111 0.6867406333 0.0174137045 -0.0403237285 0.0776881924
45299730.0 -0.0337805245 0.0793413395 0.6949057584 0.0119557074 0.6952650842 0.011703979 -0.0313075581 0.0799354915
50299700.0 -0.0256669978 0.0801371316 0.7036963259 0.004918756 0.7035355837 0.005333444 -0.0225471638 0.0806836036
55299670.0 -0.0176670118 0.0805237422 0.7108697718 -0.0035755526 0.7107980031 -0.0030401248 -0.0150575563 0.0807641687
60299640.0 -0.0100423863 0.0802294312 0.7174080554 -0.0114753163 0.7173497694 -0.0109661122 -0.0076548826 0.0796879139
65299610.0 -0.0037575814 0.0787849061 0.7230209146 -0.0204117556 0.7229834582 -0.0198473306 -0.0011924622 0.0786662444
70299580.0 0.0023983283 0.0776976053 0.7289760333 -0.028924846 0.7284849292 -0.0295337834 0.0049895456 0.0768677721
75299550.0 0.008000767 0.0758614875 0.7327831709 -0.0391211046 0.7323033254 -0.039273433 0.0100141995 0.0747284627
80299520.0 0.0130515488 0.0735383175 0.7368211619 -0.0488215637 0.7372965485 -0.0491721717 0.0147342858 0.0727454983
85299490.0 0.0177010611 0.0713879389 0.7400752052 -0.0586231772 0.7403089124 -0.0584073048 0.0193689714 0.0700640801
90299460.0 0.0218825268 0.0692495558 0.742417846 -0.0690694532 0.7433407065 -0.0686843597 0.0235893011 0.0681269155
95299430.0 0.0258780453 0.0664795211 0.7456007401 -0.0790245096 0.7455272345 -0.0790933593 0.0273762575 0.0654002308
100299400.0 0.0287708978 0.0648960337 0.7467360925 -0.0889780037 0.7466946152 -0.0894292583 0.0308381449 0.0624182009
105299370.0 0.0324525577 0.0619383483 0.7484539661 -0.0994679563 0.7490696069 -0.0993582226 0.034015741 0.0603555428
110299340.0 0.0349264322 0.0596121109 0.7502808559 -0.1094393443 0.7496296663 -0.1093179109 0.0360642571 0.0576474502
115299310.0 0.0373655384 0.0572558273 0.7506529502 -0.1198447001 0.7503953823 -0.1194009612 0.0389703832 0.0555615736
120299280.0 0.0397725906 0.0547752761 0.7507037574 -0.1294632093 0.7511727003 -0.1296976818 0.041304841 0.0529950918
125299250.0 0.0420025608 0.0524531325 0.7518929074 -0.1390162815 0.7514869644 -0.1389419818 0.0426739065 0.0500809404
130299220.0 0.0435444613 0.0503954683 0.7511098976 -0.1498087653 0.7508645658 -0.1493904002 0.0449008614 0.0480172906
135299190.0 0.0453937378 0.0479539502 0.7518745658 -0.1589786348 0.7510138892 -0.15868759 0.0467488589 0.0458355121
140299160.0 0.0468490709 0.046182601 0.7511163541 -0.1689579959 0.7506880154 -0.1692120922 0.0477698123 0.0441825215
145299130.0 0.0481757028 0.0438764114 0.7501281206 -0.1782378923 0.7497445152 -0.1784388649 0.0497086653 0.0420312473
150299100.0 0.049759124 0.0418474255 0.74899801 -0.1876769291 0.7485585596 -0.1874895151 0.0506939294 0.0399617926
155299070.0 0.0504576169 0.0397509797 0.7484099713 -0.1986425141 0.7472132478 -0.1977038375 0.0518359098 0.0382163552
160299040.0 0.0520725 0.0380450051 0.746712609 -0.2074357152 0.7459364751 -0.2077129323 0.0522013718 0.0360661558
165299010.0 0.0527247362 0.0363361163 0.7443958051 -0.2173498869 0.7447000069 -0.2169537902 0.0537673676 0.0349988616
170298980.0 0.0534507245 0.0337488481 0.7428615986 -0.2268990642 0.7428894605 -0.2262351412 0.0543552541 0.0330193222
175298950.0 0.0539178253 0.0321463463 0.7412673065 -0.2357505368 0.7408185872 -0.2354225376 0.0549480976 0.0313311865
180298920.0 0.0543919873 0.0305533573 0.738377167 -0.2449725724 0.7385993816 -0.2446165579 0.0555043321 0.0295916197
185298890.0 0.0557720245 0.0285241287 0.7365723061 -0.2542928311 0.7359971203 -0.2539436473 0.0560226805 0.0285254236
190298860.0 0.0554431779 0.0271484795 0.7341943698 -0.2633556226 0.7344061911 -0.2632106084 0.0564931016 0.0263141843
195298830.0 0.0562031935 0.0251064603 0.7317888316 -0.2723689312 0.731609005 -0.2719456013 0.0575454353 0.0251329001
200298800.0 0.0563094129 0.0238642289 0.7283762913 -0.2814873686 0.728904822 -0.2813762239 0.0568094679 0.0236782726
205298770.0 0.0568407004 0.02275635 0.7259640427 -0.2905149815 0.7257496182 -0.2896550103 0.0574477971 0.021524251
210298740.0 0.0571439492 0.0208640567 0.7229847001 -0.2983921276 0.7230217019 -0.2983724638 0.0579849158 0.0213738049
215298710.0 0.0569211096 0.0198160156 0.7202235119 -0.3077080683 0.7200063037 -0.3078294386 0.0578168971 0.019898933
220298680.0 0.057333454 0.0177625686 0.7161918589 -0.3155368635 0.7165426353 -0.3157539906 0.0576154222 0.0181826144
225298650.0 0.0576233995 0.0165495541 0.7135033775 -0.3248701044 0.7135228527 -0.3244936896 0.057493864 0.016583021
230298620.0 0.057993232 0.0154576216 0.7102856986 -0.3328155836 0.710545815 -0.3332221592 0.0574222647 0.0151859233
235298590.0 0.0579609679 0.014599492 0.7068218095 -0.3419552314 0.7067367309 -0.3413703423 0.0573488144 0.0138609393
240298560.0 0.057890518 0.0133717136 0.7032636647 -0.3502369319 0.702785362 -0.3500751462 0.057460874 0.0131571563
245298530.0 0.057774408 0.0120645695 0.6995747699 -0.3583605959 0.6994485798 -0.3586453351 0.0580453092 0.011065475
250298500.0 0.0583892795 0.0109136715 0.694956426 -0.366374701 0.6948303574 -0.3658704387 0.0576597694 0.0105004125
255298470.0 0.0582472097 0.00941318 0.6910623816 -0.374565457 0.6912035625 -0.3742365915 0.0580632578 0.0089746305
260298440.0 0.0577062177 0.0082896471 0.6878453177 -0.3832137966 0.6879665569 -0.3825778851 0.0582698706 0.007611864
265298410.0 0.0587391866 0.0076150919 0.6834271051 -0.3910479233 0.6835568851 -0.390599991 0.0581218402 0.0064940175
270298380.0 0.0585651405 0.0064181912 0.6797266266 -0.3983969974 0.6790774637 -0.3984198711 0.0579171729 0.0058013567
275298350.0 0.0589149538 0.0053344505 0.6754289748 -0.4067404894 0.6747891052 -0.4063939599 0.0582970323 0.0041889563
280298320.0 0.0585275086 0.0043908277 0.6705073534 -0.4145057189 0.6709047078 -0.4143283012 0.0586440076 0.0033738175
285298290.0 0.0589023274 0.0031030185 0.6663070205 -0.4224091051 0.6657932553 -0.4224278673 0.0583520464 0.0020999167
290298260.0 0.0591509201 0.0021246904 0.6616881136 -0.4296561011 0.6617576356 -0.4302325485 0.058443203 0.0015419314
295298230.0 0.0589638807 0.0007980547 0.6576119578 -0.437505922 0.656836954 -0.4375226807 0.0595363431 8.1411e-05
300298200.0 0.0583147537 -0.0003814355 0.6532304621 -0.4453121302 0.6527392445 -0.4459574215 0.0587286751 -0.0009645065
305298170.0 0.0587060453 -0.0015945267 0.6473989807 -0.4540642536 0.6476849941 -0.4534229915 0.0594905945 -0.002246833
310298140.0 0.0584151728 -0.0024512586 0.642320824 -0.4611270114 0.6430647685 -0.4609665756 0.0592341587 -0.003245142
315298110.0 0.0584252203 -0.0041636728 0.638100767 -0.4689119471 0.6378287913 -0.4687698262 0.0590811073 -0.0045819661
320298080.0 0.0587064251 -0.0050620359 0.6315924131 -0.4767849998 0.6323119499 -0.476289259 0.0587702246 -0.005935828
325298050.0 0.0578470084 -0.0061775641 0.6269990062 -0.4840737453 0.6270341817 -0.4835887683 0.0583235101 -0.0065272783
330298020.0 0.0579194803 -0.0074930951 0.6211678885 -0.4912262804 0.6213009101 -0.4910016228 0.0575204716 -0.0076413554
335297990.0 0.0572663586 -0.0088406362 0.6155360027 -0.4981620315 0.6151761357 -0.4980926619 0.0567410739 -0.0078955145
340297960.0 0.0562929438 -0.0093895256 0.6097429552 -0.5049406721 0.6091324035 -0.5049063983 0.0568659365 -0.0088593158
345297930.0 0.0559463006 -0.0093290288 0.6041890859 -0.5117664664 0.603515147 -0.5123288187 0.0567352027 -0.0099232759
350297900.0 0.0552730354 -0.011191245 0.5969446556 -0.5189050259 0.5976302697 -0.5188437654 0.0555166638 -0.0099798718
355297870.0 0.0550464017 -0.0104875872 0.5921463331 -0.5256431195 0.5924441848 -0.5256472435 0.0553677798 -0.0109753086
360297840.0 0.0546667589 -0.0117034645 0.5874137595 -0.5318662651 0.5869101368 -0.5314228743 0.0547291993 -0.0110568821
365297810.0 0.0542752096 -0.0121875563 0.5801430039 -0.5386892936 0.5812742853 -0.5383874352 0.0547788996 -0.0114453219
370297780.0 0.0541581745 -0.0132620124 0.5743586919 -0.5447348644 0.5749522631 -0.5443969899 0.0543525767 -0.0123563621
375297750.0 0.0538407457 -0.0139130253 0.5682966707 -0.551588822 0.5695622603 -0.5513963017 0.0542484302 -0.0130370457
380297720.0 0.0533867187 -0.0143177516 0.5625865417 -0.5581001678 0.5623749792 -0.5569932934 0.0534232393 -0.0136906549
385297690.0 0.0527367024 -0.0151027875 0.5562304146 -0.5637553372 0.5559590212 -0.5633483771 0.0532082902 -0.0142508117
390297660.0 0.0528135523 -0.0152857871 0.5496604298 -0.5702202134 0.5496145274 -0.5694458468 0.0527790635 -0.0150471945
395297630.0 0.0520597684 -0.0161413686 0.5439145475 -0.5762340574 0.5438171628 -0.5763308535 0.0529002718 -0.0157429768
400297600.0 0.0516694414 -0.0166477499 0.537013466 -0.582726479 0.5373530079 -0.5825802949 0.0521395951 -0.0160970341
405297570.0 0.051250283 -0.0176195092 0.5303254421 -0.5878652138 0.5311733793 -0.5879173928 0.0513604658 -0.0168743282
410297540.0 0.0511330125 -0.0179950527 0.524676094 -0.5943447936 0.5246262369 -0.5941140151 0.0512178683 -0.0170668898
415297510.0 0.0511526768 -0.0188240612 0.5176505882 -0.6004661345 0.5179150627 -0.5998518087 0.0509667721 -0.0177227898
420297480.0 0.0508938646 -0.0189565815 0.5111819683 -0.60603049 0.5111012341 -0.6062471156 0.0500831489 -0.0189297576
425297450.0 0.0500815436 -0.0204066862 0.5050436907 -0.6114545289 0.5048591039 -0.6111644761 0.0493885643 -0.0191158401
430297420.0 0.0498763884 -0.0207041321 0.4977825369 -0.6162662563 0.4974874537 -0.6165421797 0.0494457343 -0.0200282693
435297390.0 0.0493720922 -0.0212775365 0.4902924663 -0.6224190458 0.4905700294 -0.6224799978 0.0498720276 -0.0208259215
440297360.0 0.0494233925 -0.0218688956 0.4844113398 -0.6276322955 0.4840495618 -0.6277742874 0.0486915415 -0.0215577609
445297330.0 0.0486226431 -0.0228511072 0.47765635 -0.633382782 0.4773787662 -0.6325972881 0.0487205944 -0.0224121782
450297300.0 0.0485819582 -0.0232850319 0.4705349098 -0.6384826053 0.470471666 -0.6386032477 0.0481774499 -0.0230873048
455297270.0 0.0480602464 -0.0238236527 0.4631406372 -0.6437916918 0.4632797524 -0.6437271331 0.048091017 -0.0237358684
460297240.0 0.0477403683 -0.0245220778 0.4560040165 -0.6488838466 0.4559331906 -0.6485588604 0.0474312879 -0.0238002847
465297210.0 0.0478505251 -0.0250956564 0.4493765035 -0.653969402 0.4490787786 -0.6541684213 0.0473367699 -0.0249912998
470297180.0 0.0467351596 -0.0257393946 0.4414242675 -0.6587929206 0.4414195904 -0.6590171867 0.0469498822 -0.0251529882
475297150.0 0.0468228031 -0.026493181 0.4345055538 -0.6628893937 0.4346561855 -0.6632376585 0.0471014151 -0.0261486818
480297120.0 0.04600069 -0.0264554507 0.4267205736 -0.6686359811 0.4270587186 -0.6688590818 0.046959482 -0.0262545894
485297090.0 0.0452691751 -0.0272122438 0.4198853957 -0.6731780016 0.4196269871 -0.6730710969 0.0462125189 -0.0271316071
490297060.0 0.0445755944 -0.0279394638 0.4123078402 -0.6779248338 0.4128659589 -0.676598017 0.0460461976 -0.0268096291
495297030.0 0.0445628456 -0.028132093 0.4044500286 -0.6819533788 0.4051099335 -0.6821013522 0.0451160935 -0.0280050359
500297000.0 0.044033558 -0.0289840638 0.3969298551 -0.6860940745 0.3970949603 -0.6858160175 0.044825039 -0.0275153816
505296970.0 0.0439090926 -0.0295588334 0.3896403238 -0.6905689063 0.3892482424 -0.6908595791 0.0445167978 -0.0281547788
510296940.0 0.0432134083 -0.0296952014 0.3822932109 -0.6954094342 0.3822394087 -0.6949710599 0.0445084383 -0.0282510217
515296910.0 0.0425417266 -0.0299971294 0.3742266968 -0.6993044363 0.3743263849 -0.6993389761 0.0440477168 -0.0289577045
520296880.0 0.0421927272 -0.0306934494 0.3669009333 -0.704259397 0.3665586621 -0.7032473693 0.0434098658 -0.0295918969
525296850.0 0.0415448585 -0.0316649245 0.3581452937 -0.7076888851 0.3587681387 -0.7071595534 0.0425559605 -0.0297574325
530296820.0 0.0415034906 -0.031344188 0.3511373407 -0.7118951606 0.3512689521 -0.711298851 0.0428392856 -0.0301253727
535296790.0 0.0401926785 -0.0319306959 0.3435204338 -0.7152463098 0.3434691906 -0.7147506693 0.0418947378 -0.0310643482
540296760.0 0.0400968223 -0.0319715309 0.3356412774 -0.7192828164 0.3353135355 -0.7189531217 0.040740443 -0.0303588081
545296730.0 0.0396664835 -0.0324711471 0.3268700453 -0.7226499468 0.327265541 -0.7225895149 0.0405052196 -0.0312535327
550296700.0 0.0398605659 -0.0326640462 0.319351759 -0.7258728675 0.3196574828 -0.7263533259 0.039535355 -0.0313261317
555296670.0 0.0383872506 -0.0331003425 0.3120520409 -0.7296134945 0.3122299737 -0.7295055357 0.0394635133 -0.0314787213
560296640.0 0.0385177071 -0.0332159602 0.3033418078 -0.7333005445 0.3035989609 -0.7330835436 0.0390354406 -0.0322194494
565296610.0 0.037111228 -0.033835125 0.2953997947 -0.7366219598 0.2958022216 -0.7363382919 0.0379659194 -0.0328694755
570296580.0 0.0369961701 -0.0339143614 0.2875327297 -0.7400100267 0.2869003913 -0.7393623803 0.0376458325 -0.032471636
575296550.0 0.0365058567 -0.0342255068 0.2800498119 -0.7428495111 0.2796586309 -0.7428303644 0.0375003481 -0.0332747828
580296520.0 0.0359573648 -0.0345098666 0.2711226215 -0.7458341988 0.2716092795 -0.7455536317 0.0363708552 -0.0338922739
585296490.0 0.0356976165 -0.0359167714 0.2629671858 -0.7483179546 0.2635156921 -0.7484201783 0.0357229212 -0.0341484655
590296460.0 0.0354839986 -0.0354211574 0.2552088682 -0.750769758 0.2553436233 -0.7514643416 0.0345641676 -0.0343650238
595296430.0 0.0350272698 -0.0356640797 0.2462546322 -0.7541725391 0.2465955645 -0.7537922601 0.0351310142 -0.0351944413
600296400.0 0.03393222 -0.0360936822 0.2383800731 -0.7570589629 0.2384352469 -0.7564374968 0.033958877 -0.0353415956
605296370.0 0.0337365287 -0.0365066289 0.2302675901 -0.7593517006 0.230701774 -0.7592465046 0.0334671815 -0.0358119352
610296340.0 0.0333474531 -0.0370949953 0.2211759723 -0.761509732 0.2222848201 -0.7616917383 0.0333969405 -0.0362642122
615296310.0 0.0329191362 -0.0377373287 0.2134190719 -0.7635803063 0.2133179329 -0.7646074705 0.0329631475 -0.0364221617
620296280.0 0.0321208514 -0.0381162341 0.2051575038 -0.7664282482 0.2051158562 -0.7665157945 0.0319541995 -0.0369430778
625296250.0 0.0310350259 -0.0390112713 0.1976192561 -0.7692128727 0.1968489799 -0.7691586059 0.0323918942 -0.037093654
630296220.0 0.0318481756 -0.0382030663 0.1878523455 -0.771006588 0.1877246663 -0.7705290417 0.0310178757 -0.0373781655
635296190.0 0.0299006508 -0.0391323268 0.1800448092 -0.772452013 0.1800273968 -0.7730056793 0.0310065765 -0.0377228158
640296160.0 0.0292416205 -0.0390517354 0.1715538704 -0.7744932372 0.1723680711 -0.7748522609 0.0306009344 -0.0380913575
645296130.0 0.0290257493 -0.0396022342 0.1629251072 -0.7766349456 0.1635074389 -0.7766115856 0.0299827637 -0.0383371743
650296100.0 0.0286219421 -0.0397380629 0.1545369865 -0.7781921747 0.1549705468 -0.778277695 0.0298998168 -0.0395089158
655296070.0 0.027387258 -0.0400986505 0.1463233718 -0.7800167467 0.1463855736 -0.7799615513 0.0292875763 -0.0389176426
660296040.0 0.026339409 -0.0408928474 0.1375522487 -0.7818090452 0.1381947978 -0.7817538308 0.0291782587 -0.0390912266
665296010.0 0.0269275132 -0.0405537793 0.1287635828 -0.7828945835 0.1287234095 -0.7822955966 0.0282776022 -0.0386212986
670295980.0 0.0247834876 -0.0406837384 0.1206946676 -0.7840904862 0.1200083496 -0.7839346357 0.0271481904 -0.0391058555
675295950.0 0.0250026829 -0.0405912784 0.1119193606 -0.7849855242 0.1123362863 -0.7851340676 0.0266639994 -0.0395347203
680295920.0 0.0238911165 -0.0413677998 0.1030906333 -0.7864929673 0.1024428043 -0.7870680858 0.0264249506 -0.0388572319
685295890.0 0.0235404409 -0.0406844718 0.094673362 -0.7872772864 0.0943029788 -0.7874785617 0.025721589 -0.0391668624
690295860.0 0.0233314946 -0.0408093631 0.0862000955 -0.7881261037 0.0857848756 -0.7888127352 0.0249751305 -0.0385517983
695295830.0 0.0227049424 -0.0412884994 0.0781560466 -0.7891810897 0.0772216445 -0.789118949 0.0245394132 -0.038993414
700295800.0 0.022144573 -0.041474052 0.0691425298 -0.7903010315 0.0685652507 -0.7897255516 0.0237797033 -0.0382180313
705295770.0 0.021342966 -0.0409353917 0.0602892288 -0.790868814 0.0607136449 -0.7905002768 0.0230487111 -0.0390715833
710295740.0 0.0210115788 -0.0414685011 0.0518302305 -0.7928417908 0.0520703565 -0.7919032787 0.0224638141 -0.03980207
715295710.0 0.0200539248 -0.0416604592 0.0439153023 -0.7919305357 0.0430010296 -0.7921803167 0.0223993813 -0.0394317249
720295680.0 0.0196851557 -0.0417281172 0.0345578416 -0.7932408516 0.0346210869 -0.7922495145 0.0215650678 -0.0386638688
725295650.0 0.0193126998 -0.0416903813 0.0256605826 -0.7926925883 0.0258410492 -0.7931354202 0.0200396206 -0.0390012185
730295620.0 0.0188166054 -0.0414314479 0.0170081357 -0.7928824257 0.0173797714 -0.7929497355 0.0195660935 -0.0396619732
735295590.0 0.0179482509 -0.041457866 0.0087987661 -0.7931169292 0.0087802618 -0.7930507086 0.0188556517 -0.0400274189
740295560.0 0.0169781186 -0.0417625332 0.0002963184 -0.7929488835 9.1605e-05 -0.7931509757 0.0188263506 -0.0395504145
745295530.0 0.0167102849 -0.0417115252 -0.0084617009 -0.7921629165 -0.0090880277 -0.7931399462 0.0179958377 -0.0402607727
750295500.0 0.0161614514 -0.0417683251 -0.0172138277 -0.7926871611 -0.0170057984 -0.7926940591 0.0170950398 -0.0399648804
755295470.0 0.0158329135 -0.042141431 -0.0254840376 -0.7926088221 -0.025857561 -0.7927231897 0.0173589803 -0.0403896899
760295440.0 0.0147706045 -0.0418505351 -0.0344619897 -0.7925197551 -0.0348048832 -0.7927271652 0.0163246337 -0.0404082964
765295410.0 0.0144340982 -0.0421348796 -0.0435204444 -0.7920488957 -0.0437026235 -0.7917921593 0.0158423495 -0.0404818141
770295380.0 0.0133327407 -0.0424410963 -0.0520266605 -0.7910533287 -0.0521259413 -0.7909020306 0.014909194 -0.04077134
775295350.0 0.01278433 -0.0428800537 -0.0598600904 -0.7897914512 -0.060359751 -0.790313903 0.0136159215 -0.0403080842
780295320.0 0.012417567 -0.0425523364 -0.0692306102 -0.7893581844 -0.0684310098 -0.7894034112 0.0131141056 -0.0411386717
785295290.0 0.0113432563 -0.043075328 -0.0781554855 -0.7885982401 -0.0772872092 -0.7889627022 0.0135574003 -0.0407482963
790295260.0 0.0115999028 -0.0420483051 -0.0858026936 -0.7882133643 -0.085077485 -0.787776733 0.0127032559 -0.04092763
795295230.0 0.0104603825 -0.0425477563 -0.0948654308 -0.7866285492 -0.0939899009 -0.7873491331 0.0123319684 -0.0405837125
800295200.0 0.0095256531 -0.0420386111 -0.1043757886 -0.785440779 -0.1029399379 -0.7859250164 0.0115206139 -0.0409512707
805295170.0 0.0087894433 -0.0423662788 -0.1118784701 -0.7840854102 -0.1116966417 -0.7851582878 0.0110850788 -0.0407877462
810295140.0 0.0080380362 -0.0428660964 -0.1194928462 -0.7833015299 -0.1196910746 -0.7833147782 0.0108273203 -0.040581081
815295110.0 0.0077696899 -0.0429582921 -0.1285894671 -0.781785625 -0.1288400478 -0.7819612336 0.0098956924 -0.0407102001
820295080.0 0.0066109148 -0.0421585963 -0.1372275172 -0.7804584169 -0.1371707736 -0.7803863867 0.0091277172 -0.0407320871
825295050.0 0.0067130837 -0.0422047448 -0.1453437121 -0.7781708285 -0.1455626064 -0.778889704 0.0092165317 -0.0404972376
830295020.0 0.0060606763 -0.0418862227 -0.1544225926 -0.7767315948 -0.1539888877 -0.7771995664 0.0096014462 -0.0401810124
