!Created with skrf (http://scikit-rf.org).
# Hz S RI R 50.0 
!freq ReS11 ImS11 ReS21 ImS21 ReS12 ImS12 ReS22 ImS22
300000.0 -0.3211583895 -0.0839256919 0.3759896916 0.0467151289 0.3738099228 0.0421102558 -0.3205176047 -0.1005847346
5299970.0 -0.3263975384 0.0039651896 0.3782791294 0.002674185 0.3782996059 0.0025476014 -0.3238509579 0.0046356123
10299940.0 -0.3240551368 0.0132525606 0.3794617752 0.0021811037 0.3795380286 0.0025465754 -0.3217941777 0.0155374141
15299910.0 -0.3214514462 0.0201662768 0.3818791032 0.0023722432 0.3819435879 0.0020973546 -0.3180728072 0.0239254763
20299880.0 -0.3185580994 0.0262585836 0.3850467771 0.0019659318 0.3847198249 0.0015412755 -0.3149394026 0.0302915263
25299850.0 -0.3157981318 0.0314768822 0.388010161 0.000210472 0.3878910371 -5.82219e-05 -0.3109513583 0.0361367105
30299820.0 -0.3128594017 0.035792377 0.3914445496 -0.0021995921 0.3914491289 -0.0021794348 -0.3069574831 0.0409534529
35299790.0 -0.3099091871 0.0398493426 0.3948575483 -0.0053499924 0.3948154239 -0.005284471 -0.3035910924 0.0452809367
40299760.0 -0.3073646928 0.0435745387 0.3982134383 -0.0087923863 0.3979498766 -0.0088125149 -0.3002016138 0.0486083788
45299730.0 -0.304781748 0.046833873 0.4007580735 -0.012611679 0.4006641423 -0.012980884 -0.2969321478 0.052105733
50299700.0 -0.3024265162 0.0494270972 0.4036834775 -0.0172250557 0.4034802405 -0.0173041895 -0.2942789419 0.0545766184
55299670.0 -0.3000816328 0.0522538988 0.405469328 -0.0223257196 0.4057129391 -0.0220555395 -0.2920055931 0.057374715
60299640.0 -0.2979395564 0.0548404175 0.4073459179 -0.027181477 0.4077953053 -0.026877612 -0.288927002 0.059215857
65299610.0 -0.2964330249 0.0574309638 0.4093593668 -0.0319130272 0.40886681 -0.0318237528 -0.2869293273 0.0614990164
70299580.0 -0.2947792502 0.060386596 0.4105119639 -0.0370759384 0.4103173214 -0.0369467911 -0.284972909 0.0639255152
75299550.0 -0.2930771227 0.0623327521 0.4112047746 -0.0420291521 0.4111403241 -0.0422900852 -0.2831135982 0.0658976798
80299520.0 -0.2916105535 0.0651377969 0.4126713705 -0.0473827637 0.4123939881 -0.047420129 -0.2814701685 0.0681134848
85299490.0 -0.290631011 0.0669095383 0.4127139176 -0.0527151296 0.4130651455 -0.0524278463 -0.2801074535 0.0700523103
90299460.0 -0.2888716382 0.0693076777 0.4130906641 -0.0578999497 0.4132964569 -0.0579083035 -0.2782310035 0.0722185644
95299430.0 -0.2870706758 0.0717619057 0.413796829 -0.063114776 0.4135921489 -0.0632684476 -0.2767943856 0.074413025
100299400.0 -0.2864427226 0.0739677911 0.4132834628 -0.0683233751 0.4130608856 -0.0684208085 -0.2750758208 0.0761639738
105299370.0 -0.2852929706 0.0764853425 0.4131119757 -0.0737556702 0.4134718692 -0.0735321778 -0.2737131783 0.078202837
110299340.0 -0.2841265088 0.0790139921 0.4133364742 -0.0787921173 0.4130798029 -0.0784026999 -0.2729618775 0.0801073905
115299310.0 -0.283018089 0.0810015928 0.4128264625 -0.0836934803 0.4127119767 -0.083783225 -0.2715364496 0.0825861376
120299280.0 -0.2819566736 0.0832269419 0.412259486 -0.089279978 0.4125042747 -0.0893866457 -0.27047728 0.0849028013
125299250.0 -0.2809051012 0.0854759716 0.4120784203 -0.0939341354 0.4123245988 -0.0937638291 -0.2695918024 0.0864853279
130299220.0 -0.2804212196 0.0880755483 0.4112682325 -0.0988528949 0.4111050105 -0.0992998093 -0.2687090782 0.0886690391
135299190.0 -0.2790968624 0.0908549612 0.4102905666 -0.1040974858 0.410653039 -0.1038599117 -0.2670911625 0.0907560598
140299160.0 -0.2785166103 0.0932113424 0.4098434111 -0.1091691545 0.4095941434 -0.1091670592 -0.2659759554 0.0935010269
145299130.0 -0.2772446553 0.0959037886 0.4089722168 -0.1143149919 0.4086801089 -0.1136185502 -0.265501314 0.0957035445
150299100.0 -0.2764596087 0.0980338708 0.4077846857 -0.1188875754 0.4077025469 -0.1187294964 -0.2645814343 0.0983314034
155299070.0 -0.2758548121 0.1006927855 0.4070355181 -0.123920707 0.4066046839 -0.1238035105 -0.2631401382 0.1008172749
160299040.0 -0.2743335508 0.1036551813 0.4052052186 -0.1287791725 0.404955307 -0.1288853552 -0.2625652182 0.1030852026
165299010.0 -0.2738032099 0.1061776888 0.4040934857 -0.1338924597 0.4042023842 -0.1338837013 -0.2611322567 0.1057188355
170298980.0 -0.2728329693 0.1087111072 0.4025766447 -0.1384635057 0.403086917 -0.1383004806 -0.2600598743 0.1080705366
175298950.0 -0.2717483618 0.1112227701 0.4015723235 -0.1430525661 0.4010896996 -0.1430844531 -0.2595140031 0.1105488302
180298920.0 -0.2710256307 0.1140704031 0.3999256109 -0.1478171752 0.3998746965 -0.1478514731 -0.2581276507 0.1135241703
185298890.0 -0.2693292267 0.1164824078 0.3983302712 -0.1526697455 0.3980622509 -0.1525472825 -0.2571062588 0.1158020663
190298860.0 -0.2684439562 0.1193259054 0.3966687857 -0.1573323362 0.3969880782 -0.1570467245 -0.2562240307 0.1180042532
195298830.0 -0.2677945126 0.12189702 0.3951550359 -0.1620117913 0.3951896953 -0.1615785867 -0.2551465737 0.1209667604
200298800.0 -0.2662973258 0.1240860243 0.3931841548 -0.1663260927 0.3936248081 -0.1666299028 -0.2545894838 0.1235647234
205298770.0 -0.2654765473 0.1273122136 0.3916225959 -0.1714068529 0.3913591094 -0.1709287784 -0.2531321476 0.1254764736
210298740.0 -0.264412674 0.1298589648 0.3899811975 -0.1753099052 0.3897903191 -0.1754208078 -0.2520757305 0.128420694
215298710.0 -0.2636248637 0.1329126797 0.3883327242 -0.1803066065 0.3880689876 -0.180613392 -0.25114801 0.1311833651
220298680.0 -0.2621607605 0.1350645207 0.3857140935 -0.1846811784 0.3858844329 -0.1844714935 -0.2500608121 0.1338850333
225298650.0 -0.2610279215 0.1379308071 0.3836529339 -0.1889580179 0.3840318918 -0.188944922 -0.248803975 0.135987321
230298620.0 -0.259447555 0.1409300265 0.3819206186 -0.193459152 0.3823207854 -0.1932569701 -0.2479470935 0.1385055485
235298590.0 -0.2581897286 0.1439145039 0.3796392963 -0.1979078864 0.3798290106 -0.1976150463 -0.246589566 0.141486854
240298560.0 -0.257092448 0.146442711 0.3776357507 -0.202090205 0.3775499585 -0.2022389904 -0.245181379 0.144046057
245298530.0 -0.2557894638 0.1492057803 0.3760372827 -0.2065821913 0.3756390066 -0.2065247549 -0.2438787235 0.1457654763
250298500.0 -0.2541574644 0.1518696699 0.3728923738 -0.2108779532 0.3727719537 -0.21043524 -0.2426577632 0.1485908687
255298470.0 -0.2531323247 0.1543330818 0.3704633398 -0.2149717332 0.3704977762 -0.2149974026 -0.2410121181 0.1512622553
260298440.0 -0.2514959264 0.1569674403 0.3685466845 -0.2194315099 0.3684184094 -0.219128685 -0.2395313138 0.1536183076
265298410.0 -0.2499923967 0.1600448038 0.3659195881 -0.2233221204 0.3662801379 -0.2232700002 -0.2385246548 0.1562156642
270298380.0 -0.2487523418 0.1624767744 0.3638763974 -0.2274879996 0.363986591 -0.2274931425 -0.2369625626 0.1587302552
275298350.0 -0.2469959892 0.1651780176 0.3610878858 -0.2317651387 0.361174838 -0.2315913494 -0.2351113961 0.1611627948
280298320.0 -0.2452983157 0.1678098074 0.3585913817 -0.2357101589 0.3588354505 -0.2352381806 -0.2333777592 0.163364493
285298290.0 -0.2434929922 0.1705593472 0.3561545729 -0.2397935711 0.3559405779 -0.2397421096 -0.2319699248 0.1662186547
290298260.0 -0.241803902 0.1732275266 0.3530603332 -0.2435625753 0.3531121886 -0.2439498112 -0.2301521739 0.16863712
295298230.0 -0.2400689635 0.1756807015 0.3507929716 -0.2476936652 0.3505271286 -0.2475850288 -0.227886159 0.1708525093
300298200.0 -0.2385929275 0.1782953234 0.3480380566 -0.2513335591 0.3480208835 -0.2520316098 -0.2266766577 0.1733604472
305298170.0 -0.236447296 0.1806091035 0.3450466751 -0.2557011993 0.3448689905 -0.2556891438 -0.2242251593 0.1758682944
310298140.0 -0.2349878614 0.1836624999 0.3423080656 -0.2598095421 0.3422022238 -0.2592852754 -0.2232254795 0.1781998128
315298110.0 -0.2331752839 0.1858898723 0.3395108538 -0.263260933 0.3394353531 -0.2632039015 -0.2212919547 0.1802576866
320298080.0 -0.2312982265 0.1882515185 0.3362527051 -0.267446369 0.3363210978 -0.2674389895 -0.219490917 0.1829575428
325298050.0 -0.2292939976 0.1905933006 0.333281403 -0.2712436727 0.3333137028 -0.2710024575 -0.2176361611 0.1848878964
330298020.0 -0.2274436042 0.1930834105 0.3297839041 -0.2750997266 0.330399799 -0.2748040372 -0.2159951416 0.1877040041
335297990.0 -0.2255043623 0.1955562179 0.3269374335 -0.2784498285 0.3270346993 -0.2789148348 -0.2144056491 0.1907765176
340297960.0 -0.2243230207 0.198329367 0.3238917076 -0.2822488979 0.3233499874 -0.282270774 -0.2120045831 0.1929425047
345297930.0 -0.2221480182 0.2010142114 0.3204918473 -0.2863410291 0.320724266 -0.2858042654 -0.2103148969 0.1949130179
350297900.0 -0.220118746 0.2032090663 0.3170999456 -0.2894971209 0.3173005551 -0.2890834821 -0.2087811684 0.1977353038
355297870.0 -0.2176623161 0.2058506031 0.3139374922 -0.2927931798 0.3144223006 -0.2926432751 -0.2070278475 0.1999515006
360297840.0 -0.216003986 0.2082295515 0.3109778222 -0.2959946057 0.311281826 -0.2963091791 -0.2045578791 0.2029801711
365297810.0 -0.2140514168 0.2111645189 0.3074835593 -0.3000593612 0.307800094 -0.2998495752 -0.2027985099 0.2050396203
370297780.0 -0.2118375916 0.2131185961 0.3041735866 -0.3028773375 0.3044054488 -0.3029107751 -0.2004682574 0.2076525062
375297750.0 -0.2093710396 0.215577221 0.3006805308 -0.3062221714 0.3013780057 -0.3062989946 -0.1989851272 0.2095979437
380297720.0 -0.2075103101 0.2175216164 0.2976190906 -0.3095984396 0.2976065155 -0.3090540796 -0.1969194144 0.2119287165
385297690.0 -0.2055674868 0.2204183836 0.2937801435 -0.3129358499 0.2940438994 -0.3128785753 -0.194632057 0.2143536029
390297660.0 -0.2033055621 0.2226797505 0.2906082104 -0.3161396454 0.2904106364 -0.315965806 -0.1926453054 0.2162757455
395297630.0 -0.2008797845 0.22514447 0.2871999867 -0.3194238939 0.2870206817 -0.3192874199 -0.1899191134 0.2186367971
400297600.0 -0.1983614365 0.2271853968 0.2831057464 -0.3226352054 0.2835129435 -0.3225444827 -0.1881843313 0.2209825038
405297570.0 -0.1966243371 0.2295764885 0.2802356188 -0.3254450443 0.2800195966 -0.3251055291 -0.186211174 0.2228950944
410297540.0 -0.193776627 0.2318689227 0.2762452142 -0.3287073698 0.2767214376 -0.3286939079 -0.1837853891 0.2252270695
415297510.0 -0.1911246538 0.2339200493 0.272166498 -0.3318893585 0.2729809885 -0.3317552675 -0.1816094477 0.2272153462
420297480.0 -0.1893732651 0.2362686532 0.2690383295 -0.3347483452 0.2687744354 -0.334775018 -0.1793753128 0.2293458321
425297450.0 -0.1866243623 0.2381930924 0.2655515918 -0.3373223 0.2658453014 -0.3375057668 -0.1771045024 0.2314475056
430297420.0 -0.1844978496 0.2402676979 0.2615331433 -0.3400309964 0.2616163252 -0.3402117915 -0.1748444653 0.233034896
435297390.0 -0.1816105912 0.2424649574 0.2576286685 -0.3427173377 0.2574232638 -0.3431022697 -0.1720122882 0.2350150332
440297360.0 -0.1793183695 0.244814965 0.2540660137 -0.3458905313 0.2542672975 -0.3457549318 -0.1696441704 0.2369042341
445297330.0 -0.1768088896 0.2463139873 0.2505430993 -0.348621116 0.2503684038 -0.3484136439 -0.1670759438 0.2386348807
450297300.0 -0.1738921004 0.2483805113 0.2464479831 -0.3512963735 0.246163035 -0.3513441067 -0.1646082602 0.2401216058
455297270.0 -0.171702729 0.2506297427 0.2420841674 -0.3542504301 0.2426949767 -0.3536024132 -0.1619905964 0.2421567137
460297240.0 -0.1691895207 0.2523261013 0.2385358215 -0.3565507689 0.2389569889 -0.3564421972 -0.1597217817 0.2446974657
465297210.0 -0.1659502721 0.2547075805 0.2345556115 -0.3592524512 0.2347310162 -0.3593352325 -0.1571311377 0.2459637581
470297180.0 -0.1634180954 0.2563015688 0.2299833671 -0.3616779735 0.2306753558 -0.3615159375 -0.1542405965 0.2480958997
475297150.0 -0.1611235845 0.2579190213 0.2265138524 -0.3639415063 0.226738901 -0.3637006262 -0.1513010175 0.2494662131
480297120.0 -0.1582003817 0.2601603848 0.2227689047 -0.366579693 0.2226535442 -0.3665140945 -0.1486937414 0.2515667236
485297090.0 -0.1557718299 0.2619067972 0.2186760541 -0.3687208899 0.2186517652 -0.3687599814 -0.1462413454 0.25310469
490297060.0 -0.1530598758 0.2634906894 0.2146590758 -0.3713313882 0.2147068658 -0.3709171093 -0.1434547652 0.2547339298
495297030.0 -0.1503474411 0.2653383584 0.2100322839 -0.3736078315 0.2105753151 -0.3734698201 -0.1409928752 0.256610846
500297000.0 -0.1472386044 0.2671700248 0.2063342384 -0.3755916106 0.2063272965 -0.3756526754 -0.1380233388 0.25872095
505296970.0 -0.144644432 0.2687064293 0.2023854659 -0.3776873408 0.2021291335 -0.3778301324 -0.135684503 0.2598414512
510296940.0 -0.1416652586 0.2703953745 0.1979787753 -0.380042718 0.1976931181 -0.3803443224 -0.1326068746 0.2619679096
515296910.0 -0.1388063797 0.2718985128 0.1937722151 -0.3821528271 0.1938515665 -0.3822155022 -0.1300906573 0.2631831413
520296880.0 -0.1360943917 0.2737501334 0.1892196832 -0.3846048299 0.189999843 -0.3841383465 -0.1271371486 0.2649232855
525296850.0 -0.1331038336 0.2746704728 0.1851464132 -0.3862814183 0.1859108618 -0.3862807466 -0.1244418803 0.2665291185
530296820.0 -0.1301462758 0.2766407198 0.1809432901 -0.3885151053 0.1812769297 -0.3883846678 -0.1215118219 0.2680710829
535296790.0 -0.127516299 0.2784771288 0.1770403559 -0.3902191156 0.1772290352 -0.3896951275 -0.1192671584 0.269443706
540296760.0 -0.12451742 0.2799689883 0.1726905678 -0.392323979 0.1724033657 -0.3920783432 -0.1162471485 0.2711809655
545296730.0 -0.1217779759 0.2811981099 0.1685181319 -0.3939052979 0.1684654607 -0.3940352958 -0.1136067595 0.2721222452
550296700.0 -0.1186395813 0.2825367333 0.1637626288 -0.3956747307 0.1641708792 -0.3957027112 -0.1108816109 0.2736726662
555296670.0 -0.1159623194 0.2840492523 0.1600692146 -0.3974980963 0.1599620997 -0.3972961904 -0.1078409862 0.2751944536
560296640.0 -0.1125158768 0.285576839 0.155311721 -0.3990782365 0.1553675006 -0.3989513202 -0.1051040834 0.2762087083
565296610.0 -0.1096643673 0.286906884 0.1506159607 -0.4009016082 0.1513527547 -0.4010850989 -0.1025409529 0.2774308232
570296580.0 -0.1069209625 0.2881705116 0.146772673 -0.4026962867 0.1459115432 -0.4021490009 -0.0995222264 0.2788419937
575296550.0 -0.1040915328 0.2896777513 0.1423032256 -0.4038530658 0.1422147895 -0.4041999283 -0.0965126154 0.2803311265
580296520.0 -0.10043445 0.2907108442 0.1376287798 -0.4060052366 0.1376186958 -0.4056554195 -0.093295607 0.2808439736
585296490.0 -0.0980685821 0.2915139843 0.1336380787 -0.4065134066 0.1337478916 -0.4069252671 -0.0906087108 0.2824410313
590296460.0 -0.0946648493 0.2929244246 0.1290581606 -0.4081066231 0.1292543142 -0.4080680043 -0.0880656375 0.2833301386
595296430.0 -0.0915439466 0.2939573062 0.1242004163 -0.4096470743 0.1245952209 -0.4097318591 -0.0850656747 0.2839792083
600296400.0 -0.0887323945 0.2951634409 0.1201224225 -0.4109545693 0.1200190686 -0.410633602 -0.0820376414 0.2852683537
605296370.0 -0.0856871259 0.2963123688 0.115282216 -0.4119360633 0.1157047635 -0.4121203533 -0.0786539413 0.2862120677
610296340.0 -0.0822510595 0.2973091179 0.1105826613 -0.4133664284 0.1111033452 -0.4131963032 -0.0756411982 0.2870376203
615296310.0 -0.0788874099 0.2984084207 0.1063031544 -0.4139611256 0.1064279525 -0.4145578369 -0.0725665349 0.2879601695
620296280.0 -0.0760812242 0.2989233636 0.1018553964 -0.4153494308 0.101846532 -0.4151966317 -0.0696721229 0.2887750018
625296250.0 -0.0730156804 0.2997810141 0.0976408642 -0.4164022641 0.0974516451 -0.4171122299 -0.0662712223 0.2895845929
630296220.0 -0.0691898821 0.3007337006 0.0925230099 -0.4175320861 0.0924096359 -0.4171024615 -0.0633598952 0.2907220317
635296190.0 -0.066877429 0.3018364582 0.0884808521 -0.4185067803 0.0883112249 -0.4182143297 -0.0600953628 0.2913854666
640296160.0 -0.0636454291 0.3025590978 0.0836948207 -0.41911628 0.0843672454 -0.4193764588 -0.0569381835 0.2919294288
645296130.0 -0.0605577652 0.3035414435 0.0789146038 -0.4197849711 0.0797277158 -0.4202044683 -0.0539686509 0.2929375856
650296100.0 -0.0573174127 0.3042143704 0.0744926719 -0.4209518866 0.074575676 -0.4205895737 -0.0506668335 0.2930530753
655296070.0 -0.0542046991 0.3049107569 0.0701833808 -0.4218226471 0.0701099063 -0.4216049478 -0.0473984318 0.2940625889
660296040.0 -0.0512327053 0.3052192003 0.0656416525 -0.4223509534 0.0653841603 -0.4225168084 -0.0443980357 0.2945289147
665296010.0 -0.0475208321 0.3059370627 0.0603248196 -0.4231546647 0.0608676781 -0.423145113 -0.041231495 0.2961882137
670295980.0 -0.0447358686 0.306993348 0.0565194665 -0.4236871981 0.0565324738 -0.4236781793 -0.0383744335 0.2962100022
675295950.0 -0.0413720115 0.3074674557 0.0518432664 -0.4242095945 0.0517905078 -0.4238749495 -0.035332052 0.2971693555
680295920.0 -0.0383634412 0.3080330218 0.0473031677 -0.4244810555 0.0472003368 -0.4251354609 -0.0323171942 0.2980900052
685295890.0 -0.0346181864 0.3089761207 0.0422662789 -0.4250887956 0.0424367755 -0.4251724864 -0.028774944 0.2980156203
690295860.0 -0.0315795802 0.308965329 0.0380770861 -0.4250074575 0.0379990591 -0.4255537688 -0.0260776632 0.2990095285
695295830.0 -0.0285997433 0.3095968757 0.0335943225 -0.4257033326 0.0331438471 -0.4256941808 -0.0222896333 0.2993116088
700295800.0 -0.0251411906 0.309926458 0.0286032462 -0.425754068 0.0285087442 -0.4258702949 -0.0196868249 0.2998604888
705295770.0 -0.0218683431 0.3107627714 0.0237635117 -0.4265072741 0.0244176041 -0.4264387165 -0.016578189 0.3005932138
710295740.0 -0.0186744844 0.3108440301 0.0195807242 -0.4267656911 0.0199449122 -0.4268136517 -0.0138344442 0.300335806
715295710.0 -0.0157956741 0.3111609392 0.0149683731 -0.42657167 0.0147317427 -0.4267958637 -0.0098620718 0.3008794389
720295680.0 -0.0124964333 0.3116225003 0.0102844028 -0.4270153353 0.0102990648 -0.4268114435 -0.0067090811 0.3011741804
725295650.0 -0.0088542944 0.3115636714 0.0054426798 -0.4272086614 0.0057914211 -0.4271714106 -0.0043215986 0.3020210344
730295620.0 -0.0055767521 0.312220774 0.001134284 -0.4267888441 0.0012275255 -0.4266770319 -0.0013901753 0.3013893121
735295590.0 -0.0023955889 0.3124770814 -0.003520494 -0.4270209546 -0.0035435243 -0.4268455359 0.0015342788 0.3016685445
740295560.0 0.0005797775 0.3126616473 -0.0081925639 -0.4265668432 -0.0082601708 -0.4266492294 0.0055549422 0.3019120791
745295530.0 0.0036706557 0.3126838144 -0.0127639863 -0.4264527384 -0.0131344088 -0.426537991 0.0085042722 0.3017579377
750295500.0 0.0076588359 0.3125847085 -0.0174571492 -0.4263402652 -0.0174665991 -0.4261700739 0.0111672675 0.3016470532
755295470.0 0.0106072616 0.3127226628 -0.0220380622 -0.4262868429 -0.022142828 -0.4258398196 0.0151248617 0.3013056991
760295440.0 0.0139361415 0.3122728508 -0.0268353667 -0.4256970255 -0.0268704777 -0.4262067887 0.0174919057 0.3016514528
765295410.0 0.0170758783 0.3126324749 -0.0311538545 -0.4254965189 -0.0312650561 -0.4255525162 0.0210173687 0.3016446661
770295380.0 0.0203032551 0.3122942453 -0.0362053217 -0.4249468116 -0.0361697838 -0.4248994994 0.0240618081 0.3011698422
775295350.0 0.0231275431 0.3119954214 -0.0405548124 -0.4242169036 -0.0399914398 -0.4247237539 0.0267231298 0.3012526545
780295320.0 0.02693062 0.3119316293 -0.0452972762 -0.4233593302 -0.044552205 -0.423747262 0.0301705552 0.3006624543
785295290.0 0.0298443367 0.3114193156 -0.0497819886 -0.4230059226 -0.0496518424 -0.4233478054 0.0338778929 0.3008640851
790295260.0 0.0337592567 0.3120781385 -0.0541345759 -0.4231931792 -0.0535936703 -0.4228273545 0.0369551024 0.3008349225
795295230.0 0.0366205618 0.311413937 -0.0589300688 -0.421937102 -0.0585004494 -0.4222693973 0.0403781654 0.3002401676
800295200.0 0.0397451597 0.311360856 -0.0636855959 -0.4212478961 -0.0631876825 -0.4212320353 0.0434520037 0.2999869207
805295170.0 0.0430680614 0.3108788151 -0.0677705671 -0.4205095397 -0.067989845 -0.420608674 0.0463373393 0.2994788877
810295140.0 0.0464328008 0.3102844274 -0.0721294115 -0.4197499673 -0.0724091764 -0.4200217958 0.0500038553 0.2991851097
815295110.0 0.0496536498 0.3099075993 -0.0769166101 -0.4188197948 -0.0767365349 -0.4192902765 0.053293526 0.2989263294
820295080.0 0.0524791657 0.3102668786 -0.081139716 -0.418418308 -0.0809787664 -0.4178986139 0.056286066 0.298524639
825295050.0 0.0563490402 0.3090037386 -0.0857532927 -0.4170077373 -0.0856638061 -0.4174176038 0.0597981778 0.2981914191
830295020.0 0.0590796893 0.3087366346 -0.0905793943 -0.4159235016 -0.0903202184 -0.4160139396 0.0631387646 0.297513621
