!Created with skrf (http://scikit-rf.org).
# Hz S RI R 50.0 
!freq ReS11 ImS11 ReS21 ImS21 ReS12 ImS12 ReS22 ImS22
300000.0 -0.0492100754 -0.0411365647 -0.0009277596 0.0015741137 0.0005467464 -0.0004812043 -0.770733978 -0.125599648
5299970.0 -0.0488956718 0.015648463 -0.0001574778 -0.0002803095 -0.0001197159 -3.96776e-05 -0.7841312824 -0.0068087098
10299940.0 -0.0430103518 0.0321345904 0.0001130831 9.642e-07 0.0002071048 -0.0002225204 -0.7876736867 -0.0034192213
15299910.0 -0.0349478466 0.0461057469 0.0001049106 4.58719e-05 5.25557e-05 -0.0001265503 -0.7930947202 -0.0015593892
20299880.0 -0.0255080574 0.0572902396 8.08595e-05 8.2957e-06 -0.0001243319 -0.0001323437 -0.7997609913 0.0019857707
25299850.0 -0.0145007622 0.0664371671 -0.0001374785 9.9519e-06 8.0197e-05 -0.0001054284 -0.8060634431 0.0084455342
30299820.0 -0.0034166135 0.0730917088 -3.36746e-05 0.0001283978 7.11846e-05 3.7178e-06 -0.8120574748 0.0164753184
35299790.0 0.0077238981 0.0777801253 5.47386e-05 0.000175848 4.88292e-05 -0.0001319574 -0.8170197301 0.0253418539
40299760.0 0.018981801 0.0805943087 8.7004e-05 7.21106e-05 -5.479e-07 -1.04071e-05 -0.8209106732 0.0347251505
45299730.0 0.0296914683 0.0815443799 7.39698e-05 0.000154865 9.96386e-05 -0.0001353601 -0.8252938706 0.0442023771
50299700.0 0.0394915277 0.0814532655 4.84425e-05 8.25446e-05 -9.79476e-05 -8.90869e-05 -0.8276522736 0.0541808884
55299670.0 0.0481926949 0.0803222218 -9.03396e-05 3.33737e-05 0.0001251062 -4.64408e-05 -0.8293643987 0.0645672945
60299640.0 0.0568063032 0.0787692325 -4.80982e-05 1.52987e-05 8.299e-07 -0.0002152597 -0.8306184261 0.0745839057
65299610.0 0.0643141707 0.0761937918 0.0001093084 -0.000164316 1.39169e-05 0.0001529083 -0.8320418296 0.0842077859
70299580.0 0.0710278413 0.0732678933 -7.99255e-05 0.000110714 7.78959e-05 -2.09461e-05 -0.8315979224 0.0947188613
75299550.0 0.077345797 0.0699874247 0.0001025983 0.0001081755 -6.29236e-05 0.0002629373 -0.8323952329 0.1043624462
80299520.0 0.0829667905 0.066505723 -1.04031e-05 -0.0001005465 0.0002434475 -6.934e-06 -0.8324002044 0.1138903169
85299490.0 0.0878407332 0.062624117 -6.42369e-05 0.0001194116 2.08806e-05 -0.0001064922 -0.8315685435 0.1234139697
90299460.0 0.0922066303 0.0589606244 -8.06114e-05 -5.02272e-05 -0.0001247039 3.67494e-05 -0.830665485 0.1330310632
95299430.0 0.096350743 0.0546739553 0.0002586691 5.18121e-05 1.9953e-05 0.000139944 -0.8295976325 0.1425842282
100299400.0 0.0999752308 0.0512620049 0.0001031633 0.0001458485 -0.0001251752 0.0001361955 -0.8286677419 0.15254882
105299370.0 0.1029083755 0.0472584362 -4.55429e-05 -5.8359e-06 -6.19926e-05 0.0001361814 -0.8269348273 0.1617057963
110299340.0 0.1056884688 0.0431666868 -1.45826e-05 0.0001503041 0.0001173782 0.0001679519 -0.8253971777 0.1712239064
115299310.0 0.1082846731 0.0392768671 8.33471e-05 -5.03368e-05 0.0002597045 -0.0001831559 -0.8241352549 0.1802379481
120299280.0 0.1102719378 0.0352166241 0.0002339011 -9.18832e-05 8.83238e-05 4.5144e-05 -0.8226112345 0.1893105954
125299250.0 0.1122354035 0.0314145339 -1.45469e-05 0.0001840868 -5.63877e-05 -0.0001005008 -0.8208129987 0.1980671299
130299220.0 0.1136159879 0.0278330014 0.0001512181 -9.20024e-05 2.59129e-05 -4.40258e-05 -0.8188026948 0.2069533244
135299190.0 0.1151663277 0.0243250186 0.0001270055 0.0001955784 5.81354e-05 0.0001637741 -0.8166221003 0.2160503988
140299160.0 0.1161921555 0.0205332746 0.0001189069 0.000317686 9.19554e-05 0.0001341557 -0.8143768084 0.2247154882
145299130.0 0.1172934355 0.0168922557 2.47663e-05 0.0001625912 -0.0003254031 3.90712e-05 -0.8123016947 0.2345198429
150299100.0 0.1184400513 0.0135213051 4.61284e-05 6.72449e-05 1.59298e-05 0.0001855623 -0.8104584087 0.2434354339
155299070.0 0.1188518496 0.0101428797 -5.96116e-05 -6.8086e-05 -2.9695e-05 0.0001571481 -0.8070691124 0.2518587818
160299040.0 0.1191039429 0.0069899068 0.0001458317 -0.0001325638 0.0001369395 -0.0001254922 -0.8051880288 0.2607241047
165299010.0 0.1199301299 0.0036708684 4.2879e-05 0.0001386561 5.5946e-05 -4.1511e-05 -0.802433903 0.2694298657
170298980.0 0.119949695 0.0008985621 -0.0001200453 0.000104151 0.0002250144 0.0001042523 -0.79966425 0.2781212981
175298950.0 0.120144347 -0.0022859394 -5.5409e-05 0.0001851001 -3.38075e-05 9.09923e-05 -0.7966096044 0.2866389906
180298920.0 0.120593532 -0.0052527929 0.0001803811 0.0001972032 -0.0001252694 -9.64165e-05 -0.7936354143 0.2951807374
185298890.0 0.1206297341 -0.0084299206 9.43907e-05 0.0001227769 5.78622e-05 -9.10727e-05 -0.7903068006 0.3043877753
190298860.0 0.1205855619 -0.0112508258 0.0001193953 0.0001825169 -3.6155e-06 3.2385e-06 -0.7881584786 0.3125713073
195298830.0 0.1202316601 -0.0139110867 0.0001809332 0.0001302584 -7.19555e-05 -3.431e-05 -0.7846246412 0.3213634444
200298800.0 0.1198582974 -0.0164761962 7.36539e-05 -9.12817e-05 -0.0001309898 -4.31644e-05 -0.7815357711 0.329054532
205298770.0 0.1194840785 -0.0193051757 5.7298e-06 3.88084e-05 0.000165475 5.9668e-05 -0.7776356403 0.3376466549
210298740.0 0.1191062132 -0.0220284454 -6.3129e-05 -6.40079e-05 4.54353e-05 -2.85787e-05 -0.7739445256 0.3466348031
215298710.0 0.1187922403 -0.0243039373 0.0001000674 -5.00413e-05 0.0001451804 0.000117931 -0.7706603706 0.354286392
220298680.0 0.1182411263 -0.0271782772 0.0002330156 4.08355e-05 -0.000113409 1.29505e-05 -0.7674499897 0.3623774509
225298650.0 0.1173944521 -0.029456731 0.0001365179 7.47143e-05 -0.0001569513 -4.3871e-05 -0.764039856 0.3703843641
230298620.0 0.1171022796 -0.0317414216 3.68023e-05 0.0002326158 5.63826e-05 -7.4381e-06 -0.7598993313 0.3788027286
235298590.0 0.1164194024 -0.0339263907 -1.17339e-05 -0.0001106699 -3.98758e-05 5.67355e-05 -0.7555125309 0.38708984
240298560.0 0.115585431 -0.0365401574 0.0001999968 0.0001379667 4.68567e-05 0.0001155986 -0.7519615221 0.3953209039
245298530.0 0.1150680571 -0.0386043119 0.0001232662 -6.6809e-06 -4.98659e-05 1.4424e-05 -0.7481056236 0.4024525446
250298500.0 0.1141956705 -0.0411090473 0.0002152336 -0.000341062 7.05029e-05 3.3041e-06 -0.7436228134 0.4102198818
255298470.0 0.1127459866 -0.0431930198 0.0001123931 6.89147e-05 0.00012924 0.0001652243 -0.7390149794 0.4183074345
260298440.0 0.1122180261 -0.0452153597 7.52514e-05 4.84666e-05 0.0001232747 -9.10176e-05 -0.7348164553 0.4264085005
265298410.0 0.1113520038 -0.046973008 0.0001072362 5.26083e-05 0.0001942554 2.60815e-05 -0.7304564442 0.4336502112
270298380.0 0.1105799393 -0.0494639744 2.34226e-05 -1.16186e-05 0.0001123546 9.2482e-06 -0.7258067192 0.4411282243
275298350.0 0.1098729066 -0.0511045992 4.77625e-05 -8.28145e-05 0.0001971906 3.25302e-05 -0.7207863601 0.4487323738
280298320.0 0.1088942782 -0.0534136774 0.00028047 1.8536e-06 -6.83338e-05 0.0001380614 -0.7159403978 0.4563682793
285298290.0 0.107710454 -0.0548103113 8.47026e-05 -6.35622e-05 7.75007e-05 0.0001038945 -0.7110349434 0.4639265348
290298260.0 0.107005596 -0.0571031323 0.0003411871 -4.2977e-05 -0.0002815059 0.0001546832 -0.7061817685 0.4710063026
295298230.0 0.1059448971 -0.0591070832 9.16837e-05 -6.96691e-05 7.8889e-06 2.89202e-05 -0.7010414016 0.4782380039
300298200.0 0.104994406 -0.0604376379 0.0002400563 -3.59238e-05 3.82022e-05 9.51366e-05 -0.6955805213 0.4854192872
305298170.0 0.1039167704 -0.0625071059 -4.79313e-05 5.79424e-05 8.75284e-05 -1.44293e-05 -0.6899625623 0.4932992413
310298140.0 0.1029006248 -0.0640448463 0.0002599586 0.000328045 -7.1321e-06 -3.61561e-05 -0.6857651747 0.5000824345
315298110.0 0.1021825737 -0.0660234593 0.0001120252 7.15848e-05 0.0001185073 0.0001435562 -0.6798315633 0.5069885909
320298080.0 0.1007268719 -0.0682800222 0.0001382764 -4.16432e-05 1.2177e-06 0.000240707 -0.6749448667 0.5147253609
325298050.0 0.0997070156 -0.0697489193 -0.0001035388 -9.8786e-06 2.79666e-05 0.0001058717 -0.6688478582 0.5212204816
330298020.0 0.0981538363 -0.0717546852 3.29999e-05 3.16556e-05 0.000182004 -0.0001822873 -0.6633785757 0.5283901517
335297990.0 0.0964384741 -0.0732190494 2.16751e-05 1.12318e-05 2.00484e-05 0.000105549 -0.6584532426 0.5356334678
340297960.0 0.0949337844 -0.0748656731 -4.78963e-05 6.81884e-05 0.0002168066 -8.39836e-05 -0.6523955667 0.5428021032
345297930.0 0.0933905737 -0.076233015 0.0002422915 3.63527e-05 6.10078e-05 1.7966e-05 -0.6468708845 0.5487352071
350297900.0 0.0919872891 -0.0774491295 0.0001108364 -0.0001580423 5.64597e-05 1.64825e-05 -0.6409105485 0.5553101315
355297870.0 0.0907149134 -0.0787305028 0.0001150552 -4.03193e-05 3.37491e-05 0.0002578045 -0.6357175802 0.5621954222
360297840.0 0.0896350664 -0.080334987 2.31153e-05 -0.0001273207 8.7522e-05 9.12733e-05 -0.6292819435 0.5691040623
365297810.0 0.0876536976 -0.0811652859 0.000208498 0.0002423704 -6.02745e-05 -9.75022e-05 -0.6231308623 0.5758585728
370297780.0 0.086628606 -0.0825379218 -3.42551e-05 -9.46675e-05 1.62195e-05 -0.0001469097 -0.6171573327 0.5819665781
375297750.0 0.0852214729 -0.083787758 0.0002044833 -5.21077e-05 0.0002193525 7.16558e-05 -0.6113087765 0.5881760676
380297720.0 0.0837406912 -0.0854514672 -5.02014e-05 2.21485e-05 -3.31159e-05 -0.0001399868 -0.605575248 0.5948361892
385297690.0 0.0821913685 -0.0861852571 4.05727e-05 6.649e-05 0.0001043113 0.0001898486 -0.5987695823 0.6006915276
390297660.0 0.0806748342 -0.0873573353 -4.8686e-05 6.10712e-05 2.5114e-05 -2.55737e-05 -0.5938594468 0.6071865473
395297630.0 0.079363681 -0.0886519623 -0.0001351975 2.98062e-05 7.02913e-05 4.32158e-05 -0.5864842462 0.6135529642
400297600.0 0.0781437006 -0.0896227822 3.58068e-05 -1.643e-06 0.0001061528 0.0001017366 -0.5808258148 0.6197025495
405297570.0 0.0762668036 -0.0910039451 -1.97562e-05 4.09622e-05 2.69579e-05 -0.0001051253 -0.5739801924 0.6253173089
410297540.0 0.0749273269 -0.0919448717 0.0001187706 0.0001815607 0.0001638884 0.0002381083 -0.5675874905 0.6314352278
415297510.0 0.0734893491 -0.0929823056 8.99299e-05 7.25134e-05 0.0001317096 -0.0001229466 -0.5608792047 0.6365587776
420297480.0 0.0718516117 -0.0936631106 7.90949e-05 -2.6034e-05 7.58427e-05 0.0001140872 -0.5541814891 0.6423680008
425297450.0 0.0704082453 -0.0947440015 -0.0001755999 4.7762e-06 0.0001036395 5.66481e-05 -0.5477770885 0.6480675071
430297420.0 0.0689591323 -0.0958905706 -4.14599e-05 0.0001547571 0.0001706309 0.0001397254 -0.5413290838 0.6529153021
435297390.0 0.0672518421 -0.0967091904 0.0001673934 0.0001937705 -2.27756e-05 -1.46059e-05 -0.5339949541 0.6587052399
440297360.0 0.0658562811 -0.0977265684 0.0001379395 1.65886e-05 4.75321e-05 0.0001095383 -0.5275569317 0.6638168079
445297330.0 0.06445402 -0.0988522866 0.0001304686 0.0001783983 5.21459e-05 -6.23344e-05 -0.5203173549 0.6688483605
450297300.0 0.0628984324 -0.0997542263 3.739e-06 0.0001142479 8.95782e-05 2.69213e-05 -0.5129720353 0.6745686141
455297270.0 0.061224112 -0.1002941401 0.0001677704 1.7805e-05 3.46838e-05 -7.30721e-05 -0.5065629985 0.6790120757
460297240.0 0.0597218871 -0.1011374396 2.17307e-05 0.0002830252 -0.0001130915 -1.2251e-06 -0.4993546272 0.6842639634
465297210.0 0.0583887081 -0.1019844773 0.0003350524 0.0001801795 5.06043e-05 5.60982e-05 -0.4916952095 0.6889864023
470297180.0 0.0566196074 -0.1027397415 0.0002076494 0.0002414599 0.0001352603 -0.0001339342 -0.4846591585 0.6947093589
475297150.0 0.0548722892 -0.1036469983 -4.78032e-05 0.0002063817 0.0001508501 -1.07893e-05 -0.47738888 0.6983212118
480297120.0 0.0534826477 -0.1040820044 4.8094e-06 0.0001366334 0.0002554958 0.0001860294 -0.4698551653 0.7036900873
485297090.0 0.0519349348 -0.1049105483 9.8977e-05 0.0001812875 5.8034e-06 2.74133e-05 -0.4629707951 0.7085361905
490297060.0 0.0499270897 -0.1052816285 5.75544e-05 0.0001257362 0.000190885 -4.32086e-05 -0.4556065514 0.7128335088
495297030.0 0.0483093574 -0.1060943254 0.000246093 6.76406e-05 0.0002715408 0.000257509 -0.4485609269 0.7179875479
500297000.0 0.0470487132 -0.106573077 0.0001768046 -0.0001559269 0.000276402 -0.0001482228 -0.4408456199 0.7225815361
505296970.0 0.0456405938 -0.1074034617 0.0001746834 -0.0001436391 0.0001838961 5.98765e-05 -0.43352661 0.7269529633
510296940.0 0.0437674682 -0.1081454938 -0.0002233276 -9.22343e-05 0.0001412549 4.90093e-05 -0.4261482906 0.731031293
515296910.0 0.0423056708 -0.1083692136 0.0002761393 -0.0002135586 0.0001420062 7.4815e-06 -0.4183570995 0.7352180306
520296880.0 0.0402889533 -0.1091648648 0.0002300848 -4.99629e-05 4.64075e-05 4.79353e-05 -0.4105938057 0.7395709365
525296850.0 0.0388250619 -0.1098687259 0.0001013555 0.0001007362 0.0001579376 3.69317e-05 -0.4036729929 0.7443024462
530296820.0 0.0373076797 -0.1097103007 5.99185e-05 0.0001601756 -1.62091e-05 0.0001149477 -0.3956748872 0.7475763742
535296790.0 0.0356155613 -0.1101827906 0.0001747899 0.0001241998 -0.0002406665 -1.22108e-05 -0.3884665846 0.7514450244
540296760.0 0.0337486052 -0.1107938365 -2.70938e-05 -0.0001746558 -1.23341e-05 -1.33566e-05 -0.3807525372 0.7557734087
545296730.0 0.0321639724 -0.1110211596 5.16482e-05 -4.61484e-05 0.0003117115 0.0001147652 -0.3731881265 0.7602676647
550296700.0 0.0307774165 -0.1114451738 -5.37631e-05 -2.80232e-05 0.000271903 -8.13044e-05 -0.3653820943 0.7633843952
555296670.0 0.028878434 -0.1119341092 -0.0001335213 8.2868e-05 0.0002273951 1.3862e-05 -0.3576269044 0.7673782808
560296640.0 0.0274423914 -0.112033106 0.0001753871 -2.2445e-06 0.0003406191 5.90501e-05 -0.3496643549 0.7709726625
565296610.0 0.0254688927 -0.112388302 0.0001022397 -4.82924e-05 4.68847e-05 -8.90213e-05 -0.3420122721 0.7738603591
570296580.0 0.0237559756 -0.1126778478 7.5878e-06 4.09847e-05 0.0001133778 -2.14789e-05 -0.3349899711 0.7778246757
575296550.0 0.0220696249 -0.1126091427 -0.0002343055 -4.95276e-05 1.15434e-05 6.92285e-05 -0.3266801499 0.7810873332
580296520.0 0.0206816418 -0.1130309207 -3.95013e-05 -0.0002023064 7.47347e-05 5.21192e-05 -0.3180964151 0.7842347407
585296490.0 0.0185933855 -0.1133095863 0.0001537697 -2.52325e-05 6.68353e-05 -1.24991e-05 -0.3103561529 0.7875124953
590296460.0 0.0173914135 -0.1132889763 -5.92318e-05 1.6928e-05 0.0001050823 1.42307e-05 -0.3028458051 0.7899911362
595296430.0 0.0152957999 -0.1135586272 0.0002218648 0.0002011871 0.0001679896 0.0001049899 -0.2944707156 0.7928683275
600296400.0 0.0135971153 -0.1137181134 0.0002782521 7.9024e-05 -3.80735e-05 7.84946e-05 -0.2869218532 0.7957686106
605296370.0 0.0120160778 -0.1139692456 0.0001304568 0.0001009946 0.0001557172 2.76037e-05 -0.2785031412 0.7988119759
610296340.0 0.0102092143 -0.114276128 0.0002680665 4.57372e-05 0.0002530002 -1.73252e-05 -0.2699182674 0.8005717582
615296310.0 0.0085949467 -0.1141696072 0.0001692483 -7.12964e-05 4.57501e-05 0.0001186288 -0.2613741293 0.8037816712
620296280.0 0.0069562311 -0.1141752367 -4.99903e-05 2.65319e-05 0.0002847788 2.11854e-05 -0.254047016 0.8064216224
625296250.0 0.005200598 -0.1143284865 -2.64483e-05 7.476e-05 -4.5522e-05 -7.6815e-06 -0.2452040599 0.8081289395
630296220.0 0.0040214628 -0.1143184662 0.0002218446 9.0463e-06 0.0001687283 1.45904e-05 -0.2374218575 0.8109840668
635296190.0 0.0017304804 -0.1140515884 0.000220983 0.0001066535 0.0002170308 -8.18427e-05 -0.2293313405 0.8130008849
640296160.0 0.0003270667 -0.1140323388 0.0002570826 0.0001399751 0.0001354494 0.0001176642 -0.221064506 0.8157247018
645296130.0 -0.001575243 -0.1137680758 2.53409e-05 6.03842e-05 9.87785e-05 4.17382e-05 -0.2126840542 0.8176497352
650296100.0 -0.0030176453 -0.1136578316 2.44683e-05 -0.0001033075 0.0001116333 0.0001502882 -0.2045039926 0.8191581158
655296070.0 -0.0048884709 -0.1137909371 0.0001992645 9.73394e-05 -0.0001739572 0.0001425144 -0.1957633448 0.8210744279
660296040.0 -0.0066965216 -0.113647418 0.0001983493 3.4764e-05 0.0003718816 5.3197e-05 -0.1874820657 0.823303445
665296010.0 -0.0079597555 -0.1137443568 0.0001622984 -2.42327e-05 0.0001933178 -0.0002270263 -0.178777207 0.8258045132
670295980.0 -0.0097937063 -0.1131817801 0.0001882383 5.76926e-05 -6.1973e-06 -8.13183e-05 -0.1714688703 0.8270124275
675295950.0 -0.011451572 -0.112814113 -7.45467e-05 -5.29519e-05 1.08474e-05 -0.0001173546 -0.163276965 0.8290291032
680295920.0 -0.0131791938 -0.1124070021 0.0003197863 -0.0001499623 0.0001338503 2.68236e-05 -0.1544225577 0.8311748392
685295890.0 -0.0145799107 -0.1123289829 1.10423e-05 1.37854e-05 0.000125913 9.49504e-05 -0.1459921997 0.8313727648
690295860.0 -0.0161511769 -0.1118675275 0.0002259086 0.0002015014 9.54401e-05 -2.2288e-05 -0.138147893 0.8335700207
695295830.0 -0.0179974669 -0.1114735898 6.3602e-06 0.0001003492 0.0002149414 -7.76341e-05 -0.1285098677 0.8346760622
700295800.0 -0.019571623 -0.1116005435 0.0002480426 -7.1649e-05 0.0001349429 -3.82113e-05 -0.1215614389 0.8362421995
705295770.0 -0.0214485949 -0.1105916796 7.06588e-05 5.38509e-05 0.0002914656 9.8504e-06 -0.113110675 0.83836834
710295740.0 -0.0230125238 -0.1103701452 -3.38975e-05 -2.58886e-05 -1.87351e-05 2.95744e-05 -0.1041007766 0.8388479107
715295710.0 -0.0246362394 -0.1103256747 0.0002446265 -2.85161e-05 0.0001157701 6.00903e-05 -0.0956812105 0.8398977184
720295680.0 -0.0261385957 -0.1098103604 0.0001836663 -4.2904e-05 -2.00922e-05 -2.98584e-05 -0.0873077155 0.8410405407
725295650.0 -0.0278278119 -0.1092185393 0.0001018844 9.63624e-05 0.0001205044 -0.0001344833 -0.0792951919 0.84202248
730295620.0 -0.0293964594 -0.1086287635 0.0002621588 -4.52083e-05 0.0002185099 -0.000273844 -0.0713572948 0.8426228733
735295590.0 -0.0311214102 -0.1081535654 -3.77808e-05 4.5419e-05 9.32216e-05 -0.0001593489 -0.062668515 0.8423035864
740295560.0 -0.0327107075 -0.1076443052 0.0002524713 0.000151162 7.80592e-05 2.86986e-05 -0.053552613 0.8444356903
745295530.0 -0.0344213862 -0.1068432878 0.0001885162 5.35093e-05 0.0002463535 -7.11864e-05 -0.0455965507 0.8435238501
750295500.0 -0.0356796216 -0.1066838991 -3.1424e-06 -0.000261898 7.41573e-05 -6.04216e-05 -0.0376823118 0.8447861557
755295470.0 -0.0375266913 -0.1060390597 -0.0001040559 2.43064e-05 0.000391272 -2.31973e-05 -0.0288311668 0.8440830297
760295440.0 -0.0392210273 -0.1055168719 7.1423e-06 7.22627e-05 0.0001842148 -2.4389e-06 -0.0207136537 0.8442490925
765295410.0 -0.040535006 -0.1047269541 0.0001894211 -0.0002114225 5.72797e-05 7.46489e-05 -0.0120238879 0.8450165232
770295380.0 -0.0421997569 -0.1039827445 0.0001321132 -5.58552e-05 4.57572e-05 -8.30235e-05 -0.0034282269 0.8447127995
775295350.0 -0.0440209194 -0.1034684268 -2.97265e-05 4.11865e-05 0.0002288908 8.99635e-05 0.0042386384 0.8441286842
780295320.0 -0.0453064309 -0.1028487741 -0.0001632978 0.0001069888 0.0001936383 -8.63019e-05 0.0126781727 0.84426894
785295290.0 -0.046772448 -0.1023097095 9.61998e-05 -2.32e-06 0.0001912913 -3.94359e-05 0.0211946188 0.8440754979
790295260.0 -0.0482830565 -0.1010983702 -2.20356e-05 -1.56302e-05 0.0001568765 -0.0001442413 0.030429836 0.8439333117
795295230.0 -0.049865849 -0.100509511 7.63356e-05 -6.13096e-05 3.72e-05 -4.71851e-05 0.0391880775 0.8428054292
800295200.0 -0.0512301365 -0.0997118392 0.0001481032 0.000278395 0.0002753289 -0.0002931926 0.047228152 0.8427708065
805295170.0 -0.0528227769 -0.099121184 4.33489e-05 -3.52e-05 0.0003798463 6.97871e-05 0.0550782679 0.8428591825
810295140.0 -0.0540905843 -0.0983925513 0.0001786175 2.5582e-06 0.000209853 8.27295e-05 0.0639116519 0.841491066
815295110.0 -0.0557943551 -0.0977062077 0.0003163214 3.8016e-05 0.0002685831 -0.0001392151 0.0725744357 0.8409028192
820295080.0 -0.0572495543 -0.0964636553 -0.0001354649 -6.2481e-05 9.0975e-06 6.0711e-06 0.0804046052 0.8404095223
825295050.0 -0.0584817444 -0.0957233684 7.57812e-05 -0.0001680907 -6.93113e-05 -0.0001098631 0.0888018675 0.8393588007
830295020.0 -0.0598668414 -0.0948319656 0.0003174607 -0.0001219552 0.0001294723 9.83736e-05 0.0982011127 0.8384339116
835294990.0 -0.0612412523 -0.0936241637 -0.0001154026 0.0001177693 -0.0001348515 4.38365e-05 0.1055024809 0.8379154262
840294960.0 -0.0628184733 -0.0926942552 7.66581e-05 0.0002474463 0.0002529663 -0.0003681786 0.1145753915 0.8364062854
845294930.0 -0.0640563001 -0.0918100971 0.0003768165 -1.25458e-05 9.38263e-05 0.0001065505 0.1227023086 0.8347241066
850294900.0 -0.0655169056 -0.0906907119 0.0001174214 -8.50364e-05 0.0001900983 -2.72505e-05 0.1304601939 0.8338703512
