!Created with skrf (http://scikit-rf.org).
# Hz S RI R 50.0 
!freq ReS11 ImS11 ReS21 ImS21 ReS12 ImS12 ReS22 ImS22
300000.0 0.8602111346 -0.0007581845 -0.0005699416 -0.0004447846 -2.08844e-05 0.0001429396 -0.767164712 -0.1909508456
5299970.0 0.8600980261 -0.0103300403 0.0001818009 -1.94461e-05 0.0001821629 -2.16663e-05 -0.7849316415 -0.0095521692
10299940.0 0.8583492615 -0.0182705095 -0.0001364852 2.57538e-05 4.3857e-06 -6.5121e-06 -0.7876768138 -0.0054652142
15299910.0 0.8580005745 -0.0272026296 7.87825e-05 0.0001018717 2.6523e-05 8.77391e-05 -0.7932034963 -0.0026563847
20299880.0 0.8570068212 -0.0353603591 -0.0001631162 3.64335e-05 4.0853e-06 -5.53738e-05 -0.7999089208 0.0015312229
25299850.0 0.8564258037 -0.0435314282 0.0001064208 -4.949e-05 -0.0001096797 5.2011e-06 -0.8064721719 0.0079004481
30299820.0 0.8555654707 -0.0519391355 0.0001098396 9.7591e-05 9.75287e-05 1.68213e-05 -0.8123628993 0.0156596661
35299790.0 0.8552115927 -0.0595650256 -0.0002181823 0.0002033094 8.48987e-05 9.01037e-05 -0.8170016718 0.0245715054
40299760.0 0.8546538909 -0.0678758441 -9.38808e-05 8.03832e-05 0.0001079524 -1.39994e-05 -0.8213069949 0.0338866636
45299730.0 0.8535688134 -0.0768641046 4.69541e-05 -7.09644e-05 1.1135e-06 -4.51517e-05 -0.8244976027 0.0436949709
50299700.0 0.8523899656 -0.0845697795 -8.80345e-05 -0.0001597846 -0.0001037676 1.52734e-05 -0.8269029141 0.0541015341
55299670.0 0.8519038379 -0.0925813541 0.000196115 0.0001355106 -7.3162e-06 -0.000137063 -0.8287289342 0.0638183806
60299640.0 0.8508320817 -0.100747892 -6.877e-06 -9.37076e-05 -5.75123e-05 -0.0001368096 -0.8297142566 0.0738918885
65299610.0 0.8500156683 -0.1098547519 8.21947e-05 0.0002739827 -1.06789e-05 1.4873e-05 -0.8305658689 0.0835886194
70299580.0 0.8491278445 -0.1175298961 -1.79166e-05 0.0002200176 7.63995e-05 9.00304e-05 -0.831390251 0.0936280216
75299550.0 0.8477665648 -0.1254313195 -6.22539e-05 6.24801e-05 -0.0001231305 7.60586e-05 -0.8313047485 0.104424419
80299520.0 0.8462673896 -0.1332338993 3.2972e-05 3.47402e-05 -1.2341e-05 -2.58676e-05 -0.831280762 0.1142387282
85299490.0 0.8452158581 -0.1418566063 -3.2413e-06 -9.04135e-05 1.44433e-05 5.29033e-05 -0.8299594836 0.1231205797
90299460.0 0.8440504784 -0.1502605681 8.15334e-05 3.93626e-05 9.7753e-06 -4.59461e-05 -0.8288072373 0.1327916527
95299430.0 0.8426697977 -0.1578441111 -8.8483e-06 1.24426e-05 0.0001457285 8.10392e-05 -0.8282785694 0.1427429732
100299400.0 0.8404433165 -0.1661347573 -8.64833e-05 -0.0001235988 0.0001106739 -1.45105e-05 -0.8271561788 0.1519728707
105299370.0 0.8397372222 -0.1744107643 3.054e-06 5.09623e-05 -0.0001019206 -1.5478e-05 -0.8259149172 0.160533017
110299340.0 0.8377892434 -0.1828247579 6.86706e-05 6.59644e-05 -0.0002368121 -0.0001584772 -0.8245444916 0.1698346862
115299310.0 0.8361445285 -0.1904952735 3.52338e-05 -0.0001739755 -0.0002020694 -9.47052e-05 -0.8231967686 0.1793759573
120299280.0 0.8339614319 -0.1986400626 -9.19174e-05 -0.0001642874 -0.0002837578 -0.0001458498 -0.8211137929 0.1876609732
125299250.0 0.8315279374 -0.2068055784 -0.0001292636 6.16899e-05 -6.35774e-05 -0.0001836618 -0.8199415743 0.1971142164
130299220.0 0.829868295 -0.2144732985 -4.41866e-05 2.64284e-05 -3.69861e-05 -0.0001037195 -0.8175523211 0.2060703589
135299190.0 0.8282620475 -0.2230249636 8.33423e-05 4.51737e-05 6.49586e-05 3.73184e-05 -0.8160775305 0.2150551115
140299160.0 0.8259758496 -0.2300248206 0.000117551 -3.61792e-05 0.0001597912 3.46225e-05 -0.8144783675 0.2232458162
145299130.0 0.8233039761 -0.2380855557 6.02576e-05 4.93938e-05 3.17405e-05 -6.55626e-05 -0.8120423081 0.2322092465
150299100.0 0.820804784 -0.2459527968 -0.0001590614 -0.0001200762 -0.0001105803 -3.6982e-06 -0.8096423936 0.2413893996
155299070.0 0.818481789 -0.2538597572 -0.000214881 -0.0001276051 -1.1317e-06 0.0003711826 -0.8070824856 0.2506703645
160299040.0 0.8160088459 -0.2619544838 4.79449e-05 -3.54459e-05 8.90435e-05 2.09835e-05 -0.8048910292 0.2590164096
165299010.0 0.813804846 -0.2697464896 9.76611e-05 9.89304e-05 -7.09293e-05 -0.0001658068 -0.8021919125 0.267294382
170298980.0 0.811284402 -0.2776978182 -0.0001022258 9.91864e-05 2.84235e-05 7.82548e-05 -0.7996072942 0.276029501
175298950.0 0.8089544528 -0.2852419563 7.60188e-05 -0.0001424552 -8.24692e-05 3.89167e-05 -0.7967155201 0.2846712664
180298920.0 0.8058040279 -0.2929799371 -9.14892e-05 -5.7364e-05 -5.08166e-05 -9.9482e-06 -0.7935685515 0.2932290879
185298890.0 0.8029075509 -0.3010953814 -4.35395e-05 0.0001167362 0.0001413761 -5.09463e-05 -0.7907512972 0.3018701798
190298860.0 0.7998376284 -0.3089052263 -7.99149e-05 6.63529e-05 3.63107e-05 -5.31906e-05 -0.7875086249 0.309654196
195298830.0 0.7973238039 -0.3162400775 -9.51043e-05 -6.36949e-05 -2.73738e-05 4.21185e-05 -0.7843992478 0.3179422171
200298800.0 0.7942186509 -0.3238397333 5.50277e-05 -5.96917e-05 -0.0001458311 0.0001064683 -0.781071646 0.326487588
205298770.0 0.7907870543 -0.3317704871 7.90226e-05 -0.0002562237 5.56687e-05 6.83523e-05 -0.7780664981 0.3348997877
210298740.0 0.7878192719 -0.3389509039 -0.0001309584 0.00014518 -0.0001057819 0.0001258987 -0.7740637238 0.3437714011
215298710.0 0.7845032951 -0.3468278382 -5.58508e-05 -0.0001096935 7.45594e-05 -2.69041e-05 -0.7704176947 0.3512896339
220298680.0 0.7815633628 -0.3534988206 -3.35072e-05 2.24679e-05 -0.0002533354 -9.59905e-05 -0.7666906449 0.3595957062
225298650.0 0.7772052032 -0.3618996667 -1.9851e-06 -0.0001018045 -6.73265e-05 -7.867e-05 -0.7631955732 0.3676398605
230298620.0 0.7736405011 -0.3685019698 0.0001030288 -0.0001453935 9.36868e-05 -0.0001722038 -0.7591195022 0.3755345967
235298590.0 0.7707886626 -0.3764035925 6.8165e-05 -0.0001947486 1.02387e-05 0.0001108161 -0.7550595452 0.3835976482
240298560.0 0.7664130693 -0.3832736936 9.36202e-05 1.68561e-05 -0.0001016884 -8.0779e-06 -0.751325779 0.3912153316
245298530.0 0.7628906449 -0.3912916591 4.62548e-05 1.34766e-05 -7.87432e-05 2.44363e-05 -0.7471079119 0.3992102502
250298500.0 0.7594465172 -0.3979954113 -2.99754e-05 -9.31819e-05 6.36799e-05 3.44376e-05 -0.742779687 0.4069932192
255298470.0 0.7554867822 -0.4049055833 3.5669e-05 -0.0001082866 -7.54986e-05 0.0001047409 -0.7393011602 0.4146154172
260298440.0 0.7519431357 -0.4125579159 6.84591e-05 0.000187763 1.18138e-05 -0.0001128813 -0.734316302 0.42179317
265298410.0 0.7467422853 -0.419557925 0.0001699924 -3.87005e-05 7.51914e-05 0.0001089806 -0.7299791715 0.4303527856
270298380.0 0.7439705461 -0.4267017295 3.54143e-05 0.0001724095 2.6152e-06 2.66458e-05 -0.7255370112 0.4386835964
275298350.0 0.7393801528 -0.4338796923 5.94636e-05 -0.0002043423 -0.0001224178 0.0002133846 -0.7205464595 0.4455114542
280298320.0 0.7344447411 -0.4408593748 -8.36228e-05 0.0001921537 3.27512e-05 0.0001421453 -0.7157039635 0.45232216
285298290.0 0.7311691144 -0.4483073182 -0.0002146167 -0.0001558332 4.69073e-05 -8.85793e-05 -0.7121307623 0.4605540378
290298260.0 0.7255721053 -0.4553161063 -3.92586e-05 -0.0001755484 0.0001858081 -0.0001032553 -0.7061603119 0.4677082657
295298230.0 0.7224065625 -0.4623544368 8.15052e-05 -2.1868e-06 8.97449e-05 0.0001041777 -0.7014621572 0.4749607823
300298200.0 0.7180301873 -0.4691562653 -0.0001413412 5.8311e-06 5.10622e-05 -0.0001194888 -0.696306029 0.4822033087
305298170.0 0.713825772 -0.4774957734 0.0001054173 2.90651e-05 -0.0001500877 7.58868e-05 -0.6915170561 0.4891781419
310298140.0 0.7087002922 -0.485045183 -6.63644e-05 7.74058e-05 -8.21487e-05 5.28447e-05 -0.6866390716 0.4969343236
315298110.0 0.7039521269 -0.4924951075 -3.27833e-05 -2.82276e-05 1.30579e-05 0.0001471046 -0.6811789402 0.5039234998
320298080.0 0.6985625896 -0.4991938957 0.000173796 0.0001008709 0.0001573045 8.88056e-05 -0.6764050085 0.5107147696
325298050.0 0.692632915 -0.5065097277 -9.33804e-05 0.0001091399 2.43376e-05 -0.000104512 -0.6708370679 0.5177181638
330298020.0 0.6867759926 -0.5130133426 6.41227e-05 -6.10239e-05 -0.0001620086 -4.0618e-05 -0.6653611104 0.5248299137
335297990.0 0.6810410044 -0.5188792691 -0.0002169556 6.06237e-05 7.79078e-05 -0.0001841638 -0.6595285874 0.531524012
340297960.0 0.6755978609 -0.5255043626 4.76892e-05 8.76723e-05 4.99316e-05 -4.93372e-05 -0.6544444038 0.5382158725
345297930.0 0.6701321607 -0.5318745185 6.89253e-05 9.4908e-06 -8.37858e-05 6.18039e-05 -0.6489308786 0.5445113371
350297900.0 0.665392062 -0.5380848306 0.0001631341 -0.0002004409 0.000191083 -0.0001394223 -0.6436399138 0.5513783752
355297870.0 0.6600968117 -0.5443743068 9.5913e-06 0.0001297402 1.62606e-05 0.0001945664 -0.6372187442 0.5588346449
360297840.0 0.6544878938 -0.5506673717 -3.45442e-05 0.0001275392 -2.19838e-05 2.37392e-05 -0.6307158201 0.5650597133
365297810.0 0.6485180258 -0.5565847591 -0.0002171206 -5.00709e-05 -0.000111818 -7.71366e-05 -0.6256708741 0.5708162673
370297780.0 0.6437277312 -0.5631461607 -0.0001141037 1.01243e-05 0.00016593 4.33634e-05 -0.6192519536 0.5777532363
375297750.0 0.637839462 -0.5689966312 -0.0001680058 5.33454e-05 -0.0002602454 8.71101e-05 -0.6132817922 0.5837908699
380297720.0 0.6319964936 -0.5744500894 3.59652e-05 2.66325e-05 -0.000121134 -6.72297e-05 -0.6070758058 0.5905482616
385297690.0 0.6264726366 -0.5809658644 -2.7843e-05 -1.66319e-05 -3.37913e-05 -9.61003e-05 -0.6011585908 0.5970066188
390297660.0 0.6207998009 -0.5872531869 2.36567e-05 -0.0001174482 -4.03213e-05 -6.81832e-05 -0.5945432297 0.6022363181
395297630.0 0.6156050833 -0.5921051663 -6.52273e-05 5.9327e-05 4.38662e-05 -0.000134259 -0.5881412446 0.6073257112
400297600.0 0.6085721496 -0.5985588309 -8.40697e-05 1.4669e-06 -3.31912e-05 -1.73302e-05 -0.5825514452 0.6137287224
405297570.0 0.6032309241 -0.6047964403 -0.0002329623 -5.14793e-05 3.2184e-05 -5.09388e-05 -0.575610421 0.6198681702
410297540.0 0.5979863377 -0.6097482108 -2.57186e-05 3.696e-05 -7.95223e-05 -0.0001197635 -0.5692802138 0.6263746912
415297510.0 0.5915276944 -0.6157566691 4.16195e-05 -0.0001806283 4.37693e-05 0.0001177714 -0.5631300889 0.6311907281
420297480.0 0.5857391108 -0.6220294907 2.87593e-05 -1.83785e-05 -7.6255e-06 -5.13721e-05 -0.5561079223 0.6380286174
425297450.0 0.5798950958 -0.6270559379 -0.0001963778 -0.0001488128 -0.000206171 6.39043e-05 -0.5496219384 0.6427188158
430297420.0 0.5733867597 -0.6331976548 2.56179e-05 4.9584e-06 1.085e-06 -0.0001221564 -0.542764692 0.648367718
435297390.0 0.5674589642 -0.6382867775 0.0001270197 -6.38846e-05 -7.9995e-06 0.0001359186 -0.5366778495 0.6543798598
440297360.0 0.5611412283 -0.6437308987 -8.63268e-05 4.93492e-05 3.12876e-05 0.0001059977 -0.5305128571 0.6599472735
445297330.0 0.5555319485 -0.6490049736 -7.72938e-05 2.4584e-05 2.29327e-05 0.0001985057 -0.5230772372 0.6649577579
450297300.0 0.5495144916 -0.6551278753 7.50362e-05 5.62025e-05 -0.0001050022 -3.05854e-05 -0.5156639969 0.6701733336
455297270.0 0.5421643017 -0.6603703997 2.62192e-05 1.24575e-05 5.69755e-05 -2.09129e-05 -0.5095145729 0.6749888288
460297240.0 0.5364367243 -0.6647161962 0.0001237099 -0.0001619697 -1.0633e-05 -2.21271e-05 -0.5020758624 0.6798805133
465297210.0 0.529793131 -0.6700134006 -9.4826e-06 -0.0001344029 0.000102755 -0.0002117447 -0.4955857221 0.6854935586
470297180.0 0.5231395477 -0.6756486981 2.11558e-05 0.0001551777 0.0003336158 5.67088e-05 -0.4882549759 0.6903988114
475297150.0 0.5162243704 -0.6800207791 -7.39336e-05 -4.0217e-05 -0.0001119133 9.40993e-05 -0.4812233283 0.6951898376
480297120.0 0.5099003462 -0.6851849902 3.75035e-05 -1.7399e-06 3.64536e-05 -0.000159325 -0.4747323987 0.6996603083
485297090.0 0.5029319295 -0.6898625707 -0.0001022235 -4.01155e-05 8.65532e-05 -9.5991e-05 -0.4666159129 0.7052464157
490297060.0 0.4967275565 -0.694538422 0.0001997373 -9.02041e-05 -0.0001114351 -8.02231e-05 -0.4593788791 0.708874783
495297030.0 0.4903275072 -0.6998494297 0.0001046178 8.73602e-05 9.62811e-05 6.48923e-05 -0.4522132443 0.7140734429
500297000.0 0.4832513018 -0.7042896364 -1.09953e-05 -7.95463e-05 -3.46315e-05 -4.81099e-05 -0.4453148937 0.7186213201
505296970.0 0.4765013411 -0.7090763361 8.12316e-05 0.0001810365 0.000245595 -2.25196e-05 -0.4375825005 0.7223982559
510296940.0 0.4693922674 -0.7134284417 -0.0001130908 0.0001099682 0.0002357587 -3.78849e-05 -0.4303869117 0.7271692123
515296910.0 0.4620592845 -0.718423696 0.0002404258 -3.24409e-05 -8.34774e-05 2.431e-07 -0.4230389099 0.7310821876
520296880.0 0.4560774213 -0.72196237 -0.000108316 -0.0001199243 3.20941e-05 -9.38276e-05 -0.4156071281 0.7358008599
525296850.0 0.4490687268 -0.727116403 6.90731e-05 -9.26205e-05 9.607e-05 -0.0001033483 -0.4083501033 0.7397310282
530296820.0 0.4422677116 -0.7314171152 -1.1513e-05 9.38104e-05 -0.0001262062 0.0001605789 -0.4007492062 0.7434307755
535296790.0 0.4354857631 -0.7350987081 -0.0001430932 -6.87279e-05 0.0001757508 3.84034e-05 -0.3933861725 0.7479640305
540296760.0 0.4284345992 -0.7391739164 1.30876e-05 -0.0001631072 -8.4146e-06 -0.0001445719 -0.3850667312 0.7510101016
545296730.0 0.4208382443 -0.7438455679 -8.95075e-05 0.0001975563 0.0002332402 0.0001020794 -0.3773331458 0.7555564954
550296700.0 0.4133404523 -0.7473928022 4.7565e-06 0.0001771703 3.15272e-05 5.94705e-05 -0.370097129 0.7591055852
555296670.0 0.4059564766 -0.7512398582 -0.0001154024 -9.25078e-05 -0.0001330452 -1.91491e-05 -0.3625566335 0.7620011833
560296640.0 0.3998284178 -0.7546270538 -8.1387e-05 -0.0002631066 -3.86844e-05 0.0001137949 -0.3542955123 0.7667675853
565296610.0 0.3916940511 -0.7595596792 -7.23243e-05 7.274e-05 -4.8974e-05 1.99754e-05 -0.3471449551 0.769861858
570296580.0 0.3844520729 -0.7624714597 -8.76001e-05 9.81215e-05 0.0001451293 -0.0001477687 -0.3392450913 0.7729318711
575296550.0 0.3769089264 -0.7660333974 4.64307e-05 6.8987e-06 5.16403e-05 -0.0001231207 -0.3308310009 0.7768858769
580296520.0 0.3699380489 -0.7695634066 -3.11968e-05 -4.5323e-05 8.20706e-05 -2.81592e-05 -0.323427702 0.7798098272
585296490.0 0.3617321795 -0.7724018067 9.09823e-05 -0.0001209288 6.23505e-05 -1.24858e-05 -0.3152590955 0.7834310254
590296460.0 0.3541606327 -0.7761090533 -1.88612e-05 -4.28049e-05 -6.45063e-05 -0.0001191632 -0.3077690068 0.7861226437
595296430.0 0.3465023581 -0.779418713 -4.26529e-05 -0.0002109262 -1.8472e-06 2.55965e-05 -0.3000921331 0.7890644679
600296400.0 0.3395031246 -0.7832425485 0.0001811845 -0.0001056512 -6.32134e-05 -1.61117e-05 -0.2921433036 0.7918211927
605296370.0 0.3307785765 -0.7866334686 -1.97425e-05 -6.266e-05 -0.0001359722 7.42819e-05 -0.2836565754 0.7948251786
610296340.0 0.3236621393 -0.7893130331 -2.66763e-05 -3.89097e-05 -0.0001996345 -2.22811e-05 -0.2761705717 0.797920322
615296310.0 0.316130983 -0.7924300097 -3.80038e-05 0.0001023141 9.67965e-05 0.0001095675 -0.2677463629 0.8006448862
620296280.0 0.3083245923 -0.7951845838 3.54795e-05 8.85762e-05 -2.54941e-05 7.33972e-05 -0.2598154104 0.8033667442
625296250.0 0.299641741 -0.7977946547 -0.0001242077 6.92187e-05 5.18799e-05 0.000224308 -0.2513935904 0.8055725378
630296220.0 0.2920765378 -0.8005716853 -1.23411e-05 3.10386e-05 6.43946e-05 2.43901e-05 -0.2437567424 0.808359651
635296190.0 0.2840512761 -0.8033605392 3.3729e-06 7.71131e-05 -1.06083e-05 3.28851e-05 -0.2349388106 0.8098132053
640296160.0 0.2761094732 -0.8056526059 0.0001546864 -0.0001743308 8.36692e-05 0.0001038101 -0.2277582951 0.8130125638
645296130.0 0.2691869245 -0.8081546649 2.69761e-05 9.38688e-05 -2.19074e-05 -8.10526e-05 -0.2194419258 0.8144077389
650296100.0 0.2608773088 -0.8107421222 8.77867e-05 -0.0001569246 7.22365e-05 4.47602e-05 -0.2109796461 0.8168573292
655296070.0 0.2521138899 -0.8127558244 -5.56328e-05 0.0001555369 -2.17018e-05 5.49055e-05 -0.2032825371 0.819306384
660296040.0 0.2435394748 -0.8150835244 -0.0001143718 -1.07898e-05 8.46753e-05 -2.20881e-05 -0.1940254782 0.8209323677
665296010.0 0.2359467761 -0.8175626189 4.43944e-05 8.3171e-05 -5.32646e-05 -0.0001435856 -0.1863515803 0.8224247346
670295980.0 0.228206007 -0.8193729651 -4.93609e-05 0.0001148168 8.04173e-05 3.66384e-05 -0.1781293177 0.8242066755
675295950.0 0.2197574271 -0.8217280021 -0.0001392966 -0.0002959623 0.0002632159 -0.0001264295 -0.1699573873 0.8267375203
680295920.0 0.2111081102 -0.8234818606 0.0001421647 7.38172e-05 5.2482e-05 -5.78938e-05 -0.1613205656 0.8278274594
685295890.0 0.2032514293 -0.8246832757 -5.8395e-05 6.89012e-05 0.0001451373 1.35471e-05 -0.1532392713 0.8292834233
690295860.0 0.1945946571 -0.8265423471 -2.84221e-05 1.65762e-05 -9.31764e-05 4.85363e-05 -0.14499172 0.8313141189
695295830.0 0.1872094281 -0.8288715951 -4.6487e-06 -7.48603e-05 -9.64832e-05 0.0001427929 -0.1369152968 0.832985373
700295800.0 0.1786815533 -0.8299089006 -0.0002043172 0.000138937 0.0001837046 0.0001436068 -0.1280698786 0.8328567907
705295770.0 0.170088359 -0.8315507631 -9.30541e-05 -7.382e-06 -6.94483e-05 -1.12241e-05 -0.1203413493 0.8356311903
710295740.0 0.16210611 -0.8320695807 -1.52572e-05 -0.0001329498 -6.61151e-05 -0.0001607634 -0.1120971707 0.8362452657
715295710.0 0.1539179582 -0.8335037673 9.31502e-05 6.59114e-05 -4.42586e-05 -4.30184e-05 -0.1034816985 0.8373048834
720295680.0 0.1459000661 -0.834974286 0.0001677638 -0.0001619203 -0.0001127865 2.0084e-05 -0.0947258579 0.8375934993
725295650.0 0.1366175883 -0.8364232709 0.0001382112 -8.9682e-06 -7.929e-06 0.0001358198 -0.0873720888 0.8393767408
730295620.0 0.1283676404 -0.8375745876 -1.433e-05 4.648e-05 -6.82512e-05 -1.47593e-05 -0.0787428019 0.8405346756
735295590.0 0.1206504464 -0.8386349161 -3.5381e-05 1.90288e-05 0.0001156286 -0.0001483318 -0.0699856857 0.8404278968
740295560.0 0.111988152 -0.8399052489 0.0001230203 -0.0001550107 0.0002374298 3.81748e-05 -0.0618971257 0.8420175953
745295530.0 0.1036299599 -0.8401575605 3.49858e-05 -3.06224e-05 6.25169e-05 2.74007e-05 -0.0536825228 0.8420267455
750295500.0 0.0945833597 -0.8412247446 -2.89227e-05 -0.0001694173 -1.34656e-05 0.0001285878 -0.0453843516 0.8426469952
755295470.0 0.0864680973 -0.8412975506 -0.000139201 0.0001962641 6.17607e-05 1.73425e-05 -0.0369647571 0.8429353623
760295440.0 0.0785166633 -0.841622588 0.0001885848 -0.000174708 9.29264e-05 -3.27835e-05 -0.0281369741 0.8426481588
765295410.0 0.070050031 -0.8423714409 -1.40633e-05 0.0001003481 -0.000209406 0.0001097936 -0.0201290244 0.8433917432
770295380.0 0.0618197321 -0.8421752503 -0.0002372554 -0.0001559284 0.0001220295 -1.9199e-05 -0.0114391439 0.8434959115
775295350.0 0.0533743763 -0.8422950752 -0.0001077177 0.0002143895 -0.0001323181 -5.79535e-05 -0.0032618032 0.84306696
780295320.0 0.0447059986 -0.8428345157 0.000137621 0.0001973934 -0.0001446146 -5.11786e-05 0.0053763078 0.843674075
785295290.0 0.0365530027 -0.8430583912 -5.77162e-05 -3.27963e-05 -9.53223e-05 0.0001330323 0.0131001271 0.8436955729
790295260.0 0.0284737038 -0.8433442902 0.0001508623 0.0001170203 -0.0001384158 -2.83168e-05 0.021921878 0.8433424771
795295230.0 0.0198539246 -0.8438100077 -0.0001708506 4.57365e-05 -9.58956e-05 -0.0001230395 0.0299495927 0.8426758764
800295200.0 0.0113292263 -0.8436637887 -0.0001133634 -0.0002136245 6.77872e-05 -1.74324e-05 0.0383196536 0.8423955637
805295170.0 0.002925343 -0.8441056157 -7.62478e-05 -7.13769e-05 -0.0001083427 -8.06769e-05 0.0472098622 0.842356852
810295140.0 -0.0052595794 -0.8425841004 0.0001456719 -0.0001369574 5.48667e-05 5.92248e-05 0.0555919333 0.8410188541
815295110.0 -0.0140758784 -0.84290358 1.06215e-05 -3.18838e-05 -0.0001261558 -8.19456e-05 0.0630262325 0.8407153017
820295080.0 -0.0217077108 -0.8422921761 -4.37943e-05 -5.12001e-05 -3.30045e-05 0.0001585504 0.0715650095 0.8406441608
825295050.0 -0.0306413769 -0.8424720857 -0.0002024759 0.0002000132 1.70865e-05 -2.66577e-05 0.0799913974 0.8394842136
830295020.0 -0.0388581218 -0.8415885342 1.53592e-05 -7.9769e-05 7.0457e-06 -8.97891e-05 0.0878771749 0.8381108633
835294990.0 -0.0471793881 -0.8412004063 0.0004096223 -5.54853e-05 -0.0001612378 -0.0002080623 0.0970405227 0.8381469222
840294960.0 -0.0547366385 -0.8406991092 -0.0001345376 -2.01359e-05 -0.0001026662 -0.0001194981 0.1052312111 0.8365861999
845294930.0 -0.0644390157 -0.8390956546 0.0001555096 -0.0002485131 5.97821e-05 -0.0001881431 0.1134424019 0.8357315169
