!Created with skrf (http://scikit-rf.org).
# Hz S RI R 50.0 
!freq ReS11 ImS11 ReS21 ImS21 ReS12 ImS12 ReS22 ImS22
300000.0 -0.2389567387 -0.0725097048 0.4723336187 0.0483122806 0.4688339844 0.0466725298 -0.2444721374 -0.0835980693
5299970.0 -0.2443141543 0.0075451295 0.4733430969 0.0047651935 0.4736307599 0.0048037411 -0.2445087016 0.007838375
10299940.0 -0.2413181511 0.0191069127 0.4756929909 0.0060871544 0.4757270336 0.006368935 -0.2414719549 0.0202811776
15299910.0 -0.2368706335 0.0281359364 0.4794023034 0.0076133566 0.4793970634 0.0078701525 -0.2366417905 0.0295075739
20299880.0 -0.2323448441 0.0351927576 0.4841207523 0.0085913396 0.4840537499 0.0084342744 -0.2314123506 0.0371402701
25299850.0 -0.2269628167 0.0421322451 0.4892173587 0.0073637898 0.489153121 0.0074212325 -0.2253925755 0.0437449283
30299820.0 -0.2218490062 0.047006868 0.4949523391 0.0056383124 0.4946257061 0.005672464 -0.2196165085 0.0490453893
35299790.0 -0.2163767009 0.0514878342 0.5002531119 0.0019087681 0.4999211069 0.0020737186 -0.2140837727 0.052796712
40299760.0 -0.2116169257 0.0549695009 0.5050400613 -0.0019988109 0.5051302703 -0.0016900602 -0.2083247247 0.0558094171
45299730.0 -0.2065950964 0.0575478997 0.5094690456 -0.006196178 0.5104204424 -0.0065015458 -0.2036828331 0.058715205
50299700.0 -0.2026501087 0.059831519 0.5142787319 -0.0120337666 0.5139236607 -0.0115505403 -0.1983472747 0.0600814945
55299670.0 -0.1982666214 0.0616650097 0.5178492937 -0.0180345821 0.5180895866 -0.0178681675 -0.1945835256 0.0619664942
60299640.0 -0.1943084941 0.0634834155 0.5212762162 -0.0241563145 0.5216715743 -0.0237705444 -0.1904447076 0.0627692917
65299610.0 -0.1913044485 0.0647462631 0.5245688067 -0.0304588494 0.5242570806 -0.0305757587 -0.1869638003 0.0639757898
70299580.0 -0.187773549 0.0662084016 0.5266606727 -0.0372445671 0.5267110449 -0.0369073042 -0.1837142221 0.0646910105
75299550.0 -0.1849477404 0.0671741922 0.5285138722 -0.0437822419 0.5285356972 -0.0441125488 -0.1807449362 0.065091623
80299520.0 -0.1825665696 0.0678562484 0.5305924714 -0.0507825074 0.5305080938 -0.0508018021 -0.1783223999 0.0656989014
85299490.0 -0.1801389387 0.0686819171 0.5320322616 -0.0572029979 0.5318374725 -0.0572553901 -0.1757767102 0.0661494233
90299460.0 -0.1779013963 0.0693950305 0.5322213593 -0.0648178916 0.5331741875 -0.0649151743 -0.1735357404 0.0670262094
95299430.0 -0.1755897096 0.0702201385 0.5338650512 -0.0713607539 0.5334764551 -0.0716111388 -0.1711343545 0.0672694627
100299400.0 -0.174142341 0.0713314642 0.5336732213 -0.0782569167 0.5338488341 -0.0783174757 -0.1692075211 0.0672872621
105299370.0 -0.1722104291 0.0723489776 0.5347659753 -0.0853699059 0.5349015202 -0.0851848335 -0.1677550111 0.0681709257
110299340.0 -0.1703707849 0.0730707559 0.5347342339 -0.0920066974 0.5345985027 -0.091863732 -0.166246435 0.0686438821
115299310.0 -0.1686751009 0.0739699844 0.5346423101 -0.0993199727 0.5350105756 -0.0987560117 -0.1647456472 0.0692295256
120299280.0 -0.1673943173 0.0744025816 0.5343919429 -0.105357518 0.5343874803 -0.105870441 -0.16321705 0.069896545
125299250.0 -0.1659329976 0.0756602586 0.5343702967 -0.1124620226 0.5342907029 -0.1123760633 -0.1624608614 0.0700193817
130299220.0 -0.1650906941 0.0766449115 0.5331259851 -0.1193484033 0.5335144644 -0.119590265 -0.1613615551 0.0708166456
135299190.0 -0.1640191055 0.0778055398 0.5329205894 -0.1259234902 0.5329451287 -0.1255066986 -0.1600767104 0.0714080289
140299160.0 -0.1630102895 0.0787234464 0.5321679401 -0.1325321335 0.5323607082 -0.1326685515 -0.1589426082 0.072537538
145299130.0 -0.1615358343 0.0800850254 0.5313348547 -0.1390831422 0.5308281485 -0.1387801799 -0.1583207242 0.073226323
150299100.0 -0.1604304492 0.0810992911 0.5298478258 -0.1452689273 0.5302479874 -0.1450666183 -0.1573192151 0.0742327631
155299070.0 -0.1597187318 0.0821147162 0.5291112052 -0.1527223053 0.5288229703 -0.1520011689 -0.1563747697 0.0748984052
160299040.0 -0.1585524933 0.0836360931 0.5270947244 -0.1587238985 0.5273995823 -0.1589085906 -0.1560803483 0.0755809281
165299010.0 -0.1575752157 0.0848188051 0.5260692964 -0.1655246841 0.5262844971 -0.1654334746 -0.1547352804 0.0766932472
170298980.0 -0.156706277 0.0859128193 0.5246784122 -0.1714162448 0.5247324181 -0.17164951 -0.1540325816 0.0777756765
175298950.0 -0.1555568912 0.0871384589 0.5232094748 -0.1774810897 0.5226851908 -0.1777827675 -0.1533524016 0.0786710943
180298920.0 -0.1548421753 0.0882017773 0.5210750514 -0.18415332 0.5210548339 -0.183970753 -0.1525237792 0.0797877958
185298890.0 -0.1533932182 0.0894992117 0.5191153813 -0.1900085098 0.5189022339 -0.190159447 -0.1517993361 0.0809800106
190298860.0 -0.1529195268 0.0912633088 0.5176691127 -0.1966019451 0.5178850505 -0.1963007264 -0.1510523383 0.081600014
195298830.0 -0.1518772447 0.0920234057 0.5153898336 -0.2026038563 0.5156000006 -0.2024432899 -0.1501679542 0.0831228298
200298800.0 -0.1508901267 0.0936969231 0.5133571306 -0.2090416121 0.5134636969 -0.2087631257 -0.1498858378 0.0838110765
205298770.0 -0.1498107992 0.0949679522 0.5108436558 -0.2149826117 0.5109846938 -0.214507278 -0.1489406043 0.0846319329
210298740.0 -0.1491223464 0.0963066845 0.5087977625 -0.2209129523 0.5086858277 -0.2203347455 -0.147846762 0.0863673175
215298710.0 -0.1484960574 0.0977448316 0.5066437181 -0.2267352766 0.5067707771 -0.2267606986 -0.1475130012 0.0872057275
220298680.0 -0.1473526383 0.0989149059 0.5037859839 -0.2324308889 0.5039442143 -0.2326203696 -0.1470176221 0.0882490032
225298650.0 -0.1463604547 0.1003740037 0.501858047 -0.2386819596 0.5014808968 -0.2383595869 -0.146270336 0.0893912684
230298620.0 -0.1454342812 0.1022111409 0.4996468078 -0.2442253117 0.4995301283 -0.2441049255 -0.1455758587 0.0908199522
235298590.0 -0.1442747447 0.1037080217 0.4966586828 -0.2498693963 0.4967273997 -0.2497143507 -0.1446552713 0.0921414799
240298560.0 -0.1431970635 0.105030221 0.4941956345 -0.2558616918 0.4938114633 -0.2556112189 -0.1437040157 0.0933516411
245298530.0 -0.1423387433 0.1063477414 0.4913808438 -0.2614477256 0.491244052 -0.2613825611 -0.1429308057 0.0940428565
250298500.0 -0.1407415888 0.1076976257 0.4876053532 -0.2671188902 0.4878079182 -0.266717746 -0.1421729629 0.0956331707
255298470.0 -0.1400629223 0.1088993824 0.4849424482 -0.2719774627 0.4855430977 -0.2723621075 -0.1412641498 0.0966855218
260298440.0 -0.138987539 0.1103893993 0.4818381936 -0.278297883 0.4823864442 -0.2778713195 -0.1403611762 0.097957502
265298410.0 -0.1375528193 0.1124569528 0.4791014819 -0.2838665522 0.4793901543 -0.2835012528 -0.1394191195 0.0995463828
270298380.0 -0.1368494957 0.1135181153 0.4761411631 -0.2887833547 0.476595836 -0.2892647524 -0.1391884609 0.1006089295
275298350.0 -0.1352550614 0.1151489137 0.47286216 -0.2946680037 0.4732754644 -0.294814442 -0.1378516888 0.1019217903
280298320.0 -0.1341121534 0.1169037513 0.4700977216 -0.3001066722 0.4700837127 -0.2996334773 -0.1367482098 0.1033018548
285298290.0 -0.1330748621 0.1183738977 0.4667903244 -0.3052596773 0.4665923276 -0.3055527931 -0.1359797512 0.1046159003
290298260.0 -0.1313619212 0.1197558469 0.4630589419 -0.3104472317 0.4636110562 -0.3105260901 -0.1350912929 0.1062786298
295298230.0 -0.1300673625 0.121003986 0.4597117149 -0.3157879717 0.4599493717 -0.3158068934 -0.133382576 0.1070154739
300298200.0 -0.129437935 0.1225209571 0.4568860506 -0.3208905952 0.4569810855 -0.3210003349 -0.1331607901 0.1083990024
305298170.0 -0.1279720428 0.1236129951 0.4528310232 -0.3264565661 0.45291117 -0.3261481383 -0.1314261063 0.1096598111
310298140.0 -0.1267376247 0.1252997944 0.4496172007 -0.3313368392 0.4496304478 -0.3314326475 -0.130898546 0.110413579
315298110.0 -0.1253924776 0.1261609298 0.4457570845 -0.3366657582 0.4461412751 -0.3364549669 -0.1300536324 0.1117082531
320298080.0 -0.1237938777 0.1275735425 0.4416360518 -0.3420258241 0.4421439211 -0.3419546021 -0.1289220834 0.1131167239
325298050.0 -0.1227508791 0.1290561007 0.4382562024 -0.3471746097 0.4380401985 -0.346535346 -0.1280840532 0.1144117165
330298020.0 -0.1214127199 0.1302445073 0.4338941977 -0.3521385483 0.4341938756 -0.3520525387 -0.1276624121 0.1155117409
335297990.0 -0.1201895583 0.1314548867 0.4297350425 -0.3563750892 0.4298917679 -0.3567911842 -0.1268708149 0.1172428312
340297960.0 -0.1196557194 0.133093505 0.4258239527 -0.3611106365 0.4259206686 -0.3616187741 -0.125650268 0.1181487809
345297930.0 -0.1177694067 0.1346464532 0.4215961154 -0.3666094577 0.4217386921 -0.3660055837 -0.1246776087 0.1192183163
350297900.0 -0.1166790609 0.1356927066 0.4172430644 -0.3705828797 0.4174360235 -0.3708512134 -0.1240278756 0.1210160605
355297870.0 -0.1150142726 0.1376804992 0.4134996598 -0.3754259185 0.4140427095 -0.3751585827 -0.1228072501 0.1223019854
360297840.0 -0.113870337 0.1388454378 0.4098916312 -0.3797707728 0.4102256521 -0.3796838517 -0.1220513741 0.1239894965
365297810.0 -0.1125109055 0.1407471808 0.4055297792 -0.3847837923 0.4052966246 -0.3845048018 -0.1206657092 0.1248506176
370297780.0 -0.1106051878 0.1416211701 0.4005070823 -0.3889253805 0.4013207635 -0.3885803478 -0.1195583971 0.126406123
375297750.0 -0.1093939262 0.1429563089 0.3968013981 -0.3935063029 0.3971385435 -0.3933444315 -0.1185011639 0.1273183598
380297720.0 -0.1077228618 0.1441766561 0.3920363926 -0.3979832166 0.3925451819 -0.3970430309 -0.1172444109 0.1287451508
385297690.0 -0.1064495331 0.145506431 0.3875663197 -0.4019026497 0.3879066982 -0.4013904929 -0.1161295563 0.1300060048
390297660.0 -0.1049140518 0.1469743607 0.3835341965 -0.4060403904 0.3837616779 -0.4057174167 -0.1151343158 0.1309002933
395297630.0 -0.1032975451 0.1484569359 0.3791878164 -0.4103167582 0.3791828566 -0.4101456471 -0.113258674 0.1322575427
400297600.0 -0.1017227207 0.1496785494 0.3743150171 -0.4148115784 0.3745856303 -0.4148355659 -0.1122229686 0.1338902568
405297570.0 -0.1002477474 0.1506028515 0.3698344081 -0.4180676919 0.3701891636 -0.4183140839 -0.1111167247 0.1348973866
410297540.0 -0.0984476184 0.1520191967 0.3655178175 -0.4228701523 0.3659744511 -0.4225869483 -0.1098819729 0.1363927963
415297510.0 -0.0968521386 0.1530802381 0.3604691819 -0.426555074 0.3607765711 -0.4265009245 -0.1084997077 0.1374645167
420297480.0 -0.0952901428 0.1548215176 0.3554310922 -0.4307479865 0.3558801739 -0.4307179445 -0.1073821253 0.1382771709
425297450.0 -0.093500499 0.1554682017 0.3514030695 -0.4345114697 0.3517119047 -0.4346771672 -0.1063381031 0.1397109049
430297420.0 -0.0917817226 0.1565215168 0.3463138888 -0.4379123803 0.3463939641 -0.4377360819 -0.105105983 0.1407493586
435297390.0 -0.0902857843 0.1578397088 0.3413079652 -0.4419395946 0.341340165 -0.4419319832 -0.1030398934 0.1420914277
440297360.0 -0.0883946585 0.1591789341 0.3367633954 -0.4454137176 0.3369634226 -0.4453362319 -0.102356076 0.1429308843
445297330.0 -0.0868769375 0.1597655488 0.3320991557 -0.4493026216 0.332114125 -0.4491130651 -0.1007943668 0.1439150344
450297300.0 -0.0848849254 0.1609272507 0.3268668209 -0.4529434749 0.3269348816 -0.45313002 -0.0993209571 0.1451347126
455297270.0 -0.0832699071 0.1622457372 0.3216484696 -0.4563623677 0.3222062521 -0.4567087668 -0.0978776807 0.1461528657
460297240.0 -0.0814213399 0.163451113 0.3170798608 -0.4595635316 0.3170055509 -0.4600718143 -0.0967386585 0.1476915663
465297210.0 -0.0796712972 0.1645028736 0.3117198407 -0.4633789999 0.3118621252 -0.4636217643 -0.0951079148 0.1481826684
470297180.0 -0.0778690265 0.1651387898 0.3065292247 -0.4666861521 0.3070091133 -0.4669718753 -0.0935038958 0.1498044712
475297150.0 -0.0760808667 0.1658770038 0.3016869375 -0.469259445 0.3018361119 -0.4694715784 -0.0920620899 0.1503258267
480297120.0 -0.0741110617 0.1676750818 0.2963328701 -0.4733272019 0.2965189396 -0.4738335751 -0.09058316 0.1517756032
485297090.0 -0.072611986 0.1681360382 0.291506366 -0.4763129166 0.291677623 -0.4760094875 -0.0892867733 0.1527052609
490297060.0 -0.0711382403 0.169328954 0.2865187437 -0.4795406182 0.2865624778 -0.4793824617 -0.0878433759 0.1539467356
495297030.0 -0.0690505447 0.1700973419 0.2806953784 -0.4825497698 0.2812016365 -0.482429757 -0.086736113 0.1544834634
500297000.0 -0.0669661136 0.1709521063 0.2752515098 -0.4849407614 0.275495038 -0.4850459265 -0.0849517842 0.1562202854
505296970.0 -0.0647876263 0.1718592398 0.2699805168 -0.4881240803 0.2703955642 -0.4884469635 -0.0835842567 0.1567490418
510296940.0 -0.0630557912 0.1728083329 0.2650167119 -0.4913816769 0.2649121985 -0.4913761855 -0.081623238 0.1578618047
515296910.0 -0.0611991812 0.1737191771 0.2593622467 -0.4942021891 0.2594399225 -0.4940721441 -0.0803174615 0.1585691805
520296880.0 -0.0593700224 0.1745895938 0.2540314153 -0.4976100164 0.2543161205 -0.4968620812 -0.0788349346 0.159642517
525296850.0 -0.0573680317 0.1747315757 0.2483790544 -0.4996569413 0.2489858737 -0.4996873974 -0.077527431 0.1604606869
530296820.0 -0.0552429118 0.1759028137 0.2430354981 -0.5024296543 0.2431701365 -0.5021555311 -0.0759418003 0.1613290229
535296790.0 -0.0537955801 0.1766398044 0.2379392407 -0.504813197 0.2380382272 -0.5042811623 -0.0744141512 0.161741128
540296760.0 -0.0517526534 0.1774781094 0.2322830046 -0.5079414367 0.2323612371 -0.5075922581 -0.0732357613 0.1632066503
545296730.0 -0.049891132 0.1782202325 0.2265103554 -0.5097287612 0.2267478478 -0.5102702018 -0.0716502609 0.1640091388
550296700.0 -0.0473726606 0.1790547876 0.2210243757 -0.512629938 0.2211882802 -0.5126138018 -0.0702575895 0.1649524046
555296670.0 -0.0458601264 0.1795165254 0.2158885404 -0.5147338022 0.2160232653 -0.5147176912 -0.0684190315 0.165619871
560296640.0 -0.0436298944 0.1804342285 0.2100675481 -0.5173483942 0.2099419674 -0.5172405962 -0.0668350226 0.1662949272
565296610.0 -0.0418990531 0.1808683834 0.2041943714 -0.5192192159 0.2045396145 -0.5191675718 -0.0650050392 0.1669497658
570296580.0 -0.0402156294 0.1813421887 0.1988635919 -0.5216835262 0.1983593679 -0.521681393 -0.0635040333 0.1682979017
575296550.0 -0.0379725368 0.1824127642 0.1931815898 -0.523920374 0.1928392635 -0.5236999606 -0.0616020241 0.1686703092
580296520.0 -0.0359702443 0.1828270632 0.1874982777 -0.5257869755 0.1875843557 -0.5255709266 -0.0601256057 0.1691208021
585296490.0 -0.0341767908 0.1826491793 0.1818758324 -0.5272458009 0.18229945 -0.5275803169 -0.0587155371 0.1701786763
590296460.0 -0.0316147819 0.1836292775 0.1760977732 -0.5289474782 0.1761638213 -0.5293941425 -0.0572108601 0.1709473354
595296430.0 -0.0297190708 0.1842585549 0.1698403945 -0.5317360513 0.1698907547 -0.5312886636 -0.0553045315 0.171332006
600296400.0 -0.0280659573 0.1845782273 0.164487151 -0.5329014014 0.164383911 -0.532977069 -0.0539584266 0.1723443405
605296370.0 -0.025951989 0.185088035 0.1586304601 -0.5352531504 0.1584417626 -0.5345725346 -0.0516028148 0.1728695396
610296340.0 -0.0239059498 0.1855897138 0.1521428382 -0.5361213278 0.1527110709 -0.536655237 -0.0499477297 0.1735655956
615296310.0 -0.0215505596 0.1856425273 0.14665639 -0.5376597636 0.1467926524 -0.5384088019 -0.0483312932 0.1741890977
620296280.0 -0.0196532006 0.1859968423 0.1407767216 -0.5391980426 0.1409791947 -0.5394655352 -0.0467993789 0.1749247244
625296250.0 -0.017601494 0.185993852 0.1355751218 -0.5410260425 0.1351510215 -0.541406494 -0.0443320715 0.1755580618
630296220.0 -0.0149637504 0.186709643 0.1289443191 -0.542736398 0.1289539771 -0.5425145427 -0.0435975642 0.1761753404
635296190.0 -0.0137909559 0.1869560633 0.1235326687 -0.5433150641 0.123444574 -0.5437174011 -0.0412578562 0.176933497
640296160.0 -0.0116856596 0.1873751194 0.1178737933 -0.5447039127 0.1176120629 -0.5446861284 -0.0400923966 0.177356688
645296130.0 -0.009482367 0.1878198027 0.1117442703 -0.5456663122 0.1119843066 -0.5463184664 -0.0377217293 0.1778667319
650296100.0 -0.0071828301 0.1878018591 0.1056784525 -0.5471686746 0.1057346126 -0.5472588822 -0.0360060316 0.1780192649
655296070.0 -0.0054469812 0.1877838238 0.0998708314 -0.5482930128 0.1000378475 -0.5487251357 -0.0343919582 0.178844992
660296040.0 -0.0037636708 0.1878528074 0.0939111306 -0.5490573526 0.0940414579 -0.5495874345 -0.0329081661 0.1793710521
665296010.0 -0.0011484835 0.1880900334 0.0875867999 -0.5499971962 0.0879366316 -0.5504125092 -0.0308189106 0.180521712
670295980.0 0.0002854732 0.1886694986 0.0820716197 -0.5513214155 0.0820151684 -0.551343138 -0.0297255279 0.1803113769
675295950.0 0.0026681173 0.1887391139 0.0762101089 -0.5521489128 0.0765832584 -0.5515229074 -0.0281412303 0.1811042103
680295920.0 0.0047039718 0.1886115813 0.0698811152 -0.5523623211 0.0699710947 -0.5533618986 -0.0258553567 0.1817602137
685295890.0 0.0069654094 0.1895089484 0.0640404341 -0.5532558512 0.0637362265 -0.5532560606 -0.0241685952 0.181659514
690295860.0 0.0091407487 0.1890425118 0.0580278797 -0.5535949551 0.0580789419 -0.5542932121 -0.0227978397 0.1824756937
695295830.0 0.0113514828 0.1886671247 0.0521353913 -0.5545557102 0.0521127282 -0.5541083731 -0.0208358165 0.1827443235
700295800.0 0.0130953194 0.1887128609 0.0460722469 -0.5546339648 0.0458231491 -0.5551059883 -0.0194466013 0.1833543599
705295770.0 0.0152236141 0.1894298503 0.0396009971 -0.5557809527 0.0404072418 -0.5555325664 -0.0173858182 0.1838041065
710295740.0 0.0175277761 0.1891047599 0.034165097 -0.556637244 0.0345859356 -0.5561273862 -0.0156416524 0.1832905462
715295710.0 0.019206528 0.1886834979 0.028153696 -0.5562163898 0.0280404179 -0.5566771214 -0.0134987815 0.1838438385
720295680.0 0.0214856798 0.1888359322 0.0220235655 -0.5564311728 0.0222715428 -0.5562214987 -0.0119460326 0.1843647667
725295650.0 0.02361498 0.1886545412 0.0162727638 -0.5567398344 0.0163269106 -0.557106138 -0.0106354201 0.1849003824
730295620.0 0.0257759698 0.188847074 0.0096477097 -0.5565303758 0.0107275149 -0.5565307102 -0.0090447595 0.1847167381
735295590.0 0.0276731058 0.1885821631 0.0039112215 -0.5568798126 0.004415412 -0.5566035544 -0.007143897 0.1847137726
740295560.0 0.0293460638 0.1886372464 -0.0018699746 -0.5568334455 -0.001789082 -0.5570864081 -0.0046356976 0.1852267924
745295530.0 0.0317154397 0.1882465297 -0.0076575216 -0.5560155753 -0.007931404 -0.5569179407 -0.0025748066 0.1850041911
750295500.0 0.0340871208 0.1880055484 -0.0139505527 -0.5564010026 -0.0135400443 -0.556728729 -0.0012241709 0.1853184359
755295470.0 0.035973526 0.187632296 -0.0194819532 -0.5559502134 -0.0201070747 -0.5565835278 0.0009387856 0.1852302105
760295440.0 0.0378288986 0.1875117826 -0.0255650313 -0.5563218256 -0.0257799124 -0.5564068396 0.0025121527 0.1856195948
765295410.0 0.0398360383 0.1871850084 -0.0315396853 -0.5558760989 -0.0320000826 -0.5561482012 0.0043706032 0.1860427356
770295380.0 0.041650344 0.1868415446 -0.0379001902 -0.5555339148 -0.0380450271 -0.5554126049 0.0061011745 0.185902014
775295350.0 0.0441000461 0.1862848685 -0.0439149121 -0.5546162898 -0.0430633494 -0.5549901353 0.0074634226 0.1860428732
780295320.0 0.0461370875 0.1860166668 -0.0496737791 -0.5539589267 -0.0489589676 -0.5545093322 0.0093482949 0.1860062341
785295290.0 0.0480997735 0.1851880746 -0.0564061407 -0.5532117436 -0.0555611844 -0.5538680279 0.0119699381 0.1862393971
790295260.0 0.0508085488 0.18568104 -0.0614617859 -0.5529987436 -0.0607698359 -0.5529935329 0.0134103056 0.1864322547
795295230.0 0.0522447522 0.1849131508 -0.0675829713 -0.5521632956 -0.0671329256 -0.5526807081 0.0156059201 0.1862891646
800295200.0 0.0541922783 0.1846264996 -0.0741446921 -0.5510925889 -0.0732822296 -0.5514335554 0.0175715632 0.1864541932
805295170.0 0.0562033272 0.18394416 -0.0796901768 -0.5503037288 -0.0792854729 -0.5511889988 0.018778542 0.1864260892
810295140.0 0.0584219469 0.1832137024 -0.0851068549 -0.5491672889 -0.08493428 -0.5498904526 0.0211632107 0.1866314106
815295110.0 0.0603166221 0.1825894534 -0.0914970933 -0.5482746731 -0.0911627733 -0.5486039902 0.022517877 0.1865751999
820295080.0 0.0619865697 0.1824932404 -0.0971265922 -0.5471856276 -0.0965525019 -0.5475728728 0.0245684724 0.1864123078
825295050.0 0.0646483791 0.1818848135 -0.102562638 -0.5462770867 -0.1027112688 -0.5465891569 0.0265762697 0.1866630891
830295020.0 0.066679339 0.1813179356 -0.1095480964 -0.5450564877 -0.10917699 -0.5450931273 0.0290721891 0.1860499441
