!Created with skrf (http://scikit-rf.org).
# Hz S RI R 50.0 
!freq ReS11 ImS11 ReS21 ImS21 ReS12 ImS12 ReS22 ImS22
300000.0 -0.2358688464 -0.1074277335 0.464908629 0.0708039302 0.4691192264 0.0736650263 -0.236957948 -0.1133660796
5299970.0 -0.2407426308 0.0069935869 0.4750652145 0.0055490206 0.4749833574 0.0054586831 -0.2447526272 0.005645403
10299940.0 -0.2372354111 0.0199114665 0.4773765773 0.0066954191 0.4770502841 0.0062084873 -0.2416525641 0.0175201484
15299910.0 -0.2326557174 0.0298320017 0.480509342 0.0072025613 0.4802301807 0.0076121433 -0.2374462496 0.0263219703
20299880.0 -0.2275903248 0.0377885977 0.4854713695 0.008054821 0.4851721793 0.0080870122 -0.2326600495 0.0339959407
25299850.0 -0.2217152481 0.0444039308 0.4905434646 0.0068238515 0.4904530946 0.0070193677 -0.2277970049 0.0398682643
30299820.0 -0.2155829165 0.0494776379 0.4960562689 0.0049754755 0.4955141552 0.0048794593 -0.2227077905 0.0450751158
35299790.0 -0.2100469839 0.0538936655 0.5012322849 0.0015795782 0.5012735645 0.0017538604 -0.2174151219 0.0489132541
40299760.0 -0.2045146036 0.0567719807 0.5063944786 -0.0018410752 0.5063741838 -0.0025910358 -0.212644277 0.0521533162
45299730.0 -0.1993655366 0.06025955 0.5110482585 -0.0072615764 0.5109423144 -0.0069678353 -0.2081546122 0.0544946536
50299700.0 -0.1943934548 0.0619131755 0.5149482826 -0.0125648658 0.5150951683 -0.0128341393 -0.2032879669 0.0565234457
55299670.0 -0.1904578271 0.0638581914 0.5184080007 -0.0188828373 0.5189050425 -0.0187614886 -0.2000672297 0.0581155622
60299640.0 -0.1865075835 0.0650914017 0.5216748882 -0.0247070319 0.5219220102 -0.0246683073 -0.1963603463 0.0596625285
65299610.0 -0.182981444 0.0664449844 0.5251132065 -0.0309150559 0.5249005848 -0.0309865587 -0.193048943 0.0604817022
70299580.0 -0.1795747906 0.0669877179 0.5273126463 -0.0375709062 0.5273221396 -0.0376136252 -0.1900923841 0.0616592955
75299550.0 -0.1765918723 0.0678794795 0.5292502048 -0.0442974165 0.5292094243 -0.0444712907 -0.1873036202 0.0625981927
80299520.0 -0.1739339594 0.0688464361 0.5314569801 -0.0515747651 0.5313081389 -0.0514537195 -0.1848040167 0.0628716201
85299490.0 -0.1713562754 0.0692618619 0.5323578718 -0.0586099362 0.5322948072 -0.0584976512 -0.1825574852 0.0635180312
90299460.0 -0.1692625761 0.0702042326 0.5333863229 -0.0652303185 0.5335041212 -0.0654582065 -0.1802234838 0.064400111
95299430.0 -0.1672553315 0.0711873322 0.5345370072 -0.0726793491 0.5345453678 -0.0721987386 -0.1785282905 0.0651543259
100299400.0 -0.1654984447 0.071920472 0.5345248078 -0.0789815211 0.5346087151 -0.0792543604 -0.1767647202 0.0655081783
105299370.0 -0.1634903864 0.0721404633 0.5347330253 -0.0855889559 0.5349171193 -0.0861326777 -0.1748786706 0.0659464142
110299340.0 -0.1619444266 0.0731102577 0.5349324581 -0.0926751438 0.5351945727 -0.09273667 -0.1740463625 0.0668077991
115299310.0 -0.1602583341 0.0734660635 0.5350653202 -0.0992299237 0.5350448069 -0.0992520539 -0.1723785268 0.0665934539
120299280.0 -0.1591321508 0.0743231065 0.5349843456 -0.1063265751 0.534927903 -0.1066050145 -0.1712018014 0.06820627
125299250.0 -0.157679285 0.0753321552 0.5342651506 -0.1132345691 0.5348187461 -0.1131851447 -0.1698783449 0.0685213343
130299220.0 -0.156535814 0.0762883887 0.5339715821 -0.1197940586 0.5338441202 -0.119787941 -0.168858434 0.0693153332
135299190.0 -0.1550903564 0.0766055707 0.5330639787 -0.1262039317 0.533034838 -0.1264832809 -0.1679633643 0.0704688663
140299160.0 -0.1543198904 0.0781094729 0.5323150712 -0.1333289445 0.5324521827 -0.1334704189 -0.1665924404 0.0711843947
145299130.0 -0.1531903081 0.0789303396 0.531947094 -0.1396928209 0.5313090976 -0.1394021089 -0.166433293 0.0718677965
150299100.0 -0.1519792883 0.0797810582 0.5306723684 -0.1459238444 0.5303258595 -0.1460601406 -0.1650572293 0.0725503167
155299070.0 -0.1512666164 0.081413454 0.5292086082 -0.1528055434 0.5291853283 -0.1532221339 -0.1642320405 0.0735570404
160299040.0 -0.1501047747 0.0820590384 0.5275319541 -0.1586993827 0.5276456286 -0.1593323493 -0.1633743833 0.0747920138
165299010.0 -0.1492888472 0.0828842653 0.5267075719 -0.1655131263 0.5264228365 -0.1657335878 -0.1625907427 0.0755814344
170298980.0 -0.1484571511 0.0845037595 0.5245167145 -0.1718523169 0.5244385823 -0.172345366 -0.1616532455 0.076456741
175298950.0 -0.1472091252 0.0856339115 0.5231605656 -0.1780679424 0.5236025075 -0.178491677 -0.1614591183 0.0778032998
180298920.0 -0.1461761284 0.0864633683 0.5212582423 -0.1846588935 0.5215663257 -0.1842812076 -0.1601691854 0.0787173113
185298890.0 -0.145409432 0.0880443076 0.5194045399 -0.1906411475 0.5196413074 -0.1907039107 -0.1597200715 0.0797892514
190298860.0 -0.1443668087 0.0892832852 0.5171695317 -0.1971311599 0.5177170977 -0.1969943227 -0.1583278351 0.0807963499
195298830.0 -0.1432170281 0.0900228664 0.5156619624 -0.202739318 0.5156129122 -0.203153756 -0.1577625003 0.0817014557
200298800.0 -0.1424812055 0.0916185332 0.5136766802 -0.2083203167 0.5135490523 -0.208869722 -0.1568213265 0.0833212532
205298770.0 -0.1418053034 0.0928691453 0.511481496 -0.2145293512 0.5112481773 -0.2145769273 -0.1563402157 0.0838693304
210298740.0 -0.1409109068 0.0940047853 0.509614225 -0.2214212147 0.5091431793 -0.2215530189 -0.1556051751 0.0855580249
215298710.0 -0.1397534636 0.0958168553 0.5070612292 -0.2268647093 0.5071917448 -0.2270209915 -0.1555824171 0.0868141718
220298680.0 -0.1388189052 0.0970001786 0.5044251414 -0.2328906978 0.5043983142 -0.2330366169 -0.153901146 0.0882018493
225298650.0 -0.1376028502 0.0984842028 0.5020733588 -0.2386372336 0.5019770463 -0.2382419327 -0.1534829665 0.0893784201
230298620.0 -0.1371331479 0.1000472876 0.4996562372 -0.2445464066 0.4998566282 -0.2449109056 -0.1527482654 0.0903903588
235298590.0 -0.1359369243 0.1010522732 0.4964356907 -0.2503059672 0.4970476702 -0.2505437261 -0.1518194253 0.0915620445
240298560.0 -0.13498956 0.1025945246 0.4941839325 -0.2557317249 0.4939574789 -0.25560269 -0.1510195695 0.0931562192
245298530.0 -0.1336993848 0.1039950165 0.4907590943 -0.2619658673 0.4913486533 -0.2614972388 -0.1501540959 0.0945569391
250298500.0 -0.1332755731 0.1051518061 0.4887225088 -0.2668340586 0.488928672 -0.2665017749 -0.1488780949 0.0954854175
255298470.0 -0.131879078 0.1065759066 0.4854002138 -0.2726136853 0.4856957013 -0.272937515 -0.1482271243 0.0966060481
260298440.0 -0.1308123791 0.1080340061 0.4827759968 -0.277870396 0.4826225785 -0.278274858 -0.1468196013 0.0983316029
265298410.0 -0.1293657165 0.1097751537 0.479411737 -0.2842499014 0.4796698306 -0.2839572527 -0.146553512 0.0993265063
270298380.0 -0.1282508056 0.1109129124 0.4762438167 -0.2892434059 0.4764251569 -0.289446682 -0.1452949128 0.1011424972
275298350.0 -0.1274487073 0.1125036696 0.4731824351 -0.2950525932 0.473882562 -0.2948139277 -0.144266418 0.1025912947
280298320.0 -0.1261627415 0.113780864 0.4704735605 -0.2997540393 0.4702289441 -0.3001808442 -0.1432441533 0.1039801786
285298290.0 -0.1248729745 0.115435877 0.4668514616 -0.3052207305 0.4667108163 -0.305575818 -0.1427843418 0.1050511597
290298260.0 -0.1236238917 0.1166072899 0.4637159136 -0.3106420545 0.4639345636 -0.3104872769 -0.1411539698 0.1067131671
295298230.0 -0.1225349284 0.1181327066 0.4607133384 -0.3161174477 0.4602424366 -0.3160166969 -0.1402481083 0.1077528366
300298200.0 -0.1209002372 0.1194876088 0.4566155449 -0.3214470137 0.4570541772 -0.3212902327 -0.139407547 0.109410874
305298170.0 -0.1196887692 0.1205912016 0.4535321549 -0.3267205822 0.4537371631 -0.3265709173 -0.1380659983 0.1110011915
310298140.0 -0.1180866622 0.1218631983 0.4502394886 -0.3316969279 0.4499372052 -0.3320153748 -0.1370519579 0.1122803582
315298110.0 -0.1174404324 0.1231764392 0.4463519761 -0.3366219647 0.446653921 -0.3369232391 -0.13593934 0.1132269068
320298080.0 -0.1157674449 0.12474425 0.4426913368 -0.342307121 0.4426233864 -0.341859286 -0.1349273699 0.114504603
325298050.0 -0.1147699953 0.1253736603 0.4392612969 -0.3471730482 0.4389108007 -0.3475036425 -0.1338709411 0.1158633154
330298020.0 -0.1135416218 0.1269486552 0.4344115949 -0.351728833 0.4344456483 -0.3519927595 -0.1330381351 0.1169621582
335297990.0 -0.112248996 0.1281356919 0.430696709 -0.3571053413 0.4307647034 -0.3569072279 -0.132051347 0.1180285231
340297960.0 -0.1115198526 0.1296980027 0.426309561 -0.3619120916 0.4266537624 -0.3614837059 -0.1311465213 0.1199690012
345297930.0 -0.1101720693 0.1309615854 0.4223805791 -0.3657482541 0.4221506167 -0.365891587 -0.1297366778 0.1210128703
350297900.0 -0.1082908899 0.1323432686 0.4182732123 -0.3708441523 0.4182107029 -0.3711048319 -0.1289937335 0.1231877081
355297870.0 -0.1072089406 0.1334920137 0.4139259691 -0.3754007227 0.4138766738 -0.3754087444 -0.1278603272 0.1244543951
360297840.0 -0.1055814567 0.1351581313 0.410200675 -0.3803522035 0.4096750346 -0.3802441521 -0.126528871 0.1260051154
365297810.0 -0.1042667889 0.1364802416 0.4057012716 -0.3846453557 0.4056090763 -0.3845944839 -0.1255095671 0.1274161609
370297780.0 -0.1026203579 0.1377377572 0.401469665 -0.3890205974 0.4015228051 -0.3896117985 -0.1239915067 0.1287646419
375297750.0 -0.1012749891 0.1392359937 0.3976467828 -0.3933329498 0.3968768947 -0.3938228185 -0.1228118489 0.1301117988
380297720.0 -0.0997609718 0.139948758 0.3930939533 -0.3975073724 0.3927351164 -0.3974786999 -0.1217665919 0.1314117128
385297690.0 -0.0981965877 0.14151956 0.3885847047 -0.4018821368 0.3886397424 -0.4021325736 -0.1207305094 0.1330747208
390297660.0 -0.0966787521 0.1427294779 0.3839853533 -0.4066028439 0.3840049019 -0.4063911159 -0.1193427321 0.1338159329
395297630.0 -0.0948327609 0.1439216761 0.3796771745 -0.4105081232 0.3796549152 -0.4105669839 -0.1180758991 0.1357380223
400297600.0 -0.0933190691 0.1455232383 0.3750952676 -0.414825441 0.3753040017 -0.4149132058 -0.1172599403 0.1367932901
405297570.0 -0.0917698389 0.1465444861 0.3705164486 -0.4192295674 0.3707422993 -0.4190829343 -0.115681237 0.1384281882
410297540.0 -0.0900607009 0.1474628357 0.3652504618 -0.4226398916 0.3655222307 -0.4228547755 -0.1144870543 0.1397444061
415297510.0 -0.0886841151 0.148864931 0.3615512541 -0.4268316258 0.361097592 -0.4269217702 -0.1133124884 0.1414557796
420297480.0 -0.0866093437 0.149693294 0.355807778 -0.4311820488 0.3564377308 -0.430776277 -0.1116298176 0.1420713953
425297450.0 -0.085000532 0.150660875 0.3515446041 -0.4347251435 0.3518339669 -0.4346850633 -0.1101779245 0.1441286166
430297420.0 -0.0837212904 0.1521599484 0.3471640786 -0.4391460043 0.3469163328 -0.4385341784 -0.1090540973 0.1449253415
435297390.0 -0.0815097436 0.1528685305 0.3418145471 -0.4419688009 0.3421530489 -0.4421724907 -0.1079209774 0.146269434
440297360.0 -0.0796383658 0.1540562548 0.3370950659 -0.4458372548 0.3366703744 -0.4454827788 -0.106143616 0.147261105
445297330.0 -0.0779439425 0.1552097615 0.3319002805 -0.4500387224 0.3320094531 -0.4493965342 -0.1048630372 0.1485378849
450297300.0 -0.0762977327 0.1559858781 0.3271712799 -0.4530577128 0.327352432 -0.4533698259 -0.1033909151 0.1499080483
455297270.0 -0.0747839562 0.157019195 0.3226085249 -0.4566834077 0.3226918025 -0.4566844784 -0.1020392784 0.1510817845
460297240.0 -0.0733348486 0.1580979346 0.3174218925 -0.4599175055 0.316858548 -0.4602304294 -0.1004634502 0.1526908308
465297210.0 -0.0712857917 0.1588547034 0.3125814946 -0.4634954319 0.3128213663 -0.4635329716 -0.0996121957 0.153338513
470297180.0 -0.0696686495 0.1598144104 0.3076418401 -0.4666302246 0.3078103726 -0.466895535 -0.0983329343 0.1543048979
475297150.0 -0.0679681799 0.1604511495 0.3020907441 -0.4699134594 0.3024169623 -0.4699840643 -0.0963359724 0.1558553601
480297120.0 -0.0656622235 0.1614245235 0.2969375855 -0.473212153 0.2971871205 -0.4732186191 -0.0950755909 0.1573490308
485297090.0 -0.0639140155 0.1621049716 0.292005267 -0.4765613763 0.2922230947 -0.4767498504 -0.0937938529 0.1577211108
490297060.0 -0.0622059333 0.1627862967 0.2867942341 -0.4796197432 0.286965566 -0.4798273547 -0.0922415618 0.1593026952
495297030.0 -0.0606330601 0.1640192559 0.2815094767 -0.4827814032 0.2811166584 -0.4829790607 -0.0904734879 0.1599542417
500297000.0 -0.058803195 0.1646331625 0.2762406383 -0.4859992608 0.276042319 -0.4855532563 -0.0894477807 0.1612894278
505296970.0 -0.0568468129 0.1652618322 0.2704633593 -0.4884375389 0.2705509591 -0.4884367156 -0.0881618555 0.162530753
510296940.0 -0.0549988688 0.1664185021 0.2653473036 -0.4916347814 0.265262561 -0.4917554605 -0.0858663047 0.1636459427
515296910.0 -0.0533482099 0.1671112625 0.259718047 -0.4942768327 0.2602827158 -0.4945495756 -0.084823958 0.1646304131
520296880.0 -0.0513046435 0.1677407051 0.254573617 -0.4970078733 0.254746267 -0.4974023392 -0.0829322808 0.1654267557
525296850.0 -0.0495530483 0.1680461352 0.2490220676 -0.4998321034 0.2493548543 -0.5000957666 -0.0811751858 0.166551228
530296820.0 -0.0475809281 0.16896661 0.2438145742 -0.5018217735 0.2438280089 -0.5023773761 -0.0803489094 0.1669498055
535296790.0 -0.0457966601 0.1695906377 0.2384321651 -0.5050443811 0.2386319094 -0.5048657152 -0.0787288821 0.1679245433
540296760.0 -0.0436553879 0.1701608237 0.2327851379 -0.5080359001 0.2326430838 -0.5076356502 -0.0771722622 0.1693181752
545296730.0 -0.0419976809 0.1710116144 0.2273635275 -0.509823204 0.2271391069 -0.5104248752 -0.0754579523 0.1698440593
550296700.0 -0.0403056184 0.1716463345 0.2218604903 -0.5125731037 0.2220727998 -0.5124496242 -0.0741087011 0.1708136269
555296670.0 -0.0376163526 0.1720899038 0.2159860102 -0.5149872678 0.2160872791 -0.514920023 -0.0722753467 0.1719202815
560296640.0 -0.0361136993 0.1724822004 0.2104864189 -0.5169560241 0.2105948323 -0.5167916685 -0.0705234397 0.1729266694
565296610.0 -0.0344329233 0.1728563006 0.2050841209 -0.5193157687 0.2046317535 -0.5193936906 -0.0692152709 0.1735008587
570296580.0 -0.0322148745 0.1734736943 0.1989756068 -0.5211208965 0.1995899664 -0.5213313808 -0.0673443582 0.1745425778
575296550.0 -0.0302459191 0.1745338491 0.1932807672 -0.5234371679 0.1938576073 -0.5234130812 -0.0654649379 0.1753560525
580296520.0 -0.0286396171 0.1746941032 0.1881901299 -0.5256360967 0.1879957262 -0.525740932 -0.0639578476 0.1759893347
585296490.0 -0.0264112886 0.1747829041 0.182557742 -0.5278201624 0.1825465824 -0.5272284029 -0.0626840064 0.1765532196
590296460.0 -0.0248543367 0.1750518021 0.1765049095 -0.529307036 0.176438585 -0.5296699455 -0.0604285364 0.1777047383
595296430.0 -0.0226651557 0.1760973442 0.1710408517 -0.5315640252 0.1706759702 -0.5315799703 -0.0586298344 0.1780347229
600296400.0 -0.0206969808 0.1761498225 0.1651227629 -0.532904766 0.1653593718 -0.5330002713 -0.0572051103 0.1788978621
605296370.0 -0.0187715051 0.1765723765 0.1594421739 -0.5347606267 0.1594317978 -0.5345975741 -0.0556429176 0.1796414221
610296340.0 -0.0167229074 0.1769360974 0.1541656992 -0.5364154722 0.1537143592 -0.5368369733 -0.0537345279 0.1808568862
615296310.0 -0.0145992032 0.1775369559 0.1474251927 -0.5381273749 0.1479283074 -0.5382986238 -0.0522413802 0.1810957641
620296280.0 -0.0130542795 0.1775166635 0.141919538 -0.5394022561 0.1417996215 -0.5396484707 -0.0504616717 0.1814774779
625296250.0 -0.0104556312 0.1778836171 0.1354675644 -0.5413251597 0.1358003642 -0.541390413 -0.0486683151 0.1826774681
630296220.0 -0.0085450454 0.1781356241 0.1301806002 -0.5426582292 0.130522451 -0.5425108282 -0.0472766799 0.1827277085
635296190.0 -0.0067016302 0.1787699576 0.1241816477 -0.5434860894 0.1243413652 -0.543239073 -0.0455733273 0.1834685788
640296160.0 -0.0051107171 0.1787952733 0.1189076941 -0.5450763907 0.1184618991 -0.5451625626 -0.0432189866 0.184211056
645296130.0 -0.003307884 0.1790678974 0.1126660909 -0.5466400284 0.112736521 -0.5462179841 -0.0422723119 0.1842631137
650296100.0 -0.0011379414 0.1795643536 0.1073754012 -0.5473726024 0.1068198598 -0.5472885709 -0.0402575852 0.1852917738
655296070.0 0.0009026236 0.179241776 0.1008451136 -0.5483262017 0.1007667515 -0.5485432455 -0.0381622938 0.1859951531
660296040.0 0.0027105012 0.1797537356 0.0949969184 -0.5493053752 0.0949689951 -0.5496638954 -0.0367696291 0.186166253
665296010.0 0.0048604097 0.1795160052 0.0893688831 -0.5507038009 0.0895060894 -0.5505668991 -0.0353047728 0.1868484972
670295980.0 0.007383044 0.179775738 0.0829727077 -0.5514053406 0.0838064468 -0.5513477411 -0.033634197 0.1871198377
675295950.0 0.0090665146 0.1794770663 0.0768646033 -0.5520628352 0.0776123781 -0.5528045901 -0.0310683489 0.1877210484
680295920.0 0.0110570235 0.1800439072 0.0709508227 -0.5531464335 0.0709421492 -0.5530581717 -0.0295008602 0.1879901465
685295890.0 0.0129939938 0.1800220579 0.0653651538 -0.55377713 0.0651903142 -0.5538627978 -0.0278044269 0.1887348559
690295860.0 0.0153784537 0.1799918683 0.0591867686 -0.5536971427 0.0588566845 -0.5540228019 -0.0256759202 0.1891901225
695295830.0 0.0177266061 0.179621361 0.0523613759 -0.5548044471 0.0530740479 -0.5551326438 -0.0243991113 0.1897694136
700295800.0 0.0196762864 0.1797879549 0.0468934212 -0.5554989125 0.0471484372 -0.5556835944 -0.0222156627 0.1896073757
705295770.0 0.0215865816 0.1800163722 0.0408992227 -0.5560630655 0.0412906635 -0.5558046134 -0.0206163952 0.1903007621
710295740.0 0.0234417325 0.1799897548 0.0350536353 -0.5562022282 0.0350126227 -0.5559377811 -0.0193945873 0.1907751352
715295710.0 0.0254996611 0.1795374864 0.0289498923 -0.556597861 0.0294141084 -0.556727143 -0.016911365 0.1904446462
720295680.0 0.0271003809 0.1793250855 0.0230268816 -0.556754152 0.0234096036 -0.5570818648 -0.0152580876 0.1911698371
725295650.0 0.0297436694 0.1793329762 0.0165930605 -0.5570166457 0.0169108902 -0.5569433876 -0.0131599231 0.1917034284
730295620.0 0.0310645164 0.1790533913 0.0107703092 -0.5571821757 0.0110306796 -0.557321598 -0.010989239 0.1914158706
735295590.0 0.0337135311 0.1788739632 0.0053901053 -0.5573198242 0.005457226 -0.5572518151 -0.0096184705 0.1921047291
740295560.0 0.0354686712 0.178679043 -0.0011943917 -0.5568126508 -0.0010047815 -0.5568885127 -0.0072956421 0.1919702347
745295530.0 0.0375766929 0.1781671521 -0.0068729824 -0.5570856559 -0.0065470546 -0.5574217445 -0.0060164931 0.1923913193
750295500.0 0.0394167517 0.1781279051 -0.0126497925 -0.5566308563 -0.012485849 -0.5567119886 -0.0037815326 0.1921647532
755295470.0 0.0418928192 0.1780773286 -0.018642062 -0.5564200718 -0.018741986 -0.5571020533 -0.0024503048 0.1927906614
760295440.0 0.0435119532 0.177577014 -0.0250422959 -0.5561510995 -0.0248817912 -0.5564075646 -0.0008622273 0.192859798
765295410.0 0.0453143693 0.1772586159 -0.0303619426 -0.5561627133 -0.0307077837 -0.5563865468 0.002112893 0.1935142403
770295380.0 0.0476211225 0.1772569246 -0.0368823878 -0.5558199186 -0.0368361073 -0.5562265735 0.0036951122 0.1933294447
775295350.0 0.049500956 0.1765848058 -0.0425878141 -0.5547571926 -0.0425961924 -0.5550692317 0.0049534319 0.1929860118
780295320.0 0.0516910222 0.1761076873 -0.0482563018 -0.5546836999 -0.0484515285 -0.5549753346 0.0071394599 0.1935427585
785295290.0 0.0532933952 0.1760110601 -0.0545823673 -0.5534291669 -0.0545259845 -0.5540845824 0.0086783515 0.193545134
790295260.0 0.0554006821 0.1755701348 -0.0605606159 -0.5536602402 -0.0605315944 -0.5533396475 0.0107808581 0.19374421
795295230.0 0.0573213219 0.1750003605 -0.0658721716 -0.5523671527 -0.0660754492 -0.5529442619 0.0125518238 0.1942563182
800295200.0 0.0594957516 0.1745903399 -0.0729534611 -0.5520947315 -0.0725218836 -0.5519278842 0.0147371964 0.1936670023
805295170.0 0.0609315521 0.1739196214 -0.077845017 -0.5507995438 -0.0783244703 -0.5509969882 0.0161841402 0.1934174377
810295140.0 0.0632173375 0.1734953603 -0.0838091602 -0.5503522278 -0.0841559002 -0.5509895891 0.0184443707 0.1941164832
815295110.0 0.0649804168 0.1730126826 -0.0904464359 -0.549331608 -0.0904547982 -0.5493514257 0.0199143465 0.1934083047
820295080.0 0.0670151209 0.1720089782 -0.0961675311 -0.548127779 -0.0959948023 -0.5486214871 0.0217706861 0.1937351115
825295050.0 0.0689866644 0.1716061696 -0.1019252275 -0.5467725567 -0.1017541271 -0.5469961733 0.0239714299 0.1935952424
830295020.0 0.0708275841 0.1713223414 -0.1077573814 -0.5456037704 -0.1079031083 -0.545753606 0.0253874677 0.1933042351
