!Created with skrf (http://scikit-rf.org).
# Hz S RI R 50.0 
!freq ReS11 ImS11 ReS21 ImS21 ReS12 ImS12 ReS22 ImS22
300000.0 -0.1013867139 -0.0659256586 0.6312536543 0.0624803194 0.6246146505 0.064528807 -0.0996504762 -0.076183423
5299970.0 -0.1022981152 0.0131203358 0.6308022731 0.0096929108 0.6307554358 0.0099149134 -0.1009228859 0.0129628312
10299940.0 -0.0972428922 0.0294327902 0.6342549036 0.0151033911 0.6339208102 0.0151875043 -0.095897878 0.0304799564
15299910.0 -0.0899924037 0.0425783976 0.6405725801 0.0201736557 0.6408988951 0.0205637176 -0.0886489099 0.0437215533
20299880.0 -0.0816416645 0.0531705162 0.6483666831 0.0245579158 0.6488923899 0.0238517864 -0.0796667533 0.0545804823
25299850.0 -0.0723044471 0.0621668567 0.6578703781 0.02547907 0.6576143119 0.0254271247 -0.0700604486 0.063607611
30299820.0 -0.0624519802 0.0688695604 0.6676390941 0.0245740199 0.6672513602 0.0244241202 -0.059761713 0.0700122449
35299790.0 -0.0525405175 0.0736438862 0.6773040666 0.0215085513 0.6772494589 0.0212652355 -0.0497185195 0.0750549211
40299760.0 -0.0430905634 0.0770733308 0.6860937197 0.0171648952 0.6863907829 0.0172634257 -0.0403019895 0.0774202227
45299730.0 -0.0341387322 0.0793160108 0.6950519402 0.0118561728 0.6954552381 0.0119409543 -0.0310545371 0.0797960044
50299700.0 -0.0256675393 0.0799454389 0.7037352411 0.0045460157 0.7032021492 0.0053099579 -0.0228482532 0.0803342332
55299670.0 -0.0176324547 0.0805022305 0.7108051248 -0.0033579363 0.7108796864 -0.0028107477 -0.0147454198 0.0806862788
60299640.0 -0.0101626537 0.0800611083 0.7177953788 -0.0116941827 0.7178144695 -0.0108128696 -0.0077810587 0.0795314914
65299610.0 -0.0037256893 0.0787812767 0.7231326567 -0.0202316735 0.7234226778 -0.0203004054 -0.0010681014 0.0785529832
70299580.0 0.0025807402 0.0775346975 0.7286745555 -0.029814863 0.728485423 -0.0293763316 0.0048389995 0.0769150212
75299550.0 0.0080958345 0.0757447075 0.7327018758 -0.0391359312 0.7328224108 -0.0389626439 0.0100669065 0.0749471466
80299520.0 0.0130959892 0.0732944919 0.7367855948 -0.0490087467 0.7372182251 -0.0489165131 0.0152229913 0.0726872184
85299490.0 0.0177009699 0.0713263534 0.7400590205 -0.0585273654 0.7406882893 -0.0584512437 0.0191117855 0.0700684704
90299460.0 0.0218297471 0.0691685878 0.7429624192 -0.0692753382 0.7433931743 -0.0691282743 0.0235532879 0.067864101
95299430.0 0.0259810552 0.066431963 0.745532493 -0.078731063 0.7457168102 -0.079249861 0.0273189961 0.0655218118
100299400.0 0.0289372365 0.0647887619 0.7470547646 -0.0888306236 0.7469502752 -0.089522469 0.0310383847 0.0625957652
105299370.0 0.0321852444 0.0622585785 0.7487037589 -0.0995616674 0.7489477282 -0.0993345624 0.0341353785 0.0607359409
110299340.0 0.0348827832 0.0598606305 0.7500989082 -0.109064271 0.7495970684 -0.1092132877 0.0361846755 0.0575855646
115299310.0 0.0370830176 0.0572993072 0.7508172224 -0.1194020763 0.750306205 -0.1196364711 0.0390575552 0.0554865786
120299280.0 0.0397332265 0.0547457904 0.7511894911 -0.129431279 0.751489553 -0.1297744013 0.0411124716 0.053050091
125299250.0 0.0419392109 0.052278929 0.7515237243 -0.1392569254 0.7515375119 -0.1389256198 0.0427920844 0.0502195829
130299220.0 0.0433630895 0.0502332491 0.7509522603 -0.1493842795 0.7513936561 -0.1493737898 0.0450554308 0.048235696
135299190.0 0.0451786005 0.0481459477 0.7516267016 -0.1588513132 0.7510716602 -0.158967804 0.0468992826 0.0462899893
140299160.0 0.0466755375 0.0463839564 0.7506586572 -0.1688873244 0.7506242125 -0.1690495942 0.0479023092 0.0443792392
145299130.0 0.0482650516 0.0437543465 0.7500515237 -0.1785643216 0.7499634339 -0.178596953 0.0493935271 0.0421214617
150299100.0 0.0495787014 0.0419209726 0.7488776185 -0.1877511055 0.7487987333 -0.1878243585 0.0508843651 0.0401913886
155299070.0 0.0502613447 0.0396614531 0.7483076826 -0.1982180827 0.74752461 -0.1978230223 0.0517434405 0.0382998594
160299040.0 0.0519626851 0.0379462943 0.7464018799 -0.2073799411 0.7458013236 -0.207758305 0.0521751904 0.0362355312
165299010.0 0.0524992903 0.036404977 0.7441237115 -0.2166426749 0.7448527303 -0.2174559369 0.0537503459 0.0349796934
170298980.0 0.0530510125 0.0336834759 0.7425842418 -0.2265191147 0.7431168073 -0.226429839 0.0542470539 0.0328899194
175298950.0 0.0534833109 0.0321510036 0.7411462111 -0.2354356337 0.740567078 -0.235442894 0.0546610332 0.0312866657
180298920.0 0.0545244653 0.0304215778 0.7387470622 -0.2447845199 0.7387011356 -0.2445413857 0.0555856091 0.029684574
185298890.0 0.0556664494 0.0288189752 0.7367419198 -0.2540812645 0.7362394678 -0.2537970522 0.0559229026 0.0283821579
190298860.0 0.0555909075 0.0273325524 0.7341063015 -0.2631704313 0.734621393 -0.2631451881 0.0563329707 0.0264030516
195298830.0 0.0558464926 0.0251653295 0.731819755 -0.2716019546 0.7319236254 -0.2716339437 0.0569314422 0.0250443322
200298800.0 0.0564304644 0.0238823587 0.7289364708 -0.2813612111 0.7286226826 -0.2811691912 0.056765701 0.0238087604
205298770.0 0.0569475125 0.022710169 0.7258067348 -0.2903466765 0.7264633375 -0.2898097783 0.0574961186 0.021412154
210298740.0 0.0572506851 0.0207682264 0.7226247547 -0.2984101081 0.7228245335 -0.2978607629 0.0578359846 0.0212353236
215298710.0 0.0569291191 0.0195208971 0.7200018121 -0.307453035 0.7200569328 -0.3075878347 0.0575681535 0.0198405591
220298680.0 0.0574986143 0.0176628054 0.7166426037 -0.3159631491 0.7162258839 -0.3157342561 0.0576276219 0.0180917955
225298650.0 0.0577417625 0.0162895641 0.7136120811 -0.3251560037 0.7139208077 -0.3248338397 0.0573973625 0.0164490802
230298620.0 0.0579599224 0.0157066854 0.7103970706 -0.3327542601 0.7106741249 -0.3329409631 0.057536914 0.0148944631
235298590.0 0.0580484827 0.0146265822 0.7068622807 -0.3415025837 0.7069085416 -0.3410546598 0.0576853567 0.0137159034
240298560.0 0.0580725486 0.0132890622 0.7032703307 -0.3501505614 0.703000665 -0.3498931224 0.0576686518 0.0131315517
245298530.0 0.0579792054 0.0119930476 0.6997706689 -0.3585666992 0.6995943555 -0.3585316904 0.0581729395 0.0109034889
250298500.0 0.0585283259 0.0110320656 0.6947364804 -0.3663199143 0.6950093088 -0.3663808017 0.0578808333 0.0104359819
255298470.0 0.0585387889 0.0093806198 0.6914969522 -0.3743529478 0.6918116505 -0.37394343 0.0582074109 0.009017851
260298440.0 0.0578066251 0.0082054364 0.6873400209 -0.3831943662 0.6875630758 -0.3826779656 0.0583837281 0.0080382156
265298410.0 0.0587253138 0.0074286727 0.6836344754 -0.3910707063 0.6840038509 -0.3903755057 0.0584067323 0.0069986449
270298380.0 0.0584166709 0.0060592113 0.6798550139 -0.3983806748 0.6795753733 -0.3992007055 0.0579873994 0.0058432136
275298350.0 0.0587097565 0.0048684619 0.6754903593 -0.407260641 0.6754548561 -0.4073492993 0.0582172675 0.0044226719
280298320.0 0.0587161862 0.0042346764 0.6710899313 -0.4146192641 0.671098157 -0.4146746714 0.0585195173 0.0034141776
285298290.0 0.0585956015 0.0031139139 0.666333089 -0.4225621351 0.665870069 -0.4223218634 0.058338862 0.0024944519
290298260.0 0.0589920631 0.0021319886 0.6615937973 -0.4299470498 0.6621887646 -0.4304144261 0.0587358018 0.0016764112
295298230.0 0.0586248968 0.000823514 0.6573048207 -0.4374541041 0.6574402858 -0.4379580585 0.059226624 0.0002525861
300298200.0 0.0583699955 -0.0004185474 0.6530147967 -0.4454307522 0.6529791122 -0.4460186487 0.0587076223 -0.0009134461
305298170.0 0.0587887697 -0.001536396 0.6475543091 -0.4536190665 0.6478469791 -0.453100956 0.0595079971 -0.0021485611
310298140.0 0.0585680037 -0.0026020604 0.6431020146 -0.4610776661 0.6432911351 -0.4604040742 0.0590987671 -0.0030226358
315298110.0 0.0584610649 -0.0043532611 0.6380779492 -0.4688073582 0.6381033654 -0.4688648541 0.0588704302 -0.0043515293
320298080.0 0.0583075589 -0.0049469911 0.631998554 -0.4762626155 0.6326122557 -0.4761668434 0.0585490512 -0.005274963
325298050.0 0.0577977313 -0.0063359405 0.6272941137 -0.4838017117 0.6274060862 -0.4834080448 0.0579130146 -0.0061592474
330298020.0 0.0571545129 -0.0076293131 0.6210431225 -0.4910158693 0.6218697136 -0.4907542754 0.0572746036 -0.007541752
335297990.0 0.0570273721 -0.0086173945 0.6162675894 -0.4979731472 0.6155735446 -0.4980284908 0.0566841276 -0.0077784283
340297960.0 0.0560396246 -0.0091559806 0.6097948766 -0.5051157532 0.6092911903 -0.5050299217 0.0570870012 -0.0086994638
345297930.0 0.055879701 -0.0094106367 0.604216645 -0.5124269657 0.6038504757 -0.5127796428 0.0565692802 -0.01002075
350297900.0 0.0551325916 -0.0110200676 0.5972449209 -0.5192438513 0.5976157693 -0.5188630702 0.0552904516 -0.0100224913
355297870.0 0.0549098828 -0.010734731 0.592120082 -0.5249928859 0.5926524922 -0.5252839587 0.0553084818 -0.0106039882
360297840.0 0.0544804043 -0.0116784258 0.5874320006 -0.5314214104 0.5874927034 -0.5320597264 0.0548662017 -0.0111347757
365297810.0 0.0539219762 -0.0120672936 0.5807598141 -0.538451872 0.5812168358 -0.5385768337 0.0548399882 -0.0117828778
370297780.0 0.0541405045 -0.0133960523 0.5742308155 -0.5448537368 0.5752289152 -0.5443937163 0.0541245174 -0.0122595422
375297750.0 0.0537416648 -0.0139374416 0.5683538759 -0.55095359 0.5696535075 -0.5513649211 0.0542903623 -0.0129787159
380297720.0 0.0534742056 -0.0144244204 0.5626249 -0.5579341022 0.5624393822 -0.5571737399 0.0532200548 -0.0140716002
385297690.0 0.0526759552 -0.0151345794 0.5562713621 -0.5636104058 0.5561627257 -0.5636720394 0.0534433732 -0.014204452
390297660.0 0.052660637 -0.0154485838 0.5503387675 -0.5705193882 0.5497636207 -0.569818698 0.0525195919 -0.0153541808
395297630.0 0.0519411918 -0.0162576237 0.5438799517 -0.575928032 0.5436078544 -0.5767543963 0.0530055266 -0.0158414003
400297600.0 0.0517244073 -0.0167283684 0.5369649166 -0.582867035 0.5371339853 -0.582677857 0.0523158741 -0.0163229412
405297570.0 0.0512814578 -0.0175486229 0.5307438561 -0.5882346003 0.5311664014 -0.5878235847 0.0517023538 -0.0168454558
410297540.0 0.0512965195 -0.0181746902 0.5247362102 -0.5942154063 0.5251469994 -0.5939448334 0.0510878436 -0.0171776156
415297510.0 0.0510600218 -0.0187104344 0.5177369496 -0.6001070513 0.5181665154 -0.6001606992 0.0510993522 -0.0179771024
420297480.0 0.0507067485 -0.0193511826 0.5111950828 -0.6062649872 0.5110391887 -0.6057957413 0.0502512861 -0.0190580105
425297450.0 0.050159196 -0.0205285294 0.5048407969 -0.6117318354 0.5049007507 -0.6118615074 0.0495768916 -0.0190619109
430297420.0 0.049818467 -0.0210053889 0.4975836464 -0.6162225415 0.4981206227 -0.6168336754 0.0493384839 -0.0200908697
435297390.0 0.0493495949 -0.0212860135 0.4908491297 -0.6226317463 0.4904108692 -0.6225483751 0.0500539452 -0.0205052385
440297360.0 0.0492212715 -0.0217818686 0.4843261388 -0.6280181267 0.4840895478 -0.6281807858 0.048690199 -0.0216226642
445297330.0 0.0485545504 -0.0229958034 0.4773036239 -0.6334092945 0.477543433 -0.6328068579 0.0489281974 -0.022048366
450297300.0 0.0486327256 -0.0230302889 0.4703100309 -0.6387478111 0.4699533957 -0.6387605349 0.0482113547 -0.0231848015
455297270.0 0.0481983648 -0.0239568783 0.4632955819 -0.6433934328 0.4632246962 -0.643813088 0.0479352062 -0.0232348067
460297240.0 0.0475812503 -0.0246044746 0.4561413257 -0.6486033344 0.4564198052 -0.6489247486 0.0475840789 -0.0237319951
465297210.0 0.0477027395 -0.0250708571 0.4495516273 -0.6542197962 0.4490504475 -0.6544780418 0.0476183373 -0.0249020879
470297180.0 0.0470967456 -0.0256496703 0.4415096662 -0.6587518123 0.441726933 -0.658953358 0.0470740647 -0.0248525149
475297150.0 0.0467251597 -0.026700226 0.4341698494 -0.6637721472 0.434730234 -0.6630783961 0.0471126867 -0.025777413
480297120.0 0.0460190149 -0.026182359 0.4267412797 -0.6691779826 0.4270666608 -0.6687569759 0.0466964671 -0.0259821032
485297090.0 0.045370576 -0.0269943517 0.4197585084 -0.673079781 0.4197639578 -0.6727019921 0.0462187892 -0.0269696584
490297060.0 0.0444439521 -0.0277354638 0.4123181338 -0.6780345994 0.412522781 -0.6774288002 0.0459254342 -0.0266096182
495297030.0 0.0445444484 -0.0280351116 0.4049511339 -0.6818781266 0.4052224908 -0.6822858968 0.0450450872 -0.0277789818
500297000.0 0.0441150901 -0.0289848209 0.3967457589 -0.6864829127 0.3967223083 -0.6863004364 0.0448395065 -0.0277777731
505296970.0 0.0438855104 -0.029480543 0.3899776456 -0.6905924999 0.3896536129 -0.6907765818 0.0444633362 -0.0282091884
510296940.0 0.043076926 -0.0297591518 0.3820131595 -0.6951876097 0.381932033 -0.6953406223 0.0443746121 -0.0284881611
515296910.0 0.0424953745 -0.0297263345 0.3745011752 -0.6994515323 0.3747727419 -0.699112813 0.0438732334 -0.0286289103
520296880.0 0.0420740533 -0.0303840149 0.3667551063 -0.7041168813 0.3670286048 -0.7036826433 0.0434021178 -0.0295014393
525296850.0 0.0419965746 -0.0313985498 0.3590869884 -0.7070608339 0.3594775498 -0.7075769901 0.0425118031 -0.0297939543
530296820.0 0.0413706059 -0.0315156362 0.3512539175 -0.7116109915 0.3513601648 -0.7112772423 0.0424030944 -0.0300250606
535296790.0 0.0403859268 -0.0319124767 0.3441229198 -0.7153344127 0.3438663387 -0.7150964757 0.0417712248 -0.0308496544
540296760.0 0.0398444422 -0.0317107331 0.3357420096 -0.719712654 0.3358201655 -0.7193750394 0.0409062512 -0.0304974319
545296730.0 0.0392987837 -0.0327737789 0.3274048719 -0.7225430517 0.3276081739 -0.7225624614 0.0402791555 -0.0314066602
550296700.0 0.039562833 -0.0328810443 0.3196780455 -0.7260258046 0.3196539953 -0.7269228961 0.0397312378 -0.0314602794
555296670.0 0.0386296634 -0.0331668855 0.3124104421 -0.7294224629 0.3120735223 -0.7300130313 0.039350608 -0.0316685576
560296640.0 0.0385143574 -0.0333172928 0.3035611143 -0.7331731683 0.3034575458 -0.7330520963 0.0388888214 -0.0325215052
565296610.0 0.0371932991 -0.033832147 0.2953385049 -0.7362145682 0.2960876361 -0.7363783754 0.0381022617 -0.0329935907
570296580.0 0.0370320955 -0.0342244447 0.287718551 -0.7401011116 0.2873596942 -0.7398802796 0.0376987378 -0.032436455
575296550.0 0.0361780688 -0.0342384662 0.2797708323 -0.7432666831 0.279335603 -0.7429668785 0.0376874027 -0.0335168022
580296520.0 0.0360340991 -0.0349833958 0.2710248518 -0.746429909 0.2715850334 -0.7457284673 0.0366455481 -0.033988472
585296490.0 0.0353899821 -0.0359648804 0.2639219024 -0.7480050947 0.2633038382 -0.7487321333 0.0358892867 -0.0338817555
590296460.0 0.0353259476 -0.0355196052 0.2553272779 -0.7504080422 0.255237691 -0.7512533883 0.0347222604 -0.0347432423
595296430.0 0.034691257 -0.0356501382 0.2463270154 -0.7546854414 0.2464872959 -0.7540688221 0.035141695 -0.0351179327
600296400.0 0.0338262853 -0.0362657808 0.2382864607 -0.7572052541 0.2387739002 -0.7561483445 0.0342653607 -0.0356680087
605296370.0 0.0333705735 -0.0366642066 0.230217576 -0.7591508216 0.2303140704 -0.7595427137 0.0336815553 -0.0357375513
610296340.0 0.0330679663 -0.0370125803 0.2217045211 -0.7617445311 0.2220364786 -0.7619650094 0.0332784672 -0.0362130879
615296310.0 0.0328513757 -0.0379304821 0.2138295179 -0.7640092128 0.2135112089 -0.7649036655 0.0332595482 -0.0363140263
620296280.0 0.0318221982 -0.0381533403 0.205154977 -0.7667139578 0.2050480616 -0.766356604 0.0319016101 -0.0366872511
625296250.0 0.0308284144 -0.0386882133 0.1977763911 -0.7694453663 0.1965807006 -0.7690201736 0.0324741431 -0.0370897693
630296220.0 0.0316816076 -0.0384007755 0.1878463373 -0.7705473828 0.1880048025 -0.7707230669 0.0315489382 -0.037153805
635296190.0 0.0295469485 -0.0393539466 0.1804626353 -0.773105952 0.180414882 -0.7725471495 0.0313408502 -0.0372884211
640296160.0 0.029258567 -0.0392377674 0.1716552875 -0.7743161429 0.1719274487 -0.7748642791 0.0302120221 -0.0379821697
645296130.0 0.0288095319 -0.0391692234 0.1628349087 -0.7760613655 0.1633407057 -0.7764550049 0.0299532337 -0.0381223839
650296100.0 0.0285598509 -0.0397178781 0.1547891758 -0.7777475469 0.1550241408 -0.778682701 0.0300365266 -0.0392008127
655296070.0 0.0274763695 -0.0400612002 0.1463476826 -0.7800272204 0.1462323505 -0.7798334647 0.0292222933 -0.0386231534
660296040.0 0.0262363837 -0.0407655735 0.1378244686 -0.7816893754 0.1376520929 -0.7815845505 0.0288692298 -0.0388908824
665296010.0 0.0269218908 -0.0405089729 0.1288047477 -0.7829786589 0.1294051265 -0.7826251134 0.0282899652 -0.0383528291
670295980.0 0.025114863 -0.0405940675 0.1204733448 -0.7842879631 0.1210872777 -0.7845986357 0.02725598 -0.0389049106
675295950.0 0.0247709097 -0.0405788429 0.1123446605 -0.7848882693 0.1120770497 -0.7845400368 0.0265883517 -0.0391843608
680295920.0 0.0238149516 -0.0412328812 0.1035885275 -0.7862538861 0.10257393 -0.7870266399 0.0261651324 -0.038776838
685295890.0 0.023799859 -0.0404647853 0.0946183188 -0.7874065171 0.0946998013 -0.7874036362 0.0255382181 -0.0389821937
690295860.0 0.0234714526 -0.0409150495 0.0857344298 -0.7876383488 0.0861144841 -0.7888758112 0.0249234703 -0.0386992411
695295830.0 0.0227044867 -0.0413524974 0.077995106 -0.78908034 0.0771775016 -0.7892965583 0.0240997222 -0.0389316894
700295800.0 0.0223369665 -0.041798862 0.0690972457 -0.7898639105 0.0688510999 -0.7898493727 0.0237133041 -0.038576204
705295770.0 0.0211782843 -0.0409261414 0.0600771895 -0.7903901803 0.0609689051 -0.7908767886 0.0225822755 -0.0391787139
710295740.0 0.0211525885 -0.0417113126 0.0518338671 -0.7917967782 0.0525965542 -0.7917861345 0.0226564874 -0.0396717134
715295710.0 0.019413154 -0.0419357545 0.0436707684 -0.7923853566 0.043037253 -0.7922091311 0.0220321132 -0.0397458111
720295680.0 0.0195096598 -0.0419118175 0.0347160597 -0.7926346697 0.03465968 -0.7920723257 0.021349357 -0.0388764601
725295650.0 0.0189696378 -0.0417119067 0.026065654 -0.7929315682 0.0257203882 -0.7930176804 0.0202058754 -0.0391532707
730295620.0 0.0189636609 -0.0413433269 0.0173283945 -0.7925862865 0.0177096412 -0.7932384933 0.0194661567 -0.0397071259
735295590.0 0.0177506219 -0.041646853 0.0087288928 -0.7932402003 0.0082340453 -0.7932292868 0.0190758359 -0.0400762338
740295560.0 0.016823401 -0.0413867107 0.0004314552 -0.7931448614 0.0002775112 -0.793275416 0.0190054141 -0.0395910724
745295530.0 0.0164460604 -0.041637708 -0.00878363 -0.7927437469 -0.0087806713 -0.7933429472 0.0183200733 -0.0403957574
750295500.0 0.0160554108 -0.0416925497 -0.0172515253 -0.7925932891 -0.0168242451 -0.793493006 0.0172240165 -0.0401077843
755295470.0 0.015463623 -0.0419832488 -0.0253260792 -0.7926589164 -0.0254979278 -0.7929471387 0.0173293424 -0.04058495
760295440.0 0.0147655706 -0.0422702159 -0.0338302978 -0.7926062091 -0.0344877764 -0.7926405433 0.016354717 -0.040497088
765295410.0 0.014252484 -0.0421047415 -0.043245488 -0.7916502808 -0.0435070021 -0.7921437298 0.0162700891 -0.0400858866
770295380.0 0.0130589811 -0.042312702 -0.0519969094 -0.7914905942 -0.0518788103 -0.7911890176 0.0151290114 -0.0409341421
775295350.0 0.0126517567 -0.0428476138 -0.0610432016 -0.7901482523 -0.0603491933 -0.7904949377 0.0137343315 -0.0402338966
780295320.0 0.0125115612 -0.0426005389 -0.0687812829 -0.7893974013 -0.0684391323 -0.7899138808 0.0133066258 -0.0411746945
785295290.0 0.0112600019 -0.0429929352 -0.0779089304 -0.7885937469 -0.0770936477 -0.7892399938 0.0137880823 -0.0407017605
790295260.0 0.0113630903 -0.0418762021 -0.0854527808 -0.7881240843 -0.0851176884 -0.7881135582 0.012554958 -0.0407770673
795295230.0 0.0104095252 -0.0427020152 -0.0945825684 -0.7872808079 -0.0936624289 -0.7869290497 0.0125145127 -0.0401456825
800295200.0 0.0091507857 -0.0422763492 -0.1040625037 -0.7856363676 -0.1030799884 -0.7860006044 0.0114053179 -0.0406823284
805295170.0 0.0090614999 -0.0424553737 -0.1110435829 -0.7846367967 -0.1118171205 -0.7852060757 0.0109076906 -0.0404503402
810295140.0 0.0079177 -0.0431218144 -0.1197956816 -0.7833993578 -0.119855389 -0.7836974653 0.0112633071 -0.0404131904
815295110.0 0.0077988249 -0.0429618653 -0.1285250348 -0.781836823 -0.1286476546 -0.7822045221 0.0098724005 -0.0401537135
820295080.0 0.00647774 -0.041782424 -0.1367745782 -0.7803152302 -0.1367647404 -0.7805840942 0.0094794946 -0.0400945917
825295050.0 0.0067857692 -0.0420323837 -0.1449814146 -0.7788251894 -0.1450553245 -0.7798564189 0.009372761 -0.0404358472
830295020.0 0.0058820492 -0.0418660107 -0.1542082999 -0.7770521025 -0.153767837 -0.7771554644 0.0093010366 -0.0399404192
