!Created with skrf (http://scikit-rf.org).
# Hz S RI R 50.0 
!freq ReS11 ImS11 ReS21 ImS21 ReS12 ImS12 ReS22 ImS22
300000.0 -0.2395828824 -0.0747244678 0.4717621429 0.0504165836 0.4672891408 0.049907298 -0.2431401391 -0.0892694792
5299970.0 -0.2442586968 0.0073076935 0.4738238862 0.0050338369 0.473537662 0.0047684212 -0.2443021849 0.0076944357
10299940.0 -0.2412398449 0.018857352 0.4754021091 0.0060705055 0.4755388972 0.0062774974 -0.2407958223 0.0203174565
15299910.0 -0.2365631003 0.0279168284 0.4791060758 0.0076311694 0.4793848747 0.007544225 -0.2361294879 0.0296383952
20299880.0 -0.2319428364 0.0354163839 0.4835554542 0.0086471754 0.4839715296 0.0084900002 -0.2309401858 0.0374902591
25299850.0 -0.2267784773 0.042162072 0.4891507618 0.007416104 0.4891548982 0.0074540826 -0.2250120906 0.0439315498
30299820.0 -0.2215436374 0.0471822838 0.4942845019 0.0055283991 0.4943206895 0.0054546289 -0.2192783198 0.0489033981
35299790.0 -0.216128147 0.0515473769 0.4997887782 0.0018195153 0.4999662328 0.0020273162 -0.2136822195 0.0534733806
40299760.0 -0.2112226047 0.0550850008 0.5048162106 -0.002168189 0.5052265523 -0.0018127963 -0.2081586091 0.0560291487
45299730.0 -0.2065315999 0.0577650042 0.5096825312 -0.0064300699 0.5098370467 -0.0064919158 -0.2031779782 0.0587352261
50299700.0 -0.202429043 0.0599412103 0.5144127779 -0.0120851418 0.5140155161 -0.011664233 -0.1985479494 0.0603907027
55299670.0 -0.1981345075 0.0619005383 0.5177150144 -0.0186171288 0.5177950575 -0.0180159685 -0.1943148999 0.0620974806
60299640.0 -0.194346876 0.0633879926 0.5209746287 -0.0242323676 0.52155384 -0.0240199232 -0.1904283025 0.063347051
65299610.0 -0.1911204627 0.0648771094 0.523796061 -0.0307440128 0.5245005765 -0.03050196 -0.1871796003 0.0639752808
70299580.0 -0.1878998636 0.065958235 0.5263627658 -0.0373036067 0.5265280714 -0.0369107975 -0.1838300098 0.0645929438
75299550.0 -0.1851144432 0.0673645102 0.5283491882 -0.0440451511 0.5283718127 -0.0438938575 -0.181075706 0.0653923073
80299520.0 -0.182362695 0.0681786795 0.530319064 -0.0509401329 0.5304822497 -0.0509643186 -0.1782011732 0.0661500449
85299490.0 -0.1801193216 0.0688324744 0.5313500745 -0.0571905083 0.5318998066 -0.057395955 -0.1760607117 0.066221382
90299460.0 -0.1778284062 0.0697258291 0.5323506205 -0.0648543434 0.532962243 -0.0646730104 -0.1736254106 0.0668547398
95299430.0 -0.1756085102 0.0702766909 0.5337105665 -0.0712030972 0.5337076713 -0.0718450534 -0.1715349023 0.0672578227
100299400.0 -0.1737838401 0.0716529319 0.5335208123 -0.0781187184 0.533918665 -0.0784195601 -0.1693601489 0.0674407864
105299370.0 -0.1717300668 0.0722530807 0.5342824401 -0.0857662601 0.5346500828 -0.0853349807 -0.1675168499 0.0680182588
110299340.0 -0.1702838316 0.0733003387 0.5345559199 -0.0921214045 0.5343830512 -0.0917276001 -0.1667881936 0.0686274945
115299310.0 -0.1686381093 0.0738578733 0.534603067 -0.099227309 0.5345501698 -0.0991580465 -0.1647843738 0.0692046868
120299280.0 -0.1675794753 0.0748706879 0.5339330623 -0.1060986442 0.5343046429 -0.1061154095 -0.1634375992 0.069697185
125299250.0 -0.1658727149 0.075638894 0.5339434988 -0.1125200093 0.5340570631 -0.1121527745 -0.1622525049 0.0697917561
130299220.0 -0.1650375659 0.0769370787 0.5330947177 -0.1198455609 0.5335261184 -0.1193770444 -0.1611943514 0.0704607746
135299190.0 -0.1635963366 0.0780421689 0.5326982682 -0.1262125182 0.5327063792 -0.1258282494 -0.1597495897 0.0712076419
140299160.0 -0.1626538354 0.0787899347 0.53191394 -0.1327675292 0.5318476345 -0.1327453552 -0.158964737 0.0722490201
145299130.0 -0.1615282048 0.0799931919 0.5314943063 -0.1393031919 0.5309978671 -0.1391404776 -0.1580906933 0.0729266738
150299100.0 -0.16008744 0.0809807271 0.529712777 -0.1454280397 0.5300293521 -0.1451338116 -0.1571942635 0.0740657557
155299070.0 -0.1597283131 0.082255504 0.5287996566 -0.1525649205 0.528546094 -0.1521307657 -0.1559242309 0.0746559174
160299040.0 -0.1584115434 0.0833812792 0.527298741 -0.1589302688 0.5268385652 -0.1590180951 -0.1555685287 0.0757309911
165299010.0 -0.1572480687 0.0846683485 0.5256394088 -0.1656645453 0.5262110017 -0.165402283 -0.1541753799 0.076797028
170298980.0 -0.156432067 0.0855977631 0.5240310858 -0.1717016028 0.5245266361 -0.1715441734 -0.1537792309 0.077891512
175298950.0 -0.1558661512 0.0869390834 0.5233268849 -0.1777078034 0.5226396059 -0.1776728218 -0.1530713998 0.0788316296
180298920.0 -0.1548723894 0.0884043807 0.5209353429 -0.1844517628 0.5207911422 -0.1838708244 -0.1520613077 0.0800430792
185298890.0 -0.1530748513 0.0893345701 0.5187934259 -0.1902966398 0.5188074589 -0.1900638134 -0.1513258734 0.0809390139
190298860.0 -0.1526405177 0.090900326 0.517237124 -0.196671166 0.5173971214 -0.1967145037 -0.1507091566 0.081866406
195298830.0 -0.1518941942 0.0918952714 0.5151215523 -0.202463907 0.5154896135 -0.2025125535 -0.149551033 0.0831396921
200298800.0 -0.1507641312 0.093579302 0.5130989781 -0.2092500875 0.5129497292 -0.2088242855 -0.1494663369 0.0839765252
205298770.0 -0.1497041154 0.0952532469 0.5106027156 -0.2151461684 0.5105862318 -0.2148627271 -0.1486836799 0.0845806517
210298740.0 -0.1490030064 0.0964145116 0.5086645719 -0.2209390204 0.5084969442 -0.2205504712 -0.1474521073 0.0865454757
215298710.0 -0.1482060123 0.0977112315 0.5062298419 -0.2268835058 0.5062553328 -0.2270133901 -0.1471533965 0.0874939307
220298680.0 -0.1471379002 0.0990296384 0.5036393587 -0.2327441949 0.5036845925 -0.2323615638 -0.1468144211 0.0882915043
225298650.0 -0.1461148842 0.100258135 0.5012151636 -0.2383108212 0.5013247328 -0.2386735311 -0.1461566201 0.0894870492
230298620.0 -0.14534796 0.1021699346 0.4991634027 -0.2441422978 0.4995564991 -0.2443435442 -0.1455098039 0.090624224
235298590.0 -0.1442550788 0.1037118836 0.4965001497 -0.2503463825 0.496396339 -0.2495682685 -0.1444373737 0.0922681263
240298560.0 -0.1428861592 0.1050098886 0.4935801529 -0.2562329073 0.4937257692 -0.2559008035 -0.1439487668 0.0933399379
245298530.0 -0.1421401488 0.1066644875 0.4911808344 -0.2618240549 0.4906269385 -0.2613820875 -0.1427239187 0.094121572
250298500.0 -0.14057809 0.1081172837 0.4874099696 -0.2673228745 0.4877829979 -0.2667847215 -0.1424431112 0.0955571163
255298470.0 -0.1401429548 0.1091763532 0.4846497724 -0.27245353 0.4851084702 -0.2725886484 -0.1414531577 0.0968378903
260298440.0 -0.1390227977 0.1105742221 0.4817935285 -0.2784125935 0.4818399416 -0.2779010953 -0.1403572667 0.0983164912
265298410.0 -0.1376059797 0.1125540231 0.4791687085 -0.2841804441 0.4793554874 -0.2835802333 -0.1398165294 0.0994203924
270298380.0 -0.1364127102 0.1138387203 0.4760341311 -0.2889530512 0.4758139169 -0.2892556026 -0.1390157114 0.1006714028
275298350.0 -0.1350281171 0.1151727222 0.4725831114 -0.2948437712 0.4728600424 -0.2946749066 -0.1379015407 0.102025573
280298320.0 -0.1338993176 0.1168193132 0.4699889894 -0.3001318127 0.4695665142 -0.2995478733 -0.1368270998 0.1030113453
285298290.0 -0.1327446662 0.1182623485 0.4663444401 -0.3055222982 0.4665358174 -0.3053371956 -0.1359257347 0.1045841291
290298260.0 -0.1313144646 0.1197619048 0.4629759833 -0.3100295489 0.4629821999 -0.3105490036 -0.1350547426 0.1060448404
295298230.0 -0.1301753845 0.1208363495 0.4596573415 -0.3158343905 0.4592147537 -0.3161113085 -0.1336669683 0.1068101309
300298200.0 -0.1293541506 0.1224261839 0.4563780806 -0.3210165273 0.4566381566 -0.3212336434 -0.1330286141 0.1080086749
305298170.0 -0.1278482993 0.1236750426 0.4525456709 -0.3268045785 0.4526349268 -0.3261957635 -0.1313002726 0.1092428907
310298140.0 -0.1265597405 0.1252076651 0.4490534785 -0.3316990074 0.4493093778 -0.3311730489 -0.1308473559 0.1104540345
315298110.0 -0.1252126762 0.1263045049 0.4458013233 -0.3366694036 0.4456679941 -0.3364977367 -0.1296270554 0.1115607413
320298080.0 -0.1239805752 0.1275402332 0.4413411285 -0.3421008672 0.4419230023 -0.3418262157 -0.1287309153 0.1127665617
325298050.0 -0.1226126979 0.1288165735 0.4376363682 -0.3471688882 0.4378765585 -0.3469738552 -0.1282950388 0.114137414
330298020.0 -0.1214558894 0.1300119 0.4337675509 -0.3518042261 0.4341895153 -0.3519080763 -0.1271718336 0.1151822484
335297990.0 -0.1201344939 0.1311832204 0.4297611902 -0.3565990597 0.4298564058 -0.3569285053 -0.1266818927 0.1167526677
340297960.0 -0.1191386646 0.1329023088 0.4257708555 -0.361394679 0.4254140894 -0.3616312002 -0.1251860454 0.1181302526
345297930.0 -0.1179989036 0.1346286322 0.42140589 -0.3662983737 0.4213211682 -0.3661148534 -0.1246872093 0.1189726323
350297900.0 -0.1165642155 0.1355727934 0.4168720487 -0.3711177622 0.4172289694 -0.3709221125 -0.1233646528 0.1211119474
355297870.0 -0.1150538283 0.1375337675 0.4129213717 -0.3752969369 0.4138228152 -0.3753539154 -0.1228631542 0.1222193639
360297840.0 -0.1135794883 0.1387411234 0.4092301255 -0.379918188 0.4093986701 -0.3795793608 -0.1215702279 0.1235546391
365297810.0 -0.1123633963 0.1404132901 0.4050161728 -0.3847099625 0.4052975356 -0.3844864996 -0.1203241155 0.1246806961
370297780.0 -0.1106829556 0.1414388429 0.4005040006 -0.3887922708 0.4010127379 -0.3884862886 -0.1195246159 0.1261029375
375297750.0 -0.1088994215 0.1429088247 0.3962931134 -0.3933170773 0.3967309218 -0.3935236504 -0.1180424945 0.1273398029
380297720.0 -0.1078078751 0.1442360024 0.392157647 -0.3978283193 0.3924061656 -0.3969046965 -0.1175089042 0.1283437349
385297690.0 -0.1064090118 0.1455499546 0.3876024101 -0.4018128598 0.3875416257 -0.4015584754 -0.1159711368 0.1298623276
390297660.0 -0.1048490651 0.1470032805 0.3835341861 -0.406226801 0.3832186676 -0.4057348052 -0.1148208905 0.1310426705
395297630.0 -0.1030243328 0.1482669115 0.3785871493 -0.4103522154 0.3787255471 -0.4101384086 -0.1129428348 0.1323883628
400297600.0 -0.1016084852 0.1496350269 0.3737083448 -0.414597716 0.3744313177 -0.4147534139 -0.112022967 0.1336710511
405297570.0 -0.1001802666 0.1504544511 0.36952507 -0.418321378 0.3698582983 -0.4181147487 -0.1113291129 0.1350223209
410297540.0 -0.0981303548 0.1519898356 0.3651687358 -0.4229036191 0.3653358683 -0.4226136959 -0.109893236 0.1363017688
415297510.0 -0.096523015 0.1530111634 0.3602506094 -0.4268874485 0.3604036283 -0.4267844923 -0.1084172966 0.1373845266
420297480.0 -0.0949907599 0.1546116295 0.3551961026 -0.4305214209 0.3558113633 -0.4303597095 -0.10758053 0.1382367945
425297450.0 -0.0936736632 0.1554101758 0.3513284142 -0.434375389 0.3511638918 -0.4344867657 -0.1064710854 0.1399570775
430297420.0 -0.0919124794 0.1566663442 0.3461277229 -0.4379088386 0.3461946438 -0.4377195226 -0.1051573664 0.1408269664
435297390.0 -0.0900951304 0.1578671273 0.3407560207 -0.441856725 0.3407720865 -0.4419201392 -0.1029251024 0.1418753013
440297360.0 -0.0882149785 0.1588951827 0.3363733118 -0.4452976128 0.3364492463 -0.445700102 -0.1023280238 0.1429778061
445297330.0 -0.0867432975 0.1599193119 0.3321281166 -0.449037215 0.3313572409 -0.4489992833 -0.10065933 0.1437125764
450297300.0 -0.0849336275 0.16095204 0.3265196251 -0.452880181 0.3265664499 -0.4529240427 -0.0993338197 0.1448680792
455297270.0 -0.0830554645 0.1622035522 0.3215518935 -0.4563805353 0.3218930535 -0.4561824434 -0.098094736 0.1458159935
460297240.0 -0.0816295211 0.1631059565 0.3165445701 -0.4598536298 0.3171396849 -0.4599078227 -0.096815657 0.1472407541
465297210.0 -0.0793603507 0.1640933035 0.3116636459 -0.4631371093 0.3117681594 -0.4633290231 -0.095182912 0.1479903134
470297180.0 -0.0777000507 0.1649521358 0.3061481374 -0.4667259284 0.3063290466 -0.466828548 -0.093580557 0.1493619424
475297150.0 -0.0758686631 0.1659292164 0.3011166379 -0.4692331148 0.3017962932 -0.46934284 -0.0917752112 0.1501644735
480297120.0 -0.0741595025 0.1671279123 0.2958187193 -0.4733638996 0.2963055373 -0.4733782294 -0.0903564148 0.1514254446
485297090.0 -0.0725007593 0.1682609373 0.2911958273 -0.4764772333 0.2910950656 -0.4762726554 -0.0890704071 0.1522476965
490297060.0 -0.0706995918 0.1694501678 0.2861596809 -0.479779747 0.2859368354 -0.4794355068 -0.0876532539 0.1534456072
495297030.0 -0.0686934371 0.1698132673 0.2800658659 -0.4821519611 0.281098465 -0.4824284947 -0.0864793445 0.1544367585
500297000.0 -0.0668354666 0.1708874889 0.2751996652 -0.4852701355 0.2749924483 -0.4847743686 -0.0847823605 0.1560063497
505296970.0 -0.0650655445 0.1716823615 0.2700741388 -0.4882266507 0.2696222246 -0.4886109153 -0.0834244349 0.156260517
510296940.0 -0.0630492538 0.1725889341 0.2644791417 -0.4916377303 0.2644166851 -0.4913834871 -0.0815522766 0.1577030616
515296910.0 -0.0612844953 0.1735406284 0.2593556019 -0.4943474662 0.2592392722 -0.4940967357 -0.0802330634 0.1587410276
520296880.0 -0.059138587 0.1745403799 0.25371231 -0.4972619098 0.2539456502 -0.4966827083 -0.0787438733 0.1592375334
525296850.0 -0.0571603808 0.174642926 0.2480206628 -0.4995203869 0.2485851888 -0.4995283483 -0.0775406584 0.1603961518
530296820.0 -0.0553124489 0.1758865092 0.2425934127 -0.5025753809 0.243052304 -0.5022672866 -0.0758799785 0.1612661282
535296790.0 -0.0536801175 0.1764765951 0.2377622018 -0.5045132088 0.2377689126 -0.5042731745 -0.0742350365 0.161825676
540296760.0 -0.0517465242 0.1770422326 0.2320934525 -0.5076440599 0.2320339654 -0.5074439808 -0.0727501009 0.1631471718
545296730.0 -0.0499244401 0.1779530071 0.2260507188 -0.5099049663 0.2263094258 -0.5096307387 -0.0713248347 0.163585564
550296700.0 -0.0475162925 0.1788927406 0.2207692159 -0.5125130829 0.2210440914 -0.5125763527 -0.0700616391 0.1648560799
555296670.0 -0.045825628 0.1791626881 0.2153647517 -0.5142522837 0.215638133 -0.5147218945 -0.0679892396 0.1657822936
560296640.0 -0.0435051427 0.1802163517 0.2098446072 -0.5171533921 0.209898751 -0.5170444698 -0.0668717478 0.1667959319
565296610.0 -0.0419417551 0.1808796832 0.2042017697 -0.5194548634 0.2042862134 -0.5191324232 -0.0651116447 0.1667649311
570296580.0 -0.0401230711 0.181366691 0.198291143 -0.5214966792 0.1978422393 -0.5210231895 -0.0636087905 0.1682746583
575296550.0 -0.0381321674 0.1821663867 0.1928075187 -0.5234772117 0.1925062679 -0.5232563421 -0.0617291116 0.168664797
580296520.0 -0.0358645484 0.1825536143 0.1866755034 -0.5259006229 0.1869082931 -0.5255260768 -0.0597531567 0.1693267218
585296490.0 -0.034132714 0.1826472701 0.1814607141 -0.5270409273 0.1816865288 -0.527320092 -0.0586471271 0.1702425522
590296460.0 -0.0317820383 0.1834602006 0.1754773114 -0.5287030947 0.1758168672 -0.5292942502 -0.0572607027 0.1710645853
595296430.0 -0.0295292728 0.1840473906 0.1696517691 -0.5315058954 0.169601694 -0.5309974498 -0.0552189632 0.1711303818
600296400.0 -0.0282009804 0.1844196451 0.1642674598 -0.5331654567 0.1640094985 -0.532522571 -0.0538058152 0.1722242318
605296370.0 -0.0261963312 0.1846451104 0.1582565262 -0.5347658889 0.1587399487 -0.5347888158 -0.0520293055 0.172700488
610296340.0 -0.0236711039 0.1855379156 0.1520479248 -0.5365623676 0.1524192838 -0.5361177973 -0.0501945551 0.1733920699
615296310.0 -0.0215245696 0.1853309044 0.1462855975 -0.5374551889 0.1462375294 -0.538080058 -0.0482518246 0.1741409559
620296280.0 -0.019826484 0.185692736 0.1406734057 -0.5390209612 0.1406456315 -0.5391376163 -0.047109177 0.1746758743
625296250.0 -0.0175934454 0.1858151199 0.1351802216 -0.541011291 0.1350791414 -0.5411331454 -0.0446622107 0.1749414708
630296220.0 -0.0149012552 0.1866236809 0.1283190461 -0.5421656122 0.1286098415 -0.5419471611 -0.0433266632 0.1760241793
635296190.0 -0.0137043794 0.1865581531 0.1234788524 -0.5432302966 0.1232644751 -0.5432675974 -0.0412863572 0.1763117341
640296160.0 -0.0116143616 0.187140377 0.1174965159 -0.5443897074 0.1177191943 -0.5448681911 -0.039872663 0.1769261411
645296130.0 -0.0091689973 0.187691027 0.1112722755 -0.5454699734 0.1119542328 -0.5462730129 -0.0381523523 0.1775664589
650296100.0 -0.0071881816 0.1876765163 0.1053953037 -0.547144427 0.1055691486 -0.5472291588 -0.0361056438 0.1774108565
655296070.0 -0.0055361746 0.1877125039 0.0995606233 -0.5483318988 0.0998912212 -0.5482630342 -0.034247582 0.178691922
660296040.0 -0.0035390629 0.187652352 0.0936224244 -0.549279415 0.0939811945 -0.5493799166 -0.0325790387 0.1791619875
665296010.0 -0.0007423294 0.1879508442 0.0870164369 -0.5503203303 0.087659301 -0.5501904674 -0.0307073852 0.1799768593
670295980.0 0.0002256548 0.1882427974 0.0818883015 -0.5508997094 0.0816297607 -0.5508878756 -0.0293634887 0.1799805176
675295950.0 0.0024751575 0.1884695692 0.0759866514 -0.5515443844 0.0761011368 -0.5510892138 -0.0276906209 0.1804195315
680295920.0 0.0048815437 0.1885522158 0.0698021644 -0.5524767793 0.0692208398 -0.5530880152 -0.0256251269 0.1814537279
685295890.0 0.0070520897 0.1888968082 0.0639124088 -0.5535267805 0.0637693822 -0.5535116884 -0.0239799373 0.1816575443
690295860.0 0.0091076188 0.1890157351 0.0578155359 -0.5532341258 0.0578206239 -0.5540007469 -0.0225342806 0.1825141036
695295830.0 0.0110944644 0.1887742668 0.0523928419 -0.554430406 0.0516563118 -0.5545465926 -0.0204471847 0.1828418667
700295800.0 0.0133337992 0.1885206414 0.0458226071 -0.554726309 0.0454598071 -0.5547669898 -0.0190787339 0.1832999946
705295770.0 0.0151715759 0.189185105 0.0396946012 -0.555257276 0.0403439072 -0.5552933696 -0.0173475761 0.1833811272
710295740.0 0.0173250638 0.1888040943 0.0340917013 -0.5561297667 0.0339587746 -0.5560179555 -0.0153949272 0.1835373654
715295710.0 0.019178854 0.1887620306 0.0282730631 -0.5561733716 0.0275043494 -0.5559262199 -0.0134204337 0.1836240267
720295680.0 0.021545115 0.1884426474 0.0220415502 -0.5562716042 0.0219810938 -0.5564749917 -0.0117379793 0.1846193556
725295650.0 0.0238233354 0.1886330531 0.0158816949 -0.556646424 0.0159421719 -0.5564503698 -0.0103384446 0.1847246465
730295620.0 0.0259256791 0.1887585991 0.0094752414 -0.5564511385 0.0102379958 -0.5568130366 -0.0087226617 0.1849156018
735295590.0 0.0277486308 0.1885192833 0.0037926634 -0.5567536162 0.0038926137 -0.5565720977 -0.0069637689 0.1846926086
740295560.0 0.0296670738 0.1884523907 -0.0021531237 -0.5563480128 -0.002087652 -0.5565827923 -0.0045083207 0.1855269808
745295530.0 0.0319352849 0.18787189 -0.0082915165 -0.5559916151 -0.0081229215 -0.5566474809 -0.0027888196 0.1851515503
750295500.0 0.0340153599 0.1876920228 -0.0140561677 -0.5559734163 -0.0140071141 -0.5562032343 -0.0010365386 0.1855268486
755295470.0 0.0358926574 0.1873706572 -0.0200219982 -0.5562316036 -0.0197759765 -0.5560128527 0.0011247999 0.1852610803
760295440.0 0.0380135433 0.1873436895 -0.026024488 -0.5560101331 -0.0260580012 -0.5564207817 0.0024743682 0.1855208048
765295410.0 0.0397567531 0.1870606336 -0.0319306196 -0.5556894545 -0.0321079836 -0.5560086141 0.0043183371 0.1859515024
770295380.0 0.041928422 0.1866450249 -0.0384024239 -0.5550650602 -0.0381707421 -0.5551105048 0.0059537455 0.1856994471
775295350.0 0.0438167416 0.1860327622 -0.0442814894 -0.5541267032 -0.0435217333 -0.5544857533 0.0075959242 0.1860992045
780295320.0 0.0462568159 0.1857966671 -0.0503404253 -0.5535893509 -0.0492556335 -0.5538801369 0.0095206721 0.1856847016
785295290.0 0.0478569032 0.1851207295 -0.0564251597 -0.5532374929 -0.055737803 -0.5533277343 0.0119232091 0.1861573786
790295260.0 0.0505592802 0.1852938168 -0.0617556578 -0.5526192912 -0.0608155409 -0.5523363873 0.0133436088 0.1861286809
795295230.0 0.0523065887 0.1845111507 -0.0678956169 -0.5521736364 -0.0672619825 -0.552006945 0.015499066 0.1864128957
800295200.0 0.0539260498 0.1841856201 -0.0739067921 -0.5509122454 -0.0738762007 -0.5511950203 0.0172618437 0.1861337934
805295170.0 0.0564547857 0.1835662781 -0.080133015 -0.5502088591 -0.0797128311 -0.5502671476 0.0192257355 0.1863181819
810295140.0 0.0581783816 0.182818561 -0.0852226865 -0.549125168 -0.0856963498 -0.5496488786 0.0213472245 0.1861951142
815295110.0 0.0601232913 0.1822269388 -0.0918121776 -0.548139638 -0.0911431468 -0.5484245109 0.0228844594 0.1859904607
820295080.0 0.0620779941 0.1822849149 -0.0974834662 -0.5473694194 -0.0970413235 -0.5474767322 0.0246549416 0.1859275912
825295050.0 0.0646753058 0.1814177377 -0.1032286285 -0.5457744049 -0.1032668652 -0.5460444119 0.0264956883 0.1861555859
830295020.0 0.0662354344 0.1810514655 -0.1094093516 -0.5448108505 -0.1089654744 -0.5450275733 0.0289141307 0.1860213513
