!Created with skrf (http://scikit-rf.org).
# Hz S RI R 50.0 
!freq ReS11 ImS11 ReS21 ImS21 ReS12 ImS12 ReS22 ImS22
300000.0 -0.7695919371 -0.1765735309 -0.000660381 -0.0001136161 0.0011161394 0.0028984926 -0.7661544767 -0.1933782425
5299970.0 -0.7863090226 -0.0090590493 -1.34365e-05 0.0001597857 -4.05628e-05 -0.0001147691 -0.7849754739 -0.0096713537
10299940.0 -0.7889932632 -0.005859711 9.69021e-05 -4.2889e-06 -0.0002466619 -7.104e-07 -0.7873997451 -0.0053920006
15299910.0 -0.7939831623 -0.003347581 2.92309e-05 -0.0002140304 -5.15593e-05 -0.0001481919 -0.7931898254 -0.0025983097
20299880.0 -0.800976797 0.0008848645 6.5334e-05 7.7016e-06 6.92062e-05 -0.0001918061 -0.7997735801 0.0015635988
25299850.0 -0.8077300118 0.0068986756 0.0001059728 -0.0001726923 0.0001295115 0.0003753963 -0.8062491302 0.0077963927
30299820.0 -0.8137619617 0.0140175198 -0.0001014956 0.0001129207 -0.0001280572 0.0001393123 -0.812259984 0.0157772132
35299790.0 -0.8184259304 0.0229078293 -0.0001145008 -0.000183195 -0.0001008444 -9.88439e-05 -0.8173651414 0.0248017949
40299760.0 -0.8233232056 0.0320272209 6.38665e-05 0.0001193149 -8.97973e-05 -7.56864e-05 -0.8213781402 0.0341447602
45299730.0 -0.8265193489 0.0418395687 -2.19151e-05 -7.28495e-05 0.0002459521 -0.0001286666 -0.8242078306 0.0435011311
50299700.0 -0.8291196634 0.052098788 2.68667e-05 6.82957e-05 -2.44033e-05 0.0002672177 -0.8268879271 0.0538505816
55299670.0 -0.8313895638 0.0616694216 -6.3222e-05 5.49707e-05 0.0001093694 0.0001448839 -0.8286165316 0.0638118442
60299640.0 -0.8328610463 0.0716811434 -0.0001142221 -8.2618e-06 7.85421e-05 5.36973e-05 -0.8298171913 0.0739310215
65299610.0 -0.833400517 0.0814228614 -0.000230666 0.0001673983 2.00507e-05 6.46098e-05 -0.83047876 0.0838672764
70299580.0 -0.8338955495 0.0912148068 2.01576e-05 4.51589e-05 -0.0001760451 5.38864e-05 -0.8314734185 0.0935357175
75299550.0 -0.8338967626 0.1017149875 -0.0002697161 -2.48703e-05 3.80838e-05 8.82636e-05 -0.8309346133 0.1040361691
80299520.0 -0.8337527824 0.111891527 -8.71448e-05 5.13182e-05 -2.97442e-05 -0.0002033341 -0.8305569222 0.1140600657
85299490.0 -0.8327468884 0.1213082631 0.0001288419 0.0002443093 -3.79228e-05 -0.0001794728 -0.8300674257 0.1233110545
90299460.0 -0.8321434852 0.1315402965 1.29751e-05 1.20472e-05 -3.52616e-05 3.62884e-05 -0.8290946427 0.1324059834
95299430.0 -0.8315673966 0.1402563319 -7.97951e-05 2.21565e-05 5.43225e-05 -0.0001449761 -0.8281819595 0.1427239914
100299400.0 -0.8302795501 0.1498130085 -3.36724e-05 7.0253e-06 -6.6362e-06 -6.55533e-05 -0.8273764551 0.1520666589
105299370.0 -0.8287493516 0.1588367542 -8.1297e-06 0.0001346536 -0.0001957616 8.54554e-05 -0.8258323244 0.1609310226
110299340.0 -0.8272690365 0.1683403306 -3.9736e-05 -0.000132244 -0.0001988984 0.0001430577 -0.824434057 0.1699375104
115299310.0 -0.8257287528 0.1774146619 -9.04682e-05 -5.69039e-05 0.0001308111 4.87394e-05 -0.8232394344 0.1789306433
120299280.0 -0.8243550108 0.1867592895 0.0002204161 5.03944e-05 0.0001399504 -0.0001080036 -0.8209105596 0.1881851648
125299250.0 -0.8225920738 0.1958579946 -5.38413e-05 0.0002736412 -0.0001489643 0.0001521798 -0.8197356252 0.1969917743
130299220.0 -0.8207382663 0.2054962009 0.0002347386 -0.0001848284 6.27618e-05 -0.0001398451 -0.8172339349 0.2062452694
135299190.0 -0.8191180278 0.2143328112 -0.0003122486 -0.0002050558 -0.0001312877 -5.49219e-05 -0.8163187452 0.2150416313
140299160.0 -0.8175901309 0.2233465678 -0.0001899735 0.0001137839 -0.0001804814 -6.04892e-05 -0.8140071914 0.2234511683
145299130.0 -0.8148927241 0.2321026821 0.0001783284 -7.1344e-06 3.2923e-05 -9.86357e-05 -0.8123060259 0.2323723619
150299100.0 -0.8122282376 0.2409223966 0.0001661648 -6.81154e-05 0.0001572809 8.39746e-05 -0.8099905095 0.2416733327
155299070.0 -0.8096519982 0.24954195 -0.0001786971 -9.49833e-05 6.02637e-05 0.0001391445 -0.8072769819 0.2504087619
160299040.0 -0.8079636466 0.2590779645 0.0001879808 9.68094e-05 2.00304e-05 -2.71674e-05 -0.8043725189 0.2593307267
165299010.0 -0.8046762868 0.267303514 0.0002173357 -0.0001753121 -8.72633e-05 0.0002235845 -0.8020335839 0.2674041985
170298980.0 -0.8018015155 0.2763293219 0.0001312543 0.0001369506 -4.81833e-05 0.0003108573 -0.7994669521 0.2752574523
175298950.0 -0.799287538 0.2847271819 0.0001172709 -1.86797e-05 -3.2856e-06 -3.7737e-05 -0.79644861 0.2851569475
180298920.0 -0.7962970186 0.2933304797 -0.0001062939 7.61773e-05 9.47829e-05 8.71461e-05 -0.7931027213 0.2931680923
185298890.0 -0.7923329641 0.3017784563 -0.0001177413 -1.9716e-06 -3.38427e-05 0.0002501886 -0.790663019 0.3013952362
190298860.0 -0.7891102573 0.3115937314 2.4198e-06 3.05747e-05 -7.45719e-05 -0.0001456796 -0.7874191504 0.3101176975
195298830.0 -0.7863251017 0.3187703237 3.90463e-05 9.84519e-05 -0.0001971046 -0.0001911124 -0.7839237169 0.3180000869
200298800.0 -0.7829941402 0.3277712581 -1.61906e-05 0.0002185433 0.00012341 -3.62168e-05 -0.780927458 0.3268331811
205298770.0 -0.7790766902 0.3362015022 1.19165e-05 3.81814e-05 -5.97601e-05 -9.268e-06 -0.7775095223 0.3351285294
210298740.0 -0.7761960866 0.344635204 -0.0001808195 -0.0002035825 5.58533e-05 -6.4129e-05 -0.7739356265 0.3433787188
215298710.0 -0.7722802664 0.353150433 -9.41706e-05 -5.91672e-05 0.0002313505 1.8741e-05 -0.7705613392 0.3512252639
220298680.0 -0.7686684281 0.3607701753 -5.13827e-05 -5.627e-06 2.0297e-05 -7.0808e-06 -0.766634115 0.3591323316
225298650.0 -0.7647635176 0.3694387291 -0.0001870585 -0.0001150602 0.0002742009 4.73221e-05 -0.7635988415 0.3680036335
230298620.0 -0.7610255958 0.3775905134 -4.21411e-05 -4.95161e-05 5.77766e-05 5.50692e-05 -0.7589564987 0.3756068431
235298590.0 -0.7573203633 0.3860073393 -3.81677e-05 -4.74573e-05 0.0001845395 -0.0001886112 -0.754991568 0.3834569927
240298560.0 -0.7529437559 0.3934811951 -9.514e-07 -5.99821e-05 -3.62917e-05 6.41561e-05 -0.7512182767 0.3910818012
245298530.0 -0.7488476006 0.4017597024 0.0001618932 -5.07885e-05 0.000179785 8.85835e-05 -0.7471186004 0.3986935716
250298500.0 -0.7447005548 0.4088854582 -0.0001774815 5.02362e-05 0.0001279513 7.42944e-05 -0.7431157963 0.4068450766
255298470.0 -0.7405874109 0.4175601438 -4.75858e-05 0.0001434177 0.0001292113 0.0001220853 -0.7390180303 0.41490407
260298440.0 -0.736186902 0.425004091 -2.97875e-05 -4.09083e-05 -0.0001492465 0.00013232 -0.7341244837 0.4216624914
265298410.0 -0.7318793614 0.432620498 8.73283e-05 0.0001058357 3.29735e-05 -9.88398e-05 -0.7298649266 0.4300810311
270298380.0 -0.7271477679 0.4403186589 4.75885e-05 0.0001301051 -0.0002149682 5.5455e-06 -0.7250873613 0.4375401939
275298350.0 -0.7230556942 0.4480891318 1.75757e-05 7.9688e-05 0.0001215225 4.73528e-05 -0.7205701513 0.4457551364
280298320.0 -0.7183107438 0.4552062481 0.0001542422 -9.73766e-05 2.45334e-05 4.1508e-06 -0.7158715595 0.4530003351
285298290.0 -0.7132455178 0.4635365511 -8.8054e-05 -0.0001069502 -0.000158893 7.5833e-05 -0.7117332167 0.460741593
290298260.0 -0.7088327742 0.4706470374 -0.0001054052 0.0001347395 0.0002168971 -7.50709e-05 -0.705889077 0.4673195943
295298230.0 -0.7038851851 0.4778874658 4.07269e-05 -6.99974e-05 -4.4729e-05 -2.23568e-05 -0.7014750948 0.474730284
300298200.0 -0.6996296551 0.4850576037 5.22738e-05 -1.56701e-05 -3.43162e-05 -6.54603e-05 -0.696595705 0.4824384881
305298170.0 -0.694289498 0.4921950646 -0.0001139044 0.0002055722 -2.09247e-05 -0.0001894911 -0.6918752327 0.4888964725
310298140.0 -0.6892270995 0.499461015 0.0001935328 -0.0001092769 -2.46626e-05 -4.36895e-05 -0.6864512399 0.4967993577
315298110.0 -0.6843674341 0.5071249186 -5.48001e-05 2.93486e-05 6.58392e-05 3.56336e-05 -0.6813720967 0.503902493
320298080.0 -0.6789401613 0.514350942 -7.50551e-05 7.29279e-05 1.13305e-05 0.0001544239 -0.6759429732 0.5106870362
325298050.0 -0.673039324 0.5210098872 0.0001738246 -3.89603e-05 5.38173e-05 7.67905e-05 -0.6704604513 0.5179620336
330298020.0 -0.6680913724 0.5280557581 -6.06634e-05 -4.26554e-05 -1.03204e-05 0.0002489838 -0.6647688803 0.5247175255
335297990.0 -0.6626855515 0.5346855668 -0.0001466751 0.0001889434 0.0001322535 -4.11141e-05 -0.6592294593 0.5314887723
340297960.0 -0.6576045346 0.5415456565 0.0001150445 -7.54482e-05 -2.73789e-05 -2.14236e-05 -0.6547278455 0.5388315989
345297930.0 -0.6521015836 0.5481468862 -5.2844e-05 2.62088e-05 4.17514e-05 0.0001211403 -0.6487810359 0.5447808187
350297900.0 -0.6464173607 0.5549546694 -0.0001891758 1.54252e-05 -7.59781e-05 -2.97535e-05 -0.6431492215 0.5514413155
355297870.0 -0.641183134 0.5614799056 -3.3756e-05 -6.55355e-05 9.71195e-05 7.07321e-05 -0.6370098159 0.5585687502
360297840.0 -0.6345976449 0.5679673719 -5.86273e-05 -0.0001278606 2.54412e-05 -1.02068e-05 -0.630826928 0.5646864071
365297810.0 -0.629468872 0.5744643634 -3.105e-05 -1.39451e-05 8.57684e-05 -0.000238736 -0.6258014928 0.570655449
370297780.0 -0.6233027951 0.5805487186 -1.21e-07 -2.31636e-05 6.01765e-05 8.32938e-05 -0.6189779764 0.5778585254
375297750.0 -0.6177553377 0.5869131433 7.8998e-06 6.14394e-05 0.0001877454 -0.000133309 -0.6134370186 0.5838427593
380297720.0 -0.6122301625 0.5934598538 -0.0001988682 7.68477e-05 0.000123346 4.1534e-06 -0.6071777672 0.5903100419
385297690.0 -0.6056370314 0.5992364654 0.0001388279 0.0001240428 0.000121202 -7.46992e-05 -0.6009731258 0.596356271
390297660.0 -0.5986117544 0.6055344326 5.21144e-05 1.93069e-05 -0.0003090209 6.016e-06 -0.5940364279 0.602320905
395297630.0 -0.5932694626 0.6118771114 -4.59595e-05 0.0001737532 0.0001360208 0.0001431139 -0.5877825808 0.6078639874
400297600.0 -0.58717513 0.6180861936 -0.0001451501 -9.7415e-06 0.0001204783 -6.2296e-06 -0.5828568863 0.6141416904
405297570.0 -0.5805183582 0.6236895313 0.000169892 6.22474e-05 2.01313e-05 8.82281e-05 -0.5754533807 0.6201074891
410297540.0 -0.5735084037 0.6297037171 -0.0001225773 -0.0001110746 -3.91102e-05 8.21094e-05 -0.5698136 0.6259990052
415297510.0 -0.56773472 0.6354826428 -5.2306e-05 -6.79611e-05 6.86763e-05 9.24202e-05 -0.5626048905 0.6312300473
420297480.0 -0.5607969316 0.6407264735 -1.08556e-05 0.0001952313 -6.35874e-05 -1.59648e-05 -0.556514976 0.6373909917
425297450.0 -0.5542949568 0.646092048 -0.0002335748 0.0001102475 0.0001041623 -7.956e-07 -0.5495220049 0.6424500504
430297420.0 -0.5480201114 0.6520100349 8.90805e-05 0.0001613041 -0.0002345507 6.35521e-05 -0.5435857406 0.6484828803
435297390.0 -0.5415164832 0.6578707858 1.9248e-06 5.377e-06 -4.50304e-05 5.3912e-05 -0.5367022914 0.6544494176
440297360.0 -0.5340910327 0.6631050742 9.53669e-05 0.0001199932 5.40196e-05 -0.0001249151 -0.5306921593 0.6592906478
445297330.0 -0.5269644602 0.6680340653 -0.0001249519 5.73319e-05 0.0001729224 -3.8368e-06 -0.5229333535 0.665216413
450297300.0 -0.5203968073 0.6742072783 -0.0001468206 0.0001613281 -2.21917e-05 3.37342e-05 -0.5158499658 0.6694783852
455297270.0 -0.5138313445 0.6787276538 6.63936e-05 -0.0001342918 8.82322e-05 0.0001351364 -0.5089459134 0.6753543422
460297240.0 -0.5055358786 0.6838207609 0.0002211268 6.69502e-05 2.56245e-05 2.8206e-05 -0.5023722806 0.6800013548
465297210.0 -0.4993958399 0.6888926951 0.0001108207 -0.0001008983 0.0001181085 -3.84128e-05 -0.4950151615 0.6859084956
470297180.0 -0.4917528171 0.6940912003 -3.7582e-05 -4.55254e-05 -0.000242641 -0.0001478721 -0.4877515173 0.6904927869
475297150.0 -0.4844732841 0.6986066426 -4.79247e-05 4.31256e-05 4.85275e-05 -6.66705e-05 -0.4814169929 0.695123403
480297120.0 -0.4765705061 0.7040140188 7.8175e-05 5.14244e-05 -1.72729e-05 8.3517e-06 -0.4744263103 0.7002548431
485297090.0 -0.4703216022 0.7086449613 -2.26928e-05 0.0002278932 2.69746e-05 -4.51854e-05 -0.4669233225 0.7042893259
490297060.0 -0.4616114687 0.7131716565 2.3242e-05 0.0001357802 -0.0001153166 -9.08112e-05 -0.4594317433 0.7088097242
495297030.0 -0.4548940749 0.7179355634 0.0001622503 -0.0001947175 -5.19965e-05 -7.53424e-05 -0.4523961415 0.7138538169
500297000.0 -0.4474905383 0.7219506375 -7.61962e-05 -0.0001135539 4.24644e-05 0.0001766446 -0.4447753956 0.7182741477
505296970.0 -0.4391698938 0.7269228696 -0.0001011972 3.095e-05 -2.89533e-05 6.73614e-05 -0.4374923173 0.7224715376
510296940.0 -0.4321551089 0.7314231923 2.61987e-05 4.42378e-05 0.0001717863 4.9163e-06 -0.4300978074 0.7275948575
515296910.0 -0.4246987006 0.7355379198 -4.2028e-05 0.0003117672 1.27885e-05 4.18804e-05 -0.4235803848 0.7311096723
520296880.0 -0.4159946237 0.7399764386 -2.43496e-05 -4.63041e-05 -0.0001158547 0.0001195576 -0.4153061228 0.7362056056
525296850.0 -0.4086739452 0.7440520186 -4.7672e-06 1.8744e-06 4.99163e-05 1.45845e-05 -0.4081441328 0.7400435441
530296820.0 -0.4010416377 0.7474794189 2.41547e-05 4.50741e-05 9.62466e-05 0.0001373567 -0.4007474455 0.7434542459
535296790.0 -0.3929568877 0.7520235155 6.62762e-05 -0.0001686073 7.05236e-05 -6.86845e-05 -0.3929528938 0.7480639619
540296760.0 -0.3849442659 0.7556702917 -1.83742e-05 2.5664e-05 -7.7339e-06 5.3817e-05 -0.3850531625 0.7511789956
545296730.0 -0.3780582933 0.7601383449 -2.49926e-05 -8.17168e-05 0.0001429279 -2.9335e-05 -0.377900976 0.7552517792
550296700.0 -0.3691032427 0.7632636546 -8.91202e-05 9.87617e-05 0.0001198322 0.000110786 -0.3701075108 0.7587265033
555296670.0 -0.3616238638 0.7669172996 0.0001509034 0.0001383448 -4.8654e-05 0.0001382222 -0.3626375322 0.762426243
560296640.0 -0.3530817823 0.7706101609 -7.23156e-05 -0.0001248748 -0.0001397301 -0.0001198095 -0.3541991723 0.7662235553
565296610.0 -0.3456979445 0.7739269672 -1.04228e-05 0.0001894274 2.41416e-05 -0.0002236786 -0.3467826621 0.7696288404
570296580.0 -0.3372041126 0.77787405 -4.86603e-05 6.35192e-05 2.57316e-05 1.9716e-05 -0.3392142115 0.773200995
575296550.0 -0.3280552412 0.7815211684 -5.27143e-05 9.78206e-05 8.62364e-05 1.4483e-05 -0.3308204682 0.7763131773
580296520.0 -0.3210030151 0.7846596398 6.53115e-05 1.55154e-05 1.73631e-05 9.99091e-05 -0.3236874491 0.7792330109
585296490.0 -0.3126937529 0.787440809 2.93928e-05 0.0001229 -3.03274e-05 -9.0645e-06 -0.3155096317 0.7833366631
590296460.0 -0.3042161622 0.7909161738 -0.0002259389 -1.79665e-05 -0.000149008 3.14204e-05 -0.307297792 0.7857736331
595296430.0 -0.2961261693 0.793907538 0.0001338486 4.02569e-05 1.50266e-05 -0.0002055718 -0.2997063876 0.7890953341
600296400.0 -0.2881606622 0.7960416764 -7.6939e-05 -1.95995e-05 0.0001130904 4.1698e-06 -0.2920282006 0.7917133711
605296370.0 -0.2795740673 0.7994147541 0.0001019285 7.10823e-05 -8.5424e-06 7.39303e-05 -0.2840643323 0.7952240251
610296340.0 -0.2715030475 0.8023994782 -0.0001538503 1.97277e-05 -9.27419e-05 -0.0001481459 -0.2761877667 0.7976815222
615296310.0 -0.2632902564 0.8052926694 -0.0001045676 -0.0002895694 -6.5754e-05 -4.99555e-05 -0.267614834 0.8004806877
620296280.0 -0.2555678412 0.8081561699 0.000216383 -0.0002133226 0.0001936928 1.53019e-05 -0.2600699148 0.8030349579
625296250.0 -0.2475982005 0.8102690697 0.000237912 -1.09638e-05 -0.0001761236 0.0003051149 -0.2513367728 0.8053190284
630296220.0 -0.2386207607 0.8134495298 0.0002099553 -5.01894e-05 5.68049e-05 0.0001658234 -0.2437867539 0.8078900729
635296190.0 -0.2305472677 0.8148849086 8.92904e-05 1.14825e-05 5.10872e-05 -2.60404e-05 -0.2353611231 0.8097960021
640296160.0 -0.2213377734 0.8177482176 0.0001380056 0.0001684754 3.721e-06 -0.0001641497 -0.2275592938 0.8123406349
645296130.0 -0.2133688503 0.8203858436 0.0001481665 0.000187022 -0.0001251162 0.0001150813 -0.2191529173 0.8146098452
650296100.0 -0.2054676182 0.8218692543 -7.70796e-05 0.0002253502 -0.0001214884 3.3699e-05 -0.2109984291 0.8167065852
655296070.0 -0.1979374252 0.8242080886 0.0001208638 -1.06038e-05 0.0001137236 3.1495e-06 -0.2030941824 0.8187802542
660296040.0 -0.1890179101 0.8261051385 0.0002135438 0.0001428563 -9.26958e-05 -0.0001111659 -0.1944313697 0.8213180302
665296010.0 -0.1810691342 0.82891313 -1.55661e-05 0.0002570685 1.10643e-05 -0.0001163159 -0.1863571181 0.8225856715
670295980.0 -0.1731737995 0.8306917359 -0.0001165884 0.0001469962 -0.0001798611 -5.98546e-05 -0.1787030873 0.8244021332
675295950.0 -0.1640894623 0.8314018278 0.0001215357 0.0002276492 -3.08813e-05 5.20045e-05 -0.170338846 0.8261947783
680295920.0 -0.1565737792 0.8336096127 2.89593e-05 -9.70213e-05 -8.2028e-05 7.13648e-05 -0.1614255469 0.8278828504
685295890.0 -0.1476419299 0.8356674224 -6.8926e-05 -4.53725e-05 -8.235e-05 -7.08942e-05 -0.1531706673 0.8297220716
690295860.0 -0.1391174257 0.8365564955 -0.0001569142 -1.49034e-05 8.4964e-06 7.35527e-05 -0.1450246066 0.8311852242
695295830.0 -0.1310112323 0.8384241324 -0.0001112116 -0.0001617416 0.0001161141 -0.0001441007 -0.1373322049 0.832878122
700295800.0 -0.1226532642 0.8399623916 1.23487e-05 -4.09797e-05 7.022e-07 0.0001789957 -0.1283422918 0.8337503629
705295770.0 -0.114192002 0.841342446 -7.75916e-05 -3.25673e-05 1.00122e-05 -2.49506e-05 -0.1203856127 0.8352236391
710295740.0 -0.1073626072 0.8422620233 4.6568e-06 5.25151e-05 6.83013e-05 0.0001791254 -0.1113529364 0.8361782672
715295710.0 -0.0978128534 0.8439615698 0.0001553889 0.0001372045 9.05768e-05 -0.0002232538 -0.1031314092 0.8364886037
720295680.0 -0.0885934469 0.8442361585 3.62144e-05 -1.88508e-05 -2.76772e-05 9.7398e-06 -0.0949343224 0.8375231896
725295650.0 -0.0816841113 0.8458369222 0.000106849 8.78797e-05 3.91525e-05 0.0001083833 -0.0867051902 0.8392899623
730295620.0 -0.0738657869 0.8464030157 0.0002245816 5.85692e-05 7.8699e-06 -0.0001328734 -0.078907238 0.8405754361
735295590.0 -0.0653500571 0.8476344327 2.39161e-05 -8.757e-07 6.32751e-05 5.46784e-05 -0.0697636006 0.8406416011
740295560.0 -0.0574499235 0.8479763555 4.82784e-05 0.0001428781 0.0001053082 -0.0001164445 -0.0618620732 0.8417838235
745295530.0 -0.0494276188 0.84865684 -0.0001739055 -4.83072e-05 -0.000210593 3.2592e-05 -0.0533093118 0.8416089033
750295500.0 -0.0411122037 0.8492401041 0.0001926005 3.08306e-05 -3.64623e-05 -4.31564e-05 -0.0451712002 0.8422230717
755295470.0 -0.0323485064 0.849940313 3.3069e-05 7.26213e-05 -2.49176e-05 5.32862e-05 -0.0368100977 0.843125773
760295440.0 -0.0240476811 0.8510758942 -6.80161e-05 0.0002356413 8.2309e-06 5.56203e-05 -0.0279371545 0.842989171
765295410.0 -0.0160964616 0.8504834069 -0.000127472 0.0002528026 5.29708e-05 4.83675e-05 -0.0198128074 0.8432759544
770295380.0 -0.0084388323 0.8511644962 6.9606e-06 -3.60218e-05 -2.47291e-05 -5.60353e-05 -0.0116168881 0.8433794501
775295350.0 -0.0002725472 0.8508192519 0.00012723 -3.10857e-05 -2.8884e-05 0.0001267938 -0.0033738156 0.8431558193
780295320.0 0.008612029 0.8511759878 0.0001135396 -0.0001111194 1.14775e-05 -5.54433e-05 0.0051515036 0.8432494381
785295290.0 0.0164555801 0.8509945335 -3.52878e-05 -2.6044e-05 -0.0001348724 -0.0001014012 0.0132752927 0.8435481184
790295260.0 0.0248832627 0.850540156 -0.0001103237 4.11268e-05 -2.09109e-05 0.0001120816 0.0219061262 0.8435785247
795295230.0 0.0329777359 0.8508363675 7.4075e-05 -9.64803e-05 6.38462e-05 -0.0001447803 0.0301926115 0.8424728795
800295200.0 0.0412658913 0.8504467367 -5.97996e-05 -0.0001338253 -5.33047e-05 -0.0001263212 0.0383287917 0.8424661576
805295170.0 0.0488432506 0.850805303 8.99387e-05 -8.2682e-05 -5.01167e-05 0.0001646243 0.0472542633 0.8420145779
810295140.0 0.058076985 0.8499130607 -7.69805e-05 1.73858e-05 -4.39377e-05 -0.0002725321 0.0559361206 0.8412570496
815295110.0 0.0657525875 0.8498068657 -0.0001904009 -8.53991e-05 -9.90181e-05 -7.69941e-05 0.0630680042 0.8411167884
820295080.0 0.0738814695 0.848702779 -0.0002490101 -8.98811e-05 -0.0001544376 7.47634e-05 0.0716761756 0.8405757067
825295050.0 0.0816320701 0.8481088237 0.000139974 0.0001497935 7.46554e-05 3.41935e-05 0.0799410728 0.839461254
830295020.0 0.0909806669 0.847489815 -4.53707e-05 0.0001033003 -0.0001143289 0.0001330103 0.0880916922 0.8382604584
835294990.0 0.0978360518 0.8466726545 -0.0001546767 0.0002506656 -5.07001e-05 -3.77106e-05 0.0971736599 0.83799924
840294960.0 0.1066704525 0.8450761824 -8.8948e-06 -9.51869e-05 -5.92646e-05 -7.32384e-05 0.10533478 0.8368017879
845294930.0 0.1149069748 0.8444168361 0.0001076816 -0.0002510885 -6.76644e-05 6.81917e-05 0.113765661 0.835730258
850294900.0 0.1240227576 0.8432612325 0.000147434 5.78365e-05 0.0001116609 0.0001461017 0.1212418657 0.8347275237
