!Created with skrf (http://scikit-rf.org).
# Hz S RI R 50.0 
!freq ReS11 ImS11 ReS21 ImS21 ReS12 ImS12 ReS22 ImS22
300000.0 0.8585934451 -0.0022377683 -0.0006737828 0.0004094627 -0.0003850849 -0.0003973552 -0.7746770816 -0.1349654662
5299970.0 0.8589550095 -0.0099083574 1.21968e-05 -3.35161e-05 3.82745e-05 -0.0001755357 -0.7848918828 -0.0069613304
10299940.0 0.8579808195 -0.0187278517 3.21772e-05 6.3992e-06 8.50379e-05 0.0001595007 -0.7876241787 -0.0035022324
15299910.0 0.8566212655 -0.0274620337 -0.000260402 1.41855e-05 -0.0001963743 0.000177487 -0.7936644322 -0.0014716983
20299880.0 0.8563348347 -0.035305339 1.74958e-05 0.0001849556 0.0001061222 -0.0001452598 -0.7997230175 0.0021653274
25299850.0 0.855540757 -0.0438800557 0.0002179041 -0.0002105323 2.9959e-05 0.0001160587 -0.8058610765 0.0083977914
30299820.0 0.855088623 -0.0526941077 2.5285e-06 -5.94995e-05 0.0001779616 -5.55919e-05 -0.8123094236 0.0163091359
35299790.0 0.8543051266 -0.060275878 0.0001535155 1.58138e-05 -7.17306e-05 4.42883e-05 -0.8172425061 0.0250179271
40299760.0 0.8530350632 -0.0692210735 7.34107e-05 2.49308e-05 -3.34381e-05 6.09594e-05 -0.8211467407 0.0344897976
45299730.0 0.8529121881 -0.0774292932 0.0002932728 -0.0001247437 -1.37177e-05 -2.56998e-05 -0.8254671935 0.0438303455
50299700.0 0.8521154847 -0.0849497265 0.000121611 2.76203e-05 -6.30436e-05 6.00689e-05 -0.8271310071 0.0542493435
55299670.0 0.8510801944 -0.0940442756 -3.96679e-05 -7.5963e-06 -9.31628e-05 9.82711e-05 -0.8298831103 0.064426212
60299640.0 0.8495659488 -0.1012609422 -7.30965e-05 -1.81799e-05 6.0541e-06 -0.0001695125 -0.8307135217 0.0742755242
65299610.0 0.8485185815 -0.1102113786 1.1696e-06 -6.10861e-05 0.0001206265 3.42084e-05 -0.8317092726 0.0844491551
70299580.0 0.8472800743 -0.1183738867 0.0001230413 -4.7301e-06 1.57138e-05 0.0002549901 -0.8317266637 0.0946112741
75299550.0 0.8463180333 -0.1262562333 -0.0001416167 6.33959e-05 -9.84862e-05 -1.09161e-05 -0.8321921592 0.103939655
80299520.0 0.844858272 -0.135103027 -0.0001093104 3.0367e-05 -3.81688e-05 8.2785e-05 -0.8323550343 0.1136833952
85299490.0 0.843427518 -0.1428314217 -9.1033e-05 9.07784e-05 9.57487e-05 -7.69468e-05 -0.8315702558 0.123649542
90299460.0 0.8415448176 -0.1512565354 -0.0001347837 -6.82484e-05 -0.0001015181 -0.0001666879 -0.8308278638 0.1330705422
95299430.0 0.8400630734 -0.1597920277 0.0001465638 9.21427e-05 5.76938e-05 0.0001202623 -0.8293073668 0.1428955667
100299400.0 0.8382718265 -0.167673706 0.0001234528 -5.71246e-05 -0.0001913967 7.44213e-05 -0.8289115789 0.1522721946
105299370.0 0.8371520125 -0.1758457181 8.09858e-05 -8.8923e-05 6.19638e-05 -0.0001061011 -0.8269450716 0.1608379186
110299340.0 0.8353748219 -0.1844002665 -4.56559e-05 1.567e-07 7.6208e-06 0.0001760278 -0.8255833309 0.1710464257
115299310.0 0.8330873982 -0.1923906188 0.000136515 2.60748e-05 -1.50883e-05 -7.47529e-05 -0.8244794357 0.1799059667
120299280.0 0.8315255898 -0.2002801949 0.0002512441 -7.85922e-05 -0.0001655824 6.9291e-05 -0.8224541768 0.1889195467
125299250.0 0.8294258303 -0.2086489831 1.44572e-05 0.0001066834 -5.95477e-05 -4.83019e-05 -0.8207205707 0.1978940874
130299220.0 0.8275948236 -0.2167773786 -6.33275e-05 -0.0001225105 -1.70631e-05 -9.56816e-05 -0.8189288901 0.2070111077
135299190.0 0.8253502971 -0.2239018368 0.0001043763 0.0002134974 -8.89046e-05 5.54999e-05 -0.8166121146 0.2157183391
140299160.0 0.8231089712 -0.232263046 0.0001655795 -7.96241e-05 7.95173e-05 0.0001160425 -0.8148963776 0.2249966462
145299130.0 0.8202816712 -0.2408381908 0.0001477965 -2.24391e-05 -4.5264e-05 3.29993e-05 -0.8123448574 0.234407394
150299100.0 0.8182771891 -0.2486800836 0.0001557492 -0.0002393814 -0.000124284 0.0001922908 -0.810712743 0.2430953734
155299070.0 0.8153372231 -0.2570424705 -0.0001346635 1.44143e-05 4.62511e-05 -3.87542e-05 -0.8075910529 0.2518888547
160299040.0 0.8128427581 -0.2647833821 -5.37652e-05 -5.64216e-05 7.95047e-05 -5.90655e-05 -0.8052958288 0.2605916397
165299010.0 0.8107481341 -0.2725937622 6.88018e-05 0.0002714021 0.0002839369 -5.20315e-05 -0.8028999955 0.2696327394
170298980.0 0.8076968927 -0.2806172723 -9.84307e-05 7.86404e-05 3.66697e-05 9.06525e-05 -0.7996317267 0.2780129229
175298950.0 0.8047167342 -0.2888176373 -7.96429e-05 -2.44439e-05 0.0001383456 -2.6346e-06 -0.7970670002 0.2867397944
180298920.0 0.8017529068 -0.2962114594 6.6691e-06 -0.0001251944 -0.0001035814 5.87157e-05 -0.7940312821 0.2953050901
185298890.0 0.7985154235 -0.3042472542 -5.81136e-05 -0.00012876 -4.51256e-05 -0.0002240816 -0.7907156245 0.3040772268
190298860.0 0.7954895897 -0.3120957928 -4.3271e-06 -4.62663e-05 -8.85463e-05 0.0001598121 -0.7879325654 0.3127595028
195298830.0 0.7928065992 -0.3195219699 -2.078e-06 0.0001141687 7.05637e-05 0.0001503635 -0.7845666953 0.3212388439
200298800.0 0.7893039443 -0.3269850633 7.62852e-05 -0.0002775348 7.65863e-05 -9.37315e-05 -0.7817754926 0.3292994526
205298770.0 0.7856539279 -0.3346754028 -9.12858e-05 -1.3315e-06 -7.14934e-05 0.0001456192 -0.7781520029 0.3377148959
210298740.0 0.7824637298 -0.3423212649 -7.81203e-05 -1.56558e-05 0.0001146515 8.41082e-05 -0.7743461316 0.3461629305
215298710.0 0.7794620976 -0.3507738249 0.0001345781 4.58381e-05 -0.0001410167 1.62318e-05 -0.7711568245 0.353799911
220298680.0 0.7757928701 -0.3580167482 -3.2424e-05 0.0001185152 0.0001241909 1.933e-06 -0.7678086964 0.3619411859
225298650.0 0.7721342363 -0.3658280012 0.0001655652 2.28269e-05 -8.2e-06 -8.21547e-05 -0.7642569808 0.3701427463
230298620.0 0.7683662479 -0.3730858057 -4.15095e-05 0.0001337532 0.0001421811 -8.20197e-05 -0.7601095382 0.3785030988
235298590.0 0.7646838295 -0.38013347 -1.73498e-05 -8.59322e-05 -0.0003051917 0.0003178627 -0.7557202952 0.3872060871
240298560.0 0.7614187614 -0.3875949658 -2.33466e-05 -1.48256e-05 -0.000140511 1.05858e-05 -0.7516897905 0.3954197174
245298530.0 0.7571270027 -0.3950621206 8.2098e-06 -0.0001709226 -9.91128e-05 -5.76784e-05 -0.7479902121 0.4023461408
250298500.0 0.753133102 -0.40237274 1.51631e-05 -1.99396e-05 8.96689e-05 8.94126e-05 -0.7437675261 0.4101719024
255298470.0 0.7488013418 -0.4099478317 0.0001026569 -1.65718e-05 0.0001063649 9.61469e-05 -0.7383376636 0.4180543532
260298440.0 0.744582019 -0.4170160381 7.9191e-06 -9.26267e-05 -0.0001156643 -0.0001871228 -0.734611659 0.4263411079
265298410.0 0.7410715686 -0.4246432448 -4.72758e-05 5.07259e-05 8.35804e-05 4.30335e-05 -0.7304591184 0.4337518459
270298380.0 0.7368061442 -0.4316075649 3.64433e-05 -1.38409e-05 0.0001835833 -6.11036e-05 -0.7254724097 0.4412978755
275298350.0 0.7324740733 -0.4386462535 0.0001126766 0.0001042221 0.0002177313 4.31604e-05 -0.7207302177 0.4485526035
280298320.0 0.7277025664 -0.4461752047 -0.000286601 3.11878e-05 -6.47052e-05 -1.42093e-05 -0.7158811853 0.4557784025
285298290.0 0.7244771627 -0.4533562189 0.0002105614 3.09369e-05 -6.31962e-05 -6.10258e-05 -0.7109230224 0.4636781224
290298260.0 0.7198953268 -0.4600796492 9.63458e-05 8.15802e-05 -2.06695e-05 6.89788e-05 -0.7063311454 0.4709268803
295298230.0 0.7155816966 -0.4673063919 -0.0001638823 -4.50117e-05 8.16866e-05 -8.98e-07 -0.7011683647 0.4779622812
300298200.0 0.7111222809 -0.4748317632 -1.88308e-05 -7.77496e-05 -0.0001394536 0.0001054909 -0.6961890153 0.4854357246
305298170.0 0.7069756207 -0.4816270918 0.0001107256 -2.83336e-05 -0.0001743415 2.7605e-06 -0.6902643392 0.4930298305
310298140.0 0.7024068335 -0.4890390021 0.0001650349 -7.61491e-05 0.000309433 5.09697e-05 -0.6858190067 0.500102186
315298110.0 0.6977656702 -0.4964702412 -1.70222e-05 0.0001685617 0.0001252311 -0.0001243702 -0.6800446675 0.5069101221
320298080.0 0.6931908603 -0.5042292914 0.0002640715 0.0001111079 8.00501e-05 -7.49104e-05 -0.6750997017 0.5144709965
325298050.0 0.6874218444 -0.5104431383 0.0001947849 0.0001009177 0.0001054739 0.0002082736 -0.6690568578 0.5211837303
330298020.0 0.6819430433 -0.5179872578 -0.0001393859 9.1789e-05 8.33322e-05 -0.0002155449 -0.6639879539 0.5286241878
335297990.0 0.6755050454 -0.5252261198 0.0001352785 7.54651e-05 9.11113e-05 9.48207e-05 -0.6588024642 0.5355146807
340297960.0 0.6701049116 -0.5318642117 1.06658e-05 -0.000177757 -3.55428e-05 -3.38975e-05 -0.6526533667 0.5423263875
345297930.0 0.664083135 -0.5379231549 6.7254e-06 -0.0001933323 2.49112e-05 4.05133e-05 -0.6470679422 0.5486480541
350297900.0 0.658122125 -0.5442167144 -0.0001662424 9.67729e-05 -0.0001437455 -0.0002046605 -0.6416691117 0.5554239184
355297870.0 0.6521633596 -0.5505205302 -8.5225e-05 0.0001055072 8.43535e-05 0.0001047634 -0.6355967522 0.562228517
360297840.0 0.6467641503 -0.5560455727 0.0001038482 -6.71488e-05 8.02976e-05 0.0001150719 -0.6297581348 0.5691848544
365297810.0 0.6407621948 -0.5626721672 0.0001096938 7.63497e-05 -6.96117e-05 0.0001222213 -0.6236498499 0.5753735412
370297780.0 0.635795771 -0.5685716514 8.55819e-05 0.000100103 7.45451e-05 1.48478e-05 -0.6175334273 0.5820750041
375297750.0 0.6294755164 -0.5745564328 -0.0001011652 -8.3954e-06 -7.9733e-06 -6.18288e-05 -0.6115397892 0.5882116446
380297720.0 0.6239144412 -0.580704294 6.91164e-05 8.50915e-05 -0.0001320469 -8.73981e-05 -0.6056520347 0.5945671331
385297690.0 0.6183124984 -0.5870624941 4.31041e-05 -0.0001099981 9.6014e-05 9.72692e-05 -0.5993153401 0.6005017689
390297660.0 0.6117909416 -0.5921159662 2.47234e-05 6.78251e-05 -9.58135e-05 -0.0001067068 -0.5933047227 0.606706598
395297630.0 0.6064784139 -0.5981661883 -7.87367e-05 -8.9952e-06 5.07632e-05 -0.0001088348 -0.5862493356 0.6131639029
400297600.0 0.6004766242 -0.6039791322 0.0001757939 0.000160995 -0.0002066378 -9.76221e-05 -0.5805739583 0.6194648019
405297570.0 0.5943391181 -0.609758192 8.82596e-05 -2.811e-06 4.46968e-05 2.45603e-05 -0.5739198713 0.624919512
410297540.0 0.5882751206 -0.6162447579 6.49728e-05 -1.2872e-06 -0.0001890472 0.0001275073 -0.5675052991 0.6310417197
415297510.0 0.5821332589 -0.6217493482 0.0001576775 0.0001030933 -3.70427e-05 0.0001175322 -0.5611879545 0.6366257313
420297480.0 0.5760679041 -0.6267774832 1.34422e-05 -0.0001591152 2.25989e-05 -7.34351e-05 -0.5542764735 0.6428381437
425297450.0 0.5693943458 -0.6325730146 -1.89645e-05 -8.04546e-05 -4.60245e-05 -2.63929e-05 -0.5479332834 0.6478878692
430297420.0 0.5630773661 -0.6379420322 -3.98888e-05 -3.5863e-05 -6.80846e-05 -5.79911e-05 -0.5415575509 0.653289343
435297390.0 0.5569615364 -0.6432123075 2.96038e-05 -9.98788e-05 -0.000102428 -0.0001310694 -0.5344982283 0.6585785807
440297360.0 0.5501437394 -0.6488844808 -6.0873e-06 7.7616e-06 -5.28688e-05 0.0001043457 -0.5275582627 0.6639668017
445297330.0 0.5439918469 -0.6543377035 -0.0001860049 0.0001395839 -5.0433e-05 -6.18733e-05 -0.5204856116 0.6687643346
450297300.0 0.5379439117 -0.6592630378 -0.0001792184 -1.13317e-05 0.0001782344 -4.51827e-05 -0.5133159411 0.6744035201
455297270.0 0.5311377333 -0.6645635678 7.11281e-05 -0.0001648382 7.94142e-05 3.1486e-06 -0.506327039 0.6784901171
460297240.0 0.5245934129 -0.6696370126 4.6145e-06 -0.0002310865 -1.23958e-05 -0.0002014765 -0.4996869376 0.6846267119
465297210.0 0.5174870554 -0.6752033238 -0.0002266962 -8.38104e-05 -8.48365e-05 -0.0001189743 -0.492184121 0.6892264946
470297180.0 0.5109802349 -0.6795175596 7.8993e-06 0.0001118013 -6.35309e-05 -7.81312e-05 -0.484809801 0.6945466148
475297150.0 0.5040464091 -0.684734113 4.93212e-05 -0.0002202512 -0.0001873946 0.0001048392 -0.4778069658 0.6986971745
480297120.0 0.4968857648 -0.6893551484 0.0002050605 -0.0001614904 -5.74503e-05 7.49531e-05 -0.4704021539 0.7036889551
485297090.0 0.4904967349 -0.6946577507 0.0002495063 -3.57553e-05 -5.50185e-05 -8.38617e-05 -0.463320966 0.70873288
490297060.0 0.4832876805 -0.6990810451 3.0997e-06 -4.16642e-05 0.0001729673 -0.0001642799 -0.4560067922 0.712352265
495297030.0 0.4761504939 -0.7029803529 -1.76909e-05 5.01938e-05 -0.0001590384 5.67021e-05 -0.4483767955 0.7181487137
500297000.0 0.4693455949 -0.7083546394 7.32596e-05 -0.0001232657 0.0001450591 -7.12305e-05 -0.4407341881 0.7227042477
505296970.0 0.462654661 -0.7131448569 5.2676e-06 0.000130457 8.67617e-05 0.0001287271 -0.4336152491 0.7268851465
510296940.0 0.4551105108 -0.717709587 -9.61592e-05 -0.0002535366 0.0001719269 -2.59568e-05 -0.4262014949 0.7313063101
515296910.0 0.4487650963 -0.7215859429 3.24792e-05 8.46179e-05 1.93772e-05 8.8418e-06 -0.4185608967 0.7359414741
520296880.0 0.4405062874 -0.7261563168 -0.0001938143 0.0001495185 -6.42156e-05 1.56698e-05 -0.4106506536 0.7392864711
525296850.0 0.4339092 -0.730002833 -0.0001497323 0.0001121986 8.75617e-05 -0.0002666189 -0.4042567426 0.7435308378
530296820.0 0.4264471576 -0.7343991276 -2.46449e-05 -1.34731e-05 1.0588e-05 -3.11321e-05 -0.3962725425 0.7477792633
535296790.0 0.4187201086 -0.7382293951 -3.59728e-05 -0.000114156 6.5641e-05 8.18301e-05 -0.389364609 0.7514241693
540296760.0 0.4112980403 -0.741905551 -0.0002837848 -0.0001083352 4.82448e-05 0.0001350488 -0.3810571801 0.7558525426
545296730.0 0.4041476682 -0.7463187104 5.60727e-05 2.13531e-05 0.0001367928 3.3363e-06 -0.3733427296 0.7591214596
550296700.0 0.3974586874 -0.7492989675 -1.00144e-05 -2.38659e-05 -6.44696e-05 -2.05151e-05 -0.3652139793 0.7630956284
555296670.0 0.3892265178 -0.7534509227 3.46975e-05 -4.43775e-05 -1.14295e-05 0.0001187134 -0.3579541361 0.7672755584
560296640.0 0.3816873123 -0.7574255428 -6.70841e-05 3.69777e-05 -3.54809e-05 -6.55849e-05 -0.3502438583 0.7711021753
565296610.0 0.3746648692 -0.7607683973 -0.0001716695 4.87989e-05 3.7924e-05 2.38127e-05 -0.3422460535 0.7738878594
570296580.0 0.3662683604 -0.7644940275 -0.0001164673 -7.59849e-05 -0.0001250386 -0.0001064092 -0.3348707303 0.778069569
575296550.0 0.3588915465 -0.7680432146 3.0737e-05 -0.0001114567 -0.0001607303 -8.13869e-05 -0.3266687564 0.7808379742
580296520.0 0.3516427909 -0.7713743761 -6.3578e-06 -6.17406e-05 0.0001618928 0.00017631 -0.3176743051 0.7843070504
585296490.0 0.3428947107 -0.7749758444 -9.49008e-05 -2.52127e-05 -0.0001245703 0.0001183801 -0.3109779511 0.7870745837
590296460.0 0.3359799331 -0.7775309826 -0.0001254434 -0.0001743609 -1.2379e-05 7.17277e-05 -0.3027244791 0.7900030788
595296430.0 0.327995245 -0.781121544 -0.0001065103 7.13754e-05 -3.5524e-05 1.4098e-05 -0.2948904332 0.7925498377
600296400.0 0.320332673 -0.7844306847 4.73711e-05 0.0002634905 -0.0001341467 0.000185166 -0.2865870091 0.7957987266
605296370.0 0.3119052474 -0.7871674772 -0.0001744815 0.0001312559 -4.82153e-05 3.10956e-05 -0.2781340928 0.799042723
610296340.0 0.3043697607 -0.7902748538 -2.56321e-05 -0.0002385356 8.43032e-05 4.85164e-05 -0.2703702094 0.8010824324
615296310.0 0.2968136384 -0.7930758395 -0.0001405993 -0.0001311849 -0.0001550804 9.21581e-05 -0.2619561423 0.8033381419
620296280.0 0.2887044623 -0.7953850124 0.0002283989 7.22666e-05 -6.31938e-05 -0.0001638406 -0.254142323 0.8066086701
625296250.0 0.2808087536 -0.7987259444 0.0001016814 0.0001232821 -0.0001119852 0.0002875027 -0.245244939 0.8083282647
630296220.0 0.2730601407 -0.8015727699 6.43787e-05 0.000156914 1.22921e-05 0.0002575367 -0.2374093955 0.8112856948
635296190.0 0.2647495751 -0.8037803484 3.38925e-05 -0.0001445696 0.0001347933 0.0001921735 -0.2294406947 0.812941576
640296160.0 0.256488434 -0.8066650753 -0.0001556948 0.0002068066 -2.1236e-05 0.0001809176 -0.2209444923 0.8158115346
645296130.0 0.2484610176 -0.8083356243 0.0002367835 8.53508e-05 7.58129e-05 -5.6709e-06 -0.2131208544 0.8175053311
650296100.0 0.2409876847 -0.8107579502 1.93542e-05 0.0001639966 2.59068e-05 8.56736e-05 -0.204678469 0.8188651631
655296070.0 0.2324107954 -0.8133262161 6.22338e-05 -0.0001012778 -9.9151e-05 -0.0002297842 -0.1958847509 0.8208270792
660296040.0 0.2247338589 -0.815778696 0.0001495088 0.0002133108 4.67345e-05 -0.0001275422 -0.1874391344 0.8235847529
665296010.0 0.2161342956 -0.8176454677 0.0001119037 1.25533e-05 -5.44546e-05 0.0002022558 -0.1793402257 0.8260410614
670295980.0 0.2077092353 -0.8191682035 0.0001057096 -0.0001142417 -3.03787e-05 5.28251e-05 -0.171865448 0.8271526479
675295950.0 0.1999118446 -0.8208742987 -8.1681e-05 0.000153286 -0.0002206304 0.0001205245 -0.1633894656 0.8287111623
680295920.0 0.1918078548 -0.8229139271 -2.74625e-05 5.80436e-05 -0.0001827173 3.366e-05 -0.1548044268 0.8316546657
685295890.0 0.1836923898 -0.8242864182 9.25297e-05 -0.0001753576 -0.0001955421 9.46602e-05 -0.1457621717 0.8315377926
690295860.0 0.1758017707 -0.8265136779 0.000199877 -3.76126e-05 9.015e-06 -6.70061e-05 -0.1384586542 0.8338777955
695295830.0 0.1672844665 -0.8277063896 2.8712e-06 -0.0001314684 -0.0001113819 -3.38114e-05 -0.1294602976 0.8350308163
700295800.0 0.1587395406 -0.8295862454 5.7697e-05 0.000100426 0.0002241204 4.15388e-05 -0.1219044299 0.8361827263
705295770.0 0.1506174991 -0.8307597591 9.11402e-05 -5.63459e-05 -3.40722e-05 -0.0002100764 -0.1136083581 0.8383020104
710295740.0 0.1417615675 -0.8319868384 -0.0001857415 -2.55076e-05 -0.0001455291 5.456e-06 -0.1045920043 0.8387903031
715295710.0 0.1334219948 -0.8340965842 6.88375e-05 4.66084e-05 7.08114e-05 -1.13128e-05 -0.0960156133 0.8393963812
720295680.0 0.1253725964 -0.8348482049 -7.35187e-05 4.5211e-06 -6.16655e-05 -2.74981e-05 -0.087852917 0.8404506616
725295650.0 0.1167490938 -0.8350138117 -6.48532e-05 8.27729e-05 -1.91725e-05 -0.00014355 -0.079891512 0.8418120983
730295620.0 0.1090238027 -0.8361169374 0.0001636168 -5.51189e-05 0.0001213796 5.41151e-05 -0.0717733542 0.8423743256
735295590.0 0.1003380012 -0.8369874304 -0.0002460033 -0.0003100167 6.98645e-05 9.30594e-05 -0.063288769 0.8422324637
740295560.0 0.0920662768 -0.8379244894 5.61626e-05 -7.39423e-05 7.70256e-05 -0.0001369883 -0.0539918763 0.8436896079
745295530.0 0.0832064033 -0.8386254449 -7.6247e-06 -0.0001555522 0.0001484149 -2.52214e-05 -0.0458639528 0.8438952825
750295500.0 0.0753818339 -0.839626504 -3.41206e-05 -2.6576e-05 3.3708e-06 -7.21784e-05 -0.0377263784 0.8445658806
755295470.0 0.0658713516 -0.8401746746 -1.89514e-05 5.33341e-05 3.78457e-05 0.0003063485 -0.028826422 0.8441260696
760295440.0 0.058125478 -0.8403611912 -2.85919e-05 7.20654e-05 7.82021e-05 0.0001561836 -0.020712523 0.844743653
765295410.0 0.0499855425 -0.8404563942 1.03331e-05 -8.56995e-05 -9.84768e-05 -0.0001438654 -0.0124219779 0.8451494252
770295380.0 0.0413804006 -0.8409170272 3.36678e-05 -0.0002739653 -5.06581e-05 -8.40038e-05 -0.0043870626 0.8449535848
775295350.0 0.0327222752 -0.84150615 -9.4014e-06 1.8668e-06 0.0001640336 0.000142368 0.0039411626 0.8444318144
780295320.0 0.0251418461 -0.8414133948 -9.41103e-05 6.69369e-05 2.66845e-05 6.84058e-05 0.0124043815 0.8439538779
785295290.0 0.0159100487 -0.8419739355 -4.9065e-06 -6.62808e-05 4.5443e-05 8.78173e-05 0.0211491444 0.8441360266
790295260.0 0.0079358907 -0.8416530694 0.0001996295 -3.44709e-05 -8.20711e-05 -9.45273e-05 0.0298805449 0.8443167338
795295230.0 -0.0006180013 -0.8414828571 0.0001000253 -1.44676e-05 -0.0001354675 5.85081e-05 0.0385166395 0.8430792948
800295200.0 -0.0094398941 -0.8410569047 9.74655e-05 -0.0002862326 0.0002119758 -8.61994e-05 0.0473344176 0.8429726921
805295170.0 -0.0177324587 -0.8411723444 -2.34061e-05 6.54934e-05 -1.61489e-05 0.0002799658 0.0550791199 0.8427995807
810295140.0 -0.0258058841 -0.8401690346 0.0002190078 4.21565e-05 -1.00321e-05 -0.000136319 0.0635673517 0.8415986215
815295110.0 -0.0342970258 -0.8405121079 4.01638e-05 -7.658e-07 9.69129e-05 -0.0002253832 0.0724118335 0.8411564251
820295080.0 -0.0427085385 -0.8390838865 5.39174e-05 3.8392e-06 2.35049e-05 0.0002040122 0.0806408997 0.8406195181
825295050.0 -0.0504970928 -0.8389394492 1.48107e-05 1.22654e-05 0.0002374319 7.48703e-05 0.0888345852 0.8396656231
830295020.0 -0.059284235 -0.8385084298 0.0001288671 -0.0001164788 0.0001443481 -6.39436e-05 0.0977479845 0.8390185646
835294990.0 -0.0673002899 -0.8373706541 0.0002664502 -0.0003049436 -3.35472e-05 6.38353e-05 0.1054891061 0.8376550364
840294960.0 -0.0758932885 -0.8363817266 9.95715e-05 -0.000255015 0.0002140315 7.84076e-05 0.1144278563 0.8364857646
845294930.0 -0.0841182089 -0.8353818232 -3.62102e-05 -4.75738e-05 0.0001867373 1.05107e-05 0.1217067461 0.8353714111
850294900.0 -0.091861252 -0.8348107237 9.1161e-06 -9.81583e-05 -0.0001373656 2.30761e-05 0.1301028142 0.8343228235
