!Created with skrf (http://scikit-rf.org).
# Hz S RI R 50.0 
!freq ReS11 ImS11 ReS21 ImS21 ReS12 ImS12 ReS22 ImS22
300000.0 -0.2390090957 -0.1008624032 0.4666724877 0.0675773596 0.4675529439 0.0707012314 -0.2366572029 -0.1117636956
5299970.0 -0.2436776055 0.007101967 0.4739623842 0.0052157516 0.4737815145 0.0058653021 -0.2437069832 0.0056047443
10299940.0 -0.2405143579 0.0198807692 0.4761222707 0.0065245393 0.4756269778 0.0065797822 -0.2410089979 0.0182295564
15299910.0 -0.2360356145 0.0292637235 0.4795321031 0.0076702118 0.4795308899 0.0079072406 -0.2365791994 0.0274962511
20299880.0 -0.2305149067 0.0372588271 0.4839823776 0.0085081882 0.4843486057 0.0082210507 -0.232146235 0.0355487348
25299850.0 -0.2248325925 0.0434755881 0.4895806689 0.007368031 0.489688739 0.0074923785 -0.2268845246 0.0416785973
30299820.0 -0.2189609806 0.0488234036 0.4952453832 0.0056366415 0.4948422907 0.0053627486 -0.2217378975 0.0469013973
35299790.0 -0.2131116911 0.0527670185 0.5000697723 0.0024518504 0.5002928763 0.002315416 -0.2161931491 0.051145
40299760.0 -0.2075888236 0.0558045983 0.5056056143 -0.0019099198 0.5057694891 -0.0013403857 -0.2117205613 0.0545304537
45299730.0 -0.2023945005 0.0585264228 0.5102460202 -0.0065661638 0.5102184273 -0.0064105822 -0.2068053726 0.0573627598
50299700.0 -0.1976415337 0.060155696 0.5140670694 -0.0123537964 0.5144928927 -0.0120935754 -0.20210816 0.0595621925
55299670.0 -0.1935978561 0.0618574586 0.5177138227 -0.0179755719 0.5183487426 -0.017861846 -0.1984677568 0.0616367993
60299640.0 -0.1893690931 0.0628250317 0.5212555475 -0.0246364067 0.5217362969 -0.0243179194 -0.1946367054 0.0633085249
65299610.0 -0.1859445655 0.0639256126 0.5244645158 -0.0300175358 0.5248025998 -0.0305026948 -0.1910804066 0.0645737328
70299580.0 -0.1826747271 0.0643506489 0.5269227809 -0.0368233748 0.526937076 -0.0375251567 -0.1878799273 0.0658193879
75299550.0 -0.1795685655 0.0651981461 0.5284612618 -0.0439263223 0.5288814402 -0.0439687679 -0.1850893047 0.0668157718
80299520.0 -0.1773711144 0.0657258946 0.5311760942 -0.0507494452 0.5308969639 -0.0508459318 -0.1827077862 0.0676868402
85299490.0 -0.1748441488 0.065802994 0.5321008652 -0.0579718659 0.5320174763 -0.0577561146 -0.1801415579 0.0683896321
90299460.0 -0.1726592493 0.0664664312 0.5329077792 -0.0644938218 0.5332816153 -0.0648116548 -0.1776471531 0.0691546931
95299430.0 -0.1705822248 0.0672674677 0.5341547008 -0.0720420549 0.5342887471 -0.071817036 -0.1758089026 0.0701338862
100299400.0 -0.168520628 0.0676637479 0.5342132396 -0.07845249 0.534491684 -0.0790131838 -0.1742267425 0.0708791545
105299370.0 -0.1669693487 0.0680134237 0.5343998226 -0.084990511 0.5347421618 -0.085833506 -0.1720613323 0.0720070046
110299340.0 -0.1655799497 0.0684852433 0.5347525208 -0.0919814427 0.5350884849 -0.0926797297 -0.170712782 0.0726316336
115299310.0 -0.1640084214 0.0687980109 0.5348300187 -0.0987811487 0.5350413807 -0.0985499866 -0.1689123137 0.0729300962
120299280.0 -0.1630932658 0.0694170082 0.5349754566 -0.1059724861 0.5349163851 -0.105970135 -0.1681390845 0.0743789121
125299250.0 -0.1617885598 0.0697325598 0.5342994825 -0.1125890576 0.5342511507 -0.1128324386 -0.1663207713 0.0746561487
130299220.0 -0.1606628801 0.0703975288 0.5335581161 -0.1189243088 0.5338193948 -0.1195027158 -0.16524278 0.0758603223
135299190.0 -0.1594147241 0.0711379831 0.5333634967 -0.1256679679 0.532758257 -0.1258815957 -0.1643112502 0.0768241012
140299160.0 -0.1585419566 0.0722628868 0.5322244481 -0.1326635857 0.5324869553 -0.1330346143 -0.1626514131 0.0780314616
145299130.0 -0.1574547855 0.0729328699 0.5316526269 -0.1394161476 0.5315158036 -0.138916908 -0.1621394912 0.0788631767
150299100.0 -0.1567536754 0.0733864965 0.5303177221 -0.1456530043 0.5302993649 -0.1458043644 -0.1608685844 0.0798287388
155299070.0 -0.1558648151 0.0747502785 0.5292024722 -0.1525061473 0.5294633714 -0.1527197682 -0.1602441004 0.081231252
160299040.0 -0.154924594 0.0755095747 0.5275206012 -0.1584468912 0.5279235517 -0.1589251672 -0.1589537722 0.0826054519
165299010.0 -0.154272234 0.0761430092 0.5267642536 -0.1651218242 0.5266176611 -0.1651772394 -0.1578096512 0.0831724234
170298980.0 -0.1537802212 0.0773017652 0.524222403 -0.1714759147 0.5248304242 -0.1716141489 -0.15705128 0.0844703429
175298950.0 -0.1528167876 0.0782611467 0.5237066882 -0.1777308084 0.523448858 -0.1776174187 -0.1560031913 0.0855871245
180298920.0 -0.1517423512 0.0794011976 0.5212434431 -0.1842464999 0.5216330903 -0.184148122 -0.154937594 0.0870622193
185298890.0 -0.1510083529 0.0802431668 0.519330522 -0.1904820325 0.5196331316 -0.1901078245 -0.1542622731 0.08797904
190298860.0 -0.1502782948 0.0812477545 0.5175850379 -0.1967814753 0.5179662029 -0.1967090968 -0.1527069768 0.0893831317
195298830.0 -0.1496039107 0.0819984519 0.515512858 -0.2024851971 0.515951845 -0.2029498618 -0.1521746399 0.0902784896
200298800.0 -0.1488923366 0.083346377 0.5139073307 -0.2081453153 0.5136582801 -0.2087765549 -0.1507922731 0.0920603766
205298770.0 -0.1484078141 0.0846384947 0.511802024 -0.2147566498 0.511539492 -0.2148827383 -0.1498813176 0.0931047566
210298740.0 -0.147539769 0.0855658869 0.5093099199 -0.2212797041 0.5093211126 -0.2207784343 -0.1490445622 0.0946725336
215298710.0 -0.1465037835 0.0871646149 0.5067553799 -0.2268986559 0.5068595529 -0.2266300831 -0.1483005799 0.0959722036
220298680.0 -0.1461336497 0.0879759567 0.5047769035 -0.2329565463 0.5044624161 -0.232617685 -0.1470310921 0.0978228223
225298650.0 -0.1448479417 0.0892647273 0.5020440919 -0.2382462814 0.5020545135 -0.2379995735 -0.1463160795 0.0991278239
230298620.0 -0.1445190222 0.0906582824 0.499752257 -0.2439709743 0.4999775312 -0.2441153316 -0.1448336135 0.1002656741
235298590.0 -0.1436693767 0.0917091706 0.4967371845 -0.2499122086 0.4970351094 -0.2503058034 -0.1438720367 0.1013593711
240298560.0 -0.1432238246 0.0930389777 0.4943346141 -0.2557271685 0.4944851841 -0.2554905242 -0.1430828911 0.1031729505
245298530.0 -0.1418514096 0.0943132322 0.4907106154 -0.261772739 0.4914702543 -0.2616802595 -0.1417659544 0.1049362391
250298500.0 -0.1414637756 0.0952004344 0.4885696982 -0.2664885053 0.4888877976 -0.2665771245 -0.1403268307 0.1058616462
255298470.0 -0.1406193684 0.0967388905 0.4855328408 -0.2728488587 0.4859023571 -0.2725519541 -0.1395796801 0.1073422108
260298440.0 -0.139781176 0.0980036544 0.482659623 -0.2780002292 0.4826671707 -0.2784613496 -0.1378857364 0.1091346063
265298410.0 -0.1387057028 0.099468181 0.479744417 -0.2839327586 0.4798029967 -0.2839577348 -0.1374761657 0.110213666
270298380.0 -0.1376721587 0.1004115291 0.4758098661 -0.2886310596 0.4765617493 -0.2895133131 -0.135651015 0.1119418087
275298350.0 -0.1371348802 0.1020955082 0.4732295393 -0.2948413068 0.4738744178 -0.2949427577 -0.13462546 0.1133638299
280298320.0 -0.1361209081 0.1034132 0.4701208765 -0.2995086624 0.470087845 -0.30025333 -0.133511487 0.1150752891
285298290.0 -0.1349895577 0.1048479873 0.4667416292 -0.3052149335 0.4670502138 -0.3054055311 -0.1324772833 0.1162212904
290298260.0 -0.1342503424 0.1063188379 0.4635628698 -0.3106419523 0.4636965071 -0.3107317715 -0.1307420774 0.1178768143
295298230.0 -0.1331197581 0.107399368 0.4605351763 -0.3159903818 0.4601768799 -0.3159539524 -0.1295817718 0.1194318629
300298200.0 -0.1319819858 0.1083519741 0.4568367684 -0.3210629109 0.457022665 -0.3213134069 -0.128381849 0.1207266652
305298170.0 -0.1311105998 0.1095165551 0.4536648039 -0.3266642913 0.4535386387 -0.326706758 -0.1265741954 0.1224378821
310298140.0 -0.1296913908 0.110665868 0.45001069 -0.3317761608 0.4500422933 -0.3322732624 -0.1253501973 0.1240820152
315298110.0 -0.1291736075 0.1119858029 0.44609133 -0.3370893731 0.4461916855 -0.3369471221 -0.1238942703 0.1251064013
320298080.0 -0.1280527783 0.1133112754 0.4427542517 -0.3424451036 0.4428207411 -0.3421842836 -0.1228639687 0.1263405464
325298050.0 -0.1276044547 0.1139636243 0.4392924063 -0.3470862684 0.4388386712 -0.3473994527 -0.1214358019 0.1276742338
330298020.0 -0.126198287 0.1156028183 0.4340123492 -0.352137102 0.4344746831 -0.3525523468 -0.1204855786 0.1290946258
335297990.0 -0.125187205 0.1168332255 0.4303757337 -0.3570923337 0.4307171083 -0.3570772106 -0.1187766835 0.1305383547
340297960.0 -0.12478008 0.1181471696 0.4262077249 -0.3619936004 0.426391261 -0.3620622051 -0.1175905668 0.1319847522
345297930.0 -0.1237809969 0.1194088055 0.4222442902 -0.3660709722 0.4217906085 -0.3662425139 -0.1163125358 0.1332265012
350297900.0 -0.12220432 0.1208330414 0.4180774509 -0.3706691402 0.4183368648 -0.3713472288 -0.1148616002 0.1353011281
355297870.0 -0.1214541795 0.1220837545 0.4138810419 -0.3754289212 0.414172181 -0.3757378817 -0.1141725694 0.1366162869
360297840.0 -0.1201330808 0.123503142 0.4101397166 -0.3804732862 0.4097750724 -0.3803436419 -0.1120002378 0.1380892411
365297810.0 -0.1189775093 0.1246414465 0.4053471016 -0.3845647408 0.4056609984 -0.3848232671 -0.1107236096 0.1396761278
370297780.0 -0.1177659566 0.1259868694 0.4012980059 -0.389115245 0.4015127435 -0.3897999694 -0.1091039317 0.1412928892
375297750.0 -0.1167728403 0.1275839601 0.3972281188 -0.3933884732 0.3972352624 -0.3939001097 -0.1076871566 0.1422204959
380297720.0 -0.115319119 0.128272449 0.3927170327 -0.3977830294 0.3927277056 -0.3978127941 -0.1061657338 0.1438393593
385297690.0 -0.1142803589 0.1297417021 0.3880623364 -0.4015094701 0.3880893981 -0.4021781594 -0.1045483845 0.1454898056
390297660.0 -0.1131843981 0.1309635212 0.383555166 -0.4067986104 0.3839627424 -0.4067197898 -0.1029231161 0.1465079569
395297630.0 -0.1114511859 0.1319812251 0.3794881728 -0.4103163504 0.379291006 -0.4106494501 -0.1014286062 0.1479160992
400297600.0 -0.1106288452 0.1337090748 0.374867366 -0.4149556671 0.3749836301 -0.4150477294 -0.1004052806 0.1490110993
405297570.0 -0.1092753163 0.1347444303 0.3700693692 -0.4188794877 0.3703347799 -0.4192709842 -0.0987587543 0.1507008471
410297540.0 -0.1078781658 0.1357852969 0.3651995446 -0.4228484995 0.3655054033 -0.423030596 -0.0969833735 0.1519249905
415297510.0 -0.1067270724 0.1374731111 0.3608455616 -0.4268335912 0.3607950566 -0.4268839847 -0.0953187773 0.1536902231
420297480.0 -0.1053771099 0.1377981397 0.3561971998 -0.4307647142 0.3560824146 -0.4307619705 -0.0932374752 0.1541155664
425297450.0 -0.1037244316 0.1391109192 0.3516652914 -0.4347002915 0.3517050163 -0.4349123056 -0.0916562508 0.1559975746
430297420.0 -0.1027442807 0.1406737818 0.3469992554 -0.4388483627 0.3468867834 -0.4385808148 -0.0902109539 0.1568885915
435297390.0 -0.1013365224 0.1415147184 0.3419233053 -0.4416714132 0.3419765239 -0.4422908826 -0.0884663555 0.1581602921
440297360.0 -0.0999173899 0.1425956947 0.3369718157 -0.4460311798 0.3367611108 -0.4458481493 -0.0870122679 0.1587837444
445297330.0 -0.0981520824 0.1436683448 0.3319630054 -0.4500393373 0.3318711579 -0.4497720293 -0.0852636545 0.1601134633
450297300.0 -0.0970157284 0.1446337567 0.326902452 -0.4533155677 0.3273731731 -0.4534879284 -0.0836860482 0.16164402
455297270.0 -0.0957887274 0.1458686019 0.322557616 -0.4567618354 0.3227235229 -0.4566569744 -0.0816377484 0.1628677929
460297240.0 -0.0946021089 0.1469641347 0.3174032728 -0.4602163381 0.316663034 -0.4602597227 -0.079715125 0.1642234247
465297210.0 -0.0925983621 0.1477786499 0.3123624715 -0.4638271801 0.3125109266 -0.4636950213 -0.0783906806 0.164800163
470297180.0 -0.0913410369 0.1487568128 0.3072356969 -0.4664342956 0.3074304791 -0.4671409515 -0.0768368718 0.1659757869
475297150.0 -0.0899491198 0.1497100836 0.301388405 -0.4702044905 0.3022580853 -0.4698501319 -0.0745861989 0.1669199873
480297120.0 -0.0883454732 0.1505302161 0.2966289838 -0.4729661821 0.2970884816 -0.4735752993 -0.0732749511 0.1684712652
485297090.0 -0.0867264751 0.1514904148 0.2918179699 -0.4764990145 0.2917120733 -0.4766400601 -0.0714488197 0.1688915015
490297060.0 -0.0853850167 0.1523940144 0.286280455 -0.4800449912 0.286599818 -0.4801511582 -0.0695341994 0.1702194341
495297030.0 -0.084193016 0.1537872499 0.2811675207 -0.4828439442 0.2808409713 -0.4830320614 -0.0674401703 0.1710897923
500297000.0 -0.0820981433 0.1545329428 0.275012321 -0.4857242527 0.2754512486 -0.4859835512 -0.0660267625 0.1720931645
505296970.0 -0.0811854093 0.1554643464 0.2701909568 -0.4881409887 0.2704591325 -0.4883371609 -0.0642392514 0.1727787851
510296940.0 -0.0795853684 0.156473689 0.2652509912 -0.4919279766 0.2655054405 -0.4918099981 -0.0621578392 0.1741936997
515296910.0 -0.078450244 0.1574602206 0.2599375941 -0.4940301142 0.2597993225 -0.4942728616 -0.0605536375 0.1748581173
520296880.0 -0.0765077416 0.1582814861 0.2541428293 -0.497357725 0.2543282578 -0.4973377927 -0.0581127492 0.1753896413
525296850.0 -0.0750459428 0.1588938328 0.2489190738 -0.4999020774 0.2488351333 -0.500375813 -0.0561443286 0.1763825768
530296820.0 -0.0734171794 0.1598723674 0.2433427555 -0.5017992503 0.2433499102 -0.5023928804 -0.0546882324 0.176836089
535296790.0 -0.0721587421 0.1604642899 0.2380527959 -0.5048158789 0.2384320937 -0.5046705911 -0.0527390269 0.1773060321
540296760.0 -0.0704828419 0.1611844617 0.2325922164 -0.5079836891 0.2321029932 -0.5080168145 -0.0510566811 0.1786471787
545296730.0 -0.0687158181 0.1626337641 0.2264634376 -0.5101863853 0.2272223646 -0.5100850128 -0.04889704 0.1789984781
550296700.0 -0.0674112311 0.1632275441 0.2214855385 -0.5125390201 0.2219981466 -0.5130050076 -0.047295327 0.1804179278
555296670.0 -0.0653157916 0.1635858034 0.2156140528 -0.5150878339 0.2161335055 -0.5150506918 -0.0452094904 0.1808401337
560296640.0 -0.0639765273 0.1644756262 0.209878972 -0.5170100098 0.2104126374 -0.516786022 -0.0429979495 0.1812872357
565296610.0 -0.0627712093 0.1652546561 0.2045974586 -0.5194796487 0.2045047235 -0.5195720304 -0.0411246845 0.1818460142
570296580.0 -0.0607237996 0.1661694789 0.1988340205 -0.5214165974 0.1997503389 -0.5218521813 -0.0391155007 0.1831171187
575296550.0 -0.0591953259 0.1670789127 0.1933343695 -0.5238137783 0.1938393556 -0.5236239414 -0.0369080221 0.1833360915
580296520.0 -0.0577535581 0.1673505884 0.1880723849 -0.5254186905 0.1872536001 -0.5252990397 -0.035810173 0.1839188644
585296490.0 -0.0560136213 0.1678252138 0.1822990318 -0.5275734996 0.1820357939 -0.5273851514 -0.0334871521 0.1840196332
590296460.0 -0.0548104571 0.1684038789 0.1762351029 -0.5293621063 0.1760883808 -0.5298046039 -0.0313496824 0.1850041134
595296430.0 -0.053187852 0.1694292272 0.171057478 -0.5315025184 0.1705306302 -0.5317527978 -0.0290528706 0.1853608605
600296400.0 -0.0513390199 0.1698601229 0.1648231093 -0.53315096 0.1652559554 -0.5330683004 -0.0270958232 0.1860153643
605296370.0 -0.0494137063 0.1707614564 0.1590460719 -0.5348054273 0.15902723 -0.5347159975 -0.0253437805 0.1864485087
610296340.0 -0.0479637809 0.1712528047 0.1536361994 -0.5363231826 0.1535379774 -0.5367675537 -0.0233501011 0.187195867
615296310.0 -0.0463128903 0.1719979248 0.1473887781 -0.5378228271 0.1473565154 -0.5383335445 -0.0210229511 0.187212495
620296280.0 -0.0445815517 0.172558513 0.1420933671 -0.5396101947 0.1415161709 -0.5397052721 -0.0193427438 0.1872605242
625296250.0 -0.0426760144 0.1732661447 0.1350119009 -0.5414362947 0.1357762474 -0.5412181142 -0.0172262207 0.1879336654
630296220.0 -0.0411555336 0.1737584948 0.1295552029 -0.5431569398 0.1302545719 -0.5423280938 -0.0157965392 0.18852674
635296190.0 -0.039666979 0.1743718044 0.1239597862 -0.5433026055 0.1239538299 -0.543119284 -0.0133771694 0.188413402
640296160.0 -0.0381513828 0.174818452 0.1182923247 -0.5450946496 0.1181237298 -0.5451870849 -0.0108129079 0.1887402844
645296130.0 -0.0361105234 0.1754471211 0.1118723588 -0.5466189337 0.1120745028 -0.546398547 -0.0093438003 0.1887616704
650296100.0 -0.0344440668 0.1760811009 0.1065884008 -0.5470488318 0.1065415929 -0.5473362004 -0.007295536 0.1893198204
655296070.0 -0.0327610512 0.1763039708 0.1002744394 -0.5482180461 0.1003428818 -0.5483599757 -0.0046948419 0.1895155671
660296040.0 -0.0313100252 0.1769931882 0.0949322952 -0.5492141904 0.0947604857 -0.5494080963 -0.0029087035 0.1894667595
665296010.0 -0.0292243664 0.1772770304 0.0885201289 -0.5504791655 0.0888697446 -0.5503453032 -0.001133591 0.190159215
670295980.0 -0.027199362 0.1777187601 0.0823246532 -0.5512242685 0.0830420551 -0.5512164169 0.0005861288 0.1901984859
675295950.0 -0.0256837393 0.1780930661 0.0764795665 -0.5520937197 0.0769016129 -0.552639196 0.0031371297 0.1906019486
680295920.0 -0.0239803124 0.1788535648 0.0707348583 -0.5532810542 0.0707579084 -0.5529691801 0.0052481243 0.1899812398
685295890.0 -0.0223495972 0.1790644679 0.0649583392 -0.5534232439 0.0644104234 -0.5535880968 0.007394852 0.1908520227
690295860.0 -0.0203355349 0.179436309 0.0590197574 -0.5539421994 0.0581582487 -0.5539232628 0.0097755393 0.1908706262
695295830.0 -0.0183329498 0.1795067694 0.0516948314 -0.5546293156 0.0524865356 -0.5549188119 0.0113098237 0.190766862
700295800.0 -0.0167085177 0.1797097761 0.0463953856 -0.5550324327 0.0466668663 -0.5553623867 0.0133346869 0.1900924038
705295770.0 -0.0149566342 0.1803309816 0.0406101242 -0.5559053235 0.0410382865 -0.5556801528 0.0151239703 0.1907371347
710295740.0 -0.0131700216 0.1808809485 0.0347855666 -0.5560795035 0.0348154443 -0.5561364167 0.0167114719 0.1911110248
715295710.0 -0.0116881994 0.1807967377 0.0285999947 -0.5563045348 0.0288373077 -0.5561424419 0.0193974857 0.1904793585
720295680.0 -0.0098845064 0.1810690842 0.02257116 -0.5561651511 0.0227867192 -0.557034001 0.0216881166 0.1909182112
725295650.0 -0.0078287958 0.1815343221 0.0161232121 -0.5568130329 0.0166590692 -0.5569588135 0.023775067 0.1907823843
730295620.0 -0.0064942227 0.1814397703 0.0106895591 -0.5572406415 0.0108363748 -0.5569261139 0.0259849575 0.1897895667
735295590.0 -0.0042036833 0.1818651726 0.0048081393 -0.5567919255 0.0049745648 -0.5571385818 0.027887175 0.1903349169
740295560.0 -0.0028049028 0.182352295 -0.00141817 -0.556709749 -0.0016681055 -0.5568625372 0.0304072127 0.1897277834
745295530.0 -0.0008877322 0.182060231 -0.0075282764 -0.5568241628 -0.0072509456 -0.5571960471 0.0320882186 0.189895347
750295500.0 0.0007771151 0.182142569 -0.0131619992 -0.5561977012 -0.0129662711 -0.556880429 0.0339845742 0.1894297616
755295470.0 0.0031573841 0.1827661472 -0.0192941626 -0.5567780757 -0.0188726259 -0.557031354 0.0358295273 0.1893792858
760295440.0 0.0043788789 0.1827412938 -0.02570882 -0.5564711244 -0.0252003905 -0.5565564183 0.0379764147 0.1891336365
765295410.0 0.0062094616 0.182404607 -0.0308326966 -0.5554071775 -0.0310388805 -0.5563561776 0.0405444327 0.1890196339
770295380.0 0.0081634643 0.182901392 -0.0372101038 -0.5551618265 -0.0372457088 -0.5561468382 0.0428262506 0.1887569027
775295350.0 0.0099585094 0.1830910181 -0.0430350097 -0.5550151516 -0.0432348403 -0.5553250726 0.0440167962 0.1879362228
780295320.0 0.01182781 0.1826647987 -0.0486583605 -0.5543353434 -0.0490365291 -0.5546038153 0.0465017052 0.1882629964
785295290.0 0.0135705 0.1834497073 -0.0550797349 -0.5536563981 -0.0553881991 -0.5540769276 0.0478616278 0.1874595641
790295260.0 0.0151952758 0.1831263638 -0.0610500127 -0.5535032878 -0.0610498968 -0.5537459719 0.0506589247 0.1869713332
795295230.0 0.017147104 0.1835284348 -0.0671553115 -0.5523496746 -0.0666392042 -0.5527699425 0.0525519841 0.187174376
800295200.0 0.0189115102 0.1833852831 -0.0731804879 -0.5521116153 -0.0730768571 -0.5517628987 0.0544985437 0.1862893247
805295170.0 0.0205475406 0.1832319816 -0.0788744823 -0.5507216315 -0.0789159156 -0.5508367983 0.056462576 0.1856054506
810295140.0 0.0226102976 0.183232197 -0.085003228 -0.5500764853 -0.0844142255 -0.5508678257 0.0587341618 0.1858029408
815295110.0 0.0243547294 0.1830929998 -0.0908816514 -0.5490829799 -0.0910975894 -0.5487547159 0.060603486 0.1851026874
820295080.0 0.0262743062 0.1827466929 -0.0965434184 -0.5481269172 -0.096747012 -0.5485294863 0.0623128794 0.1844121103
825295050.0 0.0282048041 0.1825175749 -0.1026210273 -0.5462677312 -0.1023091698 -0.5467731434 0.0647805285 0.1841508772
830295020.0 0.029655512 0.182840887 -0.1085869927 -0.5457569197 -0.1088991165 -0.5459175301 0.0666166572 0.1833727121
