!Created with skrf (http://scikit-rf.org).
# Hz S RI R 50.0 
!freq ReS11 ImS11 ReS21 ImS21 ReS12 ImS12 ReS22 ImS22
300000.0 -0.7732952428 -0.1846967831 -0.001296779 0.0006635409 -0.0011615674 0.0002689281 -0.044420115 -0.0796440159
5299970.0 -0.7864027389 -0.0093929755 0.0002083655 -0.0002505996 0.0001682806 0.0001813429 -0.047699246 0.0135785706
10299940.0 -0.7889884556 -0.0060443279 -1.41247e-05 -0.0001059115 -0.000187094 0.0001344827 -0.0418519253 0.0314742016
15299910.0 -0.7945010295 -0.0032728654 9.57241e-05 -2.11816e-05 -0.000109803 0.0002053859 -0.0336238349 0.0455996274
20299880.0 -0.8008345006 0.0007388186 3.30598e-05 0.0002376663 -0.0002021168 1.21868e-05 -0.0242175155 0.0572224873
25299850.0 -0.8077969239 0.0069874622 -9.70756e-05 1.37831e-05 9.09632e-05 5.89512e-05 -0.0132994715 0.0662584355
30299820.0 -0.8139389831 0.0136442413 5.724e-07 0.0002588546 -5.82684e-05 5.746e-06 -0.0020868203 0.0728182302
35299790.0 -0.8186834544 0.0230460884 0.0001160805 0.0001517675 -5.07875e-05 -0.0001088185 0.0092052812 0.0775124107
40299760.0 -0.8233186769 0.0318874944 4.0861e-06 3.1106e-06 0.0001274725 4.41102e-05 0.0202341327 0.0799423832
45299730.0 -0.8266940491 0.0418632219 6.24165e-05 -7.50617e-05 -7.11431e-05 4.01008e-05 0.0306590048 0.0812745072
50299700.0 -0.8290606577 0.0519376919 6.20283e-05 -0.0001020369 0.0001455403 -3.7254e-05 0.0406644887 0.0815988327
55299670.0 -0.8313630016 0.0614165629 -0.0002013396 -3.72e-07 -4.22809e-05 2.01433e-05 0.0493525147 0.0802022454
60299640.0 -0.8322798165 0.0721905609 0.0001217704 -8.1852e-05 -3.94603e-05 8.2585e-06 0.0577522404 0.078196378
65299610.0 -0.8333560945 0.0820940802 -0.0001625516 -0.0001949543 0.0001609938 0.0001060922 0.0656881508 0.0758973515
70299580.0 -0.8339896059 0.0917479496 -2.00877e-05 0.0002026417 5.83283e-05 0.0001470634 0.0719945701 0.0730681054
75299550.0 -0.8337824329 0.1014674604 -0.0001472995 -1.15189e-05 0.000108986 0.0001705547 0.078409268 0.0700383051
80299520.0 -0.8340455131 0.1124121821 0.0001200516 -3.45449e-05 4.79468e-05 0.0002532034 0.0840698535 0.0664346335
85299490.0 -0.83309426 0.1215245009 0.0002250352 9.1722e-06 2.97849e-05 0.0001094456 0.0890840783 0.062559145
90299460.0 -0.8327696354 0.1317571629 -5.2958e-05 0.0001434665 0.0002299647 9.07031e-05 0.0933652874 0.0587890718
95299430.0 -0.8317390996 0.1406393973 0.0001377832 -5.24729e-05 -5.19636e-05 -8.32792e-05 0.0975062389 0.0545750643
100299400.0 -0.8303427373 0.150070581 3.00592e-05 0.0002563069 -0.0001099982 0.0001149068 0.1010383402 0.0511735339
105299370.0 -0.8287646611 0.1593278661 0.000169843 5.95102e-05 0.0001026941 -0.0001415998 0.1044410391 0.0472285955
110299340.0 -0.8277528162 0.1683750058 -9.84459e-05 0.0001021698 -1.00035e-05 0.0003070325 0.1069883501 0.0429536287
115299310.0 -0.8257605278 0.1775518505 6.99252e-05 6.4529e-06 0.0001365367 -9.815e-06 0.1092875732 0.0390398471
120299280.0 -0.8242961699 0.1865372491 -4.89982e-05 8.516e-07 1.96716e-05 -1.70418e-05 0.1115805784 0.0351730432
125299250.0 -0.8221380733 0.1951953761 5.69541e-05 1.3095e-05 8.14567e-05 0.0001068438 0.1135345963 0.03142785
130299220.0 -0.8210185081 0.2050968586 -9.4848e-06 9.36381e-05 -0.0002056498 2.39597e-05 0.1152918301 0.0275555801
135299190.0 -0.8186962842 0.2143387931 -3.43158e-05 0.0001366699 0.000145357 9.26737e-05 0.116405899 0.0237917449
140299160.0 -0.8175101014 0.2241649789 0.0001549468 -9.11933e-05 -5.273e-06 9.3293e-06 0.1172979173 0.0204873118
145299130.0 -0.8143401646 0.2321187292 6.70077e-05 0.0001067857 8.8834e-05 0.0002872084 0.1183764694 0.0167802026
150299100.0 -0.8122136448 0.2407039758 3.3355e-06 1.96145e-05 -1.47378e-05 8.95325e-05 0.1194173537 0.0134079594
155299070.0 -0.8098285825 0.2504120589 7.08057e-05 2.73191e-05 -0.0001485653 -0.0001119924 0.1200283242 0.0101576898
160299040.0 -0.8075509396 0.2592478028 9.77398e-05 0.000314644 -9.5947e-05 6.74189e-05 0.1205143169 0.006565662
165299010.0 -0.8047761531 0.2674903091 -0.0001063596 -0.0001850283 2.39845e-05 -1.7424e-06 0.1211311956 0.0035472383
170298980.0 -0.8014553524 0.2761967884 0.000103679 0.0002244494 -0.0001016387 9.06533e-05 0.1213161127 0.0004789411
175298950.0 -0.7990148433 0.2850141859 0.0001136239 4.0683e-06 -2.3645e-05 -7.81317e-05 0.1211498677 -0.0022640065
180298920.0 -0.7957841156 0.2933713109 -0.0002221739 0.0001832151 0.0001901919 5.2053e-06 0.1216039614 -0.0056756829
185298890.0 -0.7924906879 0.3019930953 0.0002356417 -1.24657e-05 9.04282e-05 8.49442e-05 0.1215630234 -0.0086895251
190298860.0 -0.7899919444 0.3109047091 0.0001690623 -9.05072e-05 0.0001515082 3.97582e-05 0.1214677722 -0.0114034462
195298830.0 -0.7867335469 0.3192092447 0.0001165861 0.0002839956 -0.0001189469 0.0001455348 0.121286594 -0.0142024412
200298800.0 -0.7824909426 0.3275465882 4.49463e-05 9.98101e-05 0.0001000607 0.0001457282 0.1212761028 -0.0168604835
205298770.0 -0.7796639708 0.3362717774 0.0001229503 0.0002074857 -3.20493e-05 -0.000200721 0.1207092999 -0.0198430904
210298740.0 -0.7763485282 0.3448370712 3.36172e-05 -0.000126555 9.39449e-05 0.0001726054 0.1201857989 -0.0222499081
215298710.0 -0.7722437794 0.3533848413 3.4787e-06 9.62858e-05 0.00014806 -0.0001203122 0.1196789916 -0.0250204863
220298680.0 -0.7688622704 0.3608465948 0.0001486055 0.0001636523 -1.2971e-05 4.49432e-05 0.1193460441 -0.027131967
225298650.0 -0.7650842821 0.3693137417 -0.0001247341 -7.31243e-05 0.0002154991 0.0002111165 0.1186108204 -0.0296714639
230298620.0 -0.7611405433 0.378023071 0.0002127098 8.57538e-05 1.5425e-05 -2.32736e-05 0.1182684964 -0.0323359679
235298590.0 -0.7571665099 0.3858938154 1.31156e-05 6.83905e-05 -5.2994e-05 1.7583e-05 0.1174735328 -0.0343518776
240298560.0 -0.7528436291 0.3932934195 1.76074e-05 0.0001959646 -7.86319e-05 -0.0001026378 0.1170308491 -0.0368184993
245298530.0 -0.7488427505 0.4020801205 0.0002668773 -0.0001583654 2.63197e-05 -0.0001288952 0.1161231358 -0.0391291292
250298500.0 -0.7445188186 0.4087306387 -6.0333e-05 -6.27607e-05 7.244e-07 0.0001350609 0.1153808845 -0.0408506351
255298470.0 -0.7404766897 0.417077439 1.46954e-05 7.16513e-05 0.0001167549 -5.2968e-05 0.1145962437 -0.0438089633
260298440.0 -0.7363592101 0.4247866564 0.0001323077 8.86452e-05 8.3075e-06 8.31505e-05 0.1133223881 -0.0455201174
265298410.0 -0.7319354562 0.4327834717 0.0002533402 9.11504e-05 -0.0002055792 -9.60126e-05 0.1132681581 -0.0477795816
270298380.0 -0.7269982978 0.4404499854 -0.0001422279 -0.0001350349 0.0001661485 -0.0001825654 0.1121237028 -0.0497247134
275298350.0 -0.7234532976 0.4483053406 -0.0001581894 2.53726e-05 7.63958e-05 9.78284e-05 0.1110788933 -0.0516103501
280298320.0 -0.7181192894 0.455707629 0.0002521159 -8.57294e-05 -1.11989e-05 8.24554e-05 0.1099849941 -0.0535399084
285298290.0 -0.7132777614 0.463388022 0.0001356875 -7.28982e-05 -2.56282e-05 -7.17741e-05 0.1089976373 -0.0551355691
290298260.0 -0.7085090602 0.4710213841 8.70905e-05 -8.22488e-05 -9.97002e-05 1.72983e-05 0.1078630126 -0.057270178
295298230.0 -0.7036360779 0.4781915117 6.53161e-05 -0.0001696178 5.99176e-05 2.0063e-05 0.1070632182 -0.0592049217
300298200.0 -0.698862943 0.4855909952 0.0001449407 -6.40437e-05 -9.24363e-05 6.19585e-05 0.1060752707 -0.0609074368
305298170.0 -0.6947477182 0.492146767 0.0001606044 -3.05094e-05 0.0002433552 0.0001987996 0.1051705396 -0.06285913
310298140.0 -0.6887700975 0.4999150576 9.4653e-06 -2.01237e-05 0.0002346359 -8.99993e-05 0.1042684721 -0.0643165568
315298110.0 -0.6845529138 0.5071318045 9.7236e-06 2.4705e-06 7.35884e-05 -3.263e-07 0.1030428831 -0.0666952335
320298080.0 -0.6790111446 0.5143588386 -1.0045e-05 3.48462e-05 0.0001851351 0.0001028999 0.1015518146 -0.0681984405
325298050.0 -0.673640205 0.5206690255 0.0001437169 -1.38e-05 5.91746e-05 -4.70647e-05 0.1009119607 -0.0702361569
330298020.0 -0.6682958939 0.5276282885 4.9736e-05 -0.0001159669 0.0001654096 -6.00915e-05 0.0990720697 -0.0720606795
335297990.0 -0.6626613827 0.5344015255 0.000221373 3.38853e-05 -3.7292e-06 -0.0001702989 0.0979669648 -0.0737528737
340297960.0 -0.657936708 0.5412980433 7.57497e-05 2.20303e-05 5.38057e-05 0.0001486346 0.0964111412 -0.0751513783
345297930.0 -0.6521621538 0.5481053778 7.14823e-05 9.6929e-06 1.08424e-05 1.47496e-05 0.094822822 -0.0767723289
350297900.0 -0.6463065216 0.5546371951 0.0001705549 6.89616e-05 0.0001799687 0.0001242126 0.0933705084 -0.0781516885
355297870.0 -0.6412576315 0.5614962877 0.0002334314 0.0001257373 0.0002357753 -3.82479e-05 0.0918868147 -0.0792060708
360297840.0 -0.6346441174 0.5680394778 0.0002279112 0.0001301919 8.30305e-05 8.80635e-05 0.0902950202 -0.0804849491
365297810.0 -0.6293595859 0.5748772132 0.000169297 0.0001702646 0.0001172373 0.0002379305 0.089043413 -0.0820680007
370297780.0 -0.6233290759 0.5805475218 4.64783e-05 -8.20072e-05 0.0001515963 4.67725e-05 0.0874601032 -0.0829974924
375297750.0 -0.6179662172 0.587463421 0.0001314724 0.0001327952 -2.39187e-05 6.40226e-05 0.0861411338 -0.0844664354
380297720.0 -0.6119128441 0.5935624437 0.0001672145 9.69719e-05 8.07826e-05 0.0001496778 0.0849111582 -0.0854732091
385297690.0 -0.6058574073 0.5994452963 3.60887e-05 8.39722e-05 0.0002244593 -2.36233e-05 0.0833076094 -0.0868076982
390297660.0 -0.598178307 0.6055390133 4.27083e-05 -6.76085e-05 0.0002267158 -5.00234e-05 0.0815681288 -0.0879967261
395297630.0 -0.5927389368 0.6119920266 -4.2002e-06 0.0001077727 -8.62597e-05 -0.0001755142 0.0805083918 -0.0892789131
400297600.0 -0.5867574907 0.6180737745 -6.17281e-05 9.99398e-05 0.0001614969 2.35888e-05 0.0792438378 -0.0901363724
405297570.0 -0.5803860942 0.6230089009 0.0003402815 -0.000149655 0.000158019 -0.0002045474 0.0779305853 -0.0915906403
410297540.0 -0.5735781449 0.6296264858 0.0001646514 1.81333e-05 0.0001019979 6.82327e-05 0.0761472948 -0.0923740576
415297510.0 -0.5675827727 0.6357804162 -7.21824e-05 0.0002725151 -5.92952e-05 -8.81833e-05 0.0746113351 -0.0936880799
420297480.0 -0.5612082466 0.6409747527 0.00026748 -2.3914e-05 -0.0001701213 0.0002330866 0.0732558293 -0.0942848521
425297450.0 -0.5544593827 0.6468005531 0.0002359202 7.03927e-05 0.0001520473 6.3864e-06 0.0716174242 -0.0959652657
430297420.0 -0.5481187691 0.6519076726 3.3923e-05 -9.6357e-05 1.81324e-05 3.56515e-05 0.0702343918 -0.096503125
435297390.0 -0.5413088084 0.6573804339 0.0001819872 -6.58682e-05 0.0001751913 2.19345e-05 0.0684087545 -0.0974516438
440297360.0 -0.5341631335 0.6631959945 5.11163e-05 0.0002080988 0.0001981511 1.1665e-05 0.0672131101 -0.0983614392
445297330.0 -0.5269575919 0.6678484455 -7.04528e-05 6.881e-06 3.80255e-05 -1.86172e-05 0.0657856545 -0.0991465317
450297300.0 -0.5204559854 0.6733302498 4.52409e-05 -6.38237e-05 6.20157e-05 -3.68482e-05 0.0644039896 -0.0999663548
455297270.0 -0.5138501979 0.6783048086 4.60091e-05 0.0002601393 2.60442e-05 -0.0001014573 0.0626362573 -0.1008634771
460297240.0 -0.5053926801 0.6837146531 0.0001454247 -0.000120797 5.03105e-05 -0.0001978272 0.0608788221 -0.1019897808
465297210.0 -0.4999382074 0.689604875 3.64896e-05 0.0001960851 -7.95852e-05 0.0001405472 0.0596172788 -0.1023471861
470297180.0 -0.4916710219 0.6941646688 0.000180139 -0.0001478217 0.000124756 -2.07497e-05 0.0577168619 -0.1034076061
475297150.0 -0.4849150189 0.6986924749 7.95559e-05 0.0001934679 0.0001506533 -0.0001612756 0.0564007684 -0.1037374278
480297120.0 -0.4769415985 0.7041105552 0.0001345761 8.71633e-05 4.72367e-05 -0.0001796201 0.0545825749 -0.1046538334
485297090.0 -0.4696995462 0.7084326978 0.0002335684 -6.1613e-06 0.0002392412 5.25193e-05 0.0528936652 -0.1056054626
490297060.0 -0.462164599 0.7139428891 0.0002518266 0.0001126124 8.2334e-06 -9.33267e-05 0.0515505884 -0.1063078751
495297030.0 -0.4551078188 0.7180269673 0.0002824699 0.000101244 0.0002421188 6.71471e-05 0.0500277994 -0.1066843161
500297000.0 -0.4472385405 0.7217650734 0.0001913031 8.57775e-05 0.0001741766 -5.77494e-05 0.0483628617 -0.1074772303
505296970.0 -0.439497045 0.7268477367 -9.45853e-05 -5.92739e-05 7.11249e-05 0.0002390504 0.04663365 -0.1081406806
510296940.0 -0.4324923255 0.7311379927 -3.71896e-05 2.5727e-06 -9.82966e-05 4.73998e-05 0.0451805513 -0.1085366486
515296910.0 -0.424260033 0.7357514733 -1.96065e-05 1.23511e-05 0.000114711 -8.36012e-05 0.0432846755 -0.1094010943
520296880.0 -0.4162459624 0.7399362891 0.0001516714 -1.63267e-05 0.0001760475 -3.11263e-05 0.0420571803 -0.1096609485
525296850.0 -0.4088020233 0.7438586702 -9.7164e-06 0.000166664 0.0001521422 -9.48982e-05 0.0402336584 -0.1101530207
530296820.0 -0.401096716 0.7480313335 0.000254473 0.0002444589 -7.62222e-05 7.317e-05 0.0385116332 -0.110651727
535296790.0 -0.3929172167 0.7517273806 0.0002108523 0.0001074752 1.1495e-05 2.57086e-05 0.037163307 -0.1109477742
540296760.0 -0.385055559 0.7561127809 9.90521e-05 -1.84904e-05 0.000167811 -9.50835e-05 0.0351310553 -0.1112883317
545296730.0 -0.3777448744 0.7607872383 -3.46704e-05 -7.59226e-05 8.0051e-05 0.0001065984 0.0337049814 -0.1118989885
550296700.0 -0.3689357245 0.7635420552 0.0001491176 -6.23404e-05 0.0001585728 0.0001502513 0.0316189595 -0.1124174285
555296670.0 -0.3611760524 0.7672732208 0.0001408865 3.07772e-05 0.000248463 0.0001232562 0.0300296599 -0.1127640979
560296640.0 -0.3532626143 0.7706626761 0.0001748979 6.94422e-05 0.0001049541 -0.0001454437 0.0283415592 -0.1129686445
565296610.0 -0.3458275071 0.7741633284 0.0001464429 -6.1949e-06 -6.94465e-05 -0.0001413801 0.0268300904 -0.113296084
570296580.0 -0.336878025 0.7782981065 0.0002239072 7.49386e-05 5.4469e-05 -7.66608e-05 0.0248695823 -0.1137377029
575296550.0 -0.3279346679 0.7812851135 -1.21909e-05 -3.00703e-05 0.0001128959 0.0001299402 0.0234980858 -0.1139757752
580296520.0 -0.321228663 0.7847449799 0.0002172129 -4.99307e-05 2.82004e-05 -0.0001077478 0.0216539825 -0.1141321514
585296490.0 -0.3128643891 0.7876169621 -9.34639e-05 -0.0001192139 0.0002882097 6.31547e-05 0.0200162285 -0.1142185909
590296460.0 -0.3039681711 0.7906733316 7.31966e-05 3.41704e-05 6.90746e-05 0.0002034661 0.0183485699 -0.1142993063
595296430.0 -0.2961611089 0.7933841485 -1.14745e-05 -2.08655e-05 7.51189e-05 8.54616e-05 0.0166922855 -0.1146435758
600296400.0 -0.2882419276 0.7967767551 0.0001294559 1.49555e-05 0.0002773907 -0.0001226687 0.0152536593 -0.1147831221
605296370.0 -0.2798526779 0.7990141471 0.0003350412 -0.0001113704 1.77634e-05 0.0001272237 0.0136163957 -0.1149821177
610296340.0 -0.2717298048 0.8028254617 -0.0001170071 -7.24622e-05 -7.34658e-05 5.73639e-05 0.011609467 -0.1150471173
615296310.0 -0.2630755647 0.8050981267 -1.59676e-05 0.000274315 0.0001624523 -2.85334e-05 0.0101613641 -0.1150691433
620296280.0 -0.2552182432 0.8083245142 0.0004369333 -8.64084e-05 0.0002528774 8.3205e-06 0.0082681748 -0.1149092576
625296250.0 -0.247530905 0.8100481224 9.25894e-05 1.31754e-05 0.0001350509 -8.7338e-05 0.006604649 -0.1150141741
630296220.0 -0.2385174091 0.8134304061 3.76411e-05 -3.77317e-05 0.0001939474 -0.0001714494 0.0049797238 -0.1149637588
635296190.0 -0.230505392 0.8160820485 0.0002074177 -0.0001416798 3.96458e-05 -6.12289e-05 0.0031412143 -0.1148928994
640296160.0 -0.2215868136 0.8179072076 0.0002882644 -1.97183e-05 0.0003040035 0.0001821479 0.0014284691 -0.114773292
645296130.0 -0.2140713924 0.8204703338 -5.75629e-05 -0.0001889441 -1.09821e-05 1.29126e-05 -0.0005664967 -0.1146535837
650296100.0 -0.2052100379 0.821537671 0.000118625 -0.000100195 0.0002528212 -3.53476e-05 -0.0017442325 -0.1146110873
655296070.0 -0.1970484039 0.8243953491 8.46622e-05 -0.0001561953 0.0001823169 -0.0001237304 -0.0037581227 -0.1145381932
660296040.0 -0.1889733782 0.8260818607 0.0002492455 -7.25345e-05 0.0001899954 -7.79563e-05 -0.0049288697 -0.1146640007
665296010.0 -0.1804773523 0.8280528502 6.3485e-06 0.0001386917 0.0002292587 1.03311e-05 -0.0067659776 -0.1142842008
670295980.0 -0.1724800069 0.8310484119 0.000131958 8.06105e-05 9.31883e-05 -1.79815e-05 -0.0084455028 -0.1144113932
675295950.0 -0.1637437842 0.8316421695 -0.0001368012 -0.0001852232 -4.22616e-05 1.25799e-05 -0.0102305067 -0.1138536756
680295920.0 -0.1561137726 0.8341138885 0.0001491928 0.0001898115 7.16518e-05 1.7397e-05 -0.0117060487 -0.1134241093
685295890.0 -0.1471013584 0.8358369623 6.94765e-05 5.5218e-06 0.0002366627 7.86565e-05 -0.0134839194 -0.1133540854
690295860.0 -0.1392890726 0.8373093038 0.0001577635 0.0001582134 0.00027191 2.0829e-05 -0.0150406619 -0.113007062
695295830.0 -0.1304222459 0.8389774195 -0.0001207973 -1.09538e-05 0.0001225449 -0.0001444416 -0.0166648035 -0.1126642446
700295800.0 -0.1223795384 0.8402011071 0.0001321092 -2.42802e-05 0.0002047055 -6.31615e-05 -0.0181843733 -0.1125916147
705295770.0 -0.1145686751 0.841599834 0.0003922877 -8.7062e-06 0.0001015138 -8.37555e-05 -0.020052554 -0.112085883
710295740.0 -0.1068995608 0.8421929048 0.0002618781 -0.0001288593 0.0003067601 0.0001996094 -0.0213115495 -0.1115012774
715295710.0 -0.0979243196 0.8434526344 5.88895e-05 -4.84089e-05 -6.02852e-05 0.0001729118 -0.0233283047 -0.1114579121
720295680.0 -0.0890631684 0.8447968099 -2.7884e-05 1.43181e-05 0.000130625 0.0003671198 -0.024906657 -0.1111016779
725295650.0 -0.0811439142 0.8458329267 0.000205102 1.89331e-05 0.0002272699 -3.2959e-05 -0.0263965347 -0.1104037539
730295620.0 -0.0740362278 0.8467047406 4.12252e-05 0.0002193717 9.09099e-05 2.28113e-05 -0.0281894471 -0.1096029859
735295590.0 -0.0651771429 0.8474498155 0.0002697843 -3.00004e-05 0.0001372361 -9.29082e-05 -0.0295560886 -0.1094795898
740295560.0 -0.0577476537 0.8477993614 -9.25966e-05 -9.4836e-05 2.29538e-05 -9.89216e-05 -0.031480163 -0.1088842207
745295530.0 -0.0487526183 0.8487626693 0.0001378632 -0.000319616 0.0002470762 -6.1782e-05 -0.0331893275 -0.1081548801
750295500.0 -0.0406080909 0.8494032125 2.04404e-05 6.87857e-05 8.5992e-05 8.75511e-05 -0.0344778333 -0.1078860015
755295470.0 -0.0319378426 0.8498553978 0.0001250384 -9.79833e-05 0.0002391916 0.0001783545 -0.0359363995 -0.1066823632
760295440.0 -0.0243249146 0.8508080147 3.29944e-05 -7.93336e-05 0.0002393719 5.21617e-05 -0.0376542342 -0.1066439483
765295410.0 -0.0159472423 0.8504353357 -3.73221e-05 -3.06162e-05 0.0002319155 8.7072e-06 -0.0392789915 -0.1060687812
770295380.0 -0.008626833 0.850891309 7.96821e-05 1.59067e-05 0.0001854126 2.54219e-05 -0.0406276894 -0.1055033995
775295350.0 -0.000271795 0.8512124565 -0.0001136963 -7.1895e-05 0.0001395424 -0.0001576218 -0.0423494267 -0.1046790004
780295320.0 0.008825978 0.851242559 -6.09638e-05 0.0001312461 5.6681e-05 -0.0001647802 -0.0435364299 -0.1040933614
785295290.0 0.0169387459 0.8508765594 -9.3849e-06 0.0001058287 0.0001572097 -0.0001460643 -0.0455572369 -0.1032003191
790295260.0 0.0251056211 0.851056557 0.0001663042 0.0003412397 1.49278e-05 -0.0001632364 -0.0466347547 -0.1023724849
795295230.0 0.0328957481 0.8508311065 0.0003249145 -5.19088e-05 7.22227e-05 5.71e-06 -0.0485338889 -0.1021713743
800295200.0 0.0411205475 0.8508007952 0.0002971478 -8.49325e-05 0.0001945109 2.36945e-05 -0.0499492754 -0.1014469674
805295170.0 0.0489415742 0.8507012865 7.8522e-06 -3.31442e-05 0.000399421 0.0001222603 -0.0510016047 -0.100604886
810295140.0 0.057932949 0.8506126002 -0.000106183 7.95237e-05 0.0002538465 -4.57558e-05 -0.0526088971 -0.0994710889
815295110.0 0.0650726736 0.8499445167 0.0001106453 -0.0002733537 -1.45669e-05 -3.41651e-05 -0.054317764 -0.0987847129
820295080.0 0.0734695237 0.8490980768 9.21818e-05 -1.06033e-05 0.0001029568 -7.93526e-05 -0.0558510796 -0.0977636648
825295050.0 0.0817355388 0.8480044157 0.0001526536 -0.0001877545 0.0001238689 -7.05018e-05 -0.0570382069 -0.0971181335
830295020.0 0.0910217662 0.8475808657 0.0001561295 -2.14625e-05 0.0003542323 -6.82179e-05 -0.0587348449 -0.0964528456
835294990.0 0.0981239081 0.8466945643 0.0003249179 -0.0001662891 0.0001116832 9.7791e-05 -0.060138925 -0.0949489416
840294960.0 0.1066303412 0.8453707271 -0.0001022576 -4.74665e-05 0.0003366473 6.47809e-05 -0.0613002451 -0.0941257291
845294930.0 0.1150278825 0.8443989732 -0.0001496609 -0.0001253474 0.0001253738 -0.0001942254 -0.0628979813 -0.0930790031
850294900.0 0.1235652848 0.8433750022 7.3449e-05 -0.0003623175 0.0001109963 0.000128715 -0.0641955537 -0.092334936
