!Created with skrf (http://scikit-rf.org).
# Hz S RI R 50.0 
!freq ReS11 ImS11 ReS21 ImS21 ReS12 ImS12 ReS22 ImS22
300000.0 0.8589448937 -0.0025619198 0.0002065359 -0.0005929461 -0.0008198681 0.0003366241 -0.7743298927 -0.1156927479
5299970.0 0.8588216822 -0.0094058124 4.8368e-05 0.0001154484 -1.50887e-05 -0.0002313708 -0.7853815104 -0.0066783466
10299940.0 0.857917607 -0.0185757131 5.21327e-05 -8.8482e-06 -4.71967e-05 -9.13047e-05 -0.7886304737 -0.0036189468
15299910.0 0.8565287834 -0.0269252483 -3.74831e-05 -5.9311e-05 1.02159e-05 0.0003059314 -0.7941292547 -0.0011195101
20299880.0 0.8561695477 -0.0349582704 -0.0001118157 -8.92367e-05 0.000128048 -1.82376e-05 -0.8006297413 0.0019592375
25299850.0 0.8557662442 -0.0430106222 6.01689e-05 -0.0001071264 -8.09578e-05 -3.21881e-05 -0.8063881537 0.0077557131
30299820.0 0.8539492899 -0.0524059924 0.0001170702 -9.41448e-05 -1.06e-08 -0.0001473429 -0.8124959059 0.0161478079
35299790.0 0.8537951615 -0.060280383 -5.73641e-05 -2.4182e-06 -3.19326e-05 5.96379e-05 -0.8177098249 0.0251434497
40299760.0 0.8529408403 -0.0686481968 0.0001040616 0.0002287468 -0.0002265774 -0.0002089055 -0.8219004926 0.0343302622
45299730.0 0.8529168384 -0.076851806 -1.72354e-05 3.21498e-05 3.52369e-05 -8.35513e-05 -0.825421816 0.0434670878
50299700.0 0.8517756443 -0.0849038779 -7.76002e-05 -3.05246e-05 -1.9525e-06 -6.03951e-05 -0.8277082661 0.0536702486
55299670.0 0.8506557782 -0.0933297039 6.48175e-05 -0.0001113507 -4.77916e-05 -3.53437e-05 -0.8299325399 0.0640837435
60299640.0 0.8496233132 -0.1011375969 8.38824e-05 0.0001270575 -4.32997e-05 1.21722e-05 -0.8308203124 0.0740615477
65299610.0 0.8483458082 -0.1096994247 1.1343e-05 5.98236e-05 0.0001275914 0.0001627477 -0.8321492931 0.0838820448
70299580.0 0.8474675663 -0.1178689796 -0.0001959519 -0.0001361123 4.84907e-05 4.76326e-05 -0.8318883627 0.0940140677
75299550.0 0.8465393842 -0.1264334494 -4.79363e-05 9.73602e-05 -4.83161e-05 -6.67964e-05 -0.8324312568 0.1036796409
80299520.0 0.8444219503 -0.1349089176 -8.39311e-05 -9.70394e-05 0.0001074452 -2.2953e-06 -0.831973923 0.11370951
85299490.0 0.8433975588 -0.1426665804 -0.0001022931 -3.66902e-05 2.00835e-05 0.0001405251 -0.8316108648 0.1233552075
90299460.0 0.8419123394 -0.1511797687 7.26511e-05 -8.95653e-05 2.51353e-05 -0.0002253894 -0.8307163588 0.1331000833
95299430.0 0.8401514217 -0.1594690386 5.90081e-05 -5.92019e-05 -4.19832e-05 -8.19375e-05 -0.8289668465 0.1429501337
100299400.0 0.8385581181 -0.1672390551 0.0001099074 0.0002329432 -0.0001224772 0.0001260248 -0.828271811 0.1521953241
105299370.0 0.8372976137 -0.1749054828 0.0001480751 0.0001573147 -6.8672e-05 8.1507e-06 -0.8266968802 0.161132983
110299340.0 0.8349614105 -0.184213438 -0.0001729261 -0.0001869047 -9.0449e-06 2.69012e-05 -0.825757684 0.1709503278
115299310.0 0.8333693811 -0.1917253164 0.0001946418 -1.25632e-05 -5.87658e-05 7.98755e-05 -0.8243053817 0.1795394303
120299280.0 0.8316170663 -0.1998114429 -9.1641e-05 0.0003141397 -0.0001750488 0.0001111418 -0.8227732219 0.1891959546
125299250.0 0.8294134754 -0.2080678739 -0.000386962 4.3066e-06 -0.000161257 -6.74297e-05 -0.821273371 0.1979484451
130299220.0 0.8271938983 -0.2157077175 0.0001172369 0.0001093568 3.37586e-05 4.27538e-05 -0.8196031393 0.2066445911
135299190.0 0.8253550666 -0.2240112791 0.0001254135 0.000101174 3.97418e-05 1.51274e-05 -0.8171770156 0.2156997227
140299160.0 0.8236726212 -0.2319596598 -0.0001523187 3.45806e-05 -4.2718e-05 -0.0002388489 -0.8151303433 0.2253415014
145299130.0 0.8205418118 -0.240227845 -0.0001360288 -0.0001363059 9.55048e-05 -0.0002176519 -0.8128829057 0.2341216338
150299100.0 0.8186344419 -0.2481478583 -2.43894e-05 7.0271e-05 -6.958e-06 7.97426e-05 -0.811240544 0.2430412099
155299070.0 0.8153634302 -0.2566467886 -0.0003703709 3.98349e-05 -4.94912e-05 3.0626e-05 -0.8080853279 0.2520552981
160299040.0 0.8127515054 -0.2647340358 -0.0001323445 0.0001494057 -1.33415e-05 -3.78405e-05 -0.8063168199 0.2609080959
165299010.0 0.8102980665 -0.2717735085 -4.66317e-05 -0.0001187047 -7.50285e-05 -0.0001867252 -0.8035730724 0.2694629765
170298980.0 0.8075851939 -0.2796949921 6.66536e-05 -0.0001012707 -4.42499e-05 -1.9884e-05 -0.8004075039 0.2779156089
175298950.0 0.8045545209 -0.2879375622 0.0001459116 8.74924e-05 -0.0001398208 0.0002707062 -0.7977738556 0.2866344311
180298920.0 0.802695014 -0.2954849915 -3.11232e-05 -1.77679e-05 0.0002881213 -0.000160336 -0.7947024391 0.2951619101
185298890.0 0.7985985644 -0.303553123 -1.21179e-05 -0.000291389 -0.0001999973 4.73639e-05 -0.7909710697 0.3040562606
190298860.0 0.7958743083 -0.3112631146 -0.0001471766 0.0001600021 -0.0002304653 9.97141e-05 -0.7887260059 0.3120798699
195298830.0 0.7932421354 -0.3189984536 0.0002325776 0.0001646277 -0.0001202237 -0.0001375836 -0.7855276177 0.3206971379
200298800.0 0.7892284107 -0.3264020006 5.73905e-05 -1.4867e-06 -3.38489e-05 7.75372e-05 -0.7819053328 0.3288777674
205298770.0 0.785975432 -0.3342438279 1.03737e-05 -4.2174e-06 -0.0001414436 -1.18056e-05 -0.7783564481 0.3371155124
210298740.0 0.7828347913 -0.3418703294 0.00012732 -4.6077e-05 0.0003259473 -4.43634e-05 -0.7746316021 0.3456392669
215298710.0 0.7797896695 -0.3499244168 7.27383e-05 -1.90041e-05 0.0002025054 0.00010648 -0.7715704635 0.3537466562
220298680.0 0.7757754674 -0.3573198759 6.01406e-05 -0.0002278872 7.53204e-05 -9.49905e-05 -0.7676512381 0.3615658356
225298650.0 0.772185395 -0.3652177548 -0.0001271626 1.82877e-05 -1.11507e-05 -0.0002256816 -0.764182449 0.3695070716
230298620.0 0.7686987756 -0.3725748575 0.0001050303 -4.18761e-05 3.77265e-05 0.0001230968 -0.760086961 0.3781472363
235298590.0 0.7650422381 -0.3795948508 9.74989e-05 -0.0002624091 -4.73198e-05 5.41325e-05 -0.7555874361 0.3865293889
240298560.0 0.7615622587 -0.3874321398 9.5425e-06 -6.74713e-05 6.42286e-05 -0.0001204135 -0.7515579144 0.3949325754
245298530.0 0.7570833388 -0.3950344371 -6.47184e-05 0.0001503717 -0.0001079364 0.0002187776 -0.7473983979 0.4023980063
250298500.0 0.7532989958 -0.4018901763 -0.0001183314 0.0001276031 0.0001562575 -1.66057e-05 -0.7435227627 0.410216713
255298470.0 0.7492841753 -0.4096767176 0.0001310581 -5.20369e-05 -8.13994e-05 -1.61348e-05 -0.7393683786 0.4178459153
260298440.0 0.7449940567 -0.4169514534 2.91907e-05 -2.80129e-05 -2.99071e-05 6.62552e-05 -0.7346864303 0.4259703724
265298410.0 0.7412785449 -0.4239042815 5.06293e-05 -0.0002437772 1.8334e-05 6.41343e-05 -0.7303989429 0.4332683865
270298380.0 0.7368648825 -0.4310956838 -4.01582e-05 0.0001380885 5.39921e-05 9.0913e-06 -0.7259432315 0.4409561005
275298350.0 0.7333216825 -0.4382452071 -5.72772e-05 -0.0001059374 0.0002454358 -8.517e-05 -0.7208997104 0.4485829949
280298320.0 0.7283699985 -0.4453718433 -0.0001434018 -0.0001110696 -3.46939e-05 9.45856e-05 -0.7167572021 0.4563179705
285298290.0 0.7253648079 -0.4524950507 -1.64025e-05 9.95267e-05 -5.75088e-05 -1.59194e-05 -0.711267461 0.4634215532
290298260.0 0.7203386933 -0.4596255687 0.0001532727 -4.85012e-05 0.0002200058 -0.0001370797 -0.7063623631 0.4708176887
295298230.0 0.7159128179 -0.4664557088 -7.67581e-05 -1.63171e-05 -8.72695e-05 -6.05071e-05 -0.7018481984 0.478242053
300298200.0 0.7118195164 -0.4741385604 6.9751e-05 -0.0001807438 -5.84089e-05 -0.0001355756 -0.6966047613 0.4858096537
305298170.0 0.7074347217 -0.4810274264 -0.0001397 0.0001034734 0.000108772 1.07315e-05 -0.6911522619 0.4936363208
310298140.0 0.7025776141 -0.4878496588 -0.0001386841 -0.0001254538 1.91217e-05 -4.34902e-05 -0.6867164303 0.5001161102
315298110.0 0.6984433166 -0.4952866007 3.13918e-05 -1.043e-06 -6.60291e-05 -0.000150816 -0.6807456256 0.5068392091
320298080.0 0.6936485649 -0.5038265194 0.0001250201 -0.0001700976 4.96766e-05 5.30715e-05 -0.6757842741 0.5146153572
325298050.0 0.6877508133 -0.5102529329 1.01905e-05 9.65471e-05 -5.41656e-05 -1.14874e-05 -0.6699871296 0.5215210168
330298020.0 0.6822088707 -0.5176706669 6.97902e-05 -9.77327e-05 -0.0001210236 9.43917e-05 -0.6647388116 0.5285232152
335297990.0 0.6759127961 -0.5243882079 7.0701e-05 -9.28863e-05 -1.106e-07 6.46521e-05 -0.6594760846 0.5351515086
340297960.0 0.6697591504 -0.5313719683 0.0001372238 0.0002113049 -2.72962e-05 -7.17614e-05 -0.6535302394 0.5426316937
345297930.0 0.6640427206 -0.5375647763 0.0002168731 1.9287e-06 -0.0001397815 -6.23711e-05 -0.6479656451 0.5488636498
350297900.0 0.6586232391 -0.5430983028 0.0001569089 6.68716e-05 -0.0001811033 -9.89562e-05 -0.6420524266 0.5557894412
355297870.0 0.6534521589 -0.5496670343 8.94441e-05 2.40688e-05 -2.02737e-05 -0.0001990033 -0.6365825829 0.5621454935
360297840.0 0.6473533769 -0.5556554615 0.000125215 -0.0001635355 -0.0001657402 9.90179e-05 -0.6302129632 0.5690753292
365297810.0 0.6414206562 -0.5619419309 0.0001053646 -0.0002751594 -7.9967e-06 3.19006e-05 -0.6238833702 0.5749374361
370297780.0 0.6363270596 -0.5679734084 5.68524e-05 7.80187e-05 8.9552e-06 0.0002143594 -0.6181133743 0.5817928311
375297750.0 0.6302044626 -0.5737719693 0.0001215643 -1.58222e-05 -7.57697e-05 4.52289e-05 -0.6123388723 0.5874057949
380297720.0 0.6246838586 -0.5804777067 0.00014987 0.0001744998 -9.0808e-06 -6.2341e-05 -0.6059208709 0.5941900792
385297690.0 0.618896431 -0.5862761201 -5.91674e-05 0.0001176729 -9.33273e-05 -0.0001279992 -0.5995548668 0.60000517
390297660.0 0.61237509 -0.591538354 2.55143e-05 -6.0479e-06 -5.1624e-06 4.48249e-05 -0.5935165572 0.6064634422
395297630.0 0.6069322918 -0.5980943491 8.8839e-06 0.0001124577 5.87744e-05 -9.19742e-05 -0.5868590176 0.613000106
400297600.0 0.6012827693 -0.6034045856 -1.16661e-05 1.40924e-05 0.0002066919 1.1149e-06 -0.5809312102 0.6183198978
405297570.0 0.5949911809 -0.6091353422 0.0002215168 3.89394e-05 -3.18579e-05 -5.77574e-05 -0.5742946642 0.6244422909
410297540.0 0.5884603094 -0.6153682672 8.94554e-05 1.72249e-05 4.43953e-05 0.0001404468 -0.5678324711 0.6308794906
415297510.0 0.5828019203 -0.6207414838 -5.60799e-05 -2.78386e-05 -0.0001277541 -4.96405e-05 -0.5614185683 0.6366034684
420297480.0 0.5767540562 -0.6263423176 0.0001091111 -0.0001289586 -0.000125094 1.67906e-05 -0.554776551 0.6423582263
425297450.0 0.570180379 -0.632015664 0.000142757 3.99744e-05 8.51712e-05 -0.0001927342 -0.5481557281 0.6483031409
430297420.0 0.5640140536 -0.6371912776 -4.31192e-05 -3.1074e-05 3.0299e-05 -4.24241e-05 -0.5411396114 0.652638435
435297390.0 0.5579700642 -0.6429590886 9.82547e-05 0.0002172496 4.4214e-06 -7.3115e-06 -0.5342050997 0.6582664714
440297360.0 0.5512931907 -0.6489445226 -1.02181e-05 3.78145e-05 5.38906e-05 8.40474e-05 -0.5275766954 0.663952271
445297330.0 0.5445992862 -0.6538435956 -9.36576e-05 -0.0002527382 6.44192e-05 -1.64538e-05 -0.5209272846 0.6689402136
450297300.0 0.5387124331 -0.6587858093 3.75559e-05 8.2868e-05 3.03578e-05 -6.50951e-05 -0.5135417183 0.6743199399
455297270.0 0.5315949201 -0.6642213404 3.63034e-05 5.95103e-05 0.0002089087 -1.67569e-05 -0.5069107723 0.6787778887
460297240.0 0.5249332562 -0.6685655316 0.0002520651 -8.51822e-05 -0.0001304977 -4.35827e-05 -0.5002394668 0.6846184503
465297210.0 0.5184745047 -0.6743414664 -0.0001949635 -0.0001935986 4.21446e-05 1.2844e-06 -0.4926388833 0.6893882438
470297180.0 0.5114144832 -0.67879929 -0.0001631193 -0.0002969774 -2.99468e-05 -6.58809e-05 -0.4853830283 0.6951620618
475297150.0 0.5052161901 -0.6846083821 5.67002e-05 8.88191e-05 1.41961e-05 2.04564e-05 -0.4783140139 0.6991566471
480297120.0 0.4974798703 -0.6893950871 1.99158e-05 -8.90356e-05 0.0001023951 -2.59983e-05 -0.4708754846 0.7041427369
485297090.0 0.4912269183 -0.6934634628 2.30866e-05 6.816e-07 0.000127849 -1.73955e-05 -0.4643681416 0.7087964167
490297060.0 0.4838802744 -0.6981528808 -0.0002121746 0.0001935207 -0.0001736665 7.09633e-05 -0.4567604493 0.7127839708
495297030.0 0.477300925 -0.702928063 -9.86494e-05 2.18872e-05 -0.0002245127 -0.0001463502 -0.4494751789 0.7181564809
500297000.0 0.4701917434 -0.7076886629 0.0004460955 0.0001579801 -2.03782e-05 6.58947e-05 -0.4415750277 0.72296936
505296970.0 0.4637122437 -0.7127205922 1.45854e-05 0.0001530367 -8.3617e-05 6.08905e-05 -0.4341247964 0.7274562522
510296940.0 0.4553165348 -0.7168423892 0.0001672209 2.2584e-05 2.22215e-05 0.0001995102 -0.4272641867 0.7315112925
515296910.0 0.4492315002 -0.7207309756 -8.41452e-05 0.0001242684 0.0001478454 0.0001932296 -0.4194770644 0.7355181389
520296880.0 0.4418760696 -0.7256512869 0.0004782448 -0.0001115056 0.0001399446 9.99039e-05 -0.4118114459 0.7394631924
525296850.0 0.4347294463 -0.7300979311 0.0002684973 0.0002653643 7.94873e-05 5.2077e-05 -0.4046662789 0.7439777207
530296820.0 0.4267801077 -0.733385049 0.00023295 5.14548e-05 0.0002146983 -0.0001906487 -0.3970874149 0.747660641
535296790.0 0.4202197968 -0.7381263822 -0.0001183436 -2.73649e-05 0.0001283103 -0.0002977771 -0.3897313026 0.751188794
540296760.0 0.4127524561 -0.7419905046 -0.0001273413 -7.264e-06 -0.0003019858 0.0002051614 -0.3821594613 0.755490928
545296730.0 0.4049944123 -0.7453329593 3.27324e-05 0.0001190497 -6.7114e-05 -8.34193e-05 -0.3741101199 0.7589005215
550296700.0 0.3980302858 -0.7486113095 -3.89321e-05 -2.55238e-05 2.5677e-06 0.0001524659 -0.3661668579 0.7628023326
555296670.0 0.390175739 -0.7539328059 -0.0001661077 0.0001599896 -1.56821e-05 0.0002405858 -0.3586834839 0.7668096109
560296640.0 0.3824701633 -0.7572238971 -1.3304e-05 2.06816e-05 -5.63504e-05 -0.0001354206 -0.3510130654 0.7704517889
565296610.0 0.3753732101 -0.7605730667 0.0001709137 0.0002049793 9.92476e-05 0.0001123316 -0.3427796998 0.7737649947
570296580.0 0.3672993156 -0.7641907685 -0.0001762178 -6.62255e-05 0.0002339438 -7.36603e-05 -0.334872662 0.7775737688
575296550.0 0.3597449134 -0.7671318333 -6.00698e-05 -6.64865e-05 -7.86786e-05 -5.78981e-05 -0.3271120138 0.7810361688
580296520.0 0.3525494091 -0.7711983489 4.34741e-05 -8.0322e-06 -4.45461e-05 -0.0001204769 -0.3186692624 0.7838048053
585296490.0 0.343877513 -0.7748215837 -2.89721e-05 0.0001355458 3.78404e-05 -8.1214e-05 -0.3110476464 0.7875226063
590296460.0 0.3369572412 -0.7772579248 -1.6338e-05 8.57606e-05 0.0001168003 -7.02546e-05 -0.3034488313 0.7899415245
595296430.0 0.3286187236 -0.7809169669 -5.75012e-05 3.96785e-05 -6.42891e-05 0.0001440087 -0.295157373 0.7924978486
600296400.0 0.3207971535 -0.7843364185 -3.08067e-05 -1.64349e-05 0.0001803259 0.0003143143 -0.2871755081 0.7955506281
605296370.0 0.3129597103 -0.7871163366 -0.0003330995 -3.47418e-05 -7.303e-07 1.59781e-05 -0.2784632718 0.7986626381
610296340.0 0.3052100273 -0.7901784001 0.00010051 -0.0001180909 0.0001697143 7.6908e-06 -0.2705679476 0.8012868584
615296310.0 0.2981406809 -0.7930697152 -9.26898e-05 -1.28629e-05 -1.39297e-05 -4.17057e-05 -0.2623767213 0.8039099395
620296280.0 0.2893882004 -0.7960110246 -0.0002425998 6.58727e-05 0.0001737933 7.7047e-05 -0.2548289455 0.8070689604
625296250.0 0.282253924 -0.7981404408 9.1975e-05 2.53742e-05 -1.69275e-05 -8.80933e-05 -0.2457039239 0.8090078403
630296220.0 0.2744206463 -0.8011616985 9.19151e-05 -1.1435e-06 4.03697e-05 -3.71157e-05 -0.2381852087 0.8115858286
635296190.0 0.2660878298 -0.8038427803 -0.0001501506 -3.95166e-05 0.0002209025 3.974e-07 -0.2300996132 0.8137093621
640296160.0 0.2580098383 -0.8058283149 -2.9075e-05 5.6863e-05 -5.62169e-05 0.0001345051 -0.2217222311 0.8163138559
645296130.0 0.2499666288 -0.8085663175 -5.46628e-05 2.76316e-05 0.0001841082 -1.88749e-05 -0.2136533932 0.8188425273
650296100.0 0.2413413372 -0.8100075645 0.0002784303 3.53991e-05 -5.40307e-05 3.2508e-06 -0.2054148727 0.8195405973
655296070.0 0.2333985593 -0.8134906145 -5.97558e-05 1.38583e-05 -6.77e-05 -0.0001438986 -0.1967775108 0.8216770733
660296040.0 0.2258728711 -0.8150531407 3.72121e-05 -7.46325e-05 0.0003983108 0.0001227933 -0.1881208461 0.8236450663
665296010.0 0.2174185826 -0.8172721178 -4.01374e-05 0.0001656917 0.0001788213 0.0001385594 -0.1797615992 0.8260826151
670295980.0 0.2088156021 -0.8195822597 -3.599e-06 -0.0001184246 -0.000119956 -1.518e-05 -0.1721076141 0.8274905655
675295950.0 0.201380387 -0.8207312978 9.81713e-05 -7.72159e-05 6.98728e-05 -0.0001127082 -0.1647994285 0.829586756
680295920.0 0.1929972069 -0.8227179057 6.90826e-05 -0.0001863397 8.99238e-05 0.0001509638 -0.1556584193 0.8312645652
685295890.0 0.1845306314 -0.8238352717 7.773e-06 -4.57365e-05 8.53824e-05 0.0001179613 -0.1469052441 0.8318902781
690295860.0 0.1761782033 -0.8261545206 -1.57631e-05 -0.0001027524 6.41689e-05 3.85803e-05 -0.1390488577 0.8340404174
695295830.0 0.1684133518 -0.8276502913 -4.44186e-05 5.70609e-05 5.15577e-05 -0.0001040797 -0.1297935644 0.834908526
700295800.0 0.1599496674 -0.8297544886 0.0001286006 6.22091e-05 -1.92047e-05 -2.08356e-05 -0.1228502825 0.8366788301
705295770.0 0.1522648418 -0.8306560966 0.0002303797 0.0001074754 0.0001891003 5.85891e-05 -0.1139507989 0.8380927371
710295740.0 0.1431037643 -0.8315993224 3.5026e-06 5.96706e-05 -3.47307e-05 -0.000114959 -0.1053899187 0.8384784812
715295710.0 0.1344565396 -0.8342385042 -7.51959e-05 0.0001994803 -0.0001813701 -2.7365e-05 -0.0971618164 0.8392481565
720295680.0 0.1267046492 -0.8346893819 -8.82992e-05 -0.000116025 0.0001675565 -0.0001513287 -0.0886143854 0.8405717229
725295650.0 0.1174799197 -0.8349612071 -0.0001313761 -1.36931e-05 -2.96977e-05 -0.0001236062 -0.0805239445 0.8418548425
730295620.0 0.1099586232 -0.8361109357 0.0001439046 -4.59622e-05 5.47671e-05 -2.33625e-05 -0.0726615652 0.8419389982
735295590.0 0.1010489864 -0.8366702969 0.000171206 0.0001274668 7.27031e-05 0.0001246144 -0.0640336069 0.8427325281
740295560.0 0.0928661286 -0.8373312943 -3.201e-07 -8.99093e-05 8.64663e-05 4.99629e-05 -0.0541899582 0.8434197053
745295530.0 0.084568838 -0.8387342932 -8.63498e-05 -8.716e-06 2.5513e-05 -0.0001268789 -0.0464554245 0.8435389055
750295500.0 0.0760097341 -0.8396655695 -8.24548e-05 6.66812e-05 -0.0001605093 9.57693e-05 -0.0384901068 0.8444763867
755295470.0 0.0672827858 -0.8400137223 2.07887e-05 2.69923e-05 5.39992e-05 6.17112e-05 -0.0296737325 0.8440596784
760295440.0 0.0591331921 -0.8406424578 -0.0001441387 -0.0001049863 0.0002620035 6.47207e-05 -0.0208561252 0.8446198696
765295410.0 0.0508043383 -0.8408759412 5.53419e-05 0.0001073496 1.12728e-05 8.20388e-05 -0.0125606989 0.8446638817
770295380.0 0.0426737438 -0.8416057023 0.0001509332 -1.62851e-05 5.46631e-05 0.0001048368 -0.0048195989 0.8449237024
775295350.0 0.0337272657 -0.8415092976 -0.0002526583 -3.87931e-05 -0.0001450377 -1.56917e-05 0.0035766702 0.8446454867
780295320.0 0.0257706354 -0.8421535066 -6.49581e-05 0.0002039976 -0.0001259008 8.18145e-05 0.0122768005 0.8446109582
785295290.0 0.0170033321 -0.8420232777 5.06252e-05 0.0001562606 -5.84524e-05 0.0001137457 0.0207133475 0.8445385079
790295260.0 0.008859208 -0.8416291964 0.0001284838 -0.0002031371 -2.91241e-05 0.0002798981 0.0296894877 0.8451575644
795295230.0 0.0004452619 -0.841162798 -2.831e-06 -9.27826e-05 -2.28271e-05 -0.0001168035 0.0385328895 0.8439956525
800295200.0 -0.0082947972 -0.8408384828 -8.53127e-05 -3.70341e-05 3.12457e-05 0.000194577 0.0470123382 0.8431381937
805295170.0 -0.0162709476 -0.8410368396 -2.92254e-05 -6.13317e-05 -1.13144e-05 -0.0001086671 0.0544226172 0.843397739
810295140.0 -0.0241208816 -0.84051028 -0.0001768935 -2.43862e-05 2.60044e-05 -6.8868e-05 0.0631290713 0.8423987912
815295110.0 -0.0332827836 -0.8404424702 8.34473e-05 3.64332e-05 -2.3648e-05 -0.0002087554 0.0719788117 0.8421226346
820295080.0 -0.041227605 -0.8400056985 0.0002664198 -8.82272e-05 -0.0001891027 3.05971e-05 0.0796926854 0.8415488473
825295050.0 -0.0496657404 -0.8391689752 5.05897e-05 -5.59644e-05 2.5358e-05 -8.10212e-05 0.0882087242 0.8407290977
830295020.0 -0.0579992477 -0.8383800183 6.32935e-05 0.0001811069 -6.81424e-05 5.71864e-05 0.0974146358 0.8394668216
835294990.0 -0.0661672927 -0.8370972661 0.0002025291 -5.29426e-05 -7.37567e-05 9.50247e-05 0.1046091535 0.8384656608
840294960.0 -0.0744354007 -0.8367877196 -0.0002964927 -7.26757e-05 -7.81135e-05 0.0001726308 0.1133079087 0.837015258
845294930.0 -0.0836165814 -0.8358617899 0.0001368118 0.0002456208 -0.0001182605 4.26225e-05 0.1212726994 0.8352772351
