!Created with skrf (http://scikit-rf.org).
# Hz S RI R 50.0 
!freq ReS11 ImS11 ReS21 ImS21 ReS12 ImS12 ReS22 ImS22
300000.0 -0.0948629073 -0.0990794147 0.6230751103 0.0920628955 0.6201656699 0.0948318043 -0.0940117382 -0.1073647398
5299970.0 -0.1013394583 0.0112609647 0.6304950095 0.011268352 0.6308317778 0.0111672057 -0.1016216778 0.0113069252
10299940.0 -0.0970698108 0.0287867212 0.6347706479 0.0160636508 0.634148088 0.0164028986 -0.0964250479 0.0285012982
15299910.0 -0.0892410644 0.0423726082 0.6407391089 0.0215923696 0.6407568188 0.0213918651 -0.0897857397 0.041907965
20299880.0 -0.0804449924 0.0535107322 0.6487059121 0.0245437089 0.6491879067 0.0242149317 -0.0809168718 0.0528384906
25299850.0 -0.0701496942 0.0623668285 0.6586285663 0.0257250475 0.6583829708 0.0254179764 -0.0714481659 0.0618301021
30299820.0 -0.0607371692 0.0687621312 0.6680209764 0.0243077516 0.6677721409 0.0249460595 -0.0619618543 0.0682965025
35299790.0 -0.0505813489 0.0735634236 0.677258238 0.0220735619 0.6775473217 0.0219273566 -0.0524831709 0.0737425363
40299760.0 -0.0409318146 0.0764991977 0.6869672209 0.0176822646 0.6871605701 0.0175844267 -0.0426530772 0.0768306238
45299730.0 -0.0316928576 0.0783403821 0.6955934914 0.0122983217 0.6958393166 0.0122464539 -0.0333150521 0.0792768597
50299700.0 -0.0228127557 0.078749153 0.70375363 0.0052400331 0.7036455143 0.0051074433 -0.0244974491 0.0801489894
55299670.0 -0.0151173927 0.0789649814 0.7107550267 -0.0021989931 0.7104735222 -0.0027907868 -0.0170780926 0.0801670102
60299640.0 -0.007804192 0.0786548489 0.7179437774 -0.0110023874 0.7180710769 -0.0108219536 -0.0098257823 0.0796197727
65299610.0 -0.0012648186 0.0770320409 0.7242302335 -0.0198098472 0.7240979323 -0.0201740826 -0.0024534558 0.0785776524
70299580.0 0.0053214703 0.0750123628 0.7293011741 -0.0283945979 0.7292474558 -0.0293018543 0.0031217366 0.0771813925
75299550.0 0.0104551378 0.0731818279 0.7335998945 -0.0392572977 0.7336402819 -0.038895875 0.0088108566 0.0752769952
80299520.0 0.0153273354 0.0711652853 0.737792402 -0.0483673913 0.7378666516 -0.0483040927 0.0139254697 0.0733853815
85299490.0 0.0200023998 0.0689726782 0.7406246709 -0.0585790461 0.7411180621 -0.0582131877 0.0180444199 0.0708971958
90299460.0 0.0240369496 0.0668772673 0.7433374878 -0.0690707715 0.7438210889 -0.0687451133 0.0227654387 0.0690406327
95299430.0 0.0280605519 0.0641411684 0.7462148579 -0.0787954802 0.7462804145 -0.079297375 0.025992954 0.0665824816
100299400.0 0.0312433086 0.0615199135 0.747761626 -0.0885256786 0.7476332093 -0.0890007614 0.0291964886 0.064478328
105299370.0 0.0343973053 0.059177583 0.7494271467 -0.0987744816 0.7499359425 -0.0989422101 0.0326942794 0.0615391683
110299340.0 0.0373664902 0.0563885642 0.7505201579 -0.1085146081 0.7506761991 -0.1082880388 0.0350631391 0.0593458766
115299310.0 0.0396473336 0.0543352122 0.7516293837 -0.1185987658 0.751242716 -0.1188003746 0.0375316393 0.0577526905
120299280.0 0.0415367677 0.051974447 0.7522779718 -0.1298220648 0.7515967738 -0.1293986011 0.0398199365 0.0545288166
125299250.0 0.0440091616 0.0495680629 0.7518006159 -0.1390184835 0.7520479741 -0.1385890673 0.0424517701 0.0529699816
130299220.0 0.0457377856 0.046965355 0.752506382 -0.1487203552 0.7518027254 -0.1493245532 0.0439256948 0.0503990157
135299190.0 0.0469181201 0.0451962074 0.7523330642 -0.1585453576 0.7517754919 -0.1589181276 0.0454405853 0.0479344892
140299160.0 0.0489072715 0.0433069359 0.7518052207 -0.1685852202 0.7512650482 -0.1682688974 0.0462686182 0.045665954
145299130.0 0.049431461 0.0410722949 0.7506689504 -0.1783491027 0.7505866261 -0.1781976278 0.0482033167 0.0438138814
150299100.0 0.0509713981 0.0394545747 0.7494626825 -0.1880760767 0.7495960395 -0.1875545297 0.0490607809 0.0422234288
155299070.0 0.0526396546 0.0369249481 0.7475464979 -0.1976883532 0.7485101132 -0.197946842 0.0507311998 0.0395237523
160299040.0 0.0533939338 0.035433272 0.7469586141 -0.2073107581 0.7466442545 -0.2073729704 0.0509691885 0.0380656747
165299010.0 0.0544968193 0.033479218 0.7457142707 -0.21627884 0.7448855206 -0.2168651761 0.0524965739 0.0358198034
170298980.0 0.054983641 0.0317744248 0.7433057838 -0.2258013062 0.7432177134 -0.2263961511 0.0526273011 0.0339886781
175298950.0 0.055924959 0.030376805 0.7417180896 -0.2351652074 0.741987427 -0.235803576 0.0536563853 0.0327225502
180298920.0 0.0564913706 0.0286649448 0.7393705491 -0.2448938463 0.7393351234 -0.2447857123 0.0541098237 0.0308014558
185298890.0 0.0568717737 0.0271840274 0.7379167824 -0.2535598298 0.7371292971 -0.2534415723 0.0552693452 0.0289832879
190298860.0 0.0578500896 0.0258133563 0.734447801 -0.2629020136 0.735029489 -0.2625016657 0.0552167168 0.0275434034
195298830.0 0.0577159543 0.0242625758 0.732774755 -0.271695097 0.7324577182 -0.2714514273 0.0557774413 0.0258962563
200298800.0 0.0585741658 0.0224213004 0.7298460231 -0.2809421693 0.729542081 -0.2810453816 0.0563916142 0.0241563445
205298770.0 0.0582206081 0.0206936209 0.7268048293 -0.2893019258 0.7273634725 -0.289547034 0.0571158254 0.0228816699
210298740.0 0.0588427858 0.0200186223 0.723917598 -0.2983134634 0.723675739 -0.2982878124 0.0564656757 0.0206821365
215298710.0 0.0592143519 0.0182587382 0.7208311484 -0.3067079397 0.7203345041 -0.3069591824 0.0573356553 0.0198618768
220298680.0 0.0594297553 0.0175649203 0.7174609191 -0.3155900671 0.717317669 -0.3160812226 0.0573882138 0.0181298456
225298650.0 0.0594837314 0.016112558 0.7140277164 -0.3242484101 0.7146325238 -0.32360195 0.0575488601 0.0163708468
230298620.0 0.0602544705 0.0150269456 0.7113809539 -0.3331312219 0.7113214939 -0.3328917337 0.0573193158 0.0150709637
235298590.0 0.0597492899 0.0136895719 0.7080560031 -0.3417502896 0.7079794535 -0.3415267564 0.0576113749 0.0144212292
240298560.0 0.0601426253 0.0127685648 0.7044161235 -0.3496813051 0.7039428318 -0.3496041128 0.0575652342 0.0126315192
245298530.0 0.0601418084 0.0113711152 0.7003765763 -0.357876982 0.7000748493 -0.3582729971 0.0579337167 0.011659856
250298500.0 0.0600925774 0.0102936917 0.6968849489 -0.3661738883 0.6968020996 -0.3657528968 0.05775931 0.0107797585
255298470.0 0.0604619232 0.0096198105 0.693242943 -0.3741176305 0.6930132753 -0.3740810984 0.0580887032 0.0097500742
260298440.0 0.0604174278 0.0082459674 0.6892508716 -0.3816922079 0.6890802746 -0.3820717636 0.0576963021 0.0078632912
265298410.0 0.0601670554 0.0074567835 0.6843631145 -0.3911109692 0.6843223148 -0.3909424091 0.0589205621 0.006616896
270298380.0 0.0600137139 0.0061285745 0.6804941029 -0.398121546 0.6803230038 -0.3980960818 0.0579439998 0.0058080535
275298350.0 0.0603785201 0.0055631628 0.6755068667 -0.4061879965 0.6755197122 -0.4060790853 0.0578378004 0.0048341617
280298320.0 0.0595952877 0.0043890962 0.6718792954 -0.4135075642 0.6719823802 -0.4139541014 0.0583188435 0.0039119387
285298290.0 0.0598800412 0.0035289817 0.6666665769 -0.4220503396 0.6675818374 -0.4216316616 0.058023204 0.0028968567
290298260.0 0.0600327507 0.0027793002 0.6638610752 -0.4299380694 0.6634694206 -0.4295259784 0.0579295743 0.0017762094
295298230.0 0.0597983116 0.0015413453 0.6581281194 -0.4377213254 0.6584312349 -0.4378460088 0.0579154058 0.0003588855
300298200.0 0.0600737873 0.0009058784 0.6536923656 -0.4457345672 0.653720071 -0.4449309678 0.0576340557 -0.0007886242
305298170.0 0.0600574055 -0.0010274153 0.6487920084 -0.4529308917 0.6488893687 -0.4530321874 0.0576571976 -0.0023257778
310298140.0 0.0603312289 -0.0017149188 0.644550929 -0.4607656751 0.6441736805 -0.4605387133 0.0579447068 -0.00358826
315298110.0 0.0596535741 -0.0031868014 0.6391568016 -0.4684027023 0.6389778829 -0.4685657676 0.0577690366 -0.0044330838
320298080.0 0.0595446508 -0.003848501 0.6327513531 -0.4752745104 0.6343649828 -0.4762395951 0.0569989645 -0.0055442282
325298050.0 0.0586698532 -0.0053371848 0.6279594593 -0.4829411407 0.6286030141 -0.4832937091 0.0570082767 -0.0068631045
330298020.0 0.0572115795 -0.0058650922 0.6223198203 -0.4909885851 0.6231847153 -0.4907682866 0.0561278829 -0.007889293
335297990.0 0.0576093646 -0.0067676957 0.6170579606 -0.4977572782 0.6170299507 -0.4976512071 0.0556275239 -0.0089996156
340297960.0 0.0568053664 -0.0077325877 0.6110908783 -0.5050847725 0.6110521086 -0.5049057783 0.0552890871 -0.0094192438
345297930.0 0.0563622005 -0.0084931266 0.6061802561 -0.5121256725 0.6055007609 -0.5119184365 0.0552663317 -0.0105276136
350297900.0 0.0556981994 -0.0091279581 0.6003866441 -0.5179128672 0.6000735309 -0.5177688045 0.0547001266 -0.0116294588
355297870.0 0.0554473289 -0.0095493254 0.5943845111 -0.5243531315 0.594439694 -0.5244631922 0.054383519 -0.012190711
360297840.0 0.0551619985 -0.0101930801 0.5882339701 -0.5314823822 0.5883345796 -0.5317656497 0.0536173238 -0.0123009504
365297810.0 0.0546335475 -0.0109714112 0.581704499 -0.538474265 0.58237433 -0.5383795568 0.053037558 -0.0132334278
370297780.0 0.0546724546 -0.0113827598 0.5760605365 -0.5445999603 0.5763253497 -0.5444187585 0.0530289228 -0.0141658312
375297750.0 0.0542733179 -0.0119918373 0.5703049554 -0.5510447431 0.5702337515 -0.5509128783 0.0526147535 -0.0147910344
380297720.0 0.0536591454 -0.012565763 0.5647996944 -0.5575606205 0.5638892773 -0.5576973629 0.0522749222 -0.0152162189
385297690.0 0.0530583436 -0.013533334 0.5579658807 -0.563297291 0.5581728358 -0.5639491288 0.0522073185 -0.0156278163
390297660.0 0.0529220815 -0.0146040407 0.5515580767 -0.5695073715 0.5519943964 -0.57002549 0.0523276714 -0.0166475543
395297630.0 0.0530366225 -0.0151219562 0.5457437262 -0.575162968 0.5456635788 -0.5758628749 0.0513393357 -0.0172240015
400297600.0 0.0521754703 -0.0158582973 0.5394772822 -0.5821390997 0.5394129455 -0.5816973128 0.0516559131 -0.017179332
405297570.0 0.0517203617 -0.0166630927 0.533110423 -0.5875577874 0.5330983288 -0.5875758806 0.0509036436 -0.0179229335
410297540.0 0.0513948105 -0.0165697585 0.526720085 -0.5939218075 0.5268895625 -0.5937565934 0.0503217136 -0.0186805027
415297510.0 0.0508359289 -0.0173816743 0.5198823515 -0.5997594949 0.5206673666 -0.5995566164 0.0504570101 -0.0188893368
420297480.0 0.0504411878 -0.018541947 0.5131701295 -0.6057918314 0.5135629342 -0.6052487024 0.0500979138 -0.0197213974
425297450.0 0.0507936894 -0.0188635552 0.507098898 -0.6110418737 0.5066349043 -0.6112004468 0.0496336136 -0.0207250712
430297420.0 0.0498833266 -0.0194504582 0.5007909248 -0.6166364245 0.5003807307 -0.6161576388 0.0500201427 -0.0209744356
435297390.0 0.0496746872 -0.0201168093 0.4933332769 -0.6230582681 0.4933086906 -0.6221825253 0.0486231376 -0.0213522872
440297360.0 0.0495536622 -0.0210874658 0.4859224486 -0.6279441703 0.4856811949 -0.6277982871 0.0485935632 -0.0220067369
445297330.0 0.0493097977 -0.0221160131 0.4795756576 -0.6327689285 0.479652447 -0.6333292613 0.0481663168 -0.0223830534
450297300.0 0.0489057395 -0.022207943 0.4724339163 -0.6381735964 0.4728205996 -0.6379171 0.0480479523 -0.0226771761
455297270.0 0.0479734614 -0.0226789059 0.4657271713 -0.6436113682 0.4655119627 -0.6438015323 0.0479498813 -0.0234542551
460297240.0 0.0479731473 -0.023293059 0.4584644379 -0.649539226 0.4586993644 -0.6488872159 0.0472493294 -0.0242809635
465297210.0 0.0476289625 -0.0238896791 0.4508739031 -0.6538989802 0.4510077429 -0.6539721456 0.0474963079 -0.0238802081
470297180.0 0.0471237061 -0.0249030983 0.4438792663 -0.6584129465 0.4442184463 -0.6582904969 0.0468923208 -0.0252612713
475297150.0 0.0464331445 -0.0247633667 0.4372084955 -0.6633656673 0.4371335175 -0.6638712415 0.0465035794 -0.0258259586
480297120.0 0.0467375872 -0.0251404993 0.4293346559 -0.6682254908 0.4296384451 -0.6683528018 0.0459199839 -0.0264857674
485297090.0 0.0459841882 -0.0268016966 0.422249919 -0.6733382469 0.4222082189 -0.6726997511 0.0456629937 -0.0265013667
490297060.0 0.0462551081 -0.0266356129 0.4144884805 -0.6778461183 0.4144287894 -0.6779376691 0.0453793987 -0.0270508612
495297030.0 0.0451453976 -0.0275825391 0.407622008 -0.6826044215 0.4074902203 -0.6824378546 0.0454628678 -0.0279019872
500297000.0 0.0447596776 -0.0277627162 0.4000892076 -0.6867968312 0.399668479 -0.68671081 0.0449091952 -0.0279910508
505296970.0 0.0452348588 -0.0282265042 0.3930062017 -0.6912758085 0.3923878912 -0.6907749482 0.0443911614 -0.0291458021
510296940.0 0.0444610842 -0.0290632074 0.3847501759 -0.6963615364 0.3855348846 -0.6962361156 0.0441707849 -0.0290031898
515296910.0 0.0435387111 -0.028795299 0.3764834192 -0.700276541 0.3766700931 -0.6999067868 0.0437132154 -0.030265657
520296880.0 0.0433788019 -0.0294212808 0.369277063 -0.7033287078 0.3690512989 -0.703513819 0.0436706195 -0.0298683903
525296850.0 0.0433178501 -0.0302140985 0.3616691023 -0.7077196424 0.3616559388 -0.7078283514 0.0435916332 -0.0304786825
530296820.0 0.0424596576 -0.0310765853 0.3540896384 -0.7124220547 0.3536977739 -0.7118401124 0.0430480893 -0.0314905356
535296790.0 0.0429593327 -0.0312224292 0.3461031787 -0.715388016 0.3462570209 -0.7155760968 0.0430474917 -0.0314778697
540296760.0 0.0419321734 -0.0313024053 0.33749523 -0.7191920889 0.3380254133 -0.7196792053 0.0423582546 -0.0324804177
545296730.0 0.0408823331 -0.0315745052 0.3301041751 -0.7232249537 0.3300351093 -0.7230502623 0.041665381 -0.0327114122
550296700.0 0.0415913824 -0.0322119851 0.3224634984 -0.7267676808 0.3221222543 -0.7269499313 0.0416855271 -0.0332166528
555296670.0 0.0406262597 -0.0326166824 0.3141397827 -0.7305511563 0.3148579116 -0.7304216359 0.0409573284 -0.0341983082
560296640.0 0.0409676568 -0.0332329722 0.3061227298 -0.7332612873 0.3065526006 -0.7335538507 0.0405733482 -0.0337790565
565296610.0 0.0397501202 -0.0334341605 0.2983952302 -0.7369208249 0.2986068183 -0.7364215146 0.0402062337 -0.0340491045
570296580.0 0.039238506 -0.0336311403 0.2900380388 -0.7403585578 0.2902209942 -0.7405926518 0.0396279718 -0.0352794208
575296550.0 0.0390925903 -0.0342780179 0.2823372238 -0.7434267893 0.2825290082 -0.743622344 0.0390661741 -0.0352597814
580296520.0 0.0385888356 -0.0342709672 0.2743779253 -0.7466759704 0.273872242 -0.7467225768 0.0380118097 -0.0358427374
585296490.0 0.03831927 -0.0345577178 0.2663444435 -0.7490624688 0.2660201061 -0.7493443234 0.0387045646 -0.0358160926
590296460.0 0.038609238 -0.0348991506 0.25796401 -0.7517690991 0.2576415051 -0.7523346179 0.0373020482 -0.0362728066
595296430.0 0.0379093263 -0.0351580972 0.2484967223 -0.7550245914 0.2491274747 -0.7549000694 0.0375689795 -0.0369870394
600296400.0 0.0376994917 -0.0354228749 0.2406381994 -0.7573534581 0.240699763 -0.757640594 0.0370938683 -0.0374599925
605296370.0 0.0361759802 -0.0359016218 0.2333106254 -0.7602969926 0.2323935172 -0.7604885904 0.0360714783 -0.0375288289
610296340.0 0.0364877446 -0.0356088522 0.2246550451 -0.762358714 0.2249399145 -0.7626538191 0.0355185219 -0.0378050623
615296310.0 0.0362050231 -0.0365993742 0.2166254078 -0.7656420002 0.2154621282 -0.7650943105 0.0355998115 -0.0381480035
620296280.0 0.034960501 -0.0360805596 0.2073378515 -0.7675968285 0.2077347118 -0.7677143015 0.0345235403 -0.0383213451
625296250.0 0.0344647077 -0.0364187782 0.199384101 -0.7699767416 0.1989572249 -0.7701054031 0.0335928324 -0.03878177
630296220.0 0.0342520477 -0.0366149709 0.1902931063 -0.7724149266 0.1907029872 -0.7715546507 0.0334658013 -0.0390254443
635296190.0 0.0332786524 -0.0366785404 0.1820142659 -0.7735056704 0.1824687296 -0.7732825816 0.0330280426 -0.0390643005
640296160.0 0.0328838627 -0.0370603879 0.1739338301 -0.776374328 0.1735888806 -0.7762018852 0.0319584933 -0.0398916715
645296130.0 0.0326843516 -0.036785031 0.1647760636 -0.7772353309 0.1656725962 -0.7777556022 0.0314186453 -0.0405123042
650296100.0 0.0322257904 -0.0371701516 0.1565441901 -0.7795700899 0.1570402887 -0.7797008155 0.0318061437 -0.040526793
655296070.0 0.0314384961 -0.0374537052 0.1481094225 -0.7812092211 0.1483304821 -0.7810626457 0.0302147413 -0.0404480517
660296040.0 0.031211756 -0.0374069548 0.1402351315 -0.7827781715 0.1399381978 -0.7827985592 0.02971706 -0.0415319997
665296010.0 0.0307231019 -0.0375733323 0.1306348738 -0.7836340015 0.1309984629 -0.784146019 0.0293102575 -0.0414490167
670295980.0 0.0300722966 -0.0376203724 0.1223325113 -0.7852500188 0.1225224144 -0.7848738062 0.0284972826 -0.0417530245
675295950.0 0.0291971433 -0.0378409931 0.11392447 -0.7864229444 0.1145553579 -0.7865917258 0.0278564136 -0.0416444839
680295920.0 0.0287191832 -0.0379651117 0.1052799505 -0.7881580917 0.1060312657 -0.7879010962 0.0274613311 -0.0424425342
685295890.0 0.0285398995 -0.0377765731 0.0962142344 -0.7892675278 0.0967911251 -0.7892687268 0.0271908103 -0.0415051864
690295860.0 0.0273378216 -0.0380491452 0.0879752876 -0.7903530329 0.087833854 -0.7905930879 0.0262257168 -0.0423739683
695295830.0 0.0273394919 -0.0384333093 0.0802537053 -0.7913803508 0.080111953 -0.7904243682 0.025474712 -0.0421761233
700295800.0 0.0267657416 -0.0378966738 0.0712847316 -0.7915146848 0.0713509705 -0.7918048254 0.0250521436 -0.0422356352
705295770.0 0.0259563912 -0.0382074788 0.0625718114 -0.7932523985 0.0627249258 -0.7922113319 0.0244846136 -0.0425228802
710295740.0 0.0255335253 -0.0385297581 0.0537542233 -0.7933414276 0.0545483387 -0.7934278945 0.0239284152 -0.0425865641
715295710.0 0.0247400505 -0.0380211078 0.0455389815 -0.7942179148 0.0454560654 -0.793679041 0.0229985625 -0.0427405144
720295680.0 0.0246561791 -0.0381898457 0.0361809701 -0.7936571835 0.036817672 -0.7942542637 0.0223070492 -0.0432432585
725295650.0 0.0232332199 -0.0381763326 0.0284107817 -0.794467506 0.0281395571 -0.7942272039 0.0216332866 -0.0425653099
730295620.0 0.0222798451 -0.0387915425 0.018912797 -0.7941265679 0.019295673 -0.7936190841 0.0209473913 -0.042006606
735295590.0 0.0225079796 -0.0383764812 0.010890881 -0.795160562 0.0109074173 -0.7947643922 0.0202000921 -0.0432357558
740295560.0 0.0215480296 -0.0387731689 0.0023285387 -0.7950682555 0.0030873245 -0.7948668465 0.0192888283 -0.0427562933
745295530.0 0.0208402406 -0.0385617872 -0.0062331011 -0.7941003383 -0.0054222112 -0.7943859216 0.018071278 -0.0429738805
750295500.0 0.0200586789 -0.0383626091 -0.015132218 -0.7945510244 -0.0151159335 -0.7943782858 0.0178709386 -0.0431008462
755295470.0 0.0191779454 -0.0381647618 -0.0233575363 -0.7952699028 -0.023456245 -0.7947508812 0.0177509439 -0.0424108678
760295440.0 0.018597709 -0.0377374568 -0.0329999914 -0.7942663903 -0.0319557816 -0.7934803244 0.0170554816 -0.0438346224
765295410.0 0.0189231167 -0.0383516007 -0.0407576694 -0.7934522878 -0.0404408221 -0.7937090963 0.016251602 -0.0429390479
770295380.0 0.0177164084 -0.0379144142 -0.0493124978 -0.7930131535 -0.0491282641 -0.7935984863 0.0150642237 -0.0431564915
775295350.0 0.0172217728 -0.0384772094 -0.0579589183 -0.7926393319 -0.0579833777 -0.7920552907 0.0151534968 -0.0424857318
780295320.0 0.0161798098 -0.0378557685 -0.0664390816 -0.7911873651 -0.0661172217 -0.7917582215 0.0146180132 -0.0431575261
785295290.0 0.0155977733 -0.0382398962 -0.0749604719 -0.7908855085 -0.0747520809 -0.7907365466 0.0128624875 -0.0422605792
790295260.0 0.0154942428 -0.0382127106 -0.083167522 -0.7899736322 -0.083633981 -0.7904762894 0.01264663 -0.0418484994
795295230.0 0.0148254777 -0.0384682943 -0.0923963852 -0.7895411926 -0.0922585509 -0.7897471377 0.0120414273 -0.0430754627
800295200.0 0.0134348542 -0.0378764035 -0.1003244943 -0.7875949346 -0.1007807478 -0.7890269081 0.0111239803 -0.0425266211
805295170.0 0.0128595283 -0.0381402458 -0.1093251672 -0.787270932 -0.1085303525 -0.787042511 0.0114356159 -0.0424596283
810295140.0 0.0129271952 -0.0377670553 -0.1174383783 -0.7855571408 -0.1178580907 -0.7858957142 0.0102440241 -0.0423983578
815295110.0 0.0119828044 -0.0376334136 -0.1259645493 -0.7842763188 -0.1257960389 -0.7848754673 0.0096199053 -0.0424974403
820295080.0 0.0113533125 -0.0377884297 -0.1339574369 -0.7826850373 -0.1342868912 -0.7828754805 0.007999016 -0.0413118895
825295050.0 0.0105511342 -0.0377005965 -0.1431953846 -0.7817445642 -0.1429454163 -0.7810854124 0.0088331944 -0.0411647177
830295020.0 0.0098341056 -0.0376876792 -0.1515489785 -0.7797423545 -0.1510513194 -0.7799639598 0.0076974571 -0.0421110771
