!Created with skrf (http://scikit-rf.org).
# Hz S RI R 50.0 
!freq ReS11 ImS11 ReS21 ImS21 ReS12 ImS12 ReS22 ImS22
300000.0 -0.3219535506 -0.0747641296 0.3751224952 0.039021718 0.3738370123 0.0367773668 -0.320760033 -0.0883749585
5299970.0 -0.3266495866 0.0046853805 0.3783305759 0.0021839327 0.3782062394 0.0023643736 -0.3243499059 0.0049664014
10299940.0 -0.3245834625 0.0135748801 0.3795718691 0.0021228706 0.3798159136 0.0021689923 -0.3221114302 0.0160156822
15299910.0 -0.3217011351 0.0204409768 0.3817822329 0.0020392949 0.3819460846 0.0021257243 -0.3186858111 0.0236980795
20299880.0 -0.318656797 0.0261870066 0.3844144856 0.0018424396 0.3849241251 0.0017078369 -0.3150581324 0.0303410037
25299850.0 -0.3160623162 0.0315983598 0.3882960852 0.0001217865 0.3882623092 4.71775e-05 -0.3112526024 0.0357554199
30299820.0 -0.3127806934 0.0359725306 0.3913964681 -0.0023458252 0.3918243178 -0.0021067441 -0.307564904 0.0407061653
35299790.0 -0.3099787573 0.0398247671 0.3947091225 -0.0055152952 0.3946100088 -0.0053641652 -0.3035899452 0.0449111816
40299760.0 -0.3071926812 0.0434725739 0.3977655063 -0.0086363959 0.3981493239 -0.0087444869 -0.3003055655 0.0482335064
45299730.0 -0.3047128758 0.0464337615 0.4009325114 -0.0127753929 0.4011529421 -0.012677952 -0.2974087187 0.0517041067
50299700.0 -0.3023956502 0.0493330164 0.4035526407 -0.017190777 0.4034469181 -0.0169558986 -0.294153468 0.0541970354
55299670.0 -0.3005161953 0.0523504803 0.4057405126 -0.0223745032 0.4053952719 -0.0217571814 -0.2917935518 0.0568458903
60299640.0 -0.2980755802 0.0549828952 0.4074490101 -0.0269487541 0.4078749311 -0.0266723554 -0.2890814685 0.0592396276
65299610.0 -0.2963658974 0.0573541538 0.4090453691 -0.0320435643 0.4092455319 -0.0318865994 -0.2871464435 0.0613505256
70299580.0 -0.294639859 0.0599739386 0.410847385 -0.0369797187 0.4105404147 -0.0368801563 -0.2851287535 0.0639791224
75299550.0 -0.2931913704 0.0625280003 0.4114110179 -0.0421824414 0.4114816323 -0.0419623674 -0.2828025906 0.0658677413
80299520.0 -0.2915660697 0.0647616861 0.4124228264 -0.047767836 0.4124067795 -0.0474382967 -0.2816131569 0.0681834342
85299490.0 -0.2902337837 0.0670570081 0.4129296002 -0.0527210772 0.4129910458 -0.052272488 -0.279746425 0.0698699898
90299460.0 -0.288745 0.0691503466 0.4128248215 -0.0577852301 0.4136080137 -0.0578828201 -0.2782228628 0.0721286309
95299430.0 -0.2871980039 0.0716554605 0.4136331028 -0.062887483 0.4137373599 -0.063333354 -0.2764184195 0.0744812698
100299400.0 -0.2863032124 0.0739866846 0.413509525 -0.0680639161 0.4131965479 -0.0683222725 -0.2750754784 0.0762704914
105299370.0 -0.2851319833 0.0763022369 0.4134694137 -0.0736104048 0.4137653086 -0.0735494591 -0.2736281086 0.0782559949
110299340.0 -0.2837751043 0.07861564 0.4130417742 -0.0781881576 0.4132926313 -0.0782677952 -0.2731387366 0.080533117
115299310.0 -0.2827651312 0.0809563572 0.4130558671 -0.0836882487 0.4127064927 -0.0836850079 -0.271576852 0.0825259065
120299280.0 -0.2820608458 0.0830644931 0.4125891155 -0.0888563783 0.4126560753 -0.0889665502 -0.2707526096 0.0848299771
125299250.0 -0.2812335316 0.0854539871 0.4120074945 -0.0937370884 0.4121051661 -0.0936338566 -0.2695560845 0.0865372626
130299220.0 -0.2804276764 0.0881506 0.4112955648 -0.0994202836 0.4114046799 -0.0987955466 -0.2684053219 0.0888284434
135299190.0 -0.2793612937 0.0906504561 0.4107913177 -0.1042122457 0.4107028283 -0.1040756503 -0.2674928334 0.0912390077
140299160.0 -0.2785691125 0.0932924338 0.4100843856 -0.1092144667 0.4096740688 -0.1091144086 -0.2663387638 0.0935942684
145299130.0 -0.277420757 0.0955282854 0.4090549259 -0.1138366495 0.4087061448 -0.1139001283 -0.2657250749 0.0960431471
150299100.0 -0.2763838358 0.0982070248 0.4077703258 -0.1184938951 0.4079173041 -0.1185234313 -0.2646464078 0.0986645043
155299070.0 -0.2754163668 0.1008574485 0.4067976484 -0.1243677676 0.4067313533 -0.1235971092 -0.2636853824 0.1010805555
160299040.0 -0.2747384019 0.1033631494 0.4054172785 -0.1290482632 0.4053012942 -0.1286957291 -0.26299711 0.1034803584
165299010.0 -0.2737270043 0.1061544298 0.4041227675 -0.1340314078 0.4042635496 -0.1337007223 -0.2615687402 0.1058505514
170298980.0 -0.2726934214 0.1085968478 0.402814225 -0.1380301613 0.4029822655 -0.1385316462 -0.2608750845 0.1081038583
175298950.0 -0.2716807419 0.1114503787 0.4018866172 -0.1435126587 0.4014749441 -0.1430484024 -0.2601341362 0.1108062002
180298920.0 -0.2710161519 0.1138629401 0.4002565062 -0.1480687899 0.40013512 -0.1480410768 -0.2589736107 0.1133007537
185298890.0 -0.2695902517 0.116367573 0.3982595533 -0.1525572136 0.3985727816 -0.1525813293 -0.257804189 0.1160271629
190298860.0 -0.2688515848 0.1193314242 0.397242962 -0.1573926407 0.3970825533 -0.1572463858 -0.2567605625 0.1184265172
195298830.0 -0.2677801382 0.1218086619 0.3949797204 -0.1620041481 0.395490761 -0.1618921775 -0.2555597523 0.1207617664
200298800.0 -0.2664718115 0.1245506359 0.3933578913 -0.1666331342 0.393666361 -0.1666391088 -0.254805997 0.1232928184
205298770.0 -0.2655285713 0.1272698387 0.3916440843 -0.1713432708 0.3917700487 -0.1709049113 -0.2533894835 0.1252885878
210298740.0 -0.2643781372 0.1298101339 0.3897912355 -0.1755354799 0.3899914405 -0.1755200274 -0.2522322499 0.1283651335
215298710.0 -0.2637500331 0.1327685682 0.3881537508 -0.1801463016 0.3878508079 -0.1802370008 -0.2510749127 0.1307623981
220298680.0 -0.2621187301 0.1350161765 0.3858217837 -0.1843084948 0.3861459398 -0.1847551502 -0.2501475826 0.1331910018
225298650.0 -0.2608245015 0.1378758669 0.3840659994 -0.1889706515 0.3844442 -0.1889673072 -0.2490514225 0.1356976006
230298620.0 -0.2595321626 0.1405495724 0.3822161944 -0.1929446951 0.3823149965 -0.1934491574 -0.2477384793 0.1381813193
235298590.0 -0.2583039788 0.1435464932 0.3799305418 -0.1978906339 0.3799949751 -0.1972365767 -0.2464335758 0.1407562986
240298560.0 -0.2570936891 0.1463448891 0.3781639899 -0.2022107119 0.3777133958 -0.2022030482 -0.2450707499 0.1438308094
245298530.0 -0.2558966452 0.1488333011 0.3759853472 -0.2067328312 0.3757961969 -0.2065439524 -0.2439356517 0.1458664008
250298500.0 -0.2544257237 0.1518283105 0.3729145569 -0.2109200633 0.3725094751 -0.2102649805 -0.2427666664 0.1480912123
255298470.0 -0.2530432095 0.1539370414 0.3705611282 -0.2147966715 0.370996295 -0.2148842841 -0.2410530912 0.1509940673
260298440.0 -0.2516420093 0.1566628801 0.3684451056 -0.2194652266 0.3685839517 -0.2192417507 -0.2395611351 0.1537077538
265298410.0 -0.249859557 0.1598996621 0.366093995 -0.223616585 0.3662025774 -0.2231028691 -0.2379862177 0.1563175316
270298380.0 -0.2487122425 0.1625784306 0.36383506 -0.2274569421 0.3636763322 -0.2273926996 -0.2367200817 0.1587934707
275298350.0 -0.2469433665 0.1650816362 0.3610175174 -0.2314594261 0.3614325944 -0.231628668 -0.2350775951 0.1613442435
280298320.0 -0.2451892181 0.1680442832 0.3585920415 -0.2360871243 0.3587655153 -0.2356971657 -0.2333487049 0.1635635793
285298290.0 -0.2436089519 0.170582729 0.3559429189 -0.2396809619 0.3560605894 -0.2399086254 -0.2316540627 0.1662888255
290298260.0 -0.2418644979 0.1731683615 0.3532144425 -0.2434334488 0.3534857743 -0.2440410969 -0.2303242947 0.1691207156
295298230.0 -0.240000723 0.1755160576 0.3507173606 -0.2477910614 0.3507404611 -0.2477393702 -0.2283145362 0.1711120736
300298200.0 -0.2384564623 0.178241168 0.3483018546 -0.251564568 0.3482718475 -0.2516396165 -0.2270507917 0.1737104459
305298170.0 -0.2366583559 0.1807840974 0.3447996803 -0.2557818232 0.345269325 -0.2557135006 -0.2244250849 0.1758258882
310298140.0 -0.2349916655 0.1835146023 0.3421891045 -0.2594304745 0.3425616813 -0.2597103844 -0.2234110091 0.1785058863
315298110.0 -0.2330902283 0.1857976443 0.3395450189 -0.2633715851 0.3395748631 -0.2636116243 -0.2218398566 0.1807632092
320298080.0 -0.2313420681 0.1880976299 0.3363424994 -0.2672332322 0.3368360187 -0.2672960334 -0.2199369247 0.183506144
325298050.0 -0.2291971775 0.1908221711 0.3333510961 -0.2715157791 0.33356276 -0.2712863348 -0.2184091354 0.1856485317
330298020.0 -0.2277879991 0.193214633 0.3304453791 -0.2750411551 0.3307714562 -0.2748911169 -0.2165947248 0.188123289
335297990.0 -0.2258344443 0.1955674503 0.3271944743 -0.2784337115 0.3271419782 -0.2788691672 -0.2152613173 0.1905748409
340297960.0 -0.224336168 0.1983587261 0.323919456 -0.2823069373 0.3239563083 -0.2824541243 -0.2128225206 0.193234011
345297930.0 -0.2223760939 0.2008671013 0.3206849879 -0.2859672646 0.3206387174 -0.2861172165 -0.2112141304 0.1954309978
350297900.0 -0.2204637576 0.2032386532 0.3174553325 -0.2892539593 0.3176422757 -0.2891583028 -0.2095021118 0.1982024264
355297870.0 -0.2178361334 0.2060868593 0.3140922383 -0.293094659 0.314650752 -0.2928017439 -0.2076121066 0.2002781315
360297840.0 -0.2159550222 0.2083503758 0.3113089875 -0.2962686588 0.3114355625 -0.2960589849 -0.2054590217 0.202362693
365297810.0 -0.2142499251 0.2107489194 0.3078912179 -0.2994506239 0.3080683662 -0.2997795922 -0.2031602562 0.2049348121
370297780.0 -0.2119462597 0.2131344027 0.304264239 -0.3027413051 0.3048652574 -0.3030477546 -0.2009781018 0.2073211386
375297750.0 -0.2094661631 0.215701835 0.3010835262 -0.3062946939 0.3011353985 -0.3062768618 -0.1992412726 0.209103706
380297720.0 -0.2076807453 0.2177373741 0.2978197996 -0.309637063 0.2978688723 -0.3091134555 -0.197222775 0.2114796473
385297690.0 -0.2057091748 0.2201190475 0.2943633799 -0.3126778855 0.2943042918 -0.3129911307 -0.1948217729 0.2140601719
390297660.0 -0.2035407895 0.2226232551 0.2906221905 -0.3163069723 0.290644447 -0.3159405118 -0.1928987252 0.2162156269
395297630.0 -0.2006374889 0.2248863477 0.2874057758 -0.3192211273 0.2869172824 -0.3194505638 -0.1898430297 0.2185440208
400297600.0 -0.1984209364 0.2274773934 0.2835396887 -0.3229767935 0.2838626485 -0.3224909483 -0.1882390181 0.2206101284
405297570.0 -0.1963061738 0.2296032188 0.2800065122 -0.3252994304 0.2802605327 -0.3249726494 -0.186173919 0.2227836392
410297540.0 -0.1937817492 0.2314973539 0.2765326524 -0.3283326761 0.2769405612 -0.3286797251 -0.1835883357 0.2253073758
415297510.0 -0.191298928 0.233922423 0.2727139228 -0.331597151 0.2729439025 -0.3317225437 -0.1812531103 0.2269768181
420297480.0 -0.1891592389 0.2363673666 0.2691606977 -0.3347165009 0.2690795641 -0.3348300975 -0.1793209053 0.2290991111
425297450.0 -0.1867165408 0.2383350489 0.2656759802 -0.3376000668 0.2658598791 -0.3375658855 -0.1767830468 0.2315707367
430297420.0 -0.1843968451 0.2402588138 0.2615545136 -0.339931825 0.2621060615 -0.3400137697 -0.1747549878 0.2329390626
435297390.0 -0.1818813685 0.2424908064 0.257828879 -0.3430938695 0.2577013671 -0.3432357136 -0.1718447703 0.2352388955
440297360.0 -0.1794591996 0.2446043901 0.254177866 -0.345823472 0.2543877024 -0.3455744777 -0.1697660313 0.2371672889
445297330.0 -0.1767971856 0.2464115113 0.2506944607 -0.3486307484 0.2505314821 -0.3482921148 -0.1670098233 0.2388629748
450297300.0 -0.1742778232 0.2484967391 0.2465266636 -0.3513626283 0.2466211068 -0.3515997514 -0.1646386635 0.2406900464
455297270.0 -0.17177476 0.2505098689 0.2423709838 -0.3540359323 0.2428729979 -0.3540654456 -0.1621044424 0.2425372616
460297240.0 -0.1692990239 0.2524330022 0.2385629766 -0.3565259141 0.2386664142 -0.3567962216 -0.159714579 0.2449263708
465297210.0 -0.16647067 0.2546508338 0.2350338387 -0.3589083702 0.2349917614 -0.3597673297 -0.1569398576 0.2465385926
470297180.0 -0.1635401251 0.2561677354 0.2306551081 -0.3618776888 0.2309656813 -0.3617444317 -0.154322987 0.2484523716
475297150.0 -0.1611950858 0.258038424 0.2264960938 -0.3639437886 0.2269987063 -0.3642109154 -0.1517053415 0.249758836
480297120.0 -0.1584805927 0.2601179697 0.2229407776 -0.3668120381 0.2225685526 -0.3667139557 -0.1489974128 0.2520932798
485297090.0 -0.1558186917 0.2618864378 0.2192275973 -0.3687336761 0.2188886474 -0.3689405863 -0.1467575297 0.2533214394
490297060.0 -0.1532203229 0.2638727183 0.2147466773 -0.3715292552 0.2148393554 -0.3714938967 -0.144005542 0.2554681217
495297030.0 -0.1504356635 0.2655736166 0.2103057869 -0.3734217569 0.2108181175 -0.373731573 -0.1412971286 0.2570386074
500297000.0 -0.147398608 0.2670963104 0.2063873894 -0.3756305311 0.2062604362 -0.3755918767 -0.1383581478 0.2594825321
505296970.0 -0.1443497213 0.2686337486 0.2022308602 -0.3779263236 0.2021449365 -0.378089588 -0.1360319664 0.2603409258
510296940.0 -0.1419297658 0.2703680993 0.1982102995 -0.3802979636 0.1980026606 -0.380302182 -0.133273847 0.2619181136
515296910.0 -0.1386503103 0.2720960505 0.1937860159 -0.3821493452 0.194101888 -0.3820919014 -0.1304082964 0.2636312215
520296880.0 -0.1362660108 0.273798588 0.1900215584 -0.3846450578 0.1899089359 -0.3843227319 -0.1276929712 0.2649255224
525296850.0 -0.133150232 0.2751352859 0.1851601997 -0.3861372392 0.1857905071 -0.3863775073 -0.1249109881 0.2666927475
530296820.0 -0.1303061184 0.2768178613 0.1813179529 -0.3885478259 0.1816471177 -0.3881458143 -0.1223944415 0.2678623304
535296790.0 -0.1277909286 0.2784608462 0.1773928101 -0.3900682629 0.1772617153 -0.3899752469 -0.1196999968 0.2695293612
540296760.0 -0.1245066197 0.2796771111 0.172826567 -0.392345135 0.1727056801 -0.3923528305 -0.1167389763 0.2708707299
545296730.0 -0.1220420865 0.281235715 0.1683018392 -0.3936661346 0.1684358538 -0.3941894758 -0.1139195921 0.2720011306
550296700.0 -0.1186433008 0.2826476404 0.1641080014 -0.3956504527 0.1644776161 -0.3958560386 -0.1114298824 0.2735077135
555296670.0 -0.115677043 0.2838619066 0.1600010273 -0.3975049465 0.1600464558 -0.3971586501 -0.1081875675 0.27500904
560296640.0 -0.112421585 0.285768294 0.1553853134 -0.3994208943 0.1557185539 -0.3991868084 -0.1048703319 0.2764007862
565296610.0 -0.1098743173 0.286953449 0.1510547089 -0.400779709 0.1511924779 -0.4007145296 -0.102299135 0.2772676737
570296580.0 -0.1071742047 0.2880357996 0.1467364335 -0.4027327705 0.1465843087 -0.4023240398 -0.0996547755 0.2788637354
575296550.0 -0.1040707787 0.2895826211 0.1424681062 -0.4041994035 0.1426013821 -0.4039806265 -0.096643178 0.2797339614
580296520.0 -0.1008287204 0.2906564565 0.1380683813 -0.4056640175 0.1380630509 -0.4058392942 -0.093435746 0.2809879511
585296490.0 -0.0979964841 0.2916291061 0.1334951358 -0.406676877 0.1339138921 -0.4069128138 -0.0902971333 0.2823769242
590296460.0 -0.0947104269 0.2928894119 0.1291306408 -0.4078924285 0.1294085035 -0.4082690582 -0.0880534998 0.2832298379
595296430.0 -0.0917474442 0.2939825517 0.1244959554 -0.4097080901 0.1243113127 -0.4097990689 -0.0847811181 0.2841826475
600296400.0 -0.0886854426 0.2951213628 0.120278852 -0.4110396619 0.1201325122 -0.4107031432 -0.0817699283 0.2851644987
605296370.0 -0.086079669 0.2962074888 0.1160977566 -0.4120695987 0.116024144 -0.4122298144 -0.0785110578 0.2862906273
610296340.0 -0.0825071823 0.2972261026 0.1110276327 -0.4131040374 0.1112472993 -0.4133220748 -0.0755492191 0.2875675543
615296310.0 -0.0792551542 0.2981102007 0.1063526525 -0.4140810566 0.1062375044 -0.4147383433 -0.0723764747 0.2878671471
620296280.0 -0.0762262699 0.2987902718 0.1022028075 -0.4153984963 0.1021134005 -0.4155387932 -0.0697959029 0.2893678924
625296250.0 -0.0732011351 0.2996793722 0.0979872858 -0.4165254105 0.0975267742 -0.4167105098 -0.0663577952 0.2899944807
630296220.0 -0.0693408606 0.3010120135 0.0925656076 -0.4179014372 0.0929350522 -0.4173233887 -0.0633949822 0.2912328817
635296190.0 -0.0670553595 0.3019188728 0.0884676634 -0.4183741529 0.0887137407 -0.4183508472 -0.0603442086 0.2918737023
640296160.0 -0.0639938053 0.3028297145 0.0840326831 -0.4191818319 0.0840079167 -0.41956993 -0.0570277075 0.2926103231
645296130.0 -0.0605077437 0.3035857991 0.0793944374 -0.4197491777 0.0800143293 -0.4203484014 -0.0540670282 0.293382215
650296100.0 -0.0573498335 0.3039221815 0.0750305656 -0.4207766655 0.0747528916 -0.420769333 -0.0508558305 0.2937288038
655296070.0 -0.0542581774 0.3049245886 0.0704856402 -0.4219317668 0.0700310324 -0.4219061208 -0.0477909794 0.2946462716
660296040.0 -0.0510736355 0.305653466 0.0656959241 -0.4222666259 0.0658164439 -0.4229021138 -0.0444033116 0.2956787496
665296010.0 -0.0475162241 0.3057496458 0.0610793387 -0.4227502194 0.0614338781 -0.4233245573 -0.0413672521 0.296362363
670295980.0 -0.0450616637 0.307202557 0.0563996699 -0.4235293114 0.056563892 -0.4237133807 -0.0386782338 0.2967599245
675295950.0 -0.0413688924 0.3075993578 0.0521746726 -0.4244625841 0.0520289435 -0.4237761383 -0.0359540217 0.2973152645
680295920.0 -0.0383567036 0.3081192872 0.0468652028 -0.4244044211 0.0471919199 -0.4250553546 -0.0325996223 0.2983172128
685295890.0 -0.0353076298 0.30913199 0.0428038915 -0.4253212184 0.0426520487 -0.4252431027 -0.0293425463 0.2985048857
690295860.0 -0.0314903467 0.3091218336 0.0378450445 -0.4252906311 0.037960467 -0.4256999226 -0.026116917 0.2993977362
695295830.0 -0.0286252453 0.3097215759 0.0334948942 -0.4257918626 0.0333625144 -0.4256940023 -0.0232704472 0.2995542599
700295800.0 -0.025097674 0.3100218018 0.0285225392 -0.4261534536 0.028869032 -0.4260187694 -0.0202410866 0.300349033
705295770.0 -0.0223112108 0.3107140034 0.0242057457 -0.426548329 0.0244348803 -0.4264600779 -0.0168322091 0.3004710852
710295740.0 -0.0186335418 0.3109931943 0.0197068394 -0.4269128962 0.0196955383 -0.4269244406 -0.0139298113 0.3002718822
715295710.0 -0.015716598 0.3110610188 0.0153449866 -0.4269800597 0.0149173359 -0.4269795417 -0.0103736307 0.3006958205
720295680.0 -0.0123989532 0.3112370222 0.0106430813 -0.4269758793 0.010920692 -0.4270798365 -0.0073427694 0.3013641994
725295650.0 -0.0090717066 0.3116841484 0.0059336837 -0.4267746062 0.005988133 -0.4271342237 -0.0042833062 0.3016396218
730295620.0 -0.0056279862 0.3120763896 0.0006055151 -0.4267080305 0.0012417514 -0.4269888134 -0.0014553082 0.3012387737
735295590.0 -0.0027442842 0.3122319889 -0.0031690985 -0.4269749528 -0.0033860797 -0.4270602912 0.0014755519 0.3013615525
740295560.0 0.0006242929 0.3123784265 -0.008067629 -0.4265583924 -0.0083311502 -0.4268937095 0.0056220917 0.3015905519
745295530.0 0.0039633776 0.3124517187 -0.0128326584 -0.4261736901 -0.0128489667 -0.4266790034 0.0086819474 0.3015807164
750295500.0 0.0072022067 0.3127652855 -0.0169980119 -0.4266532936 -0.0170068793 -0.4266514591 0.0113256573 0.3017904259
755295470.0 0.0104428325 0.312671958 -0.0217576966 -0.4262776492 -0.0220554833 -0.4264203252 0.015354216 0.3014648375
760295440.0 0.0134379566 0.3125920656 -0.0264141457 -0.4259773945 -0.0265228073 -0.4258422459 0.0183077924 0.3012976306
765295410.0 0.0166960087 0.312604854 -0.0312383112 -0.4252895172 -0.0316464368 -0.425712073 0.0214534991 0.3016532233
770295380.0 0.0199569289 0.3125460528 -0.0357979619 -0.4249474642 -0.0355676152 -0.4250651714 0.0239506157 0.3014588038
775295350.0 0.0230687577 0.312260567 -0.040515209 -0.4244244742 -0.0401672874 -0.4245937499 0.0270244927 0.3014572512
780295320.0 0.0266321647 0.3121935045 -0.0449479474 -0.4239170635 -0.0445309189 -0.4240855935 0.0303103105 0.3011700441
785295290.0 0.0297687235 0.3117373069 -0.0496842361 -0.4231372585 -0.0494618712 -0.4237918215 0.0341143621 0.3012207589
790295260.0 0.0335663266 0.312273673 -0.0537500264 -0.4232725143 -0.053483048 -0.4228762138 0.0371032123 0.3013051168
795295230.0 0.0361408871 0.3114664942 -0.0584126499 -0.4221079318 -0.0584608316 -0.4224636231 0.0405491103 0.3007725076
800295200.0 0.0396401257 0.3115449675 -0.0632811278 -0.4214620794 -0.0631235608 -0.4215956346 0.0436056195 0.3005142747
805295170.0 0.0432951066 0.3109179664 -0.0678377285 -0.420509465 -0.0676127003 -0.4211950072 0.0464269966 0.3003189615
810295140.0 0.0465126114 0.3104482307 -0.0718566483 -0.4197281556 -0.0724352043 -0.4205035653 0.0501919225 0.2999134435
815295110.0 0.0494523063 0.3102203948 -0.0767885599 -0.4190809482 -0.0767878998 -0.4193066019 0.053188334 0.2992805157
820295080.0 0.0525072593 0.3101467664 -0.081244384 -0.4181521981 -0.0806801681 -0.4181939104 0.0563628428 0.2990456868
825295050.0 0.0564870991 0.3093036859 -0.0854697821 -0.4174234637 -0.0855008938 -0.4176932667 0.0591595411 0.2988520266
830295020.0 0.0591450338 0.3091701883 -0.0902229257 -0.4164149992 -0.0902426569 -0.4163774347 0.0630104253 0.2982004066
