!Created with skrf (http://scikit-rf.org).
# Hz S RI R 50.0 
!freq ReS11 ImS11 ReS21 ImS21 ReS12 ImS12 ReS22 ImS22
300000.0 -0.0475833151 -0.0597898748 -0.0007905101 8.97384e-05 0.0007481663 0.0004079949 -0.7665092989 -0.1719066938
5299970.0 -0.0491887752 0.0155858649 -1.00084e-05 0.0002862218 -6.97436e-05 5.77455e-05 -0.784490032 -0.009409548
10299940.0 -0.0433430386 0.0335764934 -2.4708e-05 -0.0002754764 0.000283866 0.0001974325 -0.7878434039 -0.0055078584
15299910.0 -0.0350351382 0.0478714641 -0.0003204364 1.42049e-05 -9.33391e-05 0.0001617399 -0.793397387 -0.0029962397
20299880.0 -0.0244528984 0.0596183934 -2.54443e-05 -9.38271e-05 -8.90458e-05 -7.03675e-05 -0.8002672469 0.0016482896
25299850.0 -0.0133638531 0.069128445 0.0002023645 0.0001158106 -9.35443e-05 -3.7812e-06 -0.8063030334 0.0074251655
30299820.0 -0.0013488397 0.0757122146 -1.21523e-05 -0.0001413973 0.0001307296 2.72227e-05 -0.8124693906 0.0151474026
35299790.0 0.0105150588 0.0805269344 -0.0001505283 -3.98617e-05 -1.18709e-05 -8.18584e-05 -0.8175643797 0.0232935615
40299760.0 0.0218840114 0.0830186827 0.0001779914 0.0001639457 -0.0001204648 -9.60885e-05 -0.8213769345 0.0332254378
45299730.0 0.0325668622 0.0846471265 0.0002959744 -3.75161e-05 -4.51794e-05 -9.18872e-05 -0.8250521224 0.0424568985
50299700.0 0.0430473461 0.0844027639 0.0001647633 -5.8571e-06 -3.25604e-05 -6.40854e-05 -0.827759219 0.0523959967
55299670.0 0.0523519296 0.0832863085 -0.0001077413 -0.0001200502 -4.52107e-05 -0.0001490392 -0.8297409175 0.0633863732
60299640.0 0.0606119462 0.0812672162 -2.83544e-05 0.0001791677 -0.00012211 0.0001265917 -0.8305980557 0.0730321243
65299610.0 0.0685676315 0.0792639563 4.48876e-05 -8.22912e-05 0.0001134468 8.99637e-05 -0.8315596692 0.0830440777
70299580.0 0.0754924916 0.0757248941 0.0001168077 2.84232e-05 -9.10211e-05 0.0002114483 -0.8320833463 0.0930017503
75299550.0 0.0822302736 0.0719141148 -7.59714e-05 5.95305e-05 -0.0001133781 -7.5243e-05 -0.8323168215 0.1027077554
80299520.0 0.0875292312 0.0688006712 7.92805e-05 2.32926e-05 5.55765e-05 0.0001660631 -0.8319825839 0.1121881053
85299490.0 0.0929753422 0.0647686626 0.0002138955 0.0001983994 6.31728e-05 0.0001804002 -0.8316676131 0.1215448127
90299460.0 0.0972715691 0.0607340165 -0.0003212026 -6.9087e-05 3.8293e-06 -0.0001463623 -0.8309531779 0.1312116238
95299430.0 0.1013763056 0.0568031329 -2.60569e-05 0.0001343961 0.0001334759 -3.58405e-05 -0.8298538907 0.1413395273
100299400.0 0.1049464665 0.0527815812 5.28115e-05 6.15316e-05 -8.25044e-05 0.0002837627 -0.8286257977 0.1503502364
105299370.0 0.1082074482 0.0487152571 5.71343e-05 -0.0001769219 -3.80965e-05 -4.13152e-05 -0.8275725622 0.1591641472
110299340.0 0.1111357739 0.0446394577 7.37316e-05 9.2187e-05 7.15235e-05 -4.01324e-05 -0.826923949 0.1679826283
115299310.0 0.1135088395 0.0403404126 -1.49247e-05 -0.0001917356 6.74664e-05 3.76927e-05 -0.8244894722 0.1774368412
120299280.0 0.1156341178 0.0368791748 -2.3474e-06 0.0001443675 9.42575e-05 0.0001415556 -0.8234510754 0.1858607988
125299250.0 0.1172292071 0.0327217008 3.53824e-05 0.0001669679 -1.63021e-05 6.74242e-05 -0.8216943607 0.1951879338
130299220.0 0.1193141905 0.0287095901 9.77511e-05 0.0001310852 -5.83621e-05 4.63309e-05 -0.8196283217 0.2042910077
135299190.0 0.1208996304 0.0249122501 3.54293e-05 7.88427e-05 -0.0002065057 0.0002821899 -0.8181688764 0.2128223048
140299160.0 0.1222993546 0.0215409427 -5.0667e-05 3.65541e-05 -0.0001184343 -2.1176e-06 -0.8159458195 0.2218742153
145299130.0 0.1233631554 0.0178111521 0.0002065086 4.99522e-05 1.6475e-05 0.0001037051 -0.814183291 0.2300739528
150299100.0 0.1238999247 0.0141305399 2.31554e-05 0.0001559865 4.51548e-05 -0.0001092473 -0.8117774141 0.2382864338
155299070.0 0.1245429555 0.0109768222 -0.0001152305 -0.0002270139 -0.000132896 0.0001455658 -0.8099874366 0.2477375277
160299040.0 0.1249667046 0.0074469998 0.0002482061 -0.000122403 -8.01511e-05 6.62027e-05 -0.8077426939 0.2567300908
165299010.0 0.1254306997 0.0043301718 -1.06978e-05 3.68575e-05 6.49888e-05 -1.2392e-06 -0.8038913483 0.2654635107
170298980.0 0.1259230946 0.0009604372 -0.0001541887 6.18451e-05 -2.40042e-05 3.82809e-05 -0.8023105387 0.273962656
175298950.0 0.1263563549 -0.001967863 0.0002181805 0.000120824 -0.0002941645 3.49394e-05 -0.7993167187 0.2823421255
180298920.0 0.126111579 -0.0050258506 -0.000136957 8.20815e-05 -7.2764e-05 -9.33039e-05 -0.7957137339 0.2905901066
185298890.0 0.1261279145 -0.0082860232 0.0001649609 0.0001756044 5.20637e-05 0.0002162878 -0.7931220829 0.2981001047
190298860.0 0.1259691647 -0.0112414163 -2.38965e-05 -2.3578e-06 5.06068e-05 -1.62491e-05 -0.7897500338 0.3071920949
195298830.0 0.1262805549 -0.0140935725 -0.00010433 3.02015e-05 0.0001180685 -3.90146e-05 -0.7869329207 0.3157189701
200298800.0 0.1257952103 -0.0169344949 3.94868e-05 8.99513e-05 0.0001678934 2.1328e-05 -0.7836451985 0.3241228486
205298770.0 0.1254555182 -0.0195823667 -0.0002189922 9.42888e-05 1.46386e-05 -0.0001012935 -0.7798959723 0.3319114079
210298740.0 0.125305726 -0.0220487181 -3.82251e-05 -0.0002008439 3.36477e-05 -8.05278e-05 -0.7768505001 0.3403942246
215298710.0 0.1248729472 -0.0250501915 4.57626e-05 -6.76319e-05 4.12777e-05 0.0001271607 -0.7736339821 0.3484474011
220298680.0 0.124197292 -0.0275051881 6.24686e-05 -9.961e-07 -5.4609e-06 0.000233832 -0.7695356364 0.3567896142
225298650.0 0.1237603009 -0.0299707951 1.45335e-05 9.2685e-06 -3.3606e-06 5.71266e-05 -0.7657887848 0.3647406094
230298620.0 0.1231336874 -0.0324110367 4.904e-06 7.8257e-06 8.55606e-05 0.00015733 -0.7614356199 0.3728464006
235298590.0 0.1222828731 -0.0350517436 5.99399e-05 8.99176e-05 0.0001188624 0.0001683887 -0.7579922286 0.3803102414
240298560.0 0.1216140556 -0.0372698687 -2.19131e-05 0.0002801125 -8.67795e-05 0.0001390989 -0.7539841474 0.3883464642
245298530.0 0.1211962262 -0.0395944461 -1.64051e-05 0.0002162703 0.0002528697 7.9831e-06 -0.7495406301 0.396388821
250298500.0 0.1201109903 -0.0417417325 -7.99877e-05 -0.0001849397 3.76204e-05 7.73867e-05 -0.7456845707 0.4045852692
255298470.0 0.1194710046 -0.0439610966 3.94734e-05 3.57575e-05 0.0002179561 7.26465e-05 -0.7408628844 0.4125188212
260298440.0 0.1187170946 -0.0460868247 1.25115e-05 0.0001490112 0.00010591 7.55097e-05 -0.7362244467 0.4195027369
265298410.0 0.1177927151 -0.0480928516 4.64597e-05 6.6214e-06 0.0001095073 3.52992e-05 -0.7320345802 0.427283052
270298380.0 0.1170223538 -0.050207351 8.39715e-05 0.0001256179 6.67831e-05 -4.36358e-05 -0.7270865212 0.4352391208
275298350.0 0.1160852706 -0.0521536691 -3.5118e-05 -9.53021e-05 -2.5459e-05 0.0001097268 -0.7224606323 0.4430766444
280298320.0 0.1152893299 -0.0541181836 -8.2094e-06 0.0001186333 0.0001304161 -0.0002370197 -0.718474215 0.4500513572
285298290.0 0.1140989165 -0.0560987586 -0.0002225907 0.0001508955 -6.81177e-05 0.0001383785 -0.713180364 0.458003479
290298260.0 0.1131941313 -0.0580650394 0.0002415125 0.0001075997 -3.20253e-05 8.8938e-05 -0.7087303382 0.4656787418
295298230.0 0.1121993969 -0.0598656246 -5.41405e-05 0.0002333778 -9.09256e-05 0.0001161523 -0.7034374948 0.4729102035
300298200.0 0.1112385992 -0.0626168901 7.47344e-05 0.0002149477 0.0001596722 3.3124e-06 -0.6986266323 0.479753839
305298170.0 0.1107173114 -0.0639822493 6.02218e-05 -0.0001009523 0.0001583036 0.0001029093 -0.6929438472 0.4875013176
310298140.0 0.1090742526 -0.066179058 0.0001772953 -2.70276e-05 -8.45022e-05 4.3558e-05 -0.6884266572 0.4950293487
315298110.0 0.1078927063 -0.0680336325 -0.0001233093 7.06591e-05 0.0001519054 0.0001071713 -0.6827067709 0.5020097388
320298080.0 0.1066841166 -0.0700353927 1.9147e-06 0.0003204501 2.56915e-05 6.72071e-05 -0.6776595264 0.5093662471
325298050.0 0.1052067649 -0.0719163416 -0.0001352811 8.21854e-05 3.46259e-05 -1.59663e-05 -0.67180618 0.516412966
330298020.0 0.1035453552 -0.0736574143 0.0002037727 8.70002e-05 -2.84227e-05 2.90524e-05 -0.6662657548 0.522669974
335297990.0 0.1020469202 -0.0750523046 -7.4594e-06 0.0001242241 0.0001300808 -2.38592e-05 -0.6613295675 0.5297209308
340297960.0 0.1004842168 -0.0763655269 6.6548e-06 0.0002251696 -5.29468e-05 4.03115e-05 -0.6553605547 0.5371413646
345297930.0 0.0989673414 -0.0779386113 -0.0001104319 2.81842e-05 3.89325e-05 0.0001762619 -0.6499666282 0.5443088747
350297900.0 0.0980839754 -0.079473541 -0.0001270259 -0.0001030178 0.0002253948 0.0001563209 -0.6433387551 0.5505729827
355297870.0 0.0965670638 -0.0809988954 1.0581e-06 0.0001075825 2.20835e-05 0.0001450544 -0.638436341 0.5572618771
360297840.0 0.0950949601 -0.0822174385 -4.2677e-06 -8.7818e-06 -4.1155e-06 -1.45241e-05 -0.6321346034 0.5638303834
365297810.0 0.0936301518 -0.0837178121 0.0002174949 -7.03532e-05 -0.0001072314 -4.11385e-05 -0.6261046802 0.5706689293
370297780.0 0.092393805 -0.0848195339 -0.0001926805 -0.000137316 -4.93062e-05 0.0001990851 -0.6202667535 0.5763800026
375297750.0 0.0910049736 -0.0861783182 8.68399e-05 -1.45306e-05 1.89354e-05 7.7791e-05 -0.6139652091 0.5834892213
380297720.0 0.0901397994 -0.0874357804 -4.407e-05 2.82397e-05 -9.03036e-05 0.0001570384 -0.6075530901 0.5904821635
385297690.0 0.0880848627 -0.0886165401 3.17226e-05 0.0001587593 0.0001384308 5.10439e-05 -0.601992216 0.5959225704
390297660.0 0.0867946698 -0.0896698481 8.2914e-05 4.47494e-05 -1.38744e-05 0.0001716401 -0.5950463572 0.6019355303
395297630.0 0.0854354821 -0.0912722728 3.30836e-05 -2.0882e-06 0.0001876492 8.17956e-05 -0.5891047394 0.6082260358
400297600.0 0.0840891757 -0.0919925077 0.0001485255 -1.53411e-05 8.16121e-05 -1.95801e-05 -0.583481246 0.6140562681
405297570.0 0.082512555 -0.0932780941 -0.0001150371 5.4028e-06 0.0003947966 0.0002307835 -0.5772868927 0.6198341111
410297540.0 0.08102132 -0.0945403424 1.11958e-05 -4.89491e-05 0.000138261 1.98767e-05 -0.5699793709 0.6259603082
415297510.0 0.0795800788 -0.0956425559 0.0001754557 8.9027e-06 7.62326e-05 0.0001359722 -0.5633718478 0.6317188722
420297480.0 0.0778932382 -0.097041514 6.5346e-05 0.0001220237 0.000317003 8.11714e-05 -0.557246383 0.6365885774
425297450.0 0.0764876746 -0.0980304536 8.78099e-05 -2.78789e-05 0.0002506956 6.93195e-05 -0.5502035182 0.6433390854
430297420.0 0.0748102343 -0.0985386928 -4.88127e-05 3.1962e-06 -0.0001122036 2.4969e-06 -0.5435371971 0.648958376
435297390.0 0.0734598126 -0.0997474479 0.0001855696 -2.39045e-05 0.0002050067 -7.40296e-05 -0.5370289449 0.6537203928
440297360.0 0.071980355 -0.1006237526 0.0001867896 1.97302e-05 -6.35607e-05 -1.21341e-05 -0.5304962822 0.6590964152
445297330.0 0.0701635405 -0.1014504462 -1.42738e-05 2.73285e-05 -4.43016e-05 -5.06167e-05 -0.5237501526 0.6642712206
450297300.0 0.0686715866 -0.1025585434 -2.80175e-05 -4.97341e-05 0.0003232927 -3.68393e-05 -0.5169435547 0.670058166
455297270.0 0.0672347238 -0.1033632454 -8.55899e-05 2.93584e-05 0.0001679021 -0.0001253339 -0.5101658047 0.6748527717
460297240.0 0.0656857432 -0.1040477576 0.0001364744 1.62788e-05 2.02837e-05 -7.33879e-05 -0.5027802218 0.6801519041
465297210.0 0.0644309879 -0.1050810459 5.6117e-05 -2.66321e-05 0.0001685114 7.9421e-05 -0.4963609844 0.6845344877
470297180.0 0.0624765847 -0.1057281559 1.77126e-05 -6.64855e-05 0.0002493136 4.17422e-05 -0.4891959276 0.6894953519
475297150.0 0.0609521907 -0.1066753113 -9.92156e-05 5.27162e-05 -6.79594e-05 -3.25075e-05 -0.4821369034 0.6944852992
480297120.0 0.0591897921 -0.1075309953 6.06966e-05 -2.81846e-05 0.0001671488 -1.19876e-05 -0.4753831691 0.6998010309
485297090.0 0.0578548788 -0.107918108 2.75164e-05 -2.6039e-06 0.0002001486 8.68568e-05 -0.4678132211 0.7039722875
490297060.0 0.0563824767 -0.1085920961 6.04981e-05 -5.84963e-05 0.0002266456 0.0001595012 -0.4610033059 0.7086525382
495297030.0 0.0545389347 -0.1095262213 0.0001444259 3.50575e-05 -2.12965e-05 -0.0002040991 -0.4532494952 0.7123403652
500297000.0 0.0528985435 -0.1102851161 0.0001942818 7.16481e-05 5.88434e-05 6.74e-07 -0.4470275315 0.7176554717
505296970.0 0.0510568721 -0.1107127853 6.8747e-06 0.000145353 0.0002066028 0.0002198367 -0.4402350898 0.7222286322
510296940.0 0.0496682823 -0.1112051061 4.66408e-05 -0.0003403446 7.57253e-05 3.0254e-05 -0.4322045805 0.7260616761
515296910.0 0.047776213 -0.1118127038 -5.98095e-05 -6.7474e-06 -2.31804e-05 0.0001192846 -0.4248159011 0.7306198215
520296880.0 0.0463077264 -0.1123852267 0.0001640476 9.68909e-05 0.0002587428 -0.0001364553 -0.4176579778 0.7346228122
525296850.0 0.0446285686 -0.1129063427 4.55069e-05 7.00172e-05 0.0001212516 -2.46515e-05 -0.4098698632 0.7393719455
530296820.0 0.042774882 -0.1134393731 0.0001667469 -0.0001717166 0.0002936613 -8.32172e-05 -0.4028201824 0.7427178242
535296790.0 0.0413334975 -0.1140273362 0.0002852298 0.000235053 0.0001410656 -2.71117e-05 -0.3959041416 0.746319403
540296760.0 0.039531379 -0.1146853849 0.0001494564 -0.0001211498 0.0003144639 -5.73811e-05 -0.3879299305 0.7508852393
545296730.0 0.0380827748 -0.1148977244 0.0001546203 -9.85801e-05 4.33747e-05 -0.0001440921 -0.380338715 0.7540099177
550296700.0 0.0360160695 -0.1151699911 0.0001343939 -0.0001507861 0.000224874 -0.0002199852 -0.3727412429 0.7576964617
555296670.0 0.0345730963 -0.1158871362 0.0003167526 0.0001083975 0.0001398726 -5.30932e-05 -0.3653825406 0.7613860233
560296640.0 0.0328162162 -0.1161681593 0.0001672869 3.08079e-05 2.84996e-05 -3.70584e-05 -0.3577226144 0.7650153082
565296610.0 0.0309643937 -0.1162202598 0.0001999772 -0.0001569387 9.4642e-05 -9.23408e-05 -0.3503398837 0.7684565392
570296580.0 0.0296900729 -0.1167985161 0.0001932524 -5.46213e-05 0.0001175956 3.8491e-06 -0.342659227 0.7722864685
575296550.0 0.0279798316 -0.1171140686 5.1077e-05 1.09403e-05 0.0002474918 0.0001331215 -0.3344540895 0.7752426429
580296520.0 0.0264716836 -0.1170622153 -6.00217e-05 -1.1992e-05 0.0001307753 -0.0001243512 -0.3269679799 0.7787523985
585296490.0 0.0244156669 -0.1174592863 -7.40079e-05 0.0001876913 -8.79068e-05 -3.11594e-05 -0.3195586819 0.7816464033
590296460.0 0.0224950431 -0.117633836 0.0001760534 0.0001566387 0.000353975 -1.90618e-05 -0.3117385975 0.7845048472
595296430.0 0.021126299 -0.1176523186 0.0003554871 -4.56411e-05 0.000266728 -5.66388e-05 -0.3033657926 0.787313683
600296400.0 0.0193533757 -0.1181543639 4.40543e-05 3.73961e-05 0.0002738719 -0.0001087055 -0.2962633977 0.7909391288
605296370.0 0.0178021578 -0.1179437532 0.0001268487 0.0001566194 7.8997e-05 -1.27864e-05 -0.2883188048 0.7940966104
610296340.0 0.0160596233 -0.1181034351 0.0002903424 0.0001189973 0.0002332678 -4.50166e-05 -0.2801485632 0.7966087884
615296310.0 0.0144470188 -0.1180865303 0.0002364058 -5.62899e-05 0.000131778 -0.0003022123 -0.272136731 0.7992964784
620296280.0 0.0127213008 -0.1183433951 0.0001132792 0.0002174382 3.13467e-05 -0.000140037 -0.2645868999 0.8020522688
625296250.0 0.0110762428 -0.1182748493 -5.05369e-05 -9.26042e-05 9.11886e-05 -6.6458e-06 -0.2568218837 0.8045226099
630296220.0 0.0091434259 -0.118453468 8.65342e-05 6.00804e-05 7.26466e-05 2.2606e-06 -0.2487409375 0.8070736616
635296190.0 0.007619772 -0.1184983589 0.0002353034 2.27791e-05 0.0002254178 -1.363e-07 -0.2409631565 0.8090970239
640296160.0 0.0060491317 -0.1184339313 0.0001538218 -7.45908e-05 0.0001121565 3.30536e-05 -0.2323354904 0.8117015497
645296130.0 0.0040580096 -0.1182273054 0.0002810678 7.80788e-05 0.0002681937 -7.2938e-06 -0.2244186407 0.8144080582
650296100.0 0.0025339459 -0.1179028476 9.83183e-05 -4.3618e-05 1.8151e-06 6.3925e-05 -0.2163612189 0.8165185093
655296070.0 0.0010695065 -0.1181771284 0.0002283428 5.95275e-05 0.0002612229 -3.26903e-05 -0.2083292054 0.8179041096
660296040.0 -0.0009327763 -0.1180331556 -4.14738e-05 3.88512e-05 8.95621e-05 -7.29911e-05 -0.2002282257 0.8199728421
665296010.0 -0.0023000681 -0.1178914715 0.0002685659 6.23486e-05 -1.22163e-05 3.16873e-05 -0.1923057209 0.8218665499
670295980.0 -0.0040391709 -0.1178932787 -9.23489e-05 4.51283e-05 0.0001835478 -0.0002755813 -0.1848650869 0.8243255781
675295950.0 -0.0057403992 -0.1176068261 -8.83264e-05 -0.0001523127 7.10207e-05 0.0001299418 -0.1758691385 0.8261007288
680295920.0 -0.0075657125 -0.117064349 9.86766e-05 7.01621e-05 0.0001767169 -7.57501e-05 -0.1678360533 0.8278056942
685295890.0 -0.0091246179 -0.1170297177 -3.94068e-05 0.0001329314 0.0001656144 2.8661e-05 -0.1596747743 0.8296177101
690295860.0 -0.0107267548 -0.1167892216 0.0001559082 0.0001212758 0.0001472043 -7.7041e-06 -0.151479714 0.8309269822
695295830.0 -0.0122362273 -0.1164917084 0.0001105776 0.000162319 0.0002021699 6.06174e-05 -0.1431371612 0.8323587367
700295800.0 -0.0138336338 -0.116333691 0.0002441069 -0.0001485571 0.0003230576 6.6154e-06 -0.1353604839 0.8335099167
705295770.0 -0.0155976518 -0.1159970504 0.0002311773 0.0001603223 4.56591e-05 -5.7232e-06 -0.1273055194 0.8350139478
710295740.0 -0.0173046908 -0.1154441407 0.0001693521 -2.1956e-05 0.0001749771 -5.85525e-05 -0.1191599562 0.8362899409
715295710.0 -0.0192954533 -0.1150560561 0.0002384946 3.59227e-05 -5.76677e-05 -5.48645e-05 -0.1112710012 0.8377843184
720295680.0 -0.020533822 -0.114836762 0.0002439437 -0.0003396851 0.0001731426 9.08779e-05 -0.1023654893 0.8385489485
725295650.0 -0.0222171195 -0.1141606505 8.54564e-05 -0.000271218 0.0001458643 5.95982e-05 -0.0937097248 0.8401258247
730295620.0 -0.0239556173 -0.1141401478 4.71546e-05 5.02332e-05 2.32711e-05 0.0001220862 -0.0855167728 0.8401586789
735295590.0 -0.0255225203 -0.1136009915 -4.0947e-06 0.0001201655 9.14581e-05 8.33766e-05 -0.0766232613 0.8408422575
740295560.0 -0.026865764 -0.1129074548 0.000176863 9.10395e-05 0.0002056761 6.2268e-05 -0.0693942576 0.8415421101
745295530.0 -0.0287716171 -0.1125368624 0.0002802683 -9.19702e-05 0.0001818775 -0.0002295726 -0.0609406377 0.8422729514
750295500.0 -0.0304069406 -0.1120867798 0.0002194742 -1.31426e-05 6.82398e-05 -0.0001409458 -0.0521693597 0.8424302704
755295470.0 -0.0316430006 -0.1113905305 3.51175e-05 3.36401e-05 3.00707e-05 3.34244e-05 -0.0444211022 0.8432971809
760295440.0 -0.033590632 -0.1107439491 0.0001665601 0.000158248 8.22879e-05 -0.0001077653 -0.0362895224 0.8434384777
765295410.0 -0.0350223433 -0.1105092338 0.0002305413 -0.0001681774 0.0001752626 8.07289e-05 -0.0272297467 0.8440546879
770295380.0 -0.0364987058 -0.1097904744 0.000140824 -0.0001292125 0.0002464465 -6.5205e-05 -0.0189145646 0.8443506583
775295350.0 -0.038109639 -0.108762667 9.16957e-05 3.52498e-05 0.0001655781 -8.54536e-05 -0.0113485717 0.8437989152
780295320.0 -0.0397364089 -0.1083950154 0.0002165371 7.83806e-05 0.0001996541 -6.2595e-06 -0.0029684092 0.8444637806
785295290.0 -0.0413525439 -0.1076252596 0.0001030342 -0.0001388009 -3.1485e-05 0.0001322262 0.0051745932 0.8447139424
790295260.0 -0.0426334904 -0.1067915636 9.88539e-05 -5.61763e-05 0.0002909376 8.61538e-05 0.0141439505 0.8444167865
795295230.0 -0.0442594999 -0.1061924921 0.0001797458 0.0001494645 0.0004092696 2.34401e-05 0.0223105284 0.8443859726
800295200.0 -0.0456602272 -0.1051554291 6.57006e-05 -0.0002076754 3.3049e-06 -8.924e-05 0.0305314096 0.843487693
805295170.0 -0.0470893959 -0.1049115274 0.0003054002 -0.0001941356 0.0003475601 -0.0001074487 0.038665766 0.8433209305
810295140.0 -0.0486693261 -0.1039710149 -0.0001104774 -0.0002517738 -0.000159964 -0.0001799738 0.0469437123 0.8437809604
815295110.0 -0.0502015357 -0.1032512883 0.0003796327 -0.0002156289 0.0001443312 -0.0001297369 0.055150376 0.8428630409
820295080.0 -0.051656053 -0.1024077536 4.02911e-05 -1.0698e-05 0.0002954861 8.932e-06 0.0629242453 0.8419447797
825295050.0 -0.0529230443 -0.1013027819 0.0002856953 0.0001578343 0.0003010849 -0.000181997 0.0714161922 0.8416801093
830295020.0 -0.0543826778 -0.10058901 -2.85593e-05 -8.74084e-05 0.0001793942 -0.0001489478 0.0796917601 0.8403408458
835294990.0 -0.0558532283 -0.0994876671 0.0001294417 4.51868e-05 0.000387841 -6.05709e-05 0.0884187735 0.8396492205
840294960.0 -0.0574652289 -0.0986629703 0.000382908 -9.37079e-05 0.0002129416 -3.67994e-05 0.0959537381 0.8391622597
845294930.0 -0.0591016749 -0.0978131292 0.0002872829 -0.0002089762 0.0002640288 8.88781e-05 0.1045513148 0.8377444855
850294900.0 -0.0599094176 -0.0969113304 0.0001188441 1.0955e-05 0.0003018114 8.40222e-05 0.1127409861 0.8372880289
