!Created with skrf (http://scikit-rf.org).
# Hz S RI R 50.0 
!freq ReS11 ImS11 ReS21 ImS21 ReS12 ImS12 ReS22 ImS22
300000.0 -0.2310631802 -0.1320893501 0.4646848761 0.0855268151 0.4667540496 0.0848309238 -0.2339613539 -0.1285747204
5299970.0 -0.2420748797 0.0052760077 0.4749087867 0.0059804388 0.4755976079 0.0057520984 -0.2447238673 0.0050546195
10299940.0 -0.2388953768 0.0188636637 0.4775740943 0.0067269857 0.4771879528 0.0071617626 -0.2407817578 0.0173130267
15299910.0 -0.2339904085 0.0287767014 0.4807647599 0.0076785574 0.4811694842 0.0081400841 -0.2371137935 0.0263609953
20299880.0 -0.2286707516 0.0368102263 0.485411076 0.0081096747 0.4856359686 0.0083017614 -0.2320611236 0.0342324975
25299850.0 -0.2226214798 0.0434605025 0.4909480917 0.007881452 0.4907592029 0.0070256938 -0.2271139211 0.0402073302
30299820.0 -0.2173154475 0.048644724 0.4961424494 0.0052329845 0.4961555521 0.0051478443 -0.2218620958 0.0447448964
35299790.0 -0.2114167808 0.0527724552 0.5011982842 0.0022124605 0.5012722869 0.0018121792 -0.2167922809 0.0491185168
40299760.0 -0.206281644 0.0559760208 0.5064353124 -0.0020781871 0.5065270843 -0.0020710352 -0.2119589934 0.0521442524
45299730.0 -0.2011388952 0.0586673264 0.5109241279 -0.0065887476 0.5114810702 -0.0071228546 -0.2070452241 0.0546798431
50299700.0 -0.19613514 0.0607669281 0.5156581711 -0.0121477494 0.515117377 -0.0125242704 -0.2028248288 0.0570753937
55299670.0 -0.1919351258 0.062568909 0.5192627514 -0.0180214375 0.5189973245 -0.0184447819 -0.1992500458 0.0583383049
60299640.0 -0.1878767566 0.0640041748 0.5228771143 -0.0245282401 0.5224404805 -0.0246806048 -0.1953545616 0.0597151464
65299610.0 -0.1843377827 0.0652114471 0.5254820655 -0.0310065912 0.5254243009 -0.0309785467 -0.1918764694 0.0610529044
70299580.0 -0.1811140321 0.0657497007 0.5276815742 -0.037330818 0.5281137625 -0.0377043488 -0.1893203737 0.0619523449
75299550.0 -0.178124727 0.0668101393 0.5292968174 -0.0444771366 0.5296651352 -0.0442990222 -0.1863238226 0.0628288888
80299520.0 -0.1754608129 0.0677389637 0.5315330885 -0.0511367431 0.5316920254 -0.0513606091 -0.1838905129 0.0635402509
85299490.0 -0.1727221978 0.0681784426 0.5327639259 -0.0580452167 0.5328153853 -0.0581495663 -0.1815294658 0.0638324798
90299460.0 -0.1701944075 0.0689606214 0.5336286429 -0.0651018475 0.5337857214 -0.0652276848 -0.179296342 0.0649184433
95299430.0 -0.1681251508 0.0696232399 0.5345124673 -0.0719893586 0.5347865235 -0.0723856266 -0.1776553656 0.0655919986
100299400.0 -0.1660025866 0.0702983044 0.5347994174 -0.078866519 0.5350835878 -0.0789252153 -0.17594147 0.0663173662
105299370.0 -0.164084361 0.0709176598 0.5349744975 -0.0857099747 0.535661264 -0.0857131143 -0.1739914287 0.066492794
110299340.0 -0.1622574577 0.0713833738 0.5355390968 -0.0922378603 0.535862415 -0.092166309 -0.172884103 0.0674994195
115299310.0 -0.160926468 0.0724634719 0.5355878778 -0.0991657339 0.535679187 -0.0992118745 -0.1716463795 0.0685026744
120299280.0 -0.1594409215 0.0732336288 0.5354042346 -0.1066296842 0.5352892949 -0.1062538205 -0.1700361199 0.0685891543
125299250.0 -0.1581239414 0.0739318244 0.5349522178 -0.1127811119 0.5350119331 -0.1127416071 -0.1687841108 0.0696331572
130299220.0 -0.1568970477 0.0744844168 0.5343336251 -0.1195755013 0.534276215 -0.1200940017 -0.167679881 0.0704682795
135299190.0 -0.1554860769 0.076217978 0.5335971929 -0.1262470668 0.5337246286 -0.1262717872 -0.1668640528 0.0708495315
140299160.0 -0.1542094112 0.0767551938 0.5331980036 -0.13320596 0.5330370447 -0.1327365276 -0.1662018874 0.0717249017
145299130.0 -0.1533019006 0.078078576 0.5319948048 -0.1394204995 0.5320651728 -0.1393499951 -0.1652414132 0.0729740281
150299100.0 -0.1522430626 0.0788946596 0.5308933789 -0.1465112249 0.5309374167 -0.1461350017 -0.1643612713 0.0739947281
155299070.0 -0.1506908048 0.079887359 0.5291085214 -0.1525009564 0.5295988954 -0.1528007176 -0.1632941043 0.0748399349
160299040.0 -0.1499331617 0.0814161074 0.5281522584 -0.1591839062 0.5281505309 -0.1592979433 -0.162616645 0.0760857772
165299010.0 -0.1488680149 0.0821707871 0.5266687086 -0.1651783149 0.526746315 -0.1656625878 -0.1615677736 0.0767949896
170298980.0 -0.1477353927 0.0834746685 0.5246809151 -0.17211481 0.5251073561 -0.1716629264 -0.1611148106 0.0775592653
175298950.0 -0.1468303514 0.0845172752 0.5235974227 -0.1782605549 0.5238323693 -0.1787182098 -0.1602798602 0.0793234407
180298920.0 -0.1457780884 0.0859301902 0.5218542544 -0.1843858569 0.5220995652 -0.1848488217 -0.1593958725 0.0802719178
185298890.0 -0.1450309617 0.0872533216 0.5205746944 -0.1907944117 0.5201626998 -0.1901872753 -0.1585682858 0.0810508011
190298860.0 -0.1436238858 0.0889377194 0.5175948179 -0.1967712401 0.5182995679 -0.1966718123 -0.1579534063 0.0825671407
195298830.0 -0.1431070148 0.0902340731 0.5162937781 -0.2028179089 0.5165653713 -0.2030762693 -0.1570341654 0.0836427723
200298800.0 -0.1418437103 0.0911760216 0.5140983537 -0.2092367943 0.5139563007 -0.2091614804 -0.1566288674 0.0847199258
205298770.0 -0.1414325167 0.0926936709 0.5118175131 -0.2151063581 0.5122163157 -0.2149556796 -0.1554732642 0.0859186688
210298740.0 -0.140222525 0.0940965348 0.5097341108 -0.2208096152 0.5094674529 -0.2209644596 -0.1552906186 0.0869236164
215298710.0 -0.1391456226 0.0956210472 0.5068388387 -0.2266298673 0.5073899502 -0.2269012932 -0.1543338799 0.0883234073
220298680.0 -0.1380114458 0.0968017385 0.5044287041 -0.2324857183 0.5044218057 -0.2327349938 -0.1535514022 0.089540877
225298650.0 -0.1373037207 0.098477295 0.5020007958 -0.238426633 0.5027420749 -0.2381129666 -0.1528744764 0.0903024148
230298620.0 -0.1363325858 0.0997337103 0.5000130397 -0.2441431284 0.4999747007 -0.2445288322 -0.1520953753 0.0917710906
235298590.0 -0.1356535934 0.1013406627 0.4972432337 -0.2501047949 0.4973732093 -0.2499920296 -0.151029322 0.0931730121
240298560.0 -0.1342000183 0.1026982396 0.4943178175 -0.2559135339 0.4945777141 -0.2559353439 -0.1505668182 0.0941576039
245298530.0 -0.1333094389 0.1038431799 0.4916419279 -0.2613104881 0.4915393426 -0.2617798546 -0.1496879636 0.0960810542
250298500.0 -0.1323362727 0.1055342118 0.4894122532 -0.26727102 0.4892866834 -0.2670558627 -0.1492499419 0.0972438879
255298470.0 -0.1312074168 0.1073174153 0.4860794161 -0.272505958 0.4865275436 -0.2729456845 -0.1483269001 0.0990343147
260298440.0 -0.1301245285 0.1083969038 0.4832207516 -0.277640343 0.4833526018 -0.277868236 -0.1473972573 0.0996647493
265298410.0 -0.1293712416 0.1100577449 0.4799162419 -0.283950354 0.4801678072 -0.2841229069 -0.1460629421 0.1012121862
270298380.0 -0.1283481373 0.1112502554 0.477091093 -0.2892427096 0.4773926635 -0.2891471399 -0.1454669749 0.1024771483
275298350.0 -0.127243454 0.1131126616 0.4733550437 -0.2941725456 0.4736601509 -0.2941648635 -0.1443826957 0.1039969671
280298320.0 -0.1261800904 0.1143501603 0.4708212699 -0.2993330143 0.4710348564 -0.2999104026 -0.143506476 0.1053242475
285298290.0 -0.1249297447 0.1158551902 0.4674159338 -0.3050714226 0.4677426135 -0.3051749528 -0.1426207917 0.1068560031
290298260.0 -0.123640796 0.1173483704 0.4643179237 -0.3107320945 0.4643414948 -0.3105939308 -0.1417195571 0.1082094887
295298230.0 -0.1227138512 0.1185587023 0.4608810374 -0.3162809102 0.4610437389 -0.3161941568 -0.140787222 0.1092386753
300298200.0 -0.1212309983 0.12013912 0.4575790378 -0.3209878688 0.4577682835 -0.3208221677 -0.1396941048 0.1108205644
305298170.0 -0.120025039 0.121305403 0.4537842197 -0.3264563764 0.4543948416 -0.3263008842 -0.1385469736 0.1115655137
310298140.0 -0.1186756571 0.1224875349 0.4508490484 -0.3314302313 0.4507395574 -0.331071558 -0.1374581427 0.1129811432
315298110.0 -0.1178001694 0.1239952298 0.4471955959 -0.3372715929 0.4472865682 -0.3368862877 -0.136893601 0.1142229614
320298080.0 -0.1164796005 0.125050198 0.442772544 -0.3420150686 0.4436449558 -0.3421189816 -0.1359156391 0.1155145808
325298050.0 -0.1157097336 0.1262351591 0.4392171687 -0.3467297766 0.4401526448 -0.3467023038 -0.134707749 0.1165614117
330298020.0 -0.114965522 0.1274823597 0.4350872198 -0.3519156822 0.4360094119 -0.3520266128 -0.1342061881 0.1178530837
335297990.0 -0.1133501728 0.1290856186 0.431477257 -0.356720412 0.4315653909 -0.3564101094 -0.1329045802 0.1191842394
340297960.0 -0.1123410439 0.1302741869 0.4270749858 -0.3615101431 0.4271991893 -0.3615272699 -0.1320631253 0.1209461838
345297930.0 -0.1113652714 0.1314871824 0.4234414565 -0.3662655072 0.4229508944 -0.3662453621 -0.1308110741 0.1217954946
350297900.0 -0.1102210135 0.1327874871 0.4195681995 -0.3703535959 0.4193912252 -0.3704116003 -0.1300259775 0.1231086803
355297870.0 -0.1087872453 0.1344561245 0.414826324 -0.3746587102 0.4155373818 -0.3751205069 -0.1286574944 0.1246910086
360297840.0 -0.1076566879 0.136044928 0.4109403336 -0.3796763567 0.411198009 -0.3802069067 -0.1277595378 0.1263148248
365297810.0 -0.1063216166 0.137312294 0.406292144 -0.3844422824 0.4067841991 -0.3845967899 -0.1268770425 0.1274213795
370297780.0 -0.10449247 0.1385063321 0.4020607392 -0.3886819905 0.4027023342 -0.388915611 -0.1259762155 0.1288231117
375297750.0 -0.1031960404 0.1397060569 0.3981701703 -0.3930745959 0.3985282742 -0.3932672284 -0.1247230055 0.1302841625
380297720.0 -0.1023667251 0.1410212791 0.3943098002 -0.3978139103 0.3936373054 -0.3977478476 -0.1232465692 0.1315142234
385297690.0 -0.1010439016 0.1421432454 0.3892091033 -0.4017321515 0.3895326294 -0.4023528933 -0.1221947476 0.1333423388
390297660.0 -0.0991299053 0.1432830963 0.3848838667 -0.4052898082 0.385310763 -0.4062818017 -0.1204078189 0.1340989598
395297630.0 -0.0974983126 0.1446748558 0.3808569779 -0.4099596965 0.3805561329 -0.4100463253 -0.1195865867 0.1352939375
400297600.0 -0.0962962339 0.145692966 0.3763632992 -0.4145784105 0.376676141 -0.4145978008 -0.1182237656 0.1371045169
405297570.0 -0.0949367192 0.1466531555 0.3718113783 -0.4183573889 0.3722298827 -0.4182402844 -0.1170718352 0.1383758179
410297540.0 -0.0929891715 0.1482310781 0.3667430383 -0.4227368367 0.3674938993 -0.4224567572 -0.1159027195 0.1396603249
415297510.0 -0.0919529922 0.1493764198 0.3622539609 -0.4264740736 0.3628914413 -0.4265483531 -0.1140861289 0.1406455664
420297480.0 -0.0902257721 0.1503971548 0.3574792288 -0.430393892 0.3580233177 -0.4306740736 -0.1128492201 0.1422394013
425297450.0 -0.0881765629 0.1512277237 0.3530915532 -0.4338981002 0.3531688791 -0.4346323392 -0.1116042987 0.1428894551
430297420.0 -0.0869140843 0.1525189373 0.3488586034 -0.4382529212 0.3487540072 -0.4380926043 -0.1098897046 0.1445071163
435297390.0 -0.0852527256 0.1534603481 0.3433351413 -0.4425529143 0.3435076117 -0.4420514586 -0.1090935539 0.1460130492
440297360.0 -0.0835800977 0.1543837589 0.3384692318 -0.445906012 0.338598048 -0.4459624437 -0.1075610265 0.1470123151
445297330.0 -0.0818536814 0.1552430915 0.3337118866 -0.4491711891 0.333889875 -0.4496908979 -0.105806577 0.1484067955
450297300.0 -0.0800651477 0.1562924007 0.3285890749 -0.4526547913 0.3290625785 -0.45267668 -0.1041884817 0.1495720656
455297270.0 -0.0786614189 0.1574252952 0.3241417131 -0.4567037663 0.324225036 -0.4565868294 -0.1028747315 0.1505528278
460297240.0 -0.0766053321 0.1582547074 0.3189320912 -0.4604384585 0.3188277983 -0.460356081 -0.1012903916 0.1514198078
465297210.0 -0.0748435326 0.1593535867 0.3134353468 -0.4636156966 0.3132544981 -0.4638626759 -0.0996255353 0.1533829415
470297180.0 -0.0730890817 0.1602967787 0.3086669351 -0.4667911054 0.3089326769 -0.4665359436 -0.0982876258 0.1537075068
475297150.0 -0.0717479075 0.1613571324 0.3037405935 -0.4705442623 0.3038000048 -0.4702931171 -0.0970571759 0.1548482733
480297120.0 -0.0692526791 0.1621552576 0.2983477189 -0.4735868947 0.2987615011 -0.4730258857 -0.0954819382 0.1560478755
485297090.0 -0.0677422162 0.1627081345 0.2934037056 -0.4769034216 0.2931970937 -0.4766916147 -0.0942130469 0.1573426903
490297060.0 -0.065306132 0.1637986965 0.2877710078 -0.4804313374 0.2880566284 -0.4800058775 -0.0926581609 0.1580274282
495297030.0 -0.064308808 0.1644727132 0.2829049413 -0.4831699356 0.2828989835 -0.4832405802 -0.0906149394 0.159024306
500297000.0 -0.0624314138 0.1656932902 0.2777554975 -0.4860577228 0.2773779383 -0.4863283924 -0.089298347 0.1604862308
505296970.0 -0.0598234663 0.1660879694 0.2722313344 -0.4894022845 0.2725346704 -0.4890235746 -0.0875773134 0.1606688015
510296940.0 -0.0580266302 0.1671537875 0.2671451066 -0.4926121403 0.2669460575 -0.4925001408 -0.0855560536 0.1624471199
515296910.0 -0.0562953636 0.1680199732 0.2610965987 -0.494696739 0.2612982771 -0.4947227643 -0.0843665518 0.1624915484
520296880.0 -0.0543636359 0.1687956168 0.2561236382 -0.4977492055 0.2558665909 -0.4977354492 -0.082337726 0.1645569479
525296850.0 -0.0523802043 0.169024141 0.2501555501 -0.5001987273 0.2504875457 -0.5002944431 -0.0807927177 0.1650990442
530296820.0 -0.0506600924 0.1697944736 0.245119229 -0.5030934335 0.2449229521 -0.5031039317 -0.0791025603 0.1653798925
535296790.0 -0.0479680324 0.1708292034 0.239555412 -0.5055195157 0.2396934191 -0.5059501202 -0.0771508983 0.1669240603
540296760.0 -0.0462685965 0.1715722941 0.233797568 -0.5081042013 0.2335856247 -0.5079308634 -0.0755270268 0.1674181311
545296730.0 -0.0447212937 0.1724593783 0.2282889821 -0.5104804931 0.2284742468 -0.5105183107 -0.0745046814 0.1686230406
550296700.0 -0.0421671378 0.1728690595 0.2229154784 -0.5133038765 0.2229957741 -0.5135565213 -0.0725400487 0.1693463377
555296670.0 -0.0405127658 0.1735541142 0.2175137081 -0.5157729432 0.2178407297 -0.5157599 -0.0712924429 0.169951577
560296640.0 -0.0382270919 0.173770846 0.2116668569 -0.5177545481 0.2120451581 -0.5180837115 -0.0692778639 0.1710400335
565296610.0 -0.0363643213 0.1746985956 0.2065865999 -0.5203385001 0.2063132147 -0.5194362051 -0.0673582434 0.171804763
570296580.0 -0.0345036572 0.175345757 0.2004650727 -0.52222603 0.2004652644 -0.5221877224 -0.0658688923 0.1721248828
575296550.0 -0.0320979621 0.1756369943 0.1950519358 -0.5241823146 0.1945723673 -0.5242050531 -0.0638407837 0.1731389287
580296520.0 -0.0300229057 0.1765801574 0.1891037352 -0.5260494307 0.1890390581 -0.5264959193 -0.062569266 0.1738403681
585296490.0 -0.0280303287 0.1769612369 0.1836579801 -0.5281174412 0.1830723897 -0.5283335573 -0.0603616376 0.1751307225
590296460.0 -0.0253190841 0.1776148115 0.1775682709 -0.5303422524 0.1776898048 -0.5304726161 -0.0591689107 0.1756679625
595296430.0 -0.0235162265 0.1779065833 0.171150756 -0.5322293601 0.1714180958 -0.5319627259 -0.0571129923 0.1761061678
600296400.0 -0.0213325151 0.178679765 0.165907913 -0.5335889843 0.1658282325 -0.5340184178 -0.0552842125 0.176519508
605296370.0 -0.020217146 0.1791118497 0.1607433863 -0.5355830753 0.159869558 -0.5360248747 -0.053556758 0.1775959783
610296340.0 -0.0175253941 0.1797207555 0.154270207 -0.5369245041 0.1548945174 -0.5371451258 -0.0519679233 0.1783822415
615296310.0 -0.0153197321 0.1796946186 0.1482109989 -0.5389245038 0.1481348166 -0.5392911949 -0.0498665039 0.1788963494
620296280.0 -0.0134715709 0.1806232722 0.1422838813 -0.5404761802 0.14229655 -0.5402262462 -0.0486563694 0.1796668917
625296250.0 -0.0115122163 0.1807505211 0.1368541323 -0.5420113085 0.1368496777 -0.5419136528 -0.0469133954 0.1799529546
630296220.0 -0.0092914328 0.1816197702 0.1306638962 -0.5438154039 0.1304868202 -0.5434133635 -0.0448635069 0.1809689243
635296190.0 -0.0075849211 0.1816895794 0.1250786503 -0.5447938817 0.1249979376 -0.5445243619 -0.0431124681 0.181213121
640296160.0 -0.0053041242 0.1819254492 0.1190462861 -0.5462464851 0.1190523297 -0.5459705669 -0.0416718784 0.1817934276
645296130.0 -0.0029171124 0.1825673817 0.1131274101 -0.5470803629 0.1131095012 -0.5469806079 -0.039909249 0.1819291459
650296100.0 -0.0012138212 0.1824969402 0.1074105906 -0.5483329273 0.1071317569 -0.5483840387 -0.0372892566 0.1824808896
655296070.0 0.0010825722 0.1829911891 0.1011455846 -0.5493840967 0.1010376349 -0.5494219148 -0.036343237 0.1835928593
660296040.0 0.0029234764 0.1833912387 0.0951134408 -0.5505439131 0.0954353449 -0.550499943 -0.0343160506 0.1833946994
665296010.0 0.005180074 0.1834977817 0.0889947477 -0.5510745531 0.0889464812 -0.5512106586 -0.0325550642 0.1841625368
670295980.0 0.00719124 0.1837538302 0.0830225519 -0.5523608212 0.083436357 -0.5518696649 -0.0313180398 0.1841821739
675295950.0 0.009063818 0.1835089849 0.0775917495 -0.5529497901 0.077444455 -0.5532804882 -0.0292014738 0.1850137161
680295920.0 0.0107579013 0.1842238991 0.0716114266 -0.5538156917 0.0715820715 -0.5538462769 -0.026964334 0.1852157608
685295890.0 0.0135979423 0.1844447656 0.065051401 -0.5546906444 0.0656577995 -0.5546588201 -0.0252403842 0.1859008853
690295860.0 0.0149722796 0.1844574906 0.0596258259 -0.5551574125 0.0590157594 -0.5554443776 -0.0233645153 0.18611863
695295830.0 0.017352287 0.18442459 0.0535178324 -0.5559362398 0.0535038649 -0.5557987062 -0.0216616717 0.186967733
700295800.0 0.0193627963 0.1847383219 0.0482715731 -0.5561830163 0.0474967899 -0.5566046538 -0.0198974667 0.1870740103
705295770.0 0.0211278318 0.1848309541 0.0417435734 -0.5569004444 0.0416829839 -0.5568151924 -0.0181147695 0.187799785
710295740.0 0.0232714577 0.1846769814 0.0359763843 -0.5571959504 0.0352595743 -0.5575083377 -0.016005188 0.1879038804
715295710.0 0.0254079391 0.1849764538 0.0296704809 -0.5576297205 0.0294900236 -0.5578402923 -0.0143382059 0.1879925806
720295680.0 0.0276201393 0.1849035593 0.0234867175 -0.5571637456 0.0235319698 -0.5580059655 -0.0128764747 0.1882498302
725295650.0 0.0287503262 0.1848452096 0.01812613 -0.5578151185 0.0178745692 -0.5580147949 -0.010932701 0.1888365735
730295620.0 0.0306019268 0.1848235647 0.0118304987 -0.5577398003 0.0116464379 -0.5576329165 -0.0092414549 0.189389597
735295590.0 0.0330960517 0.1849769856 0.0059292347 -0.5582272004 0.0058664325 -0.5582728883 -0.0072441044 0.1891315467
740295560.0 0.0350275968 0.1844022465 5.4491e-06 -0.558491843 -0.0004303094 -0.5581087363 -0.0055970362 0.1898280167
745295530.0 0.0369357917 0.1845990216 -0.0063461891 -0.5574815939 -0.005764915 -0.5579823483 -0.0039957112 0.1896932752
750295500.0 0.038619111 0.1843058177 -0.011909503 -0.5578748387 -0.0125343083 -0.5579285507 -0.0019863021 0.1900727693
755295470.0 0.0402518038 0.1840653775 -0.0175140909 -0.5581644427 -0.0183755473 -0.5583641209 -7.47928e-05 0.1906080933
760295440.0 0.0425071232 0.1843100662 -0.024751004 -0.5577877652 -0.0242019848 -0.5569927642 0.0018624951 0.1896480485
765295410.0 0.0449200212 0.1835015813 -0.0301055889 -0.5568089073 -0.0298899611 -0.5570646229 0.003698291 0.1903004953
770295380.0 0.0464793112 0.1838658958 -0.0358371151 -0.556808559 -0.0362761207 -0.5569443238 0.0052229578 0.1904645402
775295350.0 0.0485337586 0.1830877681 -0.0419590468 -0.556551211 -0.0423365453 -0.5560459378 0.0077353442 0.1907772801
780295320.0 0.0503687487 0.1830629461 -0.0476396624 -0.5555694602 -0.0477685947 -0.5560625116 0.009632545 0.1906836421
785295290.0 0.052256189 0.182462464 -0.054115689 -0.5555968006 -0.0538521063 -0.5553024629 0.0106672997 0.1912255245
790295260.0 0.0543195315 0.1821329378 -0.0598622238 -0.5548469759 -0.0598784186 -0.5552464784 0.0125979029 0.1913821026
795295230.0 0.0559830152 0.181576909 -0.0659657866 -0.5542550573 -0.0659294788 -0.5538480275 0.0147418703 0.1906500472
800295200.0 0.0575923438 0.1814357608 -0.0712226862 -0.5526523993 -0.071759467 -0.5536785025 0.01639405 0.1910461307
805295170.0 0.0597599124 0.1812427657 -0.0775318954 -0.5524203064 -0.0774141192 -0.5524816731 0.0188092978 0.1908357757
810295140.0 0.0617360537 0.1804684935 -0.0834308338 -0.551615795 -0.0838023123 -0.5518856512 0.0203177139 0.1910406143
815295110.0 0.0634817589 0.180178838 -0.0893102376 -0.5507719109 -0.0890705608 -0.5508456499 0.0221909312 0.1911150378
820295080.0 0.0653313759 0.1797721681 -0.0948631502 -0.5496203099 -0.094684625 -0.5501954429 0.0233903459 0.1914369964
825295050.0 0.0669811246 0.1790083814 -0.1011853894 -0.5486731477 -0.1012193548 -0.5482860221 0.0259328795 0.1913779469
830295020.0 0.0689369474 0.1783311388 -0.1069224258 -0.5470313433 -0.1070525232 -0.547455952 0.0272242604 0.1907533701
