!Created with skrf (http://scikit-rf.org).
# Hz S RI R 50.0 
!freq ReS11 ImS11 ReS21 ImS21 ReS12 ImS12 ReS22 ImS22
300000.0 -0.3174241 -0.1000562143 0.3712556123 0.0498171581 0.3737539267 0.0546569753 -0.3174966842 -0.1105850371
5299970.0 -0.3238211848 0.0047744581 0.3784596194 0.0025457506 0.37852618 0.0029924135 -0.32611698 0.0030955798
10299940.0 -0.3209530823 0.0156440013 0.3798511396 0.0022536723 0.3796650018 0.0025901204 -0.324113916 0.0129024541
15299910.0 -0.3183377283 0.0235028683 0.3822630672 0.0022496309 0.3822812641 0.002596456 -0.3214392134 0.0198348046
20299880.0 -0.3144228864 0.0301644099 0.3851415506 0.0015308808 0.385095698 0.0016813328 -0.3186918782 0.0260858128
25299850.0 -0.3106874882 0.0357863277 0.3885265001 -7.7633e-06 0.3884702682 5.80296e-05 -0.3157122568 0.0309617056
30299820.0 -0.3066200924 0.0404704332 0.3920596366 -0.0022184196 0.3916925278 -0.0022945094 -0.3126098246 0.035647136
35299790.0 -0.3028912847 0.0448077282 0.3950070632 -0.0055389959 0.3952253288 -0.0053175662 -0.3097503844 0.0396581004
40299760.0 -0.2996955748 0.0480110552 0.3985811549 -0.0085879907 0.3982276467 -0.008612504 -0.3072438191 0.0429420728
45299730.0 -0.2966101639 0.0517207821 0.4015753881 -0.0131208477 0.4013438755 -0.0126277701 -0.3047523992 0.0460723928
50299700.0 -0.293436906 0.0541967472 0.4038141721 -0.0173252547 0.4036905003 -0.0174364034 -0.3022976767 0.0491473326
55299670.0 -0.2909168535 0.0567470964 0.405533686 -0.0219153602 0.4060688465 -0.0218557487 -0.300316222 0.0518836556
60299640.0 -0.2881547795 0.0588628691 0.4073971382 -0.0270632547 0.4075837767 -0.0268029942 -0.2982222642 0.0545455943
65299610.0 -0.2859841342 0.0617069507 0.4092002159 -0.0314725355 0.4093592605 -0.0319139746 -0.2961020237 0.0572827271
70299580.0 -0.2840097303 0.0634180978 0.4105997288 -0.0367219314 0.4104827653 -0.0369960684 -0.2945408949 0.059653962
75299550.0 -0.2817934104 0.0657904556 0.4114815256 -0.0418229578 0.4115502493 -0.0423825822 -0.2930020943 0.0618804594
80299520.0 -0.2804375858 0.0680923284 0.4127675014 -0.0473440445 0.4126709032 -0.0472648036 -0.2919156879 0.0639285509
85299490.0 -0.2785601969 0.0698728106 0.4133362711 -0.0525204007 0.4130901779 -0.052478418 -0.2902284599 0.0664262044
90299460.0 -0.2769858793 0.0721621895 0.4135855789 -0.0579427128 0.4137798299 -0.0578340397 -0.2884822056 0.0689701667
95299430.0 -0.2755938202 0.0741420565 0.4138521815 -0.0633403482 0.4139707821 -0.062977558 -0.2876342471 0.0712108526
100299400.0 -0.2744697607 0.0763147319 0.4137321176 -0.0682781517 0.4137180247 -0.0683850008 -0.2867756137 0.0730820357
105299370.0 -0.2728071695 0.0784706986 0.4132970596 -0.0733503253 0.4136910606 -0.0739127703 -0.2850999295 0.0757344789
110299340.0 -0.2719034103 0.0804076349 0.4134665399 -0.0785271842 0.4133843795 -0.0791550651 -0.2843249398 0.0781626325
115299310.0 -0.2708215257 0.0821950418 0.4133550863 -0.0834994679 0.4134175578 -0.0839024021 -0.2828871145 0.0803142934
120299280.0 -0.269906841 0.0847977376 0.4130001385 -0.0887727503 0.4129842018 -0.0891282677 -0.2825672112 0.0826403374
125299250.0 -0.2688686329 0.0869189084 0.4121808907 -0.0938977185 0.4127310655 -0.0939266037 -0.2813554301 0.0849417509
130299220.0 -0.2675992477 0.0890405971 0.4115808029 -0.0984693174 0.4115075123 -0.0991534907 -0.2804390809 0.0873257421
135299190.0 -0.2666428789 0.0908865267 0.4108511898 -0.1037717067 0.4106695115 -0.1042053531 -0.2794385032 0.0898623041
140299160.0 -0.2660336802 0.0937285538 0.41022631 -0.1091371044 0.4103252304 -0.1091882721 -0.2784358443 0.0921450329
145299130.0 -0.2649721096 0.0957969643 0.4093440944 -0.1141555708 0.4090313939 -0.1138866783 -0.2780167702 0.0944275215
150299100.0 -0.2640935271 0.0982374535 0.4082775528 -0.11932976 0.4080200182 -0.1189484959 -0.2769552763 0.0971167753
155299070.0 -0.262867106 0.1008565488 0.4070952463 -0.1239103654 0.4069589339 -0.1242642288 -0.2761500016 0.0994275101
160299040.0 -0.2619049425 0.1030118912 0.4056180933 -0.1286155682 0.4060733393 -0.1285937302 -0.2750554683 0.102262304
165299010.0 -0.2610250596 0.1055395991 0.4046869956 -0.1336107674 0.404658173 -0.1337158012 -0.2741742954 0.1044460054
170298980.0 -0.2603121205 0.1077336923 0.4028034443 -0.1382536605 0.4029785981 -0.1385640963 -0.2728177679 0.1073692577
175298950.0 -0.2591033583 0.1103711355 0.402279344 -0.1426771514 0.402218557 -0.1431202044 -0.2721755666 0.1095175891
180298920.0 -0.2578691353 0.1124925595 0.4003596248 -0.1480097161 0.4004297213 -0.1478846302 -0.2710678905 0.1125095065
185298890.0 -0.256790218 0.1153330545 0.3986824133 -0.1527902762 0.3989680429 -0.1527108006 -0.2702953959 0.1147922512
190298860.0 -0.2559493068 0.1177039969 0.3973638256 -0.1573884801 0.3974290516 -0.1574252721 -0.2687308242 0.1175539951
195298830.0 -0.2545829674 0.1198933044 0.3955240389 -0.1618292375 0.3957970965 -0.1622123914 -0.2679864113 0.1200217238
200298800.0 -0.2534446372 0.1228760839 0.394009669 -0.1659606045 0.394200176 -0.1664360991 -0.2667280668 0.1228295617
205298770.0 -0.2524629059 0.1252958386 0.3921610051 -0.1710408318 0.3925390115 -0.1710549269 -0.2659468837 0.1255686088
210298740.0 -0.2515803954 0.1277822359 0.3906510808 -0.1762680169 0.3908642157 -0.1759728764 -0.2647895493 0.1283395575
215298710.0 -0.2505561244 0.1304150629 0.3884238287 -0.1797796188 0.3885871273 -0.1801222902 -0.2634645535 0.1306431728
220298680.0 -0.2493253203 0.1329572364 0.386663157 -0.1848247071 0.3865754244 -0.1849064179 -0.2619077503 0.1337361365
225298650.0 -0.2478578237 0.1355255836 0.3844523167 -0.1889949612 0.3843154809 -0.189153625 -0.261386599 0.136487833
230298620.0 -0.2469501208 0.1383662629 0.3829545886 -0.1936790015 0.3826613225 -0.1936073828 -0.2595780198 0.1391079344
235298590.0 -0.2454055475 0.1406549983 0.3802713999 -0.1979023354 0.3805279685 -0.198257067 -0.2583693354 0.1415499989
240298560.0 -0.2442706232 0.1433592867 0.3783040441 -0.2022139389 0.3782928717 -0.2019158043 -0.2569653658 0.1444222951
245298530.0 -0.2423906356 0.145548513 0.3754396601 -0.2065973556 0.3755884937 -0.2066203393 -0.2554608288 0.1470550779
250298500.0 -0.2414183512 0.1482758355 0.373588951 -0.2107238796 0.3738631116 -0.210529698 -0.2537692981 0.1499853064
255298470.0 -0.2401526122 0.1509389953 0.371466384 -0.2153322372 0.3714068542 -0.214939653 -0.2528095049 0.1522685758
260298440.0 -0.2388481443 0.1535267458 0.3692804653 -0.219383686 0.3687992056 -0.219614717 -0.2509085098 0.155065948
265298410.0 -0.2372174909 0.1560911608 0.3666946801 -0.2236485936 0.3663814815 -0.2235841555 -0.2495656368 0.1576118829
270298380.0 -0.23531199 0.158495294 0.3635794407 -0.2279334948 0.3646004066 -0.2279079558 -0.2478437026 0.1605082516
275298350.0 -0.2341279403 0.1612295077 0.3617244621 -0.2320975576 0.3619937008 -0.2318406254 -0.2460986511 0.1631906847
280298320.0 -0.2326664106 0.1639928297 0.3589294706 -0.2357080946 0.3590841663 -0.2363127051 -0.2447618767 0.1659074613
285298290.0 -0.230858706 0.166375083 0.3564350001 -0.2397793777 0.3564443403 -0.2398616275 -0.2431867593 0.1684708061
290298260.0 -0.2294893015 0.1687563952 0.3539802968 -0.2439021571 0.3538215949 -0.2438156531 -0.2412619574 0.1713385942
295298230.0 -0.2276632691 0.1710975329 0.351342319 -0.24767367 0.3511166127 -0.2478783062 -0.2395828974 0.1738243643
300298200.0 -0.225844303 0.1737300496 0.3485037576 -0.2519593819 0.3484384497 -0.2520368347 -0.238151186 0.1765188152
305298170.0 -0.22378502 0.176172184 0.3456505336 -0.2559317933 0.3458844355 -0.2563337346 -0.2356358951 0.1792753728
310298140.0 -0.2221087107 0.1783859239 0.3430726136 -0.2600329436 0.3427941838 -0.260615751 -0.233865408 0.1822902285
315298110.0 -0.2204021512 0.1806966324 0.3396883795 -0.2639186108 0.3403300378 -0.2641225112 -0.2321848211 0.1844530158
320298080.0 -0.2188536408 0.1835104621 0.337336161 -0.2677952245 0.337495765 -0.2677201475 -0.2304545642 0.1866096859
325298050.0 -0.2172177705 0.1856176759 0.3343580369 -0.2718313711 0.3341627794 -0.271754873 -0.2283515196 0.1890898966
330298020.0 -0.2153697 0.1881161949 0.3305074591 -0.2754862266 0.3308883436 -0.2754790264 -0.2265484674 0.1916926058
335297990.0 -0.213444143 0.1903748635 0.3276639317 -0.2790343661 0.3276974917 -0.2791648072 -0.2249204281 0.1942106907
340297960.0 -0.2117521293 0.1930003695 0.3243277796 -0.2828848157 0.3244382689 -0.2825789013 -0.222783179 0.1966721216
345297930.0 -0.2099430072 0.1951105477 0.3211595129 -0.2860217658 0.3209683148 -0.2859294415 -0.2208255945 0.199285082
350297900.0 -0.207732999 0.1977199203 0.3177262563 -0.2894640278 0.3181805558 -0.2895748928 -0.2188114867 0.2020026181
355297870.0 -0.2059051233 0.1996112127 0.3146510534 -0.2931073178 0.3147899784 -0.2932929152 -0.2166894343 0.2048924253
360297840.0 -0.2038006185 0.2023927715 0.3113507654 -0.2967277486 0.3113123558 -0.2966270472 -0.2147628031 0.2071495025
365297810.0 -0.2015277835 0.2044717548 0.307779672 -0.3002441691 0.3083056825 -0.3001805702 -0.212440857 0.2097273492
370297780.0 -0.1994310907 0.2066612521 0.3045964591 -0.3031090438 0.3048177141 -0.3038015733 -0.2104809202 0.2122580622
375297750.0 -0.1975982945 0.2090904396 0.3014911603 -0.306900538 0.3013109615 -0.3072018503 -0.2079028661 0.2147837949
380297720.0 -0.1953237933 0.211426143 0.2979327085 -0.3100995769 0.2979662341 -0.3100758788 -0.2057439252 0.217264678
385297690.0 -0.1930036972 0.2138918026 0.294362682 -0.3131076827 0.294338888 -0.313453181 -0.2035691419 0.2196180536
390297660.0 -0.1911250264 0.2158713096 0.290905012 -0.3167237175 0.2907025239 -0.3167427734 -0.2012808896 0.2216803548
395297630.0 -0.1886141027 0.2179501497 0.2876592283 -0.3196629282 0.2874283212 -0.3195515446 -0.1990477837 0.2244794689
400297600.0 -0.1864612003 0.2205043334 0.2839765251 -0.3229561467 0.2843536666 -0.3230208581 -0.1972205193 0.2264351745
405297570.0 -0.1843439914 0.2225724047 0.28025831 -0.3261149944 0.2804037698 -0.3261375328 -0.1944925867 0.228926287
410297540.0 -0.1816785417 0.2245071806 0.276327636 -0.3288016824 0.2764969747 -0.3288970216 -0.1924752595 0.2314384536
415297510.0 -0.1797472333 0.226606679 0.2731837748 -0.3314089805 0.2729106788 -0.332014634 -0.1897680954 0.2341699779
420297480.0 -0.176920164 0.2285529999 0.269289583 -0.3354125917 0.2691393649 -0.3350309562 -0.1870985018 0.2356777428
425297450.0 -0.1747085542 0.230675046 0.2656586217 -0.3377028695 0.2660700315 -0.3379031083 -0.185060607 0.2384865054
430297420.0 -0.1724814498 0.2326780441 0.2620975383 -0.3409735695 0.2620739669 -0.3406729922 -0.1826919649 0.2402133971
435297390.0 -0.169997975 0.2344990917 0.2580940898 -0.3433790029 0.2581795612 -0.3433616337 -0.1801637288 0.2425550652
440297360.0 -0.1674495306 0.2364462481 0.2542665358 -0.3462960754 0.2540102209 -0.3461955161 -0.1778521097 0.2441455363
445297330.0 -0.1647638285 0.2384212965 0.2499726284 -0.3491034607 0.250775954 -0.3490078196 -0.1753770992 0.2463106308
450297300.0 -0.1624282985 0.2401895965 0.2467708968 -0.3516091308 0.2465981792 -0.3520329282 -0.1727702999 0.2486062514
455297270.0 -0.1600676143 0.2421033025 0.2428985668 -0.354373465 0.2429579635 -0.3544848229 -0.1698910848 0.2508669421
460297240.0 -0.1575242663 0.2441382183 0.238712329 -0.3568313648 0.238518234 -0.3571131846 -0.1673807066 0.2531228444
465297210.0 -0.154582326 0.2458323623 0.2347280704 -0.3597443421 0.235079408 -0.3596335968 -0.1650862647 0.2545085349
470297180.0 -0.1522298889 0.2475433538 0.2308402393 -0.3622263478 0.2312106618 -0.3622507679 -0.1629838344 0.2569072241
475297150.0 -0.1497732211 0.2493636709 0.2267683922 -0.3641172903 0.2268829494 -0.3639574614 -0.1594473964 0.2585788216
480297120.0 -0.1472097371 0.2510202732 0.2226864913 -0.3668229421 0.2231903874 -0.3667551079 -0.1569950135 0.2606857606
485297090.0 -0.1441813841 0.2523342977 0.2186594212 -0.3690494275 0.218948737 -0.369182499 -0.1546153951 0.262342319
490297060.0 -0.1415030778 0.2541598342 0.2145075609 -0.3716237327 0.2148293758 -0.3716860775 -0.1517957073 0.2643886598
495297030.0 -0.1391450812 0.2561412943 0.2104825732 -0.3742118866 0.2102442963 -0.3740238117 -0.1488326946 0.26592479
500297000.0 -0.1361683155 0.2577345626 0.2063286013 -0.3763242134 0.2065429246 -0.3760030386 -0.1464903687 0.2675858761
505296970.0 -0.1338218068 0.2590815335 0.2021650752 -0.3780289403 0.2022370962 -0.378171604 -0.1438891997 0.2693323923
510296940.0 -0.1307100289 0.2608799719 0.1980762703 -0.3806121243 0.1981018806 -0.3804459471 -0.140637651 0.2714041348
515296910.0 -0.1286052494 0.2624754447 0.1939430954 -0.3822400197 0.1939195389 -0.3826241715 -0.1379141017 0.2728985589
520296880.0 -0.1254010714 0.2637354599 0.1896138347 -0.3843877853 0.1899515021 -0.3843474446 -0.1352527778 0.2745716564
525296850.0 -0.122791769 0.2650928371 0.1856703643 -0.3864706752 0.1858655931 -0.3867623179 -0.131996939 0.2761338155
530296820.0 -0.1199150778 0.2667301119 0.1813541727 -0.3881129057 0.181349733 -0.3887472095 -0.1298337224 0.2774097314
535296790.0 -0.116906832 0.2678812567 0.1770419888 -0.3902432909 0.177201146 -0.3903215282 -0.1269405256 0.2789631169
540296760.0 -0.1141742825 0.2691835225 0.1729527152 -0.3924604963 0.1727882034 -0.3924998607 -0.1242706829 0.2807283125
545296730.0 -0.1113560668 0.2708290193 0.1684422909 -0.3937454709 0.1686645003 -0.3943672233 -0.1212008932 0.2819268172
550296700.0 -0.1085648628 0.2722989462 0.164529438 -0.3961308714 0.1646200813 -0.3961451411 -0.1184103616 0.2837058403
555296670.0 -0.1052744671 0.2733368655 0.15991725 -0.3975759514 0.1600657722 -0.3977242946 -0.1153500847 0.2852106876
560296640.0 -0.1027117604 0.2746797536 0.1554947633 -0.3994618162 0.1560494508 -0.3988504139 -0.1126017531 0.2862594841
565296610.0 -0.1002971696 0.2756967471 0.1513907453 -0.4008565221 0.1510028737 -0.4008374155 -0.1095191062 0.2874900863
570296580.0 -0.0967870235 0.2767554399 0.1466196364 -0.4022369422 0.1469269475 -0.402446052 -0.1065527215 0.2893241854
575296550.0 -0.0941238112 0.2783002692 0.1425165714 -0.403870816 0.1426075331 -0.4038207591 -0.103425527 0.2903617651
580296520.0 -0.0911591645 0.279464211 0.1378418 -0.4054963476 0.1380478421 -0.4053918983 -0.1005717722 0.2916183606
585296490.0 -0.0879936598 0.2802045532 0.133575775 -0.4071241507 0.1337225098 -0.4068407516 -0.0978335435 0.2927701634
590296460.0 -0.0853498631 0.2812844746 0.1288812737 -0.4080014322 0.1294484904 -0.4084818841 -0.094448332 0.2939532394
595296430.0 -0.0822235459 0.2825222878 0.1246591915 -0.4098006995 0.1246936171 -0.4098503989 -0.0917504957 0.2947050461
600296400.0 -0.0792499215 0.2835973342 0.1201816708 -0.4110016065 0.1203904293 -0.4112350413 -0.0885542811 0.2962387924
605296370.0 -0.0764161425 0.2848464287 0.1160532767 -0.4124601178 0.1158908356 -0.412310725 -0.085554542 0.297234093
610296340.0 -0.0733576261 0.2856279858 0.1114544773 -0.4134344261 0.1115913876 -0.4136168006 -0.0821696515 0.2982863646
615296310.0 -0.0701163857 0.2865777393 0.1066064272 -0.4146289508 0.1070746859 -0.4145692703 -0.0791715962 0.2990406813
620296280.0 -0.0672011037 0.2871766433 0.1024358207 -0.4155250693 0.1025185702 -0.4154890924 -0.0763822424 0.2999901767
625296250.0 -0.0642437655 0.2881454113 0.0973662281 -0.4167984306 0.0978785234 -0.4170649018 -0.0731080927 0.3010722563
630296220.0 -0.0611526384 0.289179187 0.0928633961 -0.4177117839 0.093667387 -0.4178362871 -0.07012046 0.3022212981
635296190.0 -0.0581422702 0.2899046831 0.0885936182 -0.4184387397 0.0889031041 -0.4185031849 -0.0673281108 0.3028009505
640296160.0 -0.0549884629 0.2904603744 0.0846100606 -0.4193031673 0.0843106921 -0.4195420095 -0.0636234375 0.3036019894
645296130.0 -0.0519421141 0.2914073332 0.0795392263 -0.4203537979 0.0796143565 -0.4201698718 -0.0610900853 0.3041122103
650296100.0 -0.0487607636 0.2920914294 0.0755248593 -0.4208105641 0.0755530821 -0.4210776323 -0.0574487082 0.3052819797
655296070.0 -0.0459194134 0.2923956874 0.0704412158 -0.4215577049 0.0704174639 -0.421755482 -0.0542106564 0.305953457
660296040.0 -0.0430493207 0.2935468091 0.0661768649 -0.4218658566 0.0659100325 -0.4224014304 -0.0514396109 0.3066056857
665296010.0 -0.0396249421 0.2939848247 0.0613630268 -0.4228969989 0.0618005129 -0.4233593283 -0.0479897873 0.3075631574
670295980.0 -0.0362688593 0.2945989178 0.05660873 -0.4239842003 0.0572727307 -0.4237435506 -0.0451815384 0.3078159397
675295950.0 -0.0334100035 0.2948069193 0.0521140565 -0.4244449045 0.0526020441 -0.4248596988 -0.0417315126 0.3087038799
680295920.0 -0.0303778239 0.2957714081 0.0475128312 -0.4249852995 0.0472756705 -0.4248675885 -0.0383416419 0.3093279232
685295890.0 -0.0272286087 0.2959163547 0.0430637397 -0.4254413475 0.0428050499 -0.4251538409 -0.035288372 0.3095903088
690295860.0 -0.0238110288 0.2965507745 0.0385605721 -0.425340932 0.0381483258 -0.4257388856 -0.0319830006 0.3105247113
695295830.0 -0.02061902 0.2964679959 0.0333387059 -0.4259617104 0.0335142842 -0.4262668879 -0.0289071165 0.3109292105
700295800.0 -0.0175713451 0.2973565063 0.028876878 -0.4265440495 0.0292228372 -0.4264132109 -0.0257989162 0.3110238684
705295770.0 -0.0143563132 0.2976176332 0.0244613517 -0.4267400371 0.0247873069 -0.4266367981 -0.022717542 0.3114297521
710295740.0 -0.0112090881 0.297805793 0.0198371237 -0.4267297842 0.0200745531 -0.4266167178 -0.0199572812 0.3122884364
715295710.0 -0.0082413072 0.2982804637 0.0150499812 -0.4270676638 0.0153638518 -0.4272308624 -0.0163687634 0.3122099566
720295680.0 -0.0052657795 0.2982743978 0.0103853217 -0.426869442 0.0109244924 -0.4273562628 -0.0124626161 0.312494857
725295650.0 -0.0015534419 0.2983379305 0.0057921178 -0.4266727535 0.0057904701 -0.4272726115 -0.0093218344 0.3131836769
730295620.0 0.0009765986 0.2987692028 0.0012567371 -0.4271072363 0.0014595402 -0.4268609976 -0.0062165733 0.3126943136
735295590.0 0.0044605581 0.2986574253 -0.0030773964 -0.4272080364 -0.0030516403 -0.4272400326 -0.0032865314 0.3133932366
740295560.0 0.0074206348 0.2990870234 -0.0076610995 -0.426745317 -0.0081084324 -0.426887294 0.0003767005 0.3135844256
745295530.0 0.0106417266 0.2988782879 -0.0124918777 -0.4268434757 -0.0123201324 -0.4268514294 0.0033290943 0.3134964019
750295500.0 0.0139900902 0.2988997466 -0.0173380576 -0.4263109478 -0.0170323355 -0.4263543195 0.0066964496 0.3130886995
755295470.0 0.0175951078 0.2992268543 -0.0219817756 -0.4264640985 -0.0213995757 -0.426481421 0.0095203051 0.3135707874
760295440.0 0.0202871717 0.2991273853 -0.0263925147 -0.426098796 -0.0264712916 -0.4263528569 0.0128254124 0.3139388378
765295410.0 0.0233426671 0.2989580879 -0.0306017426 -0.4255127264 -0.0308775214 -0.425978315 0.016944703 0.3141078632
770295380.0 0.0268060315 0.2986435179 -0.0355095264 -0.4250711988 -0.0358065963 -0.4255573698 0.0202359315 0.3137401063
775295350.0 0.0297487352 0.298785811 -0.0397580445 -0.4246582508 -0.039928117 -0.4247694342 0.0227112525 0.313312244
780295320.0 0.0331614196 0.2982326852 -0.0444552662 -0.4242058638 -0.0444508071 -0.4245431326 0.0260176381 0.3137487621
785295290.0 0.0363616913 0.2985061837 -0.049028418 -0.4234600832 -0.0492300846 -0.4240037687 0.0292680468 0.3134987328
790295260.0 0.039168851 0.2981774361 -0.0537197997 -0.4233414103 -0.0535629509 -0.4234500344 0.032933956 0.3131361571
795295230.0 0.0425735854 0.2979303375 -0.0580069172 -0.4223709878 -0.0580952561 -0.4225504466 0.0363215502 0.3135051942
800295200.0 0.045964336 0.2977205684 -0.0631237367 -0.4217201256 -0.0633576381 -0.4221497383 0.0394143841 0.3128853966
805295170.0 0.0485747221 0.2971578876 -0.0672698241 -0.420650765 -0.0671875633 -0.4210340335 0.0422281369 0.3123639814
810295140.0 0.0521274759 0.2969767744 -0.0719712175 -0.4203879998 -0.0717359072 -0.420780537 0.0457734372 0.3126061623
815295110.0 0.0553049491 0.2966247735 -0.0767887715 -0.4192892754 -0.0766915159 -0.4192661358 0.0487934759 0.3119803035
820295080.0 0.0582890323 0.2955420894 -0.0809150895 -0.4185031851 -0.081057168 -0.4188540091 0.0520192991 0.311542513
825295050.0 0.0614638797 0.2954252557 -0.08559402 -0.417471669 -0.0854312582 -0.4180540143 0.0553965222 0.3112144958
830295020.0 0.0645410791 0.2952171966 -0.0900125691 -0.4164936055 -0.0903863362 -0.4169326789 0.0583755584 0.3107733951
