!Created with skrf (http://scikit-rf.org).
# Hz S RI R 50.0 
!freq ReS11 ImS11 ReS21 ImS21 ReS12 ImS12 ReS22 ImS22
300000.0 -0.7763517475 -0.1424991901 6.57193e-05 0.0002365927 0.0002934583 0.0001532626 0.8596900775 -0.0017174858
5299970.0 -0.7855852041 -0.0070652928 8.76237e-05 -9.07146e-05 -0.0002325703 -9.38183e-05 0.8587974963 -0.0104836248
10299940.0 -0.7878603477 -0.0041087726 -3.44153e-05 -3.11149e-05 6.18912e-05 -5.21821e-05 0.8582529855 -0.0185816106
15299910.0 -0.7931501476 -0.0013414531 0.000222897 3.89728e-05 -1.99126e-05 5.48286e-05 0.8567201356 -0.0271650868
20299880.0 -0.7994943228 0.002105172 0.0001668474 -6.45223e-05 -4.68869e-05 0.0001812344 0.8569718227 -0.0359835377
25299850.0 -0.8060921003 0.0082773514 -0.000120734 -5.96773e-05 1.16075e-05 6.78657e-05 0.855360718 -0.0433437631
30299820.0 -0.8119195773 0.0162798512 -0.0001649187 0.0001238549 7.38311e-05 7.79373e-05 0.854955485 -0.0520575966
35299790.0 -0.8166821356 0.0252913583 8.0401e-06 -4.00559e-05 -9.28813e-05 -0.0001351075 0.8543618205 -0.0605208179
40299760.0 -0.8216679272 0.0345044169 -2.69932e-05 0.0001303409 -0.000144905 -9.25171e-05 0.8533914711 -0.0689888709
45299730.0 -0.8245169133 0.0440118768 -8.83978e-05 -6.77176e-05 9.99397e-05 6.5034e-05 0.8526726975 -0.0768532692
50299700.0 -0.8267456631 0.0539331196 0.0001544846 0.0001735523 -0.0001040023 9.33983e-05 0.8513454058 -0.0850719045
55299670.0 -0.8291470697 0.0642787185 -7.46146e-05 0.0001833335 1.53522e-05 -8.09689e-05 0.8500510207 -0.0931107908
60299640.0 -0.8299228365 0.0746125993 7.37687e-05 -7.53709e-05 6.22114e-05 9.5978e-05 0.8492943253 -0.1016921097
65299610.0 -0.8313251433 0.0848691394 7.30628e-05 -0.0001031832 0.0001079033 -7.17295e-05 0.8486928287 -0.1102744658
70299580.0 -0.8310806551 0.0940716412 0.0001317772 0.0001724143 -0.0001791957 -4.72775e-05 0.8474531579 -0.1185022017
75299550.0 -0.8313162 0.1047254564 9.19956e-05 -8.55178e-05 5.93481e-05 9.6923e-06 0.8470457813 -0.1264396816
80299520.0 -0.8316874776 0.1142970582 7.15827e-05 -0.0002147123 -0.000109277 5.27651e-05 0.8448112075 -0.1347235695
85299490.0 -0.8306380289 0.1244297126 -3.74681e-05 -7.65584e-05 1.88845e-05 3.9825e-06 0.8439483553 -0.1428964547
90299460.0 -0.8294385064 0.1334091518 -3.1123e-05 0.0002738248 1.96137e-05 1.99516e-05 0.8423633213 -0.1512311597
95299430.0 -0.8284868733 0.1440885229 -5.26374e-05 0.0002622626 0.0001191236 0.0001631167 0.8406982323 -0.1593011915
100299400.0 -0.828003042 0.1529957861 -9.7625e-06 5.69528e-05 -1.94218e-05 6.47261e-05 0.8390382646 -0.1673956266
105299370.0 -0.8263301912 0.1623349788 5.05831e-05 0.000109058 0.0001161436 -1.32408e-05 0.8370919145 -0.1758442036
110299340.0 -0.8248663574 0.171517356 4.60741e-05 -8.25292e-05 -0.0002082836 -0.0001352612 0.8353471694 -0.1835083388
115299310.0 -0.8232388832 0.1804572787 0.0001113598 -2.94714e-05 2.10923e-05 -0.0001899906 0.8337728885 -0.1922166397
120299280.0 -0.8221737065 0.1892573915 8.4348e-06 6.06286e-05 -0.0001442225 7.356e-07 0.8317328595 -0.1996408275
125299250.0 -0.8200459406 0.1989796287 -0.000193341 -9.18422e-05 -0.0001744025 2.58001e-05 0.8295295476 -0.2086193457
130299220.0 -0.8186848829 0.2075409351 -9.26922e-05 -7.42698e-05 -6.8559e-06 -4.6597e-05 0.8273653067 -0.2166101769
135299190.0 -0.8164526074 0.2165450489 3.58242e-05 0.0001637168 1.41859e-05 -0.000100658 0.825563527 -0.2241755506
140299160.0 -0.8144112308 0.2256007229 0.000155838 0.0001264935 2.42864e-05 -0.0001007908 0.8227436819 -0.2322368634
145299130.0 -0.81224776 0.2346384344 0.000159445 -9.5803e-05 0.0001779311 4.34295e-05 0.8211031799 -0.2405875372
150299100.0 -0.8100412629 0.2432056361 -9.04964e-05 -2.03546e-05 -9.35854e-05 0.0001009463 0.8181959728 -0.2483855126
155299070.0 -0.8076297056 0.252382469 -0.0002605558 -1.137e-05 -8.7455e-05 1.7089e-06 0.8154561505 -0.2562909851
160299040.0 -0.8048299732 0.2607527764 -0.000219103 -5.42455e-05 -0.0002277038 5.664e-07 0.8132386677 -0.2644637833
165299010.0 -0.8017911967 0.2693232254 -3.5117e-06 -0.0002721009 -4.35727e-05 -0.0002640394 0.811191199 -0.2729022438
170298980.0 -0.7996152535 0.2781007869 6.08444e-05 -0.0001639105 0.0001925567 0.0001220527 0.807708295 -0.2800252136
175298950.0 -0.7964015903 0.2872185539 -0.0001138291 -1.68473e-05 -8.93111e-05 1.60455e-05 0.8048925159 -0.2884400024
180298920.0 -0.7935435819 0.2950581789 2.77988e-05 -2.58607e-05 -0.0001405635 -4.0035e-06 0.8023963409 -0.2959951127
185298890.0 -0.7903894452 0.3042743298 -1.17465e-05 5.80739e-05 -7.98277e-05 -4.58336e-05 0.7994053677 -0.3038472321
190298860.0 -0.7876617781 0.3116368714 3.52559e-05 7.30447e-05 2.85674e-05 -4.1606e-06 0.7965416111 -0.3115003352
195298830.0 -0.7838739946 0.3209404657 -1.76457e-05 -8.65512e-05 -4.451e-05 8.17888e-05 0.7932292495 -0.3192951595
200298800.0 -0.7810183112 0.329403583 -3.45132e-05 0.0002500949 -0.0001415856 0.0001654268 0.7900339401 -0.3276693809
205298770.0 -0.7769077326 0.3375288004 -0.0001540596 3.75749e-05 4.3405e-06 0.000109982 0.786517573 -0.3345403299
210298740.0 -0.7737369175 0.3458003795 2.58466e-05 -2.4591e-05 0.0001597553 0.0003044354 0.7840143908 -0.342526832
215298710.0 -0.7704735476 0.3544318305 2.52072e-05 -2.68158e-05 -0.0002133998 -2.81532e-05 0.7800954253 -0.3500933126
220298680.0 -0.7672969989 0.3626045248 6.72791e-05 -8.08856e-05 7.96788e-05 0.0001899603 0.7768796583 -0.3573697511
225298650.0 -0.7630810302 0.3706431263 -3.42958e-05 6.20956e-05 -0.0001557392 0.0002254284 0.7732290711 -0.3648143608
230298620.0 -0.7586695021 0.3787590301 -0.0001948205 -0.0001347095 1.8737e-05 -8.87055e-05 0.7694841823 -0.3731656187
235298590.0 -0.754610502 0.3870393485 0.0001854553 0.0001001583 -0.0001261972 -8.2492e-05 0.7663866369 -0.3794902713
240298560.0 -0.7509774392 0.3952201523 -0.0001963178 6.19527e-05 -2.1667e-05 2.3322e-05 0.7623246938 -0.3872666412
245298530.0 -0.7460002343 0.4027616076 -0.000263878 3.00194e-05 0.0001569265 4.81368e-05 0.7583465288 -0.3945656281
250298500.0 -0.7423025061 0.4107768044 -2.79808e-05 4.15151e-05 -0.0001565715 -4.2779e-06 0.7545269292 -0.4020513868
255298470.0 -0.7376163527 0.4189783912 -2.9903e-05 0.0001158503 -4.0306e-05 4.69192e-05 0.750978535 -0.4091674619
260298440.0 -0.7338370822 0.4258707024 4.98814e-05 0.0001223384 -7.67237e-05 7.97349e-05 0.7468852184 -0.4167173263
265298410.0 -0.7293609916 0.43410314 9.67159e-05 -6.44615e-05 -7.3448e-05 -4.04822e-05 0.74283063 -0.4238805921
270298380.0 -0.7243619408 0.4413933785 1.5757e-06 -9.94863e-05 1.91684e-05 0.0001267394 0.7392677785 -0.4305879241
275298350.0 -0.7195120732 0.4495100171 0.0001036868 -9.66055e-05 8.04546e-05 -5.3195e-06 0.7341952591 -0.4371703553
280298320.0 -0.7151340176 0.4567402575 3.23757e-05 0.0001183968 0.00013174 5.29731e-05 0.7308418036 -0.4448740345
285298290.0 -0.7102663475 0.4646727098 -3.3749e-05 8.16743e-05 0.0002793833 1.5151e-05 0.7265475119 -0.4515651503
290298260.0 -0.7054892019 0.471700067 -8.3734e-06 0.0001473912 1.05338e-05 0.0001649412 0.7224787317 -0.4589147068
295298230.0 -0.7006261108 0.4793512907 7.81738e-05 -3.7968e-05 -9.41076e-05 -4.9769e-06 0.718247549 -0.4657015429
300298200.0 -0.695067091 0.4863795011 -0.0001004392 4.91925e-05 -5.43229e-05 6.99794e-05 0.7139177143 -0.4732971706
305298170.0 -0.6903339501 0.4941223027 3.89401e-05 0.0002949053 -0.0001307695 -7.54623e-05 0.7102146544 -0.4790746011
310298140.0 -0.6844338939 0.5009553876 -0.0001204567 -7.38719e-05 -8.08627e-05 0.0001212428 0.7057351797 -0.4864251765
315298110.0 -0.6795506308 0.5077823748 -9.76236e-05 -0.0001548589 3.75954e-05 -0.0001753093 0.700855641 -0.494225033
320298080.0 -0.6745304908 0.5152787146 9.26825e-05 -0.0001079579 -4.21491e-05 4.77797e-05 0.6964680093 -0.5016400471
325298050.0 -0.6688185833 0.5219126061 7.50018e-05 -0.0001164988 5.6262e-05 -1.37439e-05 0.6910857213 -0.5097505087
330298020.0 -0.6630841275 0.5293845068 0.0001496275 7.71679e-05 -8.49387e-05 7.26412e-05 0.6857639047 -0.5169951067
335297990.0 -0.6571754686 0.5363335355 0.000129212 -7.88792e-05 6.44147e-05 6.8192e-06 0.6800333456 -0.5235833809
340297960.0 -0.6519399922 0.5426289474 -1.36501e-05 -6.78318e-05 -4.19398e-05 8.41687e-05 0.6742421546 -0.5296531341
345297930.0 -0.6466244412 0.5487200817 5.48407e-05 -6.83704e-05 0.0001459994 8.8571e-05 0.6686134968 -0.5357049199
350297900.0 -0.6404673019 0.5556399229 -0.0001366359 -4.76973e-05 4.80469e-05 -5.132e-07 0.6632257015 -0.5414262844
355297870.0 -0.6339407867 0.5624835523 0.0001634698 5.02408e-05 6.9039e-05 -9.90532e-05 0.6573529194 -0.5481082326
360297840.0 -0.628370106 0.5689007093 -0.0001638507 -8.82691e-05 -2.3577e-06 6.64044e-05 0.6523509006 -0.5538724412
365297810.0 -0.6222046576 0.5759150307 -0.0001073527 -0.0003042036 -6.39786e-05 4.16017e-05 0.6466472748 -0.5605434828
370297780.0 -0.6165315994 0.5816532106 0.0001070076 -0.0001337702 2.43283e-05 8.58248e-05 0.6412579539 -0.5658063231
375297750.0 -0.610227717 0.5881059089 -0.0001846115 0.0002381873 -0.0002928602 7.84902e-05 0.6357907798 -0.5719441075
380297720.0 -0.6040599469 0.5950564926 -1.15249e-05 0.000117412 -5.41752e-05 0.0001740522 0.6304880087 -0.5776053166
385297690.0 -0.5982431552 0.6008438138 -1.98557e-05 -0.0001347877 0.0001877983 -1.35501e-05 0.6240668258 -0.5832864728
390297660.0 -0.5913513755 0.6070537494 8.28913e-05 4.75126e-05 0.0002676969 -4.6716e-05 0.619180941 -0.5898999508
395297630.0 -0.5847011082 0.6128840625 -7.33542e-05 0.0003437352 0.0002336798 4.49892e-05 0.613081269 -0.5958206
400297600.0 -0.5785864889 0.6185736623 -8.40546e-05 -7.14641e-05 -9.33681e-05 3.85936e-05 0.6071105141 -0.60151169
405297570.0 -0.5729776757 0.6248448836 -0.000216792 2.14357e-05 -3.54314e-05 0.0001066401 0.6014029567 -0.6068309783
410297540.0 -0.5656867377 0.6303380094 -5.44761e-05 -9.50842e-05 -3.93368e-05 -3.6294e-06 0.5955612844 -0.6125593454
415297510.0 -0.5593043205 0.6360756353 -0.000156376 4.25905e-05 8.88249e-05 0.0002306001 0.5895768887 -0.6184712145
420297480.0 -0.5519358548 0.642227403 8.90309e-05 -4.5528e-06 0.0001235237 7.5378e-06 0.5832119776 -0.6244853065
425297450.0 -0.5458586216 0.6476967967 -5.53484e-05 2.10355e-05 8.8321e-06 -7.15546e-05 0.5772585886 -0.6294751926
430297420.0 -0.539392023 0.6536066041 3.42829e-05 -0.0001362403 -0.0001483966 0.0001203651 0.5713478164 -0.6350721887
435297390.0 -0.5323734568 0.6588514846 3.59934e-05 2.66556e-05 6.46209e-05 2.54771e-05 0.5647937032 -0.6402326347
440297360.0 -0.5257062105 0.6645367811 -0.0002542458 1.80221e-05 5.33698e-05 2.92736e-05 0.5581572482 -0.6459413755
445297330.0 -0.5183574794 0.6703689685 5.99069e-05 8.98063e-05 -5.77854e-05 1.97236e-05 0.5522284446 -0.6517667701
450297300.0 -0.5110445726 0.6743635471 -2.99396e-05 4.75869e-05 -8.84505e-05 0.0002107243 0.5451258175 -0.6563661092
455297270.0 -0.504609848 0.6799546163 0.0002558645 -9.0146e-06 -0.0002777482 -4.57593e-05 0.5386736272 -0.6620252337
460297240.0 -0.4976633245 0.6854102954 -0.0003644157 -7.59271e-05 -0.0001137579 -0.0002051188 0.5332874445 -0.6666955999
465297210.0 -0.4900045955 0.6906218947 0.0001581781 -0.0002765653 0.0002811826 -0.0002044414 0.5256739419 -0.6720644801
470297180.0 -0.4825845173 0.6948273007 3.13651e-05 -0.0001163505 1.02015e-05 9.84531e-05 0.5188995621 -0.6771704463
475297150.0 -0.4758176333 0.6998760229 -4.04771e-05 9.48424e-05 -4.10551e-05 0.0001422802 0.5127075119 -0.6821757658
480297120.0 -0.4690934637 0.704267734 -0.0001350733 9.11273e-05 -0.0001581213 5.2316e-06 0.5053385556 -0.6866804926
485297090.0 -0.4609443127 0.7093146074 -3.06963e-05 -3.61067e-05 -2.42293e-05 -0.0002099439 0.4992482377 -0.6916625496
490297060.0 -0.4543571546 0.7136748035 8.46715e-05 -0.0001279853 -1.6865e-06 -7.04405e-05 0.4924459083 -0.6963472409
495297030.0 -0.4470203241 0.7185605608 -0.0001927984 0.0001111135 -0.0001117138 -0.0001403837 0.4859530533 -0.7012719746
500297000.0 -0.4383893765 0.7233254717 -0.0001646206 1.02942e-05 5.85672e-05 -5.97832e-05 0.4776515574 -0.7056433209
505296970.0 -0.4317245387 0.7271871457 6.86275e-05 -0.0001321678 -8.07469e-05 4.92893e-05 0.4708460762 -0.7106633771
510296940.0 -0.4243769708 0.7321900464 2.30494e-05 -7.9525e-05 -6.00095e-05 0.0002218449 0.4636428866 -0.7147183492
515296910.0 -0.4169172771 0.7365608764 -9.31489e-05 -0.0001064973 -9.24497e-05 6.85905e-05 0.455953361 -0.7191875222
520296880.0 -0.4091888291 0.7407962629 -2.2364e-06 9.50403e-05 4.31204e-05 -0.0001678183 0.449800729 -0.7240929833
525296850.0 -0.4019914086 0.7441662309 0.0001762379 -8.96873e-05 -0.000243358 -0.0001260864 0.4422638416 -0.7280269251
530296820.0 -0.3946045274 0.748287206 0.0001315703 8.33672e-05 -0.0001677199 0.0002417065 0.4348792998 -0.7323395689
535296790.0 -0.3856574938 0.7526349788 3.5776e-06 -3.92339e-05 -5.2759e-06 1.97233e-05 0.4278981359 -0.7374001298
540296760.0 -0.3783093711 0.7560714966 2.37094e-05 9.79144e-05 -6.05843e-05 8.39841e-05 0.4200049591 -0.740870629
545296730.0 -0.3713045582 0.7595753358 0.0001404497 -9.25123e-05 0.0002070791 -0.0001295507 0.4133438503 -0.7446984635
550296700.0 -0.3636735493 0.7635473509 -2.67837e-05 -1.7001e-05 3.66007e-05 0.0002055052 0.4055518969 -0.7492148053
555296670.0 -0.3545746874 0.7670229418 -7.08798e-05 3.33018e-05 2.66064e-05 -5.75683e-05 0.3975823217 -0.7527505583
560296640.0 -0.3468154102 0.7702647084 -6.91219e-05 0.0001244295 0.000141598 0.0001242383 0.3904661917 -0.7569290273
565296610.0 -0.3397239579 0.7740214564 0.0001197339 -0.0001477475 1.20888e-05 0.000117554 0.3829400824 -0.7603283183
570296580.0 -0.3316113146 0.7772020106 -0.0001327511 0.0002512247 0.000254556 8.72803e-05 0.3744514162 -0.7641209463
575296550.0 -0.3238828031 0.7810072889 -2.24818e-05 -5.55081e-05 -9.8651e-06 1.34728e-05 0.3671767779 -0.7676718088
580296520.0 -0.3155463665 0.7841108905 0.000131612 2.4501e-05 8.5845e-05 2.85182e-05 0.3595158016 -0.7706903036
585296490.0 -0.3078146717 0.7864485072 5.6322e-05 -5.37985e-05 -9.10635e-05 3.56423e-05 0.3516381998 -0.7751575157
590296460.0 -0.3001403543 0.7897104689 -0.0001741899 -1.6321e-05 -4.94165e-05 6.33041e-05 0.3441150488 -0.7776402661
595296430.0 -0.2918581122 0.7930175207 3.47374e-05 0.0003180579 5.22375e-05 -0.0001705625 0.3356984639 -0.7807828059
600296400.0 -0.2839476982 0.7954195937 0.0001580224 -0.000132442 2.41863e-05 -6.5578e-06 0.3285564702 -0.7839868639
605296370.0 -0.2752128983 0.7988473425 2.57374e-05 -0.000255516 2.03485e-05 5.03873e-05 0.3203989767 -0.7874605053
610296340.0 -0.2677026271 0.8014171487 -1.0313e-05 -0.0001669778 -5.64435e-05 6.28529e-05 0.3125556018 -0.7898515164
615296310.0 -0.2594070352 0.804342138 5.55396e-05 -2.58774e-05 -6.96218e-05 2.74718e-05 0.3045886299 -0.7939710882
620296280.0 -0.2510573641 0.8057681619 -0.0001831946 -1.86851e-05 -5.27247e-05 4.17634e-05 0.2971768797 -0.7964579295
625296250.0 -0.2421266893 0.8088372185 6.32416e-05 -5.34159e-05 -0.0001237546 -2.61301e-05 0.2887216116 -0.7984906311
630296220.0 -0.2344091935 0.811308077 -6.18553e-05 0.0001471744 -8.06902e-05 8.39117e-05 0.2808549143 -0.8014456704
635296190.0 -0.2262340693 0.814032129 -2.31568e-05 0.0003082218 -0.0001567612 -2.32388e-05 0.2726138215 -0.8040223255
640296160.0 -0.2177279759 0.8154325957 0.000103561 0.000110148 7.00797e-05 -0.0001335792 0.2645531812 -0.806680708
645296130.0 -0.209961677 0.8179804188 -0.0001705113 -0.0001923563 0.0001246824 -5.15504e-05 0.2568021368 -0.8094281959
650296100.0 -0.2017016931 0.8206096615 5.51935e-05 0.000181314 0.0001598292 -0.0001095882 0.2482044584 -0.8113589423
655296070.0 -0.1931420429 0.8220188129 -3.2305e-05 -9.47127e-05 3.90482e-05 -5.60068e-05 0.2399904547 -0.8137874622
660296040.0 -0.18521216 0.82382708 0.0001312049 -0.0001332064 8.58328e-05 -7.30682e-05 0.232068937 -0.8161822918
665296010.0 -0.177204513 0.82581462 3.37051e-05 -1.09766e-05 8.93973e-05 -0.0001054713 0.2241856132 -0.8179852646
670295980.0 -0.1676560633 0.8272175199 -4.73725e-05 -5.71895e-05 -0.0001793407 0.0001196339 0.2159960439 -0.8201019109
675295950.0 -0.1599843199 0.8286640423 0.0001942772 2.5156e-05 -1.94578e-05 0.0001042769 0.2082135598 -0.8220252621
680295920.0 -0.1518006233 0.8303732641 -7.2518e-05 1.18196e-05 -0.0002042083 -7.73857e-05 0.1993043892 -0.8247355185
685295890.0 -0.1428897922 0.83204272 -7.08951e-05 -8.75522e-05 -5.53756e-05 -0.0001054811 0.1915318566 -0.8256710829
690295860.0 -0.1344481256 0.8334512085 -8.43993e-05 4.26604e-05 -2.00156e-05 2.5607e-05 0.1835846966 -0.8274206531
695295830.0 -0.1269941471 0.8341864439 -2.83933e-05 6.29039e-05 -4.11742e-05 8.40114e-05 0.1743353401 -0.8291597516
700295800.0 -0.117807546 0.8356100631 5.88319e-05 -1.30416e-05 7.32636e-05 -0.0001487199 0.1657412296 -0.830875595
705295770.0 -0.1089267064 0.8372924876 -0.0002952495 3.4307e-06 -0.0001312266 -2.02419e-05 0.1574388717 -0.8316841663
710295740.0 -0.101212839 0.8381396151 5.2895e-05 0.0002259503 -0.0001231512 0.0002199268 0.1495300994 -0.8329194534
715295710.0 -0.0934397158 0.8390625646 1.79181e-05 -3.0642e-06 -0.0001955646 -9.7477e-05 0.1415069195 -0.8347367088
720295680.0 -0.0846858888 0.8401538661 4.01052e-05 0.0002193904 -0.0001835956 -2.6965e-05 0.1330695445 -0.8361456154
725295650.0 -0.075090183 0.8405978678 -0.000286161 4.2388e-05 0.0002200032 2.81968e-05 0.124825532 -0.8364648343
730295620.0 -0.0675360112 0.8417314015 -0.0002091265 0.0001229239 -1.9037e-06 -6.52795e-05 0.1160406335 -0.8382727916
735295590.0 -0.0584084668 0.8413240918 0.0001100501 -3.13271e-05 -0.0001654953 3.75606e-05 0.1082242512 -0.8388670152
740295560.0 -0.0502579476 0.8426568121 0.0001226065 7.60966e-05 -0.0001411193 5.76127e-05 0.099544477 -0.8402452228
745295530.0 -0.0421290056 0.8422287381 -0.0001576604 0.0002575757 7.29207e-05 -0.0002460542 0.0909058829 -0.8409253759
750295500.0 -0.0337342681 0.8429051434 -2.40765e-05 -4.56779e-05 -6.77545e-05 0.0001585755 0.0831049275 -0.8421856286
755295470.0 -0.0248836195 0.8433875324 0.00016429 -8.83141e-05 -0.0001308726 0.0002676897 0.0740437107 -0.8416033764
760295440.0 -0.016069955 0.843389991 7.53727e-05 0.0003279138 7.19008e-05 6.0291e-06 0.0657085661 -0.8429465089
765295410.0 -0.0083287333 0.8435035147 9.46526e-05 -0.000163564 0.000164839 -9.29603e-05 0.0582716621 -0.8425394519
770295380.0 0.0003783878 0.8440919755 -1.45357e-05 -1.02383e-05 0.0001675005 -6.5763e-06 0.0494959328 -0.8435970109
775295350.0 0.0090818531 0.8437706645 0.0001563591 0.0001395272 8.80418e-05 -0.0001002879 0.0408665682 -0.8446740436
780295320.0 0.0175930487 0.8429323724 -0.0001384663 0.0001676679 -1.7938e-05 -0.0001855786 0.0322096844 -0.8430756377
785295290.0 0.0261974443 0.8437870274 -7.12564e-05 -7.37493e-05 0.0001290506 0.0001726992 0.023756962 -0.8436554553
790295260.0 0.0341738764 0.8430148197 -3.91571e-05 4.17287e-05 5.2139e-05 0.0001741251 0.0159900061 -0.8438369194
795295230.0 0.0430841689 0.8430021993 6.98774e-05 -6.62282e-05 -9.87923e-05 6.21111e-05 0.0070517442 -0.8438140065
800295200.0 0.0511952138 0.8425553553 5.98891e-05 -7.25937e-05 -8.19486e-05 -5.27479e-05 -0.0015894976 -0.8444211605
805295170.0 0.0594631405 0.8422453643 0.0002869097 1.30731e-05 -0.0001627986 -0.0001058893 -0.010360859 -0.8440903865
810295140.0 0.0680126822 0.8410263392 -0.0001360908 -4.60637e-05 1.80882e-05 -0.0001373228 -0.0182521341 -0.8429546609
815295110.0 0.0769138207 0.8403418439 6.98623e-05 -6.46821e-05 9.38612e-05 -0.0001727906 -0.0268227475 -0.843201173
820295080.0 0.0851260695 0.8388172973 7.82969e-05 3.8904e-06 -0.000151611 0.0001028979 -0.0356470641 -0.8425269366
825295050.0 0.094143167 0.8385189231 2.5188e-05 -3.21277e-05 2.58598e-05 -0.0001048904 -0.0436610796 -0.8421356938
830295020.0 0.1021093536 0.8378420427 -2.88281e-05 -2.907e-06 -5.80441e-05 -0.0001014318 -0.052219955 -0.8416303612
835294990.0 0.1101624662 0.8367967174 -0.0002012719 3.71842e-05 2.48409e-05 -8.41752e-05 -0.0604958047 -0.8409568367
840294960.0 0.1188251567 0.8354009812 -7.17736e-05 0.0002921271 2.48337e-05 -0.0002571503 -0.0694281895 -0.8391909941
845294930.0 0.1268870299 0.8343408706 -9.96899e-05 4.95418e-05 -9.67668e-05 -3.86117e-05 -0.0770014357 -0.8389590937
850294900.0 0.1349656852 0.83291739 -0.0001543673 3.67316e-05 -5.48555e-05 0.000141453 -0.0858471916 -0.8375781405
