!Created with skrf (http://scikit-rf.org).
# Hz S RI R 50.0 
!freq ReS11 ImS11 ReS21 ImS21 ReS12 ImS12 ReS22 ImS22
300000.0 -0.2343121218 -0.1258364188 0.4660439624 0.0820544284 0.4655180261 0.0824156445 -0.2358871789 -0.1292981959
5299970.0 -0.2448824708 0.0052408926 0.4733648288 0.0060549822 0.4742575299 0.0057687439 -0.243984644 0.0048503779
10299940.0 -0.241819656 0.0184080748 0.4762180032 0.0066977667 0.4759297806 0.0073765851 -0.2399812365 0.0180346009
15299910.0 -0.2367538025 0.0282498957 0.479368507 0.0087175112 0.4798094948 0.0083678525 -0.2361480385 0.0272511459
20299880.0 -0.2316574777 0.0362306529 0.4838461865 0.0083689791 0.4844212641 0.0088334007 -0.2310165431 0.0351761616
25299850.0 -0.2256677213 0.0429201771 0.4894180624 0.0079308176 0.4898988554 0.0073674276 -0.2258534497 0.0418129232
30299820.0 -0.220378559 0.0476714376 0.4951831292 0.0050676732 0.4951040126 0.0052389312 -0.2204750918 0.0469995334
35299790.0 -0.2143305245 0.0517599975 0.5002000514 0.002359971 0.5007912898 0.0022333254 -0.2158585213 0.0513837407
40299760.0 -0.2091030185 0.0546877557 0.5054289188 -0.0013176318 0.5057266632 -0.0017079641 -0.2105599327 0.0548552449
45299730.0 -0.2041686054 0.0572152415 0.5103205651 -0.0060444288 0.5106425944 -0.0061176094 -0.2055786494 0.0577437796
50299700.0 -0.1990895087 0.0590735546 0.5147357221 -0.0118381375 0.5148960305 -0.0118808711 -0.2012715878 0.0599919954
55299670.0 -0.194848406 0.060519046 0.5181098561 -0.017585756 0.5183892246 -0.0179384238 -0.1973921044 0.0619312352
60299640.0 -0.1909237646 0.0616696044 0.5218354382 -0.0238423533 0.521414396 -0.0240930006 -0.193576611 0.0635200194
65299610.0 -0.1872681622 0.062925388 0.5249046865 -0.0303695964 0.5250066337 -0.0306403269 -0.1899705054 0.0647407256
70299580.0 -0.1837941027 0.0631182618 0.5267142961 -0.0370261447 0.5273709384 -0.0369572478 -0.1869293388 0.0658818817
75299550.0 -0.1808503288 0.0637230674 0.5288660879 -0.0439558003 0.5294546006 -0.0439476325 -0.1840574236 0.0668976913
80299520.0 -0.1782524389 0.0646748093 0.5311304877 -0.0509095759 0.531252041 -0.0509756036 -0.1812526713 0.06820051
85299490.0 -0.1756287119 0.0647048611 0.5323821335 -0.0576797064 0.5327318068 -0.0574998962 -0.1792941271 0.068757633
90299460.0 -0.1735734842 0.0655850329 0.5332137089 -0.0645396407 0.5330432615 -0.0645540969 -0.1771088992 0.0697229433
95299430.0 -0.1714182956 0.0656148909 0.5340606703 -0.0715858934 0.5344173673 -0.0716005641 -0.174903331 0.0708656723
100299400.0 -0.1694222153 0.0660516079 0.5345439566 -0.0781534125 0.5346659145 -0.0786480531 -0.1729230961 0.0721049417
105299370.0 -0.1677038421 0.0664430227 0.5347508521 -0.0853348444 0.5354803855 -0.0853760649 -0.1710516081 0.0723329375
110299340.0 -0.1659601295 0.0669163008 0.535287565 -0.091479771 0.5354377249 -0.0920295849 -0.1698093451 0.0728836435
115299310.0 -0.1644962728 0.0675986799 0.5348911821 -0.0985704289 0.5350378167 -0.099105944 -0.1682388207 0.0743607661
120299280.0 -0.1633595391 0.0682294204 0.5351361173 -0.1059918344 0.5347533549 -0.1060069858 -0.1664692956 0.0749318792
125299250.0 -0.1620440586 0.0686534823 0.5347463682 -0.1125549513 0.5345379286 -0.1121911631 -0.165282376 0.0757807137
130299220.0 -0.160472087 0.0689119166 0.5339420085 -0.1191473631 0.5339003699 -0.1198632001 -0.1640588354 0.0769887634
135299190.0 -0.1597623845 0.0702349232 0.5335383743 -0.1258257951 0.5336169054 -0.1263646898 -0.1629400406 0.0777231692
140299160.0 -0.1585953719 0.0705204922 0.5329446621 -0.1324741012 0.5328418078 -0.1319348122 -0.1623602905 0.0788510606
145299130.0 -0.157710542 0.0718936714 0.5316188319 -0.1392977268 0.5316206337 -0.1391411843 -0.1607556589 0.0800926686
150299100.0 -0.1566414923 0.0723331263 0.5305712867 -0.1457532948 0.5307114263 -0.1459468293 -0.1598079642 0.0815215933
155299070.0 -0.1555176536 0.0734080603 0.529166986 -0.1524201747 0.5296704934 -0.152387645 -0.1586447295 0.0823261974
160299040.0 -0.1548811087 0.074335645 0.5281365615 -0.1583856354 0.5281064079 -0.1590034422 -0.1579322331 0.0839257538
165299010.0 -0.1536298507 0.0751012241 0.5262516092 -0.1648707113 0.5262791024 -0.1655034497 -0.1566412842 0.0846468387
170298980.0 -0.1530097321 0.0763197311 0.5247747866 -0.171363884 0.5250817853 -0.1716411928 -0.1559331817 0.0857872297
175298950.0 -0.1520130465 0.0774299832 0.523779299 -0.1777766027 0.5235366352 -0.1781204862 -0.1549770769 0.0875612865
180298920.0 -0.1516143222 0.0783644276 0.5219495783 -0.1841063866 0.5217571403 -0.1844628379 -0.1539908957 0.0886672749
185298890.0 -0.1509137352 0.0793784411 0.5201911689 -0.1901592008 0.5202054676 -0.1902291386 -0.1529223428 0.0895837837
190298860.0 -0.1498034882 0.080907268 0.5175361649 -0.1963807047 0.5180395578 -0.1961783057 -0.1521108782 0.0908830893
195298830.0 -0.1489784329 0.0818021407 0.5160971979 -0.2025217828 0.5164182665 -0.202691357 -0.1514402185 0.0925258649
200298800.0 -0.1481761234 0.0826735232 0.5140439886 -0.2091360308 0.5139167453 -0.2088763934 -0.1500458107 0.0936064457
205298770.0 -0.1477178499 0.0838168549 0.5112430977 -0.2147892126 0.512033877 -0.2146989558 -0.14899554 0.0951527892
210298740.0 -0.1469776506 0.0854024524 0.5096272426 -0.2206714444 0.5093050418 -0.2207764523 -0.148309118 0.0964671977
215298710.0 -0.1462362814 0.0865996233 0.506724141 -0.2263775046 0.5070364314 -0.2271613588 -0.1471510185 0.0979090792
220298680.0 -0.1452021783 0.0878823878 0.5044934112 -0.2323766267 0.5043580432 -0.2327220015 -0.1462569553 0.0992017749
225298650.0 -0.1447086546 0.0890660715 0.5018878545 -0.2382983707 0.5023405326 -0.2381903834 -0.1452870251 0.1005134818
230298620.0 -0.1436573692 0.0907933111 0.4996894221 -0.2441694748 0.4999022252 -0.2444646104 -0.1446514833 0.1018537433
235298590.0 -0.1435370412 0.0918329824 0.4974633955 -0.2503608156 0.497419851 -0.2500501251 -0.1435659444 0.1033693783
240298560.0 -0.1421156454 0.093266829 0.4940706846 -0.2555466764 0.4946633012 -0.2558184624 -0.1427363482 0.1048173567
245298530.0 -0.1417049689 0.0942980559 0.4913484055 -0.2616476573 0.4915122722 -0.2616551333 -0.1412409119 0.1064013776
250298500.0 -0.1408918277 0.095462604 0.489028458 -0.2669419329 0.4889043361 -0.2672638068 -0.140424256 0.1079041393
255298470.0 -0.1397233816 0.0970340555 0.4859030767 -0.2721907722 0.4864668108 -0.2728126691 -0.1392848505 0.109552564
260298440.0 -0.1391617945 0.0981718035 0.483205569 -0.2779438008 0.4830553653 -0.2781870382 -0.1381999458 0.1106785319
265298410.0 -0.138611574 0.0998092539 0.4800622586 -0.2840171998 0.4801151522 -0.2838945559 -0.1366443595 0.1117230306
270298380.0 -0.1377703872 0.1007647159 0.4765014947 -0.2887899826 0.4771168158 -0.289002128 -0.1359477939 0.1134415801
275298350.0 -0.1365791301 0.1023541424 0.473266535 -0.2943851613 0.4735739656 -0.2946979265 -0.134705027 0.1150981617
280298320.0 -0.1361277856 0.1036616228 0.470648931 -0.299632646 0.4710317848 -0.3000478864 -0.133467532 0.1166516786
285298290.0 -0.1350126674 0.105196856 0.4667753719 -0.3053310279 0.4676113917 -0.3048649831 -0.1325890213 0.1179498452
290298260.0 -0.1343380401 0.1064625779 0.4643353829 -0.310643007 0.4641859655 -0.31055647 -0.1312334904 0.1191820249
295298230.0 -0.1335104226 0.1076264295 0.4609903958 -0.3160047206 0.4611629523 -0.3159549588 -0.130041754 0.1208802341
300298200.0 -0.1324288856 0.1094292992 0.4576512266 -0.3211879258 0.4577624433 -0.3210684479 -0.1285836862 0.1221640185
305298170.0 -0.1314701504 0.1101489592 0.4540483613 -0.3262218463 0.4540591015 -0.3263507006 -0.1273381908 0.1232417682
310298140.0 -0.1302584243 0.1112757577 0.4504619781 -0.3315874939 0.4510595962 -0.3313576744 -0.1258583344 0.1245516934
315298110.0 -0.1295556442 0.1123621171 0.4468691954 -0.3370266493 0.4468583895 -0.3372868763 -0.1244259456 0.1260128871
320298080.0 -0.1285854079 0.1139085284 0.4421322921 -0.3418701244 0.4436719166 -0.3421995738 -0.12365178 0.1272387107
325298050.0 -0.1280321488 0.114324455 0.4388553438 -0.346409835 0.439888103 -0.3468410888 -0.122225118 0.1286699344
330298020.0 -0.127450866 0.116125972 0.4354837446 -0.3517626707 0.4356881572 -0.3520006187 -0.1213437406 0.1296775119
335297990.0 -0.1265087883 0.1174442792 0.4310778562 -0.3566951195 0.431325399 -0.3569557817 -0.1199270174 0.131411026
340297960.0 -0.1257612542 0.118632059 0.4267850934 -0.3615469473 0.4273461159 -0.3616869214 -0.1185762896 0.1330176053
345297930.0 -0.1249212095 0.1201437482 0.422624064 -0.3669122645 0.423299346 -0.3666818395 -0.1174112033 0.1342010618
350297900.0 -0.1241322165 0.1211759338 0.4193406386 -0.3703371004 0.4192754008 -0.3704801141 -0.1160797322 0.1352236395
355297870.0 -0.1231318385 0.1224368933 0.4148660194 -0.3751623542 0.4147900278 -0.3751204703 -0.1143484907 0.1366706919
360297840.0 -0.1220443539 0.1241714834 0.4107433566 -0.3801410111 0.4106383684 -0.3802529745 -0.1133860631 0.1381305749
365297810.0 -0.1212949883 0.1252775601 0.4065408217 -0.3844300297 0.4065844713 -0.3845727164 -0.1123176203 0.1394517648
370297780.0 -0.1199488526 0.1264363877 0.4014000655 -0.3886098601 0.4023221174 -0.3892862594 -0.1103578665 0.1414260293
375297750.0 -0.119162749 0.1279087568 0.3977159049 -0.3931369472 0.3979882471 -0.3930151047 -0.108783554 0.142264954
380297720.0 -0.1182045763 0.1292587866 0.3940401044 -0.3978794138 0.3935156302 -0.3978639588 -0.1072406258 0.1439165454
385297690.0 -0.1167630544 0.1301729232 0.3887633025 -0.4022024008 0.3895505927 -0.402625303 -0.1061099998 0.1452244014
390297660.0 -0.1154868993 0.1314474516 0.3846049181 -0.4056949231 0.3850445401 -0.4064055291 -0.1039164411 0.1463280746
395297630.0 -0.114316473 0.1327311442 0.380441544 -0.4101910562 0.3802109149 -0.4101566922 -0.1027189761 0.1474734852
400297600.0 -0.1134955553 0.1340203054 0.3759642128 -0.4148433718 0.3761425632 -0.4146250934 -0.1013326491 0.1490350751
405297570.0 -0.1123274267 0.1347325222 0.3714315627 -0.4182260813 0.3715820402 -0.4186927597 -0.0994500237 0.1505049583
410297540.0 -0.1111023968 0.1362539253 0.3670210294 -0.422712078 0.3670337503 -0.4225892083 -0.0980059759 0.1517361617
415297510.0 -0.1099446509 0.1375492202 0.361639304 -0.4266067712 0.3627913167 -0.4270239068 -0.0963305269 0.1528441874
420297480.0 -0.1087141301 0.1383481608 0.3569871445 -0.4305773893 0.3572607069 -0.4305124337 -0.0940353855 0.1544726169
425297450.0 -0.1069538134 0.1394465299 0.3529047533 -0.4340230445 0.3526839811 -0.434563802 -0.0928850726 0.155110561
430297420.0 -0.1062126364 0.1407083438 0.3484562452 -0.4383498315 0.3483932155 -0.4382182259 -0.090739543 0.1561964158
435297390.0 -0.1046718407 0.1415436489 0.342669072 -0.4424070303 0.3431710205 -0.4422243772 -0.0896947136 0.1578309431
440297360.0 -0.103462057 0.1428226552 0.3379637139 -0.4457148382 0.3378871894 -0.4458986131 -0.0876326459 0.158867297
445297330.0 -0.1020263076 0.1436039134 0.3334214331 -0.4493483652 0.3332271871 -0.4499199405 -0.0856638502 0.1599858764
450297300.0 -0.100604997 0.1450410174 0.3283711179 -0.4533858873 0.3288795359 -0.4531047389 -0.08409571 0.1609550444
455297270.0 -0.0997091412 0.145915324 0.3235777547 -0.4568427435 0.3240392929 -0.456886265 -0.0821945947 0.162169318
460297240.0 -0.0977865245 0.1469094218 0.3185100388 -0.4607651386 0.3183621506 -0.4604377512 -0.0806984931 0.1629396377
465297210.0 -0.0964059064 0.147830577 0.31304771 -0.463704849 0.3130269045 -0.4640335295 -0.078624412 0.1647659264
470297180.0 -0.0950526999 0.1485913766 0.3082921236 -0.4664111546 0.3088589338 -0.4668010353 -0.0768388792 0.1650420855
475297150.0 -0.0939883744 0.150390443 0.3029822765 -0.470209206 0.3034881073 -0.4705217667 -0.0747475698 0.1665173426
480297120.0 -0.0918899812 0.1513382243 0.2975998852 -0.4738111084 0.2981148053 -0.4735854327 -0.0731350346 0.1674152235
485297090.0 -0.0904836478 0.1518859834 0.2927600582 -0.4768380096 0.2927861477 -0.4767294382 -0.0714425273 0.1682024508
490297060.0 -0.0887985615 0.1530899487 0.2870452069 -0.4803249663 0.2877321305 -0.4801734783 -0.0695645503 0.1689196709
495297030.0 -0.0876666128 0.1538484676 0.2825678135 -0.4829545126 0.2826281843 -0.4832626621 -0.0674453553 0.1696719108
500297000.0 -0.0862775853 0.1549556491 0.2775219666 -0.4859963961 0.2770286914 -0.486496782 -0.0655583431 0.1712021629
505296970.0 -0.0841906772 0.1557352849 0.2721031049 -0.4892091242 0.2717611789 -0.4888958051 -0.0636036971 0.1714734646
510296940.0 -0.0828589316 0.1568315467 0.2664966595 -0.4926717463 0.2663687267 -0.4925123871 -0.0612313086 0.172825599
515296910.0 -0.0810151647 0.1578870738 0.2606559283 -0.4949972563 0.2605714077 -0.4950103566 -0.0598590647 0.1731262116
520296880.0 -0.0795121798 0.158730027 0.2554900454 -0.4976364642 0.255209349 -0.497696596 -0.0573697111 0.1743976068
525296850.0 -0.0779481905 0.1593440017 0.2500903801 -0.5003529671 0.2497036438 -0.5004136347 -0.0555452881 0.1748793077
530296820.0 -0.0766230039 0.1603781453 0.2442467099 -0.5033019649 0.244782518 -0.5031050335 -0.0537802983 0.1752966526
535296790.0 -0.0742796053 0.1611425833 0.2391540481 -0.5054230016 0.2391305312 -0.5061337893 -0.0515288261 0.1764453494
540296760.0 -0.072890051 0.1624809067 0.23291614 -0.5085080693 0.23347522 -0.5081161375 -0.0497367871 0.1767422297
545296730.0 -0.0718951433 0.1634900488 0.2283764813 -0.5107081386 0.2276491908 -0.5104850404 -0.0474724988 0.1777281015
550296700.0 -0.0695560562 0.164099457 0.2221152417 -0.5134858513 0.2219847285 -0.5137655748 -0.0455007728 0.1784268752
555296670.0 -0.068129702 0.1650118964 0.2169801808 -0.5157469804 0.2166382076 -0.5152144012 -0.0435386975 0.1784593828
560296640.0 -0.0658439789 0.1655553508 0.2107806851 -0.5177732362 0.2111742347 -0.5177811688 -0.0417707302 0.1796005638
565296610.0 -0.0648157988 0.1663740066 0.205882441 -0.520059274 0.2059311376 -0.5197331412 -0.0394264242 0.1801823592
570296580.0 -0.0628531503 0.1671743916 0.1997441123 -0.5220937906 0.2000176106 -0.5222302952 -0.0378572966 0.1803921033
575296550.0 -0.0611049248 0.1678982629 0.1946293585 -0.5246700611 0.1941903108 -0.5243034567 -0.0354458926 0.1811146499
580296520.0 -0.0594655021 0.1689602717 0.1884702327 -0.5263890875 0.1883467568 -0.5267573006 -0.033830161 0.1816562412
585296490.0 -0.0575955039 0.1696570529 0.1830295249 -0.5281939979 0.1824598732 -0.5284424725 -0.0310708391 0.1824696649
590296460.0 -0.0553630946 0.1705938185 0.1767246899 -0.5301782791 0.1771602109 -0.5307238954 -0.0298522208 0.1828337861
595296430.0 -0.0539946618 0.171212642 0.1703981328 -0.5322885999 0.1708520743 -0.5323208026 -0.027386849 0.1831916367
600296400.0 -0.0521375814 0.1719416533 0.1652274542 -0.533908853 0.1651228094 -0.5339413392 -0.0254116553 0.1833929919
605296370.0 -0.050537275 0.1726936134 0.1598481246 -0.5354845989 0.159398072 -0.5356963002 -0.023539467 0.1840284929
610296340.0 -0.0483545776 0.1736605023 0.1536458986 -0.536635282 0.1541176853 -0.5370311012 -0.0218070757 0.1843218372
615296310.0 -0.0469116077 0.174146703 0.1478834523 -0.5390078426 0.1473315458 -0.5391152749 -0.0187658198 0.1849032446
620296280.0 -0.0453397008 0.1753665594 0.1417060614 -0.5405999938 0.1416862996 -0.54025117 -0.0172714614 0.1853564096
625296250.0 -0.0435426346 0.1756179018 0.136054785 -0.5420304754 0.1361023334 -0.5418353482 -0.0153406849 0.1851601879
630296220.0 -0.0416821954 0.176350693 0.1298805647 -0.5431196296 0.1296348309 -0.5430963382 -0.0131495726 0.1856875389
635296190.0 -0.0399959738 0.1770058681 0.1243445561 -0.5446301794 0.1243124094 -0.5447047476 -0.0111380624 0.185974126
640296160.0 -0.0384628438 0.177602824 0.1183282187 -0.5458321396 0.1183642408 -0.5460842898 -0.0092566078 0.1859930357
645296130.0 -0.0362545533 0.1788826399 0.1124358843 -0.547184615 0.1124069572 -0.5471045627 -0.0072430759 0.1860854815
650296100.0 -0.0345992328 0.1790063853 0.1066909086 -0.5488602932 0.1061270483 -0.5485412308 -0.0043216291 0.1866556939
655296070.0 -0.0331380009 0.1796733381 0.1005883506 -0.5495468185 0.1003877103 -0.5493283208 -0.0029635284 0.1870496161
660296040.0 -0.0311180454 0.1802725848 0.0944823011 -0.5507568082 0.0949249992 -0.5507042461 -0.0008991339 0.1867244923
665296010.0 -0.0293035046 0.1805781353 0.0886404454 -0.5510637704 0.0884017166 -0.5511000016 0.0015171425 0.1871735992
670295980.0 -0.0273334419 0.1812798098 0.082563559 -0.5523453519 0.082526715 -0.5521335438 0.0031647789 0.1871365228
675295950.0 -0.0257075613 0.1821026507 0.0766648474 -0.5528878644 0.0767995196 -0.5529859939 0.0054693792 0.1875430437
680295920.0 -0.0245138295 0.1827086391 0.0709128401 -0.5538290715 0.0709873999 -0.5538368782 0.0075344153 0.1871278616
685295890.0 -0.0220665551 0.1829483607 0.0641457417 -0.5543663334 0.0647750473 -0.554864443 0.0096602026 0.1879553736
690295860.0 -0.0205862215 0.1838521605 0.0587149636 -0.5551882801 0.058376971 -0.555390183 0.0116468932 0.187601081
695295830.0 -0.0188736219 0.1837183636 0.053316771 -0.5557293722 0.0525269183 -0.5559099426 0.0137373198 0.1878047221
700295800.0 -0.0166969959 0.1842590768 0.0468945636 -0.5557929476 0.047018661 -0.5564386099 0.015777637 0.187570278
705295770.0 -0.0156563508 0.1851194147 0.041030294 -0.5568018972 0.0410630087 -0.5568480211 0.0175144183 0.1878763286
710295740.0 -0.0138635996 0.1850494175 0.03510944 -0.5570051084 0.0343800554 -0.5577332549 0.0199226753 0.1875894016
715295710.0 -0.0115886204 0.1858197934 0.0290961353 -0.5574129416 0.0288576 -0.5574936132 0.0220735076 0.1874271422
720295680.0 -0.009670304 0.1858412622 0.022889896 -0.5575261858 0.0227637055 -0.5580877796 0.0240001435 0.1873073537
725295650.0 -0.0087040813 0.1867071872 0.0171668789 -0.5580334983 0.0170095741 -0.5580037568 0.0257232096 0.1876209221
730295620.0 -0.0073257171 0.1865842669 0.0111110562 -0.5574395386 0.0110468125 -0.5574768485 0.0281077298 0.1876176003
735295590.0 -0.0046968556 0.1872512014 0.0050420909 -0.5581414947 0.0047514745 -0.5581470427 0.0302006886 0.1867089022
740295560.0 -0.0030895912 0.1871066839 -0.0011545724 -0.5577737584 -0.0010291862 -0.5584317629 0.0319637902 0.1870803966
745295530.0 -0.0016128639 0.1878742661 -0.007234949 -0.5574316855 -0.0064021971 -0.5581238346 0.0335992258 0.1866955674
750295500.0 -0.0002284029 0.1883269102 -0.0126665736 -0.5581272471 -0.0135293705 -0.5578229868 0.0360233609 0.18669536
755295470.0 0.0016625513 0.1882383426 -0.0188073555 -0.5581186061 -0.0191330017 -0.5581008673 0.0384559343 0.1867478446
760295440.0 0.0035058156 0.1889751642 -0.0253713024 -0.5574848794 -0.0251831273 -0.5570908458 0.0403969368 0.1854881485
765295410.0 0.0054463919 0.1886752296 -0.0306429152 -0.5566905201 -0.0307957745 -0.5571148581 0.0422595831 0.1858587375
770295380.0 0.0070077603 0.18911965 -0.0368303151 -0.5560108189 -0.0371140868 -0.5570428921 0.0440822343 0.1855931785
775295350.0 0.0086519012 0.1889869341 -0.042570177 -0.5560702149 -0.0426886996 -0.5560310945 0.0463494746 0.1852935341
780295320.0 0.010313617 0.189445399 -0.0481463509 -0.5551167869 -0.04890937 -0.5556393263 0.0484426806 0.1847974589
785295290.0 0.0120053945 0.1892117958 -0.0547242258 -0.5548944501 -0.0545604401 -0.5550716222 0.0500809218 0.1848057368
790295260.0 0.0137924422 0.1890306954 -0.0606893818 -0.5543250324 -0.0608921759 -0.5551161677 0.0524254607 0.1844739107
795295230.0 0.0156328385 0.1894170449 -0.0667233968 -0.5540196022 -0.0665188494 -0.5539505261 0.0543399735 0.1831922553
800295200.0 0.0170613478 0.1899452733 -0.0720588094 -0.5525016424 -0.0725221773 -0.5532481182 0.0560070167 0.1831853602
805295170.0 0.0184931496 0.1894823074 -0.0781443846 -0.5521889604 -0.0784057182 -0.5526020618 0.0586394337 0.182822157
810295140.0 0.0207653255 0.1899047287 -0.0842948455 -0.5510451032 -0.0845754893 -0.551262359 0.0606039516 0.1821957677
815295110.0 0.0222320172 0.1899225456 -0.0900726259 -0.5504177975 -0.0897796374 -0.5505540301 0.0619721958 0.1818511338
820295080.0 0.0244321473 0.1898979807 -0.0958326697 -0.5486506265 -0.095973626 -0.549637652 0.0637757589 0.1816138673
825295050.0 0.0256604952 0.1895586666 -0.1018101664 -0.548520661 -0.1021630616 -0.5485984363 0.0663978991 0.1812625773
830295020.0 0.027722902 0.1893542625 -0.1076000268 -0.5471656077 -0.1078127228 -0.5472983984 0.0681864751 0.1800911146
