!Created with skrf (http://scikit-rf.org).
# Hz S RI R 50.0 
!freq ReS11 ImS11 ReS21 ImS21 ReS12 ImS12 ReS22 ImS22
300000.0 -0.774278772 -0.1466838701 -0.0009471059 0.0005853818 -0.000137556 0.001236126 -0.0464131513 -0.0670116261
5299970.0 -0.785034243 -0.0074297983 -7.86455e-05 0.000242234 -0.0001691318 -9.0925e-06 -0.0484289517 0.0142828329
10299940.0 -0.7876666353 -0.0041475145 -3.30599e-05 -2.75035e-05 3.4415e-05 5.97589e-05 -0.0429566205 0.0313264194
15299910.0 -0.7929365707 -0.0012696627 -0.0001185078 9.24306e-05 -8.69537e-05 1.21794e-05 -0.0348141971 0.0454240739
20299880.0 -0.7995863006 0.0024190221 6.48373e-05 -4.05757e-05 -0.0001200037 5.85927e-05 -0.0249464243 0.0568356964
25299850.0 -0.8063549676 0.0082591596 -6.89376e-05 0.000279369 -0.0001192507 -8.05905e-05 -0.0143109674 0.0662200674
30299820.0 -0.8121692391 0.0164348912 -0.0001203962 0.0001544497 -3.96065e-05 -0.0001180444 -0.0031132865 0.07252166
35299790.0 -0.8170053472 0.0250343648 2.52165e-05 0.0001342743 -4.8251e-06 -3.45193e-05 0.0083202377 0.076944341
40299760.0 -0.8216464926 0.0339600074 -0.0001534371 6.181e-05 -6.1133e-05 7.74575e-05 0.0193087755 0.0798891046
45299730.0 -0.8245986284 0.0443120178 -4.10249e-05 1.6036e-06 -0.0001681029 1.96476e-05 0.0293880578 0.0812866458
50299700.0 -0.8269379478 0.0539439684 -0.0001778956 -0.0001686681 0.0001675097 8.21726e-05 0.0398389477 0.081432011
55299670.0 -0.8290731563 0.0642123057 0.0001335045 -0.000236245 -0.0001569609 3.91619e-05 0.0481206627 0.0801674971
60299640.0 -0.8302433639 0.0743018585 -3.41367e-05 0.0002712786 -6.80703e-05 -9.22421e-05 0.056884262 0.0784765478
65299610.0 -0.830872351 0.0845274225 -0.0001660412 0.0001843363 -7.85958e-05 -1.44939e-05 0.0643553447 0.0763701694
70299580.0 -0.8312029808 0.0947310848 0.0001580394 5.16122e-05 -7.54328e-05 -0.000176421 0.0711209859 0.0727768745
75299550.0 -0.8313813234 0.1042236816 -8.0869e-06 -4.86118e-05 -7.6736e-05 -1.45542e-05 0.0776789229 0.0700430133
80299520.0 -0.8310780798 0.11438879 -1.84079e-05 -7.22837e-05 8.25699e-05 -0.0001149473 0.0826871984 0.0661110729
85299490.0 -0.830431173 0.1243078882 0.000107681 5.81028e-05 2.35025e-05 -3.2958e-06 0.0880448484 0.0626902164
90299460.0 -0.8296848812 0.1337165595 0.0002094907 0.0001842002 0.0001225451 -3.9384e-06 0.0924617818 0.0585587566
95299430.0 -0.8284027919 0.1434656842 8.69688e-05 0.0001068603 -0.0001794955 -8.89119e-05 0.0966554033 0.0546580358
100299400.0 -0.8272862045 0.1530089662 5.95533e-05 2.6273e-06 0.000220828 8.77642e-05 0.0995195065 0.0509099335
105299370.0 -0.8266542676 0.162232336 0.0001490127 0.0002460839 2.85209e-05 0.0001144321 0.1030878405 0.0468937789
110299340.0 -0.8255827245 0.1706250054 -0.0002866893 6.43823e-05 -1.10099e-05 5.53893e-05 0.1056160603 0.0432117442
115299310.0 -0.8237539125 0.1807280126 4.05707e-05 3.46454e-05 -1.95145e-05 -0.0001122071 0.1081822327 0.0388764492
120299280.0 -0.8218944242 0.1892828427 0.0001198107 4.60467e-05 -8.31504e-05 0.0001626757 0.1103759397 0.0351658185
125299250.0 -0.8204107982 0.198949073 -7.2508e-05 0.000241892 5.89091e-05 -2.83563e-05 0.1123792658 0.0310235503
130299220.0 -0.8179831011 0.2077417345 -6.41474e-05 5.5298e-06 -3.84962e-05 6.11803e-05 0.1133426984 0.0274661432
135299190.0 -0.8164954646 0.2169946554 -4.93928e-05 -7.3814e-05 -2.73237e-05 1.74927e-05 0.1151825361 0.0236403407
140299160.0 -0.8148066891 0.2253897248 -3.20745e-05 0.0001582579 -0.0001225554 1.45833e-05 0.1166640928 0.0200605099
145299130.0 -0.8125319502 0.2343776876 -1.10378e-05 3.2196e-05 3.20071e-05 -0.0001108533 0.1173072695 0.0164511111
150299100.0 -0.8100378155 0.2427721775 0.0001797638 -2.89522e-05 6.54195e-05 0.0002356882 0.1182687295 0.0129116602
155299070.0 -0.8075422317 0.2522234103 -8.41991e-05 -5.38393e-05 2.74765e-05 0.0001543435 0.1188540921 0.0094899093
160299040.0 -0.8046143411 0.261299578 3.41257e-05 -2.34452e-05 -0.0001894849 4.82621e-05 0.1197083296 0.0063291366
165299010.0 -0.8017635674 0.2696412524 6.50288e-05 -9.75296e-05 9.41217e-05 -0.0001135117 0.1199879508 0.0029434899
170298980.0 -0.7996931536 0.2782921807 1.53114e-05 -0.0001219762 -6.39164e-05 -7.38172e-05 0.1204864664 -6.45565e-05
175298950.0 -0.7968107392 0.2870591344 0.0001912379 0.0001621177 -4.7596e-06 0.0001324595 0.120243054 -0.0032449024
180298920.0 -0.7937776156 0.2951756151 0.0001816931 0.0001024103 -3.50293e-05 9.07487e-05 0.1207522554 -0.0062647765
185298890.0 -0.7909195505 0.3044183456 -3.59128e-05 0.0001408532 -4.3504e-06 0.0002498681 0.1205276234 -0.0095673863
190298860.0 -0.7874668875 0.3121477791 7.72255e-05 -2.74981e-05 0.0002015763 0.000259199 0.1209400372 -0.0124185209
195298830.0 -0.7839215533 0.3205606942 2.14532e-05 -0.0001152068 -3.79207e-05 -8.91372e-05 0.1205593107 -0.015173972
200298800.0 -0.7808554042 0.3293254127 -0.0001813456 3.64586e-05 1.17114e-05 9.61758e-05 0.1206289785 -0.0180893651
205298770.0 -0.7770354052 0.337483075 -0.000113564 0.0003637017 0.0001182033 -8.01597e-05 0.1201141197 -0.0206602453
210298740.0 -0.7737456972 0.3455631094 -0.0001318676 0.0001031711 1.6253e-05 -7.516e-06 0.1198741473 -0.0233458503
215298710.0 -0.7704273502 0.354077457 0.0002282433 1.48703e-05 0.0001221331 -3.60054e-05 0.1190817727 -0.0256387237
220298680.0 -0.7673263244 0.3617246008 0.0001688374 0.0003065512 -5.93527e-05 -3.46778e-05 0.1192219132 -0.0281801639
225298650.0 -0.7631422903 0.3709136926 -9.0596e-06 8.80351e-05 0.0002082199 6.7487e-06 0.1181667803 -0.0303330499
230298620.0 -0.759127977 0.3787960519 -0.0001380715 0.0001565447 -2.69682e-05 0.0002627917 0.1179473419 -0.0328189063
235298590.0 -0.7546712691 0.3871512164 6.90863e-05 0.0001858591 2.7403e-05 4.1167e-05 0.1171174578 -0.0355594558
240298560.0 -0.7509409447 0.3950677142 5.04403e-05 -4.31067e-05 -6.89436e-05 0.0001915882 0.1167093602 -0.0375582709
245298530.0 -0.7463463873 0.4028907781 0.0002625142 -2.15706e-05 0.0001644683 3.38736e-05 0.1160303629 -0.039899739
250298500.0 -0.7425138371 0.4109191799 0.0001377885 3.8302e-05 4.73677e-05 5.73102e-05 0.1156431116 -0.0417030946
255298470.0 -0.7377490807 0.4184983141 4.12672e-05 0.0002585405 0.0001542626 6.25078e-05 0.1143780854 -0.0445309554
260298440.0 -0.7338764316 0.4259533762 -0.0001128318 0.0001043981 0.000290154 1.38859e-05 0.1136380391 -0.0462420387
265298410.0 -0.7292994212 0.4339202216 -1.1017e-06 -0.0001578785 -1.22534e-05 -0.000116476 0.1128738734 -0.0484317826
270298380.0 -0.7242371232 0.4413819728 0.0002080918 4.4223e-06 3.7615e-05 2.4241e-05 0.1124993066 -0.0506512851
275298350.0 -0.7194295802 0.4490585887 0.0001176521 6.30983e-05 0.0001454536 -8.32205e-05 0.1110687407 -0.052376462
280298320.0 -0.71520219 0.4570689616 -4.20017e-05 0.0003327608 0.0001245015 0.0001833732 0.1106146816 -0.0544906661
285298290.0 -0.7105096174 0.4650754077 3.8927e-05 0.0001907059 1.73554e-05 0.0001718203 0.1094838318 -0.0561693279
290298260.0 -0.7055520661 0.4718183987 -1.758e-07 8.51402e-05 0.0001131958 -3.85277e-05 0.1087795801 -0.0581422728
295298230.0 -0.7006935071 0.4793982926 8.90191e-05 9.44441e-05 0.0002401006 -0.0001101733 0.1076021407 -0.0598483963
300298200.0 -0.6947857437 0.4860746545 0.0002784817 0.0002971386 -9.25627e-05 -0.0001510765 0.1067558594 -0.0616250666
305298170.0 -0.6901036553 0.4943356344 0.0001721065 0.000120093 -1.15246e-05 0.0001386658 0.1059828511 -0.0633096164
310298140.0 -0.68433715 0.5008093363 0.000143489 -6.68968e-05 0.000100486 0.0002055327 0.1051523869 -0.0648868146
315298110.0 -0.6794601858 0.5079304187 0.0002732054 7.6882e-06 0.0002429776 3.437e-06 0.1040776038 -0.0670969575
320298080.0 -0.6746058406 0.5158632392 0.0002133125 -3.12519e-05 0.0002803481 -6.46573e-05 0.1029534528 -0.0686858095
325298050.0 -0.6684319631 0.5220600269 0.0001515486 -4.92067e-05 -0.0001468333 0.0001801592 0.1017812956 -0.0706468291
330298020.0 -0.6624332407 0.5291979004 -4.21339e-05 0.0002342489 0.0001109607 0.000159562 0.1006094024 -0.0725112271
335297990.0 -0.6569531762 0.5363512683 -4.48684e-05 3.22555e-05 -0.0001144755 -4.93754e-05 0.0989644834 -0.0742119
340297960.0 -0.6519274938 0.5425755317 9.10618e-05 -9.95527e-05 -7.63248e-05 -1.88035e-05 0.0978269463 -0.0755925748
345297930.0 -0.6461874592 0.5490122839 0.0001328746 5.54909e-05 0.0001499094 -2.50296e-05 0.0960280245 -0.0769234061
350297900.0 -0.6401673161 0.5563170875 -0.0001244903 8.98292e-05 0.0002878244 4.59828e-05 0.0949469634 -0.0785478873
355297870.0 -0.6341895662 0.5627461446 0.0001757893 7.05166e-05 8.41307e-05 5.23226e-05 0.0933371058 -0.0794398988
360297840.0 -0.6285173312 0.5694119489 4.16663e-05 0.0003619311 8.80586e-05 0.0001126183 0.0920653893 -0.0804363639
365297810.0 -0.621957628 0.5763202914 0.0003186737 -5.55224e-05 -6.10543e-05 1.81523e-05 0.0909160306 -0.0817329373
370297780.0 -0.6161265449 0.5815176308 2.79989e-05 5.5155e-05 -0.0001583644 9.93206e-05 0.0893792483 -0.0830425038
375297750.0 -0.6101716394 0.5882513837 -2.93358e-05 0.0002466158 7.29079e-05 -3.0697e-06 0.0879029297 -0.0839972658
380297720.0 -0.6038334864 0.5943587896 5.48732e-05 -3.17595e-05 7.76899e-05 0.0001708443 0.0869489748 -0.085590311
385297690.0 -0.5976807602 0.6006757879 0.0003081185 -3.43321e-05 0.0003330323 1.5667e-05 0.0850361422 -0.086199466
390297660.0 -0.5916378266 0.6072349601 6.52007e-05 9.24849e-05 9.5472e-05 -1.94073e-05 0.0837774239 -0.08770933
395297630.0 -0.5847862343 0.6136410295 3.43525e-05 0.0001306813 9.15799e-05 0.0001081234 0.0823203622 -0.0888922604
400297600.0 -0.5791388343 0.6190197599 6.25618e-05 -3.84436e-05 0.0001008608 9.07964e-05 0.0810995415 -0.0897788577
405297570.0 -0.5725949646 0.624876213 0.0001453919 -1.21844e-05 0.0001717883 -8.41e-07 0.0798724697 -0.0907512522
410297540.0 -0.5653966652 0.6305932324 0.0002834806 -9.44247e-05 0.0001632083 0.000166292 0.0779546773 -0.0914660405
415297510.0 -0.5593895985 0.6360744831 6.5581e-06 -0.0001925971 6.00272e-05 3.88147e-05 0.0765746646 -0.0924984833
420297480.0 -0.5516704657 0.6423637756 0.0001723187 0.0002911551 -1.65597e-05 4.5792e-05 0.0752377908 -0.0937144452
425297450.0 -0.5459519373 0.6482946472 0.0002573633 0.0001994099 0.0001432736 1.8235e-06 0.0738844114 -0.0944719684
430297420.0 -0.5394300369 0.6533584246 -0.0001604734 4.82851e-05 1.72591e-05 9.90239e-05 0.0723847152 -0.0954915589
435297390.0 -0.5323233366 0.6590168991 0.0002493468 0.0001940143 1.99362e-05 0.0001632909 0.0707903306 -0.0963348096
440297360.0 -0.5253429468 0.6645301812 0.0003239805 0.0001104375 0.0001535921 0.0001123676 0.0692446363 -0.0972650461
445297330.0 -0.5184022039 0.6692691095 0.0003027386 -0.0001520165 0.0001344013 0.0001559181 0.0676477746 -0.0981862809
450297300.0 -0.5116946604 0.6745643075 7.88041e-05 7.75532e-05 0.0001157307 0.0001276201 0.0657469912 -0.0986468311
455297270.0 -0.504161632 0.6800328773 0.0001500547 -6.9193e-06 0.0002279369 -0.0001347754 0.0643501409 -0.0998439059
460297240.0 -0.4977236611 0.6852764405 0.0001481523 -1.1215e-06 0.0001802719 0.0002328158 0.0631295813 -0.1002928024
465297210.0 -0.48995843 0.6910026073 -7.73957e-05 -0.0001192272 0.0001178241 0.0001958724 0.0613272846 -0.1014243634
470297180.0 -0.4827324792 0.6945561307 0.0001999237 0.0002809468 4.54755e-05 -3.8155e-06 0.0594441823 -0.1015766242
475297150.0 -0.475580501 0.7001380592 0.0002357593 -3.35614e-05 1.14857e-05 -2.30015e-05 0.058121658 -0.1025925712
480297120.0 -0.4683926223 0.7047755995 0.0003618897 0.0002677108 0.000155357 -2.28153e-05 0.0565141829 -0.1029897482
485297090.0 -0.4612853089 0.7091978119 5.59367e-05 8.54589e-05 4.85369e-05 3.20517e-05 0.05463316 -0.1036962315
490297060.0 -0.4541756302 0.7139550031 0.0001029841 0.0001105711 0.0001392406 -5.63448e-05 0.0530253639 -0.1044478757
495297030.0 -0.4470079292 0.7190005495 0.0002150807 -9.71998e-05 0.0001332558 3.99935e-05 0.0513961558 -0.1054811443
500297000.0 -0.4387823096 0.7233927847 0.0003356757 0.0001937694 0.0002362992 0.0001682345 0.0498322527 -0.1056822084
505296970.0 -0.4313481007 0.7274175497 0.0003916172 2.38517e-05 0.000181781 -0.0001287406 0.0481969709 -0.1062548657
510296940.0 -0.4243856771 0.7319188333 0.0001266292 -1.856e-07 2.93087e-05 4.21347e-05 0.04677069 -0.1066504741
515296910.0 -0.41707152 0.7362577903 4.35997e-05 4.1053e-06 0.0001265607 4.20586e-05 0.0448189007 -0.1069299908
520296880.0 -0.4092571812 0.7404081555 0.0001167062 0.0002293529 2.80251e-05 0.0001425906 0.0434197178 -0.1079519829
525296850.0 -0.4015081273 0.7445926972 -6.71723e-05 0.0001033669 0.0001179859 9.65837e-05 0.0417307577 -0.1081154423
530296820.0 -0.3939694756 0.74817471 7.372e-07 -0.0001215263 4.74041e-05 -4.51203e-05 0.0397270603 -0.1087597918
535296790.0 -0.3859352397 0.7527272203 0.0002528396 -0.0002509125 0.0001026664 -0.0001351433 0.0379883137 -0.1092673344
540296760.0 -0.3787377512 0.7558906338 1.8221e-06 -2.99192e-05 0.000102887 0.0001634882 0.0362426153 -0.1097406063
545296730.0 -0.3711627097 0.7594142622 0.0002953718 7.17445e-05 6.9367e-06 2.96598e-05 0.0347102264 -0.1101876118
550296700.0 -0.3634733552 0.7632102944 5.28839e-05 6.77975e-05 0.0001380495 1.76794e-05 0.0330796722 -0.110420625
555296670.0 -0.3546367782 0.7672584767 -6.00138e-05 -0.0001291083 -1.61618e-05 0.0002217212 0.0314184887 -0.1105433134
560296640.0 -0.3470967537 0.7708237217 5.94736e-05 -5.02093e-05 0.000229126 2.9285e-05 0.0300428738 -0.1111316716
565296610.0 -0.3393579674 0.7737431571 -1.67573e-05 5.4106e-06 0.0001911564 2.70515e-05 0.0279331268 -0.111163923
570296580.0 -0.3316434728 0.7775844773 0.0002028093 7.49883e-05 -4.59582e-05 6.52033e-05 0.0259877221 -0.1113921595
575296550.0 -0.323730909 0.7808756485 0.0001041072 6.8843e-06 2.1728e-05 -0.0001249318 0.0246564072 -0.1117038493
580296520.0 -0.3154013887 0.7844314264 9.1e-06 1.519e-06 2.80237e-05 4.92542e-05 0.0227806999 -0.1116650782
585296490.0 -0.3077268746 0.7864170576 -0.0002173781 1.38982e-05 -2.03944e-05 6.40434e-05 0.0211152246 -0.1127368562
590296460.0 -0.2995378943 0.7895770774 1.83845e-05 4.00255e-05 0.0002445847 -4.98789e-05 0.0197649612 -0.1123604442
595296430.0 -0.2914094607 0.7936841165 0.0001116603 -1.85837e-05 0.0001597636 0.0001116751 0.0175167567 -0.1126309495
600296400.0 -0.2834393106 0.7956356678 0.0003789282 7.58421e-05 0.0002249179 -1.12777e-05 0.0162540797 -0.1127362637
605296370.0 -0.275317573 0.7990975443 9.3902e-05 -5.97637e-05 0.000477538 -8.91503e-05 0.0146271847 -0.1128587763
610296340.0 -0.2671826457 0.8016268971 0.0003269537 -5.17141e-05 0.0001519253 -0.0001237586 0.012663133 -0.1128138351
615296310.0 -0.2591000367 0.8039194723 0.0002256433 -0.0003395071 0.0005085549 5.2131e-05 0.0110681042 -0.1130959068
620296280.0 -0.2506858316 0.8060227699 -0.0001423516 -6.75687e-05 5.89921e-05 9.7424e-06 0.0090424104 -0.1130688375
625296250.0 -0.2429341937 0.8093769199 -9.43038e-05 -0.000102783 0.0001522762 -0.0001251668 0.0075182776 -0.112976692
630296220.0 -0.234691617 0.8120470091 0.0001007536 -0.0001631962 2.28659e-05 2.60474e-05 0.0056974989 -0.1127563896
635296190.0 -0.2259481582 0.8137358114 2.60483e-05 3.7978e-06 2.88392e-05 -0.000127895 0.0039941632 -0.1129535018
640296160.0 -0.2176663641 0.8156659713 0.0002277663 6.97625e-05 0.0001492708 6.7554e-05 0.0023391102 -0.1129481371
645296130.0 -0.2098525469 0.8179478028 9.4304e-05 -1.77825e-05 0.0001329254 -0.000128007 0.0006023488 -0.1130218941
650296100.0 -0.2014284331 0.820192697 0.0001928136 5.95653e-05 -4.19413e-05 7.3344e-06 -0.0010621215 -0.1127213648
655296070.0 -0.1923482832 0.8217854164 0.0001233511 0.0001945104 0.0001838528 -0.000108008 -0.0028621738 -0.1126638694
660296040.0 -0.1850587909 0.8241231441 0.0002886036 -2.76174e-05 8.643e-07 5.3635e-05 -0.0043953893 -0.1125432724
665296010.0 -0.1765783843 0.8255031053 0.0001239099 -9.08447e-05 9.21559e-05 -0.0001122106 -0.0061378896 -0.1121805785
670295980.0 -0.1674872849 0.8268411923 0.0003156491 -7.87662e-05 0.0001312698 -6.9107e-06 -0.0074584669 -0.1122385646
675295950.0 -0.1603018987 0.8284833331 0.0001870405 8.53756e-05 0.0002921841 -0.0001002513 -0.0091525658 -0.1120456999
680295920.0 -0.1513560163 0.8309086958 0.0001822258 -6.61381e-05 -2.29955e-05 -0.0001766278 -0.0111385668 -0.1119502984
685295890.0 -0.1427552609 0.8319397656 0.000228408 0.0002034621 0.0001579584 -0.0002108237 -0.0125665936 -0.1112637531
690295860.0 -0.1341814792 0.8333768229 1.37573e-05 1.02175e-05 0.0002339158 0.0002900357 -0.014227037 -0.1111098925
695295830.0 -0.1260776659 0.8343836841 0.0001869019 4.94964e-05 0.000274209 -2.61095e-05 -0.0159994305 -0.1108626681
700295800.0 -0.1174424082 0.8356139554 1.67554e-05 3.90882e-05 0.000173422 -3.60172e-05 -0.0178013767 -0.1108087988
705295770.0 -0.1091573485 0.8374122413 0.0002334295 -0.0001433602 0.0001526829 0.0001777231 -0.0192291248 -0.1099758413
710295740.0 -0.1012897006 0.838080218 0.0003833625 8.00153e-05 0.0001308708 2.8473e-06 -0.0212849009 -0.1094311267
715295710.0 -0.0935024756 0.8393101872 0.0004569961 8.74161e-05 5.45789e-05 -0.0002181245 -0.0226651801 -0.1092356243
720295680.0 -0.0846341635 0.8394516047 0.0002078455 -0.0001205865 4.19797e-05 -3.21095e-05 -0.0241751347 -0.1088124909
725295650.0 -0.0753765882 0.8410397203 0.0002189185 -3.83478e-05 8.08041e-05 -1.02394e-05 -0.0259233937 -0.1086562511
730295620.0 -0.067420761 0.8407653855 0.000190216 -0.000111394 8.24656e-05 2.16444e-05 -0.0276825079 -0.1081393751
735295590.0 -0.0586015611 0.8415992891 0.0002508601 -9.8454e-05 0.0001422263 -0.0002166362 -0.028745921 -0.1075311839
740295560.0 -0.0500236987 0.8429118238 9.14397e-05 1.35513e-05 4.10208e-05 9.89541e-05 -0.0307030167 -0.1072241605
745295530.0 -0.0416606997 0.8424319575 0.0004428803 8.055e-06 1.98196e-05 -0.0001996529 -0.0321386219 -0.1065441922
750295500.0 -0.0338885598 0.8429361515 -1.24123e-05 4.23798e-05 -4.50899e-05 0.0002991906 -0.0339639463 -0.1064713239
755295470.0 -0.024153295 0.8432477403 -2.45108e-05 -0.0001199629 -1.88196e-05 4.87679e-05 -0.0354882754 -0.1054483942
760295440.0 -0.0166378909 0.8436933235 9.13721e-05 0.0001130065 9.56718e-05 0.0001050303 -0.0370720412 -0.1049500122
765295410.0 -0.0084104652 0.8433509626 0.0002207156 0.0001008537 0.000175172 -8.45243e-05 -0.0383892135 -0.1040768707
770295380.0 0.0005317294 0.8443473511 3.19629e-05 0.0001185406 0.0001240564 -0.0001896747 -0.0398286537 -0.1036665446
775295350.0 0.0089736659 0.8441460416 0.0002078616 -0.0001369293 7.47862e-05 -0.0003257429 -0.0419627572 -0.1032542762
780295320.0 0.0181053354 0.8431204292 8.90213e-05 -1.87923e-05 0.0001248968 9.67649e-05 -0.0436680465 -0.1023175094
785295290.0 0.0257990459 0.8435032298 0.0002917476 -0.0002636635 0.0001010387 -8.03669e-05 -0.044928508 -0.1012317585
790295260.0 0.034520034 0.8433922347 3.2075e-06 -1.76424e-05 0.0003349399 -1.8166e-06 -0.0463896596 -0.1009648066
795295230.0 0.0425452033 0.8438207902 3.56506e-05 -3.09374e-05 0.0001450283 0.0001761141 -0.0476760592 -0.0998414232
800295200.0 0.0520228585 0.8425512775 -8.8241e-06 3.21791e-05 0.0002261364 -0.0001560839 -0.049493723 -0.0993741463
805295170.0 0.0597414137 0.8419179086 9.52027e-05 6.02744e-05 0.0001619988 4.30593e-05 -0.0511739107 -0.0985747688
810295140.0 0.0684467694 0.8412728677 0.0002483023 -0.0002272842 0.0002112225 0.0001944429 -0.0524258866 -0.0975179481
815295110.0 0.0767734579 0.8402013148 7.97203e-05 -7.29242e-05 8.40012e-05 5.61821e-05 -0.054241921 -0.0967776276
820295080.0 0.0852838974 0.8391092832 0.0002752196 -0.0001951562 9.47181e-05 5.92916e-05 -0.0555284922 -0.096030721
825295050.0 0.0939168313 0.8387243411 0.0001528311 -0.0001607177 1.65564e-05 -8.87294e-05 -0.0569636329 -0.0951267463
830295020.0 0.1020110814 0.8376255462 0.0001553851 -0.0001985142 0.0001463965 3.9117e-05 -0.0583420738 -0.0940954141
835294990.0 0.1099283951 0.8368995121 8.20708e-05 -0.0002072433 0.0002639993 -0.0002178059 -0.0596824942 -0.0933305728
840294960.0 0.1187651762 0.8354094723 0.0002290403 -7.67434e-05 -2.61364e-05 0.0001396564 -0.0612446316 -0.0919879043
845294930.0 0.1267514675 0.8348400632 7.88725e-05 -0.0001296749 0.0002014852 0.0001371523 -0.062691932 -0.0910634411
850294900.0 0.1352350042 0.8328541946 0.0002332802 -6.95309e-05 0.0002617518 -9.0197e-06 -0.0641198471 -0.0901495614
