!Created with skrf (http://scikit-rf.org).
# Hz S RI R 50.0 
!freq ReS11 ImS11 ReS21 ImS21 ReS12 ImS12 ReS22 ImS22
300000.0 -0.0983902901 -0.0805805283 0.6232874599 0.075880715 0.6250504828 0.0801052677 -0.09726419 -0.0892967208
5299970.0 -0.1002322383 0.0128896008 0.6305035934 0.0102845496 0.63047004 0.0113094093 -0.1021063997 0.011856822
10299940.0 -0.0953371842 0.0297794434 0.6346049812 0.0156245968 0.6340476939 0.0157087393 -0.0971642949 0.0288487221
15299910.0 -0.0884563177 0.0432086916 0.6400518755 0.0207290885 0.6401637246 0.0207903703 -0.0898595999 0.0421776998
20299880.0 -0.0794599839 0.0543949743 0.6486519012 0.0239020345 0.6485998012 0.0241256387 -0.0818048438 0.053642424
25299850.0 -0.0698891517 0.0627273181 0.6579400948 0.0245330094 0.6579712167 0.0255768969 -0.0723394948 0.0620048142
30299820.0 -0.0596507608 0.0693954239 0.6686248783 0.0244478766 0.6676485299 0.024473144 -0.0626464409 0.068681221
35299790.0 -0.0491462068 0.0742482834 0.6776662236 0.0214913205 0.6772958579 0.0214771601 -0.0523066324 0.0734124584
40299760.0 -0.0397039389 0.0770639531 0.6867082323 0.0179582124 0.6865929176 0.0177802533 -0.0437062591 0.0771586892
45299730.0 -0.0302923639 0.0794350569 0.6961536648 0.0118202595 0.6957795047 0.012104072 -0.0340239804 0.0790278122
50299700.0 -0.0217335266 0.079662395 0.7032298133 0.0048691399 0.7035239547 0.0045033871 -0.0254760122 0.0801845996
55299670.0 -0.0140824441 0.0798420479 0.7105110424 -0.0035270516 0.7109491243 -0.0029771316 -0.0177671044 0.0799598877
60299640.0 -0.0066396887 0.0787757164 0.7170542374 -0.0116228338 0.7173447687 -0.011002585 -0.0102700656 0.0797662733
65299610.0 -0.0004490584 0.0780373555 0.7236621898 -0.0194514116 0.7238441762 -0.0198680266 -0.0037139403 0.0786322224
70299580.0 0.0059431949 0.0758077507 0.7285327816 -0.029226015 0.7288181101 -0.0290793978 0.0024710461 0.0771757613
75299550.0 0.0117492296 0.0743063911 0.7331192259 -0.0389293513 0.7329013848 -0.0390154345 0.0081439769 0.0757966911
80299520.0 0.0160945455 0.0720088478 0.7375722207 -0.0491149017 0.737647444 -0.0485527506 0.0133427717 0.0727923579
85299490.0 0.0207949505 0.0696833114 0.7405844059 -0.0584288176 0.740491626 -0.0590613677 0.0175804439 0.0708249337
90299460.0 0.0245336842 0.0672307597 0.7435657667 -0.0688629066 0.7436144197 -0.068740769 0.0221944289 0.0686007241
95299430.0 0.0282517622 0.0653742253 0.7457675299 -0.0798242002 0.7458651506 -0.078736372 0.0251590019 0.0663455507
100299400.0 0.0313754404 0.0627203261 0.7474345849 -0.0897367231 0.7472506261 -0.0893506457 0.0284778634 0.0639717472
105299370.0 0.0346212448 0.0602238816 0.7488782273 -0.0991850099 0.7490215904 -0.0993031835 0.0319899943 0.0617557519
110299340.0 0.0370895744 0.0577260718 0.7500429276 -0.1087038774 0.7500171743 -0.1095664287 0.0346631225 0.0592416983
115299310.0 0.0398117121 0.0549413792 0.750752726 -0.119230278 0.751157201 -0.119062141 0.0371102747 0.0563074006
120299280.0 0.0413683999 0.0526506593 0.75180248 -0.1297739734 0.7511011949 -0.1296099238 0.0389177574 0.0541669718
125299250.0 0.0431468575 0.0503861036 0.752120791 -0.1391548345 0.7520675259 -0.1396634839 0.0415270828 0.0512593215
130299220.0 0.0449937395 0.0478464968 0.7516608876 -0.1488004246 0.7517036562 -0.1495975667 0.0431955571 0.0493641518
135299190.0 0.0468565347 0.0454016461 0.7513094815 -0.1588231505 0.7505866113 -0.1588490884 0.0446529477 0.047613418
140299160.0 0.04770282 0.0441567716 0.7512422743 -0.169064508 0.7507755284 -0.1687042764 0.0464938383 0.0452393658
145299130.0 0.0493372941 0.0419253029 0.7507448527 -0.1787306383 0.7499346882 -0.1786052471 0.0471370736 0.0427700571
150299100.0 0.0507521478 0.0398491293 0.7495202486 -0.1887805359 0.7489768159 -0.1881837012 0.0486151722 0.040882862
155299070.0 0.0511923247 0.0381309496 0.7480242578 -0.198123163 0.7479953591 -0.1984543558 0.0494165017 0.0389703224
160299040.0 0.0521710285 0.0359440017 0.7461297669 -0.2066548686 0.7462709457 -0.2069551027 0.0506289624 0.0372373624
165299010.0 0.0530521714 0.03409729 0.7451532722 -0.2170511259 0.7451204437 -0.2169731197 0.0515142822 0.0346490227
170298980.0 0.0534653366 0.0326251381 0.7422217638 -0.225840103 0.7427823959 -0.2265362435 0.0527697025 0.0326698916
175298950.0 0.0544352709 0.0305965627 0.7419406542 -0.2353425867 0.7414975584 -0.2352727549 0.0532471996 0.0309750332
180298920.0 0.0553536342 0.0291589263 0.7390130458 -0.2445912548 0.7389943336 -0.2438156072 0.0535908092 0.0299299275
185298890.0 0.0560999661 0.0273889996 0.7367663629 -0.2541314275 0.736503381 -0.253597068 0.0541709429 0.027732182
190298860.0 0.0562690796 0.0257467762 0.7347072219 -0.2631229839 0.7346925306 -0.2632111307 0.0554007578 0.0262069812
195298830.0 0.0562092392 0.0239971493 0.7317332204 -0.2718291688 0.7318655091 -0.272382124 0.0559077058 0.024071246
200298800.0 0.0568736619 0.0225445815 0.7295123813 -0.280249647 0.7291902873 -0.2806190735 0.0564737647 0.0233038102
205298770.0 0.0570762162 0.0214921743 0.7265554163 -0.2893364861 0.7266404511 -0.2896205219 0.0564773949 0.0208120532
210298740.0 0.0573584514 0.0196814997 0.7240916875 -0.2991076062 0.7238803598 -0.2988303022 0.0567676732 0.0196356957
215298710.0 0.0577761168 0.0187549208 0.7203224163 -0.3069339772 0.720807974 -0.3069162196 0.0569450048 0.0183903346
220298680.0 0.0582110631 0.0172276887 0.7174004378 -0.3158823757 0.7173228378 -0.3158240186 0.0574194984 0.017268492
225298650.0 0.0584074306 0.0161065827 0.7134725707 -0.324047304 0.7137679048 -0.3239108741 0.0577718107 0.0157979972
230298620.0 0.0581452697 0.0149226 0.7107232044 -0.3329056066 0.7109632525 -0.3331164059 0.0577426874 0.0141885085
235298590.0 0.0583665454 0.0132567573 0.7072455806 -0.3409948891 0.7075814343 -0.3415961969 0.0579959993 0.0125839049
240298560.0 0.0583346458 0.0118966299 0.7039227704 -0.3494025118 0.703925102 -0.3495213209 0.0579953595 0.0116199361
245298530.0 0.0589380346 0.0111320537 0.6992725794 -0.3577762056 0.7002503587 -0.3580392824 0.058452559 0.0106244327
250298500.0 0.0581853701 0.0096624361 0.6960294024 -0.3655970283 0.6967902214 -0.3657530873 0.0588749651 0.0090765422
255298470.0 0.0580413904 0.0087879116 0.6912446618 -0.3745935822 0.6924722409 -0.3741192124 0.0589510635 0.0077339929
260298440.0 0.0583999752 0.0076656281 0.687846663 -0.3820576626 0.6879711449 -0.3829859105 0.0594170402 0.0069111467
265298410.0 0.059045865 0.0070995703 0.6838180886 -0.3911494262 0.683756281 -0.3906642471 0.0588469964 0.0054540807
270298380.0 0.0591131896 0.0054442364 0.6796318671 -0.3991281855 0.6799434155 -0.3983908998 0.058846374 0.0052224714
275298350.0 0.0583628538 0.0048683104 0.6753748316 -0.4067345822 0.6756547882 -0.4066257735 0.0588082335 0.0035634214
280298320.0 0.0586705324 0.0038028134 0.671001746 -0.4135717807 0.6710445237 -0.4142117362 0.0591917603 0.0027109782
285298290.0 0.0587338413 0.0029826895 0.6663211717 -0.4216686879 0.6666098273 -0.4217960425 0.0587746309 0.0016212588
290298260.0 0.0586811188 0.0015738741 0.6618084112 -0.4299090833 0.6622765377 -0.4295493983 0.0596625164 0.0009202229
295298230.0 0.0587283051 0.0005936147 0.6577601642 -0.4376743133 0.6575992859 -0.4374279339 0.0596158524 -0.0004364123
300298200.0 0.0593264157 3.79232e-05 0.6527217779 -0.4453222183 0.6527142553 -0.445622057 0.0591264534 -0.0015180341
305298170.0 0.0588614188 -0.0015362986 0.6480183565 -0.4534449742 0.6483200355 -0.4528903902 0.0595461356 -0.0021211995
310298140.0 0.0594535281 -0.0024972486 0.6434709538 -0.4607977359 0.6429729304 -0.4612929251 0.0596273182 -0.0030612522
315298110.0 0.0587494621 -0.0035168575 0.6379738899 -0.4681098014 0.6385366241 -0.4684108225 0.0597602174 -0.0048005695
320298080.0 0.0586212845 -0.0047170984 0.6330483533 -0.4756700466 0.6331738597 -0.4760292285 0.0593747605 -0.0061627369
325298050.0 0.0582044155 -0.005920622 0.6283433362 -0.4829967386 0.6282351404 -0.483769871 0.059016153 -0.0069409262
330298020.0 0.0579556276 -0.0067588191 0.6210650816 -0.4907440934 0.6216279081 -0.4911760149 0.0584127972 -0.0083330707
335297990.0 0.0573915675 -0.0079546116 0.6163135265 -0.4978498232 0.6163149236 -0.4979693344 0.0580228201 -0.0092843257
340297960.0 0.0566162202 -0.0081512329 0.6103231238 -0.5049463546 0.6108574881 -0.5048642477 0.057408352 -0.0095911424
345297930.0 0.0561235301 -0.0086823304 0.6048809798 -0.5113005329 0.6044026232 -0.5109281475 0.0576315489 -0.0109900715
350297900.0 0.0565080434 -0.0093218881 0.5989565735 -0.5179507786 0.5994770531 -0.5181860212 0.0565612305 -0.0108179775
355297870.0 0.0561181964 -0.0103725 0.5928556792 -0.524933561 0.5935578274 -0.5251327727 0.0564093406 -0.0115315668
360297840.0 0.0560409398 -0.0108963182 0.587490669 -0.5318278721 0.5870719179 -0.5314211962 0.05632017 -0.0119216216
365297810.0 0.0557254814 -0.0115944203 0.5812388406 -0.5380079469 0.5816719377 -0.5379478556 0.0558775821 -0.0123890999
370297780.0 0.0555925786 -0.0122470947 0.5751963766 -0.5440303195 0.5754639386 -0.5449646803 0.0559442539 -0.0128625563
375297750.0 0.0551086907 -0.0125511906 0.5705188861 -0.5511339926 0.5697080505 -0.5514672748 0.0555055519 -0.0136616307
380297720.0 0.0552551656 -0.0138558061 0.5638868499 -0.5572353537 0.5631787136 -0.5573944648 0.0551705039 -0.01460594
385297690.0 0.0549529869 -0.0140691758 0.5572443547 -0.5632676832 0.5570166315 -0.5632283827 0.0548731387 -0.0147848448
390297660.0 0.0541890737 -0.0149214686 0.5509065919 -0.5700012646 0.5510215263 -0.570534185 0.0548799159 -0.0156676356
395297630.0 0.0546647065 -0.0158800233 0.5446715706 -0.5757495591 0.5449885431 -0.5756748072 0.0543118799 -0.0160765758
400297600.0 0.0536825288 -0.0158239329 0.5380039825 -0.5820851763 0.5386171595 -0.5818897186 0.0531604584 -0.0171915775
405297570.0 0.05406667 -0.0166334605 0.5317405778 -0.5879568469 0.5320721292 -0.5879106623 0.053680986 -0.0171339177
410297540.0 0.0536967641 -0.0177409727 0.5247897599 -0.5938360135 0.525016554 -0.5942292028 0.0529331546 -0.0176674825
415297510.0 0.0532527471 -0.0173845446 0.5190649705 -0.5992318125 0.5192031568 -0.5996494957 0.0526756424 -0.0180843504
420297480.0 0.0526332108 -0.01906246 0.5122756191 -0.6056582434 0.5120866464 -0.60561361 0.0527062325 -0.0192358288
425297450.0 0.0532919787 -0.0195615959 0.5055031477 -0.6110390204 0.5058991482 -0.610963495 0.0523881218 -0.0191492176
430297420.0 0.0523977131 -0.0196893087 0.4993663984 -0.617026647 0.4987242939 -0.6169456043 0.0518301435 -0.0204272631
435297390.0 0.0523896639 -0.0207186831 0.4918202199 -0.6219419297 0.492020131 -0.6218885507 0.051116351 -0.0202008329
440297360.0 0.0521417974 -0.021438809 0.48518486 -0.6274421572 0.4848155394 -0.627915841 0.0512463995 -0.0215823756
445297330.0 0.0521936568 -0.0220391523 0.4778609271 -0.6333861894 0.4780819725 -0.6330874057 0.0506062505 -0.0218315181
450297300.0 0.0518883594 -0.0227673076 0.4714285854 -0.6384544546 0.4715553129 -0.6389272746 0.0501843898 -0.0223567113
455297270.0 0.0507717515 -0.0231877445 0.4648067378 -0.6436158789 0.4647850794 -0.6434878342 0.050317361 -0.0226713323
460297240.0 0.0503068173 -0.0238720724 0.4569091292 -0.6483376675 0.4570171165 -0.6488279288 0.0498183967 -0.0224761867
465297210.0 0.0508186504 -0.0246338056 0.4502512502 -0.6537552434 0.4501568791 -0.6536151303 0.0488414766 -0.0237659022
470297180.0 0.049938458 -0.0252297053 0.4430694686 -0.658575364 0.4432678644 -0.6587249813 0.0479031304 -0.0242448481
475297150.0 0.0493695041 -0.0264801621 0.4351525554 -0.6638865113 0.4358325711 -0.6628486295 0.0485313468 -0.0247951789
480297120.0 0.0496331687 -0.0268531723 0.4287874041 -0.668399165 0.4288422617 -0.6680329255 0.0476965794 -0.0249028611
485297090.0 0.0492986947 -0.0273936841 0.4213157821 -0.6729362186 0.4209236598 -0.6730632824 0.0470497781 -0.0257673751
490297060.0 0.0489840358 -0.0280359926 0.4138789102 -0.6777061833 0.4141080077 -0.6779434655 0.0470076521 -0.02585872
495297030.0 0.0479485784 -0.0280857112 0.4060492881 -0.6821768368 0.4058673491 -0.6822008675 0.0465886207 -0.0265844193
500297000.0 0.0478655713 -0.0292500138 0.3984898071 -0.6866341388 0.3989148709 -0.6867890345 0.0453898177 -0.026882769
505296970.0 0.0470062029 -0.0296671915 0.3910210388 -0.6903801786 0.3903429529 -0.6910506901 0.0447005328 -0.0272792516
510296940.0 0.0466403965 -0.0299156008 0.3835114917 -0.695871834 0.3832815773 -0.6953660636 0.0448318787 -0.0270088584
515296910.0 0.0460701932 -0.0304392999 0.3756777695 -0.698997111 0.3754392704 -0.699629098 0.0438718837 -0.0282417439
520296880.0 0.0458273834 -0.0313560031 0.3680399773 -0.7035244718 0.3680230027 -0.7031793112 0.0441658642 -0.0283340285
525296850.0 0.0452772432 -0.032286861 0.360451032 -0.7074435903 0.3603183763 -0.7083685878 0.0436724925 -0.028842166
530296820.0 0.0447993247 -0.0323336308 0.352928155 -0.7105459834 0.352520282 -0.7117886756 0.0426332868 -0.0298994062
535296790.0 0.0441044737 -0.0331011493 0.3444209975 -0.7147343637 0.3447754422 -0.7154118941 0.0423296657 -0.0303558201
540296760.0 0.0437651892 -0.0338088364 0.337017056 -0.7191980706 0.3363959662 -0.7194903585 0.0415396641 -0.0303541306
545296730.0 0.0433813292 -0.0336991649 0.3290249715 -0.722539276 0.3291223959 -0.723218606 0.0411151854 -0.0310222603
550296700.0 0.0423909972 -0.0343568683 0.3209881216 -0.7260855032 0.3217750597 -0.7269819752 0.0405847674 -0.030511786
555296670.0 0.0424474848 -0.0351993225 0.3132345429 -0.7305644365 0.3131784385 -0.7297764738 0.0399362859 -0.0310458258
560296640.0 0.0417605187 -0.035569894 0.3054093504 -0.7335175031 0.3054455923 -0.7329050161 0.0394616633 -0.0315208531
565296610.0 0.0407009314 -0.0361654599 0.2969926263 -0.7369930976 0.2963828101 -0.7366044768 0.0387834233 -0.0324441368
570296580.0 0.0411223651 -0.0367058496 0.2891451689 -0.7400282797 0.2890734844 -0.7401371052 0.0388715012 -0.0318580044
575296550.0 0.0401641897 -0.0362690414 0.2807580229 -0.7425003183 0.2815657086 -0.7429039693 0.0383759098 -0.032387396
580296520.0 0.0393985857 -0.0372459355 0.2733398864 -0.7459834986 0.2725573715 -0.7459019272 0.0372559533 -0.0332312464
585296490.0 0.0392054008 -0.0379038058 0.2649969678 -0.7488846929 0.2647849948 -0.7488858323 0.036995209 -0.0337996783
590296460.0 0.0381549667 -0.0386737038 0.2563370442 -0.7518337146 0.2560830462 -0.7511994917 0.036631738 -0.0332553367
595296430.0 0.037474125 -0.0384149026 0.2481987812 -0.7544116714 0.2480894831 -0.75487095 0.036285218 -0.0339376725
600296400.0 0.0370045355 -0.038678964 0.2401204145 -0.7572959488 0.2406417438 -0.7569095527 0.0355158563 -0.0342159524
605296370.0 0.0367141979 -0.0385625623 0.231771877 -0.7598215043 0.2320828221 -0.7596219057 0.0348537444 -0.0350474923
610296340.0 0.0356802264 -0.0393215592 0.2239255738 -0.7620313572 0.2237141958 -0.7625707416 0.0340971322 -0.0345576434
615296310.0 0.0353090516 -0.0394034195 0.2149445192 -0.7643617662 0.2151702107 -0.7647298695 0.0339105777 -0.0353235393
620296280.0 0.034654595 -0.0400810014 0.2070370481 -0.7667786338 0.2069292427 -0.7667810888 0.0333730341 -0.0360593658
625296250.0 0.0342794107 -0.0402898937 0.1978902219 -0.769193501 0.1982884148 -0.7691204211 0.0331717161 -0.0354869195
630296220.0 0.0335073568 -0.0408935747 0.1893947412 -0.7716113367 0.1903164634 -0.7712848211 0.0315664469 -0.0358103335
635296190.0 0.0330438747 -0.0409582131 0.1814553137 -0.7725868474 0.1813643618 -0.7726464299 0.0312321362 -0.036305116
640296160.0 0.0322525669 -0.0411092907 0.1733788715 -0.775271548 0.1733645114 -0.775272762 0.0313108049 -0.0365161157
645296130.0 0.031854976 -0.0414044367 0.1648450857 -0.7772896324 0.1644636432 -0.7768858637 0.029485242 -0.0373894486
650296100.0 0.0310071626 -0.041160439 0.156475607 -0.7785120813 0.1566985301 -0.7786478106 0.0294646976 -0.037324137
655296070.0 0.0305338569 -0.0419249971 0.1479000012 -0.7802314421 0.1478587813 -0.7804839481 0.0296228282 -0.0372006067
660296040.0 0.0291120155 -0.0418380913 0.1395268137 -0.7817874284 0.1392608831 -0.7819523751 0.0283129665 -0.0381379499
665296010.0 0.0294040516 -0.0424272433 0.1310508038 -0.783235295 0.1313177254 -0.783054866 0.0274025732 -0.0375496243
670295980.0 0.0291332221 -0.0423220225 0.1221123023 -0.7846898276 0.1226206035 -0.7845164993 0.0268439591 -0.0382811465
675295950.0 0.0284302612 -0.04261965 0.1133262608 -0.78614384 0.1138182589 -0.7865704682 0.0267125401 -0.0381491919
680295920.0 0.0274772673 -0.0425630699 0.1049878656 -0.787282771 0.1051253104 -0.7870145683 0.0266353996 -0.0386502246
685295890.0 0.0266529893 -0.0428969211 0.0966476612 -0.7884462372 0.0963699958 -0.7888617597 0.0256253505 -0.0382843971
690295860.0 0.0264811118 -0.0430495375 0.0881243294 -0.7886592602 0.0874501271 -0.7890020008 0.0253285365 -0.0382932824
695295830.0 0.0262395552 -0.0434919527 0.0785586352 -0.7901214122 0.0784768911 -0.7902372178 0.0242810245 -0.0386773909
700295800.0 0.0255857212 -0.043578685 0.0703451768 -0.7909838259 0.0704971959 -0.7913938857 0.0236636149 -0.0393483145
705295770.0 0.0246739007 -0.0434150489 0.0617082539 -0.7916590754 0.06214836 -0.7912954982 0.022915807 -0.0392092926
710295740.0 0.023848346 -0.0434716276 0.0529701987 -0.7919191874 0.0529252596 -0.7918052595 0.0215142521 -0.0388087404
715295710.0 0.0235465626 -0.0438724967 0.044616271 -0.7929784456 0.0448913723 -0.7932836684 0.0216573089 -0.0399500416
720295680.0 0.0226523954 -0.0442744583 0.0359647715 -0.7926104525 0.0363850744 -0.7936620513 0.0216949983 -0.0394820513
725295650.0 0.0225233412 -0.0439598377 0.0273553134 -0.7929232161 0.0270294766 -0.7932107319 0.0208986459 -0.0391311724
730295620.0 0.0211703257 -0.0446053114 0.0186544309 -0.7936754671 0.0187394983 -0.7939235629 0.0202892015 -0.040433339
735295590.0 0.021258292 -0.0443764372 0.0106074067 -0.7940304416 0.0105158146 -0.7940143822 0.0197100136 -0.0398519574
740295560.0 0.0202597153 -0.0442299223 0.0013566505 -0.7934636739 0.0016027812 -0.7935272666 0.0195798709 -0.0400800392
745295530.0 0.01977739 -0.0447333798 -0.0063980659 -0.7937075479 -0.0071704473 -0.7940975386 0.0182296421 -0.040051216
750295500.0 0.0192701829 -0.0447071951 -0.015318121 -0.7929930698 -0.0155863142 -0.7935611592 0.0181183141 -0.0405050205
755295470.0 0.0190158217 -0.0444636233 -0.0240481778 -0.7935183863 -0.0241105822 -0.793499552 0.0168039916 -0.0401141811
760295440.0 0.0178005498 -0.0446481784 -0.03290839 -0.7928400003 -0.032924545 -0.7931797578 0.0159282809 -0.0405801546
765295410.0 0.0170036644 -0.0450379734 -0.0413059278 -0.7925105604 -0.0411667061 -0.7929958658 0.0166194977 -0.0399734206
770295380.0 0.0168460157 -0.0447658369 -0.0500468293 -0.7921219685 -0.0502524244 -0.7925453521 0.0159028339 -0.0399722163
775295350.0 0.0159460563 -0.0444820223 -0.0584139633 -0.7913531204 -0.0585719053 -0.7921109533 0.0146510757 -0.0413400993
780295320.0 0.0154432734 -0.0447167609 -0.0671189821 -0.7909855256 -0.0670781244 -0.7910216842 0.0141300249 -0.0402591111
785295290.0 0.0146928516 -0.044535613 -0.0758726287 -0.7889616391 -0.0761830774 -0.7900518591 0.0133088057 -0.0402920095
790295260.0 0.0139517717 -0.0447347728 -0.0838966657 -0.7893144087 -0.0841216875 -0.7895070409 0.0131942253 -0.0403838587
795295230.0 0.0132960597 -0.0445504981 -0.092635448 -0.7876881607 -0.0928532298 -0.788174567 0.0124063054 -0.0396316841
800295200.0 0.0128295967 -0.0443566115 -0.1015886051 -0.7872708817 -0.1019840855 -0.7876873728 0.011771675 -0.0398542622
805295170.0 0.0117792544 -0.0445295881 -0.1098694093 -0.7853901759 -0.1100394214 -0.7860272987 0.0111461609 -0.0404880708
810295140.0 0.0114778917 -0.0447648587 -0.1182822976 -0.7848447551 -0.1181284587 -0.7853439224 0.0108189951 -0.0401374004
815295110.0 0.0109563966 -0.0442337787 -0.1270609854 -0.7833632394 -0.1277106373 -0.783488746 0.0098593505 -0.0407077663
820295080.0 0.010283999 -0.0446852224 -0.135500374 -0.7815613827 -0.1357763111 -0.7824683615 0.0091711118 -0.0400216365
825295050.0 0.0095986575 -0.0447027069 -0.1441446719 -0.7799983939 -0.1444056895 -0.7805575738 0.008646853 -0.0398478544
830295020.0 0.0090369777 -0.044069791 -0.1526743334 -0.7784614544 -0.1537181063 -0.7791264122 0.0079511846 -0.039938388
