!Created with skrf (http://scikit-rf.org).
# Hz S RI R 50.0 
!freq ReS11 ImS11 ReS21 ImS21 ReS12 ImS12 ReS22 ImS22
300000.0 -0.7768819698 -0.1078201526 -0.0006875303 0.0022015318 -0.0009422641 -5.689e-05 -0.0513369442 -0.0649016709
5299970.0 -0.7849514733 -0.0062455563 -2.00444e-05 -3.49004e-05 -0.0002242293 -2.29438e-05 -0.0497143334 0.0155136625
10299940.0 -0.7883898081 -0.0042211977 3.71862e-05 -5.72508e-05 -0.0002228381 -6.94221e-05 -0.044101524 0.0334744498
15299910.0 -0.7935717954 -0.0024954004 -0.0002161723 -0.0001483378 -0.000286915 -0.0002438841 -0.0356741997 0.0482349742
20299880.0 -0.8004528417 0.0021921833 -7.89974e-05 -9.684e-07 2.6514e-06 9.84433e-05 -0.0254193649 0.0603420059
25299850.0 -0.8062543295 0.00794965 2.60339e-05 -9.6752e-05 -8.1303e-05 -0.000152054 -0.0140678503 0.0693386692
30299820.0 -0.8121913164 0.0150827236 -0.0001339929 0.0002575146 -0.0001343937 -0.0001606658 -0.0023087508 0.0762667842
35299790.0 -0.8173133667 0.0246654372 0.0002509347 0.0002276744 -0.0002432063 -2.3476e-05 0.0094722152 0.0810569747
40299760.0 -0.8213995512 0.0336576149 9.88595e-05 -0.0001244449 -1.69972e-05 -6.9367e-06 0.0206180161 0.0834177321
45299730.0 -0.8246043776 0.0428783222 0.0001100785 5.94932e-05 1.09003e-05 -5.05194e-05 0.0314082494 0.0851782955
50299700.0 -0.8266853316 0.0529842542 0.0002095182 -0.0001421123 -3.6192e-05 -5.42294e-05 0.0415398569 0.0849448092
55299670.0 -0.8289180822 0.0626696485 -1.54104e-05 9.70295e-05 1.75058e-05 3.28085e-05 0.0508315887 0.0837209208
60299640.0 -0.8304629004 0.0733058076 -5.38047e-05 -3.05486e-05 7.1639e-06 0.0002352629 0.0593919709 0.0815191481
65299610.0 -0.8309219069 0.0835412717 -3.23105e-05 2.08932e-05 0.0002062895 -8.72405e-05 0.0671795235 0.0789779923
70299580.0 -0.831614061 0.0932696613 -7.31726e-05 0.0001707863 -0.000168247 0.0001393967 0.0742216949 0.0758740548
75299550.0 -0.8318141796 0.1033991617 5.19181e-05 -0.0001420708 -0.0001578322 -0.0001137629 0.0804369424 0.0723994419
80299520.0 -0.8320843797 0.1131945013 -0.0002037293 1.54922e-05 0.0001063715 -3.00451e-05 0.0861124696 0.0690611418
85299490.0 -0.8308893602 0.1226171409 0.0004400469 4.28451e-05 -0.0001001477 -6.65889e-05 0.0910005523 0.0650830395
90299460.0 -0.8299731272 0.1322578743 -7.05602e-05 9.6573e-06 0.0001862534 0.0002309996 0.0957010481 0.0608976361
95299430.0 -0.8288034901 0.1415323568 0.0001834226 4.32936e-05 -0.0001493661 9.59797e-05 0.0996360921 0.0571036024
100299400.0 -0.8282342013 0.1505840162 -2.5755e-05 -5.35427e-05 7.2217e-05 -1.55056e-05 0.1036842893 0.0528473611
105299370.0 -0.8269640231 0.1599850645 -0.000128241 9.09334e-05 -1.63276e-05 0.0001535486 0.1073119734 0.048741574
110299340.0 -0.8253851086 0.169454406 0.0001008216 -0.0002093642 -0.000152694 -0.0001148089 0.1096783114 0.0446899417
115299310.0 -0.8236332068 0.1786725606 3.38415e-05 3.9669e-06 8.45201e-05 7.196e-07 0.1123741997 0.0408124418
120299280.0 -0.8221911968 0.186494764 0.0001719575 0.0001446854 -0.0001896478 5.36552e-05 0.1147953244 0.0367671621
125299250.0 -0.8201947283 0.1959762642 -0.0001222196 -0.0001365556 -2.57475e-05 5.71335e-05 0.1165887793 0.0327096786
130299220.0 -0.8186175415 0.2051380152 -0.0001468444 5.04964e-05 -0.0001064119 0.0002448958 0.1181037119 0.0288107564
135299190.0 -0.8169754438 0.214139976 0.0001431411 -3.1315e-05 8.61187e-05 -1.34659e-05 0.11991425 0.025167006
140299160.0 -0.8149181208 0.2232716096 1.44787e-05 8.24594e-05 0.0001685279 4.3983e-05 0.1210948951 0.0215581034
145299130.0 -0.8128430912 0.2323586706 -4.47207e-05 -2.07693e-05 -5.4074e-06 0.0002395189 0.1218537383 0.0180205261
150299100.0 -0.8106093448 0.2406454814 0.0001398994 -2.94187e-05 -0.000275498 9.48667e-05 0.123056716 0.01505327
155299070.0 -0.8076815916 0.2491471766 -7.7785e-06 -0.0001509953 3.17898e-05 0.000140928 0.1237402108 0.0114406895
160299040.0 -0.8052711575 0.2576965662 3.35596e-05 7.39985e-05 2.16596e-05 -1.2078e-05 0.1243431005 0.0083154808
165299010.0 -0.8027455916 0.2666085892 0.0001185624 0.0002010534 -2.77693e-05 0.0001821883 0.1248972119 0.0051660716
170298980.0 -0.7998191321 0.2753681071 8.00436e-05 2.06436e-05 1.56937e-05 5.53383e-05 0.1251284907 0.0018939654
175298950.0 -0.797331912 0.2839955755 0.000146322 -0.0001139386 -7.59073e-05 1.13896e-05 0.1255064355 -0.0014904156
180298920.0 -0.7944774279 0.2930791146 -0.0003043107 9.79855e-05 -0.0001328783 2.80204e-05 0.1252368872 -0.0041033972
185298890.0 -0.7913983121 0.3006700458 -1.79648e-05 4.88327e-05 9.18257e-05 -3.21661e-05 0.1252537361 -0.0073785166
190298860.0 -0.7885525491 0.3099217865 0.0002263918 0.0001404106 8.07244e-05 6.74253e-05 0.1255161131 -0.0097173949
195298830.0 -0.7851129433 0.318219044 -3.96524e-05 -7.72571e-05 -5.66648e-05 9.4866e-05 0.1252740589 -0.0128475573
200298800.0 -0.7817043519 0.3260652408 -7.27604e-05 0.0002510567 5.94752e-05 6.60976e-05 0.1249235341 -0.015481139
205298770.0 -0.7784544278 0.3344243707 7.97097e-05 9.54418e-05 7.48482e-05 0.0002534061 0.1244977789 -0.0183454663
210298740.0 -0.7747153727 0.3418683138 4.86769e-05 0.0001079466 -0.0001271571 -0.0002899197 0.1241642885 -0.0209444969
215298710.0 -0.7715765036 0.3504609861 1.10101e-05 0.000157507 8.2632e-06 3.02726e-05 0.1234092049 -0.0238155117
220298680.0 -0.7676289704 0.3584541122 -5.07382e-05 -0.0002064017 5.08484e-05 6.83712e-05 0.1229056346 -0.0263976404
225298650.0 -0.7650119587 0.3666693673 -0.0001144045 9.20115e-05 0.0001541777 8.51695e-05 0.122312781 -0.0286491386
230298620.0 -0.7602369039 0.3743868662 9.10683e-05 2.81631e-05 4.3473e-06 7.13964e-05 0.1218952322 -0.0309626582
235298590.0 -0.7566700999 0.3826211251 0.0001329663 0.000111934 0.0001558471 9.30317e-05 0.1211373003 -0.0335920488
240298560.0 -0.752609001 0.391341039 0.0001525516 1.1016e-05 0.0001804368 0.0001058283 0.1203688569 -0.0361566589
245298530.0 -0.7484674755 0.3987282283 6.3135e-05 5.0693e-05 9.17e-05 0.000133698 0.1196311585 -0.0383379405
250298500.0 -0.7439861401 0.4068436959 2.7238e-06 9.50119e-05 5.82758e-05 -3.07481e-05 0.1188331598 -0.0408958402
255298470.0 -0.739726183 0.4138683207 -0.0001722321 0.0003529282 8.97502e-05 1.9106e-06 0.1178831227 -0.0431709113
260298440.0 -0.7362181314 0.4216824705 2.95101e-05 4.2999e-05 0.0001373982 0.0001545566 0.1174284011 -0.0451621804
265298410.0 -0.7311481588 0.4297212903 0.0002336884 5.3862e-05 -4.15022e-05 2.69946e-05 0.1164041674 -0.0472781235
270298380.0 -0.7268256548 0.4372510174 0.0001374634 0.0001761229 0.000134414 -1.07575e-05 0.1155004708 -0.049244721
275298350.0 -0.7227130688 0.4447626319 0.0002024967 -1.0298e-05 -3.69483e-05 0.0002245234 0.1147380665 -0.0512295671
280298320.0 -0.7173691788 0.4520898138 5.98349e-05 0.0001130753 0.0001337307 -0.0001093755 0.1140675591 -0.0535742461
285298290.0 -0.7123153288 0.4602594848 6.29055e-05 7.19535e-05 -1.95238e-05 -1.97671e-05 0.1132455823 -0.0555214654
290298260.0 -0.7080615142 0.4673965768 2.9184e-05 4.09553e-05 7.5975e-06 0.0001931887 0.1124077389 -0.0575018231
295298230.0 -0.7025147956 0.4741257326 -9.32168e-05 -8.28412e-05 0.0001275296 0.0001577788 0.1113489355 -0.059690622
300298200.0 -0.6977279204 0.4819990924 0.0001778336 8.0639e-06 3.6529e-05 -0.000131882 0.1103667755 -0.0612359041
305298170.0 -0.692743861 0.4880031738 -6.1233e-05 0.0001111331 -0.0001571683 8.82316e-05 0.1096407444 -0.0633849752
310298140.0 -0.6877521022 0.4957835986 -4.80847e-05 0.0001812325 0.0001021165 -0.0002829183 0.1082825327 -0.0655702216
315298110.0 -0.6828409396 0.5035789601 -5.70123e-05 0.0001502432 5.57978e-05 -0.0001049119 0.1069429988 -0.0672790538
320298080.0 -0.6775019538 0.5098619408 2.3365e-06 -1.29984e-05 0.0001612002 -0.0001191154 0.1056784427 -0.0690692475
325298050.0 -0.6717563123 0.517151226 0.0001357839 3.75767e-05 1.07179e-05 6.46173e-05 0.1043258984 -0.0707045498
330298020.0 -0.6660715779 0.5243193914 0.0001255235 6.59737e-05 0.0001213668 1.00926e-05 0.1027705449 -0.0722167577
335297990.0 -0.6612447967 0.5310267622 0.0001450467 2.30528e-05 0.0001401653 2.50478e-05 0.1013162458 -0.073485218
340297960.0 -0.6555174209 0.5374507955 -4.0826e-06 8.46583e-05 3.62035e-05 6.93805e-05 0.1004397486 -0.0749514623
345297930.0 -0.6501733874 0.5442396527 0.0004143483 2.6794e-05 -8.8908e-05 0.0002335543 0.0984696412 -0.076378115
350297900.0 -0.6445012615 0.5506082979 -0.0001011701 6.70227e-05 6.45965e-05 4.01769e-05 0.0974340553 -0.0775791601
355297870.0 -0.6384337086 0.5582557589 7.46282e-05 -0.0001837103 8.02933e-05 0.0001024672 0.0956895587 -0.0792259429
360297840.0 -0.6327202579 0.56363969 -1.33233e-05 0.0001125715 -9.3427e-06 1.70813e-05 0.0945966692 -0.0806047847
365297810.0 -0.6276225326 0.5704163591 -6.20641e-05 -2.84162e-05 2.41134e-05 -0.0002004865 0.0931385437 -0.082000999
370297780.0 -0.6209803147 0.5769540854 0.0001289333 3.10552e-05 -4.16021e-05 2.14934e-05 0.0920783769 -0.0830301412
375297750.0 -0.6151765775 0.5832043519 7.75397e-05 0.0001341842 -6.27581e-05 -8.40507e-05 0.090418407 -0.0846516896
380297720.0 -0.6091312323 0.5889381981 -0.0002108082 5.8516e-05 4.80078e-05 0.0001356072 0.0885383723 -0.0857528107
385297690.0 -0.6036176293 0.5954527031 3.78058e-05 2.77865e-05 3.18677e-05 4.89355e-05 0.0872906331 -0.0872999921
390297660.0 -0.5970104424 0.6015531349 4.0719e-05 7.003e-05 -3.37191e-05 0.0001080122 0.0854331921 -0.0877743675
395297630.0 -0.5904357508 0.6080870049 0.0003498844 5.43057e-05 8.40678e-05 -4.62716e-05 0.084329557 -0.0891614176
400297600.0 -0.5841728318 0.6142690059 7.59769e-05 3.99641e-05 5.64615e-05 8.61022e-05 0.0828759637 -0.0901689945
405297570.0 -0.5786221324 0.6194072989 4.35746e-05 2.71801e-05 0.0002646582 5.39563e-05 0.0812166786 -0.0918548556
410297540.0 -0.5709510131 0.624959082 -4.16549e-05 -8.39387e-05 -9.45178e-05 3.00547e-05 0.0796240581 -0.0924534744
415297510.0 -0.5645381315 0.630877499 0.0003703623 0.0001630253 0.0001440474 -6.77057e-05 0.07822987 -0.0938461273
420297480.0 -0.559049219 0.6370427807 3.57505e-05 0.0001461418 0.0002607831 2.28864e-05 0.0768610629 -0.0949550375
425297450.0 -0.5520068254 0.6425495179 0.0002009587 0.0001049165 0.0002281843 -3.20455e-05 0.0754513517 -0.096122275
430297420.0 -0.5451797973 0.6482400335 0.0002397461 0.0001229198 3.81102e-05 0.0001641597 0.0735683185 -0.0972632568
435297390.0 -0.5391140223 0.653146367 2.84453e-05 -5.80589e-05 1.11354e-05 -2.00032e-05 0.0720947949 -0.0983396689
440297360.0 -0.5317182355 0.6587768506 -0.0001527639 0.0001686014 -0.0001130286 -3.09204e-05 0.0707334585 -0.0991587093
445297330.0 -0.5253085482 0.6642161423 7.48047e-05 -0.0002012211 0.000211772 -0.0001710659 0.0694420219 -0.1003596258
450297300.0 -0.5181995138 0.6692391589 8.8787e-06 0.0001159479 -0.0001503675 -2.2699e-06 0.0678546874 -0.1012182272
455297270.0 -0.5117458274 0.6742825999 0.0001757532 8.29122e-05 0.0001083255 -3.2771e-05 0.0660890491 -0.1019201686
460297240.0 -0.5054836641 0.6797264591 9.84108e-05 4.29909e-05 8.63419e-05 9.29055e-05 0.0645648475 -0.1027684757
465297210.0 -0.4978934052 0.6850963895 -2.48342e-05 2.82188e-05 4.39087e-05 -3.34248e-05 0.0633438216 -0.1038408288
470297180.0 -0.4902054514 0.6897466196 -1.70773e-05 -3.66726e-05 1.96442e-05 1.10698e-05 0.0616443623 -0.1044355123
475297150.0 -0.4833866364 0.6936712265 0.0002329581 0.0001024516 0.0001661726 -0.0001137868 0.0603272894 -0.1053723803
480297120.0 -0.4769034201 0.6995591014 -0.0001692299 -1.62822e-05 0.0001475001 5.11611e-05 0.0587142351 -0.1059255376
485297090.0 -0.4695859149 0.7039197506 4.13172e-05 2.91468e-05 0.0001765393 2.85693e-05 0.0570984266 -0.1065635238
490297060.0 -0.462230588 0.7086324481 0.0001237699 0.0001081649 6.2072e-05 7.96122e-05 0.0550911721 -0.1074964254
495297030.0 -0.4552944773 0.7129098383 3.33267e-05 0.0001657018 0.0001174403 2.46146e-05 0.0537911791 -0.1078624751
500297000.0 -0.4479091236 0.717727808 0.0001501691 -2.6222e-06 8.42263e-05 -7.18695e-05 0.0522956791 -0.1082056966
505296970.0 -0.4403030451 0.7226248494 6.48831e-05 -1.29438e-05 0.0002240415 -7.55388e-05 0.050821441 -0.1091835749
510296940.0 -0.4333947617 0.7266554468 0.0002009793 -1.49301e-05 0.0001838369 -3.68144e-05 0.0491380261 -0.109991583
515296910.0 -0.4248766443 0.7305067221 -3.04173e-05 4.8975e-06 0.0004136459 -0.0001481232 0.0474712957 -0.1100367428
520296880.0 -0.418585392 0.7356877663 -2.58551e-05 -2.75309e-05 9.48719e-05 1.0314e-06 0.0458671946 -0.1108724064
525296850.0 -0.4103988708 0.7385422329 -8.89525e-05 -4.83679e-05 0.0001011518 0.0001911329 0.0441851783 -0.111066678
530296820.0 -0.4026931953 0.7433912268 -8.55897e-05 -0.0001133082 0.0001396171 -0.0001619069 0.0423465585 -0.1117433265
535296790.0 -0.3960369904 0.7467991841 0.0003307919 -9.392e-05 0.0002534323 0.0001001466 0.0405978642 -0.1120901699
540296760.0 -0.3883335743 0.7508766841 0.0002807281 -5.941e-06 8.10906e-05 -0.0001194778 0.0389629488 -0.1125254882
545296730.0 -0.3804350564 0.7544747682 -0.0001508878 0.0002112587 0.0001487357 0.0001503029 0.0370030896 -0.1130554236
550296700.0 -0.37325928 0.7587582779 -7.09841e-05 6.10332e-05 -2.47373e-05 -6.33726e-05 0.0353337652 -0.1137020878
555296670.0 -0.3647527856 0.7620393696 9.0807e-05 -0.0002370794 -1.99527e-05 0.000306445 0.0338030775 -0.1134728189
560296640.0 -0.3579502702 0.7657227234 0.0003402903 9.21146e-05 0.0001268714 -4.3567e-06 0.0319051717 -0.1139234281
565296610.0 -0.3499151588 0.7694110218 0.0003651752 8.63693e-05 0.0001257064 5.73944e-05 0.0302096816 -0.1142750316
570296580.0 -0.3421276733 0.7724986224 0.0001700692 0.0001325924 -4.97308e-05 -7.41519e-05 0.0283347258 -0.1144814609
575296550.0 -0.3347104749 0.7768321722 8.35823e-05 -2.45354e-05 0.0001646612 -3.56859e-05 0.0269818676 -0.1148457934
580296520.0 -0.3267647621 0.7795620839 0.0001007746 0.0001678031 7.59804e-05 4.25178e-05 0.0250001099 -0.1152139506
585296490.0 -0.3194048706 0.7824818675 8.86329e-05 8.0357e-06 0.0001965824 0.0001631814 0.0235570127 -0.1158206503
590296460.0 -0.3107798126 0.785474023 -5.4251e-05 5.52992e-05 0.0003253923 -5.77684e-05 0.0215514262 -0.115382413
595296430.0 -0.3033018919 0.7881454053 0.0001356434 1.65783e-05 5.24738e-05 5.07721e-05 0.0198218587 -0.1164428569
600296400.0 -0.294887249 0.7920672289 -2.49694e-05 0.00026476 0.0001746758 6.49303e-05 0.018260412 -0.1164663579
605296370.0 -0.2878005636 0.7946781266 -3.40561e-05 3.21731e-05 0.0001398527 -2.02202e-05 0.0168414202 -0.1162540414
610296340.0 -0.2795067713 0.7977285245 0.0002407862 -0.0001218164 0.0002648323 -0.0002135378 0.0152367398 -0.1165337514
615296310.0 -0.2706026236 0.8002010756 0.0001754298 -1.86367e-05 6.48462e-05 9.34352e-05 0.0134210476 -0.1166161766
620296280.0 -0.2632841404 0.8019361653 0.0001228648 -6.26414e-05 0.0001624286 0.0001005392 0.0118325787 -0.1166345319
625296250.0 -0.2552322842 0.8055046386 0.0001923787 -8.08343e-05 0.0002769615 -1.85436e-05 0.0102717578 -0.1167376026
630296220.0 -0.2466272295 0.8075116985 0.0002985854 -0.0001483638 4.26762e-05 -3.65624e-05 0.0085951838 -0.1167173825
635296190.0 -0.2388676602 0.8104439117 0.0002646638 0.000100626 0.0001562991 5.08882e-05 0.0069298887 -0.1171203737
640296160.0 -0.2311598063 0.8124209489 -1.87589e-05 7.76009e-05 6.84718e-05 0.0001702388 0.0052156531 -0.1172302124
645296130.0 -0.2227276727 0.8150224112 8.55315e-05 1.55717e-05 0.0002180274 -8.14924e-05 0.0037394252 -0.1166147272
650296100.0 -0.2144735041 0.816444782 0.0002396932 -0.0001568064 0.0001847121 5.50316e-05 0.0022086557 -0.116747712
655296070.0 -0.2065226311 0.8190724073 0.0001840865 4.74366e-05 -1.4055e-06 0.0001001776 0.0006767255 -0.1165572987
660296040.0 -0.1985582928 0.820397242 0.0003487247 -3.41095e-05 0.0002562213 -0.0001587362 -0.0011379592 -0.1163705471
665296010.0 -0.1896287986 0.8222036943 0.0002834076 1.8334e-06 0.0002777082 -3.27667e-05 -0.0030243148 -0.1159200628
670295980.0 -0.1819260689 0.8244241201 0.0001384092 0.0001122239 0.0001173949 5.75493e-05 -0.0045507903 -0.115827626
675295950.0 -0.1735186699 0.8264352738 0.0001962948 0.0002138545 9.64903e-05 -7.31198e-05 -0.0063432784 -0.1153477833
680295920.0 -0.1654213862 0.8281506446 -2.26386e-05 3.2201e-05 4.58065e-05 -0.0001575491 -0.0074060572 -0.1153767946
685295890.0 -0.1567992072 0.8305451637 7.55589e-05 9.53621e-05 0.0001142504 -8.9847e-06 -0.0095845354 -0.114812667
690295860.0 -0.1491255623 0.8313027949 0.0002009582 -0.0001555471 0.0001708297 -2.00389e-05 -0.0110942597 -0.1144818505
695295830.0 -0.140813042 0.8319849426 -4.03888e-05 -9.2244e-06 0.0001603931 -9.15878e-05 -0.0127507296 -0.1142537833
700295800.0 -0.1321623825 0.8334862373 0.0001074518 0.0001083515 0.0001429401 -0.0001335486 -0.0144797433 -0.1139768804
705295770.0 -0.1247230597 0.8354797788 0.0001012607 -4.04472e-05 0.0001166787 -0.0001185379 -0.0161421412 -0.1131041633
710295740.0 -0.1159687728 0.8362691202 3.39708e-05 -0.0004461869 0.0001921917 0.0001155751 -0.0182424714 -0.1129277377
715295710.0 -0.1075187171 0.8375218016 0.0001313934 3.86463e-05 0.0001500712 -0.0001136092 -0.0194659169 -0.1127378185
720295680.0 -0.0993591678 0.8386218217 3.5429e-05 8.66357e-05 0.0001039647 1.31384e-05 -0.0210544188 -0.1123171723
725295650.0 -0.091252451 0.8399147049 0.0003800218 -3.95102e-05 0.0001283181 -0.000148777 -0.023240617 -0.1115581753
730295620.0 -0.0823541667 0.8401504918 -3.92734e-05 3.15917e-05 -9.78517e-05 4.26241e-05 -0.0246113589 -0.1114650249
735295590.0 -0.0745608264 0.8414120964 0.0001688651 -8.0086e-05 0.0002493333 -0.0001504279 -0.0268292332 -0.110987424
740295560.0 -0.0664150067 0.842324443 0.0002959804 0.000129007 0.0001983216 -2.15002e-05 -0.0277254954 -0.1104124115
745295530.0 -0.0577123743 0.8425390622 0.0002421967 -0.0001800769 0.0002072552 8.05624e-05 -0.0294449249 -0.1101868809
750295500.0 -0.0491501092 0.8431447715 0.0002018516 6.65858e-05 0.0002239739 -2.14636e-05 -0.0312693725 -0.1097943456
755295470.0 -0.0408123085 0.8429604946 -8.3007e-06 0.0001638067 9.50548e-05 1.09783e-05 -0.0326616099 -0.1093578916
760295440.0 -0.0330015205 0.8433003052 5.2486e-05 4.19729e-05 -0.0001610115 -6.28197e-05 -0.034542268 -0.108921218
765295410.0 -0.0241971433 0.8442355099 0.000172826 -2.25156e-05 0.0001579589 -0.0001044953 -0.0358523267 -0.1079990607
770295380.0 -0.0163259886 0.8441288444 0.0001949038 -3.11938e-05 0.00018477 -0.0003239576 -0.0378505434 -0.1076073586
775295350.0 -0.007921032 0.8444245367 4.58759e-05 -1.10626e-05 0.0001551576 -5.11239e-05 -0.0391311659 -0.1067393853
780295320.0 0.0005536579 0.8443118501 7.20281e-05 2.25388e-05 5.40434e-05 -1.3595e-05 -0.0406674892 -0.1063073921
785295290.0 0.0084411081 0.8433112808 -0.0001561416 -9.90397e-05 0.000153832 -4.11481e-05 -0.0419210807 -0.1057031102
790295260.0 0.0176992183 0.8436304367 9.30986e-05 -7.9165e-06 0.0002639374 -0.0001637426 -0.043236517 -0.1049124245
795295230.0 0.0251912098 0.843264463 0.0001859781 -0.0001443339 0.0001596425 -2.26314e-05 -0.0450551929 -0.1042889818
800295200.0 0.0342123445 0.843063266 0.0001692756 -0.0001076851 0.0001169168 -0.0002358133 -0.0466228385 -0.1035171043
805295170.0 0.0427007725 0.8428907184 0.000219912 -0.0001100598 0.0001184976 0.0002299617 -0.0476888596 -0.1025792031
810295140.0 0.0509737779 0.8423621823 3.74651e-05 -7.2198e-06 0.0001741901 -1.58601e-05 -0.0490111497 -0.1019437649
815295110.0 0.059015976 0.8417517267 4.83378e-05 0.0001962733 7.04716e-05 0.0001618317 -0.0506476723 -0.101374987
820295080.0 0.0669617516 0.8415674319 0.0001791984 -0.000182245 0.0003535104 -0.0002023275 -0.0520571886 -0.1003746251
825295050.0 0.0762931705 0.8401592003 -5.85301e-05 7.57104e-05 0.0001156854 3.43323e-05 -0.0534926957 -0.0994087035
830295020.0 0.0840459164 0.8398594023 2.46867e-05 -4.447e-05 0.0001693084 -0.0001261356 -0.0546290583 -0.0987727192
835294990.0 0.0923815359 0.8390381904 0.0002254591 2.38275e-05 0.0002149739 -0.0001032386 -0.0564520249 -0.0978319527
840294960.0 0.1002925657 0.8386987814 0.0002386701 6.95489e-05 0.0001472471 -6.57902e-05 -0.0574812998 -0.0967608072
845294930.0 0.1083844929 0.8373270003 0.0004463614 -0.0001683493 1.25098e-05 -0.0001755839 -0.0589909714 -0.0959079996
850294900.0 0.1165972615 0.8366427699 0.0001579265 1.32739e-05 7.01536e-05 -8.41037e-05 -0.0604125937 -0.0944728431
