!Created with skrf (http://scikit-rf.org).
# Hz S RI R 50.0 
!freq ReS11 ImS11 ReS21 ImS21 ReS12 ImS12 ReS22 ImS22
300000.0 -0.2301987032 -0.1255728129 0.4647426908 0.0822667902 0.4655654636 0.0815399043 -0.2330391559 -0.1264894594
5299970.0 -0.2417606937 0.0056244222 0.4748348151 0.0060018859 0.4753573546 0.0057635013 -0.2440623439 0.0048961346
10299940.0 -0.2387471023 0.0189482691 0.4774862446 0.0068202483 0.4772063563 0.0067918721 -0.2408264525 0.0174591177
15299910.0 -0.2336278617 0.0287026194 0.4805330772 0.0079894047 0.4811359431 0.0080320761 -0.23703776 0.0263346554
20299880.0 -0.2285191136 0.0367026931 0.4851207449 0.0083373371 0.4855856678 0.0083956164 -0.2321096367 0.0337410136
25299850.0 -0.2224988865 0.0437738239 0.4905672886 0.0074514147 0.4905881327 0.007083724 -0.2270903922 0.0400721188
30299820.0 -0.2169048958 0.0489679641 0.4961600307 0.0050091814 0.4958279842 0.0049297782 -0.2217856161 0.0450048719
35299790.0 -0.2111092024 0.0530627567 0.5007004055 0.0019514638 0.5013037625 0.001787232 -0.2169520637 0.049307459
40299760.0 -0.2062703331 0.0562439488 0.50653807 -0.0020682289 0.5066786855 -0.0022220277 -0.2118778048 0.0520499032
45299730.0 -0.20111193 0.0588576489 0.5111091322 -0.0069277729 0.5113687085 -0.0067880463 -0.2071455344 0.0548916913
50299700.0 -0.1960303162 0.0607349055 0.5155777626 -0.0124232748 0.5153386157 -0.0125327053 -0.2026152664 0.0570007755
55299670.0 -0.1916617469 0.0626285973 0.5187444653 -0.0181456525 0.5186159668 -0.0182942751 -0.1991048538 0.0583722953
60299640.0 -0.1877164411 0.0643006547 0.5222496941 -0.024798941 0.5222172723 -0.0245681152 -0.1955374516 0.0595760157
65299610.0 -0.1841290562 0.065250091 0.5255619413 -0.0307024119 0.5252820699 -0.031204779 -0.1919078739 0.0609390978
70299580.0 -0.1808119806 0.0659165724 0.5274676566 -0.0375426653 0.5278605779 -0.0374457944 -0.1891585463 0.0620833581
75299550.0 -0.1778188559 0.0669681997 0.5293295217 -0.044811519 0.5300008756 -0.0443424034 -0.1862939554 0.0627984167
80299520.0 -0.1752520995 0.0677862853 0.5310264302 -0.0513389688 0.5318605327 -0.0513426987 -0.1840307598 0.0634955653
85299490.0 -0.1723895222 0.0684502214 0.5327575184 -0.0583417506 0.5330085281 -0.0582388506 -0.1815551228 0.0640728289
90299460.0 -0.1699961294 0.0692309768 0.5329698923 -0.0651687917 0.5335392953 -0.0651295312 -0.179285827 0.0646445238
95299430.0 -0.1680742214 0.0699314772 0.534503396 -0.0722689445 0.5348117696 -0.0722607441 -0.1776012659 0.06537863
100299400.0 -0.1658585772 0.0704111156 0.5348646898 -0.0789310134 0.5349690332 -0.0789933207 -0.175868846 0.0665123657
105299370.0 -0.1641175487 0.0710877335 0.5350874957 -0.0854535845 0.535794984 -0.0858026377 -0.1739698031 0.0668767338
110299340.0 -0.162288849 0.0715562044 0.5351231902 -0.0922657732 0.5356184679 -0.0922467419 -0.1730812773 0.0671674632
115299310.0 -0.1608078821 0.0724802461 0.5352596935 -0.0992302421 0.5351450425 -0.0992611445 -0.1713318369 0.0683476473
120299280.0 -0.1593330461 0.0732455809 0.5352499169 -0.1066199364 0.5350491125 -0.1065458042 -0.1701368852 0.06877961
125299250.0 -0.1580954659 0.073981147 0.5345221933 -0.1125183124 0.5348527355 -0.1128805612 -0.1687340169 0.0699058773
130299220.0 -0.1566398249 0.0746937281 0.5342033106 -0.119558895 0.5339023521 -0.1202097199 -0.1676921883 0.0704094405
135299190.0 -0.1555974115 0.0760903975 0.5336379382 -0.1261749548 0.5338827103 -0.1263968506 -0.1666310641 0.0709334105
140299160.0 -0.1541346391 0.0767332904 0.5327528674 -0.1330286718 0.5328594307 -0.1326802735 -0.1663418783 0.0717916808
145299130.0 -0.1533842939 0.0778926938 0.5316206591 -0.1395805525 0.5316864803 -0.1397812332 -0.1649761282 0.072603142
150299100.0 -0.152249835 0.0789526709 0.5309871233 -0.1462920055 0.5305634441 -0.1461530964 -0.164215131 0.0738954731
155299070.0 -0.1508359159 0.0801048947 0.5289595377 -0.15246938 0.5294238324 -0.1526280713 -0.1631997894 0.0749355457
160299040.0 -0.1499469711 0.0813084416 0.5280415757 -0.1590341538 0.5277597936 -0.1592755001 -0.1627296957 0.075919408
165299010.0 -0.1486419137 0.082340067 0.5265651999 -0.1651011686 0.5265623824 -0.1657525038 -0.1616780369 0.0767978863
170298980.0 -0.1480250252 0.0833899998 0.5247247768 -0.1713611794 0.5251257162 -0.1719904751 -0.1610742615 0.0778004206
175298950.0 -0.1467193841 0.0846814531 0.5238097455 -0.1779911744 0.5239707608 -0.1783851374 -0.1603633285 0.0791428914
180298920.0 -0.1460330508 0.0859891613 0.5216871965 -0.1843797069 0.5216877395 -0.184906645 -0.1593244554 0.079958913
185298890.0 -0.1453772773 0.0871064599 0.5203855256 -0.1902254183 0.51978872 -0.1909375988 -0.1584090371 0.0810325074
190298860.0 -0.1437327242 0.0887947477 0.5174244711 -0.1967190837 0.5178818219 -0.1966015301 -0.1580426699 0.0822471757
195298830.0 -0.1430429605 0.0902412224 0.5165432282 -0.2025710154 0.5161838658 -0.2031203893 -0.1572824646 0.083706665
200298800.0 -0.141915696 0.0909876674 0.5139102537 -0.2090278703 0.5140285129 -0.2089787569 -0.1565045456 0.0844579777
205298770.0 -0.1415541138 0.092319868 0.5116351341 -0.2149017614 0.5115447399 -0.2148293717 -0.1554891642 0.0857618792
210298740.0 -0.1403165373 0.0939989941 0.5095376341 -0.2209053979 0.5092466908 -0.2211190546 -0.15528554 0.0869360861
215298710.0 -0.1392390964 0.0954448538 0.5069582137 -0.2268821478 0.5069927148 -0.2273960643 -0.1541570111 0.0883676573
220298680.0 -0.138029342 0.0970080183 0.5046663685 -0.232579351 0.5046413509 -0.2330520328 -0.1534914201 0.0895979858
225298650.0 -0.137139495 0.0984113325 0.5016864914 -0.2387246392 0.5023296099 -0.2384368612 -0.152676411 0.0907158329
230298620.0 -0.1360246744 0.1000893104 0.4998517406 -0.2446429313 0.499878395 -0.244821061 -0.1523807156 0.0919870729
235298590.0 -0.1355765885 0.1013541437 0.4972671108 -0.2505143678 0.4971168715 -0.2501225733 -0.1512400591 0.0931903017
240298560.0 -0.1341570765 0.1028373595 0.4943280285 -0.2558219399 0.4944764003 -0.2560027324 -0.1503967883 0.0946039069
245298530.0 -0.1333787439 0.1040312113 0.4915454633 -0.2616715637 0.4917949601 -0.2617561618 -0.1497920597 0.0959118823
250298500.0 -0.1326037236 0.1054513627 0.4891330772 -0.2672577765 0.4888199542 -0.2671925843 -0.1489189174 0.0973825791
255298470.0 -0.1311636644 0.1070998312 0.4862787872 -0.2725404253 0.4864916492 -0.272865635 -0.1482653073 0.0988467068
260298440.0 -0.1301169225 0.1082494084 0.4832410251 -0.2778503779 0.4831754371 -0.2779017025 -0.1474488508 0.0996498926
265298410.0 -0.1293832863 0.1099091229 0.4799870382 -0.2836914184 0.4796230558 -0.28428513 -0.1459613907 0.101179225
270298380.0 -0.1282632066 0.1110150751 0.4765951063 -0.2892945037 0.4769751059 -0.2890290324 -0.145312132 0.102600831
275298350.0 -0.1268515545 0.1130532427 0.4733964346 -0.2942414004 0.4735036727 -0.294559798 -0.1446166033 0.1038263429
280298320.0 -0.126289856 0.1145965368 0.470469545 -0.2994685996 0.4710076857 -0.3002165936 -0.1433416084 0.1053485917
285298290.0 -0.125055982 0.1158537238 0.4670670486 -0.3051044709 0.4678060169 -0.3048013074 -0.1427269382 0.1065963047
290298260.0 -0.1237857796 0.1172524144 0.4645317784 -0.3105762615 0.4641590281 -0.3106709357 -0.1417181493 0.1081397704
295298230.0 -0.1226818029 0.1184561723 0.4605207705 -0.3157839929 0.4610937115 -0.3161069342 -0.1409786151 0.1090561632
300298200.0 -0.1211809748 0.1201259616 0.4572700516 -0.3209414635 0.4576162773 -0.3210204047 -0.1398503541 0.1104967406
305298170.0 -0.1200794631 0.1212515892 0.4537309317 -0.3264834718 0.4543210719 -0.3264422758 -0.1387119649 0.1115655749
310298140.0 -0.1184644816 0.1224891504 0.4506524538 -0.3312927647 0.4506045033 -0.3311317459 -0.1374611381 0.1128066666
315298110.0 -0.1176560976 0.1237438393 0.4468214126 -0.3372311347 0.4469310139 -0.3370216348 -0.1365850476 0.1142774708
320298080.0 -0.1165162279 0.1251242827 0.4424466462 -0.3418370185 0.443625545 -0.3419989238 -0.1358758236 0.115251248
325298050.0 -0.1156003227 0.1258216623 0.4387545332 -0.3467405413 0.4396421722 -0.3468173474 -0.1345343888 0.1163128124
330298020.0 -0.1147700476 0.1276583473 0.4350031886 -0.3519299296 0.4355591463 -0.3518070264 -0.1340643922 0.1177305843
335297990.0 -0.1135328446 0.128822846 0.4311337415 -0.3563254451 0.4315597997 -0.3568097162 -0.1333594427 0.1191298092
340297960.0 -0.1123092384 0.1301649556 0.4269312089 -0.3617078874 0.4270905929 -0.3617197006 -0.1319546973 0.1206759429
345297930.0 -0.1113172987 0.1315168161 0.4231437393 -0.3661790954 0.4232611819 -0.3665590521 -0.1310680087 0.1219518539
350297900.0 -0.1102364191 0.1326492498 0.4191152084 -0.3703339804 0.4194237732 -0.370469218 -0.1302763578 0.1228035866
355297870.0 -0.1088232041 0.1342652132 0.4152028655 -0.3748944341 0.4148149789 -0.3753380185 -0.1285611406 0.1245381426
360297840.0 -0.1070706629 0.1355774353 0.4103053282 -0.3800905208 0.4108195124 -0.3803024281 -0.1280619652 0.1263870643
365297810.0 -0.1062407372 0.1371220644 0.4064779718 -0.384213773 0.4067053871 -0.3846061108 -0.1272548396 0.1272679863
370297780.0 -0.1047299846 0.1384355979 0.4019456366 -0.3888046933 0.4025847548 -0.388779515 -0.1259280653 0.1286739478
375297750.0 -0.1032577552 0.1398940293 0.3981629017 -0.3932365097 0.3982818102 -0.3934813242 -0.124300219 0.1301892324
380297720.0 -0.102259158 0.1410302619 0.3939363068 -0.3979379345 0.3933662132 -0.3975305346 -0.1231937191 0.1316630226
385297690.0 -0.1006589655 0.1421933321 0.3890100302 -0.4018081869 0.3896149586 -0.402527018 -0.1221080718 0.1331446375
390297660.0 -0.098937347 0.1432276793 0.384724965 -0.4056832327 0.385009783 -0.4063010241 -0.1202576001 0.1339014701
395297630.0 -0.097244053 0.1448534027 0.3810067988 -0.4098790264 0.3803824361 -0.410119637 -0.1193241559 0.1351042956
400297600.0 -0.0963399086 0.1459174289 0.3758180525 -0.4146369921 0.3764405155 -0.4144547078 -0.1183678128 0.1368630227
405297570.0 -0.0946945713 0.1463859341 0.3713051893 -0.4181395368 0.3714997204 -0.418436051 -0.1168027123 0.1380378757
410297540.0 -0.0932884217 0.1482660132 0.3670535851 -0.4230285762 0.3668239403 -0.4222845287 -0.1154704725 0.1391700562
415297510.0 -0.0918165926 0.1492792668 0.3624188219 -0.426593305 0.3626362131 -0.4270015063 -0.1140996299 0.1408168335
420297480.0 -0.0899888958 0.1497434779 0.3572639035 -0.4305175312 0.3576593097 -0.430565807 -0.1126658362 0.1420822629
425297450.0 -0.0879579931 0.1512393522 0.3531551216 -0.4343412209 0.3528715799 -0.4342439197 -0.1115357473 0.1428343888
430297420.0 -0.0868388198 0.152366702 0.3482905536 -0.4381750607 0.3484280144 -0.4376028788 -0.1096952961 0.1440990975
435297390.0 -0.0850287204 0.1533890819 0.3429132455 -0.4423424733 0.3428412443 -0.4418719203 -0.1087890442 0.1458215217
440297360.0 -0.0833304512 0.1545302882 0.3382953434 -0.445670892 0.3381614713 -0.4457713596 -0.1074358997 0.1466692526
445297330.0 -0.0818637033 0.1552782032 0.3334401404 -0.4492804928 0.3335174182 -0.4498638403 -0.1058002241 0.1482795552
450297300.0 -0.0798399702 0.1562021597 0.3285426536 -0.4526605874 0.3290780001 -0.4526336368 -0.1042459484 0.1493266507
455297270.0 -0.0788668295 0.15714218 0.3238519577 -0.4563218805 0.3236300779 -0.4566181081 -0.1027598923 0.1504567374
460297240.0 -0.0764590573 0.158379565 0.3188720445 -0.4608186589 0.3183490436 -0.4602332738 -0.1013215838 0.1514875624
465297210.0 -0.0746820906 0.1590972251 0.3134205474 -0.4637849968 0.3130035792 -0.464085786 -0.0997017762 0.1532080896
470297180.0 -0.0730851848 0.16007283 0.3084033951 -0.4666686989 0.3087166632 -0.4669371995 -0.0982564144 0.153662459
475297150.0 -0.0715313086 0.1612293203 0.3032681444 -0.4703045424 0.3036165425 -0.4706906352 -0.0969136281 0.1548767418
480297120.0 -0.0692360466 0.1623509769 0.298120751 -0.4735735155 0.298447623 -0.4735948347 -0.0956465583 0.155966689
485297090.0 -0.0673634024 0.1627871739 0.292993181 -0.4769579266 0.2929239907 -0.476833407 -0.093898447 0.1573955267
490297060.0 -0.0651813033 0.1637535551 0.287456805 -0.4800279581 0.2878980027 -0.4799121171 -0.0926004092 0.1579184811
495297030.0 -0.0639169436 0.1642341591 0.2827917491 -0.483145441 0.2824933778 -0.4831307282 -0.0907253283 0.1588978024
500297000.0 -0.0621039593 0.1653708586 0.2778060831 -0.4858888942 0.27743727 -0.486316601 -0.0891995959 0.1599872423
505296970.0 -0.059855106 0.1661943832 0.2718420936 -0.489231981 0.2718331504 -0.4886962576 -0.0876017353 0.1604194458
510296940.0 -0.0580173577 0.1668460383 0.2669412113 -0.4923434499 0.2666175016 -0.4925244124 -0.0854190926 0.1622818445
515296910.0 -0.0562523881 0.1679019471 0.2608057016 -0.494711627 0.260979984 -0.494969349 -0.0844109136 0.162688067
520296880.0 -0.0544208822 0.1686580647 0.2557202821 -0.497380345 0.2555684008 -0.497215354 -0.0821012608 0.1640408387
525296850.0 -0.0521427208 0.1692153761 0.2504755513 -0.5002095574 0.250043776 -0.5003383223 -0.0808425313 0.1647976376
530296820.0 -0.0504947069 0.1699837716 0.2448723141 -0.5032689539 0.2450912361 -0.5027764604 -0.0792639998 0.1655740938
535296790.0 -0.0478706743 0.1706089417 0.239449506 -0.5054689443 0.2396656402 -0.5054412653 -0.0773711951 0.1666659318
540296760.0 -0.0461730533 0.1716418496 0.2335815179 -0.5082877599 0.2336235139 -0.5081126414 -0.0759749616 0.1672801185
545296730.0 -0.0448438316 0.1722517648 0.2283035619 -0.5098983646 0.2281205629 -0.510356464 -0.0742501851 0.1680819518
550296700.0 -0.0420953414 0.1730948728 0.2226188431 -0.5132140785 0.2226207824 -0.5131189415 -0.0721622003 0.1690100288
555296670.0 -0.0403613195 0.173408048 0.2171493668 -0.5155555889 0.2169057393 -0.5156150972 -0.0710187911 0.1696091626
560296640.0 -0.0381181316 0.1740075044 0.2116503892 -0.5175233262 0.2120050994 -0.5178473252 -0.0691774437 0.1708552342
565296610.0 -0.0365294899 0.1748123405 0.2062402095 -0.5201907893 0.2064890611 -0.5196138873 -0.0676632197 0.1716708961
570296580.0 -0.0347037594 0.1755695934 0.2001619167 -0.5219435906 0.2000679531 -0.5220862122 -0.0659830034 0.172100247
575296550.0 -0.0321669239 0.1755285811 0.1946185512 -0.5242111456 0.1944660677 -0.524202186 -0.0641183214 0.1730976468
580296520.0 -0.0302728722 0.1767559668 0.1889633897 -0.526390275 0.1888219725 -0.5262889773 -0.0626658334 0.1736139578
585296490.0 -0.0282151287 0.1770382041 0.1835538248 -0.5279107575 0.1827238398 -0.5281916244 -0.0603100868 0.1747145141
590296460.0 -0.025252087 0.1774336697 0.1773915127 -0.5297708917 0.1773709701 -0.5304388616 -0.0590910939 0.1751278589
595296430.0 -0.0236564487 0.1778896878 0.1713186952 -0.5319063628 0.1711234921 -0.532178276 -0.0571320838 0.1757287135
600296400.0 -0.0217578252 0.178460426 0.1655968138 -0.5337225696 0.1652960156 -0.5338091825 -0.0551159684 0.1765577566
605296370.0 -0.019876106 0.1791204314 0.1603519539 -0.5353965739 0.1593969856 -0.5358932439 -0.053577005 0.177395155
610296340.0 -0.0176053779 0.1797196679 0.1542698789 -0.5365851609 0.1543345841 -0.5367424741 -0.0521998733 0.1777889283
615296310.0 -0.0154109714 0.180020153 0.1480204315 -0.5389428231 0.1476795354 -0.5390197894 -0.049813817 0.1787001507
620296280.0 -0.0132464422 0.1808386331 0.1420081018 -0.5401541613 0.1420615368 -0.5405244793 -0.0487656138 0.1794942048
625296250.0 -0.0116463243 0.1808478316 0.1362614268 -0.5419550712 0.1366794129 -0.5418349975 -0.0470360731 0.1797816378
630296220.0 -0.0090280795 0.1814419561 0.1304858742 -0.5436623569 0.1305108508 -0.5432923442 -0.0450388675 0.180386508
635296190.0 -0.0075657571 0.1818653323 0.1249165934 -0.5445191757 0.1245906538 -0.544413217 -0.0430138554 0.1807690449
640296160.0 -0.0052002078 0.182119216 0.1186344035 -0.546326059 0.1187602607 -0.54601419 -0.0417515451 0.1816089247
645296130.0 -0.003093493 0.1827432451 0.1131405304 -0.5470637015 0.1130012234 -0.5470341014 -0.0398134365 0.1818571204
650296100.0 -0.0012674714 0.182592629 0.1069618214 -0.5482828541 0.1068763461 -0.5486692826 -0.0374143468 0.1823896154
655296070.0 0.0005470875 0.1829511765 0.1009428619 -0.5495437305 0.1009090967 -0.5490674456 -0.0364141639 0.1831845957
660296040.0 0.0028306467 0.183134532 0.0949608748 -0.5503471899 0.0951245742 -0.5509012287 -0.0342894046 0.1833600585
665296010.0 0.0049613288 0.1833916697 0.0885371466 -0.5510867548 0.0888553548 -0.5511220787 -0.0325477511 0.1839881805
670295980.0 0.0070395536 0.1837994232 0.0831903233 -0.5524516203 0.082709931 -0.5518292505 -0.0310734668 0.1841031058
675295950.0 0.0092355183 0.1835942184 0.0768293701 -0.5526358364 0.0770882647 -0.5529518335 -0.0289856656 0.1848460468
680295920.0 0.0108364392 0.1839752291 0.0712844007 -0.55370068 0.0713221893 -0.5536088223 -0.0272076518 0.1848954568
685295890.0 0.0134377078 0.1844659867 0.0650202425 -0.5548054886 0.065096004 -0.5546250991 -0.0251875945 0.185895141
690295860.0 0.0152275701 0.1845856331 0.0592059425 -0.5552784736 0.0587259796 -0.555032954 -0.023352286 0.1861388004
695295830.0 0.0173238077 0.1845021668 0.0535853654 -0.5560910316 0.0529875065 -0.5556325614 -0.021725258 0.1865200571
700295800.0 0.0194663411 0.1845776248 0.0475227675 -0.5559783283 0.047129387 -0.5559050858 -0.0198122401 0.1869773528
705295770.0 0.0213358549 0.1848117134 0.041507944 -0.5574104294 0.0413964006 -0.5564495399 -0.0183343684 0.1875899141
710295740.0 0.0230583597 0.1845357724 0.0356806022 -0.5571838721 0.0350955213 -0.5570828086 -0.0162279645 0.1877996349
715295710.0 0.0253543846 0.1848801792 0.029338639 -0.5576472236 0.029330659 -0.5575113165 -0.0145193282 0.1876000062
720295680.0 0.0276886623 0.1844695463 0.0232122361 -0.5569903011 0.0229747155 -0.5579141529 -0.0124971079 0.1880054846
725295650.0 0.029054757 0.1849606274 0.0177361131 -0.5577195914 0.0169340238 -0.5580131064 -0.0108224457 0.1889104809
730295620.0 0.0305947906 0.1846152728 0.0113592316 -0.5576640496 0.0113982983 -0.5577658119 -0.0094775524 0.1892685571
735295590.0 0.0331001645 0.1846717373 0.0053862624 -0.55836561 0.0051507451 -0.5580173014 -0.0071395407 0.1891250901
740295560.0 0.0349058067 0.1843570225 -0.0004782752 -0.557774617 -0.0005024873 -0.5582226852 -0.0058015073 0.1894055242
745295530.0 0.0371803934 0.1843830127 -0.006673869 -0.5574646976 -0.0057590017 -0.5580861404 -0.0042340594 0.1893472497
750295500.0 0.038646418 0.1842473049 -0.0120803432 -0.557828204 -0.0127004123 -0.5577952065 -0.0018419931 0.1898735646
755295470.0 0.0407522801 0.1839912797 -0.0183648526 -0.5576602344 -0.0183646514 -0.5578625845 9.94945e-05 0.1902631624
760295440.0 0.0426018693 0.1841109787 -0.0248378679 -0.5572789746 -0.0247669985 -0.557025645 0.0020522796 0.1895596065
765295410.0 0.0448623983 0.1836765183 -0.0304010533 -0.5571084643 -0.0302850332 -0.5570091936 0.0037350785 0.1901513204
770295380.0 0.0464589205 0.1836198413 -0.0362454163 -0.5565777102 -0.036330449 -0.5569084228 0.0050364297 0.190519527
775295350.0 0.0484949494 0.1831197892 -0.0423891712 -0.5562906107 -0.0423021947 -0.5558616066 0.0074660686 0.1904174008
780295320.0 0.0503304808 0.1829285956 -0.0482831558 -0.5556798016 -0.048432786 -0.555712117 0.0095312276 0.190315059
785295290.0 0.0524825024 0.1825226683 -0.0540505902 -0.5551381571 -0.0538285838 -0.555076414 0.0107671619 0.1910621794
790295260.0 0.0543382312 0.1819391155 -0.0603820778 -0.5544794301 -0.0598225524 -0.555138973 0.0124815841 0.191314468
795295230.0 0.0558335842 0.1815390991 -0.0663667248 -0.5539384211 -0.0660758485 -0.5541997524 0.0144957322 0.1904702782
800295200.0 0.0577220558 0.1814880324 -0.0714167565 -0.5527170515 -0.0719647463 -0.5531217272 0.0162315626 0.1907002793
805295170.0 0.0598926425 0.1810618501 -0.0778075973 -0.5522676436 -0.0778663259 -0.5523438916 0.0188893719 0.1906514128
810295140.0 0.06179485 0.1804869497 -0.0839377614 -0.5511464087 -0.0837847219 -0.5514452079 0.0204908057 0.1907482773
815295110.0 0.063663071 0.1799931337 -0.0895292081 -0.5504231095 -0.0895103295 -0.5505353083 0.0220132245 0.1905859925
820295080.0 0.0655160344 0.1794738564 -0.0951495809 -0.5492911265 -0.0953231742 -0.5498374069 0.0233969371 0.1912830478
825295050.0 0.0672616898 0.1786883584 -0.1013728401 -0.5479721229 -0.1013522154 -0.5482586392 0.0259216863 0.1910827988
830295020.0 0.0692349036 0.178414648 -0.1071717818 -0.5472188546 -0.1072472996 -0.5472377596 0.0276208324 0.1902823839
