!Created with skrf (http://scikit-rf.org).
# Hz S RI R 50.0 
!freq ReS11 ImS11 ReS21 ImS21 ReS12 ImS12 ReS22 ImS22
300000.0 -0.7758593488 -0.1237445194 -0.0003763089 0.0001772509 0.0001091456 0.0007039374 0.8593382147 -0.0026883538
5299970.0 -0.7854261459 -0.0069505489 0.0001356134 -0.0001042494 -5.81857e-05 -0.0001717261 0.8597362341 -0.0099537463
10299940.0 -0.7880655313 -0.0043460371 -9.08364e-05 -0.0001043045 -0.0002727694 -5.81336e-05 0.8586548775 -0.0187752672
15299910.0 -0.7933754823 -0.0022536992 -0.0003058286 -0.0001089145 -0.0002075266 -2.697e-06 0.8574140961 -0.0276042158
20299880.0 -0.8002701989 0.001639483 -0.0001099972 0.0001365804 0.0001863273 1.39333e-05 0.8570774835 -0.0355795509
25299850.0 -0.8063794851 0.0077134019 0.0002177949 -5.281e-07 0.0001927458 -0.0001660179 0.8563843939 -0.0433260957
30299820.0 -0.8124507023 0.0152607246 0.0001352562 -1.52544e-05 0.000263867 -2.77711e-05 0.8554689513 -0.0524091916
35299790.0 -0.8173420925 0.0247058067 -3.18247e-05 -5.24952e-05 -3.1093e-06 -6.25878e-05 0.8546825818 -0.0596414103
40299760.0 -0.8213321026 0.0334411249 -0.0001714881 0.0001961783 9.77331e-05 3.48494e-05 0.8535424044 -0.0678407
45299730.0 -0.8246462246 0.0425348475 6.59997e-05 8.39044e-05 -0.0001256145 4.36165e-05 0.8521451942 -0.076368698
50299700.0 -0.8268241921 0.0530644824 6.44814e-05 1.88649e-05 0.0002044084 -9.37516e-05 0.8516898103 -0.0840868036
55299670.0 -0.8295629882 0.0624884133 3.04943e-05 -1.7389e-05 -0.0002084316 0.0001480854 0.8509649974 -0.0930348855
60299640.0 -0.8300505707 0.0733632436 -2.57829e-05 -0.0001280204 4.83555e-05 1.35566e-05 0.8496952534 -0.1006499063
65299610.0 -0.8310493285 0.0833011844 0.0001115234 0.0001371224 -4.10273e-05 3.80985e-05 0.8489246248 -0.1085947419
70299580.0 -0.8313951766 0.0934167361 0.0001236085 -0.0001269935 0.000112775 -1.06928e-05 0.8472176682 -0.1171937269
75299550.0 -0.8322957706 0.1040519407 -7.83162e-05 0.0002125607 -7.34838e-05 0.0001627888 0.8458408616 -0.1258193059
80299520.0 -0.8316066745 0.1134708011 0.000105556 0.0001627647 -0.0001471373 -0.000157177 0.8450663368 -0.1338816647
85299490.0 -0.8312051811 0.1226539514 -0.0001034935 -2.0323e-05 4.80778e-05 -5.9125e-05 0.8438308544 -0.1417964369
90299460.0 -0.8302501059 0.1321604285 -2.37205e-05 -0.0001153643 3.91006e-05 0.0002086965 0.8419591539 -0.1500960695
95299430.0 -0.8296096192 0.1417631416 0.000120117 -0.0001405326 0.0001842895 0.0001857268 0.8403140812 -0.1582013278
100299400.0 -0.8279834025 0.1505299617 -6.62955e-05 -5.2262e-06 4.02655e-05 1.25139e-05 0.8390576137 -0.1668643233
105299370.0 -0.8270088195 0.1599078249 -0.0002834615 0.0002286415 -0.0001940757 -1.64088e-05 0.8374131637 -0.1745483456
110299340.0 -0.8251995451 0.1692876314 0.0001282878 -4.88646e-05 -4.77493e-05 4.30948e-05 0.8358473314 -0.1829479512
115299310.0 -0.8235979854 0.1785426232 -1.94083e-05 0.0001141371 -5.84625e-05 -6.6985e-06 0.8339944126 -0.1909255588
120299280.0 -0.8215267139 0.1871687674 2.4632e-05 -0.0002153991 3.55851e-05 0.0001753517 0.8324305793 -0.1988893175
125299250.0 -0.8199543297 0.1955131579 -3.12267e-05 5.3575e-05 -0.000116791 4.55228e-05 0.830207163 -0.2066329219
130299220.0 -0.8187388677 0.2053899775 9.24557e-05 7.20297e-05 -0.0002039275 2.90905e-05 0.8283601932 -0.2148106749
135299190.0 -0.816645673 0.2135891615 -0.0002947397 3.94112e-05 -0.0001083503 -7.63689e-05 0.826241286 -0.2226558883
140299160.0 -0.8150986206 0.2229065665 -0.0001803385 -5.76528e-05 -0.000172624 0.0001277977 0.8245425708 -0.2307009455
145299130.0 -0.8124917873 0.2323078625 0.0001972635 -0.000205857 -7.9789e-06 0.0002523413 0.8218241911 -0.2385868331
150299100.0 -0.8102517215 0.2407919383 8.65839e-05 6.78301e-05 -4.36418e-05 -0.0001069317 0.8197746489 -0.2468912503
155299070.0 -0.8080876763 0.2494103241 -6.13727e-05 7.56702e-05 -6.3342e-05 0.0001086894 0.8176465291 -0.2547357055
160299040.0 -0.8048816925 0.2578160957 -4.78362e-05 -0.0001247957 8.21948e-05 -1.14498e-05 0.8144942026 -0.2623657892
165299010.0 -0.8024301852 0.2664198178 5.3616e-05 2.26175e-05 -2.938e-06 0.0001262656 0.8120701221 -0.2703042697
170298980.0 -0.7999864298 0.2751449641 -3.435e-07 -2.34578e-05 0.0002348482 9.02824e-05 0.808935035 -0.2777926369
175298950.0 -0.7968825132 0.2840459546 -6.34883e-05 -0.0001976803 3.81666e-05 -3.12869e-05 0.8067970004 -0.2862649304
180298920.0 -0.7941702884 0.2927481614 -6.94989e-05 0.0001761867 -1.17214e-05 0.0001329715 0.8037669548 -0.2936714223
185298890.0 -0.7906697135 0.3006790681 -0.0001596729 0.0001816339 -0.0002564351 4.35947e-05 0.800850909 -0.3016834908
190298860.0 -0.7879191775 0.3097154914 0.0002536044 0.0001922893 0.0001222695 -6.7364e-06 0.7977553336 -0.3085239397
195298830.0 -0.7853678385 0.3179603711 0.0001494269 3.81403e-05 5.9283e-06 -2.91745e-05 0.7946088916 -0.3166011279
200298800.0 -0.7814220549 0.3260008617 -4.23575e-05 -8.39713e-05 -0.0002065878 0.0002370308 0.7918018459 -0.3245601278
205298770.0 -0.778284358 0.3336105211 -7.057e-07 8.37767e-05 -7.32843e-05 5.00621e-05 0.787950666 -0.3319262489
210298740.0 -0.7750079175 0.3426269214 -0.000189328 2.98e-08 -0.0001220745 0.0001354231 0.7846080371 -0.3387820898
215298710.0 -0.7716200483 0.3505959936 0.0001385725 -2.2158e-06 0.0001069289 4.82732e-05 0.7810815359 -0.3473474545
220298680.0 -0.7674138444 0.3584897401 6.16345e-05 4.44177e-05 5.7298e-06 0.0001162673 0.7777616207 -0.3546877644
225298650.0 -0.7644380632 0.3664874304 -0.0001004584 0.0002852471 3.4203e-05 -2.50749e-05 0.7735896301 -0.3618428303
230298620.0 -0.7604670115 0.3750249969 2.05875e-05 -0.0001259557 -8.73954e-05 -0.0001511482 0.7706331446 -0.3696169193
235298590.0 -0.7564261272 0.3832475498 5.63121e-05 -0.0002799778 8.1861e-05 4.43048e-05 0.7663072462 -0.3768296241
240298560.0 -0.7527146673 0.3906095291 3.72984e-05 0.0001695156 -8.63924e-05 -6.26552e-05 0.7629742579 -0.3842774955
245298530.0 -0.7487123079 0.3988616847 -2.8165e-05 9.393e-05 -0.0001065175 0.0001215259 0.7593074495 -0.3920714512
250298500.0 -0.7438974534 0.4065744075 -0.0001469803 -6.48191e-05 7.7368e-05 7.2477e-05 0.7553594036 -0.3992376455
255298470.0 -0.7394616823 0.4140397455 1.52525e-05 7.8012e-06 -0.0001168044 -9.5674e-05 0.7518325618 -0.4065275818
260298440.0 -0.7352970855 0.4218272661 0.0001545887 -2.31185e-05 1.60534e-05 0.0001166491 0.747406641 -0.4131287374
265298410.0 -0.7313009043 0.4290843808 -9.91186e-05 0.0001177952 -3.90071e-05 0.0001011173 0.7439413433 -0.4210998147
270298380.0 -0.7270478796 0.4374506537 -5.03541e-05 -0.0001575968 8.56887e-05 -5.34833e-05 0.7398436716 -0.4275612997
275298350.0 -0.7222848934 0.4446289625 0.0002818387 -3.68527e-05 5.9578e-06 4.47035e-05 0.7356242104 -0.4350434767
280298320.0 -0.7170350421 0.4523459415 7.45635e-05 -3.3879e-06 -0.0001608262 -3.50692e-05 0.7323436227 -0.4427408037
285298290.0 -0.7132005172 0.460388485 -7.29162e-05 5.95405e-05 6.10945e-05 -5.43855e-05 0.7276227152 -0.4500586141
290298260.0 -0.7077968661 0.4675708774 5.1639e-05 0.0001035298 -7.62581e-05 3.7201e-06 0.7238069566 -0.4565904208
295298230.0 -0.7024354385 0.4745443522 0.0002569016 1.63248e-05 5.8618e-05 0.0001141786 0.7197268682 -0.4637003553
300298200.0 -0.697816047 0.4813564428 -6.94315e-05 -3.16095e-05 0.0001145626 -0.000102225 0.715647313 -0.4716703063
305298170.0 -0.6925837039 0.4885291987 0.0001368563 -1.63949e-05 -0.0001203455 8.56174e-05 0.7116439314 -0.4791940166
310298140.0 -0.6875336929 0.4959196172 6.4968e-06 4.89366e-05 2.39804e-05 -7.83764e-05 0.706374894 -0.4866425303
315298110.0 -0.6833734428 0.5028514626 -0.0001235987 -0.0001022834 -3.43301e-05 4.22052e-05 0.7007614062 -0.4944882942
320298080.0 -0.6776125564 0.5103815635 -7.51557e-05 -1.55247e-05 -4.34009e-05 -5.97332e-05 0.6962156261 -0.5020759737
325298050.0 -0.6720464772 0.5174824515 -0.0001113703 4.74486e-05 8.60676e-05 -0.0002723742 0.6909003436 -0.5087223403
330298020.0 -0.6662861182 0.5237637716 -4.9976e-06 0.0001080158 -0.000131255 -4.90329e-05 0.6840295859 -0.5149840928
335297990.0 -0.6608594777 0.530531776 -9.37352e-05 9.42886e-05 -0.0001041645 7.53993e-05 0.6790080996 -0.5209043305
340297960.0 -0.6560989025 0.5368792833 -6.54254e-05 1.23894e-05 0.0002762846 5.87081e-05 0.6743414235 -0.5273508242
345297930.0 -0.6502267965 0.544418437 -7.51929e-05 6.41555e-05 9.85081e-05 -5.4818e-06 0.6678592977 -0.5340666453
350297900.0 -0.6443547148 0.5509348596 2.18538e-05 2.34744e-05 -9.24115e-05 -6.64653e-05 0.6622341815 -0.5396266668
355297870.0 -0.6383783374 0.5582611596 -7.53381e-05 -8.56938e-05 7.57022e-05 0.000125663 0.6565677334 -0.5455839546
360297840.0 -0.6326134152 0.5635039924 -7.47802e-05 -2.21986e-05 4.33945e-05 -0.0002230333 0.6516626317 -0.5525614349
365297810.0 -0.6277683803 0.5704064098 0.0001857434 -0.0001383168 -6.87703e-05 -0.0001379366 0.6460528748 -0.5583362916
370297780.0 -0.6207355014 0.576539393 -9.9613e-06 0.0001860983 -3.19047e-05 -7.31769e-05 0.6406169513 -0.564047277
375297750.0 -0.6146346218 0.5828734094 -0.0002235848 -0.0002632879 0.0003325439 4.91878e-05 0.6349356594 -0.5703531339
380297720.0 -0.6088370392 0.5891958187 8.29573e-05 7.03845e-05 9.3575e-06 0.0001251473 0.6283546867 -0.5758693529
385297690.0 -0.6029619016 0.5949400071 8.6251e-05 3.69861e-05 -0.0001144723 -3.88975e-05 0.6232606209 -0.5821129832
390297660.0 -0.5973001586 0.6012793225 -2.16974e-05 -0.0001533583 0.0001052832 -4.17711e-05 0.6173037345 -0.5877432787
395297630.0 -0.5902057226 0.6080719224 2.60437e-05 3.05465e-05 0.0002328342 9.15418e-05 0.6118416554 -0.5937077522
400297600.0 -0.5838299759 0.6144648561 -0.0001742096 3.39093e-05 -0.0001156631 -0.0001479834 0.6056932463 -0.5992902815
405297570.0 -0.578245209 0.6193848903 0.000111439 -0.0003163107 6.34137e-05 -4.82519e-05 0.599425582 -0.6056988843
410297540.0 -0.5716887761 0.6255628601 -0.0002488542 -0.0002757883 9.129e-06 -9.33535e-05 0.5933640927 -0.6114364353
415297510.0 -0.56465295 0.6312573227 -7.30477e-05 -0.0002334582 -7.3627e-06 0.0002613654 0.5876503881 -0.6167724755
420297480.0 -0.5592318944 0.6370784858 0.0001059323 6.76179e-05 0.0001048174 -2.65797e-05 0.5819219029 -0.6220263483
425297450.0 -0.5515337834 0.6428941665 0.0001280482 2.37852e-05 4.39268e-05 9.55473e-05 0.5752183287 -0.6279803456
430297420.0 -0.5455227965 0.6478018449 -0.0001023541 0.0001896953 0.0001407157 -0.000276575 0.5688882863 -0.6341002253
435297390.0 -0.5387662484 0.653056524 -1.19417e-05 4.42802e-05 -0.0003062296 9.34038e-05 0.5626254244 -0.6399293843
440297360.0 -0.5322700861 0.6585726743 -3.36052e-05 -3.75919e-05 0.000196887 0.0001586172 0.5567649912 -0.6447950966
445297330.0 -0.5251179066 0.6645191763 -0.000348675 -0.0001485972 -2.29439e-05 -6.50964e-05 0.5509610128 -0.6511867643
450297300.0 -0.5183867334 0.6691782476 -0.0001717661 7.50725e-05 0.0001680397 -0.0001502951 0.5436889011 -0.6557409915
455297270.0 -0.5115529336 0.6742570429 -0.0001200772 5.90932e-05 -7.90893e-05 0.0001050156 0.5380843338 -0.6610026507
460297240.0 -0.5048180159 0.6798121651 -0.0001169162 -0.0001883179 5.2005e-06 1.04334e-05 0.5309762717 -0.6663532532
465297210.0 -0.4979346356 0.6850653578 0.0001603836 0.0002233799 -0.0002374118 -0.0003079026 0.5247350965 -0.670803119
470297180.0 -0.4899373493 0.6899706605 -0.0002463425 0.0001542912 0.0001541992 4.483e-07 0.5176213341 -0.6759863907
475297150.0 -0.4835369802 0.6940987924 -0.0001188455 0.000132319 -4.60902e-05 8.47768e-05 0.5111872197 -0.681420344
480297120.0 -0.4767066908 0.6990653081 0.0001851085 3.76455e-05 -0.0001865269 0.0002490968 0.5049324867 -0.6856797529
485297090.0 -0.4690199643 0.7039624086 -2.82998e-05 -1.27609e-05 -8.02731e-05 3.00799e-05 0.4981419958 -0.6911162688
490297060.0 -0.4624856489 0.7090086932 0.0003173707 5.08713e-05 -4.03336e-05 -3.60547e-05 0.490750905 -0.6960960322
495297030.0 -0.4550100703 0.713074234 0.0001299746 -0.0001624133 9.50859e-05 -4.14314e-05 0.4843155861 -0.7002288051
500297000.0 -0.4475445688 0.7182859558 -3.74322e-05 -0.0001052268 -5.60762e-05 -3.51915e-05 0.4773730131 -0.7052699363
505296970.0 -0.4400403525 0.7225291448 3.88743e-05 9.92077e-05 -5.91934e-05 -9.96511e-05 0.4700716476 -0.7096148847
510296940.0 -0.4333609195 0.7264793424 -4.26487e-05 0.0002670385 -4.59832e-05 4.42514e-05 0.4629875763 -0.7143521319
515296910.0 -0.4247934809 0.7306240441 -0.0001748601 5.64668e-05 -1.2532e-05 6.3219e-06 0.4565330319 -0.717969017
520296880.0 -0.4180560195 0.7357413786 0.0001171988 -5.85021e-05 -0.0001483032 4.87413e-05 0.4486119658 -0.7230679699
525296850.0 -0.4098308358 0.7394378759 -3.01605e-05 3.54255e-05 0.0001211819 -0.0002077154 0.4419837932 -0.7261780044
530296820.0 -0.4025545652 0.743219646 9.85789e-05 5.96292e-05 2.56314e-05 -0.0002367084 0.4353047754 -0.7305460648
535296790.0 -0.3956665362 0.7469471055 -9.18988e-05 0.0001238733 -0.0001304288 6.0261e-06 0.4267258234 -0.7352153028
540296760.0 -0.3885592706 0.7507858762 -8.96694e-05 0.0001541289 2.18864e-05 3.7085e-05 0.4199013344 -0.7388679714
545296730.0 -0.3806107788 0.7553241403 -0.0001654696 3.28051e-05 4.24371e-05 -5.94694e-05 0.4126778271 -0.7429635912
550296700.0 -0.3730375966 0.758489985 -0.0001020952 8.39202e-05 -0.0001217664 2.72974e-05 0.405084432 -0.7472722865
555296670.0 -0.3646889662 0.7615725336 -0.0001519794 0.0001723496 2.5207e-06 7.37239e-05 0.3980380219 -0.7509066335
560296640.0 -0.3579208888 0.7656376635 -0.0001714632 -6.59847e-05 1.39993e-05 -2.55511e-05 0.3897873932 -0.7540654562
565296610.0 -0.3497919825 0.7693239945 -1.51719e-05 0.0001811591 -9.63609e-05 -0.0002751064 0.3825880923 -0.7576737555
570296580.0 -0.3428933008 0.7724854703 8.81243e-05 0.0001302992 -0.0002780231 -3.65735e-05 0.3750490588 -0.7614568494
575296550.0 -0.334730324 0.7768738071 -0.0001392028 8.71038e-05 -0.0001569661 -1.46361e-05 0.3677329143 -0.7653054111
580296520.0 -0.3258214507 0.7795976677 -0.0001648618 -3.10942e-05 5.09022e-05 -0.0001497093 0.3598800875 -0.768920158
585296490.0 -0.3184377186 0.7823818681 -0.0001418017 0.0001351611 0.0001373379 -5.67947e-05 0.3531664253 -0.7718964343
590296460.0 -0.3109976931 0.786237414 -5.4447e-06 -0.0001234109 5.13012e-05 -0.0002079863 0.3444961277 -0.7747821739
595296430.0 -0.3026972488 0.788256818 1.40282e-05 -0.0001655257 0.00016577 0.0001904478 0.3373633211 -0.7787054988
600296400.0 -0.2950661077 0.7921277833 -0.0001529907 2.57692e-05 -5.45298e-05 0.0001532534 0.3299428828 -0.7822439236
605296370.0 -0.2876663424 0.7947642967 -5.6509e-06 -0.0001631944 0.0001223798 3.93445e-05 0.3216865502 -0.7852176709
610296340.0 -0.2789867102 0.797394171 -6.0574e-06 0.0001078155 0.0001603948 0.0001026031 0.3146035214 -0.7880140054
615296310.0 -0.2705646659 0.7999160904 0.0002403181 -4.88371e-05 1.59279e-05 0.0002123121 0.3064044334 -0.7914701867
620296280.0 -0.2627750017 0.8023245766 -0.0001695016 9.9275e-06 -0.0002036722 -9.09625e-05 0.2984883164 -0.7944021175
625296250.0 -0.2548103232 0.8051253201 6.21905e-05 0.0001624832 -9.431e-07 9.01561e-05 0.2907836731 -0.7966952423
630296220.0 -0.2463892352 0.8078303541 -4.08704e-05 -4.13507e-05 -0.0002754783 -6.23888e-05 0.2827806293 -0.7996709442
635296190.0 -0.2388135792 0.8101317263 9.42015e-05 0.0001146075 0.0001292655 1.23372e-05 0.2756770342 -0.8026518479
640296160.0 -0.2308852492 0.8122186493 -0.0001030167 -3.09369e-05 2.81513e-05 -0.0001145519 0.2669847882 -0.8052791542
645296130.0 -0.2224908935 0.8153344633 7.0007e-06 0.000135587 1.35545e-05 0.0002177242 0.2591332112 -0.8075679238
650296100.0 -0.2146635776 0.8165101811 -2.98105e-05 -7.70858e-05 4.01886e-05 -0.0001251554 0.25181507 -0.8106321353
655296070.0 -0.2060122789 0.8189649359 1.29264e-05 0.0001155901 0.0001828781 -8.84791e-05 0.2445739643 -0.8118826086
660296040.0 -0.1982612482 0.8209072016 -2.40301e-05 3.01647e-05 1.00234e-05 -2.63833e-05 0.2363877901 -0.8146275779
665296010.0 -0.1898041139 0.8218653623 -1.35055e-05 2.32291e-05 -7.80768e-05 -0.0001516855 0.2275423874 -0.8167438697
670295980.0 -0.1820595348 0.8242816865 -4.99234e-05 5.6762e-05 0.000132594 0.0001378339 0.2188343765 -0.8190196067
675295950.0 -0.1734544543 0.8263384159 -0.0001270628 0.000133176 -0.000128289 -0.0001708768 0.2109031174 -0.8205987379
680295920.0 -0.1654414163 0.8279510334 -0.0001774453 -0.0001141871 -8.34513e-05 7.09087e-05 0.2029834014 -0.82237928
685295890.0 -0.1564552648 0.8305294738 -0.000104541 2.45583e-05 0.000205518 1.47401e-05 0.1945971958 -0.8241900666
690295860.0 -0.1486657835 0.8307009043 3.6177e-06 -9.51595e-05 -3.12604e-05 -2.28992e-05 0.1866088477 -0.8250720442
695295830.0 -0.1406100543 0.8321045563 -5.95844e-05 -0.0001638188 4.72315e-05 -0.0001169538 0.1785514301 -0.8274286969
700295800.0 -0.1319796949 0.8335527049 9.4283e-05 -0.0001197728 0.0001057496 2.1859e-05 0.1704457901 -0.8290811713
705295770.0 -0.1244683681 0.8353683 -7.1918e-05 0.0002728477 -0.0001826129 -1.00349e-05 0.1620272387 -0.8297410244
710295740.0 -0.1158636447 0.8364361011 -0.0003829236 -0.0001006345 -5.94877e-05 0.0002941156 0.1539570209 -0.8317467235
715295710.0 -0.1077217999 0.8375573691 -0.0002333924 -6.49387e-05 0.0001357915 -8.71583e-05 0.1452360084 -0.8330876164
720295680.0 -0.0995387155 0.8393655491 -7.43881e-05 -8.88095e-05 0.0001749972 4.9362e-06 0.1373583028 -0.8342763029
725295650.0 -0.0909569259 0.8394285605 -0.0001202588 0.0003133275 4.91541e-05 0.0001972602 0.1285839705 -0.834898932
730295620.0 -0.0816798487 0.8406974461 -3.90383e-05 0.0002033924 -8.84936e-05 -1.25856e-05 0.1199267816 -0.836588525
735295590.0 -0.0741974206 0.8413010139 -3.71069e-05 7.63776e-05 7.72885e-05 -0.0002641099 0.1121741394 -0.838111485
740295560.0 -0.0659114209 0.8421140564 0.0003484087 5.64159e-05 9.48756e-05 -3.20417e-05 0.1036414175 -0.8378842546
745295530.0 -0.0575277883 0.8428010965 -0.0001055145 0.0001455907 4.14986e-05 0.0002481144 0.0954861641 -0.8389729573
750295500.0 -0.048798404 0.8426157052 -0.0001997472 4.59419e-05 9.80628e-05 7.0668e-05 0.0871805035 -0.8402995525
755295470.0 -0.0406330972 0.8429983005 -3.355e-05 9.57449e-05 -3.48592e-05 -0.0001080482 0.0790428865 -0.8413257372
760295440.0 -0.0324021409 0.8434591542 -0.00016516 1.22311e-05 0.0002476407 0.0001634296 0.0708798956 -0.8419725803
765295410.0 -0.0240227767 0.8442243503 0.0001237391 0.0001085089 -1.71848e-05 -1.5268e-05 0.0624561511 -0.8419103566
770295380.0 -0.0159988784 0.8446238933 0.0001785357 -0.0001381272 -0.0001164347 -7.88713e-05 0.0532227502 -0.8431716787
775295350.0 -0.0076347733 0.8440969631 5.40356e-05 -5.82936e-05 -4.76108e-05 5.04947e-05 0.0447928353 -0.8430131748
780295320.0 0.0006456577 0.8447197687 9.06583e-05 -4.02356e-05 9.52606e-05 -2.9639e-06 0.0373965714 -0.8434878553
785295290.0 0.0092423773 0.8436939532 -7.14702e-05 6.905e-05 0.0001108302 7.35609e-05 0.0293288964 -0.8439095895
790295260.0 0.0178045305 0.8439752848 0.0001285583 1.50399e-05 -8.3872e-06 6.6836e-06 0.0215881478 -0.8433802347
795295230.0 0.0256532482 0.84387136 2.22711e-05 -0.0001220103 -6.68422e-05 -0.00017083 0.0121980733 -0.844682265
800295200.0 0.033989018 0.8431732053 2.69383e-05 -6.71294e-05 -5.98718e-05 0.0002038689 0.0039011879 -0.8438932071
805295170.0 0.0429578405 0.8427836201 -0.0002387572 -5.27385e-05 6.4276e-06 -0.0001616685 -0.0045526828 -0.8436771773
810295140.0 0.0510498559 0.8423991901 0.0001292288 0.0001500497 -8.02313e-05 0.0001374927 -0.0122108345 -0.8441786506
815295110.0 0.0594224874 0.8420018003 -0.0002384479 -0.0001155128 5.40078e-05 2.30642e-05 -0.0213009166 -0.8430533487
820295080.0 0.0668755614 0.8413960079 4.5222e-06 -2.66235e-05 -5.27457e-05 -0.0001933337 -0.0291692077 -0.8430323661
825295050.0 0.0764153659 0.8403480148 1.91983e-05 4.43687e-05 -0.000159909 6.18991e-05 -0.0374096167 -0.8424705882
830295020.0 0.0838938806 0.8400757574 -0.0001537893 -9.99958e-05 8.28025e-05 7.64954e-05 -0.045379417 -0.8415980945
835294990.0 0.0918911426 0.8394624506 3.81084e-05 -1.54508e-05 -3.26079e-05 -4.73273e-05 -0.0543077699 -0.8413838792
840294960.0 0.1004137244 0.838359782 0.0001355286 -3.9586e-05 -2.614e-07 -0.0001966097 -0.0626889225 -0.8401740823
845294930.0 0.1084790774 0.8370107725 0.000161628 0.0001501079 8.5216e-06 -0.0001956856 -0.0709192307 -0.8393267187
