!Created with skrf (http://scikit-rf.org).
# Hz S RI R 50.0 
!freq ReS11 ImS11 ReS21 ImS21 ReS12 ImS12 ReS22 ImS22
300000.0 -0.7751556476 -0.1455051947 -0.0003337305 0.0009406866 0.0002483611 0.0005452094 -0.0461625628 -0.0701043377
5299970.0 -0.7846984258 -0.0072433095 0.0001200674 1.88379e-05 1.3174e-05 -3.44878e-05 -0.049485434 0.014638267
10299940.0 -0.787561876 -0.0041572032 1.8569e-06 -8.50558e-05 -0.0001547273 9.51528e-05 -0.0441527655 0.0321289989
15299910.0 -0.7932818567 -0.001426277 0.00011353 2.73257e-05 -4.83548e-05 -0.0001220373 -0.0354719024 0.0466954166
20299880.0 -0.7994067807 0.0019241254 -0.0001237529 -6.66451e-05 -6.04757e-05 0.0001258468 -0.0258559593 0.0583694888
25299850.0 -0.806359338 0.0083139766 0.0001411325 -6.32839e-05 9.04649e-05 2.94589e-05 -0.0153648161 0.0678451893
30299820.0 -0.8117806378 0.0159435127 6.72426e-05 1.38067e-05 9.86024e-05 -2.49409e-05 -0.0037291418 0.0745588275
35299790.0 -0.8168749802 0.0251427089 -5.04203e-05 -3.18708e-05 1.39844e-05 7.87624e-05 0.0079056131 0.0794339723
40299760.0 -0.8214218779 0.034077817 0.0001573794 5.33253e-05 0.0001416746 -2.83845e-05 0.018871057 0.0822713231
45299730.0 -0.8246091567 0.0440163028 -5.0931e-06 3.66593e-05 6.71943e-05 0.0001815752 0.0294859704 0.083929834
50299700.0 -0.8270482548 0.0537207231 4.27413e-05 -8.58522e-05 -4.09074e-05 0.0001453003 0.039465254 0.0843915823
55299670.0 -0.8284278256 0.0645878023 2.60787e-05 0.0001974105 -0.0001226496 0.0002148347 0.0481175271 0.0834680667
60299640.0 -0.8295608562 0.0747904626 8.76351e-05 6.70387e-05 0.000170367 -8.87577e-05 0.0573178528 0.081656702
65299610.0 -0.8309928684 0.0849197534 9.7039e-05 -1.56999e-05 -0.0001542079 0.0002332562 0.0642809416 0.0795232057
70299580.0 -0.8314889893 0.0947967279 -7.88974e-05 0.0001653081 1.98181e-05 7.29186e-05 0.0715366675 0.0767602646
75299550.0 -0.8313132017 0.1045964573 0.0001495123 -8.62603e-05 4.19156e-05 -0.0001468984 0.0779854411 0.0739452211
80299520.0 -0.8313035414 0.1144619446 -1.56371e-05 0.0001154498 9.36708e-05 9.68308e-05 0.0833974882 0.0703559362
85299490.0 -0.8302028353 0.1240747798 9.41103e-05 -4.61504e-05 5.87957e-05 -7.03557e-05 0.0885269539 0.0665704749
90299460.0 -0.8296671327 0.1337376614 0.0003097569 0.0001778522 1.39709e-05 0.0002568173 0.0932961363 0.0628000841
95299430.0 -0.8291084723 0.1434787169 0.0001637432 0.0001233898 0.0001352518 7.10551e-05 0.0976432799 0.0592301471
100299400.0 -0.8279198705 0.1527827909 5.6922e-06 0.0001706903 -4.3543e-06 -5.62442e-05 0.101182033 0.0554008402
105299370.0 -0.8263815828 0.1625152169 9.96911e-05 8.37235e-05 -0.0001772068 6.539e-06 0.1044245112 0.0512424079
110299340.0 -0.8252659995 0.1709405007 2.08791e-05 0.0001121596 1.14886e-05 0.0001432638 0.1073228479 0.047932532
115299310.0 -0.8236542402 0.1804180378 3.87149e-05 0.0001917848 0.0001417887 9.68999e-05 0.1100116798 0.0435761662
120299280.0 -0.8218555426 0.1894870215 9.41467e-05 -6.52457e-05 4.93553e-05 -2.33021e-05 0.1122786593 0.0399716556
125299250.0 -0.820407662 0.1986310585 -1.97819e-05 -1.84664e-05 0.000136911 0.0001090371 0.1141914765 0.0361544657
130299220.0 -0.8180426862 0.2073999525 9.67133e-05 0.0001558792 -9.05044e-05 2.8959e-05 0.115711841 0.03277793
135299190.0 -0.8163117715 0.2164497314 7.1921e-06 -0.0001121879 -1.41322e-05 6.8157e-05 0.11746398 0.0292022344
140299160.0 -0.8144881644 0.2258031024 0.0001670444 -7.6879e-05 0.0001196627 0.0001297541 0.1189717975 0.0252354469
145299130.0 -0.8122755649 0.2341895299 -3.02634e-05 0.0003135126 9.27578e-05 7.49757e-05 0.1198119398 0.0221859837
150299100.0 -0.8096634501 0.2432239778 8.72279e-05 -9.44024e-05 1.1027e-06 0.0001131506 0.1207735825 0.0184963269
155299070.0 -0.8076947459 0.2524713888 2.2131e-06 7.42596e-05 -3.80794e-05 -6.66991e-05 0.1213672296 0.0154057085
160299040.0 -0.8050268139 0.2610563449 -4.0956e-05 0.0001103756 0.0001444166 0.0002848761 0.1223611959 0.0122635379
165299010.0 -0.8017058692 0.2691181261 0.0001358694 0.0002915626 6.97673e-05 0.0001157862 0.1228989779 0.0087824017
170298980.0 -0.7994501012 0.2776985148 0.0001348711 8.96746e-05 3.20772e-05 0.0001813507 0.1235177575 0.0059342642
175298950.0 -0.7969724485 0.287291973 -0.0001319547 0.0003027622 0.0001282376 -2.51183e-05 0.123858578 0.0028525658
180298920.0 -0.7939308588 0.2949478762 0.0001043179 5.6952e-05 0.0001412906 0.0001465202 0.1242772658 4.57265e-05
185298890.0 -0.7905012185 0.3043333615 -7.77861e-05 3.39625e-05 0.0002356464 5.5638e-05 0.1242440106 -0.002798336
190298860.0 -0.7876784656 0.3121319389 7.2852e-05 0.0001521012 0.0001080644 0.0001687762 0.1244351565 -0.0056534339
195298830.0 -0.7839496065 0.3209959177 0.0002520871 -0.0001614001 5.90779e-05 0.0001711398 0.124335574 -0.0082950189
200298800.0 -0.7807011062 0.3293408926 0.0001578771 0.0002046436 0.0002897379 7.61161e-05 0.124561959 -0.0115095477
205298770.0 -0.7770130812 0.3376450316 5.13465e-05 -3.19633e-05 0.0001061218 0.0001809798 0.1244562127 -0.0137224415
210298740.0 -0.7734734498 0.3460016715 0.0002341511 6.39102e-05 0.0001884216 0.0001060591 0.1243168448 -0.0163606992
215298710.0 -0.7702630539 0.3536552624 5.82623e-05 0.000249476 -4.91621e-05 0.000202691 0.1234841823 -0.0187651716
220298680.0 -0.7670539979 0.3622960596 9.6092e-05 0.0001826383 0.0001296087 0.0001638966 0.1236734044 -0.021093204
225298650.0 -0.7629314755 0.3705851411 8.0662e-06 -0.0001709911 0.0001358381 -3.05213e-05 0.1229799884 -0.0230230792
230298620.0 -0.7588507086 0.3786463935 6.86927e-05 0.0001452659 6.36676e-05 -6.62051e-05 0.1227964456 -0.0259449739
235298590.0 -0.7545022962 0.3867644677 6.69024e-05 0.0002859747 0.0001186468 -1.19825e-05 0.1221343317 -0.0281012751
240298560.0 -0.7512765587 0.3950220831 0.0002554906 4.12582e-05 5.83011e-05 0.0003064698 0.1215287452 -0.0302695286
245298530.0 -0.7464303465 0.4033396938 0.0002153965 -0.0002026551 0.0003490361 0.000124392 0.1212925802 -0.0323313564
250298500.0 -0.742454865 0.410775446 6.0849e-05 8.29825e-05 0.0001437301 4.4498e-06 0.121049943 -0.0343657087
255298470.0 -0.7379685192 0.4184871212 0.0001097266 0.0002158117 9.28684e-05 0.0001643981 0.1203131083 -0.0365553966
260298440.0 -0.733773916 0.4257610922 0.0001589787 0.0001227199 0.0001300851 0.0002683459 0.1196091177 -0.0387424393
265298410.0 -0.7288878132 0.4341802058 0.0003032807 0.0001830995 0.0001542507 8.89423e-05 0.1187682347 -0.0406611965
270298380.0 -0.7245760401 0.4415066326 0.0002564536 0.0001739265 0.000163188 0.0002436993 0.1182920747 -0.0427738936
275298350.0 -0.719216918 0.4490702373 0.0001655705 0.0001537304 0.0001429241 0.0001108155 0.1176189017 -0.0443396824
280298320.0 -0.7151962809 0.4566334037 8.05093e-05 3.1109e-06 4.29999e-05 7.14871e-05 0.1170022354 -0.0464317346
285298290.0 -0.7103741067 0.4645186745 0.0003395752 0.0001225985 0.0001015181 8.61038e-05 0.1161600084 -0.0477438274
290298260.0 -0.7057510892 0.4718438353 0.0001664001 0.0001543644 0.0003014795 0.0002214109 0.1158210017 -0.0500057034
295298230.0 -0.7009981371 0.4788783228 0.000139535 4.99975e-05 0.000149404 0.0002454587 0.1146308429 -0.0516641897
300298200.0 -0.6946913139 0.4862794883 0.0001056489 3.27816e-05 0.0001289287 0.0001441385 0.113919507 -0.0531452466
305298170.0 -0.6900578029 0.4942458876 -1.00829e-05 4.16295e-05 -2.0814e-06 0.0001906536 0.1137284081 -0.0548621248
310298140.0 -0.6846513246 0.5007133343 4.38445e-05 1.71289e-05 0.0002787314 0.0003138448 0.1126615216 -0.0565522149
315298110.0 -0.6795881351 0.5079999316 0.0002010721 2.2582e-05 0.0001708035 -0.0001081539 0.1119730568 -0.0585784043
320298080.0 -0.6739376069 0.5159372346 0.0001946759 -2.13703e-05 0.0001497999 0.0001588358 0.1107877101 -0.0604497484
325298050.0 -0.6682861449 0.5220608742 0.0001833746 -0.0001032837 0.0002170448 4.43534e-05 0.1096006087 -0.0618518874
330298020.0 -0.662708146 0.5293017567 0.000149971 0.0001383269 0.0001164847 0.0002679128 0.1086165176 -0.0638748573
335297990.0 -0.6575813126 0.5362942667 0.0002406697 4.22441e-05 0.0002266846 2.8512e-05 0.1075231289 -0.0650585134
340297960.0 -0.6521442138 0.542959754 0.0001280555 0.0002200878 0.0001430378 3.02704e-05 0.1064623705 -0.0669108548
345297930.0 -0.6462379209 0.5487436271 3.8957e-06 0.000150164 3.54617e-05 0.0002096508 0.1048464375 -0.0678545477
350297900.0 -0.6405821636 0.556214442 -4.82645e-05 0.0002717731 0.0001708946 -9.59881e-05 0.1040740551 -0.069210622
355297870.0 -0.6344996381 0.5626803884 0.0003660835 2.17392e-05 0.0002536175 7.5424e-05 0.1027913723 -0.0706180918
360297840.0 -0.6286085626 0.5688306509 3.50373e-05 5.37993e-05 0.0002386867 0.0001581404 0.1018586765 -0.0717928827
365297810.0 -0.6218631578 0.5754345873 0.0003695341 1.30831e-05 0.0003362824 0.00017609 0.1003404099 -0.0730487079
370297780.0 -0.6161102017 0.5815112742 0.0002018721 -0.0001735211 0.00016241 -9.71127e-05 0.099241436 -0.0740038774
375297750.0 -0.6103707622 0.5879603806 0.0002299672 0.0001695938 0.0001719523 0.0002559977 0.0981398248 -0.075029007
380297720.0 -0.6039736433 0.5948904382 0.0001678247 0.0002444652 0.0001855588 0.0003156436 0.0968449857 -0.0762938236
385297690.0 -0.5976323683 0.6009842173 0.000150822 1.1185e-05 3.72021e-05 0.0001500204 0.0957774152 -0.0769413059
390297660.0 -0.5912964581 0.607264061 0.0003420084 6.0971e-06 0.0001403865 5.52712e-05 0.0945037618 -0.0786383812
395297630.0 -0.5852099697 0.6136059331 0.0002013461 0.0001169633 0.0001350545 0.0002885709 0.0934614963 -0.0796656883
400297600.0 -0.5792999836 0.6190656184 0.0002311707 -4.11535e-05 8.43443e-05 0.0002200352 0.0918678889 -0.0807281773
405297570.0 -0.5724087328 0.625160602 0.0004553633 0.0003154055 0.0001127516 8.05505e-05 0.0908316065 -0.0813939351
410297540.0 -0.5658078907 0.6308139492 9.51407e-05 0.0001201318 0.0003714836 0.0001057568 0.089558172 -0.0826921346
415297510.0 -0.559285137 0.6362638261 0.0001607019 0.000105706 0.0003141174 5.65023e-05 0.0883071455 -0.0832938059
420297480.0 -0.5517961333 0.6423209024 0.0002016998 6.50585e-05 0.0002850737 0.0001137634 0.0869278356 -0.0846210252
425297450.0 -0.545426576 0.6479727409 0.000470005 4.17394e-05 0.0002280419 0.0001106826 0.0856982253 -0.0854819094
430297420.0 -0.5394152666 0.6533847905 0.0001782433 0.0001584098 6.54236e-05 6.11025e-05 0.0842185128 -0.0863690684
435297390.0 -0.5322618548 0.6590197456 0.0003177183 0.000125582 0.0003068268 0.0001791714 0.0834523965 -0.0873242548
440297360.0 -0.5254421886 0.664322791 0.0002729804 0.0001551375 5.5057e-05 0.0001078754 0.0817612318 -0.0881488497
445297330.0 -0.5183497589 0.6697407308 0.0001107423 9.23294e-05 0.0002162381 0.0001803661 0.0806491655 -0.0889948955
450297300.0 -0.5110031912 0.674878765 -3.30843e-05 0.0002421892 0.0001329113 3.43102e-05 0.0791537294 -0.0898637296
455297270.0 -0.5040419649 0.6800353289 0.0001986009 0.0003007979 0.000255387 0.0001251605 0.0778185691 -0.0908014204
460297240.0 -0.4975399249 0.6851458147 0.0003834654 -9.7161e-05 0.0002077697 -5.16217e-05 0.076692453 -0.0911630934
465297210.0 -0.4900325076 0.690799737 0.0003467426 0.0001550481 0.0001119732 8.64276e-05 0.0750995182 -0.0923378592
470297180.0 -0.4830464379 0.6946911172 0.0002997896 0.0003217134 0.0004620054 2.77672e-05 0.0734722827 -0.0928747968
475297150.0 -0.4756888192 0.7002165275 0.0002772651 0.0001702214 0.000430327 0.0001483839 0.0724143237 -0.0934262953
480297120.0 -0.46836618 0.7043784707 0.0004378248 0.0001242362 0.0002573539 6.03308e-05 0.0709945438 -0.0942423776
485297090.0 -0.4611350645 0.7088093707 9.07679e-05 7.49024e-05 0.0004141891 3.51431e-05 0.0692942548 -0.0947778622
490297060.0 -0.4539666114 0.7139083946 0.0002370049 0.0001044166 0.0001480557 -7.79649e-05 0.0680473926 -0.0956914803
495297030.0 -0.4473091318 0.7182543236 0.000259895 0.0002043282 9.09347e-05 8.1098e-06 0.066866301 -0.0967023856
500297000.0 -0.438710585 0.7234079202 0.0004806193 9.19053e-05 8.72268e-05 9.26434e-05 0.0653132626 -0.0970736828
505296970.0 -0.4314806415 0.7266847132 0.0002179378 0.0001560044 0.0003815198 4.93009e-05 0.0636580143 -0.0975820714
510296940.0 -0.4240088577 0.731656347 0.0001855415 6.7159e-06 0.0002247419 7.29802e-05 0.0626187493 -0.0980942551
515296910.0 -0.4173243236 0.7363937398 0.0001057397 0.0001611378 0.000321512 5.12894e-05 0.0611740524 -0.0984701552
520296880.0 -0.4087443891 0.7405031868 0.0001125869 5.09543e-05 0.0001796347 0.0002540687 0.0596942399 -0.0995397813
525296850.0 -0.4023383558 0.7449125061 0.0001433438 5.89866e-05 0.0002244646 9.701e-06 0.0586309207 -0.1000231822
530296820.0 -0.3938526844 0.7481067893 0.0002925564 3.04136e-05 0.0003599098 -5.44749e-05 0.0564319777 -0.1007159025
535296790.0 -0.3865564226 0.7528603779 0.0002663728 9.09336e-05 0.0002844857 0.0002256463 0.0550291629 -0.1013776759
540296760.0 -0.3782158637 0.7556458888 0.0002083306 0.0001215544 0.0002690181 0.000130993 0.053573089 -0.1011709529
545296730.0 -0.3713550394 0.7597391111 0.0004156705 0.0001228916 0.0001863996 0.0001095912 0.0520432412 -0.1021197058
550296700.0 -0.3633632812 0.7640036343 0.0003497469 0.0001147225 0.0002492921 0.0001337835 0.0510908657 -0.1025971123
555296670.0 -0.3543426111 0.766996332 0.0001665823 -8.92707e-05 0.0001117581 -8.21358e-05 0.0495631878 -0.1029577218
560296640.0 -0.3476098829 0.770856878 0.0002613816 -1.44557e-05 0.0002478425 -2.24766e-05 0.0481160972 -0.1035185458
565296610.0 -0.3396473211 0.7736899897 0.0002656914 1.49777e-05 0.0002999617 0.0002473835 0.0463199284 -0.1035821678
570296580.0 -0.3316926381 0.7770714122 0.0003728995 4.11934e-05 0.0002351791 0.000138389 0.0450910256 -0.1039317517
575296550.0 -0.3239339597 0.7804799664 0.0001730007 0.0002009385 0.0004033536 8.25606e-05 0.0436563693 -0.1042044965
580296520.0 -0.3158534911 0.7840546445 0.0003322913 7.21802e-05 0.00029194 3.75573e-05 0.0420477126 -0.1046121024
585296490.0 -0.3077641457 0.7868467583 0.000351721 0.0002565811 0.0003324058 -8.96954e-05 0.0406158702 -0.1052896627
590296460.0 -0.2997922969 0.7897827799 0.000206793 0.0001634926 0.0002413586 0.0002340499 0.0393557391 -0.1054426856
595296430.0 -0.2913531556 0.7938467507 0.0003934546 6.17889e-05 0.0004114653 0.000157121 0.0375349504 -0.1059123795
600296400.0 -0.28361667 0.7960511988 0.0002050277 0.0001221794 0.000284633 7.28475e-05 0.036433063 -0.1059617742
605296370.0 -0.2748555321 0.7985393517 0.0004015051 8.9924e-05 0.0004740836 -2.38972e-05 0.0347137283 -0.106043057
610296340.0 -0.2674189678 0.8015846013 0.0004129037 5.01429e-05 0.0005404588 2.15628e-05 0.0332199119 -0.1064642118
615296310.0 -0.2586824069 0.8040405004 0.0002988434 -7.9108e-05 8.33284e-05 -2.66501e-05 0.0317133304 -0.106918017
620296280.0 -0.2507156928 0.806361859 0.0001885613 -3.94017e-05 0.0003735398 0.0002440105 0.0302373769 -0.1072385064
625296250.0 -0.2425828361 0.8093069504 0.0003499657 0.0002540349 0.0004964916 0.0001331078 0.0288026265 -0.1071426516
630296220.0 -0.234190833 0.811434076 0.0001444001 1.45835e-05 0.0002319912 -0.0001080704 0.0272529999 -0.1071518515
635296190.0 -0.2265890579 0.8135472154 0.0003103626 4.87581e-05 0.0003594671 3.33848e-05 0.0259420907 -0.1071590264
640296160.0 -0.2180182813 0.8154855975 0.0004909361 -0.0001936144 1.41548e-05 -4.05123e-05 0.0243581412 -0.1075747679
645296130.0 -0.2101067162 0.8177961171 0.0004191782 5.40243e-05 0.0003568001 0.0001603779 0.0226500044 -0.1076053385
650296100.0 -0.2018143218 0.8200592356 0.0003194304 -4.60992e-05 0.0003044105 5.71116e-05 0.021342283 -0.1073911513
655296070.0 -0.1930022375 0.8218342972 0.0002255009 -6.36347e-05 0.0003480181 0.0002007738 0.0200137131 -0.1074661148
660296040.0 -0.1849124778 0.8244479496 0.0005756741 5.77581e-05 0.0002822735 0.0001802645 0.0183036606 -0.1076610226
665296010.0 -0.1767224328 0.8263879018 0.0001542302 1.36814e-05 0.0004235095 6.4192e-05 0.0171980927 -0.1076106321
670295980.0 -0.1677974063 0.8273174247 0.0003981906 -6.34879e-05 0.0002401186 -4.30336e-05 0.0155169495 -0.1075846814
675295950.0 -0.1603705513 0.8286471901 0.0002041332 -0.0001672283 0.0003176042 -1.51764e-05 0.0140472002 -0.1075735948
680295920.0 -0.1514887098 0.8308137457 0.0004086589 3.38247e-05 0.0002473543 6.46073e-05 0.0126412421 -0.1076652055
685295890.0 -0.1430416904 0.8316491733 0.0001867861 -2.78695e-05 0.0004589154 -3.70595e-05 0.0114068897 -0.1077866408
690295860.0 -0.1344247787 0.8336942031 0.0003309317 -0.0001262553 0.0005064116 -7.01048e-05 0.0097886546 -0.1075183012
695295830.0 -0.1260833703 0.834236491 0.0002400029 -1.48176e-05 0.0005914344 -3.36186e-05 0.0081300984 -0.1073404096
700295800.0 -0.1178670061 0.8360672868 0.0002841286 1.63782e-05 0.0003332103 -7.37592e-05 0.0068959323 -0.1073370262
705295770.0 -0.1092072211 0.8371982344 0.0004041813 -0.0001627187 0.0004174268 -7.07214e-05 0.0054531153 -0.1070374152
710295740.0 -0.1013450079 0.8382652834 0.0002398892 4.67e-08 0.0003244035 2.11496e-05 0.0037592993 -0.1068931373
715295710.0 -0.0931587102 0.8391937919 0.0002364864 -7.92856e-05 0.0004237446 -8.81629e-05 0.0025296076 -0.1066641511
720295680.0 -0.0842339144 0.8392686567 0.0002124762 7.66441e-05 0.000413492 0.0001089519 0.0014874438 -0.1067192293
725295650.0 -0.074745771 0.8403224847 0.0004185902 -0.0001892135 0.0003957123 0.0001715387 -0.0002717667 -0.1063289216
730295620.0 -0.0675520922 0.8413639958 0.0005214225 -6.30714e-05 0.0003744581 0.0001382598 -0.0017327781 -0.10646996
735295590.0 -0.0583424628 0.8414181303 0.0004373327 3.28685e-05 0.0003142594 9.75932e-05 -0.0030343495 -0.1060028214
740295560.0 -0.0500810922 0.8428716 0.0004319796 1.67376e-05 0.0002241465 7.28395e-05 -0.0047082243 -0.1060252856
745295530.0 -0.0413170243 0.8427083695 0.0003748503 -3.42148e-05 0.0002885826 -0.0001446858 -0.0059771596 -0.1054903587
750295500.0 -0.0334655193 0.8430070594 0.0003699219 5.5047e-06 0.0004917788 1.2725e-06 -0.0075557087 -0.105423642
755295470.0 -0.0248387309 0.8433041321 0.0004516547 -5.8307e-06 0.0007317342 8.3785e-06 -0.0089104952 -0.1044950814
760295440.0 -0.0161996038 0.8436191223 0.0003286018 7.7082e-05 0.0004576434 -5.50748e-05 -0.0105872701 -0.1045161982
765295410.0 -0.0080115393 0.8436205292 0.000534208 -0.0001662382 0.0003719016 -2.70563e-05 -0.0114902839 -0.1039045275
770295380.0 0.0003732419 0.8437904674 0.000512735 -0.0002536597 0.0004904141 -0.0002291273 -0.0127060418 -0.1038672367
775295350.0 0.009037116 0.8441703099 0.0004338292 -2.4426e-06 0.0004178515 -0.0001107511 -0.0148288593 -0.1034601979
780295320.0 0.0178230078 0.8432696343 0.000485814 -0.0001380701 0.0005602259 2.72174e-05 -0.0158240669 -0.1027728359
785295290.0 0.0260859987 0.8439781486 0.0002899513 7.21768e-05 0.0003664411 -7.5963e-05 -0.0169897214 -0.102098828
790295260.0 0.034355123 0.8428430373 0.0003377884 -4.80603e-05 0.0004929231 -0.0001216914 -0.0185215493 -0.102365149
795295230.0 0.0430902391 0.8437401349 0.0004994267 -0.0001067017 0.0003148262 -0.0001401017 -0.0196080719 -0.1014854756
800295200.0 0.0513904427 0.8424974837 0.0002933712 -6.5678e-05 0.0003919019 -0.0001989835 -0.0210256729 -0.1012139491
805295170.0 0.0601315832 0.8416583223 0.00036263 -0.0001898113 0.0004905858 -6.68453e-05 -0.0224384287 -0.1003500501
810295140.0 0.0678126978 0.8410926124 0.0004449115 -3.69639e-05 0.0004391296 -3.94172e-05 -0.0236682643 -0.0998361048
815295110.0 0.0768673725 0.8401811279 0.0005337385 -0.0002064564 0.0002340881 -0.0001069956 -0.0253154747 -0.0992181149
820295080.0 0.0853378014 0.8389631425 0.0006254389 -0.0001081646 0.0005526449 0.00010509 -0.0265670964 -0.099016035
825295050.0 0.0936425613 0.8385939986 0.0005081319 1.53968e-05 0.0003709504 -4.18149e-05 -0.0277310461 -0.0984842509
830295020.0 0.1020428073 0.837713396 0.0002778801 -0.0001853758 0.0004544969 2.21576e-05 -0.0291921939 -0.0975848203
835294990.0 0.1099677182 0.8370836678 0.0004678187 -3.04797e-05 0.0003572727 -3.22135e-05 -0.0301196183 -0.0973879769
840294960.0 0.1186038011 0.8352338595 0.0002806142 -0.0001892285 0.0002984558 -0.0001178756 -0.0317448499 -0.0961068499
845294930.0 0.1270924882 0.8342726878 0.0003527192 -4.28141e-05 0.0005036889 -0.0001828989 -0.0328854178 -0.0957954092
850294900.0 0.1347310313 0.8327216393 0.0004122404 -0.0002089293 0.0002785252 -0.0002689079 -0.0342611588 -0.0951745788
