!Created with skrf (http://scikit-rf.org).
# Hz S RI R 50.0 
!freq ReS11 ImS11 ReS21 ImS21 ReS12 ImS12 ReS22 ImS22
300000.0 -0.2374174473 -0.0978030907 0.4657392613 0.0653437859 0.4661276616 0.0709375391 -0.2333040767 -0.1103569045
5299970.0 -0.2437147747 0.0069569907 0.4740220594 0.0052330989 0.4736966704 0.0059858109 -0.2437496599 0.0057025178
10299940.0 -0.2402002952 0.0198997929 0.4759434158 0.0064260823 0.4756433203 0.00667184 -0.2408245699 0.0183038049
15299910.0 -0.236062711 0.0293375316 0.4792711352 0.0078700994 0.4793742318 0.0080960771 -0.2365404425 0.0274913277
20299880.0 -0.2303290387 0.0371424112 0.4841419688 0.0083313389 0.4840903642 0.0084722708 -0.2319256103 0.0355497341
25299850.0 -0.2247520409 0.0437202362 0.4895308268 0.0074440983 0.4895607423 0.0073603037 -0.2268901062 0.0416308454
30299820.0 -0.2188082877 0.0482188312 0.4951532888 0.0058132468 0.494628501 0.0052851598 -0.2214600229 0.0468755098
35299790.0 -0.213052625 0.0527610539 0.5001283801 0.002215298 0.5001604374 0.002490774 -0.215943747 0.0510283362
40299760.0 -0.2073699696 0.0555569613 0.5053233595 -0.0014923283 0.5054425682 -0.0018312525 -0.2112435227 0.05471431
45299730.0 -0.2024754435 0.0584850668 0.5103792669 -0.0069162386 0.5100702787 -0.0064679399 -0.2066659146 0.0573432731
50299700.0 -0.1975022951 0.060265572 0.5138958391 -0.0125477595 0.5144335166 -0.0121265975 -0.2018122398 0.0596663742
55299670.0 -0.1934254758 0.061972772 0.517710559 -0.0185664453 0.5180395484 -0.0179008575 -0.1982901597 0.0615291628
60299640.0 -0.1891794185 0.0626715037 0.5212043558 -0.024515016 0.5214059233 -0.0241448876 -0.1945293606 0.0634138504
65299610.0 -0.1863331727 0.0639729794 0.5245503028 -0.0301217887 0.5247053233 -0.0302684635 -0.1911218955 0.064586566
70299580.0 -0.1825847243 0.0642723536 0.5266331942 -0.0372499014 0.5266535793 -0.0376585787 -0.1879574845 0.0658385535
75299550.0 -0.1795562032 0.065038825 0.5283223103 -0.0441031888 0.5285981061 -0.0441115752 -0.1851074994 0.0669485409
80299520.0 -0.1771668519 0.0655718994 0.5306467438 -0.0504527948 0.5308632875 -0.050869366 -0.182221733 0.0675492519
85299490.0 -0.1746068705 0.0659288042 0.5321004231 -0.058014693 0.5319251993 -0.057941385 -0.1803365433 0.0684966556
90299460.0 -0.1726465689 0.0664342875 0.5332333822 -0.0646138355 0.5332010059 -0.0648960385 -0.1775863082 0.0695039826
95299430.0 -0.1703121079 0.0672882015 0.5341276933 -0.0722421498 0.5340535364 -0.0716684522 -0.1759996997 0.0702157918
100299400.0 -0.1688157377 0.0677629152 0.5342139144 -0.0786896677 0.5344018265 -0.078694761 -0.1744550097 0.0709886528
105299370.0 -0.1669812372 0.0678422652 0.5343010315 -0.0850888959 0.5347445743 -0.0858010985 -0.1720810435 0.0718075574
110299340.0 -0.1654599604 0.0684793612 0.5345051759 -0.0921670514 0.5347851137 -0.0927650466 -0.1704332643 0.0728829956
115299310.0 -0.1639896294 0.0685790813 0.534786578 -0.0989255164 0.5347544178 -0.0988686178 -0.1689971794 0.0730782655
120299280.0 -0.1630336361 0.0693758732 0.5345610595 -0.1060047017 0.5346928079 -0.1061984285 -0.16812892 0.0742761579
125299250.0 -0.1618977489 0.0699197251 0.5342589661 -0.1126524738 0.5343581702 -0.1127122544 -0.1664614053 0.0745553681
130299220.0 -0.1604476987 0.0704392117 0.5335909501 -0.1187783417 0.5336225386 -0.1197015871 -0.1653536605 0.0759537275
135299190.0 -0.1595646772 0.0710371226 0.5332409876 -0.1256464545 0.5323919583 -0.1261851652 -0.1641662567 0.0770356524
140299160.0 -0.1586355236 0.0722443327 0.5319809328 -0.1323947878 0.5325279719 -0.1325746596 -0.1629406937 0.0781408305
145299130.0 -0.1575165408 0.0727647618 0.5316441634 -0.1395102129 0.5310523246 -0.1392232618 -0.1619618495 0.0788669668
150299100.0 -0.1567067609 0.0734844498 0.5302899927 -0.1458814091 0.5304209328 -0.145723514 -0.1605651492 0.079835922
155299070.0 -0.1557719686 0.0747512087 0.5290325432 -0.1523672594 0.5290828764 -0.152542935 -0.1601255452 0.0810096001
160299040.0 -0.1549468984 0.0755216628 0.5275259964 -0.1589162942 0.5278279964 -0.1588752522 -0.159087678 0.0823735616
165299010.0 -0.1542538667 0.0762234936 0.5264602867 -0.1652840905 0.5261784423 -0.1653892549 -0.1580705517 0.0831645388
170298980.0 -0.153689364 0.0771093101 0.5240475066 -0.1717044986 0.5247834194 -0.1716861704 -0.1567289124 0.0845216346
175298950.0 -0.1526717589 0.0782055044 0.5232782206 -0.1776854838 0.5233616216 -0.1778897358 -0.1557405491 0.0853857551
180298920.0 -0.1517537065 0.0791232082 0.5217328683 -0.1842171998 0.5217658159 -0.1839689693 -0.1551256914 0.0870078335
185298890.0 -0.1510051616 0.0803775802 0.519440286 -0.1907122507 0.5193263572 -0.1905645174 -0.1539955933 0.0881187385
190298860.0 -0.1504829035 0.0812805453 0.5175332169 -0.1968944474 0.5176347378 -0.1969714699 -0.1524795192 0.0893983824
195298830.0 -0.1495104065 0.0820652011 0.5156003387 -0.2026630072 0.5154391218 -0.20289233 -0.1521119572 0.0903263288
200298800.0 -0.1490043011 0.0834895206 0.5137084086 -0.208272105 0.5135485991 -0.2088374458 -0.1509656559 0.0923217765
205298770.0 -0.1480709683 0.0843700434 0.5117286329 -0.2146799288 0.5113935385 -0.2147763637 -0.1501200221 0.0929715403
210298740.0 -0.1474477657 0.0855308073 0.5090582093 -0.2214546247 0.5095336225 -0.2212258742 -0.1490997449 0.0948470206
215298710.0 -0.1467178171 0.0870209058 0.5072262825 -0.226484534 0.5068014782 -0.2268377971 -0.148602286 0.0959644536
220298680.0 -0.1459510329 0.0883230548 0.5044884492 -0.2331672291 0.5045777426 -0.2328064367 -0.147185604 0.0975228809
225298650.0 -0.1446171374 0.089134947 0.5014131216 -0.2383057844 0.5016459725 -0.2382404302 -0.1462894096 0.0990185771
230298620.0 -0.1443324106 0.0905352785 0.4994530519 -0.2446104962 0.4993663453 -0.2444407666 -0.1451496185 0.1004590716
235298590.0 -0.1436268517 0.0915168213 0.4968422205 -0.2497389203 0.497098414 -0.2503956491 -0.1440137932 0.101456015
240298560.0 -0.1428521782 0.0931935704 0.4942916253 -0.2555885138 0.4940657747 -0.2555861808 -0.1429892267 0.1029491691
245298530.0 -0.1417875913 0.09419724 0.4903597668 -0.2615314466 0.4913305614 -0.2618616046 -0.1419383649 0.1046942679
250298500.0 -0.1417236236 0.0954272948 0.4885542078 -0.2666346796 0.4887428659 -0.2664588628 -0.1406188732 0.105870108
255298470.0 -0.1404999838 0.0965369844 0.4855119845 -0.2728750154 0.4857840979 -0.2727134702 -0.1397945163 0.107153101
260298440.0 -0.1398244953 0.0979858321 0.4826503327 -0.2780402598 0.4827153619 -0.2784972086 -0.1380526232 0.1087401701
265298410.0 -0.1385513656 0.0993279359 0.4793829574 -0.2842133589 0.4792630186 -0.2837929369 -0.1372714858 0.1099508971
270298380.0 -0.1381391405 0.1005202983 0.4759521931 -0.2891427748 0.4763812461 -0.2895890646 -0.1357360871 0.1117846744
275298350.0 -0.1370720409 0.101882243 0.4735608301 -0.294869485 0.4732726767 -0.2950397755 -0.1347347465 0.113244408
280298320.0 -0.1361285722 0.1033710595 0.4700887478 -0.299633741 0.4697885556 -0.3003633516 -0.1334460051 0.1147200299
285298290.0 -0.135155721 0.1049532753 0.4669531188 -0.3053635383 0.4665257883 -0.3054783861 -0.1323804675 0.1163084839
290298260.0 -0.1342951963 0.105872562 0.4638726269 -0.3106298399 0.4636879536 -0.3106000087 -0.1308771116 0.1179713705
295298230.0 -0.1332570505 0.1070705438 0.4600517663 -0.3162493367 0.4601313633 -0.3160080794 -0.1295405177 0.119314907
300298200.0 -0.1322763014 0.108201475 0.4567570595 -0.320973261 0.4567830217 -0.3215017315 -0.1281898441 0.1206490872
305298170.0 -0.1311217764 0.1096224403 0.4535775074 -0.3267182961 0.4533038698 -0.326724412 -0.1265475762 0.122249966
310298140.0 -0.1294127331 0.1104560014 0.4496512519 -0.332046039 0.4497698383 -0.3321031059 -0.1254931342 0.1239720783
315298110.0 -0.129254804 0.1119697708 0.4460231883 -0.3369655089 0.446239213 -0.3370474066 -0.1236970705 0.1249577111
320298080.0 -0.1282321214 0.1131307245 0.4421520328 -0.3422153371 0.4424153487 -0.3421164897 -0.1226094993 0.1262140183
325298050.0 -0.1272222426 0.1139861332 0.438764142 -0.3474523535 0.4386751009 -0.3476747222 -0.1212463695 0.1276405354
330298020.0 -0.1262645715 0.1155874036 0.43400354 -0.3519922301 0.4343399566 -0.3523184494 -0.1199288798 0.1286496011
335297990.0 -0.1252420424 0.1165653203 0.4302998338 -0.3570456492 0.4303147794 -0.3573252566 -0.1189577836 0.1301747304
340297960.0 -0.1248804193 0.1182147884 0.4259614001 -0.3623448654 0.4266827552 -0.3616647796 -0.1178127014 0.1321049182
345297930.0 -0.1238414721 0.1194817189 0.4225939439 -0.3666863896 0.4216550916 -0.3663806401 -0.1162602405 0.1330962316
350297900.0 -0.122260138 0.1209167933 0.417813311 -0.3708837079 0.418347699 -0.3711688859 -0.1150900306 0.1350142184
355297870.0 -0.1214999013 0.1220011235 0.4137004863 -0.3757661552 0.4136029607 -0.3759819823 -0.1137046956 0.1364178882
360297840.0 -0.120452236 0.123304025 0.4095939724 -0.3805031671 0.4099886325 -0.3804126211 -0.1121874098 0.1380727234
365297810.0 -0.1191303456 0.1244691755 0.4053618058 -0.3845926669 0.4053498699 -0.3850932925 -0.1106799864 0.1397112724
370297780.0 -0.1176335097 0.1259606549 0.401141135 -0.3890602974 0.4014367472 -0.3895279966 -0.1091441879 0.1410439203
375297750.0 -0.1167591798 0.1276173679 0.3973368775 -0.3935216501 0.396809739 -0.3938682179 -0.1077641921 0.1421154738
380297720.0 -0.1154188792 0.1282191525 0.3924555903 -0.3977693129 0.3924088483 -0.3976731551 -0.1060321089 0.1438373605
385297690.0 -0.1143548945 0.130074822 0.3880583358 -0.4015926936 0.3881596685 -0.4021094924 -0.1045637041 0.1453778957
390297660.0 -0.1132582549 0.1309939178 0.3834162808 -0.4065774975 0.3833398362 -0.4068469504 -0.1028359797 0.1459999056
395297630.0 -0.1116103656 0.1320414018 0.379256485 -0.410741812 0.3793206383 -0.41074087 -0.1015297613 0.1480669287
400297600.0 -0.1106755528 0.1337238219 0.3743639926 -0.4152297917 0.3749027532 -0.4149071419 -0.1002176205 0.148997288
405297570.0 -0.1092904156 0.1349661026 0.3703231657 -0.4191503806 0.3701910892 -0.4193541645 -0.0982228161 0.1507463194
410297540.0 -0.1079535585 0.1357962469 0.364761719 -0.4225243229 0.3650772702 -0.4230260668 -0.0969312849 0.1519075464
415297510.0 -0.1066534651 0.1372834458 0.3605497774 -0.4264906007 0.3611516002 -0.4268515295 -0.0953679507 0.1533932589
420297480.0 -0.1052170185 0.1379594879 0.3556118744 -0.431044339 0.3562327309 -0.4309780004 -0.0936524957 0.1542345818
425297450.0 -0.1036114621 0.1392356575 0.3512979126 -0.4347042356 0.3517282668 -0.4346703413 -0.0917285376 0.1555775893
430297420.0 -0.1028053069 0.1404116998 0.3463881981 -0.4389980505 0.3466359079 -0.4389338552 -0.0903558627 0.1567433774
435297390.0 -0.1012439157 0.1415938131 0.3418940094 -0.442045712 0.3418033212 -0.4419515636 -0.0884890729 0.158274448
440297360.0 -0.0996031311 0.1425200732 0.3365294928 -0.4459843569 0.3364981566 -0.445965446 -0.0871499878 0.1588982785
445297330.0 -0.0983761567 0.1434291673 0.3313406418 -0.4499000892 0.3316762686 -0.4496794589 -0.0849546344 0.1601141076
450297300.0 -0.0970452236 0.1448484397 0.3268843681 -0.4532418875 0.3267089228 -0.4532085411 -0.0833582459 0.161334374
455297270.0 -0.0957575423 0.1458832917 0.3221552176 -0.4569502961 0.3221184621 -0.4566058173 -0.0814551985 0.1625804122
460297240.0 -0.094607697 0.1470747703 0.3163219592 -0.4602302344 0.3165817459 -0.4604707843 -0.0799029005 0.1639586891
465297210.0 -0.0925183753 0.1478742185 0.3117966561 -0.4637861184 0.3119412902 -0.4637186937 -0.0783258104 0.1647561676
470297180.0 -0.0914541638 0.1487895816 0.3068204619 -0.4670241591 0.3071837827 -0.4671682097 -0.0769632429 0.1659448506
475297150.0 -0.0901917255 0.1496443564 0.3014903309 -0.4699820111 0.3020199474 -0.469784183 -0.0746933357 0.1670329496
480297120.0 -0.0885320905 0.1504827379 0.2964608166 -0.4731860942 0.2966082794 -0.473283164 -0.0730420755 0.1682117038
485297090.0 -0.0868105867 0.1516695157 0.2913288123 -0.4768753885 0.2916123622 -0.4766981157 -0.0713121833 0.1688256187
490297060.0 -0.085369581 0.1525744595 0.2860798923 -0.48036451 0.2862276563 -0.4800337707 -0.0694652469 0.1700785924
495297030.0 -0.0841346739 0.1538191089 0.2808662998 -0.4830300928 0.2807219342 -0.4830055043 -0.0675132791 0.1706279888
500297000.0 -0.0823795419 0.1543153472 0.2754616448 -0.4858189847 0.2757283392 -0.485771837 -0.0662266306 0.1714305063
505296970.0 -0.0811123464 0.1552772448 0.2700088315 -0.4885266344 0.2701769947 -0.4886787086 -0.0644463565 0.1726647354
510296940.0 -0.0794562738 0.1563800393 0.2645959162 -0.4918493168 0.2650065983 -0.4920276573 -0.062012963 0.1738082218
515296910.0 -0.0780927438 0.1574151105 0.2594224332 -0.4942866348 0.2596910828 -0.4942547711 -0.0602377634 0.1744835542
520296880.0 -0.0764785874 0.15791119 0.254021644 -0.4969590043 0.2543628665 -0.4971767455 -0.0582560588 0.1751907475
525296850.0 -0.075352914 0.1588790872 0.2488357042 -0.4997663364 0.2488340816 -0.5004702309 -0.0560962946 0.1762183666
530296820.0 -0.0736012908 0.1595892893 0.2434283414 -0.5019229217 0.2434278363 -0.5023520136 -0.0548103744 0.1767268874
535296790.0 -0.0719796974 0.1604645574 0.2377145655 -0.5046635332 0.2378774581 -0.5048402406 -0.052810339 0.1773937808
540296760.0 -0.070316931 0.1612443012 0.2321889877 -0.5078532872 0.2318111501 -0.5080349435 -0.0512026076 0.1784490701
545296730.0 -0.0686699618 0.1622897137 0.226344575 -0.509881894 0.2266964118 -0.5101205408 -0.0491338593 0.178811035
550296700.0 -0.0677446774 0.1630290483 0.2215388629 -0.5125716017 0.2217279358 -0.5125338607 -0.0472716448 0.1799614801
555296670.0 -0.0655311048 0.1636236316 0.2156047165 -0.5149642086 0.2156317098 -0.5148558143 -0.0449964258 0.1806628441
560296640.0 -0.0640043019 0.1643617335 0.2101123596 -0.5170426532 0.2098733725 -0.516776917 -0.0431012711 0.181262111
565296610.0 -0.0627835408 0.1651466188 0.2041831549 -0.5192023344 0.2045370151 -0.5195313669 -0.0415592922 0.1816295472
570296580.0 -0.0606879633 0.1656978623 0.1986590032 -0.5211335975 0.1990959661 -0.521535244 -0.039112061 0.182793334
575296550.0 -0.0593004613 0.166873327 0.1932556656 -0.5232905902 0.193370018 -0.5234515559 -0.0369552604 0.1833517152
580296520.0 -0.0574977849 0.1675774238 0.1873780579 -0.5257201944 0.1873842231 -0.525731175 -0.0352259465 0.1836911566
585296490.0 -0.0560079497 0.1677059773 0.1820122192 -0.5276435214 0.1817133111 -0.5275592485 -0.0331446099 0.1840921321
590296460.0 -0.0548019792 0.168575197 0.1759884383 -0.5295814356 0.1759463173 -0.5294455748 -0.0312658965 0.1849356582
595296430.0 -0.0530663739 0.1696025656 0.1706258525 -0.5315154981 0.1698677101 -0.5314520484 -0.0290504457 0.18505521
600296400.0 -0.0512991574 0.1698670615 0.1645469877 -0.5332866306 0.164914574 -0.5332286182 -0.0273182675 0.1860644297
605296370.0 -0.0495661284 0.1709722556 0.1585522111 -0.5349651143 0.1591044702 -0.5349139139 -0.0251402879 0.1863698741
610296340.0 -0.0479975865 0.1711837586 0.1533732206 -0.536355393 0.1531031208 -0.5367413723 -0.0231972059 0.1869897781
615296310.0 -0.0463582789 0.1720952866 0.1471796521 -0.5379923164 0.1470537596 -0.5381305529 -0.0210104328 0.1871309056
620296280.0 -0.044548142 0.1723810536 0.1413002689 -0.5392598369 0.141287305 -0.5399378976 -0.0189638918 0.1871050599
625296250.0 -0.0429220844 0.173119713 0.1349729782 -0.5414457573 0.1353705885 -0.5413897914 -0.0171356462 0.1882273002
630296220.0 -0.0412421112 0.1737050434 0.1292077779 -0.5428403627 0.1301138856 -0.542204012 -0.0155134858 0.1883096689
635296190.0 -0.0395181679 0.174326553 0.1236409427 -0.5437207697 0.1237991055 -0.5432485819 -0.0133181162 0.1884837712
640296160.0 -0.0378548379 0.1746297945 0.1178692601 -0.5451440674 0.1176626118 -0.5452249245 -0.0108158601 0.1886534442
645296130.0 -0.036058661 0.1753469399 0.1117181552 -0.5466012729 0.111949373 -0.546438187 -0.0095863612 0.1889837486
650296100.0 -0.0345567611 0.1761791109 0.1066806411 -0.5475586639 0.1063280889 -0.5470757045 -0.0071717005 0.1891828172
655296070.0 -0.0328910155 0.1762596194 0.1000854719 -0.5482903824 0.099939421 -0.5486434406 -0.0047834679 0.1899051974
660296040.0 -0.0315277363 0.1770175476 0.0941295233 -0.5490587352 0.0944549156 -0.5493661063 -0.0030996553 0.1894779476
665296010.0 -0.0293718828 0.1770139649 0.0887014694 -0.5507162026 0.0888858555 -0.5506415455 -0.0012258232 0.1903090118
670295980.0 -0.0271922709 0.177880273 0.0824680345 -0.5513205751 0.0825725113 -0.5513640617 0.0006943331 0.1899017453
675295950.0 -0.0256675427 0.1781063496 0.0762016358 -0.5521551815 0.0768328283 -0.5525589189 0.003162261 0.1902837176
680295920.0 -0.0239792163 0.1788590333 0.0704083306 -0.5531202786 0.070371558 -0.5531173214 0.0053545657 0.1904204551
685295890.0 -0.0223543374 0.1789672298 0.0646045231 -0.5538216425 0.0643100621 -0.5537475492 0.0073373332 0.1906031916
690295860.0 -0.0202274151 0.1793792134 0.0584067887 -0.5537764217 0.0579497131 -0.5538985689 0.0095176798 0.1907576486
695295830.0 -0.0184952355 0.1794750927 0.0518951041 -0.5547525906 0.0517813581 -0.5547832577 0.0113283046 0.1906729522
700295800.0 -0.0169607819 0.1801485179 0.0464139673 -0.5556895785 0.0463303585 -0.5555051103 0.0133030048 0.1902993523
705295770.0 -0.0150122082 0.1805017187 0.0408043808 -0.5555019172 0.040572175 -0.5556114289 0.0153339049 0.1905735514
710295740.0 -0.0132526821 0.1808261391 0.0342983575 -0.5559754996 0.034246891 -0.5560508571 0.0169723103 0.1907703003
715295710.0 -0.011761011 0.1811222897 0.0281434126 -0.5564530054 0.028712031 -0.556664701 0.0193397968 0.1900831587
720295680.0 -0.0099136993 0.1809766614 0.0221519912 -0.5566184809 0.0225675571 -0.5568556536 0.0217424806 0.1905590592
725295650.0 -0.0077390146 0.1814334534 0.015842583 -0.5565691009 0.016431849 -0.5568028516 0.0237105343 0.1904161048
730295620.0 -0.0064862958 0.1814148816 0.0102552539 -0.5570778667 0.0102493301 -0.5566738568 0.0260702917 0.1896716679
735295590.0 -0.004064634 0.1818437992 0.0047759413 -0.5572013885 0.0043189942 -0.5570528876 0.0279985849 0.190136826
740295560.0 -0.0024279665 0.1822385178 -0.0018105307 -0.5565821682 -0.0016202046 -0.557028782 0.0300853151 0.1898736796
745295530.0 -0.0009525933 0.182124347 -0.0075245063 -0.5570339078 -0.0074503627 -0.557477884 0.0315121385 0.1896313152
750295500.0 0.0008166204 0.1821219631 -0.0134173545 -0.556271407 -0.0134483173 -0.5564315406 0.0340901113 0.188885546
755295470.0 0.0031145088 0.1827058707 -0.0195844599 -0.5566790847 -0.0193273843 -0.5569403598 0.0357200987 0.1891839076
760295440.0 0.0045851859 0.1828621206 -0.0258695919 -0.5562782484 -0.0256045808 -0.5561550967 0.0375868471 0.1888932427
765295410.0 0.0062522032 0.1825021116 -0.031035467 -0.5558191661 -0.0313124554 -0.5560027663 0.0406453871 0.188751554
770295380.0 0.0083315626 0.1830332218 -0.0372542344 -0.5553982816 -0.0373344947 -0.5558509024 0.042479512 0.1884118464
775295350.0 0.0098953011 0.1829831503 -0.0436545911 -0.5547884104 -0.0433412587 -0.5546912364 0.0440156427 0.1876233345
780295320.0 0.0120711981 0.1826799032 -0.0496722237 -0.554300021 -0.0495643922 -0.5545115434 0.0462072562 0.1878070029
785295290.0 0.0137077388 0.1834183318 -0.0558045688 -0.553233697 -0.0552135946 -0.5542246979 0.0479381079 0.1874724618
790295260.0 0.0152992064 0.1832421782 -0.0614046581 -0.5535385843 -0.0613347276 -0.55375137 0.0507207929 0.1869246762
795295230.0 0.017020914 0.1833370106 -0.0668473639 -0.5518305054 -0.0670070914 -0.5525512969 0.0523959306 0.1870731461
800295200.0 0.0190111934 0.1835481836 -0.0736807648 -0.5520267505 -0.0737456047 -0.552022322 0.0548363884 0.186074813
805295170.0 0.0206471167 0.1830969682 -0.0790904855 -0.5504840446 -0.0794862036 -0.5504073592 0.0563652963 0.1852600515
810295140.0 0.0224598698 0.1830476132 -0.0851439977 -0.5498429188 -0.0849338714 -0.5505723463 0.0587231427 0.1853564884
815295110.0 0.0243532625 0.1830982096 -0.0909449986 -0.5488643278 -0.0911776791 -0.5491174473 0.0605903283 0.1844726926
820295080.0 0.0261574207 0.182469618 -0.0967734904 -0.5479462191 -0.0971309081 -0.5480558069 0.0621882549 0.1842287737
825295050.0 0.0281118834 0.1826565232 -0.1025605051 -0.5463486657 -0.1028949862 -0.5468645955 0.0646631653 0.1836960328
830295020.0 0.0297686456 0.1826660155 -0.1084304435 -0.5452544164 -0.1089881065 -0.5455887465 0.0663502964 0.1829943683
