!Created with skrf (http://scikit-rf.org).
# Hz S RI R 50.0 
!freq ReS11 ImS11 ReS21 ImS21 ReS12 ImS12 ReS22 ImS22
300000.0 -0.3201588138 -0.0757281715 0.3765306692 0.0390889104 0.3748992325 0.0366393809 -0.3249376055 -0.0863871994
5299970.0 -0.326397116 0.0047794189 0.3782038402 0.0021546573 0.3784942264 0.0024875118 -0.3244549157 0.0054473732
10299940.0 -0.3240567354 0.0133581102 0.379085675 0.0018321893 0.3795771351 0.002309367 -0.3220400625 0.0161020256
15299910.0 -0.3217155847 0.0204239446 0.3820504014 0.002267632 0.3823076854 0.0018162413 -0.3189856557 0.0238654496
20299880.0 -0.3186330571 0.0261201518 0.3846741477 0.0022037229 0.3848035954 0.0017166356 -0.3153405913 0.030281527
25299850.0 -0.3158418769 0.0316641859 0.3882976067 -0.0003757049 0.388213263 8.7672e-05 -0.3113387752 0.0359472929
30299820.0 -0.3131941102 0.0357829075 0.3915955279 -0.0021141871 0.391694108 -0.0022458792 -0.3074559376 0.0406446885
35299790.0 -0.3100890078 0.0398795498 0.3948698079 -0.0052440831 0.3951070163 -0.0051548757 -0.3040699975 0.0447881705
40299760.0 -0.3073405642 0.0434003412 0.3980109314 -0.0088270087 0.3978904934 -0.0088048318 -0.3005909395 0.0482302322
45299730.0 -0.3048357497 0.0465191154 0.400597055 -0.0130471969 0.4011162402 -0.0124887274 -0.2973569852 0.0513618751
50299700.0 -0.302679901 0.0494799496 0.4036715578 -0.0172323286 0.4033223427 -0.0169406978 -0.2943695024 0.0539484912
55299670.0 -0.3004211765 0.0522149005 0.4058418019 -0.0223850833 0.4054643588 -0.0220822249 -0.2917593244 0.0568547523
60299640.0 -0.2978759781 0.0547222315 0.407269828 -0.0270491682 0.4078570224 -0.0267068045 -0.2891902699 0.0592409799
65299610.0 -0.2963695788 0.0573540236 0.4090895963 -0.0318739305 0.4094586515 -0.0319368257 -0.2872179707 0.0616052908
70299580.0 -0.2947100266 0.05976903 0.4103766906 -0.0368558995 0.4106237157 -0.0367913031 -0.2850142113 0.0639010846
75299550.0 -0.2929315811 0.0623031632 0.4111812963 -0.0420605369 0.4113541033 -0.042161469 -0.2831511861 0.0658103983
80299520.0 -0.2916972364 0.0647412627 0.4126854643 -0.0473655071 0.4125470421 -0.0474508124 -0.2815595925 0.0680204706
85299490.0 -0.2900053993 0.0669595656 0.4127518446 -0.0521528316 0.4129128825 -0.0523625375 -0.2798948348 0.0695984425
90299460.0 -0.2887631598 0.0690445546 0.4130716648 -0.0577684851 0.4134780705 -0.0577524158 -0.2780573613 0.0719133712
95299430.0 -0.2875138673 0.0713753323 0.4137729994 -0.0628224351 0.4136053164 -0.0632476944 -0.2766867661 0.0744899871
100299400.0 -0.2863149615 0.0743215951 0.4131555994 -0.0681431055 0.4133748953 -0.0679729204 -0.2748682938 0.0759706639
105299370.0 -0.2850765015 0.0766878741 0.413344399 -0.0737878833 0.4133225194 -0.0735284332 -0.2733669211 0.0782057906
110299340.0 -0.2839398217 0.0784051718 0.4131398981 -0.0783406693 0.4133194686 -0.0782780467 -0.2729111628 0.0803040948
115299310.0 -0.2827493323 0.0809773751 0.4132868252 -0.0836442405 0.4129898736 -0.0838249767 -0.2716041461 0.0827467011
120299280.0 -0.2820103555 0.082740048 0.4124708128 -0.0887462345 0.4126523252 -0.0887521369 -0.270653202 0.0849217801
125299250.0 -0.2810812774 0.0853913119 0.4119215954 -0.0936952379 0.4120719649 -0.09356858 -0.2698420349 0.0867764132
130299220.0 -0.2804567839 0.0879951866 0.4112307313 -0.0989902046 0.4110079026 -0.0992111193 -0.268579272 0.0890368521
135299190.0 -0.2793316988 0.0906913057 0.4106362335 -0.1039163233 0.4106126696 -0.1039849041 -0.2674186729 0.0915013801
140299160.0 -0.2785993215 0.0930307871 0.4101153841 -0.1087727781 0.4098860515 -0.108984418 -0.2664244805 0.0938916344
145299130.0 -0.2774043581 0.0956110378 0.408924829 -0.1140661455 0.4088680252 -0.1139224373 -0.2657018523 0.0962557647
150299100.0 -0.2763774266 0.0979750893 0.4077868045 -0.1185310799 0.4077364909 -0.1185050691 -0.2648122279 0.0988767044
155299070.0 -0.2757461606 0.1006922813 0.4072282939 -0.1241602641 0.4069897428 -0.1239041942 -0.2638733045 0.101087728
160299040.0 -0.2745018277 0.1035490429 0.405148891 -0.1288285022 0.4052461537 -0.1283655537 -0.2631345918 0.1031511511
165299010.0 -0.2739587652 0.1060442574 0.4046483946 -0.1337466153 0.4043809952 -0.1335967578 -0.2618740416 0.1058262929
170298980.0 -0.2729525705 0.1086379469 0.4027098267 -0.1385797035 0.4030264889 -0.1382413651 -0.260789109 0.1080659049
175298950.0 -0.2716443996 0.1113438425 0.4016123594 -0.1430195487 0.4016054493 -0.1431268797 -0.260030883 0.1107977459
180298920.0 -0.2709412411 0.1141448326 0.4003070002 -0.147969444 0.4000493382 -0.1477072566 -0.2590816961 0.1133676571
185298890.0 -0.2696990291 0.1163469397 0.3986244903 -0.1524327705 0.39859059 -0.1524904002 -0.2575557757 0.1155694184
190298860.0 -0.2687462813 0.1191401744 0.3967689622 -0.1570950721 0.397595894 -0.156998605 -0.2567355791 0.1180694209
195298830.0 -0.2678171115 0.1216138758 0.3950890829 -0.1619241919 0.3955232942 -0.1614149001 -0.2557744996 0.1205488067
200298800.0 -0.2663553939 0.1246141905 0.3932805664 -0.167021814 0.3936619336 -0.1665927439 -0.2547889774 0.1231561579
205298770.0 -0.265783649 0.1271769567 0.3917076122 -0.1712218109 0.3916996806 -0.170885257 -0.2535590308 0.1252574393
210298740.0 -0.2644564833 0.1296953773 0.3899089142 -0.1751901949 0.3899847018 -0.1752126413 -0.251865696 0.1283871172
215298710.0 -0.2637142288 0.1326858494 0.3881584172 -0.1797625704 0.3879349395 -0.1803512886 -0.2512409871 0.130794052
220298680.0 -0.262028152 0.1350870192 0.3857257919 -0.1842344834 0.3861050321 -0.1843675656 -0.2502481267 0.1330400814
225298650.0 -0.2611374076 0.1377966803 0.3841922383 -0.1889754275 0.3842299738 -0.188660505 -0.2492197637 0.1356543543
230298620.0 -0.259520069 0.1408849309 0.3820124389 -0.1932058554 0.3825860826 -0.1932562336 -0.2478171731 0.1381505073
235298590.0 -0.2583337893 0.1437695595 0.3799041777 -0.1975461278 0.3799287076 -0.197384912 -0.2462211165 0.1406437917
240298560.0 -0.2570324191 0.1461156353 0.3779921543 -0.2022594257 0.377816337 -0.202174666 -0.2452580802 0.1435796543
245298530.0 -0.2560087654 0.1489677508 0.3758355131 -0.2063659651 0.375479746 -0.2067305673 -0.2437231793 0.1458608694
250298500.0 -0.2540669105 0.1515454587 0.3727802367 -0.2111277511 0.3727000188 -0.2105122551 -0.2426813697 0.14833643
255298470.0 -0.2532773672 0.1540141494 0.3708064011 -0.214885321 0.3707754412 -0.2148112023 -0.2409932383 0.150858957
260298440.0 -0.2516579778 0.1565644267 0.3682854451 -0.2191346025 0.36848305 -0.219219964 -0.2394625508 0.1535327718
265298410.0 -0.2501839812 0.1597657053 0.36586059 -0.2234826394 0.3664389292 -0.2232097638 -0.2380994297 0.1564659132
270298380.0 -0.2483949511 0.1624090016 0.3636539623 -0.2276650751 0.3637370315 -0.2273057074 -0.2366990695 0.1588338545
275298350.0 -0.2469872045 0.1649342659 0.361241445 -0.2312804791 0.3611925781 -0.2316514406 -0.2349687037 0.1613657322
280298320.0 -0.2451910598 0.1677214863 0.3590575222 -0.2356945745 0.3588600762 -0.2353271822 -0.233352563 0.1635955476
285298290.0 -0.2437452961 0.1708428085 0.3560763246 -0.2398493869 0.3558024561 -0.2396867709 -0.2317319909 0.1665054918
290298260.0 -0.2419463243 0.1734231519 0.3530421954 -0.2437003972 0.3535630959 -0.2435259516 -0.2302672683 0.1691809875
295298230.0 -0.2401019544 0.1754484475 0.3507154246 -0.2475337546 0.3510110212 -0.2477927273 -0.228253156 0.1713863463
300298200.0 -0.2386543853 0.1781873669 0.348494569 -0.2513577347 0.3484223266 -0.2520349458 -0.2267270365 0.1736692145
305298170.0 -0.2368013982 0.1804999968 0.344941062 -0.2558186684 0.3452463587 -0.2554763562 -0.2246761026 0.1762212666
310298140.0 -0.2351530108 0.1837722642 0.3423976966 -0.2596430017 0.3425773409 -0.2594893972 -0.2236404724 0.1786616987
315298110.0 -0.2331530808 0.1858224346 0.3396018677 -0.2633246903 0.3398261411 -0.2635030694 -0.2215460604 0.1811798265
320298080.0 -0.2312033613 0.1883920481 0.3361318703 -0.267524924 0.3367107429 -0.2673740943 -0.2198272891 0.1835415399
325298050.0 -0.2296257353 0.1908014396 0.3335364982 -0.2712677297 0.3336729274 -0.27085358 -0.2183497626 0.1856631594
330298020.0 -0.2278342963 0.1930857288 0.330424876 -0.2748976786 0.3307074503 -0.2749396737 -0.2167407075 0.1881733524
335297990.0 -0.2260513138 0.1955749704 0.3274909211 -0.278487839 0.3276533207 -0.2785787903 -0.2152405461 0.1909545721
340297960.0 -0.2243545812 0.1984675752 0.3242184407 -0.2822286452 0.3238409079 -0.2823718331 -0.2127726851 0.1931480441
345297930.0 -0.222089517 0.200799016 0.3207917083 -0.2855975086 0.3205716656 -0.2862012301 -0.210690654 0.1952167144
350297900.0 -0.2203680513 0.2034103722 0.3171295358 -0.2892709705 0.3174900742 -0.2893313516 -0.2092409697 0.1980860184
355297870.0 -0.2178615111 0.2062601566 0.3140642804 -0.293196572 0.3145075436 -0.2926432935 -0.2074427592 0.1999671094
360297840.0 -0.2161685586 0.2082558317 0.311355099 -0.2960882035 0.3116805596 -0.2958150078 -0.2058451636 0.2026072632
365297810.0 -0.214163811 0.2109469309 0.308279793 -0.2996920285 0.308022229 -0.2997814499 -0.2033016348 0.2048767225
370297780.0 -0.2118295113 0.2128312998 0.3044316848 -0.3027898972 0.3045174443 -0.3028621102 -0.2009981991 0.2069691631
375297750.0 -0.2094398342 0.2155649308 0.3009496969 -0.3061297852 0.3016988495 -0.3063514689 -0.1994585581 0.2093240575
380297720.0 -0.2075529635 0.2176508948 0.2974868793 -0.3096484561 0.2980320492 -0.3091509267 -0.1973381239 0.2114119663
385297690.0 -0.2056637225 0.2201686746 0.2941597951 -0.3127915309 0.2940073154 -0.312947839 -0.1947863576 0.2138350274
390297660.0 -0.2032351565 0.2227062677 0.2908101174 -0.3160343415 0.2907524079 -0.3156555975 -0.1932016428 0.2160064475
395297630.0 -0.2006455512 0.2247876532 0.2874097557 -0.3190915014 0.2873389523 -0.3193269539 -0.1899899034 0.2184806993
400297600.0 -0.1987333019 0.2274070006 0.2839319047 -0.3228788461 0.2838630437 -0.3222981476 -0.1883166805 0.2203289189
405297570.0 -0.196257722 0.2293957204 0.2800512364 -0.3250985426 0.2804356412 -0.3250410486 -0.1860789152 0.2226817863
410297540.0 -0.1936820925 0.2315616093 0.2766551957 -0.3284344759 0.2768143014 -0.3286668202 -0.1838180211 0.2249791111
415297510.0 -0.1912218468 0.2336775345 0.2729068525 -0.3317593444 0.2733337432 -0.3317772445 -0.1814528044 0.2269530529
420297480.0 -0.1894781387 0.2362764577 0.2692505229 -0.3345247552 0.2690128096 -0.3345557705 -0.1789828286 0.2291429739
425297450.0 -0.1867505442 0.2380106491 0.2656751933 -0.3370782361 0.2658667449 -0.3373752686 -0.1766323796 0.2314824879
430297420.0 -0.1845909487 0.2402849801 0.2619568181 -0.3402439803 0.2618174624 -0.3397956068 -0.1744091733 0.232842849
435297390.0 -0.1820153354 0.2422896844 0.2578848397 -0.3429607048 0.2577845422 -0.3431192743 -0.1718282177 0.2350632946
440297360.0 -0.1791746528 0.2446741896 0.2541516773 -0.3458237445 0.2546846355 -0.3455747607 -0.1697963542 0.2369184985
445297330.0 -0.17683111 0.2463889249 0.2506284807 -0.3484208541 0.2505876857 -0.3483881197 -0.1672264717 0.2386591055
450297300.0 -0.1742493351 0.2485332454 0.2467515073 -0.3512150083 0.2466421251 -0.3513362102 -0.164521175 0.240706339
455297270.0 -0.1716163978 0.2506045028 0.2426465528 -0.3538959043 0.2428783066 -0.3540908555 -0.1623871138 0.242717851
460297240.0 -0.1693611866 0.2522426672 0.2387927285 -0.3563186202 0.2388151966 -0.356553933 -0.159826095 0.2446803871
465297210.0 -0.1662700659 0.2545522195 0.2349178403 -0.3593387361 0.2348167799 -0.3592790092 -0.1569692988 0.2460948457
470297180.0 -0.1637180384 0.2562729333 0.2309069574 -0.3615503661 0.2309846949 -0.3617876203 -0.1545052681 0.2486082865
475297150.0 -0.1609975507 0.2580409923 0.2263666751 -0.3637168243 0.2267415085 -0.3639681251 -0.1517448008 0.2499504226
480297120.0 -0.1584523351 0.2602221951 0.2229073751 -0.3667520362 0.2227885535 -0.3667984981 -0.149091861 0.2517703646
485297090.0 -0.1556291465 0.2618566695 0.2190511047 -0.3688134138 0.2189651659 -0.3685775507 -0.1466417034 0.2535969124
490297060.0 -0.1532841587 0.2636620882 0.2151493049 -0.3711580116 0.2148032885 -0.371259455 -0.1436592304 0.2554048083
495297030.0 -0.1503686684 0.2656183575 0.2107837567 -0.373557336 0.2110316106 -0.3735351691 -0.141481153 0.2571619479
500297000.0 -0.1473740671 0.2670818279 0.2063864972 -0.3758899463 0.206356857 -0.3757407896 -0.1387043869 0.2591643606
505296970.0 -0.1445990184 0.2686620602 0.202157775 -0.3781580895 0.2022458678 -0.377904946 -0.1358703113 0.2603291797
510296940.0 -0.1419730546 0.2705526205 0.1983184267 -0.3805986628 0.1980200959 -0.3799153147 -0.1331307198 0.2618276436
515296910.0 -0.138715011 0.2720200349 0.1938663965 -0.3821918658 0.1940564825 -0.3824988486 -0.1302585798 0.2636815148
520296880.0 -0.1361750183 0.2738953162 0.1901041122 -0.3845716223 0.1899874995 -0.3842044135 -0.1276774271 0.2647724892
525296850.0 -0.1329368704 0.2746699249 0.1852984061 -0.3861599735 0.1858023809 -0.3863032698 -0.1251819877 0.2667984742
530296820.0 -0.1304060213 0.2770908025 0.1813766371 -0.3883523206 0.1812887273 -0.3882419959 -0.1223257685 0.2676873922
535296790.0 -0.127630096 0.2783078557 0.1773328788 -0.3903162991 0.1774150953 -0.3896753857 -0.119854172 0.269200459
540296760.0 -0.1248594946 0.2796774695 0.1726896671 -0.3923728475 0.1729268507 -0.392398154 -0.116937886 0.2712315821
545296730.0 -0.1218746622 0.2812361105 0.168385359 -0.3937088415 0.1686971452 -0.3938077241 -0.1137865975 0.2721074718
550296700.0 -0.1187283648 0.2827585392 0.1638826861 -0.395717786 0.1643778461 -0.3959074861 -0.111137595 0.2736928357
555296670.0 -0.1160111231 0.2837695974 0.1599142797 -0.3972993285 0.160168655 -0.3972577294 -0.1082267125 0.2749536545
560296640.0 -0.1127793068 0.2856168503 0.1556705408 -0.3989903738 0.1558691512 -0.3992477703 -0.1053937964 0.2763144116
565296610.0 -0.1099524985 0.2869439133 0.1512007598 -0.4006532496 0.1511693479 -0.4006392308 -0.1021983125 0.2774171991
570296580.0 -0.1070205671 0.2878712182 0.1468735911 -0.4028317072 0.1465525471 -0.4023897162 -0.0996621241 0.2788936189
575296550.0 -0.1042067461 0.289531439 0.1425640039 -0.403977957 0.1424198628 -0.404230243 -0.0964818541 0.2800000234
580296520.0 -0.100954835 0.2907160855 0.1380809987 -0.405731399 0.1382482521 -0.4055047739 -0.0934006764 0.2808011915
585296490.0 -0.0983463717 0.2913555251 0.1337249065 -0.4067786115 0.1341088763 -0.4069192379 -0.0907545971 0.2823706584
590296460.0 -0.0944568858 0.2928804707 0.1288870267 -0.4079358723 0.1292287145 -0.4081686192 -0.0875489654 0.283500143
595296430.0 -0.0917429716 0.2939228844 0.1245615293 -0.4099006769 0.1246468841 -0.4097587623 -0.0843344493 0.2837718252
600296400.0 -0.0889824396 0.294800143 0.1202240562 -0.411194015 0.1201176917 -0.410726022 -0.0818268705 0.285236164
605296370.0 -0.0857412961 0.2961599075 0.1155314467 -0.4122794557 0.1158677962 -0.4121936744 -0.0785796466 0.2863281872
610296340.0 -0.0824098988 0.2972233037 0.1109333511 -0.4130955278 0.1111183166 -0.4134366326 -0.07572778 0.2876422461
615296310.0 -0.0789501572 0.2983062209 0.1061708525 -0.4140518791 0.1065838774 -0.4148241026 -0.0721798008 0.2882461943
620296280.0 -0.0761750574 0.2989719654 0.1021945741 -0.4153488225 0.1019811598 -0.415387272 -0.0696272874 0.2892570128
625296250.0 -0.0733448766 0.2997346941 0.0980419339 -0.416609073 0.0977323479 -0.4166247303 -0.0659313867 0.2899388584
630296220.0 -0.0694941055 0.3007293591 0.0925527583 -0.4175934074 0.0930326587 -0.41736513 -0.0632066672 0.2911748417
635296190.0 -0.0668456776 0.301911571 0.088716733 -0.418518195 0.0886459876 -0.4186133337 -0.0602317108 0.2921011181
640296160.0 -0.0636479541 0.3026565351 0.0839655999 -0.4190749371 0.0842489761 -0.4193940643 -0.0570536401 0.2924330672
645296130.0 -0.0606713399 0.3037251597 0.0794275062 -0.4201184805 0.079557381 -0.420483184 -0.0541224274 0.2935415311
650296100.0 -0.0571216865 0.3044437064 0.0746611763 -0.4206344252 0.0749466207 -0.4210284685 -0.0510723162 0.293693376
655296070.0 -0.054234564 0.3049041559 0.0702994781 -0.421663981 0.0704183866 -0.4218784317 -0.047976958 0.2946719898
660296040.0 -0.0512407088 0.3053870002 0.0658504008 -0.4222902897 0.0660117252 -0.4223636331 -0.0447156736 0.2954176569
665296010.0 -0.0475504394 0.3060683411 0.0606654636 -0.4226918458 0.0612021698 -0.4233287871 -0.0417212649 0.2965263899
670295980.0 -0.0450204376 0.3070240493 0.0566750649 -0.4235228347 0.0564026613 -0.4235359322 -0.0387485276 0.2967318591
675295950.0 -0.0416147682 0.3076074682 0.0519586829 -0.4244122598 0.0520890044 -0.4236941882 -0.0359593665 0.2972890881
680295920.0 -0.0385343346 0.3079611184 0.0475169239 -0.4246161607 0.0471798227 -0.4252559938 -0.0323256318 0.2979262208
685295890.0 -0.0349588724 0.308924176 0.0426811608 -0.425164385 0.0426251077 -0.4253414995 -0.0293962289 0.2982874414
690295860.0 -0.0314996614 0.309578809 0.0383214709 -0.4252414467 0.0385648287 -0.4258878078 -0.0263293671 0.2992356056
695295830.0 -0.0285203577 0.3094742558 0.0338223531 -0.4253800549 0.0332394687 -0.4256725398 -0.022974085 0.2991653082
700295800.0 -0.0251966534 0.3098082862 0.0288705556 -0.4258811145 0.0289438892 -0.4258176334 -0.0204977606 0.2997872941
705295770.0 -0.022432225 0.3108100512 0.0242247691 -0.4261605917 0.0248826174 -0.4265086889 -0.0173615628 0.30014356
710295740.0 -0.0186224069 0.3110615126 0.0196922126 -0.4267574426 0.0201258727 -0.4269273421 -0.0141603159 0.3002547882
715295710.0 -0.0156399552 0.3110644067 0.01539116 -0.4266693721 0.0148548521 -0.42673838 -0.0106741302 0.3005501721
720295680.0 -0.0125322687 0.3116336745 0.0106338683 -0.4269849068 0.0106869653 -0.4268739814 -0.007245541 0.3007959006
725295650.0 -0.0092752058 0.3116901143 0.0058925637 -0.4269200021 0.0063003956 -0.4271375504 -0.0049107968 0.3011408518
730295620.0 -0.0058874854 0.3120147703 0.0013319271 -0.4266820788 0.0015262681 -0.4271829422 -0.0017018401 0.3013832589
735295590.0 -0.0026905563 0.3121997622 -0.0030448627 -0.4271809041 -0.0032723137 -0.4266888274 0.0016529306 0.3011474663
740295560.0 0.0003639281 0.3124677134 -0.0079772944 -0.4269550846 -0.0078550044 -0.426992485 0.0049771735 0.3019055998
745295530.0 0.0036247733 0.3124484252 -0.0125568265 -0.4262479399 -0.0124324704 -0.4265597567 0.0084314125 0.3013434356
750295500.0 0.0073951394 0.3123946166 -0.0175090595 -0.4260495572 -0.0170882089 -0.4267199071 0.0115528565 0.3018408361
755295470.0 0.0105129828 0.3121116175 -0.0215735602 -0.4258240352 -0.0217973837 -0.4262261423 0.0152581857 0.3012156316
760295440.0 0.0137776846 0.3126873973 -0.0264286766 -0.4257395479 -0.0264874727 -0.4266351512 0.0179074057 0.3015302987
765295410.0 0.0169253987 0.3127121267 -0.0310852707 -0.4258224545 -0.0311032525 -0.4256359024 0.0214744224 0.3016737206
770295380.0 0.0197812116 0.3124400225 -0.0356963628 -0.4249906101 -0.0357042873 -0.4252375941 0.0243015352 0.3017701955
775295350.0 0.0231366398 0.3122068367 -0.0405993804 -0.4242302663 -0.0398296661 -0.4247114817 0.0270218404 0.3014184748
780295320.0 0.0267090722 0.3119146098 -0.0446299999 -0.4235042121 -0.0442586218 -0.423673459 0.0304234296 0.3008164589
785295290.0 0.0294707006 0.3115558741 -0.0491417983 -0.4231996238 -0.0493125028 -0.4237776643 0.0338757361 0.3008643261
790295260.0 0.0338421737 0.3121027858 -0.0538793282 -0.4229187096 -0.0534811342 -0.4228430593 0.0371861474 0.3009632668
795295230.0 0.0363655721 0.3115194077 -0.0581416792 -0.4223883021 -0.0581088027 -0.4224248285 0.0403550267 0.3008816387
800295200.0 0.039638947 0.3114974 -0.0632064133 -0.4216417634 -0.0628639461 -0.4215318484 0.0435337229 0.3002613941
805295170.0 0.043044326 0.3111006542 -0.0676857453 -0.4211457174 -0.0672864602 -0.4212518714 0.0464190399 0.3003478738
810295140.0 0.0460339699 0.3104364888 -0.0718328043 -0.4196440366 -0.0719681799 -0.4200174028 0.0499546098 0.2999711733
815295110.0 0.0494295548 0.310035792 -0.0768040913 -0.4190676558 -0.0763854647 -0.4196194054 0.0531666866 0.2996542544
820295080.0 0.0524661475 0.3102874756 -0.0811681198 -0.4178621766 -0.0804567677 -0.4185049038 0.0562160918 0.2991351646
825295050.0 0.0563625757 0.309480165 -0.0854423238 -0.417114292 -0.0855972039 -0.4175916533 0.0593202052 0.2987808582
830295020.0 0.0593410521 0.3090778823 -0.0903927222 -0.4161280391 -0.0902433664 -0.4161097724 0.0627742793 0.2980850859
