!Created with skrf (http://scikit-rf.org).
# Hz S RI R 50.0 
!freq ReS11 ImS11 ReS21 ImS21 ReS12 ImS12 ReS22 ImS22
300000.0 -0.7715537344 -0.1347908998 -0.0004705555 -0.0006411768 -0.0003388296 0.0008887087 0.8593706548 -0.0023574693
5299970.0 -0.7849336551 -0.006889432 0.0001444109 -0.0001320826 6.80051e-05 -1.45886e-05 0.8594241292 -0.0104135495
10299940.0 -0.7878951669 -0.0043924802 -1.182e-06 -5.04388e-05 0.0001398318 -0.0002007724 0.858572319 -0.0186103154
15299910.0 -0.7932965186 -0.002716886 -7.42812e-05 7.1119e-05 -7.0713e-05 6.64612e-05 0.85796872 -0.0272083558
20299880.0 -0.8000089187 0.0018424046 -9.81092e-05 -0.0002331531 -1.1313e-05 0.0001310624 0.856958297 -0.0354291477
25299850.0 -0.8063109619 0.0077531203 1.26e-07 0.000107772 7.428e-07 -5.33117e-05 0.8563182005 -0.0435582912
30299820.0 -0.8128231571 0.0153136946 5.62544e-05 3.97433e-05 -0.0002270782 -4.69832e-05 0.8552386005 -0.0521144051
35299790.0 -0.8169895989 0.0246477885 -4.56527e-05 4.15802e-05 0.000262847 -5.0493e-05 0.8545179234 -0.059598249
40299760.0 -0.8211961953 0.0336126333 -1.40663e-05 3.85007e-05 -2.61512e-05 4.61766e-05 0.8535430445 -0.068045066
45299730.0 -0.8244761631 0.0425616967 0.0001792865 6.77668e-05 -3.66284e-05 0.0002006196 0.8521498464 -0.0766298065
50299700.0 -0.8275007284 0.0528263571 -3.62771e-05 -1.85571e-05 1.33522e-05 0.0001459696 0.8517843578 -0.08420638
55299670.0 -0.8294076548 0.0626265628 8.65366e-05 3.84208e-05 -9.24643e-05 -6.7238e-06 0.850684842 -0.0929099877
60299640.0 -0.8301613854 0.0738418937 -2.87174e-05 0.0001722458 -0.0001703988 -1.41855e-05 0.8494300174 -0.1008104197
65299610.0 -0.831272855 0.0832720812 -8.255e-06 6.05926e-05 -5.29506e-05 1.3852e-05 0.8488169396 -0.1086715838
70299580.0 -0.8314120677 0.0935424108 0.0003024741 -3.65014e-05 4.33889e-05 -8.16166e-05 0.8475695714 -0.1169739829
75299550.0 -0.8322907523 0.1034135669 0.0002958473 0.0001138032 -6.66556e-05 -6.69987e-05 0.8460838617 -0.1257136811
80299520.0 -0.8318020375 0.1136093253 4.28703e-05 0.000222012 1.52457e-05 -1.61034e-05 0.8445681994 -0.1332746506
85299490.0 -0.8311509303 0.1222777192 0.0002910338 -0.0001694394 -3.5199e-05 2.17911e-05 0.8434965722 -0.1419599664
90299460.0 -0.8301748076 0.132081851 0.0001092856 -0.0001025018 -6.86011e-05 -3.44108e-05 0.8413802675 -0.1496104121
95299430.0 -0.8295081611 0.1415553328 0.0001349886 -0.000104909 0.0001783022 -9.00055e-05 0.839847427 -0.1583795497
100299400.0 -0.8279878857 0.1511330004 -4.15416e-05 -0.000186732 8.29305e-05 -8.36478e-05 0.8389077378 -0.1669008403
105299370.0 -0.8271059569 0.1602252606 -5.48639e-05 -8.81938e-05 0.0001296618 4.89512e-05 0.8369700058 -0.1746779065
110299340.0 -0.8255065576 0.1693927583 9.66481e-05 0.0001641737 -8.67141e-05 0.0001062462 0.8356889126 -0.1823269463
115299310.0 -0.8238134716 0.1785180243 -8.14545e-05 -6.6579e-06 -4.73822e-05 -0.0001713443 0.8338877202 -0.1906098275
120299280.0 -0.8221977736 0.1871124987 -3.1287e-06 2.0097e-05 4.80804e-05 -9.912e-06 0.832272194 -0.1992351772
125299250.0 -0.8205545367 0.1961113174 -0.0001123661 -0.0001619315 5.00698e-05 -9.64217e-05 0.8303364125 -0.2069852592
130299220.0 -0.8188599109 0.2055036282 -0.0001304521 -8.9219e-05 0.0001633105 -0.0001148182 0.8284528784 -0.2157534819
135299190.0 -0.8165949542 0.2137593166 -0.0001964324 -4.5494e-06 0.0001128702 -0.0001419126 0.826499601 -0.2230384682
140299160.0 -0.814985202 0.2228940657 -8.42151e-05 -0.0001029727 -1.91174e-05 0.0001340687 0.8241618546 -0.2307499092
145299130.0 -0.8124624971 0.2318052341 -3.22968e-05 -1.82381e-05 0.0001209223 5.23858e-05 0.8216293102 -0.2385381509
150299100.0 -0.8100131798 0.2406129183 -0.0001438212 -5.99581e-05 -3.15095e-05 -6.48437e-05 0.8200797272 -0.2468529136
155299070.0 -0.8076971167 0.249385469 8.51491e-05 8.2775e-05 -1.23593e-05 -0.0001223618 0.817069841 -0.2549348518
160299040.0 -0.8052754686 0.2577031683 -0.0002027094 8.58432e-05 -4.16e-05 -8.3809e-06 0.8146477433 -0.2619401244
165299010.0 -0.8030072098 0.2667403649 3.53588e-05 0.0001177204 -3.86386e-05 -1.83958e-05 0.8114376761 -0.2704444553
170298980.0 -0.800213587 0.2748658603 -3.93932e-05 -3.72829e-05 -3.79934e-05 -0.0001145311 0.8087579406 -0.2781063007
175298950.0 -0.7974086282 0.2844648919 1.4095e-05 -8.5615e-05 3.3925e-06 -4.68011e-05 0.8070354271 -0.2859670111
180298920.0 -0.7946858474 0.2926018746 -0.0001771414 7.48591e-05 -2.9591e-06 0.0001666114 0.8036034167 -0.2938786712
185298890.0 -0.7912441154 0.3010403979 -5.13891e-05 1.193e-05 -0.0001249162 -4.24731e-05 0.8003301009 -0.3015320831
190298860.0 -0.7877954436 0.3096623388 -1.98609e-05 -0.0001025832 0.0001131093 8.30849e-05 0.79738135 -0.3085788359
195298830.0 -0.7854634154 0.3181212066 1.10182e-05 -8.26944e-05 -0.0001273271 4.28586e-05 0.7947598779 -0.3166010167
200298800.0 -0.7815112286 0.3263110597 0.0001079314 1.8301e-05 -3.90065e-05 2.51094e-05 0.7912235052 -0.3245041504
205298770.0 -0.7785324333 0.3341335433 0.0001202012 -9.28494e-05 -5.31879e-05 8.93696e-05 0.7881870866 -0.3321216342
210298740.0 -0.7754215777 0.3426836003 -0.0001108164 -0.0001822975 0.000114177 9.6666e-05 0.7841022968 -0.3389345287
215298710.0 -0.7713728401 0.3504731586 -9.26638e-05 -0.0001696033 -6.80277e-05 -7.78377e-05 0.7813804092 -0.3469636354
220298680.0 -0.7673563145 0.358724383 -0.0002726414 -0.0001767472 2.16455e-05 -2.06321e-05 0.7776356701 -0.3544862268
225298650.0 -0.7643821658 0.3664948488 -9.5005e-06 8.43101e-05 9.05559e-05 -4.96181e-05 0.773375131 -0.3618980466
230298620.0 -0.7600454458 0.3743347156 0.0002931994 -0.0001071819 5.02643e-05 4.752e-05 0.7703675302 -0.3694212311
235298590.0 -0.7561805602 0.383031143 4.02464e-05 1.7186e-05 0.0001338235 2.4265e-05 0.7664824222 -0.3769349084
240298560.0 -0.7523036742 0.3912504925 2.3827e-06 -9.08897e-05 4.99241e-05 1.6959e-06 0.7628406986 -0.3846663412
245298530.0 -0.7483097468 0.3987952114 -0.0003001611 1.37304e-05 -0.0002033242 -0.000178137 0.758956142 -0.3915511177
250298500.0 -0.7440775988 0.4069549854 -0.0001155676 -5.44364e-05 1.86222e-05 5.25202e-05 0.755196002 -0.3992238651
255298470.0 -0.7398237274 0.4141856842 -6.6232e-06 -0.0002675392 0.0001608026 -5.96174e-05 0.7517377216 -0.4067652692
260298440.0 -0.7354348976 0.4216693887 8.75722e-05 -1.8569e-06 0.0001434776 4.1743e-06 0.7474329266 -0.4136578621
265298410.0 -0.7313740754 0.4297150253 0.0001037453 -1.9661e-06 -9.22956e-05 5.772e-05 0.7437634971 -0.4208183812
270298380.0 -0.7269060704 0.4375161476 -0.0002419508 -9.33261e-05 -1.80948e-05 0.0001309423 0.7396923131 -0.4277020451
275298350.0 -0.7221193138 0.4445982136 2.82444e-05 -0.0001620482 0.0001165632 0.0001962243 0.73539887 -0.4353033027
280298320.0 -0.7168999968 0.4524692038 -1.28446e-05 -4.73005e-05 -5.69159e-05 3.47222e-05 0.731423587 -0.4433048323
285298290.0 -0.7127955734 0.4602797867 1.67073e-05 6.71742e-05 -3.3592e-06 9.54509e-05 0.7279965595 -0.4499530688
290298260.0 -0.7081150481 0.4675905771 0.0001694403 9.40629e-05 -7.82719e-05 0.0001186459 0.7236377492 -0.4574429456
295298230.0 -0.7023759547 0.4747634299 3.86225e-05 5.56619e-05 2.51176e-05 7.3924e-05 0.7194894135 -0.4639975103
300298200.0 -0.6981804679 0.4813472343 9.73271e-05 -1.9559e-06 3.34323e-05 -4.68151e-05 0.7157522832 -0.471259983
305298170.0 -0.6928489574 0.4881771504 -6.84e-07 5.29776e-05 0.0002621927 8.78404e-05 0.7114239759 -0.4791417268
310298140.0 -0.6876160359 0.4962730842 0.0001322374 6.6052e-05 -0.0001248555 2.95627e-05 0.7060392478 -0.4865266456
315298110.0 -0.6825235167 0.5029238653 -4.07156e-05 1.79422e-05 -0.0001889485 5.05805e-05 0.7006931161 -0.4941239229
320298080.0 -0.6775370609 0.5100671549 5.95659e-05 7.10773e-05 -9.122e-07 -0.0001546217 0.6958682619 -0.5018562361
325298050.0 -0.6719374039 0.5169793723 -0.0001375797 7.12276e-05 -5.21631e-05 -3.9001e-06 0.6907854466 -0.508677505
330298020.0 -0.6666366532 0.5239623913 7.28654e-05 7.01507e-05 9.42551e-05 8.89592e-05 0.6839881993 -0.515220371
335297990.0 -0.6606928627 0.5304916604 0.0001675254 0.0001155613 -5.55276e-05 -0.0002640816 0.678862675 -0.521055183
340297960.0 -0.6558406975 0.5377618298 -5.86337e-05 -4.24741e-05 -5.63755e-05 -0.0001470691 0.673731979 -0.5276775501
345297930.0 -0.6501233189 0.5441777655 1.34209e-05 -0.0002047556 -4.21946e-05 -2.45333e-05 0.6676289747 -0.5340785881
350297900.0 -0.64426821 0.5507820169 -7.0114e-05 0.0001830706 1.33287e-05 0.0002325588 0.6618478337 -0.5393299799
355297870.0 -0.6385094519 0.5580831998 -0.0001854217 7.40589e-05 -0.0001708791 -0.000132262 0.657025902 -0.5457878107
360297840.0 -0.6328078278 0.5635981998 0.0001628932 7.66666e-05 -8.886e-07 -0.000113035 0.6515985509 -0.5523832635
365297810.0 -0.6270101335 0.5706275791 -0.0001915053 1.3899e-06 -6.38559e-05 0.0001187071 0.6457634682 -0.5587792033
370297780.0 -0.6209287005 0.5763767611 -0.0001131588 6.4257e-06 0.0001298953 -0.0001338485 0.6406731961 -0.5638174123
375297750.0 -0.6148069281 0.5835362178 6.93576e-05 -4.7204e-05 -1.53404e-05 -8.3509e-05 0.634657326 -0.5703176552
380297720.0 -0.6092888303 0.5886984842 1.57762e-05 0.0002093442 -8.6977e-06 6.85297e-05 0.6281939113 -0.5766253572
385297690.0 -0.6034061486 0.5952729254 0.0001757865 1.8128e-06 7.44417e-05 3.2882e-06 0.6230939828 -0.5820033226
390297660.0 -0.5966490203 0.6012740509 -6.98594e-05 4.36665e-05 -8.04407e-05 -0.0001485516 0.6168071896 -0.5881363977
395297630.0 -0.5898140634 0.608132797 3.07448e-05 0.0001395724 -0.0001360876 -2.45242e-05 0.6110247849 -0.5940785181
400297600.0 -0.5840557643 0.6141927374 0.0002188747 3.32279e-05 -0.0001944296 4.0755e-06 0.6051011007 -0.5992967501
405297570.0 -0.577719503 0.6196838941 0.0001682201 -2.10441e-05 6.68106e-05 0.0001018893 0.5993274824 -0.6053791232
410297540.0 -0.5710098886 0.6251898736 0.00022762 2.2346e-06 -0.0001661928 -1.0188e-05 0.5936206183 -0.6113668644
415297510.0 -0.5646206392 0.6311059442 -2.72535e-05 -3.54699e-05 -2.27494e-05 7.54273e-05 0.5872552216 -0.6171563868
420297480.0 -0.5592031051 0.6369555185 8.79662e-05 6.1025e-05 6.46127e-05 -9.7794e-05 0.5817457376 -0.6223068446
425297450.0 -0.5518076271 0.6426268564 2.07369e-05 -0.0001738421 -5.05962e-05 1.72968e-05 0.5750620929 -0.6281243411
430297420.0 -0.5454121117 0.6484199754 -0.0002359341 4.13524e-05 -9.82494e-05 -2.30208e-05 0.5688923486 -0.6343442002
435297390.0 -0.5386990941 0.6531127267 0.0002564325 6.30732e-05 -1.38931e-05 -8.64815e-05 0.5626665756 -0.6394959474
440297360.0 -0.5317122321 0.6589664824 1.09534e-05 -4.21335e-05 -4.76152e-05 -1.6704e-05 0.5564721376 -0.6448103841
445297330.0 -0.5251337271 0.6642062868 -1.36499e-05 -3.57417e-05 -6.47477e-05 -7.27466e-05 0.550498734 -0.6514798529
450297300.0 -0.5181625314 0.6694319424 -4.7616e-06 -0.00013602 -1.68482e-05 0.0003134705 0.5436755009 -0.6555461379
455297270.0 -0.5117103097 0.6742020141 -3.13445e-05 -0.0002619376 -8.6996e-05 -7.37214e-05 0.5371300613 -0.6612499218
460297240.0 -0.5049031936 0.679373458 0.0001937988 -0.000141191 -4.85113e-05 0.0002066894 0.531045684 -0.6666049713
465297210.0 -0.497719504 0.6851927377 -0.000146221 9.95999e-05 7.58021e-05 -7.89641e-05 0.5241280054 -0.6711973196
470297180.0 -0.4903410161 0.6895477557 2.61197e-05 -0.00010405 -3.72613e-05 2.07906e-05 0.5179153037 -0.6765370071
475297150.0 -0.4834795337 0.6938482793 -0.0001624258 0.000153055 -6.34423e-05 -0.0001946347 0.5106714635 -0.6816086031
480297120.0 -0.4765285042 0.6993863526 0.0001147625 -0.0001544307 -0.0001359915 -0.0001051332 0.5048308897 -0.6856703522
485297090.0 -0.4691448132 0.7039839756 4.22507e-05 0.0001646956 -8.47825e-05 2.72854e-05 0.4983271312 -0.6906967416
490297060.0 -0.4620986703 0.7084233283 9.1782e-06 0.0001596861 -0.0002348474 0.0002079938 0.4905464404 -0.6959667529
495297030.0 -0.4551483337 0.7127761274 3.06915e-05 -0.0002376891 7.43287e-05 -0.0001895746 0.4837245664 -0.7003069956
500297000.0 -0.4476043616 0.7180332351 1.71299e-05 7.41743e-05 -0.0001950061 1.93872e-05 0.477287439 -0.705314908
505296970.0 -0.4407521073 0.7226046338 -0.0001442806 1.98386e-05 0.0001264816 0.0001954646 0.4703426501 -0.7091269213
510296940.0 -0.4332685377 0.7268868301 -0.0001527959 0.000189205 -3.07371e-05 -5.77502e-05 0.462577161 -0.714497957
515296910.0 -0.4249056359 0.7304889595 -3.6794e-05 0.0001711701 4.75719e-05 -2.38303e-05 0.4563936032 -0.717992965
520296880.0 -0.4182618345 0.7357778506 0.000160373 0.0001369755 9.23951e-05 0.0001167823 0.448884329 -0.7229335434
525296850.0 -0.41056194 0.7391558805 -9.34171e-05 1.66374e-05 -7.53295e-05 -0.0001710622 0.4420310954 -0.7261968202
530296820.0 -0.4030435572 0.7434888912 5.75999e-05 -0.0001021177 0.0001368802 -1.46643e-05 0.4351086623 -0.7302144086
535296790.0 -0.3956950574 0.7472606344 -9.61627e-05 -3.7035e-05 -8.12377e-05 -0.000133818 0.4268743664 -0.7351639962
540296760.0 -0.3880489874 0.7511824889 9.02176e-05 -0.0001909445 0.0003806249 0.0001282135 0.4193740991 -0.7384142384
545296730.0 -0.3805733677 0.7551483344 8.24766e-05 -0.0001726371 0.0001721886 -0.0001465868 0.4125914983 -0.74340518
550296700.0 -0.3732773592 0.7588518604 -8.17215e-05 0.0001297843 -6.75283e-05 -0.0001685053 0.405168315 -0.7469245885
555296670.0 -0.365001092 0.762088636 -7.88921e-05 -1.13232e-05 -2.95482e-05 -3.46403e-05 0.3974767025 -0.7502067914
560296640.0 -0.3575569429 0.7665949815 -0.0002426256 -0.0001489626 9.49223e-05 -6.9952e-05 0.3902085735 -0.7540205817
565296610.0 -0.3499983334 0.7700314126 0.0001063947 -2.11747e-05 -1.36497e-05 1.62587e-05 0.3827300052 -0.7575731067
570296580.0 -0.3425880615 0.7724817801 -2.04443e-05 5.54909e-05 -0.0002343115 9.13379e-05 0.3751888753 -0.7614867802
575296550.0 -0.334618899 0.7768047263 -0.000192552 -1.49633e-05 -0.000160138 -0.0001259803 0.3673400202 -0.7647833703
580296520.0 -0.3264992722 0.7797370745 7.08718e-05 -0.0001399691 -0.0001062888 -1.57336e-05 0.3604314947 -0.7687034996
585296490.0 -0.3188368948 0.7824394357 8.26167e-05 -0.0002233758 0.0002504408 0.0001720098 0.3528916062 -0.7722426849
590296460.0 -0.3103067981 0.7854411541 1.81256e-05 -8.91859e-05 -0.0001749692 -0.0001889866 0.3442615039 -0.7750490788
595296430.0 -0.302684804 0.7881420526 -0.000107935 -0.0001929677 -0.0002529527 0.0001322945 0.337008114 -0.7785503018
600296400.0 -0.2949474166 0.7923141746 0.0001173272 -4.12015e-05 3.26449e-05 -0.0001055155 0.3297216292 -0.7822832228
605296370.0 -0.2875294063 0.7947441604 9.64213e-05 -0.0001766268 6.76924e-05 0.0001885997 0.3212570418 -0.7849448587
610296340.0 -0.2792172856 0.796987134 6.96331e-05 6.10507e-05 -0.0001483178 -0.0001436036 0.3140360884 -0.7881810267
615296310.0 -0.270125399 0.7999014568 -5.6521e-06 -0.0001025315 -6.70463e-05 -7.21395e-05 0.3060763789 -0.7912384376
620296280.0 -0.2628661073 0.8023106849 9.60791e-05 -3.36256e-05 8.66301e-05 -0.0002215193 0.2989024084 -0.7944893128
625296250.0 -0.254987317 0.8057063658 5.51223e-05 -3.16104e-05 -1.52822e-05 -4.18236e-05 0.2910122286 -0.7972731622
630296220.0 -0.2463918661 0.8079221246 1.29269e-05 -7.64333e-05 -0.0002233542 -5.85183e-05 0.2831678133 -0.7997625639
635296190.0 -0.2388999803 0.8104524231 0.0001552932 0.0001374106 -6.53686e-05 4.03751e-05 0.2753150235 -0.8025781886
640296160.0 -0.2312173673 0.812279899 -8.99553e-05 0.0002665334 0.0001235006 -5.49889e-05 0.26642251 -0.8051279976
645296130.0 -0.2226317957 0.8153082741 -0.000146104 4.24149e-05 0.0001262553 4.02024e-05 0.2591192652 -0.8075685008
650296100.0 -0.2142974084 0.816762699 1.24009e-05 7.50251e-05 -6.13405e-05 -4.6372e-06 0.2512539578 -0.8105772729
655296070.0 -0.2064565926 0.819168567 -9.6219e-05 0.0001306109 -7.4215e-06 3.91377e-05 0.2438605718 -0.812412512
660296040.0 -0.1977877083 0.8203586326 0.0001637988 -8.1517e-06 -0.0001107353 -7.92938e-05 0.2356688582 -0.8150383454
665296010.0 -0.1895488435 0.8224476757 -4.91688e-05 5.3636e-06 0.0001467704 -0.0001342539 0.2274642402 -0.8165408082
670295980.0 -0.1816928905 0.8243098797 9.51702e-05 -0.0003406112 -9.55674e-05 8.56349e-05 0.2190945877 -0.819230482
675295950.0 -0.1734766782 0.8263126797 5.85694e-05 0.0001389288 -0.0002551698 7.66596e-05 0.2110849043 -0.8207773128
680295920.0 -0.1650386319 0.8281193937 -0.0001993344 -1.6675e-05 0.0001791708 0.0001256963 0.2029512347 -0.8223807048
685295890.0 -0.1562427156 0.8302742428 0.000190892 -0.000165809 2.7046e-06 2.01446e-05 0.1948541775 -0.8242493585
690295860.0 -0.1488447601 0.8307384476 -1.14732e-05 7.21572e-05 5.30248e-05 -3.12264e-05 0.186371777 -0.8255150566
695295830.0 -0.1405489487 0.8320598881 -0.0001805657 4.48427e-05 -1.608e-06 0.0001028492 0.1782201772 -0.8267549795
700295800.0 -0.1314997609 0.8337402289 2.58516e-05 9.61946e-05 0.0001302518 -2.85178e-05 0.1703819325 -0.8288428202
705295770.0 -0.124208076 0.8353307731 -0.0002034545 -4.47502e-05 9.9788e-06 -0.0001570842 0.1615046812 -0.8295412365
710295740.0 -0.1155030098 0.836342267 -0.0001253981 -0.0003889726 -0.0001789167 -6.7269e-06 0.153026748 -0.8313426858
715295710.0 -0.1071239905 0.8369983185 0.0001553295 0.0001303496 0.0001460558 0.000157962 0.1451260175 -0.8327750396
720295680.0 -0.0987542574 0.8387193917 0.0001999788 -8.85776e-05 -3.52455e-05 0.0001240422 0.1369518964 -0.8338127462
725295650.0 -0.0908917334 0.839386909 -4.8779e-06 0.000154864 -1.24083e-05 -0.0001335304 0.1284478151 -0.8345669453
730295620.0 -0.0817267557 0.8405219504 -6.08799e-05 -4.7515e-05 9.56672e-05 -9.61989e-05 0.1197581754 -0.8355851315
735295590.0 -0.0743524274 0.8418164949 -0.0001764253 0.0001016828 -8.11328e-05 9.726e-06 0.1115624208 -0.8376315312
740295560.0 -0.0658212886 0.8421609085 -0.0001132293 1.87724e-05 0.0001242482 0.0001133832 0.1030639536 -0.8379285958
745295530.0 -0.0573651982 0.8425410316 0.0001717059 8.96673e-05 -0.0002365734 -0.0001752631 0.0954884545 -0.8389783034
750295500.0 -0.0488280056 0.8430807161 -0.0002525537 -3.17188e-05 0.0001225135 -5.01212e-05 0.0867052858 -0.8391511725
755295470.0 -0.0401865794 0.843099762 -0.0001068274 -9.84348e-05 2.46218e-05 -4.187e-07 0.0788994839 -0.8413575151
760295440.0 -0.0322229128 0.8433652753 0.0001534734 7.39403e-05 1.99304e-05 0.0001340284 0.0706684944 -0.8415260891
765295410.0 -0.0241226099 0.8439501663 0.0001073668 0.000183718 2.03338e-05 9.33801e-05 0.0619963648 -0.8417927194
770295380.0 -0.0161280448 0.8439971618 0.0002818664 1.45266e-05 -0.0002061077 -0.0003022119 0.0537025444 -0.8427568362
775295350.0 -0.00727121 0.844206758 -9.12942e-05 0.0001623541 -7.03439e-05 -5.82355e-05 0.0445222845 -0.8428953489
780295320.0 0.0011905861 0.8442776084 -0.0001795766 8.80607e-05 -4.60575e-05 0.0001828988 0.0370935668 -0.8429416771
785295290.0 0.0088452576 0.8433556158 -0.0001024647 -0.0002137211 -7.5521e-06 0.0001361705 0.0292228448 -0.8434116675
790295260.0 0.0179299469 0.8437150709 0.0001450202 0.0001220841 0.0002209127 -0.0001055944 0.0215454477 -0.8441582737
795295230.0 0.0256703739 0.8437932436 -6.02842e-05 -6.34665e-05 3.64463e-05 0.0001726772 0.0119943735 -0.8443846382
800295200.0 0.0341271081 0.8428658902 -7.36339e-05 3.01406e-05 -1.71821e-05 -0.0001682013 0.0036112469 -0.8435501062
805295170.0 0.0428468736 0.8429325317 -4.73133e-05 -0.0001491585 -3.39579e-05 0.0001061538 -0.0050752944 -0.8433948061
810295140.0 0.0512282497 0.8425803822 6.76023e-05 -7.98896e-05 -9.93621e-05 8.23067e-05 -0.012113869 -0.8440740648
815295110.0 0.0592119005 0.8417071781 -0.0001665648 4.67597e-05 2.50768e-05 0.0001975054 -0.0214430534 -0.8429013825
820295080.0 0.0673561533 0.8414598697 -2.04198e-05 -0.0002062636 -0.0001351405 0.000151043 -0.0295655205 -0.8427340288
825295050.0 0.0765941413 0.8401176727 -9.40626e-05 6.5146e-05 0.0001549627 6.70703e-05 -0.0372490061 -0.8427739188
830295020.0 0.0844721102 0.8397171833 2.205e-05 9.52335e-05 -1.67712e-05 -5.37945e-05 -0.0457009053 -0.841549932
835294990.0 0.0920516765 0.839238585 -0.0001809394 3.98461e-05 -9.74778e-05 0.0001118784 -0.0545022996 -0.841105656
840294960.0 0.1003164279 0.8380637719 -2.589e-06 0.0001264678 2.18611e-05 0.0001952598 -0.0624931055 -0.8401621934
845294930.0 0.1085739629 0.8364422901 -7.54244e-05 -0.00021762 0.0001512986 5.41909e-05 -0.0708452361 -0.8391775548
850294900.0 0.1171606566 0.8360195289 0.0001088653 8.83971e-05 1.57176e-05 -5.26793e-05 -0.0796286082 -0.8383292432
