!Created with skrf (http://scikit-rf.org).
# Hz S RI R 50.0 
!freq ReS11 ImS11 ReS21 ImS21 ReS12 ImS12 ReS22 ImS22
300000.0 -0.1021597642 -0.0708681653 0.6305772157 0.0669340923 0.6246455853 0.0666010708 -0.1009251716 -0.0795926878
5299970.0 -0.1020873205 0.0129763135 0.6310076588 0.0104222331 0.6307233373 0.010451327 -0.1008928055 0.012986207
10299940.0 -0.09710166 0.0290600416 0.6336566996 0.0155266723 0.6340355846 0.0158191122 -0.0957835615 0.0300374856
15299910.0 -0.0900430252 0.0424459417 0.6403662675 0.0208490277 0.6407430249 0.0207749328 -0.0885451297 0.0435519629
20299880.0 -0.0818640584 0.0530437884 0.6484370524 0.0245098893 0.6483922955 0.024159352 -0.0800029053 0.0544889857
25299850.0 -0.0723471714 0.062298505 0.6576113143 0.0251514545 0.6580012019 0.025590021 -0.0697378836 0.0633943212
30299820.0 -0.0622319963 0.0686816429 0.6673506461 0.0243371381 0.6670604374 0.0245235836 -0.0596073004 0.0701451148
35299790.0 -0.0524080998 0.0738667541 0.6771297711 0.0211086123 0.6770915687 0.0215779567 -0.0497644326 0.0748036092
40299760.0 -0.0432142235 0.0772697953 0.6862104252 0.0171798621 0.6865004078 0.0177889684 -0.04012703 0.0776060436
45299730.0 -0.033891133 0.0793351159 0.6948784022 0.0119939544 0.6953414868 0.0117878592 -0.0313480634 0.0796536202
50299700.0 -0.0256656468 0.0802217212 0.7036259613 0.0050125271 0.7035006996 0.005585429 -0.0225480889 0.0806081587
55299670.0 -0.0176732512 0.0805507472 0.7106593371 -0.0030448127 0.7107485112 -0.0022749243 -0.0151231495 0.0809422986
60299640.0 -0.0100961531 0.0801940671 0.7173418362 -0.0114388283 0.7179016508 -0.0104411676 -0.0077390312 0.079529696
65299610.0 -0.0037879488 0.0789216093 0.7233946613 -0.0200300046 0.7235424615 -0.0196996065 -0.0011710654 0.0787839322
70299580.0 0.0025061823 0.0775377501 0.7285894393 -0.029009081 0.7286622736 -0.0287972868 0.0047316687 0.0767543335
75299550.0 0.0081590533 0.0758678997 0.7330317503 -0.0387382279 0.7329414058 -0.0388011898 0.0101077061 0.0751707656
80299520.0 0.0128994945 0.0737114 0.7372818361 -0.0490336027 0.7371311791 -0.048816642 0.0149364797 0.0727365604
85299490.0 0.0175864058 0.0713910009 0.7397619178 -0.0583150328 0.7407440579 -0.0582816795 0.0193634479 0.0700695251
90299460.0 0.0217638855 0.0689149551 0.7424384399 -0.069427297 0.7435681752 -0.0687142947 0.0234568049 0.0679704373
95299430.0 0.0258038966 0.0663412492 0.7455210263 -0.0786810057 0.745688596 -0.0794322161 0.027610871 0.0657612043
100299400.0 0.0289191723 0.0648277591 0.7466929219 -0.0890970557 0.7471603625 -0.0891683813 0.0313041839 0.0626906683
105299370.0 0.0322049434 0.0621493398 0.7489165282 -0.0993546453 0.7493520639 -0.0994095561 0.0341643714 0.0605628953
110299340.0 0.0350353516 0.0596649157 0.7498649733 -0.1089593188 0.749876655 -0.1086760063 0.0361827223 0.058073383
115299310.0 0.0374690484 0.0574678967 0.7502276298 -0.119075208 0.7510189187 -0.1189732298 0.0389047348 0.0556535076
120299280.0 0.0398814839 0.0544881103 0.751384406 -0.1292349909 0.7514446134 -0.1291206153 0.0415128294 0.0532379924
125299250.0 0.0419436031 0.0521912229 0.7518759498 -0.1386721702 0.7512105191 -0.1386947901 0.0431290709 0.0503584183
130299220.0 0.0436261659 0.0502938307 0.7512369057 -0.1494731165 0.7514560773 -0.1492012811 0.0448526385 0.0480248993
135299190.0 0.0452852316 0.0481844236 0.751330823 -0.1588930817 0.7510905154 -0.1588906107 0.0465694807 0.046075835
140299160.0 0.0466547132 0.0464872559 0.7512015251 -0.168744381 0.7508033619 -0.1685641481 0.0477620726 0.0445448944
145299130.0 0.0481902731 0.0439663991 0.7503495691 -0.1784250576 0.7498093164 -0.1781118949 0.0495353458 0.0422032794
150299100.0 0.049703868 0.0421414661 0.7485031953 -0.1873607454 0.7487907052 -0.1872467404 0.0508882318 0.0402062901
155299070.0 0.0503071513 0.0397888498 0.7478984017 -0.1981955556 0.747583709 -0.1975607306 0.0518336735 0.0385202822
160299040.0 0.0520091473 0.0381528848 0.7468195508 -0.20710383 0.7455807846 -0.2068431274 0.0518810052 0.0363679887
165299010.0 0.0524810332 0.0365653866 0.7445157635 -0.21706458 0.7447233732 -0.2169578543 0.0539598227 0.0347578667
170298980.0 0.0532236646 0.0341017235 0.7427693975 -0.2262458342 0.7429502183 -0.2261129612 0.0544184206 0.0329933974
175298950.0 0.0535388238 0.0322438287 0.7414054618 -0.2349478282 0.7406904766 -0.2349615067 0.0549347042 0.0315949098
180298920.0 0.0544255156 0.0307651003 0.7386408818 -0.2446674355 0.7389993225 -0.244134969 0.0557578126 0.029954776
185298890.0 0.0557052414 0.0286660199 0.7366319231 -0.2537667401 0.7362630357 -0.2536441758 0.0557489997 0.028265343
190298860.0 0.0554537997 0.0275663558 0.7342758447 -0.2628457985 0.7344008661 -0.2627706323 0.0563045491 0.0261570097
195298830.0 0.0559509203 0.0256236394 0.7317321899 -0.2717025847 0.7321599967 -0.2714433656 0.0573419867 0.0249645734
200298800.0 0.0564236226 0.0242315979 0.7287318215 -0.2811865459 0.7294212376 -0.2807968419 0.0569702253 0.02385002
205298770.0 0.0568742992 0.0230932705 0.7255996432 -0.2899236313 0.7259753317 -0.2891710398 0.0573832005 0.0215098128
210298740.0 0.0570713015 0.0208521521 0.7227999003 -0.2977149081 0.7232053421 -0.2978638621 0.0580503476 0.0211167171
215298710.0 0.0570513106 0.0198881054 0.720147475 -0.3074302352 0.7201658925 -0.3071449999 0.0578525549 0.0198124475
220298680.0 0.0578510889 0.0179830156 0.7164050819 -0.3155314736 0.7171149266 -0.3157301173 0.057476194 0.0183185595
225298650.0 0.0577895443 0.0167042094 0.7136776919 -0.324214228 0.7139034284 -0.3243931745 0.0575159891 0.0166252988
230298620.0 0.058073396 0.0160553498 0.7105692003 -0.3327412122 0.7109095074 -0.3328030217 0.0575643891 0.0147850148
235298590.0 0.0577181361 0.0145555033 0.7069118489 -0.3411778665 0.7070064908 -0.340609716 0.0578630628 0.0141778405
240298560.0 0.0579836752 0.0135633318 0.7035926177 -0.3497458505 0.7028690797 -0.3496547736 0.0578699245 0.0132061368
245298530.0 0.0580595161 0.0121179657 0.7000938892 -0.3582338369 0.6996806208 -0.3581151135 0.058717961 0.0109593662
250298500.0 0.0585360736 0.0112832321 0.6951974792 -0.366862535 0.6951116872 -0.3656859606 0.0580512659 0.0105941024
255298470.0 0.0583460098 0.0097152296 0.6913774331 -0.3741675234 0.6916504572 -0.3739795814 0.0583055076 0.0088747113
260298440.0 0.0579216264 0.0081516777 0.6878264904 -0.3829284118 0.6879541204 -0.3822959107 0.0586815852 0.0080408871
265298410.0 0.0590174922 0.007813167 0.6835281663 -0.3909023845 0.6845334304 -0.3900842363 0.0585159186 0.0067697848
270298380.0 0.0586585624 0.0064360878 0.6800315684 -0.3980748346 0.6800088257 -0.3980180772 0.0580535024 0.0058272763
275298350.0 0.0592529419 0.0053692953 0.6754201629 -0.406738868 0.6757170962 -0.4065776775 0.058346071 0.0045155636
280298320.0 0.0588715044 0.004211435 0.6716511572 -0.414387088 0.6714680233 -0.4140945813 0.0588935392 0.0035214116
285298290.0 0.0587493395 0.0032546924 0.6666332852 -0.4222223269 0.6659292488 -0.4221439926 0.0585376026 0.0021614224
290298260.0 0.0594399864 0.0021960358 0.6617808102 -0.4293208298 0.6620563503 -0.4296697889 0.058792895 0.0019154843
295298230.0 0.0591107337 0.0009145315 0.6577868574 -0.437435831 0.657628753 -0.4375527769 0.0597602943 0.0005691487
300298200.0 0.0585975248 -0.0001869342 0.6532421738 -0.4449149063 0.653126758 -0.4453337706 0.0588606984 -0.0006350238
305298170.0 0.0589011369 -0.0014377416 0.6476131764 -0.4536293125 0.6482520728 -0.4527931755 0.0594827655 -0.001916102
310298140.0 0.0585579577 -0.0021322445 0.6433223794 -0.4605994328 0.6439155578 -0.4606522494 0.0594661985 -0.0030635334
315298110.0 0.0585937885 -0.0042533425 0.6384508812 -0.4684361484 0.638325291 -0.4683847462 0.0590240168 -0.0044228917
320298080.0 0.0588449884 -0.0047268034 0.6323791516 -0.4762620804 0.6329024313 -0.4754419316 0.0587843339 -0.0052554394
325298050.0 0.057930937 -0.0061444177 0.6272426361 -0.4835903385 0.6274337607 -0.4828747079 0.0577566728 -0.0061269776
330298020.0 0.0573358128 -0.0072590972 0.6214062543 -0.4902737748 0.6219254095 -0.4907778749 0.0576922836 -0.0072241512
335297990.0 0.057150847 -0.0083183692 0.6166253122 -0.4975611995 0.6162130814 -0.4976635406 0.0568142372 -0.0076165525
340297960.0 0.056204435 -0.0088811504 0.6097566929 -0.5046293242 0.6096658672 -0.5048078275 0.057260801 -0.0084576034
345297930.0 0.0559742878 -0.0091376471 0.6041955778 -0.5114528096 0.6043998309 -0.5114712439 0.0565117878 -0.0097562296
350297900.0 0.0553087171 -0.0108067816 0.5978786002 -0.5183875552 0.5981052554 -0.51817227 0.0557164163 -0.0097821696
355297870.0 0.0550094009 -0.0105809567 0.592369422 -0.525062764 0.593039087 -0.5251167195 0.0553211027 -0.0105836665
360297840.0 0.0547944496 -0.0112594866 0.5877150736 -0.5310380112 0.5880472648 -0.5313617674 0.0550701842 -0.0109196965
365297810.0 0.0542055141 -0.0119024034 0.5805810578 -0.5380755584 0.5813725873 -0.5380750589 0.0546204424 -0.0116261265
370297780.0 0.0542238289 -0.0131580689 0.5748890684 -0.5441303523 0.5753638231 -0.5440032762 0.054128295 -0.0123807345
375297750.0 0.0538361284 -0.0136187805 0.5685491044 -0.5514821903 0.5698565245 -0.5507191228 0.0543377396 -0.0127966546
380297720.0 0.0534886315 -0.0142170539 0.5623735465 -0.5580864533 0.5629003976 -0.5567954373 0.0534321531 -0.0137756945
385297690.0 0.0526705505 -0.0149024499 0.5562517241 -0.5634123658 0.5564495372 -0.56295539 0.0534490391 -0.0142083056
390297660.0 0.0528690552 -0.0153502498 0.5503271508 -0.5698371583 0.5504846719 -0.5696591495 0.0527001318 -0.0150521649
395297630.0 0.0522539352 -0.0160183302 0.5445350495 -0.5759719981 0.544140725 -0.5757673733 0.0530403302 -0.0159155678
400297600.0 0.0519149791 -0.0165457768 0.5377435213 -0.5825990921 0.5379378508 -0.5815857049 0.0524543312 -0.0163126906
405297570.0 0.0515052028 -0.0173696222 0.5311646629 -0.5879975974 0.5316789632 -0.5874739744 0.0518193186 -0.0167721579
410297540.0 0.0515322288 -0.017904019 0.5251921532 -0.5938688629 0.5254071986 -0.5943170718 0.0514382645 -0.017380091
415297510.0 0.0513732828 -0.0185338765 0.5183012408 -0.6002897944 0.5187751267 -0.5993784139 0.0511270387 -0.0180433145
420297480.0 0.050981664 -0.0191398223 0.5114349116 -0.6061571873 0.5116490174 -0.6058512822 0.0505214821 -0.0191999496
425297450.0 0.0499935805 -0.0202657856 0.5051616399 -0.6110146758 0.5054220811 -0.6112306227 0.0496643553 -0.0189341214
430297420.0 0.0500068286 -0.0208160048 0.4981769015 -0.6160727454 0.4987314125 -0.6161206326 0.0496365504 -0.0201314892
435297390.0 0.0495818191 -0.0212272079 0.4911159357 -0.6224923905 0.4914426803 -0.6223186606 0.0501756397 -0.0206793244
440297360.0 0.0494782722 -0.0215102449 0.4842163481 -0.6272445706 0.4844596184 -0.6277892229 0.0489980749 -0.0213569383
445297330.0 0.0487104515 -0.0229304375 0.4774954844 -0.6329982924 0.4778533896 -0.6326594154 0.04932719 -0.0223224168
450297300.0 0.0487705907 -0.0229520942 0.470822339 -0.6381184276 0.4706092932 -0.6384368138 0.0487377834 -0.0228236452
455297270.0 0.0483999831 -0.0237039507 0.4635000526 -0.6435210279 0.4640122126 -0.643453965 0.0485131138 -0.0233492269
460297240.0 0.0478994274 -0.0241947126 0.4568767169 -0.6487864168 0.4567508415 -0.6487276416 0.0480128023 -0.0234427522
465297210.0 0.0479392214 -0.0247619253 0.449701636 -0.6540660589 0.4496798547 -0.6540649736 0.0476072444 -0.0248140364
470297180.0 0.0473240197 -0.0255447468 0.4415823054 -0.6588224871 0.4424913847 -0.658240754 0.0472923472 -0.0250704369
475297150.0 0.0468444928 -0.0263416887 0.4349686499 -0.6631478322 0.435191081 -0.6628102227 0.0473429726 -0.0257790983
480297120.0 0.046065352 -0.0260646787 0.4275120898 -0.6685428669 0.4273001926 -0.6686176581 0.0469176889 -0.0260908968
485297090.0 0.0456872703 -0.0270521713 0.4203553696 -0.6726276107 0.4206479433 -0.6725073869 0.0464246111 -0.026789751
490297060.0 0.0449130414 -0.0276620163 0.4130382246 -0.6782371036 0.4133762205 -0.676866177 0.0463212269 -0.0268124523
495297030.0 0.0446572282 -0.0281348427 0.4051011931 -0.6818750453 0.4058734813 -0.68181827 0.0453134092 -0.027650404
500297000.0 0.0443897721 -0.0288379918 0.397820543 -0.6862993177 0.3975022477 -0.685758497 0.0449125287 -0.0275172098
505296970.0 0.0441055985 -0.0291391802 0.3901572895 -0.6906290294 0.3904969366 -0.6904722326 0.044672663 -0.028113476
510296940.0 0.0436872562 -0.0293720651 0.3822493644 -0.6952662633 0.3827239026 -0.6953747858 0.0446581515 -0.0283088621
515296910.0 0.0429331435 -0.0293085399 0.3751928223 -0.6991997963 0.3753159159 -0.6988988054 0.0439031234 -0.0286287598
520296880.0 0.0425279427 -0.0303164751 0.367330919 -0.7039445522 0.3674939561 -0.7035633497 0.043240576 -0.0295010845
525296850.0 0.0424140971 -0.0313823457 0.3596778578 -0.7074785375 0.3602674538 -0.7073429784 0.0425796124 -0.0294658903
530296820.0 0.0416630182 -0.0313341045 0.3518009878 -0.7114702402 0.3517581149 -0.7109093962 0.0422929222 -0.029954493
535296790.0 0.040375751 -0.0315786309 0.3447479495 -0.7149233314 0.3445957322 -0.7145000445 0.0418109364 -0.03105409
540296760.0 0.0405385838 -0.0317842215 0.3363651389 -0.7191427185 0.3360590331 -0.7188078918 0.041142913 -0.030542046
545296730.0 0.0399102494 -0.0323361235 0.3280994272 -0.7226450372 0.3279079645 -0.7224116898 0.0405201752 -0.0314359261
550296700.0 0.0397721531 -0.032380768 0.320724078 -0.7258258163 0.3205375193 -0.7258056738 0.0398682082 -0.0315496012
555296670.0 0.0389364751 -0.0328269011 0.3128102299 -0.7293356311 0.3131598683 -0.7291388495 0.0396867009 -0.0315089538
560296640.0 0.0386890141 -0.0331084438 0.3043199559 -0.7328271228 0.3045505634 -0.7330772585 0.0391660768 -0.0325124696
565296610.0 0.0376022612 -0.0337770369 0.2958233836 -0.7366315056 0.2966352951 -0.7360964388 0.0380408072 -0.0331778274
570296580.0 0.0372344778 -0.0340024025 0.2882994185 -0.7396727766 0.2876185712 -0.7395225104 0.0377005693 -0.0325465057
575296550.0 0.036529788 -0.0340499558 0.2804159431 -0.7433281771 0.280571145 -0.7426208104 0.0373749405 -0.0339131996
580296520.0 0.0362636629 -0.0344773359 0.2723377128 -0.74574769 0.2722040071 -0.7459405754 0.0368682468 -0.0338744049
585296490.0 0.0357911204 -0.0356213437 0.2642768005 -0.7483207699 0.2646313262 -0.7483633977 0.0358989715 -0.0341134245
590296460.0 0.0355668397 -0.0353097935 0.2558814307 -0.750543743 0.2560492956 -0.7510705788 0.0351931395 -0.0347365043
595296430.0 0.0352734111 -0.0355137181 0.2469559426 -0.7545492746 0.2475899023 -0.7537843255 0.0350595063 -0.0354916285
600296400.0 0.0340877023 -0.0361274493 0.2393155481 -0.7570250928 0.2392813996 -0.7562969112 0.034302194 -0.0352688555
605296370.0 0.0338323948 -0.0364454882 0.2306780439 -0.7591199868 0.2313587478 -0.7591660965 0.0340114711 -0.0358685006
610296340.0 0.033195103 -0.0368893106 0.2221420508 -0.7615586186 0.2231211196 -0.7616210662 0.0339634117 -0.0365530727
615296310.0 0.0330569787 -0.0374413679 0.2141906472 -0.764105117 0.2139923392 -0.7646125025 0.0333956611 -0.0364322275
620296280.0 0.0320832693 -0.0376459339 0.2061411261 -0.7664081642 0.2059390788 -0.7660925979 0.0321744607 -0.0369282644
625296250.0 0.0313377718 -0.0386736311 0.1981659882 -0.7687762806 0.1979180668 -0.7686757706 0.0328480206 -0.03711313
630296220.0 0.0317647024 -0.0379866719 0.1885870976 -0.7709364961 0.1888093657 -0.7702940032 0.0318214628 -0.0371836709
635296190.0 0.0298018181 -0.039026043 0.1808020864 -0.7724338869 0.1810020126 -0.7725375938 0.031311875 -0.037617227
640296160.0 0.0297555125 -0.038973021 0.1718683803 -0.7745362288 0.1726656544 -0.7744461482 0.0306386214 -0.0380624593
645296130.0 0.0292311609 -0.0390457316 0.1635750472 -0.7759707055 0.164252716 -0.77620909 0.0305276774 -0.0380964204
650296100.0 0.0286589777 -0.0392734724 0.1551547053 -0.7777212772 0.1557665766 -0.7783918219 0.0301068764 -0.0392657265
655296070.0 0.0277540895 -0.0398667994 0.1465764304 -0.7798031114 0.1473153369 -0.7797283551 0.0296816093 -0.0389021037
660296040.0 0.026746952 -0.0404800002 0.138419497 -0.7821313325 0.1387722594 -0.7815680736 0.0291561643 -0.0388526599
665296010.0 0.027073819 -0.0402522052 0.1294800824 -0.7831539523 0.1299949778 -0.7827142761 0.0284996824 -0.0384982602
670295980.0 0.0249802141 -0.0404195376 0.1208030965 -0.7841063541 0.1210647462 -0.783710096 0.0273757071 -0.0391543775
675295950.0 0.0252076373 -0.0404367343 0.1131076056 -0.7848467585 0.1131832613 -0.7848260592 0.0267692684 -0.0392972532
680295920.0 0.0240871154 -0.040888461 0.1042404769 -0.7861786516 0.1034837346 -0.7866761811 0.0262527711 -0.0386709352
685295890.0 0.0239469917 -0.0402407322 0.0952508329 -0.7872704758 0.0949892755 -0.788114445 0.0258411001 -0.0391315004
690295860.0 0.0238556711 -0.0407292877 0.0870646345 -0.7880596823 0.0869184028 -0.7886955896 0.0247551556 -0.0385112079
695295830.0 0.0230330992 -0.0412600108 0.0790160017 -0.7891718692 0.077840872 -0.7895628613 0.0244462505 -0.0389620033
700295800.0 0.022593338 -0.0415420216 0.0695739406 -0.7899286205 0.0696191152 -0.7897733279 0.0236926987 -0.0386309589
705295770.0 0.0214158752 -0.0405172524 0.0608248076 -0.7904052083 0.0614234833 -0.790851875 0.0231211817 -0.0391321402
710295740.0 0.0214520186 -0.041164718 0.0530151973 -0.7922818238 0.0531114011 -0.792255707 0.0229360241 -0.0400726002
715295710.0 0.0199711148 -0.0415104619 0.0444610502 -0.7921508628 0.0438462884 -0.7921691273 0.0222917521 -0.039619277
720295680.0 0.0199471958 -0.0416542798 0.0352786747 -0.7925430691 0.0359194933 -0.7922562402 0.0214012174 -0.0390654487
725295650.0 0.0195105335 -0.0415037162 0.0263721788 -0.7930237478 0.0270162225 -0.7929374327 0.0200294652 -0.0392600053
730295620.0 0.0190233564 -0.04132701 0.0178508968 -0.79313942 0.0181520132 -0.7935887339 0.0197022109 -0.0398249224
735295590.0 0.0180404146 -0.0411471733 0.0098846971 -0.7935245594 0.0094952027 -0.7932180634 0.019058082 -0.0401080054
740295560.0 0.0169785073 -0.0413688047 0.0006478009 -0.7927023681 0.0010970197 -0.7931163121 0.0190900263 -0.040021466
745295530.0 0.0169096547 -0.0412196653 -0.007963436 -0.7926857375 -0.0080688544 -0.7933543192 0.0182102875 -0.0405901832
750295500.0 0.0163506458 -0.0417380749 -0.0162013774 -0.7925523246 -0.0162347847 -0.7932331593 0.0174047307 -0.0402882379
755295470.0 0.0158161376 -0.0418695991 -0.0246053373 -0.792895889 -0.02443025 -0.7929081981 0.0174732803 -0.0407515889
760295440.0 0.0149249129 -0.0417522577 -0.0334133215 -0.7929309236 -0.0335353337 -0.793106833 0.0166415375 -0.0408520004
765295410.0 0.014445773 -0.0419806295 -0.0426581857 -0.7920747921 -0.0422271111 -0.7921074894 0.0162352628 -0.040415641
770295380.0 0.0135254166 -0.0421394469 -0.0515609679 -0.79151226 -0.0507304528 -0.7916620381 0.0150947705 -0.040781267
775295350.0 0.0129826961 -0.0426851579 -0.0601401305 -0.7904798486 -0.0587206058 -0.7908853492 0.0138544266 -0.0406978995
780295320.0 0.0125464804 -0.0422101031 -0.0683434633 -0.7898674185 -0.0674159006 -0.7902282826 0.0137484912 -0.0411128824
785295290.0 0.0116200211 -0.0425682617 -0.0769576351 -0.7891830641 -0.0764709291 -0.789405847 0.0139052166 -0.0408170871
790295260.0 0.0115786181 -0.0417792422 -0.0846407577 -0.7885479547 -0.0839120498 -0.7879651094 0.0126407642 -0.0410209802
795295230.0 0.0105376156 -0.0423914504 -0.0938026244 -0.7871425974 -0.0928865001 -0.7876361157 0.0127702924 -0.0405338128
800295200.0 0.0096940278 -0.0416713594 -0.1035400718 -0.7857830323 -0.1021373232 -0.7861843121 0.0116978485 -0.0409149711
805295170.0 0.0091678742 -0.0420959642 -0.1109824754 -0.7853080388 -0.1109988784 -0.7852848395 0.0112641483 -0.0405789689
810295140.0 0.0084037279 -0.0427728885 -0.1191151054 -0.78375814 -0.1192933927 -0.7840422631 0.0112748889 -0.0406448249
815295110.0 0.0081439523 -0.0424597823 -0.1276937766 -0.7819513821 -0.1279284948 -0.7825618767 0.0098626495 -0.0404724105
820295080.0 0.006815076 -0.0417440225 -0.1365891102 -0.7808751539 -0.1356085964 -0.7810142101 0.0098174303 -0.040506699
825295050.0 0.0071450464 -0.0419054484 -0.144231411 -0.7791938423 -0.144677448 -0.7795013612 0.0094840559 -0.0401464786
830295020.0 0.0064870923 -0.0416357435 -0.1533488331 -0.7772535638 -0.1529869456 -0.7777469357 0.0097536517 -0.0402919649
