!Created with skrf (http://scikit-rf.org).
# Hz S RI R 50.0 
!freq ReS11 ImS11 ReS21 ImS21 ReS12 ImS12 ReS22 ImS22
300000.0 -0.2125496925 -0.0536008557 -0.0003850763 0.0006659816 -0.0005702667 0.0021998822 -0.7780667426 -0.114495912
5299970.0 -0.2170170412 0.0083920101 -6.18919e-05 -0.0002026292 7.55329e-05 0.0001159811 -0.7855664662 -0.0068245159
10299940.0 -0.2136236502 0.0194002816 5.61879e-05 2.15785e-05 7.78448e-05 7.90834e-05 -0.7885180203 -0.0038210024
15299910.0 -0.2086436075 0.0284776188 -1.31281e-05 0.0001101447 -6.03979e-05 1.77784e-05 -0.7942220732 -0.0016712682
20299880.0 -0.2036076566 0.0357808201 9.5126e-05 1.23616e-05 4.33592e-05 -2.10758e-05 -0.8005787586 0.0020494161
25299850.0 -0.1977344854 0.0419841715 -0.0003721908 -3.28888e-05 0.0001032244 0.0002193358 -0.8062328108 0.008060411
30299820.0 -0.1924727111 0.046565237 0.0001494981 1.3833e-06 3.2234e-05 6.81299e-05 -0.8125113055 0.016306146
35299790.0 -0.1862785512 0.0504322944 3.81681e-05 -2.58136e-05 0.0001145849 -2.19037e-05 -0.8176918399 0.0246973012
40299760.0 -0.1807860105 0.0534303331 0.0001467375 -0.0001088657 0.0003132633 -6.05881e-05 -0.8215064465 0.0343832398
45299730.0 -0.1756374459 0.0551397436 6.54542e-05 -5.5631e-05 2.43163e-05 0.0001008716 -0.8256060804 0.0435850633
50299700.0 -0.1711045911 0.0568560564 -3.59774e-05 0.0001557719 7.47079e-05 -5.58309e-05 -0.8270705063 0.0535110952
55299670.0 -0.1666691785 0.0577575093 -8.33773e-05 1.7509e-05 2.3671e-05 -2.51599e-05 -0.8295617338 0.0640642724
60299640.0 -0.1623618655 0.0586390206 2.9728e-06 3.25435e-05 5.55359e-05 0.000120592 -0.830792359 0.0742769376
65299610.0 -0.1588650318 0.0591075711 -4.03718e-05 0.0001769887 -0.0002135814 6.39054e-05 -0.8320764255 0.0838159495
70299580.0 -0.155823391 0.0595613417 1.25776e-05 0.0002101478 -3.05962e-05 -5.19839e-05 -0.8316917732 0.0940915228
75299550.0 -0.1528406649 0.0598351314 -0.0002456214 3.06006e-05 -3.34591e-05 -3.4739e-06 -0.8322929655 0.1033277232
80299520.0 -0.1499362093 0.0599657043 -5.2437e-06 1.78203e-05 -3.2322e-06 0.0002366219 -0.8321878413 0.1135515015
85299490.0 -0.1479525785 0.0597010537 7.06163e-05 4.09955e-05 0.0001020562 5.56224e-05 -0.8316069738 0.1230877458
90299460.0 -0.1457145026 0.059841795 0.0001485242 -8.35475e-05 -0.0001085441 0.0001202333 -0.8312409727 0.1329061254
95299430.0 -0.1432259258 0.0598156518 -0.0002770883 0.0001720746 1.01075e-05 -5.03564e-05 -0.829248115 0.1427358691
100299400.0 -0.1418621455 0.0599708226 5.97308e-05 -2.41059e-05 1.23409e-05 9.27419e-05 -0.8284993508 0.1523022583
105299370.0 -0.1400582522 0.0600991393 -4.72933e-05 3.62651e-05 -8.70999e-05 7.65539e-05 -0.827103124 0.1603844211
110299340.0 -0.1383185278 0.0598978627 0.0002271869 -3.49315e-05 9.8329e-05 -7.28978e-05 -0.8256133851 0.1703729402
115299310.0 -0.1369914393 0.0598601189 8.37275e-05 -9.39702e-05 7.60195e-05 0.0001092757 -0.8244555736 0.1796340114
120299280.0 -0.1361023702 0.0597811578 5.88385e-05 6.62585e-05 0.0001003543 0.0003885419 -0.8227513041 0.1892196606
125299250.0 -0.1352981157 0.0601227972 8.20231e-05 0.0001255751 0.0001268733 5.64415e-05 -0.8213448652 0.1977955011
130299220.0 -0.1343733693 0.0602457654 0.0002842716 3.83382e-05 6.23601e-05 6.81275e-05 -0.8189162876 0.2068588
135299190.0 -0.1332645072 0.0607580763 0.000182964 -3.35286e-05 3.46944e-05 -2.72708e-05 -0.8169861065 0.2161117993
140299160.0 -0.1326499139 0.0608846251 1.92394e-05 -0.0001030635 -6.7688e-06 7.5883e-05 -0.8150295595 0.2251993101
145299130.0 -0.1312599772 0.0613041879 -1.41894e-05 0.0003612124 0.0001027574 -5.65129e-05 -0.8128267134 0.2342906432
150299100.0 -0.1308976227 0.061613779 0.0002309823 2.00107e-05 0.0001092328 8.6884e-06 -0.8112438608 0.2432194867
155299070.0 -0.1301387622 0.0617813572 0.0001755015 -0.0001029494 3.30729e-05 0.0001086263 -0.8085183371 0.2516641332
160299040.0 -0.1295662521 0.0626812748 0.0002092929 7.65088e-05 -9.94332e-05 7.54206e-05 -0.8060803655 0.2606435399
165299010.0 -0.1289102648 0.062773443 2.38312e-05 0.0001195307 -0.0001307105 -1.73543e-05 -0.8032571102 0.2698961424
170298980.0 -0.1286420502 0.0633502537 -0.0001635699 0.0002001447 4.66126e-05 0.0001382713 -0.8004603881 0.2780907663
175298950.0 -0.1280402714 0.0640155795 0.0001420357 0.0001873502 -5.46871e-05 -6.26442e-05 -0.7977236358 0.286619541
180298920.0 -0.1275002997 0.0646461193 -0.0001135229 0.0001167531 2.0802e-06 -0.0001303325 -0.7944748666 0.2949433737
185298890.0 -0.1268297488 0.0651816137 -0.0001377122 4.78419e-05 2.69198e-05 -7.09868e-05 -0.7909529114 0.3037543299
190298860.0 -0.126233215 0.0660125946 -6.6286e-05 -0.0001107832 -9.45372e-05 -0.0001531347 -0.7886041756 0.3118187913
195298830.0 -0.126034363 0.0664653274 0.0004132957 -4.73798e-05 -8.5092e-06 -0.0001206293 -0.785120659 0.3208008422
200298800.0 -0.1254791503 0.0673544516 1.76643e-05 3.67269e-05 8.05559e-05 9.69545e-05 -0.7826620036 0.3292013528
205298770.0 -0.1248457282 0.0680355982 0.0002260048 1.20117e-05 0.0002343798 -8.0065e-06 -0.7781072784 0.3371911459
210298740.0 -0.1245820283 0.0689318072 8.51727e-05 3.68985e-05 0.0001298037 2.89278e-05 -0.7753457497 0.3455167178
215298710.0 -0.1243155418 0.0697053076 0.0001695179 -3.30362e-05 6.42351e-05 -0.0001236059 -0.7716039941 0.3532798313
220298680.0 -0.1236234884 0.0703490392 4.55011e-05 0.0001880148 -3.17218e-05 6.22933e-05 -0.7677391422 0.3611607249
225298650.0 -0.1237233796 0.0709431431 -0.0002040225 0.0002447382 -0.0002003025 -1.52241e-05 -0.7639324781 0.3697835196
230298620.0 -0.1229703019 0.0722662232 0.0002248833 0.0001324405 0.0002083662 1.13236e-05 -0.7604307848 0.3782682367
235298590.0 -0.1222567875 0.0731121959 -0.0003254213 -2.79518e-05 -1.24061e-05 -0.0001364332 -0.7560770119 0.3865270343
240298560.0 -0.1220666718 0.0737473354 8.97148e-05 0.0002184442 -8.48784e-05 -5.88505e-05 -0.7515226651 0.3945504715
245298530.0 -0.1212617511 0.0747390312 0.0001378714 0.0001451399 0.0001785072 0.0001415638 -0.7478477186 0.4016823394
250298500.0 -0.1208170382 0.0755948094 0.000160602 -2.69468e-05 9.15774e-05 0.000133255 -0.7435551299 0.4096615751
255298470.0 -0.1207195858 0.0763422797 2.12858e-05 -2.0182e-06 0.0002129935 -8.68492e-05 -0.7388986018 0.4175902731
260298440.0 -0.1201455465 0.0777659715 5.42655e-05 0.0001237963 8.75294e-05 0.0001049598 -0.7350639793 0.4256746561
265298410.0 -0.119413147 0.0788333299 -4.33878e-05 -8.79101e-05 8.46701e-05 4.70181e-05 -0.7300856085 0.4334552356
270298380.0 -0.1190204989 0.0797873773 5.1621e-06 0.0001065489 3.75433e-05 0.0002567294 -0.7259713924 0.4406680337
275298350.0 -0.1184567769 0.0807748086 7.24145e-05 0.0003433767 0.0002050648 0.0001505592 -0.7209441169 0.448181659
280298320.0 -0.1175519954 0.0817324318 5.16449e-05 -1.4007e-05 0.0001519782 -5.98117e-05 -0.7160601403 0.4557778273
285298290.0 -0.1171740002 0.0830153607 4.25833e-05 0.0002565687 0.000105192 -0.0001599785 -0.711461947 0.463928353
290298260.0 -0.1164393162 0.0838135683 1.1737e-05 1.95987e-05 -2.2943e-06 0.0001211284 -0.7063058374 0.4709335976
295298230.0 -0.1157267018 0.0847943451 4.66097e-05 8.72681e-05 0.0002782331 9.62726e-05 -0.7015892064 0.4778580573
300298200.0 -0.1155093087 0.0859405133 0.00011627 -9.93427e-05 8.64972e-05 0.0001214087 -0.6967372002 0.4856509854
305298170.0 -0.1144711847 0.0868048436 6.17327e-05 0.0001241583 0.0001292375 7.97406e-05 -0.6911837094 0.4932053696
310298140.0 -0.1140964304 0.087975717 0.0001745937 -2.2038e-06 0.0001509077 2.33313e-05 -0.6864381959 0.4999678505
315298110.0 -0.1134803034 0.0890053045 5.96672e-05 -6.0431e-05 0.0001279797 0.000175417 -0.6809246081 0.5072358821
320298080.0 -0.1128483349 0.0895295602 0.0001216667 0.0001489583 -0.0001044183 0.0002740999 -0.6755920471 0.514859829
325298050.0 -0.1119413084 0.0905373976 -0.0001665439 2.92092e-05 0.0001611108 0.0002014964 -0.6700421316 0.5216738937
330298020.0 -0.1114568652 0.0914643402 0.0001290613 8.35255e-05 9.68238e-05 0.0001767059 -0.6648053469 0.5285353884
335297990.0 -0.1110404461 0.0925332283 -9.96457e-05 4.84778e-05 0.0001531043 -9.01831e-05 -0.65922142 0.5354387463
340297960.0 -0.1106999161 0.0937865884 0.0002397387 0.0001450104 5.32765e-05 5.41948e-05 -0.6535504506 0.5426985715
345297930.0 -0.11014883 0.0949892573 0.0003527368 -9.562e-05 -5.13828e-05 0.0001419351 -0.6479678626 0.5485630583
350297900.0 -0.1093064268 0.0961966201 0.0002400476 0.0001833673 8.83582e-05 0.0001763502 -0.6417222745 0.5553903183
355297870.0 -0.1083301899 0.0974650745 0.0001028759 0.00015966 0.0001631887 0.0001018395 -0.6365662285 0.5618393977
360297840.0 -0.1078704971 0.0984387596 -2.11545e-05 0.0002214837 0.0001611548 0.0001722389 -0.6302873623 0.5689781332
365297810.0 -0.1074048665 0.0999024983 0.0001241399 -8.14169e-05 6.62432e-05 0.0003067673 -0.6238170256 0.5749964207
370297780.0 -0.1063886344 0.1004936983 0.000192615 0.0001833635 0.0003045567 8.08326e-05 -0.6180362502 0.5813799796
375297750.0 -0.1056342162 0.1017579124 0.0001847948 3.74135e-05 -8.22505e-05 0.000179543 -0.6120627885 0.5877918338
380297720.0 -0.104964005 0.1022543648 0.0002916854 -4.68581e-05 0.0003043114 -2.10692e-05 -0.60593301 0.5937130122
385297690.0 -0.1041649266 0.1039092425 7.18467e-05 8.49498e-05 0.0003068346 0.0002310964 -0.5995216529 0.6007176893
390297660.0 -0.1035918923 0.1049628981 0.0003422069 0.0001223632 0.0001709873 0.0002354838 -0.5936167838 0.6065498491
395297630.0 -0.1024504398 0.1061549491 0.0002041837 -4.97278e-05 3.40788e-05 8.63347e-05 -0.5871416637 0.612968799
400297600.0 -0.1016788799 0.1073702354 0.0002117226 0.0002349849 0.0002943598 2.20051e-05 -0.5808459268 0.6183704578
405297570.0 -0.101004805 0.108185843 0.0002777286 0.0002027283 0.0001881446 -0.0001693572 -0.5740244516 0.6243862851
410297540.0 -0.0999271853 0.1093531123 0.0003601496 5.47624e-05 0.0001663445 0.0001635146 -0.5681050719 0.6306257735
415297510.0 -0.0992757954 0.1099694526 8.66051e-05 -0.0001256778 0.0002213349 -6.90008e-05 -0.5612539884 0.6365444351
420297480.0 -0.0983262168 0.1115475087 8.70898e-05 7.48278e-05 0.0001594383 -8.91035e-05 -0.5545821844 0.641823329
425297450.0 -0.0974002271 0.1125583399 9.97487e-05 6.61163e-05 0.0002380575 0.0001763242 -0.5487084798 0.6477600173
430297420.0 -0.0965899051 0.113385901 0.0001107547 0.00019223 -1.77748e-05 6.6875e-05 -0.5415963135 0.6529408948
435297390.0 -0.0953685425 0.1145782209 0.000326349 -8.30354e-05 0.0002096706 0.00028637 -0.5346889309 0.6586327688
440297360.0 -0.0944302987 0.1155132064 7.05348e-05 9.19757e-05 0.0003534212 0.0001264713 -0.5279917626 0.6638744466
445297330.0 -0.0937532813 0.1163409389 0.0001179277 2.0824e-05 0.0001859542 6.5612e-06 -0.5206598143 0.6686905383
450297300.0 -0.0924715399 0.1174043488 -6.9138e-05 -5.29113e-05 0.0001024097 0.0001790912 -0.5139349474 0.6736541762
455297270.0 -0.091652645 0.1187112441 -6.4242e-06 0.0001658059 0.0001951316 -0.0001426169 -0.50696315 0.6788978652
460297240.0 -0.090696425 0.1195703178 0.0002536866 0.0001852204 0.000187007 -4.59129e-05 -0.5002031229 0.684469308
465297210.0 -0.0894663763 0.1206914296 0.0001788323 -5.73845e-05 0.0001962231 0.0001496689 -0.4927131323 0.6892928096
470297180.0 -0.0886910567 0.1218221311 0.0001864725 0.0001612379 0.0002202363 -1.89283e-05 -0.4853820757 0.6949072986
475297150.0 -0.0875417736 0.1225872532 0.0002849164 -4.6387e-05 0.0002101082 5.06167e-05 -0.478242725 0.6988712856
480297120.0 -0.086669061 0.1236377882 0.0004490331 -0.0001367825 0.0003740881 3.83448e-05 -0.4708819249 0.7039710596
485297090.0 -0.085238014 0.1245622893 0.0002298899 5.03299e-05 3.30095e-05 0.0002092574 -0.4639070691 0.7091439683
490297060.0 -0.084579136 0.1260415838 0.0002457814 0.0001565334 0.0002411847 -0.0001523068 -0.4567732313 0.7130796694
495297030.0 -0.0834012505 0.1264790402 7.35251e-05 2.28313e-05 0.0001709112 4.58033e-05 -0.4494001335 0.7186514568
500297000.0 -0.0819837472 0.1276935228 9.47251e-05 4.25707e-05 -5.9877e-06 8.62347e-05 -0.4416866001 0.7228745616
505296970.0 -0.080716255 0.1286115347 0.000270474 -7.22592e-05 0.0002277977 -5.86349e-05 -0.4344259042 0.7270832234
510296940.0 -0.0797578981 0.1294666965 0.0002204089 -5.15598e-05 0.0002177356 -6.54389e-05 -0.4272558342 0.7307451013
515296910.0 -0.0787681479 0.1302864638 4.42377e-05 -6.35045e-05 6.15462e-05 0.0001152739 -0.4197103537 0.7354099953
520296880.0 -0.0774940784 0.1314433545 0.0002775994 2.86443e-05 0.0001527482 0.0002431688 -0.4117815657 0.7393068779
525296850.0 -0.0765778258 0.1319802477 0.0001332728 6.05203e-05 0.0003310293 1.12348e-05 -0.4047580966 0.7441551712
530296820.0 -0.0751779683 0.1330964933 0.0002189265 -4.57499e-05 -4.47612e-05 2.1269e-05 -0.3968691009 0.7478883247
535296790.0 -0.0743947838 0.1342109749 6.44404e-05 2.39162e-05 0.0002959513 0.0001388597 -0.3903055722 0.7517736953
540296760.0 -0.073006843 0.134645085 0.0002185986 -9.69447e-05 5.62867e-05 0.0002427448 -0.3817202113 0.7555622279
545296730.0 -0.0721369782 0.1358704999 0.0001271792 5.8027e-06 0.0002350942 0.0002639151 -0.3741241652 0.7594174035
550296700.0 -0.0703144035 0.1365768445 0.0001433 0.0001132051 0.0001091198 0.0001271074 -0.3661470001 0.7630632881
555296670.0 -0.069455256 0.1373337948 0.0002660099 -4.646e-05 0.0002521046 0.0001077317 -0.3581126945 0.7672367639
560296640.0 -0.0679556249 0.1382669727 0.0004177992 0.0002165405 0.0003739281 -6.32785e-05 -0.3503326915 0.7704246841
565296610.0 -0.0666566679 0.1391925424 0.0001282513 0.0001057585 0.0001495236 -1.4924e-05 -0.3427243373 0.7736700223
570296580.0 -0.0657735223 0.1398673331 0.0001325092 5.24212e-05 3.01051e-05 6.98688e-05 -0.3351973756 0.777428471
575296550.0 -0.0646482562 0.1412574223 0.0003792184 -6.6019e-05 0.0003541062 5.16602e-05 -0.3269176082 0.7807969336
580296520.0 -0.0633258179 0.1415182413 4.92109e-05 -6.5445e-05 0.0002832424 7.7676e-06 -0.3183848758 0.7840600352
585296490.0 -0.0621994665 0.1419775763 7.20944e-05 6.06708e-05 0.0004116147 -4.02206e-05 -0.3108159877 0.7872732221
590296460.0 -0.0606427886 0.1430142314 0.0003404618 6.2221e-05 0.0002195338 0.0001393756 -0.3033566158 0.7901025583
595296430.0 -0.059503556 0.1436619179 5.32785e-05 -0.0002930222 0.0002752236 7.71757e-05 -0.2953226823 0.7926072911
600296400.0 -0.0583857827 0.1445851402 0.0003919747 0.0002249054 7.64221e-05 8.9346e-06 -0.2870587559 0.7957511376
605296370.0 -0.0569715037 0.1451200119 0.0002647898 7.68865e-05 0.000249 0.0001922381 -0.278398698 0.7988408315
610296340.0 -0.0556969616 0.1458909709 0.0001787842 9.83375e-05 0.0002931448 -8.24863e-05 -0.2708772599 0.8011910043
615296310.0 -0.0539811881 0.146523594 0.000248343 -0.0001577517 0.0003160474 0.0001178825 -0.262527913 0.8038588855
620296280.0 -0.0530019029 0.1471512025 2.2955e-05 -0.000105933 0.0003258569 -7.97522e-05 -0.2547978007 0.8065229745
625296250.0 -0.0514927213 0.1479467851 0.0002347474 -3.08629e-05 0.000235673 5.36314e-05 -0.2457664384 0.8087287719
630296220.0 -0.0498399861 0.148472829 0.0001178194 1.20437e-05 0.0001038331 5.05076e-05 -0.2382061317 0.8115774289
635296190.0 -0.049089342 0.1492930355 0.0002940333 3.94175e-05 0.0001278369 -6.11003e-05 -0.2300138523 0.8134238757
640296160.0 -0.0473710277 0.1498166137 0.0001470023 0.0001469832 0.0003688162 1.98415e-05 -0.2219414785 0.8162006343
645296130.0 -0.0461256114 0.150815486 0.0001853995 -0.0002190928 0.0001646572 -7.09593e-05 -0.2134374537 0.8184098493
650296100.0 -0.0448075095 0.151621536 0.0001922654 -7.01193e-05 0.0002800552 -0.0001251329 -0.2054970127 0.820041013
655296070.0 -0.0436218545 0.1521293555 0.0001915603 -6.99038e-05 0.0002387637 -9.48928e-05 -0.1970854633 0.8216450879
660296040.0 -0.0422470939 0.1526414485 0.0003402257 -0.0004518351 0.0002956881 -0.000101386 -0.1884123868 0.8239957215
665296010.0 -0.0402793261 0.1526412755 0.0002811774 -2.86019e-05 0.0003356218 2.86122e-05 -0.1799136554 0.8260369482
670295980.0 -0.0395418496 0.1539778209 9.23735e-05 0.0002302468 0.0001430813 2.13834e-05 -0.1727835992 0.8273291023
675295950.0 -0.0378701419 0.1544595319 0.000306999 0.0001022811 0.0001589358 -5.73721e-05 -0.164222956 0.8294272248
680295920.0 -0.0363191749 0.1548021987 0.0002408857 -1.32213e-05 0.0002111162 -0.0001523844 -0.1553645499 0.8316598786
685295890.0 -0.0350178019 0.1556861089 0.0001051024 3.44663e-05 0.0003097852 6.07182e-05 -0.1469020313 0.8324521376
690295860.0 -0.033516782 0.1561451885 0.0003288511 5.75987e-05 0.0003671622 8.21993e-05 -0.138732895 0.8341337999
695295830.0 -0.0321654896 0.1565807574 0.0002640038 -3.81987e-05 0.0002698584 0.0001688254 -0.1298835194 0.8349497417
700295800.0 -0.030613293 0.1569670398 0.0002016318 -3.19551e-05 0.0003984624 -3.2326e-06 -0.1227421731 0.836411528
705295770.0 -0.029786821 0.1575660609 0.000192963 -6.64875e-05 0.0003774198 9.80123e-05 -0.1141767448 0.8378370149
710295740.0 -0.0277628219 0.1577667403 0.0002186028 9.73436e-05 0.0002779163 0.0001338885 -0.105240339 0.8385660891
715295710.0 -0.0265141688 0.1582542655 0.0002706873 -2.17431e-05 0.0002284689 -0.0001058237 -0.0972531787 0.8397930709
720295680.0 -0.0248567986 0.1589508235 0.0003057029 0.0002123461 0.0003888593 -0.0001885724 -0.0884029449 0.840818062
725295650.0 -0.0234663095 0.1596162436 0.0003941232 -0.0001971657 0.0001978575 -4.29015e-05 -0.0804702268 0.8421876725
730295620.0 -0.0218304137 0.1601406981 0.0002084015 -7.56956e-05 0.0002799815 -8.88584e-05 -0.0726482246 0.8426264871
735295590.0 -0.0204722512 0.1601857082 9.13329e-05 -7.46305e-05 0.0003730916 3.24963e-05 -0.0637953209 0.8426873358
740295560.0 -0.0191477794 0.1607179622 0.0001805189 -0.0001868518 0.0002637553 -0.0003077032 -0.0545993979 0.8436670035
745295530.0 -0.0176051911 0.1610493017 8.76002e-05 -0.0001203172 0.000313466 8.2114e-06 -0.0462581924 0.8436980971
750295500.0 -0.0159316193 0.1611978497 0.0004434134 6.0416e-06 9.21847e-05 4.11048e-05 -0.0382184644 0.8443905563
755295470.0 -0.0144072362 0.1616101505 0.0004566297 2.71241e-05 0.0002942311 -2.70828e-05 -0.0293216524 0.8443314994
760295440.0 -0.013283748 0.1618947657 0.0004168287 -0.0001699421 0.0001048592 -0.0001068724 -0.0216516814 0.8446609299
765295410.0 -0.0115772324 0.1623015651 0.0001562948 -0.0001738155 0.0001896245 9.271e-07 -0.0130350037 0.845073379
770295380.0 -0.0100540532 0.1626881169 -5.21095e-05 -0.0001516724 0.0004825597 2.44594e-05 -0.0044645781 0.8447286928
775295350.0 -0.0089136372 0.1627150223 0.0002223994 0.0001282765 0.000295526 -4.51646e-05 0.003748915 0.8447295722
780295320.0 -0.0070335151 0.1631928012 0.0002859073 -5.2762e-05 0.0004595648 -1.62771e-05 0.0119238117 0.8446461614
785295290.0 -0.005824989 0.1630184517 0.0001751145 -0.000111836 0.0001544418 0.0001782035 0.0205920312 0.8442004023
790295260.0 -0.0037428974 0.1637739684 0.0004859256 2.8095e-05 0.0003633776 -0.0002124392 0.0294769018 0.8445119526
795295230.0 -0.0025350137 0.1640717746 0.0003400855 -0.0001794724 0.0002492273 0.0001161848 0.0378901248 0.8439844142
800295200.0 -0.0009744827 0.1642418536 0.0003499948 2.53263e-05 0.0004877602 -8.39489e-05 0.046783676 0.8435685854
805295170.0 0.0006779886 0.1642250888 -4.2208e-06 0.0001157901 0.0001362925 -3.82865e-05 0.0544909849 0.8435798735
810295140.0 0.0024184563 0.1645863142 0.0003197957 0.0002126765 0.0002813154 2.60413e-05 0.0631413725 0.8428933789
815295110.0 0.0034743131 0.1646774804 0.0003259949 -0.0002266241 0.0003002732 -5.96159e-05 0.0718593529 0.8416394952
820295080.0 0.0053252012 0.1649380574 0.0002641074 -0.0001396176 0.0004907497 -3.71015e-05 0.0801204087 0.8412614373
825295050.0 0.0070531232 0.1647809421 0.0003451855 -0.000214799 0.0001093574 -0.0002814185 0.0883514522 0.8408458929
830295020.0 0.0084011945 0.1653415795 0.0001791285 -0.0005334968 0.0004611075 -0.000231996 0.0973272796 0.8396517924
835294990.0 0.00996574 0.1654950285 0.0004284728 0.0001851331 0.0001469995 5.34866e-05 0.1043470687 0.8384618252
840294960.0 0.0113909843 0.1656557687 0.000280895 -5.798e-06 0.0002474055 -5.75681e-05 0.1128914629 0.8374164613
845294930.0 0.0126809383 0.1655710081 0.0002630593 0.0001073771 0.0002661031 -2.08725e-05 0.1213663984 0.8356269579
850294900.0 0.0145476052 0.1661169721 0.0001739389 -7.59055e-05 0.0004867819 -4.05523e-05 0.1294100939 0.8349446092
