!Created with skrf (http://scikit-rf.org).
# Hz S RI R 50.0 
!freq ReS11 ImS11 ReS21 ImS21 ReS12 ImS12 ReS22 ImS22
300000.0 -0.2336036185 -0.1113218823 0.4658763423 0.074091802 0.470884244 0.0756939062 -0.2377711305 -0.1155640865
5299970.0 -0.2405253365 0.0070842978 0.4751231652 0.0053352997 0.4753013929 0.0056890174 -0.2447212634 0.0056619572
10299940.0 -0.2371489839 0.0200243595 0.4770998377 0.0061230532 0.47701417 0.0063325684 -0.2417414549 0.0173604133
15299910.0 -0.2329199199 0.0295072582 0.4804937257 0.0077236067 0.4803091781 0.0077875746 -0.2369679338 0.0262308478
20299880.0 -0.2273310915 0.0378432365 0.4852238051 0.0081846657 0.4852687475 0.0081575018 -0.2329436764 0.0340262087
25299850.0 -0.2216946852 0.0443881313 0.4907104994 0.0067629209 0.4904945121 0.0069301039 -0.2277920734 0.039794657
30299820.0 -0.2158764791 0.0494832486 0.4962199534 0.0050781812 0.4956733569 0.0049652644 -0.2226088967 0.0450080981
35299790.0 -0.2099456191 0.0540268825 0.5012144685 0.001646105 0.501388004 0.0018685804 -0.2173795905 0.0488350484
40299760.0 -0.2044120364 0.0570246689 0.5063705114 -0.0016755892 0.5061206296 -0.0021805457 -0.2127361474 0.0522384647
45299730.0 -0.1996318724 0.0599105695 0.5111199279 -0.007084721 0.5110343119 -0.0066774009 -0.2081236031 0.0542919242
50299700.0 -0.1946784315 0.0619316165 0.5148458035 -0.0127703849 0.5153290321 -0.0124728894 -0.2034545519 0.0566560332
55299670.0 -0.1905636899 0.0637963343 0.5184948494 -0.0183625983 0.5187917397 -0.0185502727 -0.2001018312 0.0578991261
60299640.0 -0.186563596 0.0649212572 0.5218131828 -0.0247758369 0.5224032554 -0.0248410444 -0.1961308427 0.0594503418
65299610.0 -0.1830389805 0.0667083161 0.5249306692 -0.0303455707 0.5252168075 -0.0310525206 -0.1930734882 0.0607713929
70299580.0 -0.1796043042 0.0668527556 0.5270304847 -0.0376016823 0.5276118247 -0.0372719065 -0.190111823 0.0615288366
75299550.0 -0.1763379121 0.0681126327 0.5288215564 -0.0445834493 0.529403896 -0.044681644 -0.1871149618 0.0624890947
80299520.0 -0.1740249497 0.0688548264 0.5314754608 -0.0515249335 0.5314621485 -0.05152549 -0.1848074159 0.0630008314
85299490.0 -0.1714952474 0.0693795617 0.5325426395 -0.0583407292 0.5326249542 -0.0585560079 -0.1827768953 0.0637431964
90299460.0 -0.1691682024 0.0702132836 0.5338101638 -0.0648284592 0.5337795153 -0.0650526253 -0.1801754169 0.0641463992
95299430.0 -0.1671055829 0.0711389502 0.5346829317 -0.0724435989 0.5342585629 -0.0720573445 -0.1784503715 0.0648256782
100299400.0 -0.1654430631 0.0717555697 0.5346770887 -0.0791172386 0.53475279 -0.0793940717 -0.1771155468 0.0654354892
105299370.0 -0.1633621768 0.0725345808 0.5347239273 -0.0855842103 0.5351055996 -0.0861174241 -0.1750071581 0.0660277757
110299340.0 -0.1620110552 0.0730711687 0.5349267071 -0.0923755606 0.5350121145 -0.0927999183 -0.1737343945 0.0666348962
115299310.0 -0.1603638344 0.073446829 0.5348080055 -0.0988622677 0.5354296189 -0.0993206856 -0.1721420511 0.0671140694
120299280.0 -0.1589384126 0.0745611719 0.5351125119 -0.1065785222 0.5349659469 -0.1063282649 -0.1711245697 0.0680160574
125299250.0 -0.1580766399 0.0753029952 0.5344417182 -0.1129704961 0.534462071 -0.1131667769 -0.1698169337 0.0685670362
130299220.0 -0.1565459466 0.0760302155 0.5337341225 -0.1193854532 0.5339151498 -0.1197639248 -0.168802806 0.069538425
135299190.0 -0.1552859497 0.0766814946 0.5330632422 -0.1262572267 0.5327570781 -0.1265716641 -0.1678808811 0.0701626969
140299160.0 -0.1544011276 0.0780524464 0.5325118103 -0.1332278746 0.532849973 -0.1331415347 -0.1668926241 0.070744267
145299130.0 -0.15332205 0.0790722303 0.5316745415 -0.1394394872 0.5314104867 -0.1394333962 -0.1661544774 0.0717357697
150299100.0 -0.1520922792 0.0798534704 0.5302140357 -0.1461529477 0.5303932318 -0.1460182425 -0.1650268364 0.0723610692
155299070.0 -0.151358009 0.081549273 0.5291272423 -0.152674732 0.5293465087 -0.1528465303 -0.1644765733 0.0734364985
160299040.0 -0.1500601262 0.0820575212 0.5274227453 -0.158957168 0.5280276095 -0.1590857356 -0.1636007854 0.0748871977
165299010.0 -0.1493452421 0.0832667781 0.5266598388 -0.1654354947 0.5265681361 -0.1656846941 -0.1627438754 0.0755064742
170298980.0 -0.1484948572 0.0846878335 0.5243911691 -0.1716871518 0.5245363407 -0.1716536505 -0.1616867896 0.0763587772
175298950.0 -0.1472331868 0.0855443148 0.5235557882 -0.1779488855 0.5238615396 -0.1780103154 -0.1611082728 0.0774941772
180298920.0 -0.1462115677 0.0866094289 0.5215865668 -0.1845695588 0.5217516539 -0.1842297845 -0.1601460448 0.0789064971
185298890.0 -0.1451261631 0.0878447593 0.5193689942 -0.1908741886 0.5197297484 -0.1905718516 -0.1596528172 0.0797178059
190298860.0 -0.1442695142 0.089219098 0.5174194517 -0.196954098 0.5181961223 -0.1967035156 -0.1585021511 0.0805539337
195298830.0 -0.1434338891 0.089961171 0.5155967113 -0.2022767019 0.5158468906 -0.2030096108 -0.1580911238 0.0816029529
200298800.0 -0.142586438 0.0916453716 0.5139459641 -0.2086772375 0.5131920744 -0.2088616829 -0.1567421263 0.083378425
205298770.0 -0.1416308511 0.092956614 0.5117487631 -0.21498593 0.5119818685 -0.2147425269 -0.156389923 0.0838758732
210298740.0 -0.1408959514 0.0943202783 0.5094917232 -0.2210877119 0.509307869 -0.2212989808 -0.1556648613 0.0854749703
215298710.0 -0.1397660465 0.0956558435 0.5070317629 -0.2269549894 0.5071018999 -0.2265994264 -0.1549947565 0.0866908565
220298680.0 -0.1386897684 0.0969382372 0.5044865252 -0.2329297996 0.5044891961 -0.2328205451 -0.1541099731 0.0881539525
225298650.0 -0.1374825766 0.098403157 0.5020526449 -0.2384336701 0.5019757368 -0.238336597 -0.1533261287 0.0891597794
230298620.0 -0.1368663644 0.0997848671 0.4998109984 -0.2444142068 0.4996771823 -0.2440792376 -0.1523282723 0.0906984538
235298590.0 -0.1360514911 0.1010761417 0.4971990463 -0.2501190225 0.4973365933 -0.2505236719 -0.1518715201 0.0915113273
240298560.0 -0.1349567634 0.1027124109 0.4944358439 -0.2555663105 0.4943594044 -0.2555092283 -0.1507240535 0.0930342224
245298530.0 -0.1335730279 0.1037906252 0.4909235809 -0.2617178382 0.4913409109 -0.2616439248 -0.149930158 0.0943390739
250298500.0 -0.1329688822 0.1051189023 0.4886826354 -0.2667160941 0.4890842461 -0.2665191171 -0.148899075 0.0957356115
255298470.0 -0.1319659697 0.1067159019 0.4856842998 -0.2730969832 0.4856368133 -0.2725743365 -0.1481078029 0.0965901302
260298440.0 -0.1311049439 0.1082883525 0.4827374072 -0.2782344141 0.4829742583 -0.278407624 -0.1468261172 0.0985366783
265298410.0 -0.1294072103 0.1095781777 0.4797769905 -0.2840806882 0.4796877029 -0.2835515922 -0.1464874051 0.0992360111
270298380.0 -0.1280982195 0.1110983386 0.4760510295 -0.2894253797 0.4767203773 -0.2895666639 -0.1454581614 0.1012914598
275298350.0 -0.1272958612 0.1124643085 0.4728555934 -0.2949395358 0.4738980789 -0.2949753196 -0.1444187299 0.1024618628
280298320.0 -0.126498242 0.1141181071 0.4708047554 -0.2994570243 0.4700975363 -0.3001668278 -0.1433625683 0.1039117345
285298290.0 -0.1248672428 0.1155307537 0.4670734801 -0.3052563916 0.4671906874 -0.3054684853 -0.1427708616 0.1052469423
290298260.0 -0.1237247202 0.116656399 0.4640459309 -0.3104793315 0.4639093712 -0.3106434193 -0.1412931474 0.1067631713
295298230.0 -0.1224766022 0.1184206658 0.4606483813 -0.3161133095 0.4602532016 -0.3158248352 -0.1401945179 0.1080119179
300298200.0 -0.1206761775 0.1196296208 0.4567600894 -0.321274807 0.4570459753 -0.3214872234 -0.1395286203 0.1096096186
305298170.0 -0.1196743492 0.1207914859 0.453411575 -0.3264537829 0.45369651 -0.3266849169 -0.1377905007 0.1107426422
310298140.0 -0.1179955248 0.1216290859 0.4504254873 -0.3313835591 0.4503849633 -0.3322844917 -0.1371841181 0.1125511251
315298110.0 -0.1171850676 0.1231437857 0.4465605321 -0.3368366097 0.4465406736 -0.3370354583 -0.1358737362 0.1132896553
320298080.0 -0.1157314637 0.1245842487 0.4424604169 -0.3417739401 0.4429698817 -0.3420094059 -0.1348643771 0.1145429937
325298050.0 -0.1147640859 0.1255927532 0.4392599723 -0.3471464507 0.4389999268 -0.3476112972 -0.1338903691 0.1157769907
330298020.0 -0.1133412145 0.1269793724 0.4340185886 -0.3520663186 0.4343956589 -0.3520770355 -0.1330112033 0.1170806755
335297990.0 -0.1121321868 0.1282652386 0.4305798455 -0.3568217996 0.4306354745 -0.3572923417 -0.132239495 0.1185563733
340297960.0 -0.1114470043 0.1297815564 0.4264062046 -0.3617005078 0.4267588327 -0.3616317255 -0.131044967 0.1200258529
345297930.0 -0.1101908918 0.1312082525 0.4228197643 -0.3657767082 0.4219483998 -0.3662037356 -0.1295903391 0.1212261461
350297900.0 -0.1082407412 0.132466019 0.4179509547 -0.3705232894 0.4188280351 -0.3710279858 -0.1290221915 0.1227247588
355297870.0 -0.107130952 0.1337643144 0.41390896 -0.3755909827 0.4140537383 -0.3758439816 -0.1279325383 0.1247186658
360297840.0 -0.1055317815 0.1350300846 0.4100503148 -0.3798516143 0.4101992098 -0.3801150372 -0.1269816596 0.1258042456
365297810.0 -0.1040924694 0.1363273236 0.4057086707 -0.3846251535 0.405674654 -0.3842869264 -0.1255216964 0.1273661288
370297780.0 -0.1024996123 0.1375543748 0.401538293 -0.3888759644 0.4017570293 -0.3892148532 -0.1243173537 0.1289024162
375297750.0 -0.1012411587 0.1393704206 0.3976134435 -0.3936887676 0.3974607805 -0.3937036616 -0.1231204505 0.1304986143
380297720.0 -0.0995354407 0.1399804527 0.3932169936 -0.39741493 0.3929529627 -0.3978429179 -0.1217796552 0.1317642513
385297690.0 -0.0979622511 0.1416182762 0.3881230067 -0.4017129913 0.3884996614 -0.4022387566 -0.120547906 0.1331310241
390297660.0 -0.0966475383 0.1427268842 0.3840094456 -0.406245246 0.3838730085 -0.406820756 -0.1194064882 0.1342748994
395297630.0 -0.0947818486 0.1438831344 0.3798715574 -0.4102052916 0.3795410221 -0.4104871918 -0.1182318527 0.1359826558
400297600.0 -0.0934506213 0.1455701054 0.3748739875 -0.4146253672 0.3755243593 -0.4147732068 -0.1171711127 0.1368654264
405297570.0 -0.0918686862 0.1464122868 0.3706439269 -0.4186025676 0.3706889626 -0.4188466551 -0.1159842421 0.1385627692
410297540.0 -0.0900128803 0.1473989463 0.3656832675 -0.4224184092 0.3658166179 -0.4227491658 -0.114523782 0.1398135838
415297510.0 -0.088685367 0.1490742215 0.3612444957 -0.427018689 0.3616366482 -0.4267694381 -0.1134457518 0.1412609588
420297480.0 -0.0867801001 0.1493700533 0.3563478161 -0.4309186463 0.3566053714 -0.4307050689 -0.1115767751 0.1421354475
425297450.0 -0.0849301284 0.1505491389 0.3520716739 -0.4349270159 0.3518747764 -0.4345267908 -0.1103608627 0.1438788912
430297420.0 -0.0835590221 0.1522206486 0.3474641177 -0.4384446722 0.3472382652 -0.4383349563 -0.1093113906 0.1450030059
435297390.0 -0.0816137678 0.1531793888 0.3422579181 -0.4421878147 0.3423700761 -0.4418606949 -0.1076155076 0.1464870735
440297360.0 -0.0800459 0.1541741754 0.3369764977 -0.4457881036 0.3368436188 -0.4459020175 -0.1061434945 0.1470737959
445297330.0 -0.0781165347 0.155033341 0.3322877193 -0.4498238795 0.3324512166 -0.4494008959 -0.1050347059 0.1483302293
450297300.0 -0.0761814556 0.1558909715 0.3270322875 -0.4531190586 0.3276134141 -0.4530680136 -0.1035414384 0.1499222983
455297270.0 -0.0748025677 0.15700861 0.3229443713 -0.4566222052 0.3227411719 -0.4566716959 -0.1019584795 0.1513633551
460297240.0 -0.0733417253 0.1581588877 0.3177298414 -0.45981093 0.3173728298 -0.459905783 -0.1005286801 0.1527320464
465297210.0 -0.071091362 0.158884525 0.312526701 -0.4638305391 0.3129964732 -0.4637377046 -0.099760901 0.1533159962
470297180.0 -0.0696986223 0.1596867138 0.3076163286 -0.4668355207 0.3077456315 -0.4671295239 -0.0987179911 0.1547784804
475297150.0 -0.0677718945 0.160563212 0.3018269839 -0.4698753719 0.3022779299 -0.4692296705 -0.0962460537 0.1556137639
480297120.0 -0.0659022271 0.1613532454 0.2971407653 -0.4730748131 0.2974152146 -0.4733149781 -0.0951343254 0.1572497416
485297090.0 -0.0639576763 0.1621535919 0.292321014 -0.4762028382 0.2923282721 -0.4765700535 -0.093685764 0.1579424573
490297060.0 -0.0619925741 0.1629529584 0.286868249 -0.4796144596 0.286935035 -0.4797703618 -0.0918765419 0.1596867059
495297030.0 -0.0604569801 0.1642237316 0.2812226872 -0.4828908547 0.2812896433 -0.4826393791 -0.0905941833 0.1600947731
500297000.0 -0.0585245411 0.1646987149 0.2758929368 -0.4858526811 0.2765545732 -0.4854425589 -0.0892955077 0.1609917651
505296970.0 -0.0570613218 0.1655156507 0.2709232039 -0.4885423467 0.2709198252 -0.4884625127 -0.0880896332 0.1625684781
510296940.0 -0.0548797503 0.1663699875 0.265437359 -0.4916141243 0.2656873948 -0.491628491 -0.0861175479 0.1637125811
515296910.0 -0.0534443095 0.1671764055 0.259958647 -0.4939765901 0.2601618522 -0.4942575843 -0.0847435594 0.16433336
520296880.0 -0.051268898 0.1676297637 0.2547338369 -0.4973311036 0.2549428186 -0.4969191694 -0.0829241463 0.165404284
525296850.0 -0.049469565 0.1684187473 0.2492589055 -0.4996548519 0.2496101 -0.5000246711 -0.0813238971 0.1664195935
530296820.0 -0.047536247 0.1691464151 0.2441627436 -0.5019563655 0.2439857001 -0.5025448272 -0.0802069359 0.1669706974
535296790.0 -0.0457016065 0.1697051414 0.2384091912 -0.5047505413 0.2390728536 -0.5048781074 -0.0785370535 0.1681053216
540296760.0 -0.0439022836 0.1701864621 0.232960203 -0.5076761714 0.2329027703 -0.5077553605 -0.0773843441 0.1692843969
545296730.0 -0.0416703795 0.1711508134 0.2271109618 -0.5101164294 0.2273970611 -0.5103038407 -0.0757418126 0.1696509492
550296700.0 -0.0403366581 0.1714782637 0.2222197041 -0.5123014977 0.2223175312 -0.5125927419 -0.0739453919 0.1710813763
555296670.0 -0.0378299876 0.1721097549 0.2166112004 -0.5151728422 0.2164380099 -0.5149529891 -0.0724435264 0.1724560558
560296640.0 -0.0362337088 0.1727979231 0.2108389395 -0.5167534356 0.2111681009 -0.5167672341 -0.070686491 0.1729400319
565296610.0 -0.0347704551 0.1730846666 0.2051395079 -0.5191860493 0.2052971363 -0.5192452223 -0.0695126438 0.1735444995
570296580.0 -0.0321925015 0.1737362154 0.1992332439 -0.521222959 0.1999361452 -0.5217983568 -0.0673860109 0.1749212405
575296550.0 -0.0304371951 0.1744116729 0.1938053052 -0.5231214697 0.1941150848 -0.5235978398 -0.065754215 0.1753481339
580296520.0 -0.0286599523 0.1747384447 0.1886735735 -0.5256042224 0.1881974188 -0.5256089123 -0.0642209802 0.1762072606
585296490.0 -0.0265035848 0.1747699581 0.1825360965 -0.52749613 0.1827186958 -0.5273212805 -0.0628664685 0.1763324742
590296460.0 -0.0248172086 0.1754570871 0.1764786802 -0.5295176057 0.1768449376 -0.5293440401 -0.0608112442 0.1777462711
595296430.0 -0.0228063497 0.1760131875 0.1708761771 -0.5313225359 0.1706988623 -0.5314453496 -0.0589656095 0.1783182115
600296400.0 -0.020827881 0.1764622194 0.1653571802 -0.5330899114 0.1656844039 -0.5331928953 -0.0575887129 0.1792551397
605296370.0 -0.0188127555 0.1767760982 0.1597298748 -0.5348546292 0.159578472 -0.534584741 -0.0556854065 0.179728666
610296340.0 -0.0168130166 0.1771791195 0.154071195 -0.5362953955 0.1538537346 -0.5369562742 -0.0539989393 0.1808897094
615296310.0 -0.0146611036 0.1777058748 0.147643972 -0.5378400737 0.1478067199 -0.5379265467 -0.0521349407 0.1811670694
620296280.0 -0.0131548405 0.1777060881 0.1424425804 -0.539271215 0.1423586821 -0.5395574797 -0.0508127476 0.181628528
625296250.0 -0.0105351952 0.1781286807 0.1361073185 -0.5414684633 0.1362659062 -0.5413433224 -0.0487391584 0.182474026
630296220.0 -0.0086979646 0.1784272468 0.1303194682 -0.5426204191 0.1309961948 -0.5424607733 -0.047300809 0.1831249418
635296190.0 -0.0071051522 0.1786997399 0.1245250255 -0.5435670002 0.1245054707 -0.5434722202 -0.0455101284 0.1834749311
640296160.0 -0.0049118662 0.1785077398 0.1190119745 -0.5447376673 0.1187274332 -0.5452627661 -0.0431486428 0.1841578123
645296130.0 -0.002846775 0.1790245355 0.1125498193 -0.5462722893 0.1128877021 -0.5464643544 -0.042231439 0.1845071708
650296100.0 -0.0007988423 0.1795454259 0.1073000204 -0.5472073948 0.1075173446 -0.5473880765 -0.0404237586 0.1852502172
655296070.0 0.0010849906 0.1792091129 0.1006790242 -0.5484701516 0.1012981236 -0.5484178448 -0.0380919977 0.1861555549
660296040.0 0.002483542 0.1797174316 0.0953339491 -0.5492714224 0.0953109944 -0.5493457185 -0.0367825261 0.1862747646
665296010.0 0.0051140135 0.1794419219 0.0895946483 -0.5504679047 0.0899224966 -0.5506468974 -0.0352045563 0.1870000218
670295980.0 0.0074328533 0.17958881 0.0831131149 -0.5514034745 0.0837057005 -0.5514126706 -0.0332674803 0.1872686056
675295950.0 0.0093393099 0.1798534879 0.0773400775 -0.5525137929 0.0776973687 -0.5526332889 -0.0312400411 0.1880416364
680295920.0 0.0111213082 0.180140808 0.0711693614 -0.5531090304 0.0714154085 -0.5531614244 -0.0295870174 0.1882718038
685295890.0 0.013039225 0.1799923284 0.065763396 -0.5537291869 0.0654622313 -0.5538627596 -0.0277914957 0.1887529376
690295860.0 0.0153595735 0.1800724616 0.059726809 -0.5541230845 0.0590298859 -0.5541787891 -0.025637147 0.1893972454
695295830.0 0.0176905981 0.1795679355 0.0523140386 -0.5549165868 0.0533681947 -0.5551120086 -0.0242024642 0.1895957191
700295800.0 0.0193975266 0.1797658498 0.0472093264 -0.5555809741 0.0473163903 -0.5557988993 -0.0220971639 0.1897391744
705295770.0 0.0215259529 0.1797037027 0.0414361231 -0.5554556483 0.0414401707 -0.556108957 -0.0208250774 0.1903777668
710295740.0 0.0233573776 0.1799923769 0.0356043523 -0.5565425048 0.0354924965 -0.5562410657 -0.0192761409 0.1910483077
715295710.0 0.0253250788 0.1798400062 0.0294249579 -0.5568416385 0.0298888897 -0.5564831952 -0.0170896444 0.190865386
720295680.0 0.027413725 0.1793020859 0.0233695662 -0.5565770128 0.0236528443 -0.5572950772 -0.0151150665 0.1915373195
725295650.0 0.0294898304 0.1793181055 0.0173801469 -0.5565692954 0.0175953729 -0.5570241601 -0.0132821604 0.1917663678
730295620.0 0.0312126748 0.1791287935 0.0111837614 -0.5572743041 0.011370179 -0.5571948356 -0.0112332453 0.1914967348
735295590.0 0.0336869849 0.178954109 0.0056469325 -0.5571310673 0.0055504318 -0.5574385689 -0.009313447 0.1923193063
740295560.0 0.0355420753 0.1788374874 -0.0006721488 -0.5568337544 -0.0006292023 -0.5570881069 -0.0074567514 0.1923597882
745295530.0 0.0377153797 0.1784234471 -0.0069184228 -0.5572701778 -0.0062916023 -0.5572459366 -0.0062151661 0.1926149843
750295500.0 0.0391528938 0.1781128096 -0.0125446768 -0.5564459188 -0.0122337601 -0.5567244259 -0.0038426713 0.1922008504
755295470.0 0.0420516706 0.1782222395 -0.0183857403 -0.5566062863 -0.0181996908 -0.557173211 -0.0025279008 0.1931041264
760295440.0 0.0433765353 0.1775965381 -0.0245278622 -0.5564681626 -0.0244942966 -0.5563806502 -0.0005501235 0.1931449133
765295410.0 0.0454744398 0.1771192048 -0.0302178333 -0.5558116357 -0.030273451 -0.5564179496 0.0021738346 0.1935262908
770295380.0 0.0474874138 0.176843227 -0.0367069992 -0.5552095481 -0.0364212485 -0.5562767229 0.0040968155 0.1936303107
775295350.0 0.0493706641 0.1765764295 -0.0424532051 -0.555030547 -0.0424943781 -0.5551302957 0.004916017 0.1932792158
780295320.0 0.0517318324 0.1760793237 -0.0481171114 -0.5546561646 -0.0482175656 -0.5549648843 0.0073396714 0.1939556493
785295290.0 0.0532795817 0.1761960928 -0.0545975312 -0.5535543146 -0.0543783133 -0.5542185564 0.008773603 0.1937999097
790295260.0 0.0554792526 0.1754148556 -0.0601516749 -0.553413329 -0.0604552502 -0.5537801143 0.011236678 0.1937595015
795295230.0 0.0572718607 0.1748196799 -0.0656583093 -0.5522804409 -0.0658917748 -0.5528767942 0.0128105956 0.1942206501
800295200.0 0.0593718615 0.1745912 -0.0728453621 -0.5525229744 -0.0722662873 -0.5523101407 0.0146890642 0.1942187391
805295170.0 0.0610422311 0.1738599371 -0.0780391765 -0.5507906319 -0.077994933 -0.5509829881 0.0162338574 0.1936993834
810295140.0 0.0632094053 0.1735471791 -0.0839258111 -0.5500180975 -0.0836755922 -0.5510882687 0.0186081411 0.1945104315
815295110.0 0.0651346287 0.1730191595 -0.09011103 -0.5493015514 -0.0902103731 -0.5493045847 0.0199921957 0.1938777763
820295080.0 0.0672077472 0.1719869804 -0.0959823699 -0.548239078 -0.0960716463 -0.5490392701 0.0218426421 0.193916991
825295050.0 0.0688955044 0.1714452681 -0.1017175988 -0.5467744109 -0.1017957568 -0.5475138895 0.0239292675 0.1939642597
830295020.0 0.0709362044 0.1713640003 -0.1077869098 -0.5457377958 -0.1078753516 -0.5463114598 0.025689515 0.1939107053
