!Created with skrf (http://scikit-rf.org).
# Hz S RI R 50.0 
!freq ReS11 ImS11 ReS21 ImS21 ReS12 ImS12 ReS22 ImS22
300000.0 -0.2409160305 -0.0832531253 0.4745382941 0.0561603286 0.4675520733 0.0536343031 -0.242098202 -0.0967574525
5299970.0 -0.2444344742 0.0068466425 0.4738982917 0.0050039708 0.4734346958 0.0052535178 -0.2438058991 0.0073478732
10299940.0 -0.2411589745 0.0189412976 0.4757000268 0.0058743497 0.4756000633 0.0061672133 -0.2409537223 0.0202847139
15299910.0 -0.2368194888 0.0280127722 0.4790020665 0.0078183876 0.4793514471 0.0075953944 -0.2361140067 0.0295681577
20299880.0 -0.2320461769 0.0353366288 0.4837245192 0.0085486104 0.4838028175 0.0082637802 -0.2309793929 0.0374904342
25299850.0 -0.2266983048 0.0419093043 0.4890113312 0.0074651059 0.4892133112 0.0077755164 -0.2248819946 0.0439659487
30299820.0 -0.2214132217 0.0470138054 0.4945064148 0.0052751915 0.4943607134 0.0052060788 -0.2190295551 0.0490486356
35299790.0 -0.2162190441 0.0513343542 0.4997353121 0.0018434207 0.5000192396 0.0021118447 -0.2135000125 0.0533553647
40299760.0 -0.211284339 0.0547038937 0.5049152126 -0.0016844726 0.5050792687 -0.0019260664 -0.2080967202 0.0561718891
45299730.0 -0.2066097724 0.0578021508 0.5094138018 -0.006342502 0.510081858 -0.006390673 -0.2033030795 0.0588297772
50299700.0 -0.2024520119 0.0596084664 0.5141317476 -0.0116309847 0.5140401638 -0.0114876251 -0.1984750303 0.0604731993
55299670.0 -0.198299746 0.0619790506 0.518309176 -0.0184699921 0.5175435351 -0.0178321655 -0.1941035107 0.062224362
60299640.0 -0.1942495457 0.0634124004 0.5208845214 -0.0243169626 0.5216395963 -0.0241512062 -0.1906196158 0.0633308124
65299610.0 -0.1911097715 0.0647907205 0.5244026422 -0.0308937223 0.5239297259 -0.0305097708 -0.1869947565 0.0641718816
70299580.0 -0.1879031644 0.066135995 0.5265209299 -0.037520067 0.5265743394 -0.0372106414 -0.1838285785 0.0649530362
75299550.0 -0.1852181233 0.0671836371 0.5281976142 -0.0441706205 0.5281347648 -0.0437487393 -0.1812282227 0.0653367065
80299520.0 -0.1825500377 0.0682187915 0.5302926544 -0.0507276501 0.530409921 -0.0508177248 -0.1785927137 0.0658696322
85299490.0 -0.1800668959 0.068785294 0.5317243967 -0.0572369944 0.5318084909 -0.0574595703 -0.1761796943 0.0660788462
90299460.0 -0.1779482136 0.0696285117 0.5326712994 -0.0647618648 0.5328774197 -0.0648034522 -0.1737919305 0.0666917785
95299430.0 -0.17566725 0.0706156227 0.5338969603 -0.0716160037 0.5337544491 -0.0717336884 -0.1715031549 0.0671828185
100299400.0 -0.1740428766 0.071612135 0.5337454164 -0.078824975 0.5336010387 -0.0785240611 -0.1692956464 0.0673801565
105299370.0 -0.1721264192 0.0723471771 0.5340611666 -0.0855020642 0.5345579327 -0.0856204814 -0.1674524558 0.0680265841
110299340.0 -0.1704282505 0.0734812717 0.5344152976 -0.0924738645 0.5344387795 -0.0919012222 -0.1666602694 0.0684797322
115299310.0 -0.1686472726 0.0742351013 0.5347484865 -0.0993303623 0.5344792691 -0.0989464271 -0.1648770786 0.0688423858
120299280.0 -0.1672984907 0.0747725413 0.5338407262 -0.1061061584 0.5344863502 -0.1058248299 -0.1634980612 0.0694673098
125299250.0 -0.1660152311 0.0755155006 0.5343817374 -0.1124958167 0.5340878841 -0.112169921 -0.1624547673 0.0695618311
130299220.0 -0.1651346973 0.0766197133 0.5330017219 -0.1194637326 0.5329606363 -0.119563652 -0.1609951493 0.0703647745
135299190.0 -0.1637809422 0.0780070533 0.5330231511 -0.1260334275 0.5327748331 -0.1258688927 -0.159944261 0.0709324193
140299160.0 -0.1625256837 0.0788334139 0.5318875182 -0.1329905568 0.5319443356 -0.1329442346 -0.1588405366 0.0722969565
145299130.0 -0.161314944 0.079840757 0.531208896 -0.1394017615 0.5304651979 -0.1389158511 -0.1578412981 0.0724603768
150299100.0 -0.1599255296 0.0811888761 0.5296212404 -0.1454982381 0.5301843512 -0.1457050202 -0.1569891906 0.0741062548
155299070.0 -0.1594533526 0.0820296824 0.5286966171 -0.1528193142 0.5285354628 -0.1525104648 -0.1557995292 0.0745850952
160299040.0 -0.1580591261 0.0835979069 0.5272466923 -0.1590864612 0.5269784916 -0.1588638132 -0.1554054104 0.0753662975
165299010.0 -0.1575629988 0.0848039033 0.5259658547 -0.1652504703 0.5260809341 -0.1651538249 -0.1541080562 0.0767508717
170298980.0 -0.1566227296 0.0856649794 0.5242377497 -0.1715070573 0.5242383153 -0.1714169656 -0.1535394258 0.077502379
175298950.0 -0.1555332004 0.0871223702 0.5229334274 -0.1781173845 0.5227547006 -0.1776860568 -0.1526924138 0.0786405849
180298920.0 -0.1546168457 0.0882627089 0.5210202964 -0.1840996625 0.5209088753 -0.183954213 -0.1519143222 0.0797623017
185298890.0 -0.1534213905 0.0892936144 0.5188290015 -0.1901619821 0.5190252138 -0.1906291222 -0.1511309872 0.0812432858
190298860.0 -0.1526505288 0.0910202842 0.5173318454 -0.1965365482 0.5175547056 -0.1966452153 -0.1506164751 0.0817667238
195298830.0 -0.1518783682 0.0920029001 0.5152086903 -0.2025527362 0.5153323094 -0.2026269474 -0.149369822 0.0830054515
200298800.0 -0.1507066059 0.0938275866 0.5129834689 -0.2091050106 0.5132784096 -0.2087464021 -0.149272087 0.083882757
205298770.0 -0.1497346094 0.0951446206 0.5105724039 -0.2146477343 0.5108159707 -0.2145471119 -0.148205129 0.0850227994
210298740.0 -0.149031979 0.0962358523 0.5086621505 -0.2206743097 0.5087806076 -0.2204679648 -0.147385924 0.086786579
215298710.0 -0.1481413654 0.0977564934 0.5062306815 -0.2267818914 0.5060857806 -0.2269984304 -0.1472899408 0.0879170128
220298680.0 -0.146961768 0.0990646427 0.5038030491 -0.2330457414 0.5039388807 -0.2327054226 -0.1467955177 0.0885055632
225298650.0 -0.1460874187 0.1004352054 0.5014205783 -0.2386647033 0.5014116736 -0.2384623918 -0.1462123934 0.0897043165
230298620.0 -0.1452584449 0.102218922 0.4992317569 -0.2444868609 0.4996569475 -0.2441270881 -0.1454267206 0.0910079498
235298590.0 -0.144049545 0.1037293435 0.4963220421 -0.2499227786 0.4962556408 -0.2497539477 -0.1446673841 0.0921562318
240298560.0 -0.1430063073 0.1053620602 0.4934437051 -0.2558226936 0.4932529662 -0.2559978014 -0.1439941536 0.0938604242
245298530.0 -0.1423106354 0.1064970416 0.4912201418 -0.2614771587 0.4908773117 -0.2617438696 -0.1428835008 0.0943822235
250298500.0 -0.1406408517 0.108095334 0.4874468619 -0.2674408195 0.4877552527 -0.2670726039 -0.1426862743 0.0956019147
255298470.0 -0.1401385322 0.1091801376 0.484395523 -0.2724977997 0.4851370498 -0.2724981938 -0.1413133192 0.0967446826
260298440.0 -0.1390644391 0.110407486 0.4819941814 -0.2784635021 0.4822477986 -0.2780744383 -0.1405490988 0.0982879984
265298410.0 -0.1375127875 0.1126206479 0.4783419879 -0.2837363845 0.4791412027 -0.2836821483 -0.1398248469 0.0993716297
270298380.0 -0.1367209783 0.1139685616 0.4760328209 -0.2891050953 0.4760805077 -0.2890838885 -0.1391838872 0.1007703215
275298350.0 -0.1352731958 0.1153326621 0.472785303 -0.2950033302 0.473002918 -0.2945946791 -0.1378783277 0.1017984025
280298320.0 -0.1339539844 0.1168374201 0.4695663243 -0.3002574512 0.4695352382 -0.2996756865 -0.1367992885 0.1027964697
285298290.0 -0.1328116719 0.1183360008 0.4663618017 -0.3052302592 0.4662682408 -0.3052049395 -0.1361575738 0.1041851832
290298260.0 -0.1315664635 0.1199247755 0.46255102 -0.3107700933 0.4631645898 -0.3103475115 -0.1349718559 0.1059512168
295298230.0 -0.1301498802 0.1210621752 0.4597712577 -0.315745018 0.4595782822 -0.315953548 -0.1336324974 0.1064577673
300298200.0 -0.1293382144 0.1224720116 0.4564793577 -0.3206451145 0.4563567637 -0.3211259836 -0.1327603286 0.1081576404
305298170.0 -0.127573813 0.1234726549 0.452155743 -0.326479306 0.4528611771 -0.3262783575 -0.131127155 0.10888979
310298140.0 -0.126675529 0.1252377067 0.4494483561 -0.3317553667 0.4495292817 -0.3314421745 -0.1304662272 0.1103695223
315298110.0 -0.1252728194 0.1262185413 0.4450382203 -0.3369454416 0.4455674954 -0.3363347702 -0.1295632079 0.1114434035
320298080.0 -0.1238039195 0.1277106917 0.4411931632 -0.3422702167 0.4416690043 -0.34181377 -0.1286432489 0.1129697723
325298050.0 -0.1224232394 0.129029481 0.4377184148 -0.347160357 0.4377657982 -0.3469411487 -0.1277522839 0.1137414609
330298020.0 -0.1215738447 0.1299101327 0.4334858964 -0.3522059037 0.4338674137 -0.352052059 -0.1268693957 0.1151448398
335297990.0 -0.1200301127 0.1311853204 0.4297360656 -0.3564307274 0.4298316269 -0.356886142 -0.1264940118 0.1168329287
340297960.0 -0.1192275989 0.132895616 0.4254110825 -0.3613798019 0.4250797073 -0.3616844913 -0.1250899735 0.1179089966
345297930.0 -0.1178453754 0.1346206628 0.4217121761 -0.3667124441 0.4213740964 -0.366411439 -0.1240849838 0.1191029571
350297900.0 -0.1165299606 0.1356526287 0.4169590048 -0.3709345665 0.4171064277 -0.3707060239 -0.1234453237 0.1208563211
355297870.0 -0.1149972527 0.1376002609 0.4128522956 -0.3756927652 0.413447059 -0.3756286071 -0.1225450619 0.1222861958
360297840.0 -0.113873873 0.1389286603 0.4094293787 -0.3798694971 0.4097236913 -0.380040851 -0.1212323503 0.1236624134
365297810.0 -0.1125270791 0.1402477369 0.4045914674 -0.3845372508 0.4052021507 -0.3848344823 -0.11981841 0.1250216524
370297780.0 -0.1106822246 0.1415847522 0.4002559718 -0.3885257993 0.4009887594 -0.38860808 -0.1190481487 0.126265069
375297750.0 -0.109184128 0.1428808446 0.3961270696 -0.3932951251 0.3967749132 -0.3932533743 -0.1179679419 0.1273831693
380297720.0 -0.1077724046 0.1444359959 0.3920227674 -0.3977449013 0.3922630857 -0.396794231 -0.117468939 0.1284685315
385297690.0 -0.1066293349 0.1457593091 0.3876125142 -0.4018477378 0.3874130244 -0.4015006034 -0.1157920064 0.1299723615
390297660.0 -0.1049426074 0.1470471364 0.383607546 -0.4059603929 0.383289793 -0.4061089189 -0.1148977565 0.1315868086
395297630.0 -0.1031127313 0.1484004432 0.3785458469 -0.4105415237 0.3786528797 -0.4103921429 -0.113108204 0.1325374993
400297600.0 -0.1017527728 0.1498688468 0.3740250285 -0.4148039993 0.374380161 -0.4145774098 -0.1122059387 0.1337760917
405297570.0 -0.1002345836 0.1509126982 0.3693442765 -0.4184107523 0.3696861509 -0.4181095197 -0.1113322293 0.1351533892
410297540.0 -0.0982928792 0.1520440879 0.3650042709 -0.4225859753 0.3655295633 -0.4227361333 -0.1099962162 0.1367106244
415297510.0 -0.0965840393 0.1533105679 0.3605588662 -0.426611624 0.360262994 -0.4268587161 -0.1084467434 0.13760367
420297480.0 -0.095185452 0.1548302971 0.3550565884 -0.4306181815 0.3553577814 -0.4308243749 -0.1075627672 0.1384253959
425297450.0 -0.093477301 0.1554436196 0.3508850991 -0.4345499209 0.3512521396 -0.4342243683 -0.1065721284 0.1400834093
430297420.0 -0.0920761427 0.1565934313 0.3458547228 -0.4381101492 0.3462567178 -0.4379498249 -0.1053380249 0.1405495849
435297390.0 -0.0903420786 0.1577704583 0.3409990714 -0.4420576465 0.3407994376 -0.442081018 -0.1032104828 0.1421209901
440297360.0 -0.0881661432 0.1591299418 0.3361515044 -0.4454488284 0.3366603082 -0.4454341626 -0.1022764186 0.1428508117
445297330.0 -0.0864844611 0.1599690927 0.3314250861 -0.4491815388 0.3314748618 -0.4487155234 -0.1006750032 0.1436480069
450297300.0 -0.0847475881 0.1608485329 0.3263950703 -0.4527368621 0.3265101258 -0.4529085181 -0.0996415941 0.1447047667
455297270.0 -0.083132475 0.1622176257 0.3214955979 -0.4563955921 0.3221303258 -0.456624239 -0.0981716917 0.1459394147
460297240.0 -0.0815604173 0.1631710003 0.3163918953 -0.459898863 0.3167009753 -0.4598289498 -0.0968696586 0.146828951
465297210.0 -0.0793375727 0.1641651502 0.3118820543 -0.4636455207 0.3114863343 -0.4638283423 -0.0951737294 0.1479389799
470297180.0 -0.0777792231 0.1650995202 0.3062232419 -0.4668469014 0.3064406312 -0.4666491087 -0.0937764736 0.1490995756
475297150.0 -0.0760971171 0.1659382135 0.3009782026 -0.4694670858 0.3012085321 -0.4697375315 -0.0920793334 0.1500868252
480297120.0 -0.0741751755 0.1673030921 0.2959939921 -0.4733535424 0.2959734251 -0.4732385038 -0.0900354619 0.1512767138
485297090.0 -0.0722946114 0.1682261774 0.2911845927 -0.4760584205 0.2911698263 -0.4760468809 -0.0890067813 0.1520106853
490297060.0 -0.07100669 0.1691307765 0.2861734225 -0.4797753749 0.2861108619 -0.4793606553 -0.0875095879 0.1532895922
495297030.0 -0.0687763358 0.1701108023 0.2803816535 -0.4823310869 0.281294476 -0.4821959876 -0.086323082 0.1542651347
500297000.0 -0.0668411825 0.1707834787 0.2754440343 -0.4854001788 0.2749474765 -0.4851555062 -0.0844704221 0.1556860775
505296970.0 -0.064814642 0.1714694372 0.2695754236 -0.488078608 0.2698249033 -0.4884518964 -0.0830844569 0.1559517186
510296940.0 -0.0630518237 0.172435609 0.2643411654 -0.4911242659 0.2644939908 -0.4915540411 -0.0812505646 0.1575843703
515296910.0 -0.0610912992 0.1736595201 0.2594367569 -0.4943907631 0.259176136 -0.4940113777 -0.0798800045 0.158542271
520296880.0 -0.0593742638 0.1741017932 0.253730548 -0.4973387065 0.2537079057 -0.4969689184 -0.0787557451 0.1592442172
525296850.0 -0.0571350906 0.1745442719 0.2478280834 -0.4997341271 0.2485302148 -0.4995638777 -0.0773461837 0.1602855981
530296820.0 -0.055323836 0.1759771535 0.2429303822 -0.5027013496 0.242886925 -0.5025828528 -0.0755739432 0.1613126247
535296790.0 -0.0538892661 0.1766697479 0.2375879115 -0.5050438467 0.2377203363 -0.5042454203 -0.0742079164 0.1619104687
540296760.0 -0.0517035581 0.1775781629 0.2318055085 -0.5078665439 0.2318404537 -0.5077303679 -0.0729174294 0.1635533798
545296730.0 -0.050037598 0.1780359627 0.2262214706 -0.5097713141 0.2262884721 -0.5099402637 -0.0711483181 0.1641757027
550296700.0 -0.0473232125 0.1791118171 0.2206407511 -0.5124727985 0.2207941401 -0.5121505454 -0.0695944405 0.1648560122
555296670.0 -0.0458536716 0.1793695869 0.2156656572 -0.514622916 0.2157444353 -0.5142617082 -0.0682657213 0.1660537157
560296640.0 -0.0434602132 0.1803518635 0.2092530457 -0.5170237993 0.2099086757 -0.5169865681 -0.0666012082 0.1666647709
565296610.0 -0.0420818338 0.1804886529 0.203525189 -0.5191541565 0.2043666628 -0.51900824 -0.065183132 0.1671762169
570296580.0 -0.0401075409 0.1815834016 0.1985433283 -0.5217597709 0.1977485279 -0.5213603137 -0.0635256456 0.1686551923
575296550.0 -0.0380513137 0.1825282269 0.1926964312 -0.5239820899 0.1927504409 -0.5234331112 -0.0617165169 0.1688205885
580296520.0 -0.0359301447 0.1828241159 0.1870236171 -0.5258568058 0.1870783774 -0.5255925292 -0.0600034286 0.1695187687
585296490.0 -0.0339527732 0.1828045774 0.1810520486 -0.5275838905 0.181661906 -0.527235605 -0.0587166729 0.170138497
590296460.0 -0.0315768402 0.1836582808 0.1756371417 -0.5290454507 0.1755814106 -0.5294137035 -0.0576099714 0.1713142106
595296430.0 -0.0294943848 0.1841244008 0.1695155195 -0.5315386997 0.1697182562 -0.5311906766 -0.0554340626 0.1715129124
600296400.0 -0.0279354892 0.1844360222 0.1640489377 -0.5329381192 0.1642677548 -0.5325924547 -0.0541361367 0.1721608793
605296370.0 -0.0259149854 0.1847862376 0.1579613499 -0.5346786381 0.1583417298 -0.534679069 -0.0520871778 0.1728744118
610296340.0 -0.0237916737 0.1855104012 0.1521277552 -0.5364088967 0.1524934897 -0.5360055702 -0.0504015895 0.1734587366
615296310.0 -0.0213290085 0.1856660402 0.1459693025 -0.5377410425 0.1463197789 -0.5379009152 -0.0483746548 0.1738588202
620296280.0 -0.0196561873 0.185813351 0.1406461698 -0.5390770379 0.1406111844 -0.5392111692 -0.0473432657 0.1745761788
625296250.0 -0.0177736759 0.1857889968 0.1352079659 -0.5410715661 0.1346518057 -0.5412157734 -0.0450189284 0.1750344247
630296220.0 -0.0148832294 0.1864077517 0.1283355259 -0.5421615699 0.1284733689 -0.5420303483 -0.0434447557 0.1757020467
635296190.0 -0.0137319079 0.1865261328 0.1228193899 -0.543502672 0.1230185668 -0.5437154926 -0.0414496376 0.1760683426
640296160.0 -0.0117672787 0.1868760139 0.1170484571 -0.5445495622 0.117309648 -0.5448385358 -0.0397405863 0.1767151773
645296130.0 -0.0094281094 0.1875878454 0.1110869612 -0.5458078941 0.1115484427 -0.5463058388 -0.03813482 0.1774264102
650296100.0 -0.0073124193 0.1873174522 0.1052203476 -0.5471759746 0.1055029757 -0.5471367759 -0.0360319128 0.1771647984
655296070.0 -0.0053706832 0.1876389218 0.0988582966 -0.5482269717 0.0995668852 -0.5480964052 -0.0341466647 0.1780004291
660296040.0 -0.0034388482 0.1876266311 0.0935219713 -0.5490961457 0.0937729348 -0.5492071964 -0.0323265254 0.1786205992
665296010.0 -0.0007319184 0.1878302422 0.0868677154 -0.5503359746 0.0877095217 -0.5499696329 -0.0305905028 0.1798072589
670295980.0 0.0003020863 0.1883508015 0.0817653293 -0.5507539613 0.0817693808 -0.550998527 -0.0293082367 0.1797791197
675295950.0 0.0027611858 0.1886102634 0.0758138208 -0.5519276735 0.0756722647 -0.5511626199 -0.0275660554 0.1802808932
680295920.0 0.0047284272 0.1885865591 0.0694504942 -0.5525173527 0.0692587641 -0.5529716358 -0.0253745424 0.181502214
685295890.0 0.0069728075 0.1890745942 0.0634264621 -0.5529050238 0.0634868797 -0.5532703881 -0.0239425255 0.1814907425
690295860.0 0.0092395671 0.1888143066 0.0579331353 -0.5533965856 0.0577433363 -0.5541645911 -0.0222660536 0.1824358358
695295830.0 0.0112195398 0.1885886945 0.0522649877 -0.5543006146 0.0514803559 -0.5544367571 -0.0203496059 0.1826722652
700295800.0 0.0134749636 0.1886900971 0.0455001426 -0.5551639797 0.0454526217 -0.5546347723 -0.0189505867 0.1832946675
705295770.0 0.0152087123 0.1890542675 0.0396060451 -0.5549406757 0.0400854447 -0.5553537412 -0.0171287623 0.1838245818
710295740.0 0.0174985136 0.1888439911 0.0339606569 -0.55613155 0.0339154316 -0.5559044043 -0.0154704505 0.1833760668
715295710.0 0.0192345144 0.1887989496 0.0282274646 -0.5559479392 0.0278593729 -0.5558693276 -0.013340247 0.1837045604
720295680.0 0.021289762 0.1886858217 0.021792613 -0.5564206083 0.0219655726 -0.5564553553 -0.0115905371 0.184955286
725295650.0 0.0238066431 0.1887553492 0.0157571859 -0.5564304791 0.0158421014 -0.5569332129 -0.0102099915 0.1853784595
730295620.0 0.0258816205 0.1887502992 0.0098155527 -0.5564112768 0.0099443059 -0.5567249543 -0.0083431352 0.1848250763
735295590.0 0.0276422084 0.1887896111 0.004177293 -0.5572426936 0.003726349 -0.5565497904 -0.0069172175 0.1851112756
740295560.0 0.0295444224 0.188488758 -0.0021737696 -0.5566846484 -0.0023116556 -0.5563402463 -0.0043141028 0.1854089436
745295530.0 0.0317988261 0.1884393874 -0.0081494869 -0.5564231814 -0.0086066405 -0.5562632156 -0.0029502484 0.18547796
750295500.0 0.0340095977 0.1879109213 -0.0143746469 -0.5561873545 -0.0142322919 -0.5568285491 -0.0013869037 0.1860549915
755295470.0 0.0361485703 0.1875120051 -0.0199601926 -0.55580727 -0.0203243765 -0.5564329558 0.0009347521 0.1855325747
760295440.0 0.0381435903 0.1876861053 -0.0262963926 -0.5562110635 -0.0262891468 -0.555930279 0.002575847 0.1855502069
765295410.0 0.0402653294 0.1874326469 -0.0323170878 -0.5557570165 -0.0325742401 -0.5557712243 0.0042276415 0.1860829084
770295380.0 0.0418111865 0.186714568 -0.0383678233 -0.5550598328 -0.0380524818 -0.554885473 0.0059473168 0.1856493519
775295350.0 0.044064747 0.1859294367 -0.0444848115 -0.5539274924 -0.0436938503 -0.5544315835 0.0069951269 0.1859724688
780295320.0 0.0460289765 0.1860561933 -0.0504464996 -0.5535398416 -0.0491990964 -0.5539873322 0.0089776992 0.18569277
785295290.0 0.0481837559 0.1854257615 -0.0565099138 -0.5527342266 -0.0556660689 -0.553352106 0.0116995964 0.1859087456
790295260.0 0.0504698979 0.1854801616 -0.0614897384 -0.5525544663 -0.0611887292 -0.5525532823 0.0135034 0.1860736417
795295230.0 0.0522468072 0.1846664213 -0.0682014897 -0.5515232247 -0.0676379902 -0.5521461468 0.0154677438 0.1860537161
800295200.0 0.0543796841 0.1846251441 -0.0746497974 -0.5510939126 -0.0742567592 -0.5510728504 0.017262123 0.186034048
805295170.0 0.0563871218 0.1836576887 -0.0799676374 -0.5502371248 -0.0795443715 -0.5503136546 0.0188028816 0.1858381733
810295140.0 0.0582416383 0.183017202 -0.085564112 -0.5489174749 -0.0856375621 -0.5494021095 0.0212961263 0.1862464849
815295110.0 0.060394155 0.182064267 -0.0913219284 -0.5477914085 -0.0913951599 -0.5485487481 0.0224059113 0.1858746926
820295080.0 0.0620085818 0.1823018627 -0.0974894475 -0.5471964128 -0.0974275169 -0.5468474357 0.024590567 0.1857902748
825295050.0 0.0648017137 0.1815162217 -0.1030651832 -0.5457720757 -0.1033510748 -0.5461945289 0.0265777615 0.1855728402
830295020.0 0.0661190582 0.1813178384 -0.1092920378 -0.5448142219 -0.1094348519 -0.5448648403 0.0289909212 0.1856372225
