!Created with skrf (http://scikit-rf.org).
# Hz S RI R 50.0 
!freq ReS11 ImS11 ReS21 ImS21 ReS12 ImS12 ReS22 ImS22
300000.0 -0.7758139719 -0.1107165299 -0.0008841541 0.0002000234 -0.0001092077 0.0005875106 0.8592274691 -0.0026060651
5299970.0 -0.785381972 -0.0058721214 -0.0001303951 2.218e-05 -9.00405e-05 6.31787e-05 0.8589650394 -0.0095413017
10299940.0 -0.7881677915 -0.0041220253 -7.85199e-05 -2.53447e-05 2.18769e-05 -3.011e-05 0.8586143882 -0.0188658091
15299910.0 -0.7934844051 -0.0021724305 -0.0001124138 -3.7872e-05 -1.03542e-05 -0.0001160842 0.8572670908 -0.027143883
20299880.0 -0.8001730875 0.0016466145 -0.0001515828 0.0001516132 6.40069e-05 0.00016076 0.8571330701 -0.0353817994
25299850.0 -0.8063345024 0.0073969199 -6.67311e-05 -2.5575e-05 -1.25707e-05 -0.0001008922 0.8560682812 -0.0435404303
30299820.0 -0.8128696802 0.0150604247 8.33768e-05 7.56737e-05 -3.72139e-05 2.56195e-05 0.8552694505 -0.0516018461
35299790.0 -0.8173405701 0.0246994063 0.0002146298 1.85283e-05 0.0001789612 4.49675e-05 0.8546035495 -0.0598098836
40299760.0 -0.8213768001 0.0335416723 -0.0001280161 2.81773e-05 1.57674e-05 -1.003e-06 0.8539638962 -0.0681008608
45299730.0 -0.8245222299 0.0422997668 -0.00019372 0.0001588521 7.41124e-05 -4.801e-06 0.852994385 -0.0765167242
50299700.0 -0.8270924251 0.0528389551 9.20597e-05 -0.0002745875 -3.65327e-05 -5.54222e-05 0.8518928869 -0.0842323666
55299670.0 -0.829212368 0.062590907 -3.49343e-05 -2.02816e-05 0.0001710397 1.58939e-05 0.8513551561 -0.0928255702
60299640.0 -0.8302820124 0.0731728517 -0.0001393295 0.0001256385 -0.000138426 0.0001320739 0.850136133 -0.1010456354
65299610.0 -0.8310060811 0.0833404203 -7.67971e-05 -0.0001902749 0.0001368259 7.5554e-06 0.8495853178 -0.1091527595
70299580.0 -0.8313559717 0.0928916359 0.0001731091 -0.0001575808 2.24588e-05 0.00012755 0.8485548543 -0.1169408835
75299550.0 -0.8315212735 0.1030932238 -2.0332e-06 0.0001595382 -5.62198e-05 0.0002250735 0.8472177104 -0.1255928917
80299520.0 -0.8317935561 0.1133890715 -0.0001907906 -6.3712e-06 7.47158e-05 -0.0002045059 0.8461130335 -0.1336083664
85299490.0 -0.8311008341 0.1217614813 -8.50825e-05 -7.54517e-05 0.0002151635 4.57022e-05 0.8443735845 -0.1416263482
90299460.0 -0.8301020336 0.1319409154 0.0002488598 0.000211861 8.57459e-05 4.72022e-05 0.84336045 -0.1496027258
95299430.0 -0.8293373616 0.1410136168 -1.9059e-05 4.26863e-05 9.94471e-05 6.07248e-05 0.8415180143 -0.1578313869
100299400.0 -0.8283563454 0.1508941129 -8.26442e-05 -0.0001745593 0.0001292465 -6.26112e-05 0.8399188195 -0.165815492
105299370.0 -0.8267380383 0.1599669926 -0.0003423275 -0.0002125452 -0.0001059531 -4.47266e-05 0.8380753758 -0.1744518533
110299340.0 -0.8252085373 0.1691691106 -2.48035e-05 5.99729e-05 9.94995e-05 -0.0001716184 0.8364663714 -0.1819529119
115299310.0 -0.8239967867 0.1780516182 -2.9538e-05 -9.87672e-05 7.05255e-05 1.04609e-05 0.8348957212 -0.1904663593
120299280.0 -0.8220825163 0.1865973818 -8.50124e-05 0.0001403632 -0.0001405093 3.60455e-05 0.8329243427 -0.1984070387
125299250.0 -0.8199984683 0.1955746181 -2.99545e-05 -3.61838e-05 1.17e-05 8.17941e-05 0.83101885 -0.2059744264
130299220.0 -0.8187866765 0.2049550907 -0.0001837769 -7.62119e-05 0.000119931 -0.0001197534 0.8292151519 -0.2146106514
135299190.0 -0.8172556989 0.2139387889 -1.4141e-06 -0.0001519476 5.5586e-06 -2.02674e-05 0.8264688159 -0.2227359222
140299160.0 -0.814506791 0.2230511393 -6.75832e-05 8.82802e-05 -0.0001276015 -5.77019e-05 0.8242616405 -0.2299892617
145299130.0 -0.8127907163 0.2319290118 -0.0003242635 9.27197e-05 3.78277e-05 -4.97978e-05 0.8219953491 -0.2383254316
150299100.0 -0.8102299955 0.2399577593 9.9825e-06 -7.89756e-05 -5.71889e-05 1.395e-05 0.8188951173 -0.2463230671
155299070.0 -0.8081160806 0.2493215028 -4.68815e-05 8.16605e-05 -3.21843e-05 -0.0001087454 0.8173894098 -0.2542430847
160299040.0 -0.8052285284 0.2573510047 0.0001904976 1.14309e-05 -1.43534e-05 -8.2762e-06 0.8143289561 -0.2618286844
165299010.0 -0.8030654481 0.2665225272 -8.6596e-06 0.0001285589 -0.0001234785 -6.46346e-05 0.8112887246 -0.2701675494
170298980.0 -0.8002387648 0.2750962108 -1.53786e-05 -0.0003194827 6.87905e-05 -8.13925e-05 0.8088587028 -0.277768762
175298950.0 -0.7971044052 0.2838989911 -1.78312e-05 0.0001022416 -9.28271e-05 0.0002050543 0.8066017741 -0.2857144018
180298920.0 -0.7951293946 0.2921469861 -7.84109e-05 -4.124e-07 -1.5953e-05 -0.0001559137 0.8041680385 -0.2940199913
185298890.0 -0.7912270034 0.3005700729 3.99628e-05 0.0001175712 0.0001691327 0.0001149604 0.8013415452 -0.3013222848
190298860.0 -0.7891109827 0.3089353554 -7.00945e-05 0.0001529113 8.75793e-05 0.0001071999 0.7974331072 -0.3083514034
195298830.0 -0.7854588324 0.3175023166 1.3107e-06 -0.0001246409 5.75238e-05 8.92597e-05 0.7954356532 -0.3162399302
200298800.0 -0.7815955687 0.325332897 7.9103e-06 0.0001371055 -3.92472e-05 8.6157e-05 0.7914829995 -0.3245186996
205298770.0 -0.7786312202 0.3339776609 -0.0002227814 0.0001944874 2.60126e-05 5.91322e-05 0.7887730098 -0.33221175
210298740.0 -0.775092645 0.3421175763 -0.0001222948 -0.0001948521 -0.0002054579 6.41498e-05 0.7853023128 -0.3390757193
215298710.0 -0.7718900977 0.3502008745 -0.0001441241 0.0001412046 -9.18866e-05 9.89118e-05 0.7820300854 -0.3468416628
220298680.0 -0.7673899231 0.3582054897 2.54436e-05 0.0001042371 0.0002598577 6.353e-07 0.7780761821 -0.3545743104
225298650.0 -0.765115042 0.3659699667 -0.0001011105 0.000407656 -5.28411e-05 -0.0002745822 0.7746206823 -0.3625345669
230298620.0 -0.7602717694 0.3743811169 1.14982e-05 0.0001372262 0.0001434421 -0.0001620536 0.7714136181 -0.3695555364
235298590.0 -0.756643202 0.3826057648 -8.82643e-05 -8.59312e-05 -1.24209e-05 0.0001881936 0.7674912497 -0.3776062231
240298560.0 -0.7523693611 0.3908087783 -6.50834e-05 -0.0001452496 -0.0001268447 -0.0001344147 0.7638605317 -0.3845018795
245298530.0 -0.7490860042 0.3985299016 5.036e-05 -0.0001483171 6.18301e-05 2.84399e-05 0.7606985712 -0.3920957307
250298500.0 -0.7442893662 0.4058933183 0.0001730159 -0.0001431752 8.41323e-05 2.75257e-05 0.7562018898 -0.3988716936
255298470.0 -0.7397777768 0.4133691519 0.0002187103 -0.0002203157 0.0001581444 -0.0001582833 0.7526034201 -0.4071145677
260298440.0 -0.7356768982 0.4208560159 0.0002740986 6.71245e-05 0.0001634115 7.56948e-05 0.7484735605 -0.4135785411
265298410.0 -0.7316837506 0.4294978971 -0.0003020065 0.0001247086 -2.86279e-05 2.05261e-05 0.7450623214 -0.4210357811
270298380.0 -0.7268017071 0.4368873905 7.12334e-05 8.01141e-05 -7.77127e-05 -0.0001257245 0.7406454296 -0.4278742357
275298350.0 -0.7222068311 0.4446482061 4.74247e-05 -8.3267e-06 -1.6647e-05 -3.38199e-05 0.7364337076 -0.4348153795
280298320.0 -0.7175953313 0.4519850505 0.000117531 6.65445e-05 6.7757e-05 -8.98181e-05 0.7331067925 -0.4423845157
285298290.0 -0.7131247511 0.4598411188 -9.06514e-05 -2.96676e-05 3.95942e-05 0.000112275 0.728473707 -0.4494490411
290298260.0 -0.7081725494 0.4668499341 6.5318e-06 3.7795e-06 -6.57213e-05 4.5135e-05 0.7245056002 -0.4566293138
295298230.0 -0.702981128 0.4744409871 1.50133e-05 0.0001968158 0.0001357909 -2.6558e-06 0.7206179357 -0.4633695559
300298200.0 -0.6987299915 0.4814374356 3.87572e-05 0.0001485768 -2.83449e-05 2.35582e-05 0.7157784519 -0.470586498
305298170.0 -0.6929369604 0.488143843 -0.0001184488 3.55903e-05 9.11852e-05 -0.0001910441 0.7121863962 -0.4786234603
310298140.0 -0.6878826591 0.4962063572 -9.51341e-05 -8.9193e-05 -0.0001182135 0.000116019 0.7067718635 -0.4865292849
315298110.0 -0.6828701795 0.5029009281 0.0001880249 0.0001673997 0.0001311311 0.0002574794 0.701280257 -0.493454501
320298080.0 -0.6774311625 0.5098979219 -0.0001078555 1.28037e-05 0.0001568321 -7.22513e-05 0.6958189028 -0.500795853
325298050.0 -0.672106972 0.5173641767 0.0001545422 -3.37481e-05 -2.85777e-05 -6.96484e-05 0.6907518761 -0.5076527777
330298020.0 -0.6666361701 0.5238193188 0.0001167551 -4.15667e-05 8.2362e-05 -2.25111e-05 0.6842459622 -0.5145742628
335297990.0 -0.6613781127 0.5305539563 9.62883e-05 3.88483e-05 -5.53684e-05 -1.67294e-05 0.6788988685 -0.5205140381
340297960.0 -0.6562124535 0.5370342116 0.0001183263 -0.0001355866 0.0002405342 2.12362e-05 0.6740938968 -0.5272068758
345297930.0 -0.6504235926 0.5441173654 1.52431e-05 4.87046e-05 0.0001612831 0.0001009322 0.667749125 -0.5337927602
350297900.0 -0.6444480995 0.5509739732 3.18298e-05 -4.76615e-05 0.0001558702 8.19238e-05 0.6625137068 -0.5387956936
355297870.0 -0.6384412613 0.5578068914 3.58599e-05 -0.0002422829 3.25515e-05 -2.44645e-05 0.6569511493 -0.5460695737
360297840.0 -0.6332925557 0.5632420956 -9.39999e-05 -9.19123e-05 -7.29193e-05 1.05672e-05 0.6522567181 -0.5525333084
365297810.0 -0.6276357629 0.5697930104 0.000325881 0.0001539532 7.33149e-05 1.62196e-05 0.6463484104 -0.5581647558
370297780.0 -0.6210914906 0.5763673012 7.85763e-05 -0.0001812243 4.93228e-05 -0.0001638421 0.6412917739 -0.5641709939
375297750.0 -0.6148014198 0.5831237344 -0.0001537894 2.24785e-05 4.25444e-05 2.68868e-05 0.6355469274 -0.5704162798
380297720.0 -0.6089207883 0.589071113 1.43106e-05 -2.4575e-05 0.0001544231 -5.08062e-05 0.6288541022 -0.5765607729
385297690.0 -0.603842348 0.5954225313 0.0001480074 -3.61352e-05 6.01758e-05 -7.33332e-05 0.624121958 -0.5827470133
390297660.0 -0.5972960232 0.6013754167 6.06515e-05 -0.0001140084 -6.65368e-05 -3.07178e-05 0.6178378155 -0.5880248041
395297630.0 -0.5909875858 0.6077745919 0.0002807803 -9.51859e-05 -0.0001969046 9.2938e-06 0.612262362 -0.5943875729
400297600.0 -0.5845063063 0.6137284175 -4.24284e-05 0.0001002925 1.295e-05 0.0001070285 0.606469133 -0.5999966405
405297570.0 -0.5783619531 0.6191814355 -7.83069e-05 -4.95739e-05 -0.0001049487 -6.11802e-05 0.6004583951 -0.6062884884
410297540.0 -0.5716061676 0.6248530097 0.000145079 -0.0001400474 0.0001398651 -2.66547e-05 0.5946793199 -0.6119715614
415297510.0 -0.5652373969 0.6307094972 -3.13036e-05 -8.86108e-05 -3.69956e-05 -5.87841e-05 0.5884411892 -0.6178890319
420297480.0 -0.5601196819 0.6368985614 -3.9895e-06 -0.0001703582 0.000169662 3.74012e-05 0.5829751278 -0.6228963245
425297450.0 -0.5520618784 0.6421659876 8.90347e-05 5.18368e-05 -0.0001305463 8.1549e-05 0.5766317201 -0.6287600671
430297420.0 -0.5459248038 0.6475190485 -1.0745e-06 1.87944e-05 -4.64006e-05 0.0002036453 0.5699397971 -0.6346988288
435297390.0 -0.5394456546 0.6522020465 0.0002168917 -0.0001107507 3.23415e-05 -2.78525e-05 0.5640863689 -0.6399614723
440297360.0 -0.5323796792 0.6584300965 5.94989e-05 -1.5428e-06 9.92118e-05 -0.0001625159 0.5576597007 -0.6451600429
445297330.0 -0.5252027301 0.6640364902 9.87746e-05 -4.85693e-05 -5.052e-07 -0.0001124101 0.5523063544 -0.6512613298
450297300.0 -0.5188356521 0.669396724 6.77106e-05 -8.11491e-05 8.68307e-05 -1.41431e-05 0.5445167363 -0.6553406176
455297270.0 -0.5120443156 0.673738376 1.30233e-05 -4.7725e-05 -5.0987e-05 -0.0001181522 0.5384407587 -0.6608840757
460297240.0 -0.505643758 0.6790894256 7.41261e-05 8.3151e-06 8.18419e-05 0.000151153 0.5313362222 -0.6657097064
465297210.0 -0.4980587485 0.6845021015 0.0001184456 6.45554e-05 -7.37598e-05 3.78843e-05 0.5250237125 -0.6710577361
470297180.0 -0.4905591767 0.6898279166 -7.9084e-06 -0.0001718555 -8.17692e-05 5.05567e-05 0.5186806531 -0.6755903625
475297150.0 -0.4841978122 0.6943331338 9.29947e-05 -8.68281e-05 0.000177755 -6.84136e-05 0.5115095218 -0.6811503685
480297120.0 -0.4774492132 0.6996221344 5.33037e-05 -0.0001495536 -8.84283e-05 7.18291e-05 0.5056047376 -0.6851261774
485297090.0 -0.4699281553 0.7039097895 -0.0001200644 -0.0001127467 2.74567e-05 -8.99623e-05 0.4986370329 -0.6902410138
490297060.0 -0.4627273392 0.7084110522 -8.39923e-05 0.000161825 3.53257e-05 -2.73127e-05 0.491472149 -0.6958718255
495297030.0 -0.4552947626 0.7131727478 0.0001351368 -0.000120034 0.0001518396 0.0001033505 0.484163464 -0.6997400415
500297000.0 -0.447967872 0.7177396801 -0.0001285192 -0.0002297134 -0.0001948546 0.0001310073 0.4782274173 -0.7044868729
505296970.0 -0.4406738596 0.7225055721 -0.0001131844 0.0001613181 1.78458e-05 -5.40177e-05 0.4710120118 -0.7091609701
510296940.0 -0.4331327706 0.7266684256 7.06027e-05 0.0003262338 -2.79849e-05 -0.0002400443 0.4635662715 -0.714043614
515296910.0 -0.4254551732 0.7304274186 0.000225895 -0.0001774758 -4.44186e-05 8.32658e-05 0.4566834991 -0.7181969667
520296880.0 -0.4191339817 0.7354233762 -2.85687e-05 -2.72294e-05 2.74098e-05 8.417e-06 0.4492887199 -0.7233793044
525296850.0 -0.4107145092 0.7383866927 -0.0001150062 -8.65708e-05 0.0001921777 0.00012559 0.4424107091 -0.726389647
530296820.0 -0.4032414904 0.7436564253 7.91566e-05 -3.89297e-05 0.0001427119 -0.0001551221 0.4357613667 -0.7307621329
535296790.0 -0.3963582324 0.7473772218 0.0001384712 -0.000148024 0.0001434581 0.0002889374 0.4281352091 -0.7353561644
540296760.0 -0.3886299889 0.7510898045 4.82357e-05 -0.0002644997 3.57195e-05 3.53722e-05 0.4205088911 -0.73943856
545296730.0 -0.3813715192 0.7546702978 -3.95742e-05 -4.13056e-05 -7.08151e-05 -4.40971e-05 0.4136630302 -0.743694961
550296700.0 -0.3738410241 0.7589571557 3.43699e-05 -0.0001588051 -0.0002446878 3.1981e-06 0.4062709693 -0.7478103311
555296670.0 -0.3658765948 0.7612997808 0.0002630019 -0.0001944828 -1.67209e-05 9.36736e-05 0.3987087874 -0.7511978253
560296640.0 -0.3573459478 0.7657931049 8.03519e-05 -0.0001016657 -1.18887e-05 0.0001597049 0.3910619297 -0.7547401817
565296610.0 -0.3502456925 0.7693590749 -0.000309041 0.0001274365 -6.01675e-05 -0.0001016626 0.3840943509 -0.7582543818
570296580.0 -0.3429604068 0.7721248432 7.3252e-06 0.0002232755 0.0001751771 -0.0001380651 0.3763351918 -0.7623217769
575296550.0 -0.3345607882 0.7767049648 -9.90731e-05 0.0001154318 -1.60066e-05 -0.0001595836 0.3685140625 -0.7655822162
580296520.0 -0.3270672181 0.7795224644 -0.0001472648 4.9094e-05 -0.000108198 6.11735e-05 0.3614826378 -0.7694744275
585296490.0 -0.31925749 0.7828523882 -0.0002427574 -6.19977e-05 1.57532e-05 -0.0001176583 0.3541585448 -0.7731986038
590296460.0 -0.3113293366 0.7856154901 1.02826e-05 0.00011277 -1.37199e-05 6.1735e-06 0.3456923529 -0.7755082696
595296430.0 -0.3035641797 0.788107506 0.0001200828 -4.88459e-05 0.0001004793 2.65518e-05 0.3384706834 -0.7793987995
600296400.0 -0.2954124649 0.7919571948 -0.0002151285 -0.0001665519 8.14226e-05 -0.000170848 0.3311889938 -0.782569466
605296370.0 -0.2881005685 0.7945607875 -0.0001756308 -0.0001372047 4.12899e-05 2.51735e-05 0.3227467185 -0.7856098419
610296340.0 -0.2795411314 0.7974125272 2.11439e-05 -8.68644e-05 -6.57711e-05 -0.0001190056 0.3157509539 -0.7880555328
615296310.0 -0.2707580801 0.7999872824 -0.0003491845 2.79891e-05 0.0001474958 0.0001200845 0.3072186835 -0.7914130699
620296280.0 -0.2638470191 0.8023919516 -3.22479e-05 0.0002139927 0.0001596079 -2.78963e-05 0.2997157401 -0.7941557174
625296250.0 -0.2556429139 0.805319202 1.18962e-05 -4.52204e-05 2.46828e-05 -5.21104e-05 0.2922134454 -0.7973119986
630296220.0 -0.2467528333 0.8077356197 0.0002046004 -1.46539e-05 7.31691e-05 -0.0001475252 0.2836097115 -0.7999978057
635296190.0 -0.2391230533 0.8102390488 -0.000115958 -7.97433e-05 1.22804e-05 0.0001439777 0.2759215856 -0.8024504856
640296160.0 -0.2316848294 0.8126565684 -9.69046e-05 0.0002434144 -1.50747e-05 0.0001109022 0.267246226 -0.8049877155
645296130.0 -0.2231985284 0.8150583844 -1.45321e-05 6.70209e-05 -8.2371e-05 3.52199e-05 0.2598451185 -0.807313669
650296100.0 -0.2148334836 0.8164773117 9.7918e-06 -0.0001334697 5.0039e-05 0.0003182143 0.2521903525 -0.8108485095
655296070.0 -0.206870736 0.8190579185 6.5178e-06 6.32162e-05 9.89553e-05 6.26706e-05 0.2448243107 -0.8116313598
660296040.0 -0.1987731888 0.8207627302 0.0001673503 -0.0001815866 1.45808e-05 -0.0001467165 0.236729532 -0.8146794557
665296010.0 -0.1901080635 0.8223703989 0.0002327944 -1.53853e-05 0.000145038 -0.0001547056 0.2277520569 -0.8168340283
670295980.0 -0.1825089215 0.8245658147 -5.30039e-05 8.26548e-05 5.58986e-05 -2.69508e-05 0.2195279038 -0.8189586027
675295950.0 -0.1739388293 0.8260072783 -0.000111993 8.24192e-05 1.30763e-05 9.90794e-05 0.2114064994 -0.8202238769
680295920.0 -0.1653260817 0.8282019765 -0.0001269706 8.5733e-05 -1.99558e-05 -0.0001415132 0.2041313187 -0.8225212114
685295890.0 -0.1569712133 0.8305480071 6.83407e-05 -6.58977e-05 1.87574e-05 -1.85866e-05 0.1957463467 -0.8239096769
690295860.0 -0.1494241092 0.8311174376 -5.45677e-05 -0.000129461 6.99489e-05 8.06355e-05 0.1869897553 -0.8259330135
695295830.0 -0.1412036676 0.8320027793 -0.000133556 5.20716e-05 5.6633e-05 1.15173e-05 0.1791560248 -0.8279345832
700295800.0 -0.1323123429 0.8337612727 -3.6899e-05 -8.05748e-05 1.89697e-05 6.0532e-06 0.1708967716 -0.8297331603
705295770.0 -0.1244692693 0.8351804966 -0.000118934 -0.0001313404 0.0001359073 1.5735e-05 0.1623527007 -0.8300905974
710295740.0 -0.1162824884 0.83680254 3.84205e-05 -3.55737e-05 0.0001051393 -1.99846e-05 0.1539339412 -0.8320639216
715295710.0 -0.1082009135 0.8376393199 9.53517e-05 -4.95366e-05 3.2286e-06 0.0001498503 0.1459698509 -0.8334969602
720295680.0 -0.1000457407 0.8386476024 -0.0001233955 -5.6313e-06 9.4037e-06 -0.0001242624 0.1380565314 -0.834672536
725295650.0 -0.0915330308 0.8395501912 -0.0001595928 0.0001067658 0.0001471938 0.0002763553 0.1293503723 -0.8356517991
730295620.0 -0.0829536618 0.8404930439 -0.0003324163 0.0002568617 7.21261e-05 5.86664e-05 0.1204146414 -0.8375206622
735295590.0 -0.0749447571 0.8419244342 8.32492e-05 9.577e-06 5.92743e-05 -7.92071e-05 0.11275622 -0.8388657829
740295560.0 -0.0664715182 0.8423162272 2.7715e-05 -0.0001984027 8.50374e-05 7.01584e-05 0.1048922373 -0.8391030129
745295530.0 -0.0579010922 0.843051637 -0.000172092 -2.09473e-05 -0.000188127 7.60057e-05 0.0964803284 -0.8395349344
750295500.0 -0.0496565701 0.8426941828 -3.28681e-05 -0.00013335 -1.49769e-05 2.91805e-05 0.0877218712 -0.8404374867
755295470.0 -0.041442409 0.8430119417 -0.0001646558 1.07164e-05 -2.25901e-05 0.0001495387 0.080036325 -0.8421932994
760295440.0 -0.0335305034 0.8435325744 8.79792e-05 0.0001387318 3.54493e-05 1.4658e-05 0.0720828745 -0.8431329871
765295410.0 -0.0252587091 0.8438717198 -0.0002415778 -0.0001454869 4.35519e-05 -3.55909e-05 0.0632970695 -0.842453509
770295380.0 -0.0167012513 0.8443383078 -2.93257e-05 0.0001794894 -0.0001321988 -0.0001291104 0.0545599824 -0.8438826854
775295350.0 -0.0081377193 0.8442388286 -4.9663e-06 -9.92505e-05 0.0002996089 -2.23104e-05 0.0458712216 -0.8432506107
780295320.0 0.0004104404 0.8443410385 0.00012082 -4.33925e-05 0.000198961 -3.06882e-05 0.038101443 -0.8437382546
785295290.0 0.0083284614 0.8439838654 -1.77701e-05 -2.57229e-05 8.71733e-05 9.2235e-06 0.0302340361 -0.8436107545
790295260.0 0.016519603 0.8443945582 0.0001245002 0.0002671557 5.11292e-05 0.000221789 0.0221636912 -0.8437267472
795295230.0 0.0246820452 0.8439909821 -0.0001268258 0.0001333355 3.06177e-05 3.9041e-06 0.013003324 -0.8443692828
800295200.0 0.0332885576 0.8435952272 0.0002027635 -0.0001171363 0.0002286626 -3.04767e-05 0.0046038119 -0.844228011
805295170.0 0.0418687942 0.843333136 6.42019e-05 0.0001157178 -7.76768e-05 -4.94104e-05 -0.0031921878 -0.843628192
810295140.0 0.0500967696 0.8426627799 -8.15034e-05 9.57095e-05 -9.1316e-06 0.0001053016 -0.0108406993 -0.8442684012
815295110.0 0.0587101747 0.8418548874 -0.0001010727 8.98138e-05 3.67074e-05 -5.90609e-05 -0.0202279053 -0.8431235145
820295080.0 0.0665565864 0.8415014364 -4.6701e-06 0.0001754952 -5.78209e-05 9.41827e-05 -0.0284892892 -0.8427888622
825295050.0 0.0758838048 0.8409107092 5.4557e-06 1.5718e-05 -3.15265e-05 -0.0001459787 -0.0361077797 -0.8423123938
830295020.0 0.0833613451 0.8404464824 -3.47738e-05 0.0002949057 -0.0002339993 2.77327e-05 -0.0442819031 -0.8413281851
835294990.0 0.0916795155 0.8393270082 2.11523e-05 9.6587e-06 9.33412e-05 -9.7952e-06 -0.0531685341 -0.8411491112
840294960.0 0.099612119 0.8387948942 0.0003701451 -0.0001921291 -0.0001986952 0.0001640124 -0.0618515805 -0.8403353543
845294930.0 0.1083033732 0.83693882 -0.0001554263 -7.52379e-05 -0.0001330774 4.71431e-05 -0.0701099642 -0.8392898177
850294900.0 0.116573789 0.8365978364 -7.82708e-05 0.0001091889 5.25635e-05 -0.0001219194 -0.0786893119 -0.8392040353
