!Created with skrf (http://scikit-rf.org).
# Hz S RI R 50.0 
!freq ReS11 ImS11 ReS21 ImS21 ReS12 ImS12 ReS22 ImS22
300000.0 -0.7734273888 -0.0871794963 -0.0014355515 0.0017951928 0.0003685565 0.0031254657 -0.7732502366 -0.1222996931
5299970.0 -0.7848693497 -0.0057870726 0.0002527519 -7.77257e-05 -6.56691e-05 -0.000171955 -0.7848566642 -0.0071525426
10299940.0 -0.7879601317 -0.0041031019 0.0001193384 2.34844e-05 -8.82641e-05 0.0001508991 -0.7877550072 -0.0035363759
15299910.0 -0.7932710066 -0.0018783135 -0.0001527043 0.0002026536 2.79117e-05 8.761e-06 -0.7938569715 -0.0013630611
20299880.0 -0.7998063236 0.0019201679 -8.85997e-05 -4.39739e-05 8.5022e-06 -0.0003017744 -0.800186851 0.0022246788
25299850.0 -0.8059395801 0.0079332419 8.86576e-05 -4.00946e-05 -9.2808e-06 -6.977e-05 -0.8060429601 0.0082999521
30299820.0 -0.8120985362 0.0152563679 -7.0446e-06 0.0001227375 0.0001598349 -3.20917e-05 -0.8123854897 0.0163382917
35299790.0 -0.8169368771 0.024480221 0.000148667 -0.0001266795 -9.44252e-05 2.58017e-05 -0.8173324289 0.0248955014
40299760.0 -0.8212486339 0.0336713456 4.807e-05 8.70047e-05 -0.0002521536 -0.0001716058 -0.8209171327 0.0343408723
45299730.0 -0.8243359405 0.042780225 -8.29391e-05 -1.4782e-06 -5.11603e-05 -9.1004e-06 -0.8251562008 0.0434132512
50299700.0 -0.8270469296 0.0530517626 0.0001589649 0.0001302553 -0.0001037844 3.02281e-05 -0.82747957 0.053822348
55299670.0 -0.8290623107 0.0628120422 -0.0001223172 -0.0002001073 -9.05848e-05 -0.0001414095 -0.8296252813 0.0641944417
60299640.0 -0.8301410557 0.0734176995 -5.75097e-05 8.03815e-05 -0.0001648304 -1.57814e-05 -0.830351231 0.0741418273
65299610.0 -0.8314141212 0.0831583221 -5.74338e-05 -9.00235e-05 0.0001286145 -8.3301e-06 -0.8318200739 0.0842064814
70299580.0 -0.8314584335 0.0930424526 9.80138e-05 0.0001402231 2.29263e-05 -6.89127e-05 -0.831330562 0.0945160705
75299550.0 -0.8314177853 0.1034175036 0.0002101438 1.64715e-05 -0.0001957334 -0.0002340843 -0.8323173289 0.1039610395
80299520.0 -0.8318744648 0.1134867225 -5.9399e-05 1.00828e-05 0.0001001391 -6.09572e-05 -0.8319539593 0.1138770476
85299490.0 -0.8311529238 0.1225701247 5.20005e-05 7.3459e-06 5.36914e-05 8.16908e-05 -0.8315241088 0.123618988
90299460.0 -0.8300792263 0.1319278135 0.000215401 0.0001381382 2.47307e-05 -6.48646e-05 -0.8307994241 0.1329058964
95299430.0 -0.8290056636 0.1414930902 6.62047e-05 0.0002301957 -3.9459e-06 0.0001230294 -0.828999406 0.1426036037
100299400.0 -0.8277474842 0.1507799965 7.35663e-05 0.0001609344 -5.34821e-05 -0.0001466351 -0.8287452713 0.151939766
105299370.0 -0.8269066266 0.1601224648 0.0002461461 0.0001516051 7.46802e-05 6.11425e-05 -0.8265624561 0.1608870908
110299340.0 -0.8257051965 0.1688726228 -8.79703e-05 -1.71863e-05 -0.0001626718 0.000206028 -0.8256249688 0.1708210296
115299310.0 -0.8244013032 0.1784911493 -8.08231e-05 -1.26056e-05 2.7411e-06 -5.03832e-05 -0.8241890613 0.1800395193
120299280.0 -0.8217737977 0.1867825454 3.54246e-05 0.0001100917 -0.0001099095 4.937e-07 -0.8227464346 0.1889847818
125299250.0 -0.8205092544 0.1959102387 5.60223e-05 -7.25794e-05 -0.0001000515 2.23542e-05 -0.8213846583 0.1981574112
130299220.0 -0.81849725 0.2052278707 -8.43559e-05 -4.89588e-05 -3.74189e-05 0.0001733629 -0.818997182 0.2067776341
135299190.0 -0.8169096581 0.2135983407 -0.0002500642 -0.0001402986 0.0001226688 -7.1848e-05 -0.8169579784 0.2159791689
140299160.0 -0.8144613523 0.2232025589 -0.0002263996 -3.33667e-05 3.13137e-05 9.5443e-06 -0.8149206595 0.2246793809
145299130.0 -0.8125524704 0.2320705054 0.0001973224 0.0001074907 -2.36389e-05 -0.0002811007 -0.8125857721 0.2338612262
150299100.0 -0.8104647019 0.2403227138 6.31553e-05 -4.25982e-05 9.8411e-06 -7.97208e-05 -0.8109953191 0.2429457111
155299070.0 -0.8077708299 0.2491449868 5.91978e-05 -2.45919e-05 -9.78864e-05 0.0001020685 -0.807689417 0.251782269
160299040.0 -0.8051910986 0.257578098 3.60211e-05 0.0001075171 -3.1453e-05 -0.0001069183 -0.805272577 0.260713795
165299010.0 -0.8029296271 0.2665641329 -8.11557e-05 -3.41681e-05 1.15331e-05 -0.000287338 -0.80284833 0.2693848242
170298980.0 -0.8000349425 0.2750695783 -0.0001099785 -1.5284e-06 -0.0001185716 8.75945e-05 -0.7996578826 0.2783011623
175298950.0 -0.7970027762 0.2835871802 -5.19513e-05 0.0001574119 -7.93883e-05 -0.000149009 -0.7972549549 0.2868253483
180298920.0 -0.7944374717 0.2926362759 7.79232e-05 9.8963e-06 8.2175e-05 7.8009e-05 -0.7941601479 0.2953448006
185298890.0 -0.7909010567 0.3004645515 -0.0002344877 0.0002118422 -1.49038e-05 1.4498e-05 -0.7906996505 0.3039867776
190298860.0 -0.7889702859 0.3094811212 0.0001400712 -0.0001853501 8.7904e-06 -5.91844e-05 -0.788518374 0.3120260453
195298830.0 -0.7854280905 0.3173449995 -0.0001313991 0.0001001905 7.21712e-05 1.02253e-05 -0.7848193774 0.3209147196
200298800.0 -0.7814204506 0.326120798 -3.75186e-05 -2.62415e-05 1.20934e-05 -0.0001013174 -0.7820183456 0.3285821797
205298770.0 -0.7785518971 0.333577873 5.34076e-05 -3.16991e-05 0.0001340782 -7.04695e-05 -0.7779297371 0.337505125
210298740.0 -0.7751120842 0.3421094292 -0.0001158938 4.84532e-05 -7.6862e-06 9.35398e-05 -0.7747703809 0.3454261263
215298710.0 -0.7719878156 0.3498602909 5.94926e-05 0.0003509329 -3.92025e-05 -8.4716e-05 -0.7710897858 0.3533662601
220298680.0 -0.7674006385 0.3582204922 7.74561e-05 -3.68523e-05 -0.0001268654 0.0001991219 -0.7675514455 0.3617515454
225298650.0 -0.7645635656 0.3663844117 2.74936e-05 0.0001006114 -4.23283e-05 -4.39618e-05 -0.7637803367 0.3700673365
230298620.0 -0.7602194059 0.3743391739 -0.0002013184 -0.0001170506 0.0001357401 4.63726e-05 -0.7599478898 0.3781749097
235298590.0 -0.7560546775 0.3831552381 -0.0001706039 -0.0001008547 7.0503e-06 0.0001039598 -0.7556935578 0.3867582377
240298560.0 -0.7523480562 0.3908451735 8.51068e-05 2.90984e-05 0.0002124043 6.1834e-05 -0.7512716341 0.3951429515
245298530.0 -0.7485841757 0.3986901028 -0.0002385084 -0.0001699245 -3.4462e-06 -0.0001650147 -0.7478955464 0.4016954934
250298500.0 -0.7438868262 0.4062142627 6.3518e-06 -1.686e-05 -6.94021e-05 -6.01961e-05 -0.7436627532 0.4098679059
255298470.0 -0.7395210754 0.4134317447 0.000129696 -2.74807e-05 8.19638e-05 -3.48542e-05 -0.7388048433 0.4177161695
260298440.0 -0.7354185138 0.4210155831 0.0001804818 0.0001529981 -0.0001729436 2.27739e-05 -0.7347773656 0.4262595978
265298410.0 -0.7311880215 0.4295565558 9.35189e-05 4.90965e-05 -2.23854e-05 -8.49822e-05 -0.7301241102 0.4334105664
270298380.0 -0.7269498529 0.4370127099 9.32114e-05 -0.0002129952 -2.98691e-05 -3.11626e-05 -0.7259614843 0.4411075315
275298350.0 -0.7221445004 0.4444186914 -0.0001542195 -8.22601e-05 -5.21824e-05 -5.99503e-05 -0.7205755817 0.4484495214
280298320.0 -0.7171537738 0.4521235785 -1.33784e-05 -2.2777e-06 5.7087e-06 5.19424e-05 -0.7157295786 0.4558588456
285298290.0 -0.71299107 0.460141263 0.0002680982 -9.77619e-05 0.0001494903 -2.28939e-05 -0.7108326325 0.4638076607
290298260.0 -0.7075762312 0.4676048741 -0.0001277481 0.0001063977 -6.96487e-05 -0.0001217587 -0.7064291058 0.4705387321
295298230.0 -0.7021843303 0.4743951865 -0.0001508833 -5.24205e-05 -0.0001433218 0.0001022518 -0.7014017908 0.4777574141
300298200.0 -0.6979125169 0.4813029966 4.20356e-05 -2.30071e-05 -5.518e-06 4.22522e-05 -0.696331849 0.4850963328
305298170.0 -0.6928078564 0.4881452197 -9.47314e-05 -0.0001558839 -5.70894e-05 8.77688e-05 -0.6904908436 0.4929404679
310298140.0 -0.687188219 0.4958793637 0.0001538425 -0.0001966796 -8.2988e-06 -7.86765e-05 -0.6860362507 0.4998855393
315298110.0 -0.6831858712 0.5032206875 -3.50501e-05 -0.0001698202 4.96468e-05 0.0001019198 -0.6806342305 0.506836803
320298080.0 -0.6772163028 0.5099750657 0.0001216068 -0.0002175017 7.50956e-05 -0.0001809702 -0.6754656503 0.5147406241
325298050.0 -0.6721261072 0.5170170502 0.0002324705 -0.0001157235 2.59846e-05 8.9811e-06 -0.6698271031 0.5213591733
330298020.0 -0.6662379527 0.5237950294 4.74409e-05 -5.64746e-05 -0.0002062585 3.35331e-05 -0.6643538338 0.5285415967
335297990.0 -0.6608291828 0.5305123013 -0.000124829 4.9935e-05 1.54579e-05 -3.05293e-05 -0.6589801297 0.5355729436
340297960.0 -0.655698493 0.5374079034 0.0001931933 0.0001441786 -0.0002206358 3.42359e-05 -0.6528232523 0.5424368093
345297930.0 -0.6504337086 0.5439822444 -0.0001922857 7.91078e-05 -0.0003867791 0.0001432961 -0.6474295891 0.548684191
350297900.0 -0.6446682134 0.5506321975 -9.0898e-05 -0.0001090904 -0.0001704172 2.6678e-06 -0.6417338959 0.5554064775
355297870.0 -0.638134289 0.5569822591 -3.16099e-05 -5.37228e-05 0.0001080748 0.0001565917 -0.6363590265 0.5618223274
360297840.0 -0.6330153585 0.5630062732 -3.45035e-05 -0.000236887 9.82452e-05 6.5614e-05 -0.6300678057 0.5688597873
365297810.0 -0.6274549171 0.5703656794 3.00256e-05 -0.0001842633 1.60514e-05 -0.0003743598 -0.6235774734 0.5750863689
370297780.0 -0.620874739 0.5769019316 3.8975e-06 -4.54999e-05 1.859e-06 0.0001325365 -0.617706535 0.581326494
375297750.0 -0.6146822152 0.583138972 -3.88185e-05 -5.96281e-05 0.000129795 7.07096e-05 -0.6122432682 0.5874343112
380297720.0 -0.6084575422 0.5882798318 0.0001021324 -3.20493e-05 -0.0002390547 0.0001918581 -0.6062181936 0.5935465506
385297690.0 -0.6035878324 0.5954467134 0.0001131303 6.97042e-05 -5.76804e-05 3.61495e-05 -0.599194807 0.6005067767
390297660.0 -0.5967745746 0.6013669948 3.82078e-05 6.8748e-05 4.86899e-05 -2.71543e-05 -0.5934600448 0.6066287445
395297630.0 -0.5902780766 0.6077772503 9.32203e-05 7.3749e-05 -0.0001119932 -5.29321e-05 -0.5866562665 0.6132315246
400297600.0 -0.5844299591 0.6135289583 -0.0001928156 -0.000206038 2.83197e-05 -0.0001097555 -0.5813400313 0.619072701
405297570.0 -0.5784543119 0.6191088238 0.0001520573 -0.0001888949 9.53719e-05 -0.0001675479 -0.5741552324 0.6248029841
410297540.0 -0.5710455155 0.6248875349 2.31045e-05 -0.0001868317 9.52e-06 1.03831e-05 -0.5675653116 0.6304044508
415297510.0 -0.5642302391 0.6306896545 -0.0001506124 -0.0002738495 1.07677e-05 -8.68827e-05 -0.5613394423 0.6361473553
420297480.0 -0.5592355385 0.6368067481 -9.04623e-05 -6.72489e-05 0.0001589347 8.74008e-05 -0.5546005786 0.6423415679
425297450.0 -0.5515442991 0.6421525865 -3.54201e-05 5.04872e-05 -0.0001067503 5.54993e-05 -0.5477982172 0.6477608357
430297420.0 -0.5458554043 0.6480309068 3.34529e-05 -0.0001502854 0.0001110869 6.19477e-05 -0.5416408026 0.6525045816
435297390.0 -0.5386030141 0.652481012 -7.54205e-05 0.0002027554 -0.0001095752 -0.0001433564 -0.5342160335 0.6584218019
440297360.0 -0.5318615787 0.6587988975 4.4608e-05 -2.0782e-05 -8.43421e-05 9.1243e-05 -0.527593354 0.6634532886
445297330.0 -0.5250436668 0.6642085619 2.12957e-05 -9.14587e-05 -5.39848e-05 -0.0001901009 -0.5207320045 0.6687846164
450297300.0 -0.518148383 0.6692342848 -7.99808e-05 6.25207e-05 -7.66088e-05 3.7704e-06 -0.5137663519 0.6738194526
455297270.0 -0.5114345121 0.6739029625 -3.77102e-05 -0.000146626 0.0001565596 -4.06393e-05 -0.5066831054 0.6789313828
460297240.0 -0.5049622195 0.6792138894 -3.97427e-05 -1.77358e-05 3.13779e-05 9.84511e-05 -0.4999167902 0.6847602144
465297210.0 -0.4980270858 0.6846261917 -0.0002592057 0.0001831883 2.418e-07 -0.0001362126 -0.4924130627 0.6892899795
470297180.0 -0.4908310314 0.68941823 6.47165e-05 6.59488e-05 0.0002330604 -4.02564e-05 -0.4851050453 0.6949355935
475297150.0 -0.483672355 0.6941084844 0.0001144511 -0.0001577834 6.38512e-05 9.20826e-05 -0.4779202957 0.6986258976
480297120.0 -0.4765650825 0.6988576867 6.34866e-05 7.16363e-05 -0.0001700723 0.0001170222 -0.4706092513 0.703960583
485297090.0 -0.4692669492 0.703886698 -8.49169e-05 5.42303e-05 0.0002393283 0.0001039593 -0.4639896239 0.7085586777
490297060.0 -0.4630050415 0.7083521038 -0.0001659199 -1.1978e-05 6.06196e-05 -3.05925e-05 -0.4564411806 0.7130928083
495297030.0 -0.4552115306 0.7130392246 -3.76992e-05 0.0001227459 -5.50753e-05 0.0001991942 -0.4491589871 0.7180594139
500297000.0 -0.447403288 0.7174823045 -0.0001518555 -2.5116e-05 9.997e-06 -4.40482e-05 -0.4413303912 0.7228477022
505296970.0 -0.4403807065 0.7226169944 1.648e-06 0.0001973234 -0.0002419722 0.0001681969 -0.4346059844 0.7265618745
510296940.0 -0.4331711577 0.7265537737 0.0001102373 -0.0002689946 5.44317e-05 8.44157e-05 -0.4267818195 0.7310282171
515296910.0 -0.4248335962 0.7304048349 0.0003051673 -2.48166e-05 3.05334e-05 3.817e-07 -0.4191533424 0.7355451635
520296880.0 -0.4182572717 0.7348967713 -0.0001702444 8.0648e-05 -6.61036e-05 -0.0002082018 -0.4114745354 0.739485853
525296850.0 -0.4108580705 0.7384375986 1.08667e-05 -0.0002804618 7.1657e-06 3.4974e-06 -0.4047266874 0.7437350059
530296820.0 -0.4031340264 0.7431027186 -2.6744e-06 -0.0001587413 -0.000115861 2.79327e-05 -0.3966886461 0.7472568099
535296790.0 -0.3955165581 0.7465723905 -0.0001476522 -6.62975e-05 -0.0001539875 1.25201e-05 -0.3895137793 0.7515039508
540296760.0 -0.3883762688 0.7508312936 4.64079e-05 -3.5844e-05 -3.04945e-05 -1.95023e-05 -0.3815059753 0.75530234
545296730.0 -0.380278027 0.7552626369 3.09836e-05 -2.17026e-05 -4.65761e-05 0.000107018 -0.3739465991 0.7591681269
550296700.0 -0.3732530311 0.7585235498 -0.0002069687 6.7195e-06 -6.10199e-05 0.0001815467 -0.3660394249 0.7631851865
555296670.0 -0.3650170745 0.7612896588 9.41499e-05 0.0001246921 0.0001156344 0.0001891917 -0.3583797923 0.7671355891
560296640.0 -0.3576748519 0.7662728549 0.0001411673 -0.0002853574 -0.0001694052 5.93904e-05 -0.3505174806 0.7703477693
565296610.0 -0.34943547 0.7694786187 -4.2286e-05 -0.0001014077 0.0002708651 -0.0001396448 -0.3424098979 0.7738281521
570296580.0 -0.3421674634 0.7718659915 1.21291e-05 -1.86889e-05 -0.0001848866 0.0001214337 -0.3351364324 0.7772334688
575296550.0 -0.3345836925 0.7763863169 -9.57605e-05 -8.63159e-05 -0.0002012549 0.000158225 -0.3268777459 0.7804794388
580296520.0 -0.3258317101 0.7792408414 1.84457e-05 -0.0002456897 9.97804e-05 3.27829e-05 -0.318388568 0.7835785647
585296490.0 -0.3189372916 0.7821288506 -4.11498e-05 -1.74556e-05 -0.0001256805 -0.0001665147 -0.3108595598 0.7871543838
590296460.0 -0.310362339 0.7853898696 6.33021e-05 0.0003234088 -5.07813e-05 -5.89956e-05 -0.3030662867 0.7899523092
595296430.0 -0.3032846876 0.7882802919 2.21673e-05 -0.0001430213 -7.16338e-05 -0.0001426128 -0.2949891421 0.7923596556
600296400.0 -0.2950766679 0.7915851811 0.0001102834 9.78328e-05 2.85334e-05 -1.88852e-05 -0.2869022303 0.7952132978
605296370.0 -0.2879194622 0.7944679973 -5.98873e-05 -2.99002e-05 -0.0001477807 -6.2093e-05 -0.2783917945 0.7983156428
610296340.0 -0.2791555859 0.7970184649 -0.000143343 0.0001932028 4.73588e-05 0.000126179 -0.2707316732 0.8011446021
615296310.0 -0.2707399163 0.79983397 -5.99007e-05 5.2856e-05 8.76894e-05 7.92249e-05 -0.2621361524 0.8031701166
620296280.0 -0.262774777 0.801902811 9.1607e-05 -4.30803e-05 3.95368e-05 -9.79367e-05 -0.2545447761 0.8063496266
625296250.0 -0.2555817982 0.8051060413 -5.63607e-05 -3.5961e-06 -1.36457e-05 -0.0001890752 -0.2455044734 0.8080275036
630296220.0 -0.2463432345 0.8077317332 -5.18002e-05 -2.15481e-05 0.0001549481 4.51334e-05 -0.2375477495 0.8113889185
635296190.0 -0.2386612448 0.8103985729 -3.25155e-05 3.23592e-05 -8.48428e-05 -8.87068e-05 -0.2300445737 0.8132076545
640296160.0 -0.2312509485 0.811988854 -0.0001293393 -6.56995e-05 -2.36158e-05 6.34094e-05 -0.2217825285 0.815844099
645296130.0 -0.2225251422 0.814533693 9.21e-08 -0.000245673 -1.30898e-05 -5.56839e-05 -0.2134133605 0.8178612396
650296100.0 -0.2144629704 0.8160761017 -0.0001246679 -2.40913e-05 -4.65661e-05 -0.0001986003 -0.2053065597 0.819553404
655296070.0 -0.2067382336 0.8191171401 9.23089e-05 1.11351e-05 0.0002730087 -2.0938e-05 -0.1965611699 0.821233212
660296040.0 -0.1980902358 0.8202656212 -8.16456e-05 -3.77225e-05 9.25068e-05 4.76377e-05 -0.1877569831 0.8234957326
665296010.0 -0.1899359757 0.8223264821 2.93209e-05 -0.0002657237 3.3699e-06 0.0001861713 -0.1791617982 0.8259100158
670295980.0 -0.1824350349 0.8244792096 0.0001226094 -3.47256e-05 -0.0001895556 -0.0003347832 -0.1724496459 0.8269291811
675295950.0 -0.1738499679 0.8255298742 6.2103e-06 0.0002517842 2.66944e-05 0.0002196118 -0.1644349671 0.8289492423
680295920.0 -0.165166698 0.8277907366 -0.0002315841 -4.76636e-05 -1.31325e-05 0.0001775453 -0.1554948041 0.8312928624
685295890.0 -0.1567143779 0.8303243995 -7.31503e-05 0.0003323487 7.02209e-05 -7.64537e-05 -0.1468251434 0.8318990814
690295860.0 -0.149121198 0.8307884365 -0.0001029828 0.0002361982 -0.0001845893 4.84909e-05 -0.1385906061 0.8336364261
695295830.0 -0.1409348961 0.8320844934 8.47801e-05 0.0001623614 -0.0001247287 -0.0001679859 -0.1299265509 0.8353568513
700295800.0 -0.1319530806 0.8339405938 -5.39265e-05 -0.0002276112 -0.000234646 -7.64658e-05 -0.1225130093 0.8361674884
705295770.0 -0.1240011316 0.8349382842 3.8793e-05 3.03887e-05 0.0002985267 4.70581e-05 -0.1139484427 0.8380212655
710295740.0 -0.1164369948 0.8366425059 0.0001363672 0.0002660572 1.22494e-05 0.0001529056 -0.1052242803 0.8390864286
715295710.0 -0.1072602809 0.8369490321 6.77037e-05 -1.67547e-05 -0.0001298326 9.53899e-05 -0.0966177626 0.8394154824
720295680.0 -0.0995821204 0.8381870996 -2.91874e-05 -4.62128e-05 3.73169e-05 -6.3432e-05 -0.0881996694 0.8409631345
725295650.0 -0.0904208029 0.8390215706 -0.0001209467 -6.49914e-05 -1.52476e-05 5.87947e-05 -0.0804499715 0.8415760326
730295620.0 -0.082539109 0.8405645527 0.0001240383 0.0001999906 -2.90751e-05 -7.62195e-05 -0.0730001773 0.8421428213
735295590.0 -0.0747907799 0.8409668779 -3.51105e-05 -3.51091e-05 -9.5598e-05 -2.28441e-05 -0.0634886784 0.8424945211
740295560.0 -0.0660819496 0.8418351212 7.22985e-05 5.73472e-05 -6.06288e-05 3.51615e-05 -0.0547859277 0.8435708118
745295530.0 -0.0574846912 0.8427665661 4.84523e-05 5.02444e-05 -5.16675e-05 -0.0001050302 -0.0463050294 0.8439246872
750295500.0 -0.0491143606 0.8426858274 0.0002122313 0.0002042049 -9.32467e-05 -0.0001493863 -0.0383262595 0.8440287326
755295470.0 -0.0411795056 0.8430733573 0.0001965645 -0.0002885319 6.90151e-05 -4.12882e-05 -0.02913996 0.8438007826
760295440.0 -0.0329676636 0.8427945664 -0.0001240451 -8.00347e-05 -0.0001601252 0.0001266251 -0.0210582906 0.8443520217
765295410.0 -0.0244939367 0.8435266512 0.0001501114 -0.0002028627 5.71458e-05 -0.0002857277 -0.0129278484 0.8447232739
770295380.0 -0.0161367061 0.8439879193 -1.78868e-05 3.46048e-05 7.6085e-05 0.0001701428 -0.0043620644 0.844636402
775295350.0 -0.0078181126 0.8437353721 8.7014e-05 1.78756e-05 2.66313e-05 4.96786e-05 0.0033747483 0.8441808055
780295320.0 0.0006389754 0.8438980428 1.79455e-05 0.0002142889 5.28455e-05 7.08982e-05 0.012135869 0.8443470852
785295290.0 0.0088750135 0.8433254676 -0.0001183904 -2.45587e-05 -9.56505e-05 8.57369e-05 0.0208966403 0.8442960704
790295260.0 0.0177386798 0.8435815288 0.000114152 5.52117e-05 -4.25029e-05 -0.0002700563 0.029946077 0.8444413203
795295230.0 0.0255653733 0.8435528213 0.0001259863 -9.8208e-06 -0.0001060643 -0.0001688164 0.0384996845 0.8435448391
800295200.0 0.0341835292 0.8430217666 -0.0001561405 -7.29228e-05 -0.0002397485 4.24477e-05 0.0465561056 0.8433416359
805295170.0 0.0430149421 0.8421173171 -1.21398e-05 4.6991e-06 3.80685e-05 0.0002489645 0.0549142015 0.8424667403
810295140.0 0.0507619052 0.8424703163 0.0001268045 -0.0001030563 -0.000153384 0.0001180383 0.0633122544 0.8420632113
815295110.0 0.0588309951 0.8415829294 8.26281e-05 -0.0001039277 -5.58849e-05 -5.15008e-05 0.0716732804 0.8416170214
820295080.0 0.0675218894 0.8410478106 6.47029e-05 -7.35621e-05 -3.7495e-05 -0.0002441887 0.0803957813 0.8411307977
825295050.0 0.0766702586 0.8398699761 -1.01863e-05 -7.1679e-06 5.3221e-05 -0.0001580801 0.0880921766 0.8401777636
830295020.0 0.0841039372 0.8398203604 -0.000372798 -9.8616e-06 -0.0001055466 -0.0001182177 0.0975749062 0.8391861613
835294990.0 0.09231499 0.8388548749 9.383e-07 4.37217e-05 -8.34515e-05 0.0002013012 0.104933363 0.8380469407
840294960.0 0.0998851547 0.8383440476 0.0002037475 0.0001244803 -6.53293e-05 -0.0002631809 0.1132670666 0.8368545774
845294930.0 0.1084294836 0.836876979 5.72753e-05 -0.0002033792 3.21907e-05 -3.8032e-06 0.1213081313 0.8358435582
850294900.0 0.1162895634 0.8359297082 -0.0002547478 0.0002370937 -0.0001524819 0.0001851195 0.1293206966 0.8342111197
