!Created with skrf (http://scikit-rf.org).
# Hz S RI R 50.0 
!freq ReS11 ImS11 ReS21 ImS21 ReS12 ImS12 ReS22 ImS22
300000.0 -0.776907011 -0.0863726765 -0.0011841437 -0.000821312 -0.0004277901 -9.60171e-05 -0.0465200559 -0.0570363877
5299970.0 -0.7848727326 -0.0054405638 6.3187e-06 -8.64257e-05 -0.0001341376 1.96691e-05 -0.0459019385 0.0157473454
10299940.0 -0.7878644105 -0.0036193375 2.05548e-05 0.0001593265 5.8025e-05 5.7294e-06 -0.0400912078 0.0336551943
15299910.0 -0.7931368986 -0.002038368 -3.30438e-05 -0.0001729726 -9.68711e-05 -0.0001664742 -0.0319367628 0.0485211015
20299880.0 -0.8000810416 0.0022919139 -0.0001917321 -0.0001997592 0.000240021 8.9214e-06 -0.0214371249 0.0601584792
25299850.0 -0.806191327 0.0078880142 -0.0001556184 -0.0001113723 5.9618e-06 8.93857e-05 -0.0102277685 0.0692450896
30299820.0 -0.812544623 0.0155512665 -0.0002098652 -4.01917e-05 0.0001274508 1.054e-05 0.0017598397 0.076387841
35299790.0 -0.8170600559 0.024721604 -0.0001866401 -2.23079e-05 0.0001067906 0.0001072579 0.0129994096 0.081210499
40299760.0 -0.8212209063 0.0335985733 5.42e-07 9.15816e-05 -9.1739e-06 0.0001590171 0.0244356446 0.0836279979
45299730.0 -0.8248630357 0.0428087238 -0.0001833086 0.0003558484 6.12403e-05 0.0001093812 0.0352322972 0.0857417614
50299700.0 -0.8266854092 0.0528578536 4.32061e-05 0.0001524663 0.0001347621 0.000119221 0.0452291075 0.0850892437
55299670.0 -0.8291936195 0.0630876159 1.33413e-05 0.0001569989 6.09529e-05 0.0001642102 0.0545319718 0.0843791738
60299640.0 -0.8300044425 0.0730149553 4.29483e-05 9.2674e-06 3.30709e-05 1.99493e-05 0.0630899259 0.0823395235
65299610.0 -0.8312619383 0.0832391108 -8.03131e-05 -6.38161e-05 0.0002149965 -2.86642e-05 0.0708196018 0.0799922756
70299580.0 -0.8315168037 0.0932634356 5.13329e-05 3.84664e-05 7.07832e-05 -2.52301e-05 0.0777203893 0.0768630196
75299550.0 -0.8317493882 0.1036935575 1.21473e-05 -0.0001231134 0.0001264174 1.9655e-05 0.0842773822 0.0735754013
80299520.0 -0.8318608051 0.1129444258 9.8448e-05 6.4185e-05 2.16395e-05 -6.09721e-05 0.0896854393 0.0707382277
85299490.0 -0.8304569458 0.1225187193 0.0001410953 8.97453e-05 1.99497e-05 3.30394e-05 0.0947261373 0.0667806033
90299460.0 -0.8299369232 0.131405766 9.50179e-05 9.52332e-05 7.42058e-05 -0.0001527265 0.0995421325 0.0628927692
95299430.0 -0.8291297744 0.1415335696 -4.88657e-05 -2.52059e-05 7.07928e-05 3.97061e-05 0.1035144733 0.059264232
100299400.0 -0.8277355492 0.1510864909 5.08634e-05 6.06232e-05 2.48367e-05 8.12248e-05 0.1073888158 0.0549656637
105299370.0 -0.8269675376 0.160070084 4.00285e-05 1.40206e-05 0.0001920968 -3.69696e-05 0.1109099727 0.051295762
110299340.0 -0.8253297566 0.1694936066 2.791e-06 0.0001919851 0.0001639118 0.0001511305 0.1135055866 0.0474103411
115299310.0 -0.8240037585 0.1785278419 -0.0001092072 -0.0001532705 -4.60336e-05 0.0001922438 0.1161153818 0.0436193113
120299280.0 -0.8220261602 0.1866226004 4.587e-05 7.14413e-05 1.02371e-05 -0.0001206057 0.1184052061 0.039982545
125299250.0 -0.8202152513 0.195671979 7.57339e-05 -5.6625e-06 6.10635e-05 0.0001089863 0.1203174451 0.0360096425
130299220.0 -0.8186299489 0.2053000647 0.0001705955 6.53106e-05 -9.7959e-06 5.30735e-05 0.1219127003 0.0320484668
135299190.0 -0.8166839418 0.2142958523 6.83633e-05 3.55646e-05 0.0002123153 0.0001650918 0.123747284 0.0289630024
140299160.0 -0.8143320058 0.2232215962 0.0001747853 -0.0001009297 9.31604e-05 0.0001319975 0.1246804286 0.0254273037
145299130.0 -0.8125232501 0.231811163 1.66548e-05 -0.0001637868 2.0888e-05 0.0002651657 0.125430804 0.021970823
150299100.0 -0.809975125 0.2408762233 3.36723e-05 3.61227e-05 -1.10849e-05 0.0002701861 0.1266716512 0.0188493695
155299070.0 -0.8078561177 0.2493477299 3.02094e-05 9.44893e-05 0.0001513312 0.0001785275 0.1277122026 0.0156417433
160299040.0 -0.8052331129 0.2580151314 4.6019e-05 -0.0001120343 -6.99063e-05 0.0001994714 0.1283025354 0.0126207846
165299010.0 -0.8027793265 0.2664858257 1.26012e-05 3.61032e-05 5.2698e-06 2.35205e-05 0.1287528391 0.0094371673
170298980.0 -0.7999602685 0.2750638159 0.0001394593 8.1991e-06 0.0002122039 -6.31576e-05 0.1290358861 0.0060612518
175298950.0 -0.7972070795 0.2840946771 -0.0001066626 4.52096e-05 -6.16843e-05 -3.72459e-05 0.1294289523 0.0034523408
180298920.0 -0.7946260511 0.2927282013 9.08716e-05 0.0002179403 0.000224816 7.99708e-05 0.1295083332 0.0006350994
185298890.0 -0.7912092128 0.3004847947 0.0002517532 2.3731e-05 -2.46056e-05 0.0002765076 0.1299229049 -0.0023178227
190298860.0 -0.7884386122 0.309436054 0.0002312884 0.0001980224 3.9636e-06 5.20688e-05 0.1300933452 -0.0049292156
195298830.0 -0.7853075688 0.3177428922 -0.0001124985 0.0002019714 -0.0002439689 6.26934e-05 0.1300916806 -0.0078853078
200298800.0 -0.7812966419 0.3257515252 -2.349e-07 0.0001407835 0.000198016 0.0001080815 0.1297421309 -0.0105085635
205298770.0 -0.7783355452 0.3341352578 -1.84817e-05 0.0002162569 -3.4353e-05 9.70233e-05 0.129625889 -0.0133416822
210298740.0 -0.7746946649 0.3423445796 4.4092e-06 -0.0001175504 6.3686e-05 0.0001242784 0.129531835 -0.01536558
215298710.0 -0.7721160077 0.3503792479 3.78677e-05 0.0001446909 1.37104e-05 -7.94752e-05 0.1291388149 -0.0183874286
220298680.0 -0.767346758 0.3583767612 0.0001379282 6.08301e-05 6.25763e-05 0.000129405 0.1284836884 -0.0206075382
225298650.0 -0.7642678598 0.3663087056 9.08126e-05 0.0001424418 0.0002439169 1.07783e-05 0.1281240298 -0.0228385032
230298620.0 -0.7599843591 0.3744899348 0.000213865 0.0001352916 -4.79767e-05 0.0001365242 0.1276796537 -0.0254923882
235298590.0 -0.7567833324 0.3827467722 -0.0001414052 2.87582e-05 8.56811e-05 8.82384e-05 0.1273981676 -0.0273160788
240298560.0 -0.7525402225 0.3907311769 0.0002247878 -8.60871e-05 -0.0001684279 0.0001732366 0.126983254 -0.0296256835
245298530.0 -0.7484777565 0.3987666991 0.0001288314 -0.0001156601 -7.24721e-05 0.0001969154 0.1262281288 -0.0321706906
250298500.0 -0.7442520441 0.4061656717 0.0001647284 -2.17061e-05 0.0001410554 0.0002575739 0.1255754413 -0.0339436465
255298470.0 -0.7398749653 0.4138643663 -7.84067e-05 0.0001602127 -3.64131e-05 1.35622e-05 0.1248052374 -0.0366246823
260298440.0 -0.7357584223 0.4212086692 0.0001442446 3.27318e-05 0.0002185693 6.38187e-05 0.1247820503 -0.0381321948
265298410.0 -0.7311263145 0.4294035104 9.98835e-05 5.4311e-05 7.63903e-05 -5.54922e-05 0.1238541508 -0.0400518839
270298380.0 -0.7270856988 0.4369348824 0.0001886818 -0.0001057412 0.0001641743 6.08814e-05 0.1233072091 -0.0419858126
275298350.0 -0.7222259525 0.4443831625 0.0002198067 -0.0001719112 0.0001312359 0.0002130595 0.1225106746 -0.0438798134
280298320.0 -0.7175901024 0.4521930955 0.0001848461 -2.05087e-05 0.000265508 -0.0001055707 0.1219799097 -0.0459581465
285298290.0 -0.7126574084 0.4598031571 7.7728e-05 0.0001507215 3.15005e-05 -9.3699e-06 0.1209285563 -0.0479537824
290298260.0 -0.7080748424 0.4673899191 -2.7671e-05 -9.04836e-05 0.0002130946 0.0001682424 0.1205447068 -0.049587099
295298230.0 -0.7024876517 0.4735340677 0.0001353426 -3.01206e-05 0.0002219782 0.0002017396 0.1198199959 -0.0516141192
300298200.0 -0.6984074148 0.4812454019 6.91259e-05 8.8272e-05 9.79489e-05 0.000157894 0.1185601319 -0.0533248341
305298170.0 -0.6924708526 0.4879818957 2.94627e-05 0.0001582448 0.0001970417 7.85563e-05 0.1181485475 -0.0555831332
310298140.0 -0.6875603737 0.4955317754 8.09555e-05 0.0003328425 0.0003804522 3.2962e-06 0.1169675443 -0.0573264869
315298110.0 -0.6826767161 0.5032581772 0.0003091059 0.0001393895 0.0001962827 0.0001654262 0.1157731532 -0.0590744988
320298080.0 -0.6774460096 0.5097415061 0.0001524618 0.0001466138 0.0001574923 0.0002342846 0.1146106215 -0.0606883058
325298050.0 -0.6717268504 0.5173319839 0.000212764 -0.0001988566 0.0003131598 -2.23585e-05 0.1136093553 -0.0627547963
330298020.0 -0.6665020262 0.5238341859 -1.26026e-05 9.99999e-05 9.99958e-05 0.0002248257 0.1120466011 -0.064026275
335297990.0 -0.6608115318 0.5302929152 9.3302e-05 -6.0405e-05 0.0002921233 0.0002569445 0.1109124253 -0.0652187708
340297960.0 -0.655881111 0.5369946861 0.0001009308 -0.0001783835 -4.35592e-05 0.0001094178 0.1102094488 -0.0668978188
345297930.0 -0.6504701012 0.544225675 0.0001925982 0.0001140571 0.0001221417 4.4059e-05 0.1084859873 -0.0681932648
350297900.0 -0.6447304333 0.5513948032 0.0001237321 1.15235e-05 0.0002114195 0.0001223966 0.1073151689 -0.0695221091
355297870.0 -0.6384214679 0.5573271572 0.0003035251 0.0001066083 0.0001319336 0.0001688958 0.105961379 -0.0708101163
360297840.0 -0.6326370988 0.5632327434 0.0001094667 0.0002535279 0.0001822892 6.57958e-05 0.1050989286 -0.0723784622
365297810.0 -0.6269045262 0.5703823707 0.000299466 6.27821e-05 0.0002335656 0.0001826602 0.1041851295 -0.0738892924
370297780.0 -0.6209236198 0.576332428 1.008e-06 7.00806e-05 0.0003218493 0.0002039815 0.1032445082 -0.0747924259
375297750.0 -0.614903089 0.5827524547 0.000269825 3.42396e-05 0.0005055062 0.000182848 0.1014955942 -0.0762863029
380297720.0 -0.6083171049 0.5890888102 0.0002497121 1.90322e-05 0.0001518638 4.01512e-05 0.100103096 -0.0774422016
385297690.0 -0.6033974052 0.5954321352 0.0002674453 -6.83171e-05 2.05517e-05 9.4481e-05 0.0992774567 -0.0787518219
390297660.0 -0.596844863 0.6005575965 0.0001233584 0.0002447719 3.28703e-05 0.0002061735 0.0978271195 -0.0797415041
395297630.0 -0.5906879278 0.6078173553 0.0001421779 8.52767e-05 0.0003165612 0.0001225378 0.097107506 -0.0807302488
400297600.0 -0.5838018266 0.6137206267 0.0004235291 -6.45621e-05 0.0001767661 0.0001109719 0.0959248241 -0.0819906966
405297570.0 -0.5785070413 0.6193196621 0.0004231981 0.000219089 0.0003006698 0.0002114637 0.0944536733 -0.0835714289
410297540.0 -0.5714558367 0.6250969467 0.0003815147 -1.06721e-05 0.0003299871 7.07841e-05 0.0932311251 -0.0840821161
415297510.0 -0.5644640179 0.6308048818 0.0002175819 0.000135318 9.40386e-05 0.0002105323 0.0920862688 -0.0854626098
420297480.0 -0.5592189642 0.6370906847 0.0001755255 9.17678e-05 0.0003117272 0.0001343296 0.0909760683 -0.0866361603
425297450.0 -0.5521157595 0.6417761519 0.0003475466 7.6964e-05 3.94463e-05 0.0001564148 0.0897750156 -0.0875859948
430297420.0 -0.54532487 0.6479979655 -0.0001102297 0.0001995399 0.0002502738 0.0003114544 0.087965508 -0.088750394
435297390.0 -0.5390798579 0.6530966939 0.000163681 2.50978e-05 -5.27571e-05 0.0002300566 0.0871694288 -0.0899437756
440297360.0 -0.5320905484 0.6591020521 0.0001359708 -3.6458e-05 0.0002924942 0.0001530866 0.085524067 -0.0904604641
445297330.0 -0.5248856499 0.6640078706 0.0001254919 -9.9067e-06 0.0002263232 8.58028e-05 0.0844326573 -0.0917407883
450297300.0 -0.5182864139 0.6690308712 0.0004352356 0.0002694653 0.000279139 0.0002633781 0.0831170622 -0.0925037826
455297270.0 -0.5113198277 0.6745265438 0.0002839399 1.14021e-05 0.0001183986 5.7115e-05 0.0817160969 -0.0936705315
460297240.0 -0.5050178558 0.6795734944 0.0003482593 6.86756e-05 0.0001053147 -6.51915e-05 0.0802804123 -0.0938256823
465297210.0 -0.4982528362 0.6850579784 0.0001194102 0.0001621045 0.00032564 4.99133e-05 0.0789738634 -0.095088899
470297180.0 -0.4902135909 0.6896581634 0.0002889348 0.0002105563 0.0001856432 -3.41067e-05 0.0779278128 -0.0960622683
475297150.0 -0.4836616723 0.6939813274 0.0001711177 -0.0001177449 0.0002686885 0.0001412153 0.0766420935 -0.0968807717
480297120.0 -0.4766454542 0.69910544 0.0001680901 6.74515e-05 0.0002819512 0.0001437766 0.0753259196 -0.0976009024
485297090.0 -0.4691814702 0.7035516577 1.39422e-05 -2.9708e-06 0.0003092351 -4.61318e-05 0.0740290523 -0.0982383522
490297060.0 -0.4624308688 0.7085578935 0.0003497763 -9.48442e-05 0.0002077418 5.45815e-05 0.0723203297 -0.0994953144
495297030.0 -0.4548485923 0.7127499892 6.70863e-05 3.28494e-05 0.0002101943 0.0001473402 0.0710083703 -0.0996012741
500297000.0 -0.4477421819 0.7176884687 0.0003407634 0.0001337047 0.0002684455 0.0001012133 0.0698194225 -0.1003314549
505296970.0 -0.440020971 0.7223063153 0.0002319884 2.08469e-05 0.0001562166 -7.05926e-05 0.0679369961 -0.1013662182
510296940.0 -0.4326786784 0.7264446849 0.0002622378 -0.000169185 0.000284807 0.0002891529 0.0665507602 -0.1019348566
515296910.0 -0.4249027109 0.7304921672 0.0002576245 0.0001693317 0.0003856487 8.29332e-05 0.0654436445 -0.1026982872
520296880.0 -0.4182503228 0.7352031726 0.0001274212 7.79299e-05 0.0001863361 4.00633e-05 0.0640371963 -0.1035403473
525296850.0 -0.4102632205 0.7387487653 0.0001995411 0.0001158477 0.0003208927 0.0001431211 0.0627394886 -0.1035918877
530296820.0 -0.4030323503 0.7431681511 0.000344365 0.000188394 8.05675e-05 0.000117473 0.061406169 -0.1044826613
535296790.0 -0.3963042386 0.7466607053 4.03936e-05 1.31574e-05 7.55744e-05 -8.9437e-06 0.0596106402 -0.1049412636
540296760.0 -0.3884117683 0.7509238485 2.3382e-05 -3.86458e-05 0.0001745164 -6.44417e-05 0.0582283671 -0.1056638757
545296730.0 -0.3806275328 0.7549582324 0.0003182518 7.3275e-06 0.0002152603 -6.15362e-05 0.0565410805 -0.1062426063
550296700.0 -0.3737276028 0.7587263214 0.0002758026 0.000138187 0.0002174709 0.0001052455 0.0551816778 -0.10681717
555296670.0 -0.3651816314 0.7614951461 0.0001965949 7.49942e-05 0.0003105328 9.4676e-05 0.0539463356 -0.1070417161
560296640.0 -0.3574972353 0.7654891687 0.0003490882 -0.0001048299 0.0002429072 0.0001105258 0.0525231595 -0.1074398678
565296610.0 -0.3499109436 0.7691866648 0.0002487265 0.000151662 0.0003848731 7.3154e-06 0.0512754272 -0.1081862536
570296580.0 -0.3426473134 0.7722468829 -7.2478e-06 0.0003392461 0.0001274435 6.81809e-05 0.0496213586 -0.1086868039
575296550.0 -0.3344745142 0.7766361544 0.0005476489 5.45927e-05 0.0004551033 -2.26745e-05 0.0483483256 -0.1088855132
580296520.0 -0.3264635783 0.7795104558 0.0001272439 0.0001744547 3.8564e-05 0.00025694 0.0467563278 -0.109267308
585296490.0 -0.3189751654 0.7824806771 0.0004187328 0.0002171233 0.0002492991 7.72193e-05 0.0457419408 -0.1101901029
590296460.0 -0.3107327504 0.784998573 0.0003861277 -3.88319e-05 0.0002204818 3.52033e-05 0.043786401 -0.110127883
595296430.0 -0.3031488827 0.7878928188 0.0002860195 0.0002651476 0.0001594729 0.0001822916 0.0425528642 -0.1109556312
600296400.0 -0.2954411983 0.7916384043 0.000325162 7.60015e-05 0.0003014275 -2.49949e-05 0.04115907 -0.1110353313
605296370.0 -0.2876467464 0.7941878349 0.0003176243 -0.0001831523 -9.8711e-06 0.0001301595 0.0395768947 -0.1109723971
610296340.0 -0.2792597305 0.797204196 0.0003316701 0.0001404736 0.0001739775 0.0001742148 0.0384711857 -0.11150686
615296310.0 -0.2708618614 0.7996406391 0.0005127779 0.00025949 0.0003209777 -6.6567e-05 0.0370387423 -0.1118319198
620296280.0 -0.2627723468 0.8018802876 0.0005199467 0.0001917722 0.0002779339 8.33291e-05 0.0355685624 -0.1119993333
625296250.0 -0.2549512113 0.8051817113 0.0003875095 0.00017714 0.0002266798 0.0001727027 0.0339466722 -0.1123134587
630296220.0 -0.2462479121 0.8077400851 0.0005136206 -3.61793e-05 0.0001674407 6.92222e-05 0.0325842957 -0.1123049447
635296190.0 -0.2388188202 0.810393889 0.0003375756 0.0002275867 0.0002450419 0.0001735087 0.0312869515 -0.112473943
640296160.0 -0.2313652035 0.8123634617 0.0003427893 -0.0002113008 0.0003471258 0.0002657851 0.0297078232 -0.1127878258
645296130.0 -0.2223835804 0.8152024048 0.0002896069 0.000135776 0.0003409836 2.24711e-05 0.0283964366 -0.1126178641
650296100.0 -0.2141943148 0.8163639583 0.0002502397 0.0001206091 0.0003652267 -5.24231e-05 0.0267714291 -0.1134049044
655296070.0 -0.2063379242 0.8190169293 0.0001833701 0.0002094721 0.0003942735 1.3338e-05 0.0256593514 -0.1130252996
660296040.0 -0.1982710532 0.8202693869 0.0002767916 -0.0002841342 0.0003117599 -4.3951e-05 0.0240998559 -0.1133937982
665296010.0 -0.1896133651 0.8221989428 0.0004528892 2.2386e-05 0.0002453003 -6.98764e-05 0.0223341819 -0.1129455108
670295980.0 -0.1821284724 0.8242813573 0.000481089 9.23764e-05 0.0004209612 0.0001343037 0.0207122785 -0.1131974847
675295950.0 -0.1735866213 0.8262189776 0.0002723267 -0.0001762818 0.0003450186 0.0001125184 0.0193119631 -0.1131504408
680295920.0 -0.1655384104 0.8279613849 0.0003398147 -0.0001626607 0.000192239 5.17811e-05 0.018213022 -0.1131415061
685295890.0 -0.1566486886 0.830061835 0.0002876933 -4.3298e-06 0.0002434003 -3.71993e-05 0.0165411521 -0.1130411453
690295860.0 -0.148814043 0.8308069068 0.0004695231 -0.0001789998 0.0005036328 6.42134e-05 0.0149788108 -0.1126572271
695295830.0 -0.1406139312 0.8320723225 0.0004611283 7.76702e-05 0.0003473285 0.0002235595 0.0135741737 -0.1129364501
700295800.0 -0.1319171721 0.8338925084 0.0002626636 5.64096e-05 0.000312109 -1.03688e-05 0.012295796 -0.1127874039
705295770.0 -0.1247595966 0.8352799421 0.0003822072 0.0001154616 0.0003635443 -0.0002620648 0.0106896004 -0.1123083104
710295740.0 -0.1156505919 0.8362313418 0.0003578243 -8.579e-06 0.0004614089 -4.95406e-05 0.0089894857 -0.1130998945
715295710.0 -0.1074461365 0.8371112527 0.0002655706 -0.0002056619 0.0002459479 7.9475e-06 0.0076334496 -0.1126221077
720295680.0 -0.0991703158 0.8386483659 0.0003937453 -0.0001428845 0.0002125673 3.22737e-05 0.0063733284 -0.1125530773
725295650.0 -0.0908508173 0.8392236226 0.0003304789 -7.44216e-05 0.0004768057 -1.09775e-05 0.0049390252 -0.1120138132
730295620.0 -0.0824841046 0.8405037437 0.0001648958 0.0001397975 0.000262846 -2.24444e-05 0.0032054011 -0.1121005322
735295590.0 -0.074687828 0.8410783147 0.000486514 -0.0001588985 0.0003462489 0.0001656882 0.0017684695 -0.1121522375
740295560.0 -0.0657123481 0.8419103813 0.00022818 -7.16435e-05 0.0005283944 -3.34834e-05 0.0004793699 -0.111761755
745295530.0 -0.057576187 0.8424683717 0.0005422833 -0.000332999 0.0004084488 -0.0002363823 -0.001004418 -0.1116113104
750295500.0 -0.0487051659 0.8426849809 0.0004844273 -0.0005191618 0.0002302405 -8.81967e-05 -0.0021337291 -0.1113702623
755295470.0 -0.0407082111 0.8431254054 0.0002589779 0.0002385127 0.0003450817 -0.0001767462 -0.0034966912 -0.1114701836
760295440.0 -0.0328715631 0.8433643819 0.0004786028 -0.0001364839 0.0004657136 -0.0001745024 -0.0050081902 -0.1110552639
765295410.0 -0.0242501103 0.8440504201 0.0005305719 -0.0001316653 0.0003701447 -4.1993e-05 -0.0062391894 -0.1106658734
770295380.0 -0.0158878194 0.8441782511 0.0003383979 -0.0002489809 0.0002814453 -7.76169e-05 -0.0080526566 -0.1104696774
775295350.0 -0.0080431626 0.8437614753 0.0004818837 -0.0001624474 0.0004520525 8.7825e-06 -0.0095181919 -0.1100593102
780295320.0 0.0010693463 0.8441378595 0.0002598979 -2.34857e-05 0.0004961371 -0.0001648545 -0.0103648942 -0.109804706
785295290.0 0.0090402958 0.8434086386 0.0004585944 3.61341e-05 0.000339614 -4.5331e-06 -0.0117275947 -0.1093157861
790295260.0 0.018109807 0.8436782557 0.0003579194 5.0654e-06 0.0001993091 -0.000251561 -0.0128455357 -0.1090194645
795295230.0 0.0250652753 0.8433145714 0.0003371189 -0.0001571112 0.0004790375 -0.0001391336 -0.0141800098 -0.1085541262
800295200.0 0.0338859254 0.8431263809 0.0001797335 -0.0001217777 0.000181623 -0.0001661239 -0.0157161818 -0.1079796616
805295170.0 0.0430611624 0.843400541 5.91589e-05 9.38812e-05 0.0004491594 -2.0679e-06 -0.0172562801 -0.107546938
810295140.0 0.0507407825 0.8421225853 0.0004277815 7.57612e-05 0.0002880228 -9.36657e-05 -0.0181109493 -0.1071577481
815295110.0 0.0593103301 0.8412603402 0.0001915051 -2.32374e-05 0.0003364525 -0.0002741072 -0.0199472728 -0.1067700262
820295080.0 0.0673704776 0.8411139046 0.0004821301 -8.24195e-05 0.0004307266 5.81092e-05 -0.0209485395 -0.1059479398
825295050.0 0.0763403232 0.8405546903 0.0004325125 -0.0003104096 0.0003345668 -4.11125e-05 -0.0223018088 -0.1057192343
830295020.0 0.083831917 0.8396414752 0.0001620746 -3.64616e-05 0.0003698931 -0.0003679622 -0.0232772977 -0.1049985147
835294990.0 0.0924548957 0.8386695884 0.0003597101 -0.000288237 0.0001957881 -0.0001884017 -0.0249204214 -0.1046684754
840294960.0 0.0999205654 0.8380610003 0.0004236986 1.75592e-05 0.0004503877 -0.0001027132 -0.0263529236 -0.1039299076
845294930.0 0.1085604736 0.8371710017 0.0005743471 7.18716e-05 0.0004379345 -0.0001614521 -0.0275989665 -0.1034224131
850294900.0 0.117073671 0.8361348969 0.0004248931 -0.0002374523 0.0002930078 -9.6069e-06 -0.0290473867 -0.1026368244
