!Created with skrf (http://scikit-rf.org).
# Hz S RI R 50.0 
!freq ReS11 ImS11 ReS21 ImS21 ReS12 ImS12 ReS22 ImS22
300000.0 -0.7734999897 -0.1783348089 7.07208e-05 -0.0005590604 0.0003833957 -0.0001453706 -0.0454801566 -0.0792689154
5299970.0 -0.7860261306 -0.0097363285 6.78392e-05 -0.0001406871 2.3473e-06 3.78777e-05 -0.047803017 0.0135982748
10299940.0 -0.7895914352 -0.0055804494 -4.76863e-05 8.9343e-05 -4.93e-06 9.94399e-05 -0.0421994737 0.031670084
15299910.0 -0.7940764702 -0.0030248185 -9.14284e-05 -7.48952e-05 0.000132996 -0.0001793026 -0.0338182493 0.0453163249
20299880.0 -0.8008595962 0.0010040552 0.0001084191 -7.15267e-05 -5.20384e-05 2.42713e-05 -0.0242821175 0.0572418738
25299850.0 -0.8072478311 0.0067096435 -3.03651e-05 3.99601e-05 1.27015e-05 0.0001514063 -0.0136270296 0.0662592344
30299820.0 -0.8136569043 0.0138401157 0.0001896873 3.8758e-06 -6.64053e-05 -6.36662e-05 -0.0021588458 0.0727720863
35299790.0 -0.8186854963 0.0229600084 -0.0001055762 0.0001435962 -5.65433e-05 -4.83628e-05 0.0091214447 0.0774976555
40299760.0 -0.8237999976 0.0321306947 7.61452e-05 0.000213718 0.0001107802 0.0002268508 0.0197871357 0.080143709
45299730.0 -0.8268772118 0.0416789113 -8.48283e-05 0.0001042139 -2.03701e-05 -3.61956e-05 0.0306548448 0.081338878
50299700.0 -0.8291793517 0.0520263176 -0.0003503404 4.28611e-05 0.0001441225 -1.0186e-05 0.040547057 0.081198462
55299670.0 -0.8315841241 0.0614147258 0.0001639157 -0.0001669887 -0.0001106889 0.0004142239 0.0492733014 0.0803721674
60299640.0 -0.8324510995 0.0717223507 7.24536e-05 2.54732e-05 0.0001014449 0.0002432055 0.057981171 0.0782339183
65299610.0 -0.833355431 0.0820378868 -8.20671e-05 -0.0001442144 0.0001594236 -0.000163921 0.0655504026 0.0762571239
70299580.0 -0.8338972741 0.0913639018 -0.0002407966 5.5638e-06 -0.0001209684 -5.66826e-05 0.072092344 0.0731534345
75299550.0 -0.834071742 0.101453732 -0.0001308413 6.46933e-05 5.72241e-05 4.98517e-05 0.0786902019 0.0698133779
80299520.0 -0.8338055406 0.1121176035 -0.0001512805 -5.12641e-05 2.97957e-05 0.0001600176 0.0839824558 0.0661820811
85299490.0 -0.8330315966 0.1215265683 -8.69173e-05 8.7258e-06 0.0001422346 9.0598e-05 0.0891098919 0.0622975526
90299460.0 -0.8322196657 0.1315123263 -3.37441e-05 -0.0001317492 -0.0001456043 0.0001113771 0.0932052364 0.0588447551
95299430.0 -0.8318286894 0.1406136345 -4.83874e-05 -0.0001566328 -9.12836e-05 6.81077e-05 0.0974187973 0.0550233047
100299400.0 -0.830129914 0.1497838822 0.0001053509 4.6266e-06 2.05386e-05 -8.86843e-05 0.1012362748 0.0511100261
105299370.0 -0.8286261173 0.1588201551 2.7905e-05 -9.64119e-05 -0.0001426531 9.7286e-06 0.1042263027 0.0469280818
110299340.0 -0.8274195415 0.1679813083 -6.08847e-05 -0.0001561799 -6.21564e-05 9.64218e-05 0.1067637235 0.0431134569
115299310.0 -0.8258011708 0.1775845838 -0.0001058015 -1.62687e-05 0.000105328 7.85e-07 0.1088883584 0.0389398262
120299280.0 -0.8244280634 0.1867217445 -9.1504e-05 6.45062e-05 -0.0001634106 -3.51725e-05 0.1113888919 0.0351389043
125299250.0 -0.8223601785 0.1956620602 6.16e-07 0.0001242268 0.0001314407 8.35393e-05 0.113365237 0.0311970921
130299220.0 -0.8206441199 0.2051339843 -0.0001611752 -0.0001596474 3.76349e-05 0.0001478031 0.1150072857 0.0275470482
135299190.0 -0.818531903 0.2142458718 -6.44804e-05 -0.000261051 2.62363e-05 -1.64066e-05 0.1164629699 0.0238564183
140299160.0 -0.8170553237 0.2232839066 8.96545e-05 6.3156e-05 -2.05436e-05 -1.74877e-05 0.1174057042 0.0202467167
145299130.0 -0.8147782458 0.2323063929 0.0001143758 0.0001064497 0.0001265547 4.73409e-05 0.1184207882 0.0167272562
150299100.0 -0.8121684307 0.2412253395 -0.0002104495 8.90568e-05 -0.0001596784 3.6433e-06 0.1191897247 0.0134178926
155299070.0 -0.8101464319 0.2498692291 0.0001551812 0.0001027478 0.0002108638 0.0001361642 0.1200548975 0.0100014872
160299040.0 -0.8077437282 0.2591348046 5.70064e-05 1.33738e-05 0.0002089196 0.000162658 0.1203014897 0.0068513611
165299010.0 -0.8047171609 0.2674261328 0.0003504639 -0.0001162765 0.0003243503 0.0001149406 0.1210585205 0.0032679154
170298980.0 -0.8013107212 0.2765065275 0.0001966277 0.0001044945 6.02421e-05 -1.86311e-05 0.1210192602 0.0003701618
175298950.0 -0.7988825833 0.2843623178 -0.0001139304 0.0002270996 -1.86209e-05 -4.016e-07 0.1214925433 -0.0025566026
180298920.0 -0.7960899841 0.2931025771 6.1486e-06 6.64958e-05 -7.11778e-05 4.94629e-05 0.1216667016 -0.0058666649
185298890.0 -0.7927813526 0.3018572994 0.0001666508 0.0003148512 8.89454e-05 1.71603e-05 0.1214800823 -0.0087318374
190298860.0 -0.7894248724 0.3113252618 -0.000117953 -4.57221e-05 7.79175e-05 -3.29001e-05 0.1213587087 -0.0113698802
195298830.0 -0.7866281105 0.3191857344 0.000113683 9.238e-05 3.28358e-05 -7.9316e-06 0.121216429 -0.0142078294
200298800.0 -0.7828065157 0.3278448128 6.32128e-05 7.14731e-05 6.25934e-05 0.0001385578 0.1208882702 -0.0168851733
205298770.0 -0.7794835786 0.3365516905 -1.12509e-05 -4.201e-07 5.96953e-05 0.0001548979 0.1207008581 -0.0199171578
210298740.0 -0.7759996829 0.3447335764 -9.54632e-05 0.0001025365 0.0001253927 0.0002858134 0.1201681203 -0.0225390078
215298710.0 -0.7720889857 0.3532596379 -8.24724e-05 -7.71122e-05 0.0002258868 0.0001510494 0.1197757836 -0.0252364975
220298680.0 -0.7683964409 0.3605478067 1.42049e-05 0.0002742135 -1.25948e-05 -5.35228e-05 0.1190848758 -0.0271720988
225298650.0 -0.764834738 0.3695776533 7.57099e-05 8.70149e-05 -3.82507e-05 -8.08604e-05 0.1187760148 -0.0298017027
230298620.0 -0.7616098835 0.37752614 -0.0001760877 7.46484e-05 2.0591e-05 1.7955e-05 0.1178803991 -0.0323120655
235298590.0 -0.757755507 0.3860793991 4.48261e-05 5.85351e-05 0.0002045727 -8.49526e-05 0.1174074998 -0.0344377999
240298560.0 -0.7528966837 0.3938885945 3.58857e-05 -0.0001151881 -9.25388e-05 2.12007e-05 0.1168418334 -0.0370450054
245298530.0 -0.7490501559 0.4016134714 2.19489e-05 0.0001509976 7.28923e-05 -1.96069e-05 0.1158117001 -0.0393397148
250298500.0 -0.7445457633 0.4094577141 -0.000160514 -3.0264e-06 -3.21913e-05 -7.61643e-05 0.1151108444 -0.0413019176
255298470.0 -0.7405383224 0.4174690365 5.35533e-05 -9.35281e-05 0.000120563 6.0635e-06 0.1143419158 -0.0437151742
260298440.0 -0.736633192 0.4247486915 -2.24412e-05 0.0001315779 5.14672e-05 -5.2513e-05 0.113025408 -0.0456669053
265298410.0 -0.7317967218 0.4328135783 6.40936e-05 0.0001414022 5.67406e-05 -3.349e-05 0.1129984735 -0.0477489517
270298380.0 -0.7274383917 0.4404353383 7.0731e-06 3.78837e-05 0.0001179367 -6.61966e-05 0.1117762842 -0.0497040886
275298350.0 -0.72296254 0.4480928735 -3.42099e-05 9.11177e-05 0.0002122629 1.48861e-05 0.1111452189 -0.0515659905
280298320.0 -0.7181230302 0.4554408963 5.62625e-05 4.22395e-05 0.0002768741 7.95723e-05 0.109853723 -0.0536243026
285298290.0 -0.7139377039 0.4634936872 2.7369e-05 0.0002131065 5.91974e-05 -0.0001242667 0.1089162919 -0.0556107313
290298260.0 -0.7089136725 0.471293227 2.30485e-05 0.0001348372 8.3011e-05 6.96167e-05 0.1078653155 -0.0574102224
295298230.0 -0.7038082477 0.4779260032 0.0002280147 7.48525e-05 -2.25838e-05 6.08249e-05 0.1070427598 -0.0591230794
300298200.0 -0.6995074704 0.485558465 0.0002786461 0.0001555544 0.0001320082 -4.99591e-05 0.1062744291 -0.0610561966
305298170.0 -0.6945454619 0.4928816119 0.0001165043 0.0001225578 0.0001097717 2.73704e-05 0.1050627683 -0.063035487
310298140.0 -0.6892357976 0.4993652945 0.0001998819 -1.93552e-05 1.41569e-05 -4.13988e-05 0.1040422946 -0.064693122
315298110.0 -0.6843435181 0.5070238993 5.35543e-05 4.26801e-05 5.51601e-05 -3.94139e-05 0.1030410948 -0.0664578802
320298080.0 -0.6791732364 0.5143674389 0.0002188065 0.000162223 0.0001510921 0.0001508134 0.101475959 -0.0682827093
325298050.0 -0.6737505473 0.5211096085 7.27019e-05 8.51041e-05 6.96116e-05 -7.69645e-05 0.1005495687 -0.0705248365
330298020.0 -0.6684518991 0.5277770977 0.0001385192 0.0001174493 5.59552e-05 0.0001058013 0.0992562067 -0.0720365063
335297990.0 -0.6626898915 0.5349324066 7.95229e-05 -3.1345e-06 9.32849e-05 9.9536e-06 0.0975798757 -0.0738927137
340297960.0 -0.6581241357 0.5414720558 0.0001292054 0.0001818757 0.0001340105 8.85101e-05 0.0963593091 -0.0752175328
345297930.0 -0.6521629653 0.5482413456 0.0001733691 6.2073e-06 0.0001924832 2.10112e-05 0.0948557533 -0.0766077548
350297900.0 -0.6467053413 0.5547895839 0.0001379637 5.49255e-05 0.0002203831 3.39446e-05 0.0931502509 -0.0783507445
355297870.0 -0.6406042627 0.5613545235 -8.27428e-05 6.99187e-05 9.43764e-05 -0.0001219907 0.0918544051 -0.079455753
360297840.0 -0.6352743704 0.5680777357 0.0003972225 7.06139e-05 -8.15102e-05 -0.0001151012 0.0907575796 -0.0805255807
365297810.0 -0.6296984062 0.5745059365 0.0001665125 0.000114495 -3.22565e-05 3.32268e-05 0.0890697548 -0.0821216448
370297780.0 -0.6232236016 0.5804579791 0.0002444345 -0.0001495105 1.37514e-05 -0.0001144009 0.08753883 -0.083240814
375297750.0 -0.6179930774 0.5868852911 0.0002218737 -8.25219e-05 -9.4283e-06 -4.6973e-05 0.0860640402 -0.0847063161
380297720.0 -0.6120839804 0.5933120766 0.0001843522 -7.7383e-06 -4.6839e-05 -4.8713e-06 0.0850618211 -0.0857694859
385297690.0 -0.6058202081 0.5994671172 0.0001712864 0.0002350427 0.0001100158 -1.98249e-05 0.083385341 -0.0871367532
390297660.0 -0.5988305977 0.6054221059 0.0003445269 9.0008e-06 0.0001085616 -0.0001177683 0.0819725062 -0.0880421725
395297630.0 -0.5930376114 0.6120035779 0.0001292981 -7.09497e-05 0.0001694635 -4.32397e-05 0.0806620033 -0.0896028166
400297600.0 -0.5867552006 0.6181061005 7.31762e-05 5.45513e-05 7.45357e-05 0.0001125725 0.0791212401 -0.0901654875
405297570.0 -0.5802528972 0.6234074867 7.73484e-05 -1.19185e-05 0.0001850889 -5.62466e-05 0.0775887742 -0.0915466766
410297540.0 -0.57355654 0.6298432748 -2.61532e-05 0.0001489445 -5.89066e-05 4.5474e-05 0.0761747244 -0.0926683111
415297510.0 -0.5681762273 0.6360852127 5.11306e-05 -3.859e-07 0.0001982516 -2.6933e-06 0.0745540759 -0.0937153109
420297480.0 -0.5609806432 0.641113188 -0.0001312294 -4.00286e-05 -9.55568e-05 1.31339e-05 0.0733929798 -0.0944804873
425297450.0 -0.5542995531 0.6461166473 2.38146e-05 0.0001729896 0.0002338872 0.0002616226 0.0716983193 -0.0958969965
430297420.0 -0.5480042781 0.652004891 0.0002568684 0.0003455368 8.39635e-05 1.68563e-05 0.0702461225 -0.0967326358
435297390.0 -0.5416865938 0.6572989879 0.0001361908 2.57393e-05 0.0001121884 0.000181921 0.0682830367 -0.0974867754
440297360.0 -0.5339435938 0.6627762945 0.0003042921 -2.90787e-05 -6.9218e-06 0.000153971 0.0671523821 -0.0984493997
445297330.0 -0.5274381041 0.6672005682 0.0002227481 4.59683e-05 2.5294e-05 5.04312e-05 0.0656316899 -0.099337274
450297300.0 -0.5201579642 0.6735175288 0.0002829529 -2.70057e-05 0.0001424499 9.35526e-05 0.0641727829 -0.1002941983
455297270.0 -0.5142695085 0.6783578415 5.56833e-05 5.71879e-05 -6.73851e-05 2.45125e-05 0.0626338803 -0.1009299368
460297240.0 -0.5061338852 0.684091938 0.0001663232 4.33595e-05 0.0001914117 9.58837e-05 0.0608352269 -0.101819477
465297210.0 -0.4994593223 0.6890862386 0.0001851049 -0.0002066407 0.0002672553 7.29402e-05 0.0594969165 -0.1024614445
470297180.0 -0.4915715823 0.6941834638 0.0003010877 -0.0001743412 0.0003402708 2.8235e-06 0.0577572332 -0.1034990194
475297150.0 -0.4847429904 0.6992317768 -2.06636e-05 -0.0001001708 0.0002601055 -9.23618e-05 0.0564453652 -0.1038844994
480297120.0 -0.476466901 0.7040202782 -5.60267e-05 -0.000250377 -7.9848e-06 -5.61474e-05 0.0545364647 -0.1050084698
485297090.0 -0.4697038626 0.7083434756 -9.5358e-06 -0.0001252391 -5.99131e-05 2.19214e-05 0.0530504741 -0.1057264445
490297060.0 -0.4620816387 0.7142983137 0.0001967361 0.0001392989 0.000182421 7.79355e-05 0.0513279512 -0.1064752626
495297030.0 -0.4547617239 0.7182264883 0.0003107371 3.65758e-05 0.0001454055 0.0001791501 0.0497572905 -0.1071654328
500297000.0 -0.447161586 0.7223687365 -3.9784e-06 1.7678e-06 -2.63255e-05 -6.4926e-06 0.0482640252 -0.1077726059
505296970.0 -0.4389530151 0.7269488712 0.0001511797 0.0001222189 4.26873e-05 0.0003106876 0.0464543129 -0.108258721
510296940.0 -0.4325216274 0.7313098332 0.0002203381 -3.30492e-05 9.26751e-05 -8.4875e-06 0.0451135206 -0.1085159786
515296910.0 -0.4245810931 0.7353744918 -3.073e-07 6.12063e-05 0.0002061202 4.39548e-05 0.0432890431 -0.1096166751
520296880.0 -0.4163182335 0.7403236528 0.000121178 9.93299e-05 0.0001638368 -9.95195e-05 0.0420093343 -0.1096842102
525296850.0 -0.4084009724 0.7437829321 2.99737e-05 4.0944e-06 0.0001974873 3.254e-05 0.0399814481 -0.1103157586
530296820.0 -0.4013545161 0.7480357433 0.0002701784 1.09097e-05 0.000229749 9.13975e-05 0.0384390468 -0.1109963892
535296790.0 -0.3928508937 0.7520208996 2.5695e-05 1.771e-06 7.73423e-05 2.59703e-05 0.0372613182 -0.1110761365
540296760.0 -0.3853411366 0.7562195462 0.0002312639 -0.0001923907 0.0002221715 8.13389e-05 0.0351622399 -0.1115916811
545296730.0 -0.3777068308 0.7605514956 0.0001022355 5.26307e-05 1.23839e-05 3.90268e-05 0.0337513265 -0.1120538377
550296700.0 -0.3689291204 0.764035172 -7.1976e-06 -0.000140115 5.56708e-05 -4.94075e-05 0.0317505754 -0.112448472
555296670.0 -0.3611611109 0.7674374204 0.0002291421 8.34275e-05 -5.6501e-05 0.0001719481 0.0296970304 -0.1130388372
560296640.0 -0.3533735661 0.7708396094 0.0001563084 0.0002278045 7.39823e-05 -6.37351e-05 0.0281630871 -0.1132399289
565296610.0 -0.3455518441 0.7745443692 0.0001494796 -1.96845e-05 6.22549e-05 -0.0002309282 0.0268204441 -0.1133168385
570296580.0 -0.3372068689 0.7780007003 2.50168e-05 -8.1512e-05 1.11553e-05 7.95239e-05 0.0248594434 -0.1138361389
575296550.0 -0.3281967631 0.7809366448 0.0003231882 -8.8099e-06 0.0001146675 -6.80603e-05 0.0235537253 -0.1140195181
580296520.0 -0.3208413852 0.7846884063 0.0001673219 0.0001722821 9.87319e-05 -8.47477e-05 0.0216598686 -0.1142588336
585296490.0 -0.3122927136 0.7876463441 0.0002914705 3.36563e-05 -1.23597e-05 4.12029e-05 0.0200049319 -0.1142900938
590296460.0 -0.3034920457 0.7909400834 0.0001083262 -0.0001390372 0.0002122842 0.0002143853 0.0181720162 -0.1146344378
595296430.0 -0.2966645072 0.7939943212 0.0001155421 -3.20875e-05 0.00014222 1.05736e-05 0.0167953928 -0.1146875334
600296400.0 -0.2884056824 0.7967503135 0.000175787 -9.28476e-05 0.0002202031 -9.7811e-05 0.0151103093 -0.1148638285
605296370.0 -0.279929718 0.7994119354 1.32865e-05 -1.21083e-05 0.0002248614 2.25605e-05 0.0134642545 -0.1152483115
610296340.0 -0.2714252077 0.8029705161 0.0002618829 0.0001367172 0.0003262098 7.91518e-05 0.0116076903 -0.1148837532
615296310.0 -0.2624497438 0.8056686082 0.0002112867 0.0001030907 0.0003010727 -0.00011869 0.0101236524 -0.1153031784
620296280.0 -0.2553638983 0.8086110673 0.0002516115 4.2996e-06 8.81333e-05 -2.742e-07 0.0084543885 -0.1150487728
625296250.0 -0.2473031583 0.8105154647 0.0001179954 6.00963e-05 -5.3638e-05 -6.53316e-05 0.0064045282 -0.1150787754
630296220.0 -0.2383141469 0.8134736609 0.0002012253 -9.5496e-06 9.29729e-05 0.0001967914 0.0051634576 -0.1150960988
635296190.0 -0.2303788384 0.8157510446 0.0002560561 -7.84123e-05 -2.70213e-05 3.94501e-05 0.0029818994 -0.1149747838
640296160.0 -0.2216428807 0.8177004749 0.0001815952 1.88927e-05 0.0001998432 8.39164e-05 0.0015048842 -0.1151458694
645296130.0 -0.2136854886 0.8204848953 -5.99879e-05 4.96381e-05 0.0001369249 7.78601e-05 -0.0003975954 -0.1151329847
650296100.0 -0.2049285181 0.8222811755 3.09413e-05 -6.24359e-05 0.0001677927 2.87449e-05 -0.0018740541 -0.1151010534
655296070.0 -0.1976210217 0.824326083 0.0001456937 -0.0001074836 0.0002448311 3.40234e-05 -0.0037295388 -0.1147973599
660296040.0 -0.1894750205 0.8265804719 0.000315777 1.7594e-06 -0.0001353568 0.0001119936 -0.0052430188 -0.1148153827
665296010.0 -0.1807026345 0.828151576 3.12956e-05 7.00799e-05 0.0003772237 -1.25764e-05 -0.0065638926 -0.1142147768
670295980.0 -0.1725105923 0.8305825934 9.76516e-05 8.74649e-05 4.9337e-05 -0.0001238029 -0.0087341007 -0.1141376371
675295950.0 -0.1638847757 0.8317390687 9.52736e-05 3.33522e-05 0.0001710998 -5.81713e-05 -0.0100976748 -0.1139353918
680295920.0 -0.1564713496 0.8335289731 3.79358e-05 0.0001645249 0.0001149841 -1.29337e-05 -0.0119342619 -0.1136686998
685295890.0 -0.1475522534 0.8354756782 -3.54647e-05 0.0001441177 0.0001208887 -7.56599e-05 -0.0135717427 -0.1136568303
690295860.0 -0.139436996 0.8371310943 0.0004676989 0.0001445697 0.0001814231 5.12931e-05 -0.0150084273 -0.1132375197
695295830.0 -0.130355825 0.8386701197 0.0001396373 -4.80217e-05 -3.13962e-05 -4.46498e-05 -0.0167533685 -0.1127574584
700295800.0 -0.1221005941 0.8407267304 0.0001117627 2.2523e-06 0.0001748819 -0.0001558716 -0.0182271648 -0.1124837055
705295770.0 -0.1146541744 0.8411567709 0.0002262831 -7.72596e-05 -7.6905e-05 8.24224e-05 -0.0201232904 -0.1122337175
710295740.0 -0.1066216832 0.8425125673 1.15653e-05 -8.029e-05 0.0001577967 -3.83217e-05 -0.021424738 -0.1117923574
715295710.0 -0.0973279429 0.843536374 0.0003165636 8.93701e-05 0.0003637025 0.0001636773 -0.0232471456 -0.1115293426
720295680.0 -0.0890803467 0.8447209649 0.0001747546 2.80356e-05 0.0003391054 0.0001230874 -0.0248253447 -0.1111891579
725295650.0 -0.0814300997 0.8458859867 1.55517e-05 5.04392e-05 0.0001049933 -5.65617e-05 -0.0263338092 -0.1103309175
730295620.0 -0.0730571459 0.846946978 0.0001578683 -0.0001540492 0.0001184871 -5.48107e-05 -0.0282290782 -0.1097760822
735295590.0 -0.0657074016 0.8475495649 -9.14075e-05 -0.0001486583 0.000122139 -8.38125e-05 -0.0295035323 -0.109600161
740295560.0 -0.0578654006 0.8479821431 -0.0001003914 7.94159e-05 -5.23537e-05 -0.0001441724 -0.031556126 -0.1091877637
745295530.0 -0.0488242494 0.8492032046 0.0003828354 6.46257e-05 0.0001042542 6.3839e-06 -0.0330439609 -0.1084010827
750295500.0 -0.0407344931 0.848930031 0.0003430064 9.20995e-05 0.0001704614 -3.9927e-05 -0.0346421188 -0.108094335
755295470.0 -0.0319768421 0.849737761 7.47056e-05 0.0001073172 0.0003002873 -6.05285e-05 -0.0359896744 -0.1069117508
760295440.0 -0.0241268429 0.8514234341 4.11643e-05 -4.7979e-06 4.88637e-05 8.1891e-05 -0.0374805561 -0.1070158621
765295410.0 -0.0160310108 0.8504741649 7.09194e-05 -6.00833e-05 0.000285483 -0.0001674799 -0.0389729345 -0.1062209532
770295380.0 -0.0087681291 0.8512551735 0.0001676043 -7.05363e-05 0.0002871881 2.06365e-05 -0.0405755234 -0.105960843
775295350.0 -0.0001447965 0.8514735331 0.0002531829 -0.0002327208 2.00388e-05 -6.46576e-05 -0.042130663 -0.1050653614
780295320.0 0.009071056 0.8515725181 0.0003893567 -0.0001014032 -2.57188e-05 -4.27823e-05 -0.0437240792 -0.1040433492
785295290.0 0.0171411176 0.8512739641 9.58854e-05 -0.0001782198 0.0001954825 -1.34421e-05 -0.0455009902 -0.1032619423
790295260.0 0.02516324 0.8508452768 0.0001236652 7.7671e-05 0.0001857991 -6.73644e-05 -0.0466798211 -0.1027581873
795295230.0 0.0329304665 0.8506222423 0.0002478322 7.15204e-05 4.1872e-05 6.73441e-05 -0.0486201119 -0.1020365665
800295200.0 0.0412864287 0.8505294275 0.0001704607 -8.35064e-05 0.0003092221 -7.17704e-05 -0.0499740669 -0.1012951867
805295170.0 0.0493850094 0.85067951 0.0003022724 -0.0001439003 0.0001016418 -5.52642e-05 -0.0511277115 -0.1003846326
810295140.0 0.0577769754 0.8506165224 3.92167e-05 -2.79501e-05 0.0001193779 2.07581e-05 -0.0528574669 -0.0997419229
815295110.0 0.0656312833 0.8496668644 0.0001777472 -8.65837e-05 0.0001581084 -9.45211e-05 -0.0545126291 -0.0990566129
820295080.0 0.0735168775 0.8495043204 1.82372e-05 4.97471e-05 0.0001486698 0.0001158517 -0.0562781503 -0.097664846
825295050.0 0.082029477 0.8482970181 0.0001780789 -4.67985e-05 -5.96738e-05 5.90653e-05 -0.0570034718 -0.0972181511
830295020.0 0.0906414767 0.8475446968 0.000122419 -0.0001373075 0.0002026369 -3.23979e-05 -0.058588808 -0.0963426954
835294990.0 0.0982478231 0.8467884416 1.3552e-06 -5.43819e-05 0.0001934494 6.82102e-05 -0.060120745 -0.0952928785
840294960.0 0.1072337091 0.8452782952 0.0001698172 -0.0001889301 0.0001791444 -0.0001153189 -0.0615307854 -0.0945374236
845294930.0 0.1147064379 0.844805428 0.0002017277 3.79168e-05 -1.76832e-05 -3.28222e-05 -0.0628763861 -0.0933434454
850294900.0 0.1243447675 0.8435809525 7.10159e-05 -7.86535e-05 0.0001280744 7.13628e-05 -0.0641734239 -0.0923646797
