!Created with skrf (http://scikit-rf.org).
# Hz S RI R 50.0 
!freq ReS11 ImS11 ReS21 ImS21 ReS12 ImS12 ReS22 ImS22
300000.0 -0.2357099831 -0.1350591088 0.4675936929 0.0884974064 0.4686205436 0.0859171322 -0.2347534655 -0.1323110404
5299970.0 -0.2418332102 0.0050427045 0.474630666 0.0057856742 0.4753752729 0.0060199957 -0.2442783217 0.0043939139
10299940.0 -0.2385204427 0.0185850927 0.4771294705 0.006907623 0.4771695166 0.0071589718 -0.2407352328 0.0172858318
15299910.0 -0.2336136838 0.0287094039 0.4803131101 0.0078882923 0.4809565221 0.0081351565 -0.236972243 0.02634168
20299880.0 -0.2285611696 0.0368307906 0.4852091946 0.0082435741 0.4856778123 0.0081826466 -0.232184377 0.0340817769
25299850.0 -0.2225236907 0.04386578 0.4906463203 0.0074856178 0.4909266389 0.0073100997 -0.2268652938 0.0398168891
30299820.0 -0.2171310113 0.0488013127 0.4964421026 0.0050345361 0.4964071586 0.0049330502 -0.2215274286 0.0448785612
35299790.0 -0.2112581496 0.053089607 0.5009904581 0.0019688678 0.5016280718 0.0016831238 -0.216907511 0.0491369491
40299760.0 -0.2063202829 0.0560058332 0.5064504007 -0.0019137266 0.5062241225 -0.0021652551 -0.2116785135 0.0522632198
45299730.0 -0.201125057 0.0587053288 0.5113532498 -0.0064187387 0.5112830468 -0.0069021137 -0.20706702 0.0546603019
50299700.0 -0.1958496342 0.0607468569 0.514940956 -0.0127285865 0.5155833293 -0.0127046083 -0.2025461506 0.0568706434
55299670.0 -0.1920198682 0.0625716113 0.5188647634 -0.0181263228 0.5189186377 -0.0185733684 -0.199180379 0.0585706491
60299640.0 -0.1880015259 0.0642536487 0.5225829602 -0.0249566166 0.5223565154 -0.0245465982 -0.1949287828 0.0598641963
65299610.0 -0.1842705813 0.0650586531 0.5253976367 -0.0310459421 0.5254739006 -0.0311217284 -0.1916912814 0.0609685982
70299580.0 -0.1808964539 0.0656272437 0.5272250681 -0.0375403262 0.5277374186 -0.0375881244 -0.1890582918 0.0619720074
75299550.0 -0.1779994996 0.0666607726 0.5291318398 -0.0444984736 0.5295610034 -0.0445463444 -0.1861532129 0.0628220706
80299520.0 -0.1749852055 0.0676946965 0.5310674064 -0.0513581802 0.5317273925 -0.051440369 -0.1838527552 0.0635548427
85299490.0 -0.1723727803 0.068196102 0.532646738 -0.058489159 0.5329826272 -0.0579049795 -0.1814825541 0.0641082624
90299460.0 -0.1702538628 0.0690054023 0.5333797863 -0.0650423562 0.5336046741 -0.0646793646 -0.1794413977 0.0648891333
95299430.0 -0.1682234171 0.069665962 0.5346495275 -0.0721366781 0.534726184 -0.0721671182 -0.177731274 0.0654450805
100299400.0 -0.1660752462 0.0703154331 0.535022387 -0.0786731395 0.5349503949 -0.0787809314 -0.1758793198 0.0668262003
105299370.0 -0.1639855875 0.0708441683 0.5354944479 -0.0854052519 0.5354352969 -0.0860834697 -0.1738096806 0.0667367436
110299340.0 -0.1620649193 0.0713566227 0.5352451302 -0.0921130544 0.5358807615 -0.0923869748 -0.1727188802 0.067309168
115299310.0 -0.160871057 0.0725861454 0.5354646951 -0.0991346216 0.535478258 -0.0992638729 -0.1714685119 0.0686674035
120299280.0 -0.1597735561 0.0734274244 0.5358314984 -0.1065861763 0.5350929747 -0.1065816348 -0.1701807334 0.0686689548
125299250.0 -0.1577315871 0.0737561851 0.5345785381 -0.1127844442 0.5349561753 -0.1128616285 -0.1686888768 0.0697534017
130299220.0 -0.1566177672 0.0745797863 0.534550829 -0.1198764216 0.5340213525 -0.1200996004 -0.1676241856 0.0704486685
135299190.0 -0.1554035079 0.0758071797 0.5337471523 -0.1260239497 0.5338783894 -0.1263380771 -0.1668811916 0.0708483616
140299160.0 -0.1542248166 0.0767975926 0.5330716861 -0.1330410833 0.5329810042 -0.1325599952 -0.1661316144 0.0721279538
145299130.0 -0.1533557439 0.077843952 0.5320320117 -0.1389027787 0.5320087936 -0.139482662 -0.1649099619 0.0729169315
150299100.0 -0.1521991641 0.0787629297 0.530706631 -0.1462534315 0.5305218224 -0.1459901031 -0.1641741475 0.0742111346
155299070.0 -0.150987291 0.079800776 0.5289963279 -0.1525037316 0.52971575 -0.1524559273 -0.1632224615 0.0750756771
160299040.0 -0.1499878838 0.0812635416 0.5280170358 -0.1584902654 0.5278423356 -0.159139108 -0.1624053635 0.0760571142
165299010.0 -0.1489157436 0.082363876 0.5268921878 -0.1651165509 0.5269918988 -0.1652889257 -0.1615655482 0.0767032478
170298980.0 -0.1478696362 0.0834535633 0.5248985151 -0.171558423 0.5251250546 -0.1719471996 -0.1610219643 0.0777962912
175298950.0 -0.1466916379 0.0849097458 0.5237697713 -0.1781264888 0.5238858203 -0.1783530238 -0.1600274682 0.0791525794
180298920.0 -0.1460658772 0.0859792477 0.5220053966 -0.1844003994 0.5215918893 -0.1846063698 -0.1590953321 0.0800527986
185298890.0 -0.1451067636 0.0873383862 0.5201577048 -0.1905265776 0.520063213 -0.1903664081 -0.1585035795 0.0810262603
190298860.0 -0.1438678471 0.0887431256 0.5175796622 -0.1968248031 0.5180674848 -0.1964867853 -0.1577619459 0.0823568343
195298830.0 -0.1430159916 0.0901515056 0.5160813417 -0.2027435305 0.5161282201 -0.2028494728 -0.1571752414 0.0835638214
200298800.0 -0.1419503423 0.0912912373 0.5141937306 -0.2093846377 0.5142657551 -0.2092127982 -0.1563245628 0.0847007915
205298770.0 -0.1414882625 0.0926248486 0.511380926 -0.2149528802 0.5121729482 -0.2145522839 -0.1556103373 0.0860144235
210298740.0 -0.1401721802 0.0938906994 0.5097423848 -0.2208548246 0.5097444905 -0.2209799594 -0.1554891249 0.0870231478
215298710.0 -0.1392142494 0.0954276342 0.5068987268 -0.226358785 0.5072610294 -0.2274116778 -0.1542131336 0.0883426115
220298680.0 -0.1383158775 0.0970696553 0.5043628362 -0.2327654277 0.5048385704 -0.2328904886 -0.1533441512 0.0897175684
225298650.0 -0.137174464 0.0982597176 0.5019883324 -0.2383889319 0.5022623853 -0.2383210197 -0.152480477 0.0905215929
230298620.0 -0.1358901068 0.1000172321 0.4995181172 -0.244733402 0.5000681875 -0.2444175187 -0.1519808809 0.0920139964
235298590.0 -0.1355620019 0.1013422631 0.4973546601 -0.2504583597 0.49748026 -0.2502350821 -0.1509288681 0.093483337
240298560.0 -0.1343027065 0.1027039008 0.4943310507 -0.2559110574 0.4946037469 -0.2557745854 -0.1504199423 0.0944450122
245298530.0 -0.1331735209 0.104067595 0.4916363362 -0.2620023654 0.4913137101 -0.2614719775 -0.149539622 0.096190321
250298500.0 -0.1324518106 0.1054036883 0.4891299946 -0.2671956639 0.4889307295 -0.2667359285 -0.1490938587 0.0971955903
255298470.0 -0.131108513 0.1074150304 0.4860841471 -0.2720583035 0.4868746908 -0.2728810199 -0.1480127614 0.099011188
260298440.0 -0.1301450871 0.1085037876 0.4831740286 -0.2777553896 0.4830506169 -0.2778718651 -0.1474964824 0.0998001902
265298410.0 -0.1293346336 0.1099067562 0.4800083341 -0.2838536707 0.4799866685 -0.2840167231 -0.1459557008 0.1008305619
270298380.0 -0.1281456647 0.1114221198 0.476902858 -0.2890336 0.4769547365 -0.2891602809 -0.1450590476 0.1025947657
275298350.0 -0.1268389718 0.1131650736 0.4732186628 -0.2943337976 0.4742528301 -0.2945389948 -0.1446887498 0.1042836306
280298320.0 -0.1261388704 0.1143470002 0.4708090405 -0.2994233513 0.47088331 -0.2999425586 -0.1432743391 0.105701632
285298290.0 -0.1248912034 0.1159087665 0.4674790912 -0.3049519404 0.4677407615 -0.3050652757 -0.1428137368 0.1069479899
290298260.0 -0.1235995582 0.1175104618 0.4645985506 -0.3105389264 0.4643188518 -0.3102927638 -0.1416860868 0.1079925936
295298230.0 -0.1227130839 0.1186226536 0.4608143328 -0.3159091258 0.4609408878 -0.3158723947 -0.1405887848 0.1091536562
300298200.0 -0.1214186738 0.1203980588 0.4573950831 -0.3211284244 0.4574087393 -0.3208962377 -0.1396398869 0.1107783536
305298170.0 -0.120193382 0.1213630866 0.4543711857 -0.3262928536 0.4544760825 -0.3264514039 -0.1383613914 0.1117644953
310298140.0 -0.1187886325 0.1224688521 0.4505789509 -0.3311816442 0.450654412 -0.3311293836 -0.1373236221 0.1130807604
315298110.0 -0.117792637 0.1235254549 0.4469716337 -0.3368642707 0.4472930788 -0.3369142299 -0.1363479598 0.1144430382
320298080.0 -0.1165272338 0.1248496668 0.4425069175 -0.3419575681 0.4436915366 -0.3418428204 -0.1358993232 0.1155085772
325298050.0 -0.1157904747 0.1260142459 0.439250801 -0.3464205688 0.4397243416 -0.3469648652 -0.1342083469 0.1166001346
330298020.0 -0.1145735224 0.1275948707 0.4353054625 -0.3517654862 0.4360371413 -0.3517384208 -0.1341851367 0.1178858771
335297990.0 -0.1135362253 0.1290226188 0.4314043963 -0.3565862623 0.4317032697 -0.3566368346 -0.1328547376 0.1193291426
340297960.0 -0.1124241379 0.1303813321 0.4268258642 -0.3618735167 0.4271967284 -0.3613469772 -0.1319878415 0.1207917048
345297930.0 -0.1114305035 0.1315240335 0.4235376865 -0.3661173582 0.4232546955 -0.3663911612 -0.1308328893 0.1219057138
350297900.0 -0.1100981177 0.1328413849 0.419368973 -0.3704867849 0.4194349536 -0.3705363638 -0.1300484591 0.1231292827
355297870.0 -0.1087982109 0.1344277434 0.4152495404 -0.3745625245 0.4153179335 -0.3752410295 -0.1287159003 0.1249479566
360297840.0 -0.1076183454 0.135740822 0.410879494 -0.3799039758 0.4110905583 -0.3800604474 -0.128045464 0.1263596955
365297810.0 -0.106163563 0.1371769806 0.4066174837 -0.3843873347 0.406843588 -0.3843056247 -0.1267866553 0.1274004495
370297780.0 -0.1047027842 0.1385749426 0.4022141084 -0.3890518003 0.4025840406 -0.3886325573 -0.1257734893 0.1287128938
375297750.0 -0.1034194563 0.1395461854 0.3982748109 -0.3932068321 0.3982142812 -0.3932132654 -0.1241714048 0.130192095
380297720.0 -0.1021404066 0.1408446665 0.3937808324 -0.3979261296 0.3940664854 -0.3974720303 -0.1230805897 0.1316878925
385297690.0 -0.1007049682 0.1422222413 0.389506935 -0.4017704694 0.3897389112 -0.4020948071 -0.1220879952 0.1331363427
390297660.0 -0.0990704445 0.1431293629 0.384923473 -0.405577404 0.3851661239 -0.4058395681 -0.1204961062 0.1338241408
395297630.0 -0.0973832291 0.1445874151 0.3803960496 -0.4097438858 0.3805711448 -0.4101735855 -0.1195395501 0.135308342
400297600.0 -0.0961945837 0.145851684 0.3763713538 -0.4147449648 0.3766645279 -0.4146223195 -0.1180192943 0.1370211146
405297570.0 -0.0948667778 0.1466034678 0.3719196674 -0.418397197 0.3718213133 -0.4182731374 -0.1164938847 0.1382950788
410297540.0 -0.093031737 0.1483223433 0.3667936584 -0.422808977 0.3672538703 -0.4225138654 -0.1155758203 0.1397196619
415297510.0 -0.0919305012 0.1491801921 0.3623841103 -0.4263930408 0.363057895 -0.4266893208 -0.1142353244 0.1406310173
420297480.0 -0.0902545301 0.1498374627 0.3578131015 -0.4304677199 0.3578486464 -0.4307860757 -0.1125264087 0.1425437137
425297450.0 -0.0882099969 0.1514585134 0.3531670714 -0.4340467487 0.3532155416 -0.4343358663 -0.1114319451 0.1431218106
430297420.0 -0.0869149851 0.1523534813 0.3487863758 -0.438255636 0.348472543 -0.4375907633 -0.1097092223 0.1445446805
435297390.0 -0.0852984715 0.1535531177 0.3435413243 -0.4423811821 0.3433428094 -0.4421133383 -0.1089939375 0.1459787484
440297360.0 -0.0834727569 0.1543016858 0.338295086 -0.4456651751 0.3382542454 -0.4459700633 -0.1074527027 0.1469511625
445297330.0 -0.0821318552 0.1551867939 0.333835893 -0.4493917717 0.3335207548 -0.4495309876 -0.105649252 0.1484727879
450297300.0 -0.0804218841 0.1562153959 0.3293539813 -0.4527590928 0.3295857724 -0.4525965239 -0.1044864593 0.1495488075
455297270.0 -0.0788168337 0.1573041123 0.3241457556 -0.4568008277 0.3242954737 -0.4566546702 -0.1029379414 0.1504672701
460297240.0 -0.0764757951 0.1583279126 0.3187059317 -0.4604203254 0.3187808716 -0.4603217508 -0.1015108524 0.151631269
465297210.0 -0.0749697526 0.1592313074 0.3137346168 -0.4636322581 0.3131802211 -0.4639813745 -0.0997275793 0.1532340609
470297180.0 -0.0730426536 0.1599273223 0.3085472902 -0.4666383835 0.3090006237 -0.4668900553 -0.0983724423 0.1539169068
475297150.0 -0.0719721446 0.1613077625 0.3036407879 -0.4703400346 0.3037650382 -0.4701599303 -0.0966574487 0.1549985482
480297120.0 -0.0693663373 0.1623009913 0.2983989726 -0.4734465968 0.2986907521 -0.4731790489 -0.0955396772 0.1561253509
485297090.0 -0.0677251751 0.1624523401 0.2928980333 -0.4767228678 0.2934822468 -0.4765749873 -0.0940969136 0.1572262128
490297060.0 -0.0654588705 0.1636004852 0.2876096432 -0.4798219227 0.2881555729 -0.4800832754 -0.0926176095 0.158036112
495297030.0 -0.0638442744 0.1642770308 0.2828025003 -0.482989859 0.2825925858 -0.4832584159 -0.0904727384 0.159404999
500297000.0 -0.0621435618 0.1653606772 0.2776397581 -0.4857499683 0.2775763655 -0.4862650026 -0.0889304544 0.1605213553
505296970.0 -0.0597164593 0.1661366499 0.2723500696 -0.4888242217 0.2722941119 -0.4887873171 -0.0874632594 0.1610407043
510296940.0 -0.0583119702 0.1669016048 0.26694155 -0.4923768567 0.2674831505 -0.4921380056 -0.0856752819 0.162322702
515296910.0 -0.056372762 0.1677991878 0.2613552167 -0.4949344754 0.2611339276 -0.4949795625 -0.0843137343 0.1630212314
520296880.0 -0.054133502 0.1685148051 0.2559065706 -0.4974842546 0.2557929443 -0.4976438685 -0.0823304045 0.1644851502
525296850.0 -0.0520695786 0.1690003977 0.2503569527 -0.5002047709 0.2502949208 -0.5004961273 -0.0806860336 0.1651783417
530296820.0 -0.0506912556 0.1696933971 0.2448662181 -0.5031325826 0.2448736644 -0.5029452963 -0.0789929617 0.1655549676
535296790.0 -0.0481796577 0.1704521312 0.2394187777 -0.5053802818 0.239666089 -0.5056274363 -0.0772199146 0.1672721145
540296760.0 -0.0463248337 0.1715413162 0.2339958276 -0.5083219193 0.2334768093 -0.5082898369 -0.0758500085 0.1675204645
545296730.0 -0.0449260662 0.1723776343 0.2286624137 -0.510700548 0.2282406759 -0.5102836555 -0.074054439 0.1685486138
550296700.0 -0.0420027103 0.1727577907 0.2229686877 -0.5132421546 0.2228679788 -0.513336655 -0.0725224731 0.1693636133
555296670.0 -0.040431667 0.1733267254 0.2177514022 -0.5156817025 0.2172462093 -0.5153572157 -0.0706684539 0.1698560365
560296640.0 -0.0379094385 0.1739030697 0.211570888 -0.5180204503 0.2118205236 -0.5179322418 -0.0694116692 0.1709525865
565296610.0 -0.0363149207 0.1747677853 0.2063201931 -0.5202130628 0.2060978073 -0.5194471019 -0.0673812344 0.1717752132
570296580.0 -0.0342715244 0.1750688678 0.2001725691 -0.5221086158 0.2002373883 -0.522267706 -0.0658480378 0.1723711059
575296550.0 -0.0318768926 0.1759264715 0.1951349981 -0.5242263887 0.1945421256 -0.5241336487 -0.063754598 0.1730919453
580296520.0 -0.0304306085 0.1763977033 0.1897283342 -0.52619651 0.1885840502 -0.5265994994 -0.062538074 0.1741837251
585296490.0 -0.0279884398 0.1770351649 0.1836920854 -0.52808201 0.1830255617 -0.5281905806 -0.0604859127 0.1749327588
590296460.0 -0.0253901298 0.1776241258 0.1776728841 -0.5304626086 0.1774188263 -0.5303121011 -0.0591152108 0.1754776176
595296430.0 -0.0236762668 0.1780033782 0.1711629951 -0.5322429053 0.1714223615 -0.5321060538 -0.0571140807 0.1761960582
600296400.0 -0.0215154902 0.1784153531 0.1654281971 -0.533635187 0.1659447799 -0.534066782 -0.0553990538 0.1765505874
605296370.0 -0.0199744798 0.1788852753 0.1609357035 -0.5353945618 0.1598502715 -0.5355857591 -0.0537025311 0.177556829
610296340.0 -0.0173172372 0.1797162646 0.1544430659 -0.5366842897 0.1545456186 -0.5375248236 -0.0521605516 0.1784973609
615296310.0 -0.0151040873 0.1798450194 0.1484017374 -0.5388957355 0.1481920369 -0.5390376757 -0.0500097367 0.1790971747
620296280.0 -0.0136498776 0.1808821378 0.1429811296 -0.5403529012 0.142431756 -0.5404089932 -0.0486110984 0.179746556
625296250.0 -0.0117976992 0.1806959292 0.136715899 -0.5416890776 0.136540996 -0.542220254 -0.0468190657 0.1801455038
630296220.0 -0.0094703765 0.181333233 0.1307194553 -0.5432436926 0.1305820594 -0.5431966016 -0.0449088146 0.1807982512
635296190.0 -0.0073953435 0.1818797859 0.1251606062 -0.5446051147 0.1249941333 -0.5443544392 -0.0431234185 0.1813464432
640296160.0 -0.0052898464 0.1820385598 0.119379423 -0.5458797971 0.1191862123 -0.5458495094 -0.0415627952 0.1816680468
645296130.0 -0.0029735101 0.1827041923 0.1134544885 -0.5471040135 0.1130892964 -0.5466810838 -0.0398295154 0.181880799
650296100.0 -0.0008900949 0.1826849972 0.1073174088 -0.5485997149 0.1068946663 -0.5483593246 -0.0373882704 0.1824111598
655296070.0 0.0007992908 0.1829082987 0.1011064257 -0.5496332735 0.1009937275 -0.5489719639 -0.0363834524 0.1834835024
660296040.0 0.0030628495 0.1832340408 0.0954621695 -0.550543261 0.0952004142 -0.5505073646 -0.0342974068 0.1833353546
665296010.0 0.0048293494 0.1832168595 0.0891669493 -0.5508060615 0.0892024973 -0.5513022487 -0.0325145603 0.1840781697
670295980.0 0.0072994394 0.1838690701 0.0829595484 -0.5527051963 0.0833048204 -0.5517684283 -0.0311778717 0.1843001174
675295950.0 0.0090144543 0.1839650151 0.0775758395 -0.5531849634 0.0776621377 -0.5531422931 -0.0289688151 0.1851443896
680295920.0 0.0108833999 0.1843152091 0.0716948531 -0.55356405 0.0713743536 -0.5537928481 -0.0270159281 0.1851254229
685295890.0 0.0133604507 0.1843558645 0.0654968588 -0.5547607003 0.0654452415 -0.5546204334 -0.0252886356 0.1860636392
690295860.0 0.0149769386 0.1846028755 0.0598329657 -0.555183058 0.0591885974 -0.555046992 -0.0236147773 0.1860495521
695295830.0 0.0174289931 0.184362405 0.0542732519 -0.5557193714 0.0534626677 -0.5555738509 -0.0217607275 0.186709514
700295800.0 0.0193456145 0.1847026744 0.0481541562 -0.5562851071 0.0474349546 -0.5563920343 -0.0197892402 0.1871126414
705295770.0 0.0212822558 0.1847102492 0.0417847243 -0.557165252 0.0414625107 -0.5565208028 -0.0182007223 0.1875165239
710295740.0 0.0232120571 0.1846455021 0.0356365651 -0.5573299004 0.0355622855 -0.5577337891 -0.0162059908 0.1878990761
715295710.0 0.0253250927 0.1849790372 0.0298961286 -0.5576525946 0.0296303457 -0.5575883069 -0.0145799335 0.1878312653
720295680.0 0.0276180987 0.1848092444 0.0236719232 -0.5572654936 0.0235382454 -0.5582317197 -0.0126726841 0.1881275414
725295650.0 0.0290440473 0.18484401 0.0178795549 -0.5579480948 0.0175416787 -0.5578528549 -0.0111760443 0.1888741949
730295620.0 0.0306495109 0.1847555495 0.0118925674 -0.5576398395 0.0113783444 -0.5574952656 -0.0092114672 0.1894209044
735295590.0 0.0329938322 0.1848652741 0.0058303295 -0.5584592787 0.0056361168 -0.5583567569 -0.0072601604 0.1891964362
740295560.0 0.0348880746 0.1844139983 -0.0004121015 -0.5580905048 -0.0001353953 -0.5586881298 -0.0056873647 0.1898501578
745295530.0 0.0366402876 0.1845391882 -0.0060081588 -0.5576038785 -0.0058076144 -0.5581557413 -0.004034719 0.1898720349
750295500.0 0.0385811813 0.184321825 -0.0118147151 -0.55764438 -0.0128831835 -0.5579951212 -0.0020354047 0.189999403
755295470.0 0.040533963 0.1841107163 -0.0177473978 -0.5579310549 -0.0184543504 -0.5586375611 -0.0001678421 0.1907829115
760295440.0 0.0425393033 0.1841550576 -0.0247716038 -0.5573660485 -0.0242852672 -0.5571677666 0.001947987 0.1898214632
765295410.0 0.0448094884 0.1836861543 -0.030177905 -0.5571942715 -0.0300383733 -0.5571374153 0.003659711 0.1903856811
770295380.0 0.0464422527 0.1836529567 -0.0357301648 -0.5563685806 -0.036077918 -0.5570905339 0.0054980219 0.1904839839
775295350.0 0.0484168963 0.1831312381 -0.0417190134 -0.556598895 -0.0415633234 -0.5561434327 0.007311648 0.1906738963
780295320.0 0.0501792127 0.1829879765 -0.0478047502 -0.5554099769 -0.0475654859 -0.5561280317 0.0094153239 0.1906675129
785295290.0 0.052413127 0.1823070524 -0.0536203218 -0.5552130633 -0.0539118619 -0.5553258569 0.0103687554 0.1912027038
790295260.0 0.0541091783 0.181933799 -0.0597103817 -0.5547951277 -0.059579412 -0.5547451044 0.0127304681 0.191492366
795295230.0 0.056039238 0.1814926903 -0.0655335565 -0.5539165545 -0.0657608936 -0.5543094149 0.0145031381 0.1907516956
800295200.0 0.0575880467 0.1815297339 -0.0711222771 -0.5528783401 -0.0717823222 -0.5533536034 0.016314185 0.1911019026
805295170.0 0.0596345844 0.181036721 -0.0773344515 -0.5525371187 -0.0774211897 -0.5524736705 0.018619838 0.1909642743
810295140.0 0.0616769028 0.1805286221 -0.0835886744 -0.5520298065 -0.0834488027 -0.5516354049 0.0202299177 0.1912533786
815295110.0 0.0636733836 0.180164469 -0.0892310183 -0.5508146655 -0.0890084855 -0.5507362406 0.0219636399 0.1908599749
820295080.0 0.0652965678 0.1793307398 -0.0949073624 -0.549244902 -0.0951680443 -0.5498251966 0.0233260674 0.1916514191
825295050.0 0.0670089556 0.1788479698 -0.1011250551 -0.5483929709 -0.1016508781 -0.5486837716 0.0261322531 0.1914105591
830295020.0 0.0690834374 0.1781772333 -0.1071882475 -0.5474133926 -0.1070973187 -0.5475378461 0.0274280288 0.1907918984
