!Created with skrf (http://scikit-rf.org).
# Hz S RI R 50.0 
!freq ReS11 ImS11 ReS21 ImS21 ReS12 ImS12 ReS22 ImS22
300000.0 -0.7722857057 -0.1537426918 -0.00043022 -0.000105056 0.0001251032 -0.0002679444 0.8601150931 -0.0014567036
5299970.0 -0.7852953281 -0.007688265 0.0002859949 -0.0001545322 2.96428e-05 1.84723e-05 0.8591546108 -0.0108571455
10299940.0 -0.7875161853 -0.0041845771 -7.29193e-05 -0.0001868988 -0.0001484027 0.0002556308 0.8587226241 -0.0188557968
15299910.0 -0.7935300413 -0.0013879018 7.85943e-05 -0.0001784976 4.1206e-05 -0.0001330948 0.8573870283 -0.0273790844
20299880.0 -0.799391801 0.0024364 -0.0001004378 -2.8775e-05 0.0001642063 -7.30748e-05 0.8568677977 -0.036261662
25299850.0 -0.8065008148 0.0082524736 3.37488e-05 -4.78739e-05 6.58802e-05 -1.1422e-05 0.8558459068 -0.0435348022
30299820.0 -0.811939187 0.0163229489 3.60242e-05 -8.90632e-05 -8.16552e-05 3.63128e-05 0.8549370938 -0.0520299077
35299790.0 -0.8169134975 0.0249275268 8.98417e-05 8.79791e-05 9.578e-07 1.30251e-05 0.8544688662 -0.0602696768
40299760.0 -0.8214037106 0.0341881744 8.64297e-05 -0.0001155033 -1.38753e-05 -4.86101e-05 0.8534786588 -0.0690266652
45299730.0 -0.8249417795 0.0439703418 -0.0001029031 1.4701e-05 -4.41296e-05 -0.0001210143 0.8527560288 -0.0771188861
50299700.0 -0.8266173736 0.0540840961 -1.32474e-05 0.0001395926 -1.0714e-06 -9.28815e-05 0.8518282486 -0.085345815
55299670.0 -0.8286358763 0.0641560652 3.40604e-05 1.07575e-05 -6.15639e-05 -8.95712e-05 0.8504559209 -0.093128507
60299640.0 -0.8298843611 0.0744815901 0.0001248926 -2.91525e-05 -0.0001840929 9.053e-06 0.8496187891 -0.1019722338
65299610.0 -0.8312655635 0.0845822414 -2.109e-06 0.0001670549 2.90732e-05 6.56445e-05 0.8484724832 -0.1100024859
70299580.0 -0.8311170352 0.0946920582 -0.0001468533 8.2946e-06 0.0001277571 -8.82461e-05 0.8472892029 -0.1180610651
75299550.0 -0.8312584698 0.1052054773 -3.9219e-05 1.587e-05 4.00133e-05 -9.52064e-05 0.846647242 -0.126425271
80299520.0 -0.8317579311 0.1146139125 3.5328e-06 2.46315e-05 8.52171e-05 6.11075e-05 0.8446100389 -0.134285639
85299490.0 -0.830580959 0.1244161112 0.0001467659 1.47e-06 -1.13996e-05 -0.0001122336 0.8434868798 -0.1427231472
90299460.0 -0.8293496543 0.1338649504 9.16705e-05 7.93577e-05 1.34572e-05 3.0609e-05 0.8420835724 -0.1514520344
95299430.0 -0.8288074515 0.1434739264 -8.88463e-05 -0.0002016456 -3.5433e-06 -8.88529e-05 0.8402567045 -0.1591903247
100299400.0 -0.8278208915 0.153272272 0.0003133242 0.0001202792 -1.5297e-06 -0.0001024251 0.8383292397 -0.1671436702
105299370.0 -0.8263839555 0.1620647827 0.0002297501 -0.0001620459 0.0001607324 -5.86302e-05 0.8371848444 -0.1755820321
110299340.0 -0.8253331411 0.1711640624 -0.0001125331 1.71812e-05 6.96183e-05 7.99294e-05 0.8349499147 -0.1836369349
115299310.0 -0.8236356694 0.1805758133 -2.07319e-05 2.54617e-05 0.0001325497 -5.7141e-05 0.8330014444 -0.1922582767
120299280.0 -0.8215809835 0.1897767889 9.15931e-05 0.0001085201 2.06026e-05 4.6036e-06 0.8310131212 -0.1999981628
125299250.0 -0.8202992348 0.1988072315 -0.0002133503 4.42547e-05 -9.30585e-05 0.0001077842 0.8287972742 -0.207993342
130299220.0 -0.8182664327 0.2075438212 -2.97846e-05 3.8901e-06 -3.52893e-05 9.55053e-05 0.8269086028 -0.2161863898
135299190.0 -0.8163967591 0.2166678755 -3.47111e-05 -8.75592e-05 0.0001204591 4.13223e-05 0.8251465618 -0.2244035291
140299160.0 -0.8149884424 0.2255888635 -8.91386e-05 -0.0001570258 -5.31216e-05 2.66979e-05 0.8222957972 -0.2322832032
145299130.0 -0.8125078286 0.23435219 6.54312e-05 -0.0001239313 -3.95123e-05 -0.0001053637 0.820126331 -0.240838942
150299100.0 -0.8098341358 0.2431749016 3.13446e-05 -0.0002096155 9.8362e-05 7.7113e-05 0.8175116697 -0.2488900222
155299070.0 -0.8080196283 0.2526482401 0.0001281581 -0.0001047392 -0.0001817518 0.0001045338 0.8148909015 -0.2563048552
160299040.0 -0.8049631384 0.2610895582 0.0001567208 -0.0001828112 -2.55175e-05 0.0001626028 0.8128034863 -0.2644801894
165299010.0 -0.8023323661 0.2698347704 -0.0001228708 -5.59992e-05 2.1128e-05 -0.0001132559 0.8104134139 -0.2723978177
170298980.0 -0.7994480214 0.2782547179 0.0001280179 3.44021e-05 -0.0001069185 -0.0002036045 0.8073199487 -0.2804380873
175298950.0 -0.7967571089 0.2872060375 -9.82112e-05 5.28258e-05 -2.86576e-05 0.0001140041 0.804245111 -0.2881258649
180298920.0 -0.7938292483 0.2949047659 0.0001585682 9.47603e-05 -6.51434e-05 0.0001601671 0.8015762421 -0.2960597014
185298890.0 -0.7903472678 0.3045910037 -1.1737e-05 6.09123e-05 -0.000155236 3.1607e-05 0.7989740011 -0.3042231612
190298860.0 -0.7871733234 0.312442821 -0.0003023311 1.53021e-05 -7.20196e-05 -5.11184e-05 0.7960689472 -0.3123115691
195298830.0 -0.7838403929 0.3213691139 -2.52983e-05 0.0002666256 9.6214e-06 -0.00013378 0.7929271905 -0.3189865022
200298800.0 -0.7807676596 0.3297082904 -7.40072e-05 -5.65597e-05 8.37866e-05 -3.14584e-05 0.7898983855 -0.3271194675
205298770.0 -0.7771918859 0.3375738075 0.0001661315 -3.18514e-05 7.85692e-05 5.082e-05 0.7864733862 -0.3345133386
210298740.0 -0.7739494213 0.3457663367 -6.35591e-05 -0.0002096379 -0.0002090414 3.66744e-05 0.7832982328 -0.3422010567
215298710.0 -0.770515857 0.3542421067 1.13416e-05 0.0001026963 7.8059e-05 -0.0001246979 0.7801641367 -0.350339467
220298680.0 -0.7679093267 0.3623481 -0.0001326684 -6.55953e-05 4.4352e-05 1.01271e-05 0.7764651984 -0.3572712579
225298650.0 -0.7629297367 0.3708987365 6.35172e-05 -5.17203e-05 0.0001358176 -1.08452e-05 0.7726042355 -0.364931699
230298620.0 -0.7585607127 0.3785234872 0.0001592913 0.0001782286 6.7009e-05 0.0002067185 0.7697403714 -0.3731592558
235298590.0 -0.7546621821 0.3872076854 -0.0001044906 9.90983e-05 0.0002592491 3.09903e-05 0.7662962575 -0.3798715179
240298560.0 -0.751172732 0.3956018765 -3.41622e-05 1.04983e-05 9.78496e-05 6.97527e-05 0.7621031457 -0.3877583476
245298530.0 -0.7464966594 0.4029534225 2.71133e-05 6.49916e-05 0.0001841834 0.0001493733 0.7579073761 -0.3950911602
250298500.0 -0.7423714111 0.4105162114 -2.21621e-05 -0.0001359538 9.20441e-05 -5.37162e-05 0.7542444904 -0.4023095732
255298470.0 -0.7376406574 0.4187241484 -1.30402e-05 0.0001201011 -0.0001372318 -4.46344e-05 0.7507523997 -0.4097837089
260298440.0 -0.7339342647 0.4257853717 -8.3696e-05 6.27593e-05 -0.0001018366 -9.75266e-05 0.746266152 -0.4159986503
265298410.0 -0.7291727031 0.434255122 4.4511e-06 4.31965e-05 6.4259e-06 4.99108e-05 0.7428441085 -0.4243101533
270298380.0 -0.7243862796 0.4414977617 -9.3563e-06 -3.11542e-05 0.0001241239 0.0001337514 0.7394521369 -0.4312378056
275298350.0 -0.7193535879 0.4491100318 -2.9048e-05 -5.03445e-05 8.5461e-05 -8.6206e-05 0.7346584501 -0.4374691409
280298320.0 -0.7149555528 0.4569117451 -9.55084e-05 4.09368e-05 5.33443e-05 -2.238e-06 0.7310609014 -0.4453250364
285298290.0 -0.7104613821 0.4644677955 -4.23713e-05 -6.55995e-05 -0.000202397 0.0001098026 0.7263691713 -0.4517343555
290298260.0 -0.7055125918 0.4717907723 4.45795e-05 -0.0001541579 9.531e-06 4.46282e-05 0.7218442709 -0.4587954597
295298230.0 -0.7003216044 0.4795920988 0.0001227826 -3.51739e-05 3.93428e-05 2.41184e-05 0.7181252371 -0.4659501203
300298200.0 -0.6951143905 0.4866157875 -5.52755e-05 0.0001587968 0.0001624028 -7.83527e-05 0.7134623082 -0.4729979669
305298170.0 -0.6899439782 0.4939773777 -0.0002248555 0.0001319231 0.0001059973 -0.0001159556 0.7098357497 -0.4799142636
310298140.0 -0.6841218368 0.5010513545 5.38273e-05 -8.6895e-06 -7.2567e-05 6.61967e-05 0.705467738 -0.4871798386
315298110.0 -0.6794728559 0.5084257172 1.30214e-05 1.47484e-05 5.78546e-05 0.000126058 0.7006106602 -0.4942712259
320298080.0 -0.6742024683 0.5160182304 -4.10383e-05 -0.0002184102 -9.42651e-05 0.0001389499 0.6965481247 -0.5018856794
325298050.0 -0.6685865065 0.5223123894 -0.0001259447 -0.0001313404 -0.0001021166 -5.3675e-06 0.6908719911 -0.5096229585
330298020.0 -0.6626120755 0.5294608021 5.4584e-05 -0.0001359065 -3.9866e-06 -4.9696e-06 0.6855672597 -0.5167869632
335297990.0 -0.6571032778 0.5362378583 -0.0001789973 0.0001113229 0.0001613349 -0.0001089067 0.6801417028 -0.5232479002
340297960.0 -0.6523162755 0.5429126745 -2.84887e-05 8.84825e-05 -8.90276e-05 -0.0001752735 0.6744128969 -0.5296216889
345297930.0 -0.6466912091 0.5483712995 -5.2017e-05 3.87833e-05 -1.05232e-05 2.31909e-05 0.6688112824 -0.5355389758
350297900.0 -0.6407523245 0.5560500485 9.60568e-05 0.0001109333 -0.000124506 -0.0001243951 0.6629307951 -0.5415899678
355297870.0 -0.6341686537 0.562991063 1.40274e-05 7.86288e-05 -0.0002601114 7.47977e-05 0.6570730477 -0.5478185992
360297840.0 -0.6278236445 0.5688108019 0.000150477 0.0002820214 -2.37328e-05 3.74077e-05 0.6523566186 -0.5539284318
365297810.0 -0.6222864084 0.5758123255 -8.55063e-05 -0.0001041085 0.0001885077 0.0001401358 0.6465132841 -0.5601508319
370297780.0 -0.6158262789 0.5818746308 0.0002216372 2.28474e-05 0.0001179189 0.0001058239 0.6411912893 -0.5660479372
375297750.0 -0.6103364745 0.5884144308 0.000166169 5.49997e-05 0.0001018483 0.0001697379 0.6352213118 -0.5718185912
380297720.0 -0.6037543922 0.5947721961 4.35685e-05 4.94076e-05 -0.0001870571 1.448e-07 0.6300005181 -0.578004251
385297690.0 -0.5974142837 0.6010747298 7.16934e-05 -9.55032e-05 2.66454e-05 3.45127e-05 0.6239641308 -0.5832552628
390297660.0 -0.5917206087 0.6073909687 0.0001498953 9.2408e-06 -0.0001155489 -0.0001536529 0.6189240677 -0.5893334943
395297630.0 -0.5853955887 0.6129533563 0.0002460859 9.25645e-05 3.44818e-05 -3.87204e-05 0.6126062316 -0.595154177
400297600.0 -0.5788261261 0.6188794441 -1.96249e-05 5.23468e-05 8.00764e-05 0.0001287533 0.6065707152 -0.6007126747
405297570.0 -0.5730760321 0.6250949213 -8.95976e-05 0.0001628557 -9.54357e-05 0.0002474911 0.600967933 -0.606882609
410297540.0 -0.5654814951 0.6309424452 5.74007e-05 -5.4365e-05 -2.0318e-06 6.65695e-05 0.5952394813 -0.6124841571
415297510.0 -0.5594585445 0.6363735044 -7.18774e-05 8.32352e-05 -5.0761e-06 -2.538e-07 0.5889613042 -0.6179247327
420297480.0 -0.5517875593 0.6422113397 -3.36624e-05 0.0001667947 -0.0001522818 -1.84045e-05 0.5825816309 -0.6239830011
425297450.0 -0.5454567479 0.6482686208 0.0001015672 -4.56658e-05 -4.82503e-05 1.19648e-05 0.5767022839 -0.6292503481
430297420.0 -0.5396579249 0.6529688792 7.30812e-05 8.28987e-05 -2.09176e-05 6.37298e-05 0.5706535321 -0.6346829332
435297390.0 -0.5319519422 0.659207596 0.0001488315 2.29854e-05 9.21604e-05 7.33211e-05 0.5645507361 -0.6394968269
440297360.0 -0.5248514296 0.664387311 6.2806e-06 -3.75e-07 1.53435e-05 0.0001849385 0.5577768843 -0.6452409316
445297330.0 -0.5183320067 0.6701198898 5.47702e-05 4.86881e-05 0.0001152683 0.0001131315 0.5518316773 -0.6510326257
450297300.0 -0.5115206323 0.6744377161 8.90781e-05 7.47392e-05 6.68176e-05 -5.03355e-05 0.5446438774 -0.6564455163
455297270.0 -0.5045192892 0.6804677574 -5.61462e-05 -9.16687e-05 8.92194e-05 5.96609e-05 0.5385783416 -0.6618396891
460297240.0 -0.4974127133 0.6857562049 0.0001475593 9.43264e-05 1.26489e-05 6.79056e-05 0.5328437776 -0.6666339229
465297210.0 -0.489739952 0.6908244037 4.3902e-05 -0.0001221086 -2.8073e-05 0.0001107902 0.5254209875 -0.6720236562
470297180.0 -0.4828941547 0.6943726465 -5.55544e-05 0.0001276053 -3.83862e-05 2.52096e-05 0.5182101479 -0.6771961611
475297150.0 -0.4757395705 0.7004075225 7.068e-07 3.3957e-06 0.0002665282 -4.80949e-05 0.5124147489 -0.6819825495
480297120.0 -0.4687724045 0.7046970243 -4.21524e-05 0.0001879445 3.8137e-06 -3.25931e-05 0.5055972555 -0.6864208509
485297090.0 -0.4613381175 0.7090956218 -8.86522e-05 0.0001080699 0.0001946786 -3.16988e-05 0.4984879871 -0.6915379112
490297060.0 -0.4542186141 0.7137737405 -0.0001431627 -2.53191e-05 -0.0001376167 0.0001726346 0.4920920639 -0.696744864
495297030.0 -0.4468422826 0.7188665715 1.49e-05 -0.0001152949 9.2695e-05 0.0001256398 0.4851473735 -0.7014227833
500297000.0 -0.4383560894 0.7233681099 5.64357e-05 3.3525e-06 0.0002065516 0.0001640021 0.4772573101 -0.7060077492
505296970.0 -0.431306097 0.7273228955 -0.0002821366 -2.98022e-05 -8.0924e-06 -7.52648e-05 0.4705447394 -0.7101346905
510296940.0 -0.4239827125 0.7318366953 5.72057e-05 -5.96963e-05 0.0001266413 0.0001983012 0.4637382048 -0.7144159653
515296910.0 -0.4169391886 0.7364626062 0.0001341509 -5.3212e-06 0.0001589529 -2.77184e-05 0.4561262565 -0.7188418869
520296880.0 -0.4089741476 0.7407363832 5.49271e-05 -5.43147e-05 4.60614e-05 -0.0001511264 0.449438618 -0.7241660404
525296850.0 -0.4018238179 0.7444744679 9.38455e-05 7.3754e-05 0.0001367403 4.84536e-05 0.4421399786 -0.7278808985
530296820.0 -0.39402668 0.7481926024 -0.0001515235 3.43553e-05 3.5588e-06 9.54426e-05 0.4343228626 -0.7324322679
535296790.0 -0.386293637 0.7522425777 -0.0002164422 2.4356e-06 1.9434e-05 3.36893e-05 0.4273469769 -0.7370227121
540296760.0 -0.3788380037 0.7558761304 0.0001007393 -0.000187675 3.08167e-05 -8.93319e-05 0.4194795862 -0.7403681678
545296730.0 -0.3710386441 0.7599658244 -0.0001511191 -0.0001167886 -2.61121e-05 -2.68885e-05 0.4126472498 -0.7456080758
550296700.0 -0.363408396 0.7641946842 7.92818e-05 -1.83457e-05 -7.97558e-05 6.81969e-05 0.4052173502 -0.7497436842
555296670.0 -0.3543826291 0.7672222326 2.7262e-06 6.80484e-05 -2.06919e-05 -7.62664e-05 0.3976322811 -0.7529394077
560296640.0 -0.3477937291 0.7707701137 4.8396e-05 -0.0001075187 -0.0001248515 5.67362e-05 0.3900057961 -0.7565124692
565296610.0 -0.3397268255 0.774065857 -2.16606e-05 -6.5065e-05 0.0001128743 0.0001347901 0.382517103 -0.7606296072
570296580.0 -0.3318804485 0.777546386 0.000164668 7.91957e-05 -1.07793e-05 5.5343e-06 0.3744315425 -0.7634519754
575296550.0 -0.3236352841 0.7812398471 -5.50014e-05 2.67976e-05 -5.77714e-05 -9.11995e-05 0.3669382684 -0.7673821457
580296520.0 -0.3158941227 0.7836422462 1.77374e-05 1.36868e-05 3.69146e-05 -7.84203e-05 0.3589259902 -0.7711160087
585296490.0 -0.3073238141 0.7868365955 0.000256807 -1.98942e-05 -7.37198e-05 4.23867e-05 0.3516796348 -0.7752430173
590296460.0 -0.2994359286 0.7894155636 -0.0001298156 0.0001057978 9.80245e-05 -0.000153673 0.3439529435 -0.7773226889
595296430.0 -0.2918088809 0.7934094215 0.0001377037 0.0001906099 5.01902e-05 0.0002062481 0.3357694203 -0.7809045088
600296400.0 -0.2835385825 0.7956927291 6.4882e-05 0.0001644102 -2.44404e-05 -0.0001019068 0.3285706138 -0.7841264046
605296370.0 -0.2751169327 0.7989157675 -0.0001784128 0.0002202387 0.0001567682 1.35528e-05 0.3201255712 -0.7876593701
610296340.0 -0.2672760446 0.8018143114 7.47832e-05 -7.30582e-05 -4.38117e-05 -7.45691e-05 0.3122177593 -0.7896640565
615296310.0 -0.2590848876 0.8046514297 6.29582e-05 0.0001429309 0.0001189574 -0.0001104154 0.3047273889 -0.7938282504
620296280.0 -0.2508434285 0.8059949159 6.21518e-05 4.09808e-05 0.0001242568 4.17425e-05 0.2967393489 -0.7966490399
625296250.0 -0.2422385578 0.809076232 -0.0001196815 3.41933e-05 0.000179719 -7.08854e-05 0.2881792725 -0.7984592311
630296220.0 -0.2340763056 0.811557855 -0.0001625202 -2.27179e-05 -3.57057e-05 -1.20756e-05 0.2801020849 -0.8010568066
635296190.0 -0.2262183211 0.8141559476 -6.852e-07 0.0001688814 4.2247e-05 0.0002438482 0.2727535541 -0.8038047027
640296160.0 -0.2176775845 0.8152797238 -0.0001339949 0.0001250056 -4.29167e-05 0.0001272133 0.2641050812 -0.8066197425
645296130.0 -0.2100485244 0.8180907002 -8.44516e-05 8.1953e-06 0.0002722138 2.64443e-05 0.2556092048 -0.8092682581
650296100.0 -0.2015173853 0.8204242904 -0.0002136803 -5.52978e-05 -2.88931e-05 -9.39752e-05 0.2478865492 -0.8110757282
655296070.0 -0.1930115267 0.8217376756 -1.09237e-05 -0.00010934 -0.0001956515 0.0001113332 0.239455786 -0.8131593523
660296040.0 -0.1853205285 0.8243151893 3.04577e-05 7.68523e-05 0.0001377887 0.0001819006 0.2317375265 -0.8154979461
665296010.0 -0.1765767968 0.8257524661 -0.0003439098 0.0001148152 2.34476e-05 0.0002129626 0.2238424358 -0.8177545225
670295980.0 -0.1678108265 0.8274439939 2.21726e-05 2.01325e-05 -0.0002836776 9.00923e-05 0.215798927 -0.8194405147
675295950.0 -0.1596829109 0.8286094442 -2.41792e-05 -5.7226e-06 -1.17951e-05 2.92173e-05 0.2076359752 -0.8214097349
680295920.0 -0.1513638879 0.8309296695 -0.0001067666 -2.35654e-05 0.0002700887 6.20601e-05 0.1990500605 -0.8238745391
685295890.0 -0.1430202972 0.83215626 -0.0002389889 2.9996e-05 -0.0001376477 0.0001129974 0.1910323634 -0.8256345933
690295860.0 -0.1342031192 0.834009848 0.0001340146 -7.80291e-05 -6.36032e-05 3.8414e-05 0.1833961741 -0.8267766376
695295830.0 -0.1262169716 0.8344921592 -9.3898e-06 -0.0002488346 -8.07263e-05 -9.47424e-05 0.1740922492 -0.8289697553
700295800.0 -0.1177708644 0.8357330929 -0.0001733647 1.95973e-05 0.0001372318 -0.0002026724 0.16573146 -0.8303699652
705295770.0 -0.1087824406 0.8376851774 0.0001891553 5.25198e-05 0.0001525667 -0.0002113057 0.1574389899 -0.8311640932
710295740.0 -0.1013718033 0.8382840777 -0.0001153869 2.30544e-05 -0.0001589757 -8.79627e-05 0.1490900039 -0.8323472441
715295710.0 -0.0932332893 0.8392825098 -9.36988e-05 5.5912e-06 -1.04311e-05 -0.0001570691 0.1411141905 -0.8341432264
720295680.0 -0.0842610164 0.8398118912 -1.36072e-05 0.0003066995 8.73645e-05 0.0002812111 0.1325183276 -0.8352071761
725295650.0 -0.0749250945 0.8411590128 1.91267e-05 5.88686e-05 6.387e-06 -0.0001848448 0.1248860605 -0.8360767617
730295620.0 -0.0674949995 0.841374849 -1.2753e-05 -0.0001381824 -2.04362e-05 -9.68545e-05 0.1162358367 -0.8379255577
735295590.0 -0.0579831247 0.8417475352 0.0001640411 -9.51984e-05 9.2906e-06 2.69882e-05 0.1074923484 -0.8386339859
740295560.0 -0.0501587936 0.8428018661 -7.34717e-05 4.93794e-05 0.000114546 9.27145e-05 0.0993381729 -0.8400473263
745295530.0 -0.0412811362 0.8428599419 0.0001062269 -2.81214e-05 -0.0001561531 -6.04868e-05 0.0906268147 -0.8403918046
750295500.0 -0.033865682 0.8430187637 1.11559e-05 0.0001739462 -7.09439e-05 2.86526e-05 0.0828902508 -0.8415171735
755295470.0 -0.0240420324 0.8437363819 -0.000137535 3.63336e-05 2.88375e-05 0.0001464069 0.0734671168 -0.8409855913
760295440.0 -0.016093788 0.8435498359 -5.02887e-05 4.14611e-05 -9.28404e-05 6.65853e-05 0.0650987035 -0.8425982877
765295410.0 -0.0078721005 0.8438132301 -0.0001164362 -0.0001470438 -7.57319e-05 -0.0002203256 0.0573186367 -0.8422045469
770295380.0 0.0004693955 0.8441031869 1.8524e-06 -4.17987e-05 0.0002122218 -0.0001459927 0.0492874482 -0.8429271536
775295350.0 0.0089952488 0.8438873841 -8.0685e-06 -3.44932e-05 0.0001732679 0.0002649101 0.0402743186 -0.8446675078
780295320.0 0.0176510472 0.8432847394 -8.59245e-05 -1.39713e-05 0.0001157674 2.10687e-05 0.031687791 -0.8432527324
785295290.0 0.0259692813 0.8439346998 -3.83711e-05 8.43369e-05 -9.2539e-05 -1.368e-06 0.0234902357 -0.8435828405
790295260.0 0.0343748606 0.8428653716 0.0001058754 1.25432e-05 -0.0002947089 0.0001118082 0.0152366688 -0.8437492391
795295230.0 0.0427264912 0.8436351605 7.95132e-05 3.75636e-05 -4.78976e-05 0.0001795637 0.0065163892 -0.8439879859
800295200.0 0.0518494862 0.8426399166 3.4705e-06 -0.0002694196 -4.15658e-05 -7.05493e-05 -0.0015682002 -0.8440874828
805295170.0 0.0593951939 0.8419081359 2.04855e-05 5.6389e-06 -8.58012e-05 0.0002167522 -0.0106009363 -0.8431375303
810295140.0 0.0679792392 0.8412028956 0.0001868494 2.81189e-05 -9.95302e-05 0.0002454534 -0.0184728277 -0.8430310452
815295110.0 0.0768892387 0.8404097508 8.60613e-05 5.04037e-05 -7.08171e-05 4.8542e-05 -0.0276088647 -0.8424710178
820295080.0 0.0852315424 0.8387352967 -0.0001717716 -3.47345e-05 0.0001039332 -2.1713e-05 -0.0357335365 -0.8423916856
825295050.0 0.0937478697 0.8389469533 8.64646e-05 1.01517e-05 -0.0002055802 8.20486e-05 -0.0437876164 -0.8416012586
830295020.0 0.1019367371 0.8379155575 4.28264e-05 -3.16716e-05 0.0001372617 0.000174289 -0.0526912204 -0.8415642192
835294990.0 0.1099410165 0.8366141033 -8.48718e-05 3.66204e-05 2.26772e-05 4.21515e-05 -0.0608902184 -0.8410806848
840294960.0 0.1186451093 0.8358330581 -3.80143e-05 -9.54028e-05 4.40816e-05 9.91756e-05 -0.0699956765 -0.839348161
845294930.0 0.1269750593 0.8347041537 -7.91888e-05 -9.23335e-05 -0.0001190282 0.0001416991 -0.077415789 -0.8389927394
850294900.0 0.135413655 0.8329121554 -0.0001875788 8.88128e-05 2.21746e-05 3.96968e-05 -0.0859899407 -0.8378263614
