!Created with skrf (http://scikit-rf.org).
# Hz S RI R 50.0 
!freq ReS11 ImS11 ReS21 ImS21 ReS12 ImS12 ReS22 ImS22
300000.0 -0.098768566 -0.0851821076 0.6249884144 0.0789012551 0.6259235328 0.0827746047 -0.0972233494 -0.0912992249
5299970.0 -0.1003631688 0.0128023917 0.6307533331 0.0104936668 0.6308361079 0.0110285268 -0.1021770333 0.0117764303
10299940.0 -0.0951901483 0.0298211618 0.6341716523 0.0155663373 0.6342819657 0.015849532 -0.0972068753 0.0290542458
15299910.0 -0.0884459954 0.0432932358 0.6404122349 0.0205810918 0.6402301151 0.020816752 -0.0899282863 0.0419064915
20299880.0 -0.0792777801 0.0544300687 0.6486337354 0.0241055458 0.6485646822 0.0242476797 -0.0816714824 0.0531689911
25299850.0 -0.0696005671 0.0628505103 0.6583885874 0.0247929544 0.6579035411 0.0252807206 -0.0723939712 0.0619252765
30299820.0 -0.059666133 0.0691132998 0.6680131355 0.0243790264 0.6673615433 0.0245590832 -0.062429117 0.0688939422
35299790.0 -0.0493941784 0.0742514375 0.6774660863 0.0209376033 0.6773295404 0.0216513583 -0.0525017689 0.0735495748
40299760.0 -0.0396632398 0.0771438919 0.6868237948 0.0176948036 0.6863337881 0.0176358104 -0.0434036895 0.0768740002
45299730.0 -0.0303634819 0.0795097855 0.6954932768 0.0115040365 0.6957973733 0.0119915096 -0.0339474178 0.0791181776
50299700.0 -0.0215500375 0.0796128534 0.703177557 0.0047722525 0.7038313689 0.0048755978 -0.0254705746 0.0800869454
55299670.0 -0.0141151997 0.0798370804 0.7103491044 -0.0027592731 0.7112592332 -0.0032286528 -0.0175268614 0.0800081027
60299640.0 -0.0066971842 0.0789118986 0.7172569768 -0.0117843594 0.717166023 -0.0114756546 -0.0103188282 0.0796632764
65299610.0 -0.0004867949 0.0781146956 0.7235380303 -0.019673043 0.7238450311 -0.0198753137 -0.003667419 0.0787057334
70299580.0 0.0061157987 0.075736611 0.7285966977 -0.0290224492 0.7282489842 -0.029088878 0.0025458331 0.0771498831
75299550.0 0.0118000914 0.0741546093 0.7328572955 -0.0386166494 0.7331387665 -0.0389733109 0.0081676625 0.0754752991
80299520.0 0.0159426586 0.0721383081 0.7373578571 -0.0492104877 0.7376503955 -0.0488594726 0.0132595416 0.0729678074
85299490.0 0.0208339743 0.0695810918 0.7408086478 -0.0588633386 0.7402836321 -0.059211863 0.0175703884 0.070976393
90299460.0 0.0245850627 0.067282957 0.7431662915 -0.0690273628 0.7436955382 -0.0686968179 0.0220614981 0.0687370171
95299430.0 0.0280222 0.0650880582 0.7460102792 -0.0793076349 0.7459715328 -0.0792241148 0.0251884886 0.0661956344
100299400.0 0.0312835799 0.0627227277 0.7472945119 -0.0892020477 0.7474761513 -0.0895489407 0.0285085832 0.0640045702
105299370.0 0.0346778844 0.0601570285 0.7487351036 -0.0987528816 0.7488840324 -0.099797127 0.0322803474 0.0618150984
110299340.0 0.0371087568 0.0577083839 0.7499256363 -0.1091473852 0.7499484102 -0.1097329229 0.0347113077 0.0591154996
115299310.0 0.039807827 0.0549355322 0.7508588537 -0.1188113002 0.751116775 -0.119181619 0.0373757023 0.0561103863
120299280.0 0.04135266 0.0524469295 0.7516669134 -0.1294075788 0.7514836345 -0.1296194065 0.0388960521 0.054381609
125299250.0 0.0432146335 0.0503087371 0.7514508189 -0.1395315475 0.7519788123 -0.1394249946 0.0411878003 0.0511006565
130299220.0 0.045275756 0.0478456108 0.7517033108 -0.1490625368 0.7512971913 -0.149350342 0.0435300846 0.049529969
135299190.0 0.0468660886 0.0453512883 0.750998619 -0.1588883033 0.7511271544 -0.1588665143 0.0445083334 0.0472030709
140299160.0 0.0478023998 0.0441643114 0.7507188285 -0.1689009369 0.7509481499 -0.1688470924 0.0461658499 0.0453498602
145299130.0 0.0491932704 0.0417937781 0.750249896 -0.1791282055 0.7499950888 -0.1784238991 0.0473310827 0.0429101405
150299100.0 0.0507304776 0.0397916916 0.7493944487 -0.188370309 0.7490599131 -0.1881314733 0.048634077 0.0406856016
155299070.0 0.0513125941 0.0384168241 0.7476557606 -0.1982982201 0.7477247204 -0.1983153494 0.0494515611 0.0388503595
160299040.0 0.0523426999 0.035888193 0.7458944872 -0.2070685592 0.7462691423 -0.2071232764 0.0508265183 0.0373459694
165299010.0 0.0528309211 0.0342290734 0.7451017769 -0.2165030231 0.7449891415 -0.2169405796 0.0514460989 0.0348650217
170298980.0 0.0535357263 0.0325111312 0.7420433679 -0.2261657337 0.7425858414 -0.2263231814 0.0528465362 0.0328634256
175298950.0 0.0544849462 0.0304909659 0.7410134451 -0.2352083754 0.7412053574 -0.2354191565 0.0528727277 0.031199135
180298920.0 0.0550660437 0.0291693772 0.7393571769 -0.2449794326 0.7389768527 -0.2445814156 0.053739181 0.0300690141
185298890.0 0.0559995953 0.027477576 0.7368244667 -0.2543143897 0.7366626817 -0.2537584909 0.0543686018 0.0274859499
190298860.0 0.0564049115 0.0258818284 0.7344148429 -0.2630521702 0.7344853528 -0.263079157 0.0556124325 0.0263282192
195298830.0 0.0563374565 0.0239196056 0.7317715804 -0.2716870551 0.7323383267 -0.2724011276 0.0559300838 0.024046826
200298800.0 0.0568305645 0.0226553256 0.7294956905 -0.2803451014 0.7290134385 -0.280317879 0.0561803396 0.0229636229
205298770.0 0.057248855 0.0214055927 0.7266923733 -0.2896974786 0.7268288693 -0.2897259319 0.056542584 0.0207908855
210298740.0 0.0571107543 0.0198768146 0.7237388815 -0.2986892502 0.7234308906 -0.2987706483 0.0565423136 0.0200052302
215298710.0 0.0578917301 0.0187329862 0.7208575323 -0.3071631331 0.720451864 -0.3072207035 0.0568618826 0.0184901302
220298680.0 0.058248509 0.0172038455 0.7172393392 -0.3163636066 0.7174765044 -0.3153622317 0.0571238117 0.0173184954
225298650.0 0.0585730045 0.0159784947 0.7135779848 -0.3241663461 0.7138861729 -0.3240780793 0.057517226 0.0156854298
230298620.0 0.0581736404 0.0146640778 0.7113557698 -0.3327892038 0.7108024634 -0.332955785 0.0575773507 0.0142836891
235298590.0 0.0584124483 0.0132119924 0.7073774447 -0.3415181309 0.7075441323 -0.3419580153 0.0578896082 0.0125985339
240298560.0 0.0583509258 0.0121274557 0.7041790248 -0.3493113784 0.7039107172 -0.3492685802 0.0580227692 0.0118980767
245298530.0 0.0588955364 0.0110320462 0.6989961684 -0.357915536 0.6996948039 -0.3581485244 0.0579942253 0.0108678844
250298500.0 0.058264101 0.0096934428 0.6959764815 -0.3656764725 0.6961538411 -0.3658414745 0.0589020857 0.0089383095
255298470.0 0.0583148292 0.0089247964 0.6918675052 -0.3745830206 0.691994603 -0.3740325081 0.0586256184 0.007398233
260298440.0 0.0581020507 0.0077606736 0.6878577036 -0.3820938057 0.6885390388 -0.3827827315 0.059347198 0.006584026
265298410.0 0.058876988 0.0070594066 0.6836140993 -0.3906998181 0.6836720689 -0.390752222 0.0587001718 0.0055529853
270298380.0 0.059418482 0.0056263119 0.6796478309 -0.3984430756 0.6799509024 -0.3986901932 0.0586086249 0.0050439604
275298350.0 0.0584038462 0.0047450165 0.6757211667 -0.4072177592 0.6760052783 -0.406504087 0.0589273624 0.0037961851
280298320.0 0.0586219905 0.0039292275 0.6711902647 -0.4134961448 0.6710421268 -0.4144824738 0.0592122307 0.0026511944
285298290.0 0.0588805659 0.0029276585 0.6665468384 -0.4220818095 0.6662935826 -0.4224194384 0.0584305212 0.0016486218
290298260.0 0.0586176482 0.0018560011 0.6623804379 -0.4294875737 0.662024684 -0.4298828486 0.0596099259 0.0002793331
295298230.0 0.0587877947 0.000655851 0.6575700247 -0.4375680375 0.6572168094 -0.4378058718 0.0595352133 -0.0004709364
300298200.0 0.0592038761 -0.0003105334 0.6531327349 -0.4454803945 0.6530089252 -0.4452263718 0.0589467075 -0.0015798608
305298170.0 0.0588204301 -0.0014814047 0.6481670902 -0.4535531117 0.6487631599 -0.4533332943 0.0596201681 -0.0023968273
310298140.0 0.0595617436 -0.0023011592 0.6437740839 -0.4605956685 0.6434282475 -0.4614240609 0.0597560255 -0.0029769448
315298110.0 0.0589398421 -0.0035909979 0.6381453007 -0.468730738 0.6383952779 -0.4681983019 0.0600340286 -0.0047119502
320298080.0 0.0586741032 -0.0046187911 0.6327977121 -0.4757613896 0.6333299674 -0.4758653196 0.0593748601 -0.0059251444
325298050.0 0.0581547511 -0.0057679048 0.6283218904 -0.4832485008 0.6281796561 -0.4837583252 0.0589401349 -0.0070101808
330298020.0 0.0579311291 -0.0066035277 0.6211918028 -0.4906463529 0.6217591102 -0.490975725 0.058247285 -0.0084271218
335297990.0 0.057543477 -0.0077211952 0.6160249343 -0.4981093507 0.6165317888 -0.4981615453 0.058150295 -0.0090837425
340297960.0 0.0566255328 -0.0081308155 0.6103779847 -0.5048361619 0.6106994571 -0.504829584 0.0574036978 -0.0096445389
345297930.0 0.0560887383 -0.0085685325 0.6050963834 -0.510846316 0.6044416855 -0.5111838852 0.0574935855 -0.0109868016
350297900.0 0.0563695601 -0.0094581721 0.5984141914 -0.5178037098 0.5993244547 -0.5179948812 0.0566313261 -0.0107844253
355297870.0 0.0559785905 -0.0104804818 0.5925672045 -0.5245536024 0.593143387 -0.525114654 0.0562299313 -0.0115310356
360297840.0 0.0558959967 -0.0109637014 0.5874321229 -0.531927336 0.5872924491 -0.5316822329 0.0561781937 -0.0120067625
365297810.0 0.0558802049 -0.011583558 0.5813992215 -0.5378690336 0.5812193889 -0.5383396632 0.0558373693 -0.0126068296
370297780.0 0.0556242329 -0.0124960083 0.5751378094 -0.5445524266 0.5757052142 -0.5449657485 0.0559161192 -0.0130129807
375297750.0 0.0548612327 -0.0124623883 0.570283201 -0.5511222766 0.5691464163 -0.5512630777 0.0556532435 -0.013703696
380297720.0 0.054692672 -0.013836874 0.5631782857 -0.5566198451 0.5630652984 -0.557041996 0.0551789832 -0.0145952845
385297690.0 0.0548696882 -0.0140032475 0.5572898108 -0.5628781834 0.5572071453 -0.5636493071 0.0548886656 -0.0150829086
390297660.0 0.0539791047 -0.0150234473 0.5503821988 -0.5699394548 0.5507431127 -0.5704666916 0.0548830414 -0.016145442
395297630.0 0.054520544 -0.0157697075 0.5452437872 -0.5759417624 0.5449391301 -0.575923823 0.0542286184 -0.0161689493
400297600.0 0.053631555 -0.016163603 0.5383701205 -0.5819661114 0.5388158569 -0.5825592302 0.0534398156 -0.0170790113
405297570.0 0.0537165826 -0.0164264078 0.5318704948 -0.5879532539 0.5322548947 -0.5881771649 0.0535556641 -0.0170401477
410297540.0 0.0537088631 -0.0176957247 0.5248853555 -0.5935916877 0.5251983303 -0.5943696231 0.0532949458 -0.0180123718
415297510.0 0.0531507923 -0.0173419999 0.5189680286 -0.5993879173 0.5187716091 -0.5998895076 0.0528225103 -0.0182309869
420297480.0 0.0527175534 -0.0190455911 0.5118975601 -0.6056723249 0.5122438369 -0.6057361509 0.0528082548 -0.0192321221
425297450.0 0.0532943333 -0.0198207149 0.5058025305 -0.6113155628 0.5058199344 -0.6112897337 0.0520592498 -0.0189686458
430297420.0 0.0523011729 -0.019726637 0.4989117978 -0.6172735802 0.4989188343 -0.6172086797 0.0516565215 -0.0204855916
435297390.0 0.0522512322 -0.0207372184 0.492360341 -0.6220316482 0.4920655012 -0.6217157529 0.0511306497 -0.0204156202
440297360.0 0.0520539955 -0.0215728069 0.4845102229 -0.6281836078 0.4842939794 -0.6283095295 0.0511393424 -0.0216066558
445297330.0 0.0521973799 -0.022172884 0.4782946291 -0.6336950412 0.4780864984 -0.6328931145 0.0505526596 -0.0221310088
450297300.0 0.0515873662 -0.0226387808 0.4708683912 -0.6385098857 0.4712806361 -0.6386557246 0.0501778913 -0.0220860408
455297270.0 0.0509363418 -0.0234297113 0.4640985081 -0.6437004909 0.4647401107 -0.6435024429 0.0502450392 -0.0227912013
460297240.0 0.0505746139 -0.0237619834 0.4570814865 -0.6483809892 0.4567514729 -0.6487966077 0.0496393812 -0.0224738633
465297210.0 0.0506706168 -0.0249193159 0.4503335077 -0.6538490881 0.4503635386 -0.6539342269 0.0488057002 -0.0238815794
470297180.0 0.049667102 -0.02537157 0.4429371204 -0.6584516787 0.443505465 -0.6588455709 0.0478499693 -0.0243665424
475297150.0 0.0491201644 -0.0264541848 0.4351592426 -0.6629007538 0.4355880011 -0.6633503208 0.0481662159 -0.0245069734
480297120.0 0.0497861899 -0.0268541604 0.4283926947 -0.6683227446 0.4289164425 -0.6680733558 0.0476763052 -0.0248451867
485297090.0 0.0493835911 -0.0273935631 0.4209788076 -0.6732267383 0.4208162357 -0.673283061 0.0469236399 -0.0256872028
490297060.0 0.0491620129 -0.0280812719 0.41356569 -0.6782330574 0.4135178027 -0.6776824193 0.0472352431 -0.0259162134
495297030.0 0.0479653808 -0.0281367092 0.4060743774 -0.6823117787 0.4055902059 -0.6822045804 0.0467335762 -0.0265802945
500297000.0 0.0475711153 -0.0293955268 0.398659035 -0.6867530475 0.3984035406 -0.6870973426 0.0454632912 -0.0272260383
505296970.0 0.0472357884 -0.0295922402 0.3905177515 -0.6903834597 0.3903495716 -0.6912074705 0.0448609425 -0.0272281868
510296940.0 0.0468532927 -0.0299973919 0.3828440364 -0.6953853929 0.3829206953 -0.6957516946 0.0448422848 -0.0273058929
515296910.0 0.0460389788 -0.0303965835 0.3748756376 -0.6995163456 0.3756470869 -0.6995971962 0.0440357387 -0.0279526105
520296880.0 0.0459197286 -0.0313203591 0.3680903468 -0.7032335428 0.3680616232 -0.7034487961 0.044322329 -0.0284062057
525296850.0 0.0451590971 -0.0323066385 0.3604333257 -0.7076627321 0.3600143918 -0.7082558194 0.043608042 -0.0288535087
530296820.0 0.0451648443 -0.0323769638 0.3526567529 -0.7106914112 0.3523898821 -0.7117935908 0.0426412337 -0.0299629663
535296790.0 0.0442781122 -0.0330602388 0.3443897645 -0.7147828387 0.344836371 -0.7148378816 0.0425974988 -0.0299989773
540296760.0 0.0438591584 -0.0339582698 0.3371374837 -0.7197833216 0.3364009798 -0.7195715344 0.041348082 -0.0302381516
545296730.0 0.0435112386 -0.0335978284 0.3292826614 -0.7222259576 0.3286906333 -0.7232897649 0.0409921339 -0.0310157535
550296700.0 0.0424385557 -0.0346294561 0.321566867 -0.7265094898 0.3215301823 -0.7266892176 0.0404316802 -0.0303474216
555296670.0 0.0424831563 -0.035065762 0.3131533348 -0.7300826873 0.3130918141 -0.7301507395 0.0400077336 -0.0313652613
560296640.0 0.0418286576 -0.0356478734 0.3054275461 -0.7330849657 0.3055256245 -0.733027708 0.0395811777 -0.0317946553
565296610.0 0.0406113185 -0.0363711375 0.2971537483 -0.7367821417 0.2966247037 -0.7365266055 0.0389456885 -0.0324994384
570296580.0 0.0409774816 -0.0368097212 0.288636829 -0.7394645665 0.2890475644 -0.7402310171 0.0387842699 -0.0318100175
575296550.0 0.0402274693 -0.0363279815 0.2812585455 -0.7426941205 0.2809692297 -0.7426324681 0.0384981981 -0.0328685916
580296520.0 0.0394189073 -0.0371365271 0.2732751904 -0.7457299566 0.2724015047 -0.7463321266 0.0372719465 -0.0332024798
585296490.0 0.0390920088 -0.0378144862 0.2649667847 -0.749023342 0.264509975 -0.7488229231 0.0365936185 -0.0339273645
590296460.0 0.0380356683 -0.0386584254 0.2565174541 -0.7522688894 0.2562116085 -0.7518026008 0.0363959878 -0.0335101284
595296430.0 0.037371135 -0.0385495678 0.2484561473 -0.7547118177 0.2479795666 -0.7550093836 0.0363902222 -0.034183024
600296400.0 0.0370969511 -0.038749469 0.2397666167 -0.7569896898 0.2402550873 -0.7570344982 0.035531891 -0.0345047301
605296370.0 0.0367092713 -0.0386602987 0.2316467905 -0.7598832101 0.2314918658 -0.7595758516 0.0347182255 -0.0353318018
610296340.0 0.0358531726 -0.0394014893 0.2240766204 -0.7620605289 0.2237398064 -0.7623428122 0.034286769 -0.034356855
615296310.0 0.0352956143 -0.0395872234 0.215101079 -0.764582452 0.2149988388 -0.764349674 0.033792672 -0.0351068046
620296280.0 0.0346120683 -0.0399430777 0.2069655669 -0.7666970465 0.2069510022 -0.7664624385 0.0333462598 -0.0356493636
625296250.0 0.0345645028 -0.0404375295 0.1980809871 -0.7696113929 0.1978918346 -0.769564609 0.0327744613 -0.035458096
630296220.0 0.0334728178 -0.0406445285 0.1894107156 -0.7712569181 0.1896040005 -0.7712246957 0.0316961683 -0.0359550675
635296190.0 0.0331213327 -0.0409490516 0.1816524662 -0.7726489503 0.1810200486 -0.7730279505 0.0314750554 -0.036631718
640296160.0 0.0322244067 -0.0411159684 0.1733174908 -0.775535055 0.173191664 -0.7753909195 0.0314215345 -0.0367020802
645296130.0 0.0318271418 -0.041447096 0.1640533942 -0.7771694904 0.16445165 -0.7765728711 0.0295910195 -0.0374399175
650296100.0 0.0309529296 -0.0410234186 0.1564429398 -0.7779698791 0.1566524399 -0.778507895 0.0294393561 -0.0372521008
655296070.0 0.0303173764 -0.0421539714 0.1472852365 -0.780137714 0.1474948209 -0.7804167788 0.0300528191 -0.0369419761
660296040.0 0.0290461555 -0.0417600901 0.1392268503 -0.7818455178 0.1390574441 -0.7814819831 0.0282785132 -0.0379170899
665296010.0 0.0291474164 -0.0424103308 0.1307999114 -0.7834316188 0.1312663514 -0.7831493668 0.0273843605 -0.0374262425
670295980.0 0.02909237 -0.0422437564 0.1220830721 -0.7849053452 0.1223364482 -0.7846651754 0.026582601 -0.0383074865
675295950.0 0.0282358044 -0.0425007879 0.1131788518 -0.7861296848 0.1139788595 -0.7863993831 0.0266526735 -0.0378000431
680295920.0 0.0273820493 -0.0424853234 0.1048619073 -0.7868705355 0.1044746902 -0.7874520836 0.0263862597 -0.0386095582
685295890.0 0.0264682925 -0.042901518 0.0964916408 -0.7884059797 0.0961184948 -0.7885404066 0.0254664968 -0.0382805109
690295860.0 0.0265700099 -0.0430648597 0.0876502096 -0.7887687699 0.0875936336 -0.7886643086 0.0254585641 -0.038011612
695295830.0 0.0261399846 -0.0434765172 0.0781942807 -0.7900574749 0.0783926175 -0.7904065773 0.0242186202 -0.038575872
700295800.0 0.0255390628 -0.0436036086 0.07019662 -0.7908195899 0.0702985244 -0.7913198265 0.0235273655 -0.0392883707
705295770.0 0.0246576524 -0.0436353652 0.0620729823 -0.7915187806 0.0620152222 -0.7919664577 0.0227664436 -0.0396299932
710295740.0 0.0240455339 -0.0434352401 0.053469378 -0.7917916992 0.0531622227 -0.7920017462 0.0214985209 -0.0388955676
715295710.0 0.0233575409 -0.043845229 0.0444347926 -0.7929998272 0.0446742007 -0.7926452476 0.0219295234 -0.0400711178
720295680.0 0.0226068084 -0.0442947662 0.0359821924 -0.7931682268 0.0363861387 -0.7936321392 0.0215020714 -0.039487285
725295650.0 0.0223588734 -0.0439465156 0.0265757749 -0.7932892105 0.0274568437 -0.793038805 0.0209174308 -0.0392625831
730295620.0 0.0213235371 -0.0444633457 0.018921031 -0.793551188 0.0185762501 -0.7935297305 0.0203880861 -0.040871085
735295590.0 0.0213846091 -0.0442747182 0.0101698854 -0.7937358838 0.0104067834 -0.7938140073 0.0193999008 -0.0396775364
740295560.0 0.0202111856 -0.0442869836 0.0011829948 -0.7938356187 0.0011841093 -0.793868538 0.0194149309 -0.0403054306
745295530.0 0.0198327031 -0.0445310574 -0.0071035165 -0.7939198563 -0.0067541756 -0.7941313581 0.0182754483 -0.0399147989
750295500.0 0.0190704105 -0.0448220523 -0.0158666028 -0.7932741456 -0.0156272848 -0.7934076208 0.0181877181 -0.0407621969
755295470.0 0.0189352094 -0.0444897412 -0.0241609182 -0.7933351418 -0.0242356583 -0.7936803413 0.0165624144 -0.0403495388
760295440.0 0.0177849424 -0.0442296906 -0.033366444 -0.7931340127 -0.0331238881 -0.7931375104 0.0157989174 -0.0403302044
765295410.0 0.0172075161 -0.0450549183 -0.041252628 -0.7922470732 -0.0414867913 -0.7929242226 0.0162960591 -0.040118161
770295380.0 0.0171668631 -0.0448583099 -0.0500550228 -0.791966428 -0.0504670356 -0.7923227712 0.0158334762 -0.0400720651
775295350.0 0.0160323114 -0.0445604771 -0.0589576056 -0.7913564401 -0.0586926389 -0.7918176238 0.0146259213 -0.0411529573
780295320.0 0.0155246427 -0.04479552 -0.0670476208 -0.7907167516 -0.0669024241 -0.7911270897 0.0140852838 -0.0401175033
785295290.0 0.0146303473 -0.0445975452 -0.0754851264 -0.7893500028 -0.0760519441 -0.7903347904 0.0131221377 -0.0401943493
790295260.0 0.0141983381 -0.0445714606 -0.0843237105 -0.7894285763 -0.0842619467 -0.7895208137 0.013307549 -0.0406087685
795295230.0 0.0134508572 -0.0447345852 -0.0927786063 -0.7875997508 -0.0927097599 -0.7880059358 0.0124503507 -0.0394674027
800295200.0 0.012833346 -0.0444468077 -0.1021554679 -0.7871219429 -0.1021851872 -0.7872123993 0.0117413718 -0.0404438528
805295170.0 0.0120205648 -0.0448135166 -0.1097877664 -0.7849032387 -0.1102825345 -0.785959024 0.0110648428 -0.0404270605
810295140.0 0.0115922183 -0.0447839222 -0.1187302246 -0.7846583199 -0.1187247413 -0.7851809594 0.0107397914 -0.0398099615
815295110.0 0.0108247364 -0.0445627236 -0.1272515265 -0.7832215528 -0.1279139237 -0.7836183325 0.0095264997 -0.0404550843
820295080.0 0.0102719073 -0.0447862711 -0.1355990117 -0.7821103584 -0.1358653282 -0.7818753362 0.0088942645 -0.0403710525
825295050.0 0.0095214997 -0.0447937996 -0.1440292878 -0.7796288362 -0.1444450348 -0.7803163823 0.0090111526 -0.0396878886
830295020.0 0.0087593253 -0.0442689164 -0.1527575893 -0.7784960063 -0.1535436124 -0.7790829874 0.0076512657 -0.0401043708
