!Created with skrf (http://scikit-rf.org).
# Hz S RI R 50.0 
!freq ReS11 ImS11 ReS21 ImS21 ReS12 ImS12 ReS22 ImS22
300000.0 -0.1008853218 -0.0707326077 0.6324448921 0.065806125 0.6247647825 0.0663521718 -0.1017433797 -0.077847172
5299970.0 -0.1021568844 0.0131629592 0.6307487421 0.0098359503 0.6306477301 0.0105642329 -0.1009162733 0.0130160468
10299940.0 -0.0971126675 0.0293303025 0.6341267979 0.0154977775 0.634013184 0.0157092858 -0.0959405693 0.030195191
15299910.0 -0.0900868174 0.0425113193 0.6403175474 0.0207072155 0.6405747982 0.0206660024 -0.0886821498 0.0435244751
20299880.0 -0.0816691533 0.0531360377 0.6486901735 0.0245799562 0.6484467481 0.0239261455 -0.0797506407 0.0544605273
25299850.0 -0.0721910327 0.0620992025 0.6578845915 0.0248864781 0.6576848689 0.0256381625 -0.0699636364 0.0632430175
30299820.0 -0.0621667456 0.0687654207 0.6674420408 0.0245005849 0.6676792865 0.0246221236 -0.059818536 0.0703492822
35299790.0 -0.0525844983 0.073845161 0.6769474295 0.0214098321 0.6772772736 0.0216800399 -0.0500683073 0.0748126413
40299760.0 -0.0433050998 0.0772109626 0.6861005927 0.0170770872 0.6866700311 0.0178824335 -0.0405392583 0.0775588772
45299730.0 -0.0340916372 0.0793586247 0.6948396395 0.0123792387 0.6957038434 0.0117141402 -0.031040321 0.0799225561
50299700.0 -0.0259467266 0.0801595501 0.7037603897 0.0049912508 0.7035065447 0.0057010845 -0.0227767309 0.0805916684
55299670.0 -0.0178194184 0.0803946424 0.7111717955 -0.0030023123 0.7110034085 -0.0025453144 -0.0148391063 0.0806581413
60299640.0 -0.0099656921 0.0801238596 0.7174646972 -0.0114716239 0.717607212 -0.0106126245 -0.0076785419 0.0796034764
65299610.0 -0.0040006491 0.0790040531 0.7230952483 -0.0198479552 0.7235388185 -0.0197261442 -0.0011059944 0.0786351297
70299580.0 0.0026245064 0.0776290229 0.7285703566 -0.0292754488 0.7284056985 -0.029089637 0.0047714772 0.0768526441
75299550.0 0.0079941772 0.0759636356 0.7327711797 -0.0388760828 0.7326354244 -0.0384317511 0.0099192963 0.0744765086
80299520.0 0.0129593211 0.073676453 0.7369993533 -0.0487406675 0.7375027049 -0.0487606069 0.0149398786 0.0728646809
85299490.0 0.0178240793 0.071361594 0.7405518581 -0.0583484029 0.7407490608 -0.0583734147 0.0193921633 0.0701583782
90299460.0 0.0218397845 0.0692576863 0.7425538097 -0.0689530274 0.7433262124 -0.0685451041 0.0236710384 0.0680377455
95299430.0 0.0256709423 0.0663399151 0.7458586097 -0.0788557509 0.7458779386 -0.0791177629 0.0275468351 0.0658379751
100299400.0 0.0290684523 0.0648168113 0.7467166877 -0.0888604884 0.7468576453 -0.0890930902 0.0312211643 0.0626774237
105299370.0 0.0323068234 0.0620723464 0.7485396883 -0.0995864295 0.7490220921 -0.0990591141 0.034410527 0.0607517863
110299340.0 0.0348004049 0.0596982627 0.7502137364 -0.1090525628 0.7498312763 -0.1086625048 0.0360707804 0.0578181414
115299310.0 0.0375253693 0.0575028217 0.7504492849 -0.1192033245 0.7504724449 -0.1193076244 0.0390966749 0.0555367682
120299280.0 0.0399818266 0.0548134041 0.7511063368 -0.1291029278 0.7515499513 -0.1293133252 0.0413971435 0.0532215174
125299250.0 0.0419942785 0.0522606813 0.7515917214 -0.1387433692 0.7516146507 -0.1388473724 0.0429155178 0.0503721551
130299220.0 0.0435730466 0.0503864956 0.7512411795 -0.14920028 0.751567553 -0.1491966882 0.0448516304 0.0482278588
135299190.0 0.0452676687 0.0481692875 0.7515453352 -0.1589750257 0.7510349597 -0.1586037436 0.0466406445 0.0462784628
140299160.0 0.0468358602 0.0464952908 0.7513045072 -0.1691092154 0.7507517456 -0.1687836386 0.0479322925 0.0447264533
145299130.0 0.0483151876 0.0439673363 0.7504205054 -0.1782217082 0.7499261956 -0.1779454549 0.0494321891 0.0420764329
150299100.0 0.0498496539 0.0423397266 0.7487455544 -0.1872112641 0.7493478585 -0.187489157 0.0509323574 0.0404682348
155299070.0 0.0505135633 0.0396966941 0.7480508504 -0.1986171639 0.7477850092 -0.1977129887 0.0519658607 0.0385528729
160299040.0 0.0518604738 0.0381777245 0.7462333633 -0.2068365923 0.7460161586 -0.206927675 0.0521332535 0.036375804
165299010.0 0.0525451868 0.0364347024 0.7443278432 -0.2169387513 0.7447454456 -0.216700214 0.0537953646 0.0348480181
170298980.0 0.0533451511 0.0340927275 0.7427504076 -0.2264134096 0.7432005021 -0.2258593015 0.0542189075 0.0331989587
175298950.0 0.0537489638 0.0323761535 0.741577185 -0.2352503572 0.7412160796 -0.2353839428 0.0550206165 0.0314166829
180298920.0 0.054699953 0.0306140617 0.7386789488 -0.2448639038 0.7388751751 -0.2444624589 0.0554194958 0.0299905731
185298890.0 0.0557943296 0.0288382971 0.7366110416 -0.2539497965 0.7364555136 -0.2537508934 0.0559855165 0.0283048338
190298860.0 0.0555793916 0.0274034253 0.7342529627 -0.2629782587 0.7345826772 -0.2628919909 0.0561422124 0.0262690982
195298830.0 0.0562565466 0.0254076521 0.7316402411 -0.2718506501 0.7319472009 -0.2714826498 0.0573320243 0.0249960383
200298800.0 0.0564419275 0.0243181188 0.729199052 -0.2810303342 0.7293809025 -0.2807235019 0.0566934509 0.0240042726
205298770.0 0.0570503003 0.0227221651 0.7257899134 -0.2900297462 0.7260804733 -0.2898235244 0.0573605103 0.0213772507
210298740.0 0.057244834 0.0210741457 0.723249939 -0.2982232691 0.7232015219 -0.2977581708 0.057990271 0.0214132588
215298710.0 0.0570554783 0.019821521 0.7203392085 -0.3078062115 0.7202499201 -0.3071545566 0.057698039 0.0197779492
220298680.0 0.0576273583 0.0178759859 0.7166965887 -0.3157265419 0.7170354762 -0.3156286161 0.0574843737 0.018154539
225298650.0 0.0578807821 0.0168005259 0.7140142606 -0.3246779604 0.7140546623 -0.3238241402 0.0574922129 0.0165590592
230298620.0 0.0579176573 0.0158119014 0.7105364493 -0.3324956404 0.7109687525 -0.3326189735 0.0572422327 0.0151369954
235298590.0 0.0581282339 0.0149295228 0.7067483162 -0.3413444963 0.7071374624 -0.3406681985 0.0576767897 0.0138198808
240298560.0 0.0580884924 0.0134597626 0.7039099776 -0.3504748636 0.7032677579 -0.3497000037 0.057857046 0.0131187828
245298530.0 0.0579937363 0.0122187524 0.7001755381 -0.3585402608 0.6999615447 -0.3581993503 0.0582627868 0.0111307991
250298500.0 0.0587154538 0.0110518869 0.6954190643 -0.3662331921 0.6948946863 -0.3653126681 0.0579292638 0.0104783767
255298470.0 0.0584697468 0.0094817427 0.6907488633 -0.3738163334 0.6918786794 -0.3740408985 0.0581345964 0.0089391513
260298440.0 0.0580779898 0.0082725298 0.6883488461 -0.383437459 0.6881171339 -0.3823056164 0.0586269554 0.0080248211
265298410.0 0.0591354097 0.0078507244 0.6835793431 -0.3910054108 0.6837114492 -0.3897757444 0.0585630325 0.0067794214
270298380.0 0.0585431597 0.0062503934 0.6801900521 -0.3986323981 0.679809571 -0.3983380177 0.0579803836 0.0058950993
275298350.0 0.059228842 0.0051478196 0.6755550997 -0.4064271047 0.6757367942 -0.4065047465 0.0584768523 0.0042600764
280298320.0 0.0586091517 0.0044020903 0.6710347827 -0.4146262096 0.6711658835 -0.4142677431 0.0588209809 0.0035856311
285298290.0 0.0586582763 0.0033341597 0.6665597737 -0.4219313662 0.6663790628 -0.4222421658 0.0588680194 0.0024436645
290298260.0 0.0590765613 0.0022532395 0.6620732556 -0.4293033336 0.6618543432 -0.4300539352 0.05858044 0.0017537887
295298230.0 0.0591397723 0.0010313798 0.6578525061 -0.4377594559 0.6575998521 -0.4370774042 0.0593788414 0.0005236612
300298200.0 0.0582641454 -0.0001846729 0.6533721827 -0.4448553784 0.6535120389 -0.4455739683 0.0589195958 -0.000514589
305298170.0 0.0590403607 -0.0011938944 0.64784694 -0.4533122843 0.6477933883 -0.4525091453 0.0595051353 -0.001862151
310298140.0 0.0583601861 -0.0023187386 0.6433782035 -0.460656543 0.6437201003 -0.4606311231 0.0594852823 -0.0028426168
315298110.0 0.0584764711 -0.0039910854 0.6385916188 -0.4688975527 0.638775806 -0.4680989199 0.059196032 -0.0044172197
320298080.0 0.0584307993 -0.0050253142 0.6325137169 -0.4764325108 0.6328698669 -0.4756945269 0.0586736779 -0.0051952256
325298050.0 0.0576688929 -0.0061819914 0.6275283387 -0.4834722668 0.6268581717 -0.4830391039 0.0578259364 -0.00641332
330298020.0 0.0576379752 -0.0072802288 0.6215723824 -0.4905276166 0.6218519519 -0.4906127592 0.0575150941 -0.0075746125
335297990.0 0.0571505541 -0.0085425551 0.6161706728 -0.4974052299 0.6157210116 -0.4978229734 0.0567456169 -0.0077477699
340297960.0 0.0560244829 -0.0090354278 0.609776646 -0.5047343466 0.6097906909 -0.5046959801 0.0568636009 -0.0087553199
345297930.0 0.0558455536 -0.0090405309 0.6042241816 -0.5118447177 0.6042971429 -0.5117403981 0.0566688791 -0.0095853221
350297900.0 0.0553195178 -0.0108244419 0.597779571 -0.5188880312 0.5981276578 -0.5181478923 0.0555235576 -0.0099730718
355297870.0 0.0549181148 -0.0105667847 0.5923339627 -0.5251313806 0.5930158368 -0.5249041677 0.0553584467 -0.0106673455
360297840.0 0.0546534919 -0.0112563138 0.5874544394 -0.5313769681 0.5876907748 -0.5312493893 0.0551454938 -0.0111068621
365297810.0 0.0538757769 -0.0119400149 0.5808290506 -0.5385011978 0.5817108877 -0.5383567811 0.0548304025 -0.0117961787
370297780.0 0.0543688812 -0.0132727062 0.5749788957 -0.5449013447 0.5754046535 -0.5436863452 0.0541642013 -0.012579917
375297750.0 0.054101731 -0.0137674115 0.5687110492 -0.5508724505 0.570102047 -0.5507713839 0.0541173711 -0.0128369817
380297720.0 0.0538155362 -0.0142034702 0.5629629392 -0.5575837762 0.5632998626 -0.5563129361 0.0533866025 -0.0137295755
385297690.0 0.052867072 -0.0150386226 0.5563343827 -0.5636734915 0.5563817861 -0.5632861265 0.0534688698 -0.0141674193
390297660.0 0.0528354346 -0.0152038702 0.5507392896 -0.5704770005 0.5506579887 -0.5693349437 0.0528666967 -0.0151313217
395297630.0 0.0523536246 -0.0158414744 0.5442440738 -0.5760435169 0.5443989344 -0.5762836573 0.0531771988 -0.0154781601
400297600.0 0.0518077571 -0.0165945706 0.5374906417 -0.5829116699 0.5377496909 -0.5821174774 0.0524162481 -0.0161417005
405297570.0 0.0511396962 -0.0176469067 0.5309530636 -0.5880626935 0.531224038 -0.5875540292 0.0514663707 -0.0168408687
410297540.0 0.0515641155 -0.017841066 0.5251133349 -0.5940553088 0.5257398485 -0.5939070531 0.051347594 -0.0172927569
415297510.0 0.051224374 -0.0187413666 0.5180886498 -0.6000115189 0.5187774472 -0.5998474131 0.0513590723 -0.0177727529
420297480.0 0.0509662281 -0.018979385 0.5116824338 -0.6058154495 0.5116717022 -0.6055857551 0.0504510236 -0.0189222821
425297450.0 0.050289625 -0.0203884585 0.5055481286 -0.6111063246 0.5051581058 -0.6111615209 0.0495434667 -0.0186805522
430297420.0 0.0499481166 -0.0209381383 0.498035885 -0.616537862 0.4981585373 -0.6162726251 0.0497854908 -0.019991491
435297390.0 0.0495289943 -0.0212051022 0.4910339367 -0.6222377823 0.4913749939 -0.6222567939 0.0502702569 -0.0206647902
440297360.0 0.0494536979 -0.021468508 0.4846291365 -0.6273710915 0.4844804536 -0.6272391539 0.0491082113 -0.0212413757
445297330.0 0.0489230324 -0.0227812244 0.4779101876 -0.6331250962 0.4781894922 -0.6331388065 0.0491042574 -0.0223820067
450297300.0 0.048902501 -0.0230669904 0.4710914542 -0.6379047685 0.4707845014 -0.6383230707 0.0486885532 -0.0229403286
455297270.0 0.0483848565 -0.0237678847 0.4634870689 -0.6435190448 0.4642414414 -0.6436812769 0.0484110228 -0.0234566949
460297240.0 0.0478109818 -0.0242205703 0.456154158 -0.6489269874 0.4565088263 -0.648743219 0.0480391852 -0.0234826438
465297210.0 0.0478052017 -0.0247587372 0.4494859042 -0.6537218318 0.4494605804 -0.6544537413 0.0477675624 -0.0246848806
470297180.0 0.0472088014 -0.0256751116 0.441587396 -0.658720841 0.4421129622 -0.6585997184 0.0471937874 -0.0247217561
475297150.0 0.0467273977 -0.0262837321 0.4346542225 -0.6630997692 0.4349924847 -0.6628190948 0.0473282555 -0.0258640727
480297120.0 0.0462360964 -0.0260536643 0.427460029 -0.6682439006 0.4273735289 -0.6686695828 0.0469997855 -0.0261294294
485297090.0 0.045583705 -0.0267349366 0.4205611263 -0.6728225058 0.4206196666 -0.6726377366 0.0465455978 -0.0266458794
490297060.0 0.0449214487 -0.0274772617 0.4130586348 -0.6780488716 0.4132658156 -0.6771837846 0.0462578797 -0.0265494605
495297030.0 0.0446898469 -0.0278509999 0.405092153 -0.6816492529 0.4059940267 -0.6820106069 0.045279141 -0.0275701664
500297000.0 0.0442385507 -0.0287929905 0.3968993991 -0.6862027929 0.3974574797 -0.6857765076 0.0450879136 -0.0271101101
505296970.0 0.0439009985 -0.0290411234 0.390232756 -0.6906887635 0.3905159066 -0.691181681 0.0446145578 -0.0280629499
510296940.0 0.0434859027 -0.0295230997 0.3825986575 -0.6953190305 0.3824276762 -0.6954499976 0.0443914028 -0.0282076347
515296910.0 0.0425404106 -0.0293536521 0.3743410497 -0.6991119344 0.3750932573 -0.6992964606 0.0438261993 -0.0288540452
520296880.0 0.0423458736 -0.0303204828 0.3675380921 -0.7038198676 0.3674944296 -0.7032311212 0.0431294522 -0.0296768996
525296850.0 0.0421269413 -0.0311669836 0.3592816641 -0.707613258 0.3602365169 -0.7071109728 0.0425257715 -0.0296995868
530296820.0 0.041582317 -0.0310941748 0.3517890758 -0.7115291506 0.3520454044 -0.7112568084 0.0427000499 -0.0299634911
535296790.0 0.0404750608 -0.0318594399 0.3444611687 -0.7153293605 0.3443799849 -0.7143786161 0.0418610833 -0.0312536474
540296760.0 0.0400372592 -0.0320194813 0.3360208994 -0.7191873141 0.3357769895 -0.7193695675 0.0409918848 -0.0304247515
545296730.0 0.0399778187 -0.0321736559 0.3280797034 -0.7228679881 0.3279365055 -0.7225297351 0.0408024605 -0.0314909489
550296700.0 0.0400541929 -0.0325388017 0.3203537624 -0.7257897113 0.3204033085 -0.7263070628 0.0397730706 -0.0315472982
555296670.0 0.0389690677 -0.0329960031 0.3124970968 -0.7291557714 0.3127183951 -0.7293512858 0.0394430623 -0.0318003466
560296640.0 0.0385985944 -0.0328970254 0.3044661 -0.7331459375 0.3051569983 -0.7329130506 0.0389893445 -0.032546673
565296610.0 0.0375252342 -0.0338451403 0.2958698502 -0.7361942017 0.2964197146 -0.7362832319 0.0380636182 -0.0329300765
570296580.0 0.0371492638 -0.0339500393 0.2883686074 -0.7396937201 0.2881325916 -0.739322853 0.0377233798 -0.0324234077
575296550.0 0.0364604363 -0.0340623403 0.2799298129 -0.7427129414 0.2798235316 -0.7430564924 0.0379121166 -0.0334775371
580296520.0 0.0364289041 -0.0345776821 0.2718554613 -0.746357307 0.272316223 -0.7459601172 0.0369657348 -0.0341278514
585296490.0 0.0355298344 -0.0355036332 0.2637563351 -0.7483505306 0.2642792866 -0.7486053438 0.0365628249 -0.0344638014
590296460.0 0.0357196779 -0.0352655476 0.255736784 -0.750569063 0.2558294195 -0.7511799615 0.034972063 -0.0345629125
595296430.0 0.0351609153 -0.0354410041 0.246728779 -0.7547400083 0.2474816044 -0.7539691294 0.0351857147 -0.0352918759
600296400.0 0.0337478425 -0.036414287 0.238838485 -0.7571993399 0.2392184724 -0.7566813929 0.0343073717 -0.0352046663
605296370.0 0.0336999744 -0.0364096472 0.2308290145 -0.7595248589 0.2310242195 -0.7592426312 0.033639846 -0.0360961989
610296340.0 0.0331162205 -0.0366348755 0.2219307257 -0.7615559249 0.2229418895 -0.7616751916 0.0335702526 -0.036279024
615296310.0 0.032994079 -0.0376359212 0.2137893417 -0.7637683602 0.2141189651 -0.764559529 0.0333288615 -0.0364954521
620296280.0 0.0322675472 -0.0376683532 0.2059605963 -0.7666157599 0.2057598174 -0.7662882582 0.0319533159 -0.0366929102
625296250.0 0.0312504966 -0.0384703484 0.1984103125 -0.7690965144 0.1976440231 -0.7689255095 0.0325286624 -0.0369969853
630296220.0 0.0318317338 -0.0381840175 0.1885962267 -0.7705110973 0.1885782491 -0.7706603845 0.0316543694 -0.0371546186
635296190.0 0.0299845395 -0.0389517594 0.1805539971 -0.772602878 0.1805924378 -0.7726969238 0.0312560463 -0.0376889038
640296160.0 0.0294934418 -0.0390584463 0.1723954964 -0.7746197073 0.1728662441 -0.7744906965 0.0308593315 -0.0379660878
645296130.0 0.0291927742 -0.0390486022 0.1636612241 -0.7762638566 0.1643363912 -0.7766058041 0.0300205285 -0.0380178488
650296100.0 0.0289017557 -0.0394549792 0.1551949763 -0.7780375697 0.1557397242 -0.7783788243 0.0301043262 -0.0389878915
655296070.0 0.0275261262 -0.0398140034 0.146738634 -0.779904584 0.1473339816 -0.7796189965 0.0292476142 -0.0383915068
660296040.0 0.0263525799 -0.0406647957 0.13840446 -0.7814924701 0.1389974035 -0.7816242048 0.0291697273 -0.0386477868
665296010.0 0.027169287 -0.0403269939 0.1292400448 -0.7830468475 0.1295356435 -0.7826367529 0.0283872657 -0.0385402182
670295980.0 0.0250865298 -0.0404491153 0.1208084029 -0.7841897991 0.1217100707 -0.7840880092 0.0273191809 -0.03895845
675295950.0 0.0252319379 -0.04025519 0.1127438268 -0.7852553972 0.1129156855 -0.7848042138 0.0266973834 -0.0393692521
680295920.0 0.0242279634 -0.0411084605 0.1040652085 -0.7860283619 0.1031997272 -0.7871835566 0.0261739911 -0.0386193004
685295890.0 0.0240080927 -0.0401913894 0.0958009153 -0.7875534476 0.0954885573 -0.7876680614 0.0257103428 -0.0392347625
690295860.0 0.0238784555 -0.0407292321 0.0870166821 -0.7881804587 0.0866265622 -0.7888397142 0.0248469999 -0.0384340361
695295830.0 0.0231529219 -0.0410613598 0.0787788547 -0.7896217703 0.0781978298 -0.7892716808 0.0241157767 -0.0393377359
700295800.0 0.0226345041 -0.0417314772 0.069451148 -0.7903194317 0.0693243242 -0.7896323858 0.0235378652 -0.0385303538
705295770.0 0.0215698084 -0.0406012289 0.0607584568 -0.7911480223 0.0617221732 -0.7913181117 0.0229312179 -0.0391838335
710295740.0 0.0212536497 -0.0412117668 0.0530589888 -0.7921795514 0.0532724373 -0.7921986097 0.0227336078 -0.0399726503
715295710.0 0.0198536468 -0.0415299475 0.0443806166 -0.7920973337 0.0437760806 -0.7922229013 0.0221115679 -0.0397643164
720295680.0 0.0198143756 -0.0415250915 0.0350209036 -0.7929101836 0.035844136 -0.7928648237 0.0214560884 -0.0390105511
725295650.0 0.0194879931 -0.0415302172 0.0266138637 -0.7930808581 0.0268005168 -0.792784845 0.0204287381 -0.0394191426
730295620.0 0.0189551543 -0.0413104237 0.0181722732 -0.7930130893 0.0185482669 -0.7930271435 0.0197385366 -0.0400962634
735295590.0 0.0181400355 -0.0413704152 0.0095847326 -0.7934027486 0.0094596794 -0.7932444878 0.0191221466 -0.0400529975
740295560.0 0.0171361501 -0.041407237 0.0008732311 -0.7933986514 0.0007686222 -0.7934676192 0.0190573516 -0.039670212
745295530.0 0.0168947133 -0.0414245789 -0.0083350882 -0.7927987284 -0.0079329596 -0.7931073723 0.0181945881 -0.04047268
750295500.0 0.0164965748 -0.0415261622 -0.0164892271 -0.7928887722 -0.0163230315 -0.7930613552 0.0175221266 -0.0403263546
755295470.0 0.0159658382 -0.0419237601 -0.0247768205 -0.7926026557 -0.0250297647 -0.793018261 0.0176003369 -0.0406179547
760295440.0 0.0151775558 -0.0417348823 -0.0334736092 -0.7931121161 -0.0335529875 -0.7929872319 0.0164935119 -0.0408000828
765295410.0 0.01420052 -0.0418480209 -0.0426167369 -0.7922513073 -0.0426702889 -0.792475556 0.01621117 -0.0405489452
770295380.0 0.0134669246 -0.0422148058 -0.0510029755 -0.7914702622 -0.0507836996 -0.791186928 0.0149876839 -0.0410634273
775295350.0 0.0128901645 -0.0424465859 -0.0598628821 -0.7902805522 -0.0590578226 -0.7909045285 0.0136946565 -0.0404622751
780295320.0 0.0125735246 -0.0421347147 -0.0682996866 -0.7897635251 -0.0671995674 -0.7901982151 0.0138071269 -0.0412448788
785295290.0 0.0113752603 -0.0426617208 -0.0775373841 -0.7887213957 -0.076393469 -0.7895383225 0.0138380095 -0.0407515383
790295260.0 0.0117557616 -0.0416482172 -0.0849522673 -0.7882630122 -0.0839888494 -0.7881312665 0.012926234 -0.040983522
795295230.0 0.0108029452 -0.0423380621 -0.0938497158 -0.7875493115 -0.0931627922 -0.7875254742 0.0127598629 -0.0407083819
800295200.0 0.0095961364 -0.0417438716 -0.1029064525 -0.7859813565 -0.1025610092 -0.7863838572 0.0117988164 -0.0409685848
805295170.0 0.0092992038 -0.0421163664 -0.1111256551 -0.7849102732 -0.1106095295 -0.7853167016 0.011436488 -0.0407150841
810295140.0 0.0082270952 -0.0425780556 -0.1192599933 -0.7835507274 -0.1195230238 -0.7837419782 0.0112505947 -0.0403864922
815295110.0 0.0081709791 -0.0426475352 -0.1277081252 -0.7821761888 -0.1275660162 -0.7824631738 0.0103372365 -0.0406440266
820295080.0 0.0068778967 -0.041646812 -0.1364289591 -0.7809149653 -0.1358484163 -0.780706052 0.0093882454 -0.0405015048
825295050.0 0.0070762283 -0.0419461832 -0.14435394 -0.7787070097 -0.1448707414 -0.7801112382 0.0094036969 -0.0404606118
830295020.0 0.0063751228 -0.0417666324 -0.1537217251 -0.7773758819 -0.1533857151 -0.7775867778 0.0097389272 -0.0402327542
