!Created with skrf (http://scikit-rf.org).
# Hz S RI R 50.0 
!freq ReS11 ImS11 ReS21 ImS21 ReS12 ImS12 ReS22 ImS22
300000.0 -0.2385841147 -0.0794065574 0.4715251229 0.0526632158 0.4683939605 0.0537586085 -0.2433185889 -0.0936585566
5299970.0 -0.2441895788 0.007540377 0.4734426507 0.0049952262 0.4736206578 0.0047580841 -0.2442622793 0.0074302821
10299940.0 -0.2409494987 0.0189510196 0.4755466429 0.0061270412 0.4755081795 0.0061163462 -0.2408293986 0.020378624
15299910.0 -0.2367225441 0.0281514894 0.4791993895 0.0078161009 0.4792552691 0.0076901209 -0.2364049855 0.0297420281
20299880.0 -0.2318518731 0.0353454777 0.4836008459 0.0085689416 0.4840221942 0.0082038861 -0.231013434 0.0376350764
25299850.0 -0.2269396143 0.0421766285 0.4891682499 0.0073145293 0.4889463552 0.0076781568 -0.224849211 0.0437410306
30299820.0 -0.221351853 0.0470606791 0.4944709289 0.0052967732 0.4944035072 0.005662758 -0.2192656621 0.0489560482
35299790.0 -0.2163483672 0.0514512562 0.4997265923 0.0023257152 0.499947381 0.0020978973 -0.2136092635 0.0535981212
40299760.0 -0.2114708337 0.0550733758 0.5048897677 -0.0017094208 0.5053523663 -0.0018893897 -0.208007622 0.0562123295
45299730.0 -0.2065707843 0.0575002662 0.5096891847 -0.0063535227 0.5097155546 -0.0064124241 -0.2032082801 0.0587076945
50299700.0 -0.2022195403 0.0598479238 0.5139714241 -0.011798688 0.514483347 -0.0116830435 -0.198902713 0.0608902236
55299670.0 -0.1982230373 0.0615872196 0.5180230181 -0.0183875336 0.517732098 -0.0179066163 -0.1944849498 0.062208654
60299640.0 -0.1941191677 0.0636462078 0.5212996893 -0.024621113 0.5212917769 -0.0242414122 -0.1904636626 0.0630466767
65299610.0 -0.191163517 0.0646628833 0.5242785931 -0.0307651611 0.5242780302 -0.0307131808 -0.1872615143 0.0641883137
70299580.0 -0.1881218672 0.0659328107 0.5269875676 -0.0373412846 0.5265049588 -0.0372744361 -0.1837727153 0.0650790532
75299550.0 -0.1852329431 0.0673335555 0.5282481111 -0.0441439257 0.5284836857 -0.0438932573 -0.1807855218 0.0651652842
80299520.0 -0.1826330891 0.0682491346 0.530328945 -0.0511784585 0.5304588842 -0.0510062944 -0.178484135 0.0658923732
85299490.0 -0.1802085593 0.0687013577 0.531446036 -0.0575457875 0.5316739744 -0.0575578136 -0.1761519522 0.066235104
90299460.0 -0.177801119 0.0696911354 0.5327311361 -0.0649600837 0.5328866997 -0.0647231203 -0.1736464656 0.0664491926
95299430.0 -0.175474103 0.0704805144 0.5338732649 -0.0717561188 0.5337033956 -0.071896198 -0.1715245825 0.0674552545
100299400.0 -0.1739887446 0.0715140468 0.5336039977 -0.0785650349 0.5339119067 -0.078815999 -0.1694418098 0.0675797885
105299370.0 -0.1719855014 0.0722250613 0.5341656554 -0.0856916593 0.5345219247 -0.0855480207 -0.1675664835 0.0680164612
110299340.0 -0.1703321288 0.0733252804 0.5346021233 -0.0923033582 0.5345672774 -0.0919670043 -0.1663428388 0.0682510787
115299310.0 -0.1687527215 0.0739954672 0.5349987399 -0.0991807132 0.5344650299 -0.0991226891 -0.1647946917 0.0690894533
120299280.0 -0.1672672449 0.0747058477 0.5342691399 -0.1060149933 0.5341930846 -0.1060459427 -0.1633608993 0.0693630706
125299250.0 -0.1659407751 0.0754817056 0.5340385743 -0.1123756051 0.5339853613 -0.1126699963 -0.1622968178 0.0697868117
130299220.0 -0.1650716138 0.0767332104 0.5333432123 -0.1195633797 0.5333679372 -0.1196157773 -0.1609568083 0.0703278499
135299190.0 -0.1636384792 0.0778952153 0.5327137541 -0.125571535 0.5326979445 -0.1259711404 -0.1595442845 0.0709803613
140299160.0 -0.1628577896 0.07895189 0.5317961218 -0.13286557 0.5320390833 -0.1328557805 -0.1588646593 0.0722607349
145299130.0 -0.1614524841 0.0799568074 0.5313547338 -0.1393368937 0.530838082 -0.1391864044 -0.1577047125 0.0727806187
150299100.0 -0.1603065856 0.0810205292 0.5296419995 -0.1455101898 0.5298785519 -0.145304834 -0.1569994582 0.0737917559
155299070.0 -0.1593524977 0.0822140719 0.5288185763 -0.1527085203 0.5284581635 -0.1526577013 -0.1558023765 0.0747900085
160299040.0 -0.1584624979 0.0833072312 0.5271920847 -0.1585824144 0.5267953037 -0.1588376312 -0.1555803154 0.075693087
165299010.0 -0.1573770294 0.0845253788 0.5260048282 -0.1652357588 0.5258917891 -0.1652765721 -0.1541904225 0.0768769604
170298980.0 -0.1563774832 0.0857461449 0.5241978815 -0.1716724986 0.5242758419 -0.1717237713 -0.1535027973 0.0775026325
175298950.0 -0.1555620697 0.0871758017 0.5232546992 -0.1780014563 0.5225455751 -0.1780361113 -0.1526527783 0.0786554813
180298920.0 -0.154627507 0.0883397022 0.5209669964 -0.1845599193 0.5207465316 -0.1841250847 -0.1521002613 0.0797607276
185298890.0 -0.1534219604 0.0893492795 0.5194372375 -0.1904769087 0.5190472812 -0.1904381528 -0.1513530459 0.0808978703
190298860.0 -0.1530036074 0.0909825714 0.5176304403 -0.1966518508 0.5173143992 -0.1962717246 -0.1506942736 0.0816878871
195298830.0 -0.1518046901 0.0923257159 0.5153238653 -0.2029060379 0.5153038195 -0.2027422315 -0.149458893 0.0835239438
200298800.0 -0.1505846714 0.0936084623 0.5130965642 -0.2092230312 0.5129436951 -0.2091156078 -0.1495038999 0.0842020836
205298770.0 -0.1497683172 0.0950062833 0.5109737929 -0.2153205036 0.5108544738 -0.2147378135 -0.1483967968 0.0849106774
210298740.0 -0.148966728 0.096227529 0.5085231916 -0.2208935241 0.5084639866 -0.2207271466 -0.1473859921 0.0866362118
215298710.0 -0.1482171034 0.0979322357 0.5064114499 -0.2267496684 0.5063930078 -0.2271814722 -0.1472958857 0.0875661181
220298680.0 -0.1471225693 0.0987095814 0.5034584349 -0.2325086271 0.503545928 -0.2324825696 -0.1466072746 0.0884750444
225298650.0 -0.1462049966 0.1005353045 0.5013187173 -0.2387918616 0.5015143382 -0.2384970532 -0.146286918 0.0892085849
230298620.0 -0.1447663836 0.1020812247 0.4988231256 -0.244530884 0.4992902198 -0.2444754763 -0.145473904 0.0908154262
235298590.0 -0.1441006017 0.1037241664 0.4961945313 -0.2501298873 0.4964288116 -0.2499651667 -0.1447504738 0.0922649183
240298560.0 -0.1430089266 0.105128043 0.4936388822 -0.2558437984 0.4934462242 -0.2562201596 -0.143827063 0.0936961454
245298530.0 -0.1422300918 0.1062023268 0.4910810607 -0.2618385693 0.4910734646 -0.2616622561 -0.1428429523 0.0943686011
250298500.0 -0.1409429439 0.1079576837 0.4874451806 -0.2673619659 0.4874940914 -0.2672948728 -0.1426027888 0.0957685586
255298470.0 -0.1399894195 0.1089757113 0.4844575597 -0.2722647974 0.4846973447 -0.2725578666 -0.1414980631 0.0966025764
260298440.0 -0.1390670141 0.110693391 0.4814834032 -0.2788292908 0.4821148139 -0.2781099804 -0.1404684169 0.0980791568
265298410.0 -0.1375936915 0.112198512 0.4789635825 -0.2841496582 0.4790795285 -0.2837516258 -0.1397913943 0.0993507556
270298380.0 -0.1366200248 0.1138772106 0.4758792111 -0.2891717926 0.4758422557 -0.289153294 -0.1392517964 0.1006690618
275298350.0 -0.1350677563 0.1151099391 0.4722112399 -0.2946948139 0.4731782245 -0.294600999 -0.1379848599 0.1018101275
280298320.0 -0.13394939 0.1167253374 0.4693990923 -0.2998580901 0.4696108148 -0.300213511 -0.1369708232 0.1029637004
285298290.0 -0.1328864988 0.1183538717 0.4667164253 -0.3054803232 0.4657923457 -0.3055786007 -0.1358855619 0.1042887295
290298260.0 -0.1316553579 0.1197241741 0.4629863454 -0.3105963238 0.463250211 -0.3110800388 -0.1348108763 0.1058481447
295298230.0 -0.130152157 0.120955165 0.4598475253 -0.315869833 0.4591973047 -0.3158278074 -0.1333671988 0.1068135335
300298200.0 -0.1293520321 0.1223173587 0.4562580982 -0.3209581413 0.4562438687 -0.3214023988 -0.1327423477 0.1080054103
305298170.0 -0.127638777 0.1233823486 0.4521679412 -0.3266338549 0.4524523798 -0.3264205861 -0.1310823834 0.1088805077
310298140.0 -0.1266854473 0.1253239257 0.4491923211 -0.3316635565 0.4493353459 -0.3315677599 -0.13065964 0.1101631552
315298110.0 -0.1252022659 0.1262854378 0.4456435274 -0.3367756073 0.4458563438 -0.3366335474 -0.1297155226 0.1115596215
320298080.0 -0.1236892766 0.1274933602 0.4410708233 -0.3423219473 0.4417703383 -0.3421456027 -0.1287916673 0.112778784
325298050.0 -0.1226408116 0.1289060474 0.4376733597 -0.3471597526 0.437921514 -0.347083577 -0.1280450071 0.1137815386
330298020.0 -0.1214650147 0.1300053327 0.4334594108 -0.352231954 0.4339846205 -0.3523204116 -0.1269036996 0.1151244596
335297990.0 -0.1201887943 0.131136989 0.4297340553 -0.3566738554 0.4295174998 -0.3566893772 -0.1263392966 0.1168728374
340297960.0 -0.1191496214 0.1330367755 0.4255590736 -0.3616311935 0.4255935155 -0.3615925972 -0.1249768562 0.1181479937
345297930.0 -0.1179787906 0.1343849775 0.4214511826 -0.3664871937 0.4213502062 -0.3661632069 -0.124328414 0.1191357076
350297900.0 -0.1165340886 0.1357246954 0.4171032718 -0.370989706 0.41694972 -0.3712234486 -0.1233657766 0.1207842931
355297870.0 -0.1147794403 0.1373468949 0.4129516419 -0.3755866788 0.413195536 -0.3755945994 -0.1225089667 0.121978917
360297840.0 -0.1137514987 0.1387599141 0.4095873776 -0.3798577374 0.4095349026 -0.3800489249 -0.121343133 0.1239099147
365297810.0 -0.1124089837 0.1405064412 0.404808141 -0.3850767843 0.4049497853 -0.3846810274 -0.1204333841 0.1247695803
370297780.0 -0.1107888158 0.1411542796 0.4002299676 -0.3888033335 0.4009059405 -0.3887501112 -0.1191943698 0.1263411147
375297750.0 -0.1091632911 0.1427630771 0.3964729946 -0.3935692379 0.3966996046 -0.3933540797 -0.1178550586 0.1274317097
380297720.0 -0.1076733544 0.1441029257 0.3915997627 -0.3975671106 0.3920261597 -0.3972295638 -0.1169878284 0.1289670866
385297690.0 -0.1063888444 0.1453353102 0.3870847049 -0.4018887704 0.3873315104 -0.4018165298 -0.1157972169 0.1300064073
390297660.0 -0.1046767285 0.1471336945 0.3832749225 -0.4067486081 0.3829394322 -0.4059741506 -0.1147952493 0.1313678489
395297630.0 -0.1032428997 0.1482905316 0.3787852156 -0.4104644734 0.3785221631 -0.4107818146 -0.1128799785 0.1326480895
400297600.0 -0.1018752985 0.1493528645 0.3735975521 -0.4149821464 0.3742192724 -0.4148834093 -0.1122862792 0.1339272992
405297570.0 -0.1003843838 0.1507868932 0.3695965995 -0.4185372881 0.3695410769 -0.4183824309 -0.1111703553 0.1351131891
410297540.0 -0.0984241155 0.1516750729 0.3650729524 -0.4228203494 0.3650861352 -0.4227340617 -0.1101344848 0.1364268785
415297510.0 -0.0964418892 0.1531071176 0.3598067457 -0.4269123661 0.3605529351 -0.4269070342 -0.1087845511 0.137357487
420297480.0 -0.0952826566 0.1547124678 0.3553812166 -0.4307020611 0.3554450714 -0.4309221807 -0.1074984701 0.1381440345
425297450.0 -0.0933962251 0.1553072 0.3507794193 -0.4344083018 0.3511734072 -0.4344951906 -0.1065831069 0.1398771394
430297420.0 -0.0918044352 0.156421667 0.3460437436 -0.4377653593 0.3461634586 -0.4380414976 -0.1054178078 0.1407462573
435297390.0 -0.0903910653 0.1579321692 0.3409923318 -0.4417536444 0.3410447054 -0.4421386469 -0.1030969081 0.1421899308
440297360.0 -0.0884916097 0.1590972122 0.3363906822 -0.4456600726 0.3365154413 -0.4458564132 -0.102590625 0.1426026559
445297330.0 -0.0868121737 0.1599246161 0.3319741418 -0.4492518967 0.3312856526 -0.4490914965 -0.1009677537 0.143613288
450297300.0 -0.0846695476 0.1609711598 0.3263485119 -0.4529223006 0.3265418838 -0.4529187612 -0.0997304278 0.1447374039
455297270.0 -0.0831142647 0.1619865067 0.3211734847 -0.4559975607 0.3219653746 -0.4565415477 -0.0981930492 0.1460239147
460297240.0 -0.0814667956 0.1631664824 0.3161461496 -0.4599449943 0.3166471143 -0.4600407858 -0.0968831241 0.1471803634
465297210.0 -0.0792801968 0.1640926816 0.3113064818 -0.4631241398 0.3114963812 -0.4635960095 -0.0952518987 0.1479539918
470297180.0 -0.0778134198 0.1649839897 0.3058523742 -0.4667120838 0.3061614043 -0.4667009749 -0.093524188 0.149236864
475297150.0 -0.0758387791 0.1657790581 0.3008531044 -0.4693913793 0.3013190555 -0.4694782848 -0.0919604421 0.149878033
480297120.0 -0.0743097171 0.1674339106 0.2958552185 -0.4734562954 0.2958387294 -0.4735049821 -0.0903089538 0.1512703367
485297090.0 -0.0724787331 0.1680993837 0.2910795765 -0.4763892556 0.291116132 -0.4761840081 -0.0888088667 0.1520449075
490297060.0 -0.0707804414 0.1689236862 0.2860944591 -0.4795569613 0.2859874928 -0.4791691539 -0.0876464043 0.1535437463
495297030.0 -0.0689482664 0.169924225 0.2804636495 -0.4825541385 0.2807838976 -0.4824405709 -0.0862652088 0.1543674797
500297000.0 -0.0669256107 0.1706573059 0.2748423855 -0.4853449811 0.2747743369 -0.4849953507 -0.0845005404 0.1556004461
505296970.0 -0.0647382654 0.1717760682 0.2700141009 -0.4884384741 0.2698012172 -0.4885249573 -0.0830880387 0.1565016798
510296940.0 -0.0632165329 0.1724903813 0.2643079158 -0.4913140863 0.2641912946 -0.4913655619 -0.0816644877 0.1576026183
515296910.0 -0.0612053884 0.1732568163 0.2588287449 -0.4942148054 0.2589734496 -0.4943058504 -0.0801501368 0.1585890523
520296880.0 -0.0592669407 0.1741443251 0.2535878627 -0.4973568849 0.2538863425 -0.4968185237 -0.07869433 0.159008231
525296850.0 -0.0574398444 0.1747448473 0.2481746188 -0.4994483666 0.2483670844 -0.4995818957 -0.0773005576 0.1603142286
530296820.0 -0.0554797352 0.1755663499 0.242418475 -0.5023045532 0.2427694352 -0.5024664229 -0.0756127782 0.1614910037
535296790.0 -0.0538449181 0.1764379984 0.2374274386 -0.5046954081 0.2372644063 -0.5043668566 -0.0743133988 0.1619991116
540296760.0 -0.0516564429 0.177270782 0.2316960857 -0.5078112638 0.2317275035 -0.5076276053 -0.0729303844 0.1631544481
545296730.0 -0.0499028969 0.1780607665 0.2260368221 -0.5100849435 0.2261945775 -0.5099796588 -0.0714476972 0.1638516902
550296700.0 -0.0477284635 0.1786506947 0.2207891271 -0.5122519183 0.220539196 -0.5126319934 -0.069754321 0.1648288645
555296670.0 -0.0461618307 0.1793020242 0.2153928502 -0.5145873977 0.2153495444 -0.5148048776 -0.0681063077 0.166068948
560296640.0 -0.0434410336 0.180183133 0.2097143681 -0.5174370275 0.2098331568 -0.5170177262 -0.0664912433 0.1664485277
565296610.0 -0.0419989141 0.1805826468 0.2035601333 -0.5192748193 0.2042080551 -0.5189820218 -0.0654826534 0.1669517719
570296580.0 -0.0401310177 0.1811911546 0.1984735588 -0.521844401 0.1977260552 -0.5213969011 -0.0636849131 0.1685885489
575296550.0 -0.0380905868 0.1819363355 0.1925141444 -0.5239658688 0.192219698 -0.5236246875 -0.0614950223 0.1688400197
580296520.0 -0.035890009 0.182474977 0.1866806613 -0.5256817906 0.1865237882 -0.5255645768 -0.0599500144 0.1695623568
585296490.0 -0.0342748751 0.1826264628 0.1813054432 -0.5270368879 0.1810796823 -0.527726509 -0.0585474321 0.1704777001
590296460.0 -0.0315024095 0.1833949767 0.175243884 -0.5290256 0.1754367116 -0.5291852443 -0.0575820262 0.1708845174
595296430.0 -0.0298077167 0.1839598505 0.1693878876 -0.5313958996 0.1696922908 -0.5311924145 -0.0554095833 0.1713904372
600296400.0 -0.0279248238 0.1843348946 0.1637850993 -0.533043064 0.1637760845 -0.5325968563 -0.0540264345 0.1719147616
605296370.0 -0.0258738907 0.1849225112 0.1577441077 -0.5347883262 0.1581512555 -0.5344323945 -0.0519437578 0.1728855227
610296340.0 -0.0238338825 0.1852842349 0.1520180855 -0.5364470669 0.1523424421 -0.5361993649 -0.0504744578 0.1734197434
615296310.0 -0.0214119535 0.1852502824 0.1462284525 -0.5373444781 0.1461965979 -0.5382809935 -0.0483514596 0.1737167428
620296280.0 -0.0195447638 0.185494556 0.1403061621 -0.5393046541 0.1405473718 -0.5392600116 -0.047014125 0.1745041987
625296250.0 -0.0177377673 0.1858585945 0.1350938921 -0.540928061 0.1344850957 -0.5412451288 -0.0447863676 0.17509535
630296220.0 -0.0148561644 0.1862770278 0.1284535202 -0.5421621792 0.1285378118 -0.5422927343 -0.0433474645 0.1757303901
635296190.0 -0.0138608293 0.1865848704 0.1229592637 -0.5437104767 0.1229701257 -0.5435650665 -0.0417065729 0.1763999565
640296160.0 -0.0115426737 0.1869422359 0.1170159017 -0.5442542631 0.1172979409 -0.5447685606 -0.0398645675 0.1767191828
645296130.0 -0.0094686617 0.1872293853 0.1108723402 -0.545664157 0.1112717305 -0.5459023356 -0.0378345933 0.1775841548
650296100.0 -0.0074908279 0.1873609675 0.1054133512 -0.5466761202 0.1055063158 -0.5469791093 -0.0358447024 0.1773911218
655296070.0 -0.0052868398 0.187329854 0.0992421209 -0.5479697352 0.0993227315 -0.548047869 -0.0344872698 0.17812554
660296040.0 -0.0037121879 0.1874231271 0.0937639723 -0.5492228447 0.0937050735 -0.5492972367 -0.0324019563 0.1786558466
665296010.0 -0.0008310938 0.1875030313 0.0867624085 -0.549933031 0.0873582366 -0.5501531097 -0.030525591 0.1795573692
670295980.0 5.43033e-05 0.1881481973 0.0815180745 -0.5507130531 0.0811921402 -0.5511426782 -0.0292987855 0.1799693445
675295950.0 0.002546665 0.1883146194 0.0756995344 -0.5518952299 0.07570255 -0.5513154674 -0.0276762362 0.1803593668
680295920.0 0.0046006941 0.1882753345 0.0695176621 -0.5522590833 0.0691650242 -0.5532001295 -0.0254656433 0.1813528159
685295890.0 0.006965011 0.1888501117 0.0634223136 -0.5528773151 0.0633181762 -0.5534393425 -0.0239680889 0.1813549173
690295860.0 0.0091872898 0.1888435165 0.0576054166 -0.5531848305 0.0575122231 -0.5540542519 -0.0223417168 0.1822592457
695295830.0 0.0112283137 0.1885514165 0.0518142463 -0.5542619274 0.0512610734 -0.5544068377 -0.0204333064 0.182627869
700295800.0 0.0134208612 0.1883105476 0.0454087235 -0.5544650275 0.0453996804 -0.5546877409 -0.0190034906 0.1830056779
705295770.0 0.0149813362 0.1889993555 0.0397023987 -0.5553077314 0.0397486385 -0.5555646975 -0.0170598044 0.1835430202
710295740.0 0.0173228652 0.1887238312 0.0339164504 -0.556303319 0.0338513519 -0.5560889496 -0.0150456204 0.1831852075
715295710.0 0.0192502369 0.1887002832 0.0281980492 -0.5561568872 0.0275118419 -0.556200805 -0.0133966565 0.1839007488
720295680.0 0.0212902054 0.1885888635 0.021423026 -0.5565770053 0.0218588222 -0.5564101571 -0.0115013358 0.1846473634
725295650.0 0.0238247889 0.1885124084 0.0153895497 -0.5565281756 0.0156616983 -0.5565175606 -0.010142492 0.1849544704
730295620.0 0.025809429 0.1884026136 0.008967291 -0.5564575053 0.0095866853 -0.5566885695 -0.0085421409 0.1850206466
735295590.0 0.0277439915 0.1882972963 0.0034338248 -0.5571033633 0.0034741803 -0.5566188821 -0.0068130072 0.1849081782
740295560.0 0.0295143978 0.188078518 -0.0022374182 -0.5567028335 -0.0024563435 -0.5565581461 -0.0044997212 0.1855352985
745295530.0 0.0317380686 0.1882576813 -0.0083488831 -0.5560840239 -0.0084703581 -0.5565068612 -0.0026236865 0.1852382695
750295500.0 0.0341788736 0.1878070748 -0.0142406367 -0.5560782157 -0.014333535 -0.5566225179 -0.0012291039 0.185629782
755295470.0 0.0360735388 0.18759129 -0.0199141713 -0.5561344401 -0.0204672489 -0.5563672956 0.0008714914 0.1853467587
760295440.0 0.0381299854 0.1874590261 -0.0261593185 -0.5561050474 -0.0262808497 -0.5562440932 0.0021640204 0.1857952656
765295410.0 0.040188351 0.1871769343 -0.0327029823 -0.5554667741 -0.0331143716 -0.5555114516 0.004553679 0.1860156459
770295380.0 0.0418999232 0.1867361367 -0.0391246097 -0.5552108174 -0.0383979918 -0.5548614867 0.0058286431 0.1855807326
775295350.0 0.0439894809 0.1858827541 -0.0446506181 -0.5541920634 -0.044109241 -0.5547604151 0.0074594058 0.1861301208
780295320.0 0.0461509309 0.1858281696 -0.0502649254 -0.5537129904 -0.049995531 -0.5538333014 0.0092884724 0.1855321517
785295290.0 0.0477689435 0.1849737525 -0.0565353297 -0.5529389819 -0.0562743921 -0.5532476522 0.0116693806 0.1859020912
790295260.0 0.0507217287 0.1851259702 -0.0618423665 -0.5523860567 -0.0615553273 -0.5523904646 0.0136537344 0.1861307336
795295230.0 0.0522594645 0.1843008861 -0.0682751889 -0.5518733762 -0.0675989688 -0.552379108 0.0154428069 0.1860126411
800295200.0 0.0542185898 0.1841905897 -0.0751618777 -0.551021979 -0.0741298079 -0.5512898945 0.0170543845 0.1860098523
805295170.0 0.0563380203 0.1836555995 -0.0798619925 -0.5501260948 -0.0799078418 -0.5507410928 0.0188892112 0.1860758642
810295140.0 0.0582521362 0.182744259 -0.086000515 -0.5488421883 -0.0857641812 -0.5493500092 0.0214048513 0.1861718014
815295110.0 0.0603812324 0.1822676805 -0.0920298749 -0.5481060395 -0.0916443561 -0.5480797704 0.0227928905 0.185869558
820295080.0 0.0619622968 0.1821933753 -0.0971018089 -0.5471167667 -0.0976386556 -0.5472195649 0.0245466082 0.1859416452
825295050.0 0.0646346071 0.1811640589 -0.1033372462 -0.5455043132 -0.1036216481 -0.5463598508 0.0266070447 0.1857825847
830295020.0 0.0664748239 0.1811514717 -0.1097527007 -0.5447446091 -0.1094204493 -0.5448466257 0.0290635849 0.1856794275
