!Created with skrf (http://scikit-rf.org).
# Hz S RI R 50.0 
!freq ReS11 ImS11 ReS21 ImS21 ReS12 ImS12 ReS22 ImS22
300000.0 -0.3188065149 -0.1047693972 0.3718372595 0.0524182041 0.3730330197 0.05581317 -0.31863872 -0.1136956714
5299970.0 -0.3235515071 0.004935511 0.3784714535 0.0028366759 0.3785860806 0.0031007791 -0.3260598053 0.0029358179
10299940.0 -0.3210124419 0.0155769568 0.3795951284 0.0024484675 0.3797179395 0.0025070184 -0.3242343104 0.0127977302
15299910.0 -0.3180613271 0.0236846103 0.3819098842 0.0022328716 0.3820019047 0.0023165325 -0.3214572977 0.0198281449
20299880.0 -0.314155637 0.0302239963 0.3846871631 0.0014956766 0.3851580098 0.0016072507 -0.3189011224 0.0261520011
25299850.0 -0.310815089 0.0357261264 0.38872316 -2.27819e-05 0.3884338833 -0.000203893 -0.3156358219 0.0310787685
30299820.0 -0.3067281601 0.0402158958 0.3918579521 -0.0021413475 0.3915020947 -0.0022000937 -0.3126725189 0.0355679607
35299790.0 -0.3028940819 0.044701159 0.3950742704 -0.0053955028 0.3949730062 -0.005259504 -0.3096909764 0.0394173092
40299760.0 -0.2992859326 0.0481530619 0.3982824263 -0.0088055113 0.3982466323 -0.008806163 -0.3069107861 0.0430242808
45299730.0 -0.2964816006 0.0514004822 0.4010245758 -0.0129030478 0.4014466826 -0.013079515 -0.3048373561 0.0465682337
50299700.0 -0.2931986751 0.0540791481 0.403484825 -0.017339476 0.4037338716 -0.0172758329 -0.3022139469 0.0493241554
55299670.0 -0.2907656072 0.0569268285 0.4055239523 -0.0221491487 0.4057210751 -0.0217955741 -0.3002407932 0.0516721456
60299640.0 -0.2880560524 0.0592033252 0.4073399404 -0.0270828846 0.4075164457 -0.0268457177 -0.298046939 0.0545322845
65299610.0 -0.2862292096 0.0617329422 0.409411028 -0.0316418834 0.4094163659 -0.0317650214 -0.2963497229 0.0573289392
70299580.0 -0.2837206128 0.0634623615 0.4102876732 -0.0366419275 0.4107519292 -0.0371992035 -0.2948219434 0.0595411162
75299550.0 -0.2817108216 0.0659180969 0.411331118 -0.0420596527 0.4114833909 -0.0423222366 -0.2931271222 0.061913522
80299520.0 -0.2800647545 0.068141033 0.412605827 -0.0472832 0.4126518192 -0.0473518317 -0.2916229789 0.0641082779
85299490.0 -0.2784975546 0.0695950559 0.4129910689 -0.0524535402 0.4130868634 -0.0526566651 -0.2905042772 0.0662678096
90299460.0 -0.2770731092 0.0720831303 0.4133848693 -0.0577314805 0.4134445393 -0.0580877622 -0.2884967117 0.0689702665
95299430.0 -0.2755248344 0.0743093696 0.4138677098 -0.0632783548 0.4138302649 -0.0632456611 -0.2878227231 0.07132082
100299400.0 -0.2744824833 0.0765889514 0.4138211136 -0.0684962586 0.4137659245 -0.0682679073 -0.2867552269 0.0733262775
105299370.0 -0.2731835816 0.0784704705 0.4134104873 -0.0733477395 0.413727428 -0.0738193795 -0.2851867272 0.0753815694
110299340.0 -0.2718448394 0.0804703821 0.4133504379 -0.0784879539 0.4132762482 -0.0788638264 -0.2842491723 0.0780809427
115299310.0 -0.2706015184 0.0823832587 0.4133065523 -0.0836095741 0.4134717012 -0.0834846745 -0.2833396816 0.0801535851
120299280.0 -0.2696736136 0.0846804685 0.4129635553 -0.0889745407 0.4130110239 -0.0888276036 -0.2827089464 0.0826340712
125299250.0 -0.2688282078 0.0868962528 0.4120866935 -0.0939072151 0.4126254684 -0.0942985677 -0.281190252 0.0851000127
130299220.0 -0.2676412223 0.0891577905 0.4116154504 -0.0988172526 0.4115462893 -0.0990588302 -0.2804328637 0.0875609784
135299190.0 -0.2666512033 0.0910080641 0.4107624521 -0.1039013372 0.4107124491 -0.1039066374 -0.2797734035 0.0894296672
140299160.0 -0.265754892 0.0938185978 0.4100797902 -0.1090315788 0.4103037763 -0.1090751615 -0.2786011524 0.0921414468
145299130.0 -0.2646913331 0.0957479753 0.4092446958 -0.114074408 0.4092038131 -0.1138980597 -0.277838823 0.0946733644
150299100.0 -0.2640201796 0.0981108437 0.4085232488 -0.1189069883 0.4083239358 -0.1190262423 -0.2768929651 0.0970114736
155299070.0 -0.2629064877 0.1007472522 0.4069381075 -0.1241662234 0.4073113532 -0.1241404641 -0.2761929703 0.0995976528
160299040.0 -0.2621766568 0.1029011129 0.4056605479 -0.1282102477 0.4060899009 -0.1287422672 -0.2752344474 0.1022701867
165299010.0 -0.2609085209 0.1052705544 0.4044100626 -0.1335773667 0.4045213252 -0.1336094734 -0.2740569031 0.1044806425
170298980.0 -0.2602245147 0.1077665382 0.4027099032 -0.1385939277 0.4033952774 -0.1384925717 -0.2732213729 0.1071416728
175298950.0 -0.2588467764 0.1104318948 0.4020309131 -0.1429360556 0.4022249178 -0.1431884714 -0.2722999977 0.1098741058
180298920.0 -0.2578182973 0.1126503093 0.4003897305 -0.1481340949 0.4004772717 -0.1478437799 -0.2707634107 0.1124257881
185298890.0 -0.2569022358 0.1151722678 0.3987648646 -0.1525806477 0.3987316685 -0.1524133419 -0.2704168696 0.1145789304
190298860.0 -0.2557399387 0.1176693999 0.3970090594 -0.1571895146 0.3973438675 -0.157174381 -0.2686085751 0.117422809
195298830.0 -0.2545524207 0.1199870875 0.3959113274 -0.1616923317 0.3956635278 -0.1620301643 -0.2678376976 0.1199374911
200298800.0 -0.253619955 0.1226856947 0.3941300123 -0.1662573279 0.3939380315 -0.166558775 -0.2664737316 0.1229824498
205298770.0 -0.2527312501 0.1253512468 0.3925187135 -0.1710509613 0.3922027467 -0.1711296002 -0.2658741828 0.1252212962
210298740.0 -0.2515688847 0.1277268158 0.3907569897 -0.1757299798 0.3903289147 -0.1760342535 -0.2644542808 0.1283000148
215298710.0 -0.2504534938 0.1304190898 0.3886081521 -0.1802312063 0.388573726 -0.1800531929 -0.2639167519 0.1308732888
220298680.0 -0.2493149918 0.1329506725 0.3866870433 -0.1849163276 0.3867591914 -0.184778772 -0.2622856776 0.1337214237
225298650.0 -0.2475956909 0.135655345 0.3840882653 -0.1889347145 0.3842477691 -0.1889212015 -0.261233797 0.1364213011
230298620.0 -0.2465420605 0.1380938022 0.3824166614 -0.1934238407 0.3826236112 -0.19366935 -0.259816277 0.1388149424
235298590.0 -0.2456855276 0.1406697514 0.3805113912 -0.1978170968 0.3806987211 -0.1979824605 -0.2582775715 0.141324509
240298560.0 -0.2441417102 0.1433453228 0.3781051563 -0.2021111192 0.3783164179 -0.2019628695 -0.2570636988 0.1444096973
245298530.0 -0.2424517806 0.1457967977 0.3756312856 -0.2065065683 0.3759258841 -0.2064784844 -0.2555071423 0.1468658688
250298500.0 -0.2416535928 0.1481099875 0.3739008026 -0.2104415709 0.3738273994 -0.2105245666 -0.2539935419 0.1499178095
255298470.0 -0.2401492854 0.1508776995 0.3713878583 -0.2151696984 0.3714680813 -0.2150183885 -0.252612631 0.1523677913
260298440.0 -0.2386027152 0.1533469459 0.3689417259 -0.2191676829 0.3688229945 -0.2196135461 -0.2508594043 0.1550580234
265298410.0 -0.237016325 0.1562558439 0.3665080055 -0.2238130941 0.3666019098 -0.2233674429 -0.2500343155 0.1576576706
270298380.0 -0.2352561362 0.1585911433 0.3637645031 -0.2275680657 0.3640569518 -0.2275249704 -0.2479725524 0.160514292
275298350.0 -0.2340534541 0.1612012399 0.3614628554 -0.2319910272 0.3617674925 -0.2318215521 -0.2464104995 0.1632552452
280298320.0 -0.2327860073 0.1637844365 0.3590503825 -0.2354454918 0.359147363 -0.2358756729 -0.2447901372 0.1659072878
285298290.0 -0.2308238385 0.1665316583 0.3561332039 -0.239728822 0.3562963861 -0.2398771003 -0.242961792 0.1682102754
290298260.0 -0.2292293458 0.1689843313 0.3539121692 -0.2441446192 0.3540461526 -0.2438648696 -0.2412266136 0.1712948003
295298230.0 -0.2276380088 0.1715526788 0.3514862812 -0.2479843042 0.3509092212 -0.2479980025 -0.2397885846 0.173807303
300298200.0 -0.2258233948 0.1737693055 0.3487871107 -0.2518764122 0.3486347443 -0.2517276583 -0.237820832 0.1762946294
305298170.0 -0.2239313948 0.1760582856 0.3458084976 -0.2555726372 0.3459057388 -0.256030533 -0.2356578716 0.1791787361
310298140.0 -0.2220452373 0.1782812507 0.3430213504 -0.2597598391 0.3430656007 -0.2598420257 -0.2341656524 0.1819096279
315298110.0 -0.2205188732 0.1808587319 0.3397672479 -0.2638520762 0.3402468061 -0.2638784894 -0.2320076648 0.1843880067
320298080.0 -0.2186492109 0.1832373464 0.3371631452 -0.2675391509 0.3374444521 -0.2675383656 -0.2300942067 0.1867285234
325298050.0 -0.2170328998 0.1855402589 0.3342772513 -0.2716869906 0.3342656157 -0.2716348522 -0.2282225985 0.1893182592
330298020.0 -0.2153713949 0.1879464381 0.3306467375 -0.2754780037 0.3307994239 -0.2751894905 -0.2266197222 0.1915833262
335297990.0 -0.2134865068 0.1903756485 0.3276474373 -0.2792630816 0.3276752847 -0.2791486364 -0.2246874586 0.1944357375
340297960.0 -0.2116502638 0.1929400551 0.324287829 -0.2828656973 0.3244584691 -0.2828490972 -0.2226544672 0.1971810874
345297930.0 -0.2101688981 0.1951782926 0.3212794356 -0.2859741499 0.3209134913 -0.2858832093 -0.2207689391 0.1994415425
350297900.0 -0.2074684765 0.1975089937 0.3180174027 -0.2891611767 0.318210445 -0.2897510651 -0.2188710198 0.2024121464
355297870.0 -0.2058291185 0.1999110467 0.3144145801 -0.2931315982 0.314759609 -0.2932327681 -0.2167929394 0.2048696521
360297840.0 -0.2036295709 0.2020764551 0.3114027893 -0.2965023506 0.3113422566 -0.2967006704 -0.2145768042 0.2072627644
365297810.0 -0.2015094947 0.2046089205 0.3080470776 -0.3001646179 0.3083536925 -0.2999431646 -0.2124477586 0.2097023212
370297780.0 -0.1995793076 0.2064976867 0.3043993676 -0.3030787032 0.3047119397 -0.3035827072 -0.2102472664 0.2122776804
375297750.0 -0.1974202104 0.2095939327 0.3017911591 -0.3066552301 0.3012604762 -0.3071631083 -0.2080579396 0.2148865513
380297720.0 -0.1952142768 0.2114105941 0.2978302008 -0.309839774 0.2979922419 -0.3099676334 -0.2056228267 0.2173642274
385297690.0 -0.1932174279 0.2137618737 0.2944555105 -0.3131144152 0.294586872 -0.313557488 -0.2037888395 0.2200334723
390297660.0 -0.1911208879 0.2158806012 0.2910905896 -0.3165947962 0.2906435225 -0.3170533077 -0.2012794183 0.2221337146
395297630.0 -0.1886559166 0.2181728777 0.2878364864 -0.3195435774 0.2874808213 -0.319631932 -0.1990787854 0.2246114696
400297600.0 -0.1863961498 0.2203460521 0.2839167324 -0.322892589 0.2843533998 -0.3227142165 -0.1975831178 0.2262686803
405297570.0 -0.1841509974 0.2223145788 0.2803636522 -0.3260052961 0.280634314 -0.3261448155 -0.1946944488 0.2291464908
410297540.0 -0.1816573072 0.2245130545 0.2760406513 -0.3289302879 0.2768831066 -0.3288511092 -0.192460745 0.2312886909
415297510.0 -0.1793387576 0.226810225 0.2729781913 -0.3322746876 0.2729739586 -0.3320632925 -0.1899857374 0.2339773519
420297480.0 -0.1769807354 0.2285276126 0.2690497341 -0.3352839997 0.2692551396 -0.3348708532 -0.1873886167 0.2358380099
425297450.0 -0.1746558101 0.2304398823 0.2655052799 -0.3376135187 0.2661441354 -0.3378105332 -0.1849867264 0.2381996146
430297420.0 -0.1724632095 0.2325173031 0.2621483026 -0.3410027731 0.2620841377 -0.340840213 -0.1827639498 0.2400261926
435297390.0 -0.1698669524 0.2344994373 0.2580224545 -0.3434325195 0.258477318 -0.34333064 -0.1801594395 0.242519725
440297360.0 -0.1673479585 0.2365810771 0.2543985681 -0.3460842596 0.2540094261 -0.3459852203 -0.1778419945 0.2442880476
445297330.0 -0.1647116466 0.2382381261 0.2500646383 -0.3493488283 0.2503699691 -0.348866912 -0.1749386931 0.2463014306
450297300.0 -0.1625711493 0.2402372871 0.2463624424 -0.3518260409 0.2465522263 -0.3519573144 -0.172493207 0.2486453599
455297270.0 -0.1601072687 0.2420426381 0.2432261763 -0.3546773735 0.2430511236 -0.354226149 -0.1697668327 0.250811668
460297240.0 -0.1574579626 0.2438698441 0.2385908055 -0.3567725531 0.2388479986 -0.3570391805 -0.1673860243 0.2529465451
465297210.0 -0.1546398257 0.2456969661 0.2348894083 -0.3591907023 0.2353138362 -0.3598384547 -0.1651971416 0.2547208451
470297180.0 -0.1522483185 0.2477051466 0.2312169631 -0.3617356119 0.2313655656 -0.3618985005 -0.1628120651 0.2566661331
475297150.0 -0.1499304448 0.2491340422 0.2266116728 -0.3640093766 0.227065113 -0.3642169485 -0.1596919943 0.2585051307
480297120.0 -0.1468883308 0.2506979975 0.2227517571 -0.3667671643 0.2230102032 -0.3666333465 -0.1569427809 0.2607809657
485297090.0 -0.1440382307 0.2528108898 0.2192600015 -0.3693210314 0.2188138606 -0.3693208385 -0.1543986178 0.2624838887
490297060.0 -0.1412585334 0.2542131712 0.2148938759 -0.3717056704 0.2147100338 -0.3714296111 -0.1517084968 0.2640795634
495297030.0 -0.1392541347 0.2563599775 0.2109121883 -0.3738944298 0.2103248762 -0.3738830181 -0.1488522346 0.2657799579
500297000.0 -0.1362563379 0.2575558154 0.2063767182 -0.3763156831 0.2066031653 -0.376062353 -0.1465833866 0.2676317459
505296970.0 -0.1332350126 0.259048603 0.202077903 -0.3778756792 0.2023171762 -0.3779942944 -0.1440639902 0.269242495
510296940.0 -0.1305529989 0.2608036234 0.1981345894 -0.3805028614 0.1984260989 -0.3803528215 -0.1408312342 0.2712702232
515296910.0 -0.128339275 0.2624312468 0.1937609287 -0.382538901 0.194148949 -0.3825547678 -0.1381900451 0.2729814089
520296880.0 -0.1254074626 0.2639230259 0.1898561562 -0.3845469484 0.1898742731 -0.3847252805 -0.1353522356 0.2744700146
525296850.0 -0.1226071974 0.2655058666 0.1855606956 -0.3868431474 0.18578752 -0.3870006438 -0.1321421205 0.2762262796
530296820.0 -0.120410601 0.2667525613 0.1817638243 -0.3881693655 0.1816200328 -0.3885662167 -0.1301040191 0.2775120877
535296790.0 -0.117268237 0.2680817802 0.1772980573 -0.3900467838 0.1774639618 -0.3900784769 -0.1273389316 0.2787639277
540296760.0 -0.1141303999 0.2691802716 0.1728326933 -0.3922736325 0.1730734573 -0.3923347523 -0.1242722958 0.280663298
545296730.0 -0.111510113 0.2709430126 0.1685938026 -0.3939132368 0.1686570521 -0.394193931 -0.1215017656 0.2820445599
550296700.0 -0.10876095 0.2724786295 0.1642913095 -0.3959786552 0.1644882344 -0.3961958434 -0.1183411834 0.2835624741
555296670.0 -0.1056871209 0.2733658196 0.1601680406 -0.3975240208 0.1602613901 -0.397591984 -0.1153946573 0.2849967157
560296640.0 -0.1029837376 0.274351804 0.155917127 -0.3991612207 0.1558395994 -0.3992573799 -0.1122143116 0.2864709319
565296610.0 -0.1000787725 0.2759136114 0.1512951202 -0.4007099981 0.1512412622 -0.4008566861 -0.1096988701 0.2876345394
570296580.0 -0.0970723918 0.2770083015 0.1467929735 -0.4024714715 0.1472207839 -0.4025308519 -0.1064256416 0.2892486371
575296550.0 -0.09391512 0.2782749527 0.1424761531 -0.4040295525 0.1427623727 -0.4036966808 -0.1034436292 0.2904507941
580296520.0 -0.0911919024 0.2793334283 0.1380627053 -0.4053979693 0.1381414545 -0.4053824464 -0.1004199751 0.2915418616
585296490.0 -0.0880705329 0.2801680163 0.1337571274 -0.4069178724 0.1337317371 -0.4069035751 -0.0977240476 0.292485423
590296460.0 -0.0850023382 0.2812170873 0.1292272242 -0.4079466537 0.1289090733 -0.4085513908 -0.0945065779 0.2934860245
595296430.0 -0.0822613792 0.2825164179 0.1251846609 -0.4095728372 0.1248464612 -0.4098870552 -0.091475117 0.2947828256
600296400.0 -0.0792772304 0.2834821673 0.1205064556 -0.4109190586 0.1205242455 -0.4111715857 -0.0883111089 0.2963020112
605296370.0 -0.0764319445 0.2846562515 0.1160989491 -0.4124494907 0.1163209202 -0.4120904057 -0.0855082526 0.2971722369
610296340.0 -0.0731404591 0.2856769958 0.1114208272 -0.4138273162 0.1116575812 -0.4136310536 -0.0822777892 0.2983804209
615296310.0 -0.0704365282 0.2864041975 0.1070180689 -0.4142160546 0.1071118067 -0.4146759024 -0.0792209447 0.2993054663
620296280.0 -0.0671296911 0.2871924418 0.1028106756 -0.415537503 0.1025865084 -0.4153687363 -0.0763057546 0.2998546294
625296250.0 -0.0641396544 0.2881216556 0.0973621496 -0.4165617962 0.097820525 -0.4169510132 -0.073021122 0.3015719594
630296220.0 -0.0609530747 0.289057131 0.0932913056 -0.4175892451 0.0939405167 -0.4177725813 -0.0702140132 0.3020140129
635296190.0 -0.0578032026 0.2900670553 0.0885564892 -0.4183523738 0.0888305525 -0.4183632988 -0.0669709821 0.3028398831
640296160.0 -0.0551873684 0.2904458525 0.0847254849 -0.4193688059 0.0842236712 -0.4197974661 -0.0638246633 0.3038000749
645296130.0 -0.0523604863 0.2910664643 0.0795488337 -0.4203389001 0.0798124063 -0.4202170638 -0.0612138739 0.3042689197
650296100.0 -0.0491810808 0.2922384805 0.0755828625 -0.4213138038 0.0756145241 -0.4210615362 -0.0577340389 0.305105627
655296070.0 -0.0458403613 0.2924949652 0.0703482894 -0.4215160149 0.0704224663 -0.4215871845 -0.0542626458 0.3058469814
660296040.0 -0.043127665 0.2935917178 0.0663066665 -0.4223650715 0.0662616881 -0.4223412685 -0.0514649493 0.3067114764
665296010.0 -0.0398754052 0.2938050199 0.0619751957 -0.4231618207 0.0617894951 -0.42339408 -0.0480907021 0.30752501
670295980.0 -0.0361690231 0.2946191975 0.0568737447 -0.4238121616 0.0573688224 -0.4236041794 -0.0454615338 0.3078664975
675295950.0 -0.0334731942 0.2948282957 0.0522287568 -0.4242027777 0.0526975673 -0.424598834 -0.0416646077 0.3087021791
680295920.0 -0.0301629654 0.2957417253 0.0474415202 -0.4247272439 0.0475964073 -0.4246914027 -0.0385714001 0.3091305124
685295890.0 -0.0271917992 0.2959140583 0.0431464611 -0.4253019333 0.0431469061 -0.4258021045 -0.0356589437 0.3104068493
690295860.0 -0.0235825269 0.296404918 0.03834375 -0.4251764457 0.0382818168 -0.4256747748 -0.0321688753 0.3106024945
695295830.0 -0.0203881999 0.2965994298 0.0330315469 -0.4260254589 0.0335960093 -0.4262086917 -0.0290754646 0.3109069147
700295800.0 -0.0175407204 0.2971970656 0.0291554858 -0.4265175643 0.02921547 -0.4263552881 -0.0254547997 0.3109613981
705295770.0 -0.0142775042 0.2973869612 0.0245600522 -0.4264880767 0.0248907746 -0.4266527948 -0.0229276278 0.3116260735
710295740.0 -0.0110461815 0.2980616745 0.0199147525 -0.4264645325 0.0198580498 -0.4267650257 -0.0196767463 0.3124638847
715295710.0 -0.0084618617 0.298210535 0.0153108495 -0.4267989982 0.0153906172 -0.4268705913 -0.0161283911 0.3122193673
720295680.0 -0.0052181634 0.2980606158 0.0107867136 -0.4269034571 0.0108545482 -0.4274275407 -0.0128561082 0.3127295958
725295650.0 -0.0015933729 0.2985991022 0.0060416712 -0.4269157159 0.0061444819 -0.4271363612 -0.0095058343 0.3131337141
730295620.0 0.0009343852 0.2986919467 0.001110123 -0.4268460926 0.001411047 -0.4268542183 -0.0059258109 0.3128518897
735295590.0 0.0046567872 0.2985832259 -0.0031361242 -0.4267759432 -0.0030182088 -0.4272803864 -0.0028250831 0.3135794826
740295560.0 0.0078898846 0.2990084797 -0.0080848136 -0.4265286724 -0.0076984656 -0.426711354 0.0002624416 0.3129787961
745295530.0 0.0109318482 0.2988365063 -0.0124513261 -0.4266961483 -0.0123153456 -0.4268981767 0.0034520132 0.3137281889
750295500.0 0.0138000151 0.2989419034 -0.0169445481 -0.4261071957 -0.0168954402 -0.4265118488 0.0067052889 0.3133446752
755295470.0 0.0175029358 0.2990642375 -0.0216981421 -0.4262647987 -0.02133457 -0.4265843997 0.0096332864 0.3138539339
760295440.0 0.0203125272 0.2990464035 -0.0265405441 -0.4257468203 -0.0260604292 -0.426256828 0.0126025116 0.3135467404
765295410.0 0.0234717496 0.2987910764 -0.0304804939 -0.4253769849 -0.0302096756 -0.4257714929 0.0163730306 0.3137982484
770295380.0 0.0267167692 0.2986775837 -0.0351591859 -0.4247555308 -0.0353498767 -0.4255149402 0.0199516146 0.3139932094
775295350.0 0.0297795265 0.298682946 -0.0398578641 -0.4244607736 -0.0396613479 -0.4246148414 0.0228022829 0.3133841274
780295320.0 0.0333069258 0.2983195859 -0.0446792015 -0.4244654186 -0.0446413075 -0.424384699 0.0259277684 0.3137870446
785295290.0 0.0360094698 0.2982711605 -0.0488457178 -0.4234545235 -0.0489425486 -0.4239066083 0.0290586045 0.31351468
790295260.0 0.0396040564 0.2980081381 -0.0534836736 -0.4229431591 -0.0534884359 -0.4233177136 0.0327159235 0.3132976003
795295230.0 0.0423174135 0.2978997924 -0.0579036351 -0.4223063642 -0.0581509121 -0.4225611861 0.0362435874 0.313643171
800295200.0 0.0457813803 0.297744449 -0.0631750793 -0.4221087685 -0.0630883435 -0.4221846912 0.0391357146 0.3126790371
805295170.0 0.0487517325 0.2969178504 -0.0672726137 -0.4205546347 -0.0673659723 -0.4209037754 0.0421329857 0.3122969071
810295140.0 0.0521366262 0.2967198154 -0.0718163759 -0.4199795549 -0.0714710121 -0.4210171211 0.0456570016 0.3130021181
815295110.0 0.0551372042 0.2964301466 -0.0765106589 -0.4190313958 -0.0764360244 -0.4194900758 0.0485764954 0.3120499739
820295080.0 0.0581941485 0.2957637584 -0.0806662037 -0.4184985154 -0.0809061976 -0.4188754656 0.0518366425 0.3115288249
825295050.0 0.0613455626 0.2953334793 -0.0854539565 -0.4174285832 -0.0853762489 -0.4175854012 0.055224217 0.3112226887
830295020.0 0.064687568 0.2949295742 -0.0898938078 -0.4164502706 -0.0899475455 -0.416769269 0.0582664699 0.3107140073
