!Created with skrf (http://scikit-rf.org).
# Hz S RI R 50.0 
!freq ReS11 ImS11 ReS21 ImS21 ReS12 ImS12 ReS22 ImS22
300000.0 -0.3220219518 -0.0813658351 0.3778657161 0.0442270308 0.3741502416 0.0435899467 -0.3210500527 -0.1024812238
5299970.0 -0.3265349612 0.0045879949 0.3781482359 0.0023014706 0.3783758276 0.0024454714 -0.3240317238 0.0047041545
10299940.0 -0.3240950274 0.0132585832 0.3796384998 0.0020260671 0.3795449632 0.0023355614 -0.3213503784 0.0160353114
15299910.0 -0.3213625542 0.0202571753 0.3817201682 0.0021610683 0.3820443323 0.0020004934 -0.3181062954 0.0237437933
20299880.0 -0.3186877509 0.0265287758 0.3848207473 0.0018784517 0.384836932 0.0014949676 -0.3145620913 0.030229164
25299850.0 -0.3158254135 0.0315810643 0.3878819759 0.0002434561 0.3880193841 0.0001989516 -0.3106299197 0.0361182577
30299820.0 -0.3127789196 0.0360431044 0.3913814195 -0.0024730566 0.3914774762 -0.0025799056 -0.3067287922 0.0406571871
35299790.0 -0.310010533 0.0399821034 0.3947732706 -0.005579887 0.3949289651 -0.0053559644 -0.3035045201 0.0453292127
40299760.0 -0.3071969739 0.0439552545 0.3977880079 -0.0088438152 0.3978755678 -0.0088613499 -0.3000971556 0.0483093821
45299730.0 -0.3045622648 0.0465917004 0.4009098007 -0.013054735 0.4012268671 -0.0127580346 -0.2974794382 0.0521973741
50299700.0 -0.3025482855 0.049430271 0.4038104805 -0.017168278 0.4036136756 -0.017037289 -0.2942465412 0.0546869721
55299670.0 -0.2999941013 0.0520875499 0.4057171478 -0.0224941719 0.4054669956 -0.0219105881 -0.2918418266 0.0572212214
60299640.0 -0.298094512 0.0548922042 0.4074266156 -0.026949099 0.4076333159 -0.0269356623 -0.2891955537 0.0595438156
65299610.0 -0.2963505995 0.0573732169 0.4091108875 -0.031979982 0.4091412466 -0.0318894569 -0.2874266191 0.0616380235
70299580.0 -0.2948867767 0.060097527 0.4103646956 -0.0373293594 0.4105253051 -0.0371448328 -0.2851640309 0.0642384231
75299550.0 -0.293082719 0.0625150867 0.4112540255 -0.0421776546 0.4112781815 -0.0422849903 -0.2834278977 0.065646241
80299520.0 -0.2916988033 0.0650077687 0.4124549978 -0.0475474803 0.4122556033 -0.0477956089 -0.2815548731 0.0681935366
85299490.0 -0.2902586049 0.0669537735 0.4128333753 -0.052729757 0.4128491703 -0.0525098054 -0.2802016584 0.0698453062
90299460.0 -0.2888005607 0.0691827838 0.4128635251 -0.0581603277 0.4135653303 -0.058100094 -0.2786090208 0.0722980573
95299430.0 -0.2872660963 0.07132945 0.4137748796 -0.0630999742 0.4136436317 -0.0632496834 -0.2766778728 0.0744564901
100299400.0 -0.2863740521 0.0740155131 0.413240133 -0.0681377846 0.4132090347 -0.0683025933 -0.2751834558 0.0758487442
105299370.0 -0.2850722566 0.0762733872 0.4129615936 -0.0737862567 0.4135733421 -0.0739316814 -0.2736979708 0.0783553591
110299340.0 -0.2840520799 0.0787938831 0.4133567619 -0.078648814 0.4129351602 -0.0786823581 -0.2729150753 0.0802628401
115299310.0 -0.2828269092 0.0814264823 0.4128150659 -0.0840607759 0.4126665403 -0.0839524001 -0.2716629113 0.0824767279
120299280.0 -0.2820983168 0.0833832141 0.4123935799 -0.0891532257 0.4123773141 -0.0893808115 -0.2704699316 0.084871969
125299250.0 -0.2813289662 0.0856881197 0.4119718609 -0.0941225687 0.4118814222 -0.0941284268 -0.2694292686 0.086276704
130299220.0 -0.2806120604 0.0880893953 0.4112858033 -0.0993122193 0.4110597422 -0.0994478061 -0.268189974 0.0882789631
135299190.0 -0.2791980514 0.0909492079 0.4105706228 -0.104043057 0.4104721994 -0.1041169038 -0.2671810059 0.090977646
140299160.0 -0.2786030133 0.0933289858 0.4096116363 -0.1093905048 0.4097791642 -0.1095560405 -0.2659586529 0.0935675618
145299130.0 -0.2772828175 0.0958544388 0.4089423352 -0.1142914086 0.4084492611 -0.1142057391 -0.2653539294 0.0958287206
150299100.0 -0.2762358631 0.0984297338 0.4075672224 -0.1190146532 0.4075223913 -0.118861138 -0.2643038645 0.0986058899
155299070.0 -0.2755037294 0.1007234598 0.4066906363 -0.124333752 0.4064996076 -0.1243952751 -0.2629284086 0.1008613872
160299040.0 -0.2744207171 0.1038492958 0.4050672263 -0.1289290637 0.4049654304 -0.1289158295 -0.2626103451 0.1033481123
165299010.0 -0.2736866929 0.1061211024 0.4039136915 -0.1338854221 0.4039023778 -0.1337896799 -0.2612005411 0.1056881889
170298980.0 -0.2728585453 0.1085785119 0.4028129905 -0.1383955718 0.4027036592 -0.1386733669 -0.2602820486 0.1083032929
175298950.0 -0.271738247 0.1112551646 0.4016928143 -0.1429598015 0.4011440303 -0.1433220645 -0.2591771616 0.110468856
180298920.0 -0.2709181712 0.1140839553 0.3999582967 -0.1480613548 0.3999242393 -0.1478220386 -0.2579732392 0.1133695113
185298890.0 -0.2693838446 0.1163449486 0.3984804355 -0.1525852315 0.3981770385 -0.1528194233 -0.2569763209 0.1159106997
190298860.0 -0.2689768467 0.1192767755 0.3970389178 -0.1575351297 0.3970097915 -0.1575217545 -0.2561923919 0.1184591818
195298830.0 -0.2677647362 0.1217611349 0.3951997225 -0.161946333 0.3951366691 -0.1621999071 -0.2547571508 0.1210031864
200298800.0 -0.2663721653 0.1243600024 0.3933430679 -0.1666345011 0.3936318741 -0.1667293556 -0.2543484008 0.1235323496
205298770.0 -0.2655099919 0.1273719665 0.3915520531 -0.1714490707 0.3913165557 -0.1711071705 -0.253055532 0.1257238463
210298740.0 -0.2644465248 0.1298435768 0.389839188 -0.1754934621 0.3897770322 -0.1754913774 -0.2519121998 0.1285228206
215298710.0 -0.2635266378 0.1329602974 0.3883386686 -0.1803108013 0.3876976155 -0.1802673619 -0.2509310286 0.1312619994
220298680.0 -0.2617384055 0.1352341563 0.3853909898 -0.1848041386 0.3858394268 -0.1849240892 -0.2500671659 0.1335446256
225298650.0 -0.2609702057 0.1382999209 0.3836955353 -0.1893764105 0.3842810327 -0.1892439104 -0.2492398896 0.1359791234
230298620.0 -0.259765198 0.1409496866 0.3819757399 -0.1934423053 0.3822998697 -0.1935487333 -0.248046409 0.1386746655
235298590.0 -0.2582584607 0.143817778 0.3795016377 -0.1977990047 0.3796874421 -0.1976811217 -0.2465832485 0.1413273812
240298560.0 -0.2569050492 0.1463088823 0.3773811959 -0.2028747734 0.3776292137 -0.2024396794 -0.2455006862 0.1440993465
245298530.0 -0.2556457336 0.1489466357 0.3754344522 -0.2065608058 0.3754557157 -0.2067750677 -0.2439767656 0.1459677319
250298500.0 -0.254177517 0.1518498304 0.3726230131 -0.2110249894 0.3727977567 -0.211050605 -0.2427587128 0.1486804453
255298470.0 -0.2525455116 0.154192552 0.3701866985 -0.2149565087 0.3708650943 -0.2150978425 -0.2413872715 0.1509356943
260298440.0 -0.2516721089 0.1569633091 0.3682742339 -0.2197025432 0.3682428751 -0.2192070403 -0.2397828742 0.153756424
265298410.0 -0.2502256649 0.1599415288 0.3660612979 -0.2240258479 0.3659102545 -0.2234386625 -0.2383137152 0.1562443648
270298380.0 -0.2483430626 0.1623378358 0.3634592248 -0.2275770564 0.3637816228 -0.2276894078 -0.2370006465 0.1587257088
275298350.0 -0.2465570301 0.1652887351 0.3607883547 -0.2322421981 0.3610918755 -0.2318257875 -0.235256641 0.1609435328
280298320.0 -0.2452429394 0.1679277347 0.3586323772 -0.236074717 0.3584740494 -0.2358334826 -0.2331842716 0.1634982109
285298290.0 -0.2437372968 0.1706818419 0.3557745159 -0.2398012675 0.3556753771 -0.240025456 -0.2321813026 0.166071847
290298260.0 -0.2420392049 0.173293042 0.3533666821 -0.2437331949 0.3531931705 -0.2441700887 -0.230172166 0.168841643
295298230.0 -0.2400517534 0.1756287672 0.3505974628 -0.247961788 0.3505057399 -0.2479841893 -0.2284764927 0.1708952626
300298200.0 -0.238518427 0.1784174358 0.3480092358 -0.2517727308 0.3479162538 -0.2517892688 -0.2268475517 0.1733627112
305298170.0 -0.2364368187 0.1805997894 0.3446212195 -0.2559985702 0.3445279634 -0.2557570501 -0.224311125 0.1756568102
310298140.0 -0.2347532889 0.1833283755 0.3421316793 -0.2597192293 0.3420657867 -0.25978409 -0.2232447105 0.1781055967
315298110.0 -0.2330112953 0.1856866605 0.3394629835 -0.2635679568 0.33918373 -0.2638192317 -0.2214739 0.1804192429
320298080.0 -0.2312605809 0.1883097663 0.3361217663 -0.2674805299 0.3364292766 -0.2676207245 -0.2194355384 0.1828549299
325298050.0 -0.2293277429 0.1907406436 0.3331354034 -0.2714154184 0.3331789373 -0.2716080913 -0.2176052703 0.1851953188
330298020.0 -0.2274253212 0.192846398 0.3299691 -0.2750561116 0.3300668072 -0.2751822357 -0.2158394169 0.1874636248
335297990.0 -0.2256186215 0.1952079501 0.3270000169 -0.278703511 0.3264988139 -0.278939875 -0.2144256734 0.1903020347
340297960.0 -0.2240101354 0.1982436874 0.3233727695 -0.2821530774 0.3235449782 -0.2823972622 -0.2119188469 0.1929293291
345297930.0 -0.22198276 0.2008330455 0.3204136863 -0.2862437117 0.3205295062 -0.2863635142 -0.2105198743 0.1949104904
350297900.0 -0.2200791208 0.2029716642 0.3169433962 -0.2899602443 0.31696806 -0.2894673874 -0.2087956468 0.1976609769
355297870.0 -0.2180976639 0.2060012935 0.3139389661 -0.2930493341 0.3142210763 -0.2931943145 -0.2068565841 0.2001378406
360297840.0 -0.2159113347 0.2084478779 0.3110107944 -0.2962051258 0.3109853879 -0.2965011661 -0.2046543097 0.2027124476
365297810.0 -0.2140703354 0.2109717477 0.3072738927 -0.2999925924 0.3075883936 -0.2997845931 -0.2027202008 0.2048542652
370297780.0 -0.2115900468 0.2129747771 0.3037130607 -0.3030691932 0.3043414117 -0.3030763819 -0.2005594806 0.2072267249
375297750.0 -0.2091827834 0.2155522297 0.3007240524 -0.3067488247 0.3010385145 -0.3065578737 -0.1986618613 0.2093982067
380297720.0 -0.2072472885 0.2180628103 0.297408221 -0.3101760349 0.2972578547 -0.3095422188 -0.1968109717 0.2117458601
385297690.0 -0.2055149054 0.220152745 0.2935869186 -0.313030704 0.293592052 -0.3128743473 -0.1944992578 0.2143741232
390297660.0 -0.2031185696 0.2228271975 0.2903639401 -0.3164947091 0.2903233555 -0.315987373 -0.1927020678 0.2164585864
395297630.0 -0.2006545158 0.2251195473 0.2869572138 -0.3196309961 0.2871917813 -0.3196579069 -0.1902761391 0.2188458237
400297600.0 -0.1985080559 0.2274514084 0.2830997294 -0.3227674449 0.2835682106 -0.3228968102 -0.1882998996 0.2208817941
405297570.0 -0.1963266455 0.2296679566 0.2798912795 -0.3255123005 0.2797310988 -0.3255787879 -0.1860625146 0.2230284048
410297540.0 -0.1939420288 0.2318165727 0.2761874171 -0.328848603 0.2764752405 -0.3287092056 -0.183757596 0.2252419814
415297510.0 -0.1912216186 0.2334665467 0.2725125375 -0.3316955786 0.2725979283 -0.3318314783 -0.1815419197 0.2272091551
420297480.0 -0.188868371 0.2364899416 0.2686115662 -0.3347147708 0.2688931403 -0.3346526033 -0.179381233 0.2294266064
425297450.0 -0.1865209933 0.2383738125 0.2653644146 -0.3374180553 0.2657868598 -0.3377800448 -0.1771628053 0.231306931
430297420.0 -0.1839469587 0.2404026496 0.2613876744 -0.3400697653 0.2613222819 -0.3402174312 -0.1745176516 0.2332519745
435297390.0 -0.1820185755 0.2424226853 0.2576111255 -0.3432164917 0.2574006193 -0.3432527376 -0.1720243167 0.2348889007
440297360.0 -0.1790227175 0.2446699634 0.2536583978 -0.3459694359 0.2538515945 -0.3458593738 -0.1698862348 0.2370062028
445297330.0 -0.1765392579 0.246557671 0.250074896 -0.3486822358 0.2500506448 -0.3485169546 -0.1670546413 0.2385147887
450297300.0 -0.1738032194 0.248375413 0.2457222531 -0.3514216314 0.2461711247 -0.3516009346 -0.1647428272 0.2404536221
455297270.0 -0.1713256572 0.2503656167 0.2418603918 -0.354279832 0.2424210394 -0.3539996165 -0.162317118 0.2420811588
460297240.0 -0.1688200659 0.2526212612 0.2382986095 -0.3564693943 0.2382955052 -0.3569839246 -0.1597872406 0.2443270231
465297210.0 -0.1662173899 0.2544402696 0.2345465462 -0.3593062342 0.2344146804 -0.3594628839 -0.1570424084 0.2458936885
470297180.0 -0.1635228426 0.2562879422 0.2301233545 -0.3619854596 0.2305309293 -0.3618027372 -0.1543657129 0.248002621
475297150.0 -0.1608558211 0.2580022354 0.2263550424 -0.3641801444 0.2261597626 -0.3638969072 -0.1512996012 0.249338077
480297120.0 -0.1581812443 0.260174937 0.2223189003 -0.3665550108 0.2221854374 -0.3667211324 -0.1485831878 0.2510923533
485297090.0 -0.1552285317 0.2617242619 0.2183141596 -0.368574762 0.2184432929 -0.3687622559 -0.1462570284 0.2531819373
490297060.0 -0.1530922078 0.2635671037 0.2145873302 -0.3713755675 0.2144524331 -0.3710321612 -0.1434582499 0.2548363008
495297030.0 -0.1501112118 0.2651718876 0.2101964266 -0.3732627649 0.2107032998 -0.3735240084 -0.1409116127 0.2566570248
500297000.0 -0.1472321382 0.267237409 0.2060118617 -0.3755549132 0.2057707884 -0.3755177337 -0.1380886641 0.258574996
505296970.0 -0.1441053395 0.2685141492 0.2019256746 -0.3779243227 0.2016829276 -0.378002839 -0.1352084789 0.2597952195
510296940.0 -0.1417346555 0.2703005193 0.1976122877 -0.3799965621 0.197696483 -0.3805108654 -0.1323322226 0.2618639225
515296910.0 -0.1387596071 0.2719536399 0.1935802485 -0.3822499009 0.193426789 -0.3824090559 -0.1297054208 0.2632720511
520296880.0 -0.1361365276 0.2738133354 0.1895538232 -0.3848028584 0.1892109415 -0.3845926233 -0.1270049193 0.2648475632
525296850.0 -0.1330590478 0.2746096074 0.1849412843 -0.3864473111 0.1853128015 -0.3864174351 -0.1243201598 0.2663024714
530296820.0 -0.1300386097 0.2765468671 0.1809698569 -0.3887881007 0.1810234294 -0.3880165678 -0.1218109995 0.2674415801
535296790.0 -0.1275466535 0.2780990118 0.1770151274 -0.3904789871 0.1768638288 -0.3899685109 -0.1189577099 0.2692960612
540296760.0 -0.1246741745 0.2796183854 0.1725200526 -0.3926428462 0.1720391299 -0.3922073447 -0.1162601804 0.2709644057
545296730.0 -0.1216734037 0.2811522502 0.1679136991 -0.3938533885 0.1679304373 -0.3939417239 -0.1136055612 0.2721596553
550296700.0 -0.1186276237 0.2828292617 0.1637067739 -0.3959164222 0.1635640728 -0.3961060151 -0.1105005383 0.2739419842
555296670.0 -0.1156616423 0.2836588212 0.1597532034 -0.397214771 0.1596333593 -0.3975397568 -0.1077953518 0.2752708513
560296640.0 -0.1123217371 0.2856512661 0.1551249587 -0.3995272244 0.155009231 -0.3995046807 -0.1048092251 0.27654132
565296610.0 -0.1097251458 0.2868424388 0.1508499288 -0.4008092881 0.1508835879 -0.4010260447 -0.1021388137 0.2776081029
570296580.0 -0.106894596 0.2879723052 0.1463481666 -0.4029703317 0.1460086774 -0.4025926585 -0.0994857351 0.279138984
575296550.0 -0.104167008 0.2893855754 0.1420547519 -0.4043724792 0.1415631333 -0.403962309 -0.0960768496 0.2801803147
580296520.0 -0.1006413045 0.2905221468 0.1374861354 -0.4059462909 0.1375913952 -0.4055448579 -0.0934363712 0.2812160099
585296490.0 -0.0977394407 0.291487522 0.1331596364 -0.4065951834 0.1331012339 -0.407215154 -0.0905950146 0.282346852
590296460.0 -0.0946154228 0.2930063368 0.1287933275 -0.4080547428 0.1287653875 -0.4081959105 -0.0881470535 0.2832178942
595296430.0 -0.0915052558 0.2941956763 0.1241216483 -0.4099113694 0.1238661202 -0.4096346947 -0.0845935654 0.2841918303
600296400.0 -0.0884377661 0.2949636698 0.1193070934 -0.4111448268 0.1194700653 -0.410943963 -0.0820264704 0.2851998054
605296370.0 -0.0857903059 0.296142234 0.1153070692 -0.412305062 0.1151108581 -0.4120932418 -0.0786344289 0.2861148597
610296340.0 -0.0824431782 0.29711448 0.1107897834 -0.4135002206 0.1105364639 -0.413427394 -0.0756247214 0.2872722732
615296310.0 -0.0787010798 0.2982391789 0.1060109294 -0.4143715939 0.1059025757 -0.4149928832 -0.0724850403 0.2877775193
620296280.0 -0.0759937985 0.2987173572 0.1017313842 -0.4154047688 0.1015999715 -0.415315741 -0.0698573901 0.2889839622
625296250.0 -0.0728930738 0.2996229893 0.0974164292 -0.4167262592 0.0973384188 -0.4170045832 -0.0661866498 0.2895659812
630296220.0 -0.0690423211 0.3004532362 0.0919287748 -0.4174677271 0.0922262055 -0.4175782085 -0.0634142678 0.2905376739
635296190.0 -0.0669736918 0.3012878 0.0881982765 -0.4183416104 0.0878362016 -0.4185565893 -0.0602075309 0.2911850664
640296160.0 -0.0634890894 0.3023443915 0.0838738715 -0.4191111027 0.0834781801 -0.4194296706 -0.0571375426 0.2919356659
645296130.0 -0.0604191361 0.3034699018 0.0789331405 -0.4201803538 0.0790516874 -0.4201829218 -0.0542062683 0.2928355292
650296100.0 -0.0568556975 0.3038762932 0.0745214344 -0.4206594525 0.0742423898 -0.4206076052 -0.0508081696 0.2931236201
655296070.0 -0.0540972663 0.3048859284 0.0699896987 -0.4218667734 0.0702363664 -0.4216265763 -0.0474780817 0.2940167276
660296040.0 -0.0508993152 0.3051897565 0.065548515 -0.4223649146 0.0650818294 -0.4224965119 -0.0440535295 0.2945867748
665296010.0 -0.0473554075 0.3056399464 0.0601144415 -0.4229480982 0.0607710146 -0.4232055167 -0.041081466 0.2958428519
670295980.0 -0.0447393347 0.3066598799 0.0557742553 -0.4233070551 0.0560805518 -0.4236534241 -0.0382704154 0.2958976197
675295950.0 -0.0413410554 0.3069948671 0.0518392231 -0.4240303449 0.0515542697 -0.423627657 -0.0351190407 0.2966899049
680295920.0 -0.0379715403 0.3078564899 0.0468331238 -0.424523643 0.0463962723 -0.4252418291 -0.031751042 0.2978385171
685295890.0 -0.0346730015 0.3087456946 0.0422986666 -0.4249341456 0.0419691784 -0.4253238005 -0.0285376881 0.2981109541
690295860.0 -0.0315266437 0.3087404105 0.0378195632 -0.424911739 0.037707318 -0.4256819684 -0.0258682152 0.2990674026
695295830.0 -0.0284439115 0.3091603112 0.0331522612 -0.425522394 0.0327539354 -0.4258020572 -0.0223177118 0.2994462692
700295800.0 -0.0249697604 0.3095455119 0.0283253554 -0.4261014698 0.027873874 -0.4262088079 -0.0194622587 0.2998924659
705295770.0 -0.02199463 0.3106165273 0.023736999 -0.4264067693 0.023565485 -0.426354465 -0.0161639476 0.3003738494
710295740.0 -0.0184456924 0.3105107856 0.0195117768 -0.4269712475 0.0191498427 -0.4268540458 -0.0132400571 0.3002348987
715295710.0 -0.0154411158 0.3106298385 0.0145700436 -0.4265885106 0.0140945051 -0.4267763646 -0.0098067386 0.3008609076
720295680.0 -0.0120537246 0.311171328 0.00952883 -0.4270964208 0.0098736454 -0.4268555487 -0.006717645 0.3010877915
725295650.0 -0.0085933669 0.3114447242 0.0050524687 -0.4267969415 0.0053869104 -0.4269302508 -0.0041422534 0.3016459497
730295620.0 -0.0053996333 0.311682647 0.0005455919 -0.4268533238 0.0005310556 -0.426962329 -0.0012508435 0.301509367
735295590.0 -0.0020464426 0.312044122 -0.0040281807 -0.4271178386 -0.0039551312 -0.4268748506 0.0018289199 0.3014071454
740295560.0 0.0005745184 0.312372171 -0.008395983 -0.4265969272 -0.008855872 -0.4270149071 0.0058252558 0.3020814885
745295530.0 0.0041099223 0.3120959453 -0.0135038444 -0.4262013335 -0.0134977971 -0.4266754756 0.0086867339 0.3015021474
750295500.0 0.0077530518 0.3121347947 -0.017559443 -0.4261251976 -0.0178757349 -0.426490997 0.0113495912 0.3020873815
755295470.0 0.0109979976 0.3121446447 -0.0221322846 -0.4261272266 -0.0228895713 -0.4260117161 0.0153624829 0.3015392782
760295440.0 0.0139842665 0.3120342872 -0.0268739536 -0.4259510664 -0.027282646 -0.4262884992 0.0177018621 0.301528606
765295410.0 0.0173650565 0.3123578193 -0.0318160903 -0.4254622551 -0.0321214426 -0.4255889506 0.0211624511 0.3015911227
770295380.0 0.0204123426 0.3121649063 -0.0364524959 -0.4251531086 -0.0364969561 -0.4249593911 0.0241980507 0.301249949
775295350.0 0.0236279276 0.3117355408 -0.0412223291 -0.4242026398 -0.0407930417 -0.4244877489 0.0268356975 0.3012669425
780295320.0 0.0269320075 0.3119794763 -0.0454331927 -0.4237622284 -0.0450527489 -0.4237179253 0.0301831452 0.300657346
785295290.0 0.0299280122 0.3110943318 -0.050308651 -0.4230296508 -0.0502550316 -0.4234679855 0.0337947215 0.3008734848
790295260.0 0.0337130136 0.3117843047 -0.0544160085 -0.4227863997 -0.0540090809 -0.4228234913 0.0371822093 0.3005073582
795295230.0 0.0364886954 0.3112194458 -0.0593790561 -0.4222645465 -0.0589098417 -0.4222102894 0.0403709831 0.3000154984
800295200.0 0.039764669 0.3108136976 -0.0642409928 -0.4213773215 -0.063672007 -0.4212087168 0.0434091686 0.2999117852
805295170.0 0.0433489343 0.3104956234 -0.0685930201 -0.420609438 -0.0683393672 -0.4205560329 0.046486278 0.2993346337
810295140.0 0.0463040592 0.3099070428 -0.072515207 -0.4196208307 -0.0730561429 -0.4199659407 0.0503219508 0.2989930666
815295110.0 0.0495401767 0.3094385684 -0.0769072247 -0.4187384417 -0.0773767847 -0.4190751883 0.0531022393 0.2986986849
820295080.0 0.0524880564 0.309888629 -0.081766201 -0.4182143519 -0.0812961041 -0.418160042 0.0566883235 0.2982699509
825295050.0 0.0565452932 0.3088611444 -0.0860692306 -0.4172092438 -0.0862615883 -0.4171907254 0.0597313512 0.2976770407
830295020.0 0.0593062713 0.3085870831 -0.0909368849 -0.4161047585 -0.0907871802 -0.4160999411 0.0633954345 0.2975869934
