!Created with skrf (http://scikit-rf.org).
# Hz S RI R 50.0 
!freq ReS11 ImS11 ReS21 ImS21 ReS12 ImS12 ReS22 ImS22
300000.0 -0.3179464252 -0.108712423 0.3721005644 0.0544162504 0.3758817103 0.0578011057 -0.3203041646 -0.1184008872
5299970.0 -0.3236933737 0.0046029832 0.3787871844 0.0025652861 0.3786245334 0.0034587344 -0.3261552272 0.0025581214
10299940.0 -0.3209600204 0.0153013025 0.3798498911 0.0025417469 0.3795941993 0.0024228607 -0.3240847078 0.0127925549
15299910.0 -0.3181564026 0.0233999054 0.3820916368 0.0019200278 0.3820134537 0.0024845411 -0.3213376082 0.0197220725
20299880.0 -0.3145191007 0.0303590727 0.3849116727 0.0013769289 0.3851428568 0.0015584236 -0.3184381929 0.0258905373
25299850.0 -0.3104901182 0.0354504554 0.3883835146 -0.000112254 0.388358132 0.0001386106 -0.3156183399 0.0309881808
30299820.0 -0.3066013588 0.0404279432 0.3919876975 -0.0021499731 0.3917489335 -0.002341558 -0.3124957325 0.0357383221
35299790.0 -0.3030549361 0.0447090928 0.3951233735 -0.0053288238 0.3950003809 -0.0052922356 -0.3096141756 0.0398170164
40299760.0 -0.2996358689 0.0479472094 0.3982673557 -0.0084373427 0.3982472826 -0.0085231635 -0.3070400193 0.043250155
45299730.0 -0.2962497456 0.0515409411 0.4009762028 -0.0129908519 0.4015299208 -0.0126925831 -0.304577877 0.0461567068
50299700.0 -0.2931397558 0.0541037884 0.403520575 -0.017640686 0.4036073713 -0.017338196 -0.3019429941 0.0491508057
55299670.0 -0.2907088131 0.0571139626 0.405534733 -0.0220849091 0.4060261141 -0.0218866222 -0.2999959062 0.0520820321
60299640.0 -0.2881477524 0.05902434 0.4074368946 -0.0268718629 0.4075357571 -0.0269342617 -0.2979162354 0.0548664168
65299610.0 -0.2861557008 0.0615498036 0.4095275898 -0.0314944358 0.4092515638 -0.0317677259 -0.2960095972 0.0572393089
70299580.0 -0.2837138227 0.0637495246 0.4104660417 -0.0369840207 0.4108475807 -0.0368168279 -0.2948993292 0.0594157259
75299550.0 -0.2818881217 0.065881853 0.4114710991 -0.0424075627 0.4114720879 -0.042340631 -0.2933032876 0.06223134
80299520.0 -0.2802761829 0.0680501344 0.4127848979 -0.0474258051 0.4125188519 -0.0474733588 -0.2914917701 0.0643832638
85299490.0 -0.2782076285 0.0699276898 0.4131762627 -0.0528442958 0.41319222 -0.0526469503 -0.2904415367 0.0664550301
90299460.0 -0.277191401 0.0722965079 0.413629291 -0.0576507361 0.4135764991 -0.0578610468 -0.2884807277 0.0690805291
95299430.0 -0.2755329039 0.0743968215 0.4137926687 -0.0632125415 0.4138221099 -0.0628402623 -0.2874862771 0.0712142144
100299400.0 -0.2745267098 0.0766808688 0.4138144378 -0.0685667913 0.4137702974 -0.0684956647 -0.2869721851 0.0734662699
105299370.0 -0.2729128618 0.0783795909 0.4132524631 -0.0729686259 0.4140646381 -0.0737316339 -0.2853516245 0.076026863
110299340.0 -0.2721059398 0.0806241639 0.4133577036 -0.0786239939 0.4135308759 -0.0790359478 -0.2842751263 0.0785042115
115299310.0 -0.2706456414 0.0824038988 0.4129584061 -0.0833954529 0.4132425407 -0.0836895166 -0.282926814 0.0802638036
120299280.0 -0.2696240676 0.0846247083 0.4127779951 -0.0889695786 0.4128819473 -0.0890702843 -0.2825433576 0.0830192235
125299250.0 -0.268879923 0.0864721989 0.4119446601 -0.0937658245 0.4126845858 -0.0939909936 -0.2813340189 0.0847214068
130299220.0 -0.2676366892 0.0890723158 0.4113545146 -0.0984877372 0.4115340061 -0.0990638891 -0.2808134326 0.0877276348
135299190.0 -0.2664340312 0.09100858 0.4106631374 -0.1040031873 0.4107591132 -0.1040127412 -0.2796123641 0.0896901418
140299160.0 -0.2660208046 0.0936771471 0.4099634957 -0.1088879319 0.4102790693 -0.1093611814 -0.2785415528 0.0920144614
145299130.0 -0.2649117705 0.0960445047 0.4094922653 -0.1142478971 0.40916018 -0.113700004 -0.2782288922 0.0945693615
150299100.0 -0.2636662885 0.0981976223 0.4080639009 -0.1189212529 0.4082632632 -0.1189980423 -0.2769887287 0.0969897719
155299070.0 -0.2628154702 0.1008947188 0.4069478944 -0.1239204969 0.4070014764 -0.12437417 -0.2762205626 0.0998634119
160299040.0 -0.2618571529 0.1029740011 0.4055905516 -0.1286040221 0.4060930973 -0.1288733373 -0.2751697372 0.1023590003
165299010.0 -0.2611567477 0.1052864448 0.4047753026 -0.1336935766 0.4048618429 -0.1334571261 -0.2744271071 0.104420278
170298980.0 -0.2600632424 0.1077476785 0.4025920191 -0.1384194791 0.4030401003 -0.138327961 -0.2734353626 0.1073168458
175298950.0 -0.2589391918 0.1104029127 0.4021243242 -0.1428689382 0.402121281 -0.1432312417 -0.2720819659 0.1096688372
180298920.0 -0.2577813008 0.1127318998 0.4002413424 -0.1479918509 0.4006553983 -0.1479465008 -0.2711729271 0.1123565228
185298890.0 -0.2566206338 0.1153241898 0.3985054233 -0.1529288653 0.399166725 -0.1527254126 -0.2704901651 0.1147526576
190298860.0 -0.2556483437 0.11787923 0.3971432071 -0.1574150314 0.3975171039 -0.1572811939 -0.2689635546 0.1175075369
195298830.0 -0.2545789648 0.1200684192 0.395677891 -0.1616657798 0.3956757691 -0.1622169869 -0.2680699443 0.1198097392
200298800.0 -0.2535830296 0.1229302345 0.394219898 -0.1660816168 0.393892202 -0.1668937186 -0.2668770228 0.1229278065
205298770.0 -0.25279825 0.125275207 0.3924566231 -0.1709799819 0.3924590766 -0.1712533949 -0.2657361807 0.1254578552
210298740.0 -0.2515329882 0.1277976578 0.3907302632 -0.1759681819 0.3906065496 -0.1761338786 -0.2645205991 0.1281516206
215298710.0 -0.2501889662 0.1306049277 0.3882083525 -0.1803616703 0.3886535551 -0.1800238324 -0.2635163515 0.1306162911
220298680.0 -0.2491496105 0.1330486048 0.3864814939 -0.1846770992 0.3868204303 -0.184828341 -0.2621941284 0.1335879444
225298650.0 -0.2474438197 0.1355701756 0.3842940834 -0.1890000753 0.3844315434 -0.1885752671 -0.2610153504 0.1362118457
230298620.0 -0.2467205615 0.1382139349 0.3828560176 -0.1935985959 0.3825703395 -0.193642948 -0.2594564322 0.1387902694
235298590.0 -0.2453995787 0.1404301097 0.380270009 -0.1976466957 0.380334554 -0.1983017947 -0.2583852325 0.1412253957
240298560.0 -0.2443174118 0.1434590447 0.3784708038 -0.2023640686 0.3782937179 -0.2019454891 -0.2570881996 0.144188063
245298530.0 -0.2428405066 0.14579988 0.3755588615 -0.2065956835 0.3759649042 -0.2066127697 -0.2556346056 0.1471749268
250298500.0 -0.2416531967 0.1484112118 0.3736522835 -0.2105894251 0.3739956177 -0.2103667931 -0.2539907429 0.1496156901
255298470.0 -0.2400637395 0.1511057853 0.3711451073 -0.2152406291 0.3714048931 -0.2151493592 -0.2525572385 0.1521539487
260298440.0 -0.2388648174 0.153477952 0.3690649158 -0.2190294761 0.3690496655 -0.2192983138 -0.2507751542 0.1547225605
265298410.0 -0.2369167978 0.1562659111 0.3665614126 -0.2239230556 0.3664240205 -0.2233503372 -0.249403543 0.1573533305
270298380.0 -0.2352791551 0.1586518056 0.3635429449 -0.2277228743 0.3641653072 -0.2277263815 -0.2479058676 0.160347075
275298350.0 -0.2340566028 0.1614041148 0.361548022 -0.2322009541 0.361803188 -0.2320059788 -0.2461589077 0.1629395222
280298320.0 -0.2326738087 0.1636805686 0.3589845723 -0.2354152642 0.3587696647 -0.2360941371 -0.2443899006 0.1656282559
285298290.0 -0.2311188799 0.1667593138 0.3565350912 -0.2397982971 0.3563608338 -0.2400498201 -0.2431366111 0.1683883824
290298260.0 -0.2297002981 0.1688406947 0.3542232966 -0.2439972543 0.3538318711 -0.2439054666 -0.241100249 0.1713720964
295298230.0 -0.227708549 0.1712696206 0.3513897334 -0.2479599168 0.3511369805 -0.2477247359 -0.2393315327 0.1737453027
300298200.0 -0.2256692344 0.1735267032 0.3485131464 -0.2519074279 0.3484923305 -0.2518884217 -0.2378451815 0.1764542446
305298170.0 -0.2238707653 0.1763705377 0.3456372386 -0.2562370482 0.346105697 -0.2559824173 -0.235777163 0.1793344747
310298140.0 -0.2221219227 0.1782209223 0.3428907567 -0.2597805044 0.3427992857 -0.2602034217 -0.2334857352 0.1820632908
315298110.0 -0.2206783863 0.1809965396 0.3397906087 -0.2636351365 0.3401601518 -0.2639037168 -0.2318482493 0.1842259234
320298080.0 -0.2186819469 0.1834109105 0.3368293263 -0.2676329147 0.3373393152 -0.2679752674 -0.2299579201 0.1867856325
325298050.0 -0.2170619725 0.1853418139 0.3340897553 -0.2715385017 0.3343238117 -0.2718414466 -0.2280834162 0.1896819196
330298020.0 -0.2153057571 0.1882543253 0.3307338593 -0.2752069068 0.330862379 -0.2756536394 -0.2261529048 0.1918993634
335297990.0 -0.2133260036 0.190110055 0.3275175138 -0.2793254063 0.3274615066 -0.2790213337 -0.2246488006 0.1942527395
340297960.0 -0.2121077863 0.1930047227 0.3242144967 -0.2826036765 0.3245672345 -0.2828094535 -0.2223670579 0.197198658
345297930.0 -0.2098020945 0.1952593975 0.3211894782 -0.2858031555 0.3207924637 -0.2862077928 -0.2203839225 0.1995458615
350297900.0 -0.2076895869 0.1976208894 0.3179176707 -0.2892069336 0.3179746171 -0.2897389785 -0.2184954973 0.202359618
355297870.0 -0.2059620088 0.2000131488 0.3145003262 -0.293112737 0.3146307047 -0.2933528069 -0.2164857754 0.2045136543
360297840.0 -0.2036406481 0.2022845104 0.311178218 -0.2968912658 0.3114905731 -0.2966960198 -0.2144823375 0.2070690885
365297810.0 -0.2015768453 0.204791901 0.3079379278 -0.3002830799 0.3080820207 -0.300168176 -0.2122877349 0.2099382612
370297780.0 -0.1995896811 0.206736286 0.3046181523 -0.3032368816 0.3048678845 -0.30393527 -0.2104361096 0.2125329479
375297750.0 -0.1975469419 0.2093231792 0.30172617 -0.3069478587 0.3012507281 -0.3069556737 -0.2078894625 0.2149374546
380297720.0 -0.1952242774 0.2114433124 0.2981591914 -0.3100374773 0.2982482922 -0.3100352876 -0.2058256273 0.2175859766
385297690.0 -0.1934920852 0.21392331 0.2947585889 -0.313091154 0.2943517475 -0.3132550391 -0.2035504436 0.2200179405
390297660.0 -0.1910068115 0.2160401557 0.2906702862 -0.3168006908 0.2908848337 -0.3165039976 -0.2010633375 0.2216642794
395297630.0 -0.1886127477 0.2176824609 0.287090902 -0.3192802636 0.2875686725 -0.3196999644 -0.199143098 0.2246782715
400297600.0 -0.1865764352 0.2203869087 0.2837537701 -0.3230375161 0.2839277333 -0.3231191537 -0.1967600464 0.2264996391
405297570.0 -0.1842699767 0.2225855582 0.2805134443 -0.325963263 0.2806246787 -0.3261157202 -0.1948438389 0.2289911398
410297540.0 -0.181823443 0.2245721544 0.2766439459 -0.3290018916 0.2766133413 -0.3288853544 -0.1920918974 0.2316028441
415297510.0 -0.1794566243 0.2266181597 0.2730127041 -0.331771178 0.273389788 -0.3320513983 -0.1899949061 0.2340510975
420297480.0 -0.1769749066 0.2285162431 0.2695651772 -0.3352068525 0.2696339479 -0.335004284 -0.1876372929 0.2358960315
425297450.0 -0.1744772397 0.230454797 0.2655233035 -0.3376128196 0.2658652991 -0.3377276161 -0.1847362423 0.2382549643
430297420.0 -0.1721366727 0.2326278926 0.2618964855 -0.3410953448 0.26194893 -0.3407632916 -0.1827736039 0.2407746233
435297390.0 -0.1697476185 0.2349910621 0.2582190137 -0.3438669428 0.258250807 -0.3433379823 -0.1802456929 0.2427771323
440297360.0 -0.1671104 0.236730635 0.2544286956 -0.3463000903 0.2539311785 -0.3463585511 -0.1775992345 0.2444496608
445297330.0 -0.1645316613 0.2385757107 0.2500139664 -0.3493151928 0.2504250656 -0.3492600649 -0.1754438889 0.2468508773
450297300.0 -0.1622311468 0.2400238802 0.246613835 -0.3514438812 0.2467031343 -0.3518198723 -0.1725561993 0.2486353688
455297270.0 -0.1599338058 0.2423736366 0.2431454891 -0.354447975 0.242884986 -0.3543078059 -0.1699986457 0.2507955359
460297240.0 -0.1574391942 0.2440536594 0.2387440056 -0.3568539096 0.2386209484 -0.3572366567 -0.1674881293 0.253246068
465297210.0 -0.1545623753 0.246006313 0.2347763506 -0.359605346 0.2350767495 -0.3593272257 -0.1651882093 0.2546244996
470297180.0 -0.1521257588 0.2474790107 0.2309596362 -0.3622039074 0.2308609414 -0.3620419393 -0.1626552314 0.256619389
475297150.0 -0.1495780521 0.2491994273 0.226649761 -0.3642355084 0.2268568142 -0.3640869004 -0.1594161258 0.2586553136
480297120.0 -0.1468247754 0.2507943911 0.2225799438 -0.3666402493 0.2232642978 -0.3669452183 -0.157158068 0.2607565736
485297090.0 -0.1441220606 0.2528064518 0.2186765908 -0.3695294959 0.2191370408 -0.3692681079 -0.1545782087 0.2624274743
490297060.0 -0.1411981426 0.2544341892 0.2142937707 -0.371602009 0.2150239821 -0.3716052014 -0.1518716724 0.2641137088
495297030.0 -0.1390420463 0.2561443499 0.2107499669 -0.3740873091 0.2104043943 -0.3739825475 -0.1489520551 0.2654301734
500297000.0 -0.1361731358 0.2575643048 0.2063631343 -0.3759882672 0.2067233076 -0.3758854312 -0.1465120095 0.267501697
505296970.0 -0.1335784717 0.2591434387 0.2020209363 -0.3780731031 0.202472519 -0.3780646862 -0.1441151035 0.2696753952
510296940.0 -0.1309574919 0.2610719989 0.1982706375 -0.3804630677 0.19832213 -0.3805562033 -0.1407597207 0.27134054
515296910.0 -0.1284042163 0.2624128808 0.1938032828 -0.3822869629 0.1942941746 -0.3827144061 -0.1383577031 0.2731226995
520296880.0 -0.1253113064 0.2639252922 0.1897699547 -0.3846961975 0.1898626611 -0.3846094942 -0.1354236617 0.2744861166
525296850.0 -0.1224595298 0.2652789629 0.1855617191 -0.3864995807 0.185751179 -0.3867351777 -0.1320098853 0.2760186817
530296820.0 -0.1198460374 0.2667471628 0.1814697327 -0.3881272855 0.1812628093 -0.3884290021 -0.1299060443 0.2775197806
535296790.0 -0.1167859178 0.2683098509 0.1769527578 -0.3902691776 0.1772208968 -0.3903217337 -0.1266841806 0.2789364195
540296760.0 -0.1141515145 0.2695249054 0.1727002328 -0.3924870184 0.1727256999 -0.392268861 -0.124041504 0.2807420515
545296730.0 -0.1114474521 0.2708120021 0.168458244 -0.3943002999 0.1684918247 -0.3941431286 -0.1211805475 0.2814856769
550296700.0 -0.1087676721 0.2721625266 0.1645278475 -0.3958604145 0.1648711145 -0.3958919996 -0.1185375678 0.2834639198
555296670.0 -0.1052562229 0.2734346952 0.1597312073 -0.397890098 0.1602052361 -0.3976194458 -0.1156411048 0.2847559833
560296640.0 -0.102740955 0.2745245774 0.1554515486 -0.3989470188 0.1558027026 -0.3990266447 -0.1124596237 0.2860631389
565296610.0 -0.1000286694 0.2757669303 0.151219664 -0.4007139756 0.1511595648 -0.4007458576 -0.109398621 0.2873044567
570296580.0 -0.0969005888 0.2770925451 0.1466242843 -0.4023878848 0.1472396599 -0.4024648582 -0.1066364688 0.2891881591
575296550.0 -0.0941019951 0.2783676856 0.1425736698 -0.4034987057 0.1428286738 -0.4038767984 -0.1033720393 0.2902133435
580296520.0 -0.0911170966 0.2795077861 0.1382469431 -0.405395082 0.1380699057 -0.4054566723 -0.1004015392 0.2912914817
585296490.0 -0.0882338327 0.2804593319 0.1336356712 -0.4067093363 0.1336944849 -0.4065693947 -0.0976239755 0.2922471133
590296460.0 -0.0855149079 0.2811605753 0.1293001555 -0.4081377876 0.1291152764 -0.4083037784 -0.0944700309 0.2934414222
595296430.0 -0.0820763582 0.2824644799 0.124755316 -0.4097672739 0.1244616633 -0.409712521 -0.0912146928 0.294687762
600296400.0 -0.079469868 0.2834093837 0.1207595633 -0.4108325981 0.1205016014 -0.4109497093 -0.0882357418 0.296224878
605296370.0 -0.0761125063 0.2844004777 0.1158744777 -0.4122577451 0.1159407102 -0.4120674704 -0.0853311442 0.2971618751
610296340.0 -0.0734801719 0.2854950407 0.1116660987 -0.4131930184 0.1116896713 -0.4136513317 -0.0822626032 0.2984308432
615296310.0 -0.0700074014 0.2865583092 0.1064610104 -0.414645879 0.1067413371 -0.4146361524 -0.0794094575 0.299128299
620296280.0 -0.0675969001 0.286983326 0.1024576748 -0.4151119307 0.102364357 -0.4155937375 -0.0762222072 0.3000724714
625296250.0 -0.0641809528 0.288186562 0.0975090785 -0.4168085355 0.0978776796 -0.4168452788 -0.0730499324 0.3010951057
630296220.0 -0.0611153692 0.2892321301 0.0934822083 -0.4176978625 0.0936313224 -0.4180792512 -0.0700234173 0.3024839168
635296190.0 -0.0581754567 0.2898315318 0.0887742 -0.4180066746 0.0889137138 -0.4181935483 -0.0670060917 0.3025003938
640296160.0 -0.0551741126 0.2905282518 0.0844562912 -0.4192182192 0.0842745255 -0.4195685695 -0.0635976197 0.3032522703
645296130.0 -0.0523089133 0.2914586022 0.0798552903 -0.4203342147 0.0795837814 -0.4201353564 -0.0609481855 0.3043046605
650296100.0 -0.049024395 0.2924059089 0.0759365309 -0.4210857909 0.0754136348 -0.4210772997 -0.0576004264 0.3052902273
655296070.0 -0.0458106947 0.2927913262 0.0707283277 -0.4215865783 0.0703950673 -0.4219170374 -0.0542403984 0.3062104572
660296040.0 -0.0428601525 0.2933131916 0.0660583789 -0.4220461447 0.0662854009 -0.4223968282 -0.0513780474 0.3064817848
665296010.0 -0.0396073368 0.293838857 0.0615978871 -0.4229094467 0.0617552531 -0.4231235551 -0.048367619 0.3078133987
670295980.0 -0.0362742489 0.2945341645 0.0568291603 -0.4235480999 0.0571621332 -0.4238093914 -0.0455416215 0.3080489186
675295950.0 -0.0334221129 0.2950420998 0.051976076 -0.4242001732 0.0524053258 -0.4244422256 -0.0416379671 0.3087962025
680295920.0 -0.0302751255 0.2957592978 0.0475696696 -0.4247708688 0.0475693348 -0.425048586 -0.0387436334 0.3095187128
685295890.0 -0.0270681631 0.2960719346 0.043293811 -0.425145691 0.0429942327 -0.4255915427 -0.0352912073 0.3098057238
690295860.0 -0.0238048282 0.2966562965 0.0383442027 -0.4253249433 0.0381115782 -0.4255034971 -0.0319176124 0.3106521598
695295830.0 -0.0206922049 0.2966542216 0.0333528597 -0.4258540363 0.0337729368 -0.4262598011 -0.0290290747 0.3112113198
700295800.0 -0.0174249261 0.2970510788 0.0289462389 -0.4262116688 0.0292467278 -0.426627671 -0.0256259417 0.31115991
705295770.0 -0.014347745 0.2977356144 0.02433922 -0.4265944285 0.024769699 -0.4265706961 -0.022779927 0.3118113598
710295740.0 -0.0112405665 0.2980313624 0.0199848183 -0.4266660008 0.0200266191 -0.426527272 -0.0198569139 0.3125167394
715295710.0 -0.0082985136 0.2982088416 0.0155193002 -0.4268183778 0.0154106165 -0.4269583771 -0.0162279266 0.3123218361
720295680.0 -0.0051771098 0.2981677839 0.0106189895 -0.4268699526 0.0108463807 -0.427298385 -0.012714046 0.3129013978
725295650.0 -0.0015694178 0.2985740575 0.0054958873 -0.4270021998 0.0061587133 -0.4268970092 -0.0095942806 0.3132533033
730295620.0 0.0011425155 0.2986635165 0.001410767 -0.4269043811 0.0011636724 -0.4267889297 -0.0060882094 0.3131359738
735295590.0 0.0047073561 0.2988787723 -0.003088024 -0.4271864694 -0.0030024188 -0.427136837 -0.0028597069 0.3135974718
740295560.0 0.0077164076 0.2992574023 -0.007911848 -0.4264502085 -0.0077801569 -0.4265551086 0.0002109451 0.3133249817
745295530.0 0.0108533637 0.2991326459 -0.0125126152 -0.4268121558 -0.0119511408 -0.4269911547 0.0032190631 0.3135193334
750295500.0 0.0139233789 0.299007789 -0.0171393709 -0.426251866 -0.0171861796 -0.4262446738 0.0067892574 0.31326712
755295470.0 0.0179513761 0.2989736917 -0.0217680547 -0.4262602807 -0.0214367156 -0.4267666707 0.009164042 0.3138120545
760295440.0 0.0205642543 0.2989545921 -0.026819749 -0.4262328371 -0.0261886998 -0.4260178543 0.0125771908 0.3138488394
765295410.0 0.023556921 0.2989324392 -0.0304482318 -0.4256160737 -0.0308738478 -0.4259337878 0.0166872145 0.3140199444
770295380.0 0.0269918365 0.2990160116 -0.0355522029 -0.4250335739 -0.0355426572 -0.4254937951 0.0197834828 0.3137881719
775295350.0 0.0299226707 0.298915395 -0.0400061591 -0.4244855162 -0.0398429382 -0.4246260556 0.0227274409 0.3133501373
780295320.0 0.0333316151 0.2984369876 -0.0446321813 -0.4246569543 -0.0442664148 -0.4244464863 0.0259675668 0.3137738535
785295290.0 0.0363686194 0.2987224483 -0.0488161852 -0.4236490288 -0.0490142298 -0.4237298848 0.0289659186 0.3135787887
790295260.0 0.0392272124 0.2980179775 -0.0535160911 -0.4230743898 -0.0537023422 -0.4235147441 0.0325598776 0.3132553131
795295230.0 0.0425709355 0.2978596679 -0.0582324001 -0.4219250807 -0.0580666878 -0.4225194626 0.0359765166 0.3134902945
800295200.0 0.046034004 0.297599678 -0.0632460258 -0.4220214732 -0.0631065416 -0.4221206965 0.039165562 0.3127533011
805295170.0 0.0488241175 0.2974072479 -0.0671906862 -0.4211269399 -0.0673031473 -0.4213029205 0.0419628679 0.3124571393
810295140.0 0.052230317 0.2968327411 -0.0718619136 -0.420169755 -0.0715299748 -0.4207695771 0.0456124198 0.3127543614
815295110.0 0.0550467722 0.2965926291 -0.0765652881 -0.4190487198 -0.0765388929 -0.4196635058 0.0486765526 0.3118163042
820295080.0 0.0585935264 0.2953502807 -0.0809092273 -0.4183772747 -0.0808115932 -0.4188956027 0.0519126754 0.3114568491
825295050.0 0.0616672604 0.2953450673 -0.0849789277 -0.4170462778 -0.085408616 -0.4177571357 0.055136762 0.311069456
830295020.0 0.0648258656 0.2952228318 -0.0900685956 -0.4166536238 -0.09047988 -0.4167878492 0.0584088224 0.3109785039
