!Created with skrf (http://scikit-rf.org).
# Hz S RI R 50.0 
!freq ReS11 ImS11 ReS21 ImS21 ReS12 ImS12 ReS22 ImS22
300000.0 -0.7767686155 -0.1520471877 -0.0015841547 0.0004034239 -0.0005347917 0.0003549579 0.8600975606 -0.0018209686
5299970.0 -0.7851667754 -0.0075711723 -8.92032e-05 0.000178486 -8.37177e-05 -3.0852e-06 0.8586953622 -0.0106525267
10299940.0 -0.7880457234 -0.0040247411 -0.0002280895 8.82157e-05 -4.34746e-05 9.92454e-05 0.8579443654 -0.0190353332
15299910.0 -0.7935052425 -0.0015451024 -0.0001936628 0.0001509406 0.0002360498 0.0001504209 0.8575007838 -0.0269192564
20299880.0 -0.7995157407 0.0024208475 5.08074e-05 -6.20233e-05 0.0001096113 8.62316e-05 0.8568386207 -0.0361854102
25299850.0 -0.8066983927 0.0084981133 0.0001257242 3.99117e-05 -9.17553e-05 -0.0002185115 0.8554413424 -0.0437281155
30299820.0 -0.8121589428 0.0159036176 1.51762e-05 3.33737e-05 -1.77436e-05 1.80042e-05 0.85499903 -0.0521130793
35299790.0 -0.8171371136 0.0250046627 -5.77572e-05 -7.35781e-05 8.653e-05 1.46882e-05 0.8537213938 -0.0602777461
40299760.0 -0.8217354458 0.0343249687 -4.34062e-05 7.48668e-05 5.4946e-06 0.0001219139 0.8537226422 -0.0691888143
45299730.0 -0.8245181083 0.0440663355 -5.00004e-05 5.31663e-05 -2.50446e-05 -4.06043e-05 0.8530885636 -0.0769881095
50299700.0 -0.8266271787 0.0543051065 -0.000237644 5.98091e-05 -3.95184e-05 -2.46494e-05 0.8519144188 -0.0852883458
55299670.0 -0.8288354927 0.0642742156 -4.04358e-05 -8.85284e-05 6.21039e-05 3.88508e-05 0.8504270609 -0.0932639035
60299640.0 -0.8295441829 0.0748695778 -4.38584e-05 0.000204772 9.43857e-05 -0.0001950197 0.8495012938 -0.1019079438
65299610.0 -0.8307693074 0.0846346984 1.84584e-05 0.000124163 -0.0001811687 -0.0001047566 0.848824535 -0.1101446239
70299580.0 -0.8313113086 0.0948499324 0.0001077241 0.0002518445 4.51917e-05 -1.47439e-05 0.8475609871 -0.1189274926
75299550.0 -0.8314970726 0.1050670819 2.45488e-05 8.68697e-05 -4.11395e-05 -0.0002137578 0.8467322963 -0.1268681777
80299520.0 -0.8316024553 0.1146860437 -0.0001145778 3.86618e-05 -9.96798e-05 5.05818e-05 0.8448536802 -0.1346324574
85299490.0 -0.8304059706 0.1241304013 -4.91749e-05 5.48718e-05 8.0118e-05 -6.73398e-05 0.8437711543 -0.1427378979
90299460.0 -0.8297012504 0.1341218216 -7.327e-06 0.0002245328 -0.0001109807 0.0001066637 0.8417810013 -0.151221406
95299430.0 -0.8282988469 0.1436213583 9.61643e-05 -0.0001505388 -1.77488e-05 -0.0002579635 0.8402240565 -0.1590795606
100299400.0 -0.8275994737 0.1527781385 4.23071e-05 -8.46791e-05 -7.26418e-05 -0.000160461 0.8388068187 -0.1675966732
105299370.0 -0.826483784 0.1625051134 0.0001180594 2.43617e-05 0.0001558258 -9.366e-06 0.8372180745 -0.1759842172
110299340.0 -0.8255333058 0.1708774093 -0.0001525228 -0.0001160113 -1.26584e-05 -0.0001788543 0.8347949555 -0.1838112615
115299310.0 -0.8237151946 0.1809024648 3.3652e-05 -6.62043e-05 0.0001441215 6.4409e-06 0.8333357064 -0.1920029362
120299280.0 -0.8220118508 0.1895326466 2.60794e-05 0.0001572822 -1.33991e-05 -1.9496e-06 0.8312262007 -0.1998477583
125299250.0 -0.8206080944 0.1989114533 1.16078e-05 0.0003012522 1.931e-07 4.02011e-05 0.8289370611 -0.2084088315
130299220.0 -0.8182492983 0.207573008 1.26218e-05 -0.0002174975 -2.57335e-05 -8.42674e-05 0.8270484556 -0.2160836215
135299190.0 -0.8166118807 0.2168421892 0.0001015248 0.0002300275 1.3491e-06 6.72426e-05 0.8255097324 -0.2242958807
140299160.0 -0.8146911483 0.2254863733 0.000128692 9.7839e-06 -0.0001535239 6.28462e-05 0.8230765763 -0.2326213906
145299130.0 -0.8125341456 0.2340725386 9.49041e-05 0.0001379632 9.99071e-05 0.0002794211 0.8207528187 -0.2404458929
150299100.0 -0.8102752009 0.2435746366 9.40436e-05 7.4282e-06 -2.62734e-05 -0.0001173855 0.8180013476 -0.2488213195
155299070.0 -0.8078040585 0.2524497377 -3.79599e-05 6.97846e-05 -7.03259e-05 -3.8289e-05 0.8153038121 -0.2558683609
160299040.0 -0.8049441504 0.2614502496 0.0001368328 -0.0001459226 -0.0001066899 6.74831e-05 0.8125937913 -0.2647474787
165299010.0 -0.801962754 0.2694498421 1.35517e-05 9.86615e-05 0.0002045602 -4.95814e-05 0.8108000778 -0.2727574865
170298980.0 -0.800005558 0.2781769236 -0.0001231469 -0.0001432865 -3.8765e-06 -0.000195036 0.8076028281 -0.2801099503
175298950.0 -0.796804968 0.2872805655 -5.16351e-05 -0.0002897607 8.85625e-05 -2.93432e-05 0.8048251968 -0.2886492745
180298920.0 -0.7938660411 0.2949819591 2.50358e-05 -0.0001235507 6.59426e-05 -0.0001221306 0.8022892408 -0.2958744704
185298890.0 -0.7907759707 0.304292388 -8.17199e-05 0.0001146394 -8.93353e-05 -0.0001628188 0.7990110652 -0.3041515087
190298860.0 -0.7875461258 0.3122092612 5.36254e-05 -4.73249e-05 -0.0001044592 0.0001021996 0.7962690446 -0.3111715832
195298830.0 -0.7842052843 0.3205963546 4.70508e-05 -0.0001207779 4.55707e-05 -8.17342e-05 0.7928181653 -0.3190736211
200298800.0 -0.7808485334 0.3295000098 -8.39271e-05 2.02968e-05 5.301e-06 0.000184543 0.7903210179 -0.3275640428
205298770.0 -0.7773223492 0.3372195573 3.59389e-05 7.60099e-05 6.28073e-05 0.0001717541 0.7867644206 -0.334625084
210298740.0 -0.7739210976 0.3454837018 7.78872e-05 5.36193e-05 8.17637e-05 -1.23949e-05 0.7835573346 -0.3423192443
215298710.0 -0.770492523 0.3543749839 -5.91989e-05 -5.54302e-05 7.07461e-05 0.0002601532 0.7803483017 -0.3501416508
220298680.0 -0.7672644596 0.3626440535 1.18021e-05 -0.0001894825 -5.81684e-05 -0.0001404482 0.7767561146 -0.357502438
225298650.0 -0.7627192047 0.3709834159 -8.30649e-05 5.26998e-05 -0.0001015836 0.000202259 0.7730070253 -0.3649151616
230298620.0 -0.7589850284 0.378622869 0.0001736723 0.0001523454 -1.36569e-05 0.0001365106 0.7697154553 -0.3729737955
235298590.0 -0.7546828042 0.3874879945 -5.6084e-05 0.0001367836 -8.65316e-05 -0.0001597851 0.7663034342 -0.3797526626
240298560.0 -0.7507471103 0.3953207646 -9.41572e-05 5.29878e-05 0.0001526572 0.0001141223 0.7622846842 -0.3877256192
245298530.0 -0.7465243671 0.4027972301 -9.63715e-05 -0.0001747023 4.68479e-05 -2.02726e-05 0.758836289 -0.3946092607
250298500.0 -0.7424475328 0.4107611597 -9.1113e-06 -6.8253e-06 -5.38912e-05 -6.41321e-05 0.7544599208 -0.4022209124
255298470.0 -0.7376335589 0.4186393577 3.38722e-05 0.0001014434 0.0002832207 -1.51004e-05 0.7507258247 -0.4091134975
260298440.0 -0.733752356 0.4259106502 -3.2038e-06 -3.59371e-05 -1.71754e-05 -5.5949e-06 0.7463085458 -0.4161991574
265298410.0 -0.7294264342 0.4340708717 2.23276e-05 4.225e-07 0.0001180417 0.000154471 0.7433428428 -0.4242355455
270298380.0 -0.7236275486 0.4412433569 -3.2145e-06 0.0001555732 -0.0001532344 7.66016e-05 0.7390587601 -0.430287234
275298350.0 -0.7193849305 0.4493273153 -3.79251e-05 7.96446e-05 -0.0001848574 -0.0001344982 0.7345072784 -0.4373066697
280298320.0 -0.7148911862 0.4568286178 -4.44388e-05 0.0001812763 1.5562e-05 -0.0001655559 0.7312704752 -0.4448069613
285298290.0 -0.7099379695 0.4649508661 5.5568e-06 -5.00514e-05 6.5027e-05 1.16995e-05 0.7265988419 -0.451956485
290298260.0 -0.7053091639 0.4718038651 0.0001096061 0.0001200315 -0.0002592467 6.155e-05 0.7220109575 -0.4593252719
295298230.0 -0.7006498581 0.4791652897 -0.0001266858 0.0001299241 9.88157e-05 1.0071e-06 0.7176088947 -0.4654971135
300298200.0 -0.6947305302 0.4864647389 7.80592e-05 8.32752e-05 1.73361e-05 2.42197e-05 0.7136473709 -0.4730533901
305298170.0 -0.6901681098 0.4937821334 0.0002443934 -0.0001346352 -5.5848e-05 0.0001070528 0.709771372 -0.4801771378
310298140.0 -0.6844033815 0.5009787564 0.0001042507 8.44769e-05 -5.15529e-05 -0.0001388101 0.7055285138 -0.486553993
315298110.0 -0.6798261211 0.5077824413 -5.9851e-05 -0.0001430701 9.04848e-05 0.0001596625 0.7005626118 -0.4940360841
320298080.0 -0.6743249086 0.5158848163 5.60422e-05 5.24602e-05 -9.04216e-05 7.7455e-06 0.6966093308 -0.5020058166
325298050.0 -0.668499991 0.52213072 -6.72153e-05 3.2169e-06 0.0001155137 0.0001132563 0.6908812496 -0.509696916
330298020.0 -0.6626465146 0.5291602535 -7.0199e-05 1.37519e-05 5.903e-07 -9.37471e-05 0.6859091378 -0.5164315143
335297990.0 -0.6571525394 0.5361137727 -0.0001630681 7.15385e-05 -1.30588e-05 0.0001039205 0.6799475895 -0.5232480448
340297960.0 -0.6522021808 0.5429616577 3.21276e-05 0.000257461 0.0001414683 0.0001568748 0.6739267886 -0.5297926309
345297930.0 -0.646694105 0.548705151 -0.0002160213 -4.60355e-05 -1.46882e-05 -0.0001360672 0.6682667949 -0.535435394
350297900.0 -0.6400569095 0.5564594505 9.69409e-05 -6.8352e-05 1.34896e-05 -8.81679e-05 0.6628966795 -0.5411633381
355297870.0 -0.6344534554 0.5623301929 5.46378e-05 -7.09635e-05 5.31823e-05 9.67801e-05 0.6575301628 -0.5476110772
360297840.0 -0.6282607929 0.5691380383 -2.12682e-05 0.0002054011 4.4243e-06 -0.0003797744 0.6519986849 -0.5537945312
365297810.0 -0.622168649 0.5755344379 3.16531e-05 -4.0843e-06 -0.0001077472 0.0001979414 0.6466813195 -0.5606641437
370297780.0 -0.6163020315 0.581480596 0.0001777834 -0.0002002814 9.74996e-05 -0.0001306317 0.6410621642 -0.5659466702
375297750.0 -0.6105806947 0.5884085027 4.57662e-05 -0.0002065472 1.99068e-05 0.0001094357 0.6354374962 -0.5720324684
380297720.0 -0.6041358879 0.5949423578 0.000180268 -0.0002553739 1.5321e-05 -0.0001521667 0.6301474691 -0.5776764676
385297690.0 -0.5979121928 0.6010294769 7.84738e-05 0.0001721248 2.69949e-05 9.40207e-05 0.6239299604 -0.5833084275
390297660.0 -0.5915697364 0.6068899809 3.54049e-05 -9.41776e-05 -8.31853e-05 -3.40418e-05 0.6188037428 -0.5893690635
395297630.0 -0.585621819 0.6134348477 0.0001073621 -7.7907e-06 1.38192e-05 -0.000165472 0.6124571522 -0.5953001185
400297600.0 -0.5785273182 0.61918271 -1.44532e-05 4.34438e-05 3.6107e-05 -0.0002057281 0.6070226567 -0.6016157833
405297570.0 -0.5725076763 0.6256765362 -0.0002807882 -0.000172771 5.7866e-06 -3.30496e-05 0.6014325387 -0.6070577586
410297540.0 -0.5654503896 0.6309791322 0.0001717095 -3.27086e-05 1.7613e-06 -7.08694e-05 0.5950245256 -0.6121269504
415297510.0 -0.5589327252 0.6365112505 -5.05467e-05 0.0003355147 -9.01684e-05 0.0001064152 0.5890121244 -0.6177354047
420297480.0 -0.5519366353 0.6421481379 3.43108e-05 -4.21358e-05 4.74317e-05 0.0002061089 0.5827913225 -0.6241767385
425297450.0 -0.5457397168 0.6480518002 -0.0001058476 -2.44625e-05 7.18379e-05 -0.000206389 0.5769122422 -0.6291054518
430297420.0 -0.539270761 0.6537147611 -9.06891e-05 0.000127292 -0.0001557362 0.0001540246 0.5709011919 -0.6352866431
435297390.0 -0.5319718561 0.6590908131 1.5682e-06 0.0003019711 -9.58355e-05 -1.40553e-05 0.5643951173 -0.6403169616
440297360.0 -0.5247655139 0.6643060958 1.46644e-05 -2.81304e-05 0.0001404899 5.3546e-06 0.5577697946 -0.6459411142
445297330.0 -0.5183396936 0.6696508169 -3.70822e-05 -0.0001128765 -0.0001319987 0.0001590487 0.5517082827 -0.6511290811
450297300.0 -0.51138875 0.6744335306 5.71334e-05 -0.0001399268 -0.0001423962 -4.66253e-05 0.5448982012 -0.6566008858
455297270.0 -0.505063331 0.6802973852 7.653e-07 -0.0001374392 -0.0001143724 -9.99456e-05 0.5387255686 -0.6617597287
460297240.0 -0.4974334088 0.6852669234 -4.53418e-05 8.39995e-05 2.08584e-05 0.0002818544 0.5330793929 -0.6670159706
465297210.0 -0.4900859526 0.6906287051 -4.16103e-05 2.03067e-05 -6.08627e-05 -5.58576e-05 0.5254197004 -0.6720798819
470297180.0 -0.4828070593 0.6950327774 0.00025313 0.0001427787 -0.0001235977 7.63942e-05 0.5187272723 -0.6770029733
475297150.0 -0.4759180043 0.7003401168 -7.60205e-05 0.0002317267 -2.66946e-05 0.0001070849 0.5124633823 -0.6816545461
480297120.0 -0.4693059311 0.704580952 6.48052e-05 -7.15465e-05 -8.50499e-05 0.0001678993 0.5052157795 -0.6864743114
485297090.0 -0.4610789654 0.7094353613 -0.0001188918 -1.99337e-05 -7.97136e-05 2.07723e-05 0.4986421268 -0.6917245886
490297060.0 -0.4543099333 0.7140558044 -3.96563e-05 5.24822e-05 -5.7419e-06 -7.1438e-06 0.4919503149 -0.6968890887
495297030.0 -0.4470367614 0.7188889421 -0.0001496524 0.0001486011 -0.0001258638 7.48906e-05 0.4850010473 -0.701131652
500297000.0 -0.4384481201 0.7235145907 -0.0002132665 -2.8743e-05 1.71608e-05 -0.0001021208 0.4770774844 -0.7057810595
505296970.0 -0.4317978213 0.7273919107 0.0001807001 6.76392e-05 -0.0001331782 5.81791e-05 0.4703042593 -0.710473393
510296940.0 -0.4244622533 0.7323316117 -0.0001281209 9.08147e-05 -0.0001062011 7.71092e-05 0.4632159762 -0.7144649773
515296910.0 -0.4174272818 0.7365043699 -0.0001607569 5.6963e-06 -3.86538e-05 -1.95233e-05 0.4559721488 -0.7185306076
520296880.0 -0.4094601869 0.7405217412 -6.4734e-06 -0.0001559635 1.53439e-05 5.4674e-06 0.4494528753 -0.7241529051
525296850.0 -0.4016511656 0.7443281707 2.55396e-05 -8.94104e-05 4.04759e-05 0.0001552217 0.4424097877 -0.727438228
530296820.0 -0.3942673002 0.7480972744 -0.0002050581 0.0002384137 1.41448e-05 -0.0001253562 0.4342552229 -0.7326315268
535296790.0 -0.3859816758 0.7525553742 -9.5743e-06 -7.87258e-05 6.86276e-05 -4.23021e-05 0.4270713836 -0.737698898
540296760.0 -0.3781727403 0.7564917922 0.0001529182 4.92865e-05 6.58001e-05 -0.000170508 0.4196407174 -0.7404372722
545296730.0 -0.3710058043 0.7596059342 -3.79817e-05 0.0002712309 3.60028e-05 -4.17559e-05 0.4123969425 -0.7451012261
550296700.0 -0.3628467403 0.7637029541 1.489e-06 0.000155539 -1.55389e-05 -0.0002366373 0.4048118301 -0.7492131904
555296670.0 -0.3550350198 0.7675310039 6.92992e-05 4.556e-06 8.15286e-05 6.61349e-05 0.3972586346 -0.7525424102
560296640.0 -0.3470557467 0.7707962871 0.0001169061 1.51761e-05 -4.15128e-05 0.0001019388 0.3898397142 -0.7566268738
565296610.0 -0.3395256331 0.7740830739 1.59929e-05 0.0001099533 -0.0001155413 -2.91838e-05 0.3824584749 -0.7601486944
570296580.0 -0.3318948841 0.7772526003 1.9424e-06 5.0493e-06 -0.0002983896 0.0001020935 0.3744448599 -0.763751939
575296550.0 -0.3239215146 0.780890734 -0.0001569887 -1.53676e-05 0.0002346694 -8.08576e-05 0.3671128396 -0.7677621249
580296520.0 -0.3159403994 0.7842370422 -0.0001204879 0.0002486706 -0.0001533349 8.7861e-06 0.3591346866 -0.7710406633
585296490.0 -0.3078550981 0.7867277937 0.000106845 6.74034e-05 0.0001458138 -9.20927e-05 0.3514339167 -0.7750540953
590296460.0 -0.2998897812 0.7899839501 5.11915e-05 -4.18907e-05 0.0002065323 8.81275e-05 0.3439937175 -0.777653519
595296430.0 -0.291331156 0.7933247004 0.0001352751 -7.98715e-05 -4.57392e-05 -1.738e-06 0.3354799814 -0.7807426693
600296400.0 -0.2840179025 0.7954706048 -2.0538e-05 0.0002295172 0.0001573253 -0.000136954 0.3279956867 -0.7843118559
605296370.0 -0.2754194212 0.7988270718 0.0002862093 -0.0001283403 4.1511e-06 -4.80026e-05 0.3202216941 -0.78743262
610296340.0 -0.2674061886 0.8014886496 -0.0002218876 -5.90114e-05 0.0001123659 -1.42098e-05 0.3123035582 -0.7900834633
615296310.0 -0.2586054037 0.8042968514 -8.6306e-05 0.0001168811 7.94696e-05 -0.0001085856 0.3045377542 -0.7939156095
620296280.0 -0.2508219512 0.8060425436 7.00495e-05 2.89262e-05 3.78872e-05 0.0001411929 0.2966770652 -0.7966241524
625296250.0 -0.2422556433 0.8088382179 -0.0001273661 -0.0002105898 -0.0001811782 0.0001186681 0.2883554695 -0.7983818162
630296220.0 -0.2344625403 0.8116689841 -7.66597e-05 -0.0001858184 0.0001115761 0.0001105528 0.2802858725 -0.8014343462
635296190.0 -0.2261092481 0.8139644269 -0.0001612318 -5.32603e-05 -4.801e-05 -4.65606e-05 0.2728446635 -0.8036645408
640296160.0 -0.2177152375 0.8153171246 1.2459e-05 -4.61184e-05 -0.0001148736 -9.83129e-05 0.2639921798 -0.806242155
645296130.0 -0.2102542978 0.8179254943 7.56933e-05 -0.0001185864 -0.0001001637 -4.41248e-05 0.255948681 -0.8090808421
650296100.0 -0.2019724751 0.8202895671 -0.0001007414 -2.67824e-05 -0.0001066447 5.2232e-06 0.2479916125 -0.8108487967
655296070.0 -0.1933224908 0.8226773613 0.0003855516 -0.0001492941 3.81921e-05 0.000202055 0.2394907421 -0.8139956813
660296040.0 -0.1848532647 0.8236991963 0.0002459777 2.75876e-05 7.72131e-05 -5.04346e-05 0.23160798 -0.8160545725
665296010.0 -0.1767556496 0.8263267587 -0.0001541012 -4.86371e-05 5.00838e-05 -3.81514e-05 0.2237569223 -0.8178860828
670295980.0 -0.1679115079 0.8275351448 -7.80567e-05 0.0001016987 1.51459e-05 0.0001012271 0.2156973829 -0.8198994209
675295950.0 -0.1597834518 0.8283274048 -6.54602e-05 0.0001066742 6.47842e-05 1.32774e-05 0.2074290516 -0.8218230673
680295920.0 -0.1516037167 0.830794797 -1.01776e-05 0.0001068247 0.0001956716 -9.50809e-05 0.1991793945 -0.8239307307
685295890.0 -0.1428850755 0.8318409729 -0.0003486082 -7.30903e-05 -0.0001084762 -0.0001080882 0.1909630078 -0.8256386499
690295860.0 -0.134120523 0.8340952221 0.0001090231 -6.04269e-05 0.0001464783 -4.5914e-05 0.1828726898 -0.8271678317
695295830.0 -0.1262464992 0.8342384001 -8.1086e-06 -0.0001045778 0.0001480175 -0.0001729536 0.1738724937 -0.8291039528
700295800.0 -0.1176235131 0.8353971612 -7.30694e-05 2.84417e-05 0.0002349246 -0.0001522893 0.1655961999 -0.8303746253
705295770.0 -0.1090181901 0.8373256016 6.10391e-05 6.96902e-05 -1.28726e-05 8.19263e-05 0.1572329515 -0.8312819296
710295740.0 -0.1010739254 0.8382144683 1.01836e-05 -0.0001144546 0.0001155651 -6.94618e-05 0.1487762076 -0.8326425909
715295710.0 -0.0927480706 0.8395931328 -0.0002655754 6.28822e-05 9.71476e-05 -4.09471e-05 0.1409618994 -0.8344832429
720295680.0 -0.0847027986 0.839628823 -0.0003234084 -0.0001588373 0.0001158997 -0.0001147998 0.1328257639 -0.8360219148
725295650.0 -0.0750011826 0.8406909642 -9.45684e-05 5.05859e-05 -3.67575e-05 7.95643e-05 0.1244768738 -0.8363855758
730295620.0 -0.0670946706 0.8414845017 -0.0001811985 -1.61858e-05 -3.62378e-05 1.65126e-05 0.1161309601 -0.8383278174
735295590.0 -0.0582473168 0.8419305104 2.32201e-05 0.0001269195 -0.0001532761 5.02686e-05 0.10752127 -0.8387149804
740295560.0 -0.0500555304 0.8426723617 0.0001395597 8.56883e-05 9.70137e-05 9.08271e-05 0.0988633302 -0.8404219328
745295530.0 -0.041650835 0.8430659015 1.61309e-05 0.0004161427 8.9416e-06 2.00778e-05 0.0905129641 -0.840350212
750295500.0 -0.0334964769 0.8433479614 -6.66564e-05 5.09444e-05 0.0001392802 7.24003e-05 0.0826050578 -0.8413398038
755295470.0 -0.0242124364 0.8432342688 7.84052e-05 2.48452e-05 -0.0001077634 -6.00363e-05 0.0739541195 -0.8414689279
760295440.0 -0.0165008843 0.8436644263 0.0001701002 -0.0002423492 -0.0001080766 -3.53466e-05 0.0646695026 -0.8427071744
765295410.0 -0.0078154083 0.8442672552 -1.16582e-05 3.2868e-06 0.0001399072 6.15087e-05 0.0572933461 -0.8423435544
770295380.0 0.000860001 0.8443540008 2.156e-07 -0.000167357 0.0002362205 -2.08783e-05 0.048934183 -0.8432704422
775295350.0 0.0086941467 0.8442552854 1.75926e-05 0.000120198 8.45316e-05 -2.69341e-05 0.0402345575 -0.8443888991
780295320.0 0.0178270438 0.8433955215 -0.0001013685 -0.0001316952 5.56636e-05 3.87373e-05 0.0318032224 -0.8433355233
785295290.0 0.0261652649 0.8434376297 8.80102e-05 -0.0001115583 -5.25803e-05 -2.85462e-05 0.0235067218 -0.8436724654
790295260.0 0.0347181333 0.8426974219 0.0001219054 1.87391e-05 6.67066e-05 -7.10448e-05 0.0154574473 -0.8436787308
795295230.0 0.0428537576 0.8432623048 7.1424e-06 1.77664e-05 -4.11604e-05 0.00016301 0.0065328475 -0.8439228846
800295200.0 0.0513595713 0.8425864462 -9.07484e-05 1.42733e-05 -0.000192851 6.1389e-06 -0.0015091281 -0.8438469278
805295170.0 0.0598261523 0.8420818985 4.8483e-06 -9.45475e-05 7.65643e-05 -6.55047e-05 -0.0111246343 -0.8436412844
810295140.0 0.0682732837 0.8412864923 -3.5685e-06 -2.90708e-05 6.40683e-05 2.04919e-05 -0.0188882346 -0.8426582312
815295110.0 0.076795723 0.8401638998 2.44163e-05 -4.33492e-05 -0.0001680482 -8.9051e-05 -0.0271895272 -0.8429656873
820295080.0 0.0848855401 0.8393376787 7.5755e-06 -0.0001349086 2.64e-05 0.0001070707 -0.0360671873 -0.8427192309
825295050.0 0.093893249 0.8385122037 -2.78177e-05 9.43825e-05 9.2404e-06 -2.51332e-05 -0.0434148893 -0.8421131124
830295020.0 0.1021540407 0.8377424867 2.70966e-05 -7.12913e-05 -7.2702e-05 0.0002487762 -0.0529580252 -0.8415104803
835294990.0 0.1101122018 0.8367290135 -8.20811e-05 4.72532e-05 0.0002164012 0.0001757054 -0.0613223761 -0.8404643697
840294960.0 0.118674326 0.835378141 -7.50913e-05 0.0001025327 5.65356e-05 -0.000103972 -0.0697030801 -0.839456141
845294930.0 0.1270610052 0.8342002881 0.0002594037 -0.000184726 -0.0003339385 -7.89889e-05 -0.0778367526 -0.8385869087
850294900.0 0.1351346171 0.8326354539 8.84276e-05 1.52304e-05 0.0001041324 3.5586e-05 -0.0858700376 -0.8374110147
