!Created with skrf (http://scikit-rf.org).
# Hz S RI R 50.0 
!freq ReS11 ImS11 ReS21 ImS21 ReS12 ImS12 ReS22 ImS22
300000.0 0.8600573446 -0.0023113025 -0.0003313122 -0.0003848331 -0.0002824324 0.0007851815 -0.7727427658 -0.1682500729
5299970.0 0.8596441566 -0.0098458968 9.58035e-05 -0.0002114348 -1.19131e-05 0.0001444139 -0.7851565381 -0.0089247097
10299940.0 0.8591910126 -0.0192148563 8.57259e-05 0.0002301318 8.113e-07 4.61627e-05 -0.7881725918 -0.0049173074
15299910.0 0.8575506745 -0.028160478 1.97399e-05 -0.0002006105 8.50874e-05 1.27451e-05 -0.7935239624 -0.003353897
20299880.0 0.8564823001 -0.0356973128 -2.99897e-05 0.00017285 -0.0001294977 -5.5527e-05 -0.8005225357 0.0014775551
25299850.0 0.8566462603 -0.0436298743 1.47292e-05 -0.0001519261 -3.55398e-05 -0.0001584271 -0.8062350321 0.0071206972
30299820.0 0.8558229364 -0.0522506488 -0.0001880842 9.73309e-05 -6.55641e-05 -9.09548e-05 -0.8128088418 0.0148236876
35299790.0 0.8550587922 -0.0602797015 0.0001019366 3.87147e-05 6.5783e-06 1.12002e-05 -0.8178890499 0.0238200997
40299760.0 0.854565086 -0.0683745319 0.0002265615 3.87486e-05 3.44467e-05 -4.80455e-05 -0.821826271 0.0333157895
45299730.0 0.853541165 -0.0761169228 7.413e-06 -9.25691e-05 0.0001452093 0.0001123923 -0.8252273642 0.0425733575
50299700.0 0.852516948 -0.085155774 5.86402e-05 7.38457e-05 -4.87764e-05 -8.56078e-05 -0.8279731547 0.0528219648
55299670.0 0.8517046187 -0.0930215478 4.28748e-05 -4.20767e-05 0.0002188042 -5.59113e-05 -0.8297112575 0.0628976176
60299640.0 0.8503938753 -0.1007342875 -4.73289e-05 -0.0001561297 3.13322e-05 -3.03482e-05 -0.8310295802 0.0729512672
65299610.0 0.8495679274 -0.1088813921 -0.0002219827 1.23871e-05 5.21541e-05 9.2789e-06 -0.8313008157 0.0827617969
70299580.0 0.849103069 -0.1175030821 0.0001269016 -5.1256e-05 -4.22847e-05 -0.0001252304 -0.8322372332 0.0928607482
75299550.0 0.8473855501 -0.125840146 -0.0001152724 -0.0001120225 2.36938e-05 3.39279e-05 -0.8325878728 0.1027644313
80299520.0 0.8460596991 -0.1347157352 8.98432e-05 0.0002603055 -0.0001341846 -1.17032e-05 -0.8319498618 0.1119849178
85299490.0 0.845062272 -0.1424277927 0.0002371765 -2.95233e-05 -1.47268e-05 5.8275e-05 -0.8317321843 0.1218523536
90299460.0 0.8433071297 -0.1509168252 0.0001488727 2.17608e-05 -0.0001758548 3.85922e-05 -0.8304244534 0.1310767939
95299430.0 0.8418216895 -0.1588178174 1.55903e-05 -5.30437e-05 -9.25869e-05 -1.13544e-05 -0.8301036573 0.1411827089
100299400.0 0.8402204219 -0.1670290511 0.0001557852 0.0001296355 7.34362e-05 3.41607e-05 -0.828723426 0.1499748953
105299370.0 0.8378312701 -0.1750554988 0.0001303357 -0.0001335928 6.01778e-05 -7.19507e-05 -0.8277375703 0.1590371835
110299340.0 0.8367224157 -0.1831826469 -5.64333e-05 5.89256e-05 0.0001147684 -8.39536e-05 -0.8265117706 0.1681598437
115299310.0 0.8345257526 -0.1918430025 -5.1976e-06 -8.81399e-05 -4.41599e-05 1.2813e-06 -0.824350066 0.1769870578
120299280.0 0.8325147159 -0.1990728496 -4.3458e-06 -6.57797e-05 3.40139e-05 6.24577e-05 -0.8232458243 0.1859871497
125299250.0 0.8305756116 -0.2082523617 -1.8291e-05 5.201e-06 4.01616e-05 0.0001525392 -0.8220613914 0.195341264
130299220.0 0.8286715764 -0.2156014228 6.87018e-05 -4.84598e-05 -2.16994e-05 -3.79736e-05 -0.8197286235 0.204292139
135299190.0 0.8260380109 -0.2231657439 2.2395e-05 -5.54572e-05 -2.79816e-05 5.91937e-05 -0.818020314 0.2130622236
140299160.0 0.824888116 -0.2320073388 0.0001168154 7.01071e-05 0.0001311703 -6.25996e-05 -0.8156493742 0.2215170848
145299130.0 0.8217002745 -0.2395674855 0.0001332148 -6.21308e-05 -8.88671e-05 -0.0001809417 -0.8136090792 0.2297456521
150299100.0 0.8202153747 -0.2476087814 -4.96598e-05 -0.0001179938 1.26328e-05 4.5634e-05 -0.811680926 0.2384970173
155299070.0 0.8166102266 -0.2554542697 0.0001541551 -0.0001167285 -6.5475e-05 -3.9811e-05 -0.8095602341 0.2476484975
160299040.0 0.814516961 -0.2638132211 -3.67818e-05 6.21126e-05 -5.7787e-06 -0.0001362862 -0.8076575344 0.2568277425
165299010.0 0.8120309969 -0.2714179537 9.65137e-05 7.25964e-05 8.04739e-05 -0.0001216305 -0.8045108565 0.2649510187
170298980.0 0.8084692332 -0.279297482 -0.000192178 -0.0002092554 -4.32973e-05 2.71142e-05 -0.8020431857 0.2732750029
175298950.0 0.8062726702 -0.2866652232 -2.3662e-06 0.0001798596 -3.43412e-05 -6.28511e-05 -0.7992913994 0.2816364613
180298920.0 0.8037888831 -0.2944001396 -4.02264e-05 -8.23335e-05 -0.0001736106 -0.0001351602 -0.7957884737 0.2905719227
185298890.0 0.7999704587 -0.3030699006 -0.0001382046 9.87286e-05 7.75505e-05 -3.10146e-05 -0.7930188635 0.2986362525
190298860.0 0.7972413966 -0.3108072538 -8.99202e-05 -5.08938e-05 -0.0001313413 3.9059e-06 -0.7895509714 0.3069465918
195298830.0 0.794448206 -0.3175715381 5.6166e-06 0.0001364772 -0.0002175274 3.50367e-05 -0.7870491165 0.3155362896
200298800.0 0.7911997114 -0.325822255 7.45578e-05 -7.47688e-05 6.85012e-05 -0.0001331518 -0.7835850979 0.3240508267
205298770.0 0.7877083467 -0.3336160545 4.50011e-05 0.0002393137 9.20507e-05 -8.02937e-05 -0.78002163 0.3322222133
210298740.0 0.7852768606 -0.3410599662 -5.34537e-05 0.0001575104 -0.0001213566 0.0001339799 -0.7766427776 0.3406602752
215298710.0 0.7816653053 -0.3484673142 8.60818e-05 6.708e-07 9.85249e-05 -0.0001417735 -0.7737555636 0.3481710362
220298680.0 0.7782682989 -0.3568758081 -0.0001227015 -1.23119e-05 -0.0001023616 -2.40739e-05 -0.7698419605 0.3567117487
225298650.0 0.7742996058 -0.3636588587 0.0001361055 -2.09192e-05 0.0001853387 -3.32763e-05 -0.7659598704 0.36474995
230298620.0 0.770920364 -0.3709500431 8.87713e-05 2.70752e-05 1.64743e-05 3.6141e-05 -0.7621162861 0.3725522104
235298590.0 0.7670204501 -0.3787432752 -2.46027e-05 -2.50589e-05 9.86064e-05 -0.0002231919 -0.7579799304 0.3803908169
240298560.0 0.7635768162 -0.3869779913 0.0001241803 -2.23094e-05 -4.87895e-05 -2.03018e-05 -0.7539564913 0.3882090392
245298530.0 0.759478015 -0.393734509 2.23168e-05 -5.185e-07 4.58208e-05 -2.29982e-05 -0.749764142 0.3968381516
250298500.0 0.7558803219 -0.4006766571 -8.35999e-05 6.8756e-06 3.56965e-05 -0.0002046206 -0.7459079342 0.4047679753
255298470.0 0.7515536269 -0.408146301 -0.0001853319 -2.23945e-05 -0.0001216114 7.94364e-05 -0.7413230428 0.4124256517
260298440.0 0.7478617368 -0.4154292104 7.88825e-05 -7.57467e-05 0.0001918918 -3.37073e-05 -0.7367019517 0.4199713192
265298410.0 0.7435048468 -0.4225981797 -3.15565e-05 3.32475e-05 -8.7964e-06 2.0908e-05 -0.7328714621 0.4274986891
270298380.0 0.7402321078 -0.4294824818 1.0212e-05 -8.2802e-06 -2.01891e-05 -5.3917e-06 -0.7277923939 0.4351641546
275298350.0 0.7356118027 -0.4370313675 -0.0001141228 -9.74636e-05 2.43671e-05 0.0001695626 -0.7232189235 0.4430071621
280298320.0 0.7317536416 -0.4439053312 -9.42788e-05 0.0002444894 0.0001287373 4.8162e-05 -0.7189053031 0.4502539903
285298290.0 0.7271938965 -0.4512144047 0.0001604659 -5.08694e-05 -2.65433e-05 8.25022e-05 -0.713617167 0.4580998317
290298260.0 0.7237466822 -0.4585910158 9.90653e-05 0.0001076392 0.0001052617 -3.6042e-05 -0.7086039123 0.4655271686
295298230.0 0.7187902814 -0.4655012392 5.9761e-05 0.0001641617 -1.69184e-05 0.0001941807 -0.7036100394 0.4729187408
300298200.0 0.7146360868 -0.4732702006 -0.00013149 4.33257e-05 8.75271e-05 0.0001472243 -0.6986895939 0.4803106885
305298170.0 0.7104474872 -0.4801950908 4.22669e-05 -0.0001690237 -0.0001059983 -6.12166e-05 -0.6935486409 0.4877465605
310298140.0 0.7056121455 -0.488264755 0.0001944291 -2.92699e-05 3.10448e-05 -2.41054e-05 -0.6887305816 0.4951134525
315298110.0 0.7004316461 -0.4953503922 -0.0001528486 -0.0001516102 -9.86559e-05 -7.96631e-05 -0.6831955215 0.5022053573
320298080.0 0.6945912181 -0.5026853244 0.0001040606 -2.28261e-05 0.0001346093 8.22445e-05 -0.6777231713 0.50953847
325298050.0 0.689791241 -0.5102237384 -0.0001886437 0.0001429617 3.36792e-05 1.05645e-05 -0.6720673696 0.516022879
330298020.0 0.6835959727 -0.5163473371 -0.0001490741 -5.79112e-05 0.0001821412 3.13166e-05 -0.6669393114 0.5232867353
335297990.0 0.6775871501 -0.5224929988 3.49394e-05 -0.0001527728 4.69253e-05 -0.0001155465 -0.661690592 0.5300774579
340297960.0 0.672403161 -0.5289028209 -0.0002104017 1.51597e-05 7.60777e-05 0.0001450876 -0.655592476 0.5371640475
345297930.0 0.666657359 -0.5355632393 9.9765e-06 6.99918e-05 6.42392e-05 0.0001794988 -0.64989844 0.5438703825
350297900.0 0.6611615577 -0.5417736379 -0.0001296194 0.0001162747 -7.3867e-06 -9.9719e-06 -0.6439632731 0.5509003878
355297870.0 0.6558468571 -0.5478865597 -1.5622e-05 -7.8272e-06 -0.00012997 -4.04235e-05 -0.6382316778 0.5572887562
360297840.0 0.6506762049 -0.5545687524 -1.2008e-05 3.239e-07 -8.99736e-05 2.47969e-05 -0.6323255512 0.5635038164
365297810.0 0.6455668998 -0.5604765601 0.0001176381 -7.42384e-05 1.18152e-05 -0.0001366839 -0.6263663312 0.5709712793
370297780.0 0.6397397512 -0.5661600254 3.91643e-05 -4.66617e-05 7.05093e-05 0.0001197776 -0.6207555143 0.5764674305
375297750.0 0.6335485498 -0.5723397388 4.8925e-05 1.72296e-05 -8.133e-05 -3.05307e-05 -0.6143859166 0.5827771093
380297720.0 0.6291344627 -0.5783899682 0.0001396071 7.56615e-05 -0.000122463 2.8061e-06 -0.6080215679 0.5902367864
385297690.0 0.6221582173 -0.5843806602 -3.49063e-05 -1.18202e-05 -1.68878e-05 -9.57453e-05 -0.6017534447 0.5960399489
390297660.0 0.617214164 -0.5905904935 1.8423e-05 0.0001443854 -0.0001291361 -3.04592e-05 -0.5949484446 0.6014177238
395297630.0 0.6111439663 -0.5961019874 -6.51369e-05 -6.7404e-06 -0.0001779086 -2.95889e-05 -0.5896235702 0.6081484425
400297600.0 0.6047591454 -0.6018904769 -6.62791e-05 6.86963e-05 4.4475e-06 -9.9289e-05 -0.5831090414 0.6132213746
405297570.0 0.5992672665 -0.6081460511 0.000118912 -1.69533e-05 -7.0905e-05 3.17268e-05 -0.5773129006 0.6193515483
410297540.0 0.5931415501 -0.613160192 0.0001183796 -8.19644e-05 -3.72339e-05 6.62885e-05 -0.5700325518 0.6255647466
415297510.0 0.5874171448 -0.6190753101 0.0001417923 -5.12969e-05 -2.79825e-05 5.63428e-05 -0.5634703524 0.6317385351
420297480.0 0.5810660141 -0.6250951576 -0.0001237736 -8.25585e-05 5.16295e-05 0.0001043456 -0.5569879699 0.6369341921
425297450.0 0.5745576502 -0.6306428343 3.83486e-05 0.0001486574 9.96985e-05 -0.0001012799 -0.5505672166 0.6431823952
430297420.0 0.5681035161 -0.6358448098 -2.55926e-05 -8.00346e-05 0.0001065516 0.0002073604 -0.5438256386 0.6491552658
435297390.0 0.5623567614 -0.6410049 -6.60942e-05 -0.0002383337 -2.10022e-05 0.0001298489 -0.5369112456 0.6537504166
440297360.0 0.5561088872 -0.6470583669 -7.73978e-05 1.83567e-05 -8.05769e-05 0.0001559033 -0.5302658995 0.6590173454
445297330.0 0.5498546516 -0.6519397216 8.58234e-05 -4.0157e-06 5.01931e-05 -5.61475e-05 -0.523804794 0.664470338
450297300.0 0.5433122664 -0.6573169185 -3.9636e-05 5.90938e-05 0.0001111727 -0.0001247245 -0.5170782673 0.6697954744
455297270.0 0.5361896869 -0.6627583952 -7.68209e-05 -1.63017e-05 3.60313e-05 -0.0002281393 -0.510167072 0.6747454839
460297240.0 0.5302260018 -0.6673608241 -1.60517e-05 9.46031e-05 4.09483e-05 0.0001919035 -0.5023623594 0.6805277889
465297210.0 0.5234586445 -0.6727742262 -0.000154852 -2.96733e-05 -6.36698e-05 4.85916e-05 -0.4964594328 0.6847773405
470297180.0 0.5165821467 -0.6780726778 -0.0001368258 0.0001361083 -0.0002138955 8.58431e-05 -0.4896119033 0.6894096799
475297150.0 0.5100884276 -0.6827063887 -4.70822e-05 0.0001663207 -1.0123e-06 3.6207e-06 -0.4820455983 0.694209478
480297120.0 0.5035892212 -0.6876245294 2.03037e-05 7.96853e-05 -4.94846e-05 -2.22077e-05 -0.4752971205 0.6998774267
485297090.0 0.4966448444 -0.6924485584 0.0001724345 -0.0001325259 9.64968e-05 0.0001883233 -0.4681925991 0.703871571
490297060.0 0.4898494593 -0.6968508575 -3.6381e-06 6.87745e-05 -0.0001377086 1.08837e-05 -0.4606536832 0.7085581643
495297030.0 0.482672015 -0.70222757 -0.0003022082 -8.52953e-05 -0.0002199572 8.00522e-05 -0.4533533596 0.712609265
500297000.0 0.4763901708 -0.7065581757 2.27513e-05 9.15642e-05 7.23262e-05 -0.0002181767 -0.4471567309 0.7175081856
505296970.0 0.4683327942 -0.7112798442 8.84537e-05 -0.0001065568 -0.0001441756 8.97075e-05 -0.4399946541 0.7223656447
510296940.0 0.4618382464 -0.7152700191 5.8482e-05 -2.8639e-05 -0.0001671868 0.0001647395 -0.4318576805 0.7263255818
515296910.0 0.4548061237 -0.719630269 6.75765e-05 0.0001415748 -0.0001498645 3.952e-05 -0.4245911019 0.7308533581
520296880.0 0.4479595108 -0.7242275711 -1.7341e-05 1.66904e-05 0.0002344356 -8.58767e-05 -0.4174285227 0.7346063939
525296850.0 0.4408828072 -0.7285467227 -3.11988e-05 8.25687e-05 5.99335e-05 -0.0001582688 -0.4099378023 0.7397258749
530296820.0 0.4328015349 -0.7327610012 0.0001329635 1.39613e-05 -0.0001366494 6.68798e-05 -0.4032376392 0.7430183148
535296790.0 0.4264154358 -0.736680059 -0.000121164 0.0001625984 -1.47189e-05 4.70768e-05 -0.3957182905 0.7463269369
540296760.0 0.4185300418 -0.7414695814 0.0001337083 5.24524e-05 -5.89881e-05 -0.0001252788 -0.3883520443 0.7504854927
545296730.0 0.4112546981 -0.7447625591 0.000227081 0.0001231491 -6.95237e-05 4.14705e-05 -0.3808329454 0.7542040566
550296700.0 0.4042821719 -0.7488835747 4.57885e-05 0.0001103149 0.0002566324 0.0001313125 -0.3732940894 0.7581636089
555296670.0 0.3963610559 -0.7531208941 -8.38074e-05 0.0001579113 -4.55078e-05 0.0001960901 -0.3653359086 0.7618516272
560296640.0 0.3898333374 -0.7567477777 -1.89362e-05 0.0001239318 -0.0001611504 -0.0001106837 -0.3579449405 0.7656163612
565296610.0 0.3817093632 -0.7605802162 -6.27227e-05 7.11414e-05 -1.92069e-05 -0.0001241521 -0.3503459464 0.768886465
570296580.0 0.3747191386 -0.764352831 -0.0002508243 0.0001835103 9.06288e-05 -6.2126e-05 -0.3431941692 0.7722227026
575296550.0 0.3672659603 -0.7668848595 -7.68967e-05 -0.0002220942 -0.0001443448 -0.0002720869 -0.3349947106 0.7754157429
580296520.0 0.3594917482 -0.7705098269 -4.92721e-05 -0.0001800319 -0.0001073606 0.0002123698 -0.3272722136 0.7789776731
585296490.0 0.3509176951 -0.7739727384 -0.0001842712 0.0001016056 -0.0001762538 -0.0001327498 -0.3196567605 0.7813543769
590296460.0 0.3433735285 -0.7781100107 4.69493e-05 4.30762e-05 9.0503e-05 0.000134094 -0.3116295487 0.7847316478
595296430.0 0.3364518855 -0.7808716514 -0.0002525467 -6.3699e-06 -0.0001512279 8.96371e-05 -0.3039114028 0.7878160745
600296400.0 0.3282108394 -0.7843571303 0.0001171567 0.0001069942 -7.23304e-05 -2.43078e-05 -0.2961079003 0.7910340874
605296370.0 0.3205174403 -0.7862093905 -1.62146e-05 3.78343e-05 -0.0001253792 0.0001027636 -0.2885037012 0.7941257079
610296340.0 0.3133905917 -0.7901632867 3.42088e-05 -2.62243e-05 0.0001873239 -0.0002104071 -0.2801651445 0.7969300078
615296310.0 0.3046173003 -0.7927530629 -7.94581e-05 1.59619e-05 -9.16357e-05 8.17896e-05 -0.2725126374 0.7994555742
620296280.0 0.2969660712 -0.7956696654 -0.0001105817 -2.68029e-05 -6.55284e-05 0.0001178584 -0.2644987471 0.8021556713
625296250.0 0.2897580507 -0.7984481628 0.0001863178 -8.4426e-05 -3.2948e-06 -3.56408e-05 -0.2570650918 0.8045094747
630296220.0 0.28141101 -0.801318199 -1.58975e-05 -5.48915e-05 7.62808e-05 -0.0001326306 -0.2488512047 0.8070154946
635296190.0 0.2736908113 -0.8040708602 8.8182e-06 8.315e-06 -2.59612e-05 5.70423e-05 -0.2407097882 0.8092775715
640296160.0 0.2655615019 -0.8058859949 0.0001429702 0.0001948119 0.0001088213 6.65312e-05 -0.2325910083 0.8115346474
645296130.0 0.2575947625 -0.8087515552 -0.0001692033 -2.6835e-06 0.0001804541 2.78505e-05 -0.2248683025 0.8139029453
650296100.0 0.2494288507 -0.8109724381 4.18928e-05 -8.11228e-05 -0.0001412561 -3.99098e-05 -0.2169085377 0.8161785475
655296070.0 0.2418586015 -0.8133087091 0.0001943238 -0.0001259014 1.92584e-05 -9.4668e-06 -0.2082627581 0.8180023797
660296040.0 0.2330181762 -0.815335254 -0.0001027502 4.80492e-05 9.44046e-05 0.0001453355 -0.2002467942 0.8203692071
665296010.0 0.2251505977 -0.8176408701 -0.0001734314 -0.0001466857 -5.3727e-05 -6.25344e-05 -0.1929931027 0.8218252596
670295980.0 0.2176773084 -0.8200601867 -0.000182726 0.0001519103 -5.13751e-05 0.0001437435 -0.1848802925 0.8238370617
675295950.0 0.2095942536 -0.8220195826 5.25536e-05 2.01474e-05 -3.82474e-05 0.0001205742 -0.1766210202 0.8263380834
680295920.0 0.2006172495 -0.823573631 9.80919e-05 -8.00863e-05 9.9782e-06 -5.178e-06 -0.1678992089 0.8277098385
685295890.0 0.1924089309 -0.8253695929 8.18549e-05 0.0002559089 -0.0001461177 -3.64386e-05 -0.1598044209 0.8291126429
690295860.0 0.1850172337 -0.8271993072 9.83027e-05 -1.47039e-05 -7.55187e-05 8.12714e-05 -0.1518306079 0.8305153864
695295830.0 0.1769266575 -0.8288207897 -8.1914e-06 3.34605e-05 -7.80827e-05 3.80865e-05 -0.1432659341 0.8321904913
700295800.0 0.1685215599 -0.8299919026 -4.11511e-05 -3.64681e-05 0.0001727622 -4.62305e-05 -0.1349244066 0.8328697387
705295770.0 0.1606382444 -0.8322637773 6.4459e-06 4.66004e-05 0.0001222582 3.46234e-05 -0.1269924634 0.8351017281
710295740.0 0.1519544363 -0.8334543322 4.39172e-05 -3.93364e-05 -1.4369e-06 -8.59283e-05 -0.1191572189 0.836209502
715295710.0 0.1441970367 -0.8345528741 -0.0001429842 9.40619e-05 -9.7003e-05 -8.01354e-05 -0.1108473361 0.8379728421
720295680.0 0.1352290798 -0.8356250624 0.0001852304 0.0001669217 4.81984e-05 0.000133126 -0.1024766165 0.8382154105
725295650.0 0.1275430145 -0.8365564594 -0.0001052206 3.90052e-05 -0.0001917833 0.0001287231 -0.093802234 0.8398668335
730295620.0 0.1191633482 -0.8388041672 -0.0001116884 3.43189e-05 -0.0001306135 8.87159e-05 -0.08545303 0.8398717822
735295590.0 0.1109966083 -0.8387136241 -0.0002015052 -3.83739e-05 2.8277e-06 0.0001176051 -0.0771237336 0.8410515091
740295560.0 0.1030393925 -0.8403704747 0.0001094643 6.58703e-05 -3.11441e-05 -3.41539e-05 -0.0689953052 0.8411102737
745295530.0 0.0942349737 -0.8410835115 0.000141892 8.7362e-05 -8.5062e-06 5.7942e-05 -0.0610698108 0.8424214581
750295500.0 0.0860275425 -0.8413298063 -0.0001503612 0.0001456148 -0.0002585355 8.69687e-05 -0.0522670573 0.8427598262
755295470.0 0.0776814681 -0.8424676804 0.0001853197 -3.47936e-05 -7.77395e-05 5.25532e-05 -0.0441223341 0.8432626012
760295440.0 0.0691962672 -0.8422771486 -4.64548e-05 -0.0001312168 0.0002106047 5.26482e-05 -0.0363724806 0.843768679
765295410.0 0.0607897448 -0.8433841648 -0.0001038115 -0.0001386994 6.40214e-05 -0.0001199766 -0.0278749953 0.8440264645
770295380.0 0.0527112855 -0.8440722464 0.0001674325 0.000197102 -0.0001469524 4.65039e-05 -0.0189983164 0.8438146802
775295350.0 0.0438236944 -0.8438746923 -0.0001344058 -0.0002476676 7.17738e-05 0.0001183262 -0.0111937618 0.8436850111
780295320.0 0.0357413902 -0.8449620059 0.0001262357 0.0002288758 -8.88678e-05 -1.36109e-05 -0.002819849 0.8448588939
785295290.0 0.0270117659 -0.8446259299 -0.0001914081 9.70859e-05 -8.70895e-05 0.0003297123 0.0051322179 0.8442059941
790295260.0 0.0192617544 -0.8446575436 7.998e-05 -7.45726e-05 6.56275e-05 -6.24867e-05 0.014276025 0.8445491315
795295230.0 0.0105942652 -0.8446408187 9.18739e-05 -0.0001085061 -2.79429e-05 2.76079e-05 0.0223710381 0.8444933542
800295200.0 0.0026402667 -0.8444692661 9.08277e-05 -1.36002e-05 0.0001597123 -0.0002848981 0.0302019368 0.843766056
805295170.0 -0.0055224364 -0.8442399047 0.0001109635 6.82399e-05 0.0001430182 0.0001076066 0.0388478437 0.8431693401
810295140.0 -0.0142266524 -0.8440084808 9.8205e-06 -0.0001254174 -0.0001773318 -9.4137e-06 0.046795961 0.8439438605
815295110.0 -0.022229903 -0.8435376929 -1.47959e-05 0.0001890097 1.56833e-05 -5.98487e-05 0.0552277041 0.8430783787
820295080.0 -0.031232589 -0.8432195862 -4.22392e-05 -0.0001594409 0.0001823232 -5.11422e-05 0.0635150521 0.8423537978
825295050.0 -0.0391083439 -0.8432536839 0.0001283436 -4.76665e-05 -0.000124136 4.62018e-05 0.0718568594 0.8411996735
830295020.0 -0.0474705158 -0.8424117818 -0.0001010202 2.93546e-05 -0.0001166176 -5.10511e-05 0.0795519393 0.840676382
835294990.0 -0.0554336582 -0.8415769029 -0.0002062177 0.0002527037 8.68769e-05 0.0002015084 0.0879705643 0.8402303338
840294960.0 -0.0637673205 -0.8410765282 -7.05176e-05 -0.0001730907 -5.38938e-05 0.0001159759 0.0957938955 0.8392935306
845294930.0 -0.0719448166 -0.8398701987 5.21231e-05 0.00019059 0.000194325 0.0001412014 0.1046862371 0.8382395936
850294900.0 -0.0810240541 -0.8392315052 8.70728e-05 9.24029e-05 0.0001826758 0.000127966 0.1130032342 0.8374985222
