!Created with skrf (http://scikit-rf.org).
# Hz S RI R 50.0 
!freq ReS11 ImS11 ReS21 ImS21 ReS12 ImS12 ReS22 ImS22
300000.0 -0.0447448291 -0.0589734656 -0.0013978192 0.0011309838 0.0004601588 0.0003265309 -0.7733756425 -0.1690975069
5299970.0 -0.0447936104 0.0158340493 0.0001295753 -2.41521e-05 6.09938e-05 0.0001080313 -0.7847283264 -0.0084044912
10299940.0 -0.0392244651 0.0334795361 0.0002459617 0.0002048802 -7.637e-07 -2.92019e-05 -0.7884504327 -0.0053511259
15299910.0 -0.030807307 0.0482634925 6.86726e-05 -4.20748e-05 2.32519e-05 -0.0001242651 -0.7941412612 -0.0031866468
20299880.0 -0.0203994439 0.0598852982 -0.0001448491 0.0001030498 3.29474e-05 9.7255e-06 -0.8001575151 0.0016209765
25299850.0 -0.0091342775 0.0692459616 -9.08248e-05 0.0001450174 1.66716e-05 3.36956e-05 -0.8063277719 0.0074410408
30299820.0 0.0024667366 0.0760566917 2.34553e-05 -3.84624e-05 -3.18288e-05 7.02838e-05 -0.8123284765 0.01475746
35299790.0 0.0145233832 0.0809564608 0.000181615 4.44256e-05 -4.08974e-05 -7.19136e-05 -0.8175473171 0.0236775687
40299760.0 0.0259042161 0.0835694202 -1.73852e-05 3.79256e-05 0.0001137845 2.07223e-05 -0.8216032917 0.0332021032
45299730.0 0.0364790399 0.0851024499 -2.10275e-05 -4.70931e-05 1.99089e-05 0.0001893291 -0.8254575544 0.042048784
50299700.0 0.0466200064 0.0852242697 0.0001570985 -6.21249e-05 2.04233e-05 9.46761e-05 -0.8274400697 0.0525563593
55299670.0 0.0556558656 0.0842043065 3.04122e-05 -0.0001677002 0.0001412216 0.0001980158 -0.8298268617 0.0628484494
60299640.0 0.0644026464 0.0823333232 0.0001213843 8.4481e-05 0.0001395061 0.0001142123 -0.8312254749 0.0727687797
65299610.0 0.072188594 0.0799854827 -0.0001822339 8.7543e-06 9.34545e-05 0.0002614188 -0.8314795233 0.0829117189
70299580.0 0.0793026068 0.0767600726 0.0001516939 0.000174091 9.15398e-05 -6.77527e-05 -0.832239489 0.0927687671
75299550.0 0.0859001642 0.0735135657 0.0002003342 -4.43211e-05 -5.887e-07 4.83211e-05 -0.8324718349 0.1024600124
80299520.0 0.0910529515 0.0702981634 -0.0002116094 -3.06911e-05 -8.02699e-05 2.56587e-05 -0.8320874339 0.1118818706
85299490.0 0.0962233317 0.0663237883 8.21179e-05 -9.90977e-05 0.0001945832 -1.89447e-05 -0.8316770485 0.1214998102
90299460.0 0.1009250718 0.0627169331 -2.20274e-05 0.0001550679 -0.0001412421 -1.86814e-05 -0.8310325151 0.1311902412
95299430.0 0.1049168979 0.0587177547 0.0002977111 -9.8032e-06 7.85503e-05 0.0001769389 -0.8302025283 0.1407737016
100299400.0 0.1086192174 0.0550390276 -3.61069e-05 0.0002578311 -1.14119e-05 3.20433e-05 -0.8291047058 0.1494710019
105299370.0 0.1120111022 0.0512507338 -7.67321e-05 3.64762e-05 -5.4998e-05 0.0002000173 -0.8273146998 0.1590500257
110299340.0 0.1145699546 0.0472234919 -0.0001087237 0.0001138409 3.20917e-05 5.1984e-06 -0.8265142529 0.1682704314
115299310.0 0.1172001136 0.0429617098 1.3366e-06 0.000208002 4.00572e-05 4.59402e-05 -0.8248031941 0.1769997924
120299280.0 0.1192134445 0.0397330473 5.08113e-05 0.0001468847 -2.42086e-05 -0.000149252 -0.8237729678 0.1859350507
125299250.0 0.1211260712 0.0357009662 -3.61359e-05 4.77932e-05 0.0001733574 0.0001370126 -0.8218881362 0.1957232236
130299220.0 0.1232746603 0.0322780529 9.7275e-06 0.0001325014 -1.99819e-05 0.0001292669 -0.8203385958 0.2038541255
135299190.0 0.1247136867 0.0284506198 9.19983e-05 0.0003573651 -8.05609e-05 5.7892e-05 -0.817912983 0.2122740952
140299160.0 0.1260801814 0.0251170297 0.000111888 0.0001131365 -9.84212e-05 5.977e-07 -0.8160053379 0.2209824347
145299130.0 0.1268191424 0.0215527522 9.08136e-05 3.6061e-05 3.65561e-05 4.13566e-05 -0.8139342165 0.2299875666
150299100.0 0.1280117524 0.0178712625 -6.32241e-05 1.61351e-05 -7.48793e-05 0.0001670845 -0.8116036816 0.2384775486
155299070.0 0.1286720551 0.0149277795 0.0001741508 -0.0001258696 -3.09364e-05 9.58795e-05 -0.8100753977 0.2471300668
160299040.0 0.129205796 0.0115293426 7.52308e-05 -2.3979e-05 -4.70643e-05 9.56861e-05 -0.8077667135 0.2566029727
165299010.0 0.1294865929 0.0084379727 9.69941e-05 0.0001364628 0.0001154274 0.0002000983 -0.8044091818 0.2643092815
170298980.0 0.1299735096 0.0055330465 9.35886e-05 0.0001008316 7.42339e-05 8.80146e-05 -0.8020390155 0.2736277936
175298950.0 0.1305566358 0.0028286544 9.92216e-05 0.0001080876 5.68248e-05 0.0001304899 -0.7995091739 0.2820630094
180298920.0 0.1308066308 -0.000569795 0.0002348692 4.4671e-05 0.0001030626 9.00082e-05 -0.7956991212 0.2903622892
185298890.0 0.1307855845 -0.0033148714 0.0002791444 -9.4467e-06 7.34749e-05 6.79971e-05 -0.7935265285 0.2983595501
190298860.0 0.1310386433 -0.0058651084 0.0001489085 0.0003206777 4.14936e-05 -0.0002450926 -0.7895337525 0.3076523282
195298830.0 0.1311936426 -0.0086133929 0.0001434892 0.0001397453 6.91298e-05 0.0002081311 -0.7873290745 0.3155604084
200298800.0 0.1308091325 -0.0114082407 9.68235e-05 8.02229e-05 0.0001025789 0.0002073117 -0.7833387669 0.3241151739
205298770.0 0.1305921001 -0.0139812141 -1.2978e-06 0.0001175784 1.17066e-05 0.0001838181 -0.7799678753 0.3320924027
210298740.0 0.1306550961 -0.0165152669 -1.44436e-05 0.0001704614 -2.23141e-05 4.36154e-05 -0.7769793742 0.3402395787
215298710.0 0.1300273036 -0.0190649804 0.0003741006 0.0001940766 4.85468e-05 0.0001162225 -0.7734252441 0.3480071798
220298680.0 0.1297790799 -0.0216166511 0.0002301737 0.0001223639 0.0001298879 2.194e-06 -0.7698245798 0.3572182788
225298650.0 0.1295541313 -0.0238677968 3.204e-05 4.74239e-05 9.09348e-05 0.000195057 -0.7659177446 0.3646915439
230298620.0 0.1289447943 -0.026178625 0.0002261768 0.0001866119 0.0001577671 0.000160862 -0.7616535972 0.3724234345
235298590.0 0.1284319361 -0.0285933265 0.0002085261 0.0001711577 2.96327e-05 0.0002018762 -0.7583918896 0.3805329042
240298560.0 0.1279275465 -0.030751319 0.000297803 3.91855e-05 -3.72951e-05 0.000289207 -0.754059301 0.388601392
245298530.0 0.1275770195 -0.0331643986 0.0002180216 0.0003355261 -1.51801e-05 0.0001118979 -0.7501720666 0.3969274521
250298500.0 0.1265799647 -0.0351050999 -7.0933e-06 0.0002076585 0.0001050632 0.0002664998 -0.7457511697 0.4046169447
255298470.0 0.1262737785 -0.0373193324 0.000171096 0.0001670877 0.000145613 0.0001438303 -0.7412461898 0.4128844628
260298440.0 0.1256669298 -0.0393465247 -2.613e-06 -0.0001050023 4.96775e-05 0.0001768405 -0.7367542766 0.4201764306
265298410.0 0.124834195 -0.0410812611 -8.20445e-05 0.0001229636 0.0001027266 0.0002269945 -0.7324586001 0.4278082542
270298380.0 0.1240393583 -0.0429954833 0.0001060532 7.08848e-05 -7.43091e-05 9.02312e-05 -0.7272871908 0.4360209232
275298350.0 0.1236304006 -0.0451646055 0.0003325815 8.05098e-05 -5.56739e-05 0.000252814 -0.7228075388 0.4432397553
280298320.0 0.1227194811 -0.0468178714 -4.05567e-05 -1.72675e-05 0.0001265681 0.0001968086 -0.7183120934 0.4503238451
285298290.0 0.1220358519 -0.0488356609 5.41158e-05 0.0002010968 0.0001174174 6.32962e-05 -0.7135164535 0.4575739467
290298260.0 0.1210972727 -0.0505997567 0.0001954655 4.83785e-05 -2.93985e-05 -7.35542e-05 -0.7085947985 0.4658781186
295298230.0 0.1203219515 -0.0526925858 -0.000181961 -6.48413e-05 -0.0001256722 0.0001031866 -0.7037294231 0.4734952413
300298200.0 0.1196598514 -0.0547467026 0.0002345387 0.0003293677 0.0002270015 -2.64392e-05 -0.6985199337 0.4798617436
305298170.0 0.1192211992 -0.056282553 0.0002291976 0.0001913141 9.51188e-05 1.56766e-05 -0.6932572307 0.4876263237
310298140.0 0.1180034595 -0.0585141182 0.000173678 3.1118e-05 7.83669e-05 0.000103858 -0.6889373462 0.4952465386
315298110.0 0.1167636545 -0.0601214705 0.0001865422 0.0002004273 0.0001876859 0.000338974 -0.6830880877 0.50222142
320298080.0 0.115775366 -0.0621135448 0.0003723047 0.0001872494 0.0001494751 4.18424e-05 -0.6777946209 0.5096129295
325298050.0 0.1145001672 -0.0640755154 -3.95357e-05 0.0002543081 0.0005374566 3.98151e-05 -0.6723147786 0.5162992732
330298020.0 0.1130917342 -0.0652694824 0.0002099316 6.56135e-05 0.0002197971 0.0002227459 -0.6664104416 0.5232867737
335297990.0 0.111940391 -0.0668414553 9.74307e-05 -0.000170087 0.000266065 0.0001613911 -0.6611153157 0.5296978543
340297960.0 0.1106431897 -0.0684666638 0.00024027 0.0001418201 -0.0002201877 -5.41198e-05 -0.6554278182 0.5372509755
345297930.0 0.1092947077 -0.0697261069 5.48774e-05 0.00032969 0.0002172753 0.0001440099 -0.6496219054 0.5439633437
350297900.0 0.1084563129 -0.0711087999 4.56375e-05 6.26029e-05 0.00039292 9.84457e-05 -0.644189531 0.551042475
355297870.0 0.1071518394 -0.0722936022 6.71421e-05 5.14611e-05 0.000117351 -0.0001663843 -0.6386085797 0.5575780886
360297840.0 0.1058420335 -0.0739816215 0.0002298202 0.0002898546 0.0001069563 0.0002120335 -0.6322865777 0.5636013011
365297810.0 0.1049025433 -0.0752399707 0.0002003864 0.0002163562 0.0001683668 0.0001384904 -0.6262882522 0.5709069265
370297780.0 0.1036110453 -0.0765004242 0.0001726899 0.0001282364 0.0001312282 0.0002489654 -0.6204643853 0.5762738414
375297750.0 0.1025871365 -0.0774798875 0.0001129318 -6.40701e-05 0.0001230523 8.32248e-05 -0.614214634 0.5833176608
380297720.0 0.1017291511 -0.0789139275 7.5852e-06 -0.0001520254 4.84682e-05 0.0003187157 -0.6081931445 0.5904821209
385297690.0 0.1000320989 -0.0800565108 0.0002325492 0.0001215849 0.0001948469 0.0004098798 -0.6018611971 0.5962088496
390297660.0 0.0989809003 -0.0814381961 -3.46708e-05 -1.45904e-05 0.0002328733 -2.5017e-06 -0.5952530466 0.601919306
395297630.0 0.0979645032 -0.0827395538 3.88e-07 4.36475e-05 0.000150127 -7.41836e-05 -0.5894828964 0.6082682192
400297600.0 0.0964642008 -0.083446331 0.0002410288 0.0001308627 0.000110818 0.0001439536 -0.5832307099 0.613766169
405297570.0 0.0955132368 -0.0847816103 0.0001940848 9.97799e-05 1.24237e-05 6.6623e-05 -0.5776543563 0.6197755175
410297540.0 0.0940406123 -0.0857152846 0.0001857622 2.85368e-05 0.0002271064 0.0001629506 -0.569693285 0.6257594557
415297510.0 0.0930186401 -0.0867228963 0.0002711746 0.0001370266 0.0001323103 -6.87638e-05 -0.5636574451 0.6323710819
420297480.0 0.0914193864 -0.0883599096 0.0002849376 0.0002918117 6.3385e-05 6.31318e-05 -0.5573863385 0.6367778529
425297450.0 0.090359292 -0.0891896654 0.0002767801 0.0001027872 0.0002281428 0.0002109298 -0.5508300918 0.64367289
430297420.0 0.0889741791 -0.0901848353 0.0003059555 0.000136387 0.0002974954 2.5675e-05 -0.5437508946 0.6484735848
435297390.0 0.0879859754 -0.0912370909 0.0001676834 0.0002943507 0.0002171533 -5.396e-07 -0.5368960297 0.6536113834
440297360.0 0.0865486055 -0.0920720676 0.0001918987 0.0001041697 0.0003553462 0.0001172326 -0.530566387 0.6586685482
445297330.0 0.0852693146 -0.0933587906 0.0001152007 0.0002801455 6.73263e-05 0.0001082931 -0.5236627954 0.664362357
450297300.0 0.0837764399 -0.094276124 0.0001072116 0.0001458465 0.0001169276 9.99753e-05 -0.517032131 0.6694239315
455297270.0 0.0825110085 -0.0948788186 0.0002840866 0.0002164384 9.15164e-05 0.0002233431 -0.5100637514 0.6749291547
460297240.0 0.0811958487 -0.095784605 9.30018e-05 3.43131e-05 0.0001265548 -4.39924e-05 -0.5028983426 0.6807512293
465297210.0 0.0798575685 -0.096700516 0.0001010211 0.0001346007 9.55013e-05 1.13825e-05 -0.4963473952 0.6844747299
470297180.0 0.0785512216 -0.0976036659 0.0001317142 0.0001555377 0.0004166215 0.0002947753 -0.4894349915 0.6896535317
475297150.0 0.0773220293 -0.0983141334 6.33205e-05 -6.0904e-06 0.0002053992 3.21268e-05 -0.4821851076 0.6946275389
480297120.0 0.075774405 -0.0994213502 4.26423e-05 6.93653e-05 0.00039063 0.0001003298 -0.4754472996 0.6999869657
485297090.0 0.074582777 -0.0999416356 0.0002160492 1.44237e-05 0.0001435788 -1.57774e-05 -0.4682923741 0.7042352247
490297060.0 0.0734056007 -0.1007607026 0.0001434132 9.1385e-05 0.000236095 9.69138e-05 -0.4614142122 0.7086279953
495297030.0 0.0717515067 -0.1016072968 0.0001365846 0.0002728019 0.0002792938 -8.07874e-05 -0.453496315 0.7127216289
500297000.0 0.0705475263 -0.1025669027 0.000255313 0.0001424533 0.000221808 0.000236755 -0.4470263049 0.7179563182
505296970.0 0.0685895863 -0.1030007469 0.0002214331 0.0001600503 0.0002824568 0.0001367388 -0.4403781516 0.7218368331
510296940.0 0.0679110432 -0.1034374059 0.0002513058 0.0003724383 0.0002430225 0.0002119527 -0.4321452947 0.7266136803
515296910.0 0.0658955394 -0.1042415006 0.0001997007 -0.0001453361 0.0001523006 1.47191e-05 -0.4248149647 0.7307917872
520296880.0 0.0650176393 -0.1050816368 0.0002315387 0.0001504679 0.0002663955 1.07512e-05 -0.4175898474 0.735039795
525296850.0 0.0634144342 -0.1055846412 0.0003993943 0.0003708961 0.0002478702 0.0001690749 -0.4102458874 0.7390244407
530296820.0 0.0619848017 -0.1062128862 0.0002515509 0.0001144179 0.0001445879 0.000141078 -0.4030670832 0.7428380254
535296790.0 0.0607060478 -0.1068214703 0.0004068882 0.0002851272 -5.9427e-06 -0.0001116805 -0.3959070462 0.7464027084
540296760.0 0.0591148592 -0.1076160529 0.0004399259 0.0001333997 0.0004506027 3.95418e-05 -0.3881030839 0.7508427753
545296730.0 0.0577232701 -0.1076982907 0.0002902255 0.0002195674 0.0001690347 0.0001767984 -0.380629394 0.7541092999
550296700.0 0.0561309928 -0.1083545416 0.0004029447 -8.518e-05 0.0001209778 0.000152583 -0.3732293782 0.7578386289
555296670.0 0.0549658393 -0.1092061733 0.0003616058 -7.64358e-05 0.000203817 0.0002721129 -0.3655478094 0.7620170695
560296640.0 0.0535233673 -0.1096803342 0.00026513 6.86442e-05 0.0001915744 5.7644e-05 -0.3576077782 0.7651557326
565296610.0 0.0518717388 -0.1097914104 0.0002668069 0.0001530753 0.0004023793 7.43724e-05 -0.3498984015 0.7689807063
570296580.0 0.0505202416 -0.1104889421 0.0003663628 7.63497e-05 0.0002513815 -3.30361e-05 -0.3432382246 0.7723467175
575296550.0 0.0493717656 -0.1106801184 0.0003188182 0.0003204974 0.0002494856 -6.03018e-05 -0.3347858931 0.7755710707
580296520.0 0.0477734536 -0.1112666486 0.0004167499 0.0001917796 0.0004684013 0.0001998004 -0.3273020016 0.778962698
585296490.0 0.0462087316 -0.1115299865 0.0002843611 -2.5705e-06 0.0002402967 5.27993e-05 -0.3197031302 0.7822951135
590296460.0 0.0445578044 -0.1119794053 0.0004316346 0.0001655517 0.0002010575 7.55728e-05 -0.3117199991 0.7852724956
595296430.0 0.0434863832 -0.112342655 0.000384538 9.58811e-05 0.0004414155 -9.3872e-06 -0.3037833712 0.7869519378
600296400.0 0.0418333272 -0.1126103331 0.0004964497 0.0002007127 0.0002244563 9.61388e-05 -0.2953747453 0.7915308103
605296370.0 0.0405649168 -0.1130099893 0.0001890659 0.000166288 0.0002247883 8.13527e-05 -0.2883612829 0.7941194817
610296340.0 0.0391106539 -0.1135193161 0.0004444259 -0.0001135634 0.0002733374 -3.96373e-05 -0.2802163333 0.7970366378
615296310.0 0.0374936605 -0.1132826601 0.0003720217 0.0002980361 0.0002806787 -2.3034e-06 -0.2725062074 0.7993656433
620296280.0 0.0359733544 -0.1138155113 0.0001678094 9.01635e-05 0.0004556869 -2.63473e-05 -0.2643496959 0.8020121278
625296250.0 0.0347361773 -0.1140426455 0.0003286018 -6.33324e-05 0.0003389913 -1.92743e-05 -0.2564437406 0.8047714381
630296220.0 0.0330709505 -0.1141141085 0.0004231901 3.77758e-05 0.0004515216 0.0001499955 -0.248227865 0.8076325528
635296190.0 0.0316817061 -0.11436376 0.0004204801 0.0002635409 0.0004136313 1.13486e-05 -0.2406645921 0.8094554541
640296160.0 0.0299708208 -0.1145290227 0.0003756182 9.42455e-05 0.0003268273 0.0001229254 -0.2324705857 0.8121259888
645296130.0 0.0287757 -0.1145493336 0.0001613176 6.84739e-05 0.0002362886 2.98575e-05 -0.2249791605 0.8141806464
650296100.0 0.0272425773 -0.1146749824 0.00020094 -3.12589e-05 0.0002516191 -0.0002106745 -0.2165940135 0.8170975084
655296070.0 0.0260137033 -0.1151380882 0.0005183504 0.0002874572 0.0004251003 2.61846e-05 -0.2086856911 0.8183353648
660296040.0 0.0242569343 -0.1151136575 0.0002875645 -3.588e-05 0.0005047786 9.63571e-05 -0.2003734878 0.8206404517
665296010.0 0.0229438099 -0.1152182744 0.0002916084 0.0001908043 0.0002698944 6.39297e-05 -0.1923993196 0.8225665743
670295980.0 0.0213264247 -0.1152228746 0.0002401926 -7.53224e-05 0.0001415081 3.515e-06 -0.1850879245 0.8241934928
675295950.0 0.0201066688 -0.1153230474 0.0002458217 3.46935e-05 0.0001570399 -9.35223e-05 -0.1759767493 0.826481087
680295920.0 0.018517013 -0.1151201442 0.000320143 5.82765e-05 0.0005599162 -3.94757e-05 -0.1680117554 0.8280437366
685295890.0 0.0169626801 -0.1153561356 0.0003085934 1.28187e-05 0.0001313159 0.0002123925 -0.159565786 0.8297083047
690295860.0 0.0158239475 -0.1152209757 -1.05137e-05 2.49819e-05 0.0004654751 -0.0001201625 -0.151645924 0.8308096911
695295830.0 0.0142705009 -0.1152240146 0.0003723854 0.000189869 0.0005219756 -9.901e-07 -0.1431049791 0.8327925227
700295800.0 0.0127875896 -0.1150233401 0.0004676891 -0.000134118 0.0004423794 8.82669e-05 -0.1350201713 0.8334064049
705295770.0 0.0114054377 -0.1152543011 0.0001356074 8.31149e-05 0.0003702624 5.228e-07 -0.1272077504 0.835332931
710295740.0 0.009773787 -0.1148748629 0.0004143508 0.0001415096 0.0003774565 0.0001328187 -0.1187985731 0.8367312811
715295710.0 0.0084633103 -0.1148501674 0.0005918067 -9.01251e-05 0.0003311654 -0.0001586383 -0.1103242619 0.837723623
720295680.0 0.0069612804 -0.1147763609 0.0004663768 -0.0001455331 0.0002892472 -0.0001654007 -0.1018030942 0.8390040947
725295650.0 0.0057542406 -0.1147741821 0.0003757713 -3.79043e-05 0.000338074 -7.20901e-05 -0.0937295937 0.8394220512
730295620.0 0.0040480074 -0.1147139519 0.000469962 -0.0001483476 0.000544919 2.96954e-05 -0.0855150261 0.8406485137
735295590.0 0.0030601963 -0.1143009351 0.0004862087 -0.0002032404 0.0004533637 -0.0001082749 -0.0769263009 0.8411269401
740295560.0 0.001398713 -0.1138962083 0.0003901324 6.67404e-05 0.0002332714 -0.0001415651 -0.0688080235 0.8412067921
745295530.0 -0.0002959375 -0.1136878316 0.0003651959 1.72411e-05 0.0005721177 -6.83629e-05 -0.0606174526 0.8421574744
750295500.0 -0.0015638447 -0.1137134716 0.0002946444 0.0002632805 0.0003404351 -6.61255e-05 -0.0518943032 0.8424586689
755295470.0 -0.002556216 -0.1130544559 0.0001892218 -9.2074e-06 0.0003825008 -0.0001771806 -0.0442836981 0.8440924139
760295440.0 -0.0044246074 -0.112870711 0.0002348655 -5.07871e-05 0.0002584067 9.5527e-06 -0.0362091651 0.8440454238
765295410.0 -0.0057505013 -0.112951285 0.0002761507 -0.0002297731 0.000133992 -6.2159e-05 -0.0270499153 0.8446238944
770295380.0 -0.0069310135 -0.112318465 4.88471e-05 -6.33316e-05 0.0003780069 2.75723e-05 -0.0188372226 0.8444318778
775295350.0 -0.0086905743 -0.1122233919 0.0002578658 -0.0003366259 0.0003106239 -6.00362e-05 -0.0112904684 0.8441545647
780295320.0 -0.0098677354 -0.1117586649 0.0005261616 -0.0002509726 0.0003731663 -0.0001158852 -0.0028600022 0.8446986091
785295290.0 -0.0112312466 -0.1112426019 0.0003402615 6.2159e-06 0.0002836862 -0.0001996537 0.0051149178 0.8446653614
790295260.0 -0.0127442588 -0.111097109 0.0003181977 2.21102e-05 0.0005977537 -0.000128269 0.0143502648 0.8444614965
795295230.0 -0.0139513625 -0.1102480037 0.0003577217 -0.0002490305 0.0002325505 1.48626e-05 0.0227401187 0.8446991654
800295200.0 -0.0150799578 -0.1100588454 0.0004392824 1.65646e-05 0.0004115697 0.0001065963 0.0305152196 0.8435546048
805295170.0 -0.0166712864 -0.1097353526 0.0003449826 2.86981e-05 0.0002828229 -0.0001116319 0.0385599226 0.8433243019
810295140.0 -0.0179505643 -0.1094216215 0.0004376994 -0.0001931951 0.0003127837 -0.000104947 0.0465907488 0.8440598239
815295110.0 -0.0193638606 -0.1086453133 0.0004072902 -9.87689e-05 0.0005138924 -0.0001814961 0.055254681 0.842888321
820295080.0 -0.0207392025 -0.1083663047 0.0002405355 -0.0003345801 0.0004523951 -0.0002412054 0.0635138362 0.842393167
825295050.0 -0.0219787989 -0.1080426053 0.0004585115 -0.0002765521 0.0002972128 -0.0001800748 0.0717086435 0.8416541429
830295020.0 -0.0230302882 -0.1073193043 0.0003850593 9.27952e-05 0.0005358293 -6.7148e-05 0.0795491805 0.8408456099
835294990.0 -0.0246023486 -0.106679934 0.0002355918 -5.17302e-05 0.0004084808 -1.1679e-05 0.0882088148 0.8403157363
840294960.0 -0.0260111513 -0.1065321336 0.0006321513 -0.0002543123 0.0001575205 -0.0003639061 0.0961664791 0.8395561289
845294930.0 -0.0271619101 -0.1056042668 0.000157323 3.70137e-05 0.0002740389 -0.0001660102 0.1048751117 0.8380709857
850294900.0 -0.0285060442 -0.1051491312 0.0003110837 -8.62781e-05 0.0003309154 0.00011774 0.1129157275 0.837478438
