!Created with skrf (http://scikit-rf.org).
# Hz S RI R 50.0 
!freq ReS11 ImS11 ReS21 ImS21 ReS12 ImS12 ReS22 ImS22
300000.0 -0.2412418273 -0.0854534184 0.4716670031 0.0587724869 0.4686127227 0.0560929375 -0.2351809745 -0.0959942473
5299970.0 -0.2449080958 0.0067107343 0.4750288352 0.0048667115 0.474942263 0.0051306091 -0.2408205986 0.007595668
10299940.0 -0.2417528961 0.0179366549 0.476817746 0.005715313 0.4767095721 0.0061222479 -0.2376028034 0.0205576649
15299910.0 -0.2373842103 0.0270189735 0.4803276616 0.007304419 0.4805811049 0.0072517975 -0.2331981782 0.0301366927
20299880.0 -0.2329202839 0.0340382291 0.4852255697 0.0077602269 0.4851529866 0.0079703268 -0.2277353318 0.0381887431
25299850.0 -0.227630956 0.0405010085 0.490102528 0.0068637801 0.4902437476 0.0071129999 -0.2219220467 0.0446922318
30299820.0 -0.2223793422 0.045185764 0.495424957 0.0050832623 0.4956723336 0.0050418765 -0.2160820396 0.0502558712
35299790.0 -0.2175207031 0.0491102277 0.5007962334 0.0012399348 0.5007261759 0.0017367011 -0.2104200774 0.0542365814
40299760.0 -0.2128774959 0.0522757747 0.5058257497 -0.0022992092 0.5058922872 -0.002430436 -0.2051475843 0.0576101464
45299730.0 -0.2079889858 0.0546262942 0.5102905776 -0.0066299875 0.510626859 -0.0073761541 -0.2002847717 0.0605487182
50299700.0 -0.2034819779 0.0568467788 0.514965521 -0.0129897785 0.5149015663 -0.0125461757 -0.1955807393 0.0624227174
55299670.0 -0.1997392538 0.0584698913 0.5187975038 -0.0192525485 0.5183978546 -0.0186912775 -0.1913384562 0.0645668518
60299640.0 -0.1959644777 0.0599742825 0.5218620367 -0.0251146346 0.521868473 -0.0249556711 -0.1873732089 0.0654759936
65299610.0 -0.1929631032 0.0609313137 0.5246946591 -0.0315892836 0.5249010967 -0.0313161188 -0.184021792 0.0666949423
70299580.0 -0.189985874 0.0621244022 0.5274128381 -0.0376463124 0.5271194441 -0.0378950883 -0.1806705916 0.067359416
75299550.0 -0.1871667611 0.0629523937 0.5291605317 -0.0446285565 0.5289540056 -0.0448041524 -0.1780948994 0.0683951993
80299520.0 -0.184871257 0.0638730068 0.5309218449 -0.0517549416 0.5310303506 -0.0517606399 -0.175493504 0.0692488018
85299490.0 -0.1825236027 0.0640310626 0.5320281404 -0.0579301649 0.5322800997 -0.0578669489 -0.1729531933 0.0693481861
90299460.0 -0.1805669124 0.0648828529 0.5327812979 -0.0656186809 0.5334145594 -0.065307852 -0.1703704917 0.0703716872
95299430.0 -0.1782064964 0.0652136443 0.5343160824 -0.0723579266 0.5339122801 -0.072352241 -0.1682487722 0.0714122201
100299400.0 -0.1768093486 0.0663598998 0.534133995 -0.0790021649 0.5343133702 -0.079199151 -0.166180805 0.0714859234
105299370.0 -0.1749607689 0.0667698619 0.5343440912 -0.0863290583 0.5349723675 -0.085826408 -0.1640808039 0.0722378031
110299340.0 -0.1735550879 0.0675982902 0.5349113725 -0.0930796689 0.5348077377 -0.0925086851 -0.1629848412 0.0729476591
115299310.0 -0.1719946928 0.068047768 0.5349394654 -0.0996502076 0.534887824 -0.0996425215 -0.1610468337 0.0737114549
120299280.0 -0.170790669 0.0684572646 0.5343068999 -0.1065877919 0.5346712601 -0.1064299267 -0.1596376691 0.074435788
125299250.0 -0.1694831066 0.0691209131 0.5341087959 -0.1126547533 0.534310054 -0.1130702149 -0.1585407355 0.0748920556
130299220.0 -0.1686973063 0.0703371565 0.5331116417 -0.1202990019 0.5335194574 -0.1202631472 -0.1571575763 0.075566193
135299190.0 -0.1675817063 0.0710519579 0.5330026672 -0.12641237 0.5327754582 -0.126562328 -0.1555263883 0.076743879
140299160.0 -0.166592052 0.0720738687 0.5321631168 -0.1331155371 0.5321313631 -0.13344173 -0.1543137715 0.077920804
145299130.0 -0.1655983145 0.0728890407 0.5314797598 -0.1396964 0.5309689825 -0.13960836 -0.1534389378 0.0789047535
150299100.0 -0.1644147639 0.073833516 0.529984083 -0.1458777996 0.5300991636 -0.1459925181 -0.1522024277 0.0802173834
155299070.0 -0.1639908937 0.0746893007 0.5288382368 -0.1530731762 0.5285114484 -0.1527307163 -0.1510548322 0.0809587425
160299040.0 -0.1630691165 0.0759573047 0.5277246646 -0.1591776103 0.5271127655 -0.1591170331 -0.1506649151 0.0822990725
165299010.0 -0.1621928454 0.076837534 0.5257200094 -0.1661284585 0.5263838527 -0.1659508745 -0.1493196326 0.0838373693
170298980.0 -0.1614448722 0.077996656 0.5242735395 -0.1722277632 0.5246056555 -0.1720578094 -0.1481892674 0.0847614762
175298950.0 -0.1609055745 0.0788378647 0.5232413528 -0.1779245194 0.5223460045 -0.1783700687 -0.147564517 0.0860744888
180298920.0 -0.16015691 0.080012133 0.5209608121 -0.1846022537 0.5207795699 -0.1842804142 -0.1465494072 0.087521355
185298890.0 -0.1588594389 0.0809074314 0.5190885611 -0.1907216281 0.518950517 -0.1905708692 -0.1454743456 0.0888535095
190298860.0 -0.158542195 0.0823309341 0.5172491275 -0.1970680485 0.5172258469 -0.1968839919 -0.1446327399 0.0898529817
195298830.0 -0.1578263407 0.0833398769 0.5152469304 -0.2031119208 0.5152026166 -0.2031439313 -0.1435114607 0.0909720399
200298800.0 -0.156771026 0.0844988108 0.5128781111 -0.209180309 0.5131100457 -0.2096106344 -0.143042673 0.0926946029
205298770.0 -0.1563350906 0.0859064394 0.5108427651 -0.215430589 0.5109197324 -0.2150364135 -0.1420143378 0.09329886
210298740.0 -0.1553344951 0.086699183 0.508392322 -0.2205860101 0.5085544388 -0.2208671065 -0.1411197223 0.0952040118
215298710.0 -0.1551774571 0.0884117282 0.5063963998 -0.227131197 0.5061604763 -0.2273019025 -0.1404623516 0.0966210241
220298680.0 -0.1540479653 0.0893397707 0.5039560979 -0.2328315391 0.5038414254 -0.2332320777 -0.1399454912 0.0978313573
225298650.0 -0.1533316677 0.0905048956 0.5010367828 -0.2386200083 0.5016270588 -0.2384479081 -0.139192106 0.0988189535
230298620.0 -0.1525093132 0.0921968471 0.4986726162 -0.2441366669 0.4991912798 -0.2448872207 -0.1377518624 0.1000945667
235298590.0 -0.1516269081 0.0936991488 0.4961288602 -0.2505714587 0.4965940721 -0.2498413657 -0.1368071046 0.1013358697
240298560.0 -0.151118895 0.0950213639 0.4938270603 -0.2562877075 0.493238743 -0.2562227316 -0.1360068983 0.103413178
245298530.0 -0.1502011777 0.0962251051 0.4910476967 -0.2617646337 0.4909187552 -0.2619310639 -0.134868359 0.1039860777
250298500.0 -0.1492534255 0.0977151784 0.4875730883 -0.2675980339 0.4873233801 -0.2671747719 -0.1340849551 0.1054192608
255298470.0 -0.148511621 0.0986978203 0.4845578632 -0.2726061949 0.4848635241 -0.2726548443 -0.1328388732 0.1069345712
260298440.0 -0.1479696433 0.1003287094 0.4819741522 -0.2784122555 0.4820638491 -0.2781401632 -0.1316936388 0.1084352648
265298410.0 -0.1465313875 0.1017915119 0.4788470394 -0.2841173788 0.4794994776 -0.2838836886 -0.1308084704 0.1095920712
270298380.0 -0.1460753139 0.1029953292 0.4761455627 -0.2890302156 0.4760913164 -0.2893032824 -0.1296153151 0.1112418708
275298350.0 -0.1449956533 0.1042070117 0.4727388614 -0.2951592372 0.4726235734 -0.2950521973 -0.1281497857 0.1122489314
280298320.0 -0.1439705787 0.1057350915 0.4699053863 -0.3004482558 0.4697920463 -0.2999809771 -0.1267174058 0.1135082733
285298290.0 -0.1431994012 0.1073177679 0.4664399381 -0.3057337181 0.4663533696 -0.3053716419 -0.1256053641 0.1148235582
290298260.0 -0.1421812428 0.1083466784 0.4631182729 -0.3105294849 0.4630919606 -0.3111354673 -0.1245057137 0.1165691596
295298230.0 -0.1409603104 0.1096838564 0.4594685735 -0.3157363436 0.4595185023 -0.3158529913 -0.1231396108 0.1174444566
300298200.0 -0.1402141424 0.1109457385 0.4566515896 -0.3210238241 0.4566946632 -0.3214890505 -0.1218135517 0.1190910837
305298170.0 -0.138998498 0.1122146694 0.4522404757 -0.3265793658 0.4522745069 -0.3264192282 -0.119664451 0.1201585495
310298140.0 -0.1380345771 0.1131612741 0.4493828075 -0.3316350273 0.4494651687 -0.3315999292 -0.1190004324 0.1215335786
315298110.0 -0.1369007386 0.1146708251 0.4452144025 -0.3371001995 0.44595802 -0.3366401911 -0.1175550296 0.1227541833
320298080.0 -0.1358644745 0.115869898 0.4415227116 -0.3419938401 0.4418766362 -0.3416297547 -0.1163359773 0.1242622553
325298050.0 -0.1351401064 0.1170379617 0.4380709656 -0.3473184898 0.4378339828 -0.3472578306 -0.1151218559 0.1253136858
330298020.0 -0.1342735584 0.1181994646 0.4341254211 -0.3518560552 0.4340694802 -0.3519043547 -0.1143879403 0.126815794
335297990.0 -0.1332438575 0.119171521 0.4300597482 -0.3566021285 0.4293507798 -0.3570587544 -0.1132894843 0.1282440078
340297960.0 -0.1327993373 0.1210088562 0.4256592413 -0.3612374282 0.4251243732 -0.3617172651 -0.1115441005 0.1295726743
345297930.0 -0.1313530871 0.1225705201 0.4214149976 -0.3666851355 0.421429949 -0.3663959141 -0.110379222 0.1306083563
350297900.0 -0.1304968649 0.123726408 0.4174851352 -0.3710939523 0.4174838642 -0.3708104715 -0.1093816007 0.1327237194
355297870.0 -0.1292953901 0.1257396652 0.4131719374 -0.3755816556 0.4135171044 -0.3756346669 -0.108423162 0.1336969469
360297840.0 -0.128232138 0.1267038535 0.4095614932 -0.3799218473 0.4097706478 -0.3797666243 -0.1068124312 0.1352787256
365297810.0 -0.1273148067 0.12838742 0.4048982292 -0.3846463393 0.4053124191 -0.3847124653 -0.1053580604 0.136930422
370297780.0 -0.1257153567 0.1294245557 0.4006932576 -0.3890406409 0.4011611546 -0.388565637 -0.1036309175 0.1379070539
375297750.0 -0.1246217721 0.1308289769 0.3968339613 -0.3929680726 0.3968130675 -0.3934834789 -0.1026914588 0.1392709936
380297720.0 -0.1231133388 0.1320228832 0.3919818922 -0.3976650235 0.3923154118 -0.3972067979 -0.1011433926 0.1405520201
385297690.0 -0.122371809 0.1333510125 0.3875867525 -0.4020324188 0.3877783705 -0.4016808108 -0.0995563598 0.1416234324
390297660.0 -0.1212782495 0.1349515812 0.3832781414 -0.4061408784 0.3833893429 -0.4057147401 -0.0983887508 0.1431641718
395297630.0 -0.1199434363 0.1362746623 0.379207675 -0.4106278192 0.3787810349 -0.4106482765 -0.0962968318 0.1443764898
400297600.0 -0.1186745635 0.1377038854 0.3741243508 -0.4150412016 0.3743049485 -0.4145970305 -0.0948446198 0.1456779632
405297570.0 -0.1177366592 0.138888657 0.3699184473 -0.4183114851 0.3696258401 -0.4182237782 -0.0937746635 0.146755473
410297540.0 -0.1160464958 0.1398044955 0.365137762 -0.4226314862 0.3656805705 -0.4225519441 -0.0921200809 0.1482912334
415297510.0 -0.1144715024 0.1410653442 0.3600079534 -0.4267684007 0.3605463492 -0.4268124729 -0.0905877923 0.1491846858
420297480.0 -0.1135440194 0.1425547995 0.3557071627 -0.4306229763 0.3558135834 -0.430568895 -0.0890635087 0.1499951536
425297450.0 -0.1120950855 0.1436829255 0.3511231049 -0.4346131774 0.3516034056 -0.4344702894 -0.0877147391 0.151778091
430297420.0 -0.110789016 0.1446715043 0.3463705418 -0.4379881097 0.346483333 -0.4382653118 -0.0862467734 0.1526711791
435297390.0 -0.1094690178 0.1461490403 0.3410757181 -0.4419844439 0.3413186697 -0.4419079712 -0.0838190245 0.1534908988
440297360.0 -0.1079806725 0.1471819817 0.3361649437 -0.4455765518 0.3369773167 -0.4455390051 -0.0827296542 0.1540959167
445297330.0 -0.1067827316 0.1480665122 0.3318952432 -0.4492131237 0.3318312537 -0.4490234528 -0.080743827 0.1552154479
450297300.0 -0.1051791956 0.1492339755 0.3270103262 -0.4529369979 0.326441471 -0.4531841238 -0.0789513733 0.1560395857
455297270.0 -0.1036916358 0.1505477347 0.3216173881 -0.4559663344 0.3220108244 -0.4563962278 -0.0774810214 0.1570988819
460297240.0 -0.1024549067 0.1517953368 0.3165773908 -0.459691425 0.3171572299 -0.4598163083 -0.0756446735 0.1582530197
465297210.0 -0.1006919802 0.15275504 0.3120187385 -0.4631005149 0.3118357543 -0.4634407012 -0.0737000858 0.1589617398
470297180.0 -0.0990923596 0.1536938835 0.3066035284 -0.4664743652 0.3065226634 -0.4665925724 -0.0716815225 0.1600640343
475297150.0 -0.0979908943 0.1546345198 0.3015405711 -0.4696642034 0.3016779272 -0.469326125 -0.0695180925 0.1607652256
480297120.0 -0.0963280045 0.1561615838 0.2963166093 -0.4729959103 0.2959506021 -0.4735093326 -0.0678509234 0.1621246721
485297090.0 -0.0948697199 0.1573936019 0.2912910643 -0.4759344234 0.2917074188 -0.4763098346 -0.0663296506 0.1628079113
490297060.0 -0.0937978829 0.1581903712 0.286238034 -0.4796443289 0.2863707956 -0.4792071686 -0.0641644207 0.1639008825
495297030.0 -0.0919727148 0.1592896762 0.2808037446 -0.4823998348 0.2812307533 -0.482484503 -0.0626579909 0.1648351567
500297000.0 -0.0904312959 0.1603044594 0.2753997232 -0.4852157374 0.2754611983 -0.4849121369 -0.0608453631 0.1662422117
505296970.0 -0.0889232889 0.1610847216 0.2699556092 -0.487927228 0.2701776118 -0.4883533566 -0.0591157648 0.1667087359
510296940.0 -0.0874880656 0.1622443856 0.2648505376 -0.491169307 0.2647466222 -0.4916960401 -0.0567426029 0.167508187
515296910.0 -0.0855430506 0.1634214803 0.2593137669 -0.4943377537 0.2594229475 -0.4942257637 -0.0551093687 0.1680436188
520296880.0 -0.0843135772 0.1642015157 0.2540161674 -0.497171548 0.2540883938 -0.4966985565 -0.0532606741 0.1689547582
525296850.0 -0.0825541785 0.1646250426 0.2484923292 -0.499548526 0.2490040062 -0.4995175868 -0.0516633842 0.1697698024
530296820.0 -0.080856611 0.1663042764 0.2429242553 -0.5026884744 0.2431634642 -0.5023771931 -0.0496541295 0.1706616847
535296790.0 -0.0796581092 0.1668177063 0.2380595251 -0.5047683217 0.2379614735 -0.5042259585 -0.0479584821 0.1708158748
540296760.0 -0.0781019314 0.1678104417 0.2325456439 -0.50769145 0.231991393 -0.507644522 -0.0461149863 0.1723701785
545296730.0 -0.0763353973 0.1690080437 0.226188599 -0.5098086688 0.2265826925 -0.5102783296 -0.0440473519 0.172849273
550296700.0 -0.074313579 0.1698112476 0.220989528 -0.5121975849 0.22130517 -0.5126930867 -0.0427593076 0.1737087427
555296670.0 -0.0727686208 0.1705870774 0.215757911 -0.5148459724 0.2157824784 -0.5145256449 -0.0404453352 0.1741089119
560296640.0 -0.0710294098 0.1718455684 0.2095092126 -0.5171287063 0.2102625124 -0.5170869952 -0.0387407429 0.1750420394
565296610.0 -0.0696659224 0.1722985891 0.2043601112 -0.5192101706 0.2041225253 -0.5190931842 -0.0365122761 0.1751344634
570296580.0 -0.0681556411 0.1729908835 0.1989643662 -0.5217180916 0.1981561746 -0.5213777853 -0.034946764 0.1762363757
575296550.0 -0.0664619434 0.1743450324 0.1931913041 -0.5237694466 0.1929963013 -0.5235034634 -0.032717313 0.1763807512
580296520.0 -0.0645799531 0.1749838968 0.1870801975 -0.5257236619 0.1875156446 -0.5253648442 -0.0308930346 0.1766805633
585296490.0 -0.0633499231 0.1752151263 0.1821271698 -0.5269168034 0.1819162386 -0.5278203062 -0.0294135801 0.1775876032
590296460.0 -0.0609311456 0.1762040998 0.1761243166 -0.5286860082 0.1762297189 -0.5293031982 -0.0276641239 0.1777731541
595296430.0 -0.0592880286 0.177158867 0.1698036719 -0.5315018679 0.1699479861 -0.531479333 -0.0253263856 0.1781059555
600296400.0 -0.0578834126 0.1776312313 0.1644833434 -0.5330759841 0.1643139239 -0.5327232703 -0.0236046752 0.1787634855
605296370.0 -0.0562494597 0.1782278407 0.1585268507 -0.534641024 0.1588104646 -0.5349140709 -0.0211930811 0.1788129836
610296340.0 -0.054366033 0.1790101696 0.1525644499 -0.5362618415 0.1525711646 -0.5360784356 -0.0192258776 0.1788744322
615296310.0 -0.0523487874 0.17947824 0.1467651425 -0.537570684 0.1468106889 -0.5384174473 -0.0172041866 0.1792948212
620296280.0 -0.0508061317 0.17999396 0.1411590273 -0.5395752506 0.1410825179 -0.5392361669 -0.0157413175 0.1799269728
625296250.0 -0.0491613714 0.1804336016 0.135925766 -0.5410220934 0.1353383527 -0.541301586 -0.0127550559 0.1800614924
630296220.0 -0.0469213216 0.1814816785 0.1289477562 -0.5425202515 0.1288008518 -0.5422116588 -0.0110706895 0.1804866802
635296190.0 -0.0458842502 0.1817884341 0.1237934746 -0.5434133223 0.1236095174 -0.5437861179 -0.0091899607 0.1803889099
640296160.0 -0.0440652837 0.1824878874 0.1177974061 -0.5445525016 0.1179907349 -0.5449265034 -0.0071111897 0.1807212962
645296130.0 -0.0422610635 0.1831619215 0.111538351 -0.5454933934 0.1118961014 -0.5460453104 -0.0045639673 0.1813123524
650296100.0 -0.0403064468 0.1837789827 0.105869376 -0.5472253698 0.1059789096 -0.5468543262 -0.0024493738 0.1811995086
655296070.0 -0.03879467 0.1841087736 0.0997444223 -0.5481750768 0.0998929344 -0.5483312497 -0.0006693175 0.1814584151
660296040.0 -0.0373106537 0.1843605956 0.0940124356 -0.5493376231 0.0939530748 -0.549230923 0.0017025766 0.1818116341
665296010.0 -0.0347835846 0.1847634009 0.0875813046 -0.5498830254 0.0878979736 -0.5500182777 0.003623601 0.1822077594
670295980.0 -0.0338709116 0.1855033834 0.0824423009 -0.5505678501 0.0820894795 -0.5510011186 0.0050493308 0.1821409204
675295950.0 -0.0317148239 0.1861829234 0.0765431928 -0.5517410181 0.0766022545 -0.5513337373 0.0071451016 0.1822961576
680295920.0 -0.0299427414 0.1864032517 0.0700466075 -0.5525144717 0.0697167473 -0.5530932574 0.0091938394 0.1828735109
685295890.0 -0.0279249965 0.1874589392 0.0642930564 -0.5534810661 0.0639883961 -0.5533812821 0.0114085912 0.1826799419
690295860.0 -0.0260710295 0.1874848144 0.0580272604 -0.553538095 0.0582712102 -0.5544147601 0.01354566 0.1832323944
695295830.0 -0.0246246442 0.1876394399 0.0524952347 -0.5541927398 0.0518702592 -0.5545182735 0.0158044225 0.1830117743
700295800.0 -0.0225496614 0.1877942067 0.0458104945 -0.5547074975 0.0458782772 -0.5547104728 0.0173837696 0.1835463951
705295770.0 -0.0208332394 0.1889784388 0.0405766406 -0.5554968668 0.0406145732 -0.5554197012 0.0192490179 0.1832408538
710295740.0 -0.0185459143 0.1889354746 0.0342744474 -0.5563905443 0.0348995807 -0.556512666 0.0214565566 0.1826957141
715295710.0 -0.017340924 0.1891554302 0.0287598854 -0.5562774187 0.0282108913 -0.5561185716 0.0239052652 0.1828616512
720295680.0 -0.0152546481 0.189376908 0.0225808068 -0.5565710068 0.0222845672 -0.556743121 0.0259421185 0.183304026
725295650.0 -0.0132632694 0.1898882001 0.0162199027 -0.5566296873 0.0163174632 -0.5570421646 0.0270918185 0.1829573622
730295620.0 -0.0111473917 0.190481773 0.010172343 -0.5566477638 0.0106548339 -0.5567282327 0.0290886877 0.1823583582
735295590.0 -0.0095614981 0.1904878769 0.0041625924 -0.5567090214 0.004105636 -0.5567745614 0.0309626884 0.1821956343
740295560.0 -0.0077861967 0.190769062 -0.0017061743 -0.556610033 -0.0016536039 -0.5569399738 0.0337095212 0.1823501714
745295530.0 -0.0061412936 0.1911463173 -0.0077485223 -0.5563613151 -0.007955704 -0.5564108369 0.0354588499 0.1818674308
750295500.0 -0.0039183991 0.1910347484 -0.0135574018 -0.5560013903 -0.0135794417 -0.5567244124 0.0373705312 0.1815416803
755295470.0 -0.0019527004 0.191246697 -0.0192416629 -0.5562242693 -0.0196686867 -0.5565323857 0.0397005418 0.1809228296
760295440.0 -0.0005217658 0.1914350856 -0.0254860178 -0.5563898054 -0.0257062243 -0.556461342 0.04129648 0.1809166563
765295410.0 0.0013796596 0.1917178005 -0.0320222332 -0.5559155599 -0.0318636542 -0.5558033364 0.0431912893 0.1805122286
770295380.0 0.0033123933 0.1916563808 -0.0378440541 -0.5553105047 -0.037749791 -0.5551261013 0.0450594595 0.1800238835
775295350.0 0.0049637214 0.1913245669 -0.0436537499 -0.5544983257 -0.043372046 -0.5546297755 0.0465779253 0.1799441368
780295320.0 0.0069545387 0.1916921194 -0.0495428529 -0.5541985405 -0.0489998661 -0.5543285233 0.0490085784 0.1789769881
785295290.0 0.0085285701 0.1911869055 -0.0558786969 -0.5529714716 -0.0557067048 -0.5538986702 0.0515714692 0.1790244308
790295260.0 0.0109772196 0.1923169964 -0.0614185172 -0.5532408386 -0.0609705924 -0.552549005 0.0533839881 0.1784498607
795295230.0 0.0127044174 0.1916399133 -0.0677426264 -0.5519209799 -0.0669665952 -0.5520041757 0.0558884016 0.1780819753
800295200.0 0.0140879491 0.1919325344 -0.0735807928 -0.550971077 -0.0733740951 -0.5514011616 0.0574964459 0.1772692412
805295170.0 0.0161206569 0.1916024641 -0.0794485593 -0.5503323989 -0.0795418654 -0.5506898122 0.0593208166 0.1770964975
810295140.0 0.0179125494 0.1916583645 -0.0850844317 -0.5491804844 -0.085147993 -0.5498323326 0.0619196229 0.1766620837
815295110.0 0.0201668567 0.1913095147 -0.0911668761 -0.5480391179 -0.0909139652 -0.5486501222 0.0634918584 0.1759464416
820295080.0 0.0213206479 0.1920845302 -0.0970437053 -0.5473977046 -0.096264396 -0.5475788212 0.065718733 0.1758464087
825295050.0 0.0240328818 0.191467946 -0.1026049588 -0.5460270636 -0.1028538244 -0.54641443 0.0674845537 0.1747885713
830295020.0 0.0256923743 0.1917073857 -0.108936194 -0.5448454119 -0.1087315786 -0.5449228923 0.0703257958 0.1743555544
