!Created with skrf (http://scikit-rf.org).
# Hz S RI R 50.0 
!freq ReS11 ImS11 ReS21 ImS21 ReS12 ImS12 ReS22 ImS22
300000.0 -0.777044627 -0.1837697842 0.0006032568 -0.0003553646 0.0003170332 0.0009099411 -0.0471344286 -0.0778324361
5299970.0 -0.785981717 -0.0090275906 0.0001012845 4.23261e-05 -1.12651e-05 -4.44355e-05 -0.049111263 0.0141469453
10299940.0 -0.7892522654 -0.0060225356 6.97906e-05 8.7109e-06 0.0001275177 6.84965e-05 -0.0431015007 0.0321210656
15299910.0 -0.7940173128 -0.0033618083 -2.97834e-05 -0.0001348262 9.97211e-05 -9.03494e-05 -0.034663172 0.0467267452
20299880.0 -0.8010002299 0.0005074929 1.15909e-05 -3.29386e-05 3.39427e-05 1.45581e-05 -0.025428757 0.0585815229
25299850.0 -0.8077830465 0.0064698742 -4.01319e-05 -8.77193e-05 -2.42435e-05 3.68837e-05 -0.0142429783 0.0679018343
30299820.0 -0.8138762156 0.0141903037 -1.75724e-05 0.0001339996 1.19773e-05 0.0001400674 -0.0026980556 0.0747530385
35299790.0 -0.8184738933 0.023066503 0.0002656246 -2.7631e-05 -6.78938e-05 -1.00767e-05 0.0082770439 0.0793800073
40299760.0 -0.8236478772 0.0317991426 -7.28203e-05 3.70976e-05 6.81459e-05 -3.47044e-05 0.0195214504 0.0824595264
45299730.0 -0.8262793736 0.0420869571 0.0001183849 -0.0001981581 -6.98811e-05 6.81286e-05 0.0299580015 0.0840729722
50299700.0 -0.8297323441 0.0518278712 -0.0001445119 -6.7564e-06 2.18058e-05 8.74252e-05 0.0404646653 0.0847671201
55299670.0 -0.8311992859 0.0612861879 -4.59672e-05 -5.49578e-05 0.0001654282 0.0001323118 0.0493760891 0.0835702738
60299640.0 -0.8322152905 0.0715981056 -0.0001617839 -5.8367e-06 0.0002099906 1.64592e-05 0.057915256 0.0817205307
65299610.0 -0.8334176095 0.0818788109 0.0001057693 0.000148281 5.46865e-05 6.31442e-05 0.0654798336 0.0795826539
70299580.0 -0.8337861869 0.0916961353 7.48037e-05 0.0001224705 4.746e-07 5.86086e-05 0.0725095522 0.0768642506
75299550.0 -0.8337861588 0.1015636818 0.0001823787 5.8913e-05 -8.39091e-05 5.1025e-06 0.0790027898 0.073487677
80299520.0 -0.8342735714 0.1122287846 0.0001719245 -5.3018e-06 0.0001095385 0.0001258102 0.0846423613 0.0699787189
85299490.0 -0.8326198305 0.1207249595 2.83985e-05 0.0001605551 -4.8275e-05 -0.0001190191 0.0898718242 0.0666243462
90299460.0 -0.8318977821 0.1316509517 0.0002193158 0.00013357 -0.0001929194 9.31045e-05 0.0943233863 0.0630726728
95299430.0 -0.8316572761 0.1407875023 -2.58517e-05 0.0001816704 5.77579e-05 0.0001030117 0.0987774656 0.0592205087
100299400.0 -0.8305096314 0.1500631469 -0.0001869728 0.0002974442 -0.0001089297 0.000174365 0.1025087846 0.0556701867
105299370.0 -0.8288440884 0.1594972325 4.92688e-05 0.0001122603 3.51529e-05 1.9038e-06 0.1055713087 0.0516629488
110299340.0 -0.8271990747 0.1681261476 3.25402e-05 0.0001308999 7.09937e-05 -2.44354e-05 0.1082891878 0.0473999995
115299310.0 -0.8258894774 0.1773290265 2.88437e-05 0.0001028063 -0.0001375304 0.0001584453 0.1110755792 0.0440524401
120299280.0 -0.8248231822 0.1866355827 -0.0001095915 0.0001432178 -0.0001069137 0.0001560299 0.11302724 0.0401175048
125299250.0 -0.8224334771 0.1951558308 9.68313e-05 4.3599e-05 4.36517e-05 0.0001316088 0.1156350844 0.0366813049
130299220.0 -0.8209191351 0.2049507579 -0.0002216267 7.71432e-05 -5.45799e-05 4.73932e-05 0.117189988 0.032861522
135299190.0 -0.8189927232 0.2141818834 0.0001424145 1.64866e-05 7.52021e-05 0.0001313709 0.1185183805 0.0291198806
140299160.0 -0.8169233148 0.2232925462 -0.0001739018 7.72609e-05 1.3719e-06 7.69985e-05 0.1196519343 0.0258564466
145299130.0 -0.8147872313 0.2318408202 0.0001927826 8.43336e-05 4.18566e-05 0.0002347625 0.1210386471 0.0224023979
150299100.0 -0.8118051234 0.2408852282 0.0001773399 2.90699e-05 5.87225e-05 5.10315e-05 0.1219562471 0.0190984522
155299070.0 -0.8094589142 0.2498752217 0.0001270162 0.0001569279 -4.95463e-05 0.0001426086 0.1225773632 0.0159005358
160299040.0 -0.8071395932 0.2591729523 0.0001281328 0.0002003293 1.96482e-05 -6.92483e-05 0.1230274089 0.0124406369
165299010.0 -0.8046004816 0.2676105089 0.0001458085 0.0002540384 0.000143947 0.0001015171 0.1242224081 0.0093974033
170298980.0 -0.801513415 0.2760250449 -1.4858e-06 5.80347e-05 0.0002373495 0.0001453511 0.124079329 0.0067104287
175298950.0 -0.7992754054 0.2843578151 0.0001259566 -2.951e-06 -3.64735e-05 0.0001670146 0.1245463655 0.0036887014
180298920.0 -0.7961534733 0.2933530582 -0.0002342816 0.000178892 0.000142864 5.71392e-05 0.1250389388 0.0005159735
185298890.0 -0.7925523779 0.3020860833 -0.0001837937 2.50453e-05 -3.35875e-05 7.52907e-05 0.1251640304 -0.0025310163
190298860.0 -0.7896457728 0.3108764353 0.0001266792 0.0001437338 0.0001371358 6.91551e-05 0.1249792399 -0.0049910713
195298830.0 -0.7863181009 0.3193461173 9.40907e-05 0.0001741453 -5.06085e-05 0.0001458948 0.125065636 -0.0079394924
200298800.0 -0.7825004396 0.327961426 0.0002928733 6.1668e-05 5.56065e-05 0.0001349355 0.1250721213 -0.0101990958
205298770.0 -0.7793560782 0.3362641669 0.0001602725 3.29229e-05 0.0001709809 3.46478e-05 0.1248402219 -0.0130909141
210298740.0 -0.7756685665 0.3449342938 0.0001486102 0.0001835516 0.0001430726 0.0001658382 0.1241420524 -0.0155256736
215298710.0 -0.7721889871 0.3529621141 0.0001858598 0.0001561797 6.41868e-05 0.0001717104 0.1243764837 -0.0181907105
220298680.0 -0.7688556055 0.3606931212 1.42876e-05 0.0001362112 8.53733e-05 0.0001105507 0.1239075815 -0.0204414759
225298650.0 -0.7650487795 0.3698121353 -7.42697e-05 -0.000112014 1.9988e-05 -3.21244e-05 0.1232878775 -0.0226544256
230298620.0 -0.7612255463 0.377797844 0.000112038 0.0001127315 0.0003140935 0.0001308147 0.1230222482 -0.0251838031
235298590.0 -0.7570047724 0.3859854579 0.0002565311 4.83572e-05 6.04002e-05 3.21853e-05 0.1224474076 -0.0272184965
240298560.0 -0.752824903 0.3937359191 0.0001023483 0.0001907447 0.0001214798 -0.0001125256 0.1219635069 -0.029423691
245298530.0 -0.7481984712 0.4020129416 -4.22552e-05 0.0001356098 0.0001277492 5.10956e-05 0.1211443521 -0.0314525043
250298500.0 -0.7449968989 0.4092595019 7.59691e-05 7.07367e-05 0.0001497057 0.0003100326 0.1205817289 -0.0337218979
255298470.0 -0.7403369074 0.417657328 -9.98862e-05 0.0003142707 2.94053e-05 0.0001782291 0.1200829339 -0.0358411092
260298440.0 -0.7360523616 0.4248668494 4.61686e-05 0.0003266974 -0.0002026046 0.0002982194 0.1190003108 -0.0377812068
265298410.0 -0.731678234 0.4327377285 0.0003196947 0.0001954308 3.66939e-05 0.0001308442 0.1188362478 -0.0399664262
270298380.0 -0.7270547272 0.4403479001 0.0002276952 2.6388e-05 1.31415e-05 3.72147e-05 0.1182413344 -0.0417305496
275298350.0 -0.7230540179 0.4480836727 0.0002052922 -0.0001091536 9.37783e-05 4.27371e-05 0.1172866478 -0.0436087252
280298320.0 -0.7185181103 0.4553719591 0.0001814126 1.43582e-05 2.4374e-06 0.0002391987 0.116430839 -0.0457174066
285298290.0 -0.7128418545 0.46332249 0.0001858396 -1.73698e-05 0.0001002977 0.0002370667 0.1155617651 -0.0473365477
290298260.0 -0.7083221244 0.4709020284 1.41543e-05 1.13892e-05 0.0002235006 0.0002647517 0.1149090758 -0.0493128457
295298230.0 -0.7038009126 0.4781396118 8.889e-06 9.5198e-06 5.49404e-05 0.0002580811 0.113985147 -0.0511135254
300298200.0 -0.6997308056 0.485692451 0.0001362051 5.98911e-05 0.0002782473 0.0002725505 0.1134369988 -0.0527902207
305298170.0 -0.6948147931 0.492645299 0.0004087738 2.0933e-05 0.000146905 -3.11626e-05 0.112286353 -0.0545698943
310298140.0 -0.6890145506 0.4996795911 5.11459e-05 0.00019213 4.06843e-05 0.0002129743 0.1117192793 -0.0562747785
315298110.0 -0.684265636 0.5070849114 2.81311e-05 0.0001986107 0.0003507842 5.52737e-05 0.1107958681 -0.0581633618
320298080.0 -0.678891229 0.5145503999 0.0001743792 0.0002759652 0.0001815307 0.0002518845 0.1093909529 -0.0599982665
325298050.0 -0.6735198295 0.5208149851 0.0001830884 0.0002110395 0.0001668257 0.0002737685 0.1088925546 -0.0619291192
330298020.0 -0.6682848007 0.5279625393 0.0003503311 6.97976e-05 0.0002590085 0.0002153656 0.1074673063 -0.0635960666
335297990.0 -0.6633158277 0.5347048365 0.0001986958 9.62518e-05 0.0001682777 0.0002446056 0.1061527775 -0.0653450731
340297960.0 -0.6578146452 0.5417220118 0.0002745274 8.90624e-05 -3.2464e-05 8.42524e-05 0.1050884751 -0.0664567823
345297930.0 -0.6515659706 0.5479331486 0.0001899945 9.11538e-05 0.0002321603 6.87651e-05 0.1037259182 -0.0678946417
350297900.0 -0.6459553274 0.5549839065 0.000102429 0.0001697546 0.0001783641 -0.0001148279 0.1020549845 -0.0692303118
355297870.0 -0.640765491 0.5615651216 0.0001549609 -5.11333e-05 5.9707e-05 0.0002663585 0.1013571331 -0.0704774531
360297840.0 -0.634764705 0.5678289729 0.0003357453 0.0002493659 9.76872e-05 0.0002244102 0.0998241676 -0.0718989487
365297810.0 -0.6293893262 0.5744789927 0.000247632 4.56922e-05 0.0001051054 0.000153982 0.0986244754 -0.0732718335
370297780.0 -0.6233200503 0.5806287713 0.0003212738 0.000395023 6.34147e-05 0.0002264387 0.097554535 -0.0746232857
375297750.0 -0.6181155459 0.5867935955 0.000224703 7.4163e-06 8.35771e-05 0.0001092529 0.0961261932 -0.0757231952
380297720.0 -0.6117402457 0.5939071801 0.0001922353 0.0002780094 0.0002206189 0.0001241383 0.0951220693 -0.0767662549
385297690.0 -0.6053961176 0.599559774 5.17874e-05 8.92921e-05 8.56594e-05 0.0001936547 0.0939135062 -0.0779971016
390297660.0 -0.5982968422 0.6052652591 -7.1195e-06 0.0001330603 0.000182719 0.0001687471 0.0925514623 -0.0793108043
395297630.0 -0.5930663564 0.6122604336 -3.30377e-05 1.78048e-05 0.000259121 0.0002006346 0.0915032412 -0.0803515672
400297600.0 -0.5869909569 0.6179665029 0.000233423 0.0002210752 0.0002492027 -6.26576e-05 0.0902536095 -0.0814504668
405297570.0 -0.5807290097 0.6234176021 0.0004171651 3.3556e-05 0.0002044744 0.0002726277 0.089433385 -0.0827898856
410297540.0 -0.5741176971 0.6294538102 0.0001716601 0.0002106745 0.0001766429 8.20089e-05 0.0876314488 -0.0834545026
415297510.0 -0.567735803 0.6357458299 7.08296e-05 5.70423e-05 0.0002459829 0.0001600851 0.0863783611 -0.0847544571
420297480.0 -0.5612340257 0.640655293 0.0001807804 0.0001829719 0.000191692 6.31754e-05 0.0856211298 -0.0854067788
425297450.0 -0.5542413364 0.6461232193 0.0001499638 6.1967e-05 0.000102084 -5.97551e-05 0.0837307107 -0.0871848553
430297420.0 -0.5480954962 0.651834237 0.0004065372 6.43777e-05 0.0003723387 8.30123e-05 0.0825463679 -0.0876649843
435297390.0 -0.5407932683 0.6576231666 0.0002322044 9.85557e-05 7.16413e-05 -0.0002590694 0.0809304076 -0.0885547346
440297360.0 -0.5342288686 0.6628104868 0.0004303243 7.83561e-05 7.65142e-05 0.0001402189 0.0799388422 -0.0895844522
445297330.0 -0.5272640799 0.6682001809 0.0002538743 -4.62966e-05 0.0002724439 3.40732e-05 0.0786485815 -0.090460942
450297300.0 -0.5199576764 0.6738778506 9.84492e-05 -8.67e-08 0.000176457 -1.20834e-05 0.0775534931 -0.0914232453
455297270.0 -0.5135973966 0.6783267158 0.0004351571 0.0001067597 0.000305705 0.0001575741 0.0761402052 -0.0925487432
460297240.0 -0.5059907582 0.6836837078 0.0004908779 1.44e-05 0.0001787874 0.0003634734 0.0747275799 -0.0934383217
465297210.0 -0.4990725035 0.6893157837 0.0002745456 0.0002610268 0.0003351541 0.0001723599 0.0733419744 -0.0938682547
470297180.0 -0.4924162811 0.6936514061 0.0001726305 0.0002193614 0.000292157 7.6757e-06 0.0721692284 -0.0949603208
475297150.0 -0.484613154 0.6987091357 0.0004461077 0.0001199698 0.0002102966 0.0001213302 0.070698514 -0.0955095463
480297120.0 -0.4768089173 0.7045061931 0.0003036254 0.0001184067 0.0001590616 0.0001954255 0.0692356743 -0.0960381188
485297090.0 -0.4699815278 0.7081822313 0.0001443272 -9.66635e-05 0.000296859 7.01684e-05 0.0677470378 -0.096951276
490297060.0 -0.4620014629 0.7137891179 0.0003056637 6.9942e-05 0.0001298312 -4.53623e-05 0.0662585302 -0.0979010109
495297030.0 -0.4544723435 0.718187057 1.50582e-05 0.0001381828 0.0001791495 0.0001291119 0.0651965664 -0.0985347616
500297000.0 -0.4475872331 0.721999272 0.0002913529 0.0001452797 0.0001231743 0.0002397006 0.0635631371 -0.0991899708
505296970.0 -0.4396835592 0.7271909568 0.0003828687 8.28474e-05 0.0002816956 -6.91699e-05 0.0622040572 -0.0999887295
510296940.0 -0.4321074044 0.7314489316 0.0003412302 0.0001190197 0.0001833723 0.0002272455 0.0612379843 -0.1000085409
515296910.0 -0.4240297351 0.7354851287 0.0003829053 0.0002107547 0.0003251574 8.41491e-05 0.0595585567 -0.1011854052
520296880.0 -0.416046902 0.7402543383 0.0003986625 0.0001232638 0.0003719437 0.0003898327 0.0582315112 -0.1016893023
525296850.0 -0.4087472555 0.7442240662 8.07129e-05 0.0001184214 0.0004646889 -1.49822e-05 0.0565778934 -0.1022310155
530296820.0 -0.4013041242 0.7477667874 0.0005070339 9.00932e-05 0.0003273395 5.78703e-05 0.05567728 -0.1029929916
535296790.0 -0.392370847 0.7520885455 8.5352e-05 0.0001343193 0.0002077256 6.41215e-05 0.0542982633 -0.1032165582
540296760.0 -0.3850009369 0.7561051633 0.0002971261 2.99009e-05 0.0001855962 -0.0001348427 0.0525027543 -0.1035769524
545296730.0 -0.3774022654 0.7606099042 0.0003243418 6.778e-07 0.0003277726 0.0002447354 0.0514012828 -0.1044623382
550296700.0 -0.3692285683 0.7636094085 0.0003320626 4.862e-06 0.0004214336 9.80552e-05 0.0495824831 -0.1047791882
555296670.0 -0.3615581755 0.7677919775 0.0003612655 0.0001638454 0.000372381 7.13316e-05 0.0479798698 -0.1055658272
560296640.0 -0.3533386561 0.7702931988 0.0001619239 0.0001568302 0.0002650394 1.57653e-05 0.0467316192 -0.105870557
565296610.0 -0.3457119363 0.774450225 0.0003720892 -4.97351e-05 0.0003066687 3.74255e-05 0.0455155185 -0.1061142776
570296580.0 -0.3373645185 0.7778054383 0.0002781897 0.0001357516 0.0003692804 0.0002847514 0.0439277203 -0.106479705
575296550.0 -0.3283283725 0.7812167339 0.0002705593 -7.8843e-06 0.00018712 -0.000115603 0.0423852212 -0.1069926715
580296520.0 -0.3210867915 0.784743569 0.0004541167 0.0001532694 0.0005108056 0.0001642823 0.0407411108 -0.1073321202
585296490.0 -0.3124307334 0.7878050038 0.0002382639 -0.0001756163 0.0001576971 -6.6167e-05 0.039597092 -0.1074087611
590296460.0 -0.3040952293 0.7906087665 0.0004628484 4.41042e-05 0.0001390006 -4.16304e-05 0.0380090552 -0.1078241314
595296430.0 -0.2956867581 0.7938209769 0.0002103493 4.28993e-05 0.000618267 8.38961e-05 0.0364866393 -0.1080767106
600296400.0 -0.288146931 0.796691651 0.0003655572 -2.06e-08 0.0001910304 0.000201695 0.0351718111 -0.1085240735
605296370.0 -0.2795648205 0.7992364153 0.000145195 0.0001326134 0.0004528913 1.34527e-05 0.0340168022 -0.1084650277
610296340.0 -0.2714920098 0.8027820373 0.0001749874 0.0002710031 0.0003523246 5.00693e-05 0.0324230627 -0.1089327317
615296310.0 -0.2629866345 0.8056137693 0.0001569037 3.55394e-05 0.0002623591 2.63405e-05 0.0308269884 -0.1091849535
620296280.0 -0.2553097609 0.808203948 0.0003390998 0.0001795845 0.0004036518 5.58292e-05 0.029196035 -0.1091685566
625296250.0 -0.2472098658 0.8100133166 0.0003262559 6.766e-05 0.0003375743 2.42736e-05 0.0279553728 -0.1095204717
630296220.0 -0.2390014354 0.8131239508 0.0002303329 5.02763e-05 0.000321821 3.56192e-05 0.0266237954 -0.1097850326
635296190.0 -0.2299792207 0.815182016 0.0002177068 -4.86047e-05 0.000175317 0.0001101814 0.0249717693 -0.1095315285
640296160.0 -0.2219412895 0.8178269272 0.0003185328 -2.64119e-05 0.0003240738 -0.0001952551 0.0234015557 -0.1096689974
645296130.0 -0.2138814889 0.8204878679 0.0002908681 0.0001864157 0.000362703 -6.30306e-05 0.0218746696 -0.1097333578
650296100.0 -0.2052836227 0.8224561776 0.0002968801 0.0002453409 0.0003964609 0.0001322093 0.0206579694 -0.110051953
655296070.0 -0.1974662245 0.8239991287 0.0003750982 0.000277098 0.0001817467 5.13065e-05 0.0188338214 -0.1097716584
660296040.0 -0.1888291695 0.8258602936 0.0002746675 -5.52704e-05 0.0003507317 0.0001283579 0.0179177596 -0.1101674673
665296010.0 -0.1810241463 0.8279095685 0.0002825849 1.2893e-05 0.0003419866 -2.77823e-05 0.0164729252 -0.110351939
670295980.0 -0.1728694371 0.8302559661 0.0002526485 0.0002294136 0.0003843586 5.53216e-05 0.0147428138 -0.1100739244
675295950.0 -0.1636383837 0.8315664854 0.0002679996 3.26165e-05 0.0004853385 1.18343e-05 0.0135053411 -0.1099745017
680295920.0 -0.1565862406 0.8341671918 0.0002783069 0.0001229445 0.0004721542 4.14563e-05 0.0118551794 -0.1100843335
685295890.0 -0.1477221021 0.8352970698 0.0001580829 3.90958e-05 0.0004799579 1.04093e-05 0.0104274915 -0.1097773535
690295860.0 -0.1394986151 0.8372482123 0.0004096355 -5.71363e-05 0.0002183397 3.52543e-05 0.0089836754 -0.1098856416
695295830.0 -0.130937741 0.8383017214 0.0005083343 0.0002054715 0.0003038838 -0.0001542493 0.0074019437 -0.1096406323
700295800.0 -0.1225275473 0.8400640159 0.0003489156 0.0002633067 0.0002913417 -0.0001182135 0.0065918227 -0.109770448
705295770.0 -0.1146923579 0.8416498375 0.0002278359 -7.69307e-05 0.0005299768 -6.61335e-05 0.00474911 -0.109322475
710295740.0 -0.1071339919 0.8416023783 0.0004292315 -0.0001646767 0.0005327937 -0.0001781038 0.0032798577 -0.1093149065
715295710.0 -0.097841139 0.8434204729 0.0005553862 8.85615e-05 0.0006892609 -6.84286e-05 0.0020090089 -0.1090949458
720295680.0 -0.0889514205 0.844259381 0.0004346438 -0.0001170089 0.0002046554 6.2438e-06 0.0004959873 -0.109291961
725295650.0 -0.0817183572 0.8460164509 0.0005313158 7.41869e-05 0.0002184574 8.27804e-05 -0.0008887496 -0.1084694468
730295620.0 -0.0735807781 0.8467774771 0.0005837552 -0.0001007359 0.0005506782 -2.38065e-05 -0.0025748257 -0.1083307662
735295590.0 -0.0654969382 0.8478365347 0.0004473403 0.0001995843 0.000611801 2.0599e-06 -0.0037911775 -0.1081103611
740295560.0 -0.0575827337 0.8472112768 0.0004951731 4.45433e-05 0.0004530264 1.82538e-05 -0.0051402633 -0.1080272566
745295530.0 -0.0487446228 0.8488242623 0.0006889493 0.0002884018 0.0005647165 8.16997e-05 -0.0067698132 -0.1075049006
750295500.0 -0.040772732 0.8490132028 0.0003245656 -4.91334e-05 0.0004176945 -5.5755e-05 -0.0078313564 -0.1074484587
755295470.0 -0.0320907174 0.8494453954 0.0005870731 -0.0002982199 0.0003794537 -4.40108e-05 -0.0091888139 -0.1066603451
760295440.0 -0.0240384704 0.8505170827 0.0003352961 -0.0001196882 0.0001374311 -0.0001154542 -0.0106859127 -0.1066458977
765295410.0 -0.0161766465 0.8502051753 0.0003760181 0.0001969255 0.0002742146 -7.31473e-05 -0.0119051613 -0.1066191191
770295380.0 -0.0085457391 0.8508258229 0.0002641943 -9.21972e-05 0.000564969 -4.57636e-05 -0.0138095274 -0.1060616335
775295350.0 -0.0001854558 0.8508938414 0.0003925559 -0.0001052835 0.0003874892 -0.0001024647 -0.0148795211 -0.1055631954
780295320.0 0.0084873223 0.8516547556 0.0001783289 -6.09426e-05 0.000614046 -8.27738e-05 -0.0162949 -0.1051850948
785295290.0 0.0168759844 0.8506180464 0.0002655027 -5.79989e-05 0.0005951536 -0.0003250622 -0.0174711599 -0.1046120977
790295260.0 0.0250774213 0.851008196 0.0005015691 -5.82716e-05 0.0001291528 1.7539e-06 -0.0188730006 -0.1038221179
795295230.0 0.0331872893 0.8501499714 0.0001899459 -0.0003132873 0.0005595145 -0.0002082857 -0.0203041527 -0.1041684002
800295200.0 0.0414672734 0.8503760611 0.0004467055 -0.0001162563 0.0005045007 -0.000309189 -0.0215667503 -0.1035388192
805295170.0 0.0492905988 0.8509193169 0.0004477411 -0.0002072958 0.000518866 -0.0001923547 -0.02277447 -0.1030850487
810295140.0 0.0576834298 0.8503168347 0.000454482 0.0001377255 0.0003679414 7.01347e-05 -0.0241181208 -0.1026637892
815295110.0 0.0654086624 0.8495058159 0.0005811805 7.9309e-05 0.0003917385 4.18799e-05 -0.0255497629 -0.10190792
820295080.0 0.0738255742 0.8492385979 0.0004472316 -0.0002096039 0.0002925857 -0.0001234041 -0.0272357573 -0.1010240746
825295050.0 0.0818181125 0.8483871819 0.0005013877 -5.10371e-05 0.0004615263 -0.0003631331 -0.0281379051 -0.1007551496
830295020.0 0.0910142132 0.8476024347 0.0004223255 4.26461e-05 0.0005282049 -2.8346e-05 -0.0295992977 -0.1003414135
835294990.0 0.0981957754 0.8466230861 0.0005423982 -6.11029e-05 0.000249539 -0.000267789 -0.0307394013 -0.0993806159
840294960.0 0.1065827776 0.845412318 0.0001549803 -9.84333e-05 0.0002937234 -0.0003262997 -0.0319834438 -0.0989673125
845294930.0 0.1146070095 0.8444178424 0.0005582677 -4.3841e-05 0.0005312598 -4.47058e-05 -0.0334904692 -0.098286234
850294900.0 0.1239132999 0.8434266615 0.0006879168 -0.0001858485 0.0003800545 -0.0002360211 -0.0344025008 -0.0975165982
