!Created with skrf (http://scikit-rf.org).
# Hz S RI R 50.0 
!freq ReS11 ImS11 ReS21 ImS21 ReS12 ImS12 ReS22 ImS22
300000.0 -0.321623353 -0.0813651132 0.3763826781 0.0427531396 0.3743269663 0.0413288695 -0.3201380172 -0.0989968975
5299970.0 -0.3265200581 0.0044024763 0.3779519321 0.0024698858 0.3781164923 0.0022392452 -0.3238872026 0.0050404057
10299940.0 -0.3243088074 0.0132822595 0.3795557435 0.0022804331 0.3799481384 0.0022817791 -0.3213854148 0.0159003808
15299910.0 -0.3213244178 0.0203569529 0.3817727113 0.0022254746 0.3821204494 0.0021242888 -0.3183096379 0.0236627405
20299880.0 -0.318699099 0.0262270739 0.3847309103 0.0020093128 0.3848398141 0.0018267335 -0.3146425842 0.0303489272
25299850.0 -0.315765371 0.0314506211 0.3880750771 0.0003056542 0.3881198549 0.0001540388 -0.3107293484 0.0358902062
30299820.0 -0.3125839532 0.0358600967 0.3913109334 -0.0023873094 0.3912013572 -0.002411409 -0.3068781945 0.0408890589
35299790.0 -0.3100094334 0.0398966729 0.3948850555 -0.0054799839 0.3947257885 -0.0055251668 -0.3036262958 0.0451662323
40299760.0 -0.3072597309 0.0437339923 0.3979303983 -0.0088016826 0.3981137698 -0.0087734272 -0.3000395783 0.0484455375
45299730.0 -0.3046648735 0.0467761989 0.400921161 -0.012728716 0.4011007201 -0.0126486301 -0.2973681071 0.0519837382
50299700.0 -0.3022876318 0.049272914 0.4032732897 -0.0174088686 0.4035207358 -0.0172776862 -0.2943174127 0.0542873945
55299670.0 -0.3001887957 0.0522311189 0.4056713934 -0.0224897692 0.4055918251 -0.0222394445 -0.2918973114 0.0572513411
60299640.0 -0.2979151041 0.0550578424 0.4074368748 -0.0270166809 0.4077568195 -0.02672217 -0.2892070942 0.0593599377
65299610.0 -0.296031207 0.0575121173 0.4089185608 -0.0324304582 0.4092527016 -0.0320777275 -0.2872890947 0.0615106988
70299580.0 -0.2944739446 0.0597847639 0.4103255381 -0.0368016801 0.4101960342 -0.037044913 -0.2850638458 0.0641062316
75299550.0 -0.292972935 0.0624849062 0.4109998626 -0.0419481874 0.4111267559 -0.042087763 -0.283156072 0.0656238275
80299520.0 -0.2915831473 0.0649322134 0.4124399171 -0.0477310012 0.4124571827 -0.0475884172 -0.2813442484 0.068259017
85299490.0 -0.2902423536 0.0671330247 0.4128199489 -0.0527010414 0.41295088 -0.0522621272 -0.280103986 0.0699414645
90299460.0 -0.2888547493 0.0692952601 0.413159713 -0.0579473702 0.4135686091 -0.0580725035 -0.2782730344 0.0725134258
95299430.0 -0.2871644265 0.0715796592 0.4136002401 -0.0631097633 0.4133173372 -0.063335688 -0.2764615585 0.0743849539
100299400.0 -0.2864113776 0.0742096421 0.4131157173 -0.0685301873 0.4132716157 -0.0683829374 -0.2751829459 0.0760199084
105299370.0 -0.2850854176 0.0762390985 0.4134257876 -0.0737713947 0.413547351 -0.0737028175 -0.273797809 0.0784514587
110299340.0 -0.2839920676 0.0788515182 0.4131735955 -0.0785591317 0.4130170918 -0.0786017295 -0.272805945 0.0802379452
115299310.0 -0.2828455932 0.0806703725 0.4128802696 -0.0835516506 0.4130265282 -0.0839145073 -0.2717333138 0.0824065038
120299280.0 -0.2821553922 0.0830029698 0.4124503829 -0.0889527182 0.4122740407 -0.0895093051 -0.27055619 0.0847126933
125299250.0 -0.2810196393 0.0852620978 0.4115953053 -0.0937487774 0.4119353785 -0.0939108768 -0.2693047564 0.0865629499
130299220.0 -0.280332675 0.0882268664 0.4111059007 -0.0990837439 0.4110230231 -0.0992352848 -0.2684817439 0.0884532553
135299190.0 -0.2793888405 0.0908200786 0.41065495 -0.104087126 0.4103199118 -0.1040554171 -0.267204809 0.0911672927
140299160.0 -0.2782391102 0.0929642732 0.4095964323 -0.1090497593 0.4097494735 -0.1091387859 -0.2660732104 0.0934230802
145299130.0 -0.2773804116 0.0957163 0.4091313972 -0.1141053508 0.4085160407 -0.1140789194 -0.2652694302 0.0959245504
150299100.0 -0.2761716983 0.0982997771 0.407319525 -0.1188668513 0.4079378601 -0.1186376212 -0.2645571574 0.0987008129
155299070.0 -0.2753591913 0.1005899417 0.4065737876 -0.1244317898 0.4062202584 -0.1237689851 -0.2632454779 0.1007806108
160299040.0 -0.2745241598 0.1035346679 0.4054075896 -0.1286780899 0.4050162251 -0.1286010711 -0.2626089509 0.1030440764
165299010.0 -0.2735923048 0.1060072321 0.4040302573 -0.1339235215 0.4043108084 -0.1338854814 -0.2611269934 0.1058721049
170298980.0 -0.2726130016 0.1087041868 0.4024022559 -0.1383189141 0.4030514642 -0.138087584 -0.260512507 0.1081390261
175298950.0 -0.271819698 0.1112209175 0.4019636417 -0.1429369258 0.4013822673 -0.143405119 -0.259515261 0.1106968381
180298920.0 -0.2709577166 0.1139432659 0.3997403481 -0.1481034204 0.4000043833 -0.147816833 -0.2581784446 0.1131153534
185298890.0 -0.2694148588 0.1163292011 0.3981879072 -0.1527385965 0.3982360061 -0.1526800753 -0.2570257751 0.1159728954
190298860.0 -0.268817491 0.1192813256 0.3967850275 -0.1572114705 0.3970417947 -0.1573342164 -0.2564823219 0.118287106
195298830.0 -0.2676964853 0.1215732598 0.3953888731 -0.1619688667 0.3951865287 -0.1618948047 -0.2549908234 0.1208657339
200298800.0 -0.2663013988 0.1245049113 0.3934821663 -0.1667764151 0.3934738535 -0.1668211948 -0.2544860603 0.1232508725
205298770.0 -0.2653883344 0.1273630089 0.3914270544 -0.1714783654 0.3917315595 -0.1711725147 -0.2529563379 0.1255383189
210298740.0 -0.2643190693 0.1298109481 0.3894822822 -0.1755526133 0.3897766881 -0.1755913074 -0.2518838918 0.1286199334
215298710.0 -0.2634785074 0.1330233074 0.3881956217 -0.1804842874 0.3877934365 -0.1803920815 -0.2511943742 0.1312099643
220298680.0 -0.2622860871 0.1350360326 0.3859902029 -0.1843721464 0.3858676547 -0.1848588173 -0.2502247684 0.1335830597
225298650.0 -0.2611189774 0.1376723992 0.3837622637 -0.1891990986 0.3839908478 -0.1892962746 -0.2493479346 0.1360337282
230298620.0 -0.2596877963 0.1407187811 0.3819478365 -0.1933909397 0.3821463618 -0.1933970185 -0.2478791644 0.1385314627
235298590.0 -0.2582439346 0.1437112099 0.3797685574 -0.1981070712 0.3796089548 -0.1977588799 -0.2462251213 0.1413733981
240298560.0 -0.2570217113 0.1464520802 0.3780475086 -0.2025042077 0.3774143605 -0.2025737884 -0.2451297926 0.1442212048
245298530.0 -0.2560241258 0.1489166208 0.37596532 -0.2066729941 0.3755249563 -0.2067172011 -0.2437744458 0.145791139
250298500.0 -0.2543793753 0.1518005029 0.3728116953 -0.2110317031 0.3726667207 -0.2108201808 -0.2427179827 0.1484051394
255298470.0 -0.2528519228 0.1540330328 0.3702194437 -0.214734341 0.3705893734 -0.2149474725 -0.2411302444 0.1510352175
260298440.0 -0.2516136609 0.1567714365 0.3684098486 -0.2194951341 0.3680972053 -0.219239857 -0.239441309 0.1535877715
265298410.0 -0.2499256882 0.1598872891 0.3661485714 -0.2236152085 0.3660896807 -0.2234058449 -0.2382322732 0.1562522039
270298380.0 -0.2485932881 0.1622793762 0.3637416482 -0.2272018307 0.3636818977 -0.2275907515 -0.2368974071 0.1587946264
275298350.0 -0.2469724018 0.1652937357 0.3606179784 -0.2318976178 0.3612516198 -0.2317194219 -0.2354357809 0.1610146068
280298320.0 -0.2449440748 0.1679441273 0.3584059905 -0.2363048376 0.358380466 -0.2357365366 -0.2333922159 0.1635622939
285298290.0 -0.2435736493 0.1706328685 0.3560283335 -0.2396159473 0.3561925303 -0.23973107 -0.2319567694 0.1659636215
290298260.0 -0.2417932348 0.1733698796 0.3530629044 -0.2436525556 0.3534401181 -0.243920508 -0.2302453907 0.1685987032
295298230.0 -0.2400056609 0.1756006185 0.3508269917 -0.248020543 0.3507786908 -0.2477100881 -0.2282531152 0.1709401305
300298200.0 -0.2384280856 0.1783261484 0.3480427264 -0.2516577626 0.3481664575 -0.2519145052 -0.2268222598 0.1733728808
305298170.0 -0.2364859314 0.1804907513 0.3451824153 -0.2558741912 0.3449588593 -0.2557545062 -0.2244482816 0.1757509338
310298140.0 -0.234927568 0.1833555906 0.3424649277 -0.2594934314 0.3422524583 -0.2593158667 -0.2230531605 0.1781404936
315298110.0 -0.2333563712 0.1859061549 0.3396018264 -0.2635284087 0.3393338554 -0.2634205786 -0.2215294054 0.1804753439
320298080.0 -0.2310649908 0.1882088405 0.3361147229 -0.2678010762 0.3361072928 -0.2676023247 -0.2196179606 0.183117246
325298050.0 -0.2294604949 0.1906934303 0.3333870456 -0.2714217732 0.3333589515 -0.2710856127 -0.2177715055 0.1853722879
330298020.0 -0.2274467021 0.1931566171 0.3300069061 -0.2751281721 0.3304780933 -0.275250736 -0.2158742723 0.1880348759
335297990.0 -0.2254829926 0.1954722831 0.327107123 -0.2782730576 0.327002204 -0.2790484221 -0.2143949389 0.1903022908
340297960.0 -0.2244957965 0.1980504941 0.3239861681 -0.2821108483 0.3238356658 -0.2825215222 -0.2122969231 0.1930353257
345297930.0 -0.2220171276 0.2011767708 0.3205372629 -0.286358938 0.3207911371 -0.2858034269 -0.210719956 0.1949204799
350297900.0 -0.2202588085 0.2030618211 0.317085923 -0.2896398729 0.3171692242 -0.2892992217 -0.2090303878 0.1978249816
355297870.0 -0.2177399562 0.2060974977 0.3138865909 -0.2928822304 0.3143038061 -0.2929720946 -0.2070554096 0.2002058851
360297840.0 -0.216101792 0.2084729979 0.3114328737 -0.2961515281 0.3111621261 -0.2960563252 -0.205006563 0.2026780726
365297810.0 -0.2139347077 0.2108112734 0.3074584269 -0.2998174928 0.3079322145 -0.2997600205 -0.2029300929 0.2048062726
370297780.0 -0.2117193774 0.2131543592 0.3039560074 -0.3027349475 0.3042434003 -0.3028001774 -0.2008622677 0.2072614111
375297750.0 -0.2094643846 0.21537772 0.3009514074 -0.3061692199 0.3010638376 -0.3066289088 -0.1987907918 0.2091563063
380297720.0 -0.2075590144 0.2177420292 0.2974465319 -0.3095856428 0.2973068517 -0.3091911516 -0.1970981245 0.212001883
385297690.0 -0.2056120597 0.2202317677 0.2940440471 -0.313165224 0.2939750576 -0.3128642315 -0.1948429523 0.2142285018
390297660.0 -0.2034062797 0.2228555754 0.2905790178 -0.3161037186 0.2905196142 -0.3157673177 -0.1924476355 0.2160654543
395297630.0 -0.2007407922 0.2252242983 0.2871268129 -0.3195855951 0.2872246807 -0.3195375442 -0.1902070485 0.2187472538
400297600.0 -0.1983985194 0.2275323525 0.2833248818 -0.3227728847 0.2836419439 -0.3227429153 -0.1880327702 0.2210367991
405297570.0 -0.1961580771 0.2296880111 0.2797478183 -0.3254845854 0.2803049619 -0.3254189762 -0.1860715648 0.2230176965
410297540.0 -0.1938090203 0.2315815267 0.2764131632 -0.328797332 0.276498722 -0.3285928299 -0.1837794701 0.2252132687
415297510.0 -0.1913734737 0.2337045673 0.2726154306 -0.3321700288 0.2727695654 -0.3318453149 -0.1816401754 0.2272313948
420297480.0 -0.1890107376 0.2362086276 0.2688607368 -0.3346407935 0.2689160533 -0.334897599 -0.1791459991 0.2292001531
425297450.0 -0.186544347 0.2380366412 0.265744061 -0.3373105869 0.2656303051 -0.3377480196 -0.1769376929 0.2312647791
430297420.0 -0.1840468052 0.2402836567 0.2614535432 -0.3399964878 0.2616823668 -0.3400558835 -0.1746253643 0.2330117244
435297390.0 -0.1819290445 0.2425990756 0.2574781285 -0.3431955246 0.2576002123 -0.3430533481 -0.1715772494 0.2349214876
440297360.0 -0.1793668437 0.2445411666 0.2538480594 -0.3459476406 0.2538564412 -0.3459126656 -0.1694216262 0.2369914151
445297330.0 -0.1768364002 0.2464105289 0.2503648772 -0.3486503103 0.25021157 -0.3483401225 -0.167099211 0.2384641238
450297300.0 -0.173970166 0.2483021089 0.2460611399 -0.3512515696 0.2461464109 -0.3514237755 -0.1645317903 0.2405750183
455297270.0 -0.1716444521 0.2502627105 0.2421824742 -0.3537542071 0.2426709099 -0.3538789961 -0.1623058426 0.242311549
460297240.0 -0.1691610223 0.2524923529 0.2386496072 -0.3564500144 0.2384321901 -0.3565443671 -0.1595633014 0.2444257032
465297210.0 -0.1661775175 0.2544764305 0.2349705758 -0.3592648056 0.23467366 -0.3594551275 -0.1569469879 0.2457858214
470297180.0 -0.16354095 0.2563737137 0.2304479616 -0.3618417187 0.2301675988 -0.3619085381 -0.1540591836 0.2482167069
475297150.0 -0.1610206526 0.2577593563 0.2264478475 -0.3638762485 0.2266066251 -0.3640598433 -0.1515097171 0.2494111811
480297120.0 -0.158355457 0.2599950052 0.2223285861 -0.366619078 0.2222224823 -0.3669858571 -0.1486194567 0.2514734896
485297090.0 -0.1557245452 0.2616729283 0.2186372597 -0.3689063642 0.2185354526 -0.3685534111 -0.1462194299 0.2529314394
490297060.0 -0.1532612645 0.2635795169 0.2147438886 -0.3713992679 0.2144529711 -0.3712497347 -0.1437028137 0.2549595099
495297030.0 -0.1502437873 0.2653022459 0.2102681621 -0.3736657624 0.2106591918 -0.373389966 -0.1409963108 0.2566887854
500297000.0 -0.1472718235 0.2671492238 0.2062295314 -0.3754532635 0.2061235242 -0.3757131404 -0.1380595206 0.2586922234
505296970.0 -0.1443483891 0.269023903 0.2020790761 -0.3778445607 0.2019267778 -0.3782566592 -0.1354156319 0.2597261621
510296940.0 -0.1416549723 0.2702746027 0.1978495519 -0.3801092916 0.1976523906 -0.3802093775 -0.1327271268 0.2614862709
515296910.0 -0.1386654654 0.2718272665 0.193562215 -0.3824050661 0.1939797489 -0.3821839745 -0.1299393008 0.2632098823
520296880.0 -0.1362021814 0.2738157332 0.1894641966 -0.384603316 0.1896582966 -0.3841946271 -0.1273475836 0.2647568778
525296850.0 -0.1332316179 0.2748378695 0.1850836069 -0.3862295702 0.1855228396 -0.3862402394 -0.1245885661 0.2664561992
530296820.0 -0.1302804884 0.2767352025 0.181316149 -0.3886574906 0.1811864954 -0.3883424824 -0.1219822045 0.2679667211
535296790.0 -0.1275303618 0.2782821847 0.177080356 -0.3903093192 0.1770291746 -0.3894671886 -0.1195088642 0.2689481038
540296760.0 -0.1247483135 0.2794669868 0.1726295815 -0.392285984 0.1726044879 -0.3924011507 -0.1165056725 0.2709806426
545296730.0 -0.1218874742 0.2811470626 0.1681184393 -0.3937869203 0.1681668228 -0.3937497052 -0.1135842323 0.2717930675
550296700.0 -0.1184988208 0.282693011 0.163750501 -0.3955839261 0.1641641227 -0.395932549 -0.1107352681 0.2737421295
555296670.0 -0.1158051117 0.2840092147 0.1597090329 -0.3973510035 0.1598087929 -0.3973249541 -0.1080135547 0.2751881499
560296640.0 -0.1124782474 0.2856133939 0.1555139545 -0.3994316066 0.1551917959 -0.3992358823 -0.1048920108 0.2763724196
565296610.0 -0.1098887336 0.286882707 0.151013952 -0.4010493381 0.1511818455 -0.4008293474 -0.1022679338 0.277223275
570296580.0 -0.1071220226 0.2879282801 0.1467523747 -0.4025222676 0.1461921535 -0.402273032 -0.0995838443 0.2789379575
575296550.0 -0.1039682751 0.289584624 0.1423478568 -0.4044390846 0.1419502771 -0.4042073093 -0.0964727157 0.2799042215
580296520.0 -0.1005124559 0.2904584011 0.1376922838 -0.405676692 0.1378928986 -0.4054483365 -0.093645641 0.281247138
585296490.0 -0.0977691615 0.2914861924 0.133298586 -0.4067204445 0.1334730327 -0.4066094686 -0.0905045458 0.2821466135
590296460.0 -0.0945210066 0.2929756881 0.1287692595 -0.4079088343 0.1288664557 -0.4083149834 -0.0882449839 0.2834849037
595296430.0 -0.091631333 0.2939260705 0.1238286859 -0.4097174485 0.1238628234 -0.4094690282 -0.0846342992 0.2841812821
600296400.0 -0.0884265376 0.2951919588 0.1194076464 -0.4109506989 0.1199469732 -0.4106993501 -0.0818349769 0.2852501848
605296370.0 -0.0855366254 0.2961241986 0.1152441252 -0.4119040842 0.1155750509 -0.4121317377 -0.0786488666 0.286224649
610296340.0 -0.0824319411 0.2972681747 0.1104469384 -0.4129578529 0.1109023187 -0.4132663298 -0.0756990409 0.2871581505
615296310.0 -0.0789935628 0.2978963492 0.1060473037 -0.4143661433 0.1062397503 -0.414868824 -0.0724624238 0.2881086511
620296280.0 -0.0761690928 0.2986497081 0.1019272905 -0.4154885568 0.1018800356 -0.4152148485 -0.0701011787 0.2888418592
625296250.0 -0.07310682 0.299726447 0.0973034855 -0.4165075817 0.0972054574 -0.416699807 -0.0661870357 0.2896789269
630296220.0 -0.0692923622 0.3004688361 0.0924538836 -0.4178107876 0.0924907549 -0.4174739694 -0.0633750838 0.2905403257
635296190.0 -0.0669163542 0.30150051 0.0882935193 -0.4183023369 0.0882757115 -0.4185481476 -0.0603516765 0.291439377
640296160.0 -0.0636812833 0.3023683001 0.0837290637 -0.419053157 0.0835329701 -0.4195514601 -0.0570678175 0.2921714754
645296130.0 -0.0602120788 0.3035085592 0.079097077 -0.4200335298 0.07935637 -0.4198248809 -0.0539777678 0.2931322065
650296100.0 -0.057245203 0.3041996576 0.0744260601 -0.4210468198 0.0745476383 -0.4207467246 -0.0505998516 0.2934942203
655296070.0 -0.0540798146 0.3047250717 0.0699787509 -0.4218514709 0.0700262361 -0.4217983152 -0.0473862579 0.294400571
660296040.0 -0.0512482852 0.3053645361 0.0653092171 -0.4222792894 0.0653481052 -0.4225777917 -0.044047852 0.2946525243
665296010.0 -0.0473578159 0.3054235059 0.0604004505 -0.4228282623 0.0604676619 -0.4230019634 -0.0412516236 0.2958632367
670295980.0 -0.0448636056 0.306722777 0.0563167866 -0.423701603 0.0562189954 -0.4234685259 -0.0385594455 0.2959466647
675295950.0 -0.0413322733 0.3073811509 0.0517970067 -0.4242687118 0.0518988432 -0.4237014599 -0.0354099939 0.2970250942
680295920.0 -0.038324013 0.3077755079 0.047011613 -0.4243540566 0.0465662107 -0.4246236678 -0.0320643734 0.297714983
685295890.0 -0.0347917338 0.3090395975 0.0422726021 -0.4255171786 0.0422934652 -0.4251422911 -0.0288566222 0.2979338996
690295860.0 -0.0315960091 0.308959248 0.0377872739 -0.4250135355 0.0377478021 -0.4253058109 -0.0258529345 0.2990899575
695295830.0 -0.028465221 0.3093229848 0.0333148347 -0.4256928088 0.0333292065 -0.4258643128 -0.022881496 0.2994451808
700295800.0 -0.0251089561 0.309515447 0.028371564 -0.4256382236 0.0282983915 -0.4258331202 -0.0196160678 0.299808904
705295770.0 -0.0222228612 0.3107031284 0.0237441146 -0.4261213632 0.0242568386 -0.4263821093 -0.0161692746 0.3004572873
710295740.0 -0.0185405353 0.3107095144 0.0192537972 -0.4268434622 0.0195466234 -0.4268130539 -0.0135866501 0.300282973
715295710.0 -0.0156844808 0.3110429225 0.0151120644 -0.4267267275 0.0144235152 -0.4270032201 -0.0103837408 0.3005378874
720295680.0 -0.012256187 0.3114460051 0.0101392252 -0.4268751881 0.0102349298 -0.4269041233 -0.0069560363 0.3012288873
725295650.0 -0.0088673533 0.3114516016 0.0053030924 -0.4265705483 0.005564477 -0.4268376935 -0.0041687351 0.3014808821
730295620.0 -0.005630107 0.3120977032 0.0007311581 -0.4266448375 0.0008443744 -0.4269638081 -0.0010182684 0.3016580448
735295590.0 -0.0024169924 0.3120350432 -0.0037153568 -0.4266668719 -0.0037238149 -0.426612566 0.0018345875 0.3016920979
740295560.0 0.0008357365 0.3123820037 -0.0085009199 -0.4266312551 -0.0085512745 -0.4268637869 0.00578499 0.3018889217
745295530.0 0.0036917522 0.3124628353 -0.0128555164 -0.4265136504 -0.0132491445 -0.4264373689 0.0089725885 0.3015797475
750295500.0 0.0074146466 0.3122211011 -0.0173850313 -0.4260638769 -0.0172395781 -0.4262593921 0.0115132852 0.3017885436
755295470.0 0.0107221544 0.3123909308 -0.0219887696 -0.4259714675 -0.0221418593 -0.4262615943 0.0148624437 0.3012994875
760295440.0 0.0139337605 0.3121343875 -0.0267780046 -0.425840901 -0.0271014755 -0.4263001051 0.0180897208 0.3014480283
765295410.0 0.0168790781 0.3125560435 -0.0313869753 -0.4256194905 -0.0320334978 -0.4255731866 0.0214200399 0.3015292078
770295380.0 0.0202242955 0.3119722592 -0.0359566069 -0.4251594076 -0.0361750376 -0.4249425899 0.0238316834 0.3013753754
775295350.0 0.0234309266 0.3120208212 -0.0408701018 -0.4240700148 -0.0402195653 -0.4244103741 0.0272256461 0.3011277589
780295320.0 0.0268558858 0.3116826452 -0.0453345851 -0.4237050667 -0.0447117425 -0.4235982952 0.0299763858 0.3005423661
785295290.0 0.0298714986 0.3113987423 -0.0497591854 -0.4231082082 -0.0494026132 -0.423685529 0.0339072611 0.3007683414
790295260.0 0.0334787813 0.3116143575 -0.0541055226 -0.422858254 -0.05391235 -0.4227546705 0.0372531176 0.3007756698
795295230.0 0.0364332662 0.311054068 -0.0589389128 -0.4220287409 -0.0587856142 -0.4223555244 0.0404615288 0.3000406653
800295200.0 0.0395756527 0.3110269397 -0.0636338414 -0.4212454261 -0.0634219671 -0.421201698 0.0434871572 0.2997600798
805295170.0 0.0432672351 0.3106692547 -0.0682503271 -0.4203728567 -0.0680305243 -0.4211257945 0.0464940474 0.2995867955
810295140.0 0.0462515544 0.3101306182 -0.0721061336 -0.4197467307 -0.0726259111 -0.4202331096 0.0500694492 0.2994591373
815295110.0 0.0497182908 0.3097105775 -0.0773705713 -0.4191411309 -0.0768690199 -0.41908985 0.0530721096 0.2989079118
820295080.0 0.0525248343 0.3099471566 -0.0815074808 -0.4178574243 -0.081382773 -0.4183140054 0.0564472955 0.2986346497
825295050.0 0.056253491 0.3090721876 -0.085871499 -0.4168967115 -0.0861683024 -0.4173547509 0.0595489657 0.2982141717
830295020.0 0.0592902239 0.3089011339 -0.090504624 -0.4162548845 -0.0905827586 -0.4163096025 0.0631377447 0.2977500219
