!Created with skrf (http://scikit-rf.org).
# Hz S RI R 50.0 
!freq ReS11 ImS11 ReS21 ImS21 ReS12 ImS12 ReS22 ImS22
300000.0 -0.100951031 -0.0656421978 0.6291851489 0.0621192169 0.6238490063 0.0635342696 -0.0984994129 -0.0751329103
5299970.0 -0.1021199316 0.0135241229 0.6302035098 0.0095907227 0.630665446 0.0097843738 -0.100530239 0.0132118525
10299940.0 -0.0969523712 0.0294684715 0.6343689977 0.0153118246 0.6337990037 0.0154694928 -0.0956281922 0.030400289
15299910.0 -0.0898893494 0.042658785 0.6406669552 0.020284462 0.6406091517 0.0200340162 -0.0885061579 0.0436523232
20299880.0 -0.0815550607 0.0532634486 0.6485086192 0.0241115458 0.6481728285 0.0238685427 -0.0797386178 0.054677007
25299850.0 -0.0721296452 0.0624463314 0.6576420302 0.0252507642 0.6575981708 0.0250488986 -0.0694401372 0.0632482118
30299820.0 -0.062177914 0.0688148646 0.6672101477 0.0241038848 0.667234193 0.0242773745 -0.0596787674 0.0700182938
35299790.0 -0.0523123647 0.0736811769 0.6774762443 0.0210599691 0.6772121347 0.0213079907 -0.0499168636 0.0750183759
40299760.0 -0.0431581026 0.0772117111 0.6857144238 0.0168867326 0.6864504629 0.0171740454 -0.0402293266 0.077591742
45299730.0 -0.0338193434 0.0793474962 0.6951768302 0.0114578763 0.6951872259 0.0117110633 -0.0313018213 0.0798676588
50299700.0 -0.0256262671 0.08013713 0.703775019 0.0045358615 0.7034251564 0.0051063374 -0.0226162559 0.0805639711
55299670.0 -0.0175775144 0.080371398 0.7111567093 -0.0032972927 0.7106544069 -0.0028190919 -0.0150298021 0.0805350058
60299640.0 -0.0098748439 0.0799053709 0.7171987917 -0.0113552517 0.7178726408 -0.0110285677 -0.0077836137 0.0796159761
65299610.0 -0.0038565577 0.078652904 0.7232785448 -0.0201680341 0.7235702854 -0.0203429811 -0.0013197579 0.0785624796
70299580.0 0.0025978994 0.077602175 0.7289452031 -0.029309834 0.728391183 -0.029522501 0.0049819965 0.0769096779
75299550.0 0.0082869726 0.075692253 0.7326427326 -0.0392578367 0.7327245879 -0.0392766389 0.0099970416 0.0747213316
80299520.0 0.0128527832 0.0734626615 0.7370479598 -0.048958842 0.7371449239 -0.0495803084 0.0151311018 0.0728109764
85299490.0 0.0175652714 0.0713721771 0.7404426915 -0.0583951547 0.7403898274 -0.0586005759 0.0195756674 0.06954909
90299460.0 0.0216175202 0.0689115693 0.7422610161 -0.0690778647 0.7435010612 -0.0690945816 0.0231469436 0.0677983778
95299430.0 0.0256939378 0.0663829553 0.745516634 -0.0795969416 0.7456278643 -0.0794739013 0.0270938468 0.0655967418
100299400.0 0.0288388108 0.0647409687 0.746475334 -0.0891364459 0.7467083149 -0.0894646229 0.030977451 0.0625731999
105299370.0 0.0321920003 0.0621446139 0.7486716881 -0.0994861607 0.748761451 -0.0996953522 0.0339556005 0.0604599543
110299340.0 0.0350894315 0.0595650931 0.7501965753 -0.1091518405 0.7495154731 -0.1089349166 0.0361589968 0.0578589446
115299310.0 0.0372855607 0.0571063072 0.7508226015 -0.1195264643 0.7506390636 -0.1199177108 0.0388657874 0.0554404239
120299280.0 0.039917556 0.0547340308 0.7511215805 -0.1294514571 0.7514252036 -0.1293253548 0.0415237299 0.0531457842
125299250.0 0.0417264665 0.0519825575 0.75118018 -0.13922723 0.7515230963 -0.1393396379 0.0429568338 0.0501056779
130299220.0 0.043497081 0.0501050034 0.7509149509 -0.1496100747 0.7514411549 -0.149548333 0.0450074174 0.0479846501
135299190.0 0.0455892783 0.0483365858 0.7513581451 -0.159239596 0.7508046623 -0.1590304181 0.0465248495 0.046003553
140299160.0 0.0469239149 0.0460794709 0.7506966675 -0.1689027437 0.7506252095 -0.1690235686 0.0480441535 0.0443103423
145299130.0 0.0482528058 0.0438071305 0.7498902236 -0.1787748494 0.7495142074 -0.1785329709 0.0493175777 0.0420475959
150299100.0 0.049637629 0.0419720934 0.7481704319 -0.1874734331 0.7489002438 -0.1876410944 0.0507511727 0.0400311278
155299070.0 0.0503064323 0.0398639856 0.7479270853 -0.1989563955 0.7471296247 -0.1984464931 0.0516685648 0.0382144572
160299040.0 0.0518996845 0.0379954401 0.746163682 -0.2072172236 0.7452723094 -0.2082855825 0.0521767452 0.0358921993
165299010.0 0.0523951627 0.0363302558 0.7445457444 -0.2174731247 0.744170242 -0.2172284628 0.0536399769 0.0349077578
170298980.0 0.0532847896 0.0338877405 0.7426913738 -0.2263152905 0.7427070966 -0.2266335012 0.0544868407 0.0328589149
175298950.0 0.0536912592 0.031998951 0.7409138575 -0.2354253027 0.7403144982 -0.2358583831 0.05509006 0.0310100147
180298920.0 0.0545858415 0.030431337 0.7387712521 -0.2451706838 0.7388107678 -0.2445429446 0.0554377219 0.029581495
185298890.0 0.0555019835 0.0284156672 0.7363928068 -0.2541131789 0.7360424894 -0.2542752404 0.0559155024 0.0284696799
190298860.0 0.0554711429 0.0271137827 0.7342353417 -0.2634314206 0.7343947921 -0.2632581893 0.0565730167 0.026292759
195298830.0 0.0560702128 0.0250831404 0.7316137082 -0.2725192681 0.7320621752 -0.2720792312 0.0573803808 0.0252384562
200298800.0 0.056438145 0.0238536956 0.7283780997 -0.2814394464 0.7281943481 -0.2813224691 0.0569007104 0.0236994996
205298770.0 0.0567888655 0.0228985628 0.725776208 -0.2902459788 0.7260560439 -0.2900224729 0.0575145077 0.0213786762
210298740.0 0.0569558564 0.0207002408 0.7229555153 -0.2985977986 0.7228436919 -0.29789327 0.0579259792 0.0212113489
215298710.0 0.0566718163 0.0194638526 0.7203693489 -0.3077757068 0.7200836404 -0.3076239428 0.0576003707 0.0201892404
220298680.0 0.0576787556 0.0175446652 0.7167028874 -0.3159973357 0.7163058717 -0.3161805271 0.0576128187 0.0180593613
225298650.0 0.0573392061 0.0165285867 0.7138453876 -0.3249160825 0.7135778741 -0.3247352729 0.0569350447 0.0165436228
230298620.0 0.0578015334 0.0157501977 0.7105756814 -0.3328329919 0.710626135 -0.3336611615 0.0573460373 0.0150872355
235298590.0 0.0579810064 0.014616954 0.7065000608 -0.3417114933 0.7068000812 -0.3409175425 0.0575185065 0.0138978426
240298560.0 0.0579030446 0.0134159775 0.7031290353 -0.3502642541 0.7029291167 -0.3500813921 0.0575460738 0.0128253646
245298530.0 0.0577579687 0.0118928462 0.6999887151 -0.358611876 0.6991506838 -0.3585572442 0.0581687925 0.011036498
250298500.0 0.0583691264 0.0110784234 0.6948153361 -0.3666019677 0.6946463156 -0.3658143032 0.057846097 0.0103321582
255298470.0 0.0583173922 0.0094460385 0.6907209355 -0.3740756758 0.6913209193 -0.3743080009 0.0582458536 0.0091263872
260298440.0 0.0577692822 0.0081212627 0.6869550121 -0.3833960961 0.6875226254 -0.3830513065 0.0581181175 0.0079743286
265298410.0 0.0589229306 0.0075337065 0.682942478 -0.3909293745 0.6837557079 -0.3904839692 0.0579729251 0.0065447741
270298380.0 0.0585149303 0.0062288952 0.6791942799 -0.3984282861 0.6791847753 -0.3992667932 0.057679414 0.0057535579
275298350.0 0.0588364191 0.0049904814 0.6750486691 -0.4071351952 0.6753706761 -0.4071971954 0.0581125099 0.0039101317
280298320.0 0.0585957695 0.0042598297 0.6708865897 -0.4149054988 0.670915559 -0.4145201703 0.0584808393 0.0033280886
285298290.0 0.058661064 0.0029309591 0.66668331 -0.4225000353 0.6656391169 -0.4226743762 0.0584301857 0.0022802103
290298260.0 0.0591431949 0.0020936016 0.6613048037 -0.4299353376 0.6618671563 -0.4302040605 0.0583151832 0.0015295821
295298230.0 0.0589564991 0.0008212417 0.6570599442 -0.4378656231 0.6572262649 -0.4379396211 0.059126423 -2.83934e-05
300298200.0 0.0582994491 -0.0004062875 0.652930812 -0.4454235207 0.6532926263 -0.4456876775 0.058861105 -0.0010447909
305298170.0 0.0588944691 -0.0016454432 0.6473316362 -0.4536646132 0.6471825538 -0.4533997191 0.0591218056 -0.0023538458
310298140.0 0.0585745568 -0.0026127358 0.6427190975 -0.4609803693 0.6430258215 -0.4611529953 0.0592114462 -0.0034139415
315298110.0 0.0579295203 -0.0043100179 0.6372774249 -0.4686241011 0.6376930865 -0.4688111428 0.0588575149 -0.0044614762
320298080.0 0.0585521976 -0.0050575034 0.6322825955 -0.4766341271 0.6327496563 -0.4763457426 0.0588260224 -0.0054879403
325298050.0 0.0577985683 -0.0063959283 0.6271621558 -0.4841128153 0.6266056235 -0.4836336583 0.0580245181 -0.0067152289
330298020.0 0.0574262661 -0.007763719 0.62077203 -0.4910134791 0.6214793979 -0.4913711541 0.0573506114 -0.0079576363
335297990.0 0.0570775409 -0.0085733834 0.6159139122 -0.4979744095 0.6154564281 -0.4984648973 0.0566049093 -0.0080372404
340297960.0 0.0561708932 -0.0093698435 0.6099744369 -0.5051987928 0.6091344838 -0.505613029 0.0568711971 -0.008886986
345297930.0 0.0557695639 -0.0093805635 0.6036604707 -0.5121327245 0.6037808106 -0.5118900929 0.056411647 -0.0098226452
350297900.0 0.0550814906 -0.0114337142 0.5972977567 -0.519235689 0.5973490023 -0.5188223019 0.0554788088 -0.0097884472
355297870.0 0.0549606138 -0.0109097826 0.5914268195 -0.525392735 0.5925176833 -0.5255000281 0.0553331646 -0.0108882424
360297840.0 0.0544777885 -0.0117839812 0.5862980844 -0.5319877333 0.5870065744 -0.5318210452 0.0548433012 -0.0111492846
365297810.0 0.0538439232 -0.0125622968 0.5802144739 -0.5388637882 0.5806526761 -0.5387370441 0.0547605779 -0.011577365
370297780.0 0.0543555248 -0.0134435018 0.5744083076 -0.5448577569 0.5747769387 -0.5446046537 0.054289049 -0.012352585
375297750.0 0.0536999472 -0.0138924422 0.5684355914 -0.5511719751 0.5688851615 -0.5517005152 0.0544826434 -0.0129402516
380297720.0 0.0534517916 -0.0143855333 0.5626738074 -0.5580813375 0.5623697572 -0.5573450058 0.0533961635 -0.0137568892
385297690.0 0.052482994 -0.0154704656 0.5559928552 -0.5641144915 0.5555229874 -0.5635538893 0.053106528 -0.0140497163
390297660.0 0.0527716253 -0.0156250362 0.5499319475 -0.5703760221 0.5497271883 -0.5703061221 0.0527307632 -0.0150806143
395297630.0 0.0521299768 -0.0160504007 0.543534273 -0.5761987441 0.5436378133 -0.5761005974 0.0529272182 -0.0155641065
400297600.0 0.0516933693 -0.016893036 0.5366779533 -0.5827353961 0.5368358103 -0.5827952043 0.0522016832 -0.0159203919
405297570.0 0.0510249525 -0.0175669517 0.5303584188 -0.588106419 0.5308325016 -0.5880510838 0.0512639258 -0.0166208005
410297540.0 0.0512971595 -0.0182380176 0.5247925516 -0.5944257185 0.5249556756 -0.5943876599 0.0511434959 -0.0169713303
415297510.0 0.0510200542 -0.0188561151 0.5176151112 -0.6004671865 0.5178721508 -0.6005228405 0.0509620249 -0.0179001756
420297480.0 0.0506700121 -0.0191767119 0.5111528122 -0.6062737557 0.5106919346 -0.6064331969 0.0503261811 -0.0186850594
425297450.0 0.0501706727 -0.0206412028 0.5045105675 -0.6118204183 0.5043357739 -0.6113997039 0.0494175473 -0.0190886785
430297420.0 0.0497725654 -0.0208402371 0.4973550393 -0.6164877723 0.4975128434 -0.6166244754 0.049265308 -0.0199653634
435297390.0 0.0491543783 -0.0215273272 0.4904708813 -0.6230269663 0.4903286055 -0.6226483233 0.0497914849 -0.0205288472
440297360.0 0.049405136 -0.0217415164 0.4837085933 -0.6278838541 0.4837230813 -0.6277323654 0.0488338716 -0.0215013628
445297330.0 0.0485953803 -0.0228556996 0.4774650848 -0.6332012763 0.4768405549 -0.6330394739 0.0485216929 -0.0222205165
450297300.0 0.0483843925 -0.0233771838 0.4698605894 -0.6386862877 0.4699848384 -0.6392773624 0.0482305083 -0.0232055834
455297270.0 0.0480971175 -0.0238520238 0.4626501826 -0.6439819332 0.4634426857 -0.6440292546 0.048088913 -0.0235163477
460297240.0 0.0476250629 -0.0245938585 0.4556523771 -0.6492168925 0.4557024933 -0.6490887446 0.0473971697 -0.024129632
465297210.0 0.0473962413 -0.0251237268 0.4487580032 -0.6541320819 0.4487329558 -0.6545615903 0.0472865076 -0.0249135025
470297180.0 0.046847324 -0.0258198589 0.4411894271 -0.6589714335 0.4414853663 -0.6587898723 0.0470222622 -0.0247879466
475297150.0 0.0465659615 -0.0266864491 0.4344176541 -0.6631059516 0.4343970741 -0.66333738 0.0470391736 -0.0262672156
480297120.0 0.0458078202 -0.0263390946 0.4271704981 -0.6691024094 0.4264518297 -0.6688587523 0.0466655617 -0.0263137554
485297090.0 0.0454502596 -0.0271809641 0.4195374458 -0.6731549252 0.4195619476 -0.6729986513 0.046115082 -0.0270414862
490297060.0 0.0443558984 -0.027887364 0.4126121427 -0.6781245202 0.4124839821 -0.6773076906 0.0458458931 -0.0269826707
495297030.0 0.0446356958 -0.0283255232 0.4044735839 -0.6823684917 0.4051432276 -0.6821503462 0.0448916455 -0.0279174967
500297000.0 0.0437730316 -0.0291874049 0.3970931764 -0.6863761119 0.396587874 -0.686026937 0.0449019459 -0.0275100472
505296970.0 0.0436702209 -0.0296298709 0.389617906 -0.6907313697 0.3889592727 -0.6910896172 0.0442398637 -0.0283263402
510296940.0 0.0430700912 -0.0298799834 0.3808876103 -0.6952828463 0.3816472666 -0.6955830515 0.0444385965 -0.0285056346
515296910.0 0.0423024281 -0.0300346759 0.3736937741 -0.6995895467 0.3738257284 -0.6994758234 0.0436980258 -0.028842635
520296880.0 0.0420399825 -0.030540858 0.3666290048 -0.7041267758 0.3667463457 -0.7031411425 0.0429311616 -0.0295394375
525296850.0 0.0418447342 -0.031509562 0.3589640887 -0.7074295103 0.359212178 -0.7072973731 0.0423567928 -0.0298811353
530296820.0 0.0412370111 -0.0315811874 0.3506495906 -0.7117431941 0.3509013985 -0.7115254141 0.0425342952 -0.0302174148
535296790.0 0.0401996889 -0.0318653582 0.3437541059 -0.7154689341 0.3434952234 -0.7150933905 0.0417077371 -0.0309355232
540296760.0 0.0398786208 -0.0321037906 0.3354157495 -0.7197564309 0.3354034199 -0.7195560037 0.0408445222 -0.0303747602
545296730.0 0.039379516 -0.0326500137 0.3272639397 -0.7226097468 0.3270088523 -0.7228592623 0.0404467302 -0.0313847717
550296700.0 0.0396010136 -0.0329269346 0.3195809159 -0.7264119032 0.3196912326 -0.726436752 0.0397396033 -0.0314087487
555296670.0 0.038478038 -0.033236298 0.3116253405 -0.7297574767 0.3120856063 -0.7297161731 0.0391288883 -0.0318128179
560296640.0 0.0383010231 -0.0334281107 0.3034174221 -0.733302906 0.303532067 -0.7331346848 0.0390572879 -0.0323543803
565296610.0 0.037328414 -0.0341544592 0.2950728224 -0.7362407113 0.2952390879 -0.7362138404 0.0377061065 -0.0329183953
570296580.0 0.0369821686 -0.0341244281 0.2873733351 -0.7399869864 0.2869363564 -0.7395089897 0.0375750976 -0.0324350097
575296550.0 0.0358842626 -0.0344849212 0.2793900818 -0.7429358033 0.2791410427 -0.7429013267 0.0374690296 -0.0332593412
580296520.0 0.0360593495 -0.0347924249 0.2712113278 -0.7460066273 0.270849467 -0.7457102541 0.0366769381 -0.0337576024
585296490.0 0.0353510449 -0.0358607054 0.2634006536 -0.7483477829 0.2632486364 -0.748543357 0.035975216 -0.0342440798
590296460.0 0.0352107271 -0.0354019199 0.2551545419 -0.7503349425 0.2546839493 -0.751365604 0.0343852825 -0.0344141367
595296430.0 0.0350068707 -0.0358081029 0.2460778359 -0.7542294016 0.2461677988 -0.7541469065 0.0345483005 -0.0349045809
600296400.0 0.0337050946 -0.0367349581 0.2381740767 -0.7574507623 0.2385418388 -0.756424434 0.0339465023 -0.0354519749
605296370.0 0.0333666733 -0.0367752119 0.2302920426 -0.7592491862 0.2304357886 -0.7591413181 0.033576142 -0.0355447776
610296340.0 0.0328074151 -0.0370740155 0.2213154261 -0.7621490097 0.2217203182 -0.7617722965 0.0333178994 -0.0363108463
615296310.0 0.0325286361 -0.0379998477 0.213578987 -0.7642519831 0.2127603043 -0.7645596216 0.0325801011 -0.036356268
620296280.0 0.0318270243 -0.038224702 0.205207446 -0.7664056788 0.2046708636 -0.7663607625 0.0317719204 -0.0369426413
625296250.0 0.0308790402 -0.0390411722 0.1975775729 -0.7691423388 0.1966294881 -0.7690518581 0.0320571156 -0.0372478981
630296220.0 0.0317079163 -0.0384121199 0.1876142891 -0.7711106318 0.1873714855 -0.77060927 0.0313446786 -0.0373435719
635296190.0 0.0297691728 -0.0395634786 0.179824761 -0.7723003931 0.1793794684 -0.7724783007 0.030744681 -0.0375217791
640296160.0 0.0293171349 -0.0393513279 0.1717469748 -0.7742305951 0.1715868208 -0.7744896401 0.0302338409 -0.0378841057
645296130.0 0.0287162326 -0.0393458435 0.1624635672 -0.7759057171 0.1630844509 -0.7766820152 0.0297808849 -0.0382113273
650296100.0 0.0282651203 -0.0397130841 0.1541896865 -0.7777656491 0.1547119471 -0.7786750916 0.0298314037 -0.0392696047
655296070.0 0.0271381869 -0.0402115233 0.1456560511 -0.7796141493 0.1464607446 -0.7799805146 0.0292300323 -0.0386642343
660296040.0 0.0259241241 -0.0406821916 0.1371724389 -0.7814085351 0.1377554823 -0.7816870059 0.0285987773 -0.0389307891
665296010.0 0.0265892209 -0.0404980676 0.1286402569 -0.78306116 0.1287364375 -0.7827951826 0.0280257302 -0.0385858343
670295980.0 0.0247331572 -0.0407019732 0.1200206555 -0.7839722156 0.1202873733 -0.7843472928 0.0268678567 -0.0392865807
675295950.0 0.0247590167 -0.0405305732 0.1118732798 -0.7851194349 0.1118019896 -0.7846020327 0.0263565939 -0.0392067337
680295920.0 0.0235678456 -0.0413585683 0.1025360026 -0.7863014563 0.1025671289 -0.7872179134 0.0262045508 -0.0384998941
685295890.0 0.0234320213 -0.0406771863 0.094434307 -0.7877097109 0.0942189114 -0.7877736324 0.0255225689 -0.039125041
690295860.0 0.0232905368 -0.0409384127 0.0860957422 -0.7879291527 0.0858638422 -0.7890077602 0.0247630857 -0.0382683723
695295830.0 0.0223627865 -0.0413779033 0.0778982752 -0.7893980519 0.076910538 -0.7889251612 0.02419299 -0.0389735816
700295800.0 0.0218502517 -0.0419573033 0.068370032 -0.7894908683 0.0683249565 -0.789435129 0.0233898212 -0.0384264635
705295770.0 0.021349094 -0.0408843578 0.0599474414 -0.7909537016 0.0601583138 -0.7908451206 0.0229295233 -0.0389874962
710295740.0 0.0209288395 -0.0415892668 0.0515552682 -0.7925207291 0.0521330238 -0.7918939915 0.022580016 -0.0396021742
715295710.0 0.0194292895 -0.0418709592 0.0431191374 -0.7920544039 0.0425160416 -0.7920656851 0.0222252215 -0.0393666291
720295680.0 0.0194255431 -0.0419806883 0.0341788277 -0.7928194301 0.0340713733 -0.7919617662 0.0212982138 -0.0386620327
725295650.0 0.0191574918 -0.0419089573 0.0255781414 -0.7924588102 0.0255254449 -0.7925036499 0.0204017112 -0.0390844452
730295620.0 0.0188982715 -0.0414411485 0.0171815996 -0.7922185764 0.0169279493 -0.7930956495 0.0194681807 -0.0397999652
735295590.0 0.0176671495 -0.0415563371 0.0083595605 -0.7930979238 0.0084637012 -0.7931348802 0.0187133392 -0.0396339917
740295560.0 0.0169355254 -0.0415736449 -0.0002631231 -0.7933526242 -0.0003656896 -0.7928199002 0.0188133124 -0.0393557269
745295530.0 0.0166371462 -0.0416628026 -0.0084508682 -0.7925736552 -0.0093370464 -0.7928482782 0.0182484615 -0.0400257245
750295500.0 0.0161546416 -0.0420629467 -0.0175594016 -0.7925087879 -0.0177434739 -0.7930232071 0.0172123194 -0.039799948
755295470.0 0.0154844506 -0.0423012597 -0.0257686129 -0.7924350175 -0.0261188984 -0.7925543612 0.0173989633 -0.0402881779
760295440.0 0.014656161 -0.042024356 -0.0346124099 -0.7926328167 -0.0347370079 -0.7928391206 0.0162130954 -0.0405401324
765295410.0 0.0138954238 -0.0423340709 -0.0434160337 -0.7917718141 -0.0436492345 -0.7921106421 0.0159964804 -0.0402912335
770295380.0 0.0132379398 -0.0423064829 -0.0524503201 -0.7907505958 -0.0522673199 -0.791223651 0.0146615245 -0.0408386657
775295350.0 0.0125489877 -0.0429893677 -0.0605265027 -0.7902603762 -0.0599623959 -0.7901931809 0.0136764107 -0.0400864948
780295320.0 0.0124092568 -0.0424369235 -0.0689399238 -0.7894468699 -0.0689241398 -0.7897294526 0.0132755058 -0.0410997126
785295290.0 0.0112396305 -0.0431652299 -0.0781675664 -0.7887464862 -0.0775568452 -0.7886639395 0.0135930335 -0.0403167743
790295260.0 0.0113094905 -0.0418841022 -0.0858036014 -0.7879571043 -0.0851834785 -0.7873096614 0.0124434147 -0.040917827
795295230.0 0.0102165721 -0.0428736597 -0.0948421803 -0.7867703934 -0.0940767545 -0.7874200074 0.0123297489 -0.0403718479
800295200.0 0.0094028442 -0.0423216613 -0.103923657 -0.7854029504 -0.103301528 -0.7858544616 0.0115131641 -0.0407756807
805295170.0 0.0088708325 -0.0424481793 -0.1119053829 -0.7845625628 -0.1124866856 -0.7848169736 0.0109768526 -0.0407351006
810295140.0 0.0077971895 -0.0431193791 -0.1202014642 -0.7833660986 -0.1205269442 -0.7832975269 0.0110685242 -0.0404054781
815295110.0 0.0075414286 -0.0430482209 -0.1292027769 -0.7817953931 -0.1291284611 -0.7815166899 0.0097206706 -0.0404468226
820295080.0 0.0063011473 -0.0421193744 -0.1376786349 -0.780093063 -0.1369807665 -0.7805117411 0.0091751981 -0.040432963
825295050.0 0.0068043827 -0.042061788 -0.1449590452 -0.7784642856 -0.1460349321 -0.7788409007 0.0090018434 -0.040465939
830295020.0 0.0057820358 -0.0418639495 -0.154260039 -0.7768686746 -0.1543086543 -0.7768463521 0.009239228 -0.0400057232
