!Created with skrf (http://scikit-rf.org).
# Hz S RI R 50.0 
!freq ReS11 ImS11 ReS21 ImS21 ReS12 ImS12 ReS22 ImS22
300000.0 -0.0508551501 -0.0424529884 -0.0022937553 0.0001778983 0.0010805138 -0.0001286753 -0.771393403 -0.1365652751
5299970.0 -0.0497358786 0.0158076708 0.0002293485 -0.0001234968 0.0002186198 0.0002112403 -0.7844537266 -0.0075343669
10299940.0 -0.044191092 0.0326705753 -0.000145624 0.0001913781 8.52148e-05 0.0001035166 -0.7877872863 -0.0036845211
15299910.0 -0.0358980153 0.0470200122 -0.0001995445 -0.0001373973 0.000152541 6.07981e-05 -0.7932339829 -0.0015539018
20299880.0 -0.0259808956 0.0590068765 -2.93661e-05 5.79873e-05 0.0001262866 -0.0001606027 -0.7996688727 0.0021458073
25299850.0 -0.0154122909 0.06813306 5.9003e-06 0.0001429059 4.10263e-05 -5.34947e-05 -0.8057929758 0.0082678825
30299820.0 -0.004217937 0.0748627263 -0.0001597813 2.33442e-05 0.0001851359 3.14528e-05 -0.8119650754 0.0160448579
35299790.0 0.0072662767 0.0797199104 -0.000101218 0.0001551107 -2.03058e-05 -0.0001612788 -0.8174794741 0.0252514458
40299760.0 0.0186459444 0.0828650139 5.79993e-05 0.000178127 0.0001357038 -8.00751e-05 -0.8212236877 0.0346400262
45299730.0 0.0293069384 0.084257867 0.000169194 1.05253e-05 -1.40373e-05 -5.06834e-05 -0.8252066963 0.0441929579
50299700.0 0.0392960014 0.0844294942 6.3947e-05 0.0001466744 0.0001897719 0.000145191 -0.8271509923 0.0538246443
55299670.0 0.0482529431 0.0834334731 4.32067e-05 -6.87459e-05 0.0001800987 0.0001852715 -0.829579949 0.0642623881
60299640.0 0.0572352159 0.0821009259 3.58152e-05 0.000166922 0.0001190645 -3.2407e-05 -0.8302631528 0.073922802
65299610.0 0.06472567 0.0797683744 0.0003337199 0.0002118826 -1.46844e-05 8.67053e-05 -0.8319697342 0.0840513104
70299580.0 0.0714220434 0.0767537483 -0.0002162661 -1.80312e-05 -0.0001208966 -2.746e-05 -0.8315483503 0.0943523827
75299550.0 0.0781769531 0.0737883502 6.62823e-05 -0.0001064609 -5.56264e-05 0.0001602468 -0.8319653784 0.1041118464
80299520.0 0.0837049265 0.0704824362 -0.0001168815 -1.40463e-05 2.85918e-05 0.0002168732 -0.832232172 0.1138549868
85299490.0 0.0885199916 0.0665406376 0.0001424545 -7.63641e-05 5.56985e-05 -0.0002047785 -0.8316213323 0.1235451821
90299460.0 0.0932894728 0.0631937252 -9.20997e-05 -0.0001727196 5.91626e-05 0.0002659308 -0.8310796008 0.1329266404
95299430.0 0.0975444797 0.0589461026 9.21923e-05 -6.4926e-06 4.85685e-05 0.0001333877 -0.8294066428 0.1429755693
100299400.0 0.100959198 0.0555986756 8.9895e-06 1.50894e-05 -2.08253e-05 0.0001052913 -0.8285669662 0.1527405545
105299370.0 0.1044081309 0.0520030343 -0.0001019091 0.0002711967 -0.0002133254 1.06375e-05 -0.8268888483 0.161196326
110299340.0 0.1074591336 0.0479782792 -6.18827e-05 -0.0001277888 -4.86565e-05 0.0001022508 -0.8254513041 0.1703747014
115299310.0 0.1100304546 0.0439577186 4.92472e-05 0.0001700601 0.0002913319 -9.89021e-05 -0.8241303425 0.1802103834
120299280.0 0.1119702719 0.0403039005 7.59954e-05 0.0002682897 -2.13675e-05 0.000180108 -0.8227439475 0.1887480144
125299250.0 0.114075205 0.0363679463 0.0001174889 -6.2804e-06 -9.78099e-05 -8.63313e-05 -0.8208322597 0.1981311641
130299220.0 0.1156610014 0.0330727389 -0.0001168528 6.31571e-05 4.09553e-05 0.0001456651 -0.818879267 0.2065217047
135299190.0 0.1175652407 0.0297560444 0.0002114182 -6.10172e-05 -5.4585e-06 9.95573e-05 -0.8164840043 0.2162264183
140299160.0 0.1185301425 0.0259974143 9.88991e-05 -1.85688e-05 1.12594e-05 0.0002395758 -0.8147090314 0.2250401602
145299130.0 0.119872722 0.0225065438 0.0003625295 -4.69374e-05 0.0001389936 9.87041e-05 -0.8120070886 0.2343608616
150299100.0 0.1210521214 0.0191497898 -0.0001215039 9.4e-08 0.0002406506 -5.11992e-05 -0.8110218981 0.2429522961
155299070.0 0.1215575571 0.0161809386 -0.000223095 6.21661e-05 6.03924e-05 1.55897e-05 -0.8075740164 0.2514694518
160299040.0 0.1222312279 0.0131149819 3.01426e-05 0.0003068302 -0.0001448784 6.90972e-05 -0.8053511011 0.2611291648
165299010.0 0.122857262 0.009690957 6.34793e-05 0.0002857504 4.38182e-05 3.4908e-06 -0.8023443693 0.2691358422
170298980.0 0.1231093665 0.0070201132 0.0001009383 3.5712e-06 -2.95204e-05 4.54894e-05 -0.7992167788 0.2782301088
175298950.0 0.1236298223 0.0039921829 9.27251e-05 8.25071e-05 -1.48357e-05 0.000170124 -0.7971767043 0.2866709599
180298920.0 0.1239175687 0.0013108534 1.97197e-05 -4.6929e-06 0.000262251 8.0172e-06 -0.793980218 0.2956145658
185298890.0 0.1239813244 -0.001940956 -4.7715e-05 0.0001837506 -5.88247e-05 0.0002003635 -0.7905186123 0.3037559412
190298860.0 0.1240191452 -0.004509619 2.60203e-05 0.0001278379 0.0002172573 -7.86888e-05 -0.7880843091 0.3124885383
195298830.0 0.1237465862 -0.0070997427 0.0001862249 6.35018e-05 -7.0244e-06 0.0002366803 -0.7845571547 0.3207389033
200298800.0 0.1240198069 -0.009848491 2.33833e-05 8.09497e-05 -3.17695e-05 0.0001595805 -0.78129275 0.3292156846
205298770.0 0.1238792184 -0.0123942197 0.0001954207 -3.37643e-05 -2.35861e-05 7.0106e-05 -0.7778684533 0.3375039072
210298740.0 0.1234889203 -0.0149241185 3.79864e-05 0.0002062272 -2.8939e-05 0.0001330689 -0.7745207412 0.3454446028
215298710.0 0.1231774343 -0.0173761638 2.96339e-05 0.0001455571 8.07396e-05 0.0001616078 -0.7715425102 0.3540473058
220298680.0 0.1227429685 -0.0199431143 4.9415e-05 5.95608e-05 0.0002493521 -0.0001099284 -0.7674483967 0.3619017527
225298650.0 0.122080844 -0.0223240275 0.0001108832 0.0002305298 0.0001792343 0.0003084588 -0.7635011511 0.3705461731
230298620.0 0.1216110963 -0.0244835082 0.0002173922 0.0002501815 0.0001465478 6.75068e-05 -0.7597921693 0.3784148975
235298590.0 0.1215174915 -0.0265230434 0.0002026279 -2.46603e-05 9.48266e-05 0.0002981858 -0.7555464771 0.3866939799
240298560.0 0.1207564161 -0.0292679208 0.0002062658 1.67313e-05 0.0001466422 5.69052e-05 -0.7515505648 0.3949824053
245298530.0 0.1203419927 -0.0312538687 0.0002123151 0.0002775299 -8.86097e-05 0.0001898934 -0.7478695182 0.4022939268
250298500.0 0.1196338259 -0.0331337549 0.0001554519 4.51302e-05 0.0003014207 5.74081e-05 -0.7434739938 0.4103086273
255298470.0 0.1187767147 -0.035500741 6.6255e-05 0.0001385656 0.0003258206 -0.0001817142 -0.7389598597 0.4180830127
260298440.0 0.118168421 -0.037466679 0.0001754559 0.0001879149 0.0001806267 -2.04608e-05 -0.7344600808 0.4262394006
265298410.0 0.1176942076 -0.03897212 0.0003606009 6.21581e-05 6.58641e-05 0.0002616822 -0.7301495381 0.4333937361
270298380.0 0.1167065437 -0.0412453816 4.2757e-05 0.0002763055 4.70992e-05 0.0002613518 -0.725537395 0.4410629821
275298350.0 0.1159354332 -0.043265358 0.0002227236 0.0002591836 9.08549e-05 8.1385e-05 -0.7207244106 0.4488557427
280298320.0 0.1152992705 -0.0447353891 0.0001636314 2.45707e-05 0.0002284662 4.98237e-05 -0.715816484 0.4560418228
285298290.0 0.1149486048 -0.0463625306 0.0001465511 9.4954e-05 -3.44922e-05 4.14635e-05 -0.7106318818 0.463675527
290298260.0 0.1136210109 -0.0486136694 0.0002412304 4.05263e-05 0.0002498263 3.121e-05 -0.7060138253 0.4708433915
295298230.0 0.1130672371 -0.0506004541 0.0002427582 4.19827e-05 0.0001394945 -6.20113e-05 -0.7007876069 0.47793754
300298200.0 0.1123174166 -0.0521918861 1.8407e-06 0.0001271337 0.000262321 0.0002871422 -0.6962886849 0.4853530101
305298170.0 0.1112824945 -0.0539017532 5.48097e-05 0.0003133746 8.3061e-05 0.0001071763 -0.6902091585 0.4932331822
310298140.0 0.1104709997 -0.0556674488 5.89992e-05 0.0001512601 6.27446e-05 -0.0001411487 -0.6857886594 0.4996776201
315298110.0 0.1096823356 -0.0575346514 0.0002533789 -8.10161e-05 0.0002885462 5.14709e-05 -0.6803436936 0.5070075549
320298080.0 0.1088856142 -0.0594393049 0.0001386725 0.0001279452 8.38227e-05 0.0001248056 -0.6749341265 0.5145918112
325298050.0 0.1077943029 -0.0614945698 -5.6782e-06 0.000480337 0.0001374885 0.0001991735 -0.66936681 0.521504963
330298020.0 0.1065803575 -0.0629640987 -0.0001130021 3.7386e-05 0.00032046 0.0002856656 -0.6638518938 0.5283106046
335297990.0 0.1049216344 -0.0644879523 8.54707e-05 -6.53132e-05 0.0003347977 0.0001593035 -0.6585782246 0.5354946591
340297960.0 0.1035125115 -0.0659290528 0.0002609953 0.0001693986 0.0001339504 4.68078e-05 -0.6527757436 0.5427197962
345297930.0 0.1022683792 -0.0672993051 0.0003908517 -0.0001458634 0.0001009592 6.19778e-05 -0.6469565652 0.5487212698
350297900.0 0.1014397753 -0.0685823398 0.0003539292 -1.039e-06 0.0001621238 8.50032e-05 -0.6415713524 0.5557132365
355297870.0 0.1001466386 -0.0701173946 0.0002649341 -9.46698e-05 0.0002182784 0.000169241 -0.6360053389 0.5621963997
360297840.0 0.0987305586 -0.0710076418 0.0001462252 0.0001112799 0.0003214944 2.63523e-05 -0.6298295853 0.5691004099
365297810.0 0.097435749 -0.0722121166 0.0002525348 5.8021e-05 0.0001617125 0.000158966 -0.6234693878 0.5751661075
370297780.0 0.0964834239 -0.0734628861 0.0002034373 6.48282e-05 -7.20584e-05 0.0001164161 -0.617511111 0.581469197
375297750.0 0.095128225 -0.0749503963 0.0003634236 0.0001800733 0.0002733999 5.05265e-05 -0.6118015737 0.588075779
380297720.0 0.0939499306 -0.0760855204 -4.63663e-05 -3.77827e-05 0.0003333335 0.0001379623 -0.6054080536 0.5942524812
385297690.0 0.0926360509 -0.0773105239 0.0001115387 7.85076e-05 0.0001417493 0.0002401501 -0.5990448183 0.6006520644
390297660.0 0.0914947602 -0.0781994201 0.0002980932 0.0001771339 0.0001614768 0.0001911611 -0.5932509943 0.6070867978
395297630.0 0.0904472347 -0.0793794304 0.0002300128 2.18264e-05 0.0002307429 0.0001641017 -0.5862964684 0.6131054141
400297600.0 0.0893194128 -0.0805328862 0.0001262406 2.38229e-05 0.0004123688 -3.8827e-05 -0.5809652932 0.6188622197
405297570.0 0.0877184351 -0.0813635138 4.58361e-05 0.0001541505 0.000138772 7.21923e-05 -0.5737138269 0.6245520463
410297540.0 0.0863669295 -0.0826438622 0.0001759617 -0.0001587896 -1.64349e-05 0.0001979923 -0.5674339227 0.6309041134
415297510.0 0.0852729363 -0.0843084909 0.0002211247 0.0002613978 -9.323e-05 0.0001846162 -0.5609898483 0.6362630244
420297480.0 0.0839565708 -0.0846490376 0.0001683322 0.0002569684 0.0002261663 9.60059e-05 -0.5545633753 0.642542933
425297450.0 0.0825370741 -0.085672882 0.0001879474 0.0001412394 0.0004121776 0.0001358874 -0.5479148344 0.6482035293
430297420.0 0.0814694713 -0.0868981552 0.0002275729 0.0003444144 0.0001632429 0.0002084056 -0.5410639288 0.6528402108
435297390.0 0.0803113692 -0.0876609139 0.0002506523 0.0001538336 5.98691e-05 0.0001896751 -0.5335992218 0.6586589362
440297360.0 0.0786649308 -0.0888279257 9.27977e-05 0.0002072432 3.7273e-05 2.54991e-05 -0.5275021163 0.6637562491
445297330.0 0.0774420808 -0.0896736507 0.0001521736 8.94935e-05 0.0001251284 -2.43319e-05 -0.5204698673 0.6684971708
450297300.0 0.0762966466 -0.0906691008 -8.71962e-05 -4.60388e-05 0.0003227103 0.0001741611 -0.5132182334 0.6741045266
455297270.0 0.0744958549 -0.091362002 0.0001920761 0.0001648383 9.22415e-05 0.0001707719 -0.5064383448 0.6789621013
460297240.0 0.0735927715 -0.0922135451 0.0001977295 0.0002368377 0.0003037301 0.0002447827 -0.4997737419 0.684097607
465297210.0 0.0721712756 -0.0931041072 7.99693e-05 0.0001657752 0.0002580095 7.79254e-05 -0.4918160835 0.689405436
470297180.0 0.0709797958 -0.0937597669 0.0001604869 0.000218725 0.0001712743 0.0002694766 -0.4845573649 0.6946276304
475297150.0 0.0695502805 -0.0947056706 4.08537e-05 -0.0002201352 0.0002565336 0.000270399 -0.4774756534 0.6983467025
480297120.0 0.0681605933 -0.0951944203 0.0002413365 3.5219e-05 0.000341696 0.00023209 -0.4703035377 0.7036088725
485297090.0 0.0667701182 -0.0960696131 0.00045006 -2.06633e-05 0.0003335371 0.0004364534 -0.4634151665 0.7086234195
490297060.0 0.0651159755 -0.0963909084 4.54874e-05 1.71645e-05 0.0004342859 0.0003754112 -0.4555530958 0.7127349762
495297030.0 0.0638531034 -0.0974451861 0.0004019664 -0.0001590026 0.0002125258 5.84699e-05 -0.4488551272 0.7173461716
500297000.0 0.0628383428 -0.0981397236 0.0002184949 9.88011e-05 0.0003688476 0.0001504327 -0.4413550765 0.7228073723
505296970.0 0.0612964262 -0.0989519468 0.000304805 -0.0001575822 0.0002999783 0.0001305925 -0.4335756927 0.7263546791
510296940.0 0.0596092099 -0.0996835365 0.0002682194 0.0002942673 0.0003011935 -8.36252e-05 -0.4260186905 0.7312312446
515296910.0 0.058792675 -0.0999264415 0.0001091859 0.0001953887 0.0002335736 0.0002280406 -0.4189339323 0.7351181083
520296880.0 0.0571561177 -0.1008110979 0.0004629529 0.0001888475 0.0003529933 0.0002093908 -0.4112267505 0.7388874225
525296850.0 0.0557902585 -0.1015197557 0.0001914028 0.0002027414 0.0005536471 8.53894e-05 -0.4040464815 0.7436614764
530296820.0 0.0542513492 -0.1019129268 0.0005027488 -4.5056e-05 0.0004512647 5.799e-07 -0.3964628214 0.7475974038
535296790.0 0.0528142452 -0.1021941373 0.0002810668 0.0002747547 0.0002101991 0.0001234926 -0.3891585595 0.7519460464
540296760.0 0.0512175738 -0.1028513696 0.0004506588 -9.70126e-05 0.0003928722 0.0001678151 -0.3810764644 0.7557056928
545296730.0 0.0499006001 -0.1032394669 0.0002140827 3.31685e-05 0.0002679055 -1.83118e-05 -0.373075802 0.7593993751
550296700.0 0.048836464 -0.1036832727 0.0001349017 0.0001373889 0.000350491 2.33616e-05 -0.3659821463 0.7631236494
555296670.0 0.0468702441 -0.1042465428 0.0001224929 0.0001283866 0.0003545949 -0.0001713033 -0.3576763493 0.7672298994
560296640.0 0.0458035837 -0.104397841 4.48976e-05 -4.60645e-05 0.0004447002 7.59515e-05 -0.350491652 0.7707379741
565296610.0 0.0440356598 -0.1048494543 0.0003406866 9.19996e-05 0.0003985129 0.0001142853 -0.3427315032 0.7739800319
570296580.0 0.0425643 -0.1052928679 0.0003701082 0.0001712523 0.0005150385 6.82303e-05 -0.3349519514 0.7773895373
575296550.0 0.0408872102 -0.1053646732 0.0003751034 0.0001010078 0.000375571 0.0002144272 -0.3267152601 0.7806524021
580296520.0 0.0400789378 -0.1061834858 0.0002255923 7.6435e-06 0.0002537626 0.0001521169 -0.3181179954 0.7835607958
585296490.0 0.0381328577 -0.1065990233 0.0005077368 -6.71965e-05 0.0001721166 4.2999e-06 -0.3101646601 0.7875342329
590296460.0 0.0370612423 -0.1065200833 0.0001923891 1.25969e-05 0.0003741446 0.0002043228 -0.3029887211 0.7902677597
595296430.0 0.0355175801 -0.1069226261 0.0002816509 7.73849e-05 0.0005105844 3.46457e-05 -0.2947841635 0.7926729104
600296400.0 0.033706657 -0.1071958747 0.0002078295 -9.87082e-05 0.0003405099 0.0002140677 -0.2868245806 0.7952706899
605296370.0 0.0325518069 -0.1073194155 0.000250859 5.87903e-05 0.0002679635 0.000152413 -0.2778612979 0.798599831
610296340.0 0.0311126805 -0.1076704043 0.0003728845 0.0001668472 0.0004538995 8.57828e-05 -0.2702991845 0.8007997354
615296310.0 0.0295806518 -0.107989448 0.0005313707 6.57599e-05 0.0003675964 0.0002317815 -0.2615612779 0.8033525479
620296280.0 0.0281195802 -0.1081636215 0.0002768802 -0.0001026217 0.0002334213 0.000163552 -0.2541483393 0.8058654703
625296250.0 0.0265046098 -0.1084343495 0.0005448767 -5.8512e-05 0.0003496363 9.55949e-05 -0.2450757288 0.80793676
630296220.0 0.0255343856 -0.1088044688 0.0003096994 -0.0002276582 0.0004569827 -6.25489e-05 -0.2375097775 0.8106668997
635296190.0 0.0235734007 -0.108612762 0.0003770748 -3.50665e-05 0.0003012769 1.22659e-05 -0.2294343108 0.8127509292
640296160.0 0.0225154646 -0.1088426541 0.0002787583 -3.23939e-05 0.0001710099 0.0001412712 -0.2209356728 0.8155215733
645296130.0 0.0211376283 -0.1087857379 0.0004861298 -1.90784e-05 0.0003741224 0.0001698356 -0.2130923787 0.8175832836
650296100.0 0.0195383528 -0.1085625098 0.0001721707 -7.0146e-06 0.0003019158 5.61897e-05 -0.2044598951 0.8190813917
655296070.0 0.0182650412 -0.1088627506 0.000526338 -1.34336e-05 0.0005640186 1.87598e-05 -0.1960953684 0.8215063878
660296040.0 0.0164431576 -0.1089337373 0.0003621919 1.01479e-05 0.0004213135 1.6673e-05 -0.1873634828 0.8233399587
665296010.0 0.0152041988 -0.1091742158 0.0005626249 -1.28454e-05 0.0002620432 -1.15616e-05 -0.17896961 0.8252546258
670295980.0 0.0134325705 -0.108851237 0.0003281668 -0.0001493962 0.0005482966 -8.32532e-05 -0.1712771697 0.8264519253
675295950.0 0.0120649777 -0.1087427087 0.0002670918 -0.0001120482 0.0005319007 8.06699e-05 -0.1632694486 0.8284752084
680295920.0 0.0109448962 -0.1088910704 0.0003967628 1.75407e-05 0.0003313359 0.0003107227 -0.1547859621 0.8309911795
685295890.0 0.0095270253 -0.1086574418 0.0002565238 4.7949e-05 0.0003928626 0.0002630935 -0.1459539403 0.8313055648
690295860.0 0.0079807112 -0.108447116 0.000245664 9.45987e-05 0.0004752101 0.00017718 -0.1383117889 0.8338172555
695295830.0 0.0064450455 -0.108592108 0.0004982293 7.06847e-05 0.000278759 0.0001004716 -0.1293459298 0.834299099
700295800.0 0.0049759386 -0.1084437627 6.62818e-05 8.44089e-05 0.0002497023 5.8945e-06 -0.1218943522 0.8361055542
705295770.0 0.0034027266 -0.1079076812 0.0005112868 -2.55758e-05 0.0003733654 -0.0003151045 -0.1131053676 0.8384302415
710295740.0 0.0021857609 -0.1079167044 0.0006016665 -0.0001424758 0.0003301476 9.8859e-05 -0.1045223658 0.8385250068
715295710.0 0.0003778628 -0.1080608057 0.0003547499 -7.08533e-05 0.0004120298 -0.0001763305 -0.0961695011 0.8390214305
720295680.0 -0.0007723202 -0.1077376713 0.0006255403 -9.71835e-05 0.000277442 0.0001629555 -0.0875797687 0.8409576685
725295650.0 -0.0022247956 -0.1073469727 0.0004651543 -4.41884e-05 0.0002911922 -0.0001599962 -0.0797781174 0.841999716
730295620.0 -0.0036196718 -0.1066534166 0.0003898121 -0.000144837 0.0005197889 6.80124e-05 -0.0721224417 0.8423445794
735295590.0 -0.0050354496 -0.1066546127 0.0001515471 0.0001502537 0.0003231492 -6.70669e-05 -0.0633373199 0.8425246608
740295560.0 -0.0063487119 -0.1064046674 0.0004867332 2.20079e-05 0.0003842973 -0.00016685 -0.0541448648 0.8437547782
745295530.0 -0.0080065148 -0.1061268847 0.0005214192 -0.0001877802 0.0003488027 -0.0001163705 -0.0455930162 0.8440399032
750295500.0 -0.0090471933 -0.1059054147 0.0003926279 6.14311e-05 0.0004743334 4.34812e-05 -0.0375226823 0.8442532327
755295470.0 -0.0107682073 -0.1054782066 0.0005020579 6.55641e-05 0.0004933332 -8.40872e-05 -0.0293174066 0.8442193258
760295440.0 -0.0121668936 -0.1051895764 0.0004566733 8.4873e-06 0.0001752803 0.000184685 -0.0209937186 0.8445778275
765295410.0 -0.0132409093 -0.104790342 0.0006933925 -0.0001476253 0.0004346255 -6.46879e-05 -0.0123231227 0.8451191218
770295380.0 -0.0147454551 -0.1045958322 0.0005717247 3.79748e-05 0.0004519842 -0.0002327842 -0.0039777532 0.8444579442
775295350.0 -0.0166123434 -0.104160998 0.0004782055 -6.18507e-05 0.0004354952 -6.73239e-05 0.0041335726 0.8443196816
780295320.0 -0.0174249671 -0.1035360801 0.0003468863 -0.0002249854 0.0003437929 -0.0001396711 0.0128351221 0.8443651353
785295290.0 -0.0190134319 -0.1036683331 0.0004862685 6.64475e-05 0.0004635712 -0.0002427167 0.0213520091 0.8438206565
790295260.0 -0.0200019337 -0.1027341253 0.0003893723 -0.0001940192 0.0003750639 -3.9538e-05 0.0299192418 0.8438674237
795295230.0 -0.02147816 -0.1021851472 0.0005171314 -4.87995e-05 0.0002005686 -3.00013e-05 0.0389615805 0.8426748576
800295200.0 -0.0231181558 -0.1017360176 0.0003206606 0.000115498 0.0002015176 -0.0001839457 0.0472869377 0.8429785624
805295170.0 -0.0242216134 -0.101362573 0.000449727 0.0001188015 0.0005766223 -4.55937e-05 0.0546473645 0.8426189229
810295140.0 -0.025204562 -0.1008823695 0.0005028066 -0.0002491656 0.0006394943 -5.5717e-05 0.0639208537 0.8413768433
815295110.0 -0.027183345 -0.1003768796 0.0004415134 -0.0001326256 7.15164e-05 -7.78816e-05 0.071871812 0.8409044724
820295080.0 -0.0279854678 -0.0995044654 0.000362469 -0.0003089466 0.0004665514 -0.0004813454 0.0803792993 0.8404741846
825295050.0 -0.0291877892 -0.0993484317 0.0005458238 -3.50662e-05 0.0003695615 -1.91294e-05 0.0885162869 0.8397102093
830295020.0 -0.0306702477 -0.0988013074 0.0005060075 7.71707e-05 0.000600304 -5.055e-06 0.0980233606 0.838591309
835294990.0 -0.0320683996 -0.0978219647 0.0002843928 -0.0001925829 0.0005879943 -0.0001383417 0.1055850992 0.8383001696
840294960.0 -0.0333794606 -0.0972523785 0.0005523511 -0.0001571767 0.000336215 -0.000105784 0.1140464446 0.8364813235
845294930.0 -0.0346600844 -0.0967580715 0.0002340205 1.93696e-05 0.0004030369 -0.0003276573 0.1219189386 0.8345054277
850294900.0 -0.03544193 -0.095868682 0.0003795316 -6.27155e-05 0.0003254211 0.0001891498 0.1302330153 0.8340127281
