!Created with skrf (http://scikit-rf.org).
# Hz S RI R 50.0 
!freq ReS11 ImS11 ReS21 ImS21 ReS12 ImS12 ReS22 ImS22
300000.0 -0.0943676172 -0.1049377329 0.6231515849 0.0960244758 0.6201316414 0.0969421498 -0.0957920133 -0.1089346586
5299970.0 -0.101526364 0.0108369614 0.6303817495 0.0113956156 0.6308467703 0.0114859776 -0.1013598683 0.011128686
10299940.0 -0.0969089448 0.0286658311 0.6346847213 0.0160535227 0.6342956716 0.0168637986 -0.0960520045 0.028521615
15299910.0 -0.0891097021 0.0424115712 0.6408305088 0.0211237686 0.6408145701 0.0212718673 -0.0897812267 0.0417994017
20299880.0 -0.0801918524 0.0533854677 0.6488583531 0.0240321715 0.6489455783 0.0243629369 -0.0809219343 0.0531773994
25299850.0 -0.0703430083 0.0623672972 0.6584543861 0.0260571974 0.6582347686 0.025579312 -0.0714244147 0.0619197866
30299820.0 -0.0607795084 0.0686687218 0.6681176365 0.0249141722 0.6680575573 0.0244407779 -0.0615093526 0.0684566169
35299790.0 -0.0503902285 0.0734763597 0.6769074718 0.0220724271 0.6769278702 0.0219130998 -0.0522422927 0.0735747271
40299760.0 -0.041169958 0.076260377 0.6868954234 0.017571596 0.6866425577 0.017787218 -0.0426029154 0.0769077261
45299730.0 -0.0320146563 0.078377516 0.6959745523 0.0127654193 0.6959872647 0.0117503321 -0.0329618506 0.0789805073
50299700.0 -0.0226672974 0.0789804243 0.7038465688 0.0049862789 0.7038526689 0.0052359883 -0.0243672543 0.0804646873
55299670.0 -0.0150683951 0.0787973407 0.7111610305 -0.0024856503 0.7108159414 -0.0023712551 -0.0172779931 0.0804050816
60299640.0 -0.0076632848 0.0786775154 0.7177653857 -0.0108587201 0.7183693435 -0.0111772326 -0.0096313736 0.0795360014
65299610.0 -0.0013010424 0.0772289734 0.7242156646 -0.0194020219 0.7239259004 -0.0198151523 -0.00249257 0.0783328391
70299580.0 0.0054138861 0.0751392147 0.7288653418 -0.0289073945 0.7289852566 -0.0288891054 0.0032771275 0.0773565809
75299550.0 0.0103357492 0.073305719 0.7338235972 -0.03899438 0.7333734858 -0.0387501122 0.0086256147 0.0754347771
80299520.0 0.0156463184 0.0711478106 0.7375726485 -0.0483576817 0.7380958969 -0.0484653887 0.0138300767 0.0735062198
85299490.0 0.0202052886 0.0691948961 0.7412228991 -0.0585441611 0.7410606115 -0.0583446241 0.0182059981 0.0711801844
90299460.0 0.0241489944 0.0665846806 0.743511717 -0.0685084149 0.7434137683 -0.068198063 0.022375672 0.0694231828
95299430.0 0.028000072 0.064135573 0.7456314353 -0.0786503231 0.7464667055 -0.0790576425 0.0260379277 0.0665083945
100299400.0 0.0314534027 0.0616241935 0.7470720963 -0.0885524704 0.7479776453 -0.0888929394 0.0293929691 0.0645110359
105299370.0 0.0345564781 0.0591989431 0.7490868736 -0.0989969614 0.7497284152 -0.0988765718 0.0328218694 0.0616219849
110299340.0 0.0373151261 0.0562732024 0.7502244212 -0.1084805783 0.7509131654 -0.1084823186 0.035117036 0.0594846848
115299310.0 0.0395447091 0.0543445436 0.7518461624 -0.1190239409 0.7514334184 -0.1189806694 0.0375173566 0.0577103754
120299280.0 0.0414998351 0.0521254367 0.7520779529 -0.1295677688 0.7515560492 -0.1291954857 0.0400752728 0.0546357891
125299250.0 0.044145858 0.0496976751 0.7521948598 -0.1393556522 0.7521440888 -0.1389987655 0.0422340033 0.0527740602
130299220.0 0.0458002497 0.0471147777 0.7522527204 -0.1492023828 0.7517121178 -0.1495539259 0.0439531359 0.0508309391
135299190.0 0.046888547 0.0454129517 0.7520910681 -0.1583600626 0.7520603885 -0.1588405724 0.0457057763 0.0482164037
140299160.0 0.0488673147 0.0431516063 0.7513278488 -0.1686963176 0.7513793759 -0.1684763556 0.04634827 0.0456569377
145299130.0 0.0496101168 0.0411322542 0.7501953778 -0.1781675707 0.7501527005 -0.1779675331 0.0480421347 0.0437337594
150299100.0 0.0509039632 0.0390596743 0.7493047276 -0.1883535905 0.7494218685 -0.1879179953 0.0494798006 0.0422191676
155299070.0 0.0527329043 0.0370569031 0.7477282529 -0.1975797971 0.7482424342 -0.1979379386 0.0505886024 0.0396914332
160299040.0 0.0532012375 0.0354168002 0.7467762762 -0.2069228968 0.7467639297 -0.2071058171 0.0511813776 0.0382740999
165299010.0 0.0544557098 0.0333535894 0.7451832947 -0.2165501487 0.7451731762 -0.2165715525 0.0526035811 0.0359567548
170298980.0 0.055208438 0.0317811844 0.7429570998 -0.2260389185 0.743571105 -0.2260113924 0.052813142 0.034256205
175298950.0 0.0561418405 0.0302665421 0.7421042671 -0.23525959 0.7417099968 -0.2357407378 0.0534231574 0.0327259646
180298920.0 0.056425248 0.0288762741 0.7393748584 -0.2448884137 0.7395421644 -0.2449110607 0.0542928168 0.0310393359
185298890.0 0.0567624039 0.0272657062 0.7381616435 -0.2534473015 0.7373459414 -0.2535548547 0.0554476138 0.02902468
190298860.0 0.0579425487 0.0255443255 0.734578866 -0.2626621226 0.7349484566 -0.2625239422 0.0554231711 0.0275290627
195298830.0 0.0577949019 0.0240621622 0.7328036825 -0.2715967654 0.7325468033 -0.2716541653 0.0559448496 0.0260703574
200298800.0 0.0586060882 0.0223495779 0.7299603535 -0.2809215936 0.7297022633 -0.2809834378 0.0566277687 0.0241776773
205298770.0 0.058265295 0.0203835623 0.7268432107 -0.2897350383 0.7273013585 -0.2889477017 0.0570700118 0.022693775
210298740.0 0.0587810137 0.0198625957 0.7244348081 -0.2980784641 0.7235022637 -0.2984856995 0.0568267102 0.0207792113
215298710.0 0.0595348243 0.0186860483 0.7209305126 -0.3065096298 0.7206860523 -0.3070928725 0.0573590174 0.0199612949
220298680.0 0.0596601238 0.0174538042 0.7171291662 -0.3156923791 0.7175490323 -0.3160554043 0.0577353921 0.0182868173
225298650.0 0.059822452 0.015943673 0.7140225426 -0.3236613677 0.7145293142 -0.3240291933 0.057585946 0.0165237629
230298620.0 0.060357202 0.0150640767 0.7116545818 -0.3325226461 0.7110071201 -0.3327767862 0.0574437486 0.0153104508
235298590.0 0.0596311912 0.0136713249 0.7082346407 -0.3416134601 0.7076931749 -0.3412126313 0.05790112 0.0142429848
240298560.0 0.0603430404 0.0128392142 0.7041096146 -0.349457459 0.7037931895 -0.3494390119 0.05794316 0.0128314519
245298530.0 0.0605006039 0.0111851998 0.7004985757 -0.3583471789 0.7005240849 -0.3581782433 0.0579208714 0.0120599921
250298500.0 0.0601550468 0.0102021459 0.6967745465 -0.3655136386 0.6965232456 -0.3657558156 0.0579640659 0.0107993261
255298470.0 0.0604972484 0.0095036862 0.6931009299 -0.3740238053 0.6934636126 -0.3740679239 0.0580972039 0.0100318033
260298440.0 0.0607089897 0.0082700997 0.6897730078 -0.3816830685 0.6892984237 -0.3821507681 0.0577957631 0.0081559246
265298410.0 0.0600817868 0.0073836685 0.6844222068 -0.3907319288 0.6846459625 -0.390543154 0.0588310869 0.0066917495
270298380.0 0.0601116524 0.0061679587 0.6805888196 -0.3986945003 0.6808682451 -0.3982426586 0.0584465648 0.0061865261
275298350.0 0.0604547235 0.0056105577 0.6756490066 -0.4055397762 0.6756962092 -0.4057154334 0.0578030795 0.0051072114
280298320.0 0.0597193824 0.0043660713 0.6721721534 -0.41385299 0.6718613671 -0.4139580737 0.0584645608 0.0039243969
285298290.0 0.0597334337 0.0033390912 0.6671647001 -0.4216133335 0.6677100361 -0.4215305084 0.0581436389 0.0028317252
290298260.0 0.0599755866 0.0026489091 0.6635678132 -0.4297569406 0.6632280589 -0.4295949719 0.0584643277 0.0019068246
295298230.0 0.059896107 0.0011204096 0.6585345478 -0.4379873325 0.6585689198 -0.4377978542 0.0583413366 0.0006966907
300298200.0 0.0599698033 0.0007878406 0.6537525039 -0.4451085744 0.65382838 -0.4451639973 0.057970279 -0.0005276381
305298170.0 0.0601258312 -0.000765244 0.6494204774 -0.4533147283 0.6490667502 -0.4530378627 0.0577687636 -0.0021173627
310298140.0 0.0604496978 -0.0017301987 0.6443887057 -0.4603687157 0.6442140316 -0.4600431649 0.0582732613 -0.0034899807
315298110.0 0.0596775559 -0.0033010317 0.639496125 -0.4683070084 0.6388698584 -0.468707517 0.057819593 -0.0043387911
320298080.0 0.0594250038 -0.0039127315 0.6330319887 -0.4760304693 0.6346614152 -0.4760509367 0.0572887261 -0.005361119
325298050.0 0.0586825454 -0.0054218061 0.6286862834 -0.4828160752 0.6290871699 -0.4834930416 0.0571562961 -0.0065311099
330298020.0 0.0575356302 -0.0058803225 0.6222588156 -0.4905024291 0.6230885475 -0.4907464722 0.0560688017 -0.007787718
335297990.0 0.0576685019 -0.0068007826 0.6172742803 -0.4970539184 0.6176410951 -0.4977852124 0.0557984793 -0.0084940315
340297960.0 0.0570385304 -0.0077297807 0.6112694632 -0.5051740166 0.6111993637 -0.5047118355 0.0552970085 -0.0091843875
345297930.0 0.0562605986 -0.0083438194 0.6062154838 -0.5117841362 0.6059208732 -0.5117455261 0.0551641471 -0.01052006
350297900.0 0.0557689591 -0.0091311309 0.6001192151 -0.5178960659 0.6002466677 -0.5181861702 0.0545853558 -0.0112933042
355297870.0 0.0555022384 -0.0094515699 0.5945782829 -0.5247479888 0.594257581 -0.5246412737 0.0546102484 -0.0119574681
360297840.0 0.0550957108 -0.0101710479 0.588138797 -0.5313705718 0.5882614912 -0.5316287151 0.0536041581 -0.0121195097
365297810.0 0.0545750442 -0.0110502112 0.5821527396 -0.5378648692 0.582516748 -0.5382469038 0.0529532012 -0.0130880249
370297780.0 0.0545441027 -0.01141195 0.5759715066 -0.5443933496 0.5761847521 -0.5446393484 0.053145759 -0.0140842568
375297750.0 0.0541224421 -0.0121502019 0.5708475196 -0.5504849854 0.5707714343 -0.5515095165 0.0528519892 -0.0146570333
380297720.0 0.0534109706 -0.01265133 0.5645238753 -0.5577132221 0.563915639 -0.5572199811 0.0521982936 -0.0149388669
385297690.0 0.0530621611 -0.013658839 0.5581716339 -0.5633070618 0.5583177489 -0.5638755827 0.0521323644 -0.0153832204
390297660.0 0.0530237468 -0.014255145 0.5521507411 -0.5697694184 0.5525012216 -0.5697897398 0.0519736368 -0.016658784
395297630.0 0.0531808622 -0.0150468298 0.5464896716 -0.5748940272 0.5461005172 -0.5757020955 0.0513816507 -0.0167061215
400297600.0 0.0523444694 -0.0156396954 0.539563062 -0.5822818527 0.5400819833 -0.5818362335 0.051286368 -0.0171320206
405297570.0 0.0519389356 -0.0168224587 0.5331494209 -0.5877513659 0.5333985296 -0.587469642 0.0506947951 -0.0175823555
410297540.0 0.0514407593 -0.0165826824 0.5266610685 -0.5935904041 0.5270979744 -0.5940435931 0.0504904489 -0.0183529767
415297510.0 0.0508860114 -0.0176224783 0.5196024261 -0.5991957565 0.5209197346 -0.6001302654 0.0506767599 -0.0189923689
420297480.0 0.0507809561 -0.018349288 0.5131761791 -0.605273717 0.5139769556 -0.6055835593 0.0504752876 -0.0192446438
425297450.0 0.050754661 -0.0186473049 0.5070966687 -0.6102272852 0.5066773649 -0.6110946691 0.0496128172 -0.0204238721
430297420.0 0.0499010528 -0.0193141277 0.5007722922 -0.61673835 0.5007409567 -0.6163793457 0.0499581319 -0.0206874176
435297390.0 0.0498817672 -0.0202615164 0.4930006384 -0.6228061386 0.493405522 -0.6221734673 0.0488427734 -0.0211036554
440297360.0 0.0496416359 -0.0210923871 0.4864412782 -0.6282475601 0.4862424662 -0.6279715404 0.048508407 -0.0216967166
445297330.0 0.049385286 -0.0219492298 0.4802465484 -0.6326988343 0.4797794478 -0.6331618356 0.0481531092 -0.0219219766
450297300.0 0.0491809545 -0.022172967 0.4726602572 -0.6381775974 0.4731783879 -0.6378296515 0.0482129678 -0.0225705859
455297270.0 0.047788804 -0.0227414523 0.4660813688 -0.6434721476 0.4657959144 -0.6436374004 0.0478168917 -0.0232563553
460297240.0 0.0481213841 -0.0232267726 0.4590919258 -0.6491835127 0.4583255176 -0.6491091446 0.0475871159 -0.023936587
465297210.0 0.0477982603 -0.0241122352 0.450567264 -0.6535911856 0.4509861844 -0.6541871824 0.0476094475 -0.0236443389
470297180.0 0.0471497025 -0.025070531 0.4443258161 -0.658356621 0.4447335328 -0.6587906652 0.0471684285 -0.0249905239
475297150.0 0.0464710702 -0.025165701 0.4366255407 -0.6639672976 0.4373143117 -0.663861599 0.0465178868 -0.0253824026
480297120.0 0.0467404438 -0.0251186328 0.429789047 -0.6680752283 0.4297696967 -0.6683738183 0.0459296504 -0.0259137759
485297090.0 0.046173818 -0.0267129735 0.4223134533 -0.6728615493 0.422272046 -0.673255501 0.0453495443 -0.0260174895
490297060.0 0.0461341787 -0.0265395877 0.4145148451 -0.6777901707 0.4145030349 -0.6779215058 0.0451543924 -0.0270012957
495297030.0 0.0451217817 -0.0278332705 0.40726545 -0.6824869198 0.4075698096 -0.6825737255 0.0455253983 -0.0277340578
500297000.0 0.0448706331 -0.02747902 0.4001638355 -0.6864833042 0.4001215239 -0.6869775738 0.0448549639 -0.0276640589
505296970.0 0.0448488047 -0.0283592086 0.3926643386 -0.691514365 0.3926802383 -0.6907883086 0.0444160922 -0.0290488567
510296940.0 0.0443536182 -0.0290377877 0.3849031146 -0.6964713688 0.3857737754 -0.696028874 0.0442996131 -0.0287886672
515296910.0 0.0438614167 -0.029115827 0.3764329231 -0.6996560232 0.3766592133 -0.7002495405 0.0438584313 -0.0299991677
520296880.0 0.0434610803 -0.0293084752 0.3698036476 -0.7035625194 0.3691826367 -0.7038335679 0.0435650288 -0.0294830397
525296850.0 0.0432411367 -0.0304149336 0.362122891 -0.7079822445 0.3614798785 -0.7079753223 0.0435236097 -0.0303109637
530296820.0 0.0426062237 -0.0310817828 0.3538197031 -0.7117322566 0.3540446538 -0.7118450708 0.043019594 -0.0312527722
535296790.0 0.0428704877 -0.0310253822 0.3460473202 -0.7155316854 0.3463314227 -0.7156900364 0.0429276779 -0.0311414428
540296760.0 0.042309654 -0.0313312345 0.3378961673 -0.7194234028 0.3382967789 -0.7189586146 0.0421358855 -0.0322584315
545296730.0 0.0410213039 -0.0319540373 0.3300132723 -0.72318819 0.3297110476 -0.7228096772 0.041933293 -0.0322877784
550296700.0 0.0415719633 -0.0323794576 0.3222479342 -0.7267930964 0.3221163119 -0.7270291817 0.0419513964 -0.0329904146
555296670.0 0.0409329125 -0.0328450571 0.3146587948 -0.7305361856 0.3147345435 -0.73048825 0.040943841 -0.0339617005
560296640.0 0.0411117185 -0.0330940253 0.3058998489 -0.7335853216 0.3068443323 -0.7336409103 0.0404400939 -0.0335463852
565296610.0 0.0397833001 -0.0335168253 0.2985910813 -0.7369402155 0.2988515218 -0.7366708134 0.0404338997 -0.0340430936
570296580.0 0.039417706 -0.0340129068 0.290142283 -0.7402314029 0.29049897 -0.7405257646 0.0397067527 -0.035034459
575296550.0 0.0392471966 -0.0342170865 0.2828079594 -0.7433156123 0.2822508135 -0.7433587798 0.0389871814 -0.0350861701
580296520.0 0.0389179857 -0.0343146132 0.2743109289 -0.7468294732 0.2739966016 -0.7469099876 0.0384505004 -0.0355155016
585296490.0 0.0383285342 -0.0347625367 0.2663245568 -0.7494804557 0.2657603057 -0.7488506866 0.0387908272 -0.035734108
590296460.0 0.0384326403 -0.0351902013 0.2579917592 -0.7526176296 0.2576827862 -0.7524684129 0.0374368043 -0.0358333831
595296430.0 0.037801174 -0.0353957444 0.2491159209 -0.7550612181 0.2492935938 -0.755322288 0.0373321354 -0.0370938798
600296400.0 0.0374924656 -0.0355585158 0.2408505132 -0.7578129946 0.2410886876 -0.7580277363 0.0371102633 -0.0372334516
605296370.0 0.0361708127 -0.0357590926 0.2331871911 -0.7603314208 0.2322850141 -0.7607751859 0.0361714954 -0.0375888119
610296340.0 0.036341433 -0.0355698183 0.2244591508 -0.76195569 0.2248151035 -0.7622271672 0.0354034224 -0.0376668781
615296310.0 0.0361901202 -0.0363306353 0.2162361663 -0.7652131891 0.2159075889 -0.7653920378 0.0352647659 -0.037643457
620296280.0 0.0349273737 -0.0359541398 0.2078701126 -0.7680353288 0.2074775827 -0.7674272972 0.0342578718 -0.0380311352
625296250.0 0.0345679534 -0.0367958665 0.1991835894 -0.7699318049 0.1995218397 -0.7702555436 0.0335418858 -0.0385870648
630296220.0 0.034316859 -0.0366675896 0.190376805 -0.7722301224 0.1904842291 -0.7716371078 0.0338081632 -0.038656509
635296190.0 0.0333291912 -0.0367727568 0.182412793 -0.7735855654 0.1824014411 -0.7738701818 0.0330603295 -0.0391557296
640296160.0 0.0329321104 -0.0370857084 0.1738448247 -0.7764299993 0.1736933147 -0.7761533923 0.031687244 -0.0395263425
645296130.0 0.032918919 -0.0367440598 0.1651285771 -0.7773342793 0.1655809034 -0.7776023625 0.0313395904 -0.0402615137
650296100.0 0.0322939977 -0.0375117781 0.1572551707 -0.7798304782 0.1572104513 -0.7801125471 0.0320112598 -0.0404744577
655296070.0 0.0317759175 -0.0375099871 0.1482246382 -0.7812944155 0.1482121817 -0.7808261946 0.0304136173 -0.0402487958
660296040.0 0.0314509245 -0.0375054021 0.1397472405 -0.7828503223 0.1402746467 -0.7828822925 0.0296786415 -0.0411800687
665296010.0 0.0308893885 -0.0377761952 0.130702879 -0.7837400197 0.1311470274 -0.7837015892 0.0294846914 -0.0409112468
670295980.0 0.0303613109 -0.0377324921 0.1227027051 -0.7857968165 0.1227359994 -0.7853674581 0.0283645645 -0.0414381036
675295950.0 0.0294632429 -0.0378004812 0.1138388059 -0.786445293 0.1144799944 -0.7870143072 0.0278203334 -0.0412962234
680295920.0 0.0288899094 -0.0382077062 0.1056523735 -0.7876994711 0.106131013 -0.7877976744 0.0277737739 -0.0419752786
685295890.0 0.0286877212 -0.0381651817 0.0964805071 -0.7890781469 0.0976477489 -0.7891574803 0.0272295551 -0.0415459092
690295860.0 0.0274419721 -0.0380112661 0.0883959692 -0.7898366313 0.0880697143 -0.7905865019 0.0261722248 -0.0421822455
695295830.0 0.0275397436 -0.0386628822 0.0802627758 -0.7911110458 0.0797480078 -0.7910055409 0.0254173978 -0.0419106025
700295800.0 0.026725616 -0.0383197838 0.0717135286 -0.791734832 0.0715356223 -0.7920886394 0.0248327043 -0.0419887055
705295770.0 0.0257373691 -0.0381455191 0.0626363081 -0.7931017906 0.0626921949 -0.7920921756 0.024417877 -0.0422743571
710295740.0 0.0256103362 -0.0384441341 0.0543360365 -0.79322351 0.0535522354 -0.7936088576 0.0240348692 -0.0419226896
715295710.0 0.024888964 -0.0381276198 0.045367367 -0.7933471933 0.0456845013 -0.7938348849 0.0232171545 -0.0426403657
720295680.0 0.0248632813 -0.0382806555 0.0364088513 -0.7943338107 0.0369359179 -0.7944616409 0.0225526041 -0.0428528819
725295650.0 0.0230929519 -0.0382794995 0.028162487 -0.7946774864 0.0283582323 -0.7945074935 0.0214999059 -0.0422850432
730295620.0 0.0223525026 -0.0386065633 0.0194266561 -0.7944493479 0.0194645101 -0.7938385015 0.0208830819 -0.0422093991
735295590.0 0.0227064284 -0.0386231929 0.0111562505 -0.7952216167 0.0111334339 -0.7946567518 0.0202934699 -0.0429365464
740295560.0 0.021828224 -0.0387285089 0.0024381343 -0.7952126939 0.0028989483 -0.7955755075 0.0189927203 -0.0424408202
745295530.0 0.0210479954 -0.0384452454 -0.0065358678 -0.7938258212 -0.0053045464 -0.7947070811 0.0182025316 -0.042828937
750295500.0 0.0198531332 -0.0383939132 -0.0143317826 -0.7946570083 -0.0152572127 -0.7941277602 0.017906244 -0.0426472678
755295470.0 0.0191689822 -0.0382606286 -0.0233390348 -0.7945914989 -0.0230998276 -0.7945709233 0.0176343091 -0.0422462242
760295440.0 0.0189649095 -0.0379096284 -0.0327477716 -0.7943363869 -0.0320406764 -0.7935984955 0.0170264451 -0.0434817877
765295410.0 0.0187193997 -0.0385134811 -0.0404810744 -0.7937971792 -0.0404386661 -0.7935151164 0.0160735944 -0.0427209127
770295380.0 0.0180062549 -0.0381976514 -0.0492342492 -0.7922721076 -0.0491213824 -0.7936729272 0.0149850651 -0.0426674187
775295350.0 0.0171737752 -0.0385464398 -0.0579622632 -0.7925910185 -0.0577292859 -0.7919871706 0.0152509007 -0.0424772611
780295320.0 0.0163177016 -0.038239219 -0.0663645274 -0.7914503595 -0.0659935907 -0.7918683025 0.0144418521 -0.0429439679
785295290.0 0.0157461444 -0.0384985128 -0.0747835085 -0.7909040324 -0.0749060694 -0.7910248862 0.0129051423 -0.0420364732
790295260.0 0.0154377375 -0.0383365006 -0.083420749 -0.7907099099 -0.0833112705 -0.7905160583 0.0124547885 -0.0417374256
795295230.0 0.0146610599 -0.0388304133 -0.0923373164 -0.7902941405 -0.0919677754 -0.7891888569 0.0122880198 -0.0432117539
800295200.0 0.0134410834 -0.0381434612 -0.0999115001 -0.7879787358 -0.1005692026 -0.7878933658 0.011309633 -0.0421253167
805295170.0 0.0128984534 -0.0382052311 -0.1089958592 -0.7870334585 -0.1086335067 -0.786962099 0.0115696781 -0.0420067114
810295140.0 0.0128532929 -0.0383238834 -0.1173657335 -0.7855832326 -0.1175886561 -0.7858574574 0.0102691186 -0.0421894248
815295110.0 0.0118331448 -0.0377373974 -0.1260950732 -0.7845659401 -0.125482446 -0.784852795 0.0095269579 -0.042271064
820295080.0 0.0114576621 -0.0379432029 -0.1335861023 -0.7827500951 -0.1339695483 -0.78295974 0.0080063208 -0.0411711825
825295050.0 0.0103330459 -0.0380560158 -0.1429638219 -0.7817501781 -0.1428130157 -0.7812229819 0.0085801657 -0.0408866959
830295020.0 0.0096372045 -0.0380227948 -0.151062382 -0.7802139764 -0.1513227944 -0.7797140348 0.0079573444 -0.0418308853
