!Created with skrf (http://scikit-rf.org).
# Hz S RI R 50.0 
!freq ReS11 ImS11 ReS21 ImS21 ReS12 ImS12 ReS22 ImS22
300000.0 -0.2407999307 -0.0795585702 0.4722916809 0.0539484705 0.4692176021 0.0527738319 -0.2412769251 -0.0945238338
5299970.0 -0.2442541001 0.0067345974 0.4736505519 0.0054374509 0.4736957538 0.0052305081 -0.2439965991 0.0071380596
10299940.0 -0.2409629649 0.0187576507 0.4752954353 0.0062122858 0.4753670425 0.0063488571 -0.2406529206 0.0202631666
15299910.0 -0.2366555783 0.0278610547 0.4790296656 0.0075184572 0.4793960338 0.0075075918 -0.2363281085 0.0298137925
20299880.0 -0.2321196215 0.0354085415 0.4843925005 0.0086908026 0.4835999672 0.0082693916 -0.2311876004 0.0372568535
25299850.0 -0.226857484 0.0420620332 0.4889346969 0.0075621612 0.4889770076 0.0073460502 -0.2248495169 0.043801212
30299820.0 -0.2215939612 0.0473392939 0.4944916721 0.0053312024 0.4942608136 0.0053338676 -0.2192002672 0.049178264
35299790.0 -0.216255748 0.0514746075 0.500118598 0.0020022754 0.5000629419 0.0019465352 -0.2135166415 0.0532585852
40299760.0 -0.2117182142 0.0549371507 0.5048580998 -0.0018143243 0.5050383598 -0.0018038865 -0.208185466 0.0560492274
45299730.0 -0.2067637591 0.0574800969 0.5095395189 -0.006390674 0.5102013881 -0.0061770758 -0.2033029447 0.0588582032
50299700.0 -0.2024092188 0.059857838 0.5143712354 -0.0118097478 0.5142351578 -0.0121729504 -0.1986301686 0.0607159212
55299670.0 -0.1983224954 0.061742191 0.5180077029 -0.0180785012 0.5178884782 -0.0177727438 -0.1944781132 0.0620660534
60299640.0 -0.1943957202 0.0634880897 0.5209537844 -0.0240928123 0.5215041049 -0.0241237838 -0.1904470674 0.0631670071
65299610.0 -0.191197805 0.0649239009 0.524177875 -0.0309958983 0.5242332926 -0.0308069103 -0.1875519032 0.064148467
70299580.0 -0.188126292 0.0661465875 0.5266715503 -0.0371493175 0.5263846641 -0.0372106789 -0.1835778206 0.0649207034
75299550.0 -0.1848160025 0.0672436968 0.5283723167 -0.0442121379 0.5284951651 -0.0439272734 -0.1811782646 0.0652505886
80299520.0 -0.1823285644 0.0680817287 0.5307324674 -0.0512407224 0.5304703845 -0.0511911838 -0.1784538121 0.0660615075
85299490.0 -0.1803290138 0.0685986598 0.5318195697 -0.0572089765 0.531619104 -0.0576156011 -0.176145261 0.0662914522
90299460.0 -0.1779213953 0.0696088985 0.5325543042 -0.0645523121 0.5331307867 -0.0647067646 -0.1737788203 0.0669554127
95299430.0 -0.1754230223 0.0706811943 0.5338036445 -0.071853297 0.533805385 -0.071700879 -0.1716325553 0.0671963609
100299400.0 -0.1740200884 0.0716911615 0.5340625816 -0.0786567717 0.5339020148 -0.0787276026 -0.1692917203 0.0674716625
105299370.0 -0.1720273946 0.072460453 0.5346717053 -0.0854034352 0.5346380207 -0.0853985277 -0.1676344833 0.0680199199
110299340.0 -0.1702449218 0.0732105924 0.5346872452 -0.0921088361 0.5345272212 -0.0919771134 -0.1664464456 0.0683394315
115299310.0 -0.1688853426 0.0740876921 0.5350045481 -0.0989982365 0.5348195687 -0.098783184 -0.1645201965 0.0686269205
120299280.0 -0.1674343057 0.0745739721 0.5342267654 -0.1056386338 0.5344336112 -0.1059448234 -0.1634678691 0.0697246992
125299250.0 -0.1662267406 0.0756134072 0.5338242099 -0.1122460002 0.5342352529 -0.1123986723 -0.162436022 0.0695506939
130299220.0 -0.1651436394 0.0767880225 0.5333999573 -0.1197161292 0.5331166393 -0.1192732586 -0.1612063 0.0703098453
135299190.0 -0.1635560055 0.0779613907 0.532882629 -0.1262355251 0.5325542404 -0.1257856534 -0.1597368815 0.071154008
140299160.0 -0.1625318673 0.0789357062 0.5317862185 -0.1328702956 0.5319026479 -0.1326911721 -0.1586617308 0.0721694396
145299130.0 -0.1613953288 0.0798835899 0.5313059619 -0.1390167717 0.5308939267 -0.1392564995 -0.1577031369 0.0725001383
150299100.0 -0.1601675942 0.081193693 0.5299789691 -0.1455349314 0.5297852686 -0.1448865274 -0.1567533731 0.0737087006
155299070.0 -0.1594513604 0.0819184607 0.5287291901 -0.1526877834 0.5284475146 -0.1522479369 -0.1559776422 0.074744971
160299040.0 -0.1583458376 0.0836324116 0.527042552 -0.1586469399 0.526847312 -0.1587695487 -0.1556490603 0.0753376246
165299010.0 -0.1573280441 0.0846351742 0.5260347838 -0.1654294465 0.5258185798 -0.1653866162 -0.1541237926 0.0768523588
170298980.0 -0.1565360112 0.085697255 0.5242357847 -0.1717723006 0.5245519673 -0.1713789221 -0.1534229473 0.0777961755
175298950.0 -0.1554462879 0.0869949724 0.5229496452 -0.1778735954 0.5221406473 -0.1778481083 -0.1528142024 0.0788508317
180298920.0 -0.1546999041 0.0883330051 0.5211878263 -0.1842087475 0.5210516109 -0.1836611485 -0.152061019 0.0798519453
185298890.0 -0.1533893229 0.0895441603 0.5188501676 -0.1900959713 0.5191395527 -0.1902420237 -0.151327972 0.0810134799
190298860.0 -0.1528839748 0.0909772058 0.5175490196 -0.19659606 0.5175241131 -0.1965812894 -0.1504799742 0.0817584534
195298830.0 -0.1516389602 0.0921747352 0.5152120946 -0.2023997445 0.5153982706 -0.2025282271 -0.1495939573 0.0831207376
200298800.0 -0.1507707615 0.093592475 0.5130973228 -0.2089435955 0.5133687839 -0.2089338601 -0.1494425693 0.084193089
205298770.0 -0.1496690002 0.0950990838 0.5106348359 -0.2152808933 0.5109945998 -0.2145225315 -0.1487150841 0.0846540915
210298740.0 -0.1488761594 0.0961750193 0.5086002328 -0.2206554549 0.508801428 -0.2207023683 -0.1475538028 0.0870045422
215298710.0 -0.1482933275 0.0980052628 0.5064270641 -0.2267431281 0.5064467046 -0.2272240436 -0.1474547715 0.0878776565
220298680.0 -0.1470525998 0.0988555827 0.5035753487 -0.2324299002 0.5038933952 -0.2326948523 -0.1469435063 0.0886177019
225298650.0 -0.1460984268 0.1003409471 0.501306317 -0.2389443592 0.501539797 -0.2385626281 -0.1460194463 0.0898009597
230298620.0 -0.1450251838 0.1021458846 0.4989515491 -0.244135705 0.4992055286 -0.2441256433 -0.1453752125 0.0906028309
235298590.0 -0.1440115105 0.1037132847 0.4962327745 -0.2501099862 0.4964686406 -0.2497658563 -0.1446621034 0.0922698558
240298560.0 -0.1430751747 0.1051387007 0.4937596324 -0.2563888952 0.4936482618 -0.2556336676 -0.1437701249 0.0936338154
245298530.0 -0.1420639131 0.1063063937 0.4911086635 -0.2615725704 0.4908568531 -0.2614670138 -0.1428876502 0.0941882166
250298500.0 -0.1408988489 0.108059406 0.4872163053 -0.2672444924 0.4873934428 -0.2669118539 -0.1424600541 0.0957014292
255298470.0 -0.1398628554 0.1091007518 0.4845544222 -0.2723962881 0.4852682228 -0.2727193792 -0.1412751934 0.0967326348
260298440.0 -0.1390237322 0.1107129161 0.4820179208 -0.2786956058 0.4823706357 -0.2779542967 -0.140236545 0.0980991079
265298410.0 -0.1375854161 0.11261136 0.4789877226 -0.2842324723 0.4793281825 -0.2832620965 -0.1396292786 0.0995242417
270298380.0 -0.1367692775 0.1139053474 0.4761499425 -0.2887202202 0.4763244839 -0.2891694828 -0.1391344659 0.1007789983
275298350.0 -0.1352351667 0.1153519519 0.4725275073 -0.2946573905 0.4732661762 -0.2949392015 -0.1379108724 0.1016564619
280298320.0 -0.1339951688 0.116661165 0.4698914647 -0.3000789447 0.4698777416 -0.2996774123 -0.1367824924 0.1030494807
285298290.0 -0.1329017501 0.1183993358 0.4665661048 -0.3052626049 0.4664019309 -0.3051287168 -0.1360619999 0.1044776403
290298260.0 -0.131634002 0.1196373036 0.4629853508 -0.3102649786 0.4632146808 -0.3108278294 -0.1350092246 0.1057410917
295298230.0 -0.1301551486 0.1211354127 0.4598970226 -0.315957368 0.4597153321 -0.315853486 -0.1335715376 0.1068230655
300298200.0 -0.1293742092 0.1225517751 0.4566180945 -0.3210614601 0.4565966851 -0.3215939794 -0.1329998402 0.1081828651
305298170.0 -0.1275673537 0.1235877735 0.4519814316 -0.326458707 0.4526901939 -0.3261194865 -0.1312451035 0.1090680593
310298140.0 -0.1265868629 0.1250329981 0.4493002204 -0.3316869459 0.4496432357 -0.3314718118 -0.1306334811 0.1104042111
315298110.0 -0.1253826645 0.1262388649 0.4458809771 -0.3366455635 0.4459762962 -0.3367030989 -0.1296032465 0.111447372
320298080.0 -0.1236826329 0.1277186186 0.4413531663 -0.3420641045 0.4421555938 -0.3416974133 -0.1286969727 0.1128897357
325298050.0 -0.122433714 0.1290247321 0.4379717779 -0.3471711004 0.4378265531 -0.3468273598 -0.128055856 0.1138594567
330298020.0 -0.1213143731 0.1298737953 0.4334371037 -0.3519635069 0.4340495545 -0.3518359763 -0.1271211227 0.1151736818
335297990.0 -0.1201761343 0.1312144134 0.4298688367 -0.356603448 0.4298283446 -0.3565796029 -0.126494043 0.1168904091
340297960.0 -0.1192742311 0.133015828 0.4255813324 -0.3612445647 0.4254460534 -0.361311739 -0.1249791655 0.1179780728
345297930.0 -0.1178730826 0.1345428835 0.4217936278 -0.3665954617 0.4214737386 -0.3664867144 -0.1243169732 0.1192617598
350297900.0 -0.116418482 0.1355942833 0.4171530639 -0.3708742184 0.4173552633 -0.370808333 -0.123532092 0.1210792003
355297870.0 -0.1151930422 0.1375180782 0.4131531022 -0.3755701506 0.4134887524 -0.3752472134 -0.1225985356 0.1223940374
360297840.0 -0.1138704464 0.1387178325 0.4096053708 -0.3798710356 0.4095956816 -0.3798396906 -0.1212254277 0.1236890298
365297810.0 -0.1125071917 0.1403919891 0.404938901 -0.3845661304 0.4053556631 -0.384705736 -0.1200682712 0.1249198496
370297780.0 -0.1107330711 0.1415390616 0.4007234728 -0.3886469563 0.4010876378 -0.3881617501 -0.1190540857 0.1266656236
375297750.0 -0.109053201 0.1426707385 0.3963706348 -0.3929208382 0.3967775415 -0.3934803285 -0.1178990772 0.1275425194
380297720.0 -0.1075491815 0.1441521942 0.3919339941 -0.3974835604 0.3921912464 -0.3969781156 -0.1170900463 0.1288024309
385297690.0 -0.1065502986 0.1456413537 0.3875543639 -0.402115073 0.3874598783 -0.4015861875 -0.1157465031 0.1300950167
390297660.0 -0.1046654179 0.1470511468 0.3834094735 -0.4062812363 0.3833095583 -0.4056245681 -0.1148523498 0.1313007591
395297630.0 -0.1032078097 0.1481718907 0.3787891953 -0.4105282113 0.3789352764 -0.4101576368 -0.1131345955 0.1323575901
400297600.0 -0.1017123985 0.1495875797 0.3740242255 -0.4146210691 0.3746868355 -0.4143305204 -0.1124704564 0.1338219581
405297570.0 -0.1001062641 0.1507361359 0.3694222617 -0.4183734306 0.3698224864 -0.4183423973 -0.1113232471 0.1348459158
410297540.0 -0.098244331 0.1521571556 0.3650756698 -0.4227616942 0.3652328736 -0.4225022349 -0.1099600197 0.1367082257
415297510.0 -0.0966825472 0.1531179524 0.3601406242 -0.4268436277 0.3608449596 -0.4266259402 -0.1086025046 0.1374903512
420297480.0 -0.0951824952 0.1548668108 0.3555695369 -0.4306209141 0.355599081 -0.430730636 -0.107417667 0.1384942265
425297450.0 -0.0935551421 0.1554067542 0.3513498319 -0.434294467 0.3514704075 -0.4344153511 -0.1063350182 0.139833302
430297420.0 -0.09176001 0.1565802823 0.3459649611 -0.437869309 0.3459663797 -0.437604446 -0.1052408196 0.1406938712
435297390.0 -0.0903649268 0.1578898218 0.3411658311 -0.4414622113 0.3410562885 -0.442065594 -0.1031870614 0.1420643072
440297360.0 -0.0884746233 0.1590854089 0.3365480792 -0.4455211817 0.3367921383 -0.445519093 -0.1021125186 0.1426660674
445297330.0 -0.0867868421 0.1600468166 0.3316008619 -0.4491198686 0.3316681782 -0.4490423721 -0.101161456 0.1436773114
450297300.0 -0.08479852 0.1610361749 0.3267572298 -0.4530346904 0.3265492112 -0.4532205892 -0.0994812195 0.1448262262
455297270.0 -0.0829553957 0.1621549562 0.3211589476 -0.4564895236 0.3219541209 -0.4562694354 -0.0979510366 0.1458821449
460297240.0 -0.0815145204 0.1631087706 0.3165340444 -0.4598140945 0.3166524542 -0.4598299302 -0.0966841542 0.1474596261
465297210.0 -0.0792777071 0.164470875 0.3115771982 -0.4635199949 0.3118106563 -0.4637479112 -0.0950447956 0.1478965598
470297180.0 -0.0776941754 0.1651275162 0.306045599 -0.4665202503 0.3066257434 -0.4664848655 -0.0935732312 0.1492309411
475297150.0 -0.075989251 0.1658484139 0.3011850334 -0.4694547651 0.3016499381 -0.4697175365 -0.0919660285 0.1500225156
480297120.0 -0.0741343995 0.1675597934 0.2960544331 -0.4734569542 0.2963998911 -0.4737009175 -0.0902353607 0.1515380911
485297090.0 -0.0722766181 0.1683887438 0.2914311517 -0.4761933045 0.2911448603 -0.4763974846 -0.0888096222 0.1522457264
490297060.0 -0.0707320299 0.1690222191 0.2861032609 -0.4798951135 0.286221552 -0.4790449794 -0.0874114894 0.1536627028
495297030.0 -0.0689501723 0.1700407868 0.2805284901 -0.482672423 0.2812815646 -0.4823586935 -0.0863838948 0.1545813305
500297000.0 -0.0668701627 0.1708868692 0.2754611554 -0.4852106162 0.2751920181 -0.485017463 -0.0846234235 0.1557834087
505296970.0 -0.0648022315 0.1716794887 0.2703792033 -0.488221607 0.2696026571 -0.4885172853 -0.0830027371 0.1563196399
510296940.0 -0.0630177511 0.1726387252 0.264739703 -0.4915000032 0.2645739964 -0.4914279048 -0.0816863708 0.1575247247
515296910.0 -0.0613858338 0.1733432943 0.2589151705 -0.4940423483 0.2595108589 -0.4939274649 -0.079807356 0.1587430932
520296880.0 -0.0594054279 0.1743356527 0.2539558632 -0.4970345079 0.2538122018 -0.4969168302 -0.078402689 0.1594791171
525296850.0 -0.0571828238 0.174765254 0.2481554761 -0.499487 0.2489443523 -0.4996256193 -0.0770868547 0.1606999649
530296820.0 -0.055226123 0.1762996405 0.2428175323 -0.5026962193 0.2428422126 -0.5021249335 -0.0755498867 0.1611292589
535296790.0 -0.0537848796 0.17641444 0.2376983341 -0.5049226614 0.2377057886 -0.5046501701 -0.0743198634 0.1620828592
540296760.0 -0.0517830313 0.177384033 0.2318051733 -0.5074436974 0.2319528493 -0.5076235394 -0.0727751968 0.1634301607
545296730.0 -0.049751265 0.1779749184 0.2258587393 -0.5098359805 0.226454058 -0.5096932332 -0.0713124223 0.1637851499
550296700.0 -0.047500038 0.1788591432 0.2209245936 -0.512396484 0.220773597 -0.5124998039 -0.0696448015 0.164782636
555296670.0 -0.0460544081 0.1795019635 0.2157549248 -0.5148656751 0.2157576318 -0.5149723428 -0.0681857485 0.1662018043
560296640.0 -0.0436996384 0.1803956793 0.2098495847 -0.5171519708 0.2099615299 -0.5168030367 -0.0665772507 0.1665052376
565296610.0 -0.042132227 0.1809348252 0.2039278399 -0.5195801516 0.2041700905 -0.5188770675 -0.0651556888 0.1671169294
570296580.0 -0.040208769 0.1815944034 0.1984850957 -0.5218256377 0.1979627751 -0.5214423739 -0.063531987 0.1683921129
575296550.0 -0.0380177244 0.182234315 0.1926587717 -0.5237147069 0.1928974998 -0.5233921225 -0.0617688786 0.169031632
580296520.0 -0.0359935025 0.1825423047 0.1871282585 -0.5257658772 0.1873393932 -0.5256537289 -0.0599812597 0.1695014653
585296490.0 -0.0341080937 0.1825315671 0.1814927545 -0.5270541789 0.1814414373 -0.5277583471 -0.0584086491 0.1705097491
590296460.0 -0.0317156499 0.1835616865 0.1756560115 -0.528773 0.1757632349 -0.5290709672 -0.057319086 0.1712432738
595296430.0 -0.0297900821 0.1840630969 0.1698546721 -0.5318709832 0.1698636224 -0.5311794095 -0.0555183572 0.171155323
600296400.0 -0.0279958857 0.1845781946 0.1639631974 -0.5330200098 0.1643938808 -0.5327600201 -0.0539296885 0.1719692273
605296370.0 -0.0259375948 0.1850259948 0.1579725926 -0.5345110131 0.1586123818 -0.5348870237 -0.0520104282 0.1729186058
610296340.0 -0.0237875626 0.1854559989 0.1519954816 -0.5360039001 0.1527296487 -0.5363336876 -0.0501662145 0.1732612716
615296310.0 -0.0215558229 0.1855282171 0.146335524 -0.537660993 0.1464134225 -0.5382500353 -0.0486557966 0.1738022846
620296280.0 -0.0196584499 0.1859119352 0.1408626073 -0.5393051665 0.1407107088 -0.5391189859 -0.0471615888 0.1745387124
625296250.0 -0.0179028657 0.1857398926 0.135441218 -0.5407030936 0.1352694084 -0.5410915752 -0.0446720642 0.1751005271
630296220.0 -0.01457434 0.1867271645 0.1284164291 -0.5421506057 0.1287829258 -0.5422393266 -0.0431780664 0.1761633526
635296190.0 -0.0137706329 0.1866656423 0.123105663 -0.5432568179 0.1234701023 -0.5435786372 -0.0413259445 0.1763354707
640296160.0 -0.0115140967 0.1872567656 0.1172750179 -0.5447083033 0.1176952996 -0.5452684696 -0.0397058602 0.1769375542
645296130.0 -0.0094549007 0.1877016988 0.1114847192 -0.5460849525 0.1117784237 -0.5461451884 -0.0381279149 0.1776319468
650296100.0 -0.0071784386 0.1876303523 0.1051703211 -0.5471171558 0.1054101843 -0.5470133368 -0.0360027742 0.1774110841
655296070.0 -0.0053692284 0.1877548188 0.0994404602 -0.5480708388 0.0994922476 -0.5480543382 -0.0343192435 0.1782114235
660296040.0 -0.0037344014 0.1878275595 0.0939638249 -0.5492146953 0.0938471454 -0.5494434816 -0.0323246022 0.1788266881
665296010.0 -0.00086145 0.1880870636 0.0873102523 -0.5502064537 0.0877272301 -0.5500461745 -0.0306703711 0.1798164048
670295980.0 0.0001640533 0.1884152868 0.0817143899 -0.5511958958 0.0821574628 -0.550851961 -0.029346384 0.1800963851
675295950.0 0.0026294484 0.1888582335 0.0760221683 -0.5519885554 0.0762103389 -0.5511275945 -0.027568005 0.1805258844
680295920.0 0.0047246192 0.1883828334 0.069845393 -0.5523748539 0.0696017409 -0.553154518 -0.025567065 0.1814616995
685295890.0 0.0071699304 0.1889714692 0.063640682 -0.5535584879 0.063651213 -0.5532397314 -0.0240069736 0.1816426131
690295860.0 0.0091089701 0.1888658555 0.0579533333 -0.5534828006 0.057606656 -0.5540533902 -0.0220751797 0.1824550309
695295830.0 0.0112249079 0.1886563528 0.052078413 -0.5542939709 0.0515295097 -0.5542256854 -0.0203820885 0.1824796973
700295800.0 0.0132290452 0.1886206914 0.0456217536 -0.5545151975 0.0457900455 -0.5547423683 -0.0189560369 0.1835790924
705295770.0 0.0151509546 0.1892614469 0.039642265 -0.5553212036 0.0404365534 -0.5553433351 -0.0171575953 0.1838205627
710295740.0 0.0173449798 0.1889596437 0.0340251053 -0.5560100529 0.0342703748 -0.5560824617 -0.0153065935 0.1832431259
715295710.0 0.0191003955 0.1886274176 0.0282814084 -0.55601087 0.0281273335 -0.5561560227 -0.0133147567 0.1840051482
720295680.0 0.0212782509 0.1885447812 0.0217803316 -0.5562278939 0.0222007123 -0.556480703 -0.0115762986 0.1846169383
725295650.0 0.0236018581 0.188683655 0.0159395484 -0.5564537598 0.0162115782 -0.5569160513 -0.0103081729 0.1848392315
730295620.0 0.025940721 0.1890354827 0.0097089196 -0.5564389017 0.0102703472 -0.5564828441 -0.0085521721 0.1847339272
735295590.0 0.0276649782 0.1884325674 0.004220077 -0.5567541822 0.003751797 -0.5566606292 -0.006999392 0.1849421656
740295560.0 0.0296773577 0.1883861177 -0.0019510641 -0.5562381003 -0.0021533485 -0.5567969336 -0.0042847083 0.1855118741
745295530.0 0.0316455371 0.1883396178 -0.0081177303 -0.5565495142 -0.0079872584 -0.5565815745 -0.0029835456 0.1854043019
750295500.0 0.0341669075 0.1879990329 -0.0140795432 -0.5562394356 -0.0140222333 -0.5566941049 -0.0012795591 0.1857160659
755295470.0 0.0359492872 0.1873573881 -0.0196354728 -0.5558962321 -0.0200149927 -0.5563489824 0.0010952576 0.1852759003
760295440.0 0.0379434213 0.1873711363 -0.0259366287 -0.555892951 -0.0260436243 -0.5560988722 0.0023183785 0.1854407237
765295410.0 0.0401830029 0.1871761063 -0.0321793059 -0.5554464881 -0.0325008452 -0.5557596211 0.0043794913 0.1862677188
770295380.0 0.0418095784 0.1865088042 -0.0380605922 -0.5550226106 -0.0380564747 -0.5550628513 0.0059081804 0.1858222932
775295350.0 0.0438485923 0.1860919759 -0.0442360014 -0.5545093362 -0.0437177641 -0.5547362199 0.0073171634 0.1860335242
780295320.0 0.0462179239 0.1859018588 -0.0501377254 -0.5536961326 -0.0495723485 -0.5541663162 0.0095090859 0.1857697416
785295290.0 0.0481506322 0.1851529194 -0.0564429026 -0.5529352306 -0.0558325229 -0.553376261 0.0117570833 0.1860680024
790295260.0 0.0505005755 0.1855006911 -0.0613252334 -0.5529967269 -0.0610144577 -0.5524563669 0.01332547 0.186123998
795295230.0 0.0523027363 0.1846852032 -0.0677032571 -0.5518924611 -0.0673401546 -0.5522717868 0.0152340328 0.1861775538
800295200.0 0.0541518062 0.1844445278 -0.0741607735 -0.5509511986 -0.0737440074 -0.5509528028 0.0169896648 0.1858956471
805295170.0 0.0564654485 0.1837865182 -0.0798798994 -0.5500713279 -0.0798178651 -0.5506777718 0.0187488881 0.1862219235
810295140.0 0.0582918922 0.1828782511 -0.0857809196 -0.5493825442 -0.0858037286 -0.5498703396 0.0210807443 0.1861504447
815295110.0 0.060505971 0.1825457264 -0.0917443933 -0.5481753973 -0.0910388073 -0.5485083556 0.022547818 0.1859204689
820295080.0 0.0621694861 0.1826197714 -0.0969898759 -0.5473332259 -0.0969789678 -0.5471376291 0.0243850124 0.1859457943
825295050.0 0.0646495199 0.1816468299 -0.1026675089 -0.5458951218 -0.1030460932 -0.5464721351 0.0266315401 0.1860262743
830295020.0 0.0664120201 0.1812840932 -0.1093963658 -0.5448707526 -0.1090167948 -0.5451922558 0.028965484 0.1859018927
