!Created with skrf (http://scikit-rf.org).
# Hz S RI R 50.0 
!freq ReS11 ImS11 ReS21 ImS21 ReS12 ImS12 ReS22 ImS22
300000.0 -0.768634274 -0.1494999945 0.0002354735 -0.0003345367 -2.32623e-05 0.0012636511 -0.046799681 -0.0679318621
5299970.0 -0.785228746 -0.0076868759 0.0001050638 -4.53729e-05 0.0001890617 4.05549e-05 -0.0483701542 0.0141250472
10299940.0 -0.7878508504 -0.0039793951 -2.56887e-05 -0.000114538 -3.8194e-06 4.36893e-05 -0.043278492 0.0315620542
15299910.0 -0.7934919662 -0.0016820767 -2.82804e-05 -6.47805e-05 -0.0001033454 -0.000202461 -0.0346785612 0.0455885505
20299880.0 -0.7997516959 0.0022034467 -0.0002008222 -0.0002131693 8.50165e-05 -4.06787e-05 -0.0249679672 0.0572717087
25299850.0 -0.8057081019 0.0084771027 -3.105e-07 -0.0003765634 -2.61635e-05 3.76319e-05 -0.0141963126 0.0661268539
30299820.0 -0.811612261 0.0162865941 -0.0001467087 4.9278e-06 -1.0335e-05 9.03948e-05 -0.0031257495 0.0726203767
35299790.0 -0.8165992459 0.0254512839 0.0001498463 0.0001707207 0.0001547616 0.0001461447 0.0082272021 0.0768416633
40299760.0 -0.8213653551 0.0340931335 -5.81509e-05 0.0001913887 3.9246e-06 8.7822e-06 0.0192289893 0.0800120604
45299730.0 -0.824544109 0.044486673 5.92079e-05 -1.41083e-05 2.17528e-05 7.6064e-05 0.029435879 0.0813797179
50299700.0 -0.8268241442 0.0541857047 2.12337e-05 -7.61213e-05 0.0002164862 5.85573e-05 0.0396073961 0.0813305999
55299670.0 -0.8286344454 0.0645625185 6.84581e-05 -7.95053e-05 7.07064e-05 -5.44742e-05 0.048199772 0.0805815152
60299640.0 -0.8297794431 0.0744670005 0.0001591107 -7.1268e-05 7.41537e-05 -3.99544e-05 0.056905721 0.078264582
65299610.0 -0.8311013367 0.0846873029 1.03422e-05 0.0001327538 -6.47374e-05 -1.38425e-05 0.0643059734 0.0761957935
70299580.0 -0.8312372733 0.0949532722 -0.0001370973 -8.09596e-05 3.30053e-05 -2.67138e-05 0.0714229124 0.0731859595
75299550.0 -0.8314127372 0.1045011968 4.85928e-05 -0.0001379363 -0.0001939117 8.01232e-05 0.0776347744 0.069756392
80299520.0 -0.8313492551 0.1146414563 1.5493e-05 0.0001273347 -9.16573e-05 0.0002845097 0.0823153258 0.0664874914
85299490.0 -0.8308724332 0.123911765 -0.000124622 -0.0001224343 -1.8691e-05 -4.27743e-05 0.0875550003 0.0628012515
90299460.0 -0.8297859403 0.1338645277 -5.16561e-05 -6.94959e-05 0.0002119974 8.04473e-05 0.0923456065 0.0586284175
95299430.0 -0.8288762283 0.1435883384 2.67119e-05 -4.7203e-05 0.0001140287 -0.0001808006 0.0962611994 0.0548301033
100299400.0 -0.8279238068 0.1532207143 2.5e-06 0.0001020162 8.94843e-05 0.0001337956 0.0995859689 0.0508893792
105299370.0 -0.8264152361 0.1622875884 8.49752e-05 0.0001008948 4.28289e-05 -0.0001097926 0.1031115909 0.0467002846
110299340.0 -0.8254070051 0.1716322833 -1.77642e-05 -5.2936e-06 0.000191749 9.77242e-05 0.1056465698 0.0431047865
115299310.0 -0.8237902722 0.1804162195 0.0002087914 5.53451e-05 -4.88347e-05 -1.76181e-05 0.1082425885 0.038847803
120299280.0 -0.8225878633 0.1893226835 7.38833e-05 8.47685e-05 0.0002294603 2.04591e-05 0.1101491938 0.0349417754
125299250.0 -0.8205629749 0.19841802 -8.03303e-05 -1.05644e-05 1.37409e-05 -0.0001049827 0.1124765033 0.0310680641
130299220.0 -0.8181892842 0.2076307195 0.0002157224 6.3957e-05 -6.76092e-05 1.40792e-05 0.1133308746 0.0274135658
135299190.0 -0.8168546637 0.2165247571 -0.000184483 3.13336e-05 -2.6905e-05 8.92744e-05 0.1151262519 0.0235879235
140299160.0 -0.8144697947 0.2253173349 9.15172e-05 -0.0001128571 0.0001346729 -8.4356e-05 0.116725737 0.0200073115
145299130.0 -0.812528268 0.234207727 9.86389e-05 -5.09778e-05 -0.0001067635 -8.52251e-05 0.1170173551 0.0165311443
150299100.0 -0.8101491939 0.2429360545 9.09756e-05 -0.0001029299 0.0001989086 -0.0001703915 0.1183142123 0.0130631603
155299070.0 -0.8074866322 0.2523190439 0.0003340117 -3.96768e-05 -0.0001528685 -1.03311e-05 0.1188426713 0.0095244487
160299040.0 -0.804673806 0.2611652084 0.0001577125 -4.01773e-05 0.0002335379 0.0001641737 0.1195868262 0.0064237702
165299010.0 -0.8019007476 0.2692391729 0.0001347487 2.97893e-05 -1.9469e-05 3.23003e-05 0.1198539003 0.0030067144
170298980.0 -0.7995418419 0.2777943689 -1.91379e-05 0.0001193419 9.23605e-05 -0.0001318255 0.1202383011 0.0001129654
175298950.0 -0.7965620172 0.2870117931 -3.18587e-05 -7.20487e-05 8.50043e-05 0.0001314128 0.1203163049 -0.003216737
180298920.0 -0.7941502203 0.2951755218 -0.0001404797 5.50004e-05 -9.36295e-05 -8.5343e-05 0.1209618333 -0.0061700853
185298890.0 -0.7905942086 0.3043638436 0.0001355261 -9.7092e-05 -2.79494e-05 2.63001e-05 0.1205989103 -0.0096937844
190298860.0 -0.7874444102 0.3121533948 0.0001757807 0.0001401758 0.0001686515 4.98795e-05 0.1211094291 -0.0124760677
195298830.0 -0.7842172071 0.3207865713 0.0002684816 0.00011169 3.24824e-05 6.87688e-05 0.1205604824 -0.0150600925
200298800.0 -0.7807375985 0.3289757583 -0.0001042706 0.0001591924 -3.77836e-05 -0.0001163049 0.1204674942 -0.017942651
205298770.0 -0.7774263032 0.3370939583 0.0001083805 0.0001066864 0.0001692809 -5.25317e-05 0.1201875108 -0.0204610196
210298740.0 -0.7737058595 0.3454081342 -2.47976e-05 6.40101e-05 0.0001746337 -9.6647e-06 0.1200546541 -0.0230832081
215298710.0 -0.7701915424 0.3540479954 0.0001435962 -1.58813e-05 0.0001887346 1.7171e-06 0.1190940062 -0.0256492973
220298680.0 -0.7669101385 0.3622761253 -7.52395e-05 5.04083e-05 -8.89782e-05 -0.0001115169 0.1191443794 -0.0280409179
225298650.0 -0.7630699584 0.3713165591 0.0002722661 -6.31104e-05 9.82402e-05 9.60667e-05 0.118200692 -0.030174254
230298620.0 -0.7585572096 0.3790157647 9.69612e-05 0.0001122024 6.69555e-05 6.00852e-05 0.1179900883 -0.0329423895
235298590.0 -0.75451931 0.3870666629 5.29352e-05 -8.17857e-05 0.0001343439 -0.0001681582 0.1171651853 -0.0353841787
240298560.0 -0.7511925826 0.394866016 0.0002160324 0.0002345349 1.44646e-05 -7.09244e-05 0.1166827732 -0.0374163507
245298530.0 -0.7463078599 0.4027355112 -0.0001414503 -8.4785e-06 0.000130873 2.75827e-05 0.1160693622 -0.0396492653
250298500.0 -0.7425967938 0.4105883986 -0.0001403069 0.0002127165 0.0003008325 -4.44379e-05 0.1153831397 -0.0419582149
255298470.0 -0.7376116631 0.4185961005 2.56989e-05 8.12709e-05 -4.00364e-05 -4.5699e-05 0.1145057612 -0.0443063244
260298440.0 -0.7339578131 0.4255811259 0.0002625724 -9.7055e-06 0.0001479171 6.0484e-06 0.1138320581 -0.0463121743
265298410.0 -0.7290198142 0.4342501654 0.0001651061 0.0001476577 -6.5718e-05 -0.000187387 0.1130791505 -0.048709064
270298380.0 -0.7243757274 0.4417526815 -2.01386e-05 0.0002095296 0.0001860499 0.0001253628 0.1123255936 -0.0506003959
275298350.0 -0.7197410635 0.4490607937 -7.47661e-05 6.75243e-05 0.0001466179 0.0001270179 0.111530373 -0.0522476598
280298320.0 -0.7155853957 0.4565256492 6.78299e-05 0.0001437078 0.0002644115 -8.036e-05 0.1103885317 -0.0544347586
285298290.0 -0.7104967896 0.4646950488 0.0002509014 3.83435e-05 4.88424e-05 5.57574e-05 0.1092244129 -0.0562227434
290298260.0 -0.7053225341 0.4716078206 -9.6887e-06 -0.0001473558 0.0002419782 -9.2662e-06 0.1087616249 -0.0579735248
295298230.0 -0.7006924308 0.4793364141 -5.37102e-05 -2.4352e-06 1.25985e-05 0.0001164446 0.107616822 -0.0598164804
300298200.0 -0.6948311957 0.4861668942 0.0002795159 0.0001233605 0.0002231058 7.44504e-05 0.1068196537 -0.061608539
305298170.0 -0.690206328 0.4941055656 0.000216381 0.0001652697 0.0001613818 0.0002273712 0.1062074659 -0.0633489003
310298140.0 -0.6844272547 0.5006629961 -8.18538e-05 3.88615e-05 2.75392e-05 -0.0001481332 0.1051253552 -0.0649201798
315298110.0 -0.6793225311 0.5078654232 0.0002659479 5.1805e-06 0.0001088295 -5.04385e-05 0.1041848684 -0.0673178032
320298080.0 -0.6739423914 0.515969147 -1.45219e-05 0.0002546324 -0.0001105348 0.000139053 0.1031592302 -0.0688225557
325298050.0 -0.6686917224 0.5215494125 0.0002161396 0.0002143017 7.993e-05 -7.86792e-05 0.1017591748 -0.0706962738
330298020.0 -0.6630274774 0.5294732563 9.22452e-05 -1.29534e-05 0.0002831878 0.000274289 0.1003866229 -0.0723976065
335297990.0 -0.6569097995 0.535830049 0.0001611099 2.39893e-05 3.89354e-05 0.000137906 0.0990503975 -0.0739156527
340297960.0 -0.6520919061 0.5430923967 -6.89508e-05 -5.76399e-05 6.38047e-05 7.5962e-06 0.0978581912 -0.075362178
345297930.0 -0.6462788107 0.5491241507 0.0001401779 2.60433e-05 -8.832e-07 -4.50748e-05 0.0961894952 -0.0766270181
350297900.0 -0.6406092648 0.5563702424 0.0001310444 -1.6402e-05 -5.946e-07 0.0001450254 0.0950651066 -0.0780885389
355297870.0 -0.6342420798 0.5621290099 0.0002227117 -3.4507e-06 0.0001435798 4.93459e-05 0.0933727313 -0.0795357323
360297840.0 -0.6286822251 0.5694422183 0.0002840202 0.0002818114 -3.85889e-05 -6.35172e-05 0.0923932428 -0.0803729019
365297810.0 -0.6221321999 0.576294947 0.0001072294 -6.53291e-05 -4.00179e-05 0.000172837 0.0908952025 -0.0819573109
370297780.0 -0.6160407759 0.5817916155 -4.14429e-05 -9.9191e-06 6.1786e-05 0.0001335442 0.08934281 -0.0831798926
375297750.0 -0.6098439662 0.5881882756 -4.35081e-05 -0.0002039099 6.68728e-05 5.53079e-05 0.0881326703 -0.0843269068
380297720.0 -0.6039673687 0.5946394914 8.79054e-05 8.48431e-05 3.44255e-05 5.92515e-05 0.0868920404 -0.0850762106
385297690.0 -0.5976416905 0.6006447279 0.0002675408 0.0002366802 0.0001076664 0.0001213383 0.0853896834 -0.0861005482
390297660.0 -0.5918724984 0.6071749893 -7.47456e-05 4.663e-07 0.0002356683 1.33992e-05 0.0837513833 -0.087653645
395297630.0 -0.5851170771 0.6134488319 5.51017e-05 9.64705e-05 9.29144e-05 -9.64076e-05 0.0826995416 -0.0888216577
400297600.0 -0.579103511 0.619338829 0.0002598788 -7.39567e-05 0.0001253324 0.0001745404 0.0809939751 -0.0897762829
405297570.0 -0.5727077015 0.6250732159 0.0002172523 6.81966e-05 0.0001504953 -3.33168e-05 0.0795617682 -0.0903244123
410297540.0 -0.5657540458 0.6303667267 0.0003118221 9.34254e-05 0.0002974404 8.3912e-05 0.0781544976 -0.0914160504
415297510.0 -0.559585549 0.6358440976 7.2549e-06 3.77231e-05 -0.000157322 4.73087e-05 0.076792226 -0.0922696076
420297480.0 -0.5517244184 0.6422339962 0.0001333626 0.0001173361 0.0001444101 0.0002154705 0.0752199613 -0.0939050942
425297450.0 -0.5457087172 0.6477726035 3.0926e-06 -0.0001654215 8.33196e-05 -6.77966e-05 0.0738820167 -0.0943314153
430297420.0 -0.5398499978 0.6536186604 0.0002716714 9.73485e-05 4.87539e-05 -0.0001010618 0.072223992 -0.0952674849
435297390.0 -0.5314318936 0.6591224727 0.0001054151 5.38019e-05 9.091e-06 -0.0001895019 0.0709981245 -0.0960749196
440297360.0 -0.525425885 0.6639496755 4.87092e-05 1.79401e-05 8.70429e-05 7.90941e-05 0.0690220405 -0.0971436676
445297330.0 -0.5180870234 0.6697177514 0.0001460683 4.2314e-05 0.0001763712 5.0961e-06 0.0676818341 -0.0982627737
450297300.0 -0.5116030938 0.674649391 0.0001021696 1.47487e-05 4.71029e-05 -0.0001163285 0.0659113922 -0.0986976203
455297270.0 -0.5045107448 0.6802358446 -0.0001329326 -0.0001165833 -0.0001167985 5.1735e-05 0.0645799903 -0.0993308022
460297240.0 -0.497696637 0.6857092732 0.0001065219 8.64549e-05 -8.94086e-05 1.14352e-05 0.0632775291 -0.1001192238
465297210.0 -0.4902526258 0.6901870674 0.0001935821 -0.0003787296 6.40771e-05 -2.63787e-05 0.0612769216 -0.101261772
470297180.0 -0.4829725502 0.6945902112 0.0002107189 8.16992e-05 0.0001447012 -0.0002098748 0.0594990383 -0.1017937214
475297150.0 -0.4756523635 0.7002856381 0.0001063807 -0.0001795654 5.3273e-06 6.39922e-05 0.0581134746 -0.1023871589
480297120.0 -0.4685618479 0.7046767877 0.000244397 -0.0001248777 1.3592e-05 4.30764e-05 0.0565106797 -0.1029928538
485297090.0 -0.4612062773 0.7090141371 0.000115266 -6.96607e-05 0.0001367488 -7.80396e-05 0.0546735825 -0.1036040348
490297060.0 -0.4543207751 0.7139510328 -0.000111737 8.83775e-05 0.0001755644 -9.45589e-05 0.0533740954 -0.1041533343
495297030.0 -0.4473428147 0.7187166129 8.44739e-05 0.0001181467 -9.07312e-05 0.0001588095 0.0514467255 -0.1052842554
500297000.0 -0.4388834701 0.7231857742 4.10188e-05 -0.0001456186 -5.83371e-05 -9.85399e-05 0.0499843169 -0.1057206775
505296970.0 -0.4316602523 0.7268578315 0.00033909 -0.0001460551 0.000164686 -1.65025e-05 0.0477938664 -0.1058995164
510296940.0 -0.4246704478 0.732229306 9.25375e-05 -8.36797e-05 0.0001391763 3.4465e-06 0.0464511412 -0.1061502483
515296910.0 -0.4171552309 0.7364617691 0.0001922585 -0.0001052681 8.60033e-05 -5.20557e-05 0.0449351401 -0.1070450063
520296880.0 -0.4089142282 0.7405972712 0.0002655959 0.0001856631 0.0001768344 -5.58083e-05 0.0434675964 -0.1079265368
525296850.0 -0.4020193338 0.7442416679 0.0002282744 0.0001273969 -0.0001262937 6.9699e-05 0.041891601 -0.1085162427
530296820.0 -0.3942241834 0.7481103784 7.72622e-05 0.0001535852 4.23712e-05 5.56934e-05 0.039853946 -0.1085571272
535296790.0 -0.3863439186 0.7520610987 0.0001617503 0.0001118858 -0.0001416186 1.92887e-05 0.0380434325 -0.1091396016
540296760.0 -0.3781780531 0.756174749 8.18127e-05 -0.0001934914 0.0002408063 6.6544e-06 0.0362304143 -0.1092681061
545296730.0 -0.3712174979 0.7598624585 0.0003594343 -0.0001229975 7.51597e-05 -4.33244e-05 0.0349130982 -0.1099676928
550296700.0 -0.3639968591 0.7641303453 -3.4462e-05 -1.16933e-05 9.21578e-05 -0.0001786546 0.0331483496 -0.1102425637
555296670.0 -0.354378806 0.7671043649 0.0001500027 -9.70401e-05 0.0002698967 2.8867e-05 0.0315615586 -0.1103680826
560296640.0 -0.3472869404 0.7705480833 0.00010455 -0.0001694254 -3.44235e-05 -5.01182e-05 0.0299660545 -0.111050226
565296610.0 -0.3398853587 0.7739755537 0.0001603288 0.0001322355 0.0002064119 -5.35906e-05 0.0278292234 -0.1110393066
570296580.0 -0.331545621 0.7770973657 7.78607e-05 -0.0001070837 0.0001338746 3.31347e-05 0.0263461107 -0.111386061
575296550.0 -0.3237743349 0.7807197507 7.64093e-05 6.29716e-05 6.74391e-05 0.0001496093 0.0247674845 -0.1117494322
580296520.0 -0.3158904967 0.7837755165 0.0002919795 -7.80902e-05 8.46695e-05 -2.84032e-05 0.0228615285 -0.1119487107
585296490.0 -0.3071656524 0.7862033966 5.45241e-05 7.15958e-05 4.28164e-05 0.0001388873 0.0212143467 -0.1125039261
590296460.0 -0.3000299841 0.7899076208 0.0001895028 6.66427e-05 0.0001721709 2.98588e-05 0.019570344 -0.1121437791
595296430.0 -0.2913100723 0.7935759441 9.28088e-05 -0.0001635456 0.0004336852 3.69412e-05 0.0178429124 -0.1126645989
600296400.0 -0.2829501569 0.7959084172 0.0001903816 0.0001656812 0.0002103817 -0.0002040424 0.0161961318 -0.1130252033
605296370.0 -0.2753213078 0.7986851349 8.66399e-05 -6.49356e-05 0.0002194808 -0.0001914665 0.0142447133 -0.1125810411
610296340.0 -0.2678635151 0.801194308 3.43853e-05 3.93472e-05 0.0001587421 -0.0001848908 0.0126865211 -0.1126907277
615296310.0 -0.2592482663 0.8043958014 -5.10591e-05 8.12078e-05 4.4777e-05 0.0001584847 0.0111044879 -0.1130062881
620296280.0 -0.2508538328 0.8061065902 2.0371e-06 0.0001547949 0.0001338656 4.94097e-05 0.0087583497 -0.113299385
625296250.0 -0.2426105416 0.8091010702 0.000116293 0.0001417334 0.000241601 6.35722e-05 0.0076696598 -0.1129849916
630296220.0 -0.23437199 0.8115480082 0.0002164919 -7.15033e-05 -5.08643e-05 0.0001157906 0.0056972311 -0.1126775208
635296190.0 -0.2262535329 0.8136253195 5.51071e-05 0.0002147459 0.0001822957 0.0001072699 0.0043270557 -0.1129051103
640296160.0 -0.2179579662 0.8155130551 -3.93336e-05 -9.9348e-05 0.0002545341 -2.14599e-05 0.0023346255 -0.1130116353
645296130.0 -0.209814465 0.8178261712 0.0002572248 -2.2214e-06 -2.92931e-05 -4.7643e-06 0.000751663 -0.1131644663
650296100.0 -0.2017434092 0.8201141324 -0.0001137237 6.1177e-06 9.93181e-05 6.95701e-05 -0.0007832783 -0.1124659136
655296070.0 -0.1932477911 0.8217617693 -6.84694e-05 9.16379e-05 0.0001957283 4.20047e-05 -0.0023307352 -0.1124334362
660296040.0 -0.1854050754 0.8240856495 0.0001086215 0.0002535872 0.0002325528 -7.47708e-05 -0.0042650564 -0.1121841867
665296010.0 -0.1774738971 0.8253444095 9.83285e-05 0.0002504436 1.55887e-05 -7.72814e-05 -0.0060024289 -0.1122420271
670295980.0 -0.1680366409 0.8274211593 2.95084e-05 2.21775e-05 -0.0001180828 -6.4631e-05 -0.007958339 -0.1119193899
675295950.0 -0.15994278 0.8284263173 -1.92353e-05 -7.83808e-05 0.0001115246 -4.50599e-05 -0.0093383121 -0.1119341023
680295920.0 -0.1518154822 0.8307807572 -1.79736e-05 3.1867e-05 0.0001592698 -0.0002136723 -0.010728792 -0.1113790024
685295890.0 -0.1429596414 0.8317219594 0.000288225 2.4587e-06 0.0001698199 -7.42849e-05 -0.0122300584 -0.1115512008
690295860.0 -0.1345028289 0.8333661394 1.98581e-05 -2.2531e-06 -1.58885e-05 -0.000161871 -0.014015152 -0.1110741948
695295830.0 -0.1261176505 0.8346664324 0.0001555897 -1.13378e-05 0.0002736854 8.69384e-05 -0.0158817272 -0.1107933553
700295800.0 -0.1180785734 0.8357109219 0.0002148455 0.000178409 0.0001494221 0.0002323393 -0.0176153702 -0.1104540971
705295770.0 -0.108977692 0.8373014101 3.53178e-05 -0.0001001837 0.0002389311 6.74726e-05 -0.0193030694 -0.1100848153
710295740.0 -0.1012807734 0.8379717452 0.0003520472 5.95344e-05 0.0002404016 6.21899e-05 -0.0211054352 -0.1093442072
715295710.0 -0.0934744369 0.8389244222 0.0002957647 -9.85853e-05 0.0001714408 -0.000230515 -0.0227384422 -0.1092654165
720295680.0 -0.0842398931 0.8396486945 0.0001944376 -0.0001982439 7.83443e-05 -0.0001363786 -0.0240004165 -0.1088886087
725295650.0 -0.0751623851 0.8408893909 0.0001704621 -7.07502e-05 4.71659e-05 -1.79008e-05 -0.0257161126 -0.1081492901
730295620.0 -0.067740661 0.8413928637 0.0001118885 -0.0001747592 0.0001786975 -0.0001034657 -0.0274527495 -0.1082310051
735295590.0 -0.0584737486 0.8414827021 0.0002557862 0.0001888824 0.0001398835 -9.24737e-05 -0.0287679096 -0.1072315815
740295560.0 -0.0498977396 0.8429548049 -4.33349e-05 0.0002384689 5.61773e-05 -0.0001996637 -0.0304410002 -0.1070250427
745295530.0 -0.0423351446 0.8424963366 7.33653e-05 -8.99317e-05 1.37953e-05 3.7826e-05 -0.0321722621 -0.1064127733
750295500.0 -0.0340678483 0.8432627505 9.17954e-05 -0.0001733784 2.41558e-05 9.95434e-05 -0.0337957571 -0.1062979305
755295470.0 -0.0241808246 0.8435291269 3.29294e-05 0.0002513627 0.000168716 6.01658e-05 -0.0354611992 -0.1052305655
760295440.0 -0.016518405 0.8432313029 6.16348e-05 2.7971e-06 0.0001357973 -6.6558e-06 -0.037338087 -0.1048364136
765295410.0 -0.0079904038 0.8435662815 0.0002597783 0.0001503568 0.0002088127 -7.48705e-05 -0.038097865 -0.1039141236
770295380.0 0.000985384 0.8446069331 0.0001395379 9.54525e-05 0.0001470937 -0.0001220751 -0.0401180533 -0.1033219514
775295350.0 0.0085007025 0.8439193726 7.53576e-05 -5.25576e-05 0.0001123248 -2.14922e-05 -0.0418036755 -0.1033336038
780295320.0 0.0178304353 0.8432235327 0.0002157574 0.0001187973 0.0002022488 -6.96084e-05 -0.0435404281 -0.1019110133
785295290.0 0.0258957025 0.84389984 -0.0001404636 -0.0001619646 0.0002091468 4.46531e-05 -0.0449334666 -0.1008889654
790295260.0 0.0347888062 0.8429776271 0.0001860315 -2.64581e-05 0.0002401148 -9.13207e-05 -0.0460302155 -0.1007212914
795295230.0 0.0425969261 0.8432076547 0.0003438462 1.52911e-05 -4.54729e-05 -8.97755e-05 -0.0475322742 -0.0999188836
800295200.0 0.0516647612 0.8427590619 0.0002334057 -6.90684e-05 0.0001882083 -0.0001222898 -0.0492993208 -0.0993279395
805295170.0 0.0592963499 0.8419104782 0.0002262898 -5.65305e-05 4.20014e-05 -0.0001779509 -0.051070542 -0.0983267181
810295140.0 0.0677636162 0.8412163369 5.3867e-05 0.0001420056 0.0002753379 1.71341e-05 -0.0521895312 -0.0972908464
815295110.0 0.0764306111 0.8401625596 5.98215e-05 -6.09155e-05 2.49141e-05 -0.0001661951 -0.0538105892 -0.0963880985
820295080.0 0.0846070122 0.8387249977 0.000191768 -0.0001999644 0.0002225647 -5.18585e-05 -0.0553733343 -0.0960994957
825295050.0 0.0940562494 0.8386323172 0.0001992895 -0.0001331951 0.0001756618 8.34047e-05 -0.0564038143 -0.0948456531
830295020.0 0.1022273271 0.8381153214 0.0001201108 1.00049e-05 0.0002940657 -4.19548e-05 -0.0584775941 -0.0939048051
835294990.0 0.1097705518 0.8369752983 0.0001179655 -3.84624e-05 0.0002522049 -0.0001399374 -0.0597393074 -0.0934305954
840294960.0 0.1182589607 0.8353338468 0.0003567776 -5.3874e-06 0.0002302554 -1.86278e-05 -0.0612960851 -0.0918545914
845294930.0 0.1268391445 0.8346915947 0.0002303438 -0.0001342634 0.0002441227 -0.0001643916 -0.0625593998 -0.0910680461
850294900.0 0.1352519355 0.8326175395 0.0001538492 -9.77175e-05 0.0002079516 -0.000194449 -0.0636317471 -0.0902739124
