!Created with skrf (http://scikit-rf.org).
# Hz S RI R 50.0 
!freq ReS11 ImS11 ReS21 ImS21 ReS12 ImS12 ReS22 ImS22
300000.0 -0.2404301812 -0.0945998329 0.4691498468 0.0613563033 0.4691258022 0.0665719835 -0.2373423248 -0.1040554952
5299970.0 -0.2434863402 0.0071862951 0.4735834975 0.0053815378 0.4734944901 0.005673835 -0.2438321651 0.0060754713
10299940.0 -0.2403189954 0.0197876475 0.4759280439 0.006329241 0.4759107601 0.0064751691 -0.24106879 0.0185655991
15299910.0 -0.2357396459 0.029511763 0.4791835587 0.0074389067 0.4791160695 0.0080871896 -0.2366572149 0.0276912281
20299880.0 -0.2305357307 0.037248637 0.4840789015 0.0082460268 0.4843276474 0.0086670514 -0.2321925212 0.0355986808
25299850.0 -0.2246360043 0.0435494436 0.4891061694 0.0072460241 0.4895892384 0.007535321 -0.226934014 0.0414250829
30299820.0 -0.2189226325 0.0486607803 0.4951588802 0.0053977226 0.4946844389 0.0053376507 -0.2215689899 0.0472488734
35299790.0 -0.2129255552 0.0527164178 0.5004555423 0.0021007386 0.5004426026 0.0023729326 -0.2162128542 0.0509655057
40299760.0 -0.20776641 0.0555306866 0.5052089696 -0.0011544155 0.5053592212 -0.0019405948 -0.2113706675 0.0548130063
45299730.0 -0.2025523531 0.0585190615 0.5103835189 -0.0067929601 0.5103469049 -0.0063062693 -0.2067986753 0.0574572122
50299700.0 -0.1977470705 0.0602885819 0.5142290001 -0.0122623558 0.5145698897 -0.0124155664 -0.202112461 0.05973918
55299670.0 -0.1936148181 0.0617162319 0.5175885279 -0.0181843028 0.5181449685 -0.0181544009 -0.1982048145 0.0616307999
60299640.0 -0.1892813917 0.062609599 0.5213246476 -0.0241733866 0.5214762054 -0.0242399671 -0.1944022849 0.0629540884
65299610.0 -0.18614859 0.0639681069 0.5243487902 -0.0303027447 0.5244345683 -0.0305142622 -0.1911433312 0.0642332696
70299580.0 -0.1827308092 0.0640232163 0.5270013675 -0.0368346296 0.5267387773 -0.0372923004 -0.1879299746 0.0655614318
75299550.0 -0.1796176091 0.065091856 0.5286299489 -0.0438650358 0.5288169423 -0.044143437 -0.1852157738 0.0668311798
80299520.0 -0.1771182683 0.065804589 0.5306871145 -0.0510597773 0.5308573391 -0.0510896824 -0.1824328686 0.0674312126
85299490.0 -0.1746181732 0.0658982737 0.5319854479 -0.0579723865 0.5321888271 -0.0579324817 -0.180367985 0.0684018965
90299460.0 -0.1725999348 0.0664784583 0.532844041 -0.0647793928 0.5333071948 -0.0646611385 -0.1775075608 0.0693249757
95299430.0 -0.1706034191 0.0671599606 0.5341728712 -0.0721584752 0.5340163983 -0.0716295943 -0.1757762763 0.0700384049
100299400.0 -0.1688754921 0.0675241355 0.5342502071 -0.0785562698 0.5339062393 -0.0785662727 -0.1740233058 0.0708614036
105299370.0 -0.166954319 0.0680528346 0.5347188014 -0.0853034927 0.5344965324 -0.0856388249 -0.1720007982 0.0719894735
110299340.0 -0.1655554636 0.0684187556 0.5346135459 -0.0921288349 0.534799563 -0.0925520246 -0.1706545017 0.0728749873
115299310.0 -0.163922484 0.0687443119 0.5345305357 -0.0988950687 0.5352256222 -0.0991622497 -0.1690010417 0.0731905954
120299280.0 -0.1627679075 0.069462063 0.5345482995 -0.1058170993 0.5348206422 -0.1061242214 -0.1678535078 0.0743401055
125299250.0 -0.1617420968 0.0698351455 0.534377084 -0.112307457 0.5346129547 -0.112808716 -0.1662783233 0.0748133428
130299220.0 -0.1606169833 0.0704966292 0.5340113389 -0.1189161449 0.5338508648 -0.1198459344 -0.1651240605 0.0761693214
135299190.0 -0.1594195269 0.0710560564 0.5327072091 -0.1257653432 0.5327531283 -0.126319827 -0.1643622524 0.0770235703
140299160.0 -0.1585258565 0.072306561 0.5321428968 -0.132933042 0.5320647143 -0.1328696021 -0.1626770598 0.0778346935
145299130.0 -0.1575969374 0.0729265778 0.5317418711 -0.1394303311 0.5312266436 -0.1391725055 -0.1620731548 0.0789524009
150299100.0 -0.1566960032 0.0733237602 0.5302639448 -0.1457433905 0.5300268949 -0.1457571616 -0.1606946652 0.0799223334
155299070.0 -0.1558230991 0.0748237476 0.5288528137 -0.1527733553 0.5289672625 -0.152856557 -0.1600366416 0.0810993931
160299040.0 -0.1548344164 0.0753877776 0.5272797593 -0.1586647022 0.5274941593 -0.1589381155 -0.158781736 0.08265064
165299010.0 -0.1544053025 0.0763754006 0.526565809 -0.1655184873 0.5263071204 -0.165322732 -0.1578017737 0.0832625468
170298980.0 -0.1536166273 0.0772100474 0.5243223164 -0.1716423752 0.5246495618 -0.171883229 -0.1566649393 0.0844025864
175298950.0 -0.1525714853 0.0781812753 0.5236531767 -0.1779691545 0.5232579126 -0.1779575589 -0.1561798761 0.0858313778
180298920.0 -0.1516965033 0.0791403368 0.5213600278 -0.1848337739 0.5215482831 -0.1842368002 -0.154940638 0.086984453
185298890.0 -0.1510251243 0.080145351 0.519547317 -0.1905648856 0.5200224175 -0.1904662542 -0.1544300299 0.0878134732
190298860.0 -0.1504138916 0.0810440736 0.5171583565 -0.1968728964 0.5178283939 -0.1966742887 -0.1525562981 0.0896935676
195298830.0 -0.1494561254 0.0820798641 0.5157500984 -0.2026511811 0.5156471273 -0.2031119257 -0.1520289233 0.0904756561
200298800.0 -0.1486038449 0.0836579653 0.5135642909 -0.2083900924 0.5135182573 -0.2085699613 -0.150913573 0.0921182089
205298770.0 -0.1481964043 0.0845677554 0.5115398678 -0.2148617866 0.511470399 -0.2151798874 -0.1500123509 0.0932309432
210298740.0 -0.1475463577 0.0852867945 0.5094720619 -0.2211550077 0.5092403467 -0.2213190292 -0.1491736384 0.0949798601
215298710.0 -0.14671275 0.0868845883 0.5071316978 -0.2268086176 0.506632834 -0.2267342933 -0.1482556671 0.096089429
220298680.0 -0.1460288807 0.0879274412 0.5041953621 -0.233220313 0.5044975119 -0.2328673335 -0.1470292786 0.0978951277
225298650.0 -0.145049903 0.0891869047 0.5019051033 -0.2385981259 0.5017862886 -0.2385204269 -0.1463887778 0.0992448512
230298620.0 -0.1443288031 0.0906159183 0.4996018152 -0.2441643165 0.4994542042 -0.2444549522 -0.1450588361 0.1004267953
235298590.0 -0.1436111373 0.0914639124 0.4969738798 -0.2503412555 0.4967359921 -0.2504365991 -0.144365023 0.1013699587
240298560.0 -0.1429271384 0.0928293751 0.4940026678 -0.2554752559 0.4942291017 -0.2556795245 -0.1429025223 0.1032936023
245298530.0 -0.1422071585 0.0941306553 0.4910191549 -0.2617288651 0.4912119343 -0.2617982023 -0.1419177646 0.1050051657
250298500.0 -0.1413926501 0.095202287 0.4881687304 -0.2668908832 0.4886664309 -0.2669947717 -0.1405950787 0.1061012668
255298470.0 -0.140513669 0.0966979271 0.4853010428 -0.272863206 0.4856300456 -0.2727634795 -0.1397294793 0.1073627558
260298440.0 -0.139681379 0.0979046302 0.482563518 -0.2780402245 0.4824391338 -0.2783738524 -0.1381266996 0.1091150352
265298410.0 -0.1388015869 0.0994570178 0.4793776036 -0.2842682491 0.4794247049 -0.283788984 -0.1376053062 0.1101050561
270298380.0 -0.1375803163 0.1004426437 0.4760227312 -0.2894440568 0.4764406723 -0.2895460444 -0.1358640349 0.1120724428
275298350.0 -0.1371533635 0.1019855697 0.4730886796 -0.2949518656 0.4733765788 -0.2952809245 -0.1348479345 0.1132134346
280298320.0 -0.1361546172 0.103575483 0.4700204918 -0.2998283003 0.4697599154 -0.300400524 -0.1336210018 0.1150450542
285298290.0 -0.1352314399 0.1048456199 0.4667035601 -0.3052187281 0.4667197024 -0.3055085471 -0.1325230401 0.1164555157
290298260.0 -0.1340822325 0.1059103459 0.4636633143 -0.3109803736 0.4633391355 -0.3106071966 -0.130903039 0.1180643359
295298230.0 -0.1332794537 0.1073244789 0.4604380573 -0.3162236187 0.4597809206 -0.3164202796 -0.1296119404 0.1192438199
300298200.0 -0.1318421582 0.1083277744 0.4567744374 -0.3215462738 0.4566168593 -0.3213389451 -0.128387776 0.1207305814
305298170.0 -0.1311204453 0.1094938743 0.4535511406 -0.3265014887 0.4535876235 -0.3268336813 -0.1268513179 0.1222890299
310298140.0 -0.1298304894 0.1106028668 0.4502150731 -0.332083931 0.4496844617 -0.3325486922 -0.1253936296 0.1238991272
315298110.0 -0.1292236438 0.1119379584 0.4460348774 -0.3370171008 0.4463244961 -0.3371712678 -0.1239690213 0.1250885926
320298080.0 -0.1280752909 0.1132292952 0.442323498 -0.3422281029 0.4424668107 -0.3422951665 -0.1227139697 0.1260300788
325298050.0 -0.12728802 0.1142074012 0.4386713858 -0.3476512032 0.4384984918 -0.3472515399 -0.1214914082 0.1273021269
330298020.0 -0.1262175962 0.115464238 0.4340990221 -0.352712985 0.4343181122 -0.3524582126 -0.1201860544 0.1286667936
335297990.0 -0.1254142846 0.1164656346 0.4301059619 -0.3571123326 0.430497035 -0.3571367709 -0.11904693 0.1301066096
340297960.0 -0.1249213803 0.1179187878 0.4259195359 -0.3619676231 0.4263445309 -0.3616797748 -0.1179647747 0.1315814608
345297930.0 -0.1238216655 0.1193603908 0.4219594566 -0.3660359352 0.4216424869 -0.3663375677 -0.1160436322 0.1329578159
350297900.0 -0.1222636465 0.1207757769 0.4180701296 -0.3709924646 0.4180309579 -0.3710178918 -0.1149697223 0.1346331804
355297870.0 -0.1213186071 0.1219461177 0.4135652781 -0.3758372526 0.4135903244 -0.3762305601 -0.1136838555 0.1360509847
360297840.0 -0.1202602193 0.1232864076 0.4097580474 -0.3805178183 0.4093338737 -0.3800647612 -0.1122298508 0.1376751793
365297810.0 -0.1191309941 0.124553417 0.4050948798 -0.3849406331 0.4051331303 -0.3846840189 -0.1107636118 0.1393539237
370297780.0 -0.1178379182 0.1258612118 0.4011694065 -0.3890745255 0.4011811192 -0.3894738667 -0.1092647835 0.140860389
375297750.0 -0.1168925591 0.1274695637 0.3971709563 -0.3936695776 0.3968692006 -0.3936585736 -0.1078218679 0.1423373555
380297720.0 -0.1154716607 0.1280474217 0.3922008864 -0.3981077395 0.3925665255 -0.3979492879 -0.1061151243 0.1437444174
385297690.0 -0.1144360344 0.1295492282 0.3879405663 -0.4019531924 0.388087231 -0.4025689575 -0.1044481168 0.1453054255
390297660.0 -0.113184155 0.1308867586 0.3834032412 -0.4063308312 0.3834561541 -0.4069499728 -0.1028430819 0.146138678
395297630.0 -0.1118694299 0.1319289887 0.3798041299 -0.4103928611 0.3789721056 -0.4109180857 -0.1014693861 0.1479631316
400297600.0 -0.1107758 0.1337642237 0.3743729665 -0.4149611952 0.374858027 -0.4149510036 -0.1004504207 0.1487678963
405297570.0 -0.1093450991 0.1347862836 0.3704163037 -0.4190638193 0.3699661908 -0.41915641 -0.098408619 0.1505694565
410297540.0 -0.1080188787 0.1356469776 0.3650284164 -0.4227992039 0.3649759501 -0.4227868102 -0.0966827404 0.1515713824
415297510.0 -0.1068229322 0.1371708177 0.3605490014 -0.4270599032 0.3607441376 -0.4269907345 -0.0954223333 0.1533803996
420297480.0 -0.1054352668 0.1379035326 0.3557076118 -0.4309799938 0.3558627989 -0.4310328367 -0.0932959287 0.1539905662
425297450.0 -0.1036508096 0.138968723 0.3513534934 -0.4348244612 0.3512871942 -0.4347615221 -0.0917021263 0.1556419093
430297420.0 -0.103054995 0.1405163758 0.3466667118 -0.4390753718 0.3464646991 -0.4389079045 -0.0900261108 0.1565423232
435297390.0 -0.1012588876 0.1414189032 0.3414377974 -0.442174747 0.3416593659 -0.4422810895 -0.0884576418 0.1582225583
440297360.0 -0.0997403952 0.1424705899 0.3363461664 -0.4462795852 0.3364962964 -0.4458781972 -0.0866607691 0.1588041939
445297330.0 -0.0983120137 0.1436674764 0.3316214605 -0.4502950925 0.3314503677 -0.4497020232 -0.0846787092 0.1598752652
450297300.0 -0.0969175154 0.1447245288 0.3265019808 -0.4537036265 0.3267633207 -0.4533789152 -0.0830882625 0.1614833448
455297270.0 -0.0956190514 0.145694081 0.3222269646 -0.456956217 0.3222024518 -0.4568098169 -0.0812636482 0.1623760798
460297240.0 -0.0943663761 0.1467554297 0.316864094 -0.4600715533 0.3166473887 -0.4605100833 -0.079466389 0.1641142704
465297210.0 -0.0925246807 0.1477889503 0.3121091425 -0.4636514489 0.312234745 -0.4634716664 -0.0780495524 0.164450199
470297180.0 -0.0913165173 0.1488495163 0.3066858161 -0.4670347914 0.306706784 -0.4667877752 -0.0766972823 0.1660833601
475297150.0 -0.0900333468 0.1495843762 0.3014407405 -0.4698197162 0.3015416528 -0.4699221435 -0.0744663528 0.1669129646
480297120.0 -0.0884061744 0.1505404403 0.2961145287 -0.4734639887 0.2965615725 -0.4735693713 -0.0726107475 0.1683551502
485297090.0 -0.0866352217 0.1518271677 0.2915594223 -0.4769853208 0.2912662439 -0.4768176552 -0.0708699731 0.1689298261
490297060.0 -0.0854075942 0.1526373611 0.2860305677 -0.4801134356 0.2862615317 -0.4800561434 -0.0690598374 0.1699921432
495297030.0 -0.0843147612 0.1537095178 0.2806025567 -0.4830662408 0.2806750497 -0.4831461767 -0.0674579579 0.1706920554
500297000.0 -0.0822392025 0.1545159552 0.2753238824 -0.4861354338 0.2755571465 -0.485876215 -0.0658135822 0.1716593586
505296970.0 -0.0810559442 0.1553552813 0.2698509162 -0.4885121005 0.2700106768 -0.4886649332 -0.0641771274 0.1727437982
510296940.0 -0.079687064 0.1563762472 0.2647938971 -0.4919026171 0.2650462466 -0.4919994071 -0.061914409 0.1739270283
515296910.0 -0.0784076812 0.1575193126 0.259405768 -0.4944110448 0.2594791744 -0.4943634899 -0.0600405732 0.1744462005
520296880.0 -0.0764609608 0.1579539053 0.2538549497 -0.497286584 0.253696307 -0.4968445511 -0.0580134767 0.1755857607
525296850.0 -0.0751620656 0.158859594 0.2486260104 -0.5002859248 0.2482213262 -0.5000219122 -0.0558734855 0.1763778701
530296820.0 -0.0735784937 0.1594413996 0.2431822589 -0.5017798963 0.2431178349 -0.5024839528 -0.0547079388 0.1765014576
535296790.0 -0.0719681842 0.1604974113 0.2372991615 -0.5050224049 0.2377811133 -0.5052021562 -0.0526830551 0.1772810578
540296760.0 -0.0702782403 0.1611559567 0.2320172291 -0.5078220058 0.2319752633 -0.5076549281 -0.0508140603 0.1786654977
545296730.0 -0.0689311777 0.1621687974 0.2265832509 -0.5096658764 0.2265983432 -0.5103607883 -0.048977525 0.1789108968
550296700.0 -0.0676477575 0.1629813103 0.2210774552 -0.5127564581 0.2216245508 -0.5128284256 -0.0471266245 0.1799477279
555296670.0 -0.0653950938 0.1637022506 0.2155174091 -0.5150689194 0.2158129494 -0.5147756204 -0.0451692053 0.1807331405
560296640.0 -0.0639659301 0.1643022083 0.2100157381 -0.5172239559 0.2098509934 -0.5169884669 -0.0431139805 0.181319061
565296610.0 -0.0627700656 0.1648686888 0.2041268979 -0.5193081033 0.2039746206 -0.5192592923 -0.0413563627 0.1820029516
570296580.0 -0.0608654828 0.1656161829 0.1985969963 -0.5213380323 0.1989855922 -0.5214461986 -0.0394195922 0.1831126111
575296550.0 -0.0591283496 0.1666180454 0.1928447925 -0.5234429362 0.1934980194 -0.5235746083 -0.037085904 0.1832655028
580296520.0 -0.0576890856 0.1674005374 0.1876732804 -0.5256273755 0.1872625032 -0.525648384 -0.0354261232 0.1837096011
585296490.0 -0.0561055566 0.1678925653 0.1816201782 -0.5278986914 0.1815227217 -0.5274104153 -0.0335144905 0.1841190036
590296460.0 -0.0546038918 0.1682936598 0.175552339 -0.52965471 0.1754281758 -0.5298367601 -0.0310577681 0.1848222465
595296430.0 -0.0528103565 0.1693383088 0.1700200267 -0.5314595297 0.1699322435 -0.531614369 -0.0290198036 0.1852518244
600296400.0 -0.0512393488 0.1698658452 0.1640200633 -0.5331976789 0.1647957366 -0.5329443563 -0.0273326277 0.1861252446
605296370.0 -0.0494768795 0.1707788776 0.158563109 -0.5350548299 0.1587360052 -0.5348127665 -0.0255226848 0.1861129698
610296340.0 -0.0481074712 0.1714046833 0.1530185327 -0.5366538919 0.1530015165 -0.5369103396 -0.0230522543 0.1871173282
615296310.0 -0.0462389868 0.1720686815 0.1465779681 -0.5381954149 0.1468977867 -0.5378552019 -0.0213082009 0.1872773981
620296280.0 -0.04457984 0.1721988242 0.1409726708 -0.5392892669 0.1412555734 -0.5395172389 -0.0192841816 0.1871714764
625296250.0 -0.0427576141 0.173120151 0.1348677419 -0.5415843321 0.1353216621 -0.5411373877 -0.017349465 0.1882401124
630296220.0 -0.0412438494 0.1735250176 0.1294428851 -0.5427772626 0.1296275222 -0.5428500146 -0.0154191168 0.1884315935
635296190.0 -0.0394094576 0.1741923489 0.1232173087 -0.5437831885 0.1229500527 -0.5435086295 -0.0133839346 0.1883767559
640296160.0 -0.037946674 0.1745501729 0.1175592582 -0.5448249635 0.1176658545 -0.544943379 -0.0111345241 0.1887705512
645296130.0 -0.0362160499 0.1751729715 0.1116666258 -0.5464363535 0.1121699921 -0.5464787901 -0.0098685648 0.1889495903
650296100.0 -0.0344479874 0.1759803401 0.1063138005 -0.5477768132 0.106172826 -0.5472984526 -0.0074040551 0.1891623881
655296070.0 -0.0328985513 0.1760667048 0.0999647503 -0.5483862879 0.0999235965 -0.5489523973 -0.0048697468 0.1898905414
660296040.0 -0.0312394202 0.1770831064 0.0943947503 -0.5494312645 0.0943281357 -0.5492450762 -0.003385338 0.1894161247
665296010.0 -0.0296477504 0.1770680336 0.0882687836 -0.5505771907 0.0885172856 -0.5506250948 -0.0011378683 0.1899428813
670295980.0 -0.0272716979 0.1776810243 0.0822843801 -0.5510115551 0.082844739 -0.5512234645 0.0003218474 0.18976779
675295950.0 -0.0258109441 0.1780468339 0.0759606798 -0.5521922009 0.0766455377 -0.5526033629 0.0029985027 0.190217427
680295920.0 -0.0241584036 0.1787591372 0.0701964635 -0.55296067 0.0703758792 -0.5532706024 0.0051466026 0.1903538466
685295890.0 -0.0224987448 0.1788601208 0.064614599 -0.5536119097 0.0643104437 -0.5536320749 0.0072749546 0.1903888395
690295860.0 -0.0204483924 0.179378138 0.0581753982 -0.5541505946 0.057769275 -0.554271229 0.0095227054 0.190398383
695295830.0 -0.018530111 0.1792143522 0.0516766305 -0.554461032 0.0520009594 -0.5548224512 0.0110350911 0.1907194695
700295800.0 -0.0167993046 0.17992589 0.0461482569 -0.555403185 0.0461390927 -0.5555089332 0.013650092 0.1904170091
705295770.0 -0.0151125145 0.1805645068 0.0404775768 -0.5559023676 0.0402150057 -0.5556233541 0.015054822 0.1901950136
710295740.0 -0.0133362264 0.1809247865 0.0341129462 -0.5560698023 0.0342036812 -0.5559392213 0.0168688864 0.1906341311
715295710.0 -0.0117385841 0.18096481 0.0282259516 -0.5563520481 0.0284645762 -0.5563997468 0.0194248994 0.1902993969
720295680.0 -0.0098368256 0.1807706761 0.0222387268 -0.5565321444 0.0221178381 -0.5569680556 0.0219469948 0.1904086352
725295650.0 -0.0079133271 0.1816280157 0.0160246647 -0.5565378308 0.0160471875 -0.556617244 0.0237381007 0.1901131355
730295620.0 -0.0064354813 0.1814292716 0.0102253357 -0.5566640194 0.0101206301 -0.5568694747 0.0259860197 0.1896398788
735295590.0 -0.0042184967 0.1817356322 0.0042840019 -0.5570890613 0.0045296885 -0.5570130357 0.027837839 0.1899539746
740295560.0 -0.0025873763 0.1823105138 -0.0017291368 -0.5566302437 -0.0020345207 -0.556986162 0.0302132295 0.1893427159
745295530.0 -0.0009022766 0.1822082928 -0.0079778818 -0.5569022626 -0.0076573859 -0.5570882424 0.0323102568 0.1895104182
750295500.0 0.000840573 0.1822299838 -0.0135283742 -0.5564310335 -0.013514097 -0.5566595903 0.0341327518 0.1887569419
755295470.0 0.0029959504 0.1827681779 -0.0196782169 -0.5566481381 -0.0195366327 -0.5569739348 0.0359403645 0.1891612146
760295440.0 0.0045702763 0.1828214022 -0.0261583889 -0.5562963899 -0.025812266 -0.5562723518 0.0379429155 0.1884339341
765295410.0 0.0059479095 0.1824758594 -0.0312489554 -0.555810302 -0.031386509 -0.5560440248 0.0407978651 0.1886236873
770295380.0 0.0083677613 0.1826527625 -0.0377380022 -0.5553006111 -0.0375960027 -0.5556764971 0.0426360281 0.188258079
775295350.0 0.0097348803 0.1828830533 -0.0436632831 -0.5550661297 -0.0434944568 -0.5551473515 0.044197911 0.187300952
780295320.0 0.0119387703 0.1827762306 -0.0491811989 -0.5545269318 -0.049347327 -0.5546202704 0.0464457918 0.1875130405
785295290.0 0.0134324224 0.1833546539 -0.0556003257 -0.5535322378 -0.0553725131 -0.5541657381 0.0481103415 0.187054881
790295260.0 0.0151998294 0.1831128047 -0.0612055887 -0.553104067 -0.0614218415 -0.5536199745 0.0508919632 0.1868432172
795295230.0 0.0173122455 0.1832234053 -0.0671735509 -0.5523300581 -0.0672055131 -0.552531673 0.052710855 0.1867919865
800295200.0 0.0189963763 0.18323174 -0.0733288798 -0.551830117 -0.0739101164 -0.5519594284 0.0548446617 0.1859837965
805295170.0 0.0205303858 0.1828978992 -0.0791397398 -0.5503927863 -0.0793301625 -0.5504447447 0.0565628547 0.1852750649
810295140.0 0.0225983468 0.1832414875 -0.0851187749 -0.5500912434 -0.0852503171 -0.5505307802 0.0589507215 0.1852734346
815295110.0 0.0243986043 0.1829838089 -0.0912739462 -0.5488282508 -0.0913214902 -0.5486376391 0.0606988175 0.1842188667
820295080.0 0.0262544302 0.1826784287 -0.0969303332 -0.5480152651 -0.0970472292 -0.5481587616 0.0624966863 0.1840224456
825295050.0 0.0279583686 0.1825289962 -0.102785395 -0.5461173772 -0.1029650269 -0.5463948004 0.0650257119 0.1835243634
830295020.0 0.029804398 0.1828887777 -0.1093296346 -0.5454861127 -0.1093459708 -0.5459631047 0.0665965643 0.1828094862
