!Created with skrf (http://scikit-rf.org).
# Hz S RI R 50.0 
!freq ReS11 ImS11 ReS21 ImS21 ReS12 ImS12 ReS22 ImS22
300000.0 -0.7837358626 -0.111904995 -0.0014740993 0.0007469279 0.0006136309 0.001479758 -0.2123125697 -0.0851612053
5299970.0 -0.7851482858 -0.0064990167 -9.2914e-06 -3.19719e-05 2.37152e-05 -4.13001e-05 -0.2145193889 0.008236463
10299940.0 -0.7881873877 -0.004219772 5.00537e-05 -5.47776e-05 0.0001005996 1.68604e-05 -0.2109516855 0.0213992078
15299910.0 -0.79367183 -0.0018304198 -0.0001206171 -3.82872e-05 5.46848e-05 -8.62273e-05 -0.2056634055 0.0313209187
20299880.0 -0.799863753 0.0019877988 7.8073e-05 -0.0001414736 -0.0002036173 3.95849e-05 -0.2001512813 0.039319295
25299850.0 -0.8060081882 0.0074160147 3.64368e-05 -0.0001085447 -8.69422e-05 0.000153221 -0.1933765749 0.045620438
30299820.0 -0.8127614928 0.0154049437 0.000353409 3.45057e-05 6.75104e-05 -0.0001212522 -0.1868513889 0.0507296584
35299790.0 -0.8174138721 0.024417864 -8.70174e-05 -5.7312e-06 4.64832e-05 -3.564e-05 -0.1806599223 0.0552360138
40299760.0 -0.8210362476 0.0337504613 3.82436e-05 1.8041e-06 3.59351e-05 -0.0001209125 -0.1747215555 0.0575425829
45299730.0 -0.824742558 0.0431458373 0.0001113534 2.9591e-05 4.63684e-05 0.0002001159 -0.1693879692 0.060141603
50299700.0 -0.8274566431 0.0532874154 3.4945e-05 0.0001543845 -4.62101e-05 -0.0001721641 -0.1641988396 0.0609640435
55299670.0 -0.8291688722 0.0630842431 5.86289e-05 -1.3746e-06 -6.79742e-05 -0.0001351051 -0.159619047 0.0622534719
60299640.0 -0.8300621433 0.0738102151 6.25987e-05 5.47653e-05 5.27451e-05 0.0002597365 -0.1548131873 0.0627376358
65299610.0 -0.8310387363 0.0832800156 -0.0001428162 -8.15443e-05 9.9868e-05 -6.98414e-05 -0.1516397707 0.0628698978
70299580.0 -0.8322327595 0.0936257666 6.758e-05 2.02615e-05 0.0002213778 -0.0001077025 -0.1480756043 0.062941337
75299550.0 -0.8319755252 0.1034312485 1.29355e-05 -0.0001315415 -4.19933e-05 4.64396e-05 -0.1445862419 0.0625428111
80299520.0 -0.8320018178 0.1133937966 -0.0001379646 -6.32157e-05 -2.88522e-05 0.000147643 -0.1421215521 0.0626618613
85299490.0 -0.8310951903 0.1228431661 -0.0001663989 2.82557e-05 3.26756e-05 0.0001646038 -0.1395122494 0.0626277524
90299460.0 -0.8302209938 0.1321873246 2.58837e-05 -0.000139192 -0.0001242369 0.0001259156 -0.1371134266 0.0623640293
95299430.0 -0.8295820885 0.1420639814 -3.14134e-05 -0.0001123037 -5.82819e-05 -2.98701e-05 -0.134780571 0.0619740471
100299400.0 -0.8278447614 0.1509988909 0.0002155077 5.03112e-05 0.0002781613 0.0001448756 -0.1327651172 0.0617620069
105299370.0 -0.8269231647 0.1601980174 -6.11506e-05 0.0001016551 2.27705e-05 8.06165e-05 -0.1309386829 0.0616623244
110299340.0 -0.8251949055 0.1692678728 0.0001453002 6.85759e-05 -1.80987e-05 -1.28881e-05 -0.1294412955 0.0615561282
115299310.0 -0.8242072881 0.1785810591 -9.66913e-05 3.9853e-05 0.000108465 -1.11379e-05 -0.1278415159 0.0612663282
120299280.0 -0.8222344342 0.1868195528 -2.22174e-05 -0.0001023626 0.0001943366 7.12845e-05 -0.1268711332 0.0611466706
125299250.0 -0.8201571713 0.1956848128 1.38156e-05 -7.26939e-05 -0.0001371936 0.0001350368 -0.1257777143 0.0608199335
130299220.0 -0.8186015429 0.2052001597 -1.92237e-05 0.0002729711 -0.0002086994 8.0099e-05 -0.1243354037 0.0606480301
135299190.0 -0.8169025718 0.2141032898 0.0002575716 -8.13753e-05 8.31136e-05 5.27635e-05 -0.1233444229 0.0606617339
140299160.0 -0.8146484386 0.2228804352 3.21276e-05 0.0001146007 8.97888e-05 0.0001238075 -0.12251481 0.0612095359
145299130.0 -0.8124013109 0.2321832388 5.99498e-05 -8.90869e-05 -3.7082e-06 -0.0001363523 -0.1212338707 0.0612380414
150299100.0 -0.8101217612 0.240778786 -9.44139e-05 0.000151046 0.0002030575 0.0001017099 -0.1208949849 0.0621041055
155299070.0 -0.8079536741 0.2490352166 -0.0001095223 0.0001853701 -0.0001037217 -5.6748e-06 -0.1197428734 0.0622480719
160299040.0 -0.8051889969 0.2581974251 -0.0001376596 0.0003388127 7.35442e-05 -4.76247e-05 -0.1194313588 0.062343904
165299010.0 -0.8027455195 0.2673895781 -3.74375e-05 9.73863e-05 0.0001796807 0.0001650727 -0.1186356742 0.062920878
170298980.0 -0.8000999043 0.2759370506 0.0001070945 3.03131e-05 0.0001473844 4.72673e-05 -0.1180446062 0.0635434471
175298950.0 -0.7971422746 0.2842160565 0.0002539568 0.0001182471 -8.3576e-06 -0.0001720834 -0.1176345954 0.06368472
180298920.0 -0.7948571734 0.2929173004 0.000191672 1.97719e-05 -5.20852e-05 3.84346e-05 -0.1172719982 0.0648907577
185298890.0 -0.7911251272 0.3006207288 0.0001698537 5.99918e-05 0.0001155429 -8.7289e-06 -0.1161863678 0.0650551508
190298860.0 -0.7884274899 0.3092806938 -1.02497e-05 0.0001672567 -0.0001523428 0.0001681285 -0.1159191966 0.0657062455
195298830.0 -0.7857784761 0.3184588991 -1.48551e-05 0.0001411752 8.81829e-05 2.36823e-05 -0.1155281813 0.0662444344
200298800.0 -0.7816456855 0.3262092228 0.0001586718 0.0001674003 -1.19938e-05 0.000227685 -0.1151211511 0.0667794966
205298770.0 -0.7783078273 0.334033795 3.44848e-05 -3.48926e-05 0.0001648649 5.93879e-05 -0.1148342581 0.0671863007
210298740.0 -0.7752123375 0.3423314385 -1.58933e-05 3.06837e-05 6.22047e-05 -3.56933e-05 -0.1143078793 0.0681766773
215298710.0 -0.7717658165 0.3505939835 -0.0001550689 0.0001828148 -0.0001361391 4.5101e-05 -0.1139308917 0.0688006045
220298680.0 -0.7676503568 0.35854033 -0.0001885523 0.0001773222 0.0003160335 2.51783e-05 -0.1137674698 0.069433952
225298650.0 -0.7641462892 0.3661549509 0.0002519469 9.57961e-05 0.0001664713 3.46939e-05 -0.1134686406 0.070017209
230298620.0 -0.76001263 0.37463059 -0.0001402017 -0.0001011081 3.52245e-05 2.71615e-05 -0.1129135223 0.0706587558
235298590.0 -0.7563929016 0.3834397885 -0.0001084632 -0.0001806666 0.0001772766 -3.822e-06 -0.1123409462 0.0718155053
240298560.0 -0.7527840852 0.3905979429 0.0001207682 0.0001709748 -8.94836e-05 -6.5861e-05 -0.1119337707 0.0726389177
245298530.0 -0.7485790085 0.3990105299 0.0001491215 2.76205e-05 -2.99377e-05 -6.06778e-05 -0.1117999057 0.0731072516
250298500.0 -0.7443478657 0.4065571347 0.000307781 -3.19313e-05 1.88004e-05 5.96624e-05 -0.1111137802 0.07380483
255298470.0 -0.7398704498 0.4136762027 0.0001815146 1.839e-05 -4.77596e-05 7.15206e-05 -0.1107666673 0.0745664045
260298440.0 -0.7355571126 0.4213361136 0.0002576141 2.77296e-05 2.41625e-05 4.51029e-05 -0.1100795645 0.075643161
265298410.0 -0.7311109435 0.4297954911 0.0003654363 2.21786e-05 3.19354e-05 5.87593e-05 -0.1096757982 0.0764600084
270298380.0 -0.7271686934 0.4372688471 0.0002335732 0.0002071735 2.27659e-05 -2.20613e-05 -0.1092891447 0.0771090919
275298350.0 -0.7224275923 0.4448778833 0.0002506039 0.0002329433 2.72378e-05 -1.57353e-05 -0.1084465343 0.0780017644
280298320.0 -0.7174684 0.4526457448 -0.000117677 0.0001503323 0.0002617205 0.0001735859 -0.1079416186 0.0788553722
285298290.0 -0.713234248 0.4601560872 0.0001740361 2.25356e-05 9.2363e-05 2.28661e-05 -0.1073531772 0.0796565428
290298260.0 -0.7081410185 0.4672151007 6.55119e-05 0.0001297906 4.1393e-05 0.0001655513 -0.1065929163 0.0805981264
295298230.0 -0.7028116509 0.4745467905 -5.17294e-05 9.69997e-05 0.0001712803 0.0001959365 -0.1058960568 0.0811956501
300298200.0 -0.6976348242 0.481954173 0.0001901372 8.80938e-05 -0.00010221 0.0001181277 -0.1053062478 0.0824929808
305298170.0 -0.692742541 0.4881569763 6.89303e-05 9.7321e-05 0.0001231198 0.0002142439 -0.1042296502 0.0829307786
310298140.0 -0.6875168778 0.4958447846 -5.10573e-05 6.90123e-05 0.000169887 9.28466e-05 -0.1041183546 0.0839691823
315298110.0 -0.6824681866 0.5028587942 0.0001609311 0.0001145915 1.32714e-05 3.48098e-05 -0.1034065998 0.0849599632
320298080.0 -0.6774893421 0.5099805522 3.07099e-05 0.0002108946 0.0001671294 0.0001573359 -0.1026030444 0.0860774987
325298050.0 -0.6717956349 0.5174001815 0.00034428 7.9698e-05 7.27092e-05 8.54907e-05 -0.1022049912 0.0866897483
330298020.0 -0.6662339581 0.5241914909 -0.0002351981 4.2065e-06 2.41048e-05 0.0003616758 -0.1015575018 0.0878284204
335297990.0 -0.6610052822 0.5310520258 0.0001077138 6.4147e-05 0.00013429 -1.70545e-05 -0.1013426 0.0890421867
340297960.0 -0.6558378398 0.5376733391 0.00030266 4.80968e-05 0.0003127144 -8.56379e-05 -0.1002633471 0.0901294191
345297930.0 -0.6500491594 0.5441805662 -2.9104e-05 0.000216044 0.0001224182 4.57207e-05 -0.100005194 0.0911274718
350297900.0 -0.6442963688 0.5508236315 0.0002352423 2.38465e-05 0.0002054117 0.0001069955 -0.099520081 0.0925377162
355297870.0 -0.6386664504 0.5578935117 0.0001749766 0.0001724928 0.0001220012 -5.06928e-05 -0.0989172511 0.0934299275
360297840.0 -0.6327648444 0.5633577335 0.0002069228 0.0001263185 0.0003724746 -0.0001305135 -0.0981895187 0.0944763365
365297810.0 -0.6274854614 0.5700623553 9.03809e-05 4.91591e-05 2.60021e-05 -6.53586e-05 -0.0972048482 0.0957284487
370297780.0 -0.62152204 0.5765020926 7.26732e-05 -5.75567e-05 4.621e-05 0.0001339836 -0.0963007471 0.0967362491
375297750.0 -0.6145786241 0.5832024297 3.9293e-05 -0.0001291336 1.9008e-05 0.0001843532 -0.0960830084 0.0973711447
380297720.0 -0.6087650272 0.5889511801 0.0002555015 0.0003277271 -0.0001437911 0.0001976297 -0.0956849224 0.0985411142
385297690.0 -0.6032589344 0.595535677 0.0001575823 -9.01194e-05 7.53784e-05 -6.05646e-05 -0.0945183879 0.0994603699
390297660.0 -0.5968916937 0.6014887205 6.12557e-05 9.8049e-06 7.96921e-05 4.72861e-05 -0.0944098571 0.1006952267
395297630.0 -0.5901532799 0.6078114424 0.0002014686 5.36615e-05 4.85195e-05 -9.74581e-05 -0.0931177268 0.1017852562
400297600.0 -0.5842924757 0.6141955882 0.0002152902 0.0002175657 0.00010878 -5.03477e-05 -0.0922626446 0.1028330257
405297570.0 -0.5775267673 0.6195646739 0.0003349608 -2.07256e-05 0.0002566455 9.0516e-06 -0.0917660622 0.1034569294
410297540.0 -0.5708557621 0.6252386856 3.20465e-05 3.77553e-05 0.000196827 -0.0001133358 -0.0910901224 0.1048871106
415297510.0 -0.5645925802 0.6313803239 5.37469e-05 5.01986e-05 0.0001002555 0.0001032209 -0.0904912873 0.1054959677
420297480.0 -0.5591110732 0.6371516482 0.0001462409 -5.03959e-05 0.0001738459 -0.000187024 -0.0896919133 0.1064691342
425297450.0 -0.5517494758 0.6427625947 0.0002914874 0.0002709368 0.0001156397 0.0001156699 -0.0886839645 0.1072359472
430297420.0 -0.5455097158 0.6480549649 9.2047e-05 0.0002192337 0.0001180131 -0.0002003297 -0.087939736 0.1082408089
435297390.0 -0.5383774938 0.6530992689 0.0001712035 0.0001034525 -3.43301e-05 0.0001115594 -0.0869070984 0.1090354481
440297360.0 -0.5317161892 0.6591764907 0.000262033 8.56734e-05 5.48236e-05 1.65393e-05 -0.0859027312 0.110224967
445297330.0 -0.5250560388 0.6641513309 2.97532e-05 -3.3244e-05 8.47198e-05 0.0001066976 -0.0849416246 0.1105136872
450297300.0 -0.5182098105 0.6694169268 0.0002537258 3.76482e-05 0.0001782765 -7.51331e-05 -0.0838381655 0.1116556892
455297270.0 -0.5113611835 0.674133882 2.49481e-05 0.000113727 1.91244e-05 -2.3118e-05 -0.0830413547 0.1126655023
460297240.0 -0.5049808537 0.6797148553 0.0001079174 7.65068e-05 2.04797e-05 -5.03442e-05 -0.0818640393 0.113526159
465297210.0 -0.4977036204 0.6848672183 0.000197666 -0.0002224038 0.0002217836 -7.2204e-05 -0.0810098523 0.1141766329
470297180.0 -0.4902770502 0.6896449256 0.0002543919 0.0001807127 0.0001075689 0.0002030468 -0.0799316933 0.1155356882
475297150.0 -0.4836247165 0.6943729433 0.0002122299 -8.34118e-05 9.99557e-05 0.000312466 -0.0787093585 0.1160207835
480297120.0 -0.4769147182 0.6996447402 0.0002405171 0.0001109515 0.0002356116 7.35141e-05 -0.0776440162 0.1173716586
485297090.0 -0.4692786241 0.7038831102 5.39508e-05 0.000161248 -1.2849e-06 -1.35483e-05 -0.0764058188 0.117948901
490297060.0 -0.4624586244 0.7085718293 0.0002081083 -4.05305e-05 0.0001122506 3.40133e-05 -0.0756433071 0.1189580596
495297030.0 -0.4551685933 0.7127507303 2.56785e-05 0.0002597423 0.000148139 -8.14481e-05 -0.0744293851 0.1199782247
500297000.0 -0.4475351482 0.7181073417 3.56882e-05 -0.0001307965 9.10909e-05 -7.62303e-05 -0.0733969067 0.1214451699
505296970.0 -0.4399258328 0.722491132 0.0002366143 0.0001352343 0.0001253282 -0.0001058165 -0.0724198482 0.1216928894
510296940.0 -0.4332127385 0.7270797492 0.0001329585 0.0002608366 -4.01306e-05 0.0001624922 -0.0710628741 0.1225221532
515296910.0 -0.4250151874 0.7308068196 0.0001445657 -0.0001406239 -6.25236e-05 0.0001282338 -0.0701461855 0.1236452708
520296880.0 -0.4184723912 0.7350858093 0.0001878476 3.16423e-05 0.000155543 0.0001994575 -0.0692729297 0.124614572
525296850.0 -0.4097932701 0.7388169545 8.1238e-05 0.0002757795 0.0001289923 0.000101911 -0.0679078209 0.125790137
530296820.0 -0.4026955653 0.7431439649 6.78641e-05 -8.54401e-05 0.0002185427 9.83748e-05 -0.0670202525 0.1265959478
535296790.0 -0.395907284 0.747409481 0.0002601598 -0.0001725719 0.0001071891 6.93214e-05 -0.066124549 0.1272532263
540296760.0 -0.3881316649 0.750986099 0.0001613426 0.0002031863 9.10891e-05 8.5422e-06 -0.0650980431 0.1277216349
545296730.0 -0.3810533545 0.7550092378 0.0004633512 5.08725e-05 1.305e-05 -0.0001970648 -0.0639445802 0.1288478365
550296700.0 -0.3732174101 0.7592071042 -2.75057e-05 0.0001839584 0.000149426 6.76903e-05 -0.062546106 0.1299413306
555296670.0 -0.3644454978 0.7614678533 0.0003249044 0.0001503075 6.40265e-05 -7.60272e-05 -0.0614382081 0.1308284707
560296640.0 -0.3578525116 0.7664970576 0.0002214326 9.50629e-05 8.74044e-05 2.48199e-05 -0.0604055303 0.1314232048
565296610.0 -0.349072898 0.7694586488 6.47762e-05 -0.0001609321 7.19055e-05 5.89248e-05 -0.0592434978 0.1321005579
570296580.0 -0.342097397 0.7725458054 5.13221e-05 0.0001742134 0.0001853036 4.73009e-05 -0.0585377332 0.133207277
575296550.0 -0.3346130295 0.776768903 0.0004311491 0.0001841847 0.0001088339 -0.0001233575 -0.0572975946 0.1336756715
580296520.0 -0.3259542038 0.7793960283 0.000267263 0.0002099273 8.25546e-05 1.6501e-05 -0.0558101564 0.1345180662
585296490.0 -0.3185006201 0.7824022685 -2.3155e-05 -3.59088e-05 0.0002567606 -2.12285e-05 -0.0549545237 0.1350020137
590296460.0 -0.3101996649 0.7856872941 0.0001947026 0.0002024619 0.000321993 -7.6223e-05 -0.0539512453 0.1360376801
595296430.0 -0.302897564 0.7884481113 0.0004068766 -9.73001e-05 -1.37262e-05 5.06954e-05 -0.0525824027 0.1359733537
600296400.0 -0.2949777595 0.7920344312 0.0001166799 3.55924e-05 0.0002785098 2.47398e-05 -0.0513559633 0.1367182501
605296370.0 -0.2879550743 0.7946570723 0.0002980098 0.0001185137 0.000228089 -9.44208e-05 -0.0495925697 0.1373804901
610296340.0 -0.2788733664 0.7970042281 0.0002138868 8.41966e-05 0.0002547489 -0.0001733104 -0.0486195864 0.1383370249
615296310.0 -0.2701767795 0.8002081087 -4.993e-07 -0.0001277736 0.0001106971 1.56469e-05 -0.0473622802 0.1382470044
620296280.0 -0.2630220259 0.8017653129 0.0001819959 0.0001135094 0.00020457 6.25707e-05 -0.0458740671 0.1392190116
625296250.0 -0.2549941981 0.8048601811 0.0002404348 1.65882e-05 -2.31241e-05 -2.31292e-05 -0.0443354429 0.1396961164
630296220.0 -0.2460559315 0.8076950699 0.0002500674 7.6028e-06 0.0002124755 6.81841e-05 -0.0432128333 0.1404439952
635296190.0 -0.2387750339 0.8103575992 0.0003042783 -9.43579e-05 0.0002809799 3.15581e-05 -0.0418622861 0.1411378005
640296160.0 -0.2309071791 0.811978162 0.0002510645 6.50669e-05 0.0003337958 2.535e-06 -0.0403624768 0.1412268664
645296130.0 -0.2222211736 0.8149889221 0.0001037131 -1.12094e-05 -1.58948e-05 -0.0001793314 -0.0391200971 0.1422546613
650296100.0 -0.2144321579 0.8169241108 0.0002668862 -0.0001420718 0.0002960231 8.012e-06 -0.0378577497 0.1426601287
655296070.0 -0.2060802971 0.8190544423 0.00016031 -9.81579e-05 0.000152002 -1.62802e-05 -0.0362856761 0.1431166735
660296040.0 -0.1980593105 0.8202634793 0.0003570191 1.25824e-05 0.0002148337 3.5781e-05 -0.034882831 0.1435958806
665296010.0 -0.1898704526 0.8225136224 0.0003557102 6.3837e-06 0.0001354255 7.73793e-05 -0.0335057076 0.1447433006
670295980.0 -0.1817250694 0.8243078292 0.0002280119 0.0002084279 0.0001905216 -0.0003318833 -0.0324366304 0.1450007697
675295950.0 -0.1735311827 0.8263668512 0.0003753859 -9.44925e-05 0.0001941663 2.81312e-05 -0.031168873 0.1460620626
680295920.0 -0.1649153237 0.8281308991 0.0001635821 -0.0001818942 0.0002600301 -7.2476e-06 -0.0293951057 0.1465644937
685295890.0 -0.1567545894 0.8301348948 0.0004192501 3.83527e-05 0.0001348332 -0.0002025055 -0.0280371813 0.1468279797
690295860.0 -0.1487540795 0.8308143487 0.0001671999 -9.47172e-05 0.0001589824 0.0002327841 -0.0266421281 0.1477927213
695295830.0 -0.140132056 0.8321920719 0.0003464187 -8.58778e-05 0.0003653847 -0.0002986508 -0.0251146733 0.1481142595
700295800.0 -0.1319982274 0.8335012912 0.0003149474 -7.53823e-05 0.0004230269 -0.0002182081 -0.0242548858 0.1484259427
705295770.0 -0.1243402507 0.8350961485 0.000157138 0.0003146789 0.0001333489 -5.42994e-05 -0.0228146056 0.1495896155
710295740.0 -0.1156906655 0.8363418131 0.0001214424 -7.83923e-05 0.0002479933 -0.0001156888 -0.0215976661 0.1494651936
715295710.0 -0.1074949228 0.8371749635 0.0001362945 -0.0002059823 0.0001979339 2.37002e-05 -0.0201183941 0.1500028526
720295680.0 -0.0990368745 0.8382722746 0.0002524166 -1.53835e-05 0.0003717957 -0.0001343555 -0.0186290914 0.1502621804
725295650.0 -0.0904987952 0.8399162134 -1.325e-05 -0.0001353116 0.0002095851 0.0001556889 -0.0176678671 0.1511049593
730295620.0 -0.0820764025 0.8404395115 0.0001648179 -5.82736e-05 6.55208e-05 7.39706e-05 -0.0163435271 0.1514700772
735295590.0 -0.0742123171 0.8408118067 0.0003568448 -2.67761e-05 0.0002186911 9.26256e-05 -0.0150649842 0.1513596944
740295560.0 -0.0659372408 0.8425824271 0.0003096081 0.0001320486 0.000312377 2.59485e-05 -0.0131930126 0.1519321287
745295530.0 -0.0573983471 0.8425919745 -1.49355e-05 0.0001133127 0.0001541045 -0.0001830372 -0.012110322 0.1521907079
750295500.0 -0.0490587428 0.8426739093 0.000244109 -3.79506e-05 9.53167e-05 -0.0003264199 -0.0105671791 0.1524059071
755295470.0 -0.0402545956 0.8431290287 0.0002244233 5.82373e-05 0.0001136139 8.50337e-05 -0.0094614317 0.1527040359
760295440.0 -0.0325443324 0.8434370248 0.0001273226 -0.0002081663 0.0002864653 -4.55495e-05 -0.0082811373 0.1526739459
765295410.0 -0.0241414605 0.8437568855 -2.77482e-05 -3.2865e-06 0.0002660098 0.0001506121 -0.006522055 0.1532653999
770295380.0 -0.0160417214 0.8442475291 0.0003969227 -6.22626e-05 0.0005722793 5.74855e-05 -0.0052104285 0.1536162413
775295350.0 -0.0070791004 0.8440368796 0.0002028703 -1.90373e-05 0.0003830549 0.0001849434 -0.0038832093 0.1536186387
780295320.0 0.0010519634 0.8444304986 0.0002037708 -0.0001778255 0.0002242249 -6.68072e-05 -0.0026034434 0.153550759
785295290.0 0.0090411887 0.8437518804 0.0002441343 -0.0001476117 0.0001128207 -0.0001379366 -0.0004479072 0.1538304114
790295260.0 0.018061516 0.8435886593 0.0001591731 -0.0001884301 0.0001503873 -0.0001486173 0.0012944496 0.1540202973
795295230.0 0.0254894077 0.8430899519 0.0003155562 -0.0001231305 0.0001981169 -8.04977e-05 0.0030359183 0.154283464
800295200.0 0.033915359 0.8428872177 0.0003523581 -0.0001583313 0.0003404761 -0.0001603418 0.0041103449 0.1545505928
805295170.0 0.0433923062 0.8429584482 0.0002019864 -0.0002363203 0.0001508828 -3.14068e-05 0.0055724953 0.1546320322
810295140.0 0.0510689879 0.8421582196 7.98196e-05 -6.49894e-05 8.55053e-05 -0.0001174939 0.0072266378 0.1545450957
815295110.0 0.058993029 0.8417312706 0.0001535281 1.09956e-05 0.0003538952 -8.4461e-05 0.0085532261 0.1548376362
820295080.0 0.0672477874 0.8413601652 4.84676e-05 -5.54828e-05 0.0003253423 0.0001369512 0.0105027054 0.1551020037
825295050.0 0.0767314444 0.8402843911 5.36561e-05 -9.7735e-05 0.0003347263 -5.27518e-05 0.0119377857 0.1552877006
830295020.0 0.0845388315 0.8398006547 0.0003853589 -0.0001268347 0.000309798 -8.45893e-05 0.0136489088 0.154861206
835294990.0 0.0923648248 0.8390897844 0.0002338902 -4.19789e-05 3.9969e-05 -9.18498e-05 0.0146068031 0.1555670542
840294960.0 0.1001288903 0.8383542879 0.0001749595 -0.0001899336 0.0003667893 8.5293e-06 0.0164811109 0.1555256466
845294930.0 0.1086154124 0.8372461572 0.0001816142 8.33409e-05 0.0002880524 -3.41119e-05 0.0178558458 0.1555319621
850294900.0 0.1168978255 0.8365164136 0.0001464136 -2.37826e-05 0.0002173981 -0.0002144374 0.0191920768 0.1558548807
