!Created with skrf (http://scikit-rf.org).
# Hz S RI R 50.0 
!freq ReS11 ImS11 ReS21 ImS21 ReS12 ImS12 ReS22 ImS22
300000.0 -0.7771899319 -0.0937289849 -0.0016237847 0.0017398093 0.0029994323 0.0016116594 -0.7759048971 -0.1262088299
5299970.0 -0.7849482083 -0.0056621713 3.34985e-05 -4.52809e-05 5.40997e-05 -0.0001801634 -0.7846431611 -0.0072655605
10299940.0 -0.7882484805 -0.0041399949 3.0551e-05 0.000155874 -1.05029e-05 -0.0001647279 -0.787898826 -0.0036021987
15299910.0 -0.7935810576 -0.0018356611 -0.0002211063 0.0002837581 9.01216e-05 1.63507e-05 -0.7929421076 -0.0011933252
20299880.0 -0.7998090934 0.0019962984 -8.97905e-05 0.0001229112 -0.0001483488 1.22595e-05 -0.7995096238 0.0020006247
25299850.0 -0.8065286862 0.008061153 1.18479e-05 0.0001966259 -0.0002523265 -8.35698e-05 -0.8059968247 0.0083596852
30299820.0 -0.8123817904 0.0156297769 -2.01827e-05 -0.000145142 3.10401e-05 8.1369e-06 -0.8115653205 0.016113081
35299790.0 -0.8174799923 0.0248922898 -5.01558e-05 1.00953e-05 -5.65905e-05 0.0001638874 -0.8171899671 0.0251567236
40299760.0 -0.8217110897 0.0338617743 6.54437e-05 -9.2979e-05 0.0001275178 0.0002187717 -0.8212998505 0.0349968955
45299730.0 -0.8244057345 0.0434240215 -5.53861e-05 -2.25244e-05 -1.17797e-05 2.3079e-05 -0.8250170871 0.0442991017
50299700.0 -0.8272104661 0.053178948 -8.43802e-05 0.0001890274 -8.32787e-05 8.15685e-05 -0.8274764716 0.0540706175
55299670.0 -0.8292176707 0.0634027052 1.91874e-05 4.07431e-05 0.0002147698 3.88076e-05 -0.8292411344 0.0640091999
60299640.0 -0.830396755 0.0731348242 -6.54187e-05 -2.26936e-05 0.0001391062 -0.0001000369 -0.8305907088 0.0741739323
65299610.0 -0.8314133552 0.0834901982 8.69195e-05 9.48489e-05 -2.82877e-05 -2.3839e-06 -0.8323695178 0.0841842789
70299580.0 -0.8319797014 0.0936822453 0.0001641873 -6.66588e-05 -0.0001861579 9.30778e-05 -0.8320494032 0.0947149013
75299550.0 -0.8319170089 0.1037639523 -0.0002485843 -3.97138e-05 -0.00014885 -5.18924e-05 -0.8324641972 0.1039108295
80299520.0 -0.8319047658 0.113827528 -9.84714e-05 -4.33827e-05 1.72377e-05 -1.65781e-05 -0.832469791 0.1140077537
85299490.0 -0.8309004083 0.122587376 0.0001696373 4.16981e-05 4.09235e-05 -0.000113827 -0.8316613577 0.1232924803
90299460.0 -0.8302824435 0.1324891985 0.0001010785 0.0001107317 -1.5671e-06 -0.0001136491 -0.830430651 0.133262246
95299430.0 -0.82914491 0.1418700752 -2.35892e-05 -2.14745e-05 4.07212e-05 8.50959e-05 -0.8295275664 0.1429825786
100299400.0 -0.8278482312 0.150862624 -9.71113e-05 0.0001431346 6.46487e-05 9.93623e-05 -0.8289535114 0.1526755069
105299370.0 -0.8269504092 0.1609999137 8.7848e-06 -5.44909e-05 -2.28373e-05 0.0001422817 -0.8271030033 0.1611019995
110299340.0 -0.825382044 0.1696206231 -0.000104626 0.0001301668 -0.0001277184 -9.51113e-05 -0.8257359769 0.1707528789
115299310.0 -0.8238026308 0.1786486871 7.33878e-05 -3.64164e-05 8.09546e-05 -4.63409e-05 -0.8240185167 0.1795884139
120299280.0 -0.8220354396 0.1874383154 -3.67602e-05 3.75783e-05 1.68874e-05 3.02146e-05 -0.8225164951 0.189290715
125299250.0 -0.8202920382 0.1962284415 -9.2634e-05 -0.000100956 6.76804e-05 0.0001432139 -0.8207842221 0.1982912302
130299220.0 -0.8187979848 0.2057461215 -4.72356e-05 -0.0001901013 0.0001738878 0.0001403596 -0.8189427136 0.2068612123
135299190.0 -0.8170393503 0.2142754142 1.31011e-05 2.35663e-05 -0.0001061234 5.23209e-05 -0.8167110956 0.2159311484
140299160.0 -0.8146305871 0.2236362352 0.0001527955 -9.9414e-06 0.0001266758 2.87255e-05 -0.8140114278 0.2249612517
145299130.0 -0.8125833089 0.2327540267 -0.0001483408 -0.0001739088 -0.0002720027 -1.70061e-05 -0.8121624451 0.2339478008
150299100.0 -0.8099710243 0.2409749678 7.12714e-05 7.46678e-05 -1.34808e-05 -0.0001603796 -0.8105936362 0.2428415959
155299070.0 -0.8076196399 0.2499145702 -0.0002140351 -6.356e-06 -5.66488e-05 -7.66444e-05 -0.8077454751 0.2516868669
160299040.0 -0.8050170627 0.2580277011 0.0001610972 4.25288e-05 -1.54332e-05 8.32141e-05 -0.8052984543 0.2608659804
165299010.0 -0.8028848814 0.2672280725 8.35426e-05 1.95779e-05 8.50885e-05 0.0002664322 -0.8026591625 0.2696938081
170298980.0 -0.8001034392 0.275681836 7.35655e-05 4.8872e-06 -0.0001485056 0.0001610197 -0.7994811056 0.2780516635
175298950.0 -0.7971492154 0.2841517388 1.08737e-05 1.96833e-05 -0.0001041699 -6.8847e-06 -0.7968715104 0.2865600402
180298920.0 -0.7946882079 0.2933869906 -9.59617e-05 -0.0001740317 -0.0002524669 0.0001012868 -0.7937300069 0.2955268521
185298890.0 -0.7911339802 0.3011282195 6.18301e-05 3.50135e-05 -0.000116369 4.7018e-06 -0.790408678 0.3043422801
190298860.0 -0.7885575843 0.3096702833 -5.57382e-05 -4.03392e-05 -0.0001821075 -0.000168406 -0.7878301847 0.3125084533
195298830.0 -0.7854908914 0.3179189387 -1.9183e-06 -0.000114153 -0.0001803836 0.0001336247 -0.7849636343 0.3209850812
200298800.0 -0.7815483495 0.3263092931 1.28218e-05 8.77476e-05 -0.0001085221 3.42384e-05 -0.7818051405 0.3289507118
205298770.0 -0.7784261714 0.3342672902 -2.77297e-05 7.54399e-05 -6.13718e-05 -3.36598e-05 -0.7775195886 0.3378659869
210298740.0 -0.7748196848 0.3426259534 0.0001483636 -4.27659e-05 -7.14864e-05 -0.0001030515 -0.7746665359 0.3460363474
215298710.0 -0.7718800073 0.3507258784 5.58683e-05 6.01928e-05 -1.772e-07 -0.0001020391 -0.7707434817 0.3539846886
220298680.0 -0.76759072 0.3585919766 0.0001406841 -7.71669e-05 -0.0001317442 -4.00995e-05 -0.7674529927 0.3618726202
225298650.0 -0.7641405293 0.3670185514 4.6438e-06 0.0001128615 0.0002007363 -8.46383e-05 -0.7635005035 0.3708624288
230298620.0 -0.7600464295 0.3748684208 -4.61059e-05 -0.0001404228 0.0001233993 -0.0001784958 -0.7596837358 0.3786307217
235298590.0 -0.7560120342 0.3835229756 -0.000171102 0.0001443002 1.70744e-05 4.17468e-05 -0.7557919675 0.3872595087
240298560.0 -0.7523309286 0.3912745622 -0.0002696331 1.38456e-05 7.0173e-06 -0.0001278969 -0.7516942053 0.395402415
245298530.0 -0.7480466258 0.3992066691 -1.92697e-05 -2.15721e-05 -3.61504e-05 -0.0001111621 -0.7473998039 0.4027328971
250298500.0 -0.7439816747 0.4069223294 -5.43504e-05 -9.83661e-05 -5.505e-07 1.74133e-05 -0.743636217 0.4102724679
255298470.0 -0.739633741 0.4138556053 -0.0001251596 -6.84531e-05 0.0001968116 7.94677e-05 -0.7386388262 0.4181244402
260298440.0 -0.7352458845 0.4217150689 0.0001431614 0.000249365 0.0002388402 0.0002210245 -0.7347577291 0.4265745936
265298410.0 -0.7313129114 0.4302280978 1.01414e-05 5.05832e-05 0.0001174251 -3.67944e-05 -0.730432287 0.4334378607
270298380.0 -0.7268698866 0.4377133217 0.0002335532 -0.0001343598 -3.9531e-06 -6.56771e-05 -0.7254539253 0.4412588883
275298350.0 -0.722394467 0.4448544555 -1.55743e-05 -0.000121197 1.31144e-05 0.0001723471 -0.7205586053 0.4482792973
280298320.0 -0.7165730072 0.4526389889 2.36679e-05 0.0001257987 7.77632e-05 0.0002319232 -0.7162368767 0.456286164
285298290.0 -0.7127437929 0.4602608966 4.33305e-05 -6.57835e-05 -3.2309e-05 2.98206e-05 -0.7111798597 0.4634282122
290298260.0 -0.7074093353 0.4679499543 -0.0001244466 5.54763e-05 -1.87888e-05 0.0001476963 -0.705836688 0.4714364635
295298230.0 -0.7024925748 0.4744815616 0.0001376145 0.0001637829 3.40758e-05 5.77047e-05 -0.701088019 0.4778255403
300298200.0 -0.6979382917 0.4819795043 1.08384e-05 -0.0002470316 -0.0001268502 -6.2366e-06 -0.6960062338 0.4855490689
305298170.0 -0.6925605643 0.4882941127 4.94044e-05 -1.77586e-05 0.0001415794 -0.0001152588 -0.6899831281 0.4930429853
310298140.0 -0.6872246312 0.4957353376 0.0001505183 -1.4815e-05 0.0001147773 0.0001934141 -0.6856142377 0.4999883953
315298110.0 -0.6828034417 0.5032710864 -5.3505e-05 8.284e-07 -2.01176e-05 -0.0001181192 -0.6797668311 0.5070590668
320298080.0 -0.6774011328 0.5099873957 -2.83292e-05 -1.01342e-05 4.38783e-05 0.0002128089 -0.6749092716 0.514976291
325298050.0 -0.6720458764 0.5170980871 2.03726e-05 -0.0001130309 1.16697e-05 0.0001028799 -0.6693478583 0.5213461498
330298020.0 -0.6661475207 0.5240505276 0.0001730291 -9.62554e-05 1.53759e-05 -0.0002007253 -0.6635538961 0.5283347121
335297990.0 -0.6609495091 0.5305318097 -6.61865e-05 3.38591e-05 -5.64e-06 4.68796e-05 -0.6585227971 0.5355553078
340297960.0 -0.6557116456 0.5376186717 -2.96373e-05 -0.0001388462 -0.0002117792 -5.86816e-05 -0.6524429545 0.5425151383
345297930.0 -0.6503757678 0.5441551607 9.47957e-05 1.8381e-06 -5.46138e-05 -0.0001532884 -0.646919192 0.5481574623
350297900.0 -0.6444747562 0.550934027 -0.0001020233 0.0001903881 -1.84734e-05 8.6697e-05 -0.6415249343 0.5555702539
355297870.0 -0.6375302496 0.5581119792 0.0003069464 -0.0001162108 0.0001273247 -7.72963e-05 -0.6354607683 0.5620874191
360297840.0 -0.632597004 0.5636972485 -5.03057e-05 5.67997e-05 -0.0001161337 0.0001499141 -0.6296590317 0.5690039581
365297810.0 -0.6274768282 0.5707221219 -1.90569e-05 -3.2885e-05 1.75653e-05 -6.70525e-05 -0.6232051068 0.5755282898
370297780.0 -0.6207169221 0.5772228811 7.71064e-05 0.0001504261 -0.0001647253 -1.48745e-05 -0.6175938954 0.5821543333
375297750.0 -0.6149064941 0.5837366062 3.03377e-05 4.47715e-05 1.53853e-05 1.0308e-05 -0.6117928855 0.5876919986
380297720.0 -0.6084700704 0.5891411764 8.93262e-05 4.01096e-05 -3.19762e-05 -2.55574e-05 -0.6059558708 0.5950460369
385297690.0 -0.6034112179 0.5957246658 4.33834e-05 -0.0001006589 -5.00595e-05 -0.0002127903 -0.5996774299 0.6014046104
390297660.0 -0.5967573616 0.6015565903 -6.55635e-05 -3.29226e-05 0.0001104332 -8.294e-06 -0.5934128959 0.6069897669
395297630.0 -0.5899540681 0.6078573859 0.000140317 1.07945e-05 -0.0001989483 3.85022e-05 -0.5865663953 0.6131087812
400297600.0 -0.5837666661 0.6141831225 -2.94232e-05 7.92205e-05 8.35548e-05 0.0001408958 -0.5806682754 0.6187064981
405297570.0 -0.5780959776 0.6196607852 -0.0001408817 7.00293e-05 -7.97914e-05 0.0001898006 -0.5743189498 0.6247617543
410297540.0 -0.5712873979 0.6254782838 -4.04643e-05 5.68442e-05 -0.0002093347 -0.0001448795 -0.5671560058 0.6313768888
415297510.0 -0.5645391189 0.630971196 -4.45621e-05 -8.56499e-05 -6.7438e-05 -4.6499e-05 -0.5609368823 0.6365853775
420297480.0 -0.5588198022 0.6369818486 -7.0329e-05 7.7847e-06 2.60073e-05 6.70125e-05 -0.5541986147 0.6425778187
425297450.0 -0.5509329143 0.6426837532 -0.0002265151 6.2793e-05 -3.66181e-05 8.83608e-05 -0.5475778425 0.6480459376
430297420.0 -0.5450570899 0.6483454095 0.00010148 -1.47404e-05 -8.22872e-05 -6.55803e-05 -0.5417953611 0.6534245085
435297390.0 -0.5381079456 0.6534014222 -5.88143e-05 0.0001496773 8.87947e-05 -2.51398e-05 -0.5339815632 0.6584037028
440297360.0 -0.5315588107 0.6592798119 0.0002079575 5.454e-06 8.2142e-06 0.0001479815 -0.5271903738 0.6636159474
445297330.0 -0.5249275925 0.6645458671 1.44084e-05 -5.27431e-05 -6.85935e-05 0.0002964131 -0.5202122379 0.6689098664
450297300.0 -0.5179494225 0.6696270579 6.13211e-05 0.0001283703 3.74336e-05 -1.17708e-05 -0.5131573586 0.6742254393
455297270.0 -0.5110941029 0.6744910797 0.0001206844 2.399e-07 -4.13707e-05 -6.22617e-05 -0.5066277369 0.6786286152
460297240.0 -0.5047081126 0.6795304654 -0.0001156192 -0.0002622338 -0.000240049 -0.0001739671 -0.4995668281 0.6841491095
465297210.0 -0.4979656397 0.6849461957 -2.33725e-05 -5.2794e-05 -5.62294e-05 3.72173e-05 -0.4917599385 0.6892819796
470297180.0 -0.4904973879 0.6899415341 9.2388e-05 -2.96176e-05 0.0001042844 9.47897e-05 -0.4848391039 0.6942321192
475297150.0 -0.4834834224 0.6944682826 -6.5251e-05 -4.26596e-05 4.4556e-05 6.27749e-05 -0.4773735324 0.6985118922
480297120.0 -0.4764534727 0.699638674 -0.0001501278 -0.0001724028 -8.75589e-05 -7.30117e-05 -0.470185312 0.7037911395
485297090.0 -0.4693004175 0.7042837374 -0.0002316214 0.0001110708 7.88789e-05 -0.0001118497 -0.463161229 0.7086211281
490297060.0 -0.4620832752 0.7091616959 1.44498e-05 0.0001427528 -0.0001150854 0.0001393113 -0.4559743204 0.7127459207
495297030.0 -0.4550756573 0.7131201123 0.0002034614 -1.61706e-05 -3.81784e-05 -6.79139e-05 -0.4487335601 0.7179551892
500297000.0 -0.4470637062 0.7184018651 1.56004e-05 -0.0001846876 -0.0001408667 -2.85568e-05 -0.4405522134 0.7228564993
505296970.0 -0.4401524057 0.7225727641 3.43018e-05 2.85772e-05 -5.6015e-05 -0.0001182851 -0.4339353555 0.7265737863
510296940.0 -0.4329455569 0.7269509304 -2.48723e-05 4.19942e-05 -2.21661e-05 7.58433e-05 -0.4262210268 0.7311510719
515296910.0 -0.4242345472 0.7306626668 0.0002191042 -7.57586e-05 0.0001612151 4.6421e-05 -0.4184199028 0.7353726684
520296880.0 -0.4176646383 0.7355948207 8.4404e-06 -0.0001396298 7.68949e-05 -4.6268e-05 -0.4109632406 0.7395647651
525296850.0 -0.4101679606 0.7387201398 0.0001111994 -4.14822e-05 0.0001802176 6.58347e-05 -0.4040004435 0.7438427991
530296820.0 -0.4028067079 0.7435433544 -0.0002811525 -0.0001170871 -0.0001136438 0.0001359526 -0.3966197618 0.7475655179
535296790.0 -0.3961798121 0.7475692204 -0.0001857983 0.0001374911 2.19679e-05 5.3506e-06 -0.3895257374 0.75170223
540296760.0 -0.387728904 0.7506516358 0.000106881 0.0002072764 0.0001752738 2.1377e-05 -0.38113916 0.7556099836
545296730.0 -0.381031286 0.7550995999 0.0001379427 7.74941e-05 -6.7355e-06 8.95732e-05 -0.3738010044 0.7598250936
550296700.0 -0.3730896913 0.7590916991 4.6999e-05 -3.46176e-05 -8.49682e-05 0.000190773 -0.3654985635 0.7636757529
555296670.0 -0.3645543004 0.7618075396 -3.00227e-05 8.95911e-05 0.0001301656 4.43013e-05 -0.3574406547 0.7669261075
560296640.0 -0.3573448467 0.7664124507 -0.0001984592 -0.000148821 3.12799e-05 -5.61051e-05 -0.3495124966 0.7710273416
565296610.0 -0.3494904092 0.770118871 0.0002537509 3.91254e-05 -3.50419e-05 7.10789e-05 -0.3416188565 0.7735970636
570296580.0 -0.3419974477 0.7716806226 9.96964e-05 -0.0001314149 -3.75136e-05 -8.20909e-05 -0.3348801324 0.7782235744
575296550.0 -0.3344910935 0.7767661933 3.34406e-05 -8.94264e-05 2.98495e-05 4.09654e-05 -0.3265348731 0.7806994581
580296520.0 -0.3259583412 0.7795210374 0.0002365608 5.75955e-05 -0.0001236795 2.2279e-06 -0.3182780438 0.7840645249
585296490.0 -0.3184009317 0.7823004423 -6.17708e-05 4.34512e-05 -1.353e-07 -0.0002374402 -0.3104627543 0.787604565
590296460.0 -0.3099106746 0.7858660492 8.61904e-05 5.37226e-05 0.0001554756 6.5634e-05 -0.3026343056 0.7903134145
595296430.0 -0.3026180305 0.788117701 3.10173e-05 -4.20335e-05 -9.41958e-05 -5.7913e-06 -0.2943612149 0.7924832619
600296400.0 -0.2946677595 0.7919257181 -5.7416e-06 0.000152652 -0.0001268366 -7.03035e-05 -0.2866313637 0.7959652173
605296370.0 -0.2873007821 0.7946673234 -0.0002136365 -9.48502e-05 4.93676e-05 -6.60965e-05 -0.2778911312 0.7986648732
610296340.0 -0.2788341977 0.7972211075 -0.0001186022 -5.10938e-05 3.53821e-05 2.20866e-05 -0.2699849138 0.8010209776
615296310.0 -0.2702577536 0.799884104 -7.62464e-05 -0.0001025674 4.95006e-05 9.18964e-05 -0.2621496061 0.8033135198
620296280.0 -0.262432365 0.8022356775 -0.0001450913 -0.0001255709 -0.0001103384 -9.00298e-05 -0.2542936003 0.8063222444
625296250.0 -0.2549465237 0.8055183238 -1.06511e-05 -3.79163e-05 0.0001136519 5.56686e-05 -0.2450753936 0.8081927965
630296220.0 -0.2455690397 0.8075365799 -0.0002032564 -8.25445e-05 2.89896e-05 3.72289e-05 -0.237476083 0.8111450543
635296190.0 -0.238470675 0.8103938472 5.86422e-05 6.51359e-05 -4.30799e-05 -2.86914e-05 -0.2295936266 0.8130143022
640296160.0 -0.2308648772 0.8122880503 3.7362e-05 7.47083e-05 -0.0002247708 0.0001083603 -0.2209027183 0.8153211324
645296130.0 -0.222099528 0.8154265077 -6.68047e-05 0.0001441142 7.35353e-05 -2.10752e-05 -0.2133486213 0.8179043495
650296100.0 -0.2145592911 0.8169204912 0.0001315768 2.39416e-05 0.0003278962 0.0001088709 -0.2048055937 0.8191306311
655296070.0 -0.2058188674 0.8192427329 -0.0001722241 3.41156e-05 -2.75728e-05 0.0001456033 -0.196314558 0.8210720718
660296040.0 -0.1976150305 0.8206174506 -3.16283e-05 0.0003196599 -0.0001171237 -7.81862e-05 -0.1872506616 0.8234750755
665296010.0 -0.1892834902 0.8220849276 0.0002206156 0.0003705873 -0.0001389124 4.89262e-05 -0.1792347071 0.8254145361
670295980.0 -0.1815043384 0.8244412951 -2.70427e-05 0.0002864631 1.59404e-05 0.0001218615 -0.1715454421 0.8268417166
675295950.0 -0.1727989571 0.8261224305 8.42228e-05 3.38965e-05 -2.51984e-05 -0.000110689 -0.1633760509 0.8290005939
680295920.0 -0.1647129116 0.8277059145 0.0001843848 -3.73819e-05 0.0001554058 2.17321e-05 -0.1544434614 0.831161708
685295890.0 -0.1564009043 0.8307843096 3.70661e-05 0.0001249306 0.0001292407 -9.24118e-05 -0.1461813516 0.8319920285
690295860.0 -0.1487526283 0.8308085761 -0.000173719 -2.58622e-05 -1.9414e-06 1.73628e-05 -0.1376839457 0.8336454989
695295830.0 -0.1400266962 0.8326523174 -1.04277e-05 0.0001369573 7.78603e-05 2.22338e-05 -0.1288681534 0.8351457017
700295800.0 -0.1309667803 0.8340639958 -9.37679e-05 0.000126585 -0.0001029222 0.0001062033 -0.1219458367 0.8362374012
705295770.0 -0.1237787611 0.8356174865 -0.0001088821 -0.000197908 -6.1469e-06 0.0001364422 -0.1134966126 0.838303844
710295740.0 -0.1147332272 0.8358902616 -0.0001481732 -6.9465e-06 0.000350866 -6.85754e-05 -0.1044058381 0.8384991781
715295710.0 -0.1070073782 0.8372965354 -8.8099e-06 9.25204e-05 -6.66842e-05 -5.6373e-05 -0.0959618892 0.8398586419
720295680.0 -0.0980647509 0.8382755604 4.5279e-06 0.0001402437 -0.0001007292 -8.0254e-06 -0.0879866376 0.8406582041
725295650.0 -0.0896758896 0.8399100536 -7.76281e-05 7.53367e-05 -0.0001034069 -5.2922e-05 -0.0793818298 0.8418466705
730295620.0 -0.0817952618 0.8401452339 -0.0001016963 0.0001038302 8.32627e-05 -1.05746e-05 -0.0715252657 0.842781353
735295590.0 -0.0736927537 0.8408717585 9.23763e-05 1.8646e-06 1.1628e-06 0.0001368823 -0.0633234966 0.8424268793
740295560.0 -0.0655083921 0.8429101689 -5.792e-06 -5.91186e-05 -0.00018338 -0.0001307865 -0.0539281192 0.8438963354
745295530.0 -0.0566493116 0.8428830248 4.25118e-05 0.0002348229 6.43183e-05 -5.14736e-05 -0.0458890072 0.8441917218
750295500.0 -0.0482468965 0.8423221767 -2.88119e-05 -3.60581e-05 0.0001667075 -9.79017e-05 -0.0376766859 0.8446111521
755295470.0 -0.040074659 0.8432004868 0.0003059073 3.1724e-05 1.20634e-05 -8.07807e-05 -0.0290466861 0.843854977
760295440.0 -0.0321765936 0.8436257488 -1.15472e-05 -5.15867e-05 -0.000102548 -4.234e-07 -0.020043996 0.8438209324
765295410.0 -0.0238850679 0.8439359504 -0.0001849384 5.19271e-05 9.54096e-05 -7.95124e-05 -0.0118438174 0.8446899867
770295380.0 -0.0153202283 0.8439303148 8.11696e-05 -0.0003135201 -0.0001289423 0.0001004473 -0.0035655252 0.8445809538
775295350.0 -0.0070683998 0.8440844533 0.0001363902 4.89371e-05 -3.14332e-05 -7.41412e-05 0.0042552455 0.8444569425
780295320.0 0.0019502926 0.8441409326 7.1576e-05 -4.12417e-05 -0.0001284619 2.43988e-05 0.012565558 0.844361161
785295290.0 0.0096856418 0.8431222097 -0.0003126036 -1.39986e-05 1.24005e-05 -2.18986e-05 0.0217052233 0.8439308487
790295260.0 0.0186597355 0.8434641026 2.31402e-05 0.0001185573 0.0001848908 1.25159e-05 0.0302592605 0.8440673798
795295230.0 0.0262928261 0.8432917878 -1.74335e-05 -0.0001949077 -4.294e-07 -2.1532e-05 0.0390205704 0.8429833236
800295200.0 0.0342818822 0.8430062657 0.0002116702 -0.0001749055 -7.36562e-05 9.21372e-05 0.0475493223 0.8427632854
805295170.0 0.0434550323 0.8428674334 9.63175e-05 -4.62981e-05 1.53599e-05 0.0002296757 0.054967033 0.8426380938
810295140.0 0.0515910802 0.8423423412 0.0001375999 -7.75315e-05 -1.27703e-05 -6.24867e-05 0.0637256528 0.8418205899
815295110.0 0.0593556514 0.8415161373 -0.0002304529 0.0001592814 -9.4839e-05 6.04896e-05 0.0721910936 0.8406596329
820295080.0 0.0681562815 0.8407276365 -8.2484e-05 2.45331e-05 -0.0001888555 0.0001692087 0.0804209132 0.8408063376
825295050.0 0.0772051359 0.8399153588 -0.0002990731 1.90123e-05 -0.0001318255 6.63869e-05 0.0888192491 0.8396322769
830295020.0 0.0844475676 0.8397465379 0.0002050698 -0.000100704 0.000115716 -0.0001622998 0.0980777106 0.8388336182
835294990.0 0.0923522992 0.838712014 0.0001568827 -6.71878e-05 -0.0001508128 0.0001006292 0.1058012264 0.837622026
840294960.0 0.1007425427 0.8381830341 -0.0001810775 4.99079e-05 4.72703e-05 0.0001002659 0.1142819709 0.83637318
845294930.0 0.1088834637 0.8361094706 7.77693e-05 3.70877e-05 -0.0001609185 -0.0001113515 0.1216607405 0.83494806
850294900.0 0.1174148753 0.8359598292 -0.0001704189 0.000103213 -5.47328e-05 -3.068e-06 0.1304255953 0.8342781459
