!Created with skrf (http://scikit-rf.org).
# Hz S RI R 50.0 
!freq ReS11 ImS11 ReS21 ImS21 ReS12 ImS12 ReS22 ImS22
300000.0 -0.2332263621 -0.1184988804 0.4642981147 0.0789937573 0.464792986 0.0778846344 -0.2345265758 -0.1245151674
5299970.0 -0.2450146025 0.0053102771 0.4737555264 0.0059075351 0.4742336916 0.0058230804 -0.243894591 0.0050486781
10299940.0 -0.2419466004 0.0186450961 0.4761794015 0.0071434622 0.4760002825 0.0070625648 -0.2400577474 0.0180339145
15299910.0 -0.2368140928 0.028623012 0.4794842669 0.0080706201 0.4796625538 0.0083253565 -0.2361080427 0.0274663539
20299880.0 -0.2317567436 0.0363348001 0.4843372642 0.0083743571 0.4846920795 0.0085699231 -0.2312533319 0.0353475963
25299850.0 -0.2256218843 0.0429479859 0.489738356 0.0080360332 0.4897609841 0.0080265071 -0.2259866565 0.0415604528
30299820.0 -0.2203785042 0.0478286746 0.4955444186 0.005370176 0.4949674503 0.0052051228 -0.2206981745 0.0468766954
35299790.0 -0.2143323096 0.0516602372 0.4998693739 0.0025377606 0.5005134115 0.00243862 -0.2159907141 0.0515287169
40299760.0 -0.2092902113 0.0547828009 0.5058100287 -0.0015447182 0.5056649779 -0.0017453675 -0.2106613008 0.0546223952
45299730.0 -0.2040901255 0.0573921931 0.5102325002 -0.0063093414 0.5107031084 -0.006348367 -0.205852141 0.0577839532
50299700.0 -0.1992072161 0.0591137919 0.514603799 -0.0121366699 0.5144910342 -0.0120139211 -0.2011047442 0.0598804593
55299670.0 -0.1949334848 0.0605133769 0.5182772801 -0.0173625688 0.5179973549 -0.0181336083 -0.1974217463 0.0619036172
60299640.0 -0.1906965751 0.0618137901 0.5217042348 -0.0238810773 0.5220564913 -0.0242303541 -0.1937441887 0.0632146419
65299610.0 -0.1871714468 0.0627570662 0.5253048793 -0.0298453844 0.5250159798 -0.0305613515 -0.1899725615 0.0648387764
70299580.0 -0.183911307 0.0632008553 0.5269585806 -0.0368992154 0.5270865464 -0.0371406909 -0.1873266902 0.0657551056
75299550.0 -0.1810830338 0.0638197251 0.5289383635 -0.0442269927 0.5289247038 -0.043512376 -0.1840501243 0.0669364737
80299520.0 -0.1783580548 0.0646942257 0.5311779142 -0.0505278296 0.531112612 -0.0508852492 -0.1815175032 0.0681550612
85299490.0 -0.175691252 0.0646799691 0.5322365026 -0.0576906387 0.5327897389 -0.0571964335 -0.1794243581 0.0685525144
90299460.0 -0.1733124475 0.0655777637 0.5330343391 -0.0642826427 0.5330089913 -0.0646183143 -0.1767027009 0.069660393
95299430.0 -0.1714592796 0.0658024246 0.5341512468 -0.0714914732 0.5344598023 -0.0718159486 -0.1751240067 0.0706024122
100299400.0 -0.1693593346 0.0662145825 0.5348054646 -0.078165448 0.5350070429 -0.078749999 -0.1729735744 0.0717337802
105299370.0 -0.1677222216 0.0667381316 0.5349676652 -0.0854939132 0.5355757427 -0.0851081338 -0.171133228 0.0721133858
110299340.0 -0.1660488062 0.0669964041 0.5351877014 -0.0918956971 0.5357070084 -0.091706202 -0.1698221122 0.072983544
115299310.0 -0.1644232969 0.0677835941 0.5351243189 -0.0990746666 0.5350534801 -0.0989510448 -0.1681746783 0.074345056
120299280.0 -0.1633137688 0.0680632771 0.5351833783 -0.105780207 0.5349554185 -0.106178238 -0.1668846784 0.0748763598
125299250.0 -0.161765867 0.0684887256 0.5344317149 -0.1124397389 0.534466575 -0.1122269899 -0.165326559 0.0760779849
130299220.0 -0.1605461815 0.0692657871 0.5340967114 -0.119162604 0.534088189 -0.1196497655 -0.1639552825 0.076979408
135299190.0 -0.1598349385 0.0701273804 0.5335507309 -0.1256936081 0.5336777093 -0.1262638434 -0.1629547107 0.0779732922
140299160.0 -0.1586171091 0.0709261663 0.5330137778 -0.1328702382 0.5328772424 -0.1322833054 -0.1620492288 0.0786501529
145299130.0 -0.1578316939 0.0715527769 0.5317415895 -0.1387374389 0.5317007518 -0.1390699487 -0.1609015227 0.0798755329
150299100.0 -0.156890803 0.0724065194 0.5307503059 -0.1455086671 0.5303573412 -0.1458335628 -0.1601011131 0.0815601311
155299070.0 -0.1554663727 0.0734219876 0.528925044 -0.1522255968 0.5294073843 -0.152178106 -0.1589590325 0.0821221243
160299040.0 -0.1548264883 0.0745642886 0.528159247 -0.1587701039 0.5280236038 -0.1589868188 -0.1580383195 0.0836028293
165299010.0 -0.1538816579 0.0754520503 0.5266609981 -0.1648631128 0.526582612 -0.1654666911 -0.1566486747 0.0845097615
170298980.0 -0.153122329 0.0761702685 0.5249283931 -0.1712606327 0.5248539916 -0.1717331784 -0.1559335841 0.0857196265
175298950.0 -0.1523224903 0.0773032438 0.5235838574 -0.1774143265 0.5238650747 -0.1781322191 -0.1548836014 0.0872575202
180298920.0 -0.1515526875 0.0783709451 0.5213159731 -0.1845741837 0.5217298522 -0.1841502579 -0.1541995244 0.0884161233
185298890.0 -0.1508715898 0.0794380654 0.5201905372 -0.1902301645 0.5198060433 -0.1904621716 -0.1529268628 0.0896501603
190298860.0 -0.1496883746 0.0807960124 0.5174979889 -0.1966679302 0.5181439494 -0.1964011999 -0.1522434747 0.0910219955
195298830.0 -0.1490246645 0.081936496 0.5162196928 -0.2025367955 0.5161804135 -0.2028717675 -0.1514300529 0.0924952903
200298800.0 -0.1482342301 0.0829324793 0.5140745902 -0.2093821627 0.5137778305 -0.2092545082 -0.1502595014 0.0935565068
205298770.0 -0.1478914759 0.0839296005 0.5115588727 -0.2147234363 0.5118193469 -0.2146258526 -0.1491876345 0.0948873898
210298740.0 -0.1467842952 0.0852449755 0.5095562416 -0.2206554208 0.5093000798 -0.2207362634 -0.1487732989 0.0963083023
215298710.0 -0.1462151419 0.0865791395 0.5069704299 -0.2264849872 0.5068889714 -0.2267319186 -0.1474798943 0.0975920058
220298680.0 -0.1452642818 0.0879193892 0.5043183854 -0.2329801852 0.504679885 -0.2326457873 -0.1463877962 0.0988171945
225298650.0 -0.1445931759 0.0889320137 0.5020547501 -0.2379775157 0.5022878545 -0.2383426829 -0.1456276825 0.1002655195
230298620.0 -0.1435782514 0.0903478414 0.4995673991 -0.2440127456 0.4998580347 -0.2444101987 -0.1446253783 0.1015293212
235298590.0 -0.1430436907 0.0916760758 0.4971643845 -0.2505480079 0.4971358581 -0.2502802868 -0.1434576707 0.1034616921
240298560.0 -0.1422596088 0.09329482 0.4941378923 -0.2555706679 0.4943882863 -0.2557941036 -0.14281573 0.1046508584
245298530.0 -0.141624936 0.0940757964 0.4917303627 -0.2617809904 0.4915796272 -0.2615118968 -0.1414632851 0.1062251657
250298500.0 -0.1408080107 0.095646274 0.4889284287 -0.2672050916 0.4889387902 -0.2670059966 -0.1404226491 0.1077632271
255298470.0 -0.1398995611 0.0972568072 0.4857776446 -0.2724091979 0.4865470119 -0.2727525674 -0.1393027541 0.1093914955
260298440.0 -0.139161885 0.0983579757 0.4831380036 -0.2778381885 0.4831166324 -0.2779295473 -0.1383324903 0.110189774
265298410.0 -0.1383729367 0.0995154331 0.4798926446 -0.2835949123 0.4797387646 -0.2840578576 -0.1367163362 0.1117120053
270298380.0 -0.1377964742 0.1009224488 0.4772087979 -0.2889435757 0.4771836072 -0.2890869674 -0.136162345 0.1132705541
275298350.0 -0.136599051 0.1026218753 0.4732837979 -0.2946284309 0.4736749638 -0.2945652951 -0.1349597743 0.1149698117
280298320.0 -0.1362413292 0.1036928464 0.4704270275 -0.2995254092 0.4707796075 -0.3001693274 -0.1336434611 0.1164484199
285298290.0 -0.1350707153 0.1051456442 0.4670221631 -0.3053483889 0.4676088964 -0.3049705455 -0.1327283921 0.1178731905
290298260.0 -0.1343478623 0.1064250652 0.4645276144 -0.3105892162 0.4642532658 -0.3105660649 -0.1312195944 0.1190388626
295298230.0 -0.1334582382 0.1074454451 0.4606040202 -0.3160645138 0.4605454158 -0.3161221611 -0.1298036438 0.1203717094
300298200.0 -0.1325919199 0.1090864502 0.4572432323 -0.3209105903 0.4573326916 -0.3209904291 -0.1288248943 0.1219874407
305298170.0 -0.1315559138 0.1100421237 0.4540111139 -0.3261251853 0.4539029121 -0.3263006531 -0.1272320583 0.1228738376
310298140.0 -0.1302488806 0.111183572 0.4502198419 -0.331426797 0.4505813819 -0.331160023 -0.125830634 0.1242479139
315298110.0 -0.1295700608 0.1123594503 0.4468599266 -0.3370515432 0.4468303398 -0.3368199294 -0.1247361152 0.1259309235
320298080.0 -0.1287147366 0.1136444791 0.4423201522 -0.3416711856 0.4436563689 -0.3418473039 -0.1237049221 0.127098581
325298050.0 -0.1282662658 0.1143585833 0.4388177154 -0.3467260421 0.4392390959 -0.3469004892 -0.1219382379 0.1281306476
330298020.0 -0.1274158075 0.1159499825 0.4350279974 -0.3519700565 0.4355503243 -0.3524857332 -0.1210774119 0.1296634167
335297990.0 -0.1265008746 0.1172940692 0.4310705147 -0.3565168925 0.4312615218 -0.3568615741 -0.1202022331 0.1309551349
340297960.0 -0.1259979859 0.1186145562 0.4264967924 -0.3617617932 0.4268202642 -0.3615769934 -0.1188074918 0.1324772389
345297930.0 -0.1251229635 0.1199374666 0.4225092942 -0.3665528445 0.4228995752 -0.366372668 -0.117420643 0.1340492947
350297900.0 -0.1241413819 0.1211256962 0.4192603044 -0.3705691251 0.4191418646 -0.3708896372 -0.1162213197 0.1347762772
355297870.0 -0.1231543043 0.1226011379 0.4148366693 -0.3752045727 0.4147726577 -0.3749184385 -0.1144879252 0.1366532414
360297840.0 -0.1220332299 0.1239651804 0.410587123 -0.3801171926 0.4109018026 -0.3801120787 -0.1132889753 0.1380565477
365297810.0 -0.1213315428 0.1252182758 0.4065578849 -0.3843574668 0.4063567038 -0.3843812109 -0.1122465287 0.1394635598
370297780.0 -0.1200072483 0.1265277057 0.4015203722 -0.3891098207 0.4026521753 -0.3890061013 -0.1108637089 0.1409546188
375297750.0 -0.1188473875 0.1278411674 0.3981252491 -0.393526383 0.3982236339 -0.3933172326 -0.1091230165 0.1420865559
380297720.0 -0.1181110097 0.1291346561 0.3939379342 -0.3979144352 0.3934039301 -0.3979509735 -0.1074948538 0.1437975993
385297690.0 -0.1169381795 0.1303232673 0.3888357815 -0.4020349102 0.389174925 -0.4021750036 -0.1059139939 0.1449286553
390297660.0 -0.1157489437 0.1313820063 0.3843986779 -0.4056576807 0.3848765683 -0.4062559633 -0.1041443489 0.1459746057
395297630.0 -0.1142848953 0.1328360291 0.3809342836 -0.410170171 0.3804096369 -0.4101728468 -0.1029516913 0.1473588112
400297600.0 -0.1135955174 0.133929008 0.375487303 -0.414976093 0.3763840695 -0.414744722 -0.1012953041 0.1491069229
405297570.0 -0.1123417095 0.1346739862 0.3712090884 -0.4185425152 0.3713181184 -0.4186385996 -0.0995407074 0.1499096902
410297540.0 -0.1111708604 0.1363150738 0.3667540162 -0.4231041788 0.3668469961 -0.4226693614 -0.0979306963 0.1514817726
415297510.0 -0.1098834394 0.1375568384 0.362250199 -0.4267493506 0.362619233 -0.4268793636 -0.0965237226 0.1528074444
420297480.0 -0.108458414 0.1383845587 0.3572036053 -0.4309888547 0.3573972935 -0.4309613293 -0.094071286 0.1542231337
425297450.0 -0.1070257148 0.1394771782 0.3527704105 -0.4343558049 0.3526883329 -0.4344361444 -0.0928686003 0.1548172639
430297420.0 -0.1062824455 0.1408732311 0.3484575486 -0.438239355 0.3483431214 -0.4380344192 -0.0908411695 0.1563615268
435297390.0 -0.1046777099 0.1417156092 0.3429120384 -0.4425742739 0.3430013775 -0.4423205989 -0.0897844623 0.1577688989
440297360.0 -0.1032804739 0.1425581765 0.3379043401 -0.4460539592 0.3381810902 -0.4457328295 -0.0879919754 0.1585298935
445297330.0 -0.1018845337 0.1433999297 0.3329902405 -0.4490841957 0.3335578141 -0.4497354535 -0.0859255489 0.1597925834
450297300.0 -0.1007696896 0.1449758244 0.3286086168 -0.4529660452 0.3290202536 -0.4531218385 -0.0841100735 0.160803312
455297270.0 -0.0997388657 0.1456418467 0.323533036 -0.4568274749 0.323753463 -0.4567810816 -0.0823083281 0.1621707446
460297240.0 -0.0978172075 0.146855417 0.3187631928 -0.4607640481 0.3183501853 -0.4603500985 -0.0805251095 0.1628897909
465297210.0 -0.0963222878 0.1480035651 0.3129410254 -0.4639557692 0.3129594645 -0.4641204349 -0.078489509 0.1644707924
470297180.0 -0.095099978 0.1489162317 0.3078477298 -0.4668929559 0.3086049934 -0.4671068021 -0.0769267983 0.1650860717
475297150.0 -0.0939816111 0.1503582664 0.3030877473 -0.4707273437 0.3032597809 -0.4705173126 -0.0747926554 0.1661079581
480297120.0 -0.0916699299 0.1515500938 0.2978496151 -0.4738104606 0.2982433745 -0.4735879564 -0.0733682023 0.1670132322
485297090.0 -0.0907574213 0.1518045144 0.2930456215 -0.4768830731 0.2927524735 -0.4765651432 -0.0714124017 0.1678990458
490297060.0 -0.0884847711 0.1531006608 0.286974377 -0.4804731243 0.2874621427 -0.4801617116 -0.0693659311 0.1683136688
495297030.0 -0.0877851716 0.1537659413 0.2825696301 -0.4835047199 0.2824224682 -0.482973488 -0.0675219993 0.169272483
500297000.0 -0.0861061777 0.1548426289 0.2773156411 -0.4858907823 0.2771930468 -0.4863691313 -0.0655392471 0.170863374
505296970.0 -0.0840840465 0.1560362268 0.2717395141 -0.4895321082 0.2713900646 -0.489221973 -0.0635395484 0.1711153439
510296940.0 -0.0830687271 0.1565115155 0.2667002583 -0.4928292539 0.2665722177 -0.4926363071 -0.0615358578 0.1725317222
515296910.0 -0.0811785617 0.1581188023 0.2602228719 -0.4953553051 0.260561785 -0.4948165476 -0.0598575321 0.1728088726
520296880.0 -0.0796076389 0.1589481707 0.2554069259 -0.4977313549 0.2551101486 -0.497542538 -0.0575808651 0.1742203893
525296850.0 -0.0777775763 0.1596271473 0.2498511609 -0.5005335683 0.2498860248 -0.5004976012 -0.0554611192 0.1746653006
530296820.0 -0.0765433621 0.1604574967 0.2444895247 -0.5033938654 0.2446205209 -0.5029794817 -0.0538415524 0.1748456841
535296790.0 -0.0741395934 0.1614504634 0.2389938838 -0.5057654235 0.2392264119 -0.5059567437 -0.0510948781 0.1763600301
540296760.0 -0.0730164307 0.1624709675 0.2334128359 -0.5086797028 0.2330774264 -0.5080083109 -0.0494418881 0.17642212
545296730.0 -0.0719133045 0.1632601518 0.2282364735 -0.5105439416 0.2276473186 -0.5105144509 -0.0474729629 0.1774877242
550296700.0 -0.0696684879 0.1640122826 0.222425941 -0.513210445 0.2220366284 -0.5134773822 -0.0455064021 0.1779542782
555296670.0 -0.0681831717 0.1647419796 0.2167343904 -0.5157447381 0.2168669371 -0.5156141046 -0.0437597045 0.1782530616
560296640.0 -0.0659532345 0.1652690366 0.2107650377 -0.5180998023 0.2110913071 -0.5177293177 -0.0418084289 0.1796525447
565296610.0 -0.0647205523 0.1666204011 0.2057983423 -0.5200243149 0.2053649795 -0.5196947181 -0.0394756741 0.1801329947
570296580.0 -0.0631219574 0.1676417269 0.1993538149 -0.522192711 0.1995433843 -0.522536206 -0.0376415143 0.180442865
575296550.0 -0.0612767931 0.1680305128 0.1941976782 -0.524440091 0.1939059834 -0.5245733624 -0.0356717305 0.1806206253
580296520.0 -0.0596078995 0.1691187348 0.1884548195 -0.5264359041 0.187789884 -0.5265815306 -0.0334940581 0.1815604233
585296490.0 -0.0574044988 0.170105556 0.1828167011 -0.5284455068 0.1821267564 -0.528491715 -0.0310036843 0.1822896892
590296460.0 -0.0553498301 0.1704639866 0.1772009357 -0.5302657989 0.1771766109 -0.5305416511 -0.0298062393 0.1825991431
595296430.0 -0.0538735702 0.1711813153 0.170518777 -0.5321924324 0.1705812833 -0.532232616 -0.0273087712 0.1827791796
600296400.0 -0.0521389537 0.1719453178 0.1648993482 -0.5336987143 0.1649589992 -0.5338477925 -0.0252874897 0.183254922
605296370.0 -0.0506572981 0.1728224139 0.1598747919 -0.5356804045 0.1590799323 -0.5356836547 -0.0232081102 0.1839142227
610296340.0 -0.0485860464 0.1736474434 0.1536031753 -0.5366255204 0.1536940227 -0.5369651265 -0.0211299831 0.1843987138
615296310.0 -0.0468239913 0.1741887825 0.1477219425 -0.5390140637 0.1474655976 -0.5389178654 -0.0188307629 0.1845619262
620296280.0 -0.0453960706 0.1753548016 0.1417853121 -0.5407492209 0.1416860984 -0.5403187666 -0.0172388878 0.1851001294
625296250.0 -0.0436455628 0.1755378499 0.1360662275 -0.5421076875 0.1358675738 -0.5422209577 -0.0153175965 0.1851011566
630296220.0 -0.0418634334 0.1764875576 0.1297836628 -0.5437270664 0.1299338482 -0.5432644566 -0.01273713 0.1856024554
635296190.0 -0.0401813314 0.1772626214 0.1240060664 -0.5444915929 0.1239624008 -0.5446941558 -0.0110284709 0.1856854405
640296160.0 -0.0381286703 0.1777284282 0.1179140105 -0.5464867421 0.1182246444 -0.546187721 -0.0091699865 0.1859815964
645296130.0 -0.0364583891 0.1787819829 0.1122373504 -0.547240633 0.1123041937 -0.5470671086 -0.007172425 0.1857132396
650296100.0 -0.0346154768 0.1791624566 0.1066705365 -0.5483915867 0.1061253373 -0.5486476976 -0.0043455694 0.1862960635
655296070.0 -0.0328184688 0.1797578186 0.1002333116 -0.5498282951 0.100118611 -0.5495161048 -0.0031619211 0.18681881
660296040.0 -0.0312120441 0.180216923 0.094590355 -0.5506996466 0.0943413471 -0.5504426666 -0.0007319116 0.1863733478
665296010.0 -0.0294082227 0.1808052146 0.0882296001 -0.5508558273 0.087977508 -0.5512755211 0.0015315995 0.1870365759
670295980.0 -0.0277273862 0.1815822355 0.0823693225 -0.5523384688 0.0824757913 -0.5515113933 0.0030440868 0.1865851336
675295950.0 -0.0259099901 0.1818892507 0.0764606861 -0.5532570663 0.076952333 -0.5531516907 0.0051179012 0.187253807
680295920.0 -0.0242764152 0.1826544234 0.070530835 -0.5537935489 0.0707975646 -0.5535209454 0.0076342212 0.1871258754
685295890.0 -0.0221754016 0.1830343257 0.0641575292 -0.5546363426 0.0647199141 -0.5547878777 0.0095292665 0.1872705262
690295860.0 -0.0208152366 0.1836653452 0.0586967567 -0.5557496859 0.0581730406 -0.555250782 0.0114713021 0.1873308814
695295830.0 -0.0190287717 0.1839191005 0.0531163875 -0.5557436838 0.0525779756 -0.5557265637 0.0138385577 0.1874773841
700295800.0 -0.0172007082 0.1843665907 0.0471558438 -0.556057627 0.0468671556 -0.556017379 0.0160049223 0.1871856011
705295770.0 -0.0155388634 0.1848278174 0.0409300358 -0.557308302 0.0405644571 -0.556768817 0.0179665051 0.1876587188
710295740.0 -0.0137096681 0.185043725 0.0348394493 -0.5568089193 0.034269903 -0.5572675083 0.0200443755 0.1873929947
715295710.0 -0.0116838173 0.1858203748 0.0285580927 -0.5577196481 0.0287230478 -0.5574569933 0.0218327316 0.1869824659
720295680.0 -0.0098771503 0.1861786678 0.0224276292 -0.5576624865 0.0227389924 -0.5575603288 0.0240428776 0.1869570073
725295650.0 -0.0084839946 0.1867408285 0.0169357106 -0.5579831064 0.0169414024 -0.5581209018 0.0257841549 0.1873231419
730295620.0 -0.007025859 0.18671449 0.0106215336 -0.5576846004 0.0106686665 -0.5571817739 0.0279842103 0.1874612053
735295590.0 -0.0048209574 0.187322544 0.0046482266 -0.5583832664 0.0046455257 -0.558148999 0.0299657119 0.1868331514
740295560.0 -0.003202967 0.1871558928 -0.0013148934 -0.5580358841 -0.0008906026 -0.5581680438 0.0318681164 0.1870218694
745295530.0 -0.0015691786 0.1875963014 -0.0070517715 -0.5572989543 -0.0067112673 -0.5576594721 0.0335456716 0.1865795595
750295500.0 -0.0002108904 0.1882079564 -0.0127512751 -0.5576923007 -0.0137039682 -0.5578542431 0.0361458063 0.1862675351
755295470.0 0.0014830689 0.1884688192 -0.0188622548 -0.5578150933 -0.0191867389 -0.5581114289 0.0384319591 0.1863486711
760295440.0 0.0032273987 0.1889620312 -0.0253663404 -0.5575637208 -0.0252240028 -0.5566789423 0.0403019288 0.1854102133
765295410.0 0.0055772548 0.1886563816 -0.0312006186 -0.5569169658 -0.0308072912 -0.5570989691 0.0423220067 0.1855055163
770295380.0 0.0069686716 0.1892200122 -0.0368419418 -0.556143712 -0.0369264083 -0.5570843401 0.0438149962 0.1851583358
775295350.0 0.0087183423 0.1889667748 -0.0427816676 -0.556150106 -0.0429767435 -0.5555317064 0.0464967944 0.1850050996
780295320.0 0.010334142 0.1895181738 -0.0487590564 -0.5553814278 -0.0491612908 -0.5553027365 0.048839217 0.1845706188
785295290.0 0.0123179729 0.189200812 -0.055100182 -0.5552354847 -0.0547872241 -0.555119964 0.0500476455 0.184389292
790295260.0 0.0138185305 0.1891866249 -0.0610485035 -0.5542876405 -0.0610231188 -0.554420891 0.0522208088 0.1843358687
795295230.0 0.0156493175 0.1891850608 -0.0668613935 -0.5536447877 -0.0668363509 -0.5539295603 0.054216422 0.1830545636
800295200.0 0.0170642328 0.1895153797 -0.0724170344 -0.552571089 -0.0730819948 -0.5530959183 0.0561790434 0.1830578393
805295170.0 0.0186910456 0.1898163186 -0.0782569983 -0.5524633012 -0.078807046 -0.5520899727 0.0587982131 0.1827634769
810295140.0 0.0210230916 0.1897476025 -0.0846008713 -0.5510099066 -0.0845362305 -0.5510595908 0.0605167191 0.1820091881
815295110.0 0.022550788 0.1897249404 -0.0904882941 -0.5500521452 -0.0901786562 -0.550496308 0.0623925553 0.1814976284
820295080.0 0.0242128577 0.1896420478 -0.0958862267 -0.5488388977 -0.0960561829 -0.5495138664 0.0638776887 0.1814657205
825295050.0 0.0256811358 0.1893455373 -0.1021949837 -0.5485204322 -0.1021757086 -0.5479311626 0.0666128329 0.1808614878
830295020.0 0.0277019604 0.1892958234 -0.1083375543 -0.5470199818 -0.1079551885 -0.5470110004 0.068356846 0.1796834656
