!Created with skrf (http://scikit-rf.org).
# Hz S RI R 50.0 
!freq ReS11 ImS11 ReS21 ImS21 ReS12 ImS12 ReS22 ImS22
300000.0 -0.3229028869 -0.0852957086 0.3761353317 0.044006364 0.3735720968 0.042611502 -0.3199805663 -0.1003550063
5299970.0 -0.3264547128 0.0039772511 0.3785690752 0.0023315877 0.3781783937 0.0024743516 -0.3238961778 0.0048269128
10299940.0 -0.3243190398 0.0134080859 0.3793426544 0.0019859113 0.3793171329 0.0020236693 -0.3214459544 0.0158251496
15299910.0 -0.3215209939 0.0203050576 0.3821172996 0.0022245859 0.382067531 0.0020994341 -0.3184885342 0.0235042824
20299880.0 -0.3186877861 0.0261088576 0.384698155 0.0020457277 0.3848225774 0.0019280747 -0.314724142 0.0302934256
25299850.0 -0.3158444397 0.0315495372 0.3883179292 0.0002475591 0.3878374706 0.0001628251 -0.3105060508 0.0361590807
30299820.0 -0.3128128908 0.0358716398 0.3915641722 -0.002487578 0.3912659234 -0.0022336669 -0.3071302379 0.0411502807
35299790.0 -0.3096915893 0.0400359339 0.3948016463 -0.0057129655 0.3947000129 -0.0054381361 -0.3034501784 0.0451519248
40299760.0 -0.3071370075 0.0434819109 0.3979781062 -0.0088612976 0.3979363097 -0.0088730345 -0.3002075014 0.0485389744
45299730.0 -0.3045641978 0.0461518169 0.4005780363 -0.0123653248 0.4007713909 -0.0125318491 -0.2971846171 0.0518670915
50299700.0 -0.3025579723 0.0494290173 0.4036535356 -0.0172077677 0.4033561651 -0.0169125563 -0.2942910061 0.0546340425
55299670.0 -0.3003319554 0.0522051592 0.4057466992 -0.0224368649 0.4057758841 -0.0219761115 -0.2919233725 0.0573984278
60299640.0 -0.2979330081 0.0550204687 0.4076995762 -0.0271458759 0.4077887541 -0.0269122131 -0.2891595035 0.0597000376
65299610.0 -0.2962896576 0.0575921029 0.4092297224 -0.0319542938 0.4092521479 -0.0319665183 -0.2871977627 0.0617953319
70299580.0 -0.294527177 0.0602140111 0.4105198872 -0.0370215229 0.4104582572 -0.0369496091 -0.2849713354 0.0638490313
75299550.0 -0.2932469674 0.062553291 0.4114100807 -0.0425765328 0.4112806308 -0.0423327397 -0.2832937792 0.0659406535
80299520.0 -0.2914803232 0.0647914648 0.4124078505 -0.0474994543 0.4124745257 -0.0474702096 -0.2815641769 0.0679195406
85299490.0 -0.2901639048 0.0667779535 0.4127438806 -0.0526239702 0.4127740371 -0.052444564 -0.2797884829 0.0700288941
90299460.0 -0.2887777641 0.0695698153 0.4131410201 -0.0580653405 0.4134510825 -0.0582355679 -0.2784214549 0.0723146093
95299430.0 -0.2873012569 0.0715349029 0.4136162218 -0.0631690989 0.4131677888 -0.0633316696 -0.2765078305 0.0743733918
100299400.0 -0.2861773222 0.0740219383 0.4131709686 -0.0684417002 0.4131733097 -0.068261707 -0.2752899275 0.0762828351
105299370.0 -0.285305193 0.0764817589 0.4132443504 -0.0736658665 0.4136574022 -0.0735555759 -0.2737093361 0.0781995763
110299340.0 -0.2841699349 0.0788989961 0.413173619 -0.0785369127 0.4129036489 -0.0786519925 -0.2727199162 0.0804962086
115299310.0 -0.2828907546 0.0810071176 0.4129438549 -0.0840340181 0.4125521875 -0.0837991457 -0.2714877479 0.0825387605
120299280.0 -0.2820273191 0.0833628711 0.4121927966 -0.0891638894 0.4124544867 -0.0888290273 -0.2703894305 0.084461159
125299250.0 -0.2811126736 0.0853303188 0.4118706468 -0.0940025332 0.411932378 -0.093915975 -0.2694170631 0.0863392025
130299220.0 -0.28011499 0.0882432998 0.4110238505 -0.0990319638 0.4111976762 -0.098932532 -0.2680680169 0.0887434969
135299190.0 -0.2792628385 0.0907221703 0.4107325731 -0.1042128275 0.4104657946 -0.1039591843 -0.2671066833 0.0909546434
140299160.0 -0.2785477279 0.0932896691 0.4099008594 -0.109339399 0.4096825256 -0.1091415906 -0.2661614279 0.0933699496
145299130.0 -0.2776323168 0.0957951977 0.4089278546 -0.1143344705 0.4086272902 -0.114010433 -0.2654221333 0.0957688102
150299100.0 -0.2764040647 0.0979207657 0.4075089232 -0.1187870332 0.4077088182 -0.118534405 -0.2641909191 0.0985236531
155299070.0 -0.2753660747 0.1007527146 0.4068306835 -0.1241924682 0.4065493693 -0.1238579358 -0.2630142086 0.1006914574
160299040.0 -0.2746935892 0.1034571728 0.4054616674 -0.1287368851 0.4051189347 -0.1287154709 -0.2626767929 0.1031833527
165299010.0 -0.2739452743 0.1062947923 0.4043577156 -0.1338492008 0.404417178 -0.1335642868 -0.2612107329 0.1057865185
170298980.0 -0.2730249655 0.10873161 0.402727958 -0.1385656627 0.4030514203 -0.1380556456 -0.2598922017 0.1084493362
175298950.0 -0.2716771517 0.1112808179 0.4015252464 -0.1429820793 0.4012041964 -0.1431563002 -0.2593535866 0.110826824
180298920.0 -0.2709537186 0.1140286485 0.4001806475 -0.1478515064 0.4001702428 -0.1477151594 -0.2583490321 0.1134240327
185298890.0 -0.2693347076 0.1163090202 0.3984626641 -0.1527075502 0.3983208712 -0.1521243568 -0.2571551046 0.1159692771
190298860.0 -0.2686187137 0.1191729232 0.3970303616 -0.1572300956 0.3969135444 -0.1572512056 -0.2559796837 0.1185152752
195298830.0 -0.2678732069 0.1218094517 0.3955450791 -0.1619841544 0.3952211718 -0.1617137903 -0.2550075543 0.1209733662
200298800.0 -0.2662960657 0.1245509701 0.3933697611 -0.16645466 0.393392123 -0.1667471854 -0.2541600619 0.1233428403
205298770.0 -0.2655314031 0.1274106126 0.3916981777 -0.1716576978 0.3915652871 -0.1712248215 -0.2528656118 0.1256697629
210298740.0 -0.2642011672 0.1300179555 0.3896042762 -0.1755451685 0.3897025439 -0.1755259387 -0.2516028647 0.1284673073
215298710.0 -0.2636964485 0.1326977965 0.3882914285 -0.1800525403 0.3879302777 -0.1802347901 -0.2512206058 0.1311042583
220298680.0 -0.2619207753 0.1352283862 0.3855862745 -0.1846888909 0.3858228947 -0.1847312164 -0.2501997482 0.1335678101
225298650.0 -0.2609029078 0.1378924927 0.3838906328 -0.1893029601 0.3842495722 -0.1889884944 -0.2488924675 0.1359821674
230298620.0 -0.2598455696 0.1411111315 0.3817697542 -0.1932813161 0.3820242694 -0.1933124123 -0.2477814786 0.1386208559
235298590.0 -0.2584119333 0.1435892072 0.3797247271 -0.1976717381 0.3801752423 -0.1974320513 -0.2465461827 0.141213102
240298560.0 -0.2573110323 0.1463221577 0.3778368887 -0.2024622519 0.3775046443 -0.202538998 -0.2451209093 0.144330136
245298530.0 -0.2557984319 0.1489067473 0.3759906836 -0.2064803778 0.3756012545 -0.2068240088 -0.2439338822 0.1458679183
250298500.0 -0.2542475059 0.1517293991 0.3725389164 -0.2110832914 0.3730198213 -0.2104994291 -0.2428338672 0.1482598674
255298470.0 -0.2531869228 0.1541693955 0.3707060349 -0.215210709 0.3707817223 -0.2149552308 -0.2412798174 0.1509933322
260298440.0 -0.2518664661 0.1569024023 0.3681696534 -0.2195138105 0.3683544801 -0.2191111735 -0.2396104788 0.1537302232
265298410.0 -0.2499732886 0.1597982407 0.3658339779 -0.2235957553 0.3662897613 -0.2231982925 -0.2385435638 0.1562342564
270298380.0 -0.2485244614 0.1624390249 0.3633904268 -0.2274509613 0.3637006636 -0.2272575911 -0.2370067097 0.1584668112
275298350.0 -0.2470305881 0.1652666882 0.3610876877 -0.2316905037 0.3612385594 -0.2316021424 -0.2351729593 0.1609693054
280298320.0 -0.2450599206 0.1678181149 0.3585001024 -0.2357534797 0.3587111543 -0.2356372446 -0.2332404799 0.1635152608
285298290.0 -0.2435578364 0.1707208164 0.3561267108 -0.2396876567 0.3556527029 -0.2399632771 -0.2317254692 0.1658355734
290298260.0 -0.2418101439 0.172921819 0.3531353899 -0.2434358134 0.3533013881 -0.243462252 -0.230191701 0.1684655347
295298230.0 -0.2402241869 0.1755979998 0.3508972104 -0.2479033731 0.3503090732 -0.2478036674 -0.2279728475 0.1708595044
300298200.0 -0.2385426939 0.1782193025 0.3480278177 -0.2515291857 0.348139256 -0.2517938777 -0.2268928952 0.1736473865
305298170.0 -0.2364127562 0.1806011792 0.3446114478 -0.2557002452 0.344745767 -0.2559148599 -0.2243740708 0.1757547838
310298140.0 -0.2348994841 0.18327222 0.3424480302 -0.2596954907 0.3423973688 -0.2595131562 -0.2228183334 0.1779107334
315298110.0 -0.2329344435 0.1855470584 0.3391856369 -0.2632146337 0.3394288538 -0.2637593546 -0.221015558 0.1806466862
320298080.0 -0.2309151538 0.1884301669 0.3360678805 -0.2679677189 0.3362992902 -0.2671850731 -0.2192739567 0.1828588443
325298050.0 -0.2293188413 0.1911248922 0.3332917036 -0.2715211591 0.333461219 -0.2713308426 -0.2178447203 0.1855381269
330298020.0 -0.2276534319 0.1929985484 0.3301165963 -0.2752166211 0.3304993903 -0.2748660031 -0.2156457645 0.1878462462
335297990.0 -0.2255899261 0.1952366467 0.3271497518 -0.2785215005 0.3273371004 -0.2785530331 -0.2147481288 0.1906387223
340297960.0 -0.2243229451 0.1980314103 0.3234743874 -0.2821598916 0.3237361311 -0.2825457742 -0.2123507976 0.1927693113
345297930.0 -0.2220173627 0.200865534 0.3205074948 -0.286002879 0.3206992982 -0.286222386 -0.2106324485 0.1950921331
350297900.0 -0.2202636808 0.2032205841 0.3169681345 -0.2893834982 0.3173200636 -0.2892842241 -0.2088213767 0.1978291994
355297870.0 -0.2177355281 0.2061944814 0.3139600141 -0.2929051334 0.3143082934 -0.2923983472 -0.2071589232 0.2002974174
360297840.0 -0.2161165331 0.2083276064 0.3114925409 -0.2962282093 0.3113584221 -0.2961431624 -0.2048984209 0.2028645898
365297810.0 -0.2141752019 0.2111706442 0.3075434486 -0.3001008325 0.3076471345 -0.2995249604 -0.2027922595 0.2049101564
370297780.0 -0.2117634468 0.2132266422 0.3038850872 -0.3027967378 0.3047500029 -0.3027473728 -0.2008255558 0.2073770816
375297750.0 -0.2093244594 0.2156023564 0.3009579839 -0.3064021224 0.3012505093 -0.3065385287 -0.1988058059 0.2096342276
380297720.0 -0.2075154938 0.2176413252 0.2973938762 -0.3096572763 0.2977451892 -0.3092893409 -0.1971163239 0.2119490074
385297690.0 -0.2057038212 0.2203719193 0.293854483 -0.312743458 0.2938261107 -0.3128919682 -0.1946328816 0.2140403532
390297660.0 -0.2033639579 0.2228571568 0.2906681485 -0.3162095935 0.2904488792 -0.315984841 -0.1925884753 0.2166729843
395297630.0 -0.2005477812 0.2251381269 0.2869101147 -0.3192883056 0.2872877469 -0.3194757598 -0.1901489202 0.2186547126
400297600.0 -0.1984649124 0.227294631 0.2836184754 -0.3226999058 0.28334361 -0.3223835124 -0.1880760611 0.2207065507
405297570.0 -0.1965522654 0.2294159201 0.2800928816 -0.3251408057 0.2798285008 -0.3251351093 -0.1857012616 0.2231316005
410297540.0 -0.1937643537 0.2315562067 0.2764004225 -0.3284985786 0.2764862645 -0.3285989995 -0.1835967173 0.2251852428
415297510.0 -0.1913920586 0.2338887743 0.2726336055 -0.3320117575 0.2728239 -0.3319418338 -0.1814659825 0.227131507
420297480.0 -0.1892018726 0.2363861212 0.2690093712 -0.3347153001 0.2687679083 -0.3347869275 -0.1791845015 0.2290030394
425297450.0 -0.1867273215 0.2380946625 0.2653441315 -0.3372561832 0.2658080931 -0.3375913433 -0.1771938866 0.2313832275
430297420.0 -0.1841306496 0.2403350205 0.2615030476 -0.339722616 0.2617427035 -0.3400452717 -0.1747445305 0.2331198478
435297390.0 -0.1817063366 0.2425497467 0.2576895124 -0.3428330617 0.2575698585 -0.343538269 -0.1717810692 0.2351636689
440297360.0 -0.1791567223 0.2445006076 0.2538114993 -0.3456598303 0.2539620972 -0.3458939918 -0.1698801628 0.2369714231
445297330.0 -0.1766083202 0.2465403497 0.2503062035 -0.3486554518 0.2502877458 -0.348264264 -0.1672008496 0.2384776347
450297300.0 -0.1741591911 0.2482679784 0.2463991326 -0.3513587401 0.2463790224 -0.3513988337 -0.1646182017 0.2403756012
455297270.0 -0.1713377694 0.2503800976 0.2420205029 -0.3538451066 0.2427866559 -0.3541041705 -0.1623416914 0.2420840113
460297240.0 -0.1692172951 0.2525631326 0.2385885903 -0.3563886195 0.238811095 -0.3565347505 -0.1595863464 0.2443533133
465297210.0 -0.1660883606 0.2545800062 0.2342968091 -0.359237355 0.2345832027 -0.3593288249 -0.1570631786 0.2457490491
470297180.0 -0.1635801439 0.2560342888 0.2303363888 -0.3613201989 0.2309522472 -0.3614932431 -0.154248161 0.2479538294
475297150.0 -0.1609814612 0.257849873 0.2261399644 -0.3636883763 0.2267894736 -0.3636859122 -0.151317183 0.2493188259
480297120.0 -0.1581177856 0.2599050738 0.2225288417 -0.366822207 0.2226839214 -0.3669679186 -0.1486067715 0.2514030416
485297090.0 -0.1554421937 0.2617824237 0.218582293 -0.3690235907 0.2185993258 -0.3686864725 -0.1458311156 0.2532245722
490297060.0 -0.1532133939 0.2637190248 0.2145417039 -0.371519745 0.2147349561 -0.3710305389 -0.1433429445 0.2547280703
495297030.0 -0.1501515868 0.2651261599 0.2104425368 -0.3733422037 0.2106345345 -0.3733851515 -0.1408671814 0.2565111423
500297000.0 -0.1472990215 0.2670820265 0.2060096893 -0.3753210519 0.2061528794 -0.3755837218 -0.1378686009 0.2588544482
505296970.0 -0.144482888 0.2687595516 0.2023323869 -0.3779164831 0.2022763811 -0.3780003546 -0.1354916515 0.2601236019
510296940.0 -0.1415230502 0.270407081 0.1978469265 -0.3802754465 0.1978009995 -0.3804708328 -0.1326360662 0.2617211682
515296910.0 -0.1385931652 0.2719818445 0.1937039991 -0.3822385434 0.1936277149 -0.3820214015 -0.1298515284 0.263183811
520296880.0 -0.1363490817 0.2739601463 0.189692571 -0.3843173736 0.1899924509 -0.3838336757 -0.1272619804 0.2647183367
525296850.0 -0.1328359163 0.2749268697 0.1850771128 -0.3861590442 0.1857529475 -0.3860791957 -0.1242859271 0.2664718228
530296820.0 -0.1301838538 0.2769090725 0.1810524563 -0.3886523281 0.181227411 -0.3882259893 -0.1213589147 0.2679606483
535296790.0 -0.1275914991 0.2783674589 0.1772127437 -0.3902777356 0.1771395386 -0.389854587 -0.1192275622 0.2689675306
540296760.0 -0.1245049669 0.2798350316 0.1727381527 -0.3923604744 0.1727776391 -0.3921761512 -0.1163009329 0.2709967737
545296730.0 -0.1218049241 0.281376677 0.1681452081 -0.3939491092 0.1684369166 -0.3937894818 -0.1134708785 0.2718758299
550296700.0 -0.1186096234 0.2826234451 0.164197582 -0.3958311511 0.1643374222 -0.395824843 -0.1110343306 0.2737564381
555296670.0 -0.1156791037 0.2840488465 0.1597929613 -0.3973784724 0.1599823909 -0.3975007271 -0.1080263713 0.2755205052
560296640.0 -0.1125090636 0.2857639542 0.1556131386 -0.3992228508 0.1555600842 -0.3988462069 -0.1051379854 0.2761971494
565296610.0 -0.1099627352 0.2867864701 0.1510244807 -0.4006455148 0.1511239082 -0.4007117782 -0.1021866785 0.2774639599
570296580.0 -0.1071891172 0.2880305886 0.1466461802 -0.4031300902 0.1463078343 -0.4024294547 -0.0992884693 0.279338613
575296550.0 -0.1040994982 0.2894461626 0.142464554 -0.404019761 0.1420639136 -0.4039996291 -0.0962215669 0.2801236863
580296520.0 -0.1006278185 0.2907196345 0.1373808563 -0.4058302151 0.1378318834 -0.4054835478 -0.0936651359 0.281107619
585296490.0 -0.0979674297 0.291581359 0.1334366928 -0.4068080231 0.1336338147 -0.406939161 -0.0907338144 0.2824483773
590296460.0 -0.0944724283 0.2929860775 0.1290262996 -0.4079224133 0.1290882453 -0.4081186232 -0.0879859727 0.2834620154
595296430.0 -0.0916227092 0.2937708096 0.1238035447 -0.4095121379 0.1244694283 -0.4096177458 -0.084746715 0.2840895517
600296400.0 -0.0886964246 0.2951147606 0.1202635033 -0.4107358464 0.1200369967 -0.4108293282 -0.0823384079 0.2852615739
605296370.0 -0.0856864165 0.2962367266 0.11564455 -0.4119517021 0.1156376931 -0.4120475055 -0.0784704194 0.2861575524
610296340.0 -0.0824866273 0.297321539 0.1106030539 -0.4132000478 0.1112878372 -0.4132721806 -0.0757397139 0.2870304716
615296310.0 -0.0791362628 0.298246204 0.1065758572 -0.4141201466 0.106395111 -0.4148252771 -0.0725990204 0.2878292657
620296280.0 -0.0759965266 0.2986656958 0.1017084965 -0.4151183953 0.1020878415 -0.4152009433 -0.0698986461 0.2887875611
625296250.0 -0.0732224269 0.2999111556 0.0977475936 -0.4164374265 0.0972981209 -0.416751497 -0.0662306225 0.2894510309
630296220.0 -0.0694859669 0.3008703045 0.0925918404 -0.4174600873 0.0928437409 -0.4174146785 -0.06355514 0.2907189438
635296190.0 -0.0670142227 0.3016605343 0.0884653106 -0.4180880187 0.08831195 -0.41833309 -0.060143671 0.2911978893
640296160.0 -0.0635106379 0.3025968888 0.0834687795 -0.4194626384 0.0841059168 -0.419318343 -0.0572390691 0.2918962129
645296130.0 -0.0604925934 0.3033622025 0.0788972641 -0.4197561234 0.0795218494 -0.4201397331 -0.0541980354 0.292737309
650296100.0 -0.057146796 0.3039517164 0.074511559 -0.4207358502 0.0746663818 -0.4210391084 -0.0508175299 0.2933048821
655296070.0 -0.0541055871 0.3052024278 0.0698796902 -0.4217202779 0.0702676157 -0.4216734446 -0.0474392034 0.2940527472
660296040.0 -0.0511204704 0.3053204862 0.0657279843 -0.4222649607 0.0655378271 -0.4222917948 -0.0443704422 0.2946586594
665296010.0 -0.047653476 0.3058846423 0.0607232505 -0.4230210901 0.0609678469 -0.423241954 -0.0411542595 0.2956990859
670295980.0 -0.0452914087 0.3068376361 0.0563136447 -0.423415624 0.0564360693 -0.4235579428 -0.0382527861 0.2964170542
675295950.0 -0.0416104007 0.3074824834 0.0518341266 -0.4240762862 0.0521408085 -0.423628345 -0.0354622161 0.2968485298
680295920.0 -0.0381360336 0.3080279103 0.0473673533 -0.4245259447 0.0468707193 -0.4252004363 -0.0316831962 0.2979056642
685295890.0 -0.0348224481 0.3087587718 0.0425001889 -0.4252118196 0.0421518298 -0.4249610781 -0.0287719976 0.2979949605
690295860.0 -0.0314390748 0.308959659 0.0378984724 -0.4250706609 0.0377933179 -0.4255267568 -0.0253029368 0.2990759861
695295830.0 -0.0286307849 0.3094040789 0.033590585 -0.4252265286 0.0332075145 -0.425771712 -0.0222168453 0.2992398042
700295800.0 -0.0251119109 0.3098064649 0.0284535575 -0.4258257163 0.0285809739 -0.4262483157 -0.0200144498 0.2999668272
705295770.0 -0.0223000379 0.310882786 0.0238124933 -0.4263287436 0.0241954516 -0.426504938 -0.0163766991 0.3006631347
710295740.0 -0.0184000819 0.3107206292 0.0196944425 -0.4269938847 0.0196066655 -0.4268228798 -0.0134109327 0.3004062364
715295710.0 -0.015781786 0.3110241426 0.0152563601 -0.4267009146 0.0147956565 -0.4265161605 -0.0102612728 0.300689444
720295680.0 -0.0124104491 0.3112253002 0.0099541297 -0.4270113255 0.0102536236 -0.4270843091 -0.0067431965 0.3013703814
725295650.0 -0.0088989184 0.3119370512 0.0056589786 -0.4268694429 0.0059100842 -0.4270273583 -0.0046010051 0.301584919
730295620.0 -0.0055550852 0.3120398431 0.0010179869 -0.4264385733 0.0012243767 -0.4270358966 -0.0013472762 0.3014488925
735295590.0 -0.0025002152 0.3123082419 -0.0034169253 -0.4270295831 -0.0035641422 -0.4268407358 0.0018048234 0.3016067324
740295560.0 0.0007557491 0.3123554559 -0.0083428356 -0.4266236188 -0.0082192284 -0.4267309867 0.0057049137 0.3018087265
745295530.0 0.003921123 0.3127512879 -0.0129051825 -0.4262393923 -0.0130589674 -0.4263237782 0.0083867819 0.3016029823
750295500.0 0.0073975989 0.3126651023 -0.0172185732 -0.4261980761 -0.0172001263 -0.4264426586 0.0115055217 0.3017788169
755295470.0 0.0103529102 0.3126344046 -0.0216707261 -0.4262171156 -0.0221042088 -0.4259527673 0.0149766163 0.301385933
760295440.0 0.0136568784 0.3124620628 -0.0266973655 -0.4262630433 -0.0266372442 -0.425948354 0.0178292261 0.3016479972
765295410.0 0.0170374126 0.3128748362 -0.0314427572 -0.425829028 -0.0316400087 -0.4254057891 0.0210147706 0.3017682948
770295380.0 0.0199902219 0.3123422629 -0.0358431938 -0.4249192336 -0.0359137198 -0.4249348837 0.0238642398 0.3012377485
775295350.0 0.0231750305 0.3122132968 -0.0408829961 -0.4244341918 -0.0402165093 -0.4246166121 0.0269518862 0.3012481316
780295320.0 0.02702846 0.3120962806 -0.0451538858 -0.4237739665 -0.0444786292 -0.4241556827 0.0301211419 0.3007817387
785295290.0 0.0298603669 0.3113529783 -0.0497691642 -0.4229188209 -0.0493941821 -0.4236801215 0.0338746272 0.3005270525
790295260.0 0.0337132373 0.3118700886 -0.0540032729 -0.4227555603 -0.0537723931 -0.4226826206 0.0370790172 0.3007375519
795295230.0 0.0364384907 0.3114348317 -0.058808372 -0.4222180076 -0.0583735583 -0.4221453767 0.0404011948 0.299934385
800295200.0 0.0397477558 0.3113528124 -0.0635082422 -0.4212450598 -0.0630266787 -0.4214400706 0.0435229358 0.299712877
805295170.0 0.0431429294 0.3108364947 -0.0679238151 -0.4206594461 -0.067745185 -0.4206312466 0.0466207963 0.2996119905
810295140.0 0.0463419563 0.3105466561 -0.0722161555 -0.4196914701 -0.0723840286 -0.4200606656 0.0501035811 0.2992221624
815295110.0 0.0494869475 0.3096674075 -0.0766834853 -0.4184998147 -0.0767152592 -0.4192240729 0.0528285186 0.2986115065
820295080.0 0.0523815793 0.3098916291 -0.0812874037 -0.417937813 -0.0807750971 -0.4180636793 0.0564383261 0.2986813711
825295050.0 0.0565313289 0.3092426326 -0.0854921829 -0.4171238592 -0.0856818522 -0.4171662608 0.0596329986 0.2979386463
