!Created with skrf (http://scikit-rf.org).
# Hz S RI R 50.0 
!freq ReS11 ImS11 ReS21 ImS21 ReS12 ImS12 ReS22 ImS22
300000.0 -0.7737490978 -0.1488247668 -0.0025429201 0.0015911672 -0.0010709438 0.0005985601 -0.046223998 -0.0686615811
5299970.0 -0.7851001815 -0.0077606827 6.2621e-05 8.90856e-05 -8.18079e-05 2.67747e-05 -0.0484204132 0.014325025
10299940.0 -0.7879114054 -0.0040437831 -7.74067e-05 -0.0001608972 0.0001801321 0.000142129 -0.0429171273 0.0315356011
15299910.0 -0.7932870497 -0.002066882 0.0001048413 -0.0001667167 -2.73784e-05 1.94515e-05 -0.0343534668 0.0454373304
20299880.0 -0.8000954988 0.0021506438 0.0001234656 -0.000170739 -2.45851e-05 -3.64483e-05 -0.0248020102 0.0571733446
25299850.0 -0.8061808186 0.0079864152 0.0001279733 -3.8508e-06 3.09056e-05 5.61129e-05 -0.0142898145 0.0661441905
30299820.0 -0.8120962598 0.0164556452 7.5758e-06 0.00019822 5.16659e-05 -7.45228e-05 -0.0031608713 0.0726720415
35299790.0 -0.8167920728 0.0251520327 -6.16694e-05 6.794e-07 -7.4439e-06 1.03046e-05 0.0083920012 0.0773318007
40299760.0 -0.8211526244 0.034277279 4.28711e-05 0.0002039845 -6.48529e-05 -3.30499e-05 0.0194688447 0.0798851809
45299730.0 -0.8250870293 0.044313292 0.0001355717 -0.0001085251 7.67571e-05 6.29311e-05 0.0296586325 0.0814698534
50299700.0 -0.8267053491 0.0543690168 2.87679e-05 8.21948e-05 0.0001080079 -7.3902e-05 0.0397957193 0.081435441
55299670.0 -0.8285529731 0.0641598307 -1.23785e-05 -0.0001549789 8.78186e-05 -8.24189e-05 0.0485139023 0.0803774572
60299640.0 -0.8298209764 0.0746539738 -0.0001193633 -6.381e-05 -0.0001806996 -0.0001481951 0.0569757116 0.0784096572
65299610.0 -0.8313100029 0.0849970179 -3.78481e-05 -0.0001456232 0.0001625237 7.22272e-05 0.0644734642 0.076038594
70299580.0 -0.831156002 0.094617522 -3.39187e-05 0.0001782446 -1.63e-05 4.49759e-05 0.0714890497 0.0729208874
75299550.0 -0.8316427703 0.1047263336 4.70216e-05 -3.09552e-05 1.16021e-05 3.99725e-05 0.0776411312 0.0701143666
80299520.0 -0.831081865 0.1143717051 2.58168e-05 6.44042e-05 5.39841e-05 0.0001032724 0.0823721592 0.0664581578
85299490.0 -0.8306917479 0.1244962656 0.0001881049 -0.0001522824 5.01362e-05 5.70104e-05 0.087642877 0.0624884357
90299460.0 -0.8298608527 0.1335894211 6.24863e-05 -4.38644e-05 0.0002941643 -3.26656e-05 0.092254077 0.0587914228
95299430.0 -0.8292323479 0.1437268074 -2.04798e-05 -7.86441e-05 3.82963e-05 3.9689e-05 0.0963861681 0.0549891521
100299400.0 -0.8277889362 0.1531482229 -2.69447e-05 4.34777e-05 -2.74847e-05 -1.42545e-05 0.0995725098 0.0510431567
105299370.0 -0.8264877936 0.162651469 0.0001596953 0.0001496378 0.0002358229 -0.0003039598 0.1031422929 0.0471142919
110299340.0 -0.8252815577 0.1711144822 -0.0001731701 4.59643e-05 -2.24836e-05 4.83398e-05 0.1054562089 0.0431180543
115299310.0 -0.8234969009 0.1805988807 -6.88947e-05 4.61833e-05 0.0001580845 -6.89163e-05 0.1082401404 0.0386206508
120299280.0 -0.8218563142 0.190081047 6.42224e-05 0.0001803705 0.0001548387 -0.0001901707 0.1103731207 0.0349593549
125299250.0 -0.8203983955 0.198006782 -4.71724e-05 -9.63964e-05 5.41575e-05 -0.0001081949 0.1120285416 0.0308387911
130299220.0 -0.8183955206 0.2078919443 -4.28984e-05 4.14908e-05 3.22985e-05 -7.36431e-05 0.113692624 0.0276402832
135299190.0 -0.8165388383 0.2168528194 1.71551e-05 0.0001183731 -0.0001441259 -3.9141e-05 0.1151720199 0.0233895893
140299160.0 -0.8149886928 0.2255753166 -9.16089e-05 5.84352e-05 0.0001754619 0.0001207448 0.116601016 0.0199080233
145299130.0 -0.8125906894 0.2338429039 2.08571e-05 1.13686e-05 1.06945e-05 0.0001495103 0.1170376171 0.0164746288
150299100.0 -0.8099953341 0.2436424414 0.0001274358 5.23463e-05 -0.0001225364 0.0001094801 0.1179164299 0.0126888384
155299070.0 -0.8077758014 0.2526553197 0.0001388795 9.60111e-05 -9.688e-06 8.8572e-06 0.1187290972 0.0095350375
160299040.0 -0.8048052273 0.2610899029 -1.99803e-05 0.0002334466 0.0001060297 -3.96946e-05 0.1194394078 0.0062184888
165299010.0 -0.8022746306 0.269719135 8.76348e-05 -6.4364e-05 3.22317e-05 3.26848e-05 0.1198549068 0.0028917744
170298980.0 -0.7998959639 0.2777495411 -0.0001155491 -3.09933e-05 0.0001375936 8.00072e-05 0.1204039285 -1.04821e-05
175298950.0 -0.7968199655 0.2876007369 -7.38233e-05 -2.85891e-05 0.0001249095 0.0001738345 0.1204602019 -0.0035385963
180298920.0 -0.7936473311 0.2949955401 2.75311e-05 -0.0001414768 -8.17968e-05 -3.00053e-05 0.1207894884 -0.0065481354
185298890.0 -0.7909174916 0.3042322363 0.0001247238 2.71755e-05 -6.77959e-05 -0.0001363978 0.1204705774 -0.0095593556
190298860.0 -0.7874817179 0.3122074399 2.25116e-05 5.34109e-05 5.51264e-05 -0.000176573 0.1207241094 -0.0124650606
195298830.0 -0.784186524 0.3209447151 -5.28757e-05 0.0002231633 0.0002192528 -2.65076e-05 0.1202215793 -0.0150459239
200298800.0 -0.780546947 0.3294628863 -4.7548e-05 -0.000156303 7.46065e-05 0.0003254983 0.1206719277 -0.0181597492
205298770.0 -0.7775410395 0.3373996103 -3.10553e-05 0.0002757582 0.0001288392 0.0001663888 0.1199683402 -0.0208387586
210298740.0 -0.7732269083 0.3460541001 4.50757e-05 2.67988e-05 0.0001540111 -0.0001150671 0.1197777132 -0.0233186832
215298710.0 -0.769603908 0.3541305891 3.23984e-05 0.0001117223 -0.0001599447 3.80393e-05 0.1190518683 -0.0257932937
220298680.0 -0.7663557078 0.3626655665 5.58517e-05 0.0001797564 0.0001176651 2.00168e-05 0.1189814076 -0.0281914892
225298650.0 -0.7630052084 0.3713508923 -0.0001849396 9.31885e-05 -2.23394e-05 4.31193e-05 0.118196988 -0.0307082272
230298620.0 -0.7589622009 0.3790603671 4.28418e-05 -4.13083e-05 0.0002281446 0.0001498332 0.1179573831 -0.0334042572
235298590.0 -0.7547735281 0.3873205241 2.78027e-05 2.93885e-05 -3.58964e-05 -0.0001182738 0.1175059493 -0.0356896412
240298560.0 -0.750779789 0.39522433 -1.0507e-06 4.17586e-05 7.7927e-06 7.89067e-05 0.1164646655 -0.0381636272
245298530.0 -0.7463399188 0.4027805001 2.0293e-05 0.0002262278 8.46107e-05 3.47529e-05 0.1158261255 -0.0399128233
250298500.0 -0.7427969999 0.4106356256 4.334e-07 5.71527e-05 -8.16979e-05 8.13835e-05 0.1154024964 -0.042079832
255298470.0 -0.7375680539 0.4187968331 0.000129924 2.38571e-05 0.000125269 0.0002335162 0.1144651804 -0.0446886628
260298440.0 -0.7340407921 0.4262234623 0.0003033296 2.2897e-06 3.14949e-05 8.64682e-05 0.1138720275 -0.0465522001
265298410.0 -0.729413119 0.4341702521 -5.98873e-05 -2.17021e-05 -9.08743e-05 1.82784e-05 0.112753758 -0.0488903381
270298380.0 -0.7242739451 0.4416320386 -6.64715e-05 0.0001271244 5.52734e-05 -0.0001618074 0.1124902262 -0.0506008822
275298350.0 -0.7196405098 0.4496028272 0.0002437568 0.0001314294 -5.36387e-05 6.84498e-05 0.111327543 -0.052599047
280298320.0 -0.7151336968 0.4568387063 5.15755e-05 0.0001216382 2.7482e-06 -9.2694e-06 0.1108449291 -0.0545514464
285298290.0 -0.7104503246 0.4644706982 0.0001552273 9.7784e-06 5.43535e-05 -8.52298e-05 0.1094909348 -0.0566292245
290298260.0 -0.705517882 0.4712420519 -7.94921e-05 -5.1279e-06 0.000218707 -2.40141e-05 0.1086471159 -0.0581070261
295298230.0 -0.7007427462 0.4793882779 -7.29548e-05 0.0001544862 0.0001305326 -5.1926e-06 0.1077882616 -0.0601649706
300298200.0 -0.6945720947 0.4864611913 0.0001374483 7.12441e-05 0.000189299 4.62623e-05 0.1068031726 -0.0619078254
305298170.0 -0.689773002 0.49446932 0.0001137728 1.27598e-05 8.30961e-05 0.0001260845 0.1062482483 -0.0633316143
310298140.0 -0.6844613622 0.5005513524 2.90976e-05 -2.52934e-05 2.35451e-05 3.97444e-05 0.1050084869 -0.0652216124
315298110.0 -0.6796748407 0.5079402047 2.02457e-05 8.35493e-05 5.26197e-05 0.0001833426 0.1040908175 -0.0670330557
320298080.0 -0.6737748578 0.5160884063 5.61369e-05 5.9817e-06 0.0001319333 -8.35082e-05 0.1030356648 -0.0691607472
325298050.0 -0.6681779489 0.5218906986 -2.95308e-05 8.84688e-05 0.0001151224 -0.000123797 0.1018352253 -0.0707483916
330298020.0 -0.6629534459 0.5298132786 0.0002248867 0.000163928 0.0002114862 5.0938e-06 0.1005054109 -0.0725384249
335297990.0 -0.6571508397 0.5362060435 0.0003770448 0.0001116403 -2.73516e-05 0.0001132508 0.098793329 -0.0740252146
340297960.0 -0.6522154638 0.542700947 -4.03126e-05 -3.89329e-05 -3.0662e-06 1.70329e-05 0.0976382813 -0.0755646603
345297930.0 -0.646002611 0.5485915719 0.0003826776 0.0001321161 2.66986e-05 1.9849e-06 0.0963875067 -0.0767263635
350297900.0 -0.6404547341 0.5561279099 3.329e-05 0.0001270942 3.01733e-05 -0.0002651535 0.0949917665 -0.0783875506
355297870.0 -0.6344018932 0.563043871 0.0001172123 -7.95266e-05 8.27718e-05 0.0001616641 0.0936406694 -0.0794697568
360297840.0 -0.6282736263 0.5691635538 -6.60136e-05 -0.000113993 0.0001141742 7.18894e-05 0.0922255662 -0.0804555648
365297810.0 -0.6223835376 0.5759372253 -4.63051e-05 0.0002118601 0.0001810857 0.0001271173 0.0909441058 -0.0819275245
370297780.0 -0.6160719295 0.5818023849 -8.41988e-05 -6.07197e-05 7.2566e-06 0.0001885226 0.08928076 -0.0831339434
375297750.0 -0.6102327834 0.5884858032 0.0001081256 -0.000110089 8.04543e-05 4.45717e-05 0.0881122391 -0.084226888
380297720.0 -0.6038422814 0.5953846417 5.77084e-05 -0.0001686416 0.0001373566 0.0001016009 0.0866585553 -0.0850998534
385297690.0 -0.597811239 0.601032437 -1.20765e-05 -1.61709e-05 6.83497e-05 2.72342e-05 0.0851523615 -0.0861092808
390297660.0 -0.591538943 0.6072179407 4.67487e-05 0.0001620027 0.0002484096 0.0001089247 0.083719499 -0.0877572274
395297630.0 -0.5851493228 0.6133220844 0.0002318107 -7.63072e-05 -2.18799e-05 -0.0001817741 0.0822393533 -0.0885578348
400297600.0 -0.57904747 0.6194315931 -4.265e-05 -7.32016e-05 0.0001418369 -0.0001160419 0.0809588484 -0.0899664563
405297570.0 -0.5729547524 0.6248978165 0.0001821884 -0.0001791765 3.85147e-05 8.21899e-05 0.0795038335 -0.0905638724
410297540.0 -0.5655315942 0.6309050156 0.0001990484 0.000133675 0.0002140824 3.34804e-05 0.0779968463 -0.0914182161
415297510.0 -0.5586797957 0.636559285 0.0002436351 3.521e-05 0.0002377313 -5.73038e-05 0.0764841387 -0.0924357357
420297480.0 -0.5520175841 0.6425888075 -2.39428e-05 3.1916e-05 0.0001454972 3.67935e-05 0.0752287745 -0.0936157976
425297450.0 -0.5458842338 0.6483084953 0.0001546735 8.07886e-05 5.84503e-05 6.22093e-05 0.0738345937 -0.094447499
430297420.0 -0.5393828553 0.6531544416 -0.0002549262 0.0002139825 0.0001357814 -0.0001201519 0.0722108297 -0.0953845678
435297390.0 -0.5319110817 0.6588109661 0.0001119346 4.49266e-05 0.0001265193 0.0001012847 0.0709200484 -0.096407703
440297360.0 -0.5257531007 0.6641894013 0.0002839785 0.0001059092 0.000172054 0.0001631328 0.0686847143 -0.0974110679
445297330.0 -0.5183954592 0.6699057599 0.0001063997 0.0003124543 0.0001856953 -4.42046e-05 0.0675028332 -0.0981744449
450297300.0 -0.5110467048 0.6747332301 0.0001922724 -7.54229e-05 0.0002295857 1.53528e-05 0.0658396022 -0.0988798093
455297270.0 -0.5040135195 0.6799829559 -9.2326e-05 -0.0001081771 -2.2699e-05 -4.1008e-05 0.0644366799 -0.0999423415
460297240.0 -0.4978696074 0.6855932438 7.30476e-05 6.02934e-05 8.53907e-05 4.58916e-05 0.0628677629 -0.1004129137
465297210.0 -0.4903301654 0.6907927143 0.0003317399 -0.0002147245 -9.26313e-05 0.0001626144 0.0608053703 -0.1013004389
470297180.0 -0.4830225626 0.6946733784 0.0001360334 5.87002e-05 0.0002561991 8.29616e-05 0.0592325727 -0.1020207638
475297150.0 -0.4759039704 0.7002505292 0.0002400825 2.86613e-05 0.0003566788 -3.05024e-05 0.0581601272 -0.1027644155
480297120.0 -0.4689969724 0.7047137112 0.0002852701 0.0001217199 7.51865e-05 -8.41165e-05 0.0563914632 -0.1028623837
485297090.0 -0.4614320385 0.709295232 -1.75025e-05 3.13531e-05 5.21931e-05 -8.4279e-06 0.0545447997 -0.1037674168
490297060.0 -0.4537716554 0.7141266938 0.0001856972 6.05715e-05 8.29853e-05 -2.76461e-05 0.0528636658 -0.1044979092
495297030.0 -0.4471728483 0.7187922487 -1.64691e-05 -0.0001381342 0.0002852946 0.000200165 0.0515282863 -0.1051614739
500297000.0 -0.4385508709 0.7234301679 5.473e-05 3.62452e-05 0.0002193492 6.10923e-05 0.0497169262 -0.1057634752
505296970.0 -0.4311345168 0.7272393286 0.0001918752 1.88308e-05 0.0003085529 2.3835e-06 0.0479137218 -0.1063857579
510296940.0 -0.4241475709 0.7321161232 0.0002856045 -5.83665e-05 0.0001172468 -4.09119e-05 0.0466755771 -0.1065361667
515296910.0 -0.4175859511 0.7365997147 0.0001726215 -0.0001320244 0.0003112754 8.7928e-05 0.0447184955 -0.1071821154
520296880.0 -0.4092742493 0.7406682196 0.000380644 -1.28135e-05 0.0001840158 -5.04881e-05 0.0435347655 -0.1079018216
525296850.0 -0.4016003298 0.744400325 0.000183197 -2.48508e-05 3.93503e-05 -5.35425e-05 0.0418745585 -0.1084507024
530296820.0 -0.3942528168 0.7482768681 0.0003392817 -3.30864e-05 2.53628e-05 1.72638e-05 0.039755458 -0.1089110008
535296790.0 -0.3863019177 0.7524468592 3.1209e-06 -5.77795e-05 -2.5997e-05 0.0001828983 0.0380814329 -0.1093114141
540296760.0 -0.3779286636 0.7562476323 5.87242e-05 0.0001053365 0.0003856406 -0.0002037791 0.0360451817 -0.1095555398
545296730.0 -0.3710337338 0.759522144 0.0001679114 -0.0001724232 0.0001501955 -8.44513e-05 0.0345735778 -0.1103209049
550296700.0 -0.3633163317 0.7640131003 9.36398e-05 1.0475e-05 0.0001434762 -8.97041e-05 0.0332576118 -0.1106088185
555296670.0 -0.3543827018 0.7672016155 0.0002620704 -0.0001474878 -2.8556e-05 -3.3278e-05 0.0310432329 -0.1106213306
560296640.0 -0.3470478773 0.7707662851 7.151e-05 -4.78882e-05 5.46378e-05 -3.4361e-06 0.0295866171 -0.1111084198
565296610.0 -0.3392871894 0.7743624594 -6.09133e-05 0.0002282796 -0.0001188585 2.0026e-06 0.0278562372 -0.1113464111
570296580.0 -0.3316707777 0.7769378758 -7.189e-06 4.39985e-05 0.0002540428 -2.7106e-06 0.0261903756 -0.1113539571
575296550.0 -0.3232779432 0.7808218789 9.39206e-05 8.25584e-05 0.0001926373 -7.154e-05 0.0247713177 -0.1118072524
580296520.0 -0.315745472 0.7844335859 4.91528e-05 -0.0003055541 -0.000109779 -7.61877e-05 0.0229542687 -0.1118603808
585296490.0 -0.3071699603 0.7865416553 0.0002590751 6.27538e-05 0.0001316689 -0.0001713717 0.0210157474 -0.1128757292
590296460.0 -0.2994022716 0.7900048259 0.0001631987 -7.77111e-05 -4.18099e-05 4.98492e-05 0.0197483494 -0.1124558581
595296430.0 -0.2912599479 0.7937555901 4.62627e-05 -5.70425e-05 -3.46644e-05 -9.44679e-05 0.017537207 -0.1126694997
600296400.0 -0.283862857 0.7957892607 9.37336e-05 -6.15626e-05 7.91657e-05 -2.34269e-05 0.0159448922 -0.1126577188
605296370.0 -0.2755366109 0.7987216257 0.0001437478 9.73157e-05 0.0003459366 -3.9595e-06 0.0143570704 -0.1126272477
610296340.0 -0.267164389 0.8011583701 0.000143556 0.0001325526 -6.31811e-05 4.01141e-05 0.012767881 -0.1127746742
615296310.0 -0.258984579 0.8042690465 7.51003e-05 1.30184e-05 -5.40975e-05 2.51131e-05 0.0109602951 -0.1131652506
620296280.0 -0.2509188009 0.8063815583 0.0001021862 -8.16098e-05 7.5628e-06 9.0579e-05 0.0091862489 -0.1133267928
625296250.0 -0.2428276946 0.809313549 7.5078e-05 -7.99151e-05 0.0001726026 -1.13716e-05 0.0077123752 -0.1127403245
630296220.0 -0.2339625536 0.8117217176 0.0001172727 -0.0001293706 0.0002355668 -0.000153532 0.0057526272 -0.1129643118
635296190.0 -0.2262252809 0.8136927991 0.000113558 3.92478e-05 0.0004118443 6.70923e-05 0.0042222658 -0.1130101298
640296160.0 -0.2177881068 0.8157172952 5.0831e-06 0.0002012601 7.83329e-05 0.0001305496 0.0025298273 -0.1130431798
645296130.0 -0.2098851057 0.8184578256 0.0001162026 -0.0001377408 0.0001138705 -7.89488e-05 0.0008684838 -0.112958966
650296100.0 -0.201704269 0.820472773 9.43801e-05 -6.72726e-05 0.000153714 4.01668e-05 -0.0011611903 -0.1128525971
655296070.0 -0.193172168 0.8221222177 -0.0001178074 -1.1685e-06 0.0003246852 -3.7259e-05 -0.0026272486 -0.112621885
660296040.0 -0.1851723747 0.8241941297 0.0002159042 0.0001816499 0.0001616858 5.93757e-05 -0.0042837183 -0.1123992291
665296010.0 -0.176559161 0.8258586124 0.0001248483 0.0002629788 0.0002990421 0.0001612963 -0.005903813 -0.112095309
670295980.0 -0.1680495759 0.8274820125 0.0002872083 5.02974e-05 2.5309e-06 8.75112e-05 -0.0075092599 -0.1119808224
675295950.0 -0.1596044414 0.8283627917 -1.55703e-05 8.04201e-05 0.0001118571 0.0001521194 -0.0092813957 -0.1118810753
680295920.0 -0.1515307234 0.8307061525 0.0003422992 -2.50873e-05 0.0003826112 -0.000115457 -0.0109939193 -0.1114782852
685295890.0 -0.1430001146 0.8317197333 0.0001624473 3.68633e-05 5.45488e-05 -0.0002613813 -0.0126868371 -0.1112658935
690295860.0 -0.1344328139 0.8334734297 0.0003610954 -0.0002187508 6.96362e-05 1.67507e-05 -0.0140697007 -0.1110333121
695295830.0 -0.1257666792 0.8344692057 0.0002714206 -6.9052e-05 0.0002020326 -6.00435e-05 -0.0163553595 -0.1105322963
700295800.0 -0.117799435 0.8357382064 0.000139568 0.0001361653 -8.57662e-05 -0.0001030291 -0.0179313409 -0.1106297387
705295770.0 -0.1089114194 0.8378117432 2.4352e-06 -0.000245162 0.00010089 3.21827e-05 -0.0194883695 -0.1097428871
710295740.0 -0.1012926728 0.8380781006 0.0002773363 -7.401e-07 0.000235125 -0.0002042135 -0.0213821628 -0.1094426505
715295710.0 -0.0932921812 0.8386803446 7.78904e-05 0.0001042906 0.0002106764 -0.0001650879 -0.0228708095 -0.1093424357
720295680.0 -0.084265476 0.8398170694 4.3531e-06 -0.0001245348 0.0001915345 3.3703e-05 -0.0241126524 -0.1087359887
725295650.0 -0.0750876783 0.841151333 0.0001334434 -2.99216e-05 0.0003027301 -0.0001090604 -0.0258762377 -0.1083875247
730295620.0 -0.0669174397 0.8411753395 -7.19703e-05 0.000102628 0.0002613165 -0.0001979395 -0.0277122398 -0.1079733988
735295590.0 -0.0580861714 0.8412915011 0.0002019427 -0.0001287902 4.23177e-05 0.0001351136 -0.0292290299 -0.1074445074
740295560.0 -0.0499498636 0.8425436477 0.0001010591 8.31517e-05 0.0001343153 7.10062e-05 -0.0311013098 -0.1071787131
745295530.0 -0.0416070845 0.8428504191 5.37765e-05 -0.0001185738 0.0002026337 1.56046e-05 -0.0325496921 -0.1063385639
750295500.0 -0.0336722199 0.8432467309 0.000190866 -5.47242e-05 0.000494137 -8.00423e-05 -0.0340811336 -0.1061376217
755295470.0 -0.0242365557 0.8433869303 0.0002148872 -0.0001189307 -7.06911e-05 0.0001659492 -0.0359277 -0.1052547321
760295440.0 -0.0160634182 0.8439324073 0.000229462 0.0001088582 7.24399e-05 -4.82486e-05 -0.0375109599 -0.104879643
765295410.0 -0.0079488117 0.8434768182 3.08324e-05 2.44014e-05 0.0003028484 -3.69851e-05 -0.0384039196 -0.1039299893
770295380.0 0.0004114572 0.8442908188 -6.06822e-05 -0.0003111404 0.000272446 5.90852e-05 -0.0403574453 -0.1036511301
775295350.0 0.008936636 0.844038256 0.0001733952 -0.0001741515 -6.4431e-06 6.5195e-06 -0.0424380142 -0.1033854463
780295320.0 0.0178036108 0.8427668688 -1.19164e-05 -8.50317e-05 9.87109e-05 -2.86061e-05 -0.0435465517 -0.102072442
785295290.0 0.0260283646 0.8436911211 9.51485e-05 -2.43064e-05 0.0001050347 7.94503e-05 -0.0451714927 -0.1012572865
790295260.0 0.0344821333 0.8424005119 -6.90559e-05 -9.25782e-05 4.03493e-05 -8.62787e-05 -0.0465817655 -0.1010281408
795295230.0 0.0432038982 0.8431450208 -0.0001343149 0.000173129 0.0002764742 -6.15663e-05 -0.0481455921 -0.1000558987
800295200.0 0.051549696 0.8431260669 5.03513e-05 -8.57721e-05 0.0001618452 -0.000119564 -0.0495715568 -0.0992786105
805295170.0 0.0595774673 0.8418023702 0.0001174816 -0.0002125599 -0.0002150368 -0.0001718324 -0.0513476879 -0.0985142247
810295140.0 0.0681699521 0.8411805978 0.0003474779 -0.0001040315 0.000167664 8.87272e-05 -0.0524787996 -0.0975970708
815295110.0 0.0768683022 0.8405222216 0.0002367484 -6.92948e-05 0.0002548587 -0.0001119425 -0.0540640646 -0.0966997271
820295080.0 0.0854739101 0.8392100973 9.49183e-05 -2.99516e-05 0.0003457803 -6.62981e-05 -0.0556670425 -0.0961743307
825295050.0 0.094235877 0.8387434421 0.0001021747 -0.0001538104 1.0774e-05 -0.0001151025 -0.0569517096 -0.0955248699
830295020.0 0.1025821255 0.8376333679 2.41899e-05 0.0001036017 6.01914e-05 -0.0001175188 -0.0584115312 -0.0941765206
835294990.0 0.1102112499 0.8369910245 0.0001632122 -0.0001448008 0.0001475957 1.98993e-05 -0.0597382788 -0.0935847054
840294960.0 0.1188281591 0.8353056442 5.40078e-05 -0.0001953123 0.0002000978 -2.91422e-05 -0.0613156846 -0.0919870559
845294930.0 0.1272482442 0.8342182585 0.0002270535 -0.0001876067 -6.0109e-06 -6.91207e-05 -0.0621827579 -0.0914147045
850294900.0 0.1350582451 0.832938991 0.000131435 -9.75905e-05 4.3335e-05 -9.49629e-05 -0.0640165373 -0.0904542551
