!Created with skrf (http://scikit-rf.org).
# Hz S RI R 50.0 
!freq ReS11 ImS11 ReS21 ImS21 ReS12 ImS12 ReS22 ImS22
300000.0 -0.0498473281 -0.0390373218 0.000261739 0.000987586 -0.000316715 0.0003200301 -0.7786385868 -0.1210596176
5299970.0 -0.048615501 0.015839006 3.24668e-05 3.0732e-05 -9.59454e-05 4.57579e-05 -0.7858584808 -0.007320353
10299940.0 -0.043007964 0.0320645444 0.0001408995 0.0001592931 1.25065e-05 -9.11708e-05 -0.7890075684 -0.0034634117
15299910.0 -0.0351816343 0.0461495359 -0.0003970601 -2.07643e-05 -3.16804e-05 -7.40817e-05 -0.7939392374 -0.0016710957
20299880.0 -0.0254060257 0.0573681934 0.0002887346 -1.86082e-05 0.0001144827 2.42931e-05 -0.800688261 0.0018886631
25299850.0 -0.0145513741 0.0665912945 5.79046e-05 -7.07349e-05 0.0001667074 -2.34579e-05 -0.8068479716 0.0081627201
30299820.0 -0.0034408077 0.0729404289 4.3138e-06 -3.92041e-05 0.0001514997 -5.3138e-06 -0.8126363287 0.0160039078
35299790.0 0.0078437112 0.0774805841 -0.0001914328 -0.0003023731 -1.7817e-06 8.98948e-05 -0.8177838575 0.0250550407
40299760.0 0.0189539093 0.080352324 0.0001434055 8.09561e-05 -0.0003015223 -6.88367e-05 -0.8215438673 0.034011331
45299730.0 0.0294765579 0.0816675185 8.92783e-05 -0.0001434108 1.68953e-05 8.02237e-05 -0.8253489287 0.0440765283
50299700.0 0.0390905367 0.0816298726 -0.0001034822 -7.30417e-05 -0.000106121 -0.0001015589 -0.8276434603 0.0535827664
55299670.0 0.0481649543 0.0803453699 5.77562e-05 0.0001276203 -2.53212e-05 -0.0001674874 -0.8295305338 0.0643335471
60299640.0 0.0568139346 0.0786424962 5.68138e-05 8.40938e-05 2.42584e-05 -0.0002045445 -0.8301942606 0.0737048152
65299610.0 0.0642360042 0.0760180739 -4.35507e-05 2.45623e-05 2.6661e-05 -0.0001693208 -0.8320425192 0.0839569413
70299580.0 0.0710264767 0.0732823818 -0.0001011105 -0.0001442636 3.33432e-05 0.0001299138 -0.8315492432 0.0941340046
75299550.0 0.0773900064 0.0701400044 3.12736e-05 -1.6792e-06 -0.0001606568 9.31103e-05 -0.8320476138 0.103901224
80299520.0 0.0831146107 0.0665468398 -0.0001153026 -0.0001609757 -8.94236e-05 -5.32892e-05 -0.8319296734 0.1135250745
85299490.0 0.087726027 0.0627983464 -2.00453e-05 4.43306e-05 -7.56425e-05 5.15531e-05 -0.831516224 0.1230994715
90299460.0 0.0921000561 0.0591177546 7.05027e-05 -4.22256e-05 9.74262e-05 2.52888e-05 -0.8303696624 0.1328667012
95299430.0 0.0965067942 0.0545903098 -3.39496e-05 0.0001383151 -0.0001556451 0.0001397448 -0.8291992508 0.1426102618
100299400.0 0.0997053009 0.0513012396 -0.0001166578 0.0003259787 8.32915e-05 3.73151e-05 -0.8285192774 0.1520882144
105299370.0 0.1029078315 0.0473057991 6.63597e-05 4.08101e-05 0.0003087141 -4.8343e-05 -0.8269620369 0.1609231455
110299340.0 0.1060182703 0.0432911654 3.79222e-05 -3.01825e-05 -1.3734e-05 -0.0001337542 -0.8261440419 0.1705059466
115299310.0 0.1084097163 0.0391564183 0.0001530775 3.36263e-05 -7.96625e-05 6.83205e-05 -0.8243030159 0.1799268426
120299280.0 0.1105444305 0.0352984775 -5.88611e-05 -1.24831e-05 9.0109e-05 -6.31825e-05 -0.8227106913 0.1884533279
125299250.0 0.1121643175 0.0316175627 5.6721e-05 2.60034e-05 -0.0001696618 5.94671e-05 -0.8212040615 0.1981556631
130299220.0 0.1138558471 0.0279520028 -0.0001682383 -8.75845e-05 -5.0763e-06 6.19318e-05 -0.819131868 0.2068766152
135299190.0 0.1151600562 0.0247567222 8.97765e-05 -5.42348e-05 2.64584e-05 9.7112e-05 -0.8170915682 0.2157977792
140299160.0 0.1161838347 0.0207490006 1.1188e-06 0.000178215 0.000132031 -5.38208e-05 -0.8149556484 0.2246488204
145299130.0 0.1175477515 0.0172350219 7.8514e-05 -8.9755e-06 0.000131167 -0.0003194492 -0.8131242164 0.2342755055
150299100.0 0.1183426986 0.0138056458 2.84955e-05 9.63606e-05 0.0002090868 -4.90868e-05 -0.8111821976 0.2434210455
155299070.0 0.1188908842 0.0103087481 0.0001427824 0.0001318686 0.0001172346 -6.07077e-05 -0.8083021003 0.2514074026
160299040.0 0.11924287 0.0071415948 -0.000158222 -5.57382e-05 -7.61477e-05 -7.28911e-05 -0.806240543 0.2608119192
165299010.0 0.120094445 0.0039883469 0.000148183 -8.47906e-05 5.5821e-06 3.45398e-05 -0.8036417433 0.2694783671
170298980.0 0.1199643119 0.0011247262 -0.0001622208 -5.23326e-05 -7.32269e-05 -9.5478e-05 -0.8007158994 0.2779763504
175298950.0 0.1203140223 -0.0021125316 8.63543e-05 -6.29361e-05 -0.0001713014 -5.3104e-05 -0.7975712324 0.2866670481
180298920.0 0.1203943132 -0.0050490852 7.8518e-06 -0.0002289737 8.04311e-05 -5.22266e-05 -0.7946188939 0.2948275827
185298890.0 0.1205923008 -0.0081072424 2.6951e-06 8.15136e-05 5.68883e-05 8.23808e-05 -0.7910826545 0.3040284449
190298860.0 0.1204770711 -0.0108783204 3.04724e-05 0.0001924576 0.000180927 5.75674e-05 -0.7887919498 0.3123897547
195298830.0 0.1200302069 -0.0138397003 4.25977e-05 -4.3997e-06 0.0001289615 5.09727e-05 -0.7855318397 0.3203591656
200298800.0 0.1199595053 -0.0162818464 1.1342e-06 -2.454e-06 1.8888e-06 0.0001495059 -0.7825845452 0.3288121335
205298770.0 0.1196013368 -0.0189533405 7.52816e-05 8.06218e-05 3.84986e-05 2.31455e-05 -0.7782655612 0.3371233893
210298740.0 0.1192767762 -0.021571914 0.0002058055 0.0001276763 3.46073e-05 8.41852e-05 -0.7746165711 0.3456889394
215298710.0 0.1186515435 -0.0242030016 4.62723e-05 0.0003252045 -4.99312e-05 0.000185496 -0.7714161549 0.3536709614
220298680.0 0.1181534054 -0.0267906231 2.53003e-05 -4.61777e-05 -8.01113e-05 3.8627e-05 -0.7677283247 0.3613994491
225298650.0 0.1174743741 -0.0294844783 -9.54e-06 -0.0001317873 -2.14459e-05 -8.2451e-06 -0.764083444 0.3698751252
230298620.0 0.1169137415 -0.0314147687 6.28127e-05 2.10933e-05 4.22086e-05 4.20746e-05 -0.7599687083 0.3777649917
235298590.0 0.116440907 -0.0338260302 0.0001196951 -4.90571e-05 0.0001659182 0.000105593 -0.7556687104 0.3862137124
240298560.0 0.11596966 -0.0362908359 -5.32046e-05 0.0002244074 -3.40625e-05 0.0001384201 -0.7518436054 0.3949564674
245298530.0 0.1151535365 -0.0384258007 -2.14962e-05 -4.5481e-06 0.000310429 4.19574e-05 -0.747866936 0.4019398521
250298500.0 0.1143500965 -0.0407285428 6.51159e-05 9.50388e-05 -3.50137e-05 -8.36694e-05 -0.7435596747 0.4098034529
255298470.0 0.1132597314 -0.0429455627 0.0001769273 0.0001039695 -0.0001168569 -1.92805e-05 -0.7386507025 0.4177175635
260298440.0 0.112517388 -0.0448840506 7.356e-05 -6.69842e-05 -0.0001393758 0.0001545325 -0.7354358081 0.425780835
265298410.0 0.1117050242 -0.0468621859 8.54559e-05 0.0002437653 5.262e-05 2.74591e-05 -0.7301468956 0.433575665
270298380.0 0.1106321411 -0.0487857188 0.0002077258 -0.0001002228 4.55041e-05 3.56787e-05 -0.7256809533 0.4410909816
275298350.0 0.1096762454 -0.0511486337 -5.55731e-05 9.88845e-05 -0.0001292259 7.83442e-05 -0.7213194219 0.448834452
280298320.0 0.108895722 -0.0530570482 -8.19016e-05 -8.95325e-05 6.59564e-05 0.0001638654 -0.716707099 0.4563155235
285298290.0 0.1082267934 -0.0547794928 8.79003e-05 0.0001073452 0.0001634854 9.06803e-05 -0.7109290205 0.4634202561
290298260.0 0.1070455823 -0.0565728917 0.0003488093 -0.000238653 0.0001003946 1.6999e-06 -0.7066851492 0.4710565803
295298230.0 0.1062381643 -0.0586333643 4.96249e-05 3.73467e-05 0.0001414467 0.0002184594 -0.7021258511 0.4782525121
300298200.0 0.1050102529 -0.0600718031 1.03016e-05 0.0002360962 -6.89268e-05 0.0001359231 -0.6965811422 0.4856536577
305298170.0 0.1040672511 -0.0620792214 0.000163414 6.93813e-05 -6.43933e-05 -7.74664e-05 -0.6909191793 0.4933046303
310298140.0 0.1028936363 -0.0638900671 1.76e-07 2.74528e-05 -6.66442e-05 9.42465e-05 -0.686821189 0.5001388344
315298110.0 0.1020995928 -0.0660734809 0.0001614903 -0.0001734154 0.0002098492 7.76024e-05 -0.6811805865 0.5074177682
320298080.0 0.1009082359 -0.0679112954 -9.57717e-05 -4.24553e-05 -4.32877e-05 0.0001380427 -0.6756126721 0.5148966311
325298050.0 0.0995936066 -0.069592336 7.2833e-05 -3.86414e-05 1.91317e-05 7.19423e-05 -0.6701825413 0.5213041864
330298020.0 0.0978629495 -0.0714332845 0.0001012093 -0.0001718806 0.0001301755 0.000168446 -0.6649125392 0.5284234404
335297990.0 0.096773925 -0.0732135493 0.0001099675 -7.99908e-05 -0.0001269203 0.0002695008 -0.6596738657 0.5354644608
340297960.0 0.0948916038 -0.0745152053 -2.2061e-05 0.0002032766 3.71472e-05 -6.50478e-05 -0.6539763781 0.5423815816
345297930.0 0.0934673108 -0.0759669562 9.08387e-05 0.0001276161 0.0001913026 -0.0001862399 -0.6483359515 0.5488710272
350297900.0 0.0922650669 -0.0771522986 -0.0002292632 -0.0002399779 -9.17646e-05 0.0001714731 -0.6422136233 0.5554322428
355297870.0 0.0908797121 -0.0786139669 1.07666e-05 0.0001310768 -5.8035e-06 -2.2636e-06 -0.6368409784 0.5619804593
360297840.0 0.0894666906 -0.0797748729 0.0002047664 8.66954e-05 0.0001528326 3.98086e-05 -0.6304127346 0.5682069386
365297810.0 0.0878012745 -0.0808590264 -1.16021e-05 -9.5128e-06 -0.0001933783 6.13882e-05 -0.6243530598 0.5747441433
370297780.0 0.0868653489 -0.0823121553 4.906e-07 8.63242e-05 -1.81573e-05 3.8261e-05 -0.6181348901 0.5814228197
375297750.0 0.0854786258 -0.0836357625 0.0002407305 0.0001662451 -0.0001651388 -0.000108435 -0.6125109573 0.5876398592
380297720.0 0.0840432931 -0.0847823664 0.0001856975 1.11346e-05 0.0001656035 0.0001368747 -0.6066556534 0.5937506219
385297690.0 0.0823537223 -0.0858248271 4.16954e-05 0.0001299759 -4.26445e-05 0.0001860771 -0.5994521033 0.6004141225
390297660.0 0.0807651717 -0.08692776 4.88834e-05 0.0001517778 -0.0001061044 -3.512e-05 -0.5935541602 0.6062309674
395297630.0 0.0798707576 -0.0884497278 0.0001429776 2.72095e-05 0.0001182979 4.83711e-05 -0.5872987486 0.6127396767
400297600.0 0.0783887671 -0.0891174718 0.0002312293 -0.0001011937 -2.32486e-05 1.81285e-05 -0.5813126624 0.6181803113
405297570.0 0.0765941313 -0.0903365106 0.0001767291 -0.0001545522 -7.8017e-05 0.000179474 -0.5742990516 0.6243582083
410297540.0 0.0750351887 -0.0917585783 0.0002740091 0.0001119168 0.0001121353 6.96661e-05 -0.5675415547 0.6301728844
415297510.0 0.0738003982 -0.092930456 2.88691e-05 0.0001993556 8.30619e-05 0.0001103195 -0.5615014361 0.6361025703
420297480.0 0.0722441903 -0.093416171 4.38232e-05 -6.03509e-05 8.189e-06 -0.0001235226 -0.5549914865 0.6420733399
425297450.0 0.0708854196 -0.0945854989 7.46572e-05 -7.82e-06 4.72071e-05 0.0001419683 -0.548238255 0.6480795455
430297420.0 0.0693755978 -0.0955921742 -8.15662e-05 2.06479e-05 7.93015e-05 3.47214e-05 -0.5416572308 0.6527193648
435297390.0 0.0679016266 -0.0965421233 0.0002885468 -5.40863e-05 0.0001489518 -7.22148e-05 -0.5345775332 0.658371435
440297360.0 0.0659619002 -0.0974884134 0.0001137952 0.0001581478 0.0002271217 -8.64112e-05 -0.5278479576 0.6635996564
445297330.0 0.0647363345 -0.0983005554 0.0001473655 0.0001531889 0.0002316198 -4.34931e-05 -0.5206826517 0.6683250131
450297300.0 0.0630972392 -0.0993255229 1.42245e-05 0.0001135524 0.0001150882 0.0001514385 -0.5138864864 0.673836786
455297270.0 0.0615808293 -0.0997682122 0.000185415 0.0001178571 0.0002837308 0.0001059199 -0.507053973 0.6790705861
460297240.0 0.0600021423 -0.1010308503 5.5287e-05 -0.0001510688 0.0002154132 -0.0001919947 -0.5006507067 0.684579704
465297210.0 0.0584579307 -0.1015589568 7.20263e-05 0.000156744 0.0002520018 -3.92134e-05 -0.4924678913 0.6895008372
470297180.0 0.0570426796 -0.1022567849 -6.88697e-05 0.0003141915 7.13396e-05 7.58561e-05 -0.4857533096 0.6952045763
475297150.0 0.0553890124 -0.1034618986 0.0004332611 0.0001915298 -1.04384e-05 2.30159e-05 -0.4785001194 0.6995568652
480297120.0 0.0536996275 -0.1038251843 6.58956e-05 0.0002339715 3.42809e-05 2.0833e-05 -0.470992606 0.7044251334
485297090.0 0.0522756942 -0.1045694547 0.0002001225 -0.0001127042 -6.00479e-05 0.0001304785 -0.4640587632 0.7090728938
490297060.0 0.050328214 -0.104745326 -0.0001351119 0.0002815943 0.0001233926 7.08919e-05 -0.4569322524 0.7134368627
495297030.0 0.0487931068 -0.1055972192 -0.000110582 2.47142e-05 0.0001979515 -0.0002024348 -0.449410681 0.7186682298
500297000.0 0.0472206034 -0.1064509868 0.0002268792 -2.10616e-05 0.000210956 5.3328e-06 -0.4421188061 0.7229225464
505296970.0 0.0459469083 -0.1069879461 0.0001018743 7.56649e-05 0.0001456211 -8.5343e-06 -0.4345730995 0.7273072259
510296940.0 0.04412231 -0.1075557035 0.000215095 6.84842e-05 6.11809e-05 9.7644e-06 -0.4270816155 0.731412972
515296910.0 0.0425995992 -0.1080701313 8.52514e-05 0.0001349003 0.0001643436 -7.56081e-05 -0.4191914434 0.7355742715
520296880.0 0.0407170056 -0.1086670837 0.0001897678 -9.56467e-05 0.0002094277 -3.01559e-05 -0.4124448934 0.7395473174
525296850.0 0.0391840956 -0.1094301854 6.6476e-05 -9.99524e-05 6.84385e-05 -0.0001013469 -0.4052591165 0.7439689665
530296820.0 0.0375124654 -0.1096284014 0.000188467 -0.0001655787 5.05681e-05 9.8665e-06 -0.3970356641 0.7474408314
535296790.0 0.0356818107 -0.109727659 9.97366e-05 5.77507e-05 0.0001482362 0.0002056563 -0.3901763976 0.7513577775
540296760.0 0.0339712122 -0.1104089413 8.75928e-05 -6.9522e-05 0.0001346562 4.44831e-05 -0.3818244788 0.7559143553
545296730.0 0.0322694719 -0.1108611258 6.80013e-05 9.73562e-05 4.51811e-05 -0.0001591538 -0.3744803813 0.7593657793
550296700.0 0.0309659072 -0.111122438 -2.46761e-05 -3.38115e-05 9.5764e-06 6.84142e-05 -0.3659635195 0.7630287029
555296670.0 0.029096474 -0.1117002961 3.69363e-05 0.0001414466 2.2249e-05 -4.4432e-05 -0.3587783293 0.7669771465
560296640.0 0.0278211555 -0.1118243644 -3.68418e-05 0.0001487893 7.21063e-05 0.0001863113 -0.3507324669 0.7701960448
565296610.0 0.0259910657 -0.1119015619 0.0001051945 -4.68142e-05 0.0002830822 0.0001826321 -0.3428393206 0.7731512264
570296580.0 0.0242381163 -0.112577619 0.0002522944 2.87493e-05 -8.43481e-05 9.82399e-05 -0.3353635916 0.7772336842
575296550.0 0.0226175843 -0.1123810464 0.0003644712 -5.88821e-05 0.0001275122 -3.12201e-05 -0.3274358709 0.7801647067
580296520.0 0.0208129383 -0.1130206506 4.5816e-06 0.000109207 6.66437e-05 -4.22341e-05 -0.3188446452 0.7836971905
585296490.0 0.0192369665 -0.1132651596 0.0002171898 5.5502e-05 0.000305706 -5.05152e-05 -0.3113603268 0.7871409838
590296460.0 0.018079974 -0.1131312781 6.71658e-05 -0.0002009569 0.0002061709 -3.43996e-05 -0.303116276 0.7904115218
595296430.0 0.0159636125 -0.1133181724 0.0001608013 9.84072e-05 0.0001372944 8.25767e-05 -0.2952096345 0.7923407885
600296400.0 0.0139294829 -0.1136419775 0.000302969 -5.27579e-05 0.0001682668 0.000107072 -0.2868791142 0.7956333611
605296370.0 0.0122069016 -0.1135393303 0.0002077603 -6.7212e-06 0.0003313702 -0.0001503012 -0.278616752 0.7989271157
610296340.0 0.0107508581 -0.1136775381 -3.63748e-05 -0.0002787192 0.0002348401 5.6471e-06 -0.2709111763 0.8012456048
615296310.0 0.0093053647 -0.1138641911 0.0003171802 0.0002520289 8.72196e-05 0.0001630912 -0.2624162567 0.8035477775
620296280.0 0.0071627248 -0.1140068703 0.0001765457 0.0001390359 0.0004513633 8.3348e-05 -0.2547895763 0.8069451443
625296250.0 0.005749358 -0.114030458 7.6095e-06 5.7142e-06 8.91663e-05 -8.3964e-06 -0.2460434836 0.8091034375
630296220.0 0.0043094909 -0.1140313521 0.0001165969 0.0001220763 0.0001195807 -0.0001913892 -0.238405529 0.8113436241
635296190.0 0.0022471296 -0.1139085723 0.0001286319 9.904e-06 0.0001326842 -4.83708e-05 -0.2302526237 0.8137112796
640296160.0 0.000753642 -0.1137454365 0.0003233644 2.37063e-05 8.43835e-05 2.96402e-05 -0.2217103937 0.8166607618
645296130.0 -0.0009048297 -0.1134507729 0.0002441638 -6.50303e-05 -9.6738e-05 0.0001490466 -0.2136386072 0.8186661184
650296100.0 -0.0026037389 -0.1133153658 0.0001090646 3.10948e-05 -2.66327e-05 -7.95055e-05 -0.2056486852 0.8197060589
655296070.0 -0.0044288615 -0.1132633984 -3.10117e-05 0.000124502 -0.0001604523 1.00401e-05 -0.1969953853 0.8217896269
660296040.0 -0.0060722068 -0.1133172863 0.0001287371 0.0002045166 -1.08574e-05 -3.64343e-05 -0.1881835501 0.8236356424
665296010.0 -0.0073581188 -0.1131895975 0.0002199623 5.01968e-05 6.75978e-05 -8.84375e-05 -0.1804970633 0.8266462071
670295980.0 -0.0095109803 -0.1126580372 -8.68377e-05 2.67548e-05 0.0001520125 -0.000139574 -0.1726081359 0.8276680567
675295950.0 -0.0110260365 -0.1125586812 0.0002997876 -0.0001839891 0.0001344519 5.42594e-05 -0.164890871 0.8292214493
680295920.0 -0.0127593752 -0.1122740886 6.98033e-05 -2.10979e-05 0.000115917 6.14307e-05 -0.1558117739 0.8319795671
685295890.0 -0.0142383342 -0.1119910028 -1.20206e-05 -5.94892e-05 0.0002171774 5.85687e-05 -0.1471281006 0.8320710548
690295860.0 -0.0156978681 -0.1117011703 3.69827e-05 -0.0001154193 0.0002812482 -4.01791e-05 -0.1392551874 0.8342655524
695295830.0 -0.0176259071 -0.1112851989 0.000216124 0.000109801 0.0002195263 0.0001648672 -0.130263944 0.8349497411
700295800.0 -0.0191791411 -0.1111038514 -0.0001062368 4.54493e-05 -0.0001350915 0.0001913215 -0.1228003088 0.836505772
705295770.0 -0.0210130658 -0.1105921803 0.0003711123 -7.92806e-05 0.000322306 -0.000121419 -0.1146490427 0.8379874292
710295740.0 -0.0224249099 -0.1103997372 -1.49403e-05 -3.55781e-05 -1.38586e-05 -3.47369e-05 -0.1057897189 0.8390027621
715295710.0 -0.0243772993 -0.1100559515 -3.46515e-05 -8.19211e-05 0.0003553065 -2.88544e-05 -0.0973304968 0.8393975713
720295680.0 -0.0258211036 -0.1095052345 0.0001309875 0.0001630943 0.0001045296 2.7615e-05 -0.0888047692 0.8407838836
725295650.0 -0.0272986975 -0.1088962768 0.0001345176 -9.67039e-05 8.49065e-05 4.64211e-05 -0.080428773 0.8420384804
730295620.0 -0.0289246728 -0.1083386214 0.0002172474 -4.58602e-05 8.236e-05 -3.68519e-05 -0.0729161988 0.841922155
735295590.0 -0.0305248927 -0.107775112 0.0001813626 -0.0002167647 2.94151e-05 -2.3757e-06 -0.0640806193 0.8421516096
740295560.0 -0.0320052529 -0.1072287291 0.0002984714 0.0002213065 0.0001687524 -0.0002172719 -0.0546149758 0.8438635357
745295530.0 -0.0339844845 -0.1069777284 0.0003515405 -4.36925e-05 9.18395e-05 -7.04739e-05 -0.0467322558 0.8435085306
750295500.0 -0.0354291035 -0.1064878399 0.0003249956 3.04601e-05 0.0003091726 8.16549e-05 -0.0386328962 0.8447302819
755295470.0 -0.0370641611 -0.1056551774 0.0001543436 -3.65973e-05 0.0002340387 -0.0002383405 -0.0296573427 0.8439960796
760295440.0 -0.0385910837 -0.1051679552 0.0002233091 4.61575e-05 0.0001842836 -0.0001077319 -0.0214022674 0.8447367678
765295410.0 -0.0399752491 -0.104477421 0.0001818492 4.78773e-05 0.0002019226 0.0001428475 -0.012954131 0.8449449811
770295380.0 -0.0417445678 -0.1038988689 0.0002183462 0.0001262902 5.65914e-05 -6.87394e-05 -0.0046125805 0.845149426
775295350.0 -0.0436009401 -0.1033683964 0.0001995414 -0.0001760625 0.0001615926 -5.04661e-05 0.0033811076 0.844760701
780295320.0 -0.0447038971 -0.1026727265 0.0001999794 0.0002015977 9.26403e-05 -0.0001395861 0.0119155215 0.8446178501
785295290.0 -0.0467882458 -0.1020423041 0.0001689877 -0.0001366187 3.45709e-05 0.0002569256 0.0206556493 0.8447715377
790295260.0 -0.047530297 -0.1013504253 0.0001468324 9.0263e-06 -8.32644e-05 -6.98246e-05 0.0296761508 0.8452021103
795295230.0 -0.04924365 -0.1004450984 2.17911e-05 -0.0001000657 0.0002463669 -7.24214e-05 0.0381169487 0.8436480784
800295200.0 -0.0507995202 -0.0995243219 0.0004455451 -4.6112e-05 3.9159e-06 -0.0001269083 0.0465306102 0.8441719552
805295170.0 -0.0523645391 -0.0988475334 0.0001522962 -2.10953e-05 0.0002220149 0.0002661889 0.0542200702 0.8435317317
810295140.0 -0.053484655 -0.0981051657 3.70931e-05 2.37374e-05 0.0002279307 7.76984e-05 0.0626983319 0.8427026042
815295110.0 -0.0555201809 -0.0974476047 0.0001254189 -5.82791e-05 0.0001435523 -0.0001395121 0.0715935791 0.8420352823
820295080.0 -0.0565458749 -0.0963872187 0.0001981998 4.23102e-05 0.0002419055 0.0001518619 0.0799048778 0.8416231447
825295050.0 -0.0578007405 -0.0955099932 2.10734e-05 5.10992e-05 0.0002773509 6.99591e-05 0.0883917001 0.8405643431
830295020.0 -0.0593508951 -0.0948502404 -0.0001060727 -0.0003030424 5.66698e-05 -0.0001389171 0.0972524332 0.8393219177
835294990.0 -0.0606295025 -0.0935926959 0.0002608128 3.57748e-05 7.86786e-05 -7.71655e-05 0.1048059645 0.8385187146
840294960.0 -0.0623346457 -0.0925486173 6.16155e-05 4.67215e-05 0.0002257905 -0.0001371714 0.1130143339 0.8373308017
845294930.0 -0.0636171761 -0.0918312209 0.0001981108 -0.0001227303 7.09431e-05 0.0001166726 0.1210172516 0.8359634467
850294900.0 -0.0648293007 -0.0907316501 8.86525e-05 -0.0001622249 0.0001331528 -4.67123e-05 0.1290806868 0.8350852267
