!Created with skrf (http://scikit-rf.org).
# Hz S RI R 50.0 
!freq ReS11 ImS11 ReS21 ImS21 ReS12 ImS12 ReS22 ImS22
300000.0 -0.0947473645 -0.0989486069 0.6240589009 0.0924863081 0.6210010519 0.0934362232 -0.0965007389 -0.1059070744
5299970.0 -0.1017038825 0.0116445117 0.6301612416 0.0108689586 0.6308838029 0.0110341951 -0.101790271 0.0112631382
10299940.0 -0.0969364517 0.0287428418 0.6343322842 0.0158195961 0.6342475179 0.0164752503 -0.0966263968 0.0284802857
15299910.0 -0.0893146633 0.0425659527 0.6407334527 0.0210219673 0.640830439 0.0210087303 -0.0895987492 0.0414337854
20299880.0 -0.0803263805 0.0535157057 0.6485892862 0.0242463406 0.649302864 0.0244762271 -0.0809567403 0.0527617852
25299850.0 -0.070349163 0.0622657841 0.6584525854 0.0260085105 0.658449653 0.0255059491 -0.0718498667 0.0620674088
30299820.0 -0.0611400718 0.0687616538 0.6680571046 0.0246692817 0.6679223501 0.0244853237 -0.0620035111 0.0683608627
35299790.0 -0.0504972454 0.0736465523 0.676796612 0.0219991025 0.6776252909 0.0220326241 -0.0523874358 0.0738644216
40299760.0 -0.041332059 0.0763329641 0.6871319827 0.0176733169 0.6868545229 0.0177398699 -0.0426244382 0.0769681863
45299730.0 -0.0318784076 0.0784040864 0.6958355354 0.012249559 0.6962718198 0.0122158488 -0.0335601341 0.0791269988
50299700.0 -0.0229077131 0.0790545513 0.7040715368 0.0053458513 0.7041634478 0.0050815368 -0.0246951105 0.0804299323
55299670.0 -0.0152811381 0.0787981927 0.711304365 -0.002424413 0.710645137 -0.0025420344 -0.0172907502 0.080052834
60299640.0 -0.0079493168 0.0786361645 0.7177168026 -0.0109415242 0.7178671361 -0.0110007227 -0.0097174685 0.0792907098
65299610.0 -0.0011077661 0.0771838205 0.7243111645 -0.0195349196 0.7243236356 -0.0196372727 -0.0026372346 0.078355527
70299580.0 0.0050304789 0.0751115591 0.729362426 -0.0292413276 0.7292081615 -0.0287494546 0.0028498695 0.0772922127
75299550.0 0.0104488047 0.0732621215 0.7330432147 -0.0394379651 0.7336286809 -0.0390392269 0.0085566239 0.0752560025
80299520.0 0.0156504293 0.0712947255 0.7376733283 -0.0487601126 0.7377808142 -0.0485782254 0.0137999186 0.073357103
85299490.0 0.0201177568 0.0692904151 0.7414982866 -0.0586621342 0.7410674511 -0.0582671196 0.0176408059 0.0709873221
90299460.0 0.0239302259 0.0666504089 0.7434242221 -0.068583116 0.7438849204 -0.0685633207 0.0227846522 0.0693631963
95299430.0 0.0278212776 0.0642021473 0.7462590601 -0.0785822232 0.74618424 -0.0794659719 0.025789926 0.0662946647
100299400.0 0.0313726541 0.0612744418 0.7478750823 -0.0887155402 0.7475780077 -0.0888783718 0.0290487345 0.0645370321
105299370.0 0.0344029784 0.0592042592 0.7491573012 -0.0987324688 0.7498970091 -0.0989190409 0.0328468323 0.0618325382
110299340.0 0.0373520065 0.0561306326 0.7506013613 -0.108637325 0.7510318906 -0.108442739 0.0349461425 0.0594906601
115299310.0 0.0395360946 0.0542181356 0.7517720672 -0.1187542692 0.7512950696 -0.1186077582 0.0372111433 0.0574411847
120299280.0 0.0416404877 0.0521377954 0.752306164 -0.1293545612 0.7516160316 -0.1294212646 0.0398288915 0.0546904486
125299250.0 0.043808125 0.0497681041 0.7521729874 -0.1390325024 0.7526040755 -0.1384821818 0.0422294845 0.053061951
130299220.0 0.0456128649 0.0469247516 0.752549145 -0.1491268798 0.7521826397 -0.1493665385 0.0438361284 0.0507114229
135299190.0 0.0470049614 0.0454239336 0.7521210747 -0.1581798748 0.7517668394 -0.1590574919 0.0455185812 0.0480934166
140299160.0 0.0487856786 0.0433870387 0.7518391704 -0.1692738825 0.7514872055 -0.1681916415 0.0461022694 0.0456628177
145299130.0 0.0492192219 0.0411578827 0.7503641956 -0.1778885641 0.7502984009 -0.1780500125 0.0480221478 0.0437491894
150299100.0 0.0509197193 0.0392301466 0.7498990154 -0.1879641307 0.7498424819 -0.1875231417 0.0491285026 0.0421126001
155299070.0 0.0524988419 0.0374242784 0.7476642692 -0.1973937938 0.7482436073 -0.1974657394 0.0503833697 0.0396056463
160299040.0 0.0533994208 0.0355093923 0.7466042221 -0.207378281 0.7467800516 -0.2068514599 0.0509361854 0.038102959
165299010.0 0.0543992921 0.0335934726 0.7455652873 -0.2164333249 0.7448366779 -0.2163561392 0.0520734393 0.0358008594
170298980.0 0.0550455664 0.0319857995 0.7429958413 -0.2257017652 0.7432993145 -0.225961074 0.0525735897 0.0339702195
175298950.0 0.0557775481 0.0303333906 0.7413744404 -0.2351206751 0.7419367829 -0.235473598 0.0535561956 0.0324797494
180298920.0 0.0564080036 0.0288039951 0.7397614965 -0.2446147049 0.7391977672 -0.2445240766 0.0540477478 0.0309930758
185298890.0 0.0564158322 0.0271606866 0.7376434714 -0.2534013488 0.73721463 -0.2533623461 0.0550432382 0.0288493312
190298860.0 0.0576767159 0.0256280731 0.7344046475 -0.2626327549 0.73504055 -0.2625834172 0.0550333923 0.0273394098
195298830.0 0.0578291185 0.0243463442 0.7325947838 -0.2715614477 0.7327815551 -0.2715537691 0.0556378924 0.0258936703
200298800.0 0.0585555724 0.0225806398 0.7300931508 -0.2810618921 0.7298053651 -0.2807545191 0.0562642041 0.0240773621
205298770.0 0.0581009738 0.0207472855 0.7271828535 -0.2895954967 0.7273312372 -0.2889590995 0.0570643431 0.0227648829
210298740.0 0.0589054994 0.0202478347 0.7244399992 -0.2979391975 0.7237745485 -0.2985032708 0.0564528162 0.0208357787
215298710.0 0.0594612057 0.018796446 0.7208932359 -0.3067324837 0.7209679687 -0.3069915633 0.0570634558 0.0196177274
220298680.0 0.0597684716 0.0175822064 0.7173728677 -0.3157206087 0.7175534003 -0.3156737577 0.0571984749 0.0183007742
225298650.0 0.0597656013 0.0162345969 0.7138014884 -0.3242607031 0.7145233758 -0.3239371842 0.0573307177 0.0164883285
230298620.0 0.0603949482 0.0153309373 0.7112749789 -0.3327735109 0.7115008847 -0.3333754746 0.0572957126 0.0151415887
235298590.0 0.059804281 0.0138607417 0.7080314299 -0.34213345 0.7079633852 -0.3411106641 0.0577812048 0.0143603064
240298560.0 0.0605534791 0.0127952447 0.7042950879 -0.3493988015 0.7035968001 -0.3497703217 0.0575713549 0.0129027506
245298530.0 0.0603848112 0.0114021486 0.7007854838 -0.358156807 0.7002425184 -0.358265338 0.0577722835 0.011813648
250298500.0 0.0602458101 0.0103564153 0.6972178651 -0.3658583405 0.6971709028 -0.3661842498 0.0579487222 0.0106510816
255298470.0 0.0605898181 0.0097462361 0.6933892733 -0.3740391493 0.6936822223 -0.3740333486 0.0580436564 0.0099645623
260298440.0 0.0604016332 0.0082432506 0.6892777402 -0.381350206 0.6888735911 -0.3823671162 0.0575274081 0.0077554838
265298410.0 0.0600103997 0.0077079876 0.6847575704 -0.3904727808 0.6847878847 -0.390802645 0.0588063204 0.0067507383
270298380.0 0.0600048449 0.0062467739 0.68033799 -0.3981458537 0.6805389694 -0.3984414468 0.0582232553 0.0062155193
275298350.0 0.0604912131 0.0057519359 0.6758266147 -0.405901955 0.6757398711 -0.4060405507 0.0576515795 0.005164074
280298320.0 0.0597815426 0.0045475688 0.6722804367 -0.413212436 0.6719999606 -0.4140005967 0.0582616536 0.0038642359
285298290.0 0.0599375318 0.0035496761 0.6673553784 -0.4218424682 0.6676517735 -0.4215047209 0.0580959864 0.0027688535
290298260.0 0.0597659515 0.0027291418 0.6636219741 -0.4294302585 0.6636789245 -0.4298609019 0.0582903466 0.0018606372
295298230.0 0.0598535698 0.0014840712 0.6584972914 -0.4380345004 0.6584798063 -0.4376636922 0.0578557791 0.0004109637
300298200.0 0.0603031374 0.0010463978 0.6539830752 -0.4449597406 0.6541295732 -0.4449023201 0.0576957608 -0.0005236227
305298170.0 0.060265641 -0.0006856523 0.6494300468 -0.4530395641 0.6494190864 -0.4530158878 0.0577162804 -0.0023029998
310298140.0 0.0605376176 -0.0016738277 0.644623464 -0.4602532899 0.644451364 -0.4606279649 0.0581214472 -0.0036038457
315298110.0 0.0598214792 -0.0029719489 0.6397211645 -0.4684512714 0.6393772487 -0.4686837876 0.0577112188 -0.0043293981
320298080.0 0.0594758393 -0.0038978918 0.63335638 -0.4756570014 0.6345532007 -0.476302175 0.0572775835 -0.0055847967
325298050.0 0.058768666 -0.0052035734 0.6284956313 -0.4829172308 0.6291104878 -0.4830346033 0.0571793677 -0.006959961
330298020.0 0.0574650496 -0.0057005122 0.6227699729 -0.4908166953 0.6236055411 -0.4904651852 0.0560383142 -0.0078189295
335297990.0 0.0577369939 -0.0066360249 0.6175054194 -0.4975597457 0.6174058669 -0.4975328556 0.055462937 -0.0088917459
340297960.0 0.0570673561 -0.0074927467 0.6111925134 -0.5052456353 0.6110297282 -0.5048618693 0.0552865175 -0.0092258628
345297930.0 0.0565466592 -0.0085128426 0.6060270937 -0.5119273796 0.6057710949 -0.5120928595 0.0551764623 -0.0104655859
350297900.0 0.0555876571 -0.0089145575 0.60035855 -0.5173622217 0.6003958593 -0.517955414 0.0547931733 -0.0113534649
355297870.0 0.0555279499 -0.0097664905 0.5945133736 -0.5241844132 0.5943610584 -0.5243829173 0.0545627766 -0.0121399259
360297840.0 0.0554197354 -0.0099810209 0.5885029573 -0.5315991676 0.5886669458 -0.531864 0.05349421 -0.0124694246
365297810.0 0.0545160734 -0.010969438 0.5823339211 -0.538014463 0.5826970998 -0.537617735 0.0530025687 -0.0132826618
370297780.0 0.0548599777 -0.0112469244 0.5761349494 -0.544534019 0.5767749489 -0.5447432213 0.0526793419 -0.0138621306
375297750.0 0.0542396568 -0.0120268253 0.5707129806 -0.5506977522 0.570749315 -0.5508330809 0.0525960735 -0.0146057692
380297720.0 0.0532498455 -0.0128581573 0.5646403909 -0.557994379 0.5641821515 -0.557564057 0.0523781565 -0.014935656
385297690.0 0.0532271509 -0.0135753609 0.5580487106 -0.5632777442 0.5586578667 -0.5639798332 0.0521696019 -0.0156006611
390297660.0 0.0530040621 -0.0142758385 0.551870095 -0.5692343676 0.5526393807 -0.5696075297 0.0519559139 -0.0166332229
395297630.0 0.0531390466 -0.0150625434 0.5460876444 -0.5751477647 0.5459018252 -0.5758915067 0.051508614 -0.0172077022
400297600.0 0.051979068 -0.0156506017 0.5398265201 -0.5816831477 0.5398450674 -0.5820223661 0.0514272706 -0.0173719178
405297570.0 0.0519354665 -0.0167585021 0.5332232135 -0.5875900761 0.533268022 -0.5876341149 0.0510636321 -0.0178511352
410297540.0 0.0515675108 -0.0167145701 0.5267252252 -0.5934159412 0.5270476443 -0.593885181 0.0504616916 -0.0187153317
415297510.0 0.0511821137 -0.0174677011 0.5198127121 -0.5991787866 0.5207276387 -0.5999258707 0.0504350359 -0.0190077821
420297480.0 0.0505063817 -0.0184561694 0.5135780127 -0.6049801028 0.5137957763 -0.6057290818 0.0503322642 -0.0194154603
425297450.0 0.0509675901 -0.0186440828 0.5070307427 -0.6106778289 0.5073356695 -0.6110004076 0.0497189372 -0.020704531
430297420.0 0.0501453136 -0.0192431031 0.5007264537 -0.6166966312 0.5003358085 -0.6163250701 0.0499508866 -0.0210504454
435297390.0 0.0498123867 -0.0202365952 0.4927170205 -0.623290256 0.4936345192 -0.6223980638 0.0487699486 -0.0212285748
440297360.0 0.0497780342 -0.0210940125 0.4865494927 -0.6277437282 0.4861097411 -0.6278413865 0.048640353 -0.0218734769
445297330.0 0.0494101102 -0.0221245572 0.4806349134 -0.6329448121 0.4798125605 -0.6331441028 0.0483849865 -0.0219846361
450297300.0 0.0492787842 -0.0221770381 0.4727280254 -0.6382026975 0.4730596607 -0.6384150573 0.0481439078 -0.0226702443
455297270.0 0.0477582009 -0.0229238732 0.4659403011 -0.6433264611 0.4658301682 -0.6436828897 0.0480893291 -0.0233688393
460297240.0 0.0483168507 -0.0234467667 0.4587729006 -0.6494612131 0.4589858845 -0.649224992 0.0472179755 -0.0242096291
465297210.0 0.0478063341 -0.0239224043 0.4510879169 -0.6538315405 0.451264566 -0.6541316165 0.0476029949 -0.0238169126
470297180.0 0.0473235411 -0.0248796927 0.4437194841 -0.6582658789 0.4446747512 -0.658533423 0.0470087388 -0.0251285177
475297150.0 0.0463958938 -0.0251760765 0.437122074 -0.6634246426 0.4371158042 -0.6636396467 0.0465441901 -0.0256216357
480297120.0 0.0468532293 -0.0252433931 0.4295768701 -0.66882937 0.4301930272 -0.6688474828 0.0457768847 -0.0260815517
485297090.0 0.0462441491 -0.0267194655 0.4223456167 -0.673096863 0.4222185501 -0.6728606281 0.0457584605 -0.0263823077
490297060.0 0.0461637507 -0.0265062387 0.4142688976 -0.6781444728 0.4148331855 -0.6781511839 0.0453437671 -0.0271599504
495297030.0 0.0452490662 -0.0277002909 0.4081426877 -0.6827288196 0.4075321214 -0.682738834 0.0453597886 -0.0277856523
500297000.0 0.0448472043 -0.0275049609 0.4002358774 -0.6860711283 0.4003465819 -0.6871332828 0.0447778915 -0.0277741233
505296970.0 0.0451325206 -0.0283207453 0.3931427111 -0.6912307015 0.3927201348 -0.6912342093 0.04449575 -0.0293764638
510296940.0 0.0444891648 -0.0290743349 0.385090633 -0.696405188 0.3854447294 -0.6962342336 0.0444139173 -0.0290588055
515296910.0 0.0437067999 -0.0291480976 0.3766449676 -0.699678155 0.3768653322 -0.7000105986 0.04359263 -0.0301410505
520296880.0 0.0436487043 -0.0295924944 0.3698605993 -0.7033602245 0.3693825346 -0.7035305944 0.0437461884 -0.0296157042
525296850.0 0.0433625816 -0.0300489677 0.3615259874 -0.7075313478 0.3617354615 -0.7080343353 0.0435642877 -0.0304880813
530296820.0 0.0427596974 -0.0310189478 0.3540655927 -0.7117143832 0.3543130898 -0.7122093167 0.0428265541 -0.0314090247
535296790.0 0.0429271372 -0.0312593295 0.3466677543 -0.7155527073 0.3465387735 -0.7158009788 0.0429616318 -0.0312816085
540296760.0 0.0421747984 -0.03135691 0.3376106592 -0.7195169153 0.3383038978 -0.7194448141 0.042323868 -0.0324060817
545296730.0 0.0409234983 -0.0318887552 0.3303524209 -0.7231918088 0.3303931666 -0.7226294673 0.0419613385 -0.0327030057
550296700.0 0.0415896658 -0.0322599668 0.3224894961 -0.7270412095 0.3225942191 -0.7269258628 0.041709474 -0.0330960202
555296670.0 0.0407816896 -0.0327497955 0.3147518205 -0.7305109999 0.3146642812 -0.7308828197 0.0409015358 -0.0340256494
560296640.0 0.0411404161 -0.0331430193 0.3063538194 -0.7334877508 0.3065603293 -0.7339058757 0.0404840428 -0.0338060829
565296610.0 0.0398293803 -0.033620933 0.2988517671 -0.737098651 0.2986738819 -0.7365439827 0.0403955144 -0.0342737006
570296580.0 0.0392467499 -0.0336392795 0.2898148684 -0.7394890365 0.2906033532 -0.7406792837 0.0397021878 -0.0349164253
575296550.0 0.0390334409 -0.0342763155 0.2826668063 -0.7430498287 0.2827385356 -0.7434691368 0.039047814 -0.0352749503
580296520.0 0.0386151975 -0.0344493801 0.2741177631 -0.7464334415 0.2739626812 -0.7468034898 0.0383049928 -0.0355631013
585296490.0 0.038227198 -0.0346245465 0.2666308623 -0.7490048798 0.2662171056 -0.7490487584 0.0388711626 -0.035538717
590296460.0 0.0382302978 -0.0349851176 0.2576209632 -0.7521635813 0.257816237 -0.752971155 0.0377155935 -0.0361261571
595296430.0 0.0378612042 -0.0352246817 0.2493578599 -0.7550276941 0.2490333292 -0.7548810371 0.0375980514 -0.0370102605
600296400.0 0.0375963644 -0.0356834367 0.241049369 -0.757355763 0.2412463988 -0.7577966896 0.0372336775 -0.0373803012
605296370.0 0.0362438363 -0.0358658853 0.23327023 -0.7599820821 0.2330875808 -0.7603469332 0.0365840268 -0.0371833726
610296340.0 0.0364596717 -0.0357248011 0.2248497502 -0.761941229 0.2252208378 -0.7624652172 0.0356055881 -0.0375944492
615296310.0 0.0361273267 -0.0366413441 0.216193856 -0.7656811131 0.2160083172 -0.7653917485 0.0355967038 -0.0379773313
620296280.0 0.035045233 -0.0362662214 0.2074684396 -0.7679016073 0.2075787991 -0.7673854434 0.0345173068 -0.038368089
625296250.0 0.0346660829 -0.0366769408 0.1993398931 -0.7701982388 0.1997373175 -0.7701344048 0.0335090173 -0.0386213939
630296220.0 0.0343092094 -0.0366555701 0.1904681223 -0.7721282579 0.1908973228 -0.7718190908 0.0336820815 -0.0389105197
635296190.0 0.0334009059 -0.0368482147 0.1823152123 -0.7739341651 0.1828041832 -0.7736829203 0.0332815026 -0.0393312925
640296160.0 0.0328830826 -0.0370335924 0.1738890256 -0.7762957343 0.1742796565 -0.7758085469 0.0321452221 -0.0399465889
645296130.0 0.0327890181 -0.0368710767 0.1656256721 -0.7778398533 0.1657380771 -0.7777992754 0.0315061464 -0.0406121684
650296100.0 0.0322201984 -0.0373193046 0.157651401 -0.7795956578 0.1568159035 -0.7799256096 0.0321597813 -0.0404784126
655296070.0 0.0315426985 -0.037479947 0.1481560334 -0.7816507495 0.1485667419 -0.781004752 0.0303589748 -0.040472038
660296040.0 0.031112716 -0.0375506535 0.1405120113 -0.7829506744 0.1398479125 -0.7832373451 0.0298701589 -0.0410592015
665296010.0 0.0308127966 -0.0378100834 0.1306745954 -0.7838182575 0.1310787864 -0.7841765416 0.0294659912 -0.0410123388
670295980.0 0.0302608669 -0.0377816423 0.1231724649 -0.7855198204 0.1232705887 -0.7853335275 0.0284329207 -0.0416437988
675295950.0 0.029322543 -0.0380775156 0.1142192768 -0.7865855941 0.1144329552 -0.7864481911 0.0279396935 -0.041333701
680295920.0 0.0288418633 -0.0380185694 0.1055065732 -0.7879964727 0.1060620998 -0.7881868209 0.0280832798 -0.0421640579
685295890.0 0.0287214376 -0.0378032176 0.0962969308 -0.7895093141 0.0973913072 -0.7894523264 0.0270965828 -0.0415606808
690295860.0 0.0274155286 -0.037983599 0.0881096246 -0.7898701907 0.0883074106 -0.7904151344 0.0265183642 -0.0423599572
695295830.0 0.0273948778 -0.0384328698 0.0803917817 -0.7916396984 0.0801248011 -0.7909010045 0.0257253008 -0.0424356298
700295800.0 0.0269064283 -0.0382008607 0.0716154349 -0.7916937047 0.0714881202 -0.7918407611 0.0251416323 -0.042017278
705295770.0 0.0258318927 -0.0384335552 0.0623925207 -0.7929134757 0.0630482592 -0.7919794235 0.0244800914 -0.0422253899
710295740.0 0.0256959365 -0.0384308143 0.0543432374 -0.7933768714 0.0541908207 -0.7940415521 0.0240435961 -0.0421146505
715295710.0 0.0249849462 -0.0380728304 0.0456314866 -0.7937240267 0.0456134807 -0.7935401302 0.0231267887 -0.0426602617
720295680.0 0.0248744032 -0.0383393412 0.0366923029 -0.7939261571 0.0371726761 -0.7943206678 0.0228613266 -0.0427990182
725295650.0 0.023350789 -0.0382198462 0.0287224913 -0.7944058694 0.0280577818 -0.7947275152 0.0214990077 -0.0424671762
730295620.0 0.0222706706 -0.0388145578 0.0195804 -0.7945683296 0.0194782838 -0.794165893 0.0210745539 -0.0419021799
735295590.0 0.0227893802 -0.038510917 0.0109337302 -0.79470264 0.0110763302 -0.7945532891 0.02011566 -0.043073497
740295560.0 0.0218268984 -0.0387329118 0.0026947599 -0.7953149936 0.0026622467 -0.7953386351 0.0190876429 -0.0426034912
745295530.0 0.0208044132 -0.0384761908 -0.0064754403 -0.7944542778 -0.0052507576 -0.7946318613 0.0182016384 -0.0428376416
750295500.0 0.0201510123 -0.0382830272 -0.0144360175 -0.7948458805 -0.015008861 -0.7944565955 0.0179414038 -0.0428775555
755295470.0 0.0192773453 -0.0385147055 -0.0230411881 -0.7946742476 -0.0229378111 -0.7949930828 0.0177097412 -0.0422832745
760295440.0 0.0188234017 -0.03773202 -0.0326130562 -0.7944103765 -0.031619248 -0.7935663419 0.0171426741 -0.0439932235
765295410.0 0.0188052987 -0.0386873058 -0.0411540483 -0.7935429476 -0.0399734378 -0.7938188481 0.0161664596 -0.0429940046
770295380.0 0.0177668497 -0.0378648808 -0.0492969952 -0.7928038907 -0.0487592631 -0.7933667212 0.0152917626 -0.0429211091
775295350.0 0.0171524545 -0.0383805233 -0.0574160985 -0.7925117729 -0.0574830618 -0.7923611234 0.0154359322 -0.0425425766
780295320.0 0.0164742075 -0.0379216385 -0.0661432427 -0.7912225419 -0.0657410926 -0.7917647529 0.0145791852 -0.0429757358
785295290.0 0.0158722697 -0.0382895158 -0.0748478068 -0.7913890496 -0.0748070134 -0.7910348574 0.0133114598 -0.0423853216
790295260.0 0.0154551284 -0.0383934368 -0.0832544959 -0.7902205551 -0.0830900417 -0.7904198565 0.0124952415 -0.0416687282
795295230.0 0.0145044882 -0.0384388068 -0.0920332099 -0.7897791118 -0.0919738173 -0.7894248438 0.012421891 -0.043049414
800295200.0 0.0134606603 -0.0379534002 -0.0997725236 -0.7877317275 -0.1004548493 -0.7880531245 0.01125032 -0.0422815101
805295170.0 0.0128013876 -0.0382841 -0.1087095812 -0.7871737621 -0.1084823335 -0.7869878646 0.0115239099 -0.0421380637
810295140.0 0.0127932634 -0.0379984117 -0.1178367296 -0.7855050141 -0.117665288 -0.7858007312 0.0104977208 -0.0422090184
815295110.0 0.0118696121 -0.0376803521 -0.125843201 -0.7844943618 -0.1254155253 -0.7846027446 0.0098378153 -0.0421381735
820295080.0 0.0115735533 -0.0377569463 -0.1338140981 -0.7827714471 -0.133929814 -0.7834701378 0.0081655314 -0.0410178485
825295050.0 0.0105374882 -0.0377598946 -0.1428991721 -0.7817526749 -0.1430545384 -0.7812081113 0.009081407 -0.0409111835
830295020.0 0.0096829223 -0.0376539163 -0.1508985098 -0.779998292 -0.1514231799 -0.7801409246 0.0076091678 -0.0419029665
