!Created with skrf (http://scikit-rf.org).
# Hz S RI R 50.0 
!freq ReS11 ImS11 ReS21 ImS21 ReS12 ImS12 ReS22 ImS22
300000.0 0.8607969729 -0.0008321086 -0.000366189 -0.0001610613 -0.0001843858 -2.1881e-06 -0.7645372769 -0.1917448631
5299970.0 0.8601245075 -0.0100199058 -0.0001034782 7.47632e-05 2.26566e-05 -8.21741e-05 -0.7851646446 -0.00934909
10299940.0 0.858427167 -0.0187143953 0.0001710748 0.0001375482 -7.622e-05 0.0001645103 -0.7877254489 -0.0051742911
15299910.0 0.8572135982 -0.0271771525 -0.0001391415 7.63373e-05 -1.00115e-05 6.27881e-05 -0.7928945665 -0.0024453214
20299880.0 0.8574381374 -0.0347701093 0.0001088652 8.906e-07 0.0001973701 -0.0001055048 -0.799553651 0.0018571498
25299850.0 0.8561143315 -0.0437932664 2.02127e-05 -8.29119e-05 2.3347e-05 1.66466e-05 -0.805992991 0.0081717751
30299820.0 0.855842993 -0.0523454412 -1.65588e-05 0.0001471492 -2.61117e-05 -0.0001227259 -0.8122895665 0.0158961924
35299790.0 0.8552053019 -0.0601083531 -5.77243e-05 -3.92865e-05 -5.73355e-05 4.159e-07 -0.8170953043 0.0243220069
40299760.0 0.8550712928 -0.0682926752 -5.8759e-06 1.54452e-05 -0.0001409027 -2.45048e-05 -0.8212013234 0.0340672339
45299730.0 0.8537109111 -0.076773089 -0.0002000911 3.37639e-05 -0.0001949961 0.0003117445 -0.8242851188 0.0436650003
50299700.0 0.8524228986 -0.084315734 -5.31882e-05 -0.0001273536 3.90584e-05 2.9398e-05 -0.8266786716 0.0534551904
55299670.0 0.8523920854 -0.093022453 0.0001868713 -4.52047e-05 5.49091e-05 0.0001099606 -0.8287147428 0.0634004122
60299640.0 0.8512922878 -0.1013198633 1.55555e-05 -4.82358e-05 4.3955e-06 -0.0001050279 -0.829867581 0.0738927631
65299610.0 0.8500520764 -0.1093870131 0.0001446925 0.0002667618 -0.0001614617 -5.4295e-06 -0.8301438766 0.0841315998
70299580.0 0.8493034432 -0.1176102237 -1.7335e-06 -6.166e-05 -3.50091e-05 0.000100452 -0.8312015827 0.0938511538
75299550.0 0.8477295553 -0.1252378451 0.0003788659 1.02448e-05 -0.0002360605 6.07899e-05 -0.8311029434 0.1039205941
80299520.0 0.8462933304 -0.1336250797 0.0001523323 -3.75089e-05 4.74449e-05 -6.0936e-05 -0.8308636607 0.1137010445
85299490.0 0.8451439678 -0.1420694381 0.0001096274 -4.36725e-05 2.2668e-06 3.20675e-05 -0.8303895033 0.1230612881
90299460.0 0.8440531271 -0.1501243507 -9.95512e-05 8.29712e-05 5.66459e-05 4.57678e-05 -0.8288936931 0.1330131977
95299430.0 0.8424211321 -0.1580226649 -2.22092e-05 -1.56701e-05 -3.20211e-05 1.10355e-05 -0.8284270525 0.1424397513
100299400.0 0.8406114021 -0.1660822867 2.83911e-05 4.42168e-05 -7.00211e-05 5.7793e-06 -0.827270381 0.1519738983
105299370.0 0.8390661796 -0.1743987344 -6.68141e-05 -7.08336e-05 2.93501e-05 -0.0003518248 -0.8262015961 0.1608906766
110299340.0 0.8375482218 -0.1832380252 0.0001305 3.66511e-05 4.6254e-06 -9.87e-07 -0.8248917727 0.1698031375
115299310.0 0.8357233866 -0.1908235714 0.0002958078 3.4361e-05 -1.0607e-06 -0.0001728569 -0.8233800567 0.178735863
120299280.0 0.8339432088 -0.1986399448 0.0001322154 -4.57145e-05 -2.41005e-05 -0.0002370982 -0.8208510349 0.1876521658
125299250.0 0.8318336851 -0.2063020154 0.0002824868 1.89831e-05 -0.0002901131 0.0001864945 -0.8199804306 0.1973511491
130299220.0 0.8302184505 -0.2143711879 -9.53392e-05 0.0001257382 2.28909e-05 -4.73743e-05 -0.8178687432 0.2057294984
135299190.0 0.828374493 -0.2229060197 4.3612e-06 -0.0001006006 6.5804e-06 -0.0001838091 -0.815814053 0.2147316556
140299160.0 0.825794281 -0.2302737372 2.35637e-05 -8.56586e-05 0.0002264003 -2.70226e-05 -0.8138936361 0.2235171831
145299130.0 0.8229322537 -0.238128558 -6.50584e-05 -2.28674e-05 0.0001875171 -0.0001607818 -0.8121053113 0.2323986036
150299100.0 0.8210736033 -0.2456263965 -0.0001545052 -9.61395e-05 0.000288348 -0.0001279319 -0.8096026875 0.2414360535
155299070.0 0.8185969934 -0.2541860605 -9.41853e-05 -0.0002482702 -0.0001967906 -0.0001604731 -0.8071541278 0.2505807145
160299040.0 0.8163168551 -0.2623674567 0.0001592317 -0.0001365755 -0.0001061535 4.47083e-05 -0.8047579889 0.2591292166
165299010.0 0.8137293091 -0.2694930693 3.6295e-05 2.9446e-06 -0.0001041072 -0.0001218449 -0.8020151058 0.2674714839
170298980.0 0.81158767 -0.2771649922 3.82752e-05 -0.0002005295 9.35785e-05 0.0002297474 -0.7998241102 0.2756431914
175298950.0 0.8086668996 -0.2857104202 -0.0001098519 -5.62785e-05 0.0002006148 2.7791e-06 -0.796352755 0.2844389478
180298920.0 0.8059427351 -0.2930188419 -7.55137e-05 -5.5532e-06 -5.64812e-05 -6.95897e-05 -0.7932788084 0.2936070339
185298890.0 0.8028012741 -0.3007956161 -9.00156e-05 -5.04924e-05 -0.0001371984 -9.73684e-05 -0.7902434726 0.3018983126
190298860.0 0.8000911766 -0.3089767352 7.45244e-05 -0.0001863649 0.0001221072 9.0317e-06 -0.7870813664 0.3100200383
195298830.0 0.7970454554 -0.3157727509 3.3878e-05 3.14755e-05 -6.31356e-05 -5.9921e-06 -0.7841991097 0.3180098384
200298800.0 0.7941608306 -0.3236088797 -0.0002189993 9.98153e-05 8.94511e-05 0.0001782271 -0.780766044 0.3269967637
205298770.0 0.7907286172 -0.3315908046 7.01487e-05 -4.49846e-05 -0.0001743921 -8.98627e-05 -0.7779240658 0.3352234662
210298740.0 0.7877056289 -0.3389995984 -3.98076e-05 -8.03834e-05 -1.5023e-05 4.29201e-05 -0.7740948887 0.3430722947
215298710.0 0.7842748869 -0.3463804232 6.1811e-05 8.01509e-05 1.71561e-05 -0.0001531468 -0.7705022053 0.351135268
220298680.0 0.781176594 -0.3538841502 -5.1648e-06 -0.000121175 1.95822e-05 -0.0001159664 -0.7669161854 0.3596816262
225298650.0 0.7772565996 -0.361859408 -3.3776e-05 0.0002507609 0.0001296412 -3.97151e-05 -0.7629897404 0.3680899332
230298620.0 0.7738814519 -0.3688617906 -0.0002470912 6.1631e-05 -6.35248e-05 -4.777e-06 -0.7593666092 0.3757279831
235298590.0 0.7702838497 -0.3762664423 0.0001428392 -0.0001743953 -0.0001062519 -4.10268e-05 -0.7553554617 0.3833434693
240298560.0 0.766430315 -0.383726276 -8.61515e-05 7.43053e-05 -2.30182e-05 7.77064e-05 -0.7512561467 0.3909966799
245298530.0 0.7630704055 -0.3911816655 0.0002960257 0.000121034 0.000131665 -0.0001173046 -0.7473156944 0.3992624402
250298500.0 0.7590499728 -0.3982711156 0.0001686777 -0.00018412 -4.90495e-05 4.67738e-05 -0.7426650924 0.4065409796
255298470.0 0.7552569018 -0.4047857232 6.90501e-05 1.5782e-06 -4.15895e-05 5.13299e-05 -0.7389240994 0.4148343938
260298440.0 0.7515253516 -0.4126311626 5.63816e-05 -0.0001145264 -0.0001434099 3.04801e-05 -0.7347775937 0.4222151242
265298410.0 0.7464312025 -0.4196601968 -0.0001738557 0.000293039 -2.4456e-06 -1.6163e-05 -0.7298272991 0.4300174918
270298380.0 0.7434596255 -0.4266208526 -4.48641e-05 0.0001305654 8.11105e-05 5.45828e-05 -0.7251995681 0.4376737213
275298350.0 0.7386562379 -0.4337045418 8.021e-05 2.0679e-05 -0.0001984926 -5.32956e-05 -0.7199749054 0.4454938226
280298320.0 0.7343558028 -0.441231467 6.87694e-05 -1.61241e-05 -0.0001124514 -8.07796e-05 -0.7167039269 0.4527991324
285298290.0 0.7307720368 -0.4481773204 3.3868e-06 -8.97717e-05 -2.09749e-05 0.0001114794 -0.7121386486 0.4604319191
290298260.0 0.7263188738 -0.4548236136 -2.53412e-05 -6.30513e-05 -5.77673e-05 3.98618e-05 -0.7066198462 0.4672905031
295298230.0 0.7224041283 -0.4623249889 5.6371e-05 -0.0001417983 -3.52e-07 -3.50865e-05 -0.7011127411 0.4750434873
300298200.0 0.7181903184 -0.4691987785 0.0001025504 1.39492e-05 8.89741e-05 7.60525e-05 -0.6967700136 0.4826717012
305298170.0 0.7140605628 -0.47725079 0.0001374585 -7.75533e-05 4.35468e-05 -3.9258e-05 -0.6916946812 0.4892121428
310298140.0 0.7090402098 -0.4854981473 5.01061e-05 -0.0001249957 -0.0001297246 2.45823e-05 -0.6865276646 0.4973157348
315298110.0 0.7040485777 -0.4919599114 -0.0001147501 -6.59318e-05 7.11472e-05 -6.99245e-05 -0.6811931228 0.5039546603
320298080.0 0.6986163206 -0.4993885165 -9.44678e-05 -3.41768e-05 0.0001340714 -5.29647e-05 -0.6762732907 0.5107272821
325298050.0 0.6927180226 -0.5064500227 -9.74403e-05 0.0001615793 0.0002089672 0.0001372992 -0.6701808287 0.5179076697
330298020.0 0.6869513651 -0.5135134336 -2.74519e-05 6.50029e-05 0.0001003611 1.11069e-05 -0.6650236592 0.5242972848
335297990.0 0.6811134816 -0.5189195622 -0.000139774 6.811e-05 0.0003162924 -2.12921e-05 -0.6594067445 0.5315001707
340297960.0 0.6755870972 -0.5253827869 -0.0002809159 -0.0001801429 -4.77015e-05 2.71914e-05 -0.6540589097 0.5385618698
345297930.0 0.6704162204 -0.532017472 7.75943e-05 0.0001212277 -0.0001445831 -4.83629e-05 -0.6485535095 0.5446608108
350297900.0 0.6652444855 -0.5381647619 -8.32054e-05 -7.02311e-05 -3.31046e-05 -8.69195e-05 -0.6434809123 0.551170555
355297870.0 0.6601708224 -0.5446919837 -2.475e-05 0.0001331908 3.54678e-05 2.68178e-05 -0.6364619183 0.5586291945
360297840.0 0.6540344598 -0.5505061904 -3.08836e-05 7.96141e-05 -3.79821e-05 -6.7693e-05 -0.6306097249 0.5646854456
365297810.0 0.6490479933 -0.5564820475 -2.07599e-05 0.0001057951 -9.57207e-05 8.6329e-05 -0.6263567702 0.5708881497
370297780.0 0.6433986468 -0.562845642 8.60061e-05 0.000205949 -9.55064e-05 0.0002018584 -0.6191166345 0.5776793308
375297750.0 0.6378006112 -0.5692792798 -0.0001313778 0.0001469211 -0.0001257814 0.0001356671 -0.6128360086 0.5838247329
380297720.0 0.6314847133 -0.5743830402 3.48544e-05 -4.19566e-05 -1.613e-07 3.99571e-05 -0.606716864 0.5905767845
385297690.0 0.6264166955 -0.580993143 -0.0001833376 -6.90455e-05 -0.0001966136 -0.0001563615 -0.6014891291 0.5969765236
390297660.0 0.6213192292 -0.5873370622 -0.0001929103 4.08966e-05 4.28352e-05 1.18636e-05 -0.59457906 0.6018698868
395297630.0 0.6150762846 -0.5925773525 -2.48173e-05 4.43211e-05 -2.84104e-05 -5.19762e-05 -0.5879818989 0.6081897165
400297600.0 0.6088668816 -0.5984900007 -2.21037e-05 7.11047e-05 8.9651e-06 -7.13e-08 -0.5822513755 0.6140850355
405297570.0 0.6033473227 -0.6044631636 1.98481e-05 7.29822e-05 5.60865e-05 9.45101e-05 -0.5757738629 0.6200490317
410297540.0 0.598290945 -0.6100541734 0.0001650734 -3.80165e-05 1.26984e-05 0.0001617264 -0.5693031776 0.626058074
415297510.0 0.5917794933 -0.615660962 6.8733e-06 -0.0001242378 -2.3053e-06 0.0001005683 -0.5625461369 0.63153065
420297480.0 0.5857712557 -0.6217506283 -3.59491e-05 -1.66719e-05 -0.0001840128 -0.0002088978 -0.5566127644 0.6381228547
425297450.0 0.5796735529 -0.6271998197 -0.0001572047 8.16114e-05 -0.0001196608 -2.60861e-05 -0.549278952 0.6425286422
430297420.0 0.5735136537 -0.6333949423 8.93471e-05 -8.1393e-06 0.000159267 -2.64285e-05 -0.5432663931 0.6482578992
435297390.0 0.5672720652 -0.6383480298 8.58691e-05 0.000127073 2.84317e-05 -0.0001868544 -0.5368109725 0.6538501205
440297360.0 0.56097493 -0.6438880941 3.04894e-05 -8.87155e-05 -9.55253e-05 -0.0001568638 -0.5302586163 0.6595494047
445297330.0 0.5555789858 -0.6489970816 -0.0001168846 1.18678e-05 0.0001279326 -2.13505e-05 -0.5232188502 0.6650401738
450297300.0 0.5493848826 -0.6548587297 -6.12177e-05 -1.38061e-05 2.0393e-06 -0.0001204165 -0.5158633832 0.6700150221
455297270.0 0.5423014928 -0.6597731778 -8.6759e-05 -7.05487e-05 -4.07757e-05 4.73901e-05 -0.5088064572 0.6751627081
460297240.0 0.5361976073 -0.6649062231 3.38824e-05 7.58836e-05 -0.0001912623 1.18061e-05 -0.5023055994 0.6801382227
465297210.0 0.529784762 -0.6700946305 0.0002039968 -0.0001205001 0.0001388287 -0.0001116079 -0.4947500037 0.6859200525
470297180.0 0.5230959714 -0.6752194669 -3.60779e-05 1.11107e-05 5.98246e-05 -5.7438e-05 -0.4883171591 0.6905526411
475297150.0 0.5159698 -0.6803379558 -0.0001448037 0.0001538287 -5.55084e-05 -0.0001445294 -0.4813083795 0.6951376886
480297120.0 0.5099056865 -0.685363361 0.0001451128 -8.71267e-05 3.42765e-05 0.0004228647 -0.4745716474 0.7000194803
485297090.0 0.5024485989 -0.6903847985 6.18508e-05 -3.53786e-05 3.81237e-05 -7.03721e-05 -0.4665099326 0.7045810661
490297060.0 0.4967917618 -0.6950798342 -0.0001084734 0.0001429131 -5.34401e-05 9.61039e-05 -0.4592545262 0.7090112845
495297030.0 0.490470447 -0.6998564541 -3.46435e-05 0.0001622384 -4.19942e-05 -1.52399e-05 -0.4526481426 0.7135757183
500297000.0 0.4835777014 -0.7039183287 -0.0001460145 0.0001570178 -4.8305e-05 2.6515e-06 -0.4455409044 0.7180640026
505296970.0 0.4764701913 -0.7088191424 -5.83823e-05 0.0001142291 -4.58372e-05 7.7634e-06 -0.437567445 0.7226781048
510296940.0 0.4697039124 -0.7131544611 -1.00635e-05 -9.39559e-05 -4.44195e-05 0.0001067453 -0.4304720316 0.7272851732
515296910.0 0.4625524867 -0.7183324449 -1.99873e-05 6.3555e-05 9.17619e-05 -0.0001853605 -0.4227176311 0.7309868889
520296880.0 0.4563749043 -0.7224127017 -4.49551e-05 -0.0001240801 0.0001024964 6.65859e-05 -0.4154414812 0.7358998704
525296850.0 0.4492304436 -0.7268838206 3.05337e-05 3.14062e-05 0.0001455297 -0.0001511196 -0.4078586453 0.7397703964
530296820.0 0.4422026644 -0.7312808638 -3.1038e-05 1.02917e-05 3.095e-05 5.94957e-05 -0.4006820703 0.7437630848
535296790.0 0.4349242252 -0.735327554 0.0002392769 3.76867e-05 5.16956e-05 5.16754e-05 -0.3936744842 0.7480822573
540296760.0 0.4286169819 -0.7394497083 -0.0001280312 0.0002407955 2.86543e-05 0.000274015 -0.3850992937 0.751049954
545296730.0 0.4200899525 -0.7439051975 -1.8435e-06 -8.48939e-05 -3.98169e-05 -5.46367e-05 -0.3776756873 0.7557253471
550296700.0 0.4136641061 -0.7471408933 -6.72389e-05 0.0001419848 -0.0001684948 2.67337e-05 -0.3700160113 0.7589158641
555296670.0 0.4061296629 -0.7516099463 -0.0001870468 -0.0001370051 6.66373e-05 -0.0001896429 -0.3627787185 0.7625137443
560296640.0 0.3994826319 -0.754724487 -4.02094e-05 2.36938e-05 7.03646e-05 -0.0002102114 -0.3544550792 0.7665233813
565296610.0 0.3911714491 -0.7593244322 -0.000110791 7.30923e-05 -5.17953e-05 5.38714e-05 -0.3466294852 0.7695620606
570296580.0 0.3843529885 -0.7624825826 -1.07128e-05 -3.37459e-05 -6.73479e-05 -2.36484e-05 -0.3392255045 0.7731229974
575296550.0 0.3769063296 -0.7665264248 -0.0001880296 0.0001186002 4.58368e-05 -2.20659e-05 -0.3312738259 0.7765217083
580296520.0 0.3696548672 -0.7697629296 1.75037e-05 -6.5749e-06 0.0001485853 -0.0001103027 -0.3238072922 0.7798615902
585296490.0 0.3622176234 -0.773095076 -0.0002488009 -0.0001182668 7.44274e-05 4.18041e-05 -0.3157077617 0.78334366
590296460.0 0.3546035242 -0.7757460065 9.387e-05 -8.38517e-05 0.0001302113 0.0002786624 -0.3076550586 0.7857089515
595296430.0 0.3465230153 -0.7797158158 -0.0001513814 -1.2504e-06 -3.5718e-06 2.40241e-05 -0.2999782753 0.788971637
600296400.0 0.3389119227 -0.7832632642 -8.45422e-05 1.55218e-05 0.0001168807 1.10516e-05 -0.2918348081 0.7918906957
605296370.0 0.3312114564 -0.7866319036 8.85872e-05 0.0001075072 3.3901e-05 3.61962e-05 -0.2836710782 0.7954097376
610296340.0 0.3238146799 -0.7897638089 -2.58927e-05 -8.7294e-05 0.0002618331 0.0001628518 -0.2763344502 0.7977809739
615296310.0 0.3161195031 -0.7922908283 -0.0002049035 0.0001280514 -5.0181e-06 -8.17347e-05 -0.2672382008 0.8006441936
620296280.0 0.3079950106 -0.7954434824 -0.0003377029 4.41918e-05 0.0001395457 -0.0001147281 -0.2600555777 0.8030420625
625296250.0 0.3000140757 -0.7983032135 -0.0001552553 0.0001172855 0.0001890053 3.45301e-05 -0.2516235997 0.8051490126
630296220.0 0.2923899761 -0.8006690923 6.15443e-05 -3.32076e-05 1.67055e-05 0.0001741888 -0.2434823263 0.8081981418
635296190.0 0.2841238091 -0.8033422029 0.0001186588 7.835e-05 -5.8421e-05 -0.0001436107 -0.2355622012 0.8099436815
640296160.0 0.2761166694 -0.806188643 -0.0001115716 -6.96195e-05 -8.77638e-05 2.88451e-05 -0.2271720327 0.812767403
645296130.0 0.2692049359 -0.8080991179 0.0001579555 8.67849e-05 -9.50451e-05 -0.0001406778 -0.2195148709 0.8144658181
650296100.0 0.2607467974 -0.8105146658 4.10031e-05 5.02515e-05 1.71173e-05 -1.32341e-05 -0.2106665336 0.8171927983
655296070.0 0.2525820082 -0.8128989455 -3.86909e-05 2.83498e-05 8.28641e-05 -9.3549e-06 -0.203089255 0.8190961546
660296040.0 0.2440852086 -0.8152197613 -8.40092e-05 8.57597e-05 -2.2342e-06 3.79108e-05 -0.194494152 0.8208602385
665296010.0 0.2361222101 -0.8167956737 -7.3326e-06 -0.0001392699 -7.0384e-06 6.07096e-05 -0.1859882036 0.8221657789
670295980.0 0.2283014317 -0.8190157778 -4.97291e-05 -0.0001328483 -2.77761e-05 -9.30642e-05 -0.1786075647 0.8244380015
675295950.0 0.2196369138 -0.8219729809 -7.66414e-05 -7.0035e-05 -0.0001327878 0.0002002892 -0.1697370265 0.8262928426
680295920.0 0.2116207907 -0.8235350082 7.44864e-05 0.000200517 0.0001992215 0.0001477094 -0.1611914592 0.827659004
685295890.0 0.2036088176 -0.8248753988 -1.96944e-05 3.48095e-05 5.16821e-05 -3.81567e-05 -0.1536649945 0.8298919594
690295860.0 0.1950886509 -0.8265313467 -5.07167e-05 -0.0001074526 1.46514e-05 -9.02683e-05 -0.1449716366 0.8314247399
695295830.0 0.1867559112 -0.8287102608 -0.0001465719 -0.0001072414 0.0001582002 -9.62681e-05 -0.1365238772 0.8330546592
700295800.0 0.1783518866 -0.829936077 -9.19779e-05 3.86855e-05 0.0001941729 -3.44939e-05 -0.1283030178 0.8333876691
705295770.0 0.1702417388 -0.831248343 0.0002937981 9.66489e-05 0.0001120942 -4.2723e-05 -0.1201368064 0.8350054933
710295740.0 0.1619672592 -0.832458244 -0.0001225003 6.207e-05 8.0286e-05 -5.48277e-05 -0.1114428505 0.8364691025
715295710.0 0.1533827172 -0.8335759599 -0.00016197 -0.0001631702 4.88943e-05 -6.005e-06 -0.1032539393 0.8372591583
720295680.0 0.1458608709 -0.8349905978 -5.42562e-05 -0.0001817588 0.0001566693 4.48655e-05 -0.0947858817 0.8381134704
725295650.0 0.1369166421 -0.8358482395 -0.0002285047 -3.45169e-05 -0.0001220061 -0.0002352961 -0.0870861198 0.8394148086
730295620.0 0.1285058902 -0.8378083175 -3.63108e-05 0.0001446285 2.58226e-05 -0.0001221906 -0.0788533396 0.8401872477
735295590.0 0.1201109805 -0.8389328002 -0.0002021338 -0.0001315396 5.78928e-05 -4.67109e-05 -0.0697524268 0.8403537294
740295560.0 0.1113458683 -0.8396685643 3.75062e-05 -8.7364e-05 4.0513e-06 0.0003075457 -0.062064843 0.8414100815
745295530.0 0.1036996982 -0.8402736877 1.51037e-05 -9.73334e-05 -1.65223e-05 -3.81145e-05 -0.0533229367 0.8414830968
750295500.0 0.0948871039 -0.8409965925 9.408e-06 -9.86559e-05 -4.02882e-05 -4.01145e-05 -0.0449700635 0.8423749773
755295470.0 0.0863914316 -0.8410554159 -0.0001439516 0.0002048087 5.35065e-05 -2.81236e-05 -0.0370705945 0.8431293896
760295440.0 0.0783954807 -0.8415193119 0.0002949106 0.0001509759 8.17994e-05 0.0001815864 -0.0281709889 0.8430333512
765295410.0 0.0706118343 -0.8421418969 3.10664e-05 3.90286e-05 -0.0001221971 1.27346e-05 -0.0197161137 0.8434673748
770295380.0 0.0616371459 -0.8424512309 8.55971e-05 2.30323e-05 -0.0001039554 -0.0001448393 -0.0116845784 0.8433153503
775295350.0 0.0532677036 -0.8426682265 -0.0001236033 0.0001474771 -5.29356e-05 2.97913e-05 -0.0035938377 0.8431715375
780295320.0 0.0445256808 -0.8430741149 0.0001567214 1.43748e-05 -9.6965e-06 -1.0464e-05 0.0054174821 0.8433250938
785295290.0 0.0361314202 -0.8433177575 -7.37984e-05 0.000144281 -5.60373e-05 0.0001075246 0.0132914854 0.8434328837
790295260.0 0.0285063677 -0.8431077202 0.0002299635 0.0001483105 0.0001575262 4.53119e-05 0.021464982 0.8433083254
795295230.0 0.0200553731 -0.8438920547 5.93e-07 -0.0001168485 -0.0001018935 5.43161e-05 0.0298258404 0.8420142452
800295200.0 0.0111528975 -0.8436567757 -9.06293e-05 -1.2788e-06 -3.17776e-05 0.0001529956 0.0385985151 0.8421875344
805295170.0 0.0027639242 -0.8440232621 2.24578e-05 -4.12715e-05 7.36369e-05 -0.0001317706 0.0472374696 0.8416848361
810295140.0 -0.0057420442 -0.8423421887 1.18977e-05 2.27896e-05 -1.04403e-05 9.84842e-05 0.0556838898 0.8411041487
815295110.0 -0.0141499754 -0.8428443323 0.0001545335 8.60576e-05 -0.0001540252 -2.7654e-05 0.0633432056 0.8407236161
820295080.0 -0.0224708038 -0.8423338429 7.88558e-05 -0.0001885833 -3.36025e-05 -3.47755e-05 0.0714434772 0.8405685055
825295050.0 -0.0309967281 -0.8421622987 -4.27381e-05 -0.0001220178 6.02116e-05 0.000249833 0.08013098 0.8394731295
830295020.0 -0.038998301 -0.8417441712 0.0002880686 -0.0001444327 -6.94773e-05 0.0001285702 0.0880015929 0.8383515098
835294990.0 -0.0471851188 -0.8412351161 7.65884e-05 5.4896e-05 6.90446e-05 6.56306e-05 0.0967857658 0.8375824011
840294960.0 -0.0556431463 -0.8404198416 0.0002077467 7.16508e-05 8.2945e-06 9.26669e-05 0.1053544636 0.8368783054
845294930.0 -0.0639012022 -0.8394775412 0.0001667957 -0.0002394101 -7.03522e-05 4.5222e-06 0.1137045278 0.835719743
850294900.0 -0.0718223718 -0.8384943958 -4.07034e-05 0.0001868386 1.33822e-05 0.0001388967 0.1215671168 0.8345341111
