!Created with skrf (http://scikit-rf.org).
# Hz S RI R 50.0 
!freq ReS11 ImS11 ReS21 ImS21 ReS12 ImS12 ReS22 ImS22
300000.0 -0.7742870803 -0.1007310977 0.002027936 0.0015788323 0.00052992 0.00086127 -0.2124873182 -0.0847955528
5299970.0 -0.7850516552 -0.005838837 8.8477e-06 -6.80981e-05 -0.0001730809 -9.77788e-05 -0.2149773057 0.008577844
10299940.0 -0.7878199321 -0.0039579122 0.0001755051 -6.82071e-05 0.0001009075 -8.82393e-05 -0.2111860079 0.0213855096
15299910.0 -0.7929988168 -0.0021463328 -0.0002505503 -5.38522e-05 9.90925e-05 2.08538e-05 -0.2061282761 0.0311281594
20299880.0 -0.7997834875 0.0021301567 -0.000223901 0.0001444939 -6.27047e-05 3.59242e-05 -0.1999678871 0.0390587981
25299850.0 -0.8064958523 0.0076246138 -9.15633e-05 -1.17276e-05 3.76341e-05 -2.06981e-05 -0.193658946 0.0456136611
30299820.0 -0.8123487355 0.015208983 -9.74258e-05 -8.08238e-05 -0.0001429051 -4.87312e-05 -0.1871164297 0.0510864816
35299790.0 -0.8171280106 0.0246476456 7.5341e-06 0.000115451 -6.50097e-05 -6.36502e-05 -0.1810646366 0.0550289778
40299760.0 -0.8215884937 0.0335428707 7.10456e-05 2.40379e-05 -0.0001713137 -1.76754e-05 -0.1748957885 0.0572118371
45299730.0 -0.8248192126 0.0429110081 5.84029e-05 -6.76243e-05 -0.0001766398 -7.8068e-05 -0.1694957688 0.0598699024
50299700.0 -0.8270824306 0.0528873298 -0.0001010153 4.6476e-06 -1.56228e-05 0.0001058737 -0.1640573672 0.0610021795
55299670.0 -0.8289867102 0.0628182265 9.38095e-05 0.0001351375 -1.44012e-05 3.69971e-05 -0.1596842905 0.0619826172
60299640.0 -0.8302512139 0.0732472077 0.0002948802 0.0002161005 1.13543e-05 -4.0071e-05 -0.1547788745 0.0623567815
65299610.0 -0.8309864291 0.0833447583 4.1248e-06 0.0001757124 -2.4265e-06 0.0001363531 -0.1515054044 0.0627673651
70299580.0 -0.8317133422 0.093013939 -2.71766e-05 0.0002661633 -7.58818e-05 2.09012e-05 -0.1476284364 0.0629827683
75299550.0 -0.8314215736 0.1036383566 6.40664e-05 0.0003249711 -0.0001146336 -5.72338e-05 -0.144723428 0.0624883616
80299520.0 -0.8316883309 0.1135817741 9.85801e-05 6.84207e-05 -3.37564e-05 -0.0002334138 -0.141659048 0.0627887285
85299490.0 -0.8308078539 0.1227044144 -0.00026542 0.0001615931 -0.0001988669 -2.42444e-05 -0.1392966944 0.0625475115
90299460.0 -0.8300194287 0.1323415962 0.0001127336 6.4692e-06 0.0002648814 -3.2999e-05 -0.1370767997 0.0622512454
95299430.0 -0.8289091062 0.141807866 8.07918e-05 -5.64735e-05 0.0001379707 -0.000170107 -0.1347419041 0.061699158
100299400.0 -0.8277133795 0.1507692437 -4.92288e-05 4.75947e-05 -9.6941e-05 5.68776e-05 -0.1327266897 0.061636853
105299370.0 -0.8266397443 0.1605146141 4.991e-07 -4.8723e-06 0.0001793505 -7.9949e-06 -0.1307573185 0.0615443207
110299340.0 -0.8253582017 0.1694175174 3.2398e-06 4.5095e-06 0.0001262423 -0.000104413 -0.1294095035 0.0614981142
115299310.0 -0.8239097914 0.1782561802 -0.0001309029 4.4746e-06 8.53949e-05 -0.0001344768 -0.1278494444 0.0612378109
120299280.0 -0.8216886669 0.1869094779 0.000106599 9.14942e-05 -9.17087e-05 3.6017e-05 -0.1268410382 0.0611505121
125299250.0 -0.8199743179 0.195500338 -0.0001664408 -1.22005e-05 0.0001481906 6.6016e-05 -0.1254738681 0.0606067501
130299220.0 -0.8186567809 0.2051589001 5.34606e-05 0.0002113373 -0.0001294508 -1.96491e-05 -0.1244872849 0.0606612239
135299190.0 -0.816951608 0.2137611893 0.0001775963 -3.72878e-05 0.0001207966 -9.05114e-05 -0.1232661835 0.0609174393
140299160.0 -0.8146132348 0.222766518 5.66953e-05 0.0001123016 -0.0001058768 0.0001590242 -0.1222493945 0.0613096277
145299130.0 -0.8129242683 0.2322389968 -1.79758e-05 -2.05561e-05 5.15816e-05 -3.8571e-06 -0.1217116073 0.0614784246
150299100.0 -0.8102017429 0.2411170565 4.42113e-05 0.0002337276 -0.000186661 0.0002306961 -0.1210380673 0.0620223347
155299070.0 -0.807452285 0.249319486 -7.23385e-05 -0.0002043074 4.70439e-05 5.66295e-05 -0.1201238229 0.0622908628
160299040.0 -0.8049006349 0.2583228793 8.8471e-05 -3.61062e-05 -0.0001974585 -0.000112534 -0.1196898634 0.0630537489
165299010.0 -0.8028497168 0.2666821744 -5.97269e-05 2.2245e-06 9.46814e-05 0.0001326531 -0.1188485072 0.0631193422
170298980.0 -0.8003236104 0.2750638692 -7.36779e-05 -3.90699e-05 -1.47856e-05 0.0001032839 -0.1181339238 0.0634444312
175298950.0 -0.7970827203 0.2840656416 0.0001920141 0.0001884036 6.79236e-05 0.0001246748 -0.1176033205 0.0639265502
180298920.0 -0.7946226986 0.2928935859 6.9776e-06 0.000114726 3.58574e-05 0.0002107896 -0.1170258427 0.0646640141
185298890.0 -0.7908984393 0.3009814515 -4.01187e-05 1.91464e-05 0.0002222465 -4.03085e-05 -0.1166701867 0.0651365337
190298860.0 -0.788350619 0.3092535974 9.99057e-05 -5.72839e-05 -7.71952e-05 0.0002604939 -0.1159556212 0.0657580543
195298830.0 -0.7848594167 0.3179746123 -0.0001339969 -2.6904e-05 -7.09598e-05 0.0001189784 -0.1159778309 0.0663393971
200298800.0 -0.7816169758 0.3256597144 -0.0001447162 8.92604e-05 0.0001333044 -2.22925e-05 -0.1152218958 0.0668036295
205298770.0 -0.7781628716 0.3342645434 4.765e-07 9.9348e-05 0.0003140407 -3.9872e-05 -0.1147505957 0.067104634
210298740.0 -0.774613436 0.342168483 0.0002408727 9.09141e-05 -6.9646e-06 0.0001511274 -0.1144476613 0.0680008524
215298710.0 -0.7712091477 0.3507780267 0.0002588041 -0.000114619 -3.91401e-05 -0.000173523 -0.114003379 0.0685118777
220298680.0 -0.7675462503 0.3589192178 -4.041e-06 -0.0001201514 2.98663e-05 8.36097e-05 -0.1138161429 0.0694364151
225298650.0 -0.7640228841 0.3664826343 7.401e-05 1.35528e-05 1.1283e-05 8.92358e-05 -0.1132621873 0.0697891509
230298620.0 -0.7598454788 0.3745894645 0.0001188114 0.0002675877 3.40583e-05 0.000139656 -0.1125865417 0.070761557
235298590.0 -0.7562312061 0.3830662753 -4.83629e-05 3.66136e-05 0.0002545204 0.0001890943 -0.1123560894 0.0714012567
240298560.0 -0.7521158087 0.3910054063 -0.0001785217 -5.6002e-05 9.3092e-06 0.0001261166 -0.1118918303 0.0725860811
245298530.0 -0.7480848365 0.3987264097 -5.8848e-05 -0.0001941761 1.98881e-05 0.0003910251 -0.1116401022 0.0728913028
250298500.0 -0.7442022861 0.4063677909 0.0001005679 -6.1937e-06 0.0001838596 0.0002448415 -0.1111799944 0.0736980961
255298470.0 -0.739761137 0.4133218094 -2.59462e-05 7.4361e-06 -6.37801e-05 0.0001138001 -0.1105470627 0.0744394438
260298440.0 -0.7353421528 0.4215764181 0.0002567558 -0.0001415607 -8.967e-07 0.0001810664 -0.109937184 0.0755155205
265298410.0 -0.7309548854 0.4300522121 -0.0001280383 4.28281e-05 7.32971e-05 4.15123e-05 -0.1094117958 0.0763257777
270298380.0 -0.7266497335 0.4369961698 -5.844e-07 -6.97847e-05 0.0002035776 0.0001111696 -0.1092497508 0.0772006806
275298350.0 -0.7221424422 0.4449895847 -4.96602e-05 7.3834e-06 4.58019e-05 0.000175203 -0.1084790348 0.0782044419
280298320.0 -0.71708535 0.4522362565 8.81939e-05 0.0001098493 0.0002196174 0.0001392053 -0.1077609514 0.0786449516
285298290.0 -0.7127391773 0.4598039691 1.58108e-05 -1.21244e-05 0.0001194057 0.0001378089 -0.1069266892 0.0795921792
290298260.0 -0.7074747522 0.4669258211 -0.0001128302 0.0001792548 0.0002724095 0.0002081084 -0.1063588274 0.0810784627
295298230.0 -0.7023693095 0.474362849 2.7037e-06 8.63412e-05 0.0001343879 -9.0528e-06 -0.1058859703 0.0814602749
300298200.0 -0.6977452304 0.4815915389 7.50614e-05 -7.33586e-05 1.37708e-05 0.0002344757 -0.1052694023 0.0825093566
305298170.0 -0.6927360826 0.4883093758 0.0001190217 0.0001866395 0.0001505386 9.96237e-05 -0.1041417816 0.083130569
310298140.0 -0.6874240289 0.4958920623 0.0003091378 0.0002527297 0.000328398 -7.78165e-05 -0.1039293008 0.084150476
315298110.0 -0.6826760013 0.5028583538 4.44783e-05 0.0002304491 0.0001003353 6.81229e-05 -0.1034106664 0.0848533626
320298080.0 -0.6772868212 0.5100704359 0.0001022466 0.0002782534 0.0001104186 8.83601e-05 -0.1029605895 0.0860933775
325298050.0 -0.6720958919 0.5171198978 1.421e-05 -1.24073e-05 0.0002158458 2.70352e-05 -0.1023525772 0.0866393029
330298020.0 -0.6667024571 0.5236102931 5.76742e-05 0.0002669278 -6.68524e-05 0.000121987 -0.1020271191 0.0880901203
335297990.0 -0.6604355959 0.5306382776 0.0001441467 0.0002211086 0.0001592304 0.0003091483 -0.1019851461 0.0891254652
340297960.0 -0.655865538 0.537296512 0.0002530424 9.3527e-06 0.0001554261 -0.000190308 -0.1003019222 0.0901358766
345297930.0 -0.6500636284 0.5440945174 0.0003366223 -3.429e-07 0.000119938 0.0001075979 -0.1002045909 0.0911028782
350297900.0 -0.64434187 0.5509289771 -5.9e-05 8.36502e-05 6.36443e-05 9.77954e-05 -0.0996062913 0.0923781567
355297870.0 -0.6381204932 0.5575780724 2.466e-07 0.0003157013 0.0001094682 0.0001318592 -0.0992379732 0.0934817537
360297840.0 -0.6327944659 0.5635056347 -0.0002619686 0.0001109373 0.0001253144 -0.0001583198 -0.0985573289 0.0943682964
365297810.0 -0.6275310793 0.5704981805 0.0001429025 -8.48307e-05 0.0001209539 7.23265e-05 -0.0976055125 0.095397987
370297780.0 -0.6203877811 0.576884637 0.000215416 0.000122113 -0.0002150949 0.0001053216 -0.096786723 0.0966148293
375297750.0 -0.6143336459 0.5830475624 2.99205e-05 5.36837e-05 0.0004191573 6.6554e-06 -0.096346952 0.0974115469
380297720.0 -0.608568037 0.5882433022 4.32987e-05 -0.0001418164 0.0001980175 8.68657e-05 -0.09590702 0.0985282273
385297690.0 -0.6030799115 0.5951299885 2.24411e-05 0.0001122285 -4.89123e-05 0.0002520512 -0.0950260577 0.0995455464
390297660.0 -0.5969045639 0.6010437884 0.0001436768 -9.23625e-05 5.3511e-06 -4.3664e-06 -0.0943184008 0.1004575645
395297630.0 -0.5904659799 0.6080000008 0.0002041986 0.0001431761 -1.09909e-05 4.9337e-05 -0.0931056446 0.1015323943
400297600.0 -0.5838034956 0.6138210092 0.0003726765 -5.5928e-06 4.64048e-05 0.0001744943 -0.0924049416 0.1024328401
405297570.0 -0.5780180637 0.619378604 7.93957e-05 0.000192556 -1.42996e-05 8.11422e-05 -0.0920687814 0.1033631792
410297540.0 -0.5712358447 0.6253009959 0.0001812306 8.74191e-05 0.0001579856 3.3455e-05 -0.0909566861 0.1042411517
415297510.0 -0.5646010121 0.6306263805 3.807e-07 0.0001087208 0.0002985179 7.23782e-05 -0.0902115135 0.1052653177
420297480.0 -0.5591247351 0.6365740683 0.0001373039 0.0001788951 -3.04898e-05 0.0001675999 -0.0894129025 0.106406792
425297450.0 -0.5515658298 0.6425716885 8.41703e-05 -5.43339e-05 0.0002585027 4.38236e-05 -0.0884971049 0.1073299398
430297420.0 -0.5454353652 0.647932039 0.0003144121 9.09449e-05 8.3308e-05 -7.3712e-06 -0.0877525201 0.1083480122
435297390.0 -0.5387858565 0.6529642544 0.0002699815 0.0002801314 -9.6741e-06 7.42829e-05 -0.0867949537 0.1089433478
440297360.0 -0.5321150924 0.6590990128 0.0002364934 -9.46995e-05 7.58267e-05 3.20448e-05 -0.0858118194 0.1101214307
445297330.0 -0.5248775471 0.6643645468 0.0003921696 8.97843e-05 0.000204316 9.98338e-05 -0.0847955696 0.1107309486
450297300.0 -0.5181959964 0.6694234617 -5.34007e-05 0.0001262263 0.0001997692 8.93733e-05 -0.0838355587 0.1118214132
455297270.0 -0.5114437397 0.6740715704 3.73025e-05 9.5947e-05 -5.60599e-05 8.63824e-05 -0.0830714718 0.1127375043
460297240.0 -0.5049561988 0.6792800471 2.42157e-05 -6.71069e-05 -5.04834e-05 4.73951e-05 -0.0822435349 0.1138728603
465297210.0 -0.4979674514 0.6849530852 0.0004230305 6.83251e-05 0.0001239966 -5.38446e-05 -0.0808010738 0.1142694625
470297180.0 -0.489964842 0.6894904745 3.45096e-05 0.0001244624 0.0003129517 0.0002458589 -0.0796995697 0.115748498
475297150.0 -0.483404542 0.694102896 0.0001486882 0.0004293869 0.0001740684 0.000126236 -0.0787143769 0.1162547493
480297120.0 -0.4768146916 0.6990038988 0.0002048911 0.0001316266 4.71778e-05 0.0002555177 -0.0776281192 0.1175819283
485297090.0 -0.4685922947 0.7041035645 0.0002128922 5.44478e-05 2.92385e-05 3.4281e-06 -0.076466965 0.1183245591
490297060.0 -0.4619712337 0.7081207078 0.0001624574 0.0002063389 5.66293e-05 2.54079e-05 -0.0755980527 0.1191095395
495297030.0 -0.4547242033 0.7132157446 -3.73348e-05 2.06892e-05 0.0001679082 0.0001097263 -0.0747991078 0.1204818141
500297000.0 -0.4475058286 0.7182317928 0.0001818006 -2.82018e-05 0.0002039424 0.000126571 -0.0735214296 0.1215221879
505296970.0 -0.4403465976 0.7223733729 -3.9465e-05 -1.31149e-05 0.0001439817 3.055e-06 -0.0725076187 0.1220389861
510296940.0 -0.4330220331 0.7264853618 0.0002998851 9.2822e-05 0.0002792406 -2.455e-06 -0.0711078037 0.1229367207
515296910.0 -0.4247242458 0.7301657465 0.0002616241 -0.0001993638 3.26571e-05 0.0001361921 -0.0701291094 0.123983191
520296880.0 -0.4184900926 0.7349199416 0.0002305684 0.0002528231 0.0002527177 7.36991e-05 -0.0692583228 0.124672496
525296850.0 -0.4100074582 0.7389365299 0.0001944344 -6.62825e-05 0.0002868074 0.0001034554 -0.0683712022 0.1256022768
530296820.0 -0.4027675793 0.7429476261 0.0004458226 0.0002474574 0.000200794 3.24843e-05 -0.0667791482 0.1264660042
535296790.0 -0.3958388929 0.7465693817 0.0003613098 6.64697e-05 0.0002819539 7.50209e-05 -0.0661844026 0.1270315033
540296760.0 -0.3881142624 0.7506680849 0.0002996946 1.72409e-05 5.17684e-05 -0.0001358591 -0.0649683019 0.1278560072
545296730.0 -0.3812266964 0.7554959095 9.67227e-05 0.0002158384 -5.85057e-05 0.0001954462 -0.0640204255 0.1288463934
550296700.0 -0.3728015162 0.7582902774 0.0002545667 -5.46976e-05 0.0001698574 0.0002589582 -0.0631194589 0.1298848152
555296670.0 -0.364713155 0.7618422072 0.0001713475 1.15174e-05 0.0002483511 2.99165e-05 -0.0617082701 0.1306925969
560296640.0 -0.3572997794 0.7663585377 0.0002125801 7.05155e-05 0.0001926387 -4.88048e-05 -0.0605538178 0.1314025966
565296610.0 -0.3497640193 0.7694805951 0.0002949393 0.0001490822 0.0002321986 -0.0001039234 -0.0596543402 0.1321653909
570296580.0 -0.3425291208 0.7718087695 0.0001651834 -4.59651e-05 7.11537e-05 0.0001431614 -0.0585053256 0.132796273
575296550.0 -0.3340933032 0.7765247032 0.0001255816 4.92457e-05 0.0004142294 -9.40814e-05 -0.0570712534 0.133779027
580296520.0 -0.3262116387 0.7794990978 0.0002713374 9.76172e-05 0.0001707016 0.0001677385 -0.0558666391 0.1341727028
585296490.0 -0.3192280934 0.7827225079 0.0003130795 1.41412e-05 0.0001834239 1.0224e-06 -0.054690435 0.1348532501
590296460.0 -0.3108444297 0.78588131 7.93347e-05 -4.75675e-05 0.0001479665 0.0002058713 -0.0536087715 0.1359930818
595296430.0 -0.3028299735 0.788215958 0.000313291 0.0001825151 0.0001496273 3.26976e-05 -0.052659862 0.1358465903
600296400.0 -0.2951730698 0.7920022186 0.0001561876 8.2566e-05 5.32682e-05 -2.78819e-05 -0.0513844059 0.1366490365
605296370.0 -0.2874192877 0.7943959921 0.0001218694 1.06072e-05 0.0001056638 -1.10919e-05 -0.0497273925 0.1376130717
610296340.0 -0.279404647 0.7973390597 3.2089e-05 -9.7821e-06 0.0001581034 -8.16109e-05 -0.0483866924 0.1379967567
615296310.0 -0.2704214294 0.7999357454 0.0002346274 4.51679e-05 0.000198455 -1.79766e-05 -0.0471993741 0.1384578612
620296280.0 -0.2629290584 0.8019992096 0.0001435124 -0.000149276 0.0002577768 -2.46134e-05 -0.0460250347 0.1393049645
625296250.0 -0.2552218196 0.8052172194 3.21949e-05 -0.000228534 0.0003144309 -0.0001029126 -0.0443039604 0.1397260846
630296220.0 -0.2457885678 0.8077674428 0.000182781 3.93376e-05 0.0001985713 0.0002478213 -0.0432736894 0.1405664751
635296190.0 -0.2386240112 0.8105467952 0.0004661352 -0.00015394 9.99415e-05 0.0001034962 -0.0416120681 0.1407201796
640296160.0 -0.2310444235 0.8122674215 8.21881e-05 0.0001261923 0.0001960336 -8.91529e-05 -0.0406000732 0.1416662366
645296130.0 -0.2225343069 0.8152036012 0.0002944494 0.0001155037 0.0003314923 7.03732e-05 -0.0393029523 0.1424089127
650296100.0 -0.2142826452 0.8164783305 0.0002169016 8.7206e-05 2.44292e-05 0.0001033854 -0.037965756 0.1426420104
655296070.0 -0.206676291 0.8191827021 0.0002607101 6.78043e-05 0.0003208953 -0.0001379036 -0.0362251097 0.1436448335
660296040.0 -0.1980226259 0.8200272079 0.0001888408 0.0001457544 0.0002015009 0.0001385667 -0.0348032435 0.1440478165
665296010.0 -0.189634826 0.8219874258 6.311e-05 3.94456e-05 0.0001834792 -9.3653e-05 -0.0338748685 0.144778888
670295980.0 -0.1822150216 0.8244779455 0.0001651184 -1.46832e-05 5.61877e-05 0.0002048824 -0.0326244801 0.1454119469
675295950.0 -0.1734584801 0.8258268062 0.0001153246 0.0001602112 0.000173926 4.18276e-05 -0.0312715512 0.1457976549
680295920.0 -0.1650012585 0.8277404327 0.00015872 3.2144e-05 0.000309 -0.0001574063 -0.029516479 0.1468284882
685295890.0 -0.1563664052 0.8304120218 1.64382e-05 -6.01591e-05 0.0005476504 -7.73626e-05 -0.028311712 0.1469012623
690295860.0 -0.1483762204 0.8307602055 0.0001859256 -0.0001701655 0.0001047087 5.18457e-05 -0.027092507 0.1478467955
695295830.0 -0.1406406338 0.8321717413 0.0003888167 2.61819e-05 0.0001267353 -0.0002177906 -0.0256467737 0.1481688387
700295800.0 -0.1317193683 0.8336029443 0.0004091228 -0.0001027198 0.0003450378 -1.30932e-05 -0.0242971057 0.1487545746
705295770.0 -0.1246607814 0.8351333717 0.0002285216 4.2394e-06 0.0003946549 -0.0001536668 -0.0230594552 0.149673803
710295740.0 -0.1158496135 0.8363183836 0.000233177 -1.39132e-05 0.0002678686 -0.0002863727 -0.0217416803 0.1495272795
715295710.0 -0.1073778348 0.8369209911 0.0001106251 2.68924e-05 0.000180098 2.5557e-05 -0.020215748 0.15006332
720295680.0 -0.0991400942 0.8384263678 0.0001560878 -0.0001321055 0.0003254081 -0.0001727905 -0.0190208139 0.1504071931
725295650.0 -0.0908531724 0.8396627043 -1.21401e-05 2.48767e-05 0.000433092 -8.7522e-06 -0.0176745774 0.1511621746
730295620.0 -0.0819157306 0.8403209639 0.0001125515 0.0002174145 0.000244082 4.8786e-05 -0.0161993758 0.1510377234
735295590.0 -0.0743797601 0.8416108084 0.0003191417 0.0002261449 0.0003266055 -0.0001129606 -0.0155527739 0.1511071477
740295560.0 -0.0659628991 0.8417626073 0.0002722032 -0.0001412947 -4.56847e-05 -0.0001967921 -0.0132734024 0.1519114485
745295530.0 -0.057305774 0.8426736753 0.0002670804 -7.54384e-05 0.0003177403 -0.0001913172 -0.011948147 0.1518230859
750295500.0 -0.0485024366 0.8430471877 0.0003870166 -6.98968e-05 0.0003298065 -0.000226702 -0.0107299681 0.1524943544
755295470.0 -0.0406370468 0.8427932882 0.0002688625 3.59944e-05 2.31858e-05 -8.70232e-05 -0.0092134024 0.1523192775
760295440.0 -0.0327063775 0.8431951112 0.0003068556 -0.0001533029 0.0002106032 8.43249e-05 -0.0079229176 0.1526148816
765295410.0 -0.0243658089 0.8438816823 0.0001935523 -8.52923e-05 0.0002047549 -3.1973e-05 -0.0063465705 0.1533168239
770295380.0 -0.0162210312 0.8440556106 8.58812e-05 -0.0001311611 0.0002104982 -7.46134e-05 -0.005036367 0.1532838705
775295350.0 -0.0076476309 0.8440808014 0.0004012054 -2.01454e-05 0.0004551625 -9.32484e-05 -0.0036990063 0.1534460746
780295320.0 0.0009439437 0.844060182 0.0003364025 0.0001606019 0.0002680651 0.0001096892 -0.002181614 0.153769727
785295290.0 0.0092847307 0.8436081748 0.000459986 -0.0001693777 0.0002955288 1.76061e-05 -0.0002720769 0.1537448528
790295260.0 0.0180588245 0.8435518125 0.0002274846 -0.0002162679 8.96002e-05 5.23125e-05 0.0012217547 0.1543581105
795295230.0 0.0255286747 0.8434899817 8.14605e-05 -0.0001587942 0.0002194112 1.12154e-05 0.0024662604 0.1542029571
800295200.0 0.0341787709 0.8430892918 0.0004273577 -0.0001600061 0.0001271188 5.59628e-05 0.004276881 0.1545158758
805295170.0 0.0427004043 0.8430145755 0.0003678523 -0.0003440802 0.0003367381 -3.96976e-05 0.005704898 0.1546221899
810295140.0 0.0512627719 0.8421738107 0.0003369724 -3.30845e-05 0.0002362655 -7.14461e-05 0.0072349073 0.1549117136
815295110.0 0.0588512602 0.8418524648 0.0002854355 -0.0003000611 0.0001638784 -7.23279e-05 0.0086886196 0.155086313
820295080.0 0.0673855072 0.8415593608 0.000468136 -7.46175e-05 0.0003107887 -8.84307e-05 0.0101069222 0.155118174
825295050.0 0.0767151381 0.840323502 0.0001921093 -0.0002366591 0.0002543642 -3.3462e-06 0.0116514924 0.1553909339
830295020.0 0.0840144078 0.8397218777 0.0003662763 -0.0001368052 0.0003969854 -0.0002103098 0.0139149396 0.1552916557
835294990.0 0.0923032304 0.8395063984 0.00034968 8.26548e-05 0.0002347999 -0.0001098262 0.0147613581 0.1557684577
840294960.0 0.1002089688 0.8384466448 0.0001935319 -0.0001198836 0.0001909508 -4.56051e-05 0.0162309517 0.1557523796
845294930.0 0.1085623641 0.8368787264 0.0003988836 -0.0001659433 0.0003207881 -9.92001e-05 0.0178285036 0.1554919468
850294900.0 0.1165365832 0.8360240999 0.0001854798 -0.0001233388 0.000281099 3.72793e-05 0.0191345274 0.1559820577
