!Created with skrf (http://scikit-rf.org).
# Hz S RI R 50.0 
!freq ReS11 ImS11 ReS21 ImS21 ReS12 ImS12 ReS22 ImS22
300000.0 -0.2394025463 -0.093712798 0.4717740502 0.0632549377 0.4703151615 0.0581288139 -0.239202982 -0.099139187
5299970.0 -0.2451272254 0.006688795 0.474817125 0.0051296487 0.4747698818 0.0053245916 -0.2412892754 0.0073683864
10299940.0 -0.241846408 0.0178841855 0.4765469235 0.0061315943 0.4766947907 0.0064704496 -0.2378300833 0.0203847224
15299910.0 -0.2374450095 0.0269083882 0.4804512453 0.0072865731 0.4804207216 0.0076470551 -0.2329874657 0.0299190276
20299880.0 -0.2329545273 0.0339417283 0.4852435001 0.0079666855 0.4850201093 0.0080420394 -0.228008064 0.03817252
25299850.0 -0.22792145 0.0405309127 0.4902781263 0.0069032283 0.4900521602 0.0071506855 -0.2218180196 0.044796265
30299820.0 -0.222503345 0.0451821769 0.4957758955 0.004902787 0.4953545728 0.0047452051 -0.2162694766 0.0502055099
35299790.0 -0.2175069776 0.049241074 0.5007642245 0.0016693039 0.5011013775 0.0015808438 -0.2105915832 0.0545716015
40299760.0 -0.2126721838 0.0523908915 0.5055951515 -0.0025671825 0.5059613476 -0.0022811822 -0.205001525 0.0574155799
45299730.0 -0.2079466544 0.0545190477 0.5102239326 -0.00710849 0.5106783244 -0.0066842741 -0.2003371506 0.0603951128
50299700.0 -0.2041753206 0.0569764716 0.5152296114 -0.0127237706 0.5148548492 -0.0121355401 -0.1955542727 0.0621653584
55299670.0 -0.2000432909 0.0584033578 0.5189591819 -0.0189555899 0.5186387582 -0.0180634282 -0.1913677527 0.0640340693
60299640.0 -0.1961480925 0.0600241862 0.5218892609 -0.0246577267 0.5219136133 -0.0243794501 -0.1873224908 0.0652374678
65299610.0 -0.1930876267 0.0609345562 0.5247052772 -0.0310686595 0.5248363124 -0.0307632461 -0.1842771085 0.0666744433
70299580.0 -0.1900822428 0.0620190143 0.5273619036 -0.0376290547 0.526784662 -0.0378414957 -0.1804316787 0.0677379908
75299550.0 -0.1872908763 0.0629389545 0.5290229879 -0.0447021735 0.5287706263 -0.0442716953 -0.177786332 0.068201293
80299520.0 -0.1844479599 0.0636614169 0.5309386871 -0.0515481633 0.5313077445 -0.0515236466 -0.1752221385 0.0694087404
85299490.0 -0.1825449953 0.064004947 0.5322228835 -0.0580605019 0.5321237199 -0.0581287784 -0.1729391194 0.0694411999
90299460.0 -0.180334747 0.0650696643 0.5328575798 -0.0650150816 0.5332456209 -0.0651980343 -0.1702115437 0.0705860012
95299430.0 -0.178283491 0.0652848729 0.5340330706 -0.0719248589 0.5339806796 -0.0720821674 -0.1681621984 0.071083192
100299400.0 -0.1764175252 0.0662922969 0.5340112951 -0.079075368 0.5342515866 -0.0791407913 -0.1659379285 0.0714225121
105299370.0 -0.1748331545 0.0668802252 0.5348393769 -0.0859457954 0.5347054553 -0.0859819672 -0.1640588207 0.0722484945
110299340.0 -0.173540897 0.0674598714 0.5350215846 -0.0924694454 0.5347569127 -0.0925335171 -0.1627560454 0.0732650725
115299310.0 -0.1719029699 0.0681323413 0.5346511689 -0.099155401 0.534921379 -0.0993650302 -0.1611850902 0.0737995318
120299280.0 -0.1706969987 0.0685038947 0.5343578544 -0.1062486448 0.5345649792 -0.1062689987 -0.1594457744 0.0744582152
125299250.0 -0.1696274161 0.0691128771 0.5339995139 -0.1129375923 0.5345217023 -0.1128012748 -0.1586623341 0.0749018667
130299220.0 -0.1686817896 0.0703618339 0.5334024375 -0.1197823528 0.5334957802 -0.1199728278 -0.1569557172 0.0759913554
135299190.0 -0.167464553 0.0709667269 0.5329057748 -0.1263346845 0.5328447745 -0.1261179699 -0.1557835752 0.0768416964
140299160.0 -0.1666836812 0.072177934 0.5322638457 -0.1333865906 0.5319701764 -0.1329124293 -0.1547154846 0.0779564281
145299130.0 -0.1654931148 0.0725865331 0.5312868638 -0.1396093409 0.5307925764 -0.1396185365 -0.153282445 0.0790238126
150299100.0 -0.164437104 0.0738869269 0.5299053336 -0.1457531804 0.5301132469 -0.1456744103 -0.1522998695 0.0802954621
155299070.0 -0.1640874853 0.0747990174 0.5291003722 -0.1530304354 0.5289307634 -0.1525712758 -0.1511920927 0.0813978617
160299040.0 -0.1625290036 0.0759933882 0.5272321649 -0.1593535768 0.5272209522 -0.1587926721 -0.1506380824 0.0824796462
165299010.0 -0.1619420886 0.0769430733 0.525903085 -0.1654687394 0.5261123701 -0.1655409284 -0.149363069 0.0835983893
170298980.0 -0.161440642 0.0779585687 0.5239260333 -0.1721237924 0.5244879645 -0.1716886955 -0.1483629922 0.0847078357
175298950.0 -0.1606592691 0.0788215249 0.5229149949 -0.1778508246 0.5226468057 -0.1779744596 -0.1476189105 0.0859161844
180298920.0 -0.160176529 0.0799994583 0.5210308408 -0.1845437429 0.5207589924 -0.1839076606 -0.1462677416 0.0872865822
185298890.0 -0.1589605239 0.0810961871 0.5193537884 -0.1906539894 0.5191154686 -0.190351589 -0.1457163078 0.0886587732
190298860.0 -0.1585551872 0.0822439383 0.5175620844 -0.1968014344 0.5178333197 -0.1966040786 -0.1447545064 0.0895466655
195298830.0 -0.1577797115 0.0834034037 0.5154583307 -0.2029573903 0.515600237 -0.2026956776 -0.1435461166 0.09120224
200298800.0 -0.156750539 0.0847066503 0.5131210162 -0.209129752 0.5133589038 -0.2092955054 -0.1429331735 0.0924489795
205298770.0 -0.1561097799 0.0859446729 0.5106077753 -0.2154864027 0.5108347853 -0.2146769807 -0.142015819 0.093297858
210298740.0 -0.1555256314 0.0870176482 0.5088915463 -0.2205524623 0.5086135258 -0.220803762 -0.1408413035 0.095416113
215298710.0 -0.1548837997 0.0882775214 0.5064627742 -0.2268773805 0.506448319 -0.2269148523 -0.1404871368 0.0965450614
220298680.0 -0.153911813 0.0890363958 0.5033786419 -0.2330307622 0.5041282717 -0.2327185276 -0.1397138404 0.0978106275
225298650.0 -0.1533648333 0.090891888 0.5015485626 -0.2384585385 0.5014491527 -0.2383537766 -0.1390203714 0.0985021882
230298620.0 -0.1526266197 0.0923025359 0.4990918299 -0.2440693905 0.4993629477 -0.2445787726 -0.1379860834 0.1002120307
235298590.0 -0.15161546 0.0937453654 0.4965951001 -0.2500525797 0.4963297228 -0.2496364831 -0.1368567298 0.1013599769
240298560.0 -0.1510150202 0.0949306401 0.4938430307 -0.2562268413 0.4935729048 -0.2557919465 -0.1359453032 0.1032070402
245298530.0 -0.1503538462 0.0962909797 0.4913019446 -0.261537199 0.4909492626 -0.2616207789 -0.1349573745 0.1040820202
250298500.0 -0.1491455326 0.0977855011 0.4875929686 -0.267883176 0.4876216753 -0.2668315939 -0.134068512 0.1056175451
255298470.0 -0.1484557576 0.098522735 0.4845053045 -0.2725046459 0.484806355 -0.2725991828 -0.1327122776 0.1071074022
260298440.0 -0.1480145909 0.100068724 0.4820077538 -0.2784644378 0.4826160084 -0.2779234767 -0.1316015751 0.1083410508
265298410.0 -0.1466803241 0.1017974203 0.4787334905 -0.2839890597 0.4793714334 -0.2836808917 -0.1303968778 0.1098800678
270298380.0 -0.1460061166 0.1028631252 0.476411378 -0.2888947465 0.4764909264 -0.2893188554 -0.1294399533 0.1114006988
275298350.0 -0.1447278077 0.1044245478 0.4729694787 -0.2948588055 0.4733554692 -0.2944677729 -0.1282008666 0.1124713113
280298320.0 -0.1438721475 0.1058006653 0.4702539018 -0.3000423375 0.4698804441 -0.2997805414 -0.1266878521 0.113648055
285298290.0 -0.1430782316 0.1072489159 0.4666972477 -0.3053670465 0.4660840859 -0.3054945699 -0.1255739834 0.1149718322
290298260.0 -0.1417819482 0.1084305716 0.4631056411 -0.3103031311 0.463500982 -0.3101655769 -0.1243528588 0.1165884996
295298230.0 -0.1408833193 0.1097624891 0.459720848 -0.3156919219 0.4601917076 -0.3156907011 -0.1227313694 0.1176375882
300298200.0 -0.1401116009 0.1109483466 0.4566219756 -0.3205474833 0.4566377637 -0.321123932 -0.121658706 0.1192568401
305298170.0 -0.1390636403 0.1121181111 0.452821941 -0.3263908138 0.4531208316 -0.3263085943 -0.1199441095 0.1203417573
310298140.0 -0.1381846786 0.113806097 0.4493732882 -0.331831426 0.4495476235 -0.3311959523 -0.1186628195 0.1214818159
315298110.0 -0.1369634715 0.1145744537 0.4459687759 -0.3366118224 0.4456973736 -0.3368575908 -0.117732004 0.1227842168
320298080.0 -0.1357632599 0.1158127071 0.4413489311 -0.3418643058 0.4419258548 -0.3416354208 -0.116285362 0.1242577456
325298050.0 -0.1349790655 0.1172868887 0.4379446872 -0.3471705116 0.4383338252 -0.3467209803 -0.1152879818 0.1255460696
330298020.0 -0.1339898633 0.1182013623 0.4339070903 -0.3519593431 0.4339997181 -0.3516123787 -0.1144847954 0.1266890156
335297990.0 -0.1329382659 0.1195209581 0.4298602841 -0.3566904014 0.4301552797 -0.3569068668 -0.1134321705 0.1284868534
340297960.0 -0.1324847012 0.1210896542 0.4258281897 -0.3612866902 0.4258034444 -0.3612859216 -0.1114903741 0.1298196574
345297930.0 -0.1315437268 0.1225225797 0.4218348748 -0.366176508 0.4216032946 -0.3664746864 -0.1106304938 0.1308160458
350297900.0 -0.1304913763 0.123729929 0.416968059 -0.3711258215 0.4176882711 -0.3703836454 -0.1095746317 0.1327010047
355297870.0 -0.1293295409 0.1256526699 0.4135195983 -0.3750600096 0.4136887088 -0.3751457525 -0.1082705385 0.1338199472
360297840.0 -0.1280701717 0.1268552766 0.4096945123 -0.3796543486 0.4099822829 -0.3795892601 -0.106736366 0.1355267872
365297810.0 -0.1273880794 0.1283536028 0.4053024405 -0.3845816399 0.4056865954 -0.3843687192 -0.1049850663 0.1368419316
370297780.0 -0.125544649 0.1292446068 0.4006251371 -0.3887865984 0.4013847931 -0.3882392005 -0.1041013424 0.1380605348
375297750.0 -0.1245495152 0.1310424243 0.3966862422 -0.3933300817 0.3971478922 -0.3931239466 -0.1022752211 0.1390743146
380297720.0 -0.1233005582 0.1320032818 0.3921002121 -0.3976360643 0.3927779867 -0.3967308582 -0.1012469874 0.1406251504
385297690.0 -0.1224258069 0.1336652817 0.388258709 -0.4017763157 0.3880760761 -0.401420615 -0.0995685101 0.142020485
390297660.0 -0.121185494 0.1352150576 0.3837290695 -0.4063304677 0.383467264 -0.4054389299 -0.0985406145 0.1431696671
395297630.0 -0.1197984491 0.1362860736 0.3794379739 -0.4101839421 0.379013089 -0.4103876172 -0.0961836394 0.1442303176
400297600.0 -0.1185637649 0.1376560826 0.3741756855 -0.4144964666 0.3746982399 -0.4145597266 -0.094846809 0.1458279139
405297570.0 -0.117713822 0.1390766206 0.3699279318 -0.4179475368 0.370260995 -0.4181780691 -0.093906847 0.147160462
410297540.0 -0.1159696355 0.1399577161 0.3654959051 -0.4225541271 0.3656538529 -0.4224845306 -0.0919076501 0.1482490158
415297510.0 -0.1145024666 0.1411590445 0.360639114 -0.4265446988 0.3610470459 -0.4265407024 -0.090282499 0.1492878718
420297480.0 -0.1132623446 0.1429158678 0.3560211667 -0.4304923995 0.3560010837 -0.4302043121 -0.0891039487 0.1502122466
425297450.0 -0.1120282304 0.1436490705 0.3512710405 -0.4342409114 0.3519662316 -0.4343930914 -0.0878978416 0.1517512772
430297420.0 -0.1105614274 0.1451492394 0.3465179803 -0.4379373084 0.3465311852 -0.4374670923 -0.0859224602 0.1522602859
435297390.0 -0.1092277321 0.1461389288 0.3414184175 -0.4417258784 0.3416020273 -0.4414829883 -0.0835937641 0.1533870233
440297360.0 -0.1079650611 0.1475292204 0.3368023183 -0.4453114893 0.3371873199 -0.4453788688 -0.0824218861 0.1542734586
445297330.0 -0.1064912085 0.1483224126 0.3323389083 -0.4493631346 0.3321230529 -0.4487328817 -0.0806932167 0.1548645193
450297300.0 -0.1047637247 0.1493910687 0.3272852284 -0.4526566499 0.3269687283 -0.4527227473 -0.078992853 0.1565019935
455297270.0 -0.1036692158 0.1505927912 0.3218747132 -0.4561114114 0.3218563022 -0.4563261765 -0.0774365285 0.1572458639
460297240.0 -0.1023168076 0.1515975227 0.317586853 -0.4597080976 0.3171541533 -0.4595414394 -0.0755742832 0.1582937226
465297210.0 -0.1005742642 0.1531516549 0.3121511948 -0.4630718396 0.3118523143 -0.4634157774 -0.0736614239 0.1589577345
470297180.0 -0.0992482849 0.1540259818 0.3065987419 -0.466435686 0.3070530009 -0.466199446 -0.0718280564 0.1603461957
475297150.0 -0.0979130365 0.1551671649 0.3018193133 -0.4693612617 0.3019362806 -0.4692307354 -0.0696617871 0.1608907302
480297120.0 -0.0961465653 0.1564231396 0.2965752798 -0.4734142304 0.2967762585 -0.4732123596 -0.0676353497 0.162268961
485297090.0 -0.0948660391 0.1573968034 0.2917611998 -0.4760773816 0.2916902733 -0.4757695682 -0.0659228484 0.1629646579
490297060.0 -0.0935763024 0.1582543213 0.2865416323 -0.4792451255 0.2869226227 -0.4790132549 -0.0642070991 0.1639999013
495297030.0 -0.0920582904 0.1594519646 0.2809238973 -0.4824699648 0.2816086883 -0.4821931363 -0.0627934753 0.1646879642
500297000.0 -0.0904188016 0.1604057104 0.2760700373 -0.4852023653 0.2757422617 -0.4848833818 -0.0606465421 0.1661496985
505296970.0 -0.0886708755 0.1612982062 0.2709443853 -0.4879966189 0.2704621569 -0.4880686322 -0.0588622144 0.1668012664
510296940.0 -0.0872272968 0.162793467 0.2650799227 -0.4912162743 0.2651200725 -0.4914882079 -0.0567680298 0.1677238889
515296910.0 -0.0855642128 0.1635175913 0.2594718956 -0.4939705257 0.2599715881 -0.4939926916 -0.0551303835 0.1686043669
520296880.0 -0.0842476448 0.1644777431 0.2544934262 -0.4974102576 0.2544106392 -0.4964436763 -0.053299005 0.1688084207
525296850.0 -0.0824691043 0.1648831075 0.2489602457 -0.499098834 0.2493953561 -0.4992023848 -0.0517103097 0.1702218979
530296820.0 -0.0809359585 0.1659908123 0.2437446484 -0.5022454039 0.2436484219 -0.502228638 -0.0497853312 0.1709863259
535296790.0 -0.0794487172 0.1673328679 0.2387885636 -0.5048194378 0.2385933935 -0.5043931902 -0.0478505645 0.1711596432
540296760.0 -0.0781426621 0.1681413741 0.2326572265 -0.5076044605 0.2325546652 -0.5074566408 -0.0464622884 0.1722030908
545296730.0 -0.0764221202 0.1689613754 0.2269407342 -0.5092915029 0.2273526471 -0.5096118385 -0.0444675348 0.1727535154
550296700.0 -0.074285304 0.1698683625 0.221159865 -0.5119103994 0.2218461569 -0.5124295528 -0.0425953905 0.173893237
555296670.0 -0.0730359254 0.1708297601 0.2160472161 -0.5144710057 0.2161553992 -0.51421533 -0.0404162579 0.1744708416
560296640.0 -0.0711669268 0.1718401644 0.2103329837 -0.5171056925 0.2105475588 -0.5165361062 -0.0386865701 0.1745847364
565296610.0 -0.0698652501 0.1725727421 0.2045980093 -0.5191287574 0.2049905606 -0.5191038081 -0.0369248187 0.1751260759
570296580.0 -0.0681690236 0.1734830943 0.1990558475 -0.5216623063 0.198729767 -0.5210964174 -0.0350482126 0.176396511
575296550.0 -0.0666984428 0.1743792311 0.1938057579 -0.5239025006 0.1933836326 -0.5235294675 -0.0326428761 0.1765825561
580296520.0 -0.0646766702 0.1749300054 0.1878899656 -0.525711836 0.1876900935 -0.5254923051 -0.0308185777 0.1767731416
585296490.0 -0.0632510655 0.175521808 0.1822266576 -0.5266817108 0.1822971591 -0.5275546643 -0.0290610886 0.1774402151
590296460.0 -0.0612057717 0.1763565551 0.1764483516 -0.528990885 0.1766920693 -0.5289848495 -0.0277205919 0.1778705017
595296430.0 -0.0593669695 0.1769645002 0.1702570636 -0.5310074824 0.170580184 -0.5310618309 -0.0249833748 0.1777719864
600296400.0 -0.0580411008 0.1776420404 0.1650395904 -0.5328424299 0.1647315989 -0.5326073012 -0.0234452069 0.1786178282
605296370.0 -0.0562627468 0.1784254261 0.1587879169 -0.5343538703 0.1587326385 -0.5345091751 -0.0211593783 0.178969548
610296340.0 -0.0543304092 0.1792155187 0.1530145652 -0.5364019442 0.1532433347 -0.5361640593 -0.018975102 0.1790867377
615296310.0 -0.0525882377 0.1793976372 0.1472878438 -0.5377778501 0.147379974 -0.5382314 -0.0171064048 0.17976368
620296280.0 -0.0509994549 0.1803231558 0.141296017 -0.5393148973 0.1416970595 -0.5390185897 -0.0153702962 0.1798268679
625296250.0 -0.0493590889 0.1807493008 0.1363636034 -0.5412821261 0.1360395638 -0.5409478206 -0.0128131632 0.1802082362
630296220.0 -0.0467859473 0.1815406054 0.129495798 -0.5425457944 0.1295076635 -0.5419026666 -0.0110699371 0.180442463
635296190.0 -0.0460792535 0.1819722367 0.1240065194 -0.5432333981 0.1240570685 -0.5434712806 -0.0090177315 0.1806777725
640296160.0 -0.0440606927 0.1826766998 0.1180332371 -0.5445991157 0.1185532206 -0.5448070555 -0.0067915873 0.1810351662
645296130.0 -0.0421787592 0.1834945183 0.1118046183 -0.5458882581 0.1126893038 -0.5460264047 -0.0046850452 0.1813097486
650296100.0 -0.0403604841 0.1838928188 0.1062891825 -0.5472234362 0.1064179319 -0.5475029401 -0.0025003185 0.1807871302
655296070.0 -0.0387882748 0.1841619299 0.1007082013 -0.5481036495 0.1007992392 -0.5481291969 -0.0006987325 0.1816452159
660296040.0 -0.0370647867 0.1843718671 0.0946058988 -0.5489442175 0.0948328923 -0.5493305787 0.0018625435 0.1818645112
665296010.0 -0.0349027596 0.1851958129 0.0883490251 -0.5499873721 0.088322395 -0.5499430635 0.0037904608 0.1822690914
670295980.0 -0.0338869164 0.1857921616 0.0823393404 -0.5510312187 0.0827380244 -0.5508526514 0.0052768952 0.1822663387
675295950.0 -0.0319067996 0.1861803299 0.0770132828 -0.5516682718 0.0770570654 -0.5515497344 0.00704506 0.1822540698
680295920.0 -0.0300222956 0.1865912493 0.0707883515 -0.5523362407 0.0706005734 -0.5527696815 0.0092761266 0.1831120087
685295890.0 -0.0280641709 0.1878231268 0.0650579566 -0.5533770738 0.0645416201 -0.5536239645 0.0115733626 0.1827368267
690295860.0 -0.0259023151 0.1875511421 0.0587981571 -0.5532361721 0.0588792836 -0.5538961682 0.0134243177 0.1833378207
695295830.0 -0.0243077344 0.1880412808 0.0530038035 -0.554495184 0.0525734941 -0.5540539156 0.0154777674 0.1830742287
700295800.0 -0.0221904438 0.188231631 0.0467910285 -0.5547828993 0.0461660527 -0.5549276464 0.0174674324 0.1834224213
705295770.0 -0.0208846604 0.1890738125 0.0405244314 -0.555356611 0.040970542 -0.5554691152 0.0194063525 0.1831150059
710295740.0 -0.0186992301 0.1890916363 0.0348692958 -0.5563215776 0.0353821177 -0.5561506704 0.0212958085 0.1828113571
715295710.0 -0.017253601 0.1893994827 0.0290962362 -0.5563207087 0.028645638 -0.5561889067 0.0239693418 0.1827938591
720295680.0 -0.0154349615 0.1897113732 0.0230200582 -0.5566168424 0.0230578849 -0.5564261911 0.02562388 0.1833206577
725295650.0 -0.0131014467 0.1900750153 0.0167437304 -0.5564576805 0.0172504471 -0.5568085445 0.0269076479 0.1830945331
730295620.0 -0.0111455621 0.1906716652 0.0102890371 -0.5564877846 0.0109117707 -0.5565387161 0.0290629742 0.1823467814
735295590.0 -0.0096070793 0.1908924899 0.0046632141 -0.5568492347 0.0050798635 -0.5565207791 0.030698018 0.18236808
740295560.0 -0.0079570663 0.1909335594 -0.0010685486 -0.556713539 -0.0013835265 -0.5569674356 0.0336335742 0.1822555248
745295530.0 -0.0060854883 0.1914628905 -0.0071400655 -0.5563717056 -0.0070768092 -0.5566065996 0.0349511589 0.1816105943
750295500.0 -0.003895244 0.1913762885 -0.0131124879 -0.5563284994 -0.0133069759 -0.5566682968 0.0372699959 0.1817484907
755295470.0 -0.0020661779 0.1914311457 -0.0189424095 -0.5563211412 -0.0188399974 -0.5567159508 0.0394982748 0.1810625234
760295440.0 -0.0004066115 0.1917577123 -0.024654864 -0.5561915739 -0.0251549366 -0.5563533556 0.0414644557 0.1806376287
765295410.0 0.0014328472 0.192099414 -0.0312838389 -0.5560393618 -0.0311433765 -0.5560106903 0.0434342816 0.1805798738
770295380.0 0.0029527092 0.1916786444 -0.037154736 -0.5552441896 -0.0372078804 -0.5555356273 0.0449749682 0.1800852109
775295350.0 0.0049792892 0.1915943182 -0.0433580729 -0.5546554636 -0.042863514 -0.5546744864 0.0468185728 0.1799950267
780295320.0 0.0070351451 0.1920877739 -0.049236673 -0.5537948292 -0.048262016 -0.5541323981 0.0490873874 0.1789575752
785295290.0 0.0085648654 0.1917120849 -0.0552797883 -0.5531480975 -0.0548155386 -0.5536178587 0.0514513389 0.1791371953
790295260.0 0.0111211937 0.1921975548 -0.0606733038 -0.55289743 -0.0603935742 -0.5526236317 0.0532570122 0.1782623116
795295230.0 0.0126016749 0.1921120749 -0.0668562982 -0.5522863109 -0.0663820436 -0.552452476 0.055493321 0.1781513347
800295200.0 0.0143495367 0.1923814072 -0.0735499414 -0.5512029814 -0.0728199743 -0.5516654871 0.0573941638 0.1774168449
805295170.0 0.0163154046 0.1918396566 -0.0789881749 -0.5503674352 -0.0788652045 -0.5506806719 0.0595009738 0.1771131959
810295140.0 0.017976351 0.1919608836 -0.0846879459 -0.5496066457 -0.0845799529 -0.5497871703 0.0619217975 0.1770188091
815295110.0 0.0198118602 0.1915064016 -0.0904687963 -0.5483655814 -0.090062261 -0.5486315953 0.0635188896 0.1759593861
820295080.0 0.0215816356 0.1921168388 -0.096447033 -0.5473225801 -0.0959089582 -0.547578599 0.0656884497 0.1755293409
825295050.0 0.0240667729 0.1918108662 -0.1018774381 -0.5463798136 -0.1022184134 -0.5466275197 0.0676234547 0.1749659546
830295020.0 0.0253179074 0.1917220298 -0.1082720109 -0.5451412455 -0.1079859379 -0.5452131924 0.0700287963 0.1745518986
