!Created with skrf (http://scikit-rf.org).
# Hz S RI R 50.0 
!freq ReS11 ImS11 ReS21 ImS21 ReS12 ImS12 ReS22 ImS22
300000.0 -0.235006261 -0.1154600188 0.4651671807 0.0765076927 0.4660922174 0.0769585579 -0.2340214845 -0.1229848381
5299970.0 -0.2450425988 0.0055878493 0.4739649927 0.0057106017 0.4740221698 0.0058813048 -0.2437905624 0.005302733
10299940.0 -0.2419202833 0.018654627 0.4762190251 0.0071793137 0.476078709 0.0071342635 -0.2403577378 0.0181252162
15299910.0 -0.2368675125 0.0286051467 0.4792137145 0.0078995523 0.479592376 0.0082207388 -0.2361529248 0.0276096687
20299880.0 -0.2317169928 0.0364715847 0.4842107122 0.0082958717 0.4842971295 0.0085919984 -0.2312403807 0.0352006056
25299850.0 -0.2256072732 0.0427986554 0.4894032077 0.0080794972 0.4897820418 0.0078648177 -0.2261652607 0.0418203863
30299820.0 -0.220522762 0.0476727801 0.4955041287 0.0056866329 0.4950956053 0.0053255859 -0.2209489956 0.0468738088
35299790.0 -0.2145714417 0.0519512413 0.5000624015 0.0025427779 0.500309494 0.0023033545 -0.2159472306 0.0516652816
40299760.0 -0.2092010931 0.0548013545 0.5055045083 -0.001439887 0.5057251022 -0.0018431964 -0.2106542717 0.0546822638
45299730.0 -0.2042804117 0.0571025584 0.5104255666 -0.0062254303 0.5107714599 -0.0062908634 -0.205783244 0.0576002681
50299700.0 -0.1993264522 0.0590329182 0.5144509929 -0.0116739206 0.5148858364 -0.0120483663 -0.201293725 0.0600798736
55299670.0 -0.1949313186 0.060452441 0.5179699575 -0.0172935187 0.5182167358 -0.0178176138 -0.1978049144 0.061669563
60299640.0 -0.1909341735 0.0617164386 0.521739617 -0.0238372222 0.5220243887 -0.0237689395 -0.193793574 0.0632141142
65299610.0 -0.1874758216 0.062703921 0.5252760106 -0.0302195952 0.5248400187 -0.0305032633 -0.1901491001 0.0646070078
70299580.0 -0.1840045915 0.0631524389 0.5269719736 -0.0368091254 0.5274038606 -0.037102464 -0.1871361425 0.0658159248
75299550.0 -0.1812258513 0.0640659954 0.5291419017 -0.0442227109 0.5292479823 -0.0437658635 -0.1843763719 0.0671686413
80299520.0 -0.1783446712 0.0644784754 0.5310645101 -0.0509328087 0.5312189441 -0.0510088188 -0.181716299 0.0681339401
85299490.0 -0.1759224574 0.0649230812 0.5323661819 -0.057871072 0.5326719928 -0.057487226 -0.1794741189 0.0686904411
90299460.0 -0.1737101028 0.0655385949 0.5334439133 -0.0646161393 0.5335257562 -0.0646303489 -0.1771076946 0.0696600248
95299430.0 -0.1712117739 0.065701902 0.5339715825 -0.0716478226 0.5346335966 -0.0718472988 -0.1752370049 0.0706790846
100299400.0 -0.1693847684 0.0659496506 0.5346738508 -0.0779638166 0.5346041717 -0.0784050703 -0.1733707528 0.0715972141
105299370.0 -0.1678029873 0.0665823055 0.5348701865 -0.0848848756 0.5354974997 -0.0851660308 -0.1709622513 0.0721273151
110299340.0 -0.1658176787 0.0670575857 0.5351631927 -0.0919147399 0.535576479 -0.0918040361 -0.1699480315 0.0729360437
115299310.0 -0.1645402713 0.067769578 0.5352526211 -0.0988445647 0.5352946868 -0.098986752 -0.1683226872 0.0743113108
120299280.0 -0.1633718605 0.0681951857 0.5350762616 -0.1060872753 0.534757559 -0.106312533 -0.1668692217 0.074786453
125299250.0 -0.1620574272 0.06864273 0.534678332 -0.1121355106 0.5347642056 -0.1127064945 -0.1655066638 0.0760592568
130299220.0 -0.1604859325 0.0694388114 0.5340496615 -0.1193034591 0.5340116906 -0.119880338 -0.164106336 0.0769998021
135299190.0 -0.1598174325 0.0703440303 0.5338448413 -0.1258475713 0.5337696583 -0.1264076305 -0.1628895509 0.0777370727
140299160.0 -0.1585578355 0.0707749008 0.5329398162 -0.1328277306 0.5326431854 -0.1322117865 -0.1623498146 0.0784662996
145299130.0 -0.1579597015 0.0719126177 0.5317212749 -0.1391876135 0.531775168 -0.1391336074 -0.1611115027 0.0798095221
150299100.0 -0.1566685309 0.0725898129 0.5306110704 -0.1459927916 0.5305072479 -0.1458458311 -0.1598536341 0.0812047544
155299070.0 -0.1555409524 0.0733424309 0.5286630338 -0.1522934613 0.529575233 -0.1525802055 -0.1587983696 0.082080846
160299040.0 -0.1550262529 0.0745405642 0.5280921273 -0.1587236497 0.5280807899 -0.1589724506 -0.1581374756 0.0837271479
165299010.0 -0.1539091778 0.0753047284 0.5267552108 -0.1649817854 0.5266490919 -0.1651750863 -0.1570577438 0.0843418073
170298980.0 -0.1530733031 0.0763350641 0.5246332493 -0.1714298266 0.52490957 -0.1715564277 -0.1563631182 0.0855675032
175298950.0 -0.1522519008 0.0775456442 0.5238508062 -0.1779161464 0.5236915211 -0.1781448095 -0.1550777824 0.0873403031
180298920.0 -0.151654823 0.0785857452 0.5217740458 -0.1844794523 0.5218131305 -0.1844815586 -0.15413235 0.0886430514
185298890.0 -0.1508118249 0.0796817059 0.5203203784 -0.1903534768 0.5197300442 -0.1902728196 -0.1529971233 0.0896180052
190298860.0 -0.1497404022 0.0807582982 0.5175583474 -0.196360299 0.518153948 -0.1962402111 -0.1522348788 0.0909382434
195298830.0 -0.1492818647 0.0819449402 0.516368918 -0.2026164455 0.5165045864 -0.2026052355 -0.1514714715 0.092303345
200298800.0 -0.1484101673 0.0826591849 0.5142159145 -0.2093843549 0.5141524067 -0.2089606285 -0.1505206198 0.0933314728
205298770.0 -0.1480519462 0.0841382995 0.5117490524 -0.2146711571 0.5119749388 -0.214713949 -0.1494532019 0.0948463736
210298740.0 -0.1469603473 0.0853137232 0.5101647393 -0.2206154032 0.5096163004 -0.2206444858 -0.1487733999 0.0961710573
215298710.0 -0.1465005079 0.086615904 0.5068537729 -0.2264059331 0.5073541067 -0.2267799533 -0.147620061 0.0974763384
220298680.0 -0.1450351882 0.0878733065 0.5041677298 -0.2325325543 0.5045232128 -0.2326649952 -0.1465126914 0.0989380094
225298650.0 -0.1445233059 0.0890098802 0.5020789791 -0.2383434233 0.5022163325 -0.2382290567 -0.14559205 0.1003303872
230298620.0 -0.1437386947 0.090715354 0.4996687837 -0.244269244 0.4999794672 -0.2445879572 -0.1449035366 0.1019016289
235298590.0 -0.1433508787 0.0916938269 0.4973416606 -0.2505010605 0.4970738411 -0.250113232 -0.1436433334 0.1033727164
240298560.0 -0.1421930328 0.0933204572 0.4945522423 -0.2557183786 0.4945099419 -0.2561007249 -0.1427034037 0.1046290528
245298530.0 -0.1417180096 0.094372647 0.491792468 -0.2617111338 0.4916014639 -0.2614610373 -0.1418244765 0.106131868
250298500.0 -0.1407675019 0.0955252988 0.4886549082 -0.2670849397 0.4889345384 -0.2668250649 -0.1409515264 0.1076884285
255298470.0 -0.1400215499 0.0972068508 0.4859461059 -0.2725006264 0.4862890952 -0.2728353983 -0.1393401172 0.1090973727
260298440.0 -0.1388854206 0.0984663358 0.4831289405 -0.2779540535 0.4831783807 -0.2780483809 -0.1386467297 0.1101115806
265298410.0 -0.1387754326 0.0995773762 0.4802597709 -0.2839066395 0.4797619071 -0.2841028203 -0.1368862764 0.1115998976
270298380.0 -0.1376195466 0.1008183822 0.476596158 -0.2890337955 0.476909722 -0.2891784396 -0.1362291218 0.1135271936
275298350.0 -0.136745543 0.1027363481 0.4733933937 -0.2947015667 0.4733076951 -0.2945554682 -0.1350424912 0.1150372054
280298320.0 -0.1359436738 0.1037728308 0.4707478805 -0.2994765298 0.4708074527 -0.3000646889 -0.1334887826 0.1163284761
285298290.0 -0.1352224717 0.1050626413 0.4672409019 -0.3051397899 0.4676313082 -0.3049754809 -0.1325424946 0.1178893667
290298260.0 -0.1343119269 0.1064644659 0.4645100274 -0.3107354175 0.4640425879 -0.3105192024 -0.1312620256 0.1192994975
295298230.0 -0.1333765657 0.1075058298 0.4609064086 -0.3158862369 0.4609513256 -0.3163222055 -0.1299796503 0.1205593766
300298200.0 -0.1323870669 0.1091959917 0.4576947462 -0.3210286854 0.4575132064 -0.3209975848 -0.1285687332 0.1217702195
305298170.0 -0.1314429048 0.1101164016 0.4541031678 -0.3263643278 0.4540878387 -0.3266703726 -0.127481312 0.122947817
310298140.0 -0.1301077783 0.1112598113 0.4504688661 -0.3316831559 0.4503779799 -0.3310452504 -0.126098686 0.1241664319
315298110.0 -0.1295708203 0.1122156466 0.4467793354 -0.3372290039 0.44709601 -0.3370781708 -0.1248052729 0.1258911433
320298080.0 -0.1289683655 0.1137566383 0.4425934707 -0.3417998515 0.4435384975 -0.3422306947 -0.1239069486 0.126975346
325298050.0 -0.1284157135 0.1144569787 0.4390805192 -0.3465541789 0.4396396326 -0.3469733574 -0.1223564151 0.1282675164
330298020.0 -0.1277363176 0.116187236 0.4353891719 -0.3518364625 0.435608672 -0.3521635471 -0.1212022367 0.1295874228
335297990.0 -0.1263938785 0.1173556076 0.4312380384 -0.3568552918 0.4313444201 -0.356758124 -0.1199651808 0.1311255825
340297960.0 -0.1255739691 0.1184684208 0.4265643025 -0.3617055091 0.426940761 -0.361866672 -0.1188854858 0.1328429564
345297930.0 -0.1252515326 0.1200530531 0.4231911091 -0.3669723006 0.423181227 -0.3663358005 -0.1174152406 0.1336461824
350297900.0 -0.1241244097 0.1210444736 0.4187296582 -0.3704863004 0.4192979708 -0.3708752095 -0.1160544647 0.1350578826
355297870.0 -0.1232341403 0.1224847793 0.4150734111 -0.3749520448 0.4149419117 -0.3750956041 -0.1146360466 0.136577827
360297840.0 -0.1220189399 0.1239195779 0.4104571851 -0.3800048159 0.4108190786 -0.3806751406 -0.1134439051 0.1383264494
365297810.0 -0.1211195985 0.1250722872 0.4064537461 -0.3846074329 0.4065380684 -0.3846192096 -0.112142468 0.1393061178
370297780.0 -0.1198816641 0.1261727624 0.40203746 -0.3886571981 0.4023846649 -0.3887207534 -0.1110237786 0.1406383935
375297750.0 -0.1191435531 0.1277755387 0.3979480331 -0.3930531293 0.3977924361 -0.3931656749 -0.1089659103 0.1420316689
380297720.0 -0.1182558073 0.1291802061 0.3937841373 -0.397716298 0.393329704 -0.397641374 -0.1076118556 0.1434629267
385297690.0 -0.117063503 0.130216928 0.3892408271 -0.4019099466 0.3891929294 -0.4025771927 -0.1062138658 0.1450620953
390297660.0 -0.1158149917 0.1313415283 0.3847219639 -0.4056291249 0.3848151857 -0.4061707298 -0.1041526798 0.1460302378
395297630.0 -0.1144622852 0.1323787299 0.3804086415 -0.4096086776 0.3801925108 -0.4103005674 -0.1027665046 0.1473315544
400297600.0 -0.1136568728 0.1339100758 0.3761514572 -0.4147960786 0.3761177917 -0.4143731109 -0.1013423603 0.148693112
405297570.0 -0.1122396886 0.134823904 0.3711844001 -0.418692123 0.3712743717 -0.4187185174 -0.0994861852 0.1502619566
410297540.0 -0.1110447683 0.1362537494 0.3667314282 -0.4226511588 0.3667019586 -0.4225909601 -0.098126775 0.1514870564
415297510.0 -0.1101320974 0.1373928496 0.361983871 -0.4265242482 0.3626590792 -0.4270619262 -0.096206838 0.1526421541
420297480.0 -0.1089867765 0.1380768924 0.3575389829 -0.4304321555 0.3575849915 -0.4310697368 -0.0942466603 0.1539912676
425297450.0 -0.1072755925 0.1395388678 0.3527617024 -0.4340127091 0.3523166118 -0.4344540035 -0.092667642 0.1544990864
430297420.0 -0.1060992331 0.140650214 0.3481605624 -0.4388203714 0.3480247809 -0.4381916844 -0.091019946 0.1560930033
435297390.0 -0.1049022728 0.1418147738 0.3429531588 -0.4424732253 0.3429718779 -0.442267182 -0.0895667856 0.1575348357
440297360.0 -0.1032345782 0.1426291823 0.3378915155 -0.445650485 0.3380556243 -0.4458943869 -0.0877368806 0.1584842372
445297330.0 -0.1019147999 0.1433982434 0.3333785891 -0.4492541309 0.3333588558 -0.4498783018 -0.0859286831 0.1598037743
450297300.0 -0.1005433144 0.1448415268 0.3285568234 -0.4529920471 0.3286153564 -0.4533000184 -0.0840492007 0.1609275338
455297270.0 -0.0995223541 0.1458521762 0.323357617 -0.4564372522 0.3236630327 -0.45680676 -0.0822943932 0.1617993546
460297240.0 -0.0980515031 0.1470160283 0.3188878279 -0.4608939637 0.3185387704 -0.460094295 -0.0807818543 0.1625846321
465297210.0 -0.0965676999 0.1478607977 0.3131278779 -0.4637786723 0.3128492212 -0.4641372419 -0.0785347009 0.1643166295
470297180.0 -0.0951667573 0.1488963648 0.3078627928 -0.4668283232 0.3086371383 -0.4670110336 -0.0764730921 0.1646791068
475297150.0 -0.0940454549 0.1501246927 0.3034489899 -0.4701181418 0.3034678715 -0.470677152 -0.0751422881 0.1658884666
480297120.0 -0.0919409696 0.1515955806 0.2976107398 -0.4739122693 0.2981959335 -0.4735613574 -0.0733920977 0.1670333713
485297090.0 -0.0905550946 0.1518096205 0.2924590359 -0.4767556115 0.2929139883 -0.4769801092 -0.0717129036 0.1680175859
490297060.0 -0.0887165905 0.1529416685 0.2870745454 -0.4804571745 0.2874961859 -0.4801900618 -0.0695687562 0.168374817
495297030.0 -0.0877539074 0.1536529073 0.2825174583 -0.4833135033 0.2823001733 -0.4835056393 -0.0673357181 0.1695425129
500297000.0 -0.0860473941 0.155022059 0.2772747353 -0.485863948 0.2769322292 -0.4866331338 -0.0657113553 0.1707322298
505296970.0 -0.0839704366 0.1558302091 0.2713235512 -0.4892579063 0.2716351282 -0.4892755853 -0.063658187 0.1711930917
510296940.0 -0.082687246 0.1566605767 0.2666983874 -0.4927127626 0.2665253325 -0.4925877349 -0.061528528 0.1722587761
515296910.0 -0.081131194 0.1580723005 0.2605776495 -0.4952343736 0.2603066527 -0.4951129248 -0.0597458625 0.172805963
520296880.0 -0.0795705307 0.1588918206 0.2556550579 -0.4980220875 0.2550498563 -0.4974763799 -0.0574791763 0.1741500366
525296850.0 -0.0779579062 0.1596398665 0.2498641619 -0.5005258746 0.249744569 -0.5008974835 -0.0553536844 0.1747394784
530296820.0 -0.0767618619 0.1605882521 0.2443861061 -0.5032867172 0.2441568343 -0.5030303449 -0.0535425849 0.1750042578
535296790.0 -0.0741139672 0.1612747191 0.239356318 -0.5058114921 0.238861022 -0.5059559918 -0.0515179905 0.1761495468
540296760.0 -0.0729772949 0.1624893248 0.2331239498 -0.5082496087 0.2331457789 -0.5083017768 -0.0496829125 0.1764968958
545296730.0 -0.0720071513 0.1634307361 0.2281091042 -0.5103853493 0.2276730261 -0.5106474279 -0.0474738019 0.1775838417
550296700.0 -0.0694878954 0.1643228926 0.2222881506 -0.5132095901 0.2221428756 -0.5131665955 -0.0455294719 0.1777156266
555296670.0 -0.0680234305 0.1648149789 0.2167297604 -0.515537276 0.2166735733 -0.5152254324 -0.0436338656 0.1781194281
560296640.0 -0.0661249675 0.1656950115 0.2108131493 -0.5179602709 0.2114426839 -0.5180077759 -0.0415552617 0.1793764921
565296610.0 -0.0646698645 0.166582373 0.2058779486 -0.5202336655 0.2053219594 -0.5198481032 -0.0392515106 0.1800782274
570296580.0 -0.0629305437 0.1674856249 0.1999600282 -0.5220447181 0.1997869832 -0.5223261002 -0.0377801251 0.1800612874
575296550.0 -0.0608869488 0.1679030286 0.1942213373 -0.5244914028 0.1938038655 -0.5240896866 -0.0353240929 0.1808982496
580296520.0 -0.059468348 0.1691516227 0.1885850258 -0.5264742804 0.1886273313 -0.5267402943 -0.0339258936 0.1813138649
585296490.0 -0.0576467455 0.1696298002 0.1832532849 -0.5281820128 0.1824890187 -0.528641905 -0.0315435093 0.182296902
590296460.0 -0.0554347188 0.1705501265 0.1769420768 -0.5304941898 0.1769983159 -0.5307905534 -0.0295824488 0.1826221855
595296430.0 -0.0539979639 0.1711947713 0.1705924037 -0.5322852911 0.1706630748 -0.5321704383 -0.0274366339 0.1827340656
600296400.0 -0.0521659328 0.1719349197 0.1652524835 -0.5337874591 0.1647818319 -0.5339073095 -0.0253036647 0.1832298113
605296370.0 -0.0507904545 0.1725648005 0.159939989 -0.535616781 0.1591863748 -0.535839983 -0.0230874238 0.1837722399
610296340.0 -0.0486755709 0.1736686525 0.1535451552 -0.5368359223 0.1538794709 -0.5370692507 -0.0214270706 0.1839135394
615296310.0 -0.0464999549 0.1741628292 0.1477906177 -0.5393174521 0.147371735 -0.5391406929 -0.0189059489 0.1844402459
620296280.0 -0.045571069 0.1754403603 0.1416993144 -0.5406251598 0.1413843252 -0.5405065158 -0.0170878045 0.1851726619
625296250.0 -0.0438734859 0.1755699048 0.1360975275 -0.5420149249 0.1359799063 -0.5423803864 -0.0153394197 0.185039047
630296220.0 -0.0418573845 0.1768376715 0.1297583046 -0.5435148795 0.1296658645 -0.5434213829 -0.0130055469 0.1852993952
635296190.0 -0.0401259085 0.1773853672 0.1243671403 -0.5443964669 0.1240099742 -0.5447855518 -0.0110680744 0.1855962792
640296160.0 -0.0379671209 0.1776812699 0.118078493 -0.5460295488 0.1181703922 -0.5457724615 -0.0090800988 0.1857458434
645296130.0 -0.0363135292 0.1787832042 0.112463328 -0.547389332 0.1122375129 -0.5469829962 -0.0072932696 0.1856980942
650296100.0 -0.034699031 0.1788583702 0.1063370613 -0.5484230795 0.1062952508 -0.5485230704 -0.0045082903 0.186343812
655296070.0 -0.0330965183 0.1798136442 0.1002808761 -0.5495956342 0.1003389815 -0.5495558038 -0.0028566133 0.1867661126
660296040.0 -0.0313405783 0.1803768639 0.0948858761 -0.550697318 0.0942140958 -0.550754157 -0.0007756 0.1865498302
665296010.0 -0.0293085702 0.1808642142 0.0879792282 -0.5511150149 0.0883738857 -0.5510971741 0.0016186695 0.1868368871
670295980.0 -0.0278431807 0.1816368382 0.0825834702 -0.5524314374 0.0825400697 -0.551946567 0.0030904931 0.1870972332
675295950.0 -0.0257573669 0.1817399619 0.0761191706 -0.5530851071 0.0765491091 -0.5530929066 0.0054449671 0.1869958823
680295920.0 -0.024405631 0.1827958751 0.070607432 -0.5538002485 0.0706339978 -0.5538500543 0.0078875668 0.1871174617
685295890.0 -0.0221645945 0.1833038812 0.0646770279 -0.5546246273 0.0643139084 -0.554534538 0.0098791419 0.1875348552
690295860.0 -0.0207980187 0.1835149741 0.0587541293 -0.5554005246 0.0584239239 -0.5552087932 0.0115552588 0.1871839537
695295830.0 -0.0188876253 0.1838416008 0.0529688129 -0.555634523 0.0524272299 -0.555532928 0.0136708359 0.1876139197
700295800.0 -0.0168856058 0.1845944148 0.0466692093 -0.5562073749 0.0465958982 -0.5561068168 0.0161270079 0.1875118956
705295770.0 -0.0154095933 0.1852129865 0.0407995827 -0.5571183537 0.040634938 -0.5565523573 0.017781513 0.1877105889
710295740.0 -0.0138567086 0.1852776505 0.035093668 -0.5574113629 0.0347245208 -0.5571874708 0.0200362496 0.1875493692
715295710.0 -0.0118008492 0.185766022 0.0292223679 -0.5575980157 0.0284718243 -0.5573472132 0.0221119499 0.186964192
720295680.0 -0.0097089093 0.1858831138 0.0228771593 -0.5571819797 0.0223097266 -0.5581795378 0.0242539935 0.1869945336
725295650.0 -0.0086855334 0.1866306191 0.0169112796 -0.5574739652 0.0168318912 -0.5580765581 0.0257265633 0.1872778403
730295620.0 -0.0071803704 0.1866528108 0.0112266358 -0.5577920145 0.0105137648 -0.5574851521 0.0280267639 0.1872026757
735295590.0 -0.0048510982 0.1875087392 0.0048039212 -0.5582922393 0.0046551632 -0.5579234073 0.0302911591 0.1865155203
740295560.0 -0.0034190298 0.1872572675 -0.0010405911 -0.5580524383 -0.0011848917 -0.5583290248 0.031903069 0.1869104552
745295530.0 -0.0015459646 0.1876988243 -0.0072537115 -0.5570868468 -0.0064869514 -0.5579656938 0.0336690644 0.1865827768
750295500.0 -0.0001001143 0.1880771511 -0.0131001291 -0.5577977016 -0.013208851 -0.5575931572 0.036108853 0.1862507539
755295470.0 0.0015160106 0.1882024138 -0.0187418756 -0.5576236793 -0.0191360857 -0.5578551789 0.0381310405 0.186528684
760295440.0 0.0035304544 0.1889123877 -0.025423958 -0.5571234795 -0.0251917158 -0.5572834053 0.040505274 0.1853014711
765295410.0 0.0056692275 0.1886131652 -0.0312232813 -0.5573532799 -0.0311744406 -0.5569154248 0.0426029039 0.1854602282
770295380.0 0.0069608728 0.1891089331 -0.0368404613 -0.5560964893 -0.0368750736 -0.556581144 0.0442836039 0.1850008373
775295350.0 0.0086962895 0.1892762694 -0.0428231303 -0.5563910031 -0.0432633069 -0.556159239 0.0465220607 0.1851687659
780295320.0 0.0105242862 0.1894208529 -0.0487749082 -0.5548078172 -0.0491166209 -0.5555491118 0.0486767052 0.1843785738
785295290.0 0.0120845996 0.1892709416 -0.0546360451 -0.5550839533 -0.0546466647 -0.5552715638 0.050036088 0.1842996793
790295260.0 0.0140797963 0.1892661532 -0.060692035 -0.5543314034 -0.0609165772 -0.5545070435 0.0522851043 0.1843824746
795295230.0 0.0155056583 0.1894841513 -0.066724687 -0.5537466811 -0.0666957298 -0.5539697654 0.0543842922 0.1830766593
800295200.0 0.0169549926 0.1896514229 -0.07212973 -0.5523970301 -0.0728701967 -0.5529175859 0.056029323 0.1832607153
805295170.0 0.0190924228 0.1897579672 -0.0785614772 -0.551912741 -0.0786875644 -0.5525762975 0.058865968 0.1826005639
810295140.0 0.0208317004 0.1900110371 -0.084510515 -0.5512606471 -0.0846450289 -0.5511657323 0.0608412209 0.1819332535
815295110.0 0.02232815 0.1899151198 -0.0902399984 -0.5502138186 -0.0898331689 -0.5505038463 0.0623986767 0.1817256653
820295080.0 0.0241891412 0.1896912706 -0.0957937899 -0.5487198811 -0.0957554979 -0.5493392107 0.063858003 0.181650275
825295050.0 0.0256442749 0.1897301848 -0.1021680567 -0.5478625872 -0.101784957 -0.5481747031 0.0666597393 0.1808848156
830295020.0 0.027610288 0.1896360677 -0.1077306754 -0.5471181697 -0.1079250929 -0.5472940244 0.0683131894 0.1797992003
