!Created with skrf (http://scikit-rf.org).
# Hz S RI R 50.0 
!freq ReS11 ImS11 ReS21 ImS21 ReS12 ImS12 ReS22 ImS22
300000.0 -0.7776417834 -0.1847363804 9.76223e-05 0.0012837426 -0.0009865298 0.0006347066 -0.2074833623 -0.1116882463
5299970.0 -0.7860891644 -0.0095989583 -1.81503e-05 -0.0003811141 -6.78998e-05 -0.000172364 -0.2159059613 0.0060692535
10299940.0 -0.7893946355 -0.0061561917 0.0002165858 -5.56376e-05 -7.3834e-05 -0.0001838146 -0.2119850168 0.0185463393
15299910.0 -0.7944082409 -0.0036389778 9.9179e-06 0.0001204959 -3.87231e-05 8.83422e-05 -0.2074129427 0.0280328673
20299880.0 -0.8007687705 0.0005738046 -5.58024e-05 0.0001155533 -4.3182e-06 1.39042e-05 -0.2021989313 0.0355757018
25299850.0 -0.807594773 0.0065079716 9.25383e-05 0.0002232495 1.63886e-05 -1.12301e-05 -0.1965873655 0.0416075121
30299820.0 -0.8137080967 0.01356735 6.43881e-05 -4.26826e-05 2.21998e-05 -4.23842e-05 -0.1905596717 0.0469087287
35299790.0 -0.8190331147 0.0227361586 0.0003484295 3.43105e-05 -5.03458e-05 6.59662e-05 -0.1846806663 0.0506214174
40299760.0 -0.823710627 0.0319381261 -0.0001621754 0.0001730812 0.0001018449 4.73223e-05 -0.1794076297 0.0532491648
45299730.0 -0.826638487 0.0417358581 9.71929e-05 5.38445e-05 0.0001435625 3.86355e-05 -0.1741920728 0.0552463006
50299700.0 -0.8292280671 0.0517810594 0.0001163566 0.0002342378 -7.93106e-05 0.0002286417 -0.1693313308 0.057086151
55299670.0 -0.8312740374 0.0612118084 4.67633e-05 -6.70337e-05 -0.0001509562 -2.572e-07 -0.165265619 0.0580500168
60299640.0 -0.832600158 0.0718324337 6.37113e-05 0.0003263873 -0.0001322972 -0.0001884682 -0.1610222951 0.0585717983
65299610.0 -0.8333058866 0.0818346344 0.000244361 4.62977e-05 -7.98425e-05 -8.0534e-06 -0.1576895531 0.0594075061
70299580.0 -0.8338927496 0.0921611353 1.90112e-05 -8.4444e-06 -4.45436e-05 -7.64783e-05 -0.1545590778 0.059509928
75299550.0 -0.8340097675 0.1014372879 6.19308e-05 0.0001423845 -6.10308e-05 2.71744e-05 -0.1509217569 0.0597705625
80299520.0 -0.834028763 0.1119281416 0.000174894 0.0002024172 8.93179e-05 0.0001257412 -0.1487119146 0.0600378624
85299490.0 -0.8331348817 0.1209028552 3.2292e-05 0.0002504786 6.892e-07 1.58279e-05 -0.1462079741 0.0599472354
90299460.0 -0.8322907335 0.1316337899 7.73686e-05 -5.0033e-05 -2.12136e-05 -0.0001760828 -0.1441620873 0.0597217532
95299430.0 -0.8317377602 0.1406790752 -0.0001029474 5.04697e-05 3.46882e-05 -3.59449e-05 -0.1419653937 0.0599620803
100299400.0 -0.8303830306 0.1497163934 -0.0001549666 7.09181e-05 -4.40071e-05 1.5427e-05 -0.1400047534 0.0602249453
105299370.0 -0.8290001738 0.1591737341 -0.0002074687 0.0002753236 4.23533e-05 -7.11613e-05 -0.1383048261 0.0597158423
110299340.0 -0.8275652571 0.168107353 -6.75525e-05 0.0001020721 0.000151739 0.0001406057 -0.1371927392 0.059790073
115299310.0 -0.8259424044 0.1781309432 0.0002493957 5.97421e-05 0.0001518774 8.66314e-05 -0.1360909621 0.0598248867
120299280.0 -0.8249116548 0.1865017761 0.0001372514 -3.57027e-05 1.59761e-05 -9.40492e-05 -0.1345915569 0.0599996093
125299250.0 -0.8226842259 0.1952470017 -6.34622e-05 -2.63399e-05 4.21912e-05 6.92633e-05 -0.1334857843 0.0602039275
130299220.0 -0.8207669488 0.2053473704 2.47301e-05 8.21956e-05 0.0002855509 7.20503e-05 -0.13266136 0.0600312396
135299190.0 -0.8183803066 0.2145088706 9.95484e-05 -1.71638e-05 1.1582e-06 0.0002182016 -0.1315784033 0.0601584921
140299160.0 -0.8175252194 0.2231909459 -4.61979e-05 6.16948e-05 -8.53788e-05 -0.0001215143 -0.1309986457 0.0607267788
145299130.0 -0.8149772513 0.2320588523 -0.0001560755 5.48978e-05 8.58902e-05 0.0001590448 -0.1299669211 0.0611878586
150299100.0 -0.8120264318 0.2415628728 3.52662e-05 0.0003295447 4.5256e-06 -4.79148e-05 -0.129400344 0.06148137
155299070.0 -0.8097235999 0.2506124484 3.41638e-05 4.29256e-05 9.00221e-05 4.79358e-05 -0.1289681683 0.0619296252
160299040.0 -0.8075547496 0.2593434585 0.0002192968 2.117e-06 -1.11469e-05 0.0001443129 -0.1280591103 0.0623551184
165299010.0 -0.8046222259 0.2677574677 6.83443e-05 0.0001107858 0.0001360428 9.64073e-05 -0.1273717706 0.0626597262
170298980.0 -0.8018901994 0.2761654926 2.82403e-05 -1.47705e-05 -4.56043e-05 0.0001807111 -0.1270216615 0.0634487306
175298950.0 -0.7989805307 0.2849021077 -0.0003215673 7.44498e-05 8.03143e-05 6.50046e-05 -0.1262392055 0.0639495774
180298920.0 -0.7958859429 0.2936908751 0.0003217134 -0.0002950982 1.26623e-05 2.47835e-05 -0.1258348148 0.0644219746
185298890.0 -0.792601877 0.3023911638 3.61473e-05 0.0001104068 -1.11271e-05 0.0001651997 -0.1252868802 0.0648201229
190298860.0 -0.78980028 0.3114118109 0.0002075502 -8.71873e-05 0.0001207934 5.02794e-05 -0.124781334 0.0657712492
195298830.0 -0.7862085313 0.3189959974 -1.98307e-05 -4.7696e-06 -4.27082e-05 -3.26252e-05 -0.1245992657 0.0664745449
200298800.0 -0.7827376335 0.3274988449 0.0002111464 0.0001248801 -6.57536e-05 -5.68939e-05 -0.1238341751 0.0671372914
205298770.0 -0.7791362946 0.3366295963 7.80054e-05 0.0002622792 0.0001605357 -2.2758e-06 -0.1236440155 0.0677489042
210298740.0 -0.7763182304 0.3447055558 -8.2555e-06 -6.04385e-05 0.0001236939 5.77503e-05 -0.1232083207 0.0686570604
215298710.0 -0.7722532271 0.3532133673 0.0002973132 0.0001272894 -0.0001036126 0.0001262731 -0.1227429487 0.06924365
220298680.0 -0.7689177575 0.3612419328 8.98766e-05 4.30651e-05 0.0001153776 3.25512e-05 -0.1220378839 0.07008328
225298650.0 -0.7642953671 0.3695552473 6.78159e-05 4.7002e-06 0.0001096364 -9.6674e-06 -0.1215990464 0.0711903197
230298620.0 -0.7606954039 0.3780664547 0.0001271968 0.0001654847 1.9592e-06 -9.67725e-05 -0.1213745841 0.0721202263
235298590.0 -0.7572259274 0.3860327433 8.49252e-05 0.0001713735 0.0003686792 -9.25912e-05 -0.1209088344 0.0729086427
240298560.0 -0.7527984662 0.3933831968 0.0001471101 1.57589e-05 8.94009e-05 2.46992e-05 -0.1205086452 0.0736405777
245298530.0 -0.7489124527 0.4019259751 0.000159347 9.40308e-05 -0.0001225754 0.0001166347 -0.1199128555 0.0742855052
250298500.0 -0.7445499945 0.409730983 -1.3409e-06 4.35021e-05 8.03833e-05 0.0001260125 -0.1194109991 0.0759683773
255298470.0 -0.7405281627 0.4177891873 2.11161e-05 7.31539e-05 -7.76481e-05 1.98491e-05 -0.1190288659 0.0762039527
260298440.0 -0.736402793 0.4250793787 0.0001756032 0.0001726897 4.07774e-05 -7.96121e-05 -0.1184811221 0.0775504344
265298410.0 -0.7322175379 0.4326393386 9.94257e-05 0.0002409115 0.0001689628 1.14828e-05 -0.1176404455 0.0782200698
270298380.0 -0.727033392 0.4401982164 0.0002488182 6.47252e-05 5.63592e-05 0.0001964999 -0.1172253602 0.0794597419
275298350.0 -0.7230248512 0.4483772094 0.0001006115 0.0002145933 0.0001122961 -3.894e-05 -0.1164821773 0.0802306567
280298320.0 -0.7185677304 0.4555397051 6.81819e-05 0.0001124939 0.0002680955 -4.88455e-05 -0.116559623 0.0815693771
285298290.0 -0.7134277808 0.463174602 7.62994e-05 0.0001643414 0.0001350899 8.89909e-05 -0.115864409 0.0825078172
290298260.0 -0.7086841614 0.4710075984 2.92609e-05 3.63262e-05 0.0001225183 -9.37913e-05 -0.1155033948 0.0834842128
295298230.0 -0.7038103865 0.4782409134 0.0001040031 0.0001600188 0.0001051502 -4.05329e-05 -0.1144188751 0.084238202
300298200.0 -0.6991506893 0.4856559181 0.0002060776 0.0001672596 5.8069e-05 0.0001181138 -0.1139153558 0.0854943633
305298170.0 -0.6944268231 0.4922273859 -0.0001457377 -0.0001671607 -3.86593e-05 -3.67721e-05 -0.1131958794 0.0865538503
310298140.0 -0.6886959852 0.4994406942 0.0001888848 -8.31355e-05 0.0001085286 3.3657e-06 -0.1125320004 0.0878197839
315298110.0 -0.6843490228 0.5070534962 0.0002145564 9.75871e-05 8.87747e-05 0.000137495 -0.1117596235 0.0882907295
320298080.0 -0.6789316166 0.5141299502 7.65579e-05 0.0001449174 0.0002286917 0.0002033991 -0.1114066045 0.0893093886
325298050.0 -0.6733202318 0.5211312141 6.70329e-05 -5.22e-08 0.0003466931 -0.0001105738 -0.1105877958 0.0902678154
330298020.0 -0.668073075 0.5278255635 0.0001302803 -3.32785e-05 0.0001949606 -6.95123e-05 -0.1103357576 0.0911181741
335297990.0 -0.6628341959 0.53481882 -5.9458e-05 2.63236e-05 6.96644e-05 3.6661e-05 -0.109207427 0.0923617957
340297960.0 -0.6577930182 0.5416286931 -2.09497e-05 3.02532e-05 1.21046e-05 0.0002297022 -0.1087539366 0.0934600018
345297930.0 -0.6522561229 0.5480758506 0.0001965975 0.000316466 0.0001035207 0.0002750056 -0.1082935243 0.0942387114
350297900.0 -0.6458968128 0.5549384719 0.0002570343 -0.0001986382 0.0002083588 0.00011857 -0.1079463157 0.0952908827
355297870.0 -0.6410117163 0.5612023473 -4.43765e-05 0.0001564492 0.0001501441 0.0001652956 -0.1069683019 0.0967667869
360297840.0 -0.6352126941 0.5686392794 0.0001504656 0.0001850545 6.95749e-05 0.0002446562 -0.1061300659 0.097534612
365297810.0 -0.6297639302 0.5750375087 0.0003290003 -0.0001489881 0.0001140871 0.000212151 -0.1057323204 0.0989960515
370297780.0 -0.623572126 0.5807789565 -6.653e-07 -3.15507e-05 0.0001122336 -4.0625e-06 -0.1051268542 0.1000414233
375297750.0 -0.6181166825 0.5868476841 2.65946e-05 -0.0001063753 -1.43262e-05 -5.38234e-05 -0.1044678387 0.1014330113
380297720.0 -0.6116604727 0.5935120079 8.35416e-05 0.0001888615 8.61739e-05 4.9353e-05 -0.1033008389 0.1023778238
385297690.0 -0.6054918997 0.5996170767 0.0003618633 8.30454e-05 0.0001311964 6.59318e-05 -0.1025924758 0.1032129187
390297660.0 -0.5987446504 0.605942364 3.91964e-05 -3.45845e-05 -4.38876e-05 0.000140174 -0.1020533319 0.1043448074
395297630.0 -0.5930483038 0.612204819 0.0001428909 -0.0001193076 -0.000110526 0.0001574698 -0.1011334468 0.1052561383
400297600.0 -0.5871687519 0.6180869203 0.0002649966 0.0001357587 0.0002753229 2.07709e-05 -0.1003736494 0.1067564196
405297570.0 -0.5807290815 0.6231181577 0.0003004354 0.0001532359 0.0001906222 3.1992e-06 -0.0992808197 0.1076035212
410297540.0 -0.5738621184 0.6298283586 8.61848e-05 7.97619e-05 0.0001594205 0.0001533817 -0.0984970187 0.1087963297
415297510.0 -0.5679273188 0.6354892771 0.0002859868 0.0001323104 0.0002258844 0.000202649 -0.0976148132 0.1095431391
420297480.0 -0.5611127429 0.6411960027 0.0001548805 -0.0001251638 8.56638e-05 0.0001450196 -0.0963856381 0.1111607245
425297450.0 -0.5545573065 0.64716208 0.0002699988 5.79452e-05 7.44634e-05 -7.2238e-06 -0.0957270187 0.1114639736
430297420.0 -0.5479878916 0.6515604933 8.39036e-05 -1.27229e-05 0.0002072807 2.85355e-05 -0.0948429698 0.1130555383
435297390.0 -0.5414260823 0.6578007459 0.0002867893 0.0002560918 7.85186e-05 1.90767e-05 -0.0942577287 0.114181246
440297360.0 -0.5340864059 0.6634213385 0.0003530236 0.0001116492 1.5042e-06 -3.70833e-05 -0.0930000374 0.1149540835
445297330.0 -0.5275961494 0.6684678944 0.0002035244 -8.14949e-05 -5.54126e-05 3.47782e-05 -0.0918157949 0.1160491092
450297300.0 -0.5205797056 0.673733306 0.0002766966 0.0002054418 0.0003705683 0.0001045817 -0.0906740471 0.1168826401
455297270.0 -0.5134431301 0.6786310283 0.0002232559 -0.0001389532 0.0002770293 -9.38663e-05 -0.0899689706 0.1180924887
460297240.0 -0.5061691974 0.6846645938 0.0001074934 6.66634e-05 0.0002870019 -6.08673e-05 -0.0889407367 0.1189310145
465297210.0 -0.4992155308 0.6887873007 0.0002125206 0.0001567228 0.0002142304 9.13802e-05 -0.0879083761 0.1202704113
470297180.0 -0.4919808294 0.6943358579 0.0001347381 5.16459e-05 0.0001276494 7.93135e-05 -0.0868030898 0.1210512691
475297150.0 -0.4851986747 0.6990424122 0.0002144947 0.0001965541 0.0002685312 4.31612e-05 -0.0856660668 0.1223038843
480297120.0 -0.4769051098 0.7043989278 0.0002617676 -3.02073e-05 9.82697e-05 -0.0001605335 -0.0850364846 0.12299583
485297090.0 -0.4704830994 0.7089552777 0.0002686993 -0.000127762 8.85425e-05 0.0001972118 -0.0841033722 0.1240428451
490297060.0 -0.4622768741 0.7137792494 0.0002112913 0.0002519772 -0.0001519729 -0.0001267917 -0.0826769775 0.1246555386
495297030.0 -0.4552142089 0.7181396539 0.0002347218 5.693e-07 0.0003814424 0.0001187329 -0.0815383911 0.1257661412
500297000.0 -0.4476215765 0.7221644399 3.65271e-05 -5.74093e-05 0.0003020953 -3.72588e-05 -0.080668013 0.1268473149
505296970.0 -0.4394124949 0.727409928 0.0001881783 -5.6933e-05 -2.264e-07 -6.00248e-05 -0.0795481107 0.1279764154
510296940.0 -0.4319570979 0.7317737603 4.01359e-05 9.42306e-05 0.0002370192 -4.36909e-05 -0.0779551395 0.1289022934
515296910.0 -0.4242835891 0.736212764 0.0002973501 0.0001622708 8.28377e-05 6.04251e-05 -0.0771088173 0.1295729564
520296880.0 -0.4163832557 0.7398803674 0.0001812169 3.38913e-05 2.2687e-05 0.0001408213 -0.0756988276 0.1304216691
525296850.0 -0.4088948699 0.7441217269 0.0003275524 -2.04915e-05 0.0002654384 0.0001802674 -0.0748891308 0.1313423894
530296820.0 -0.401395032 0.7477901022 0.0001335729 -3.28459e-05 0.0004017527 -9.59801e-05 -0.0737842918 0.1319947023
535296790.0 -0.3930746678 0.7518735212 0.0001551756 -0.000107253 0.0002679452 -1.79107e-05 -0.0727395738 0.1332924164
540296760.0 -0.3846566408 0.7562142326 0.0002347934 -6.33805e-05 0.0002851046 0.0001139482 -0.0714917622 0.1338333432
545296730.0 -0.3776948264 0.7599973492 0.0003415495 6.5586e-06 0.0002912896 5.91758e-05 -0.0699025519 0.1347681132
550296700.0 -0.3693999254 0.7638209688 0.0001994101 8.04546e-05 0.0001351191 -0.0001115446 -0.0690963274 0.1355360952
555296670.0 -0.3612687869 0.7673120756 0.0002852072 8.76248e-05 0.0001494253 6.51474e-05 -0.0679248427 0.1362935043
560296640.0 -0.3538346234 0.7708189181 7.53098e-05 -0.000212708 7.74849e-05 1.4743e-06 -0.0667058074 0.1373332531
565296610.0 -0.3455516227 0.7746366536 0.0002164284 -7.8715e-06 0.0002559292 9.9539e-06 -0.0649504283 0.1383174883
570296580.0 -0.3371252002 0.7780038039 0.0004013766 -3.71104e-05 0.0002554675 0.0001589807 -0.0642592457 0.1387443162
575296550.0 -0.3286366398 0.781317569 0.0004272854 0.0001313405 0.0002196332 -0.0001232494 -0.0627292067 0.1393288047
580296520.0 -0.3214625443 0.7848429138 0.0002497859 0.0001258176 0.000129826 -0.0001062282 -0.0615808223 0.1400315425
585296490.0 -0.3124002152 0.7872826025 0.0001284972 0.0002033196 0.0001379213 0.0002215748 -0.0596934503 0.1410998532
590296460.0 -0.3039206172 0.7911015538 0.0001610167 -1.71623e-05 0.0002572548 0.0002748801 -0.0593358444 0.1421193072
595296430.0 -0.2963132279 0.7937578813 0.0005610207 1.89842e-05 0.0001799518 -0.0001517817 -0.0577723712 0.1425768935
600296400.0 -0.2882470833 0.7968833664 0.0002352329 0.0001490627 0.0002129593 -0.0002157248 -0.0566264556 0.1433058765
605296370.0 -0.2801254366 0.7995115893 0.0001645947 8.54122e-05 0.0003048242 -1.65268e-05 -0.0550603799 0.1441941919
610296340.0 -0.2711285029 0.802592809 0.0004162815 6.18887e-05 0.0001641667 5.23373e-05 -0.0541838208 0.1447955609
615296310.0 -0.2627659296 0.8059217976 0.0002078282 8.741e-06 0.0002834704 0.0002371731 -0.0523915213 0.1456820588
620296280.0 -0.2552174888 0.8080998416 0.0001106598 0.0001308845 0.0001342253 -0.0001642154 -0.0512787233 0.1461774599
625296250.0 -0.2466277462 0.8099033977 4.56694e-05 -0.000100766 0.0001078296 7.63771e-05 -0.0496994311 0.1468067843
630296220.0 -0.2390379876 0.8130885764 0.0001142332 3.44196e-05 0.0002831469 0.0001607728 -0.0484307456 0.1470823491
635296190.0 -0.2306808049 0.8154017945 0.0003432998 6.43952e-05 0.0001992886 0.0001811355 -0.0472521928 0.1483352945
640296160.0 -0.2217360949 0.818031654 0.000281703 4.22196e-05 0.0002720549 3.98096e-05 -0.0458825019 0.1487147412
645296130.0 -0.2137705848 0.820790264 8.83936e-05 -1.64435e-05 0.0002399766 0.0001419196 -0.0447558222 0.1494308656
650296100.0 -0.2053336938 0.8225034185 0.0003077951 -0.0001804628 0.0001962887 -4.78848e-05 -0.043149958 0.1503730716
655296070.0 -0.1974454444 0.8242362426 0.0001485783 0.0001561172 0.0001482282 -3.827e-07 -0.0421030334 0.1509036464
660296040.0 -0.1891977111 0.8267487288 0.0001358689 6.01497e-05 0.0001939526 0.0002252158 -0.0402901768 0.151137648
665296010.0 -0.1808604916 0.8288936421 0.0002903456 -3.65977e-05 0.0002487282 8.07535e-05 -0.0392184638 0.1517243838
670295980.0 -0.1728761076 0.8304632887 0.0001623075 -6.5952e-05 0.0004835192 4.28013e-05 -0.0378458943 0.1523924864
675295950.0 -0.1642438559 0.8323974817 0.0004290863 -0.0002479999 0.0003142987 -3.77093e-05 -0.0362297555 0.1531010048
680295920.0 -0.1563997833 0.8340516216 0.0003205161 5.63599e-05 0.0002227796 -1.72493e-05 -0.0347320731 0.1535064041
685295890.0 -0.1474898767 0.8358349923 0.0004587457 -3.50011e-05 0.0003383548 0.0001804052 -0.0333605105 0.1542779505
690295860.0 -0.1387651943 0.8374257742 0.0002967442 -5.92645e-05 0.0004300854 4.32625e-05 -0.0318814355 0.1546792313
695295830.0 -0.130438487 0.838625173 -2.10391e-05 -1.98329e-05 0.0001591772 8.96651e-05 -0.0306796505 0.1554254407
700295800.0 -0.1220811718 0.8404045027 0.0001975184 -4.00282e-05 0.0001169772 4.7578e-06 -0.0288057819 0.155871431
705295770.0 -0.1142668872 0.8416932417 0.0002115036 -4.83096e-05 2.43363e-05 -0.0001210939 -0.0277196546 0.1563031504
710295740.0 -0.1067793965 0.8421658921 0.0001411487 6.80098e-05 8.98259e-05 -4.51031e-05 -0.026063345 0.1566970528
715295710.0 -0.0974972847 0.8441096353 0.0003322741 -3.32318e-05 0.0002201418 -0.0001361323 -0.0245199042 0.1566512657
720295680.0 -0.0886922295 0.8446096681 0.0001276123 1.10832e-05 9.44472e-05 0.000182615 -0.0231927677 0.1572267272
725295650.0 -0.0809500562 0.8459405257 7.5094e-05 -5.80968e-05 0.0003675255 -5.5432e-06 -0.0216273507 0.1578828997
730295620.0 -0.0737619418 0.8471586227 0.0003498125 -0.000207971 0.0003922438 3.88436e-05 -0.0203722927 0.1585403069
735295590.0 -0.0654500623 0.8483453565 0.0002139459 9.7275e-05 0.0003171791 -0.0002555904 -0.0187318773 0.1586702057
740295560.0 -0.0567524399 0.8478642983 0.0003362552 -0.0001746369 0.0004247516 -7.03834e-05 -0.0172185999 0.1588433575
745295530.0 -0.0491932956 0.8492619552 0.000383993 2.66152e-05 0.0001457844 0.0002202432 -0.0157567014 0.1594593058
750295500.0 -0.0407718332 0.8494623553 0.0001962931 4.54185e-05 0.0004107063 0.0001134287 -0.0143996207 0.1600353573
755295470.0 -0.0323549391 0.8501159979 0.0001919035 -1.9303e-06 0.000410577 9.44181e-05 -0.0128636882 0.1603781983
760295440.0 -0.0238275922 0.8507673825 6.40418e-05 1.56359e-05 0.0001190221 6.1287e-05 -0.0110276968 0.1602598379
765295410.0 -0.0160285028 0.8510288561 0.0002312706 -0.0001003005 0.0003029964 0.0001105321 -0.0097911933 0.1606478823
770295380.0 -0.0081781551 0.8510420442 0.0002606787 -0.0002036294 0.0002642027 -0.0002677204 -0.0084185378 0.1609315743
775295350.0 -8.4962e-05 0.8512632134 0.0001792545 -0.0002916124 0.0005402604 -0.00020928 -0.0065188546 0.1608665768
780295320.0 0.0085551013 0.8511642521 7.2536e-05 -4.6502e-06 0.000421532 0.0001373776 -0.0053367662 0.1615612214
785295290.0 0.0167383388 0.8513655896 0.0001672439 -0.0002101218 0.0003017768 -9.347e-05 -0.0038613013 0.161676882
790295260.0 0.0249594262 0.8512021715 0.0002543963 -0.0001565445 0.0003839184 -0.0001177881 -0.0021064521 0.1621682685
795295230.0 0.0332989559 0.8505400311 0.000352832 -9.71118e-05 0.00027749 0.0002597354 -0.0008393098 0.1619249803
800295200.0 0.0413981027 0.8512097933 0.0004959223 7.96031e-05 0.0001133834 -0.0001292643 0.0004410788 0.1621466875
805295170.0 0.0488868104 0.8512241307 0.0003041433 -7.88797e-05 0.0004011902 3.9874e-05 0.0024985109 0.1624171534
810295140.0 0.0579726092 0.8501897068 0.0004018979 -1.91342e-05 0.0004491361 6.65623e-05 0.0038213117 0.1628474086
815295110.0 0.0655431565 0.8495560739 0.0003175912 -6.57747e-05 0.0003388529 0.0002294563 0.0052261102 0.1629247588
820295080.0 0.0734151911 0.8493974501 0.0003783277 -0.0001024339 0.0002777059 -0.0001154178 0.0065949789 0.1632052772
825295050.0 0.0819733841 0.8486374883 0.0002980485 -0.0001889965 0.0002900797 -0.0001534984 0.0087368216 0.1633656705
830295020.0 0.0907371194 0.8478544782 0.0002926988 -3.116e-05 0.0002450913 6.52296e-05 0.0099377598 0.1631332346
835294990.0 0.0982152892 0.846787387 0.000118042 -3.63478e-05 0.0003489401 2.74386e-05 0.0117265849 0.1635874644
840294960.0 0.1067568249 0.8455534416 0.0004414431 -0.0001691926 0.0003698272 -7.33358e-05 0.0131011896 0.1634739693
845294930.0 0.1146034305 0.8448014825 0.0003555068 -0.0001241779 0.0001944027 -0.0001530236 0.0147979398 0.1636132347
850294900.0 0.1243668904 0.8438405157 0.0003226976 2.22921e-05 0.0002021199 -3.36207e-05 0.016008495 0.1637863101
