!Created with skrf (http://scikit-rf.org).
# Hz S RI R 50.0 
!freq ReS11 ImS11 ReS21 ImS21 ReS12 ImS12 ReS22 ImS22
300000.0 -0.0977718795 -0.0859705422 0.6229489208 0.0810516019 0.6253264482 0.0853502772 -0.0968549934 -0.0959219076
5299970.0 -0.1001437943 0.0128623286 0.6308098538 0.0105714755 0.630574277 0.0108742921 -0.1019761271 0.0120171873
10299940.0 -0.0953199035 0.0296675461 0.6345611051 0.0156297273 0.6343592875 0.0156609183 -0.0969453386 0.0288448268
15299910.0 -0.0884234373 0.0430655531 0.6404666984 0.0207497596 0.6405277346 0.0208622436 -0.0898134085 0.0422496089
20299880.0 -0.0795029434 0.0544697676 0.6487527861 0.0242169016 0.6487092413 0.024178695 -0.0815567259 0.0532545631
25299850.0 -0.0696444294 0.0627300517 0.658178125 0.0248483616 0.6583403802 0.0254374218 -0.0722628332 0.0620877461
30299820.0 -0.059546516 0.0691871748 0.6676724224 0.0246406082 0.6676171191 0.0245942741 -0.0624332751 0.0688935214
35299790.0 -0.0496243365 0.0742256224 0.6771888887 0.0215133525 0.6774793697 0.0216879266 -0.0523232637 0.0732658377
40299760.0 -0.0394815768 0.0770334004 0.686612055 0.0175068159 0.6866935634 0.0175435352 -0.0434202913 0.077175387
45299730.0 -0.0303401042 0.0794518294 0.6957261137 0.0119485478 0.6955110211 0.0120354074 -0.0342039735 0.0791697878
50299700.0 -0.0217785634 0.0799285262 0.7032487013 0.0046924508 0.7034517816 0.0046472217 -0.0253781107 0.0799276984
55299670.0 -0.0140445838 0.0799812258 0.7105672449 -0.0032823755 0.710901408 -0.0029631393 -0.0179258899 0.0799690149
60299640.0 -0.0065304907 0.0786483076 0.717380178 -0.0119033132 0.7174112323 -0.0109698213 -0.0103366431 0.0796800981
65299610.0 -0.000335286 0.0780183856 0.7239661084 -0.0193161252 0.7234822959 -0.0198460054 -0.003691688 0.0784174606
70299580.0 0.0062017216 0.0757760622 0.7285831174 -0.0292391427 0.7282700741 -0.0295656249 0.0022878789 0.0769845891
75299550.0 0.0118202523 0.0743006324 0.7331104806 -0.0391929395 0.7328974883 -0.0392473389 0.0082890021 0.0757233073
80299520.0 0.0162307655 0.0723267311 0.7373222332 -0.0492047971 0.7378135224 -0.0491607604 0.0132487586 0.0731031925
85299490.0 0.0207167376 0.0696469408 0.7406986298 -0.0584561239 0.74043112 -0.0590257654 0.0174464094 0.0710966421
90299460.0 0.0245502776 0.0671684901 0.7432818505 -0.0687366267 0.7437792868 -0.0690507201 0.0220440367 0.0688573985
95299430.0 0.0282253396 0.0650477979 0.7460450858 -0.0791517289 0.7456537361 -0.0793489755 0.0255676352 0.0661725493
100299400.0 0.0315837657 0.0626032493 0.7472393004 -0.0891200034 0.7475401904 -0.0893014167 0.0282955361 0.0641334054
105299370.0 0.0346995535 0.0599207963 0.7487191003 -0.0989420054 0.7489645053 -0.0991651548 0.0320243573 0.0618820754
110299340.0 0.0370588201 0.0575538711 0.7500610467 -0.1092183309 0.7498425142 -0.1096504842 0.0347648494 0.0591216889
115299310.0 0.0394264782 0.0547763611 0.7508231211 -0.1191684046 0.7512457381 -0.1192276021 0.0369629504 0.0563909852
120299280.0 0.0413749919 0.0525404057 0.7513909686 -0.1293387938 0.7511831801 -0.1295744188 0.038923648 0.0542434853
125299250.0 0.0433878025 0.0503766299 0.7520447162 -0.1392977049 0.7520221865 -0.139492175 0.0413153309 0.0514980188
130299220.0 0.0451757776 0.0481403362 0.7516607458 -0.1490225859 0.7518881177 -0.1495281601 0.0431663496 0.0497392926
135299190.0 0.0468059085 0.0455121451 0.7512224338 -0.1590508316 0.7511478116 -0.1587115746 0.044779366 0.0474446712
140299160.0 0.0477086327 0.0441573217 0.7503867175 -0.1689968836 0.7507208185 -0.1690438729 0.0461403063 0.0452368719
145299130.0 0.0492450627 0.0418353092 0.7502535084 -0.1789515448 0.7497258052 -0.1783915731 0.0471104411 0.0426633101
150299100.0 0.0508055271 0.0399298333 0.748851117 -0.1884076884 0.7493418039 -0.1883708702 0.048671778 0.0407811724
155299070.0 0.0514430114 0.0382463752 0.7476351228 -0.1979716915 0.7476865252 -0.1980193355 0.0493665857 0.0387274803
160299040.0 0.0524979851 0.0358154888 0.7457839463 -0.2072097239 0.7462549174 -0.2071158487 0.050582165 0.0371829739
165299010.0 0.0531404466 0.0342505927 0.7451859489 -0.2168415918 0.744788312 -0.2166648506 0.0514956703 0.0349089507
170298980.0 0.0533500638 0.0324032146 0.7421855963 -0.226216446 0.7425768582 -0.2261377388 0.0526006351 0.0326503794
175298950.0 0.0543842211 0.0304439167 0.741345136 -0.2350000901 0.7414998175 -0.235364851 0.0529230753 0.0308291249
180298920.0 0.0553008134 0.0290782042 0.7388087736 -0.2448863974 0.7386753134 -0.2441672695 0.0536114946 0.0299243448
185298890.0 0.0560559985 0.0272137668 0.7368080576 -0.2537808817 0.7368968065 -0.2537261134 0.0540502745 0.0275617605
190298860.0 0.0562316309 0.0257326746 0.7340698898 -0.2634606014 0.7345767826 -0.2630620583 0.0552448428 0.0261695788
195298830.0 0.0563118974 0.0238187248 0.7317242052 -0.2715085858 0.7317729107 -0.2726493048 0.0558798254 0.0237795294
200298800.0 0.0570222844 0.0226210276 0.7295250078 -0.2803090519 0.7288146787 -0.2800677843 0.0560495219 0.0231578873
205298770.0 0.0571951844 0.0215346891 0.7268514732 -0.2897035973 0.7265232242 -0.2899355864 0.0564150106 0.0206353379
210298740.0 0.0568374753 0.0198071325 0.7234686407 -0.2984084622 0.7233916833 -0.2988841341 0.0565220097 0.0201923116
215298710.0 0.0577891784 0.0185084733 0.7206925445 -0.3072817291 0.7208128299 -0.3068782333 0.0566658099 0.0182701628
220298680.0 0.0583592048 0.0174035951 0.7171938778 -0.3160873573 0.7174937145 -0.3158913916 0.0574916869 0.0171714729
225298650.0 0.0584010354 0.0161930821 0.7137032509 -0.3239465251 0.7140238243 -0.3242509869 0.057568987 0.0156510792
230298620.0 0.058120299 0.0148923658 0.7111168681 -0.3329973229 0.7112186483 -0.3331501223 0.0575537532 0.014070621
235298590.0 0.0585576467 0.0133315848 0.7072437898 -0.3409028805 0.7075163923 -0.3417119895 0.0579311976 0.0124660437
240298560.0 0.0582422671 0.0120015793 0.703426816 -0.3492803666 0.7037564286 -0.3490625461 0.0581394351 0.0115940624
245298530.0 0.0589627663 0.0112182844 0.6990812525 -0.3578894242 0.6995671573 -0.3579583309 0.0582119527 0.0106799625
250298500.0 0.0583686154 0.0098167616 0.6960986405 -0.3657569335 0.6962999585 -0.3657578904 0.0588553455 0.0086408765
255298470.0 0.0582600735 0.0088876395 0.6916013771 -0.3746456643 0.6923351346 -0.3744008316 0.0589056555 0.0072588981
260298440.0 0.0582425217 0.0075632659 0.6879976541 -0.3820495617 0.6884690569 -0.3826949593 0.0593362077 0.006592971
265298410.0 0.0590559086 0.0070274883 0.6841923574 -0.3912567089 0.6838612045 -0.3906535423 0.0586549518 0.0052107892
270298380.0 0.0592262646 0.0054020303 0.6797290939 -0.3984718441 0.6797542722 -0.3981326777 0.0589093271 0.0050832409
275298350.0 0.0584008889 0.0046479815 0.6753428351 -0.4065833693 0.6757293944 -0.406684197 0.0589350376 0.0035258719
280298320.0 0.058688513 0.0038781524 0.6709769526 -0.4135404332 0.6706122229 -0.4143116312 0.0593346651 0.0027175445
285298290.0 0.0586086688 0.0030889081 0.6660824699 -0.4212450906 0.6665795559 -0.421701859 0.0586846082 0.0015722044
290298260.0 0.0586201513 0.0016695076 0.6624616657 -0.4298251634 0.6624928512 -0.4295684991 0.0596391569 0.0007272803
295298230.0 0.0584935389 0.0007068225 0.6580679701 -0.4373669795 0.6574557314 -0.4377025025 0.0596761321 -0.0005238924
300298200.0 0.0592038655 -5.01631e-05 0.6531062083 -0.4448140202 0.6528522686 -0.44556518 0.059390266 -0.0016025192
305298170.0 0.0588462583 -0.0016430622 0.6484118769 -0.4528290077 0.6488779474 -0.4534155512 0.059957642 -0.0023298901
310298140.0 0.0593916493 -0.0024197954 0.643473681 -0.4603610454 0.6434698315 -0.4608025699 0.0594589463 -0.0029430449
315298110.0 0.0586952368 -0.0036304757 0.6380716956 -0.4679643058 0.6385724721 -0.4686219677 0.0599416364 -0.0047765716
320298080.0 0.0586098545 -0.004559522 0.6326099921 -0.475936164 0.6333664213 -0.4756183025 0.0595170814 -0.0057636725
325298050.0 0.058209036 -0.006058035 0.6285628216 -0.4834745392 0.628292325 -0.4834581318 0.0591163262 -0.006879038
330298020.0 0.0579232516 -0.0065960201 0.6214023397 -0.4906627051 0.6220515931 -0.4911738271 0.0586936597 -0.0082206486
335297990.0 0.0574258796 -0.0078205895 0.6165412556 -0.497905414 0.6163500486 -0.4980131509 0.0582443717 -0.0088273985
340297960.0 0.0567768898 -0.0082656804 0.6103590687 -0.5048859956 0.6102253649 -0.5048457805 0.0575097104 -0.0096330936
345297930.0 0.0561472965 -0.0087832648 0.6047237193 -0.5108316205 0.6043799661 -0.5112400628 0.0576291905 -0.0109242991
350297900.0 0.0564030794 -0.0093806118 0.5986719946 -0.5173607269 0.5989275509 -0.5181819653 0.0566184898 -0.0106449199
355297870.0 0.0559690432 -0.0103675755 0.593204807 -0.5245112454 0.5931002094 -0.5247901342 0.0562483592 -0.0113434062
360297840.0 0.0561233134 -0.0109804393 0.5873611034 -0.5318875096 0.5874357603 -0.5316110359 0.0564408177 -0.0119182355
365297810.0 0.0557613841 -0.0115495943 0.5810082025 -0.5377269374 0.5815295891 -0.5379628106 0.0560347412 -0.0124460841
370297780.0 0.0558258252 -0.0125928586 0.5754211216 -0.5446961665 0.5754759853 -0.5449106167 0.0559243369 -0.0128803105
375297750.0 0.0551300838 -0.012475717 0.5701161605 -0.550821848 0.5697376073 -0.5511081532 0.0554607125 -0.0137700087
380297720.0 0.0548149492 -0.013641645 0.5636907185 -0.5567654117 0.5631236106 -0.5570249369 0.0552935584 -0.0142918635
385297690.0 0.0547856745 -0.0140493707 0.5570080593 -0.5624856838 0.5570649129 -0.5634828054 0.0549629375 -0.014726271
390297660.0 0.0541164025 -0.0147395824 0.5507312399 -0.5697806042 0.5511522995 -0.5703437158 0.0551413076 -0.0156632884
395297630.0 0.0544382959 -0.0156424272 0.5449224414 -0.5755840854 0.5445853726 -0.5754844934 0.0543707303 -0.0157243361
400297600.0 0.0536909801 -0.0157528704 0.5382658605 -0.5819319611 0.5385919109 -0.5819903981 0.0533948644 -0.017116525
405297570.0 0.0540004374 -0.016525019 0.5323058938 -0.5879737421 0.5319559112 -0.5882382381 0.0536381836 -0.01679519
410297540.0 0.0537767035 -0.0176515198 0.5247199778 -0.5933804444 0.5250558804 -0.5938458836 0.053134811 -0.017949926
415297510.0 0.0533380167 -0.0172205822 0.518816952 -0.5993420488 0.5193184818 -0.5995968098 0.0528073445 -0.0179407449
420297480.0 0.0530677668 -0.0189300476 0.5121971976 -0.6059534983 0.5125892705 -0.6055264166 0.0526629117 -0.0193162371
425297450.0 0.0531312987 -0.0196600123 0.5057235592 -0.6110258458 0.5060991323 -0.610872723 0.0521905131 -0.0189793532
430297420.0 0.0524968372 -0.0197588379 0.4984876914 -0.6174490891 0.4989114019 -0.6168718527 0.0516243888 -0.0201181114
435297390.0 0.0523612721 -0.0206807437 0.4925352804 -0.6222875523 0.4921560419 -0.6217133194 0.0510507033 -0.0201738561
440297360.0 0.0518372639 -0.0215297817 0.484652168 -0.627588871 0.4846200989 -0.6276309618 0.0510594103 -0.0215930307
445297330.0 0.0520948801 -0.0222054643 0.4777623818 -0.6334725509 0.4781609326 -0.633077741 0.0504597533 -0.0218815105
450297300.0 0.0518528682 -0.0226503062 0.4711058805 -0.6381234707 0.4713509607 -0.638727121 0.0499565093 -0.0219806103
455297270.0 0.0511417494 -0.0232817314 0.4646532972 -0.643480044 0.4649792698 -0.643795508 0.0501342123 -0.0225893273
460297240.0 0.0505433281 -0.0240985067 0.4571336018 -0.6483957236 0.4567455772 -0.6487732931 0.0495854776 -0.0227733717
465297210.0 0.0504549403 -0.0248093183 0.4500088169 -0.6535205715 0.4503295139 -0.6542082159 0.0485663114 -0.0238017329
470297180.0 0.0497848305 -0.0252536223 0.4427413716 -0.6586492523 0.4432844197 -0.6590829862 0.0481113984 -0.024261172
475297150.0 0.0494126625 -0.0264668101 0.435215514 -0.6631506384 0.4356547106 -0.6633713057 0.0482113738 -0.024562004
480297120.0 0.0497278338 -0.0269080464 0.4284084337 -0.6679655606 0.4284861814 -0.6681826588 0.0475122227 -0.024484721
485297090.0 0.0492025776 -0.0274052507 0.4211300687 -0.6728902731 0.4214706934 -0.6735118994 0.0469794333 -0.0259313742
490297060.0 0.048896292 -0.0281989103 0.4141015512 -0.677510003 0.4139090131 -0.6778576926 0.0468174499 -0.025590427
495297030.0 0.0478729972 -0.0285184299 0.4058652583 -0.682386926 0.4063103665 -0.6823236894 0.0465285927 -0.0264257118
500297000.0 0.0481285597 -0.0290437559 0.398540191 -0.68663214 0.3984545919 -0.6865984252 0.0453246401 -0.0267733529
505296970.0 0.0470467061 -0.0299649277 0.3910980938 -0.6910147011 0.3906400303 -0.6906960119 0.0447152438 -0.0272489211
510296940.0 0.0467799947 -0.0300372028 0.3832008703 -0.6957358183 0.383599542 -0.6953994699 0.044940202 -0.0272466363
515296910.0 0.0462674971 -0.0304997646 0.3753252701 -0.6993536302 0.3753194408 -0.6995616212 0.0440342421 -0.0282931029
520296880.0 0.0460645225 -0.0315090488 0.367581402 -0.7039279483 0.3680577905 -0.7034752894 0.044218552 -0.0284756378
525296850.0 0.0453180683 -0.0323545084 0.3602104376 -0.7075763659 0.3605142525 -0.7077238599 0.0436390761 -0.0290206529
530296820.0 0.0451005543 -0.032514883 0.3532806215 -0.7104784498 0.3526021896 -0.7113632075 0.0428334741 -0.029686181
535296790.0 0.0442584934 -0.0329557865 0.3449768746 -0.7152018398 0.3451110776 -0.7151594699 0.0424247986 -0.0300336359
540296760.0 0.0439314697 -0.0336646903 0.3369320338 -0.7196423427 0.3359559892 -0.7191953661 0.0414256684 -0.0299882369
545296730.0 0.0435712292 -0.0333924185 0.329080735 -0.7221578502 0.3288604856 -0.7229335529 0.0412846235 -0.0309250704
550296700.0 0.0425583797 -0.0346262311 0.3211419571 -0.7267015349 0.3213495462 -0.7268152224 0.0406651715 -0.0303201746
555296670.0 0.0427103299 -0.0352687407 0.3131933906 -0.7302002684 0.3129740851 -0.7298511489 0.0400431266 -0.03116118
560296640.0 0.0418166521 -0.0354857343 0.3054774313 -0.7332585915 0.3054633327 -0.7327990311 0.0397118741 -0.0317273403
565296610.0 0.0406900373 -0.0362085286 0.297421862 -0.7366406334 0.2968818756 -0.7365077861 0.0386631477 -0.0323738209
570296580.0 0.0409858424 -0.0367649818 0.2889185403 -0.7395480621 0.2894452785 -0.7397709264 0.0387315341 -0.0317284419
575296550.0 0.040148311 -0.0363893389 0.2808294647 -0.742237965 0.2814997194 -0.7426228761 0.0384647824 -0.0325751817
580296520.0 0.0396224965 -0.0373747427 0.2731578065 -0.745715367 0.2724575195 -0.745635625 0.0372967865 -0.0333762585
585296490.0 0.0393776 -0.0379899821 0.2651334718 -0.7489492682 0.2642987735 -0.7487757529 0.0368182343 -0.034152452
590296460.0 0.0379305009 -0.0384488405 0.2567228771 -0.7517214058 0.2564006701 -0.7519696937 0.0365488991 -0.0332689056
595296430.0 0.0375836127 -0.0386817359 0.2485237528 -0.7545681151 0.2479506626 -0.7547945303 0.0361933969 -0.0343453044
600296400.0 0.036862428 -0.0386189435 0.2398967765 -0.7570032808 0.2405624661 -0.7572051086 0.0356728274 -0.0342582195
605296370.0 0.0367060697 -0.0385636584 0.2320294879 -0.7600365421 0.2319036594 -0.7596234401 0.0351608238 -0.0349916674
610296340.0 0.0358915941 -0.0394041268 0.224061507 -0.7621047049 0.2236701392 -0.7623918997 0.0343029388 -0.03454093
615296310.0 0.0353023806 -0.039232497 0.2150989178 -0.7639951591 0.2152259952 -0.7644264745 0.0342308075 -0.0353148647
620296280.0 0.0344512814 -0.0400038702 0.2070494174 -0.7667609663 0.2069770241 -0.7669896242 0.0335393824 -0.0358778299
625296250.0 0.034650234 -0.0405425405 0.197988961 -0.7693726292 0.1981919965 -0.7694436288 0.0330251323 -0.0355934934
630296220.0 0.0336530951 -0.0405037228 0.1898865231 -0.7715360345 0.1903664269 -0.7712958678 0.0317018384 -0.0359051709
635296190.0 0.0331539655 -0.0409162721 0.1822304827 -0.7730186317 0.1814621387 -0.7723905121 0.0313688926 -0.0366920825
640296160.0 0.0321691553 -0.0410106117 0.1736394158 -0.7750293807 0.1728841924 -0.7749222577 0.0313770139 -0.0364885072
645296130.0 0.0319215923 -0.0412326947 0.1649137704 -0.7775565324 0.1647865451 -0.7767400418 0.0296340072 -0.037415554
650296100.0 0.0309397736 -0.0411615654 0.1568229384 -0.7787179283 0.1566192611 -0.7784443255 0.0297256861 -0.0373418207
655296070.0 0.0302906676 -0.0421463219 0.1477214145 -0.7799077901 0.1473846386 -0.7800737683 0.0300118179 -0.0370806796
660296040.0 0.0290362106 -0.0416419643 0.1393936258 -0.7816391414 0.1397951932 -0.7813512677 0.0284337927 -0.0377753902
665296010.0 0.0293330956 -0.0423481528 0.1311349197 -0.7835083696 0.1310374468 -0.7832977392 0.0276909482 -0.0373630479
670295980.0 0.0291303399 -0.0421800411 0.1223536446 -0.7849839781 0.1223583052 -0.7842836887 0.0272936399 -0.0381861559
675295950.0 0.0283745419 -0.0426233118 0.113620789 -0.7854146726 0.113988993 -0.7865470171 0.0270845642 -0.0376916364
680295920.0 0.0275034738 -0.0424593781 0.1053986989 -0.7869118233 0.1048598117 -0.7873669889 0.0266297769 -0.0384684981
685295890.0 0.0270356362 -0.0428044509 0.0968777292 -0.7880440348 0.0962728773 -0.7882852306 0.0255810074 -0.0382551259
690295860.0 0.0265630582 -0.0432146469 0.0882905878 -0.7886536691 0.0875296874 -0.7887324468 0.0254374406 -0.038196826
695295830.0 0.0261220194 -0.0434165353 0.0789875083 -0.7897305618 0.0785344036 -0.789883676 0.0240817053 -0.0384099463
700295800.0 0.0257978967 -0.0434521797 0.071284775 -0.7909618225 0.0708514287 -0.7911770333 0.0236286336 -0.0391771027
705295770.0 0.0245623881 -0.0435860424 0.0619105537 -0.7913478118 0.0617542533 -0.791494111 0.0228649924 -0.0389644967
710295740.0 0.0241711793 -0.0431880659 0.0534474411 -0.7920599051 0.0532186187 -0.7918939491 0.0214554513 -0.039255232
715295710.0 0.0234560644 -0.0438720387 0.0447538512 -0.7923948217 0.0449926054 -0.7932062713 0.0218343153 -0.0399163916
720295680.0 0.0226815256 -0.0440277667 0.0359910153 -0.792298555 0.0359181034 -0.7934102195 0.0215163869 -0.0392875909
725295650.0 0.0225237135 -0.0440361143 0.0271863607 -0.7931505824 0.0270157258 -0.7935394346 0.0207653265 -0.0391065975
730295620.0 0.0212322218 -0.044406551 0.0187404945 -0.7936363707 0.0187727035 -0.7936518334 0.0202575191 -0.0405260771
735295590.0 0.0212220475 -0.0441193924 0.0108256277 -0.7938535108 0.0104254073 -0.7939363886 0.0195023272 -0.0396764925
740295560.0 0.0201691319 -0.0441300988 0.0012794358 -0.7926566462 0.0015659708 -0.7939490238 0.01929498 -0.0402504987
745295530.0 0.0197167277 -0.0447661581 -0.0067950388 -0.794130857 -0.0068936405 -0.7941040172 0.0181166096 -0.0399044126
750295500.0 0.0192589977 -0.0446343795 -0.0154251004 -0.7936721692 -0.0156093614 -0.793262831 0.0179574856 -0.0402845764
755295470.0 0.0192896903 -0.0442983091 -0.0237967765 -0.7934762609 -0.0245053346 -0.7938986751 0.0167948645 -0.040269733
760295440.0 0.0177642881 -0.044723628 -0.0330323686 -0.7927700428 -0.0330611569 -0.7931726125 0.0158700615 -0.0405562914
765295410.0 0.0170393909 -0.0450194217 -0.0403195383 -0.7925470404 -0.0412895205 -0.7926668907 0.0166069004 -0.0399596348
770295380.0 0.0168273656 -0.0449089986 -0.0498992521 -0.7918689874 -0.0496188422 -0.7923076423 0.0157478147 -0.0400444569
775295350.0 0.0160331999 -0.0446287904 -0.0585027128 -0.7912501791 -0.058329175 -0.7920047308 0.0146269137 -0.0411457629
780295320.0 0.0157179769 -0.0447974202 -0.0666205245 -0.791158693 -0.0669285342 -0.7908373937 0.0140792644 -0.0400021585
785295290.0 0.0146135096 -0.0445410366 -0.0753778633 -0.7892644526 -0.075565167 -0.7899475766 0.0130037815 -0.0402841588
790295260.0 0.0137651605 -0.0446012027 -0.0841073093 -0.7894963181 -0.0839193174 -0.7899260999 0.0133836779 -0.0402648642
795295230.0 0.0134031817 -0.044787885 -0.0922858002 -0.7876527618 -0.0925721576 -0.7879529852 0.0126358128 -0.0396781807
800295200.0 0.0130127056 -0.0445753553 -0.1020120517 -0.7877597891 -0.1018608117 -0.7873169873 0.0118950358 -0.0400177224
805295170.0 0.0118240853 -0.0448143971 -0.1097721537 -0.7851428776 -0.109949114 -0.785983045 0.0108869517 -0.0405868406
810295140.0 0.0115137797 -0.0445843909 -0.118455734 -0.7845274478 -0.1182808581 -0.7852422581 0.010554134 -0.0396376375
815295110.0 0.0107945212 -0.044314263 -0.1273721449 -0.7830207423 -0.1276786 -0.7832611411 0.0096053834 -0.0407203004
820295080.0 0.0102114172 -0.0449584806 -0.1353595094 -0.7819362049 -0.1352234198 -0.782003831 0.0089677151 -0.0400137876
825295050.0 0.0097503766 -0.0448826879 -0.1443190112 -0.7799903766 -0.1443232161 -0.7803839771 0.0089692073 -0.0396787589
830295020.0 0.0087855639 -0.0441315881 -0.1523886075 -0.7783014831 -0.1531432927 -0.7789801576 0.0081219838 -0.0402729917
