!Created with skrf (http://scikit-rf.org).
# Hz S RI R 50.0 
!freq ReS11 ImS11 ReS21 ImS21 ReS12 ImS12 ReS22 ImS22
300000.0 -0.7731964426 -0.1488294372 -0.0023045134 0.0002596755 0.0015108585 0.0002545164 -0.2105932941 -0.0927555852
5299970.0 -0.7854661193 -0.0074661368 6.08543e-05 8.99692e-05 0.0001509772 3.70238e-05 -0.2166264759 0.006685315
10299940.0 -0.7874732283 -0.0041528186 0.000204522 -4.43155e-05 1.23281e-05 6.69306e-05 -0.2131954739 0.0187292573
15299910.0 -0.792991236 -0.0017467485 -5.6755e-06 -8.2777e-05 0.0002586844 0.0001412106 -0.2085344938 0.0278287211
20299880.0 -0.7991850038 0.0023604246 7.13938e-05 -2.13777e-05 -8.79764e-05 8.08906e-05 -0.2034281499 0.0356397862
25299850.0 -0.8061511739 0.0085231262 -6.8368e-06 0.0001894126 3.09694e-05 0.0001721948 -0.1979639679 0.0417476742
30299820.0 -0.8117447196 0.0162013651 9.94981e-05 -0.0002398401 0.000174838 -0.0001298821 -0.1919705227 0.0462815341
35299790.0 -0.8170250882 0.0255152346 0.0001043225 -5.89436e-05 0.0001489669 -0.0002156379 -0.186213752 0.0502310356
40299760.0 -0.8213293518 0.0340071745 9.79249e-05 -2.84378e-05 -0.0001208272 0.0001663891 -0.1803988369 0.0527754896
45299730.0 -0.8246953964 0.04395065 -2.8642e-05 -2.20215e-05 3.41054e-05 8.18192e-05 -0.1760612933 0.055224355
50299700.0 -0.8270885725 0.0543102454 -3.56027e-05 8.88179e-05 4.11291e-05 -0.0001899811 -0.170519651 0.0566633755
55299670.0 -0.8288193619 0.0645436691 -5.30133e-05 -0.0001255385 -4.97208e-05 0.0001265344 -0.166861305 0.0576371088
60299640.0 -0.8294540982 0.0743670305 0.0001535068 3.38683e-05 0.0002641387 3.90716e-05 -0.1625864664 0.0585416446
65299610.0 -0.8309650929 0.0849660677 -0.0001224929 -4.36966e-05 0.0001918819 5.6937e-05 -0.1585953195 0.0590668337
70299580.0 -0.8315421196 0.0947775634 4.34517e-05 0.000193748 -7.64864e-05 -7.49324e-05 -0.1553338877 0.0591281808
75299550.0 -0.8312166524 0.1046423529 -0.0001721972 0.0001113408 -2.7435e-06 -1.33585e-05 -0.1524789526 0.0594291102
80299520.0 -0.831347255 0.1143666898 -4.4744e-05 8.82236e-05 3.73971e-05 8.79965e-05 -0.1502655034 0.0591710983
85299490.0 -0.8308223156 0.1242971521 8.4593e-05 0.0001810274 4.28849e-05 0.0001097645 -0.1476168046 0.059212166
90299460.0 -0.8296137046 0.1337148909 -0.0001079481 -9.94969e-05 -7.42325e-05 -0.0001695756 -0.1454878704 0.0595383285
95299430.0 -0.8284279234 0.1434305091 5.19082e-05 0.000114738 0.0002256233 -5.88951e-05 -0.1434109842 0.059464253
100299400.0 -0.8279989208 0.1530346877 -0.0001226575 0.0002043984 6.11495e-05 8.13773e-05 -0.1418886373 0.0593889392
105299370.0 -0.8266548347 0.1617374738 7.13377e-05 0.0003067065 0.0002439406 9.61e-06 -0.1397065801 0.0592032821
110299340.0 -0.824943196 0.1711580987 0.0001254532 7.12358e-05 3.66574e-05 0.000110165 -0.1390247136 0.059352515
115299310.0 -0.823826681 0.1803222316 8.98e-07 0.0002276101 -3.35478e-05 1.30179e-05 -0.137511727 0.0592976876
120299280.0 -0.8218950257 0.1890495626 -4.62216e-05 0.0002205911 0.0001957663 5.94934e-05 -0.1360906361 0.0595760603
125299250.0 -0.8204795709 0.1986640413 0.00012541 -1.84721e-05 -0.0001710413 0.000232597 -0.1346929964 0.0594564309
130299220.0 -0.8182924262 0.2073784078 -9.4873e-06 -8.43498e-05 2.48365e-05 1.44966e-05 -0.1343163296 0.0596801839
135299190.0 -0.8168173363 0.2162510103 1.93783e-05 3.22666e-05 0.0001329769 0.0001300907 -0.133503549 0.0596119921
140299160.0 -0.8150680752 0.2249940452 -5.32582e-05 4.53628e-05 0.000267663 -8.5071e-05 -0.1322852701 0.0597337035
145299130.0 -0.8123006229 0.2340815601 2.7502e-06 6.54158e-05 -1.8599e-05 0.0001278227 -0.1318386682 0.0602317268
150299100.0 -0.8100433648 0.2432473343 -2.98159e-05 -7.9982e-06 0.0002154165 2.57619e-05 -0.1310469495 0.0601721421
155299070.0 -0.8073551624 0.2520087276 0.0001456815 2.26983e-05 5.62237e-05 1.84511e-05 -0.1302760424 0.0611886691
160299040.0 -0.8046917917 0.2612833987 -0.0001485757 8.87206e-05 1.75184e-05 0.0001390452 -0.1294319197 0.0615490415
165299010.0 -0.8022721259 0.2689322477 9.5888e-06 6.1395e-05 0.0002711602 0.000111665 -0.1289749378 0.0617032089
170298980.0 -0.7993270988 0.2779317641 0.0001964857 6.94009e-05 5.58444e-05 -5.16524e-05 -0.1284855048 0.0622249421
175298950.0 -0.7962769565 0.287151816 -4.09181e-05 -7.81943e-05 4.88488e-05 1.78022e-05 -0.1280410196 0.062773879
180298920.0 -0.7939064177 0.2950904421 7.24821e-05 9.85588e-05 -5.0565e-05 0.0001556784 -0.1269371745 0.063257276
185298890.0 -0.7904010886 0.3039159001 -4.44938e-05 3.67461e-05 0.0001079816 0.000140029 -0.1270602244 0.0635640268
190298860.0 -0.7878191552 0.3119031354 0.0001466046 0.0002959537 0.0001732384 0.0001200469 -0.1260482966 0.0645272058
195298830.0 -0.7842048674 0.3205833154 5.57258e-05 -0.0001123293 -4.66723e-05 0.000131684 -0.1260137707 0.0651199682
200298800.0 -0.78070347 0.3292335092 3.20668e-05 -6.1281e-05 4.59625e-05 0.000155879 -0.124608216 0.0659305846
205298770.0 -0.7772155307 0.3373281401 0.0002210399 3.887e-06 0.0001862895 0.0001647612 -0.1247559412 0.0665565203
210298740.0 -0.7738316338 0.3457433323 -9.7875e-05 0.0001613279 6.1779e-06 -1.78307e-05 -0.1240841903 0.0673303401
215298710.0 -0.7702519563 0.3541174266 -5.71042e-05 5.73075e-05 -7.71146e-05 -1.30107e-05 -0.1240659511 0.068135269
220298680.0 -0.7671058802 0.3617042054 -4.067e-06 9.55911e-05 -0.0001022045 -9.6171e-06 -0.1229992424 0.0688828877
225298650.0 -0.7629357207 0.3709886834 0.0001598167 -0.0001139929 0.0001117933 6.5901e-06 -0.1231884751 0.0700717536
230298620.0 -0.7588849981 0.3792044992 8.19308e-05 -4.21596e-05 5.95677e-05 0.0002780403 -0.1222083124 0.0706191076
235298590.0 -0.7546175499 0.3875437719 4.38385e-05 0.0002027338 -5.61532e-05 3.90875e-05 -0.121832116 0.0711819106
240298560.0 -0.7506481838 0.395197473 -1.76141e-05 2.91315e-05 -2.94351e-05 -0.000121114 -0.1213983642 0.0724224315
245298530.0 -0.7458593733 0.4032519963 1.01257e-05 9.69306e-05 3.26466e-05 0.0002718705 -0.1208973684 0.0733113449
250298500.0 -0.7427824701 0.4105782691 0.0001932111 0.0001042383 4.89047e-05 3.37594e-05 -0.1201074978 0.0742292408
255298470.0 -0.7373691188 0.418819408 9.2812e-06 9.93938e-05 6.21945e-05 0.0001510018 -0.1195809206 0.0753036279
260298440.0 -0.7336741275 0.4258833755 0.0002410705 2.68261e-05 7.3299e-06 0.0002054677 -0.118924365 0.0759189358
265298410.0 -0.7291367061 0.4341971273 1.99067e-05 -6.67008e-05 0.0001447706 -8.4472e-06 -0.1186771708 0.0769097911
270298380.0 -0.7245611137 0.4416003464 -3.57643e-05 0.0001257757 0.0001262377 3.84314e-05 -0.1178988923 0.0775676599
275298350.0 -0.7193762116 0.4492389142 0.0002631212 -8.066e-07 0.0003153311 8.73143e-05 -0.1171712771 0.0789809252
280298320.0 -0.7149907407 0.4564511692 0.0001559812 0.0001087062 0.000226121 -8.08164e-05 -0.1168095808 0.0799173312
285298290.0 -0.7101963733 0.4645506762 0.0001693885 0.0003132087 1.07614e-05 0.0002665683 -0.1164340507 0.0810434418
290298260.0 -0.7053070305 0.471726556 0.0002340454 0.0002823073 0.0001322243 0.0003040893 -0.1154477047 0.0823947873
295298230.0 -0.7005403823 0.4795137012 0.0001171674 0.0001688611 -0.0001876203 0.0002230288 -0.1147631663 0.0830672353
300298200.0 -0.6950157745 0.4864786607 -4.42076e-05 0.0002246703 0.0001757498 -0.0001067986 -0.1141697563 0.0846039831
305298170.0 -0.6904952702 0.4944445176 0.0002556567 -1.42086e-05 0.0001167306 6.15481e-05 -0.1132800971 0.085317521
310298140.0 -0.6844382946 0.500268248 6.6126e-06 1.18322e-05 0.0001022023 -4.37897e-05 -0.1127350392 0.0865301721
315298110.0 -0.6793314802 0.5080030299 6.32516e-05 0.0001099558 0.0001883834 0.0002091048 -0.111684047 0.0874697731
320298080.0 -0.6747521443 0.5157143941 -0.0002357132 -4.20967e-05 0.0002841022 0.0001071528 -0.1112953308 0.0882701764
325298050.0 -0.6684399128 0.522028943 5.44781e-05 9.08101e-05 0.0001622683 0.0001607186 -0.1105473343 0.0892510239
330298020.0 -0.6631737126 0.5292576536 -0.0001018703 -2.98059e-05 0.0001279669 0.0001790906 -0.1099045471 0.0902279101
335297990.0 -0.6569384454 0.5359629514 8.34243e-05 4.80585e-05 6.56314e-05 7.52844e-05 -0.1093457849 0.091254106
340297960.0 -0.6527131568 0.5425892525 -0.0002081133 -8.2688e-06 3.67331e-05 2.12477e-05 -0.1087784003 0.0924110484
345297930.0 -0.6459757626 0.5490679726 -2.21658e-05 5.01268e-05 6.56082e-05 0.0001111431 -0.1079610036 0.0936578163
350297900.0 -0.6405627406 0.5562507949 -0.0001247118 0.0001631037 -8.69994e-05 0.0002834743 -0.1071453342 0.0947886985
355297870.0 -0.6343491554 0.5621505173 -2.91066e-05 3.15861e-05 0.0001069477 6.9983e-05 -0.1065873997 0.0958443849
360297840.0 -0.6284331447 0.5685605972 0.0002467986 0.0001374475 0.0001780402 0.0002102924 -0.1058481289 0.0972939661
365297810.0 -0.622385485 0.5754349412 0.0002119429 0.0001833486 6.66856e-05 0.0001132588 -0.105010776 0.0984841651
370297780.0 -0.615810213 0.5815548661 0.0001959882 -1.03395e-05 -0.0001180289 6.38284e-05 -0.104471992 0.0993528656
375297750.0 -0.6102471687 0.587998507 9.46281e-05 0.0001063812 0.000138689 -0.0001322094 -0.1035316826 0.1004927685
380297720.0 -0.6040577086 0.5942964201 0.0002753706 -3.53236e-05 6.38305e-05 -2.9642e-05 -0.1025037811 0.1022603083
385297690.0 -0.5980279031 0.6010726833 0.0002647426 7.03294e-05 6.60681e-05 0.0001731119 -0.1019313757 0.1036863815
390297660.0 -0.5915439343 0.6064274359 7.21654e-05 4.45145e-05 -3.66569e-05 0.0002430856 -0.1011597304 0.1042358561
395297630.0 -0.585225255 0.6133786173 0.0003847049 0.0001277921 -8.06194e-05 -2.70606e-05 -0.1004595737 0.10538851
400297600.0 -0.5792289882 0.6194191832 0.0002397597 -1.21298e-05 -3.50101e-05 0.0001190635 -0.0994558888 0.1064419922
405297570.0 -0.5725116758 0.6252251336 0.0001903051 5.3104e-05 8.38578e-05 2.17723e-05 -0.098454182 0.1078589622
410297540.0 -0.565650208 0.6306779052 0.0001094495 -0.0001846183 0.0003925381 -1.43425e-05 -0.0977827985 0.1089399523
415297510.0 -0.5592689629 0.6362212796 2.48189e-05 0.0001102849 0.0001277198 5.03188e-05 -0.0969747666 0.1104320867
420297480.0 -0.5522773013 0.6421746096 0.0001785256 0.0002183952 5.40783e-05 0.0001833718 -0.0961807777 0.1111252073
425297450.0 -0.5458893262 0.6476269919 0.0001438673 8.38588e-05 0.0002179056 -0.0001430676 -0.0949503259 0.1121604926
430297420.0 -0.5394101606 0.652941548 0.0003434998 0.0001894849 0.0001497354 5.41857e-05 -0.0941649901 0.1133712014
435297390.0 -0.5315683567 0.6589827637 0.0001852706 0.0004017913 0.0002034429 9.19572e-05 -0.0930610886 0.1146577973
440297360.0 -0.5257308488 0.6645519669 7.62256e-05 0.0001257545 0.0002834568 -0.0001008706 -0.0923149764 0.1156902772
445297330.0 -0.5184939356 0.669958361 0.000272712 4.11395e-05 0.0001049712 0.0001057727 -0.0912217839 0.1167350837
450297300.0 -0.5117071839 0.6746769818 0.000130906 0.0001631152 0.0001794764 6.83155e-05 -0.0908548297 0.1180143116
455297270.0 -0.5040310901 0.6799342771 0.0003829594 0.0003371484 0.0001231562 -9.8131e-06 -0.0895753209 0.1187641621
460297240.0 -0.4979118804 0.685039511 0.0001630483 -0.0001365376 -3.31235e-05 0.0001011121 -0.0881003899 0.1202769895
465297210.0 -0.4899326074 0.690347626 0.0003226013 0.0002084036 0.0001921037 -7.61833e-05 -0.0876964912 0.1211362701
470297180.0 -0.4831609167 0.6940872556 0.0002311778 0.0002436646 5.66617e-05 0.0002822763 -0.0869243747 0.1223974773
475297150.0 -0.4759483906 0.7001929417 0.0001364146 0.0001926122 0.0001043792 8.98972e-05 -0.0854781535 0.1233640716
480297120.0 -0.4692328545 0.7044256314 9.99527e-05 -5.9866e-06 0.0002380615 -4.83258e-05 -0.0846048288 0.1247198511
485297090.0 -0.4615506914 0.7092116909 0.0001510068 0.0001072952 0.0002046521 0.0002074696 -0.0836731926 0.1251686954
490297060.0 -0.453699257 0.7136526005 0.0001000178 -3.167e-05 4.8552e-05 -4.2427e-05 -0.08267345 0.1262028126
495297030.0 -0.4477177411 0.7185000411 0.0001865625 -3.21688e-05 6.6198e-05 0.0001936647 -0.0816292073 0.1270316241
500297000.0 -0.4388328341 0.7234952798 -7.27606e-05 1.20261e-05 0.0003460041 -2.46121e-05 -0.0807723377 0.1281833307
505296970.0 -0.4313628524 0.7268611556 0.0001413903 -0.0002054791 0.0003371444 -6.06089e-05 -0.0797185002 0.1291613626
510296940.0 -0.4248244102 0.731816531 9.38026e-05 0.0002251062 0.0001070102 0.000147988 -0.0781689196 0.1302599926
515296910.0 -0.4170861431 0.7364884221 0.0001739332 0.0003045956 8.21674e-05 -0.0001463896 -0.0771325287 0.1312469983
520296880.0 -0.4090295263 0.7402933475 0.0001835352 9.54151e-05 7.55434e-05 0.0002388462 -0.0760969748 0.1318635775
525296850.0 -0.4019403206 0.7440705176 0.0003064591 0.0002084939 0.000256566 -2.79682e-05 -0.0748576328 0.1330893831
530296820.0 -0.3944096219 0.7475510917 0.0001261637 0.0001625356 0.0002175921 3.46242e-05 -0.0740155141 0.1339350836
535296790.0 -0.3860118693 0.7521480272 2.98911e-05 9.76521e-05 0.0002316375 0.0001449775 -0.0727834986 0.134607397
540296760.0 -0.3785710712 0.7556634018 0.0002056385 -9.45872e-05 0.000237078 0.0001573407 -0.0719238566 0.1356488729
545296730.0 -0.3715546423 0.7594218537 0.000256617 0.0003159527 0.0002216668 7.1548e-06 -0.0708268641 0.136411158
550296700.0 -0.3634976467 0.764042435 0.0003167071 0.0001601219 0.0002606182 5.65062e-05 -0.0693662816 0.1372113592
555296670.0 -0.3544220139 0.7671367491 0.0001638734 0.0001496515 0.0003831235 5.11794e-05 -0.0682151564 0.1385277136
560296640.0 -0.3473570798 0.7706525169 0.0004383473 0.0001550509 0.0001178592 0.0001300719 -0.0671251458 0.1391339138
565296610.0 -0.3397343926 0.7735117165 0.0002348924 2.27891e-05 0.000287432 1.17743e-05 -0.0661512311 0.1397737756
570296580.0 -0.332022646 0.7774438233 1.48843e-05 0.0002994704 0.0001579138 3.87111e-05 -0.0648856676 0.1410140342
575296550.0 -0.3237124364 0.7802236023 8.48557e-05 -4.73322e-05 0.0002357142 0.000190943 -0.0633753507 0.1418438458
580296520.0 -0.3159165444 0.7842719299 7.1442e-05 9.34624e-05 7.15805e-05 0.0002147334 -0.0624047468 0.1427024805
585296490.0 -0.3076101346 0.7865843541 0.0002481 5.703e-06 0.0001998437 4.13826e-05 -0.0613157886 0.1428551913
590296460.0 -0.3005396187 0.7892877707 0.0001419583 1.09871e-05 0.000282271 3.14641e-05 -0.0595417766 0.1440012994
595296430.0 -0.2918181214 0.7928949195 0.0003782284 0.0001376028 0.0002782396 -0.0001887164 -0.0587458753 0.1445204764
600296400.0 -0.2836737564 0.7954442354 0.0003288132 0.0001230818 8.89542e-05 0.0002574514 -0.0576000057 0.145376044
605296370.0 -0.2754573557 0.7989723081 2.71863e-05 9.84901e-05 0.0002337248 -4.93737e-05 -0.0558011546 0.1462899918
610296340.0 -0.2675683507 0.8013822663 -8.2379e-06 0.0001883016 0.0002774108 4.48627e-05 -0.0550235924 0.1470380875
615296310.0 -0.2589157154 0.8044875916 0.0001036005 -5.5954e-06 0.000345337 -0.0001142618 -0.0536592096 0.1474564216
620296280.0 -0.2507809745 0.8059403608 0.0003251034 0.0002250844 0.0002016313 6.82681e-05 -0.0524665375 0.147907719
625296250.0 -0.2429155048 0.8089185854 0.0005134742 8.90872e-05 0.0001755669 -0.0001222522 -0.0509948756 0.1491007825
630296220.0 -0.2344957267 0.8122181803 0.0002250377 9.4995e-06 0.0001273677 0.0001118949 -0.0499020997 0.1498758528
635296190.0 -0.2266039088 0.8138128916 0.0002386678 -8.99649e-05 0.0004241767 0.0001129439 -0.0485629108 0.1503689194
640296160.0 -0.218470773 0.815077199 0.0003757898 3.39725e-05 0.000317354 0.0001272969 -0.0467340592 0.1508792363
645296130.0 -0.2102821494 0.817562485 0.0001357328 3.08254e-05 0.0003494531 0.0001157084 -0.0457464031 0.1511916786
650296100.0 -0.2019605547 0.8202498491 0.0004131711 4.77404e-05 0.0001927694 2.27433e-05 -0.0447958446 0.1521545018
655296070.0 -0.1932278974 0.8221192672 0.0002476332 9.8732e-05 0.000161144 8.9598e-05 -0.0429894407 0.1530278709
660296040.0 -0.1859691174 0.8241609211 0.0003060627 -0.0001124502 0.0002599333 8.64171e-05 -0.0416502232 0.1533012143
665296010.0 -0.1776110271 0.8256386401 0.0001565141 0.0001756989 0.0002096128 4.39214e-05 -0.0404274258 0.1539949757
670295980.0 -0.1681886585 0.8276430927 0.0001781338 5.98735e-05 5.20417e-05 2.12344e-05 -0.0391256449 0.1546482882
675295950.0 -0.1602465013 0.8281567015 0.0001844944 -0.0001778342 0.0002415421 -0.0001652316 -0.0373228073 0.1553981964
680295920.0 -0.1522133235 0.8308587657 0.0001627526 -2.70793e-05 0.0001632237 0.0001325026 -0.0360428745 0.1554379661
685295890.0 -0.1433171825 0.8321335911 0.0002197438 -2.38516e-05 0.0001684156 -8.5268e-06 -0.0344828712 0.1562631749
690295860.0 -0.1344459817 0.8332241761 3.77252e-05 0.0001028282 0.0002411355 -8.766e-06 -0.0331000388 0.1569933622
695295830.0 -0.1259184579 0.8336563779 0.0001802936 -0.0001671692 0.0003471951 0.0002496033 -0.0321419203 0.1573862686
700295800.0 -0.1178975318 0.8360643603 0.0001002181 -4.38517e-05 0.0003925619 0.0001078481 -0.0304950729 0.1577262381
705295770.0 -0.1092092689 0.8368785867 0.0001466882 1.99867e-05 0.0002449532 -8.24556e-05 -0.0287894346 0.1583855718
710295740.0 -0.1016366301 0.8380830748 0.000415788 8.84447e-05 0.0002786972 4.14755e-05 -0.0278743409 0.1593566811
715295710.0 -0.0932693091 0.8390033596 9.42414e-05 -0.0002714344 0.0002834654 -4.1472e-06 -0.0262540664 0.1593871865
720295680.0 -0.085086417 0.8394028263 0.0003729455 5.12179e-05 0.0002761047 7.40268e-05 -0.0244693097 0.1596890965
725295650.0 -0.0753503056 0.8411251996 0.0003766318 -4.0016e-05 0.000438492 -0.0001822049 -0.0230617827 0.1604371516
730295620.0 -0.0678523512 0.8410316078 0.0001160661 -0.0001017818 0.0004133286 -1.72779e-05 -0.0217404997 0.1606400793
735295590.0 -0.0583065861 0.8416590711 0.0004773375 0.00016866 0.0002062264 -6.79597e-05 -0.0201608843 0.160938177
740295560.0 -0.0504138995 0.8426883111 0.0002341738 -6.92233e-05 0.0002528662 -8.40289e-05 -0.0189059645 0.1613335056
745295530.0 -0.0419501692 0.8427084034 0.0003090941 -0.0002189301 0.0002397685 0.0001875334 -0.0171877036 0.1620299868
750295500.0 -0.0340374125 0.8428920533 0.0003230324 -0.0001202512 0.0002157914 7.27196e-05 -0.0157770003 0.1620544445
755295470.0 -0.0247305472 0.8436549054 0.0002750768 0.000133308 0.0003470911 -6.06419e-05 -0.0146706318 0.1625470617
760295440.0 -0.0161103568 0.8431903283 0.0001886607 2.89609e-05 0.0001773462 -3.07799e-05 -0.0132657779 0.1627842886
765295410.0 -0.0082326882 0.8436029804 0.0001736021 7.6705e-06 0.0004005185 4.59852e-05 -0.0111757578 0.1634747138
770295380.0 0.0003398921 0.8437474391 9.86139e-05 -0.0001314314 0.0004292801 -0.000172418 -0.0093549741 0.163455794
775295350.0 0.0089733882 0.8440216712 0.0002570476 -1.53234e-05 0.0002836022 0.0001737576 -0.0086168063 0.1636824116
780295320.0 0.0177412351 0.843179614 0.000150861 2.66051e-05 0.0003507015 -3.81384e-05 -0.0070585001 0.1644306744
785295290.0 0.02570813 0.8437911892 0.0001604508 -6.4453e-05 9.06672e-05 0.0001529304 -0.0056868433 0.1648685889
790295260.0 0.0342265095 0.8429988067 0.0001934882 -0.0001785397 0.0004830587 -0.0001500468 -0.0040025933 0.1646917529
795295230.0 0.0424878989 0.8430114318 0.0003145849 -0.0001223936 0.0003932703 -0.0002260568 -0.0022541522 0.1653621989
800295200.0 0.0515992912 0.8426036111 0.0002871409 2.44027e-05 0.0004272544 -4.89604e-05 -0.0007747176 0.1653642391
805295170.0 0.059503421 0.8421218106 0.0002697103 -0.0001847362 0.0003117446 0.0001047265 0.0006226711 0.1656538037
810295140.0 0.0676347652 0.8416147754 0.0004300287 0.0001321253 0.0002513819 2.68241e-05 0.0022098187 0.1658747068
815295110.0 0.07658477 0.8398880475 0.0002928516 1.38172e-05 0.0002182393 1.10845e-05 0.0036852809 0.1661610747
820295080.0 0.0847693209 0.8387529479 0.0003475973 -3.84767e-05 0.0004251108 7.75817e-05 0.0049218989 0.1661542774
825295050.0 0.0938356 0.8388135098 0.0002834687 -0.0001962112 0.0002925191 -0.0002780229 0.0069997571 0.166022618
830295020.0 0.1018528824 0.8379861066 0.0002454403 -0.0001698333 0.0002427662 -9.11346e-05 0.0081525324 0.1664003405
835294990.0 0.1095321462 0.8369606464 0.0002557449 -9.6119e-05 0.0001769216 -7.39788e-05 0.0100389071 0.1667508571
840294960.0 0.118443232 0.8353981629 0.0004695975 -0.0001885697 0.0002510773 -0.0002526244 0.0112539498 0.1669408129
845294930.0 0.1267884906 0.834670011 0.0003399077 -0.0003323079 0.0001320914 -4.18617e-05 0.0128970051 0.1671643656
850294900.0 0.1349175997 0.8326942913 0.0006815993 -0.0002450622 0.0003987882 -0.0001677387 0.0145158248 0.1670354098
