!Created with skrf (http://scikit-rf.org).
# Hz S RI R 50.0 
!freq ReS11 ImS11 ReS21 ImS21 ReS12 ImS12 ReS22 ImS22
300000.0 -0.3187978289 -0.1035474807 0.3732764169 0.0526030272 0.3737874348 0.0573535135 -0.3172881695 -0.1166761175
5299970.0 -0.323497297 0.0045794372 0.3784024186 0.0026849968 0.3782973902 0.0031357162 -0.3261192002 0.0029003722
10299940.0 -0.3211537045 0.0157877407 0.3798201623 0.0022422205 0.3798873457 0.0024068066 -0.3241356984 0.0126320268
15299910.0 -0.3182194038 0.0235601494 0.3820116265 0.0022433824 0.3819307564 0.0023669422 -0.3215269609 0.0197484369
20299880.0 -0.3145167061 0.0300690363 0.3850707886 0.0017830975 0.3850712064 0.0017568006 -0.3186527232 0.0260227925
25299850.0 -0.3106441372 0.0359692287 0.3887432376 -0.0001521077 0.3888008907 0.0001537897 -0.3156727457 0.031045037
30299820.0 -0.3065185509 0.0405605387 0.3919468941 -0.0023256357 0.391719165 -0.0020348117 -0.3127165896 0.0354290759
35299790.0 -0.3030645245 0.0447540896 0.3951763735 -0.0052296034 0.3953100675 -0.0052686208 -0.3099446992 0.0395154243
40299760.0 -0.299597825 0.0479631405 0.3983023409 -0.008327086 0.3984137848 -0.0086425833 -0.3070979777 0.0430136043
45299730.0 -0.2965775326 0.0513900148 0.4012688014 -0.0124878616 0.4010220388 -0.0126295356 -0.3046611877 0.0462082323
50299700.0 -0.2933779035 0.0541488788 0.4034729293 -0.0172575226 0.4038998739 -0.0175303894 -0.30189056 0.0492676816
55299670.0 -0.2907307468 0.05680476 0.4055570071 -0.0220587772 0.4058432957 -0.0219965641 -0.3002940942 0.0518642437
60299640.0 -0.2881111419 0.0591006252 0.4075213895 -0.0267949219 0.4075207306 -0.0268063251 -0.2980557586 0.0543043233
65299610.0 -0.2861531 0.0616145505 0.4094780283 -0.0311760148 0.4095330598 -0.0320157446 -0.2961998917 0.0573356372
70299580.0 -0.2839237163 0.0636647717 0.4106288963 -0.0368125127 0.4107591139 -0.0367397901 -0.2946414331 0.0594681965
75299550.0 -0.2819946088 0.0659882469 0.411293591 -0.0419556626 0.4118577878 -0.0422924385 -0.2930893998 0.0621038714
80299520.0 -0.2805806174 0.0681254424 0.4129416062 -0.0473814916 0.4125942895 -0.0471549855 -0.2916549737 0.0638687387
85299490.0 -0.2785080909 0.0698807436 0.4131985978 -0.0526755721 0.4131887404 -0.0524889057 -0.2904552281 0.0662872575
90299460.0 -0.2770672411 0.0723030631 0.4137821526 -0.0575446076 0.4136937053 -0.0577655938 -0.2887767241 0.068662888
95299430.0 -0.2756904192 0.0743798942 0.4140267379 -0.0636274835 0.4140830944 -0.0632170524 -0.2874643514 0.0714971803
100299400.0 -0.2744234281 0.0763757166 0.4136752856 -0.0683472002 0.413644112 -0.0686288446 -0.2866769984 0.0732295544
105299370.0 -0.2729523939 0.0784600988 0.4134863379 -0.0733564098 0.4136921874 -0.0739638291 -0.285206376 0.0760245383
110299340.0 -0.2717683201 0.0804697292 0.4131018503 -0.0785509122 0.4135497609 -0.0790195977 -0.2845402 0.0781694592
115299310.0 -0.270570455 0.0824577268 0.4133352207 -0.0833332871 0.4133626082 -0.0834637603 -0.2832298761 0.0800116951
120299280.0 -0.2697508043 0.0846739667 0.4131429594 -0.0890040452 0.4130280763 -0.0890665175 -0.282171565 0.0824996531
125299250.0 -0.2688468742 0.0867019074 0.4125234664 -0.0937086272 0.4123081607 -0.0940501609 -0.2811087035 0.0847422617
130299220.0 -0.267677076 0.0891756299 0.4117025645 -0.0985876715 0.4117978746 -0.0991584109 -0.2806446365 0.0871599584
135299190.0 -0.2666652476 0.0911153073 0.4109219125 -0.1038261696 0.4108731637 -0.1041328559 -0.2797944863 0.0898739885
140299160.0 -0.2656645147 0.0937574987 0.4101300717 -0.1091382162 0.4104820272 -0.1090118391 -0.2787432368 0.0920127184
145299130.0 -0.2645519676 0.0957846377 0.4093910817 -0.1142495863 0.4092081713 -0.1137151955 -0.2779837402 0.0945967486
150299100.0 -0.2638503093 0.0980856565 0.4081482031 -0.1190201378 0.4081601053 -0.1186592985 -0.2768516578 0.096923345
155299070.0 -0.2628424924 0.1010125408 0.4072870502 -0.124324202 0.4069958353 -0.1239531098 -0.2762976372 0.0994424751
160299040.0 -0.2618556356 0.1031307036 0.405612592 -0.1284865028 0.4060646992 -0.1287950754 -0.2751923289 0.1021354722
165299010.0 -0.2610254647 0.105349719 0.404832462 -0.1336885903 0.4046937388 -0.1335941085 -0.2741333976 0.1043420405
170298980.0 -0.2601949111 0.107690728 0.4028951396 -0.1384833746 0.4032143621 -0.1385024155 -0.273025707 0.1071650875
175298950.0 -0.2588027267 0.110577422 0.4021603048 -0.1429687706 0.4020828206 -0.1431597166 -0.2720817997 0.1096204789
180298920.0 -0.257947233 0.1126213082 0.400434181 -0.1479402075 0.4004845138 -0.14788303 -0.270845109 0.1126422273
185298890.0 -0.2569988126 0.1151767292 0.3986772106 -0.1526907018 0.3992035936 -0.152473538 -0.2703265363 0.1145171955
190298860.0 -0.2558735383 0.1178709579 0.3970087279 -0.1574990164 0.3975857141 -0.1575022177 -0.2688066472 0.1175290069
195298830.0 -0.2546543875 0.120231576 0.3955163897 -0.1616448035 0.3958880687 -0.16210513 -0.2680541799 0.1198703322
200298800.0 -0.253607297 0.1230850538 0.3942104949 -0.1662108997 0.3939456545 -0.1665054738 -0.2666212581 0.1228557508
205298770.0 -0.2526938259 0.1252315899 0.392366576 -0.170719596 0.3922850029 -0.1709594886 -0.2657387839 0.1250462625
210298740.0 -0.2514782507 0.1276419222 0.3904802129 -0.1759067399 0.3907092211 -0.1756565841 -0.2645731283 0.1281211877
215298710.0 -0.2503815999 0.1302110417 0.3886721552 -0.180152835 0.3888546102 -0.180074553 -0.2637429275 0.1307918661
220298680.0 -0.2492662321 0.1330656422 0.3867165445 -0.1849641261 0.3866402047 -0.1844526149 -0.2620414308 0.1335672283
225298650.0 -0.2479056166 0.1355399697 0.3841861321 -0.1891002165 0.3845250845 -0.1889971133 -0.2609324692 0.1364458202
230298620.0 -0.2469524398 0.1381291528 0.382928684 -0.1936297156 0.3827960431 -0.1934084464 -0.2594697129 0.1387509009
235298590.0 -0.2455117512 0.1407039928 0.3804260995 -0.197667261 0.3806419421 -0.1980845734 -0.2581634197 0.1410892979
240298560.0 -0.2443281956 0.1434055919 0.3786487208 -0.2020562778 0.3785902263 -0.201854407 -0.2570409016 0.1443455627
245298530.0 -0.2423160993 0.1457736155 0.3753301282 -0.2065208402 0.3759118742 -0.2066876354 -0.2557049412 0.1472758263
250298500.0 -0.2417255903 0.1480771564 0.3735649235 -0.2104460246 0.3739561057 -0.2104260612 -0.2541254132 0.1497361136
255298470.0 -0.2400474155 0.1509871776 0.3712973913 -0.2149110325 0.3716174118 -0.2150832359 -0.2526075285 0.1521507323
260298440.0 -0.2387834111 0.153560636 0.3692076496 -0.2192324402 0.3692798088 -0.2192685925 -0.2506917524 0.1549873157
265298410.0 -0.2371783854 0.1561821492 0.3667529828 -0.2236462593 0.3665925062 -0.2234273086 -0.2500404906 0.15744366
270298380.0 -0.235431888 0.1584510452 0.3637691975 -0.2273329907 0.364601981 -0.2275382079 -0.2479682866 0.1605801561
275298350.0 -0.2343159932 0.1611357955 0.3618316964 -0.2320160986 0.362097312 -0.2319602323 -0.2461883967 0.1634209574
280298320.0 -0.2325971998 0.1638833787 0.3590290871 -0.2355969685 0.3590984477 -0.2360773267 -0.2447842697 0.1657875382
285298290.0 -0.2308807453 0.1665929498 0.356396866 -0.2398246623 0.3565216937 -0.2399865258 -0.243252623 0.1684770989
290298260.0 -0.2294268191 0.1690169849 0.3541121993 -0.2436831797 0.3539217103 -0.2438214078 -0.2411712237 0.1716623882
295298230.0 -0.2276829013 0.1712544503 0.3516153213 -0.2478055495 0.3511897201 -0.2477760408 -0.2395109695 0.1738070564
300298200.0 -0.2257338189 0.1736317988 0.348279902 -0.2521486492 0.3483669194 -0.251927789 -0.2378099231 0.1765336949
305298170.0 -0.2239057305 0.1763339652 0.3457916763 -0.2561702401 0.3460038365 -0.2559063635 -0.2358256254 0.1792944927
310298140.0 -0.2223305008 0.1784103588 0.3434863305 -0.2597949733 0.3430536637 -0.2603832842 -0.233931191 0.1821852446
315298110.0 -0.2207301571 0.18065437 0.3401644022 -0.2636251692 0.3401067706 -0.2638234341 -0.2319333736 0.1843239612
320298080.0 -0.2186875848 0.1836441594 0.3372732251 -0.267875852 0.3373625113 -0.2678174719 -0.2302947244 0.1870080464
325298050.0 -0.2170408979 0.1854687326 0.3342996414 -0.2713989243 0.3343866713 -0.2718194488 -0.2283720243 0.1892140318
330298020.0 -0.2153786473 0.1883046218 0.3307946749 -0.2754585451 0.3308380121 -0.2752224759 -0.226455921 0.1917099474
335297990.0 -0.2132075336 0.1903698185 0.3276504886 -0.2795242812 0.3278101727 -0.2791331286 -0.2249933628 0.1943804508
340297960.0 -0.2119857309 0.19287876 0.324303751 -0.2826245067 0.3247873506 -0.2824697187 -0.2229338467 0.1969472622
345297930.0 -0.2100815844 0.195426542 0.321305697 -0.2858384347 0.3210853469 -0.2859930083 -0.2206936442 0.1995055158
350297900.0 -0.2073937229 0.1976835134 0.3175792919 -0.2894779337 0.3182050148 -0.2896695357 -0.2185586339 0.2024513986
355297870.0 -0.2061226462 0.1999562236 0.3148964372 -0.2930859913 0.314859873 -0.2932950988 -0.2167466599 0.2048840025
360297840.0 -0.2039283126 0.2025414533 0.3115520627 -0.2969403905 0.3114296166 -0.2965767394 -0.2146875375 0.2075533763
365297810.0 -0.2017450688 0.2045614167 0.3081460121 -0.2999971841 0.3084793114 -0.3000622333 -0.2126517341 0.2103038926
370297780.0 -0.1997081373 0.2068424456 0.3045879619 -0.3031239891 0.3050471656 -0.3035225958 -0.2106506896 0.2120382555
375297750.0 -0.197503705 0.2093475654 0.3017339922 -0.3068723787 0.3014952386 -0.3069149882 -0.2081504342 0.214879117
380297720.0 -0.1952076133 0.2113254658 0.2979492368 -0.3098147276 0.2979848489 -0.3100016426 -0.205761579 0.2176686226
385297690.0 -0.1931889397 0.2136984919 0.2943901676 -0.3129601829 0.2944529826 -0.3129373829 -0.2036578635 0.2201020076
390297660.0 -0.1910323923 0.215971342 0.2907435475 -0.3166164203 0.291148326 -0.3165938758 -0.2016192287 0.2218614155
395297630.0 -0.1887184626 0.2177688579 0.2875299121 -0.3193855288 0.2879077858 -0.3196907084 -0.199224614 0.2244750432
400297600.0 -0.1865388788 0.2204443087 0.2839554979 -0.3227301069 0.2843408919 -0.3231004072 -0.1972791069 0.2270499921
405297570.0 -0.1842057939 0.2223034522 0.2801268578 -0.3259933772 0.2806232788 -0.3262870223 -0.1948437935 0.2293428213
410297540.0 -0.1816988901 0.2242655306 0.2765901122 -0.3286832616 0.2766195473 -0.3288525502 -0.1926942913 0.231755179
415297510.0 -0.1793628487 0.226761388 0.273006252 -0.3318531079 0.2733102034 -0.3318168394 -0.1899151432 0.2339964254
420297480.0 -0.1770897329 0.228549352 0.2692579232 -0.3352628988 0.2693027958 -0.3348390996 -0.187700218 0.236045966
425297450.0 -0.1747666291 0.2306227846 0.2654976552 -0.3379673402 0.2659881081 -0.3378541717 -0.1849084299 0.2384958565
430297420.0 -0.1724220481 0.2327922955 0.2619047837 -0.3414337534 0.262174192 -0.3407013941 -0.1828916114 0.2402571264
435297390.0 -0.1696818785 0.2348959291 0.258067261 -0.3435115295 0.2583672892 -0.343415403 -0.1800158751 0.2429031933
440297360.0 -0.1672553522 0.2366992598 0.2540892653 -0.346199724 0.2541805789 -0.3463219518 -0.1778018154 0.2447503495
445297330.0 -0.1646115523 0.238650446 0.2501645508 -0.3492718971 0.2505410402 -0.3491296321 -0.1752947368 0.2465249466
450297300.0 -0.1621700621 0.240303375 0.24620436 -0.3519013849 0.2470156595 -0.3519037477 -0.1728884929 0.2489703424
455297270.0 -0.159988887 0.2422228703 0.2428637806 -0.3543739475 0.2428138928 -0.3540060885 -0.1698745999 0.2508103017
460297240.0 -0.1578458866 0.2443795449 0.2392062644 -0.3570356961 0.2387128351 -0.3570448707 -0.1672756275 0.2529983179
465297210.0 -0.1545810528 0.2457393417 0.2349783189 -0.3594566338 0.2353639687 -0.3598356327 -0.1651538224 0.2546105088
470297180.0 -0.1519079229 0.2477093432 0.2309762827 -0.3620562256 0.2312106028 -0.3618929563 -0.1629077328 0.2567504077
475297150.0 -0.1495061361 0.2490452578 0.2263429703 -0.3639929434 0.2273474278 -0.3644061106 -0.1599748375 0.2583334901
480297120.0 -0.1469704089 0.2510169229 0.2227707373 -0.3665571144 0.223229626 -0.3668720326 -0.1572146065 0.2609781066
485297090.0 -0.1441595369 0.252648914 0.2188495351 -0.3691683128 0.2189090651 -0.3693584841 -0.1545349161 0.2624913794
490297060.0 -0.1414922826 0.254381223 0.2146868324 -0.371881497 0.2148283432 -0.3717800527 -0.1517346798 0.2643358907
495297030.0 -0.1391670091 0.256126185 0.2105629552 -0.3737984686 0.2109580685 -0.3739196521 -0.1489280957 0.2655869386
500297000.0 -0.1360451914 0.2575753242 0.2062016656 -0.3761695341 0.2066769231 -0.3761803073 -0.1464376061 0.267703039
505296970.0 -0.1337657054 0.2587959492 0.2021006863 -0.3778984796 0.2026413326 -0.378481223 -0.1441762197 0.269440959
510296940.0 -0.1308930033 0.2611773339 0.1980457242 -0.3806602661 0.1986259988 -0.3803940693 -0.1408067988 0.2713471898
515296910.0 -0.1284947424 0.2625399231 0.1939310045 -0.3826355727 0.1944809141 -0.3824053516 -0.1383060352 0.2728773318
520296880.0 -0.1253471092 0.2639475601 0.1895988484 -0.3846647929 0.1900209155 -0.3843530327 -0.1352812598 0.2745479901
525296850.0 -0.1227345418 0.2653982765 0.1856246281 -0.3863455206 0.1859378733 -0.3868464972 -0.1323821678 0.2761051593
530296820.0 -0.119894616 0.2665418134 0.1817103812 -0.3880896154 0.1815793778 -0.3882042112 -0.1300709913 0.2774360406
535296790.0 -0.116884604 0.2681763927 0.1769389312 -0.3901746322 0.1774927807 -0.3902352375 -0.1270686282 0.2788054306
540296760.0 -0.1144236912 0.2690643038 0.1729823696 -0.3925117697 0.1729760935 -0.3923244729 -0.124309849 0.2805450813
545296730.0 -0.1113033956 0.2710131904 0.1682931902 -0.3939819389 0.1686950947 -0.3942393459 -0.1214506262 0.2817562941
550296700.0 -0.1086994121 0.2719930711 0.1643821578 -0.3956179259 0.1651228183 -0.3962011545 -0.1181973786 0.2837449138
555296670.0 -0.1052170436 0.2734110164 0.1599691685 -0.3978175573 0.1602340489 -0.3973415694 -0.1154981394 0.2851056279
560296640.0 -0.1028465292 0.2743420294 0.155647936 -0.3991477939 0.1561861374 -0.3992532012 -0.1123290919 0.2863903276
565296610.0 -0.1002266837 0.2756503543 0.1514668401 -0.4006427201 0.1513228875 -0.4009881747 -0.1095263684 0.2875748048
570296580.0 -0.0970823413 0.2769285434 0.1472593653 -0.402270929 0.1472495889 -0.4026304922 -0.1065698083 0.2893548209
575296550.0 -0.0941484849 0.2782424338 0.1427903325 -0.4039674714 0.1428169012 -0.4038635529 -0.103521312 0.2905203328
580296520.0 -0.0909705915 0.2794009163 0.1380727333 -0.4055831078 0.1382646253 -0.4054577533 -0.1005586405 0.291706046
585296490.0 -0.0880806244 0.2801656189 0.1341418858 -0.4067663705 0.1340941998 -0.406786568 -0.0980163603 0.2925325263
590296460.0 -0.0854332488 0.281441034 0.1294447155 -0.408266128 0.1292763426 -0.4084484572 -0.0944923987 0.2940465851
595296430.0 -0.0820442619 0.2827090847 0.1248336508 -0.4096894553 0.1249563066 -0.409766447 -0.0912615181 0.2946936303
600296400.0 -0.0792721775 0.2834317826 0.1205462735 -0.4110062433 0.1206265848 -0.4109744952 -0.0881880351 0.2962860751
605296370.0 -0.0761968822 0.2847452716 0.1159556953 -0.4123939692 0.1162227115 -0.4121073119 -0.0853985537 0.2972891926
610296340.0 -0.0733431096 0.2855898141 0.1118688704 -0.4132370807 0.111774772 -0.4134563111 -0.0823894208 0.2987234235
615296310.0 -0.0703071184 0.2869807924 0.1069608753 -0.4144703037 0.1071343006 -0.414737746 -0.0790920164 0.299456418
620296280.0 -0.0671840088 0.2869636072 0.1025990481 -0.4151946358 0.1025774952 -0.4155108025 -0.0763312022 0.299690045
625296250.0 -0.0640240416 0.2880989817 0.09778836 -0.4167355152 0.0978329335 -0.4169629409 -0.0730237071 0.3014394937
630296220.0 -0.0610964217 0.2892042826 0.0935957701 -0.4178986966 0.0937455387 -0.4177683006 -0.0698427664 0.3021752995
635296190.0 -0.0580963167 0.290026982 0.0887225122 -0.4183835214 0.0888705724 -0.4181293697 -0.0668593172 0.3029741399
640296160.0 -0.0551905288 0.29015586 0.0846420058 -0.4193252435 0.0843957468 -0.4197379669 -0.0635138751 0.3038871818
645296130.0 -0.0520584273 0.2915502059 0.0798954211 -0.4203718754 0.0800010932 -0.4200434916 -0.0610464344 0.3042364563
650296100.0 -0.0488801173 0.29233214 0.075333557 -0.4211539039 0.0754901944 -0.4212326753 -0.0577585895 0.3055198723
655296070.0 -0.0455838289 0.292866946 0.0704729318 -0.4218367325 0.0708285747 -0.4219592198 -0.0542537773 0.3062428492
660296040.0 -0.0430752735 0.2937016353 0.0663077034 -0.4224441526 0.0663512047 -0.422195957 -0.0512763901 0.3065431657
665296010.0 -0.0397422945 0.2940946053 0.06155226 -0.4233467783 0.0622982776 -0.4233970407 -0.0484556271 0.3076800278
670295980.0 -0.0362502229 0.2945755181 0.0572909701 -0.4240138785 0.0571448955 -0.4237478157 -0.0450141321 0.3081616913
675295950.0 -0.0335252519 0.2949432362 0.0527484339 -0.4241089205 0.0524789616 -0.4245891425 -0.0418291127 0.3090206454
680295920.0 -0.030242705 0.2958361453 0.0476012023 -0.4249721752 0.0477232897 -0.4248950477 -0.0385788284 0.3097023627
685295890.0 -0.0271188906 0.2960374666 0.0430010539 -0.4252374492 0.0430917555 -0.4256705384 -0.0355036306 0.3102975322
690295860.0 -0.0237606438 0.2966189792 0.0380772591 -0.4255526214 0.0384996988 -0.425541279 -0.0320397936 0.3105100936
695295830.0 -0.020499459 0.2969346445 0.0334728858 -0.4258647463 0.0337583206 -0.4263503985 -0.0291772491 0.3109530635
700295800.0 -0.0176364122 0.2969930029 0.0290624431 -0.4264375223 0.0293621899 -0.4267026573 -0.0255914422 0.3112743948
705295770.0 -0.0145294062 0.2977076981 0.0246088762 -0.4265354176 0.0249348847 -0.4267762216 -0.0228278113 0.3119897308
710295740.0 -0.011207249 0.2980901196 0.0201263418 -0.4266205969 0.0200798075 -0.4268458367 -0.0197259327 0.3123641624
715295710.0 -0.008415129 0.2981643681 0.0153436208 -0.4266588867 0.015698174 -0.4269318295 -0.016206773 0.3125968568
720295680.0 -0.0053355262 0.2982687386 0.0106454522 -0.4267944758 0.0106547381 -0.4276449068 -0.0126559241 0.3130682281
725295650.0 -0.0016343658 0.298804168 0.0057913127 -0.4271722296 0.0061470937 -0.4268099486 -0.0094619637 0.313040053
730295620.0 0.0009406461 0.2988001896 0.0014112522 -0.4272765925 0.0017364663 -0.4270551923 -0.0061528618 0.3132435052
735295590.0 0.0046144968 0.2987854998 -0.0030355751 -0.4269874032 -0.0026597332 -0.4271222663 -0.0029731396 0.3133612788
740295560.0 0.0077079516 0.299067195 -0.0079805583 -0.4264666334 -0.0076875033 -0.4268571903 0.0002335137 0.3134682637
745295530.0 0.0108793449 0.2987082522 -0.0122071017 -0.4264982576 -0.0118925196 -0.4270771406 0.0031542103 0.3142079292
750295500.0 0.0138191981 0.2989425859 -0.0167718951 -0.4265108012 -0.0168057272 -0.4266508757 0.0067928331 0.3136851563
755295470.0 0.0174077515 0.2991505874 -0.0214487112 -0.4263123454 -0.0216054549 -0.4264648152 0.0095960244 0.3142515633
760295440.0 0.0203597196 0.2991612692 -0.0262371427 -0.4261046897 -0.0260062292 -0.4261414803 0.0126837659 0.3140977833
765295410.0 0.0233543462 0.2988438473 -0.030343702 -0.425533432 -0.0305030739 -0.4260003204 0.0166979394 0.3141871912
770295380.0 0.0268617581 0.2990781186 -0.0353889541 -0.4251047826 -0.0355187196 -0.4257561688 0.0200667196 0.3142814754
775295350.0 0.0299063874 0.2985532221 -0.0398373161 -0.4246165245 -0.0398212322 -0.4248701477 0.0226277277 0.3136919311
780295320.0 0.0331600802 0.2984483429 -0.0443796019 -0.4244783511 -0.0442438738 -0.4246329916 0.0261199858 0.3137626647
785295290.0 0.0364339805 0.2985935939 -0.0493572047 -0.4233099867 -0.0490579993 -0.4238414992 0.0291900706 0.3136879057
790295260.0 0.039135174 0.2980417362 -0.0532522817 -0.423343175 -0.053325527 -0.4236709576 0.0327031344 0.3135180558
795295230.0 0.042398514 0.2982601104 -0.057740996 -0.422512997 -0.0577087384 -0.4228540101 0.0360398389 0.3140559733
800295200.0 0.0458324025 0.2976018096 -0.0629955843 -0.4218605332 -0.0630283789 -0.422120733 0.0389702623 0.3130681366
805295170.0 0.0488806068 0.2974136149 -0.0673391273 -0.420955219 -0.0670410959 -0.4209195395 0.0421881463 0.3126556812
810295140.0 0.0520036681 0.296763659 -0.0715575284 -0.4203335509 -0.0714638364 -0.420909084 0.0456732759 0.3128127549
815295110.0 0.0551377143 0.2965416176 -0.076404288 -0.4195086605 -0.0764046147 -0.4196138186 0.0488615981 0.3121749321
820295080.0 0.0582999167 0.2958580442 -0.0809120424 -0.4187736943 -0.0806206774 -0.4188889182 0.0515845106 0.3118834275
825295050.0 0.0614066698 0.2953713824 -0.0853287847 -0.4170250718 -0.0852654759 -0.4178271094 0.0553662034 0.3115268651
830295020.0 0.0647649106 0.2953157985 -0.090122972 -0.4164627103 -0.0900236164 -0.4168189385 0.0583286807 0.3111869975
