!Created with skrf (http://scikit-rf.org).
# Hz S RI R 50.0 
!freq ReS11 ImS11 ReS21 ImS21 ReS12 ImS12 ReS22 ImS22
300000.0 -0.2375177537 -0.1006977435 0.4655955837 0.0668864732 0.4666831073 0.071052591 -0.2353339003 -0.1116626369
5299970.0 -0.2438722176 0.0068205222 0.473776107 0.0054561122 0.4738325997 0.005525529 -0.244062733 0.0058088781
10299940.0 -0.2400366617 0.0196211697 0.4759097539 0.0064613252 0.4756676962 0.0066614194 -0.2408973557 0.0182575687
15299910.0 -0.2359626309 0.029491926 0.4792526558 0.0075925383 0.4790422016 0.0080586195 -0.2365243599 0.0274193095
20299880.0 -0.2304840402 0.0370821738 0.484074824 0.0084420251 0.4841307823 0.0084262331 -0.2316876886 0.0354079554
25299850.0 -0.2247458687 0.0435637029 0.4891909938 0.0074711353 0.4893175703 0.007253054 -0.2266438644 0.0417051989
30299820.0 -0.2189557725 0.0485866046 0.4949947452 0.0052920183 0.4947427616 0.005544369 -0.2216900329 0.0468388468
35299790.0 -0.2131289311 0.0527593454 0.5003651498 0.0021492059 0.5001492432 0.0021259996 -0.2158875904 0.0510056307
40299760.0 -0.2074473607 0.0556890314 0.5057904347 -0.0011907672 0.5052273675 -0.0016286175 -0.2113591261 0.0546517493
45299730.0 -0.2025101783 0.0586020608 0.5102714579 -0.0065826839 0.5101021925 -0.0062497233 -0.2064208669 0.0572573775
50299700.0 -0.1975794844 0.0601272735 0.5142744633 -0.0120662515 0.5143793345 -0.0123650303 -0.2019210728 0.0597223688
55299670.0 -0.193493572 0.0616781092 0.517690419 -0.0182404171 0.5182678507 -0.0178801952 -0.198197909 0.0615655488
60299640.0 -0.1892753921 0.0627143403 0.5211259652 -0.0243179687 0.5214072084 -0.0241432239 -0.1943820105 0.0632282284
65299610.0 -0.1861777202 0.0638413292 0.5243944904 -0.0303188466 0.5246554731 -0.0304505998 -0.1911163072 0.0646873496
70299580.0 -0.1826493235 0.0643771347 0.5268380818 -0.0368357655 0.5268643327 -0.0374228173 -0.1878581396 0.0658293846
75299550.0 -0.1796372603 0.065250853 0.5287131493 -0.0441679846 0.5287891062 -0.0440869681 -0.1849976213 0.0669621611
80299520.0 -0.1773416112 0.0659367616 0.5310040671 -0.0512127722 0.5307502817 -0.0504388158 -0.1823971241 0.0674405195
85299490.0 -0.1746863525 0.0658865839 0.5321605629 -0.0577458374 0.5320602116 -0.058088655 -0.1802731046 0.068456548
90299460.0 -0.1725085217 0.0665269527 0.533189242 -0.0647239151 0.5331108074 -0.0647119545 -0.1776399878 0.0692589115
95299430.0 -0.1704692428 0.0671405212 0.5341768185 -0.0722266392 0.534417377 -0.0714940252 -0.1761397952 0.0701144669
100299400.0 -0.1686033923 0.06773863 0.5342657229 -0.0786262862 0.534482914 -0.0782865566 -0.1743720678 0.0707774036
105299370.0 -0.1671080524 0.0680852586 0.5342759487 -0.0853305476 0.534854868 -0.0857252849 -0.1719360876 0.0719948399
110299340.0 -0.1654911835 0.0684579478 0.5347975896 -0.0919740034 0.5349508066 -0.0924951671 -0.1708317546 0.0729063406
115299310.0 -0.1638295869 0.0687925173 0.5347227586 -0.0987435657 0.5350883821 -0.0990752002 -0.1690645137 0.0731992424
120299280.0 -0.1627339882 0.0694726433 0.5349146815 -0.106045907 0.534480482 -0.1059739954 -0.1678592727 0.0741173462
125299250.0 -0.1617131139 0.0698934048 0.5345329866 -0.1128544401 0.5346084663 -0.1127687855 -0.166401535 0.0747106107
130299220.0 -0.1604783052 0.0704740574 0.5335629545 -0.1190633284 0.5335304107 -0.1198014598 -0.1649759718 0.0761295695
135299190.0 -0.1594069217 0.0709805936 0.5332269099 -0.1255995947 0.5327340498 -0.1260045272 -0.1644963541 0.0768218994
140299160.0 -0.1586954657 0.0722662593 0.5325826622 -0.1328438561 0.5324095505 -0.132733318 -0.1629666328 0.077927336
145299130.0 -0.1576038997 0.0727415944 0.5313524474 -0.1391421839 0.5312769208 -0.1392529131 -0.1622685726 0.0792083849
150299100.0 -0.1565885039 0.073685584 0.5301940189 -0.1460810792 0.5300989926 -0.1458082896 -0.1610974542 0.0796193333
155299070.0 -0.1558803985 0.0747855511 0.5289311722 -0.1526185704 0.5292014552 -0.1527095963 -0.1601257273 0.0810123225
160299040.0 -0.1548637548 0.0754765162 0.5273222194 -0.1584841152 0.5279196266 -0.1587907261 -0.1593209927 0.082307042
165299010.0 -0.1543619312 0.0764426467 0.5265560655 -0.1652849287 0.5267611587 -0.1653868737 -0.1581905949 0.0831405914
170298980.0 -0.1536422032 0.0775206677 0.5238823072 -0.1719183253 0.5247263461 -0.1716919968 -0.156785665 0.0842948886
175298950.0 -0.1527429268 0.07819913 0.5238971437 -0.1777415153 0.5232852816 -0.1779670894 -0.1560546362 0.0856094778
180298920.0 -0.1515959227 0.0792160252 0.5216302487 -0.1844059231 0.5215098944 -0.1841191564 -0.1549126785 0.0871746213
185298890.0 -0.1508366155 0.0803828701 0.5194966928 -0.1906735558 0.5195245975 -0.1901501964 -0.1543523911 0.0880810805
190298860.0 -0.1502438119 0.0812885459 0.5172450522 -0.1968027869 0.5177293185 -0.1968160259 -0.1528614146 0.0892062836
195298830.0 -0.1495837076 0.0821207989 0.5153716998 -0.2023240593 0.5155500998 -0.2030479806 -0.15202582 0.0903881409
200298800.0 -0.1485812096 0.0834894574 0.5135755967 -0.2083432647 0.5135698359 -0.2088490268 -0.1508416762 0.0921242926
205298770.0 -0.1482488157 0.0844035336 0.5116687647 -0.2147774622 0.5115628889 -0.2148217137 -0.1502683512 0.0929461916
210298740.0 -0.1475806034 0.0856800527 0.5092394927 -0.221302666 0.5092667755 -0.221154947 -0.1490568349 0.0947886789
215298710.0 -0.1466096203 0.087140696 0.5068352533 -0.2265083058 0.5067238015 -0.2265170755 -0.1482336328 0.0961104482
220298680.0 -0.1460214907 0.0881302897 0.5040302515 -0.2330258265 0.5045520653 -0.2330489442 -0.1469265202 0.0973619619
225298650.0 -0.1448814809 0.0894294795 0.501758117 -0.238525581 0.5019555013 -0.2382691574 -0.1460494609 0.0987789882
230298620.0 -0.1444408694 0.0907251907 0.4998653299 -0.2442727878 0.4995820815 -0.2441600571 -0.1449887664 0.1003864096
235298590.0 -0.1437547248 0.0916983304 0.4969505202 -0.2497105336 0.4968692614 -0.2505181673 -0.1439958809 0.1013137426
240298560.0 -0.1432047846 0.0929135039 0.4943638912 -0.2555799186 0.4941447229 -0.2554264863 -0.143031174 0.1029583012
245298530.0 -0.1417487933 0.0941456992 0.4903975073 -0.2617276955 0.4911564577 -0.2616135017 -0.1414768605 0.1048185752
250298500.0 -0.1417370898 0.0954690813 0.4887028875 -0.2670745962 0.4886941789 -0.266765089 -0.1405734814 0.1057652345
255298470.0 -0.1404982131 0.0968428216 0.4853107617 -0.2729266546 0.4856466695 -0.272680752 -0.1394479824 0.107175845
260298440.0 -0.139772632 0.0980124677 0.4828114272 -0.27829437 0.4828156919 -0.2784521841 -0.1380674528 0.1087383324
265298410.0 -0.1386702065 0.0996293412 0.479826543 -0.2842732686 0.4795089206 -0.2838361183 -0.1372904183 0.1102218137
270298380.0 -0.1376720378 0.1005282374 0.475839799 -0.2890949994 0.4767404815 -0.2893686894 -0.1359951962 0.1119673217
275298350.0 -0.1372780409 0.102044912 0.4729436127 -0.2950626388 0.4735162878 -0.2951206894 -0.1346672501 0.1132950937
280298320.0 -0.1363127135 0.1033548988 0.4703764942 -0.2995806959 0.4696473039 -0.2997379136 -0.1332049597 0.1148143469
285298290.0 -0.1351929826 0.1050629687 0.4667933372 -0.3055447041 0.4667422174 -0.3054158498 -0.1322131532 0.1163300757
290298260.0 -0.1341172183 0.1058905112 0.4637538614 -0.3106522865 0.463504529 -0.3108772612 -0.1307168625 0.11809068
295298230.0 -0.1329924277 0.1072675369 0.4603304082 -0.3161382903 0.4597612477 -0.3160058994 -0.1293918542 0.1192901345
300298200.0 -0.132000166 0.108329198 0.4567322734 -0.3211599801 0.4569352071 -0.3213548045 -0.1284526867 0.1208926266
305298170.0 -0.1309408477 0.1095908552 0.4536024203 -0.3267044955 0.4535492777 -0.3265836474 -0.1264176561 0.1222733419
310298140.0 -0.1298328247 0.11073087 0.4501232832 -0.3317695632 0.4500533014 -0.3321924989 -0.125151787 0.1241820626
315298110.0 -0.1290201261 0.111967154 0.446001043 -0.3367835437 0.4462458151 -0.3370964517 -0.1236303318 0.1248544533
320298080.0 -0.1281075534 0.1131163203 0.4423269385 -0.3421625803 0.4423529728 -0.3422480064 -0.1226950023 0.1262799798
325298050.0 -0.1272264103 0.1140177199 0.4388816383 -0.3471432962 0.4384499867 -0.347376044 -0.1212156373 0.1273011924
330298020.0 -0.1262567181 0.1153721782 0.4339377477 -0.3521853315 0.4344179788 -0.3524617666 -0.1202553821 0.1289225117
335297990.0 -0.1252720448 0.1166208934 0.4304403302 -0.3571378435 0.4305467621 -0.3574145147 -0.1188733913 0.1304487768
340297960.0 -0.1248287451 0.1181794436 0.4260374801 -0.3618044675 0.4264748048 -0.3621660977 -0.1175588969 0.1321025222
345297930.0 -0.1240387436 0.1195681946 0.4223173497 -0.366179641 0.4216813584 -0.3664654452 -0.1158602752 0.1334562857
350297900.0 -0.1223534012 0.120723003 0.4178712484 -0.370709611 0.4184307587 -0.3711530297 -0.1148520255 0.1350769119
355297870.0 -0.1215095718 0.1219881271 0.4136087373 -0.3752358411 0.414059414 -0.3759058485 -0.1139553627 0.1366122912
360297840.0 -0.1200592184 0.1232989655 0.4096305713 -0.380166275 0.4098452784 -0.3802766728 -0.1120092112 0.1380634034
365297810.0 -0.1190130514 0.1248553673 0.4052831419 -0.3845442623 0.4052042629 -0.3848880874 -0.1107174076 0.1395351086
370297780.0 -0.1175808715 0.1257414487 0.4009793017 -0.3890305166 0.4015693217 -0.3895720439 -0.1092765021 0.1407775661
375297750.0 -0.1168346724 0.1276234815 0.3971493785 -0.3938421053 0.396626505 -0.3938370631 -0.1074620441 0.142696009
380297720.0 -0.1151651851 0.128574857 0.3922770942 -0.3977439976 0.3924779104 -0.3977615019 -0.105927749 0.143875634
385297690.0 -0.1142772986 0.1300038893 0.3882049068 -0.4018241113 0.3879850668 -0.4023786067 -0.1043433454 0.1456005676
390297660.0 -0.1131343435 0.1311558289 0.3836858701 -0.4062854557 0.3836821208 -0.4067283444 -0.1028939781 0.146243495
395297630.0 -0.1117630439 0.1320351294 0.3795036866 -0.4103565286 0.3792396186 -0.4105001681 -0.101353332 0.1482086322
400297600.0 -0.1106056145 0.1336189826 0.3746914061 -0.41450352 0.3753492847 -0.4150938336 -0.1006825242 0.1492726246
405297570.0 -0.1091877408 0.13505931 0.370124651 -0.4189054267 0.3702788804 -0.4189372136 -0.0984974809 0.1508647278
410297540.0 -0.1076361003 0.1358890804 0.3649105017 -0.4227954571 0.3653753911 -0.423108238 -0.0969871973 0.1521526129
415297510.0 -0.106436875 0.1373856551 0.3608500804 -0.4269488835 0.3608891559 -0.4267489357 -0.0953513437 0.153423657
420297480.0 -0.1053104396 0.1381015947 0.355620737 -0.4312259697 0.3559819029 -0.4308927869 -0.0932404622 0.1543160301
425297450.0 -0.1038421885 0.1394651282 0.3511900745 -0.4345351374 0.3516903333 -0.4346362697 -0.0916075269 0.1560789692
430297420.0 -0.1027706704 0.1408754733 0.3463964755 -0.439113368 0.3467047705 -0.4384913157 -0.0903019783 0.1568418767
435297390.0 -0.1009837347 0.1417696739 0.3419402321 -0.442190352 0.3423123016 -0.4420436761 -0.0885557093 0.1582865806
440297360.0 -0.0997593652 0.142720029 0.3363524881 -0.4455821301 0.3366516363 -0.4457501289 -0.0870198876 0.1590428855
445297330.0 -0.0981241779 0.1435831148 0.3314823197 -0.4500929566 0.3318026478 -0.4496283401 -0.0853162943 0.1602423094
450297300.0 -0.0967191354 0.1448282769 0.3267920975 -0.4532566103 0.3271239582 -0.4533070169 -0.083673553 0.1616842606
455297270.0 -0.0957914934 0.1456208353 0.3223074373 -0.4566487793 0.3225683322 -0.4566176724 -0.0815105746 0.1627612086
460297240.0 -0.0945431668 0.1468667502 0.31708932 -0.4598287973 0.3166891534 -0.4602926912 -0.0798702744 0.1643930179
465297210.0 -0.0925706747 0.1479935896 0.3118006252 -0.4638461561 0.3121157785 -0.463628383 -0.0784443209 0.164733348
470297180.0 -0.0913671856 0.1490256743 0.3069720982 -0.466809038 0.3072700486 -0.4670080253 -0.0771241423 0.1660274304
475297150.0 -0.089965705 0.1497966938 0.3017442457 -0.4699437307 0.3018680847 -0.4698650016 -0.0747195761 0.1668548362
480297120.0 -0.0883050577 0.1504425868 0.2963278804 -0.473379585 0.2970473759 -0.4731933356 -0.0730896649 0.1683411101
485297090.0 -0.0868764409 0.1517303099 0.2916625735 -0.4765219201 0.291772635 -0.4763849254 -0.0712911185 0.1685549635
490297060.0 -0.0853273672 0.1526015737 0.2864027151 -0.4794989884 0.2860495661 -0.4798832873 -0.0692904141 0.1700072473
495297030.0 -0.0840601318 0.1537381878 0.280782947 -0.4825608407 0.2808396026 -0.483036626 -0.0673506151 0.1707263875
500297000.0 -0.0824053258 0.1545602226 0.2753137228 -0.4860591797 0.2757517749 -0.4858913432 -0.0659484993 0.1718475274
505296970.0 -0.0810790983 0.1553550227 0.2699948012 -0.4884926978 0.2703008258 -0.4888520864 -0.0645244704 0.1728333454
510296940.0 -0.0796265778 0.1562568412 0.2648638126 -0.4915182975 0.2650493664 -0.4915768291 -0.0618618634 0.1740080706
515296910.0 -0.0780763227 0.1573368813 0.2591765313 -0.4942549881 0.2595540594 -0.4942949005 -0.0602559449 0.1744307426
520296880.0 -0.0762884062 0.1580632834 0.2540109391 -0.4970487841 0.2543878612 -0.4972418403 -0.0583470845 0.175440531
525296850.0 -0.0752908424 0.1586506794 0.2484747761 -0.4994595351 0.2489180348 -0.5000645341 -0.0559471596 0.1762833789
530296820.0 -0.0735674114 0.1597868147 0.243546369 -0.5017853937 0.2433145654 -0.5024902876 -0.0546794564 0.1765390265
535296790.0 -0.0719290549 0.1603456412 0.2378315309 -0.5048099295 0.2379538014 -0.5049434625 -0.0526047612 0.1774620143
540296760.0 -0.0703355189 0.161069949 0.2323297811 -0.5080048625 0.2319520799 -0.5080167009 -0.0510804406 0.1785563876
545296730.0 -0.0686068161 0.1622992467 0.2263595923 -0.5097939506 0.2269733127 -0.5102568112 -0.0488461995 0.178770695
550296700.0 -0.067394313 0.1628344866 0.2216029455 -0.5124482828 0.2219325792 -0.5127515147 -0.0473025373 0.1803149029
555296670.0 -0.0654376851 0.1635581144 0.2158679903 -0.5146981442 0.2157297155 -0.5147712202 -0.0452689439 0.1806869756
560296640.0 -0.0640903156 0.1643004643 0.2101682472 -0.5171486198 0.2105201279 -0.5165854949 -0.0430592868 0.1812631234
565296610.0 -0.062697984 0.1651819144 0.2044207486 -0.5193531082 0.2042170115 -0.5194174596 -0.0414339022 0.1816643331
570296580.0 -0.0607096578 0.1657115209 0.1989183782 -0.5209851783 0.1989315219 -0.5216703055 -0.0394039255 0.1829032985
575296550.0 -0.0592421591 0.1669608669 0.193126189 -0.5234470293 0.1937748186 -0.5232616432 -0.0370175366 0.1832902771
580296520.0 -0.0575854842 0.1673771616 0.1876183018 -0.5256200949 0.1878678001 -0.5256378999 -0.0353681472 0.1836994482
585296490.0 -0.0557403618 0.1676878558 0.1818857533 -0.5275962921 0.1820597934 -0.5274310873 -0.0336659121 0.18406599
590296460.0 -0.0549249732 0.1684769877 0.1762043947 -0.5296118851 0.1761764997 -0.5293016788 -0.031227218 0.1847340511
595296430.0 -0.0528967796 0.1695949396 0.1705665033 -0.5316302014 0.1703590384 -0.531702223 -0.0290900247 0.1851727069
600296400.0 -0.0513298384 0.1701224271 0.1648399852 -0.5331607143 0.1651272425 -0.5331286796 -0.0273274629 0.185893279
605296370.0 -0.0495187107 0.1709923208 0.158979016 -0.5351471014 0.1589944859 -0.5345837353 -0.0250709854 0.1859846173
610296340.0 -0.0480066466 0.1712065183 0.1536316318 -0.5361619408 0.1533619882 -0.5368064775 -0.0227802485 0.187140354
615296310.0 -0.046153131 0.1721465664 0.1471360224 -0.537893121 0.1472064865 -0.5381779728 -0.0211110087 0.1871735093
620296280.0 -0.0445465088 0.1725965941 0.1413772312 -0.5394947069 0.1414894845 -0.5397137707 -0.0190488741 0.1869776738
625296250.0 -0.0427161421 0.1729272872 0.1354919847 -0.541436999 0.1355585201 -0.5412506892 -0.016880199 0.1879180696
630296220.0 -0.0411849181 0.1739151631 0.1294580295 -0.5428363511 0.1302904089 -0.5427366334 -0.0152973606 0.188345892
635296190.0 -0.0394628756 0.1741923369 0.123930729 -0.5431060627 0.1233917481 -0.5434658655 -0.0129989275 0.1883775653
640296160.0 -0.0380275735 0.1745473523 0.118044658 -0.5450301187 0.1178635025 -0.5453499669 -0.0105813344 0.1888043535
645296130.0 -0.0362694073 0.1753301444 0.1123731629 -0.5465155628 0.1118192463 -0.5462708529 -0.0093708506 0.1887418357
650296100.0 -0.0346434384 0.1762611026 0.1066315251 -0.5475335006 0.1063795787 -0.5475481671 -0.0069005431 0.1893868799
655296070.0 -0.0326724029 0.1761260131 0.1002634337 -0.548321559 0.0999050619 -0.5486244197 -0.0044289948 0.1894453232
660296040.0 -0.0315114887 0.1771797878 0.0943506553 -0.5493270437 0.0945451489 -0.5491627749 -0.0031068148 0.189558399
665296010.0 -0.0294318034 0.1770930502 0.0885930771 -0.5504514034 0.0887779108 -0.5505061575 -0.0009617425 0.1902528442
670295980.0 -0.027250173 0.1777618801 0.0824588909 -0.5512622527 0.0828684532 -0.5511173254 0.0007918113 0.1900285919
675295950.0 -0.0255397875 0.1781298344 0.07640154 -0.5518434511 0.0767445057 -0.55267192 0.0033883634 0.190447216
680295920.0 -0.024099174 0.1789471125 0.0705691105 -0.5530687776 0.0704074029 -0.5531704929 0.0054750917 0.1903985125
685295890.0 -0.022466302 0.1789397005 0.0647370219 -0.5533441865 0.0641213115 -0.5539570618 0.0076586775 0.1907338442
690295860.0 -0.0203107153 0.1792455257 0.0585133511 -0.553939573 0.0583430028 -0.5539722951 0.0095981014 0.1906939985
695295830.0 -0.0183218755 0.1795536887 0.0521891036 -0.554492693 0.0522504965 -0.5549009561 0.0113444486 0.1908455757
700295800.0 -0.0165099909 0.1799317533 0.0461862463 -0.5551794874 0.0466270921 -0.5553345756 0.0135095915 0.1904965363
705295770.0 -0.0149688409 0.1804113345 0.0405402925 -0.5557452379 0.0407322558 -0.5558589384 0.0153798851 0.1908100895
710295740.0 -0.0132727744 0.1808722539 0.0346250626 -0.555801361 0.0347167033 -0.5559550141 0.0169442454 0.1910135092
715295710.0 -0.0116859396 0.1808526031 0.0286278215 -0.5564272108 0.0287921445 -0.5566266692 0.0192968274 0.1902471644
720295680.0 -0.0098978252 0.1810757978 0.0227210546 -0.5565328113 0.0230166726 -0.5571936505 0.0219267512 0.1908772819
725295650.0 -0.0079488649 0.1813120219 0.0162837066 -0.5566295081 0.0164634064 -0.5566920203 0.0238303527 0.1909122124
730295620.0 -0.0064750706 0.1815339155 0.0108119441 -0.5570028869 0.0104632904 -0.5569456514 0.0260060977 0.1899781225
735295590.0 -0.0042470138 0.1816207457 0.0047754139 -0.5565956336 0.0046561171 -0.5571357417 0.0281053551 0.1901707726
740295560.0 -0.0025368292 0.1822225644 -0.0014612786 -0.5564312378 -0.0014898984 -0.5567686902 0.0301268064 0.1901263237
745295530.0 -0.000860327 0.1822072713 -0.0073723621 -0.5570921031 -0.0071346906 -0.5569562058 0.0319324276 0.189887691
750295500.0 0.0009707178 0.1821888539 -0.0132781717 -0.5562868584 -0.0135031813 -0.5567516699 0.0341726273 0.1894581526
755295470.0 0.0031716636 0.1825500425 -0.0191830288 -0.5564713123 -0.0190319143 -0.5570413004 0.0356793932 0.1891685167
760295440.0 0.0045380465 0.1830938605 -0.0255079167 -0.5564841723 -0.0256055855 -0.5563690863 0.0378020089 0.1891342047
765295410.0 0.0062950937 0.18276795 -0.0309166489 -0.5556424609 -0.0312580637 -0.5560782192 0.04039783 0.1891096647
770295380.0 0.0083886364 0.1827785551 -0.0376483907 -0.5552538689 -0.0372738514 -0.5555525984 0.0425357349 0.1885637316
775295350.0 0.0099415543 0.1831546287 -0.0435139763 -0.5549430731 -0.0430745076 -0.5549496957 0.0438901711 0.187601221
780295320.0 0.0119400272 0.183112637 -0.0491101235 -0.5542528022 -0.0488832544 -0.5546725179 0.0461648112 0.1880921276
785295290.0 0.0135098033 0.1833509489 -0.0550387876 -0.5533430672 -0.055297848 -0.5540380584 0.0479410661 0.1873455728
790295260.0 0.0152952997 0.1831260825 -0.0611663417 -0.552962435 -0.06141474 -0.5536772146 0.050610324 0.1870165417
795295230.0 0.0172125841 0.1833957882 -0.0668444354 -0.5523617352 -0.0667785959 -0.5524893235 0.0524389797 0.1870290184
800295200.0 0.01922187 0.1831445888 -0.0734482555 -0.5520662241 -0.0733666462 -0.552198758 0.0546811515 0.1863211294
805295170.0 0.0204657342 0.1831419421 -0.0786105008 -0.5503694017 -0.0788646948 -0.5508585774 0.0561832645 0.1857380102
810295140.0 0.0226782634 0.1831927498 -0.0846489215 -0.5499971796 -0.0848682516 -0.5506613026 0.0586802383 0.1855514034
815295110.0 0.0242789906 0.1833846146 -0.090865406 -0.5487886647 -0.0911952607 -0.5490227811 0.0605444404 0.1846309406
820295080.0 0.0259699608 0.182572217 -0.096464953 -0.5479651873 -0.0967530481 -0.5480441501 0.0623441342 0.1842821723
825295050.0 0.0280556949 0.1826274492 -0.1031169863 -0.5465018766 -0.1023655742 -0.5468288473 0.0647991035 0.1837741984
830295020.0 0.0299733477 0.1829559403 -0.1085353443 -0.5455427896 -0.1089808802 -0.5460001932 0.0662856147 0.1829783185
