!Created with skrf (http://scikit-rf.org).
# Hz S RI R 50.0 
!freq ReS11 ImS11 ReS21 ImS21 ReS12 ImS12 ReS22 ImS22
300000.0 -0.7664345813 -0.1808367791 0.0015190363 -0.0006373942 -0.0011275322 0.0006817288 -0.207377665 -0.1090925305
5299970.0 -0.7862875215 -0.0098498277 -0.0001399147 -0.0001498936 -6.331e-06 -4.9703e-05 -0.2156964171 0.0061533434
10299940.0 -0.7891618253 -0.00632595 -0.000110046 5.9596e-05 -0.0001337196 -0.0001159571 -0.211953429 0.0186289062
15299910.0 -0.7943784267 -0.0032822062 -5.94852e-05 -7.9517e-05 1.22325e-05 -7.30586e-05 -0.2071259774 0.0280601834
20299880.0 -0.8011554193 0.000476585 -4.42457e-05 -0.0001026449 -0.0002100036 -3.70953e-05 -0.2022016907 0.0357541389
25299850.0 -0.8073155316 0.0068617223 1.67072e-05 6.09919e-05 -5.5954e-06 1.28906e-05 -0.1964054629 0.0417205171
30299820.0 -0.813901734 0.0135835399 -4.61913e-05 -1.59019e-05 -3.57074e-05 0.00016774 -0.1904171062 0.0467318247
35299790.0 -0.8188881861 0.0231218475 1.27607e-05 7.74821e-05 0.0001346733 -0.0001446947 -0.1852651502 0.0505796617
40299760.0 -0.8233045583 0.0317253937 5.57917e-05 -0.0002106857 0.0001983485 9.51632e-05 -0.1792995872 0.0531994214
45299730.0 -0.8268157214 0.041730027 8.17369e-05 2.92128e-05 2.65896e-05 4.90564e-05 -0.1742219891 0.0552703342
50299700.0 -0.829106205 0.0519993757 6.1655e-05 7.34928e-05 -8.40612e-05 -3.5763e-05 -0.1693491877 0.0570081407
55299670.0 -0.8317397823 0.0614529358 3.27105e-05 3.2166e-05 -5.1447e-05 0.0001366442 -0.1651558368 0.0579507542
60299640.0 -0.8326553884 0.0717727292 9.11091e-05 5.22463e-05 -2.16879e-05 1.07877e-05 -0.1610932189 0.0585686177
65299610.0 -0.8338141277 0.0815994316 -5.0968e-05 -2.82539e-05 -0.0002021292 -4.12459e-05 -0.1574354806 0.0593535985
70299580.0 -0.833591976 0.091700123 -2.01934e-05 -0.0001574318 -4.3696e-06 0.0002358484 -0.1544708357 0.0595718142
75299550.0 -0.833841601 0.1022669759 1.5646e-06 0.000218438 -8.66136e-05 -0.0001749494 -0.1510854245 0.0594956037
80299520.0 -0.8340468373 0.1119779988 -9.16668e-05 1.41564e-05 0.0001374149 -8.23736e-05 -0.1485312063 0.0598974846
85299490.0 -0.8325542123 0.1211591179 -2.1832e-06 -0.0001210478 -5.3009e-05 3.89166e-05 -0.1461875937 0.0595749699
90299460.0 -0.8324157587 0.1317324883 -0.0001058384 -9.05027e-05 0.0001311681 0.0001136595 -0.1440341929 0.0598016085
95299430.0 -0.8313005069 0.140583114 0.0001242412 5.9535e-05 -0.0002222703 -2.20038e-05 -0.1418902998 0.0601118332
100299400.0 -0.8306924377 0.1502597342 6.2736e-06 0.0001469971 4.79898e-05 0.0001788025 -0.1401184368 0.0600752467
105299370.0 -0.8288072064 0.1587276516 6.27499e-05 0.0003065494 0.0001436345 0.0001499526 -0.1382460306 0.0597616734
110299340.0 -0.8276218127 0.1685894949 -0.0002215716 0.0001321065 -5.18703e-05 2.95566e-05 -0.1372667975 0.059822947
115299310.0 -0.8261139929 0.1775998686 6.32557e-05 0.0005036876 -0.0001632967 0.0001466144 -0.1358495078 0.0601517031
120299280.0 -0.8246292692 0.1868679161 -6.25806e-05 -0.0001955724 -0.0001197279 -5.61665e-05 -0.1345207836 0.0599040351
125299250.0 -0.822525474 0.1957176407 -0.0002017462 3.12754e-05 4.59843e-05 5.373e-05 -0.1334966169 0.0603581222
130299220.0 -0.8211171362 0.2054443538 0.0001290272 -0.00015832 2.93323e-05 7.88144e-05 -0.1323604497 0.0601083423
135299190.0 -0.8184664369 0.2142187364 3.06906e-05 0.0002244111 0.0002038289 6.38251e-05 -0.1318078478 0.0604840192
140299160.0 -0.8172069431 0.2232465594 4.80355e-05 0.0001541777 -7.19435e-05 -2.31573e-05 -0.1311533215 0.060841556
145299130.0 -0.8149368317 0.2324240763 0.0001617585 8.05655e-05 0.000111774 -0.0001443282 -0.1299232308 0.0609005301
150299100.0 -0.8120344279 0.2410577392 -3.4826e-06 -0.0001350052 0.0002295416 2.76901e-05 -0.1295503477 0.0615841074
155299070.0 -0.8101590987 0.250101409 1.3138e-06 5.59699e-05 0.0001976242 0.0001678568 -0.128659229 0.0619280343
160299040.0 -0.8081497959 0.2589282254 0.0001728354 3.39635e-05 -9.34271e-05 -5.51619e-05 -0.1282903608 0.062465122
165299010.0 -0.8048166734 0.2677025879 6.99228e-05 0.0002944046 6.43707e-05 4.19088e-05 -0.1273216887 0.0627925713
170298980.0 -0.8016592223 0.2762876154 0.0001846341 0.0001961415 -4.21895e-05 0.0001261761 -0.127176452 0.0632260394
175298950.0 -0.7995890384 0.2844356465 0.0003047285 -3.89471e-05 0.0003080728 0.0001695055 -0.1263797756 0.0644912598
180298920.0 -0.7962660887 0.2933349002 0.000115121 0.0002732276 0.0001908888 -9.98939e-05 -0.1257038745 0.0645435032
185298890.0 -0.7928735283 0.3019602538 1.01694e-05 0.0001472505 0.0001297918 -3.5815e-06 -0.1252048896 0.0648737147
190298860.0 -0.7894697454 0.3109360899 0.0001030933 8.15294e-05 -0.0002054623 0.0001585357 -0.1248684678 0.0656151237
195298830.0 -0.786017554 0.3194413778 0.0001165154 -7.84053e-05 -0.0001299918 4.14329e-05 -0.1246715126 0.0666556584
200298800.0 -0.782624401 0.3279140322 0.0001249668 -7.2995e-05 0.0001458633 -9.01888e-05 -0.12410267 0.0672542558
205298770.0 -0.7792151479 0.3366121214 7.78121e-05 0.0001630649 -7.001e-06 -3.63334e-05 -0.1235383187 0.0679475258
210298740.0 -0.7764747272 0.3447701818 -2.03442e-05 8.72877e-05 6.87806e-05 -6.46541e-05 -0.1233497315 0.0687123749
215298710.0 -0.7721859711 0.3532643631 5.26375e-05 6.45987e-05 0.0001086077 7.67573e-05 -0.1225214515 0.0694933156
220298680.0 -0.7688195618 0.3612533853 -9.85334e-05 -8.01503e-05 0.0001682819 0.0001584603 -0.1221074577 0.0704638508
225298650.0 -0.765119588 0.3694428486 0.0001645225 -4.24945e-05 3.65966e-05 2.98172e-05 -0.1217066325 0.0710184805
230298620.0 -0.7613154072 0.3777062482 -1.03401e-05 3.8194e-06 0.0001907028 3.25372e-05 -0.1212919617 0.071992006
235298590.0 -0.7574531483 0.3864023622 0.0001371314 0.0003304114 -4.74271e-05 0.0002209225 -0.1208902532 0.0732315388
240298560.0 -0.7530178703 0.393675469 2.06035e-05 8.69399e-05 4.02632e-05 -7.6615e-05 -0.1203573361 0.0735021634
245298530.0 -0.7488008288 0.4018891588 -0.0001348099 0.0001130498 -2.75473e-05 0.0002656187 -0.1198629964 0.0744359847
250298500.0 -0.7444703445 0.4091182629 0.0003315067 0.0001707612 -4.415e-07 7.58903e-05 -0.1194812037 0.0757553216
255298470.0 -0.7404901838 0.4171541586 0.0001432655 0.0001968003 -0.000168947 3.40752e-05 -0.1189256364 0.0762719491
260298440.0 -0.7364476968 0.4249534667 0.0001992963 0.0002315998 -0.0001265212 0.0002173823 -0.11865534 0.0774538438
265298410.0 -0.7318851147 0.4326062796 0.0001003489 0.000257439 0.000196555 7.684e-06 -0.1177334335 0.0782668988
270298380.0 -0.7273587637 0.4407378514 5.4551e-06 0.000161409 5.06452e-05 0.0001275127 -0.1171120925 0.079141378
275298350.0 -0.7230175823 0.4476400628 0.0001746129 -9.3838e-06 0.0001679437 0.0002232176 -0.1165765629 0.0802378948
280298320.0 -0.7183196838 0.4556190521 0.0001826555 0.0001086605 0.0002441055 2.86158e-05 -0.1164510326 0.0814355619
285298290.0 -0.7136826949 0.4635193135 -6.49217e-05 -4.83836e-05 0.000248249 3.88662e-05 -0.1158169423 0.0826675954
290298260.0 -0.708344854 0.4705679862 8.28505e-05 0.000234881 0.0003104647 -6.09154e-05 -0.1153719988 0.083523735
295298230.0 -0.7036924197 0.4781762447 3.51085e-05 0.0001449702 3.4203e-05 -4.6537e-06 -0.1144943605 0.0844526325
300298200.0 -0.6994295623 0.4851852894 0.0002535916 -2.26826e-05 -2.68966e-05 3.71285e-05 -0.1138299736 0.0856358586
305298170.0 -0.6945388405 0.4918013039 0.0003460551 7.4586e-06 0.0004398713 0.000190262 -0.1129840246 0.0866225025
310298140.0 -0.6885580687 0.4993780881 0.0002079638 9.53071e-05 -6.1553e-06 0.0002475183 -0.1125021314 0.0876485221
315298110.0 -0.6846803475 0.5072448444 0.0002186457 0.0001326984 0.0002217121 -7.27297e-05 -0.1117756516 0.088632155
320298080.0 -0.6786411243 0.5145903846 5.29558e-05 0.0001181645 -6.95115e-05 4.46081e-05 -0.1114545324 0.0893206169
325298050.0 -0.6734871499 0.5211878673 -0.0001556222 0.0001685935 -6.48851e-05 0.0001240093 -0.1105520275 0.0901943021
330298020.0 -0.668288903 0.5275939107 0.0001013936 -9.21376e-05 -0.0001432008 0.0001246344 -0.1098848429 0.0911963189
335297990.0 -0.6629533544 0.5346178712 8.62951e-05 0.0001836303 5.37334e-05 -6.67146e-05 -0.1093706855 0.0923153838
340297960.0 -0.6578634484 0.5417088527 3.4342e-05 -2.7694e-06 3.65829e-05 -9.1632e-05 -0.108728258 0.0934640097
345297930.0 -0.6520111801 0.5482476427 -8.68416e-05 0.0001751811 0.0002184123 9.57818e-05 -0.108504377 0.0941555286
350297900.0 -0.6460880245 0.5553963356 4.81743e-05 -6.14714e-05 0.0001972264 0.0001339185 -0.1078898295 0.0954564324
355297870.0 -0.6412793194 0.561497784 0.0001453163 0.0001663589 8.01588e-05 5.27245e-05 -0.1069542799 0.0969176934
360297840.0 -0.6342480557 0.5680955781 0.0001739418 5.05924e-05 5.43181e-05 -0.0001501451 -0.1063959343 0.0978226313
365297810.0 -0.6293123025 0.5747675882 1.07804e-05 7.15253e-05 9.0123e-05 9.14143e-05 -0.1057675502 0.0988870489
370297780.0 -0.6233160922 0.5806615607 0.0002181953 0.0001681186 7.89053e-05 2.67213e-05 -0.1052608051 0.1000911054
375297750.0 -0.61839221 0.587807072 0.0001475138 0.0003155517 0.0001368041 9.2695e-06 -0.1043195837 0.1010726868
380297720.0 -0.6118479161 0.5936321564 0.0002188459 0.0002439985 0.0002062659 5.82654e-05 -0.1036250996 0.1024523841
385297690.0 -0.6061759014 0.5994537357 7.73191e-05 -3.78e-07 8.36728e-05 0.0001695344 -0.1027490847 0.1032633029
390297660.0 -0.5984310898 0.6058369229 0.0004635638 -8.91139e-05 0.0002676535 -2.9813e-05 -0.1018049 0.1043911621
395297630.0 -0.5932205571 0.6123827778 0.0003645516 0.0002642752 -2.19506e-05 3.21191e-05 -0.1011526585 0.1053303528
400297600.0 -0.5867572099 0.6185076586 5.96182e-05 8.22181e-05 0.0001569589 0.0002377519 -0.1000798898 0.1064500771
405297570.0 -0.5809984929 0.6232130366 0.0002209236 0.0001015237 0.0001378536 -0.0001551541 -0.099085302 0.1074327421
410297540.0 -0.5738989204 0.6299669551 0.0001278462 2.84467e-05 0.0001153081 7.824e-05 -0.098706176 0.1087461205
415297510.0 -0.5678229772 0.635609576 0.0002990407 7.10691e-05 0.0001172116 -2.90929e-05 -0.0976889882 0.1094991318
420297480.0 -0.5605637214 0.6409026502 -0.0001454816 -2.89715e-05 0.0002269187 -7.57855e-05 -0.0962280736 0.1109182206
425297450.0 -0.5542910992 0.6464388678 8.16238e-05 0.0002825911 6.53487e-05 -6.93995e-05 -0.0959536648 0.1115795474
430297420.0 -0.5475980896 0.6521018415 0.0002222056 -7.77041e-05 0.0003750671 2.80115e-05 -0.0948669756 0.112799248
435297390.0 -0.5414878536 0.6576413013 0.0001466768 -1.27859e-05 0.0001762371 0.0002558084 -0.0942266985 0.1141175885
440297360.0 -0.5341579021 0.6631787292 0.0001350785 -5.20319e-05 0.0001104524 -7.868e-07 -0.0929367721 0.1149556082
445297330.0 -0.5270885639 0.6685599184 0.000299456 9.0557e-06 0.0003540998 0.0002110862 -0.0919518032 0.1160476445
450297300.0 -0.5203466354 0.6733312075 -7.5312e-05 0.0002448281 0.0001348002 0.0001924742 -0.0909597397 0.1168825182
455297270.0 -0.5138167791 0.6786977426 0.000450316 0.0001683777 9.33039e-05 2.79382e-05 -0.0901135793 0.1178037408
460297240.0 -0.5061868119 0.6838355086 -2.20257e-05 1.3663e-06 0.0001300402 -5.037e-06 -0.0890562933 0.1188538756
465297210.0 -0.4994946911 0.6887132296 0.0002761512 -1.06824e-05 0.0003210078 7.73012e-05 -0.0880433846 0.1201613853
470297180.0 -0.4919637431 0.6940502987 -1.13015e-05 0.0002450575 0.0003927443 2.30192e-05 -0.0868696911 0.1208795234
475297150.0 -0.4844912915 0.6986111912 0.0001864244 8.7904e-05 0.0002399234 2.8972e-05 -0.0856412316 0.1222635148
480297120.0 -0.4765008923 0.7039882102 -8.00569e-05 8.86802e-05 0.0001060031 4.33361e-05 -0.0846855856 0.1231202822
485297090.0 -0.469914809 0.7089310153 0.0003618702 8.9902e-06 0.0001561793 0.0001491111 -0.0839792548 0.123856477
490297060.0 -0.462409075 0.7144766743 0.0002284622 0.0001654241 7.34013e-05 6.65372e-05 -0.0825484088 0.1248068533
495297030.0 -0.4550057945 0.7183068114 0.0002726861 7.40437e-05 0.0003234153 0.0001236792 -0.0818940039 0.1257244545
500297000.0 -0.4472646155 0.7224058978 0.0002626868 0.0001535661 0.0002793813 -1.0697e-05 -0.0805148156 0.1267936497
505296970.0 -0.4394043849 0.7267064136 0.000197724 -0.0001322448 0.0002632946 1.9827e-05 -0.0796889152 0.1276855936
510296940.0 -0.4323176169 0.7315646967 0.0001951101 0.0001367397 0.0002216501 7.96733e-05 -0.0780030793 0.1287834569
515296910.0 -0.4244375508 0.7356909007 0.000262215 1.82839e-05 0.0003802525 0.0001142489 -0.0772108336 0.1293155357
520296880.0 -0.4163037234 0.7406352601 0.0001187166 0.0001119288 0.0003893593 -5.1795e-06 -0.0759570168 0.1307572551
525296850.0 -0.4083202155 0.744097835 0.0003044777 -2.88644e-05 0.0002595293 1.65504e-05 -0.0748828545 0.1313122587
530296820.0 -0.4014306443 0.7478718976 0.0001181199 -1.13764e-05 0.0003727473 -0.0001061904 -0.0739643826 0.1317666987
535296790.0 -0.3933379305 0.752043754 9.30592e-05 2.7452e-06 0.0001859439 -7.22724e-05 -0.0722142721 0.1332149596
540296760.0 -0.3852513722 0.7561712073 0.0003308382 5.54626e-05 3.75664e-05 0.0002151415 -0.07149781 0.134006632
545296730.0 -0.3776247033 0.7603535069 0.000362314 0.0002081639 5.38454e-05 0.0001033957 -0.0699680964 0.1346880077
550296700.0 -0.3691575545 0.7637957227 0.0002535778 -0.0001106028 0.000352435 0.0001776477 -0.0689775575 0.1356025908
555296670.0 -0.3612915634 0.7671733794 0.0002662081 0.0002326201 0.000233331 1.17315e-05 -0.0678337545 0.1359684162
560296640.0 -0.3531719577 0.7705053549 0.0002080934 -1.84304e-05 -3.7567e-06 0.0001046523 -0.0665436988 0.1372721189
565296610.0 -0.3453551752 0.7744553657 0.0002530664 4.13099e-05 1.09377e-05 -4.18755e-05 -0.0649445332 0.1379393651
570296580.0 -0.3370862342 0.7783149578 0.0001049189 0.0001207593 0.0003429133 0.0001873025 -0.0642717727 0.1388953607
575296550.0 -0.3282174355 0.7809473762 0.0001378489 7.81102e-05 0.0001203227 0.0001203338 -0.0627602541 0.1394307256
580296520.0 -0.3210894502 0.7844774253 0.0003235458 -8.33795e-05 0.0001526784 -5.82739e-05 -0.0616954159 0.1403760398
585296490.0 -0.3124804028 0.7875357052 0.0001645185 5.61221e-05 6.03912e-05 1.3738e-05 -0.060082181 0.1414162215
590296460.0 -0.3038973263 0.7908155383 0.0003242565 -0.0001146467 0.0001502231 1.67886e-05 -0.05908854 0.1419599975
595296430.0 -0.2960839975 0.7936581157 0.0003656805 -0.0001037931 0.0001123645 0.0001133139 -0.0579114716 0.1424339084
600296400.0 -0.2883536175 0.7970183835 0.0001417499 -1.88646e-05 0.0002483731 8.76405e-05 -0.0566012446 0.1431787332
605296370.0 -0.2802493159 0.7993880915 0.0002220421 -5.68375e-05 3.10661e-05 -2.16646e-05 -0.0552301051 0.1440667062
610296340.0 -0.2710743227 0.8033578791 0.0002276656 0.0002319095 0.0002819475 1.70098e-05 -0.0538822476 0.1446794808
615296310.0 -0.2625250328 0.8058360133 4.4524e-06 -5.68095e-05 0.0001688407 -1.70765e-05 -0.0525064652 0.145485968
620296280.0 -0.2549978812 0.8083663749 0.0002271679 -0.0002069936 0.0002222335 0.0001759622 -0.0511229177 0.146342791
625296250.0 -0.2471694714 0.8102534273 0.0002807575 -0.0001013697 0.0003320264 0.0001119455 -0.0498294569 0.1470937651
630296220.0 -0.2388972708 0.8131142356 0.000491842 0.0001308731 0.0002362056 -0.0001422528 -0.0484093444 0.1476947189
635296190.0 -0.2305162676 0.8157201125 0.0002912669 9.66098e-05 0.0004246452 -2.70866e-05 -0.0471953949 0.1481260754
640296160.0 -0.2212874024 0.8180801403 0.0001946852 -6.52578e-05 0.0002162105 -2.33475e-05 -0.0457475815 0.1492119215
645296130.0 -0.2137119137 0.8202889568 1.41918e-05 0.0001665619 0.0003217468 9.39939e-05 -0.0448571309 0.1494164131
650296100.0 -0.2052481761 0.8221886407 0.000356897 8.11774e-05 0.00029728 3.65981e-05 -0.042991428 0.1499264884
655296070.0 -0.1976694499 0.8244524701 0.0001857005 -7.41388e-05 0.0002437059 0.0001338111 -0.0421090609 0.1506191088
660296040.0 -0.188779762 0.8264546488 0.0002449635 3.38837e-05 0.0003414244 -9.9454e-06 -0.0402351232 0.1512590865
665296010.0 -0.1807630403 0.8285512793 0.0003268438 -0.0003444363 0.0002824384 -4.07934e-05 -0.0389686912 0.1516950569
670295980.0 -0.1723788279 0.8304301105 0.0004258409 0.0001753458 0.0001853959 -4.6576e-06 -0.0376789643 0.1521373315
675295950.0 -0.1636268773 0.8321635517 0.000359718 0.0002461376 0.0003639617 -2.40069e-05 -0.0360288231 0.1531537776
680295920.0 -0.1565476669 0.8340223914 0.0002030513 0.0001641304 0.0003987061 9.36312e-05 -0.0347519148 0.1535422343
685295890.0 -0.1473812823 0.8358920236 0.0001650004 3.16581e-05 0.0002586298 -0.0001145102 -0.033525061 0.1542266738
690295860.0 -0.1386260792 0.8369881337 0.0003464099 -9.76489e-05 0.0003796629 -0.0001944135 -0.0318869656 0.1547134781
695295830.0 -0.1309266357 0.8386608274 0.0002890792 -0.0001266393 0.0003819498 -1.6147e-06 -0.0304646151 0.1550186349
700295800.0 -0.1219342862 0.8401267126 0.0003031008 9.7483e-05 0.0002799193 0.0001065684 -0.0288085139 0.1554921682
705295770.0 -0.1143272176 0.8413934543 0.0002864019 -0.0001666063 0.0002971444 -9.1371e-06 -0.0277348924 0.1561678698
710295740.0 -0.1064357332 0.8423867058 0.0002619525 0.000106065 0.0001529808 -0.0001932336 -0.0262124609 0.1565263653
715295710.0 -0.0975084177 0.8438875246 0.0003993837 -5.486e-06 0.0001938527 -0.0002134844 -0.0245081803 0.1568904799
720295680.0 -0.0886968017 0.8443566939 0.0003027828 4.935e-05 0.0001601717 -0.0001194937 -0.0232593618 0.1572076668
725295650.0 -0.0815694382 0.8460167797 0.0001327781 0.0002155452 0.0002534184 -7.62758e-05 -0.0218307909 0.1578892061
730295620.0 -0.0736666933 0.8468377309 0.000229102 -0.000139727 0.0002823891 -0.0003344699 -0.0203756705 0.1585447804
735295590.0 -0.065908786 0.8481138885 0.0001221671 -0.0001980621 0.0002992848 2.29076e-05 -0.0186410418 0.1585630859
740295560.0 -0.0572861598 0.8473997446 0.0003395186 -1.40679e-05 0.000263376 -1.75444e-05 -0.0174514954 0.1590239999
745295530.0 -0.0485802006 0.8489711624 7.69745e-05 3.34433e-05 0.0002967188 3.63646e-05 -0.01601238 0.1593901842
750295500.0 -0.0406216739 0.8491226584 0.0002758599 -9.39796e-05 8.57842e-05 -5.64629e-05 -0.0143239639 0.1598458895
755295470.0 -0.0320394251 0.8502737028 0.0002729261 0.0001457026 0.0003168871 -2.52464e-05 -0.0130147831 0.1603457982
760295440.0 -0.0238969094 0.8508187024 0.0004975098 -0.0001563772 0.0003635693 -1.91831e-05 -0.0113663027 0.1600203433
765295410.0 -0.0159471506 0.8507790939 0.0003662251 -5.23224e-05 0.0003905834 -0.0002114477 -0.0098388078 0.1605063707
770295380.0 -0.0081204698 0.8511329911 0.0005116581 -8.76447e-05 0.0002330084 -0.0004046454 -0.0083930323 0.1609413699
775295350.0 -0.0001552235 0.8505264455 0.0005515581 -0.0001867097 0.0002366541 3.88197e-05 -0.0064972207 0.1610579761
780295320.0 0.0086445493 0.8514243337 0.0002224274 -0.0002573828 0.0001478235 -3.13795e-05 -0.0053538569 0.1616156616
785295290.0 0.016955954 0.851062946 0.0004177176 -3.33017e-05 0.000331083 -0.0002414965 -0.0039761463 0.1621358476
790295260.0 0.0249908794 0.8508249062 0.0002339595 -0.0002444468 0.0002335995 -7.7766e-06 -0.0024073079 0.1621694201
795295230.0 0.0330044305 0.8508557444 0.00014437 -0.0002044129 0.0001951563 -0.0001136894 -0.0009562745 0.1620770722
800295200.0 0.041683259 0.8509598664 0.0003637424 -6.05219e-05 0.0003033195 -0.0001528977 0.0005924053 0.1622025159
805295170.0 0.0492054669 0.8502986025 0.0005266453 5.20733e-05 0.0003553041 -4.11035e-05 0.0025968601 0.1624595011
810295140.0 0.0581077584 0.8506094949 8.6117e-05 -0.0002733254 0.0002444897 -4.87831e-05 0.0039284234 0.16267499
815295110.0 0.0650895494 0.8497033589 0.0003270952 6.32315e-05 0.000527765 -1.12917e-05 0.0052132305 0.1629395944
820295080.0 0.073628728 0.8490590747 0.0001206705 -9.5744e-05 0.0004335499 -0.0002334041 0.0065105063 0.1631380051
825295050.0 0.0823533085 0.8484842864 0.0004052748 4.22369e-05 0.0002382352 -1.86998e-05 0.0086972131 0.1633515989
830295020.0 0.0904980779 0.8477254441 0.0003254875 -0.0003293002 0.0003368568 2.32685e-05 0.0100230586 0.1633032925
835294990.0 0.0980807346 0.8468822433 0.0003446172 -0.0003235013 0.0003045777 -0.0002081376 0.0114941155 0.1636149404
840294960.0 0.1067732027 0.8453618407 0.0002696513 -0.0001996576 0.0003748173 -0.0001279919 0.013254848 0.163327021
845294930.0 0.1151286664 0.8445734231 0.000529395 9.94095e-05 0.0001769755 -0.0002371065 0.0144849498 0.1637013375
850294900.0 0.1240081736 0.8433708558 0.0003440391 -0.0002377204 0.0001432228 -0.000175809 0.0160671719 0.1635722302
