!Created with skrf (http://scikit-rf.org).
# Hz S RI R 50.0 
!freq ReS11 ImS11 ReS21 ImS21 ReS12 ImS12 ReS22 ImS22
300000.0 -0.2346808621 -0.1122779286 0.4674093984 0.0729152676 0.4725841801 0.0758504563 -0.2397270129 -0.116177818
5299970.0 -0.2410339825 0.0067458834 0.4749977399 0.0054880653 0.4750242759 0.0057512068 -0.2448790114 0.0054029486
10299940.0 -0.2374894649 0.0199074856 0.4771692721 0.0061443107 0.4768745444 0.0067411698 -0.2417177443 0.0175873528
15299910.0 -0.2330416675 0.0298881987 0.4805642524 0.0074226437 0.4806825543 0.0076500135 -0.2373959821 0.0264640345
20299880.0 -0.2273450844 0.0378475738 0.485303124 0.0081895615 0.4855009266 0.0079788274 -0.2326363243 0.0341854654
25299850.0 -0.2217557052 0.0442704049 0.4905030478 0.0065950254 0.4906062772 0.0071484303 -0.2277530504 0.0400340317
30299820.0 -0.2158497642 0.0493065667 0.4961701735 0.0053491644 0.4958036524 0.005040143 -0.2224862453 0.0447555752
35299790.0 -0.2098148458 0.0540554247 0.501068012 0.0014240229 0.5013586178 0.0019223643 -0.2173875439 0.0487892796
40299760.0 -0.2045812445 0.0569858644 0.5061822259 -0.0019323174 0.5064862481 -0.0023714116 -0.2124911527 0.0521020451
45299730.0 -0.1995094037 0.0601023779 0.5106925806 -0.0072334254 0.510999051 -0.0067947928 -0.2079197518 0.0546219534
50299700.0 -0.1948739602 0.0617383559 0.5149417611 -0.0127816302 0.5148468552 -0.0124404923 -0.20379061 0.0565170293
55299670.0 -0.1905900143 0.0638795831 0.5183596011 -0.0186594948 0.518791898 -0.0186276514 -0.2002212492 0.0582038555
60299640.0 -0.1864412498 0.0648826832 0.5217329973 -0.025034128 0.5220490872 -0.0249050897 -0.1963033876 0.0597768038
65299610.0 -0.1831687121 0.066412862 0.5250812963 -0.0306215725 0.5254087725 -0.0309711264 -0.1927521555 0.0606970397
70299580.0 -0.1795447678 0.0669145056 0.5270144275 -0.0373902638 0.5270800701 -0.037793864 -0.189732631 0.0616916467
75299550.0 -0.1764779927 0.0683764554 0.5293347628 -0.0447007052 0.5293215369 -0.0445476091 -0.1871640497 0.0627829446
80299520.0 -0.1741867379 0.0688555755 0.5313597358 -0.0516265505 0.5311541501 -0.051608357 -0.184864152 0.0627436846
85299490.0 -0.1713869705 0.0695535203 0.5324837229 -0.058532263 0.5324951787 -0.0586119717 -0.1824954115 0.0637516585
90299460.0 -0.1693130434 0.0703971463 0.5333030085 -0.0651697737 0.5333928698 -0.0652672293 -0.179952128 0.0643631637
95299430.0 -0.1672282635 0.0711490427 0.5345025915 -0.0725269734 0.5345693598 -0.0719609887 -0.1787447284 0.0652250173
100299400.0 -0.1653870969 0.0715316114 0.5347744812 -0.0789434235 0.5348883682 -0.0790431671 -0.1772255463 0.0658046703
105299370.0 -0.1635331724 0.0723658134 0.5348841382 -0.0859046186 0.5350523482 -0.086160028 -0.1749096337 0.066324592
110299340.0 -0.1618787681 0.0731271434 0.5344003667 -0.0926816345 0.5350267769 -0.0930603932 -0.1738985548 0.0669439928
115299310.0 -0.1600714675 0.0735355985 0.5350382448 -0.0993631918 0.5353349172 -0.0993748676 -0.1723841934 0.0671206974
120299280.0 -0.1590651946 0.0746477571 0.5350128803 -0.1062636356 0.5348892031 -0.1065849438 -0.171295693 0.0680954861
125299250.0 -0.1577151248 0.0752664554 0.5345257103 -0.1130094571 0.5349949056 -0.1134502862 -0.1699232129 0.0684729952
130299220.0 -0.1565023919 0.0763280813 0.5338017378 -0.1194468953 0.5341059001 -0.1198634377 -0.1689137486 0.0695112653
135299190.0 -0.1549801699 0.0767193589 0.5332228455 -0.1260462083 0.5329512804 -0.1261798547 -0.1680058619 0.070029546
140299160.0 -0.1543243721 0.0781849155 0.5321534929 -0.1330622267 0.5326231646 -0.1332925199 -0.1666675334 0.071197305
145299130.0 -0.1530996081 0.0789460299 0.5317325478 -0.1396016807 0.5313650077 -0.1393895964 -0.1664995297 0.0718835933
150299100.0 -0.1520095353 0.0798483897 0.530430408 -0.1462702252 0.5306961548 -0.145931984 -0.1654075734 0.0725250764
155299070.0 -0.1512238295 0.0814172861 0.5292699778 -0.1531654886 0.5290960985 -0.1527175324 -0.1645240574 0.0736384784
160299040.0 -0.1499090816 0.082166496 0.52722647 -0.158825579 0.5280064621 -0.1591333758 -0.1638214475 0.074736234
165299010.0 -0.1492199127 0.0830473874 0.52643807 -0.1657869893 0.5265697903 -0.1656262759 -0.1627435207 0.0755489046
170298980.0 -0.1483754856 0.0843161412 0.5243240487 -0.1717569206 0.5247138537 -0.1719109524 -0.1618198182 0.0765262143
175298950.0 -0.1472675009 0.0856703465 0.5234167632 -0.1776404056 0.5233243871 -0.1781410701 -0.1610663523 0.0774467831
180298920.0 -0.146246632 0.0867692411 0.5214495147 -0.1845474627 0.5214465664 -0.1841215747 -0.1600234613 0.0788851263
185298890.0 -0.1452565547 0.0876664309 0.5197221186 -0.1908323158 0.5198495882 -0.1903552915 -0.159977726 0.0796224888
190298860.0 -0.1444345663 0.0890704107 0.5174595045 -0.1970010237 0.5178388272 -0.1970320178 -0.1584149216 0.0811310778
195298830.0 -0.1436038552 0.0902317848 0.5153319163 -0.2025294189 0.516028592 -0.203178752 -0.1580945837 0.0816853768
200298800.0 -0.1425534036 0.0918105288 0.5138647662 -0.2083543519 0.5138888034 -0.2089286376 -0.157068361 0.0833198425
205298770.0 -0.1419919733 0.0929847584 0.5119443168 -0.2148622376 0.5117224876 -0.214923992 -0.1562794472 0.0839376448
210298740.0 -0.1409642346 0.0941010731 0.5094258043 -0.221080073 0.5092518112 -0.2212323088 -0.1555824789 0.0853424789
215298710.0 -0.1398165494 0.0957753807 0.5067936657 -0.2267558165 0.5071096337 -0.2268501945 -0.1551629414 0.0868279903
220298680.0 -0.1388408812 0.0970326214 0.5044590042 -0.2327318393 0.5046736011 -0.2330103369 -0.1538497494 0.0882119047
225298650.0 -0.1375332644 0.0985147627 0.5020638303 -0.2384360863 0.5018077286 -0.238404019 -0.1535612509 0.0894291342
230298620.0 -0.1369231038 0.100084918 0.4995317222 -0.2446347141 0.4999161938 -0.24453496 -0.1524912916 0.090382547
235298590.0 -0.1357399683 0.1010888365 0.4967643827 -0.2498619315 0.497176926 -0.2504567135 -0.1518738586 0.0913797477
240298560.0 -0.134975993 0.1026276478 0.4944867855 -0.255610864 0.4942228002 -0.2555454554 -0.1510075452 0.0930393896
245298530.0 -0.1336352627 0.1037685981 0.4911323499 -0.2614468783 0.4915374895 -0.2617980427 -0.1501139593 0.0945724122
250298500.0 -0.1330377565 0.1051011261 0.4882883673 -0.2666514183 0.4889871578 -0.2667032684 -0.1489929708 0.0955841435
255298470.0 -0.1320258001 0.1066871984 0.4853974366 -0.2726568556 0.4857405985 -0.2723232173 -0.1481343046 0.0967167047
260298440.0 -0.1310443394 0.1082063341 0.4830218905 -0.2780471921 0.4828093292 -0.2784275323 -0.147023027 0.0982430652
265298410.0 -0.1295500908 0.1098187519 0.4796537631 -0.284113082 0.4796203601 -0.2837560477 -0.1463613456 0.0995154715
270298380.0 -0.12840207 0.1108100238 0.4759557262 -0.2892487956 0.4769310744 -0.2896641968 -0.1452356418 0.1014086078
275298350.0 -0.1274363109 0.1125166251 0.4734936093 -0.2944069365 0.4738586379 -0.2949564983 -0.1443527283 0.1023208029
280298320.0 -0.1262648227 0.1138901074 0.4702136325 -0.299741177 0.4701950918 -0.2999793245 -0.1432933934 0.1037500108
285298290.0 -0.1247175299 0.1155603466 0.4671612655 -0.3053755106 0.4666299454 -0.3052169669 -0.1426492013 0.1052150619
290298260.0 -0.1236262503 0.1169494897 0.4641808533 -0.3105273301 0.4638409775 -0.3107454102 -0.1412001297 0.1066144496
295298230.0 -0.1226897107 0.1179456236 0.4606071559 -0.3155633202 0.4601259323 -0.3160661229 -0.1402332357 0.107714571
300298200.0 -0.1207700087 0.1192748721 0.4564830067 -0.3210144084 0.4570649112 -0.3211527909 -0.1391166968 0.1095571413
305298170.0 -0.1198150159 0.120884645 0.4537926466 -0.3266922493 0.4538706855 -0.3267652949 -0.1378623188 0.1107957132
310298140.0 -0.1181148438 0.1218605047 0.4502715605 -0.331712554 0.4497846287 -0.3320504779 -0.1368996761 0.1122647127
315298110.0 -0.1173919717 0.1231460835 0.4464057445 -0.3366363246 0.4465753194 -0.3370965222 -0.1356559749 0.1134270857
320298080.0 -0.1159258802 0.1244886542 0.4427525088 -0.3420238965 0.4427630735 -0.3420968704 -0.1348480509 0.1146103089
325298050.0 -0.1148214093 0.125622913 0.4392111917 -0.3471524026 0.4391495758 -0.3475310199 -0.1337366366 0.1160254315
330298020.0 -0.113249224 0.1269981449 0.4338705932 -0.3523425982 0.4346882642 -0.3520710872 -0.1333086412 0.1171880521
335297990.0 -0.1121288808 0.1280625822 0.430801904 -0.3568703121 0.4307497614 -0.3571931935 -0.1318709748 0.1182090955
340297960.0 -0.1112989855 0.1298782495 0.4268689777 -0.3615617517 0.4268983832 -0.3614100738 -0.1308425916 0.1200122203
345297930.0 -0.1100885283 0.1312573112 0.4226819999 -0.3662977183 0.4223506045 -0.366247607 -0.1298680653 0.1211595204
350297900.0 -0.1083313791 0.1325138168 0.4179449593 -0.3706315589 0.4187031526 -0.370812796 -0.1291201689 0.123177487
355297870.0 -0.1071341998 0.133966073 0.4141344431 -0.3757192943 0.4139879637 -0.3756321121 -0.1278308183 0.1244674952
360297840.0 -0.1056788173 0.1351562903 0.410234194 -0.380193209 0.4100772227 -0.3800339099 -0.1265717268 0.125806927
365297810.0 -0.1040980244 0.1364509314 0.4054525754 -0.3843713382 0.4060506017 -0.3847448306 -0.125389566 0.1273680175
370297780.0 -0.1026842279 0.1375434737 0.401413663 -0.3890738975 0.4015802095 -0.3895358238 -0.1239842911 0.1289703889
375297750.0 -0.1014487573 0.1395566717 0.398058749 -0.3937569596 0.3973902183 -0.3937999001 -0.1229581304 0.1304669055
380297720.0 -0.0997432073 0.1401536756 0.3929072018 -0.3974638449 0.3932380301 -0.3978262654 -0.1218374018 0.1319539967
385297690.0 -0.0979964979 0.141626663 0.3884599389 -0.401363273 0.3885816741 -0.4019579772 -0.1205819508 0.1333114436
390297660.0 -0.0968196164 0.1426119612 0.3840614138 -0.4062958846 0.3841358812 -0.406859136 -0.1193367315 0.1342570274
395297630.0 -0.0948446373 0.1438967869 0.3797468513 -0.4102239885 0.3796603233 -0.4105023353 -0.1181702861 0.1358052152
400297600.0 -0.0936216805 0.1451335609 0.3751111596 -0.4145149334 0.3755552787 -0.4147659291 -0.1174831514 0.1369487758
405297570.0 -0.0917330807 0.1464040176 0.3704993319 -0.4186745623 0.3706150663 -0.4189919063 -0.1158862012 0.1386391261
410297540.0 -0.0898984135 0.1476013478 0.3655138897 -0.4225827224 0.3657209023 -0.4228457962 -0.1144560397 0.1398601288
415297510.0 -0.0884388545 0.1491238085 0.3613957347 -0.4266472917 0.3612276892 -0.4267789165 -0.1132184882 0.1415093538
420297480.0 -0.086627442 0.1497518595 0.3563982561 -0.4311038536 0.3563957884 -0.4308043948 -0.1115628052 0.1423103104
425297450.0 -0.085095997 0.1508173573 0.3519009391 -0.434401057 0.3521844311 -0.4345676033 -0.1104148016 0.1439288713
430297420.0 -0.0835816649 0.1521933971 0.3468358337 -0.4383911938 0.3469472807 -0.438328572 -0.1090494389 0.144972166
435297390.0 -0.0817490214 0.1530790854 0.3424176489 -0.4421366731 0.3421544795 -0.4417861306 -0.1078761588 0.1465857534
440297360.0 -0.0798500003 0.1540486563 0.3373201468 -0.4458874473 0.3368037033 -0.4460493309 -0.1061895888 0.1475808931
445297330.0 -0.0779682049 0.1551608749 0.3322590902 -0.4494723642 0.3322210082 -0.4495755755 -0.1049905573 0.1484719726
450297300.0 -0.0765731272 0.1559243737 0.3273196753 -0.4529156038 0.3275091708 -0.4532672519 -0.1037392056 0.1501635204
455297270.0 -0.0747778659 0.1570719785 0.3225430642 -0.4566483767 0.3228229807 -0.4565979955 -0.1017850174 0.1512447321
460297240.0 -0.073058665 0.1579988585 0.3171679262 -0.4597564752 0.3170878568 -0.4604006338 -0.1007268809 0.153120668
465297210.0 -0.0708732362 0.1588435158 0.3124557605 -0.4635274694 0.3125803627 -0.4636524684 -0.0993244641 0.1535475813
470297180.0 -0.0694956377 0.1597385475 0.3073577513 -0.4665778009 0.3076219816 -0.4669102798 -0.0985459828 0.1545350333
475297150.0 -0.0678752812 0.160346281 0.3018622654 -0.4698064083 0.3027409348 -0.4694522341 -0.0966044516 0.1558256522
480297120.0 -0.0657267615 0.1613742959 0.2972378833 -0.4732824573 0.297527523 -0.4733417398 -0.0948186061 0.1575420167
485297090.0 -0.0639036184 0.1623513421 0.2920714619 -0.4765782899 0.2919961554 -0.4765034885 -0.0938364305 0.1579799233
490297060.0 -0.062043046 0.1630596478 0.2867997507 -0.4797333289 0.2868127921 -0.4796213143 -0.0921929456 0.1592714935
495297030.0 -0.0605940891 0.1641780388 0.281888853 -0.4826030822 0.2810655811 -0.4831486826 -0.0907886219 0.1600219911
500297000.0 -0.0585051882 0.1647357755 0.2763302648 -0.4858172092 0.276398441 -0.4858851643 -0.0893698253 0.1612893901
505296970.0 -0.0569295991 0.1656226004 0.2705158509 -0.4883445113 0.2707250819 -0.4886496784 -0.0880265283 0.1625115564
510296940.0 -0.0551062282 0.1664166006 0.2656337481 -0.4912354603 0.2656557687 -0.4919601788 -0.0859491452 0.1638026674
515296910.0 -0.0532219056 0.1671185634 0.2600315827 -0.4940217711 0.260361688 -0.494287561 -0.08487664 0.1645163277
520296880.0 -0.0512356073 0.1678475164 0.2545879156 -0.4972373062 0.2548755318 -0.4971805405 -0.0830460763 0.1655146249
525296850.0 -0.0494830786 0.1684818885 0.2491562358 -0.4997210007 0.2493540837 -0.5000380634 -0.0812714266 0.1664534822
530296820.0 -0.0473393019 0.1691548108 0.2440289707 -0.5022893021 0.2440128936 -0.5024504547 -0.080360246 0.1670657264
535296790.0 -0.0453756654 0.1695143689 0.2384358317 -0.5045474399 0.2385363427 -0.5045984544 -0.0785847088 0.1680235086
540296760.0 -0.0439474644 0.1702524095 0.2329017356 -0.5078887635 0.2329488617 -0.5079664366 -0.0773212347 0.1695061616
545296730.0 -0.0417863437 0.1711929752 0.2273891118 -0.5100852722 0.2278355623 -0.5106137056 -0.0756375756 0.1698914281
550296700.0 -0.04002722 0.1715201694 0.2217520453 -0.5126891945 0.222334231 -0.5125145592 -0.0742220032 0.1714273083
555296670.0 -0.0377551471 0.1721992776 0.2160185969 -0.5150241844 0.2168646884 -0.5147956365 -0.0724073689 0.1721713595
560296640.0 -0.0362801071 0.1724880176 0.2107726551 -0.5166885378 0.2109255357 -0.5167222138 -0.0704235364 0.1727547364
565296610.0 -0.0345251058 0.1730860736 0.2051850334 -0.5191359029 0.2050315092 -0.5193837142 -0.0692178212 0.1736436007
570296580.0 -0.0321193932 0.1736750691 0.1993675749 -0.5209881878 0.1997508232 -0.5216415429 -0.0671986201 0.1749396727
575296550.0 -0.0301492577 0.174121725 0.1937099569 -0.5232828169 0.1941192644 -0.5232602687 -0.0654464198 0.1753664731
580296520.0 -0.0284973409 0.1745566011 0.1883476619 -0.5255776176 0.1881122989 -0.5254667906 -0.0641913516 0.1759639785
585296490.0 -0.0262574699 0.1750955471 0.1826511721 -0.5272205168 0.1825599723 -0.5275821083 -0.0627015511 0.1765249229
590296460.0 -0.0249461143 0.1751478694 0.1769869535 -0.5297200692 0.1765236965 -0.5296178099 -0.0604177568 0.177466902
595296430.0 -0.0225328672 0.1760316706 0.171310038 -0.5309280852 0.1708642294 -0.5316330344 -0.0591557556 0.1781927959
600296400.0 -0.0207512997 0.1764307193 0.1654246818 -0.5327525974 0.1656732318 -0.5330146812 -0.0575386027 0.1791731056
605296370.0 -0.0188442432 0.1769526882 0.1594641889 -0.5349688274 0.1597815877 -0.534379849 -0.0559494895 0.1797617612
610296340.0 -0.0168603344 0.177042402 0.1542149049 -0.5363574633 0.1538913107 -0.5365956777 -0.053559474 0.1805857734
615296310.0 -0.0147738279 0.1777730143 0.1479045053 -0.5380607714 0.1482297143 -0.5381779953 -0.0525224214 0.1809816106
620296280.0 -0.0128555514 0.1776273478 0.142312481 -0.5395602943 0.1421576625 -0.5396387367 -0.0506151401 0.1814993807
625296250.0 -0.010913643 0.177878885 0.1361198839 -0.5413480857 0.1363240336 -0.5413085799 -0.0486430044 0.1825739644
630296220.0 -0.0087910249 0.1784014145 0.1301756391 -0.5424161542 0.1306979675 -0.5427211696 -0.0473995377 0.1832603317
635296190.0 -0.0068447266 0.1786037817 0.1245226768 -0.5437355707 0.1244104948 -0.5432775543 -0.0456214802 0.1836601006
640296160.0 -0.0047873715 0.178613841 0.1186347151 -0.5451464179 0.1187474368 -0.5453136286 -0.0433263171 0.1844201272
645296130.0 -0.0030820838 0.1790087245 0.1126334368 -0.5463684257 0.1130307526 -0.5463971043 -0.0423753438 0.1845484702
650296100.0 -0.0012352545 0.1795077036 0.1075062071 -0.5474328507 0.1074852473 -0.5471668487 -0.0405013632 0.1850743821
655296070.0 0.0009345445 0.1792395173 0.1014947212 -0.5482748917 0.1007816127 -0.5486457408 -0.0379530729 0.1860905298
660296040.0 0.0028208556 0.179910316 0.0952710009 -0.5492294309 0.0953397441 -0.5491504112 -0.0366802352 0.1861407697
665296010.0 0.0050720593 0.1794859489 0.0893702103 -0.550503695 0.0895723117 -0.5505892118 -0.0349349267 0.1869660094
670295980.0 0.0074268934 0.1799531685 0.083411479 -0.5514428625 0.083559376 -0.5516337595 -0.0336093982 0.1874894701
675295950.0 0.0091280176 0.1800090726 0.0770445257 -0.5521007621 0.0774045126 -0.5529416581 -0.031065728 0.1881762204
680295920.0 0.010985323 0.1802023698 0.0713936363 -0.5529939218 0.0710956487 -0.553007073 -0.0291301317 0.18814664
685295890.0 0.0130992634 0.1797229346 0.0656648506 -0.553436856 0.0652267214 -0.5540530437 -0.0273557777 0.1889679177
690295860.0 0.0154895003 0.1801181869 0.0592011615 -0.5538582739 0.0592833205 -0.5538755816 -0.0258523257 0.1892459583
695295830.0 0.0175281509 0.1797886539 0.0528034861 -0.5547735381 0.0532920686 -0.554846392 -0.0243272322 0.1895589041
700295800.0 0.0194058831 0.1797388923 0.0473181562 -0.5549647676 0.0470307672 -0.5556836591 -0.0222168868 0.1896055376
705295770.0 0.0214025733 0.1800339302 0.0415163923 -0.5557003718 0.0413164769 -0.5561989888 -0.0206547996 0.1904068572
710295740.0 0.023283428 0.1799429004 0.0352894469 -0.5560001263 0.0352939899 -0.5562427532 -0.0191492507 0.1908791849
715295710.0 0.0251936156 0.1799173912 0.0292020204 -0.5565149959 0.0295816505 -0.5566216227 -0.0170907323 0.190795395
720295680.0 0.0271071204 0.179305782 0.0235598443 -0.5568332142 0.0234519558 -0.5571235334 -0.0147540259 0.1912945812
725295650.0 0.029818857 0.1794718921 0.0166102978 -0.5566764021 0.0173339692 -0.5572446329 -0.0132393648 0.1918907451
730295620.0 0.031154709 0.1790092188 0.0111648408 -0.5570510784 0.0116868194 -0.5570449878 -0.0111936925 0.1913508649
735295590.0 0.0337276179 0.178962095 0.0056340672 -0.5572449068 0.0060403032 -0.5574450895 -0.0096548038 0.1921598901
740295560.0 0.0354038284 0.1790563272 -0.0005483772 -0.5567801249 -0.0004650378 -0.5572917978 -0.0075572132 0.1921635949
745295530.0 0.037436948 0.1782130591 -0.0065533025 -0.5566586463 -0.0065363498 -0.5571693741 -0.005855275 0.1925848755
750295500.0 0.0392939365 0.1782339038 -0.012660926 -0.5568230806 -0.0124024923 -0.5567296279 -0.0040064727 0.1922435723
755295470.0 0.0421720423 0.1781347695 -0.0185004595 -0.5566885996 -0.01823013 -0.5568493411 -0.0025859404 0.1928461944
760295440.0 0.0434572119 0.1778470808 -0.0249877472 -0.5564520411 -0.0246616081 -0.5566197199 -0.0006793805 0.1928502257
765295410.0 0.0451491806 0.1771713763 -0.0302436589 -0.5558665859 -0.0300281692 -0.5564694696 0.0018263438 0.1933544093
770295380.0 0.0475232678 0.1771807946 -0.0363994225 -0.5556246174 -0.0366499416 -0.5560619321 0.0037311118 0.1934417192
775295350.0 0.0494463046 0.17672672 -0.0423935535 -0.5549421383 -0.0420093699 -0.5552046243 0.0050253778 0.1928099426
780295320.0 0.0517447098 0.1759606403 -0.0484612794 -0.5544663072 -0.0480518155 -0.5547434761 0.0068125397 0.1941398959
785295290.0 0.0535511322 0.1759443356 -0.0543216379 -0.5536944394 -0.0543135381 -0.5540451533 0.0084140553 0.1938710067
790295260.0 0.055245366 0.175483316 -0.0603113325 -0.5534903331 -0.0602950478 -0.5536114601 0.0109061386 0.1937717542
795295230.0 0.057213714 0.1751039653 -0.0660813702 -0.5524433714 -0.0655820385 -0.5528875951 0.0126795183 0.1944201327
800295200.0 0.0594691789 0.1748162246 -0.0727731372 -0.552146097 -0.0725087075 -0.5524378976 0.0145559213 0.1939264797
805295170.0 0.0609963794 0.1738853853 -0.0778403505 -0.5507726558 -0.0778576005 -0.5511623454 0.0162025008 0.1935820895
810295140.0 0.0631375334 0.1733879504 -0.0839074282 -0.5501308379 -0.0837115823 -0.5510242049 0.0181410236 0.1943205842
815295110.0 0.0653081206 0.1729833141 -0.0901797996 -0.5490490717 -0.090314055 -0.5494672533 0.0197821218 0.1936511734
820295080.0 0.0670585162 0.1723266834 -0.0958788209 -0.5483758115 -0.0960031197 -0.5485767154 0.0217606654 0.193605334
825295050.0 0.0691391108 0.1713492972 -0.1016898209 -0.546761212 -0.1014699944 -0.5471399003 0.0239870916 0.193835573
830295020.0 0.070809435 0.1713612428 -0.1076339126 -0.5456361161 -0.1082273574 -0.5460985618 0.0254117429 0.1935987145
