!Created with skrf (http://scikit-rf.org).
# Hz S RI R 50.0 
!freq ReS11 ImS11 ReS21 ImS21 ReS12 ImS12 ReS22 ImS22
300000.0 -0.7750802659 -0.0848159055 0.0005343771 0.0030493164 0.0008053014 0.0010052489 -0.7732965607 -0.1207116754
5299970.0 -0.7851351909 -0.0050666181 1.85242e-05 -0.0002987501 0.0002909205 -4.88261e-05 -0.7852947804 -0.0071521482
10299940.0 -0.7879823565 -0.0034985359 6.19413e-05 2.97795e-05 -0.0001789106 -6.25951e-05 -0.7883927032 -0.0036298566
15299910.0 -0.7934701258 -0.0022014321 7.63656e-05 5.10626e-05 -5.33242e-05 9.76934e-05 -0.7935777753 -0.0015580901
20299880.0 -0.800220074 0.0019415098 6.32744e-05 -1.54978e-05 -5.93633e-05 -0.000128926 -0.8005238748 0.0022335821
25299850.0 -0.8063042603 0.0080339731 4.11713e-05 -8.43323e-05 0.0001375687 5.05771e-05 -0.8061988211 0.0083165116
30299820.0 -0.8119178919 0.0153183403 8.81621e-05 -0.0001466603 -0.0001147786 0.0002436999 -0.8122979004 0.0163167584
35299790.0 -0.8173341195 0.0248548025 0.0001217472 4.62523e-05 -0.0001048061 5.16405e-05 -0.8174644579 0.0247634318
40299760.0 -0.8212919672 0.03368871 0.0001653084 2.83435e-05 -0.0001382374 -6.32234e-05 -0.821297287 0.0342482315
45299730.0 -0.8244202825 0.0432136232 1.92119e-05 -3.37485e-05 0.0001409781 8.47264e-05 -0.8254055576 0.0434763499
50299700.0 -0.8273512402 0.0528886818 -5.42213e-05 -2.23402e-05 1.75861e-05 4.57721e-05 -0.8271321843 0.0542842094
55299670.0 -0.8291750439 0.0628897972 -5.04588e-05 0.0001534058 -3.89887e-05 -0.0001926538 -0.8297595201 0.0638742037
60299640.0 -0.829687071 0.0737955331 -0.0002255775 0.0001345128 -2.95786e-05 -0.0001242093 -0.8305855151 0.0739128962
65299610.0 -0.831692426 0.0829505385 -7.8145e-06 -3.15797e-05 0.0001728498 1.64144e-05 -0.8321473329 0.0840562603
70299580.0 -0.8318060899 0.0934227516 2.20316e-05 -5.89991e-05 0.0001918185 0.0001048952 -0.8318891414 0.0938862198
75299550.0 -0.8318857122 0.1038815238 3.75134e-05 9.61557e-05 6.02944e-05 0.000202217 -0.83250186 0.1038136258
80299520.0 -0.831933132 0.1131081707 -1.62975e-05 -2.84538e-05 3.11101e-05 4.033e-06 -0.8322310896 0.1134035562
85299490.0 -0.8314288045 0.122571153 6.0766e-06 4.82745e-05 -1.63953e-05 -3.98496e-05 -0.8314468947 0.122826678
90299460.0 -0.830052244 0.1317307184 2.84337e-05 -0.0001119276 -0.0001524343 -9.64749e-05 -0.8306533714 0.1332527834
95299430.0 -0.8291197567 0.1416574712 9.91342e-05 1.63861e-05 6.83022e-05 2.49057e-05 -0.8291485891 0.1428638624
100299400.0 -0.8276864506 0.1504239246 -1.73406e-05 0.0001212826 -2.88205e-05 0.0001380907 -0.8285769381 0.1525648527
105299370.0 -0.8268433581 0.1602016992 0.0001211407 -2.16164e-05 3.6048e-05 -5.8928e-06 -0.8269458863 0.1608117
110299340.0 -0.8251235388 0.169018845 -7.75906e-05 6.4124e-06 -0.0001198704 2.25248e-05 -0.8253926179 0.1705508583
115299310.0 -0.8240923153 0.1781878982 8.11324e-05 8.49235e-05 -6.39709e-05 -4.09825e-05 -0.8243175071 0.1802881855
120299280.0 -0.8221119133 0.1869371938 -4.17431e-05 -0.000119519 -0.0003306302 0.0001605002 -0.8226658266 0.1893573494
125299250.0 -0.820206926 0.1959536456 -1.42276e-05 -1.41622e-05 -7.27605e-05 3.79553e-05 -0.8209879905 0.1981744924
130299220.0 -0.8185666583 0.2055546456 0.0001241177 -1.72746e-05 2.17855e-05 1.87888e-05 -0.8187503717 0.2065211239
135299190.0 -0.8166289291 0.2141660094 1.79906e-05 -7.12944e-05 -2.01791e-05 -9.832e-05 -0.8172907837 0.2162533581
140299160.0 -0.8146019425 0.2229289961 0.000162 -2.78791e-05 -0.0001294144 -0.0001109673 -0.8144832711 0.2247965311
145299130.0 -0.8124398506 0.2321410268 4.91015e-05 8.12948e-05 0.0001426536 6.9806e-06 -0.8128151001 0.2341209107
150299100.0 -0.8104372335 0.2407614193 0.0002294501 -7.23328e-05 -0.0001031719 3.43779e-05 -0.8109512099 0.2434106141
155299070.0 -0.8076302555 0.2493246793 0.000217077 7.72679e-05 0.0002028102 -2.31361e-05 -0.807760811 0.2519282177
160299040.0 -0.8053301014 0.2578778521 -0.0001099841 -4.9293e-06 4.7166e-05 -0.0002659198 -0.8057547538 0.2606253296
165299010.0 -0.8028778373 0.266835614 0.00013356 -0.0001673557 -4.05534e-05 -1.82707e-05 -0.8029620707 0.2694735266
170298980.0 -0.7997502767 0.2747953723 5.67821e-05 0.0002556212 -3.89377e-05 -3.352e-07 -0.7998043887 0.2776267776
175298950.0 -0.7971866956 0.2837980108 5.88161e-05 4.14375e-05 -9.03897e-05 5.07516e-05 -0.7975996231 0.2863214422
180298920.0 -0.7948433324 0.2928715781 0.0001461938 -0.0001693808 0.0003001334 0.0002238901 -0.7942400209 0.2953785445
185298890.0 -0.7914807613 0.3009080929 0.0001749506 -4.50804e-05 3.8296e-06 0.0001812095 -0.7911032754 0.3036459094
190298860.0 -0.7881586405 0.3093842332 -3.85727e-05 0.0001961391 -0.0001270509 0.000115804 -0.7885174172 0.3120928852
195298830.0 -0.785491337 0.3175034103 -0.0001711377 0.000200235 -0.0001591346 0.0001533945 -0.7850206202 0.3207192368
200298800.0 -0.7815087425 0.326044056 -5.7692e-05 -7.90568e-05 0.0001361295 2.6112e-06 -0.7821013557 0.3288225035
205298770.0 -0.7780772685 0.3340625686 -7.74323e-05 -8.09866e-05 -0.0001004986 4.86425e-05 -0.7782293284 0.3369798612
210298740.0 -0.7750786614 0.3419757087 3.03217e-05 0.0001217436 6.00519e-05 5.8575e-06 -0.7745392851 0.3456367227
215298710.0 -0.7715806457 0.3507470198 -0.0001635523 8.31888e-05 5.40465e-05 2.80735e-05 -0.771381119 0.3538486172
220298680.0 -0.7675707318 0.3586707436 0.0001807909 8.20268e-05 7.84797e-05 -0.0001361467 -0.7671918243 0.3615057834
225298650.0 -0.7640434732 0.3660506912 6.30654e-05 6.77562e-05 -0.0001307764 -0.0001105582 -0.7634150134 0.3698171625
230298620.0 -0.7601249088 0.3746228675 0.0001557755 0.0001133393 -5.92792e-05 -0.000136303 -0.7601703959 0.3777761332
235298590.0 -0.7564137695 0.3833189694 -0.0002947359 4.75489e-05 9.3044e-05 0.0002480664 -0.7557396731 0.3865385622
240298560.0 -0.7522851953 0.3904694936 -9.43252e-05 -6.31696e-05 -7.24587e-05 3.57376e-05 -0.7513813264 0.3951020434
245298530.0 -0.7486156354 0.398414744 -2.5868e-05 0.0001267633 -0.0002361572 -0.0001643667 -0.7477310323 0.4022815655
250298500.0 -0.7441082841 0.4062892357 -0.0001437975 0.000103681 -8.99687e-05 -0.0001377794 -0.7436864534 0.4097980546
255298470.0 -0.7393223597 0.4135003976 -7.8255e-06 -2.07972e-05 4.94741e-05 -1.08234e-05 -0.73832554 0.417557258
260298440.0 -0.735389704 0.4215903656 0.0002447344 -3.81311e-05 5.01883e-05 -4.71846e-05 -0.734829261 0.426024271
265298410.0 -0.7313796941 0.4296459725 -6.8345e-06 -0.0002241624 -6.44982e-05 1.89125e-05 -0.7302179923 0.4334005797
270298380.0 -0.7267472562 0.4370060769 0.0002292185 0.0001396751 -1.49507e-05 -0.0002275384 -0.7258027944 0.4404845387
275298350.0 -0.7221989483 0.4444512374 -8.87942e-05 -0.0001689439 -4.06402e-05 -0.0001082108 -0.7211610347 0.4485122943
280298320.0 -0.7172130688 0.4517238235 -6.86906e-05 4.7654e-05 8.55982e-05 6.66915e-05 -0.7165262506 0.455727591
285298290.0 -0.7128019951 0.4599752377 0.0001289312 5.68924e-05 -0.0001654456 1.5094e-06 -0.7112496435 0.4635053357
290298260.0 -0.707896702 0.4671564617 6.33399e-05 6.24094e-05 2.87857e-05 -2.21372e-05 -0.7061037361 0.4708624598
295298230.0 -0.7025703684 0.4740897805 0.0001685397 7.16445e-05 7.38208e-05 -4.90984e-05 -0.7014653695 0.4779855683
300298200.0 -0.6976743632 0.4816346463 -0.0001575052 0.0001037881 -3.0092e-06 -8.27079e-05 -0.6963962293 0.4855775317
305298170.0 -0.6924286431 0.4882862855 4.39314e-05 1.61587e-05 1.1096e-06 5.00774e-05 -0.6905454043 0.4932673696
310298140.0 -0.6875158824 0.495360311 -3.42056e-05 0.0001683268 8.8339e-06 -0.0001034329 -0.6860035952 0.4999097744
315298110.0 -0.6827124728 0.5031518338 -6.75182e-05 5.89155e-05 7.15213e-05 4.5466e-05 -0.6805765632 0.5069014526
320298080.0 -0.6772684346 0.5098468109 -0.0001172614 5.51728e-05 -0.0001473622 -1.89625e-05 -0.6753505927 0.5146738281
325298050.0 -0.6720605675 0.5176937348 9.07517e-05 -0.0001206172 -6.71799e-05 5.09321e-05 -0.6696199268 0.5216709959
330298020.0 -0.6666266996 0.5237843981 -0.0001299944 -0.0001501412 -0.0002132562 1.03966e-05 -0.6646700116 0.5286145499
335297990.0 -0.6608248825 0.5306092388 -5.3857e-05 0.0001347244 -0.000107825 0.0002495641 -0.6592982613 0.5350866168
340297960.0 -0.6559612279 0.5373045098 -4.19743e-05 -0.0002413983 -2.47297e-05 1.46766e-05 -0.6532755779 0.5423398015
345297930.0 -0.6506489837 0.5439523542 0.0002611012 5.68832e-05 7.66218e-05 0.0002792567 -0.6476813665 0.5488939843
350297900.0 -0.6443471355 0.5508985208 -0.0001143045 -6.22458e-05 -0.0002586591 -0.0001248042 -0.6419787718 0.5558096274
355297870.0 -0.6379870888 0.5578190836 0.0001254809 -3.75087e-05 -9.11727e-05 0.0001064791 -0.6362245739 0.5619806991
360297840.0 -0.6331187634 0.5636718957 -0.0002413021 -1.24802e-05 -9.16393e-05 -6.72996e-05 -0.6300699126 0.5689658045
365297810.0 -0.6272661 0.5706876621 0.000124709 0.0001408189 8.00536e-05 5.09255e-05 -0.6238130333 0.5747409086
370297780.0 -0.6209104603 0.5765702475 -8.96906e-05 3.5884e-05 9.31059e-05 4.0916e-05 -0.617919596 0.5812870384
375297750.0 -0.6148631408 0.5832001354 1.8221e-05 0.000285744 -0.0002720594 0.0001348342 -0.6122794815 0.5876595062
380297720.0 -0.6086038684 0.5890354157 0.0001408049 -0.0001521146 -0.0001889436 2.45361e-05 -0.6058902882 0.5940863672
385297690.0 -0.6030515343 0.5958248189 -5.55145e-05 -6.95516e-05 -8.76243e-05 -1.77077e-05 -0.5995410935 0.6008152249
390297660.0 -0.5966582135 0.6012475362 0.0001586712 2.2033e-06 -3.02522e-05 0.0001705166 -0.5935548295 0.6063856951
395297630.0 -0.5901818494 0.6080622823 0.0001334131 9.20087e-05 7.88627e-05 0.0001055934 -0.5868507569 0.6126601641
400297600.0 -0.5841668715 0.6136957022 4.36513e-05 -3.01907e-05 -6.27515e-05 -4.26588e-05 -0.5806244394 0.6183075076
405297570.0 -0.5776616555 0.6199307863 -5.30257e-05 0.0001167784 -2.3919e-06 -9.20798e-05 -0.5746075636 0.6242655288
410297540.0 -0.5708558845 0.6246921027 -0.0002118892 0.0001913398 -0.0002233345 -0.0002411742 -0.567849211 0.6307232763
415297510.0 -0.5647272248 0.6304751184 -8.03461e-05 -0.0001422263 3.47886e-05 -4.43411e-05 -0.5613146268 0.6361519638
420297480.0 -0.559452264 0.6366991592 7.53266e-05 4.71922e-05 -6.402e-07 4.99923e-05 -0.5542651025 0.6419480165
425297450.0 -0.5516227538 0.6425070433 1.44773e-05 0.000161477 -7.56954e-05 -4.29195e-05 -0.5484820724 0.6477234675
430297420.0 -0.5454901989 0.648108248 0.0003182556 5.81522e-05 -8.00929e-05 -0.0001659806 -0.5413266864 0.6530946942
435297390.0 -0.538978464 0.6529695055 -0.0001028146 1.22083e-05 5.86429e-05 -8.18337e-05 -0.5343271368 0.6587601156
440297360.0 -0.5321518913 0.6585963077 -0.000119099 6.94121e-05 3.05999e-05 -0.000132114 -0.5276225161 0.6639285157
445297330.0 -0.5249858538 0.6640027173 -5.14148e-05 0.0002073213 7.57544e-05 0.0001233719 -0.5203474263 0.6687238653
450297300.0 -0.5182061271 0.6687584407 7.367e-05 -0.0001915223 -9.6962e-05 0.0002072194 -0.5133343476 0.6742595186
455297270.0 -0.5113100106 0.6742278475 -1.46476e-05 -0.0001383326 0.0001651674 -1.55529e-05 -0.5069291829 0.6789833813
460297240.0 -0.5053881082 0.6796043244 -0.0002436534 2.24522e-05 0.0001635763 -0.0001149811 -0.5002173283 0.6841364502
465297210.0 -0.4978827303 0.6850313072 -6.78674e-05 -0.0001314971 7.47343e-05 -9.35614e-05 -0.4922799229 0.6889780505
470297180.0 -0.4905216219 0.6893822059 0.0002200919 -4.16621e-05 9.0249e-05 0.0001385777 -0.4850293265 0.6946126076
475297150.0 -0.4836348278 0.6940116496 0.0001104456 -5.62999e-05 3.00386e-05 3.511e-07 -0.477921679 0.6990505124
480297120.0 -0.4762481593 0.6991521295 -6.75773e-05 8.04323e-05 0.0001381687 -4.27766e-05 -0.4708119546 0.7044359784
485297090.0 -0.4689462983 0.7038976722 0.0002257003 0.0001609128 9.59956e-05 5.82989e-05 -0.4637392927 0.7087714051
490297060.0 -0.4625701172 0.708447575 -0.0003044451 -0.0001984524 8.50606e-05 0.0001385423 -0.4563998199 0.7132837008
495297030.0 -0.455104312 0.7130142867 -0.0002281841 -0.0002235296 8.44277e-05 5.1394e-05 -0.4493818815 0.7182026024
500297000.0 -0.4478406995 0.7177987393 2.4457e-06 -1.89749e-05 -0.0002145565 0.0001181723 -0.4420505714 0.7228258216
505296970.0 -0.4402316317 0.7220134132 -0.0001421239 -3.13976e-05 0.0001065275 5.84536e-05 -0.433746632 0.7271360936
510296940.0 -0.4329302271 0.7269923618 -9.50386e-05 0.0001214396 -0.0001119977 -0.0002487963 -0.4269521169 0.7311535374
515296910.0 -0.4250376027 0.7304042397 5.0743e-06 -2.76373e-05 6.08423e-05 -8.75539e-05 -0.4190525196 0.7355166456
520296880.0 -0.4181642997 0.7350154038 -8.80763e-05 -6.85336e-05 6.75756e-05 5.94047e-05 -0.4117823415 0.7392797424
525296850.0 -0.4102263005 0.7391545612 0.0001125343 0.0001074273 -0.0001153652 0.0001818145 -0.4045681049 0.7441093191
530296820.0 -0.4032222763 0.7434036831 -0.0001154302 0.0001480487 -4.67863e-05 5.05014e-05 -0.3972138561 0.7474011682
535296790.0 -0.3967364069 0.7470088372 -3.41247e-05 -3.13397e-05 0.0001572133 -1.23226e-05 -0.3899360015 0.7511631472
540296760.0 -0.387937205 0.7503665812 -1.69289e-05 5.14111e-05 0.000102493 7.54388e-05 -0.3814204574 0.7553765181
545296730.0 -0.3810596809 0.7549893502 -0.0003626262 0.0001589834 2.83041e-05 -0.0001280716 -0.3738628151 0.7589518717
550296700.0 -0.3735979839 0.759223709 -0.0001683463 2.07439e-05 -2.73009e-05 0.0001533854 -0.3662652746 0.7629114884
555296670.0 -0.3651801582 0.7616179675 -0.0001916438 9.3427e-06 8.42148e-05 -0.0001181907 -0.3582839914 0.7667749178
560296640.0 -0.3570381508 0.7659677009 -0.0002587529 0.0001637039 3.54725e-05 -6.03316e-05 -0.350758342 0.7704126527
565296610.0 -0.3499937015 0.7696257539 4.833e-05 -5.89852e-05 -0.0001969707 -2.82959e-05 -0.34246763 0.7729994041
570296580.0 -0.342108054 0.7721884129 -0.0002730036 -7.76871e-05 -9.56447e-05 -0.0001085106 -0.3348948819 0.7773282886
575296550.0 -0.3344012225 0.7764058 4.78715e-05 -0.0001303965 5.00056e-05 0.0001118199 -0.3267505186 0.7805812003
580296520.0 -0.3262554638 0.7793340048 -0.0001442693 0.0001934665 -0.0001105279 -5.48598e-05 -0.3183756549 0.7835531167
585296490.0 -0.3192644297 0.7824523593 2.44961e-05 -4.4372e-05 -0.0001382872 6.64697e-05 -0.3108960333 0.7869473524
590296460.0 -0.310968089 0.7857834053 -3.06301e-05 -6.58346e-05 9.964e-07 0.0001483047 -0.3033528333 0.7901126956
595296430.0 -0.3028782435 0.7882466421 -8.71449e-05 0.0001376565 -4.35313e-05 -0.0001370288 -0.2948528607 0.7922758613
600296400.0 -0.295189347 0.7921493707 -0.0001115198 -9.10162e-05 6.82152e-05 0.0001563392 -0.2872388953 0.7956920187
605296370.0 -0.2879988218 0.7942581201 -4.5833e-06 1.79372e-05 -0.0001596613 6.94983e-05 -0.2785502684 0.79880992
610296340.0 -0.2795335881 0.7975865971 9.44172e-05 -7.66837e-05 4.25837e-05 9.81949e-05 -0.2708051608 0.8011636588
615296310.0 -0.2707768425 0.800458506 7.60589e-05 3.43398e-05 -2.07704e-05 0.0002357452 -0.2617718047 0.8035787716
620296280.0 -0.262989836 0.801922773 -9.3061e-05 -8.64438e-05 -3.28633e-05 -4.70921e-05 -0.2544598955 0.8065376911
625296250.0 -0.2548185529 0.8052111717 -6.55189e-05 -5.27773e-05 -8.70968e-05 -0.0001777091 -0.2458038197 0.8087324537
630296220.0 -0.2458307022 0.8078185246 -5.74605e-05 -3.4616e-06 0.0001003876 9.77521e-05 -0.2379789684 0.8114729806
635296190.0 -0.2389849719 0.809876419 -0.0002350247 4.86316e-05 4.27236e-05 2.50061e-05 -0.2296452548 0.8129486061
640296160.0 -0.2312064304 0.8123114721 4.57237e-05 0.0002878929 -3.57618e-05 0.0001557713 -0.2215352528 0.815933895
645296130.0 -0.2228636257 0.8148625303 -1.32619e-05 -0.0003766767 3.77239e-05 -7.0969e-05 -0.2132229941 0.8181647866
650296100.0 -0.2142711152 0.8164836546 0.0001067879 2.42965e-05 0.0001917315 0.0001841953 -0.2051994892 0.8193479439
655296070.0 -0.2060426586 0.8189469437 5.32862e-05 -1.98231e-05 1.25923e-05 -0.0001244352 -0.1965170621 0.8216074154
660296040.0 -0.1981169494 0.8203882953 0.0001081995 4.6005e-06 -6.70356e-05 8.70705e-05 -0.1880097768 0.8237356327
665296010.0 -0.1895877746 0.8222569982 -1.14491e-05 0.0001487658 -1.6851e-06 5.43717e-05 -0.1796965044 0.826118092
670295980.0 -0.1821880853 0.824411638 0.0001100116 -0.000118505 -0.000125319 4.76639e-05 -0.1723962277 0.8271047366
675295950.0 -0.173459287 0.8264837196 0.0001459866 0.0001733703 5.94764e-05 0.0001800773 -0.1640147504 0.8291432939
680295920.0 -0.1653114539 0.8281314116 -0.0001582157 -8.0296e-06 0.0001668971 -0.0001748629 -0.1554118715 0.8313116492
685295890.0 -0.1567669285 0.8304566389 -6.59981e-05 -9.67632e-05 2.56819e-05 -2.39035e-05 -0.1463262141 0.8314035956
690295860.0 -0.1494710205 0.8306551221 -0.0001284331 -0.0001519998 -0.0001071311 4.74018e-05 -0.1390631567 0.8339879516
695295830.0 -0.1410993746 0.8318060731 6.25457e-05 7.06153e-05 -4.69387e-05 -0.0001128071 -0.1299042408 0.8349476024
700295800.0 -0.1318517491 0.8329569755 0.0001712538 0.000154 -0.0001933978 7.6135e-05 -0.1226796333 0.8365254468
705295770.0 -0.1243017571 0.8352868158 4.54391e-05 -8.7335e-05 -5.04055e-05 -0.0003021194 -0.1140465449 0.8376514603
710295740.0 -0.1157209479 0.8363089947 -0.0001662861 -4.3778e-06 -9.58529e-05 3.44588e-05 -0.1050306147 0.8387381039
715295710.0 -0.1073740792 0.8368919014 0.0001055553 -7.35516e-05 -0.0002665042 0.0001338411 -0.0969413206 0.8394345088
720295680.0 -0.0990339913 0.8382293722 0.0002010853 -8.04714e-05 7.37144e-05 -0.0001837309 -0.0880714336 0.8409631463
725295650.0 -0.0908649938 0.8393275308 -6.02684e-05 -9.7061e-05 6.95286e-05 -9.58268e-05 -0.080518674 0.8415855433
730295620.0 -0.0817467768 0.8402850086 4.15446e-05 0.0001257934 2.22667e-05 0.0001128745 -0.0725918821 0.841978062
735295590.0 -0.0739082221 0.841474926 0.0002513147 1.1284e-05 -1.46311e-05 -0.0001100109 -0.0634553629 0.8421589143
740295560.0 -0.066073556 0.8422379587 8.21894e-05 -2.32772e-05 6.4627e-05 -1.32185e-05 -0.0546194462 0.844040229
745295530.0 -0.0578110283 0.8424908347 -0.0001163287 -0.0002266145 0.0001102927 -6.59144e-05 -0.045762904 0.8436475982
750295500.0 -0.0487896091 0.8426181731 -5.18474e-05 -3.7211e-05 7.73358e-05 -2.5108e-05 -0.0386551026 0.8440817303
755295470.0 -0.0403743289 0.8426062916 -4.20701e-05 8.0169e-06 -5.63841e-05 -0.0001617289 -0.029723637 0.8440122654
760295440.0 -0.0328780648 0.8427451728 0.0003074823 3.41035e-05 1.05547e-05 5.06444e-05 -0.0209850299 0.8445985803
765295410.0 -0.0245994365 0.8438732437 -0.0001236596 -3.289e-07 4.26136e-05 -5.4829e-05 -0.013053938 0.8452287525
770295380.0 -0.0159041953 0.8444202028 0.0001205478 -9.449e-07 0.0001755873 0.0001093214 -0.0047369818 0.8446611212
775295350.0 -0.0079957225 0.8440825139 -4.98533e-05 0.0001261798 0.0001211297 -7.54149e-05 0.0035489895 0.844214723
780295320.0 0.0009083643 0.8443400374 -0.0001552809 -0.0001093909 2.11907e-05 6.38232e-05 0.0119612827 0.8446992157
785295290.0 0.0084838758 0.8434095982 -3.84478e-05 0.0002212313 -0.0001294919 -7.54631e-05 0.0211696586 0.8440870667
790295260.0 0.0170558469 0.8437859497 6.63514e-05 0.0001321343 -0.0001380229 -0.0001441238 0.0297081924 0.8443529615
795295230.0 0.0255842133 0.8435825347 0.0001704234 -5.0144e-06 -3.71761e-05 -0.0001470972 0.0387324984 0.8436439336
800295200.0 0.0335211158 0.8428474526 -6.51508e-05 3.71321e-05 2.14061e-05 -2.0236e-05 0.0467613037 0.8434063111
805295170.0 0.0429747205 0.8428575239 -0.0001346714 1.33158e-05 3.95538e-05 6.78973e-05 0.0545892522 0.8430473815
810295140.0 0.0507015345 0.8422594641 -0.0001549065 0.0001382694 0.0001121068 -2.96389e-05 0.0632464367 0.8423149894
815295110.0 0.0590581616 0.8417445247 0.0001045943 6.7805e-06 -0.0001562234 1.3657e-06 0.0715766654 0.8418991823
820295080.0 0.0670018081 0.8413375006 4.63247e-05 -0.0001926155 -0.0001030264 -5.58072e-05 0.0802148409 0.8410756463
825295050.0 0.0765539865 0.8399008002 0.0001184069 -0.0001226684 -0.0001756658 -0.0001125541 0.0882632125 0.8403696676
830295020.0 0.0842250639 0.8400194461 9.08797e-05 0.000135244 -0.0001884257 7.0164e-06 0.0974223473 0.8394533317
835294990.0 0.0923136635 0.8385018977 -0.0001928169 -5.4319e-06 -0.0001323822 0.0002267787 0.1047548476 0.8382574734
840294960.0 0.1001633053 0.8382952121 -0.0001881345 5.69896e-05 0.0001043972 0.0001531612 0.1128897312 0.8373161854
845294930.0 0.1081493382 0.8368068054 -7.6531e-05 -0.0001283199 -9.55967e-05 -5.41343e-05 0.1216890491 0.8355799018
