!Created with skrf (http://scikit-rf.org).
# Hz S RI R 50.0 
!freq ReS11 ImS11 ReS21 ImS21 ReS12 ImS12 ReS22 ImS22
300000.0 0.8602256054 -0.0022673759 -0.0001890679 0.0003029289 -2.7821e-06 0.0002577827 -0.7695374165 -0.174234004
5299970.0 0.8593669642 -0.0100625904 5.94258e-05 0.0001611759 -3.15327e-05 -7.76101e-05 -0.784732204 -0.0092801244
10299940.0 0.8586338876 -0.0187790235 -8.0626e-06 -0.0001709395 1.62994e-05 6.3785e-06 -0.7881648311 -0.0051556378
15299910.0 0.8580746924 -0.0274875137 -0.0001113413 -4.3657e-06 -5.29135e-05 -0.000104417 -0.7933998484 -0.0027765209
20299880.0 0.8574212233 -0.0363066578 4.29541e-05 -8.28088e-05 -2.0958e-06 0.0001061636 -0.8000521695 0.0013535665
25299850.0 0.8562669374 -0.043904902 0.0001731136 -7.79098e-05 -6.70994e-05 -0.0001147815 -0.8061316388 0.0070997554
30299820.0 0.8558004791 -0.0523969608 8.86932e-05 -4.55087e-05 -0.0001013357 -5.27176e-05 -0.8119174539 0.0145903191
35299790.0 0.8555057079 -0.0603560742 -0.0001046354 -6.27434e-05 0.0001740392 -1.59292e-05 -0.8172957852 0.0240302527
40299760.0 0.8544191985 -0.0682183002 0.0001586858 -8.89991e-05 -2.31519e-05 -1.51749e-05 -0.8217111312 0.0334575007
45299730.0 0.8540410337 -0.0765357562 6.40545e-05 2.42612e-05 0.0001042491 -8.91045e-05 -0.8252539114 0.0423819001
50299700.0 0.8527180599 -0.085086786 1.37102e-05 -4.75359e-05 -0.0001546371 8.38953e-05 -0.827525369 0.0528101441
55299670.0 0.851438568 -0.0930972143 5.61413e-05 -2.56303e-05 1.98417e-05 6.40595e-05 -0.8296496497 0.0630127844
60299640.0 0.851195189 -0.1011332881 0.0002291712 -1.24474e-05 3.7948e-06 -6.18484e-05 -0.8308718147 0.0735477587
65299610.0 0.8503255462 -0.1089069692 -0.0001752427 0.0001666203 5.6573e-05 -0.0001414974 -0.8310871927 0.0825127356
70299580.0 0.8490889284 -0.1179105843 0.0002923646 0.0002047958 3.43964e-05 0.0001909525 -0.8319205791 0.0931894485
75299550.0 0.8473406124 -0.1268249884 -8.45734e-05 3.13397e-05 1.39933e-05 -2.7093e-05 -0.8323184785 0.1027255179
80299520.0 0.8458037021 -0.1340389116 -6.77615e-05 1.41173e-05 -0.0001845383 -1.31116e-05 -0.8317012343 0.1125834774
85299490.0 0.8447637157 -0.1424961532 2.58605e-05 1.68846e-05 0.0002457378 2.44895e-05 -0.8318792268 0.1214528199
90299460.0 0.84270036 -0.1503443661 -1.91316e-05 -0.0001408982 5.01294e-05 9.28502e-05 -0.8312005736 0.1310977447
95299430.0 0.8417907257 -0.1589806935 7.07238e-05 -2.0766e-05 -2.9702e-06 6.57606e-05 -0.829386293 0.1418132329
100299400.0 0.840048129 -0.1668099025 7.44007e-05 -8.15851e-05 4.29997e-05 -4.62398e-05 -0.8288027507 0.1498685302
105299370.0 0.8380742491 -0.1753701427 0.0001400283 8.60191e-05 -2.32273e-05 0.0001577853 -0.8276658709 0.1590215823
110299340.0 0.8363738866 -0.1831485228 -1.18629e-05 0.0001197325 1.34159e-05 -0.0001072943 -0.8272080777 0.1686676035
115299310.0 0.8348354424 -0.1920096587 1.13462e-05 -5.53365e-05 -0.0001701584 -2.79609e-05 -0.8252273205 0.1775977595
120299280.0 0.8324859211 -0.1993209112 0.0001018876 0.0001132119 8.77036e-05 0.0001754213 -0.8235639554 0.1865154499
125299250.0 0.8309225565 -0.2078447172 7.1599e-06 -0.0001486118 0.0001710691 -0.0001071607 -0.8219241904 0.1954738777
130299220.0 0.8292820493 -0.2156645659 -2.88497e-05 -3.58311e-05 -2.46842e-05 -8.04863e-05 -0.8198666581 0.2042073219
135299190.0 0.8262719204 -0.2234018194 -9.89249e-05 9.0499e-05 -8.59489e-05 0.0001098823 -0.8180756619 0.212953544
140299160.0 0.8247697308 -0.2314735593 -4.86988e-05 0.000111289 -4.3943e-05 -7.81236e-05 -0.8160792827 0.2218869264
145299130.0 0.82184639 -0.2394970158 5.92489e-05 5.6626e-06 9.8092e-06 -0.0001455879 -0.8134479908 0.2298367682
150299100.0 0.8199544052 -0.2476672563 -0.0001563568 5.24362e-05 -0.0001678519 0.0001538833 -0.8117568118 0.2384409177
155299070.0 0.8164502659 -0.255866834 -8.86813e-05 -8.96236e-05 -0.0001055765 0.0001240222 -0.8099334392 0.248063965
160299040.0 0.8144440461 -0.2632177721 -0.0001858834 -4.56048e-05 -1.1541e-06 -8.26043e-05 -0.8071091507 0.2568335415
165299010.0 0.8120380938 -0.2717130175 -5.75653e-05 -0.0001937494 -3.78955e-05 8.24922e-05 -0.8042429576 0.2652253264
170298980.0 0.8091207121 -0.2795066495 9.88731e-05 -3.72687e-05 0.0001049714 0.0001341919 -0.8024643175 0.2737818901
175298950.0 0.8064991635 -0.2865014476 -6.74183e-05 -0.0002327647 7.32589e-05 7.95927e-05 -0.7989876526 0.2821602703
180298920.0 0.8033578328 -0.2946637746 -4.14261e-05 0.0001180723 -6.30264e-05 -0.0002149453 -0.7956653219 0.2902635008
185298890.0 0.8006196534 -0.3029670473 1.81722e-05 0.0001166602 8.93886e-05 -2.83501e-05 -0.7931510005 0.2982688489
190298860.0 0.7976423278 -0.3106835883 -8.94678e-05 5.02181e-05 0.0001135847 -4.98e-07 -0.7899993138 0.3073319906
195298830.0 0.79442374 -0.3184716521 -9.64079e-05 -0.0001098969 3.47327e-05 7.5838e-06 -0.7871351765 0.3153878962
200298800.0 0.790857449 -0.3263722316 -5.66039e-05 6.47622e-05 -2.74692e-05 -2.18553e-05 -0.7833629787 0.3244042643
205298770.0 0.7879595645 -0.3339023358 -0.0001519744 3.70672e-05 4.57454e-05 -8.88522e-05 -0.7798888904 0.3319498384
210298740.0 0.7849867064 -0.3407299698 -5.87902e-05 0.000101092 4.25088e-05 -0.0001339933 -0.7768832636 0.3402252664
215298710.0 0.7813092797 -0.3485249902 -3.9923e-06 0.0001084115 0.0002819181 -6.84019e-05 -0.7733530827 0.3483137806
220298680.0 0.7786035706 -0.3568159005 2.33216e-05 0.0001326149 5.9124e-05 -0.0001079319 -0.7695489671 0.3565145017
225298650.0 0.7747664656 -0.363640074 3.2341e-05 2.50853e-05 -0.0001726553 -5.26841e-05 -0.7663025567 0.3644878656
230298620.0 0.7710314055 -0.3717732833 3.4498e-05 -7.97972e-05 -4.9448e-06 0.0002011531 -0.7614044578 0.372771101
235298590.0 0.7670210657 -0.3787377391 4.1441e-06 -8.66143e-05 -0.0001194011 6.79435e-05 -0.7571048206 0.380645446
240298560.0 0.7634461883 -0.3869220111 0.0001140627 4.65322e-05 -4.80372e-05 -3.77542e-05 -0.7539630387 0.3882890864
245298530.0 0.7602512068 -0.3936283524 3.04605e-05 -0.0001855684 5.41505e-05 1.88301e-05 -0.7499215562 0.3968321481
250298500.0 0.7557113472 -0.4013059241 -8.07239e-05 -0.0002394494 1.77632e-05 -7.35994e-05 -0.7457363824 0.4046343826
255298470.0 0.7524842588 -0.408150319 -1.15798e-05 2.54366e-05 -9.55554e-05 6.01052e-05 -0.7413121567 0.4122516934
260298440.0 0.7477801978 -0.415072163 -5.2596e-06 -0.000120742 -1.88516e-05 -9.01661e-05 -0.7366858059 0.4197472562
265298410.0 0.7437290796 -0.4231309873 -2.5285e-06 0.0001819173 -0.0001054027 0.0001735969 -0.7322767806 0.4273566995
270298380.0 0.7399285684 -0.4296842195 0.0001476767 -3.66353e-05 -0.000127532 6.48137e-05 -0.7273809084 0.4352416936
275298350.0 0.7357234039 -0.4369436948 9.16638e-05 6.47803e-05 -2.51216e-05 -7.09715e-05 -0.7229438888 0.4430152742
280298320.0 0.7319581621 -0.4441854964 2.80853e-05 0.0001596845 6.4632e-05 3.27411e-05 -0.7183098198 0.4498407404
285298290.0 0.72701802 -0.4513578167 -1.7055e-06 -7.81286e-05 -1.97821e-05 5.1457e-05 -0.7124185338 0.4576696933
290298260.0 0.723633753 -0.4584357815 7.5523e-05 0.0001319646 1.90924e-05 0.0001209627 -0.7084073603 0.4655137886
295298230.0 0.7187022899 -0.4657936415 0.0002208087 -1.574e-05 3.78353e-05 4.5937e-06 -0.7035785498 0.4727915415
300298200.0 0.7148110552 -0.4733223617 -0.0001266709 9.60303e-05 8.0297e-06 4.24958e-05 -0.6986506766 0.4801650793
305298170.0 0.710170459 -0.4800112444 -0.0001268788 0.0001511773 8.24681e-05 0.0001105148 -0.6928676234 0.4874844614
310298140.0 0.705950052 -0.4882094954 -7.44628e-05 -3.61601e-05 6.5307e-06 7.09464e-05 -0.6884219645 0.4948946182
315298110.0 0.7004886994 -0.4957666096 5.16642e-05 -2.44762e-05 -0.0001595952 -1.5487e-05 -0.6830126389 0.5021703079
320298080.0 0.6947715975 -0.5027900735 -9.40949e-05 3.4679e-05 -1.42189e-05 -1.97973e-05 -0.6772904036 0.508919282
325298050.0 0.6893509414 -0.5105392237 -5.37035e-05 0.0002599672 1.54789e-05 -4.04358e-05 -0.6722592662 0.5159180982
330298020.0 0.6839898029 -0.5168374677 -3.9633e-05 5.11913e-05 8.03516e-05 6.1364e-06 -0.6665283287 0.5229400061
335297990.0 0.6782947369 -0.5229522178 0.0001317195 -3.96179e-05 0.0001089101 -2.53043e-05 -0.6609825822 0.5300644603
340297960.0 0.6726471157 -0.5290935204 1.58719e-05 0.000240128 9.40335e-05 0.0001413298 -0.6549972921 0.5372532892
345297930.0 0.6671034135 -0.5355826521 -3.67461e-05 -6.38789e-05 7.02142e-05 5.90305e-05 -0.649278456 0.5439818629
350297900.0 0.6616831491 -0.5419536336 5.97617e-05 0.0001361653 -0.0001143924 -9.66308e-05 -0.6440597929 0.5511390941
355297870.0 0.65607209 -0.5486011026 0.0002449826 -0.00019055 0.0001175723 6.14092e-05 -0.638031898 0.557270582
360297840.0 0.6505197789 -0.5548648311 0.0002065883 4.16102e-05 -5.95258e-05 -0.0001160438 -0.6320203923 0.5635627506
365297810.0 0.6455292403 -0.5608806189 -0.0002416579 -0.0001413788 -6.97567e-05 0.0001672834 -0.6260967396 0.5707193048
370297780.0 0.6398568364 -0.5664007834 -0.000197233 4.1346e-05 -7.90688e-05 -4.2161e-05 -0.6208800627 0.5765136473
375297750.0 0.6337596397 -0.5723763813 0.0001320105 4.6395e-06 -0.0001213591 -4.58145e-05 -0.6145214825 0.583407521
380297720.0 0.6294129784 -0.5782059407 3.76187e-05 7.12308e-05 1.9416e-05 -3.99347e-05 -0.6076369884 0.5906467005
385297690.0 0.6220845839 -0.5842958937 -4.67521e-05 9.801e-06 -0.0001209118 4.92035e-05 -0.6016310983 0.5955611515
390297660.0 0.6169140115 -0.5904435188 0.0002611507 6.40419e-05 5.83977e-05 0.0001394026 -0.5953497575 0.6018090142
395297630.0 0.611260077 -0.5966647307 -0.0001154227 -0.0001473516 1.59228e-05 0.0001751133 -0.5893464512 0.6084147271
400297600.0 0.605091799 -0.6020387567 -3.90879e-05 6.05047e-05 5.24938e-05 4.09284e-05 -0.5830428573 0.6136265978
405297570.0 0.5990901244 -0.6078613246 -2.22708e-05 -3.54589e-05 -0.0002304518 0.0001107305 -0.5771202903 0.6198576608
410297540.0 0.5933053835 -0.6135886328 -0.0001405102 -8.64301e-05 -1.73766e-05 0.0002056749 -0.5702415677 0.6258980659
415297510.0 0.5870196746 -0.6191683388 -3.53681e-05 -3.82909e-05 -4.12176e-05 6.56114e-05 -0.5639602088 0.6323026684
420297480.0 0.5808405018 -0.6250616113 2.78923e-05 0.0001718797 3.26653e-05 -4.30702e-05 -0.5573299713 0.636546853
425297450.0 0.5745856735 -0.6302043183 -3.39383e-05 -6.319e-07 5.68592e-05 0.0001407701 -0.55021914 0.6433889887
430297420.0 0.5682392841 -0.6359299006 0.0002139503 -1.88325e-05 7.58456e-05 7.01481e-05 -0.5436628385 0.6483901331
435297390.0 0.5620529935 -0.6412338918 5.12912e-05 1.7437e-06 -0.0001287078 -0.000246494 -0.5369272001 0.6538110088
440297360.0 0.5560080018 -0.6473179885 2.45786e-05 3.26225e-05 -0.0001326119 1.30311e-05 -0.530124605 0.6591513629
445297330.0 0.5495690588 -0.6524987758 -0.0001019365 -4.70063e-05 -3.062e-06 0.0003151079 -0.5235947656 0.6643354942
450297300.0 0.5434180237 -0.6578326105 -7.50329e-05 2.75896e-05 -0.0001717386 -4.80105e-05 -0.5168760575 0.6700870359
455297270.0 0.5362561628 -0.6623836105 -1.40708e-05 8.40558e-05 0.000191903 -7.08202e-05 -0.5096920428 0.674555667
460297240.0 0.5298182033 -0.6676673115 -6.39253e-05 2.33038e-05 -0.0001185146 0.0001587092 -0.5027053483 0.6807431227
465297210.0 0.5233880679 -0.6726797429 0.000178043 -8.42199e-05 -4.42172e-05 -0.0001871454 -0.4962042983 0.684854221
470297180.0 0.5168489454 -0.6781184354 -3.3052e-06 -5.97029e-05 0.0001110354 -0.0002091307 -0.4895308013 0.6899734774
475297150.0 0.5103367969 -0.6829505511 -0.0001120551 -6.02031e-05 0.0001342606 1.87141e-05 -0.4819153447 0.6949392577
480297120.0 0.5036180514 -0.6874863808 5.29842e-05 -6.35063e-05 -1.65072e-05 -0.0001692105 -0.475283426 0.6999432357
485297090.0 0.496506319 -0.6923360211 1.592e-07 2.40016e-05 6.22893e-05 2.71324e-05 -0.4675989377 0.7040777862
490297060.0 0.4899845741 -0.6974463377 4.55279e-05 -0.0001190226 -0.0001444423 -9.15444e-05 -0.4608882001 0.7084055454
495297030.0 0.4828242811 -0.7022449927 0.0001146028 2.41693e-05 6.29658e-05 -0.0001022655 -0.4532730553 0.712541925
500297000.0 0.4762552694 -0.7067224555 0.0002962333 -0.0001021016 -1.82924e-05 0.000116661 -0.4464532169 0.717498728
505296970.0 0.4684283863 -0.711470739 1.63837e-05 -0.0001251677 5.40353e-05 -5.5801e-06 -0.4402623655 0.7219360237
510296940.0 0.4615934452 -0.7158130596 0.0001140319 -0.0001109598 4.32814e-05 -1.79972e-05 -0.431805393 0.7263621623
515296910.0 0.4545436422 -0.7198915856 1.7632e-05 2.07505e-05 -3.93249e-05 0.0001463914 -0.4250177215 0.7302352709
520296880.0 0.4472708696 -0.7245839047 0.0001482052 0.0002655464 -3.2581e-06 -6.81848e-05 -0.4173023354 0.7346257451
525296850.0 0.4406056145 -0.7281917322 -0.0002098079 0.0001312121 -1.39157e-05 -3.56397e-05 -0.4095978039 0.739181943
530296820.0 0.4331452515 -0.732438104 2.67842e-05 -3.47356e-05 1.42485e-05 -0.0001185475 -0.4031356508 0.742637416
535296790.0 0.4259581131 -0.7364901942 -4.95844e-05 -0.0001087005 -3.21367e-05 -9.31873e-05 -0.395744166 0.7464475234
540296760.0 0.4187225804 -0.7411508287 8.70582e-05 -3.9909e-06 -0.0001534298 0.0001244586 -0.3879351185 0.7503545154
545296730.0 0.4113717675 -0.7448495671 -3.84406e-05 -0.0002286086 -9.83071e-05 -6.78211e-05 -0.3807769492 0.7537068568
550296700.0 0.4038387076 -0.7488792728 5.19549e-05 1.80019e-05 4.6132e-06 0.0001924512 -0.3729008524 0.7576858088
555296670.0 0.3963040163 -0.7525946529 3.80408e-05 -2.09102e-05 0.0001284176 -9.81784e-05 -0.3650621919 0.7616310125
560296640.0 0.3894842204 -0.7570467689 0.0001197649 5.0403e-05 1.2732e-05 -9.0116e-06 -0.3575895404 0.765063936
565296610.0 0.3812794507 -0.7608541805 -0.0002141532 -0.0001407478 -0.0001046967 -8.58114e-05 -0.3503096883 0.768988555
570296580.0 0.374303682 -0.7641671296 0.0001210682 6.41093e-05 -0.0001816476 -0.0001069191 -0.342692833 0.7722301931
575296550.0 0.3665152054 -0.7670869997 0.0001638489 6.28847e-05 -0.000213553 0.0001911103 -0.3345508792 0.7754248402
580296520.0 0.359735932 -0.770770892 6.20929e-05 1.73774e-05 5.62293e-05 -2.88552e-05 -0.32681175 0.7790359697
585296490.0 0.3509662122 -0.7740883649 -2.99628e-05 -0.0001338892 -3.35134e-05 7.42508e-05 -0.3193041086 0.7816349661
590296460.0 0.3432983112 -0.7776253148 -0.0001929526 -4.03833e-05 7.35857e-05 -7.3182e-05 -0.3114002528 0.7846523936
595296430.0 0.3362027458 -0.7805528899 -0.0003341443 -0.0001588884 -1.0498e-06 -4.09827e-05 -0.3037615833 0.7868571782
600296400.0 0.3279325587 -0.7833478186 0.0001299535 7.44376e-05 -0.0001772229 5.94136e-05 -0.2956411301 0.7910198342
605296370.0 0.3208265503 -0.786723581 0.0002250572 0.0001827835 0.0001569149 -3.26504e-05 -0.2882513101 0.7942330937
610296340.0 0.3130489943 -0.7904269979 9.20274e-05 -6.09029e-05 0.0004266453 -1.44539e-05 -0.2802619767 0.7964374652
615296310.0 0.3048988902 -0.7927983139 -0.0001417322 1.97407e-05 -9.2811e-05 -9.60953e-05 -0.2724701077 0.7992715562
620296280.0 0.2971476855 -0.7956703136 -0.0001420457 -0.0001059855 8.64801e-05 -5.54547e-05 -0.2651626442 0.8017476886
625296250.0 0.2890841985 -0.7982236689 0.0001096128 2.16713e-05 4.28575e-05 2.71048e-05 -0.2563041003 0.8043208753
630296220.0 0.2817616041 -0.8018253129 -1.38549e-05 -2.47024e-05 -0.0002089673 7.0849e-06 -0.2484917304 0.807203072
635296190.0 0.2736019556 -0.8041739382 -4.15431e-05 -2.83367e-05 -4.62055e-05 -0.000139013 -0.2406829905 0.8088528263
640296160.0 0.2654585056 -0.8059641924 -0.0001061623 7.06828e-05 0.0001036692 -5.03909e-05 -0.2320530713 0.8116720762
645296130.0 0.2574536806 -0.8089195218 7.6269e-06 -0.0001495457 -0.0001733133 6.1112e-05 -0.2250132263 0.8143862946
650296100.0 0.2493493786 -0.8112341568 0.0001696826 5.99494e-05 7.4761e-05 0.0002034177 -0.2166572601 0.816615011
655296070.0 0.2417447504 -0.8131292753 -0.0001772957 5.80486e-05 -0.0001427098 -0.0001191198 -0.2086596789 0.8177606959
660296040.0 0.2330831808 -0.8151292524 6.46851e-05 -5.5278e-05 1.93999e-05 -1.80375e-05 -0.2005866524 0.8203494348
665296010.0 0.2253792586 -0.8177227557 -5.41332e-05 3.95792e-05 -0.0002684496 -6.11068e-05 -0.1926727079 0.8220093798
670295980.0 0.2177895818 -0.8200738039 -0.0002016375 0.0002798083 6.00152e-05 1.55121e-05 -0.184863045 0.8243938417
675295950.0 0.2093908012 -0.821615265 2.703e-07 0.000108431 -0.0001506638 -1.0262e-05 -0.1764456537 0.8258611592
680295920.0 0.200402189 -0.8236219929 -5.56363e-05 -0.0001409294 0.0002960692 -5.2385e-05 -0.1683333445 0.8278993232
685295890.0 0.1931170501 -0.8252786328 2.45031e-05 9.1074e-05 -2.0048e-06 -0.000110297 -0.1596744924 0.8297102648
690295860.0 0.1852368525 -0.8271938095 9.17369e-05 2.2593e-05 -6.37936e-05 5.61031e-05 -0.151356546 0.8306225646
695295830.0 0.1768803108 -0.8287594908 -4.76625e-05 5.86803e-05 -3.7414e-05 -0.0001248325 -0.143407299 0.8323609411
700295800.0 0.168613989 -0.8303446896 3.54467e-05 1.75119e-05 -3.28519e-05 7.73604e-05 -0.1349026446 0.8333160623
705295770.0 0.160020601 -0.8322015925 -2.28318e-05 7.95486e-05 0.0001137387 -0.0001359384 -0.12721258 0.8354427966
710295740.0 0.1518168443 -0.8331402678 -0.0002442435 4.04708e-05 7.7466e-05 0.0003214504 -0.1195404016 0.8364180421
715295710.0 0.1437134824 -0.8344827039 2.61307e-05 0.0001352597 7.60161e-05 -5.75032e-05 -0.1109023448 0.8374698678
720295680.0 0.1354891346 -0.8359091623 -0.0002656579 -2.64362e-05 -5.0558e-05 0.0001557472 -0.1022143957 0.8383429023
725295650.0 0.1277677348 -0.8370342496 -6.14071e-05 -1.27031e-05 3.07293e-05 8.15613e-05 -0.0937870527 0.8396024374
730295620.0 0.1191955983 -0.838948062 6.24063e-05 2.14381e-05 -3.04932e-05 2.07802e-05 -0.0853827198 0.8404343374
735295590.0 0.1114021878 -0.8390299553 0.0001552347 2.22422e-05 2.83899e-05 -8.76446e-05 -0.0767696588 0.840861908
740295560.0 0.1028116201 -0.8399406418 -0.0001067392 0.0002005352 -0.0001037883 7.81224e-05 -0.0690709984 0.8413211205
745295530.0 0.0939914575 -0.8411895219 0.000120331 0.0001458644 -2.01351e-05 9.9921e-06 -0.0608159779 0.8421367651
750295500.0 0.085957763 -0.8417230297 -5.10294e-05 0.0001040508 -8.86e-07 -2.37176e-05 -0.0524767288 0.8421460302
755295470.0 0.0779478915 -0.8425381178 0.0002142836 -0.0001015505 9.43233e-05 -6.23015e-05 -0.0444726473 0.8433979714
760295440.0 0.0688092756 -0.8426979226 4.3484e-05 -0.0002123641 -0.0001115139 5.03268e-05 -0.0365327522 0.8436759275
765295410.0 0.0605720675 -0.8437434818 0.0001599595 -0.0001933355 -3.54715e-05 -2.27933e-05 -0.0274174074 0.8439348648
770295380.0 0.0526340173 -0.8440799536 3.93036e-05 -0.0001488867 0.0002147767 4.18327e-05 -0.0186795138 0.8438908638
775295350.0 0.0439232957 -0.8442401848 -2.8833e-06 -0.0001207452 -4.37288e-05 -5.2894e-05 -0.0115593567 0.8437840464
780295320.0 0.0351589544 -0.8449815657 -8.57016e-05 9.38124e-05 4.92794e-05 -3.26083e-05 -0.0029198276 0.8446414827
785295290.0 0.0272770438 -0.8443344941 1.48282e-05 -7.24999e-05 4.30928e-05 -4.18936e-05 0.0052908694 0.8442457467
790295260.0 0.019111879 -0.8449328421 -0.0001475836 9.48379e-05 -3.19598e-05 -6.78078e-05 0.0142700197 0.844218658
795295230.0 0.0105719123 -0.8445867641 -7.82736e-05 0.0001411083 0.0001455632 -0.0001122854 0.0226404879 0.8438691445
800295200.0 0.0025330164 -0.8441036029 -3.929e-07 1.8713e-05 0.0001075818 0.0001536373 0.0302314254 0.8434484685
805295170.0 -0.0056434211 -0.8441610064 4.18139e-05 0.000119686 7.30112e-05 1.57829e-05 0.0386173477 0.8430157399
810295140.0 -0.0146755134 -0.8443474963 -3.01551e-05 0.0002120243 -2.08382e-05 2.07234e-05 0.046615524 0.8438802521
815295110.0 -0.0227995347 -0.8438643021 5.98498e-05 -5.68102e-05 0.0001018825 -0.0002193434 0.0553679174 0.8424693782
820295080.0 -0.0310319944 -0.8434370133 -6.86536e-05 -0.0001654056 0.0001654034 2.13156e-05 0.063474239 0.8419493548
825295050.0 -0.0393541279 -0.8433681058 4.30579e-05 -0.0001425523 -1.44352e-05 -0.000159615 0.0720367176 0.8411700344
830295020.0 -0.0474078723 -0.8423716037 -3.05831e-05 3.81456e-05 -0.0001161287 6.24017e-05 0.0797029669 0.8401026157
835294990.0 -0.0551344937 -0.8421568475 5.52276e-05 0.0002138379 0.000124231 8.19012e-05 0.0879871447 0.8394664487
840294960.0 -0.0638048864 -0.8415165077 4.19524e-05 -0.0001799944 -6.35072e-05 -4.6162e-06 0.0961915726 0.8389580021
845294930.0 -0.0721436129 -0.8403617261 0.0001514466 9.91269e-05 -2.83e-06 1.62153e-05 0.1047055695 0.837338814
850294900.0 -0.0810314638 -0.8392739945 -0.0001859549 2.9772e-06 8.08835e-05 0.0002635044 0.1127625218 0.8368836873
