!Created with skrf (http://scikit-rf.org).
# Hz S RI R 50.0 
!freq ReS11 ImS11 ReS21 ImS21 ReS12 ImS12 ReS22 ImS22
300000.0 -0.7710043138 -0.1833878628 -0.0006782048 0.0013513853 -2.46168e-05 0.0003614647 -0.0448830731 -0.0822327668
5299970.0 -0.7861427538 -0.0098147984 -6.30083e-05 7.44698e-05 7.04997e-05 5.31972e-05 -0.0486881982 0.0141085193
10299940.0 -0.7895640027 -0.0061036504 0.0001170663 0.0001582805 0.000167316 -6.45449e-05 -0.0429184166 0.0321251929
15299910.0 -0.794069981 -0.0033234268 2.61738e-05 7.9192e-05 -9.02977e-05 -5.91675e-05 -0.0346072178 0.0467917679
20299880.0 -0.8009988342 0.0007860368 1.2921e-05 5.7328e-06 -1.83666e-05 0.0001475109 -0.0248873286 0.0585715445
25299850.0 -0.8075399507 0.0066453551 -0.0001821837 -3.21585e-05 -4.56891e-05 2.66364e-05 -0.0140970535 0.0677645092
30299820.0 -0.8139261737 0.0140271114 -8.2336e-05 3.1474e-06 0.0001674972 -3.17586e-05 -0.0024320057 0.0747105447
35299790.0 -0.8183916398 0.0228243933 -0.0001074738 0.0001183737 8.78527e-05 0.0001832299 0.0084853986 0.0796291808
40299760.0 -0.823730823 0.0321392503 -3.86933e-05 -5.76057e-05 -1.16544e-05 0.0001014935 0.0197333171 0.082716459
45299730.0 -0.8269281065 0.0417561119 9.12701e-05 -1.93106e-05 -0.000102812 5.80764e-05 0.0306609908 0.0840355539
50299700.0 -0.8291822458 0.0518310716 2.1386e-05 0.0001746255 -1.47145e-05 2.65465e-05 0.040593197 0.0843885117
55299670.0 -0.8310417522 0.0614108752 5.70221e-05 0.0002947093 -7.18966e-05 8.45491e-05 0.0497025615 0.0833318584
60299640.0 -0.8326213916 0.0721695164 6.64784e-05 -2.395e-05 4.31221e-05 -0.0001976127 0.0582632181 0.0814813683
65299610.0 -0.8331768871 0.0818535831 0.0001431248 0.0002220138 -3.153e-06 0.0001902557 0.0658530237 0.0793688385
70299580.0 -0.8336534261 0.0917863771 9.45726e-05 -1.76746e-05 0.0004041048 2.96934e-05 0.0727529446 0.076724584
75299550.0 -0.833878003 0.10161524 0.0001463221 0.0003004823 -0.0001407985 0.0001232703 0.0793633208 0.0736993011
80299520.0 -0.8342398391 0.1118431298 0.0001775899 -0.000199391 2.76746e-05 -8.45941e-05 0.0849395632 0.0701754797
85299490.0 -0.832341005 0.1208376979 0.0002036612 0.0001875151 -4.6178e-06 -2.85852e-05 0.0898983352 0.0665426721
90299460.0 -0.8323178968 0.1320721917 0.000180456 -2.25091e-05 4.58994e-05 0.0001952259 0.0945537651 0.062979622
95299430.0 -0.8314417797 0.1404471677 9.20561e-05 0.0001714056 8.84938e-05 -0.0001024981 0.0986177424 0.0591706375
100299400.0 -0.8302614807 0.1502796961 -2.92429e-05 0.0001955672 3.19619e-05 9.23427e-05 0.1024773444 0.0553971678
105299370.0 -0.8289140955 0.1590303633 0.0001354335 0.000122812 8.764e-05 -2.97621e-05 0.1059392303 0.0515288235
110299340.0 -0.8270022177 0.1678544193 -0.000165976 4.20032e-05 0.0001030693 9.19422e-05 0.1083493867 0.0473604314
115299310.0 -0.8261273292 0.177434027 0.0002012375 -2.41417e-05 -4.32615e-05 0.0002028849 0.1111544374 0.044102703
120299280.0 -0.8242596888 0.1868810559 0.0002714061 0.0001332898 2.56355e-05 0.0001906919 0.1134663699 0.0400824486
125299250.0 -0.8228604972 0.1956386685 4.73635e-05 0.00025172 8.09189e-05 0.0002389951 0.1155498545 0.0362855093
130299220.0 -0.8211575375 0.205305352 0.0002161285 0.0003726638 2.54704e-05 0.000167846 0.1173275582 0.0329437276
135299190.0 -0.8192084609 0.2142601464 0.000247641 5.80009e-05 0.0001344155 2.05093e-05 0.1188101915 0.029187167
140299160.0 -0.8173114856 0.2233932977 0.0001120654 0.0001112558 -1.82303e-05 3.26745e-05 0.1201834388 0.0257923011
145299130.0 -0.8153306474 0.2321792089 2.57456e-05 8.05542e-05 0.0001172546 0.0002445757 0.1211431502 0.0225738089
150299100.0 -0.8121409727 0.2413378286 -2.7164e-05 0.000258726 0.0002819144 0.0001202326 0.1221137821 0.0191110668
155299070.0 -0.8100599856 0.2502236474 5.74584e-05 0.0001333776 -0.0001495548 0.0001056328 0.1229896226 0.0159840387
160299040.0 -0.8076003259 0.2595854767 1.94068e-05 7.94506e-05 -1.96677e-05 0.0001264986 0.1233905007 0.0128687391
165299010.0 -0.8047498556 0.2677340342 0.000247478 9.59667e-05 9.98942e-05 -2.68207e-05 0.1242212592 0.0095367745
170298980.0 -0.8011702024 0.2766637712 0.000182634 0.0001242022 -4.09232e-05 0.0001174614 0.1245436817 0.0065342147
175298950.0 -0.7990632554 0.2844421716 1.34813e-05 7.2534e-05 0.0002774647 0.0001331134 0.1249080184 0.0038609384
180298920.0 -0.7961708832 0.2934483874 0.0002468741 -5.03995e-05 0.000105914 0.0001962798 0.1251537462 0.0004831758
185298890.0 -0.792726965 0.3023004765 8.16172e-05 0.0001906596 3.42e-05 8.37355e-05 0.1252783258 -0.0022632398
190298860.0 -0.7890018629 0.3113213295 4.8756e-06 8.5339e-05 0.0002457776 0.0001819917 0.1254965812 -0.004895477
195298830.0 -0.7864489945 0.3197945928 -1.48292e-05 5.30324e-05 -0.000110352 0.0001697802 0.1249889751 -0.0075536447
200298800.0 -0.7829120845 0.3279493451 0.0001153536 9.81959e-05 8.17338e-05 0.0003863923 0.1251067713 -0.0100941805
205298770.0 -0.779350311 0.3365331228 -0.0001150529 -3.3137e-05 0.0001102143 0.0002505975 0.1248944899 -0.0129928861
210298740.0 -0.7762453289 0.3447338256 0.0001621833 0.0001928097 0.0002166903 0.0001106516 0.1246485737 -0.0151425029
215298710.0 -0.7722970297 0.3532532368 0.0002375001 0.0002644407 5.35948e-05 0.0001826903 0.1243965317 -0.0181325043
220298680.0 -0.7691790832 0.3608222094 0.0001449509 0.0001251662 8.22203e-05 0.0001778312 0.1240166259 -0.0201187526
225298650.0 -0.7645871579 0.370045453 6.44887e-05 0.0001274839 0.0002700523 0.0001427498 0.1235732696 -0.0225773993
230298620.0 -0.7614192977 0.3775145366 -7.16039e-05 0.0001431418 0.0002481542 -3.13967e-05 0.1232312802 -0.0250678606
235298590.0 -0.7570972468 0.3859162879 0.0002030333 0.0001107751 0.0002180553 0.000139773 0.1223892089 -0.0269253351
240298560.0 -0.7527912912 0.3935530995 0.0002471773 0.0002976829 4.76911e-05 0.0001310246 0.121939703 -0.0293520923
245298530.0 -0.7487447799 0.401828084 0.0002940036 0.0002519337 0.0001491736 1.4301e-06 0.121592163 -0.0315741885
250298500.0 -0.7444470673 0.409033812 9.89146e-05 0.0001545103 0.0002236577 0.000208883 0.1207720379 -0.0335218439
255298470.0 -0.740450739 0.4174570839 0.0003106379 5.53911e-05 1.29937e-05 5.8066e-05 0.1200532442 -0.0358913711
260298440.0 -0.7363389411 0.4253750855 1.23695e-05 9.39293e-05 1.31535e-05 0.0002375659 0.1192899656 -0.0376177833
265298410.0 -0.7317925291 0.4327835504 0.0001474463 0.0002240691 9.37153e-05 0.0002356425 0.1188747555 -0.0401135375
270298380.0 -0.7266567827 0.4405367174 0.0001204235 0.0001866655 8.53162e-05 0.0002494124 0.1183323296 -0.041717425
275298350.0 -0.7234645753 0.4481635497 0.0001087305 8.75214e-05 7.07742e-05 0.0001982349 0.1172777202 -0.0434719419
280298320.0 -0.7179895837 0.4554167753 -9.54214e-05 0.0001717552 0.0002794388 0.0001000856 0.1165636495 -0.0452749925
285298290.0 -0.7134179468 0.4634167858 9.80875e-05 0.0001288413 2.26582e-05 0.0001661989 0.1155341266 -0.0470502703
290298260.0 -0.7082536212 0.4709321742 0.0001080663 0.0001410173 -9.4814e-06 0.0003425284 0.1149371631 -0.0489795729
295298230.0 -0.7038976326 0.478068978 0.0001189632 4.7548e-06 0.0001475837 3.50785e-05 0.1140534989 -0.0508077629
300298200.0 -0.6994805011 0.4854846635 0.0003565329 0.0002311126 0.0001121639 4.21337e-05 0.1132683919 -0.0524031766
305298170.0 -0.6945708076 0.4926103541 0.0001452939 0.0002557227 0.0002689058 8.30152e-05 0.1126569095 -0.054427348
310298140.0 -0.689217861 0.4995006676 0.0002731503 0.0002768552 0.0002211601 -0.0001179104 0.1116741205 -0.0560731396
315298110.0 -0.6843467831 0.5072066332 1.24432e-05 0.0001898776 0.0001365078 8.74966e-05 0.1110212973 -0.0578389018
320298080.0 -0.6789863111 0.5144983848 0.0003381107 0.0001943756 0.0001830279 0.0002169528 0.1094207583 -0.0598464948
325298050.0 -0.6738098835 0.5207091597 0.0002149125 5.34597e-05 0.0001544936 5.68324e-05 0.1092271767 -0.0615762594
330298020.0 -0.6681792562 0.5280551082 0.0001689944 0.0001208209 0.0003671277 0.0002981853 0.1074569872 -0.0633670545
335297990.0 -0.6627911707 0.5346249388 0.0004195231 0.0001101645 6.3154e-05 0.000269708 0.1061567554 -0.0649899328
340297960.0 -0.6582438818 0.5416130355 0.0001112739 -3.49663e-05 0.000161542 0.0004138274 0.1051285043 -0.0660792976
345297930.0 -0.6520439431 0.5481630732 0.0002364973 0.000271111 0.0001128146 0.0002179721 0.1038524506 -0.0677074206
350297900.0 -0.6460265969 0.5548077602 0.0002935058 0.000200414 0.0002601237 0.0001707091 0.1019606162 -0.0692356719
355297870.0 -0.6404351886 0.5612797983 -0.0001212841 0.0002875381 5.21195e-05 2.36406e-05 0.1013149506 -0.0704050136
360297840.0 -0.6346485614 0.568731755 7.4635e-05 7.6334e-06 0.0003142084 0.0002172381 0.1001606203 -0.0718375256
365297810.0 -0.6294658913 0.574904897 0.0001260843 7.73342e-05 0.000363703 4.9417e-06 0.0987291424 -0.0730694839
370297780.0 -0.6229587573 0.5807804989 0.0002548675 0.0002197488 9.09464e-05 8.29585e-05 0.0973736162 -0.074410665
375297750.0 -0.6185238991 0.5875084828 0.0003335543 -5.37698e-05 0.0003155848 9.56235e-05 0.0961222643 -0.0755609854
380297720.0 -0.6120823873 0.5935983025 0.0002211321 0.000202341 0.0003210692 8.10225e-05 0.0951290842 -0.076783225
385297690.0 -0.6061927561 0.5999352778 0.0002531321 2.42615e-05 6.5263e-05 0.0001314625 0.0937958317 -0.0779145253
390297660.0 -0.5985942472 0.6050729489 0.0001139283 3.11765e-05 0.000132321 0.0001580681 0.0925200436 -0.0791344634
395297630.0 -0.5929859203 0.6121321234 7.05443e-05 0.0001767981 0.0001012369 8.4621e-06 0.0913693537 -0.0804705171
400297600.0 -0.5867858966 0.6180428533 0.0001822406 6.83325e-05 0.0003993281 0.0002590287 0.0901525999 -0.0811455452
405297570.0 -0.5806182623 0.6230019166 0.0001760537 0.0001931309 0.000297702 0.0002635298 0.0890982662 -0.0824301082
410297540.0 -0.5738336953 0.630074944 0.000436355 0.000199486 0.0001648112 0.0001958986 0.087502564 -0.0830891016
415297510.0 -0.5675427807 0.6359371064 0.0001161321 5.09707e-05 0.000262661 -1.17289e-05 0.0864045272 -0.084565202
420297480.0 -0.5610268707 0.6416032699 0.0004099596 0.0001511057 0.0001702229 0.0001722446 0.0853565062 -0.08511576
425297450.0 -0.5544019852 0.6462674367 0.0002297889 0.0002005298 0.0003903022 4.84308e-05 0.0837079844 -0.0868415839
430297420.0 -0.5477117562 0.6517736732 0.0003668628 9.96412e-05 0.0003240939 0.0001021839 0.0828366193 -0.0874112015
435297390.0 -0.5410633653 0.6576178972 0.0002296349 0.0001004099 0.0001575012 7.96947e-05 0.0811219104 -0.0884432433
440297360.0 -0.5343618673 0.6626443926 0.0001061366 0.000211256 0.0002977529 6.839e-05 0.0799392576 -0.089260544
445297330.0 -0.5274584245 0.6681316018 0.0003182586 0.0001096437 0.000209025 0.0002821289 0.0785732843 -0.0902886657
450297300.0 -0.5200782452 0.6735768767 0.0003941954 9.57048e-05 0.0002619717 0.0001521215 0.07745685 -0.0910438957
455297270.0 -0.5141138855 0.6786214192 0.0001803516 0.0002110806 0.0002701307 0.0001025202 0.0762329431 -0.0920586367
460297240.0 -0.5056811437 0.6845664554 0.0003200899 -5.1943e-06 0.0001245485 0.0001541354 0.0744834171 -0.0928945586
465297210.0 -0.4994357574 0.6891107385 0.0002818682 -3.93492e-05 0.0003112801 -3.6875e-06 0.0734156079 -0.0934784229
470297180.0 -0.4921716563 0.6941878621 0.0006181007 4.43367e-05 0.0001687981 0.0001346596 0.0719841554 -0.0944549036
475297150.0 -0.4848002633 0.6988089802 0.0003859673 0.000148997 0.0003855004 0.000173557 0.0707433455 -0.0952051626
480297120.0 -0.4768945173 0.7042080969 3.66568e-05 9.09587e-05 0.0002558101 -3.37277e-05 0.0690359318 -0.0958219216
485297090.0 -0.4702558026 0.7084409892 0.0002707001 0.0002795539 0.0003064858 0.0001202092 0.0677214545 -0.0968652738
490297060.0 -0.4619352768 0.7135999469 0.0003511358 0.0001924376 0.0001563184 8.96099e-05 0.0665919482 -0.097596334
495297030.0 -0.4549375989 0.7184163741 0.0003702684 -6.10243e-05 0.0003798459 0.0001334333 0.0652039044 -0.0981520778
500297000.0 -0.4475571065 0.7223814651 0.0003268395 0.0002534877 0.000268078 0.0002218616 0.0637687479 -0.0988988635
505296970.0 -0.439015936 0.7275792494 0.0003431282 7.51482e-05 0.0001799567 -6.5327e-06 0.0625057371 -0.099775212
510296940.0 -0.4321040997 0.7311212832 0.000329024 7.23237e-05 0.0002310931 0.0001955246 0.0610459903 -0.0999380396
515296910.0 -0.4246910243 0.7359467028 0.0003570244 6.39023e-05 0.0004007328 -2.90883e-05 0.0594405249 -0.1009658508
520296880.0 -0.4161915691 0.7396354715 0.0002952785 2.33214e-05 0.0003128726 0.0001937267 0.0581615446 -0.1012348133
525296850.0 -0.4090998296 0.7443676336 0.000328314 9.49466e-05 0.0002426517 -5.9664e-05 0.0565860462 -0.1020658985
530296820.0 -0.4013918862 0.7479089948 0.0004126095 0.0002072509 0.0001977417 6.40093e-05 0.0552730698 -0.1027019739
535296790.0 -0.3930428904 0.751781809 0.0004034331 0.0001326099 0.0002730741 -3.03899e-05 0.0540949393 -0.1030468087
540296760.0 -0.3850178563 0.7558942853 0.0001880523 0.0002338232 0.0002071433 -0.0001849649 0.0523176811 -0.1036430714
545296730.0 -0.3772464224 0.7602706072 0.0001768467 -0.0001231043 0.0003762761 4.79175e-05 0.0512616607 -0.1041080631
550296700.0 -0.3690807468 0.7637514131 0.0003157921 8.41682e-05 0.0002133309 3.99401e-05 0.0497404185 -0.1046007396
555296670.0 -0.3613939536 0.7674147581 0.0002882082 0.0002781004 0.0003517849 2.99366e-05 0.047843702 -0.1050514674
560296640.0 -0.353200115 0.7706346289 0.0001089888 4.46762e-05 0.000238891 -8.029e-07 0.0465709606 -0.1055620222
565296610.0 -0.3453999844 0.774474937 0.0002463302 7.16859e-05 0.0004088408 -0.0001208051 0.04520035 -0.1058719905
570296580.0 -0.3369419101 0.7780390984 0.00039848 4.26652e-05 0.0003487938 0.000202292 0.0437516435 -0.1063610932
575296550.0 -0.3276155177 0.7812627587 0.0002474395 0.000156653 0.0004156154 5.77881e-05 0.0425713685 -0.1067212294
580296520.0 -0.3213811461 0.7849614353 0.0002544655 0.0002116681 0.0002906334 -0.0001050372 0.0408778274 -0.1071479237
585296490.0 -0.3125516023 0.7876118998 8.8506e-05 0.0003963703 0.0004060576 7.7389e-05 0.0396609664 -0.1074442325
590296460.0 -0.303600846 0.7908291298 0.0002596634 0.0001361641 0.0003386647 4.4028e-05 0.0379450223 -0.107659376
595296430.0 -0.2959978198 0.7935650991 0.0001787301 -3.99872e-05 0.0003716175 -3.63257e-05 0.0366310262 -0.1077821952
600296400.0 -0.2881193071 0.7967828955 0.0004644863 7.99227e-05 0.0002437881 -8.32857e-05 0.0351182065 -0.1083150619
605296370.0 -0.2796554658 0.7991240572 0.0003378386 8.92995e-05 0.0004549141 0.0001839433 0.0340589168 -0.1083042808
610296340.0 -0.2709681872 0.8029550216 0.0003319258 0.0002663158 0.0002301753 -0.0002312113 0.0320462704 -0.1087126184
615296310.0 -0.2630575828 0.8057378496 0.0004504362 0.0002911071 0.000207775 0.00013369 0.0310895442 -0.1089230272
620296280.0 -0.2555530683 0.8083372226 0.0001097641 9.96019e-05 0.0005054061 -0.0002108363 0.0293281214 -0.1089632244
625296250.0 -0.2474351458 0.8102151855 0.0001732852 -4.12534e-05 0.000413321 0.000205345 0.0276322025 -0.1095239869
630296220.0 -0.2382975464 0.8134196518 0.0004220876 -0.0001915649 0.0003994706 -0.0001987589 0.0263900791 -0.1095773882
635296190.0 -0.2303026559 0.8163545081 0.0005068786 6.70155e-05 0.0004117508 5.27419e-05 0.0247503155 -0.1094901608
640296160.0 -0.2218191092 0.8174892956 0.0002842219 9.23825e-05 0.0002820605 0.0002060263 0.0230629324 -0.1093869713
645296130.0 -0.2135796186 0.8204434547 0.0003098066 0.0001623811 0.0005186133 1.82155e-05 0.0216417781 -0.1097463822
650296100.0 -0.2054893527 0.8220184605 0.0005101913 1.21637e-05 0.0001953422 3.31689e-05 0.0206168943 -0.1097587622
655296070.0 -0.1974122956 0.8245192392 0.0005222606 -0.0002282527 0.0006750392 2.92736e-05 0.0185520844 -0.11001937
660296040.0 -0.188742503 0.8262768054 0.0003408992 7.03814e-05 0.0003799022 9.53962e-05 0.0176254024 -0.1101437402
665296010.0 -0.1812116992 0.8285047321 0.0003811448 6.67432e-05 0.0003312338 5.05063e-05 0.0161802443 -0.1098148175
670295980.0 -0.1727227689 0.8301806541 0.0002001302 -2.0642e-06 0.0004761332 -8.83443e-05 0.0146262938 -0.1099363845
675295950.0 -0.1637037313 0.8325185301 0.0003678928 -0.0001676015 0.0002929102 3.8644e-06 0.0130697715 -0.1096254602
680295920.0 -0.1564520749 0.8333890993 0.0004859343 -7.59871e-05 0.0003240177 0.0001092208 0.0119190463 -0.1101255182
685295890.0 -0.1476709829 0.835649283 0.0003125069 -0.0001030738 0.0002357789 0.0002081891 0.0100169506 -0.1097734019
690295860.0 -0.1390458515 0.8369624525 0.0003663364 8.48681e-05 0.0003524433 6.69108e-05 0.0087439655 -0.1097351093
695295830.0 -0.1304150795 0.8385022343 0.0004459933 5.43002e-05 0.000270279 -8.0017e-05 0.0073363842 -0.1095204323
700295800.0 -0.1219874019 0.8397297218 0.0004168068 -6.27296e-05 0.0003837829 -9.28546e-05 0.0061996765 -0.109512076
705295770.0 -0.1142558555 0.8416650673 0.0003237118 -4.01611e-05 0.0003813858 -8.89938e-05 0.0044894392 -0.109109808
710295740.0 -0.1069035464 0.8418567433 0.0005286927 -5.36813e-05 0.000330411 -1.02623e-05 0.0031339632 -0.1089812667
715295710.0 -0.0971776393 0.8436713969 0.0002903702 -1.14316e-05 0.0003575817 0.0001525722 0.0017713812 -0.1091479723
720295680.0 -0.0890351644 0.8442108483 0.0006085806 -2.78687e-05 0.000133533 -8.47588e-05 0.0003770871 -0.1091650186
725295650.0 -0.0812541826 0.8457483507 0.0001855131 0.0003001042 0.0001614583 0.0001882212 -0.0011859263 -0.1082786356
730295620.0 -0.0737583662 0.8465939017 0.0005786494 -1.58144e-05 0.0003137245 -4.27148e-05 -0.0025698323 -0.1079226514
735295590.0 -0.0658694319 0.8478070443 0.0004369619 0.0001216619 0.0003948192 7.45715e-05 -0.0035885044 -0.1081508609
740295560.0 -0.0573732915 0.8477066967 0.0003167819 -0.000244656 0.0003075291 -0.0001455656 -0.0053881846 -0.1076837087
745295530.0 -0.0490876762 0.8490080163 0.0003471525 -0.0003148732 0.0004465226 2.73581e-05 -0.0067981791 -0.1073514852
750295500.0 -0.0404763583 0.849419749 0.0002955748 -0.0001118293 0.0003516769 3.6623e-06 -0.0078692743 -0.1071315622
755295470.0 -0.0322707444 0.8499731413 0.0004644168 -0.000188155 0.0005135908 8.63456e-05 -0.0095640887 -0.1064824826
760295440.0 -0.0238749925 0.851072713 0.0004362381 7.00296e-05 0.0003304988 -5.62406e-05 -0.0106894948 -0.1066751597
765295410.0 -0.0157407586 0.8509432185 0.0004051326 5.34718e-05 0.0003646785 4.03803e-05 -0.0120354507 -0.1061731506
770295380.0 -0.0077774092 0.8512764498 0.0003684995 -0.0001631621 0.0004718743 -4.9066e-06 -0.0139035555 -0.1055958788
775295350.0 -3.03972e-05 0.8508123276 0.0003143579 -0.0001691321 0.0002570206 -0.0001610425 -0.0150871609 -0.1055827251
780295320.0 0.0090351153 0.8516061905 0.0003034802 -8.75767e-05 0.0003200391 5.79034e-05 -0.016359017 -0.1047618785
785295290.0 0.0169627368 0.8511783703 0.0001488113 -2.06765e-05 0.0005290619 -0.0001263283 -0.0179671922 -0.1044267272
790295260.0 0.0249588497 0.8511811142 0.0002745299 -5.01227e-05 0.0005538067 -0.0002836195 -0.0192267764 -0.1039835971
795295230.0 0.033055447 0.8506683854 0.0003628432 -5.05324e-05 0.0005620229 2.38814e-05 -0.0207600988 -0.1041104997
800295200.0 0.0413797996 0.8507752425 0.000285494 -0.000218467 0.0004013767 -0.0002300723 -0.0218768562 -0.103282627
805295170.0 0.0493422692 0.8505177159 0.0002587765 -5.63709e-05 0.0004279354 -8.41918e-05 -0.0228246154 -0.1028526317
810295140.0 0.057611592 0.8503046106 0.0003701746 -0.000178834 0.0002710855 2.86283e-05 -0.0242924938 -0.1022776156
815295110.0 0.065218187 0.8494989503 0.0005761368 0.0001717421 0.0004600134 -0.0001036688 -0.0258460777 -0.1019155485
820295080.0 0.0735899705 0.8492414423 0.0003587969 -0.0002305543 0.0004535242 -0.0002287831 -0.0274890962 -0.1008947472
825295050.0 0.0818359235 0.8485027411 0.0005710022 -9.52761e-05 0.0005578887 -0.0002449851 -0.0281877269 -0.1007512494
830295020.0 0.0910897325 0.8479558537 0.0003373806 -0.0001536122 0.0004421738 -0.0001796752 -0.0297763422 -0.1001902966
835294990.0 0.0980727249 0.8466378864 0.0005768315 -0.0001230471 0.0003322099 -0.0002290228 -0.0312130383 -0.0993209043
840294960.0 0.1067170306 0.8458115235 0.000559947 -0.0001808926 0.0004372417 7.0034e-05 -0.0321123332 -0.0986573243
845294930.0 0.1146789972 0.8447382104 0.0001600234 -0.0001122621 0.0004533064 -6.62527e-05 -0.0336570105 -0.0981267228
850294900.0 0.1243200632 0.8433664233 0.0004769461 -0.0003989175 0.0003411726 -7.2802e-06 -0.0348324388 -0.0974777139
