!Created with skrf (http://scikit-rf.org).
# Hz S RI R 50.0 
!freq ReS11 ImS11 ReS21 ImS21 ReS12 ImS12 ReS22 ImS22
300000.0 -0.7719171357 -0.1449121446 0.0016022399 0.0006144156 -0.0011742458 0.0005180571 -0.046732314 -0.0682506548
5299970.0 -0.7854390888 -0.0075529093 5.85113e-05 -5.8493e-06 1.9217e-05 -0.0001860316 -0.0487816924 0.0145280459
10299940.0 -0.7873967536 -0.0040950898 -1.84135e-05 -3.43088e-05 4.58167e-05 1.62524e-05 -0.0428976774 0.0315458991
15299910.0 -0.7933105279 -0.0017425359 -1.13699e-05 3.32428e-05 0.0001676547 -2.97408e-05 -0.0345367442 0.0455871027
20299880.0 -0.7996004902 0.0021728304 -9.01355e-05 -0.0001132737 0.0001028252 -2.5914e-05 -0.0250329071 0.0568684968
25299850.0 -0.8061622053 0.0077149323 6.348e-07 7.80242e-05 -0.0001144931 1.48011e-05 -0.0141485812 0.0660223708
30299820.0 -0.8120377806 0.0164069 3.89427e-05 0.0001179791 2.18217e-05 0.0001659256 -0.003303856 0.0725387514
35299790.0 -0.8170461876 0.0251878509 0.0001029174 8.0869e-05 3.1497e-06 -0.0001745972 0.0080952785 0.077323562
40299760.0 -0.8212611188 0.0341527893 -0.0001934277 -2.66406e-05 7.29177e-05 0.0001519227 0.0193187943 0.0799820594
45299730.0 -0.8248877307 0.0441066604 -5.38192e-05 9.46596e-05 -0.0002680538 -0.0001494776 0.029787243 0.0813277271
50299700.0 -0.8265366345 0.0538108029 -6.3567e-05 5.52121e-05 -6.83537e-05 0.0001119946 0.0394455967 0.0811366109
55299670.0 -0.8283517973 0.0644767409 5.9339e-06 5.24223e-05 -8.25653e-05 8.68381e-05 0.0483131231 0.08042745
60299640.0 -0.8300065394 0.074110494 -0.0001116558 0.0002461973 6.88865e-05 8.25975e-05 0.0567251596 0.0782896161
65299610.0 -0.8312474757 0.0846623665 -3.27899e-05 -3.89843e-05 -4.41325e-05 9.5457e-06 0.0642562808 0.0761609736
70299580.0 -0.8308750752 0.094840537 -0.0001230677 4.81157e-05 3.978e-05 -1.32951e-05 0.0713516895 0.0727919834
75299550.0 -0.8315069296 0.104783684 -1.67008e-05 -0.0001026096 -0.0001174326 6.66987e-05 0.077463971 0.0697685586
80299520.0 -0.8310278199 0.1143755847 -2.2076e-06 5.50081e-05 7.95616e-05 0.0001618965 0.0826406001 0.0661304806
85299490.0 -0.830250063 0.1240847069 0.0001106693 -1.55512e-05 2.11242e-05 2.6872e-06 0.0876388067 0.0623989945
90299460.0 -0.8295630784 0.1342593091 -2.11678e-05 -0.0001215748 0.0001373324 0.0001471681 0.0924961339 0.0588379403
95299430.0 -0.8286970338 0.1431752113 5.8554e-05 2.37659e-05 -0.0001910053 -8.4845e-06 0.0962729746 0.0547978413
100299400.0 -0.8279739964 0.1529401636 -6.1669e-06 0.0001220058 1.8239e-05 -1.75339e-05 0.0995762487 0.0509688776
105299370.0 -0.8268347048 0.1623682708 9.58642e-05 0.0001740558 9.3308e-05 -0.0001500357 0.103174599 0.046503272
110299340.0 -0.8249653601 0.1710198787 0.000107153 1.86692e-05 4.5595e-06 0.0001037909 0.1055833844 0.043183113
115299310.0 -0.8233191763 0.1805227065 2.0769e-05 -0.0001409182 1.9011e-06 9.98971e-05 0.1081853565 0.0386513464
120299280.0 -0.8221790867 0.189415513 -0.000241211 -0.000120702 0.0001613997 -6.03869e-05 0.1102956818 0.035146556
125299250.0 -0.8204455588 0.1984115488 6.00435e-05 -0.0001045281 6.74379e-05 0.0002286381 0.1124003634 0.0307474324
130299220.0 -0.8180870445 0.2079392568 -1.0352e-06 0.0002288607 0.0002217624 -5.70977e-05 0.1136401415 0.0274017062
135299190.0 -0.8167928883 0.2166254568 -3.82572e-05 1.27504e-05 0.0001467836 0.0002273758 0.1150248063 0.023524711
140299160.0 -0.8146088773 0.225802653 0.0001806313 0.0001978027 7.69723e-05 0.0001168224 0.1166639941 0.0198701381
145299130.0 -0.812118639 0.2345561606 5.26553e-05 -0.0001018437 -0.0001082884 5.9078e-06 0.1172934271 0.0166972104
150299100.0 -0.8095236492 0.2429391431 0.000167586 -0.0001713546 -3.1698e-06 0.0001338302 0.1182875049 0.012889543
155299070.0 -0.8074637529 0.2524875389 -3.64966e-05 -0.0001321619 4.34394e-05 3.19581e-05 0.1188772656 0.0096481639
160299040.0 -0.8046997044 0.2614110779 0.00020559 0.0001216566 -1.24334e-05 -1.26851e-05 0.1197716417 0.0063407823
165299010.0 -0.8020222899 0.2693242265 4.61145e-05 0.0001970219 -0.0001746627 -0.0001468603 0.1200297701 0.0029665439
170298980.0 -0.7997462733 0.2782200688 -1.49318e-05 0.0001390654 6.71808e-05 0.0002930102 0.1204040804 -5.33863e-05
175298950.0 -0.7968413787 0.286950423 9.45101e-05 -0.0001000554 7.94128e-05 9.94599e-05 0.1203651225 -0.0032643436
180298920.0 -0.793934556 0.2947560998 -7.94102e-05 -1.96566e-05 -4.83477e-05 -0.0001280037 0.1210008825 -0.0063943162
185298890.0 -0.7909810513 0.3043846022 2.26859e-05 1.27796e-05 5.754e-07 0.0001723186 0.1207372273 -0.0094810273
190298860.0 -0.7872500531 0.3121307868 -0.0001256185 0.0001252293 0.0001764985 5.30464e-05 0.1209477599 -0.0122093864
195298830.0 -0.7840318329 0.3211233238 9.90672e-05 -0.000207105 0.0001476203 4.17324e-05 0.1205768433 -0.0152159127
200298800.0 -0.7810371031 0.3286708567 0.0001407781 0.0001210109 -2.1871e-05 -2.45014e-05 0.1208433888 -0.0179151797
205298770.0 -0.7772368266 0.3372356111 -1.03154e-05 -0.0001296725 -5.58463e-05 8.53064e-05 0.1200756068 -0.020410901
210298740.0 -0.7733988104 0.3457679016 9.2062e-05 -5.33161e-05 -6.25851e-05 -0.0001511392 0.1197829926 -0.0230612383
215298710.0 -0.7702915503 0.3541993332 -0.000249555 -0.0001293931 2.38827e-05 0.0001645015 0.118789848 -0.0256684527
220298680.0 -0.7672524388 0.3623916973 6.95939e-05 3.11521e-05 -3.81445e-05 5.1866e-05 0.1190434046 -0.0280355681
225298650.0 -0.7632112435 0.3706280043 8.84017e-05 0.0001198683 -1.36485e-05 5.74291e-05 0.1184607276 -0.0304236036
230298620.0 -0.7584104222 0.3786085302 5.69465e-05 -0.000279486 5.66879e-05 0.0001411605 0.1180171096 -0.0330461974
235298590.0 -0.7545054024 0.3869137837 -1.443e-06 -3.85692e-05 6.73821e-05 0.0001749574 0.1173379296 -0.0356375298
240298560.0 -0.7506306495 0.3949971232 -7.766e-07 -7.08759e-05 -1.6633e-06 2.25232e-05 0.116554897 -0.037757117
245298530.0 -0.7462396052 0.4030155828 0.0001096294 -3.79258e-05 0.0002407003 -3.09629e-05 0.115931528 -0.039609646
250298500.0 -0.7425643067 0.4109086927 5.59638e-05 6.41514e-05 0.0001952513 0.000205902 0.1154866927 -0.0422083313
255298470.0 -0.7375706536 0.4188092711 0.0002392461 -0.0001182189 -3.53832e-05 1.48121e-05 0.1148602134 -0.0444216835
260298440.0 -0.733701357 0.4259664299 -3.50667e-05 0.0001181982 0.0001473665 -0.0001624177 0.1139163372 -0.0463406113
265298410.0 -0.7294170427 0.4339512488 4.911e-06 6.00287e-05 0.0001322583 -0.0002088978 0.1130925347 -0.04846643
270298380.0 -0.7237491026 0.4415269643 4.10669e-05 1.91264e-05 5.80375e-05 -2.95901e-05 0.1124015679 -0.0504031655
275298350.0 -0.7193150126 0.4488059993 0.0001074612 9.19924e-05 6.42653e-05 -5.37357e-05 0.1113652177 -0.0520216161
280298320.0 -0.7152864013 0.4566173155 -0.0001176234 -0.0001782201 -5.19726e-05 3.9307e-05 0.1105176994 -0.0543077968
285298290.0 -0.7102371181 0.4643556943 -0.0001920186 0.0001229879 0.0001133178 7.32438e-05 0.1094914798 -0.0562736765
290298260.0 -0.7055808301 0.4715228398 6.62015e-05 5.23546e-05 -6.559e-05 2.01333e-05 0.1091914223 -0.0580558553
295298230.0 -0.7002600007 0.4792364236 9.9431e-05 0.0001245258 8.17136e-05 2.46057e-05 0.1075469928 -0.0598128491
300298200.0 -0.6948390832 0.4864044254 7.55343e-05 0.000103977 8.07492e-05 -0.000127455 0.10674415 -0.0615431271
305298170.0 -0.6897073308 0.4944708282 0.0001392218 -0.0002042261 -6.37784e-05 -1.31974e-05 0.1060595117 -0.0631882439
310298140.0 -0.6848209051 0.5009853554 5.03085e-05 5.5839e-05 4.0772e-05 0.0001370839 0.105042016 -0.064858999
315298110.0 -0.6792586578 0.5083917465 9.0475e-06 -7.41452e-05 2.91672e-05 -0.0001988122 0.1040379889 -0.066956432
320298080.0 -0.6744919967 0.5151961102 1.6908e-05 -5.4814e-05 -0.0001762444 6.03109e-05 0.102980678 -0.0689081982
325298050.0 -0.6682411141 0.5222446312 6.63785e-05 -3.55181e-05 0.0002077788 -9.3496e-06 0.1017485386 -0.0705519085
330298020.0 -0.6634200866 0.5289085481 0.0001055144 -3.36076e-05 4.16428e-05 -1.08523e-05 0.1003713293 -0.0723782948
335297990.0 -0.6569887258 0.5361686958 0.0002657165 -3.0197e-05 8.48683e-05 -0.0001480771 0.0989609715 -0.0739838612
340297960.0 -0.6521323319 0.5424200764 7.49472e-05 2.5183e-06 0.0001410858 0.0001889893 0.0975476487 -0.0754602283
345297930.0 -0.6464186789 0.5487554568 9.72128e-05 -0.0002050398 8.36654e-05 5.90955e-05 0.0961631323 -0.0768316951
350297900.0 -0.6403307204 0.5560609396 -5.21831e-05 -1.5735e-06 0.0001711349 -0.0001247062 0.0946055328 -0.0782607134
355297870.0 -0.6341576279 0.5625295607 2.92482e-05 9.01484e-05 -2.16396e-05 8.93329e-05 0.093438856 -0.0791948458
360297840.0 -0.628878507 0.5691373079 7.3348e-06 -1.58425e-05 0.0001693748 2.86925e-05 0.0922697466 -0.0802572101
365297810.0 -0.6221405299 0.5757714524 0.0002001405 4.158e-07 -0.000151565 -0.0001126068 0.0907723856 -0.0818757589
370297780.0 -0.6163096968 0.5813946981 4.75523e-05 -4.73613e-05 4.02766e-05 3.06673e-05 0.0891287792 -0.0830539086
375297750.0 -0.6103091415 0.588326201 -5.85098e-05 -1.88784e-05 8.39839e-05 1.70415e-05 0.0880037805 -0.0841102245
380297720.0 -0.6037403199 0.5944090817 0.0001212368 7.62033e-05 1.52575e-05 0.0001025645 0.0866255414 -0.0851630257
385297690.0 -0.5978116399 0.6009813244 0.000138944 -0.0001838024 0.0001486144 3.08305e-05 0.0854520549 -0.0861486076
390297660.0 -0.5915027353 0.6068684641 7.51655e-05 -0.0001729595 0.0001225379 9.70856e-05 0.083776779 -0.0876885214
395297630.0 -0.5849446961 0.6130026854 0.0001234033 5.53939e-05 -5.69945e-05 -9.47351e-05 0.082433303 -0.088821916
400297600.0 -0.5793326772 0.6195294372 0.0002477279 0.0001675415 -2.14556e-05 5.22584e-05 0.080835195 -0.0897150372
405297570.0 -0.5726643018 0.6247919673 0.0002264622 -0.0001467648 -3.8047e-06 0.0001780359 0.0797288481 -0.0907211587
410297540.0 -0.5658449006 0.6306300205 9.35834e-05 6.49892e-05 3.23484e-05 -4.61034e-05 0.0779233291 -0.0916535995
415297510.0 -0.5591445091 0.6364664417 0.000216912 -8.60588e-05 0.0001557499 -4.863e-06 0.0764490865 -0.0925415627
420297480.0 -0.5515338496 0.6419369799 0.0001424444 5.88796e-05 8.61939e-05 -3.83275e-05 0.0750714079 -0.0936661673
425297450.0 -0.5459432775 0.6480350234 0.0001095071 0.000206678 7.36822e-05 -0.0001281186 0.0737963102 -0.0944979147
430297420.0 -0.5392656349 0.65282878 0.0003007904 0.0002966996 0.0001013256 2.03694e-05 0.0722616452 -0.0954839338
435297390.0 -0.5317954757 0.6583989635 -0.0001447579 8.09138e-05 0.0001905802 -7.85156e-05 0.071157246 -0.0960155968
440297360.0 -0.5259333314 0.664272889 -8.90802e-05 0.0001064221 7.3797e-05 0.0003529578 0.0691842774 -0.0970268036
445297330.0 -0.5184974634 0.6695424313 9.14112e-05 0.0001894264 0.0001211081 4.74991e-05 0.0673925749 -0.0982135243
450297300.0 -0.511194796 0.6750090295 3.61954e-05 0.0001291671 4.69007e-05 0.0001427126 0.0657855536 -0.0990566863
455297270.0 -0.5045503281 0.6801112145 0.0001025813 -0.000195369 0.0001359248 -4.46288e-05 0.0645545038 -0.0997375687
460297240.0 -0.4975415434 0.6855002515 0.0002049967 -1.37889e-05 0.0001461946 5.84487e-05 0.0632978857 -0.1003360115
465297210.0 -0.4895906939 0.6906621286 0.0001383369 0.0001270487 0.0001621218 -4.02423e-05 0.0610980778 -0.1014245954
470297180.0 -0.4828509477 0.6942324898 8.83801e-05 0.0001951434 0.0002719461 3.92114e-05 0.0593220385 -0.1020203812
475297150.0 -0.4760920062 0.7000635509 9.27468e-05 -3.95198e-05 0.0001796978 4.88283e-05 0.0582268457 -0.1022608931
480297120.0 -0.4688133888 0.7046948312 0.0001337286 2.28023e-05 0.0002006524 -0.0001336206 0.0565021237 -0.1030435811
485297090.0 -0.4615133759 0.7093486615 4.76134e-05 -0.0001889726 8.95439e-05 -1.04496e-05 0.0549328344 -0.1036141921
490297060.0 -0.4542129683 0.7140368733 -2.14692e-05 0.0001345577 6.47551e-05 -0.0001481995 0.0531647587 -0.1042945589
495297030.0 -0.446842467 0.7178945194 -5.2603e-06 0.000186504 5.57382e-05 0.00016891 0.0515498967 -0.1051647335
500297000.0 -0.4386306965 0.7236274982 0.0001155355 -0.0002149146 0.0001057117 1.09747e-05 0.0498661921 -0.1057481234
505296970.0 -0.4312469957 0.7268183702 0.0002551683 4.30738e-05 6.02455e-05 0.0001340861 0.0480616241 -0.1061281814
510296940.0 -0.4245936044 0.7321129368 -4.7235e-06 5.03286e-05 6.42424e-05 -9.25462e-05 0.0466474687 -0.1065640062
515296910.0 -0.4173948796 0.7365235468 0.0001450311 -8.671e-06 -0.0002382963 -0.0001266134 0.044819391 -0.106950687
520296880.0 -0.4092758681 0.7404644722 -1.89948e-05 0.0001236137 -0.0001069761 7.75052e-05 0.0432950316 -0.1078377769
525296850.0 -0.4014978345 0.744060482 2.92097e-05 5.11638e-05 9.6245e-05 9.2792e-06 0.0419164409 -0.1084067
530296820.0 -0.3941374959 0.7479902013 0.0001067852 6.61166e-05 -2.23284e-05 -1.47731e-05 0.0397569084 -0.1085883484
535296790.0 -0.385729216 0.7525976128 0.0002726679 0.0001783878 0.0001393442 -5.9539e-06 0.0381476518 -0.109321941
540296760.0 -0.3784463233 0.7562264102 0.0003296933 1.7231e-06 3.16954e-05 0.0001055064 0.0365439437 -0.1097119804
545296730.0 -0.3711939638 0.7593960422 0.0002271455 6.0482e-05 0.0004744231 -2.95978e-05 0.0346153596 -0.1101632222
550296700.0 -0.3631868061 0.7638303138 0.0001371831 -0.0001100138 0.0002584454 2.66952e-05 0.0332388774 -0.1105287559
555296670.0 -0.3549431774 0.767138611 0.0002629641 -5.15357e-05 0.0002620346 -5.66406e-05 0.0313358507 -0.11043812
560296640.0 -0.3471251314 0.7703490973 0.0002603743 -0.0001697709 0.0002072216 4.236e-06 0.0297927843 -0.1111133737
565296610.0 -0.3396748609 0.7739314357 0.0002700712 -3.66351e-05 0.0001148878 0.0001997351 0.0279471321 -0.1112265325
570296580.0 -0.3314082816 0.7771729184 0.0002530651 -7.44366e-05 6.7233e-05 -6.43907e-05 0.0262901932 -0.1113859699
575296550.0 -0.3234569973 0.7805495425 0.0002773637 -5.76695e-05 1.53672e-05 -8.56632e-05 0.0245600364 -0.1116379647
580296520.0 -0.3157432672 0.7844483561 0.0002343447 0.0001510929 0.0001898262 -5.59386e-05 0.0230601799 -0.112063097
585296490.0 -0.3077473022 0.7866964978 0.0002986313 2.79617e-05 0.0001287488 -9.57245e-05 0.0212655643 -0.1126743068
590296460.0 -0.2998556929 0.7893320497 3.75163e-05 -1.7099e-05 0.0001000421 2.00816e-05 0.0194393197 -0.1126647204
595296430.0 -0.2916089438 0.7933303531 -5.29875e-05 0.000100782 0.0004295091 -4.77707e-05 0.017509469 -0.1126269035
600296400.0 -0.2833850573 0.795838863 0.0001547413 2.1136e-05 0.0001855314 -8.97918e-05 0.01620214 -0.1127268765
605296370.0 -0.2752888474 0.798679326 0.0002123923 0.0002249866 0.0001002855 5.503e-06 0.014415972 -0.1127774333
610296340.0 -0.267695608 0.8013149126 0.0001683084 -0.0001162334 0.0002140386 3.66073e-05 0.0126710453 -0.1128605854
615296310.0 -0.2592902695 0.8041555055 0.0001312312 5.67452e-05 0.000163378 9.94473e-05 0.0111225846 -0.1131311699
620296280.0 -0.2507801347 0.8063161859 0.0001091346 0.0001039948 0.0001862747 -7.30767e-05 0.0091492371 -0.1133708096
625296250.0 -0.2426081401 0.8089854357 4.79311e-05 0.0001244229 8.33427e-05 -2.38803e-05 0.0079781245 -0.1131052579
630296220.0 -0.234223551 0.8114759565 0.0002607196 -0.0002899328 3.44493e-05 5.52387e-05 0.0058833216 -0.1126145182
635296190.0 -0.226593093 0.8137348905 0.0001881475 2.32636e-05 4.65868e-05 4.14237e-05 0.004136901 -0.1128126367
640296160.0 -0.2176548844 0.8150881601 0.0001625931 8.2517e-05 9.72429e-05 1.03833e-05 0.0025338618 -0.1132581968
645296130.0 -0.210010198 0.8173810963 0.0003138211 -0.0001313003 0.0003153466 -0.0001896328 0.0008847514 -0.1132227945
650296100.0 -0.2022805796 0.8205834698 0.0001606387 3.86461e-05 -3.61665e-05 -2.86878e-05 -0.0010170785 -0.1127405036
655296070.0 -0.1928629004 0.8217914714 0.0001578263 0.0001406501 0.0002032585 5.95058e-05 -0.002375703 -0.1124339649
660296040.0 -0.185261713 0.8238928366 0.0001343115 -6.94136e-05 0.0001995649 -7.72784e-05 -0.0042746653 -0.112384487
665296010.0 -0.1769014345 0.8259129748 0.0001130321 0.0002720111 0.0001487905 -1.72342e-05 -0.0059760779 -0.1123927695
670295980.0 -0.1678980154 0.8270144978 9.17504e-05 5.5029e-05 -3.25751e-05 1.5724e-06 -0.0073604919 -0.1119923751
675295950.0 -0.1602587705 0.8286015955 0.0002701037 -0.000266911 0.000256136 -3.55585e-05 -0.0093468513 -0.111913264
680295920.0 -0.1519231808 0.8307510008 0.0001905457 -5.26254e-05 8.31242e-05 -0.0001044311 -0.0109317827 -0.1117365741
685295890.0 -0.1427538765 0.8315171103 8.56292e-05 6.52626e-05 0.0002182658 -8.02101e-05 -0.0125570528 -0.1115493255
690295860.0 -0.1343744768 0.8336169632 0.0001407067 4.23414e-05 0.0003222782 -6.85093e-05 -0.0142551146 -0.1111906769
695295830.0 -0.1261783285 0.8342377574 7.79842e-05 -0.0001417443 0.0001937287 -2.4927e-06 -0.0158415262 -0.1108487976
700295800.0 -0.1177370565 0.8353611666 0.0002513939 -8.07872e-05 5.58228e-05 -0.0002029086 -0.0175756198 -0.1104907341
705295770.0 -0.1087221589 0.8374693876 -4.98953e-05 -0.0002513228 0.0001777851 5.03671e-05 -0.0193235181 -0.1099328182
710295740.0 -0.1011973758 0.8379051855 0.0001521097 -3.0069e-05 0.0001386889 -7.04239e-05 -0.0214430213 -0.1095502366
715295710.0 -0.0930020466 0.839170675 0.0002091163 0.0001601387 0.000227949 -0.0001691665 -0.0224027029 -0.1095335016
720295680.0 -0.0839341064 0.8393383779 0.0002287211 6.55658e-05 0.0001997508 -9.88327e-05 -0.0239872269 -0.1088234581
725295650.0 -0.0752405304 0.8405834977 0.0001609153 -1.73637e-05 0.0002578741 9.8089e-06 -0.0256403554 -0.1083476802
730295620.0 -0.0671581132 0.8409767618 2.73816e-05 -0.0001187653 -4.66946e-05 -0.0001798787 -0.0273220883 -0.1080237191
735295590.0 -0.0584276689 0.8414367654 0.0001214541 7.2397e-05 0.0002214378 0.0001744215 -0.0288127923 -0.1074814056
740295560.0 -0.0499409322 0.8429084582 0.0003538645 -4.52052e-05 0.0002198122 -0.0001269489 -0.0307093486 -0.1073989832
745295530.0 -0.041787959 0.8428743993 -3.689e-07 2.88827e-05 0.0002071534 -0.000139555 -0.0325351808 -0.1065444066
750295500.0 -0.0340547986 0.8431860384 6.99802e-05 -6.58408e-05 0.0003094857 0.0001177398 -0.0338063936 -0.1062963132
755295470.0 -0.0244552096 0.8431878068 3.85061e-05 -0.0001045005 0.0001154921 0.0001421528 -0.0358768655 -0.1051534914
760295440.0 -0.0164578236 0.8436038247 0.0001336739 -0.0001563147 -3.15324e-05 6.7637e-06 -0.0373085224 -0.1046094535
765295410.0 -0.0076006424 0.8440800858 -0.0001779032 -6.6817e-06 0.0001571836 -0.0001224652 -0.0383653805 -0.1043010818
770295380.0 0.0005584988 0.8443189891 6.29145e-05 3.84409e-05 5.89604e-05 -5.63252e-05 -0.0397575074 -0.10370748
775295350.0 0.0092767334 0.8443579214 2.70597e-05 -4.05857e-05 0.0003506218 -5.767e-07 -0.0420540385 -0.1030558217
780295320.0 0.017677813 0.8430218313 0.0001636622 -0.0003195297 -4.66299e-05 -3.9216e-05 -0.0435746955 -0.1021217838
785295290.0 0.0260640966 0.8436104294 0.000206423 -0.0001480676 6.37594e-05 -0.0001102797 -0.0446746473 -0.1013194726
790295260.0 0.0348826493 0.8431682534 0.0001385502 0.0001912679 0.0002091112 -1.35277e-05 -0.0462984583 -0.1007799756
795295230.0 0.0427950325 0.8430309585 0.0003170265 8.68806e-05 0.0001060643 -0.0001468913 -0.0477122729 -0.0998332627
800295200.0 0.0516491244 0.8424073881 0.0001782937 -3.7147e-06 0.0001066372 8.76668e-05 -0.0492921389 -0.0994136665
805295170.0 0.0592969797 0.8415544408 0.0002232811 -0.0002457783 0.0001035787 7.74761e-05 -0.0511353028 -0.098441248
810295140.0 0.0683538741 0.8417059167 0.000176629 -4.26283e-05 0.000106402 -6.85031e-05 -0.0523482034 -0.0971998713
815295110.0 0.0768325 0.8404478712 3.10274e-05 1.90089e-05 0.0001186954 -0.000236103 -0.0538476981 -0.0964149435
820295080.0 0.0850053716 0.8387064787 -0.0001266716 -2.3041e-05 0.0001834765 -2.3347e-06 -0.0556991315 -0.0958214117
825295050.0 0.0937764198 0.8385693468 0.0001850864 -0.0001013519 0.0001106876 -0.0001569181 -0.0564919192 -0.095130095
830295020.0 0.1020291053 0.8376335121 0.0002187675 -3.92309e-05 -0.0001778664 -0.0001581219 -0.0586818408 -0.094318026
835294990.0 0.1101091594 0.8369820915 0.0001415831 5.16195e-05 0.0001207412 -2.50994e-05 -0.05941607 -0.0932503028
840294960.0 0.1182217529 0.8352277721 6.0539e-06 -2.54577e-05 3.25799e-05 1.62568e-05 -0.0614056531 -0.0920596689
845294930.0 0.1268263589 0.8339168462 0.0001906271 0.0001141958 9.84861e-05 -0.0001415409 -0.0626773699 -0.0911610708
850294900.0 0.1352160227 0.8328802866 0.0001814446 -0.0002319723 0.0002894177 0.0001814797 -0.0636843694 -0.0903284244
