!Created with skrf (http://scikit-rf.org).
# Hz S RI R 50.0 
!freq ReS11 ImS11 ReS21 ImS21 ReS12 ImS12 ReS22 ImS22
300000.0 -0.7772709872 -0.0864886633 -0.0007932926 -0.0007269511 0.0011118801 0.0020288878 -0.7745925624 -0.1257162276
5299970.0 -0.7850120249 -0.0053368029 -1.08635e-05 0.0001441614 7.59553e-05 -8.9618e-06 -0.7851509585 -0.0067487696
10299940.0 -0.7879802017 -0.0042822677 -8.91888e-05 -0.0001727993 -3.978e-05 -0.0001204306 -0.787960345 -0.0036757324
15299910.0 -0.7933043144 -0.0022778146 9.619e-06 8.43205e-05 -0.0002355973 -0.0001030103 -0.7937153378 -0.0015037829
20299880.0 -0.7998664817 0.0018083932 -0.0001117254 0.0001647678 -0.0001206415 -8.7282e-06 -0.799918012 0.0022732644
25299850.0 -0.8062889139 0.0080305828 -0.0001050918 0.0003327562 0.0001540913 -0.0001141661 -0.8064511314 0.0083193868
30299820.0 -0.8125812769 0.0153580062 -9.48569e-05 0.0001450045 0.0001284739 7.45601e-05 -0.8126673031 0.016249295
35299790.0 -0.8171615025 0.0244656206 0.0001513229 -5.6588e-05 0.0002024441 -8.04392e-05 -0.8173574331 0.0247796135
40299760.0 -0.8213293595 0.0336983636 -2.30583e-05 -2.05191e-05 0.0002953371 -0.0001387305 -0.8214661252 0.0347438627
45299730.0 -0.8246939076 0.0424318842 -2.31105e-05 0.0001359672 -0.0001509043 3.45364e-05 -0.8255007726 0.044099945
50299700.0 -0.8273753496 0.0530373575 -4.69142e-05 -9.52579e-05 -3.72612e-05 0.0001409081 -0.8275363334 0.0534544374
55299670.0 -0.829269922 0.062704713 -0.0001247888 4.96431e-05 -2.062e-05 3.5194e-05 -0.8294879373 0.0641189871
60299640.0 -0.8304430798 0.0732038926 -8.88375e-05 1.40737e-05 -2.96374e-05 0.0001712193 -0.8306765319 0.0736758969
65299610.0 -0.8313323198 0.0829922634 -3.11498e-05 -9.30942e-05 -2.05109e-05 0.0002196267 -0.8321318701 0.0842085484
70299580.0 -0.8314341975 0.0932296232 -2.0379e-06 9.8785e-05 -2.75272e-05 0.0001569743 -0.8317475383 0.0941762338
75299550.0 -0.8317694171 0.1037651556 0.0002100622 5.14534e-05 -1.51953e-05 -4.18018e-05 -0.8321147066 0.1039334715
80299520.0 -0.8318067342 0.1133142802 0.0001979503 -6.80217e-05 -0.0001007119 0.0002080918 -0.8318914126 0.1136074516
85299490.0 -0.8312552033 0.1222124006 1.29323e-05 -0.0001234668 1.89628e-05 0.0001380291 -0.8317087174 0.1237288556
90299460.0 -0.8299637922 0.1318418399 -0.0001158734 -0.0002278456 0.0003140738 5.63163e-05 -0.8307083146 0.1328473112
95299430.0 -0.8289235312 0.1414459071 -6.04783e-05 -0.000263044 -3.21844e-05 -9.26244e-05 -0.8288751507 0.143029286
100299400.0 -0.8281035379 0.1506379323 0.0002637065 2.85386e-05 8.19324e-05 4.9784e-06 -0.8288032563 0.1521406264
105299370.0 -0.8274191525 0.1602391385 -0.0001211261 -1.17204e-05 7.55066e-05 0.0001656882 -0.8267347644 0.1607865715
110299340.0 -0.8253775581 0.1691789023 0.000232123 5.35423e-05 -8.30013e-05 -5.4693e-05 -0.8255943489 0.1704979394
115299310.0 -0.8241534187 0.1784364359 -0.0002447216 9.18665e-05 0.0001387611 -5.05328e-05 -0.8246689046 0.1796580472
120299280.0 -0.8221451292 0.1867807852 -0.0002309778 -8.54216e-05 -5.58967e-05 -8.2144e-05 -0.8228712252 0.1890671876
125299250.0 -0.8206035118 0.1955937409 -3.00273e-05 -1.54003e-05 -6.16995e-05 -0.0001053048 -0.8210456095 0.1978757273
130299220.0 -0.8187067156 0.2049028046 0.0001499653 2.77041e-05 -5.59337e-05 2.05705e-05 -0.8191453023 0.2067933627
135299190.0 -0.8169166275 0.2141527533 -2.91572e-05 6.05247e-05 0.0002109499 0.0002206382 -0.8170696043 0.2159505359
140299160.0 -0.8145415656 0.2229405192 0.0001461778 8.62504e-05 -0.0002139007 -6.11302e-05 -0.8150666104 0.2246670172
145299130.0 -0.8129487869 0.2320652026 0.0002082965 0.0001522287 -8.78171e-05 4.74824e-05 -0.8131962753 0.2342086698
150299100.0 -0.8103660992 0.2406016223 -0.0001935963 -1.66943e-05 2.30101e-05 8.68542e-05 -0.8110761917 0.2429239915
155299070.0 -0.8079069744 0.2494230264 2.62447e-05 0.0001647385 7.66602e-05 5.43534e-05 -0.8081298815 0.2516732526
160299040.0 -0.8051654135 0.2584425219 -0.0002237652 0.0002026316 -0.0001747892 -7.99145e-05 -0.805859488 0.2604968646
165299010.0 -0.8027218399 0.2666993017 0.0002280962 -0.0002029948 -4.6702e-06 0.0001065301 -0.8031353436 0.2694196267
170298980.0 -0.8001552126 0.2752436951 -3.96586e-05 0.0001068175 -4.37619e-05 0.0001773626 -0.8003657329 0.2778265781
175298950.0 -0.7973008824 0.2838861072 -2.90398e-05 -5.18622e-05 -0.0001381856 -4.9341e-06 -0.7977138178 0.286297594
180298920.0 -0.7948896224 0.2928320303 -0.0001235167 -2.13351e-05 -8.92135e-05 3.62951e-05 -0.7944218184 0.295432685
185298890.0 -0.7912049816 0.3006280541 -4.84245e-05 2.54771e-05 3.89897e-05 -4.55713e-05 -0.7910572573 0.3037279432
190298860.0 -0.7885168738 0.3094106787 -6.92228e-05 6.61929e-05 -5.59523e-05 -4.77983e-05 -0.7889247919 0.3123862403
195298830.0 -0.7853625239 0.3175057513 -0.0001811686 -0.0001891536 0.0001698396 -0.0001282827 -0.784800005 0.3205983285
200298800.0 -0.7816021618 0.325786888 0.0001157811 -0.0001166542 6.1332e-06 4.71769e-05 -0.7820726145 0.3290468329
205298770.0 -0.7794318623 0.3341093741 -0.0001616493 0.000183745 -0.0001637145 -0.0001650658 -0.7777298488 0.3368981152
210298740.0 -0.7751702114 0.3416834678 9.45138e-05 -4.50574e-05 6.64252e-05 8.05547e-05 -0.7747817224 0.3458375628
215298710.0 -0.7718812555 0.3506431769 -2.00483e-05 0.0001019365 -3.96499e-05 8.56775e-05 -0.771570904 0.3538736662
220298680.0 -0.7675009613 0.3587072742 3.97051e-05 -9.86722e-05 8.69137e-05 4.0049e-06 -0.7673826388 0.3619875483
225298650.0 -0.7646930086 0.3660897218 -9.60736e-05 0.0002598531 1.72307e-05 8.2489e-06 -0.7637006224 0.3695873467
230298620.0 -0.7606677777 0.3746684667 5.52504e-05 -4.87128e-05 5.86433e-05 -3.3928e-05 -0.7598469717 0.3782954597
235298590.0 -0.7563836369 0.3831222789 0.0002318839 -0.000271485 8.92208e-05 -6.26973e-05 -0.7558048973 0.3863734896
240298560.0 -0.7523166778 0.3911162676 0.0002218422 2.5341e-06 -0.0002295776 -1.09545e-05 -0.7514644715 0.3948368341
245298530.0 -0.7486627314 0.3988626025 -0.0001843564 0.0003387995 8.25723e-05 -2.24301e-05 -0.748112422 0.4019135203
250298500.0 -0.7442524362 0.4066825496 -0.0001080242 -4.91411e-05 -0.0001871273 3.16861e-05 -0.7438100779 0.4096053257
255298470.0 -0.7396535556 0.4137607913 -9.79781e-05 6.51341e-05 1.39506e-05 9.4317e-05 -0.7385321645 0.4169825678
260298440.0 -0.7359573903 0.4215322655 9.7128e-05 0.0001145759 0.0001551818 1.32943e-05 -0.7347993027 0.4261194012
265298410.0 -0.7313703558 0.4297425635 5.51162e-05 -0.0001183148 -8.61288e-05 5.1028e-06 -0.7302541111 0.4338320261
270298380.0 -0.727115683 0.4370227515 -2.07325e-05 3.0906e-06 -6.2705e-06 4.54409e-05 -0.7256042074 0.4406179804
275298350.0 -0.7225558789 0.444583911 0.0001681929 7.44595e-05 3.47506e-05 7.81107e-05 -0.7211472162 0.4482423293
280298320.0 -0.7173848675 0.4521552246 -6.8165e-05 -9.66042e-05 -0.0001135902 -5.23151e-05 -0.7160068855 0.4558204845
285298290.0 -0.7133536833 0.4595772142 -7.37287e-05 -0.000141351 -7.52117e-05 9.76e-08 -0.7111308651 0.4635030994
290298260.0 -0.7080866385 0.467051273 2.98365e-05 0.0001432837 1.7261e-05 1.6822e-06 -0.7063633667 0.4709557841
295298230.0 -0.7028034227 0.4738391176 5.34399e-05 -0.0001130494 -2.97733e-05 -4.76161e-05 -0.7014117073 0.4782762797
300298200.0 -0.6981492177 0.4818823244 -3.12261e-05 9.2676e-05 0.0001405526 6.8324e-06 -0.6966505034 0.4854054636
305298170.0 -0.6930843396 0.4880315402 6.04258e-05 0.0001947135 5.60619e-05 0.0001322291 -0.6905388568 0.4933624654
310298140.0 -0.6876823599 0.4962043661 0.0001727369 -0.0001428169 3.99436e-05 -0.0002181109 -0.686397771 0.4999176296
315298110.0 -0.6826806074 0.5029732708 2.17467e-05 -4.53664e-05 -6.02116e-05 -0.000281538 -0.6806731857 0.5071129447
320298080.0 -0.6773911465 0.5100881989 0.0001982987 1.24878e-05 -0.0001330518 -8.35573e-05 -0.6755164705 0.5145079231
325298050.0 -0.672184154 0.5173879005 0.0001628498 -2.17687e-05 7.22478e-05 0.0001430867 -0.6697176747 0.5212418353
330298020.0 -0.6669048773 0.5241904984 1.65456e-05 -5.68978e-05 -7.39935e-05 0.000106291 -0.6644818243 0.5279819362
335297990.0 -0.661243823 0.5307209525 -3.64907e-05 -0.0001144224 -1.44555e-05 5.65781e-05 -0.6594213437 0.5358564574
340297960.0 -0.6561271378 0.5375148615 0.0003130061 6.08781e-05 -5.03987e-05 -6.72427e-05 -0.6531555926 0.5424695394
345297930.0 -0.6502374342 0.5440612249 9.65029e-05 -0.0001628419 -0.0001400277 -1.3947e-06 -0.6475512891 0.5486155796
350297900.0 -0.6442994883 0.5507144607 -0.0001241807 -2.86213e-05 4.14298e-05 -8.29694e-05 -0.6422647226 0.5554126695
355297870.0 -0.6383983133 0.5578169549 -6.88016e-05 -0.0001211772 -0.0002146828 0.0001778416 -0.6364042678 0.5616087802
360297840.0 -0.6327659111 0.5634723121 6.57173e-05 0.0001344659 -0.0003393478 -3.25254e-05 -0.6300780825 0.5690792947
365297810.0 -0.6272286967 0.5708889045 0.0001664442 -0.0003915283 4.21971e-05 -3.67752e-05 -0.6238992334 0.5753115935
370297780.0 -0.6211324407 0.5768834908 0.0001291744 -0.0001318956 -1.81839e-05 -8.16937e-05 -0.6174944684 0.5815670361
375297750.0 -0.614510164 0.5828420782 -2.83436e-05 -0.0001604774 0.0001569116 2.78572e-05 -0.6116095741 0.587373169
380297720.0 -0.6086973442 0.5887177329 0.0002479319 -0.0001383301 -0.0001166839 -7.74531e-05 -0.6060994074 0.5934095451
385297690.0 -0.6034281588 0.5949299542 8.16158e-05 0.0001059062 2.4844e-05 8.46194e-05 -0.5993459777 0.6007098766
390297660.0 -0.5966964448 0.6007786406 -2.14038e-05 -0.0002523281 2.22304e-05 -0.0001707025 -0.5936308987 0.6066494794
395297630.0 -0.59047581 0.6080927558 -5.66764e-05 1.61949e-05 0.0001397051 1.1323e-06 -0.5867420339 0.612604117
400297600.0 -0.5842813738 0.6138457781 4.5674e-05 -7.66691e-05 -0.0002137199 6.93013e-05 -0.5813458849 0.6180541321
405297570.0 -0.577794943 0.6195874889 2.10301e-05 -0.0001469077 -0.000116028 3.16983e-05 -0.574405795 0.6247289238
410297540.0 -0.5716287638 0.6250462833 -1.8018e-05 0.0001653353 6.45075e-05 0.0001103501 -0.567394941 0.6303563825
415297510.0 -0.5645401522 0.6314185448 -2.10933e-05 -1.63153e-05 0.0001074062 4.29655e-05 -0.5611789843 0.6362727313
420297480.0 -0.5597614759 0.6366920047 0.0002362502 2.63247e-05 -8.74499e-05 -2.5839e-05 -0.5544600783 0.6419816919
425297450.0 -0.5514908795 0.6422316307 -0.0001529454 -8.07357e-05 -7.7649e-06 -1.14616e-05 -0.5474799767 0.6477605356
430297420.0 -0.5459423642 0.6483724498 3.7954e-06 -6.88722e-05 0.0001688834 9.06138e-05 -0.5416533085 0.6528602558
435297390.0 -0.5391554134 0.6529093387 -9.48511e-05 1.51111e-05 -6.92008e-05 -2.02395e-05 -0.5340593921 0.6587796791
440297360.0 -0.5322904306 0.6587957456 -7.82227e-05 6.41628e-05 6.83237e-05 0.0001247865 -0.5275025474 0.6639149886
445297330.0 -0.5254319808 0.6642589972 0.0001574157 -0.0001141124 1.17398e-05 9.29466e-05 -0.5206671781 0.6689292697
450297300.0 -0.5185540355 0.6691878524 -0.0002231911 6.649e-06 -0.0002403146 -3.1223e-06 -0.5135237514 0.6744377666
455297270.0 -0.5118599754 0.6746329833 0.0001383477 -2.82951e-05 5.02734e-05 6.68575e-05 -0.5066910233 0.6785394027
460297240.0 -0.5054700884 0.6795578776 0.0002966107 1.90257e-05 -0.0001191759 3.88472e-05 -0.4998579411 0.6845207179
465297210.0 -0.4979847493 0.6850370207 -4.10092e-05 1.4116e-05 0.0001358453 9.6996e-05 -0.4922717527 0.6892392074
470297180.0 -0.4903804112 0.689551777 8.074e-05 -3.3772e-05 9.77963e-05 -0.000138498 -0.4851738988 0.6950486758
475297150.0 -0.4838162201 0.6943972622 6.82947e-05 -1.66917e-05 6.93204e-05 6.68204e-05 -0.478192701 0.6992565297
480297120.0 -0.4766431344 0.6998447553 -0.0001316718 -0.0002573594 -0.0001904093 -7.33528e-05 -0.4706343156 0.7040597053
485297090.0 -0.4696096024 0.7037956073 -5.6521e-05 -0.000200398 5.15811e-05 8.32343e-05 -0.4639309986 0.7087325732
490297060.0 -0.4624856812 0.7085429666 3.97985e-05 -0.0001003535 -0.0002083911 1.35387e-05 -0.4568727346 0.7131001978
495297030.0 -0.454847078 0.7130049561 -0.0001549492 -0.0001595398 -5.43373e-05 -0.0001799054 -0.4489937864 0.7180904429
500297000.0 -0.447563907 0.7178128259 0.0001167972 0.000262113 9.55678e-05 0.0001066066 -0.4418646178 0.7231145629
505296970.0 -0.4404791067 0.7225681512 5.46331e-05 -5.05968e-05 0.000214072 4.42485e-05 -0.434276115 0.7270726552
510296940.0 -0.4338018383 0.726434251 6.76722e-05 1.97843e-05 -7.2777e-06 -2.66813e-05 -0.4269342064 0.7310823628
515296910.0 -0.425272387 0.7305240437 -6.5618e-05 4.1961e-05 9.4998e-06 9.3639e-06 -0.4196053212 0.7354007868
520296880.0 -0.4183952623 0.73540253 6.4988e-05 0.0001043605 -5.25274e-05 -7.27967e-05 -0.4118985323 0.7388845701
525296850.0 -0.4103114157 0.7390830771 -3.55829e-05 0.0001488155 5.97045e-05 0.0001243163 -0.4048804838 0.7439571447
530296820.0 -0.4028070152 0.7433621439 -5.05205e-05 0.0001429286 -0.0001559663 -8.90823e-05 -0.3970061446 0.7472606369
535296790.0 -0.3962307405 0.7471279831 0.0002074658 -0.0002257762 8.93144e-05 0.0001168582 -0.3891940616 0.7514103382
540296760.0 -0.3885149444 0.7509300193 -0.0002049038 -0.0002444305 -0.0001155798 7.22292e-05 -0.3816859157 0.7552957365
545296730.0 -0.3808025119 0.7548502918 -3.59568e-05 2.45118e-05 -6.88612e-05 -0.0002131577 -0.3736175185 0.7593920266
550296700.0 -0.3735215566 0.7590142776 0.0002108032 -9.59509e-05 8.2252e-06 7.92984e-05 -0.3660054952 0.7629213305
555296670.0 -0.365513718 0.7615331212 2.25025e-05 -0.0001430057 -0.0001039039 1.97864e-05 -0.3589671204 0.7669544157
560296640.0 -0.35795614 0.7661267586 -0.0001077376 -0.0002866022 -7.69935e-05 -2.91717e-05 -0.350468744 0.7708278844
565296610.0 -0.3498687962 0.7695109249 -0.0001574782 0.0001011689 -9.8599e-06 0.0001850047 -0.3425675038 0.7733534199
570296580.0 -0.3424432879 0.7724245797 -1.7097e-06 0.0001621719 -0.0001120379 3.48495e-05 -0.3351145999 0.7771089675
575296550.0 -0.3344915543 0.7762205895 -0.0002076802 -0.0001610156 0.0001111974 -0.0001373443 -0.3269505879 0.7808596422
580296520.0 -0.3264174061 0.7793184818 -0.0002002828 0.000177166 8.99812e-05 2.63757e-05 -0.3186294382 0.7834183464
585296490.0 -0.3189214243 0.7825578611 9.96566e-05 0.0003143705 0.0001475107 3.52691e-05 -0.310889324 0.7869324083
590296460.0 -0.3110303825 0.7855556492 -0.0002856665 -2.00554e-05 -0.0001525172 0.0001925165 -0.3034012878 0.7902106057
595296430.0 -0.3027641513 0.7878429191 -0.0001032323 -0.0001570553 -5.13988e-05 -0.0001012666 -0.2948339648 0.7924443439
600296400.0 -0.2952235779 0.7918817079 -1.6844e-05 1.93406e-05 -0.000101493 -4.17013e-05 -0.2871816652 0.7960638945
605296370.0 -0.2879703785 0.7942768474 9.70784e-05 -5.05116e-05 -0.0001629031 -7.26698e-05 -0.2782456128 0.7986299431
610296340.0 -0.2796008449 0.7971123156 -2.94114e-05 0.0001054413 -0.0001223227 5.11221e-05 -0.2706931145 0.801097457
615296310.0 -0.2707159121 0.8002788881 -0.000117889 0.0001773609 -8.25697e-05 -1.28205e-05 -0.2617719122 0.8036008113
620296280.0 -0.2630754894 0.8019330467 -0.0001176255 0.0001178734 -8.97687e-05 5.76293e-05 -0.2549129228 0.8066766224
625296250.0 -0.2553050871 0.8052129929 -0.0002118491 4.005e-06 0.000177779 0.0001036842 -0.245947097 0.8086516115
630296220.0 -0.2467533668 0.8081042805 -3.71901e-05 -7.56869e-05 -2.55516e-05 -0.0001103917 -0.237981705 0.8114157736
635296190.0 -0.2391876679 0.8098999808 0.0002148983 -4.73532e-05 -0.0002235018 1.23685e-05 -0.2295251344 0.8131681759
640296160.0 -0.2315442904 0.8125712019 -4.04193e-05 6.59892e-05 3.04403e-05 -0.0001214888 -0.221685615 0.8156089366
645296130.0 -0.222661807 0.8149547506 -5.15673e-05 -0.000225878 0.000129161 3.00596e-05 -0.2135196125 0.8179227083
650296100.0 -0.2145402775 0.8171145032 0.0001389506 9.44862e-05 -0.0001014409 -0.0001145835 -0.2054341834 0.8197212855
655296070.0 -0.2066280426 0.8191426526 0.000176685 8.77799e-05 0.0001264114 -0.0001429834 -0.1963316513 0.821859029
660296040.0 -0.1986235631 0.8208940666 -2.36615e-05 0.0003095711 -9.02462e-05 3.99815e-05 -0.1882624319 0.8240765219
665296010.0 -0.1896638096 0.8223845339 0.0003109012 0.0001917831 3.25311e-05 3.49849e-05 -0.1798765281 0.8258259093
670295980.0 -0.1822870442 0.824497303 0.0001786323 -6.01659e-05 -7.12366e-05 0.000142896 -0.1721849471 0.8270489384
675295950.0 -0.17381393 0.8261430115 -9.27002e-05 -2.15221e-05 5.4276e-05 -5.26975e-05 -0.1641297363 0.8290950907
680295920.0 -0.1652956771 0.8284048453 0.0001336463 0.0003617786 -5.87638e-05 -4.21568e-05 -0.155172516 0.8317250348
685295890.0 -0.1567919219 0.8307675315 -9.51757e-05 -5.08989e-05 0.0001765809 -6.61281e-05 -0.1470976606 0.8321384047
690295860.0 -0.1487322538 0.8306094594 6.78073e-05 -0.0002130527 -0.0001143866 -0.000264503 -0.1393352674 0.8340433315
695295830.0 -0.1409084174 0.8321331588 5.37694e-05 -4.46587e-05 0.0001522531 9.40699e-05 -0.1297830219 0.8352912788
700295800.0 -0.1322556646 0.8336478264 -5.13424e-05 -9.94449e-05 -0.0001221361 -6.81209e-05 -0.1224438681 0.8362227194
705295770.0 -0.12463286 0.8358272003 1.5229e-05 -4.7542e-06 0.0001874055 7.98464e-05 -0.1141098748 0.8379882748
710295740.0 -0.1162331929 0.8367605602 -1.1306e-06 2.63742e-05 -0.0001086955 -4.92681e-05 -0.1053684909 0.8385627408
715295710.0 -0.1078698872 0.8375716573 -0.000143676 3.71643e-05 -2.84401e-05 -7.69873e-05 -0.0964146868 0.8392708753
720295680.0 -0.0995517176 0.8384954671 -0.0001900497 0.0003423477 0.0003266125 0.0001889292 -0.0884648648 0.8404828053
725295650.0 -0.0907803078 0.8396232858 -9.61732e-05 -1.10191e-05 -9.06163e-05 4.554e-07 -0.0802076071 0.8419405125
730295620.0 -0.0827057248 0.8407986805 -3.83213e-05 4.67109e-05 9.12572e-05 -0.0001239185 -0.0725052964 0.8421749187
735295590.0 -0.0743740154 0.8410699216 -6.8254e-05 -0.0001713729 0.0001303314 -7.03392e-05 -0.0638897709 0.842422105
740295560.0 -0.0664970193 0.8418920939 5.45887e-05 -0.0001006422 -2.65155e-05 -6.9894e-05 -0.054423615 0.8435959326
745295530.0 -0.0573431353 0.8425742802 -1.63782e-05 -0.0001381491 -0.0001928803 0.0001111707 -0.0464541303 0.8435841967
750295500.0 -0.0489673582 0.8434613669 -0.0001622099 -1.17333e-05 -6.32563e-05 2.00043e-05 -0.038135697 0.8444971767
755295470.0 -0.0412071471 0.8431218438 0.0001773618 -0.000100308 4.77689e-05 8.0669e-06 -0.0293811792 0.8438255405
760295440.0 -0.0329533615 0.8432448989 -5.21271e-05 2.1883e-06 5.72717e-05 0.0001051128 -0.0209480226 0.8448471598
765295410.0 -0.0244072004 0.8443328195 -9.28583e-05 0.0001275243 -4.57946e-05 4.435e-07 -0.0126849331 0.8451314697
770295380.0 -0.016527029 0.8441340466 1.3203e-06 0.000116927 4.20254e-05 -0.0001617954 -0.0042497284 0.8448835462
775295350.0 -0.0077138304 0.8444465022 -4.98394e-05 -5.4673e-05 -1.87812e-05 -7.84157e-05 0.003317874 0.8444346185
780295320.0 0.0011749204 0.8441587588 9.93884e-05 7.27954e-05 -3.99976e-05 -0.0001660157 0.0122068444 0.8446378352
785295290.0 0.0087071231 0.8433176326 -0.0001820096 -0.0001859647 3.99203e-05 -0.0001052498 0.0211874221 0.8446067931
790295260.0 0.0176752736 0.8440686696 -0.0001625379 -5.12666e-05 -3.15709e-05 0.0001773214 0.0295838202 0.8445837995
795295230.0 0.0253948953 0.8437254155 -0.0002389431 4.65598e-05 4.4036e-05 -9.40679e-05 0.0384603699 0.8437430237
800295200.0 0.0335057418 0.8433677381 -0.0002844599 0.0002265306 -7.34193e-05 0.0001047165 0.0465018417 0.8433367073
805295170.0 0.0427790369 0.8430238441 -0.0001759359 -2.21727e-05 -4.13881e-05 0.0001238423 0.0544902369 0.8432471603
810295140.0 0.0504109747 0.8426905031 -6.43266e-05 5.49933e-05 1.45764e-05 3.2459e-06 0.0629816776 0.8420744117
815295110.0 0.0592402124 0.8421244727 -0.000233781 -0.0002376464 -2.26468e-05 -2.96036e-05 0.0714343354 0.8417551106
820295080.0 0.0672718749 0.8416880169 -0.00015277 1.99623e-05 -9.35774e-05 7.9598e-06 0.0801343663 0.8414145711
825295050.0 0.0764682068 0.8406230077 -0.0002815703 -1.8747e-05 8.38341e-05 0.000123768 0.0879535694 0.8399013768
830295020.0 0.0835297912 0.8399636894 0.0001674946 -7.48728e-05 -8.71095e-05 -7.56202e-05 0.0973943096 0.8390706479
835294990.0 0.0917799884 0.8391677264 0.0001143497 -8.95783e-05 1.7695e-05 0.0001205428 0.1049312759 0.8384394175
840294960.0 0.0999153369 0.8387101715 0.0001615793 3.92774e-05 0.0001193075 -9.681e-07 0.1132655173 0.8371893658
845294930.0 0.1083722701 0.8372497837 0.0001976563 8.06278e-05 -0.0001631771 3.93898e-05 0.1215987348 0.8357722503
