!Created with skrf (http://scikit-rf.org).
# Hz S RI R 50.0 
!freq ReS11 ImS11 ReS21 ImS21 ReS12 ImS12 ReS22 ImS22
300000.0 -0.2376065878 -0.0820843801 0.4704856201 0.0567924017 0.4704942198 0.0525155332 -0.2408873654 -0.0918711304
5299970.0 -0.2453620187 0.0066990183 0.4752844932 0.0050056134 0.4751065025 0.004966918 -0.2414080392 0.0078219444
10299940.0 -0.241847848 0.0179879602 0.47672815 0.0060086224 0.476924457 0.0064334589 -0.2381954792 0.0204552252
15299910.0 -0.2376832357 0.0270491806 0.4804625536 0.0071299746 0.4806124561 0.0073924954 -0.2334617361 0.0300242158
20299880.0 -0.2332051029 0.0339076563 0.4850341468 0.0083328773 0.4853523863 0.0079357589 -0.2282870075 0.0379884792
25299850.0 -0.2279051923 0.0402130386 0.4903745387 0.007032692 0.4904244363 0.0069449857 -0.2222960707 0.0444881769
30299820.0 -0.2225649749 0.04500062 0.4956398872 0.0048263131 0.4956328802 0.0049010245 -0.2162559218 0.0500032347
35299790.0 -0.2173998603 0.0490823891 0.5007621117 0.0012744747 0.5008886121 0.0014781213 -0.2109062536 0.0543459116
40299760.0 -0.2128045128 0.052252577 0.505822911 -0.002416623 0.5060457422 -0.0023099142 -0.2055448281 0.0570043691
45299730.0 -0.2079399869 0.0550278447 0.5105575205 -0.0070423519 0.5108691678 -0.0068314681 -0.2004925092 0.0600848553
50299700.0 -0.2037832092 0.0567548038 0.5152573913 -0.0123595472 0.5149201165 -0.0120539762 -0.1957140758 0.0620511513
55299670.0 -0.2000008307 0.0583185362 0.5188497056 -0.0191208491 0.5186738967 -0.0180624563 -0.191602493 0.0637306203
60299640.0 -0.1960737945 0.0599182396 0.5218599067 -0.0249733498 0.5225862449 -0.0245178061 -0.1875915779 0.0650001704
65299610.0 -0.1930724567 0.0607698903 0.524983354 -0.0312590937 0.5248377488 -0.0310564128 -0.184166391 0.066414056
70299580.0 -0.1896869718 0.061971688 0.5272746222 -0.0375116912 0.5270166302 -0.0374913487 -0.1805958959 0.0674128812
75299550.0 -0.187117273 0.0629923398 0.5288484775 -0.0447570634 0.5290668682 -0.0445908894 -0.1778129116 0.0684353829
80299520.0 -0.1845617086 0.0636672305 0.5312131029 -0.0514805581 0.5312168972 -0.0512886951 -0.1751902756 0.0690669383
85299490.0 -0.182339941 0.0641273151 0.5320652833 -0.0579925209 0.532278104 -0.0578604632 -0.1726975491 0.0696451663
90299460.0 -0.1801409042 0.0648861906 0.5330957287 -0.0654042671 0.5334397251 -0.0650431476 -0.1700926814 0.0706534578
95299430.0 -0.1780185712 0.0652148991 0.5341864196 -0.0720578108 0.534287552 -0.0723451503 -0.1679272335 0.0713145793
100299400.0 -0.1768860078 0.0663916498 0.5341196488 -0.0788827828 0.5342319649 -0.0786763796 -0.1658602886 0.0714371225
105299370.0 -0.1748263427 0.0668082609 0.5345171409 -0.0862839868 0.5350765948 -0.085804238 -0.1638373382 0.072569493
110299340.0 -0.1734606703 0.0675682139 0.5351760726 -0.0925083264 0.5348325752 -0.0922285557 -0.1626860578 0.073268044
115299310.0 -0.1717851251 0.0682467048 0.5347872745 -0.0992694756 0.5347974506 -0.0991893054 -0.1612345733 0.0739831679
120299280.0 -0.1707939144 0.0686322353 0.5344965842 -0.1063564007 0.5350398125 -0.1061165093 -0.1596978085 0.074730504
125299250.0 -0.1694828845 0.0690644474 0.5340890958 -0.1128439407 0.5345754346 -0.1125776366 -0.1584711793 0.0751205706
130299220.0 -0.1687368731 0.0702352007 0.5336010764 -0.1196207563 0.5336451276 -0.1192719528 -0.1572119005 0.0760827918
135299190.0 -0.1676894771 0.071355038 0.533270924 -0.1262139923 0.5329917516 -0.1260291402 -0.1559600964 0.0769883816
140299160.0 -0.1666767088 0.0720134648 0.5323245771 -0.1329090956 0.5322595517 -0.1326742788 -0.1547012105 0.078407103
145299130.0 -0.1654738605 0.0728584897 0.5316094324 -0.1395735461 0.5311475884 -0.1395415013 -0.1538686166 0.0792638284
150299100.0 -0.1646678631 0.074039031 0.5301092608 -0.1459259892 0.5303029566 -0.1454523407 -0.1527819665 0.0805590727
155299070.0 -0.1639769935 0.0746500451 0.5290925994 -0.1530961131 0.5289625815 -0.1523049957 -0.1517882104 0.0814247443
160299040.0 -0.1630478344 0.0757143192 0.527595385 -0.1588911441 0.5272709413 -0.1589495607 -0.151179142 0.0824828799
165299010.0 -0.1623026415 0.076972186 0.5259844489 -0.1659461189 0.5262231346 -0.1659658126 -0.1496916782 0.0838401031
170298980.0 -0.1615147373 0.077661277 0.5247595937 -0.1718306833 0.5246927816 -0.1715495591 -0.1486876507 0.0847927468
175298950.0 -0.1608655288 0.0788406143 0.5231982679 -0.1778279469 0.5228968319 -0.1781200164 -0.148095067 0.0859591351
180298920.0 -0.160252649 0.0800060457 0.5213292937 -0.1843590901 0.5216989273 -0.184106504 -0.1470589174 0.087508446
185298890.0 -0.1591198416 0.080928046 0.5194197409 -0.1903209488 0.5192615561 -0.1900662345 -0.1462620802 0.0887765116
190298860.0 -0.1583940703 0.0823256068 0.5177857337 -0.1968230441 0.518006679 -0.196598428 -0.1450687284 0.0896092297
195298830.0 -0.1578595156 0.083219032 0.5154987415 -0.2027281183 0.5158278326 -0.2024382909 -0.1439908183 0.0907287719
200298800.0 -0.1569757237 0.0846617976 0.5131800047 -0.2091955087 0.5134680471 -0.2090059323 -0.1433836054 0.0921941643
205298770.0 -0.1563587436 0.0857475717 0.5109529217 -0.214722803 0.5107782335 -0.2148787695 -0.1421401335 0.0926828532
210298740.0 -0.1555625778 0.0871344168 0.5091996724 -0.2208785136 0.5089600034 -0.2205113553 -0.1412106552 0.094980973
215298710.0 -0.1551296159 0.0884561 0.5069153875 -0.2266661993 0.5063538215 -0.2273493471 -0.1404381797 0.0962913801
220298680.0 -0.1542287494 0.089335789 0.5041253579 -0.2327871138 0.5038850597 -0.2324735035 -0.1397993638 0.097243063
225298650.0 -0.1536559359 0.0905671857 0.5016636245 -0.2384683021 0.5018777852 -0.2382913729 -0.1388252326 0.0985059152
230298620.0 -0.1524694523 0.0923112765 0.4991115758 -0.2440372693 0.4997053168 -0.2440808089 -0.1380891268 0.0998399325
235298590.0 -0.15175274 0.0932682983 0.4965802535 -0.2497162327 0.4968869238 -0.2496156249 -0.1369427844 0.1015293198
240298560.0 -0.1512113448 0.0949618524 0.4941464017 -0.2561252981 0.4940870635 -0.2558650855 -0.1360457709 0.1030395738
245298530.0 -0.150228272 0.0963449259 0.4913770338 -0.2615903944 0.4913006507 -0.2614706642 -0.1345313613 0.1038012484
250298500.0 -0.1491235154 0.0974150234 0.4875171612 -0.267026929 0.4880537323 -0.2670306231 -0.1338507505 0.1054962
255298470.0 -0.1486866934 0.0984690726 0.4846110492 -0.272176777 0.4852672861 -0.272751198 -0.1324473626 0.1067158281
260298440.0 -0.1478294863 0.0997997527 0.4819861867 -0.2783493517 0.4824777592 -0.2780042287 -0.131310506 0.1083993705
265298410.0 -0.1465032255 0.1016477503 0.4793034036 -0.283806897 0.4796920259 -0.2833254845 -0.1303033592 0.1097720925
270298380.0 -0.1459858641 0.1026808755 0.4765449198 -0.2890212524 0.4765133305 -0.2889295002 -0.1292912314 0.111057423
275298350.0 -0.1448379155 0.1042786799 0.4736057937 -0.2946897602 0.4733498217 -0.2944261937 -0.12780881 0.1125125679
280298320.0 -0.1437752282 0.1057971211 0.4698831486 -0.3003341628 0.4700035025 -0.2996098681 -0.1264953567 0.1141549252
285298290.0 -0.1430486868 0.1073522459 0.4667721953 -0.3049134752 0.4665862651 -0.305087141 -0.1256175977 0.1152957294
290298260.0 -0.1420649963 0.1084698023 0.4637438771 -0.3102367711 0.4637920401 -0.3104809147 -0.1240447357 0.1171919453
295298230.0 -0.1408564433 0.1093594841 0.4603087933 -0.3157340676 0.4603267839 -0.3156167043 -0.1228338621 0.1181380255
300298200.0 -0.1403532743 0.1108883978 0.4569359764 -0.3204461494 0.4570588142 -0.3209665019 -0.1217126012 0.1194127302
305298170.0 -0.1387812315 0.1120071685 0.4528759596 -0.3265012189 0.4530624905 -0.3261661407 -0.120160467 0.1206216851
310298140.0 -0.1380145659 0.113591384 0.4496074781 -0.3313896926 0.4499028074 -0.3311097891 -0.1192014378 0.1220224369
315298110.0 -0.1369497391 0.1147364763 0.4461817575 -0.3365811999 0.4462009719 -0.3365471264 -0.1178343397 0.123150422
320298080.0 -0.1360287748 0.1160784171 0.4418797902 -0.3422252647 0.442215838 -0.3418430821 -0.1166682748 0.1246432453
325298050.0 -0.1352498338 0.1172902643 0.4383534916 -0.3471544405 0.4383854177 -0.3468596027 -0.1156268813 0.1258953635
330298020.0 -0.1344093262 0.1183480162 0.4342394751 -0.3518522665 0.434774197 -0.351505615 -0.1145317595 0.12699548
335297990.0 -0.1330581967 0.1195177088 0.4303071245 -0.3564249873 0.4302295539 -0.3567049076 -0.1138080238 0.1288647615
340297960.0 -0.1327630633 0.121211874 0.4258444335 -0.3613006884 0.4257810313 -0.3610971963 -0.1117849528 0.129914135
345297930.0 -0.1314285339 0.1229025336 0.4219858942 -0.3661980419 0.4220155398 -0.3660820749 -0.1109731908 0.1309371842
350297900.0 -0.1305925897 0.1239106547 0.4176559816 -0.371165184 0.4181187356 -0.3707088277 -0.1097802974 0.1329234731
355297870.0 -0.1295108892 0.1258519387 0.4139388973 -0.3756081119 0.4141451853 -0.3752363865 -0.1087988599 0.1340818268
360297840.0 -0.1283179552 0.1268510637 0.4100006365 -0.3795468959 0.4101288777 -0.3794042695 -0.1071520895 0.1355586467
365297810.0 -0.1270672491 0.1283220526 0.4053602573 -0.3841425272 0.405957498 -0.3844717694 -0.1055089042 0.1365707341
370297780.0 -0.1258625503 0.1294202926 0.4010214188 -0.3884683911 0.4018297243 -0.3884320868 -0.104433937 0.1379458135
375297750.0 -0.1246061212 0.1308699714 0.3969687186 -0.392931571 0.3973909489 -0.3932460343 -0.102698375 0.1393433299
380297720.0 -0.1236094297 0.1321272882 0.3925606779 -0.3974997672 0.3931192449 -0.3967404197 -0.1018223384 0.1404743145
385297690.0 -0.1227955832 0.1335789857 0.3881365536 -0.4015682306 0.3881319394 -0.401579811 -0.0996497411 0.1416679063
390297660.0 -0.1212638355 0.1350311485 0.3838563261 -0.4060362306 0.3839995646 -0.4057571162 -0.0984936245 0.1431962203
395297630.0 -0.1198924289 0.1364783792 0.3793203109 -0.4102057475 0.3795217746 -0.4103428196 -0.0962943523 0.1442151865
400297600.0 -0.1186721419 0.1376905316 0.374190119 -0.4143796251 0.3753482157 -0.4143692582 -0.0951608979 0.1453031905
405297570.0 -0.117763803 0.1387489474 0.3704774701 -0.4183690484 0.3704364579 -0.4182419792 -0.0940820573 0.1465171825
410297540.0 -0.1159997491 0.1397406961 0.3660196359 -0.4222873564 0.3662251099 -0.4225966846 -0.0919912247 0.1481189441
415297510.0 -0.114724667 0.1410417728 0.3603221139 -0.4268493593 0.3614627812 -0.4264141649 -0.0905728122 0.1492964019
420297480.0 -0.1134968885 0.1425312645 0.3566996768 -0.4305182469 0.3564479176 -0.4304037481 -0.0888409293 0.1497918595
425297450.0 -0.1120436877 0.143537312 0.3519085455 -0.4340809355 0.3521986388 -0.4343910991 -0.0875338819 0.1516395181
430297420.0 -0.1110027151 0.1447636836 0.3467962217 -0.437446699 0.3470155494 -0.4377160343 -0.0859950625 0.1524339259
435297390.0 -0.1096579618 0.1462071231 0.3420070841 -0.4416063744 0.3419880219 -0.4415794793 -0.0834221833 0.1534304493
440297360.0 -0.1077811372 0.1472520087 0.3371664345 -0.4453514724 0.3372944697 -0.4454259317 -0.0822521156 0.154702236
445297330.0 -0.1066640778 0.1484755446 0.3320815305 -0.4491370504 0.3326130012 -0.4487992631 -0.0804988342 0.1552708711
450297300.0 -0.1052282853 0.1492612291 0.3276085506 -0.4524463986 0.3276160361 -0.4526554385 -0.0788106593 0.1562383391
455297270.0 -0.1039126618 0.1506434171 0.3223787375 -0.4559092858 0.3225393184 -0.4563041478 -0.0771632743 0.1577139784
460297240.0 -0.1025338578 0.1518595303 0.3174117853 -0.4596063892 0.3177235693 -0.4598448872 -0.0756000072 0.1587221872
465297210.0 -0.100771423 0.1530318191 0.3123222911 -0.4630904474 0.3126823433 -0.4635391003 -0.0736044227 0.1593272016
470297180.0 -0.0994056017 0.1540255017 0.3069945867 -0.4662673162 0.3073981854 -0.4667406975 -0.07177923 0.1606845556
475297150.0 -0.0978511117 0.1550262113 0.3018996069 -0.4694227249 0.3024044944 -0.4692078196 -0.0699502373 0.1612396122
480297120.0 -0.0966142418 0.1564133849 0.297330407 -0.4731556575 0.296903406 -0.4731897094 -0.0681103573 0.162549025
485297090.0 -0.0950942166 0.1575076429 0.2921538521 -0.4761090378 0.2922158206 -0.4758881719 -0.0662899659 0.1630647132
490297060.0 -0.0939216309 0.1585391786 0.2867512929 -0.4797088205 0.2868660652 -0.4789465379 -0.0649046098 0.1643584045
495297030.0 -0.0920545054 0.1598521238 0.2812746083 -0.4825141418 0.281916608 -0.4824059042 -0.0629656756 0.1651832125
500297000.0 -0.0905273202 0.1603573689 0.2759393425 -0.4850945745 0.2760849174 -0.4848427496 -0.0611231113 0.1664882174
505296970.0 -0.0888418305 0.1615094394 0.2710083811 -0.4884218745 0.2710577777 -0.488215842 -0.0595100549 0.1668960264
510296940.0 -0.0872906511 0.1624568335 0.2652885094 -0.4912517757 0.265427672 -0.4916708816 -0.057187545 0.1677886559
515296910.0 -0.0857211108 0.1635468199 0.2598802083 -0.4941105399 0.2601616776 -0.4940834176 -0.0552507481 0.1685903929
520296880.0 -0.0843344472 0.1645385526 0.2544914882 -0.497052029 0.2550199513 -0.4968625314 -0.0536457738 0.1692337005
525296850.0 -0.082719223 0.1649136443 0.2491575285 -0.4994611957 0.249702357 -0.4993036763 -0.0521934625 0.1700571285
530296820.0 -0.0807491485 0.1663844855 0.2437012292 -0.5021108902 0.244227172 -0.5023581441 -0.0500336696 0.1707904324
535296790.0 -0.0797747122 0.1672528947 0.2390970321 -0.5045136258 0.2387669586 -0.5040702703 -0.0481331174 0.1710223665
540296760.0 -0.0780260524 0.1684016035 0.2329327501 -0.5072214696 0.2328825538 -0.5076250585 -0.0465463355 0.1724241059
545296730.0 -0.076351669 0.1690750998 0.2269825897 -0.5095878488 0.2275155453 -0.5096350338 -0.0446027176 0.1726368436
550296700.0 -0.0742645544 0.1700524891 0.2215685546 -0.512085362 0.222052295 -0.5125326929 -0.0427206268 0.1733953701
555296670.0 -0.0730860013 0.1707504803 0.2166846985 -0.514574244 0.2167812964 -0.5143550335 -0.0406516779 0.1743364959
560296640.0 -0.0712234431 0.1717422602 0.2107409608 -0.5169778614 0.21074508 -0.5169028966 -0.0387322693 0.1747443749
565296610.0 -0.0698832398 0.1725334319 0.2049757303 -0.5191622741 0.2052430097 -0.5192009418 -0.0370276995 0.175057969
570296580.0 -0.0681599941 0.1733825904 0.1993252125 -0.5218013158 0.1992190961 -0.521175628 -0.0350669718 0.1759378776
575296550.0 -0.0667187521 0.1745326415 0.1936091657 -0.5236689353 0.1935739242 -0.523538212 -0.0328292471 0.1765307894
580296520.0 -0.0648065188 0.1748754389 0.1882248957 -0.5257505785 0.1882333894 -0.5252936085 -0.0308257536 0.1767018825
585296490.0 -0.0632573038 0.1754136767 0.182852903 -0.5272983533 0.1829112804 -0.5276454092 -0.0288749832 0.1772620893
590296460.0 -0.0612032434 0.1765687185 0.176945655 -0.5291796901 0.1767085061 -0.5293551838 -0.0276684485 0.1776673965
595296430.0 -0.0594979366 0.1770414043 0.1705796664 -0.5318668564 0.1710333503 -0.5312885014 -0.024969133 0.177855191
600296400.0 -0.0581477103 0.1779048277 0.1652181097 -0.5330463264 0.1654157994 -0.5325841993 -0.023293457 0.1784241652
605296370.0 -0.0565802675 0.1787794967 0.1596061608 -0.535117725 0.1597469856 -0.5348632734 -0.0210612359 0.1790738211
610296340.0 -0.0543553278 0.1793617165 0.1534641199 -0.536147374 0.1537495748 -0.5364740079 -0.019038351 0.1792686485
615296310.0 -0.0526168439 0.1797354413 0.1474752041 -0.5378548157 0.1478011418 -0.5381901182 -0.0168226833 0.1798913392
620296280.0 -0.0510808119 0.1804328768 0.1414319018 -0.539205182 0.1419462693 -0.5392952728 -0.0151920495 0.1801183599
625296250.0 -0.0495093573 0.180928719 0.1363422116 -0.5411863033 0.1361949696 -0.5414596855 -0.0125355214 0.1804166496
630296220.0 -0.0467704883 0.1815623265 0.129541596 -0.5425959153 0.1299225705 -0.5420587302 -0.0111027751 0.1810518548
635296190.0 -0.0461297471 0.181994851 0.1241461223 -0.5433546877 0.124108555 -0.543889003 -0.0089842072 0.181078836
640296160.0 -0.0442325508 0.1827365873 0.1185291903 -0.5447248746 0.1187046088 -0.5449777791 -0.0069188788 0.181402547
645296130.0 -0.0422106592 0.1835818045 0.1123495479 -0.5460491279 0.1127245436 -0.5463387256 -0.0048777107 0.1817063123
650296100.0 -0.0404749121 0.1837299018 0.1065179018 -0.54679959 0.1065821357 -0.5471813318 -0.0028533007 0.1813531685
655296070.0 -0.0387948607 0.1843050783 0.1003128312 -0.5482945995 0.1008007184 -0.5483519175 -0.0006833465 0.1817567713
660296040.0 -0.0372366665 0.1845821018 0.0948982739 -0.549314109 0.0949243773 -0.54996567 0.0014294025 0.182115159
665296010.0 -0.0349226257 0.1851974481 0.0884421175 -0.5504049506 0.0888941797 -0.5502806483 0.0032175534 0.1825916727
670295980.0 -0.0341467459 0.1859121651 0.0829569085 -0.5511904645 0.0826780248 -0.5512444715 0.0050993643 0.1824666153
675295950.0 -0.0317379888 0.1863720069 0.0768092765 -0.5519067277 0.0771013063 -0.5516285016 0.0066471117 0.1826907586
680295920.0 -0.0302035676 0.1866529859 0.0708282686 -0.5522455024 0.0705426229 -0.5532089794 0.0092222496 0.1830650663
685295890.0 -0.0279013863 0.1878802349 0.0648897351 -0.5537959696 0.0648872656 -0.553533617 0.011214827 0.1829941048
690295860.0 -0.0260095176 0.1879224478 0.0593561249 -0.553776982 0.0588706473 -0.5543986402 0.0128856329 0.1832689886
695295830.0 -0.024215353 0.1879863401 0.0534341449 -0.5542530751 0.0529033962 -0.554548629 0.0154703146 0.1831478774
700295800.0 -0.0222871374 0.1880581235 0.046735578 -0.5549920852 0.0468178182 -0.5553082939 0.0171978457 0.1836532608
705295770.0 -0.021022887 0.1893302177 0.0407804013 -0.5556570791 0.0414965038 -0.5554875773 0.0192542773 0.1833823066
710295740.0 -0.0186636913 0.1893845611 0.0353949878 -0.556322549 0.0354945777 -0.556508759 0.0211827107 0.1827816862
715295710.0 -0.0173706797 0.1894819061 0.0292413032 -0.5562750457 0.0288138201 -0.556480944 0.0236546948 0.1829262507
720295680.0 -0.0151724867 0.1898430185 0.0230943195 -0.5568975718 0.0234996676 -0.5566446322 0.0251798927 0.1830889172
725295650.0 -0.0130836821 0.1900259002 0.0170095095 -0.5562069397 0.0175745011 -0.5569495308 0.027178179 0.1828331267
730295620.0 -0.0112327243 0.1904646208 0.0110198023 -0.5564663092 0.0114761024 -0.5572421714 0.0290798381 0.182353392
735295590.0 -0.0097833226 0.1907935363 0.0054715599 -0.5572961662 0.0052034059 -0.5568330832 0.0310945827 0.1819817677
740295560.0 -0.0085391624 0.1910854705 -0.0005921183 -0.5569006947 -0.0008481446 -0.557168583 0.0333754986 0.1822944957
745295530.0 -0.0061372748 0.1915779818 -0.0071149205 -0.5568587778 -0.0070416131 -0.5568556033 0.0354698933 0.1816432257
750295500.0 -0.0043113187 0.1915732643 -0.0125380231 -0.5564514271 -0.0126579202 -0.556893493 0.0371583861 0.1811852767
755295470.0 -0.0023782319 0.1913835848 -0.0185377553 -0.5566872106 -0.0188144932 -0.5569914017 0.0397607797 0.1810191315
760295440.0 -0.0006900529 0.1917860266 -0.0246352335 -0.5565591971 -0.0246294334 -0.5567321517 0.0415810406 0.1807221756
765295410.0 0.0013263303 0.1920676649 -0.0307481935 -0.5556180893 -0.0311614518 -0.5561627977 0.0436230564 0.1808104082
770295380.0 0.0029751028 0.1919116439 -0.0372390105 -0.5551758002 -0.037082443 -0.5554876853 0.0452919649 0.1801850104
775295350.0 0.0046131634 0.1915737691 -0.0428126397 -0.5545518633 -0.0422541416 -0.5552620633 0.0468381293 0.180018898
780295320.0 0.0068417493 0.1920148439 -0.048697759 -0.5542118603 -0.0483373662 -0.5546669913 0.049340118 0.1793016841
785295290.0 0.0083612138 0.1916640873 -0.0545273282 -0.5534464413 -0.0545032022 -0.5538639852 0.0520713015 0.1792210383
790295260.0 0.0110944055 0.1924667639 -0.0606054101 -0.5531204088 -0.0599249851 -0.5536070347 0.0537731982 0.1787296565
795295230.0 0.0125520669 0.1924250808 -0.0665029804 -0.552076407 -0.065863301 -0.5524456904 0.0559271093 0.1788912459
800295200.0 0.0141577684 0.192589574 -0.0731197197 -0.5516848367 -0.0724200197 -0.5515193552 0.0577864174 0.1778032545
805295170.0 0.0164382699 0.1922782352 -0.0786806632 -0.5509947037 -0.0783297346 -0.5510722246 0.0594790925 0.1777300433
810295140.0 0.0179532765 0.1917861552 -0.0842387886 -0.549662024 -0.0840930482 -0.5501580827 0.0618695918 0.1770861577
815295110.0 0.0199194454 0.1917270171 -0.0903029991 -0.5489280245 -0.0900601155 -0.5492202162 0.0633625434 0.1767573637
820295080.0 0.021501348 0.1923663281 -0.0959671191 -0.5476442746 -0.0959139621 -0.5483100645 0.0656576882 0.1757924728
825295050.0 0.0241008396 0.1918652527 -0.101722404 -0.5462769357 -0.1018170277 -0.546674788 0.0675935138 0.1755712304
830295020.0 0.0253588136 0.192156676 -0.1079495216 -0.5453969283 -0.1077224453 -0.5455161765 0.0698803401 0.1748514177
