!Created with skrf (http://scikit-rf.org).
# Hz S RI R 50.0 
!freq ReS11 ImS11 ReS21 ImS21 ReS12 ImS12 ReS22 ImS22
300000.0 -0.2338994722 -0.135291575 0.4659178321 0.0857858629 0.4671324268 0.0865390367 -0.2340068278 -0.1318327142
5299970.0 -0.2418295932 0.0050741822 0.4750821534 0.0060182269 0.475269431 0.0059845214 -0.2441224897 0.0045033609
10299940.0 -0.238771221 0.0185344582 0.4775269195 0.006951504 0.4770932596 0.0071188265 -0.2407434906 0.0172820612
15299910.0 -0.2338192376 0.0287673429 0.4803861905 0.0083114063 0.480918805 0.0082234515 -0.2366194313 0.0263772013
20299880.0 -0.2283846103 0.0368371643 0.4855132906 0.0082992119 0.4855090417 0.0084340153 -0.2317651026 0.0337517248
25299850.0 -0.2225686007 0.0434489167 0.4906716846 0.008102482 0.4910272999 0.0072769986 -0.2265146762 0.0400469968
30299820.0 -0.217350691 0.0485357258 0.495981032 0.0049949969 0.4960728335 0.005110131 -0.2215638977 0.0450551275
35299790.0 -0.2110389678 0.0528733965 0.5006912421 0.0021463474 0.501361304 0.001891164 -0.2166564416 0.0492023766
40299760.0 -0.2060383177 0.0559383412 0.5062713272 -0.002195266 0.5067442449 -0.0024209981 -0.2116693876 0.0524731941
45299730.0 -0.2009308173 0.0590238944 0.5113714554 -0.006386721 0.5115465835 -0.0068971465 -0.2066832114 0.0548217207
50299700.0 -0.1959086463 0.0606987029 0.5149203526 -0.0128406636 0.5150760104 -0.0124969869 -0.2024478448 0.0569267618
55299670.0 -0.1918332653 0.062475742 0.5192622695 -0.0182078384 0.5185601844 -0.0184175049 -0.1992503809 0.0582199175
60299640.0 -0.1877485672 0.0639331644 0.5223872607 -0.0246267507 0.5223320195 -0.0248361423 -0.1947600048 0.059551726
65299610.0 -0.1840003963 0.0651315766 0.5255076917 -0.0308891396 0.5254107991 -0.0307687279 -0.1917203926 0.060732067
70299580.0 -0.1809250988 0.0657544909 0.5276511745 -0.0372165778 0.5276488643 -0.0375229072 -0.1889178117 0.0617969062
75299550.0 -0.1780612151 0.066599758 0.5293542063 -0.0443571249 0.5297921735 -0.0445819608 -0.1860758115 0.0629382805
80299520.0 -0.1752464395 0.067613065 0.531431754 -0.0513987978 0.5319308113 -0.0514227254 -0.183598417 0.0637155273
85299490.0 -0.1724494837 0.0682139246 0.5324189622 -0.0582724562 0.532931234 -0.0582111259 -0.1815373263 0.0639183451
90299460.0 -0.1699369305 0.0690889497 0.5332938582 -0.0651238048 0.5335394044 -0.0651051511 -0.1789816247 0.0649099076
95299430.0 -0.1681199422 0.0697955661 0.5344388644 -0.072139194 0.5347570701 -0.0722325463 -0.177348766 0.0659021981
100299400.0 -0.1659015229 0.0702988566 0.5348507786 -0.0787260644 0.5350165967 -0.0792634811 -0.1757162148 0.0665613576
105299370.0 -0.1641046353 0.070686323 0.5351037227 -0.0856162141 0.5354485505 -0.0857640867 -0.1736431567 0.0665548479
110299340.0 -0.1623905099 0.0714612045 0.5353356277 -0.0919173112 0.5358259401 -0.0919939593 -0.1727524588 0.0674842008
115299310.0 -0.1609223013 0.0724159735 0.5353921982 -0.0992464022 0.535585239 -0.0992430038 -0.1710681327 0.0683079422
120299280.0 -0.1592043974 0.0732789722 0.53526359 -0.1062622279 0.5353006402 -0.1066218041 -0.1698995624 0.0686400913
125299250.0 -0.1577735935 0.0739855655 0.5345627782 -0.1127311505 0.5349379307 -0.1127285962 -0.1685075126 0.0697236637
130299220.0 -0.156488297 0.0745064215 0.5341675131 -0.1198666648 0.5342830897 -0.1201301032 -0.1675243129 0.0707280279
135299190.0 -0.155545475 0.0759195882 0.5336354746 -0.1260961673 0.5336941901 -0.1264612627 -0.1664378766 0.0709195275
140299160.0 -0.154301869 0.0767112588 0.5330245771 -0.1329846075 0.5328359202 -0.1327088359 -0.1660506887 0.0717656504
145299130.0 -0.1533211505 0.0776414213 0.5317148062 -0.1395981161 0.5318807924 -0.1394753345 -0.1647273197 0.0727600183
150299100.0 -0.1521969837 0.0787822489 0.5309997734 -0.146020741 0.5307502046 -0.146078451 -0.1640367639 0.0738148012
155299070.0 -0.1507503031 0.0799028055 0.5286025974 -0.1524273621 0.5297128674 -0.1526825005 -0.1629127785 0.0749125455
160299040.0 -0.1500692757 0.0812871043 0.5282757351 -0.1589191831 0.5279898492 -0.1593651608 -0.1624326218 0.07604649
165299010.0 -0.1488172707 0.0820205297 0.5268880152 -0.1649777878 0.5265860731 -0.165300603 -0.1613239382 0.0769125541
170298980.0 -0.1478913042 0.0836378899 0.5248488772 -0.1719440606 0.525229307 -0.1719652323 -0.1608052897 0.0780756665
175298950.0 -0.1469328922 0.0844554397 0.5236625469 -0.1779164445 0.5239437024 -0.1784396362 -0.1601198644 0.0793541233
180298920.0 -0.1459377782 0.0859547506 0.5215725063 -0.1846438916 0.5218348202 -0.1846656017 -0.1591927112 0.080324586
185298890.0 -0.1449222557 0.087197169 0.5202266323 -0.1903274851 0.5199183369 -0.1905445495 -0.158028991 0.0811818824
190298860.0 -0.1439308633 0.0887306251 0.5176128866 -0.1967544611 0.5182788437 -0.1968088328 -0.1576839013 0.0826400321
195298830.0 -0.1431118369 0.0900260017 0.5160098397 -0.2028208853 0.5162481688 -0.2026513203 -0.1573572613 0.0837612963
200298800.0 -0.1418416714 0.0908044328 0.5140248914 -0.208908254 0.5139752912 -0.209305713 -0.1562050466 0.0847553129
205298770.0 -0.1414928851 0.0923349197 0.511820983 -0.2148145085 0.5118435272 -0.2146981651 -0.155311987 0.0861669093
210298740.0 -0.1402519239 0.0939304104 0.5095512463 -0.2208210498 0.509223756 -0.2210135995 -0.1547187703 0.0872688332
215298710.0 -0.1390938705 0.0955644573 0.5067612963 -0.2265698437 0.5070764747 -0.2273569591 -0.15358337 0.0885794891
220298680.0 -0.1380151966 0.0967382163 0.5046986488 -0.2327366475 0.5045483854 -0.2329422991 -0.1530684259 0.0897412897
225298650.0 -0.1371568512 0.0980902912 0.5018475775 -0.2384475461 0.5024394499 -0.238524326 -0.1522369914 0.0908068763
230298620.0 -0.1359638029 0.1000156728 0.5000483054 -0.2445392725 0.4999620152 -0.2443863666 -0.1521151451 0.0920334556
235298590.0 -0.1352850474 0.1013173092 0.4968911666 -0.2505805082 0.4972766521 -0.2503661596 -0.1511417848 0.0937134802
240298560.0 -0.1342778357 0.1028773509 0.4942226085 -0.2557504978 0.4945080531 -0.2557246168 -0.1502098098 0.0946373585
245298530.0 -0.1330408826 0.1040169831 0.49157587 -0.2615174612 0.4916332678 -0.2614240739 -0.149654493 0.0960692256
250298500.0 -0.1324121873 0.1052090071 0.488887604 -0.2666962714 0.489046496 -0.2670711768 -0.1485946933 0.0977104312
255298470.0 -0.1311449264 0.1070281854 0.4862050195 -0.2724187028 0.4863569784 -0.2730098293 -0.1479071948 0.0988882142
260298440.0 -0.1300964783 0.1082749691 0.483074443 -0.2775830088 0.4833548665 -0.2779501512 -0.1472506119 0.0998750552
265298410.0 -0.1292254137 0.1099528872 0.4797542134 -0.2837263238 0.4799535409 -0.2840107506 -0.1455868556 0.1013857568
270298380.0 -0.1283147138 0.1111675934 0.4770526708 -0.2892764741 0.4774827899 -0.2891191898 -0.1450564748 0.1027818953
275298350.0 -0.1271566572 0.1130611373 0.473441438 -0.294140515 0.4737877862 -0.2945551741 -0.1443273781 0.1043145247
280298320.0 -0.1261138105 0.1143290333 0.4703982382 -0.2995358828 0.4710885348 -0.3001095317 -0.1433522683 0.1056701954
285298290.0 -0.1247884242 0.1161038143 0.4673321131 -0.3051341406 0.4675984354 -0.3048423552 -0.1426369575 0.1069867896
290298260.0 -0.1235988832 0.1174096284 0.4644867195 -0.3104556323 0.4642931747 -0.3104008369 -0.1414247743 0.1082729008
295298230.0 -0.1224909702 0.1184741934 0.4608190793 -0.315856252 0.4609102387 -0.3160699171 -0.1406314469 0.1093608852
300298200.0 -0.1212227071 0.1201544487 0.4574143154 -0.3207929625 0.4577622505 -0.3208226942 -0.1395791225 0.1107963751
305298170.0 -0.1201533656 0.1210485068 0.4539237546 -0.3265165631 0.4541974657 -0.3264599182 -0.1383627659 0.1117456329
310298140.0 -0.1186777938 0.1225359125 0.4506834711 -0.3315035788 0.4508200086 -0.3312188165 -0.1372615418 0.1130028307
315298110.0 -0.1177718653 0.1236684754 0.4472692697 -0.3371828127 0.4472212285 -0.3368730258 -0.1363171069 0.1146323519
320298080.0 -0.1163742869 0.1251163975 0.4427941472 -0.3417231299 0.4434593279 -0.3420731443 -0.1354919913 0.1157237565
325298050.0 -0.115727822 0.1261367572 0.4392012684 -0.3466873154 0.4398252804 -0.3468682909 -0.1344631603 0.1167454793
330298020.0 -0.1146649984 0.1276507478 0.4351143716 -0.3517822879 0.4356747393 -0.3521303295 -0.1338146775 0.1179076433
335297990.0 -0.1133491957 0.1290231394 0.4313546611 -0.3565683676 0.4315662949 -0.3567605494 -0.132902219 0.1194454636
340297960.0 -0.1124911666 0.1303314726 0.4271385277 -0.3613899311 0.4272910899 -0.3618014424 -0.1320132335 0.1210925736
345297930.0 -0.1112627019 0.1315060098 0.4229089765 -0.3664644711 0.4230017633 -0.3662497681 -0.1307702256 0.1220925459
350297900.0 -0.1101287849 0.1330139112 0.4192588432 -0.3704717352 0.4192312681 -0.3705259621 -0.129835148 0.1233408569
355297870.0 -0.1089120288 0.1344350931 0.4153931722 -0.374958948 0.4149583261 -0.3751442504 -0.1284097612 0.1249329684
360297840.0 -0.1075585099 0.135899471 0.4109419022 -0.3797488275 0.4112406959 -0.380106737 -0.1278648134 0.1264776127
365297810.0 -0.1063486821 0.1370186921 0.4066075668 -0.3844324361 0.4068113412 -0.3845339857 -0.1272040229 0.1275703214
370297780.0 -0.1046091464 0.138502545 0.4017186208 -0.3891316864 0.4026017606 -0.3887972448 -0.1255361086 0.1287987484
375297750.0 -0.103479816 0.1399134469 0.3981033274 -0.3930624192 0.3981442361 -0.3932532266 -0.1242592214 0.1303385707
380297720.0 -0.1023451805 0.1411462913 0.3945721883 -0.3977867242 0.3937917817 -0.3975521222 -0.1231627735 0.131811163
385297690.0 -0.1008399227 0.1421270708 0.3893389395 -0.401808032 0.3898606232 -0.4021248231 -0.1215651454 0.1334338485
390297660.0 -0.0991308318 0.1431897439 0.3850559659 -0.4056983149 0.3852360891 -0.4057938192 -0.1204279157 0.1339688758
395297630.0 -0.0975407627 0.1447362224 0.3810405118 -0.409932467 0.3805564013 -0.4101525662 -0.1193075316 0.1356791636
400297600.0 -0.0965970438 0.145847586 0.3760272803 -0.4144799617 0.3765739982 -0.4142159176 -0.1181845449 0.136707068
405297570.0 -0.0948903003 0.1465791901 0.3720482441 -0.4183646488 0.371810212 -0.4185814471 -0.1168503491 0.1386374516
410297540.0 -0.0930378323 0.1483785296 0.3670665731 -0.4229428961 0.3673720708 -0.4225159463 -0.1156000417 0.1399419089
415297510.0 -0.0917262323 0.149294585 0.3620326225 -0.4264661898 0.3626512532 -0.4265615245 -0.1141595836 0.1407510072
420297480.0 -0.0901202323 0.1500308835 0.3574396103 -0.4302979575 0.3578148438 -0.4306842877 -0.1124627972 0.1424294877
425297450.0 -0.0880816373 0.1512169839 0.3531741662 -0.4339887206 0.3530746633 -0.4343796975 -0.111471841 0.1432005699
430297420.0 -0.0870103492 0.1524655562 0.3486732084 -0.4383419542 0.3486563051 -0.4380252436 -0.1096353995 0.1446332902
435297390.0 -0.0853376635 0.1536104721 0.3434147875 -0.4424957001 0.3434403021 -0.4419278001 -0.1088076369 0.146379877
440297360.0 -0.0831932901 0.1543808958 0.3381436226 -0.4459151272 0.3385985686 -0.4457522424 -0.1075732182 0.147264936
445297330.0 -0.0819284161 0.1552413158 0.3338049148 -0.4493884136 0.3339132256 -0.449503086 -0.1057928637 0.1482415063
450297300.0 -0.0803456351 0.1565603087 0.3289839078 -0.4529792232 0.3290973238 -0.4528175369 -0.1043345763 0.1497659979
455297270.0 -0.0788120288 0.1570920999 0.3244636806 -0.4564653627 0.3241172076 -0.4566391107 -0.1025373259 0.1507204227
460297240.0 -0.0765482072 0.1585536799 0.3192874693 -0.4607588093 0.3189633701 -0.4602981194 -0.1017844413 0.1516987662
465297210.0 -0.075008229 0.1591837992 0.3134178852 -0.4638292554 0.3133907437 -0.4638558908 -0.0996356008 0.1535991529
470297180.0 -0.0733694146 0.1598226017 0.3086170397 -0.4665760417 0.309056608 -0.4671465384 -0.0982320188 0.1541473084
475297150.0 -0.0716274794 0.1610775646 0.3035302974 -0.4706304766 0.303652419 -0.4702663081 -0.0968311744 0.1551999243
480297120.0 -0.0694073587 0.1622583523 0.2982888857 -0.473534345 0.2987617715 -0.4735106607 -0.0956794203 0.1563851965
485297090.0 -0.0680653613 0.162753328 0.293595735 -0.476802119 0.293367618 -0.4765757938 -0.0940097232 0.1573159513
490297060.0 -0.0653784709 0.1636253294 0.2874296074 -0.4802843336 0.2878953649 -0.4800460523 -0.0922433132 0.1583762204
495297030.0 -0.0640222376 0.1644638775 0.2827731571 -0.4831135573 0.2826688627 -0.4832559529 -0.09041833 0.1593013091
500297000.0 -0.0621235024 0.1654956397 0.2776468025 -0.4860361722 0.2777423057 -0.4862487784 -0.0892354679 0.1605977289
505296970.0 -0.0597305556 0.166129042 0.2720405347 -0.4891601596 0.2721427087 -0.4889312471 -0.0875465664 0.1610817524
510296940.0 -0.0582803738 0.1669338207 0.2669578501 -0.4927492299 0.2669259818 -0.4921522725 -0.0856073088 0.1625645372
515296910.0 -0.0562840235 0.1680414749 0.2613363021 -0.4948264836 0.2612177312 -0.4946128685 -0.0843538186 0.1630256337
520296880.0 -0.0543181614 0.1686123607 0.256105475 -0.4973865237 0.2554920654 -0.4977955554 -0.0822489604 0.1646578174
525296850.0 -0.0523539638 0.1690591593 0.2503257208 -0.4997901959 0.250533589 -0.5005916557 -0.0808671896 0.1654671321
530296820.0 -0.0506086633 0.1697733702 0.2450450925 -0.5032794885 0.245172403 -0.5030674237 -0.0791726724 0.1657545927
535296790.0 -0.0478849889 0.170588836 0.2395418846 -0.5052277724 0.2399081989 -0.5056359387 -0.0773915941 0.1670539349
540296760.0 -0.0462476219 0.1714854699 0.2339288189 -0.5080965521 0.2338268988 -0.5082395474 -0.075778065 0.1678367282
545296730.0 -0.0448544929 0.1723017155 0.2286241502 -0.510353355 0.2281948699 -0.510245141 -0.07414876 0.1686081664
550296700.0 -0.0422330027 0.1727982747 0.2227065458 -0.5130983641 0.2225542339 -0.5132652768 -0.072333524 0.1695138036
555296670.0 -0.040535903 0.1733608976 0.2176414285 -0.515379048 0.217661912 -0.5155367481 -0.0712347725 0.169819441
560296640.0 -0.037779511 0.1738666719 0.2115716929 -0.517451284 0.2119732802 -0.5176088736 -0.0691843395 0.1709698743
565296610.0 -0.0363640033 0.1745895387 0.2061761653 -0.5199910253 0.2060394498 -0.5197819094 -0.067437527 0.1718611148
570296580.0 -0.0345831549 0.1753618073 0.200423389 -0.5221482761 0.200665222 -0.5223477077 -0.0658211492 0.1725747593
575296550.0 -0.0319493679 0.1756526568 0.1949335182 -0.5242968642 0.1944492341 -0.52417814 -0.0640490363 0.1733698028
580296520.0 -0.0300110101 0.1766524371 0.1889998654 -0.5261671089 0.1887060935 -0.5264841246 -0.0625380572 0.1742634837
585296490.0 -0.0280644285 0.1770641529 0.1836709054 -0.5280691741 0.1831878862 -0.528312828 -0.0604161477 0.1750534136
590296460.0 -0.0253560319 0.1774187262 0.1778430716 -0.5300153395 0.1773700867 -0.5303804943 -0.0590435855 0.17562016
595296430.0 -0.0236364302 0.1778567296 0.1710877344 -0.5321188752 0.1713578697 -0.5320792581 -0.057172378 0.1763859913
600296400.0 -0.0212460412 0.1785684236 0.1651621693 -0.533750412 0.1657397755 -0.5338296982 -0.0552741781 0.1767877945
605296370.0 -0.0199159252 0.1790066769 0.1605969919 -0.5351715046 0.1600279215 -0.5357780732 -0.0539162167 0.1776650597
610296340.0 -0.0174602491 0.1798005906 0.1544121888 -0.5368188695 0.1545847326 -0.5372382894 -0.0523655769 0.1786861429
615296310.0 -0.0150572827 0.1798642523 0.1484321215 -0.5390598368 0.1480899195 -0.5391128571 -0.0501499914 0.1791322247
620296280.0 -0.0135015807 0.1806838443 0.1424188832 -0.5404736894 0.1423661357 -0.5404211409 -0.048483008 0.1798332869
625296250.0 -0.0115138509 0.1808472821 0.1369063174 -0.5419425547 0.1365731648 -0.5419279773 -0.0469416607 0.1803043022
630296220.0 -0.0090914927 0.181421665 0.1306786446 -0.543150497 0.1307990213 -0.5432031329 -0.0449861431 0.1809518699
635296190.0 -0.0074701387 0.1820135539 0.1248629029 -0.5445527671 0.1247905207 -0.544437959 -0.0431646509 0.1810487852
640296160.0 -0.0050770229 0.1819946024 0.1188590754 -0.5461018575 0.1191906355 -0.5461929872 -0.041880894 0.1819408737
645296130.0 -0.0029844865 0.1825804276 0.1131838503 -0.5472902208 0.1132022244 -0.5469053058 -0.039998514 0.182022194
650296100.0 -0.0008541618 0.1825563268 0.1070567 -0.5485641905 0.106832889 -0.5483542805 -0.0374334315 0.182828468
655296070.0 0.000888774 0.1826804643 0.101037658 -0.5491055401 0.1011018078 -0.5492891936 -0.0362498588 0.1835173332
660296040.0 0.0030594293 0.1832607232 0.0954275712 -0.5506844909 0.095077656 -0.5506855592 -0.0344144824 0.1837685261
665296010.0 0.0052080591 0.1835754159 0.0890340397 -0.5507968026 0.0893134715 -0.5511576965 -0.0323787958 0.1842584663
670295980.0 0.0073325453 0.1840047415 0.0830618286 -0.5522928108 0.0833304534 -0.5519480888 -0.0311542096 0.1843977656
675295950.0 0.0093218249 0.1838623502 0.0771793592 -0.5527260071 0.0777862175 -0.5531399232 -0.0288998228 0.1851182839
680295920.0 0.0109543673 0.1843094651 0.071495791 -0.5535364008 0.0714296532 -0.5537675979 -0.0268925354 0.1852460818
685295890.0 0.0135724437 0.1845841765 0.0651316623 -0.5549983636 0.065260744 -0.5546539272 -0.0253654392 0.1864596249
690295860.0 0.0152677002 0.1844756823 0.0594330594 -0.5553017438 0.0592025215 -0.555199496 -0.0235885737 0.1863961367
695295830.0 0.0175181229 0.1844928728 0.0538236346 -0.555975042 0.053560436 -0.5557664646 -0.0220458665 0.187003147
700295800.0 0.0194116976 0.1847569201 0.0476625418 -0.5564875605 0.0476962036 -0.5567004717 -0.0199737321 0.1873901374
705295770.0 0.0212245097 0.1848467673 0.0420140834 -0.5567400211 0.0415935885 -0.5567904556 -0.0183178799 0.1876002705
710295740.0 0.0231076357 0.1845590789 0.0357839296 -0.5571553692 0.0354067136 -0.5577321157 -0.016302968 0.1879267272
715295710.0 0.0255123244 0.1848430336 0.0297405095 -0.5574239339 0.0297648076 -0.5575487121 -0.0146734565 0.1880286652
720295680.0 0.0276912861 0.1846634777 0.0236752909 -0.5578081954 0.0233863845 -0.5580949157 -0.0127725487 0.1883846551
725295650.0 0.0290684891 0.1848519194 0.0179302266 -0.5583786955 0.0177240893 -0.5578579076 -0.0110629603 0.1888443228
730295620.0 0.0306222201 0.1846316845 0.011948457 -0.557572166 0.0113127774 -0.5578215419 -0.0090525823 0.1895087034
735295590.0 0.0331246822 0.1848022109 0.0057688866 -0.557881621 0.0056103318 -0.5580405143 -0.0074181539 0.1891783422
740295560.0 0.0349817596 0.1843460383 -0.0002557509 -0.5581067943 -0.0001312314 -0.5585269025 -0.0057168375 0.1896133859
745295530.0 0.0368191364 0.1843269725 -0.0062556072 -0.5573538802 -0.0055223271 -0.5580673952 -0.0040002337 0.1900485629
750295500.0 0.0387223474 0.1841776947 -0.011833684 -0.5576049671 -0.0125414713 -0.5583864077 -0.0021708891 0.1902351559
755295470.0 0.0406388291 0.1840208954 -0.0177714255 -0.5578695159 -0.0184107296 -0.5583854716 -0.000238457 0.1906289187
760295440.0 0.0427044368 0.1842082098 -0.0246231239 -0.5573531401 -0.0241514915 -0.5571330101 0.0019969575 0.1899734143
765295410.0 0.0449375807 0.1835039761 -0.0304555934 -0.5571854259 -0.0300440217 -0.5568060926 0.0037961234 0.1905917198
770295380.0 0.0465921607 0.1837814374 -0.0356067266 -0.5566147802 -0.0361261347 -0.5570802003 0.0052419607 0.1907412684
775295350.0 0.0483615006 0.1833510624 -0.0420579478 -0.5563509959 -0.04219817 -0.5561868719 0.0073844116 0.1908296324
780295320.0 0.0503471475 0.1829825437 -0.0478197608 -0.5555143393 -0.0480433977 -0.5557121294 0.0094272771 0.1906723867
785295290.0 0.0522764849 0.1826365332 -0.0538276063 -0.5553486023 -0.0539141961 -0.5556532168 0.0106183079 0.1913526354
790295260.0 0.0543887859 0.1818384611 -0.0596989235 -0.5550404011 -0.059648294 -0.5552441017 0.0126736658 0.1912773139
795295230.0 0.0557585597 0.1814311651 -0.0656075092 -0.5541882063 -0.0658469385 -0.5539888404 0.0144981356 0.1906631741
800295200.0 0.0576804081 0.1815742536 -0.0711893369 -0.5533070858 -0.0719154568 -0.5535004273 0.0163235335 0.1908612119
805295170.0 0.0598110841 0.180966991 -0.0778084196 -0.5520773241 -0.0773902849 -0.5525192782 0.018758907 0.1912338852
810295140.0 0.0617750608 0.1806686466 -0.0836613989 -0.5515065235 -0.0839813326 -0.5515227567 0.0204348103 0.1912588002
815295110.0 0.0632348285 0.1803808585 -0.088966815 -0.5506967589 -0.08890619 -0.5509560804 0.022121026 0.1909117777
820295080.0 0.0654573425 0.1792886315 -0.0948353662 -0.5491628003 -0.0950960122 -0.5501230947 0.0231628086 0.1914625914
825295050.0 0.0672922608 0.1789186438 -0.1010823679 -0.5488156089 -0.1015875461 -0.5482478708 0.0260751892 0.1913658404
830295020.0 0.0689624157 0.1782871008 -0.1068530641 -0.5472484221 -0.1070817927 -0.5475752243 0.0275231512 0.190666187
