!Created with skrf (http://scikit-rf.org).
# Hz S RI R 50.0 
!freq ReS11 ImS11 ReS21 ImS21 ReS12 ImS12 ReS22 ImS22
300000.0 -0.3179116556 -0.1089861243 0.3736918002 0.0539934912 0.3751768648 0.0584560198 -0.3165533566 -0.1164200067
5299970.0 -0.3238513221 0.0045856497 0.3786637722 0.0028355089 0.3782612698 0.0033676094 -0.3259217217 0.0025979313
10299940.0 -0.3210392103 0.0154602142 0.3798128766 0.0023091002 0.3797655494 0.0023117665 -0.3239470512 0.0125461078
15299910.0 -0.3182360582 0.0237762199 0.3820750398 0.0019679206 0.3820976416 0.0023709918 -0.3214269837 0.0197662733
20299880.0 -0.3144365488 0.0302034935 0.3849843863 0.0017150503 0.3852793021 0.0015902045 -0.3185203715 0.0262795731
25299850.0 -0.310813872 0.035689402 0.3882833258 -3.79167e-05 0.3883675481 0.0001270185 -0.3155471734 0.031542649
30299820.0 -0.3066599577 0.040450139 0.3921858511 -0.0021281511 0.3913325454 -0.0024457855 -0.3126065524 0.0355852809
35299790.0 -0.3028554003 0.0447301466 0.3950534312 -0.0052399346 0.3951858209 -0.0053821041 -0.309582075 0.0395170525
40299760.0 -0.2997359124 0.0481924727 0.398519346 -0.0086341053 0.3981006279 -0.0089185841 -0.3069230615 0.0431391197
45299730.0 -0.2963156257 0.0515033872 0.401055859 -0.0129047227 0.4012062393 -0.0128566109 -0.3046280148 0.0462586167
50299700.0 -0.293264467 0.0541536965 0.4035461615 -0.0173058706 0.4035504634 -0.0174429777 -0.302172766 0.0493572293
55299670.0 -0.2909583486 0.0567678891 0.4054537025 -0.0217000794 0.4059177693 -0.0219335662 -0.3002506538 0.0520890745
60299640.0 -0.2881814562 0.0589677486 0.4071669003 -0.0270078543 0.4075068757 -0.0269421075 -0.2979734712 0.0546048083
65299610.0 -0.2861237185 0.061684162 0.4098146227 -0.0314499446 0.409263454 -0.0318635644 -0.2960321523 0.0571385782
70299580.0 -0.2837463621 0.0635934 0.4105424414 -0.0367852812 0.4105970471 -0.0371425086 -0.2945219497 0.0596521167
75299550.0 -0.2818251434 0.0656842558 0.4113530846 -0.0420013659 0.4113999936 -0.0424056657 -0.2928453543 0.0623488073
80299520.0 -0.2802893904 0.0679425537 0.4127911434 -0.0473172928 0.4127749125 -0.0474260755 -0.2917285894 0.0640341064
85299490.0 -0.2784214291 0.0698807821 0.4133094583 -0.0527348065 0.4128768918 -0.052870725 -0.2902075863 0.0663451522
90299460.0 -0.2770615361 0.0720034773 0.413683495 -0.0575299049 0.4134982653 -0.0577882167 -0.2885602088 0.0690014548
95299430.0 -0.2754709205 0.0741943966 0.4140349008 -0.0633700786 0.4141181117 -0.0628975783 -0.2876990906 0.071484166
100299400.0 -0.2745085713 0.0764609645 0.4138801457 -0.06817842 0.413899333 -0.068447023 -0.2868065468 0.0735249757
105299370.0 -0.2732498006 0.0784069884 0.4133431131 -0.0731760716 0.4137119541 -0.0736514871 -0.2852213418 0.0758949149
110299340.0 -0.271847386 0.0802184801 0.4133296667 -0.0784420343 0.4133417664 -0.0787752772 -0.2842079606 0.0783455947
115299310.0 -0.2709085957 0.0822367409 0.4129172671 -0.0832376691 0.4132006055 -0.0835885202 -0.2832218002 0.0803638415
120299280.0 -0.269924003 0.084671929 0.413001959 -0.0890354877 0.4129150671 -0.0890039823 -0.2822847691 0.0828608128
125299250.0 -0.2686793946 0.0868435553 0.4121941069 -0.0940791871 0.412695833 -0.0943830058 -0.281388893 0.0849166067
130299220.0 -0.2676261348 0.0892322044 0.4115620102 -0.0987300742 0.411557457 -0.0991842021 -0.28093151 0.0874614496
135299190.0 -0.2665719623 0.0909611329 0.4108445432 -0.1037524537 0.4104512751 -0.1041076206 -0.2795403702 0.0899020399
140299160.0 -0.2659370336 0.093706089 0.4100702424 -0.109165156 0.4103537364 -0.109299128 -0.2786112908 0.0922438779
145299130.0 -0.2649225426 0.0958837005 0.4094389003 -0.1143808872 0.409212322 -0.1139684833 -0.2780656934 0.0947173741
150299100.0 -0.2638514836 0.0981093989 0.4082333545 -0.1188792332 0.4081564489 -0.1191212714 -0.2774283137 0.0970269351
155299070.0 -0.2628994208 0.1011269044 0.4070972616 -0.1242137269 0.4073124174 -0.1240511207 -0.2762185864 0.0996530599
160299040.0 -0.2619771694 0.1029639556 0.405741151 -0.1285515486 0.4058636312 -0.128962145 -0.2749895476 0.1021976573
165299010.0 -0.2612102472 0.1052176893 0.404733831 -0.133696924 0.4046862814 -0.1339529285 -0.2741730141 0.1047338299
170298980.0 -0.2599236638 0.1081415515 0.4027759938 -0.1386497028 0.4033760858 -0.1382602862 -0.2733865815 0.1071784409
175298950.0 -0.2590294992 0.1105177267 0.4021915957 -0.1431995127 0.4022834821 -0.1434247801 -0.2722337106 0.1101306885
180298920.0 -0.2577539301 0.1126712145 0.4004538064 -0.1483492014 0.4004651028 -0.1481308754 -0.270993509 0.1122293322
185298890.0 -0.256813727 0.1155134826 0.3986663257 -0.1529258515 0.3990945912 -0.1525885735 -0.2701587385 0.1149849512
190298860.0 -0.2559630185 0.1178657847 0.3972273044 -0.1575714392 0.3974177925 -0.1573673246 -0.2690162602 0.117629893
195298830.0 -0.2547975404 0.1202243694 0.3954472598 -0.1615706971 0.3958062049 -0.1622380991 -0.2680428654 0.119885605
200298800.0 -0.253807251 0.1227128114 0.3942797534 -0.1659905379 0.39382487 -0.1664553955 -0.2667105081 0.1228176033
205298770.0 -0.2526876505 0.1254929496 0.392313851 -0.1711128677 0.3921023715 -0.1711210242 -0.2657074163 0.1252158391
210298740.0 -0.2512436814 0.1276112965 0.3905150302 -0.1760392949 0.3906006074 -0.1760329613 -0.2645217138 0.1281754427
215298710.0 -0.2504219866 0.1303821157 0.3885702232 -0.180297835 0.3885015292 -0.1801428677 -0.2637756522 0.1305010643
220298680.0 -0.248998632 0.1328519823 0.3863233028 -0.1846000069 0.3867413341 -0.1845140768 -0.2621057768 0.1335654575
225298650.0 -0.247814097 0.1355336036 0.3844864016 -0.1890774907 0.3845133983 -0.188756512 -0.2612477181 0.1361261603
230298620.0 -0.2468287351 0.1381703499 0.3826194584 -0.1936367104 0.382541305 -0.1937910793 -0.2593857759 0.1385569822
235298590.0 -0.2455162937 0.1405366296 0.380366052 -0.1978670359 0.3803641311 -0.1982305211 -0.258250216 0.1416224382
240298560.0 -0.2440995716 0.1432169592 0.3782494106 -0.2019580404 0.3783337898 -0.2021635179 -0.2569220112 0.1442239564
245298530.0 -0.2426148894 0.1455596379 0.3755973932 -0.2068493948 0.3758989257 -0.2065323271 -0.2556139998 0.1468327307
250298500.0 -0.2414375349 0.1481274893 0.3735399429 -0.2107351602 0.3739349101 -0.2105173252 -0.2539040066 0.149729894
255298470.0 -0.2403016229 0.1509983442 0.371498134 -0.2152947993 0.3711445064 -0.2147970608 -0.2525590593 0.1520001566
260298440.0 -0.2384271775 0.1536722297 0.3690996469 -0.21920976 0.3688482275 -0.2193440311 -0.2508575991 0.1549949081
265298410.0 -0.2371840687 0.1563547077 0.3667905692 -0.2239371843 0.3664421638 -0.2235285459 -0.2495035103 0.1575021351
270298380.0 -0.23558261 0.1587607177 0.3638596854 -0.2275519522 0.3639581837 -0.2280341475 -0.2478731521 0.1604419969
275298350.0 -0.2340712539 0.1612259 0.3613719137 -0.2319016193 0.3617785884 -0.2320193334 -0.2459401712 0.1630630933
280298320.0 -0.2323876798 0.1635993577 0.3588185043 -0.2355810835 0.3589431308 -0.2361477926 -0.2446799577 0.1658779442
285298290.0 -0.2308014687 0.1665440525 0.3563152908 -0.2400040587 0.3563415923 -0.2399456389 -0.2431441796 0.1683757785
290298260.0 -0.2292449739 0.1687704526 0.3538612016 -0.2438031014 0.353786749 -0.2438764079 -0.2408990368 0.1711003374
295298230.0 -0.2275348057 0.1714591485 0.3513053141 -0.2480985691 0.3508483336 -0.248100926 -0.2394692322 0.1738415003
300298200.0 -0.2255767224 0.1735833363 0.3478722104 -0.2518700129 0.3482112615 -0.2519852546 -0.2379849035 0.176547961
305298170.0 -0.223729811 0.1761877418 0.3456033962 -0.2564662463 0.3459182493 -0.2561720436 -0.2353675531 0.1792785997
310298140.0 -0.2222326081 0.1784683172 0.3429524436 -0.2600726355 0.3429764959 -0.260182312 -0.2338513804 0.1818629459
315298110.0 -0.220583518 0.1809118651 0.3394681238 -0.2637389101 0.3400920713 -0.2643124559 -0.2319315021 0.1844695579
320298080.0 -0.2189117092 0.1832256632 0.3372551305 -0.267581134 0.3370515538 -0.2677798955 -0.229886858 0.1869132927
325298050.0 -0.2171587492 0.1854173797 0.334416299 -0.2715297957 0.3341028329 -0.2717470852 -0.2280364351 0.1893176601
330298020.0 -0.2152679268 0.1879243226 0.3306971185 -0.2751889641 0.3305436664 -0.2756316015 -0.2264932666 0.1917038516
335297990.0 -0.2131664326 0.1904398147 0.3276475395 -0.279126718 0.3276327708 -0.2792271667 -0.2247276438 0.194362867
340297960.0 -0.2116361397 0.1929910255 0.324303735 -0.2827145801 0.3247500805 -0.2824866152 -0.2225958913 0.1969766141
345297930.0 -0.2100562073 0.1950774854 0.3213619126 -0.2862121618 0.3211395944 -0.2859480556 -0.2204891079 0.199488776
350297900.0 -0.2076981823 0.1976064963 0.3179108158 -0.2894901711 0.3185282539 -0.289903169 -0.218925388 0.2025002525
355297870.0 -0.2061237686 0.1999101848 0.3146389575 -0.2931306959 0.3146324786 -0.2933181704 -0.2165851144 0.2049867728
360297840.0 -0.2040024588 0.2021900348 0.3112494924 -0.2966499627 0.3113996597 -0.2968528883 -0.2145520343 0.2073109076
365297810.0 -0.2018438363 0.2045346145 0.3081167889 -0.2997394194 0.3082333959 -0.3001055089 -0.2122080967 0.2101549056
370297780.0 -0.1996215546 0.2067482423 0.3044207241 -0.3034897827 0.3047034403 -0.3035954713 -0.2103031304 0.2120109042
375297750.0 -0.1975772996 0.2095843487 0.3015067121 -0.3070635096 0.3014111543 -0.3071745936 -0.2080700993 0.214979757
380297720.0 -0.1951971659 0.2110862056 0.2978812285 -0.3098345624 0.2978164723 -0.309980466 -0.2057260033 0.217315737
385297690.0 -0.193337452 0.2135952516 0.2944606775 -0.3128823735 0.2944471929 -0.3130829319 -0.2038289676 0.2197360169
390297660.0 -0.1912376921 0.2157821837 0.2908639399 -0.3166935306 0.2912664053 -0.316706273 -0.2013131753 0.221994952
395297630.0 -0.1887672064 0.2179430978 0.2877814566 -0.319538066 0.2874276015 -0.3198008347 -0.1989435439 0.224658313
400297600.0 -0.1864938147 0.2202917655 0.2839639886 -0.3232064932 0.2839698864 -0.3229371574 -0.1968879463 0.2264253812
405297570.0 -0.184334359 0.2225762041 0.2804442277 -0.3260572128 0.2805463129 -0.3260015173 -0.1947485164 0.2290802609
410297540.0 -0.1816107432 0.2243363308 0.2762386504 -0.3290876038 0.2765285677 -0.3289130876 -0.1924451602 0.2312883711
415297510.0 -0.1796307374 0.2268635976 0.2732563208 -0.3319135646 0.2733010066 -0.3320339227 -0.1899519213 0.234022501
420297480.0 -0.1772559365 0.2285570485 0.2693910528 -0.3350730816 0.2692520887 -0.3350183482 -0.1875508999 0.2357794415
425297450.0 -0.174568732 0.2304353794 0.2652132601 -0.3378646045 0.2659631608 -0.3379451595 -0.1849029499 0.2383501621
430297420.0 -0.1723748747 0.2328068542 0.2619456592 -0.3407685937 0.2619302545 -0.3408760599 -0.1827276699 0.2405021261
435297390.0 -0.1699068009 0.234722413 0.2581570262 -0.3435217691 0.2580458156 -0.3435816212 -0.1797585456 0.2430023288
440297360.0 -0.1673509508 0.236732837 0.254003319 -0.3463879241 0.2538213601 -0.3463809752 -0.1774366028 0.2443155993
445297330.0 -0.1647220815 0.238704053 0.2500648106 -0.3493531958 0.2502890034 -0.3491414897 -0.1752514788 0.2466276291
450297300.0 -0.1622444583 0.240103149 0.2461770594 -0.3517357629 0.2466508189 -0.3519350957 -0.1729333312 0.2488200043
455297270.0 -0.1597518758 0.2424374283 0.2429887556 -0.3546342193 0.2428591435 -0.3542638402 -0.1697863726 0.250667006
460297240.0 -0.1575838813 0.244291969 0.2388427395 -0.3569430624 0.2384927279 -0.3571152443 -0.1673726458 0.2530550989
465297210.0 -0.1543627348 0.2456367148 0.2346433938 -0.359575427 0.234823737 -0.3596585721 -0.1651789115 0.2547671344
470297180.0 -0.1521073748 0.2477161342 0.2309188958 -0.362111078 0.2310409589 -0.3624170989 -0.1626618104 0.256600293
475297150.0 -0.1499040826 0.2492828944 0.2267438142 -0.3641251995 0.2268152086 -0.3640968765 -0.1594507718 0.2587462719
480297120.0 -0.1467224867 0.2507792944 0.2223409766 -0.3665894639 0.2230928158 -0.3669889944 -0.1571502909 0.260656774
485297090.0 -0.1441403194 0.2524711819 0.2188016755 -0.3693783777 0.2190423898 -0.3692308404 -0.1544629399 0.2621208477
490297060.0 -0.1416860281 0.2543021907 0.2147835755 -0.371227187 0.2146543541 -0.3717236978 -0.1516554784 0.2643501031
495297030.0 -0.1392564557 0.2560126401 0.2107780513 -0.3738895091 0.2103821415 -0.3739054486 -0.148898366 0.2657336054
500297000.0 -0.1360205474 0.257476501 0.206229474 -0.3762898297 0.2066535564 -0.3762208327 -0.146549598 0.2675866899
505296970.0 -0.1337431564 0.2591467278 0.2019334353 -0.3781225345 0.2023497282 -0.3780518956 -0.1438655111 0.2693852416
510296940.0 -0.130879068 0.2607515893 0.1984009817 -0.3805146091 0.1983606472 -0.3806652306 -0.140427661 0.2710873941
515296910.0 -0.1285803283 0.2625955751 0.1940745151 -0.3824897966 0.1941924495 -0.3824239634 -0.1381291317 0.2725458604
520296880.0 -0.1253126248 0.263594854 0.1896721128 -0.3845456523 0.1900174781 -0.3845308994 -0.1353473111 0.2745439267
525296850.0 -0.1228185782 0.2653313712 0.1855201912 -0.3862937324 0.1857929029 -0.3866325646 -0.1321303899 0.2758277462
530296820.0 -0.1199714846 0.2665640148 0.18134311 -0.3882012425 0.1809375 -0.3884550183 -0.1296807589 0.2770641146
535296790.0 -0.1168486954 0.2678691438 0.1771298177 -0.3900283022 0.1773786155 -0.3902850552 -0.1266678235 0.2788238936
540296760.0 -0.1141384174 0.2694916417 0.1730446399 -0.392475461 0.172637168 -0.3922605196 -0.1241444869 0.2805567907
545296730.0 -0.1112877211 0.2706838549 0.1680351813 -0.3939131267 0.1683572167 -0.3940419439 -0.1212340991 0.2817883057
550296700.0 -0.1086356496 0.2721176392 0.1641471692 -0.395939064 0.1647426911 -0.3962014079 -0.1183572233 0.2834959202
555296670.0 -0.1051591102 0.2732274257 0.1597918069 -0.3973485186 0.1599505983 -0.397757492 -0.1153967038 0.2850058558
560296640.0 -0.1026180306 0.27462161 0.1554463766 -0.3990864938 0.1559757035 -0.3991841456 -0.1123964762 0.2861614362
565296610.0 -0.1000681701 0.2758866111 0.1510025899 -0.4007466937 0.1511645741 -0.4009073181 -0.1098080601 0.2874085761
570296580.0 -0.0968393441 0.2768226142 0.146641093 -0.4022543247 0.1471182248 -0.4027244652 -0.1065987031 0.2889906457
575296550.0 -0.0941824379 0.2785970177 0.1423012435 -0.403852481 0.1427089918 -0.4035773213 -0.1032969438 0.2901926486
580296520.0 -0.0911153028 0.2794862909 0.1383146254 -0.4053065664 0.1380814879 -0.405444346 -0.1005153783 0.2914209352
585296490.0 -0.0880316335 0.2802772163 0.1333910825 -0.4070585875 0.133570524 -0.4068970783 -0.0976162106 0.2924724339
590296460.0 -0.0852150766 0.281484449 0.1291050455 -0.4082490629 0.1289815597 -0.4085505784 -0.0942548836 0.2936653607
595296430.0 -0.0823072428 0.2825837816 0.1249331407 -0.4097523032 0.1246469173 -0.4098299651 -0.0911687354 0.2947235551
600296400.0 -0.079300905 0.2834605493 0.1206244546 -0.4107649341 0.1207146514 -0.4109887468 -0.0881418431 0.2959550725
605296370.0 -0.0763765368 0.2846526265 0.1157118869 -0.4120586645 0.1157786366 -0.4122092346 -0.0853570587 0.2971206425
610296340.0 -0.073046761 0.28561489 0.111385759 -0.4134195373 0.1117198043 -0.4139349431 -0.0821857753 0.2983742215
615296310.0 -0.070213232 0.2866184566 0.1067340927 -0.4143344984 0.106972443 -0.4146222084 -0.0791422144 0.2993416761
620296280.0 -0.0672750045 0.2870755345 0.1023175426 -0.4154718855 0.1025405715 -0.415568025 -0.0763169392 0.2997372672
625296250.0 -0.063957226 0.2881719836 0.0976037759 -0.4169009898 0.0976794976 -0.4167703906 -0.0728227197 0.3011769884
630296220.0 -0.0610020272 0.2892101522 0.0929800019 -0.4179407118 0.0932350396 -0.4177497414 -0.069788588 0.30215313
635296190.0 -0.0581896061 0.2900594789 0.0885914713 -0.4182633951 0.0887976601 -0.4183726228 -0.0669368039 0.3028176594
640296160.0 -0.0550065751 0.2904064432 0.0844705528 -0.4194923663 0.0840884959 -0.4194815091 -0.0632493058 0.3034515746
645296130.0 -0.0521064603 0.2913976654 0.0797513965 -0.4205769911 0.0798024329 -0.4201389032 -0.0612306766 0.3040216401
650296100.0 -0.0489642434 0.2922614845 0.0751406393 -0.4210496275 0.0752029216 -0.4209507511 -0.0575527403 0.30523997
655296070.0 -0.046102266 0.292382326 0.0706150767 -0.4217902363 0.0705919906 -0.4218677925 -0.0544093229 0.3059210658
660296040.0 -0.0430437213 0.2935986416 0.0661572577 -0.4221300627 0.0660714477 -0.4227553106 -0.05127073 0.3068913661
665296010.0 -0.0397623547 0.2939075222 0.061577839 -0.4231155768 0.061723258 -0.4230917337 -0.0480946924 0.307759424
670295980.0 -0.0362107061 0.2946018608 0.0566826524 -0.4237344326 0.0573591076 -0.4237335673 -0.0452959484 0.3081069267
675295950.0 -0.0332611334 0.2952019603 0.0522086209 -0.4240099616 0.052475345 -0.4245352553 -0.0414153333 0.3088251496
680295920.0 -0.0304943566 0.2955126585 0.0475727208 -0.4250297842 0.0473991935 -0.4248083965 -0.0384780103 0.3093096277
685295890.0 -0.0270687657 0.2960083265 0.0430020728 -0.4254832098 0.0427595725 -0.4258209728 -0.0352751401 0.3100085669
690295860.0 -0.0237024594 0.2961806129 0.0382837655 -0.425531613 0.0381922398 -0.4255717262 -0.0317768738 0.3104405736
695295830.0 -0.0205189462 0.2967189363 0.0332715501 -0.4258822561 0.0335855209 -0.4262225994 -0.0291203258 0.3111320876
700295800.0 -0.0175748797 0.2971562714 0.0288025758 -0.4265333865 0.0287493504 -0.426314313 -0.0255357344 0.3110674856
705295770.0 -0.0140079368 0.297595621 0.0242015094 -0.426550824 0.0247399795 -0.4266392581 -0.0226942568 0.3115036283
710295740.0 -0.0112477533 0.2978596621 0.0197207263 -0.426666801 0.0201981941 -0.4267703978 -0.0198938303 0.3121803766
715295710.0 -0.0084061651 0.2980495668 0.0151876493 -0.426891028 0.0153491298 -0.4270195809 -0.0161379591 0.3122945418
720295680.0 -0.0051053907 0.2982417288 0.0104131222 -0.427101917 0.0108179587 -0.4271936584 -0.0127071881 0.3127539056
725295650.0 -0.001636152 0.29870696 0.0055863122 -0.4268368677 0.0059149879 -0.4271066526 -0.0095735251 0.3129946846
730295620.0 0.0013262039 0.298550525 0.0015045658 -0.4272099778 0.0015115395 -0.4270332324 -0.0060856106 0.312539277
735295590.0 0.0047803473 0.2986740191 -0.0030333566 -0.4269037761 -0.0031997261 -0.4274116879 -0.0028564374 0.313325847
740295560.0 0.0075793978 0.2991876363 -0.007826855 -0.426586781 -0.008111508 -0.4270306994 0.000284246 0.3134713467
745295530.0 0.0109985481 0.2990153909 -0.0126033472 -0.4267963648 -0.0122103988 -0.4269657853 0.0032057752 0.3136633981
750295500.0 0.0138211773 0.2987801975 -0.0170656753 -0.426346308 -0.0171217094 -0.426331435 0.00687781 0.3130879023
755295470.0 0.0175692277 0.2991189539 -0.0216024975 -0.42618121 -0.0214588819 -0.4265958975 0.0094013555 0.3139210376
760295440.0 0.0203027825 0.2991692956 -0.0265979628 -0.4257672698 -0.0264780558 -0.4264313158 0.0125648141 0.3139957185
765295410.0 0.0235570723 0.2987072085 -0.0302952043 -0.4255661942 -0.0309088044 -0.4258617738 0.0167194095 0.3139974829
770295380.0 0.026793141 0.2989054699 -0.0354885472 -0.4251510097 -0.0355259997 -0.4255281852 0.0199733228 0.313946852
775295350.0 0.0298310533 0.2989428557 -0.0401053972 -0.4247741363 -0.0399378219 -0.4246857184 0.0224005649 0.3134413879
780295320.0 0.0332936845 0.298346904 -0.0446163672 -0.4245431912 -0.0441872911 -0.4243802499 0.0257878666 0.3136288736
785295290.0 0.0364511707 0.2988571631 -0.0490817358 -0.4233326776 -0.0490304949 -0.4239397726 0.0291817326 0.3135076619
790295260.0 0.0391811777 0.298245456 -0.0541048829 -0.4232399788 -0.0537604334 -0.4234089283 0.0330108353 0.3131634593
795295230.0 0.0422018895 0.2980781378 -0.0578466766 -0.4223237143 -0.0579535729 -0.4225361799 0.0357983338 0.3134064888
800295200.0 0.0457992041 0.2975931912 -0.0634812825 -0.4220402118 -0.0631435326 -0.4222067881 0.0391507084 0.3127266962
805295170.0 0.0487485778 0.2970765987 -0.0674862115 -0.4207635302 -0.0678333854 -0.4209828519 0.0422223977 0.3125399896
810295140.0 0.0520269893 0.2967902067 -0.0720461054 -0.4202236977 -0.0720114297 -0.420805608 0.0458073761 0.3124995994
815295110.0 0.0552295174 0.2963669379 -0.0767536863 -0.4193010496 -0.0766546001 -0.4194770278 0.0488479158 0.3116738815
820295080.0 0.0584210147 0.2957247905 -0.0811130477 -0.4186387875 -0.0808675216 -0.4188528119 0.0520718908 0.3114906045
825295050.0 0.0617463755 0.295374282 -0.0857691099 -0.4173641849 -0.0856135144 -0.4174650737 0.0553145666 0.3110665679
830295020.0 0.0645855352 0.2952924422 -0.0900433626 -0.4165420729 -0.0905327935 -0.4166513621 0.0585454524 0.310469495
