!Created with skrf (http://scikit-rf.org).
# Hz S RI R 50.0 
!freq ReS11 ImS11 ReS21 ImS21 ReS12 ImS12 ReS22 ImS22
300000.0 -0.7812292384 -0.1131599429 -0.0003541408 -0.0006365644 -0.0004376187 0.0005295846 0.8590510413 -0.003080344
5299970.0 -0.785078899 -0.0063281525 5.0295e-06 -0.0001244806 -5.0757e-06 3.87974e-05 0.8592718833 -0.0095504236
10299940.0 -0.7877804522 -0.0041789657 -8.6462e-06 -3.14826e-05 -1.81274e-05 7.60478e-05 0.8587197779 -0.0185423346
15299910.0 -0.7935739036 -0.0023825931 1.18763e-05 0.0002046188 3.51455e-05 1.92754e-05 0.8574631795 -0.0273382267
20299880.0 -0.8000801671 0.0017885076 -3.73236e-05 -0.0001086097 7.88921e-05 -1.05338e-05 0.8573471365 -0.0353471519
25299850.0 -0.8066482267 0.0077656993 0.0001418087 9.87186e-05 -3.83168e-05 -3.75155e-05 0.8561110016 -0.0431337784
30299820.0 -0.8121318566 0.0153013841 0.0001381941 0.000128002 -0.0001718571 -3.50749e-05 0.8560063222 -0.0515842712
35299790.0 -0.817534806 0.0243641863 0.0002012576 -0.0001630826 1.97414e-05 -0.0001005528 0.8545872638 -0.0598789772
40299760.0 -0.8210876063 0.0333307724 0.0003386265 1.76476e-05 -4.85619e-05 0.0002225829 0.8537900071 -0.0678073576
45299730.0 -0.8242793272 0.042496047 -4.8495e-05 -4.95814e-05 8.1947e-05 -0.0001791717 0.8527696146 -0.0762905214
50299700.0 -0.8266931441 0.0531260574 -0.0001240477 -0.000171142 -2.28139e-05 9.65941e-05 0.8522092115 -0.0840292776
55299670.0 -0.8293026586 0.0625636139 -4.85687e-05 -0.0002974593 -9.6209e-06 3.51487e-05 0.8512961079 -0.0932117149
60299640.0 -0.830346717 0.0729652579 7.22903e-05 -0.0001465075 -6.71706e-05 -2.56781e-05 0.8502469704 -0.1007800531
65299610.0 -0.830645263 0.0830498902 0.0002142142 -1.90199e-05 8.37348e-05 3.20846e-05 0.8497607179 -0.1085534889
70299580.0 -0.8318614666 0.0929410824 -6.66961e-05 -2.69942e-05 0.0001415063 -9.49848e-05 0.8482185079 -0.1171979626
75299550.0 -0.8317679672 0.1035594624 7.93373e-05 -1.21616e-05 -0.0001717723 -4.13945e-05 0.8467762965 -0.1254970489
80299520.0 -0.831688188 0.1127137269 4.4021e-06 0.0001173655 -4.28342e-05 -4.21638e-05 0.8460249309 -0.1334585241
85299490.0 -0.8308480795 0.1221753481 -0.0001535364 1.60299e-05 -9.5969e-05 0.0001790712 0.8448397347 -0.1421067232
90299460.0 -0.8301378934 0.1323291912 9.22879e-05 6.31355e-05 6.66283e-05 -0.0001155022 0.8433826972 -0.1497324013
95299430.0 -0.829239487 0.1416476304 4.86067e-05 6.1762e-05 3.9191e-05 0.0001198898 0.8412273177 -0.1581517705
100299400.0 -0.8278971518 0.1508608796 -0.0001056417 -9.25469e-05 2.78545e-05 -4.70467e-05 0.8397400601 -0.1663823099
105299370.0 -0.8269007485 0.1602363517 -4.76742e-05 -0.0001639246 -2.42524e-05 -2.36127e-05 0.8381232576 -0.174342228
110299340.0 -0.8254540131 0.1689543438 6.68342e-05 6.7384e-06 3.15983e-05 -0.0001891857 0.8361505619 -0.1823844965
115299310.0 -0.8235617966 0.1780604973 -0.0001011953 3.05188e-05 -0.0001428937 -0.000134089 0.8348539645 -0.1908729021
120299280.0 -0.8217148639 0.1862219694 -1.35474e-05 -0.0001694111 0.0001324925 0.0001543416 0.8328701379 -0.1990894546
125299250.0 -0.8205123841 0.1955948293 -0.0001428893 9.63044e-05 -0.0001590972 -6.55752e-05 0.8306466544 -0.2066270797
130299220.0 -0.8185918751 0.2050968552 -1.17446e-05 5.4374e-06 0.000126017 -7.17398e-05 0.8289570521 -0.2148161416
135299190.0 -0.8163302722 0.2138022335 6.32508e-05 0.0001369124 -1.65103e-05 9.6557e-06 0.8270426665 -0.2224576449
140299160.0 -0.8150468936 0.2227527127 -0.0001147166 2.96867e-05 -4.66961e-05 -3.83156e-05 0.8247102761 -0.2306426834
145299130.0 -0.813112149 0.2319064465 -8.7423e-06 5.55987e-05 -8.80911e-05 3.80743e-05 0.8216882803 -0.2381153534
150299100.0 -0.8096610954 0.2405423827 -0.0001110301 -0.0001840392 -0.0001422116 0.0001878009 0.8197750835 -0.2467888643
155299070.0 -0.8078576039 0.24933927 -5.22572e-05 -3.12111e-05 4.7143e-06 6.74398e-05 0.817706785 -0.2543456429
160299040.0 -0.804938669 0.2578448566 5.29989e-05 5.78908e-05 0.0001838684 0.0001278388 0.8150555812 -0.2616856481
165299010.0 -0.8028472404 0.2661097656 0.000176486 0.000234067 -9.88799e-05 -9.0301e-06 0.8115711349 -0.2697964193
170298980.0 -0.8001904332 0.2750018886 9.39355e-05 6.7647e-05 6.82343e-05 5.05237e-05 0.8093130972 -0.2777909881
175298950.0 -0.7972357734 0.2842192781 -4.46822e-05 4.77674e-05 -8.68387e-05 -0.0002197407 0.8067638079 -0.2858360337
180298920.0 -0.7944931781 0.2925831108 -4.14742e-05 -1.07344e-05 1.9676e-06 8.92688e-05 0.8037554726 -0.2937068531
185298890.0 -0.791438712 0.3005234363 -1.33554e-05 0.0001700447 3.66874e-05 4.57738e-05 0.8005725514 -0.3013458611
190298860.0 -0.7883036035 0.3099442435 8.95797e-05 -6.09592e-05 -4.14657e-05 8.26933e-05 0.7976830344 -0.308662654
195298830.0 -0.7851607556 0.3174958312 4.35971e-05 -8.80687e-05 8.20996e-05 7.28215e-05 0.7949840786 -0.3164649464
200298800.0 -0.7811233931 0.3254564689 2.59797e-05 8.21277e-05 9.5499e-05 -0.0001539525 0.7920065816 -0.3245033118
205298770.0 -0.7780839614 0.3338791787 0.0002124309 -0.0001323375 -0.0001608345 -4.3842e-06 0.7883109872 -0.3318471308
210298740.0 -0.7750940632 0.3422511941 0.0001334218 -0.000242433 0.0002504441 0.00019826 0.7851563252 -0.339356888
215298710.0 -0.7722481999 0.3504252835 -0.0001759688 -7.89575e-05 -0.0001438146 9.33678e-05 0.7816515657 -0.3469167826
220298680.0 -0.7676736735 0.3579240013 -8.49819e-05 -7.29239e-05 -2.66896e-05 -1.48604e-05 0.7783000253 -0.3546873159
225298650.0 -0.7642344206 0.3662840597 8.27617e-05 -3.03188e-05 -0.0001683928 -5.51975e-05 0.77465333 -0.3620409816
230298620.0 -0.7602774868 0.3745260541 4.1451e-05 0.0002351984 8.16335e-05 -0.000117094 0.7713173001 -0.369023384
235298590.0 -0.7561243959 0.3828755335 1.87612e-05 -8.60924e-05 7.8143e-06 -7.32904e-05 0.7674086525 -0.3771556822
240298560.0 -0.7520175138 0.3915444538 9.86509e-05 -0.0001528226 -7.61825e-05 -0.0001286827 0.7639154267 -0.384992143
245298530.0 -0.7486721712 0.3984954127 -0.0001286384 0.0001353158 0.0002307429 -0.0003046716 0.760191776 -0.3920129066
250298500.0 -0.7440164145 0.4065730476 4.4198e-06 -0.0001416591 7.8397e-06 1.00014e-05 0.7560351885 -0.3989728751
255298470.0 -0.7394041614 0.4130783964 -0.0001640144 -0.0002110788 -5.4068e-06 1.22283e-05 0.7525454016 -0.4066610563
260298440.0 -0.7358068333 0.4213246863 4.63688e-05 -0.0002012339 -0.0001391158 -0.0002108236 0.7482119162 -0.4137263685
265298410.0 -0.7313010253 0.4296480957 0.0002033712 -3.10996e-05 7.56221e-05 0.0002727491 0.7444264959 -0.420720286
270298380.0 -0.7269846864 0.4371896404 -3.57308e-05 -0.0001025337 5.60031e-05 9.64895e-05 0.7406434532 -0.4277834559
275298350.0 -0.7224611119 0.4446536854 1.28535e-05 -0.0001362122 4.04087e-05 -5.80949e-05 0.7362578858 -0.4353590265
280298320.0 -0.7170952781 0.4522355836 1.63679e-05 2.84493e-05 -0.0001019428 0.0001061272 0.7327064649 -0.4423755925
285298290.0 -0.7128373612 0.4597030931 -0.0001337594 -4.52317e-05 -6.77212e-05 5.48198e-05 0.7285115493 -0.4497520996
290298260.0 -0.7082309372 0.4670180456 0.0002433241 4.34264e-05 7.73803e-05 0.0001216454 0.7244362258 -0.4564456747
295298230.0 -0.7025492844 0.473330108 5.90769e-05 -3.81147e-05 -8.87761e-05 -0.000204672 0.7199720747 -0.4635661812
300298200.0 -0.697772552 0.4812463838 -0.0001888613 0.0001166734 3.2625e-06 3.92078e-05 0.7158882084 -0.4712083851
305298170.0 -0.692621864 0.4882954592 1.43791e-05 0.0002442472 1.16738e-05 6.08158e-05 0.711938077 -0.4787370883
310298140.0 -0.6873676488 0.4962306301 3.72653e-05 -4.06441e-05 -8.6509e-05 -7.54317e-05 0.7066567699 -0.4868369019
315298110.0 -0.6829635265 0.5031129529 9.07282e-05 0.000169345 8.46976e-05 8.8684e-06 0.7009262738 -0.4933761533
320298080.0 -0.6776925161 0.5101497015 -1.73825e-05 0.0001904843 6.81207e-05 -0.0002000766 0.6959818182 -0.5010504485
325298050.0 -0.6724120825 0.5169592065 5.84178e-05 0.0001205054 -0.0002041318 0.0001678062 0.690563488 -0.5083088374
330298020.0 -0.6665503667 0.5239903558 3.71719e-05 -0.000104928 1.37684e-05 4.72419e-05 0.6838870352 -0.5144926856
335297990.0 -0.6607344396 0.530094821 7.92274e-05 3.73136e-05 0.0001033889 -4.31071e-05 0.6790340216 -0.5201433335
340297960.0 -0.6559033954 0.5370960142 -3.096e-07 0.0001019131 0.0001137175 -1.3834e-05 0.6739797563 -0.5270311655
345297930.0 -0.6500421183 0.5440627061 -0.0001250835 -0.0001464072 0.0001731118 -0.0001316623 0.6677063226 -0.5340084134
350297900.0 -0.6444410641 0.5505913236 -0.000106715 0.0001060089 1.70268e-05 0.0001032763 0.6624842278 -0.5390917059
355297870.0 -0.6386390958 0.5579256867 -0.0001206926 -5.85021e-05 1.15104e-05 0.0001442683 0.6569865932 -0.5457044238
360297840.0 -0.6329889195 0.5632412477 0.0001324244 0.0001734788 0.0001695198 -5.49629e-05 0.6519025421 -0.552129482
365297810.0 -0.6272443748 0.5704457814 4.15759e-05 -0.0001092722 -0.0001383495 -0.0001128037 0.6468507012 -0.558524578
370297780.0 -0.6212144523 0.5760753368 7.57582e-05 -0.0001585923 -8.25165e-05 -0.0001578368 0.6405581806 -0.5642758377
375297750.0 -0.6153160176 0.5828919652 -0.000122399 6.02035e-05 -1.953e-07 1.0265e-06 0.6353957838 -0.5704468705
380297720.0 -0.6087636861 0.5883879703 -2.23206e-05 5.92427e-05 -6.79241e-05 -0.0001579874 0.6289227068 -0.5766023027
385297690.0 -0.6032865315 0.594932073 0.0001355029 0.0001524019 0.0001833757 0.0001839409 0.6239456076 -0.5822016944
390297660.0 -0.5968465869 0.6010744964 8.70739e-05 0.0001836521 0.0001210203 3.40366e-05 0.6178217718 -0.5888644382
395297630.0 -0.5909682005 0.6073533283 6.52531e-05 0.0001194412 -0.0001049238 -1.17504e-05 0.612321152 -0.5940757627
400297600.0 -0.5841838551 0.6137742981 0.0005356362 -6.27917e-05 4.44615e-05 9.82451e-05 0.6067486896 -0.6003336063
405297570.0 -0.5781934379 0.6191980223 -8.9793e-05 0.0001519551 -0.0001366695 -1.0283e-05 0.6004737474 -0.6065182757
410297540.0 -0.5711162652 0.6249536881 7.26883e-05 6.97201e-05 -9.9396e-05 -0.0001535387 0.5943137613 -0.6112582971
415297510.0 -0.5649166274 0.6310307306 -8.62367e-05 0.0002089862 -2.45047e-05 -6.3758e-06 0.588009354 -0.6171190243
420297480.0 -0.5596753934 0.636754547 -0.0003423609 -0.0001209388 7.92674e-05 3.9672e-05 0.582666567 -0.6228488429
425297450.0 -0.5518045195 0.6425981801 -6.80924e-05 0.0002104627 0.0002016711 -5.90953e-05 0.576476434 -0.6290173089
430297420.0 -0.5455197171 0.6482133586 6.1613e-06 -1.45825e-05 0.0002040674 -6.61153e-05 0.5701891684 -0.6350961825
435297390.0 -0.5388911207 0.6531006963 0.0001087789 0.0002444104 -0.0002586397 0.0001766686 0.5641316513 -0.6398078664
440297360.0 -0.5324095154 0.6589170517 7.46118e-05 0.0001201971 8.47385e-05 6.43149e-05 0.5576802066 -0.6448210483
445297330.0 -0.5254025919 0.6639081564 -1.55237e-05 -0.000137538 9.18583e-05 1.24101e-05 0.551525988 -0.6508760909
450297300.0 -0.518221809 0.669177601 7.49085e-05 8.43823e-05 -0.0002392554 9.44981e-05 0.5445972486 -0.6552682483
455297270.0 -0.5117814606 0.6741730191 5.60229e-05 3.6936e-05 8.16356e-05 4.85611e-05 0.5380763675 -0.6608112104
460297240.0 -0.5050866874 0.6791905495 2.23142e-05 -1.18623e-05 0.0001039693 -6.39522e-05 0.5314863266 -0.6656632004
465297210.0 -0.4980552711 0.6847846958 -1.06867e-05 0.0001243121 1.45882e-05 9.13709e-05 0.5248292499 -0.6710449595
470297180.0 -0.4905188339 0.6894894528 -4.39693e-05 0.0001779655 -0.0001451949 3.83437e-05 0.5184879828 -0.6758742059
475297150.0 -0.4835787461 0.6939998788 -0.0002101572 4.44634e-05 -4.67739e-05 0.0001128302 0.5120594842 -0.6815816725
480297120.0 -0.4770524407 0.6990669251 4.18942e-05 -7.20524e-05 -9.77432e-05 5.08728e-05 0.505597409 -0.6855581681
485297090.0 -0.4693952808 0.7036443302 -0.0002345216 -9.54417e-05 -0.0001094929 -1.78928e-05 0.4983496972 -0.6902963465
490297060.0 -0.462340075 0.708268682 3.69444e-05 0.00012596 -2.6499e-05 3.53581e-05 0.4910771649 -0.6962138157
495297030.0 -0.4553582668 0.7127492436 0.0001792949 0.0002098271 -0.000103998 3.9231e-05 0.4845619921 -0.6999527535
500297000.0 -0.4480586251 0.7181019008 -0.0002464045 -9.64114e-05 -0.0001696736 1.83141e-05 0.477859853 -0.7047767358
505296970.0 -0.4401379363 0.7220676423 0.0002016631 -8.31774e-05 -0.0001807084 5.19497e-05 0.4707387385 -0.709459398
510296940.0 -0.4334709629 0.7263827791 6.12742e-05 -0.0001431514 -0.0001735497 4.68111e-05 0.4630915367 -0.7140508712
515296910.0 -0.4248698794 0.7302009054 -0.0001160461 -7.00022e-05 -4.50015e-05 0.0001420434 0.4569437578 -0.7176942761
520296880.0 -0.4181903873 0.734961491 -0.0001003853 -4.52968e-05 6.36771e-05 4.06339e-05 0.4492766781 -0.72258073
525296850.0 -0.4107047462 0.7389893309 5.47896e-05 0.0002159751 -0.0001143427 0.0001738959 0.442300131 -0.7266819329
530296820.0 -0.403498342 0.7430487985 -0.0001811627 9.28539e-05 -0.0001055551 -4.50441e-05 0.4354677949 -0.7307124183
535296790.0 -0.3958391662 0.7469978649 -6.82225e-05 -3.35712e-05 9.92109e-05 0.0001592591 0.4279364246 -0.7352627151
540296760.0 -0.3883886207 0.7504821064 0.0001346341 -7.31546e-05 -4.69851e-05 -2.43697e-05 0.4205376115 -0.739081266
545296730.0 -0.3813153566 0.7551687145 7.77653e-05 -0.000109615 1.00873e-05 9.21886e-05 0.4137082303 -0.7437082515
550296700.0 -0.3734477448 0.7586904212 0.0002271527 -0.000252261 -9.71117e-05 -0.0001252766 0.4056558482 -0.747859102
555296670.0 -0.3655761712 0.7613447242 0.000234249 -4.78e-06 -0.0001231556 -3.5461e-05 0.398708003 -0.7508785063
560296640.0 -0.3581711919 0.7654882546 -0.0001329721 0.0002081341 -6.91188e-05 8.92638e-05 0.3910259476 -0.7550732624
565296610.0 -0.3500591454 0.769345149 -0.0001576709 0.0002948061 5.14046e-05 6.45734e-05 0.3830500332 -0.7583938531
570296580.0 -0.3431382531 0.7717257494 9.1012e-06 -2.04984e-05 -0.0001234391 -7.29471e-05 0.3759782391 -0.7625269863
575296550.0 -0.3344865372 0.7763532442 0.0001628529 0.0001661218 3.76554e-05 3.424e-06 0.3684552825 -0.7659681575
580296520.0 -0.3263460646 0.7798722329 7.40242e-05 1.80496e-05 -0.0001102073 0.0002251485 0.3607794338 -0.7694988311
585296490.0 -0.3191673506 0.7825642627 9.18267e-05 6.21205e-05 -8.85452e-05 -9.16222e-05 0.3538127759 -0.7731661997
590296460.0 -0.3110638963 0.7859714817 -0.0001530629 3.80341e-05 -4.29504e-05 1.9066e-06 0.345596855 -0.7757037169
595296430.0 -0.3030580759 0.7877540127 -0.0001299231 0.0001566736 -5.93382e-05 0.0001429974 0.3382086923 -0.7792927568
600296400.0 -0.2954735389 0.7917649889 2.66857e-05 -0.0002433839 -0.0001126325 -6.55493e-05 0.3307737565 -0.783195088
605296370.0 -0.2877804193 0.7945385554 -0.0001577745 -8.25572e-05 3.7595e-05 -0.00021141 0.3229204216 -0.785514706
610296340.0 -0.2792897107 0.7971146484 0.0001785718 0.000121377 -6.16702e-05 0.0002358009 0.3153318085 -0.7887096077
615296310.0 -0.2706605605 0.7996728855 0.0001216094 8.60932e-05 0.0002443799 -3.58343e-05 0.3075232188 -0.7918258513
620296280.0 -0.2633363059 0.8021670335 0.000160271 -8.13539e-05 4.14564e-05 -1.92463e-05 0.2996688204 -0.7941249474
625296250.0 -0.2553172028 0.8051600429 1.07635e-05 -0.0002310253 -0.0003244954 -0.0001088375 0.2918969578 -0.7969637218
630296220.0 -0.2464723224 0.8079725792 0.0002243606 0.0001094996 9.45068e-05 -5.37378e-05 0.2833071106 -0.7993291516
635296190.0 -0.2388348384 0.8101842296 -0.0001608949 0.0002184648 -8.50783e-05 0.0001162778 0.2763177799 -0.802259246
640296160.0 -0.2311547694 0.8127176999 0.0001028177 -4.7257e-06 -9.23044e-05 2.055e-06 0.267172566 -0.8049509737
645296130.0 -0.2230484205 0.8145893498 -1.84855e-05 0.0001395559 7.7075e-05 8.28926e-05 0.2602609727 -0.8075152522
650296100.0 -0.2146903515 0.8165769686 4.5903e-05 6.78407e-05 0.0001181625 -0.0001164988 0.2522345085 -0.8103002874
655296070.0 -0.2068256334 0.8193307884 -8.81084e-05 -1.41496e-05 1.27496e-05 -2.9228e-06 0.2448798351 -0.8118673586
660296040.0 -0.1985389442 0.8208348744 0.0001584255 2.04666e-05 0.0001737067 -9.37803e-05 0.236789041 -0.8144226733
665296010.0 -0.19001959 0.8221116375 0.0001543177 -4.71545e-05 2.08002e-05 -0.0001123831 0.2277891928 -0.8163257339
670295980.0 -0.1824051053 0.8243141327 9.08673e-05 -0.0001023926 7.10244e-05 5.00188e-05 0.219668764 -0.8185409644
675295950.0 -0.1741848412 0.8255990666 4.61651e-05 4.10114e-05 1.26148e-05 -0.0001328153 0.2113721034 -0.8201808559
680295920.0 -0.1654825335 0.8278091501 -0.0002073212 4.118e-05 -1.00506e-05 0.000106632 0.2035824603 -0.8221775007
685295890.0 -0.156548112 0.8301471483 0.0001393093 0.0001245885 -9.10048e-05 -0.0001529575 0.1958125115 -0.8240114303
690295860.0 -0.1491997725 0.8304406479 -0.0003353667 0.0001807658 0.0001811393 -0.0001548381 0.1868345314 -0.8259530999
695295830.0 -0.1413606581 0.8323392169 3.57211e-05 0.0001842224 -3.88659e-05 -2.348e-06 0.1788442038 -0.8274165338
700295800.0 -0.1320790201 0.8336128732 0.0001559047 0.0001412447 -0.0001141549 7.30059e-05 0.1703845055 -0.8298609827
705295770.0 -0.1248451044 0.835176717 4.30258e-05 4.6404e-05 5.96498e-05 -3.10929e-05 0.1621676555 -0.8301819748
710295740.0 -0.1158715178 0.8363284025 0.0002120685 -0.000201548 -0.0001129123 -3.99951e-05 0.153518602 -0.8324147359
715295710.0 -0.1077814079 0.8372273701 -0.000274508 0.0001853245 0.0001248672 -0.0001187297 0.1461487066 -0.8336645362
720295680.0 -0.0996302068 0.8385739647 -0.0001349327 -0.0001011209 -0.0001104125 -2.70156e-05 0.1374842219 -0.8349833778
725295650.0 -0.0912471695 0.8396352208 -6.01931e-05 4.65239e-05 -0.0001110087 -3.19388e-05 0.1293845357 -0.8352259438
730295620.0 -0.0823801677 0.840332715 0.0001171618 -1.64111e-05 1.32975e-05 6.4965e-05 0.1205754797 -0.8371699232
735295590.0 -0.0750160076 0.8410642046 -0.0001140793 -5.66368e-05 -8.8203e-05 -0.0001057925 0.1125744627 -0.8385268958
740295560.0 -0.0665161475 0.8422976893 -0.0002362313 0.0002782607 0.0001372752 0.0001631326 0.1040792928 -0.8387068374
745295530.0 -0.0577718537 0.8424285815 4.54293e-05 -0.0001201998 0.0001198625 7.56314e-05 0.0959539577 -0.8396660194
750295500.0 -0.0491186752 0.8428362899 0.0001454986 2.13473e-05 -0.000238995 -0.0001718021 0.0874340795 -0.8406244242
755295470.0 -0.0413339507 0.8430546925 8.67951e-05 0.0001164834 -5.68378e-05 -3.13686e-05 0.0795578655 -0.8420622603
760295440.0 -0.0332077479 0.8433321995 -0.0001018849 0.0002082544 -0.0001012273 -0.0002216434 0.071642202 -0.8421795033
765295410.0 -0.0247599173 0.8438201833 1.43318e-05 0.0002495259 2.32608e-05 2.89671e-05 0.063152334 -0.8423621879
770295380.0 -0.0158562985 0.8436336485 0.000154872 0.00010481 -2.84138e-05 7.19402e-05 0.0544348106 -0.8435962728
775295350.0 -0.0084832662 0.8437579937 -0.0002162196 0.0002266103 2.77689e-05 -8.46341e-05 0.045493598 -0.843923379
780295320.0 0.000480304 0.8441382709 -0.0001411669 0.0001731002 1.91531e-05 9.89875e-05 0.0379794592 -0.84360602
785295290.0 0.008244442 0.8439765092 -0.0001137541 -6.1598e-05 -0.0001412405 0.0001048592 0.0295487624 -0.8438951159
790295260.0 0.0175696009 0.843850076 9.35827e-05 -4.9199e-06 3.88623e-05 -8.01602e-05 0.0218821137 -0.8441325361
795295230.0 0.0254984318 0.8434309091 -0.0002089946 -0.0001104112 0.0001381623 5.1184e-06 0.0130986188 -0.8440731056
800295200.0 0.0334914926 0.8431654951 7.4172e-06 5.94552e-05 0.0001881127 0.0001209625 0.0041822798 -0.8437574523
805295170.0 0.04238325 0.843289943 -2.66048e-05 -6.8848e-05 -9.49961e-05 1.14994e-05 -0.0036675242 -0.8431197843
810295140.0 0.0507119795 0.8428543847 -5.7881e-05 -0.000346491 4.70891e-05 3.98914e-05 -0.0115654519 -0.8437461423
815295110.0 0.0588562712 0.8417846347 6.61657e-05 0.0001821374 9.14101e-05 0.0002209946 -0.0201818369 -0.8432852662
820295080.0 0.0669847876 0.8411226705 -1.17761e-05 2.21487e-05 -0.0001319274 5.39936e-05 -0.0286735116 -0.8428491598
825295050.0 0.0762505319 0.8401177446 -1.23701e-05 -0.0002598543 0.0001119336 8.66008e-05 -0.0368822826 -0.8424526333
830295020.0 0.083911874 0.8396419631 0.0001397331 -3.71975e-05 4.06996e-05 0.0001908468 -0.0440281329 -0.8416173917
835294990.0 0.091827098 0.8385956586 0.0002170996 9.3315e-06 -6.02945e-05 0.0001778642 -0.0535529649 -0.8416036274
840294960.0 0.1000686979 0.8385163927 0.0001802978 6.24133e-05 -0.0001588848 -7.86476e-05 -0.0618901298 -0.8406153746
845294930.0 0.1084510111 0.8364224124 2.0377e-05 0.0001285009 -0.0001133788 0.000155855 -0.0703269156 -0.8388652151
