!Created with skrf (http://scikit-rf.org).
# Hz S RI R 50.0 
!freq ReS11 ImS11 ReS21 ImS21 ReS12 ImS12 ReS22 ImS22
300000.0 -0.2344040844 -0.1305020778 0.4672991516 0.08460649 0.4686438268 0.0850468905 -0.2365299338 -0.1294239897
5299970.0 -0.2419541781 0.0052938671 0.4752212216 0.0059908658 0.4753342446 0.0058370299 -0.2443628682 0.0047529485
10299940.0 -0.2388304173 0.0187644491 0.477685281 0.0067913202 0.4769643702 0.0068037945 -0.2409268959 0.0173019603
15299910.0 -0.2336334076 0.0289313976 0.4805695498 0.0080412867 0.4808762754 0.008280653 -0.2368809461 0.0266161358
20299880.0 -0.2287195139 0.0369808498 0.4851808325 0.0079809635 0.4856160715 0.008155693 -0.2320313241 0.0339277695
25299850.0 -0.2227138289 0.0437039301 0.4909637534 0.0075643644 0.490701165 0.0073130483 -0.2268542624 0.039929647
30299820.0 -0.2169959417 0.0487286089 0.4960196558 0.0050135233 0.4961577278 0.0050779072 -0.2216413728 0.0451122034
35299790.0 -0.2112488799 0.0529965656 0.5008967931 0.001799073 0.5012002941 0.0020420129 -0.2168494874 0.049232414
40299760.0 -0.2061630434 0.0560263859 0.5065374755 -0.001904687 0.5064832104 -0.0019144714 -0.2122844192 0.0520750349
45299730.0 -0.2011175143 0.0586776105 0.5111600547 -0.0066480876 0.5114524246 -0.006891702 -0.2068441907 0.0547231342
50299700.0 -0.1961077369 0.06076436 0.5153688187 -0.0126365657 0.5155686185 -0.0126012366 -0.202686143 0.0571755172
55299670.0 -0.1919790611 0.0623261368 0.5188434196 -0.0179896551 0.5189050051 -0.0187267515 -0.1990134004 0.0585424552
60299640.0 -0.1877667865 0.0641836938 0.5222092205 -0.0246659896 0.5223162998 -0.0248333244 -0.1952586221 0.059682378
65299610.0 -0.1841157604 0.0652213438 0.5257502871 -0.0306287883 0.5255543618 -0.03119048 -0.1919514736 0.060723852
70299580.0 -0.1807047527 0.0656543445 0.5272924064 -0.03725642 0.5278016511 -0.0377119588 -0.1891232603 0.0618757685
75299550.0 -0.1779831097 0.0667445666 0.5296263552 -0.044568854 0.5295617038 -0.0444734165 -0.1860933443 0.0625521393
80299520.0 -0.1753836483 0.0677401878 0.5315979408 -0.0511939468 0.5318450771 -0.0512745561 -0.183891484 0.0635942022
85299490.0 -0.1725710636 0.0682135481 0.5327378361 -0.0583371149 0.5327310503 -0.0580677541 -0.1815732319 0.0639215564
90299460.0 -0.1702982458 0.0690665059 0.5333001136 -0.0651651652 0.5336075139 -0.0652373937 -0.179217004 0.064930596
95299430.0 -0.1679558968 0.06977138 0.5343390994 -0.072057374 0.5347622972 -0.0723297837 -0.177541813 0.0656522664
100299400.0 -0.1659647509 0.0702193607 0.5350092733 -0.0785900012 0.5349107162 -0.07875057 -0.1760598311 0.0663971777
105299370.0 -0.1642854338 0.070813927 0.534993907 -0.0853764014 0.5356902341 -0.0858391086 -0.1737819336 0.0667132972
110299340.0 -0.1623599325 0.071661043 0.5352044845 -0.0921731181 0.5358003623 -0.0921393975 -0.1726858501 0.0673071018
115299310.0 -0.1609541895 0.0724838953 0.5353837544 -0.0992001332 0.5353982573 -0.0992681001 -0.1714476946 0.0685158151
120299280.0 -0.1591400445 0.0734170413 0.5349673202 -0.1068263955 0.535136789 -0.1063959794 -0.1700530928 0.0684566717
125299250.0 -0.1580801209 0.0739333837 0.5346463621 -0.1126721909 0.534851198 -0.1122852591 -0.1690203439 0.0696781496
130299220.0 -0.1566463566 0.0746616521 0.534355047 -0.1198236452 0.5340442523 -0.12029954 -0.1678526366 0.0706838889
135299190.0 -0.1557397395 0.0758755094 0.5339061538 -0.1258365104 0.5340488308 -0.1264428387 -0.1668874053 0.0712119127
140299160.0 -0.1542213427 0.0766727753 0.5329479713 -0.13291072 0.5328502924 -0.1326474233 -0.1662561632 0.071960248
145299130.0 -0.1533103204 0.0780237982 0.5317831645 -0.1393331665 0.5321103591 -0.139554129 -0.1652203737 0.0727992197
150299100.0 -0.1518810942 0.0788268356 0.5302912464 -0.1460601558 0.5307136572 -0.1461482328 -0.1643122814 0.0741224991
155299070.0 -0.1509623876 0.0798573169 0.5290084021 -0.1523779595 0.5298175718 -0.1525923006 -0.1630367426 0.0746482221
160299040.0 -0.1499706159 0.0812632673 0.5281758336 -0.1589324643 0.527971329 -0.1593891477 -0.1629890319 0.0758997417
165299010.0 -0.1486795302 0.0822827974 0.5265924637 -0.1651872769 0.5264746057 -0.1652260346 -0.1616624564 0.0766378553
170298980.0 -0.1480358682 0.0835647428 0.5248759201 -0.1719998063 0.5253016348 -0.1718312786 -0.1611029126 0.0776613321
175298950.0 -0.1468695572 0.0846037298 0.5236873473 -0.1776146217 0.5239119621 -0.1782285292 -0.1601554074 0.0790887386
180298920.0 -0.1460233836 0.0859394361 0.5218231514 -0.1844623959 0.5216229475 -0.1846874961 -0.1592880011 0.08051223
185298890.0 -0.1450708125 0.0872659342 0.5202221012 -0.1905855992 0.5199981759 -0.1903966799 -0.1585281957 0.0812507963
190298860.0 -0.1436175774 0.0886595335 0.517236115 -0.1966834343 0.5184079645 -0.1965060482 -0.1579255472 0.0824281129
195298830.0 -0.1430870091 0.0902332004 0.5160678717 -0.2025901457 0.5162706802 -0.2028391509 -0.1573853322 0.0835466308
200298800.0 -0.1420312232 0.0910099255 0.514256581 -0.2092864436 0.5139564823 -0.2090788111 -0.1565329492 0.0847722167
205298770.0 -0.1412369334 0.0923031247 0.5114742087 -0.2146156854 0.5120139673 -0.2145548354 -0.1557113405 0.0860412891
210298740.0 -0.1400650112 0.093954154 0.5095190597 -0.2209273121 0.5093071284 -0.2208599634 -0.1550093239 0.0870015562
215298710.0 -0.1392175011 0.0955091204 0.5070748751 -0.2268687974 0.5071613377 -0.2269931966 -0.1541970917 0.0881750565
220298680.0 -0.1380495971 0.0969156765 0.5042701213 -0.2326713626 0.5046078514 -0.2327677344 -0.1535086222 0.0893902557
225298650.0 -0.1374805961 0.0982321092 0.5020514882 -0.2387452619 0.5023452314 -0.2378379436 -0.1527115937 0.0908786614
230298620.0 -0.1361215839 0.0999786936 0.4998696268 -0.2443615574 0.5001703149 -0.2443909202 -0.1521202289 0.0918225076
235298590.0 -0.1356892579 0.1012106529 0.4972586791 -0.2505928655 0.4971884011 -0.2502729147 -0.1508408982 0.0934642552
240298560.0 -0.1345172263 0.1028618986 0.494469739 -0.2555529753 0.4946162031 -0.2555667535 -0.1504085259 0.0943684515
245298530.0 -0.1334221185 0.1039522533 0.4915421173 -0.2616513611 0.491866557 -0.2616677631 -0.1496076148 0.0961390616
250298500.0 -0.1322741391 0.1054394349 0.4888812593 -0.2671768532 0.4888257672 -0.267053121 -0.1490201596 0.0974291561
255298470.0 -0.1312136786 0.1072834807 0.4865093126 -0.272292176 0.4864889964 -0.2729117414 -0.147817265 0.0988275133
260298440.0 -0.1300128251 0.1082705379 0.482869858 -0.2775017195 0.4832436165 -0.2780287996 -0.1475485655 0.1000274303
265298410.0 -0.1293559697 0.1100638194 0.4801886029 -0.2837755168 0.4798819718 -0.2840989544 -0.1460613278 0.1009398103
270298380.0 -0.1284308641 0.1111664308 0.4770124659 -0.288895895 0.4769122544 -0.2888653446 -0.1453595023 0.1027471091
275298350.0 -0.1269644605 0.1129999844 0.4737736424 -0.2942721701 0.4738294065 -0.2941452267 -0.1445815337 0.1039567624
280298320.0 -0.1262670273 0.1141830138 0.4706444426 -0.2990762637 0.4710026582 -0.3000225043 -0.143731812 0.1052112459
285298290.0 -0.1247064731 0.1156641305 0.4671928978 -0.30489423 0.4673961869 -0.3050424929 -0.1428448187 0.1068557325
290298260.0 -0.1238285166 0.117400075 0.4650121432 -0.3103592156 0.4643586378 -0.3103976353 -0.141797115 0.1081331132
295298230.0 -0.1226436586 0.1184480767 0.4606574844 -0.3159469109 0.460961653 -0.3161504094 -0.1406301761 0.1093629093
300298200.0 -0.121255332 0.1202420755 0.4573378018 -0.3209989398 0.4573530997 -0.320761272 -0.139740496 0.110600056
305298170.0 -0.1201208686 0.1211058509 0.4541667342 -0.3263216651 0.4544173387 -0.3264453002 -0.138796375 0.1118016335
310298140.0 -0.1186336124 0.1224730619 0.4506364177 -0.331314778 0.4506094264 -0.3311184211 -0.1375489091 0.1128126213
315298110.0 -0.1177351875 0.1237342168 0.4471026765 -0.3366940411 0.4471833293 -0.3368370793 -0.1366450312 0.1143222703
320298080.0 -0.1162823702 0.1251338524 0.4423189876 -0.3417705499 0.4435735567 -0.3419229791 -0.1359152473 0.1154988209
325298050.0 -0.1157950557 0.1260616543 0.4388881272 -0.3467165672 0.4399546707 -0.3466229264 -0.134659491 0.1166534236
330298020.0 -0.1148571572 0.1275696718 0.4350447169 -0.3518358373 0.435462536 -0.3519407227 -0.1340489989 0.1177572974
335297990.0 -0.1131162468 0.128806794 0.4313544826 -0.3568282831 0.431985133 -0.3566164478 -0.1328833275 0.1192749666
340297960.0 -0.1122961926 0.1304341124 0.4271056009 -0.3615270898 0.4270547563 -0.3615521957 -0.1318549877 0.1210280263
345297930.0 -0.111231073 0.1316148818 0.4231303302 -0.3664300975 0.4231207182 -0.3660687914 -0.1310926384 0.1219378793
350297900.0 -0.1101640034 0.1330104707 0.4192531503 -0.3705179958 0.4195340531 -0.3707733314 -0.1301307252 0.1231453092
355297870.0 -0.1088741457 0.1342190425 0.4151718936 -0.3748544008 0.4151500556 -0.3752870235 -0.1287956802 0.1248356241
360297840.0 -0.1074042604 0.1357293322 0.4105702423 -0.3795422161 0.4112150826 -0.3801595479 -0.1277062795 0.1263421171
365297810.0 -0.1061680764 0.1370740039 0.4064339775 -0.3840699348 0.4069108506 -0.3845408363 -0.1272445905 0.1275582927
370297780.0 -0.1046796309 0.1383185813 0.4021533838 -0.3886131465 0.402370785 -0.388572447 -0.1257597326 0.1289988583
375297750.0 -0.1034724963 0.1398707258 0.3982988379 -0.3930249734 0.3982710708 -0.3933035465 -0.1241958002 0.1299178901
380297720.0 -0.1023761381 0.1410746182 0.3943265545 -0.3975723407 0.3938084001 -0.3976158245 -0.1231779067 0.131503052
385297690.0 -0.1005658282 0.1421863964 0.3893567957 -0.4016972105 0.3900574553 -0.4022580165 -0.1222338423 0.133120795
390297660.0 -0.0991311367 0.1431838301 0.3852330251 -0.4056853051 0.3852118513 -0.4059428745 -0.1205622053 0.1341070919
395297630.0 -0.0974493461 0.1446882834 0.3806233826 -0.4099705284 0.380441506 -0.4099064326 -0.1196112893 0.1352377004
400297600.0 -0.096324342 0.1457711363 0.3763460393 -0.4142485856 0.3764228704 -0.4142927376 -0.1181863766 0.1370228989
405297570.0 -0.0946707694 0.1464268612 0.3714877792 -0.4184096927 0.371898616 -0.4185296568 -0.1167517368 0.1383687177
410297540.0 -0.0933345046 0.1480607381 0.3673949041 -0.4222477358 0.3673207168 -0.4224487191 -0.1158232489 0.1396302461
415297510.0 -0.0918749221 0.14916017 0.3625025188 -0.4259473395 0.3626927102 -0.4266196362 -0.1138625384 0.1406720104
420297480.0 -0.0901634912 0.1500101441 0.3574016296 -0.4305937074 0.3580722013 -0.4307265872 -0.1126264513 0.1423612823
425297450.0 -0.0880843174 0.1512961684 0.3531553501 -0.4342177176 0.3527313905 -0.4341425602 -0.1113956866 0.142923065
430297420.0 -0.0871698157 0.1522167171 0.3491114732 -0.4383073845 0.3487971515 -0.4376966249 -0.1097958399 0.1443106556
435297390.0 -0.0851533377 0.1533529438 0.3430386589 -0.442644659 0.3436455646 -0.4420072038 -0.1092892556 0.1459716961
440297360.0 -0.0833531704 0.1544658085 0.3382921565 -0.4455932417 0.3381014085 -0.4459441168 -0.1072583576 0.146802797
445297330.0 -0.0818266813 0.1551357435 0.333922114 -0.4490907209 0.3335295676 -0.4498822029 -0.1054994457 0.1485035176
450297300.0 -0.0801394138 0.1562793164 0.3288625883 -0.452904871 0.329149153 -0.4526307591 -0.1043288905 0.1491820923
455297270.0 -0.0786416162 0.1573736737 0.3235871679 -0.4561676959 0.3244309082 -0.4566028218 -0.1030853491 0.1507486856
460297240.0 -0.0768278678 0.1584236386 0.3188181801 -0.460529604 0.31913211 -0.4603670572 -0.1014668559 0.1514785348
465297210.0 -0.0748033815 0.1591938897 0.3136867964 -0.463674797 0.3132217998 -0.4639435849 -0.0996284374 0.1532225951
470297180.0 -0.073050907 0.1601309892 0.3082820939 -0.4664985772 0.3089392376 -0.466963856 -0.0983573569 0.1538285234
475297150.0 -0.0717420169 0.1612707894 0.3034159812 -0.470073283 0.3037795954 -0.4704185735 -0.0967276107 0.154905988
480297120.0 -0.0691750046 0.1625230167 0.2981567832 -0.4732933888 0.2985156607 -0.4735857589 -0.0955851352 0.1561362143
485297090.0 -0.0672925028 0.1626504842 0.2929486211 -0.4766223374 0.2932714199 -0.476401671 -0.0942080834 0.1572715257
490297060.0 -0.065273369 0.1639439741 0.2875690105 -0.4802475346 0.2879988674 -0.48026252 -0.0925017178 0.1582713723
495297030.0 -0.0639956148 0.1642968989 0.2827669303 -0.4828130298 0.2829486269 -0.4831022202 -0.0906902664 0.1589938845
500297000.0 -0.0623147492 0.1653128506 0.2778114473 -0.4859403975 0.2774249828 -0.4861794764 -0.0892630186 0.1602978888
505296970.0 -0.0598584589 0.1662995262 0.2724276871 -0.4895124385 0.272519132 -0.4890217361 -0.0877317556 0.1610904537
510296940.0 -0.0581640536 0.1667180199 0.2670371453 -0.4923662332 0.2670773478 -0.4927033253 -0.0856780245 0.1627963325
515296910.0 -0.0563740838 0.1678066123 0.2611242622 -0.4948830853 0.261104994 -0.4946571661 -0.0842755985 0.1629779883
520296880.0 -0.0542178061 0.1685564739 0.2559851307 -0.4976683342 0.2555867122 -0.4975886433 -0.0820679241 0.1642649289
525296850.0 -0.0521489595 0.1692801746 0.2505771356 -0.5001707824 0.2503726154 -0.5001817778 -0.0809657607 0.1648645307
530296820.0 -0.0506545696 0.1699527415 0.2449581832 -0.503505174 0.2453276891 -0.502968721 -0.0794601141 0.1658579546
535296790.0 -0.0480080319 0.1707870812 0.239688701 -0.5053555121 0.2394969244 -0.5057760504 -0.0773110643 0.1670113966
540296760.0 -0.0463677927 0.1714611838 0.2338794592 -0.5081423268 0.2338445458 -0.5077236062 -0.0758991488 0.1673198064
545296730.0 -0.0448737258 0.1723089155 0.2286284496 -0.5104300447 0.2281548008 -0.5104020647 -0.074088769 0.1687026054
550296700.0 -0.0423689382 0.1729501981 0.2231947243 -0.5132102218 0.2227040542 -0.5130076664 -0.0725798241 0.1692069477
555296670.0 -0.0403917304 0.1734682805 0.21733273 -0.5155135582 0.2176745971 -0.5150117062 -0.070941818 0.1694299084
560296640.0 -0.0379002631 0.173792642 0.2114688076 -0.5177500353 0.2119196284 -0.5176494226 -0.0691308392 0.1708400157
565296610.0 -0.0363990503 0.1745073575 0.2062541858 -0.5201297651 0.2062359322 -0.5194907946 -0.0671469654 0.1715728211
570296580.0 -0.0342816145 0.1752256069 0.1999514026 -0.5220249329 0.2003632138 -0.5221228895 -0.0658358353 0.1722859681
575296550.0 -0.0318786884 0.1756904137 0.1948564965 -0.5242839821 0.1947308718 -0.5243359712 -0.0640633731 0.1732581786
580296520.0 -0.0301855459 0.1766848884 0.189058344 -0.526287157 0.1889938407 -0.5262195585 -0.062519753 0.1738210824
585296490.0 -0.0280384703 0.1768266947 0.183380159 -0.5280588603 0.1833440922 -0.5279998604 -0.0605415439 0.174814371
590296460.0 -0.0253353788 0.1774206868 0.1774862487 -0.5302227889 0.1778265098 -0.5304848325 -0.0592690175 0.1755690788
595296430.0 -0.0235756711 0.1779617939 0.1712285638 -0.5321111763 0.1715523497 -0.5319114229 -0.0569496544 0.1758686045
600296400.0 -0.0217199669 0.1784211429 0.165725454 -0.5336369567 0.1660543707 -0.5336930567 -0.0552498998 0.1767440093
605296370.0 -0.0201081153 0.178943999 0.1604869772 -0.5347301253 0.1599663875 -0.5357256758 -0.0536030548 0.177493992
610296340.0 -0.0174786468 0.1795760819 0.1546129142 -0.5368074716 0.1545361067 -0.5369422018 -0.0519037435 0.1780931469
615296310.0 -0.0152554824 0.1799016273 0.1483934211 -0.5389678583 0.148297767 -0.5388454787 -0.049999067 0.1789070759
620296280.0 -0.013496815 0.1807034139 0.1426942063 -0.5404076008 0.1423343078 -0.5402583487 -0.048541763 0.1794681394
625296250.0 -0.0116123183 0.1804035198 0.1367348253 -0.5419279806 0.1367144095 -0.5420937541 -0.0470469289 0.1801780653
630296220.0 -0.0095187943 0.1812145075 0.1305493899 -0.5434275714 0.1306711508 -0.5433080379 -0.044778305 0.1806401416
635296190.0 -0.0076656823 0.1818358712 0.1250351923 -0.5444768892 0.1249144935 -0.5443123448 -0.0431449432 0.1811232486
640296160.0 -0.0053558748 0.1819610671 0.1189315837 -0.546049828 0.1187825186 -0.5461110728 -0.0416141462 0.1816155438
645296130.0 -0.0030942047 0.1825762895 0.1131969137 -0.5470462773 0.1132628808 -0.5468400724 -0.0397910666 0.1816545132
650296100.0 -0.0009807005 0.1823485072 0.1072990841 -0.5484437778 0.1071162609 -0.5486519819 -0.0372685677 0.182757162
655296070.0 0.0007392685 0.1829487616 0.1010632613 -0.549580273 0.1012443838 -0.5488136519 -0.0365083722 0.1833912752
660296040.0 0.0027903394 0.1831811254 0.0956588422 -0.5502956527 0.0954161108 -0.5506793404 -0.0344865331 0.1833601908
665296010.0 0.0050844633 0.1832056555 0.0889790124 -0.5509354043 0.0889184953 -0.5511022668 -0.0324106009 0.1841751765
670295980.0 0.0070041083 0.1837828052 0.083419996 -0.5524650586 0.0832168902 -0.5519581501 -0.0311568076 0.1844590614
675295950.0 0.0088688694 0.1837224592 0.0775720054 -0.5527773983 0.0776216296 -0.5532951716 -0.0290556172 0.185027577
680295920.0 0.010801809 0.1841948169 0.0717457337 -0.5542395803 0.0716470117 -0.5537553132 -0.0271982769 0.1852712908
685295890.0 0.0131486436 0.1843043975 0.0655611194 -0.554680734 0.0656116134 -0.5548032558 -0.0256545343 0.1860787234
690295860.0 0.0150854789 0.1844489808 0.0596056013 -0.5549022743 0.059414286 -0.5553035944 -0.0235064459 0.1860721965
695295830.0 0.017275581 0.1843382935 0.054022384 -0.5556771839 0.0536391106 -0.5554258427 -0.0218651185 0.1867493113
700295800.0 0.0191969783 0.1848094495 0.047775276 -0.5564339378 0.0477876813 -0.5562122805 -0.0197915629 0.1869824944
705295770.0 0.0210876625 0.1849900922 0.0412179242 -0.5568598529 0.0419610631 -0.5569719338 -0.0183318854 0.1876906521
710295740.0 0.0230742533 0.1845009046 0.035886226 -0.5570182438 0.0356516562 -0.5575625465 -0.0159866705 0.1880016303
715295710.0 0.025150277 0.1847929402 0.0298187069 -0.5575517013 0.0296084394 -0.557610495 -0.0145495983 0.1879645621
720295680.0 0.0275364249 0.1849360808 0.0234011157 -0.5573814654 0.0234318488 -0.5578875918 -0.0127923915 0.1882549862
725295650.0 0.0289618142 0.1846489489 0.0178610286 -0.5577884654 0.0179278332 -0.5579975591 -0.011215163 0.1890475661
730295620.0 0.030696868 0.1845284176 0.0117120228 -0.5578057247 0.0114359505 -0.557706645 -0.0089846063 0.1894307609
735295590.0 0.0331473973 0.1845773986 0.0057385254 -0.5581914807 0.0056094662 -0.5580034822 -0.007295889 0.1890113394
740295560.0 0.0347788857 0.1843256395 4.37286e-05 -0.558343959 -0.000221851 -0.5586733665 -0.0055676021 0.1896961219
745295530.0 0.0367058017 0.1846671197 -0.0057657738 -0.5577916522 -0.0057227291 -0.5581578467 -0.0042767107 0.1896188998
750295500.0 0.0385413741 0.184167502 -0.0119587014 -0.5578788722 -0.0124837889 -0.5578661418 -0.0021331442 0.1897974285
755295470.0 0.0403847911 0.1841891034 -0.0175018256 -0.5580344553 -0.0180507137 -0.5581737424 0.0001640687 0.1904205683
760295440.0 0.042332103 0.1843010471 -0.0244121497 -0.5573892 -0.0239691141 -0.557113898 0.0019829206 0.1897417621
765295410.0 0.0448434549 0.1837542766 -0.0305607355 -0.5571624598 -0.0301842961 -0.557332056 0.0036564378 0.1907960567
770295380.0 0.0463393697 0.1836137187 -0.0356649609 -0.5562890927 -0.0359939851 -0.55704768 0.0050086889 0.1905372314
775295350.0 0.0484148398 0.1830203838 -0.0418418376 -0.5563706135 -0.0418536161 -0.5560820887 0.0073141656 0.1906950541
780295320.0 0.0502239724 0.1830699529 -0.0477752405 -0.5557670776 -0.0480198089 -0.5559976884 0.0094073212 0.1908018504
785295290.0 0.0521590301 0.1823306029 -0.0537230562 -0.5554918161 -0.053716455 -0.555622879 0.0107801435 0.1910792373
790295260.0 0.054173444 0.1818610351 -0.0599132478 -0.5546345608 -0.0594163456 -0.5550853981 0.0126873342 0.191468898
795295230.0 0.0561282411 0.1814825013 -0.0657539152 -0.5542818703 -0.0660734905 -0.5542796902 0.0144677661 0.1906400036
800295200.0 0.0575995447 0.1813008955 -0.0714012334 -0.5526697075 -0.0717057117 -0.5533716035 0.0163889113 0.1910457084
805295170.0 0.0594903923 0.1808369982 -0.0774596963 -0.5523146167 -0.0773924092 -0.5525570846 0.0187106181 0.1910275901
810295140.0 0.061753021 0.1806847579 -0.0830886148 -0.5515407876 -0.083610152 -0.5517304115 0.0204424168 0.1911665247
815295110.0 0.0634880396 0.18002673 -0.0895093716 -0.5504739745 -0.0887361053 -0.550870382 0.0217938741 0.1909186271
820295080.0 0.0653265923 0.1794556167 -0.0947162428 -0.5492699618 -0.0951046617 -0.5499653341 0.023283805 0.191649691
825295050.0 0.0671697997 0.1788286208 -0.1013257021 -0.5489674606 -0.101276266 -0.5483457013 0.0262400275 0.1911693971
830295020.0 0.0690017714 0.1782441923 -0.1070141535 -0.5474469395 -0.1068983733 -0.5473829875 0.0275904284 0.190693723
