!Created with skrf (http://scikit-rf.org).
# Hz S RI R 50.0 
!freq ReS11 ImS11 ReS21 ImS21 ReS12 ImS12 ReS22 ImS22
300000.0 -0.2351980679 -0.1112849619 0.4659434196 0.0731735494 0.470276471 0.075103534 -0.2363592032 -0.1167513316
5299970.0 -0.2409656685 0.0069333857 0.4753962862 0.0057529134 0.4746264384 0.0061812002 -0.2446125689 0.005283468
10299940.0 -0.237213078 0.0197328784 0.4772731159 0.0064028144 0.4772526741 0.0063328118 -0.2419236457 0.0175193133
15299910.0 -0.2329228851 0.0296335474 0.4803180514 0.0074501383 0.4804439102 0.0077415251 -0.2373648737 0.0265348209
20299880.0 -0.22767887 0.0378123359 0.485473071 0.0079920197 0.4853926291 0.0081693447 -0.2329843195 0.0340285699
25299850.0 -0.2217902571 0.044315739 0.4902917099 0.0065603601 0.490816891 0.007161884 -0.2279261779 0.0400630975
30299820.0 -0.215837758 0.0494441859 0.496417932 0.0051127452 0.495702169 0.0051783366 -0.2225491616 0.0448871424
35299790.0 -0.2098857765 0.0538946318 0.5012378836 0.0018628506 0.5014995093 0.0018892338 -0.2172247541 0.0485485506
40299760.0 -0.2044964406 0.0571033103 0.5062216456 -0.0018868898 0.5064243233 -0.0022481804 -0.2128512892 0.0518886064
45299730.0 -0.1996148825 0.0599935193 0.5111634882 -0.0070786134 0.5113017457 -0.0072163581 -0.208082026 0.054275539
50299700.0 -0.1945685642 0.0618904834 0.515129232 -0.0125818167 0.5151452949 -0.0126092983 -0.203536183 0.0565360885
55299670.0 -0.1905860507 0.0639221125 0.5184260015 -0.0186571382 0.5188556551 -0.0185068214 -0.2000861894 0.0579160415
60299640.0 -0.1863781682 0.0648676787 0.5219666711 -0.0249749044 0.5220648921 -0.0251278952 -0.1962645456 0.0596966939
65299610.0 -0.1831880156 0.066444639 0.5251358819 -0.0307383255 0.5253398383 -0.0311783086 -0.1929473391 0.060887344
70299580.0 -0.1795860066 0.06695994 0.5272468859 -0.037633407 0.5274237761 -0.0376017299 -0.1902191581 0.0615114594
75299550.0 -0.1764490331 0.068253233 0.5291004088 -0.0445341513 0.5292152128 -0.0447341767 -0.1869942268 0.062631045
80299520.0 -0.1740333311 0.0690867313 0.5314056121 -0.0514155961 0.5314499877 -0.0513415545 -0.1847944907 0.0629324699
85299490.0 -0.1715018981 0.0694674946 0.5327183573 -0.0582739221 0.5324363835 -0.0583565458 -0.1828572888 0.0634386409
90299460.0 -0.1693694689 0.0702558746 0.5332949204 -0.0647931935 0.5338141568 -0.0653113124 -0.1801145747 0.0642587482
95299430.0 -0.1672376248 0.0712287824 0.534518552 -0.0724684697 0.5346004865 -0.0719859256 -0.178654456 0.0651535126
100299400.0 -0.1654466997 0.0715764379 0.534407934 -0.0787032571 0.5349710639 -0.0793329282 -0.1768409184 0.0657652832
105299370.0 -0.1633988628 0.0724248444 0.53464394 -0.0859114481 0.5350731399 -0.0858249931 -0.1750807994 0.0662123444
110299340.0 -0.1619969209 0.0729521688 0.5349794985 -0.0925964085 0.535356955 -0.0929445712 -0.1737413753 0.066934892
115299310.0 -0.1602812488 0.0736113368 0.53510642 -0.0995401819 0.5353913102 -0.0991961136 -0.1721363876 0.0670475657
120299280.0 -0.1591148268 0.0743944735 0.5350540835 -0.1063435321 0.5350321341 -0.1062824005 -0.1713052049 0.0679194033
125299250.0 -0.1579580249 0.0752161971 0.5345117986 -0.1130313993 0.5349291365 -0.1131154562 -0.1699501199 0.0684017898
130299220.0 -0.1566409752 0.0763043073 0.5338390603 -0.1199497105 0.533825242 -0.1202084989 -0.1687361588 0.0695636936
135299190.0 -0.1554118553 0.0766136349 0.5333042157 -0.1259092733 0.5331430576 -0.1263695671 -0.1682041264 0.0701325223
140299160.0 -0.1545137973 0.0780644155 0.5324303709 -0.1328427358 0.5326664303 -0.1329335709 -0.1665713091 0.0711388654
145299130.0 -0.1531332104 0.0791373006 0.5318936542 -0.139564584 0.5314649996 -0.1390486802 -0.1662588381 0.0717585692
150299100.0 -0.1518398096 0.079772982 0.530681091 -0.1462261146 0.5307714486 -0.1460970761 -0.1650848794 0.0724714418
155299070.0 -0.1512724037 0.08125943 0.5292633805 -0.1529544681 0.5292816244 -0.1528047783 -0.1644980019 0.0735971654
160299040.0 -0.1501386601 0.0820226109 0.5275796096 -0.1587416989 0.5278152621 -0.1592603742 -0.1634178032 0.0747887551
165299010.0 -0.1493708215 0.0832376212 0.5263927692 -0.1657626587 0.5266608208 -0.165796698 -0.1628205509 0.0755738195
170298980.0 -0.1484321347 0.0844998552 0.5241982352 -0.1715472328 0.5251209504 -0.1720848054 -0.1618991521 0.0764948436
175298950.0 -0.1473084587 0.0857841736 0.5237679941 -0.1779160327 0.523651945 -0.1781642727 -0.1612198508 0.077564722
180298920.0 -0.1462663316 0.0866043274 0.5217306525 -0.1845175636 0.5216234264 -0.1839559829 -0.160228441 0.078652206
185298890.0 -0.1453790065 0.0878775545 0.5192124605 -0.1910565797 0.519780006 -0.1906450926 -0.1595692572 0.0799348694
190298860.0 -0.1443613912 0.0890383261 0.5174697877 -0.1967968408 0.5179901447 -0.1970533963 -0.1583968482 0.0808415522
195298830.0 -0.1435335591 0.0902159763 0.5157698807 -0.2028481066 0.5161836897 -0.203203691 -0.1579514166 0.0816669395
200298800.0 -0.1424783274 0.09160854 0.513805137 -0.2082931484 0.513922879 -0.2089769354 -0.1570605885 0.083450184
205298770.0 -0.1415993041 0.0931911784 0.5119105066 -0.2148275594 0.5118126034 -0.215143119 -0.1564114993 0.0839226197
210298740.0 -0.1409628991 0.0940679863 0.5093345877 -0.2211346484 0.5095519128 -0.2212312056 -0.1555068617 0.085355011
215298710.0 -0.1395905023 0.0954950855 0.5070585823 -0.2266852882 0.5069889936 -0.2269545985 -0.1550325402 0.0866480318
220298680.0 -0.1388310201 0.0971421696 0.5044256974 -0.2327835055 0.5046767375 -0.2329961871 -0.1540247584 0.0880985415
225298650.0 -0.137567488 0.0984035605 0.502003297 -0.2381694908 0.5014337655 -0.2386263081 -0.1535794815 0.0893351149
230298620.0 -0.1369443292 0.0998915705 0.4998386261 -0.2443372021 0.4997166723 -0.2445319071 -0.1523461999 0.0904618807
235298590.0 -0.1356928575 0.1011056358 0.4967733309 -0.24991667 0.4973257607 -0.2505051577 -0.1516116295 0.0914709356
240298560.0 -0.1350411956 0.1023988503 0.4945213453 -0.2557277622 0.4944199508 -0.255746654 -0.150744394 0.0931443643
245298530.0 -0.1336739094 0.1038955152 0.4908722035 -0.2617380054 0.4914534013 -0.2616775893 -0.1499841371 0.094732857
250298500.0 -0.1330318095 0.1052377046 0.4885228441 -0.2666595397 0.4890815036 -0.2663760211 -0.1488142743 0.0958731774
255298470.0 -0.1318434719 0.1069640653 0.4857338257 -0.2728817818 0.4858115013 -0.2725409371 -0.1481378336 0.0968291752
260298440.0 -0.13073429 0.1082476628 0.4829180879 -0.2780902131 0.4828490458 -0.2779265723 -0.1470691284 0.0983547975
265298410.0 -0.1296272404 0.1098132689 0.479884255 -0.2842664018 0.479875545 -0.2836092717 -0.1463756476 0.0995318582
270298380.0 -0.1282774972 0.110929341 0.4761388931 -0.2893553188 0.4768633584 -0.2894214169 -0.1452656641 0.1012465716
275298350.0 -0.1274034759 0.1124197222 0.4731857925 -0.2949410824 0.4740100047 -0.2946320608 -0.1444942814 0.1024282057
280298320.0 -0.1263527219 0.1140054626 0.4705020297 -0.2996875043 0.4702494126 -0.3002119673 -0.1430939359 0.1039520756
285298290.0 -0.1248232506 0.1157267549 0.4672332374 -0.3053597464 0.4671433316 -0.3051280204 -0.1425982069 0.1054099664
290298260.0 -0.1239159104 0.1170497948 0.4643044882 -0.3108744441 0.4638257099 -0.3105661379 -0.141095084 0.1066396299
295298230.0 -0.1223775867 0.1180351628 0.4603504512 -0.3159833325 0.4601858384 -0.3156251199 -0.1403602367 0.1080846605
300298200.0 -0.1208351776 0.1194638237 0.4568040538 -0.3213181187 0.4569330794 -0.3212439245 -0.1393751315 0.1095070092
305298170.0 -0.1195872525 0.1208338501 0.4537035541 -0.3268998558 0.4538818632 -0.3265493257 -0.1379512241 0.111124013
310298140.0 -0.1181644209 0.1216870449 0.4499123744 -0.3315709783 0.4502814098 -0.3319327148 -0.1369526146 0.1123452445
315298110.0 -0.1173159901 0.1233034958 0.4465189074 -0.3367031192 0.4465192896 -0.3368779501 -0.1358515054 0.1134271878
320298080.0 -0.1158354897 0.1246645817 0.4427337033 -0.3420815409 0.4430017874 -0.342083024 -0.1349322955 0.1145933521
325298050.0 -0.1146186109 0.1254595303 0.4391079953 -0.34733157 0.4392917989 -0.347440165 -0.133728557 0.1158959575
330298020.0 -0.1133775989 0.1269183079 0.4341904238 -0.3518960541 0.4346706391 -0.3522982763 -0.1327843143 0.1173297451
335297990.0 -0.1120372435 0.1282827873 0.4307289464 -0.3570468361 0.4305601841 -0.3569917249 -0.1320945137 0.1185473251
340297960.0 -0.1114465463 0.1295628232 0.425926332 -0.3618241985 0.4267150292 -0.361435019 -0.1312643879 0.1199903461
345297930.0 -0.1099213352 0.1315480159 0.4227208694 -0.3662406453 0.4221652407 -0.3658094969 -0.1297941159 0.1212027049
350297900.0 -0.1083210355 0.1325342406 0.418629522 -0.3702294458 0.4186013868 -0.3710805637 -0.1289701799 0.1231446788
355297870.0 -0.1071989592 0.1338299694 0.4139507648 -0.3753651345 0.4140617451 -0.3758069007 -0.1279294843 0.1245438134
360297840.0 -0.1057640158 0.1352333686 0.410362594 -0.3801258724 0.4102272199 -0.3800653357 -0.1267268618 0.1260514786
365297810.0 -0.1039085128 0.1363245059 0.4054411562 -0.3843223676 0.4059753583 -0.3847336947 -0.1255317761 0.1275568585
370297780.0 -0.102422199 0.1376412036 0.4015558017 -0.3887547738 0.401679457 -0.3894076731 -0.1242080034 0.1288235968
375297750.0 -0.1010400667 0.1392974302 0.3975949683 -0.3936606319 0.3975623865 -0.3938225651 -0.1231720933 0.1303351911
380297720.0 -0.0995143217 0.140244447 0.3929594607 -0.3972113154 0.3928332198 -0.3977197437 -0.121368063 0.1317915096
385297690.0 -0.0981170034 0.1415893724 0.3884462787 -0.4015309893 0.3886794499 -0.4018428048 -0.1208548684 0.1332269713
390297660.0 -0.0965597218 0.1429622241 0.3838966365 -0.4064499755 0.3839838951 -0.4062694882 -0.1192156631 0.1343724453
395297630.0 -0.09482732 0.1439421019 0.3800561175 -0.4104376326 0.3797737208 -0.4104924605 -0.1181329386 0.1360273846
400297600.0 -0.0934949099 0.1453071947 0.3751934736 -0.4145956605 0.3755908092 -0.4147797548 -0.1172098788 0.1369988718
405297570.0 -0.0917496464 0.1466645333 0.3703179848 -0.4188462261 0.3709447324 -0.418889463 -0.1156420661 0.1387851928
410297540.0 -0.0900734804 0.1476285073 0.3656349441 -0.4228954097 0.3659383053 -0.4228062677 -0.1145020344 0.1400027037
415297510.0 -0.0884123099 0.1491224756 0.3615223247 -0.4264901483 0.3612317356 -0.4267800171 -0.1135666895 0.1415528497
420297480.0 -0.0867514045 0.1494147138 0.3560068386 -0.4307497772 0.3564756064 -0.4306325374 -0.1114927463 0.1423354749
425297450.0 -0.0847225235 0.1507530084 0.3517063548 -0.4344701345 0.352301864 -0.4345545639 -0.1104006814 0.1439748748
430297420.0 -0.0833568066 0.1521322833 0.3469068225 -0.4385856772 0.3469658573 -0.4385637388 -0.1092611002 0.1452006107
435297390.0 -0.0815472216 0.153088572 0.3425122309 -0.4422394127 0.3423930306 -0.442143391 -0.1078378305 0.1465542622
440297360.0 -0.0798042973 0.1538098762 0.336889871 -0.4456220436 0.3368817017 -0.4460794377 -0.106524927 0.1473571161
445297330.0 -0.0778341328 0.1549753273 0.3321947714 -0.4499679643 0.3323655621 -0.4496189188 -0.1049581232 0.1488730127
450297300.0 -0.0762979122 0.1560597122 0.327296943 -0.4533489146 0.3277319154 -0.4531497746 -0.1036702023 0.1498734223
455297270.0 -0.0745815721 0.1571937777 0.3226313327 -0.4566025626 0.3229130238 -0.4567368632 -0.1023568813 0.1512877939
460297240.0 -0.0733312194 0.1581802919 0.3177186417 -0.4598373831 0.3172586805 -0.4603690469 -0.100448912 0.1530390618
465297210.0 -0.0711134813 0.1587599096 0.3124714288 -0.4635621131 0.3129252704 -0.4636646333 -0.0996701156 0.1535860727
470297180.0 -0.0693599328 0.1598946832 0.3074246504 -0.4666234523 0.3080952136 -0.4669133726 -0.098615406 0.1547089271
475297150.0 -0.0681108393 0.1605871889 0.3020764401 -0.4698618911 0.302579524 -0.4695740877 -0.0965154289 0.1558730396
480297120.0 -0.065686044 0.161231279 0.2969393402 -0.4730794076 0.2974987618 -0.4732565991 -0.0953940757 0.1574121036
485297090.0 -0.0637619235 0.162372032 0.2920499655 -0.4762899369 0.2924374203 -0.4765579551 -0.0938985784 0.1579256986
490297060.0 -0.061644941 0.1631642577 0.2868292655 -0.4795646643 0.287073882 -0.4796104545 -0.0921888183 0.1594952134
495297030.0 -0.0606862351 0.1641621901 0.2813437399 -0.4828615636 0.2813294728 -0.48255848 -0.0904062815 0.1600284076
500297000.0 -0.058498244 0.1647504558 0.2763768306 -0.4857255005 0.2761684598 -0.4856365268 -0.0892722801 0.1612025245
505296970.0 -0.0567658987 0.1652039393 0.2703792365 -0.4883219451 0.2708185083 -0.4884468522 -0.0880946801 0.1623295114
510296940.0 -0.0549579082 0.1664767966 0.2655413465 -0.4920691881 0.2659049516 -0.4919209393 -0.08612185 0.1636402376
515296910.0 -0.0533424878 0.1670689915 0.2599636119 -0.4941262173 0.2605336438 -0.4943027631 -0.0846506412 0.1643354743
520296880.0 -0.0511611285 0.1680269849 0.2544048365 -0.4973623078 0.2547836132 -0.4970127388 -0.0831331574 0.1653523587
525296850.0 -0.0492800365 0.1684365013 0.2489791433 -0.4997893116 0.2494226629 -0.5000514186 -0.0813882924 0.1666252973
530296820.0 -0.0474393472 0.1691732884 0.2441024926 -0.5020632703 0.243924355 -0.5022937264 -0.0801777404 0.1671270681
535296790.0 -0.0457162851 0.1698819729 0.2384127576 -0.5044519477 0.238934523 -0.5046227953 -0.0784704144 0.1678556926
540296760.0 -0.0439493416 0.170057326 0.2333405132 -0.5079872604 0.2329847373 -0.5077340431 -0.0774297018 0.1690331505
545296730.0 -0.0418192675 0.1710321181 0.227436569 -0.509502122 0.2273701489 -0.510439163 -0.0757255847 0.1698014186
550296700.0 -0.0402910035 0.1717487348 0.2216885517 -0.5125553031 0.2227646962 -0.5128281457 -0.0741481863 0.1713882775
555296670.0 -0.0379338588 0.171886834 0.2165242632 -0.5148606714 0.2167299861 -0.514826267 -0.0724256749 0.1721245223
560296640.0 -0.0362291366 0.1726375939 0.2109118589 -0.5167855443 0.2108176087 -0.5167055233 -0.0707417176 0.1726784806
565296610.0 -0.0345024238 0.1732813489 0.2051533316 -0.5193377735 0.2050190653 -0.5194803689 -0.0691737398 0.1734309613
570296580.0 -0.0322368737 0.1735848677 0.1994212674 -0.5212599508 0.1998931976 -0.5214012312 -0.0674658615 0.1748167401
575296550.0 -0.0302154056 0.1743337484 0.1938540044 -0.523313352 0.1943885844 -0.5233013276 -0.0655332245 0.1754201259
580296520.0 -0.028492771 0.1744720686 0.18842612 -0.5255592078 0.1879364992 -0.5255165778 -0.0638176488 0.175939446
585296490.0 -0.0263496107 0.1748591656 0.1825879536 -0.527457188 0.1827339496 -0.5276541392 -0.0626056282 0.1766227802
590296460.0 -0.0250043732 0.1754538551 0.1766275468 -0.5293010532 0.1765760959 -0.5296291536 -0.0607321516 0.1776576155
595296430.0 -0.0225999873 0.1761275589 0.1710633972 -0.531421062 0.1713714216 -0.5313195743 -0.0587750822 0.1780865853
600296400.0 -0.0207321439 0.1764368364 0.1652126298 -0.5330716761 0.1658441264 -0.5332763935 -0.0573719319 0.1791704933
605296370.0 -0.018502469 0.1768888209 0.1593522322 -0.5349609048 0.1594693504 -0.5346222987 -0.0557209277 0.1793266256
610296340.0 -0.0168242221 0.1773375122 0.153972199 -0.5365337784 0.1542512817 -0.536625609 -0.0537851879 0.1807427011
615296310.0 -0.0149083735 0.1775477908 0.1479998712 -0.5381169673 0.1484189954 -0.5383984494 -0.0522346008 0.1811916732
620296280.0 -0.0129177635 0.1776594071 0.1422723853 -0.5392877393 0.1422301125 -0.5397002207 -0.0504247973 0.1815694914
625296250.0 -0.0107318848 0.1781116164 0.1358257683 -0.5412147923 0.1361016927 -0.5414648674 -0.0485945272 0.1825652213
630296220.0 -0.0088105297 0.1785038709 0.1302459015 -0.5427913917 0.1307514071 -0.5425459763 -0.0472471003 0.1830566104
635296190.0 -0.006862224 0.178697128 0.1249107231 -0.5434353226 0.1243599455 -0.5437273948 -0.0455536678 0.1834986806
640296160.0 -0.005021155 0.1787454575 0.1189569944 -0.5450347651 0.1189427214 -0.5452441437 -0.0432766052 0.1841075089
645296130.0 -0.0028307094 0.1791037591 0.1127963483 -0.5466348534 0.1129142753 -0.5464360945 -0.0422854667 0.1845089998
650296100.0 -0.0007880683 0.1796200711 0.1070979553 -0.547413775 0.1073226444 -0.5474181583 -0.0402711995 0.1852543834
655296070.0 0.0009321354 0.1791764214 0.1010194155 -0.5486126338 0.1011874429 -0.548658218 -0.0381484767 0.1859972393
660296040.0 0.002771948 0.1799117711 0.0952723231 -0.5493936616 0.0954296528 -0.549601175 -0.0367274144 0.1863313844
665296010.0 0.0051213662 0.1794636663 0.0895235122 -0.5504657609 0.0902210293 -0.5506966252 -0.0352581131 0.1873465419
670295980.0 0.0073848596 0.1799620719 0.0832204838 -0.5513258703 0.0835869055 -0.5512820503 -0.0334750584 0.1872176641
675295950.0 0.0090408069 0.1797702882 0.0773259121 -0.5522704683 0.0777941786 -0.5524847343 -0.0313575981 0.1878809678
680295920.0 0.0112474088 0.18024551 0.0714064565 -0.5530395016 0.0711399938 -0.553221593 -0.0290716438 0.1884211839
685295890.0 0.0132376799 0.1801679825 0.0654817493 -0.5537134525 0.0651304905 -0.554102539 -0.0275549889 0.1889908284
690295860.0 0.015382711 0.1800500412 0.0597621171 -0.5538269026 0.0591751776 -0.554405164 -0.0256329266 0.1895042307
695295830.0 0.017358986 0.1800085073 0.053161667 -0.5550744312 0.0534444415 -0.5552336826 -0.0241407571 0.1898461095
700295800.0 0.0194940887 0.1800070149 0.0474312636 -0.5554873737 0.047571946 -0.5557670932 -0.0224032275 0.189793595
705295770.0 0.0212237667 0.1799761486 0.0415682437 -0.5558991315 0.0417990074 -0.5559806931 -0.0207183754 0.1902599042
710295740.0 0.0233599746 0.1798613502 0.0356962811 -0.5561194364 0.0356027743 -0.5562677337 -0.0195445196 0.191079748
715295710.0 0.025412501 0.1798107218 0.0297298589 -0.5563323711 0.0298473289 -0.5564708983 -0.016960508 0.1909338284
720295680.0 0.0273379394 0.1794106002 0.0234831631 -0.5570326362 0.0235921504 -0.5575169761 -0.0148874483 0.1916202439
725295650.0 0.0295493602 0.1794210118 0.0169915942 -0.5568499341 0.0174420135 -0.5572461257 -0.0132348128 0.191974504
730295620.0 0.0312423936 0.1790394823 0.0116099995 -0.5571056068 0.0113739795 -0.5569618663 -0.0112073042 0.1914844726
735295590.0 0.0336612714 0.1790309919 0.0054967281 -0.5570425488 0.00575302 -0.557280839 -0.0094450751 0.1919674064
740295560.0 0.035411533 0.1788188258 -0.0003838735 -0.5566845952 -0.0007166643 -0.5569668013 -0.0074390817 0.192072612
745295530.0 0.0375133604 0.1781984389 -0.0067422507 -0.5571389047 -0.006429367 -0.5572908459 -0.0060291824 0.192682263
750295500.0 0.0393121186 0.1780633443 -0.0124654785 -0.5567917857 -0.0124381733 -0.5565596817 -0.0038755138 0.1923174663
755295470.0 0.041881609 0.1779180064 -0.0184880771 -0.5566784207 -0.0184350023 -0.556909297 -0.0023755974 0.1932533345
760295440.0 0.043366572 0.1777098438 -0.0243600082 -0.5563554099 -0.0241994417 -0.5565697647 -0.000830813 0.1930386009
765295410.0 0.0453879836 0.177278633 -0.0299542144 -0.5560439953 -0.0300597495 -0.5566869856 0.0018758195 0.193775967
770295380.0 0.0477227611 0.1772234749 -0.0367336 -0.5554703146 -0.0364959027 -0.5561829635 0.0036362146 0.1937484715
775295350.0 0.0495643729 0.1766259315 -0.042587601 -0.5552511698 -0.0421055099 -0.5549502381 0.005265391 0.1929658305
780295320.0 0.0515214599 0.1763080957 -0.0480557405 -0.5547504874 -0.0479339796 -0.5550021525 0.0070484302 0.1941209933
785295290.0 0.0536377252 0.1760526726 -0.0542103764 -0.5535959899 -0.0542760358 -0.5542846432 0.0087991436 0.1940749358
790295260.0 0.0553654174 0.1754817381 -0.060035152 -0.5538959662 -0.0602113774 -0.5535545121 0.0109801194 0.1939070676
795295230.0 0.0572333248 0.1749789128 -0.0654700735 -0.5525713642 -0.0659582814 -0.5532479889 0.0126902786 0.1947019058
800295200.0 0.0594083832 0.1745582262 -0.0723495838 -0.5521132686 -0.0727009349 -0.552582417 0.0143153595 0.1940074867
805295170.0 0.0610282585 0.1741476042 -0.0778983619 -0.5506188217 -0.0779227389 -0.5513398521 0.0161989465 0.193845743
810295140.0 0.0633765678 0.1735098196 -0.083767816 -0.5503613001 -0.0839553958 -0.5504921502 0.0181348763 0.1941415254
815295110.0 0.0652186694 0.1730874391 -0.0901424532 -0.5490788438 -0.0902347333 -0.549282251 0.0200330054 0.1936256045
820295080.0 0.0671961554 0.172150393 -0.0958330496 -0.5482991922 -0.0953552837 -0.5487233621 0.0216534917 0.1942747223
825295050.0 0.069158857 0.1716628167 -0.1015359142 -0.5468694652 -0.1015841014 -0.547427368 0.0240609847 0.1939367991
830295020.0 0.0709007146 0.1713881532 -0.107867863 -0.5458081948 -0.1075898364 -0.5463804003 0.0256668519 0.1936947188
