!Created with skrf (http://scikit-rf.org).
# Hz S RI R 50.0 
!freq ReS11 ImS11 ReS21 ImS21 ReS12 ImS12 ReS22 ImS22
300000.0 -0.0477337397 -0.0439243715 -0.0011252432 0.0021464124 -0.0001240937 0.0003690205 -0.774444701 -0.128135867
5299970.0 -0.049735093 0.0160207082 7.12244e-05 2.25814e-05 -4.75617e-05 -0.0001268457 -0.7844015406 -0.0073816485
10299940.0 -0.0442555466 0.0326639753 -6.64709e-05 0.0001202844 -0.0001027765 0.0001058742 -0.787328473 -0.0033459086
15299910.0 -0.0361229536 0.0469574438 -7.05561e-05 8.1748e-05 5.46136e-05 -8.881e-06 -0.7931310739 -0.0009418929
20299880.0 -0.0261404915 0.0588979803 -0.0001222841 0.0001216011 -0.0001947831 0.0001312948 -0.7994415918 0.0024995204
25299850.0 -0.0154812535 0.0681974486 5.68852e-05 -0.0002787531 0.0001223299 -6.8163e-06 -0.8057240628 0.007935356
30299820.0 -0.004077803 0.0747894934 -6.58661e-05 -0.000102657 0.0001604777 -6.38651e-05 -0.8119438395 0.0160916455
35299790.0 0.0073354956 0.0798217168 -1.90197e-05 8.39299e-05 -0.0001281487 -3.69668e-05 -0.8169795459 0.0252716332
40299760.0 0.0185432606 0.0827765752 0.0001507437 0.0002468569 5.9903e-06 -0.0001240322 -0.821071654 0.0345951631
45299730.0 0.0295404103 0.084217245 -8.85368e-05 6.1904e-05 -2.5533e-06 1.62969e-05 -0.8248246208 0.0437787628
50299700.0 0.0391089963 0.084488178 -0.0001222548 -0.0001028523 2.04742e-05 -5.51926e-05 -0.8273778973 0.0539530954
55299670.0 0.0482663945 0.0834929448 3.42057e-05 -7.3984e-05 -1.4786e-05 7.842e-07 -0.8293764187 0.0645462301
60299640.0 0.0569628206 0.0818372106 9.32493e-05 0.0001334973 -0.0001540912 6.91721e-05 -0.8305721983 0.0745294551
65299610.0 0.0646307333 0.0794846002 0.0001177311 -4.48201e-05 -1.80772e-05 0.0001426214 -0.8320058469 0.0843288162
70299580.0 0.0716114701 0.0770291647 -7.6094e-06 7.5211e-05 -0.0002444631 4.14412e-05 -0.8320728035 0.0946999669
75299550.0 0.0780941073 0.0738372229 -2.7229e-05 -0.0001364554 5.80247e-05 -2.37643e-05 -0.8325463533 0.1042579261
80299520.0 0.0837727347 0.0705435371 0.0001170534 2.27358e-05 9.71878e-05 -5.77111e-05 -0.8323600069 0.1144211346
85299490.0 0.088854044 0.0667667925 4.9508e-05 5.24365e-05 2.9687e-06 7.17331e-05 -0.8320447595 0.1236475008
90299460.0 0.093598328 0.0632054993 -8.32585e-05 -7.45897e-05 0.0001052542 0.0001203219 -0.8309604439 0.1333844489
95299430.0 0.0977455194 0.0589058736 -3.5765e-06 5.7516e-05 -6.1684e-05 3.9396e-05 -0.8296044 0.1433903349
100299400.0 0.101080905 0.0554816391 0.0001708303 4.40683e-05 0.0001321532 9.99573e-05 -0.8284823867 0.152207516
105299370.0 0.1044325867 0.051714937 -5.23301e-05 -7.60125e-05 -1.56068e-05 9.9446e-06 -0.8270698657 0.1613162863
110299340.0 0.1075256579 0.0477433728 -9.26245e-05 5.01517e-05 -6.95066e-05 7.67675e-05 -0.8257623856 0.1705980686
115299310.0 0.1103007085 0.0439627205 0.0001226293 0.0002909814 4.16877e-05 4.30267e-05 -0.8240957716 0.1801085254
120299280.0 0.1122522276 0.0400654343 -2.19325e-05 6.09759e-05 0.0001754321 0.0001453507 -0.8224941179 0.1889182063
125299250.0 0.1141349544 0.0362677684 -0.0001862842 -9.13129e-05 -5.74387e-05 -4.83677e-05 -0.8208250849 0.197763885
130299220.0 0.1157760216 0.0330983916 -0.000106699 -8.7877e-06 -0.0001140337 0.0002016043 -0.8189548466 0.2069198761
135299190.0 0.1175595193 0.0296709606 0.0001329619 0.000323616 0.0001043517 -0.000241698 -0.8163936347 0.2158885366
140299160.0 0.1189507684 0.0261566829 5.88361e-05 -0.000241725 -8.47946e-05 0.0001620954 -0.8144444318 0.2245614261
145299130.0 0.1199956812 0.0225738009 8.68711e-05 0.0002103853 -1.42553e-05 0.000236859 -0.8121370962 0.2342197313
150299100.0 0.1210815158 0.0193280779 9.9635e-05 -4.49901e-05 0.0001137596 -2.34699e-05 -0.8103156605 0.2430429657
155299070.0 0.1216158104 0.015872835 -4.56634e-05 5.7054e-05 7.03572e-05 -8.96312e-05 -0.8072424365 0.2517836087
160299040.0 0.1221846281 0.0128505638 0.0001439776 -7.78836e-05 0.0002987187 0.0001610639 -0.8050463918 0.2604629516
165299010.0 0.1229347732 0.0096514683 -0.0001940686 0.0001698057 -0.0002746448 6.84148e-05 -0.8027109071 0.269717697
170298980.0 0.1231843201 0.0068547187 -5.4837e-05 7.0029e-05 3.70536e-05 -0.0001552537 -0.7993859713 0.2782411751
175298950.0 0.1236249714 0.003840136 -0.0001145286 0.0001894215 9.52755e-05 -3.3649e-05 -0.7965169414 0.2870770235
180298920.0 0.1237886238 0.0009342956 5.72652e-05 0.0001684113 0.0001694757 8.5449e-06 -0.7935235417 0.294982003
185298890.0 0.1241731915 -0.0020866495 0.0002037516 -4.02472e-05 0.0001912697 -6.48299e-05 -0.7900894088 0.3041858395
190298860.0 0.1243352657 -0.0045691943 -1.54203e-05 -5.17325e-05 0.0001083437 0.000185486 -0.788163641 0.3124703949
195298830.0 0.1237634853 -0.0073653663 0.000196 0.0002421977 0.0001995907 9.30773e-05 -0.7843940207 0.3210347366
200298800.0 0.1239964777 -0.0099285342 0.000267338 -6.66625e-05 0.0001062924 0.0001817082 -0.7819198612 0.3295970974
205298770.0 0.1236596561 -0.0125444789 -4.83995e-05 0.0001022489 5.91148e-05 6.66262e-05 -0.7777525674 0.3378704742
210298740.0 0.1234361931 -0.0150079587 3.17031e-05 0.0001956949 -0.0001252368 0.000242459 -0.7743824658 0.3463408808
215298710.0 0.1230548049 -0.0175594109 0.0001500687 0.0001981636 7.88272e-05 0.0002752019 -0.7710247565 0.354616122
220298680.0 0.122731943 -0.0200534663 0.0001269734 -7.12849e-05 -0.0001227965 0.0001185118 -0.7674586816 0.3621533292
225298650.0 0.1220310436 -0.0225191714 0.0001500682 7.0506e-05 0.0001425107 5.36914e-05 -0.7638484981 0.3705790462
230298620.0 0.1217430764 -0.0244711408 9.27739e-05 0.0001395299 0.0002030039 0.0002142268 -0.7598792623 0.378770424
235298590.0 0.1214306413 -0.0267080648 0.0001004652 0.0001427589 6.2994e-05 0.0001748436 -0.7560004029 0.3871080807
240298560.0 0.1208390734 -0.0291605055 0.0001593117 0.000177019 -7.46939e-05 8.577e-05 -0.7519129472 0.3955374452
245298530.0 0.120396291 -0.0311331412 0.0002060176 0.0002556789 5.57504e-05 0.0001717108 -0.748058539 0.4026301891
250298500.0 0.1199293039 -0.0333859203 -2.03448e-05 0.0001097016 0.0002172561 -9.14657e-05 -0.7437549232 0.4103068463
255298470.0 0.118707987 -0.0357687455 0.0002005322 0.0001053711 0.0003382181 7.84478e-05 -0.739112551 0.4178058831
260298440.0 0.1179191987 -0.0374362293 -1.962e-05 0.0001302353 0.0002521799 -5.70365e-05 -0.7348283108 0.4264163318
265298410.0 0.117473217 -0.0390972262 6.62639e-05 8.34995e-05 5.40355e-05 0.0002334938 -0.729998097 0.4336691235
270298380.0 0.1166633425 -0.0411700684 0.0001397607 6.9226e-05 4.2088e-06 8.93196e-05 -0.7255143535 0.4416566013
275298350.0 0.1159177594 -0.0431345452 0.0002449358 0.0002126011 9.48922e-05 0.0001983968 -0.7209074894 0.4490524335
280298320.0 0.1153985534 -0.0452961828 0.0001058434 -4.7608e-06 0.0001055229 0.000159727 -0.715736534 0.4563320719
285298290.0 0.1146038816 -0.0467893175 0.0002718091 -2.84748e-05 0.0001613327 -1.92129e-05 -0.7108575494 0.4637319673
290298260.0 0.1138992795 -0.0486635689 -4.453e-06 -0.000144841 0.0001484167 0.00012809 -0.7061153562 0.4710069089
295298230.0 0.1127886248 -0.0509539007 0.0003566357 4.96564e-05 0.0001032749 0.0002954572 -0.7008164983 0.4782960766
300298200.0 0.1122481887 -0.0521968427 0.0001218523 1.07454e-05 0.0001651296 0.0003754833 -0.69592869 0.485666239
305298170.0 0.1112905312 -0.0540699266 0.0003738547 0.0001483277 0.0001500623 0.0002165437 -0.6903469492 0.4929502336
310298140.0 0.1102424549 -0.0556014017 0.0002773704 0.0001009795 -7.85904e-05 0.000133113 -0.6856162043 0.4998764286
315298110.0 0.1095918835 -0.0575841757 9.06148e-05 0.000243737 -3.03819e-05 0.0001576569 -0.6798571398 0.5072673139
320298080.0 0.1086619336 -0.0597324538 0.0001324224 2.506e-05 0.0001841437 0.0002249579 -0.6744056167 0.5142454788
325298050.0 0.1074454221 -0.0614002501 0.0001834295 -2.831e-06 0.0001644417 0.0001481508 -0.6688887953 0.5213164832
330298020.0 0.1066124121 -0.0633054336 0.0001070812 0.0003134837 0.0003497051 6.11841e-05 -0.663361677 0.5284668535
335297990.0 0.1050495951 -0.0646968374 0.0002434641 -5.1384e-05 0.0001200597 0.0002086525 -0.658139372 0.5352265191
340297960.0 0.1033314812 -0.0660712517 0.0002371924 0.0001424025 3.50541e-05 0.0002227733 -0.6526610755 0.5422796602
345297930.0 0.1022158219 -0.0676088867 0.0002334966 0.0001401011 1.63295e-05 0.0002420124 -0.6464431365 0.5484790881
350297900.0 0.101392298 -0.0687229014 0.0001802488 9.29495e-05 3.24646e-05 -0.0002055504 -0.641275025 0.5557324001
355297870.0 0.1002590968 -0.0702238133 0.0002594614 1.46664e-05 0.0002069723 0.0001161832 -0.6354092337 0.5620699077
360297840.0 0.0986649339 -0.0711729914 -8.1788e-05 -4.35007e-05 0.0001141958 0.0002092897 -0.6290887994 0.5685405062
365297810.0 0.0974833398 -0.0724944732 0.0002236822 0.0002601347 -3.4749e-06 -7.32133e-05 -0.622902936 0.5755274325
370297780.0 0.0965687792 -0.0738166993 0.0003083861 -6.5794e-05 0.000102084 0.0003676189 -0.61724204 0.5819320985
375297750.0 0.0952753599 -0.0750566636 0.0002382804 -9.58917e-05 0.0002174796 0.0002188099 -0.6116061716 0.5880051358
380297720.0 0.0940060726 -0.0764255167 2.59068e-05 0.0002883886 0.0001691842 0.0003986348 -0.6054692577 0.5943718404
385297690.0 0.0926674794 -0.0772668722 0.0003364285 0.000397748 0.0003049972 7.07952e-05 -0.5986975022 0.6007932063
390297660.0 0.0916122474 -0.0784870099 -1.2822e-06 8.46993e-05 0.0003693971 2.46728e-05 -0.5931081245 0.6069990606
395297630.0 0.0904038524 -0.0797588577 0.0002073663 0.0002384018 0.000308245 0.0001091791 -0.5866614633 0.6133169882
400297600.0 0.0891768736 -0.0807763217 0.0001919804 0.0001412334 0.0002136018 0.0001431176 -0.5803628346 0.6194761097
405297570.0 0.0876310299 -0.0816949432 0.0001708018 0.0001960477 0.0002781223 -3.69008e-05 -0.574218956 0.6245123903
410297540.0 0.0863948977 -0.0828007218 0.0001921281 0.0001414808 7.2031e-05 0.0001347882 -0.5676742424 0.6308172146
415297510.0 0.0852656467 -0.0841229093 0.0001931376 0.0002647555 0.0003142618 -0.0001121978 -0.5609216677 0.6370310125
420297480.0 0.0839311975 -0.0847052132 0.0002656956 0.0002005548 0.0003687884 0.0001239401 -0.5540584571 0.6426766507
425297450.0 0.082853265 -0.0858758641 0.0003018941 0.000104734 0.0001395414 0.0001000933 -0.5478524219 0.6482873122
430297420.0 0.0816142014 -0.0870531018 0.0002872466 -8.67895e-05 0.0002958669 0.0001275617 -0.5413182318 0.6533363265
435297390.0 0.0798153201 -0.0877045235 0.0001809761 0.0001562224 0.0001303935 4.4892e-05 -0.5336712579 0.6588949927
440297360.0 0.0786842766 -0.0888894099 0.0001294869 -4.55862e-05 0.0002809052 0.0003887404 -0.5271901115 0.6639268148
445297330.0 0.0773281154 -0.0896237706 9.5532e-05 -6.50492e-05 0.0002639179 -5.99743e-05 -0.5200816727 0.6685811695
450297300.0 0.0761789438 -0.0910204136 0.0001633226 0.0001495681 0.000412989 0.0001541141 -0.5131556553 0.6743159532
455297270.0 0.0745156948 -0.0912945137 0.0002536081 -3.60535e-05 0.0002009166 -8.6693e-06 -0.5064335133 0.6789978014
460297240.0 0.073417622 -0.092492964 0.0002195966 -2.73784e-05 0.0002280722 0.0002826361 -0.4996020723 0.684499207
465297210.0 0.0721347572 -0.0931735389 0.0002326115 0.0004115631 0.0001615995 -2.0789e-05 -0.4916508468 0.6890779987
470297180.0 0.0707953231 -0.093997713 0.0003970031 0.0001612627 0.0003495709 0.0001674031 -0.4843887761 0.6946750111
475297150.0 0.069051747 -0.094988742 0.0002941806 0.0003524427 0.0003998497 0.0001854358 -0.4773504028 0.6987801048
480297120.0 0.0678652417 -0.0953819774 0.0002030094 0.0002583111 0.000136858 2.18749e-05 -0.4697644029 0.7037908136
485297090.0 0.0665650267 -0.0963266602 0.0003052195 0.0001342619 0.0002471853 3.72928e-05 -0.463030986 0.7085038267
490297060.0 0.064880284 -0.0965538565 0.0002161892 -2.14271e-05 0.0001864902 0.0002344353 -0.4556373526 0.7124667291
495297030.0 0.0637669181 -0.0971281025 7.92834e-05 -1.83066e-05 0.000389253 8.7568e-06 -0.4484265488 0.7182008061
500297000.0 0.062453122 -0.0980418163 0.0001697824 0.0002405614 0.0001300923 0.0002728657 -0.4409404941 0.722766148
505296970.0 0.0613064335 -0.0990500837 -6.81522e-05 7.44509e-05 0.000545144 6.81002e-05 -0.4331833685 0.7266048937
510296940.0 0.0598126928 -0.0997584135 0.000405359 -2.802e-07 0.0002364502 0.0002624472 -0.4259322076 0.7311151157
515296910.0 0.0584073227 -0.1004430871 0.0003815992 -5.65601e-05 0.0001890787 0.0003380397 -0.4186153377 0.7352427235
520296880.0 0.0568941557 -0.1008198563 0.0003034114 0.000183392 0.0002614038 -4.4107e-06 -0.4103363572 0.7391754487
525296850.0 0.0556969835 -0.1016402036 0.0003142289 0.0001628237 0.0002329521 0.0001505524 -0.4035730029 0.7440792271
530296820.0 0.0540234645 -0.1017991737 0.0001909898 -8.25688e-05 0.0004012343 0.0001339647 -0.3958878197 0.7476774149
535296790.0 0.0524663614 -0.1024043781 0.000163799 4.49267e-05 0.0001216734 0.0002593581 -0.3890294857 0.7517300079
540296760.0 0.0510038918 -0.1028008747 0.0004034659 -2.63732e-05 0.0003534164 0.0001663614 -0.3807523211 0.7562370084
545296730.0 0.0498171094 -0.1035229583 0.0001706984 -7.16798e-05 0.0003952002 -0.0001076504 -0.3735211113 0.7598439127
550296700.0 0.0486939978 -0.103667268 0.0003332689 0.000272798 0.0004752007 5.8272e-06 -0.3654277558 0.763505137
555296670.0 0.0467690572 -0.1043545835 0.0003852022 6.3536e-06 0.0001976391 6.80818e-05 -0.357992439 0.7676610897
560296640.0 0.0457073983 -0.1046748248 0.0002332422 9.50296e-05 0.0001243661 0.0001335355 -0.3497330041 0.7713638153
565296610.0 0.0443072263 -0.1048400307 0.0004304138 7.0294e-05 0.0003223036 0.0003635933 -0.3419794427 0.7741891031
570296580.0 0.0425087358 -0.1054259272 0.0001618543 -8.0922e-06 0.0003796952 8.25529e-05 -0.3347530659 0.7779775911
575296550.0 0.041254195 -0.1054112803 0.0005070082 0.0001085721 0.0001659083 -5.02973e-05 -0.3267788163 0.7814511764
580296520.0 0.0399017743 -0.1062720259 0.0004749955 0.000193503 0.0003074545 -8.08411e-05 -0.3181907368 0.7844835985
585296490.0 0.0379946 -0.1067507011 0.0005626374 -2.9058e-05 0.0004121939 0.0002781475 -0.3103651 0.7878101352
590296460.0 0.0371848 -0.1069026942 0.0004212812 8.26912e-05 0.0004716265 5.09282e-05 -0.3027056361 0.7904291213
595296430.0 0.0351968901 -0.1071318699 0.0003341469 0.0001020488 0.0003029232 -1.10745e-05 -0.294253118 0.793127586
600296400.0 0.0336355703 -0.1074105986 0.0004115223 -6.53559e-05 8.9857e-05 0.0001413042 -0.2866731083 0.7954782404
605296370.0 0.0323776626 -0.1076448301 0.0004226849 2.67836e-05 0.0003520385 -0.0001687016 -0.2781484082 0.7984683954
610296340.0 0.0306594431 -0.1077090286 0.0001784705 5.30024e-05 0.0003434652 0.0001354792 -0.2704507577 0.8010723368
615296310.0 0.0295390366 -0.1079271662 0.0002438558 7.47699e-05 0.0002922137 1.35395e-05 -0.2616004088 0.8036819654
620296280.0 0.027814442 -0.108508323 0.0003005163 9.55333e-05 0.0002180024 -4.95866e-05 -0.2540287597 0.8063388828
625296250.0 0.02650084 -0.1083935997 0.0004620338 7.0489e-05 0.0005682583 -0.0001213286 -0.2449295855 0.8084413059
630296220.0 0.0255261992 -0.1085210698 0.0002909957 0.000215506 0.0005442293 4.3829e-05 -0.237313228 0.8110787507
635296190.0 0.0235415558 -0.1088099259 0.0002076819 9.94653e-05 0.0001800047 -2.11056e-05 -0.2292908947 0.8133225742
640296160.0 0.0220508089 -0.1090295706 0.0001387049 1.51571e-05 0.0004085621 -6.48033e-05 -0.2207052338 0.81567352
645296130.0 0.0205795709 -0.1087079402 0.0004151881 0.0001251766 0.0004137415 -4.8296e-05 -0.2127693299 0.8175809799
650296100.0 0.0193479367 -0.108578295 0.0004444533 1.26799e-05 0.0003130675 0.0001219039 -0.2044944003 0.8188978869
655296070.0 0.0181193001 -0.108799174 0.0004987862 0.0002010814 0.0003807558 -0.0001048863 -0.1956526295 0.820862688
660296040.0 0.0162815539 -0.1091804198 0.0008263467 0.0001182006 0.0005356585 0.0002585402 -0.1872795317 0.8228716477
665296010.0 0.0150897492 -0.1091676045 0.0004590025 -0.0001486464 0.0004537483 -0.0002010343 -0.1789574053 0.8252645239
670295980.0 0.013559619 -0.1088980414 0.000385981 0.00011735 0.00036179 1.87675e-05 -0.17111088 0.8266145018
675295950.0 0.0118678503 -0.1088110037 4.66992e-05 -0.0001686931 0.0002470097 -0.00018351 -0.1628687991 0.8283469169
680295920.0 0.0104989313 -0.1088164345 0.000391483 -0.0001018025 0.0003162736 0.0001737351 -0.1544661789 0.8309528272
685295890.0 0.0092180211 -0.1086335575 0.0002788404 0.000116793 0.0002975979 -0.0001429608 -0.1457297964 0.8316670275
690295860.0 0.0079627115 -0.1085255096 0.000361619 -4.7464e-05 0.000361675 0.0001774542 -0.1384414151 0.8337063093
695295830.0 0.0063061658 -0.1083070207 0.0003623173 -0.0001256815 0.0001958224 0.0001388204 -0.1288998088 0.8349244637
700295800.0 0.0048909872 -0.1087056781 0.000498827 3.46518e-05 0.0004724257 -7.68772e-05 -0.1217381001 0.8360597978
705295770.0 0.0032184876 -0.107944328 0.0005103462 6.33459e-05 0.0003720437 -7.14576e-05 -0.1127229045 0.8383816461
710295740.0 0.0022935223 -0.1080541835 0.0004159413 0.0001985914 0.0004111763 -8.55129e-05 -0.1039693124 0.8387259866
715295710.0 0.0002615079 -0.1081476415 0.0003308026 -2.32715e-05 0.0005100658 -7.1232e-05 -0.0959671722 0.8401593301
720295680.0 -0.0009884408 -0.1078979262 0.0004172564 5.08998e-05 0.0003455336 1.48472e-05 -0.0878881393 0.8411164316
725295650.0 -0.0024114298 -0.1073837163 0.0002582667 -2.5759e-06 0.000424643 -0.0001152103 -0.0795474563 0.8422336342
730295620.0 -0.003821659 -0.1070094255 0.0004241686 -3.93866e-05 0.0005774839 -8.4628e-05 -0.0717519787 0.8421536628
735295590.0 -0.0049619463 -0.1067617608 0.0004571571 -0.000178664 0.0003171687 -5.53619e-05 -0.0628085354 0.8427080391
740295560.0 -0.0067023769 -0.1064297578 0.0002853083 8.05949e-05 0.0002910636 -0.0001821191 -0.0535866326 0.8438015087
745295530.0 -0.0080238787 -0.1060452441 0.0004243073 3.57323e-05 0.0003876842 -3.20675e-05 -0.0454340331 0.843971493
750295500.0 -0.0093173436 -0.1059473106 0.0004482645 -0.0001199697 0.0004236747 -7.30073e-05 -0.0373412112 0.8448043841
755295470.0 -0.0107161571 -0.1057977483 0.0003312351 -0.0001255996 0.0003210792 -7.6284e-06 -0.0287938565 0.8436780715
760295440.0 -0.0121880963 -0.1053085696 0.0003496273 -0.0002308476 0.0004144688 -0.0001208348 -0.020324954 0.8447329462
765295410.0 -0.01347018 -0.1049872905 0.0003569403 5.02453e-05 0.0003264814 -0.000201965 -0.0119750165 0.8453574527
770295380.0 -0.0150235009 -0.1044364551 0.0005254467 0.0001936449 0.0004586705 -6.89201e-05 -0.0035189071 0.8446588158
775295350.0 -0.0165981975 -0.1042917651 0.0006451814 -4.83799e-05 0.0004799352 1.06441e-05 0.004129598 0.8443033107
780295320.0 -0.0176302611 -0.1036991794 0.0002687324 -0.0002940099 0.0006003853 -3.63327e-05 0.0130067916 0.8442319562
785295290.0 -0.0193745406 -0.1034346292 0.0003557295 0.0001617427 0.0004832307 -4.20258e-05 0.0222273128 0.843744631
790295260.0 -0.0202306983 -0.1027628814 0.0002595449 0.0002220827 0.0005585354 -0.0001309591 0.0303691296 0.8438956933
795295230.0 -0.0219551095 -0.1023266457 0.0003076437 -4.85099e-05 0.0004604333 2.40407e-05 0.0389885278 0.8429918226
800295200.0 -0.0231805342 -0.1019888084 0.0003620187 0.000280622 0.0003469025 0.0001139028 0.0475030662 0.8425032257
805295170.0 -0.0245104389 -0.1016662399 0.0006112976 0.0001374886 0.000242502 -0.0003064849 0.0550966959 0.842337927
810295140.0 -0.0256334202 -0.1009963041 0.0005445165 -0.0001608728 0.0004163437 5.97552e-05 0.0643004438 0.8414740631
815295110.0 -0.0271178564 -0.1005370189 0.0004234339 -2.32799e-05 0.0003055238 -0.0001172953 0.0724678414 0.8403823064
820295080.0 -0.0285688454 -0.0997701774 0.0003814283 -0.0005409939 0.0004446885 -6.50861e-05 0.080671985 0.8405333864
825295050.0 -0.0296846729 -0.0995464178 0.0006189991 -4.99352e-05 0.0005316286 -0.00011373 0.0889999379 0.8395898717
830295020.0 -0.0310617542 -0.0985489499 0.0003234129 -0.0001447596 0.0003288117 -7.74869e-05 0.0980241413 0.838357208
835294990.0 -0.0323961946 -0.0980570106 0.0005099566 -0.0002206119 0.0004603703 -0.0001716479 0.1055075357 0.8380011246
840294960.0 -0.0334514987 -0.0973656362 0.0003458331 -0.0001851096 0.0005329412 6.92095e-05 0.1141376233 0.8362616692
845294930.0 -0.0347054376 -0.0967048084 0.0007058025 -0.0002002234 0.0004206669 -0.0002384871 0.1227874894 0.8349232444
850294900.0 -0.0358928375 -0.0960597995 0.0005393284 -7.40807e-05 0.0005107282 -5.10859e-05 0.1306375827 0.8336749055
