!Created with skrf (http://scikit-rf.org).
# Hz S RI R 50.0 
!freq ReS11 ImS11 ReS21 ImS21 ReS12 ImS12 ReS22 ImS22
300000.0 -0.2137816971 -0.0642158454 8.46072e-05 -0.0008922939 -0.0005579571 0.0014004987 -0.7738491346 -0.1402441202
5299970.0 -0.2171041181 0.0081577089 0.0001030506 -1.18306e-05 -3.51881e-05 -0.0001425668 -0.7838590954 -0.0070957911
10299940.0 -0.2131233342 0.0194002198 5.51444e-05 -0.0001208012 -0.0002253204 -0.0001475913 -0.7875668221 -0.0039079994
15299910.0 -0.208543364 0.0285237124 0.0002168771 0.0001196267 6.916e-06 -0.0001624694 -0.7930777852 -0.00145379
20299880.0 -0.2033809122 0.0358660222 2.17884e-05 1.1889e-06 6.07728e-05 0.0001058401 -0.7997124738 0.0021586345
25299850.0 -0.1977164955 0.0420879107 -0.0002278879 -6.61485e-05 -0.00019469 -0.000238623 -0.8059502008 0.0084198235
30299820.0 -0.1921103362 0.0468684235 -8.09068e-05 5.4564e-06 -0.0001273559 -7.45954e-05 -0.8119712996 0.016182096
35299790.0 -0.1862142564 0.0505808465 -0.000266074 6.47037e-05 -5.29723e-05 0.0001091357 -0.8173880601 0.0253883146
40299760.0 -0.180684446 0.0535068662 -6.5127e-06 -7.52905e-05 -5.18193e-05 -0.0002660234 -0.8211309754 0.03478863
45299730.0 -0.1756170692 0.0554051491 -4.26161e-05 9.91026e-05 -0.0001470779 -0.0001623255 -0.8252770869 0.0437906309
50299700.0 -0.1707465083 0.0568211498 -0.0002606003 0.0001404986 -0.0001440204 1.37108e-05 -0.8274529709 0.0539116873
55299670.0 -0.1667436883 0.0578498112 9.85514e-05 -0.000201913 -8.7268e-06 -0.0001114995 -0.8292464087 0.0641964947
60299640.0 -0.1624138429 0.0587368412 -0.0002737259 -1.31862e-05 6.97699e-05 -3.0144e-05 -0.8304713624 0.0742870025
65299610.0 -0.158897008 0.0594208102 0.0001179952 -7.7565e-05 -7.017e-07 0.0001219334 -0.8319579352 0.0847698274
70299580.0 -0.156071256 0.0597292951 0.0001041235 -9.2508e-06 4.93594e-05 -0.0002312144 -0.8315980244 0.0942274074
75299550.0 -0.1524539818 0.0601487128 -1.48565e-05 -4.29638e-05 3.19018e-05 -8.9234e-05 -0.8320420977 0.1036920724
80299520.0 -0.1500168611 0.0602139065 -3.79571e-05 0.000123709 2.18326e-05 0.0001422483 -0.8319549528 0.1139885446
85299490.0 -0.1477792617 0.0600224145 1.49351e-05 -3.59537e-05 2.19749e-05 -8.606e-05 -0.8320326728 0.1238681803
90299460.0 -0.1455252913 0.0600314889 -3.11943e-05 -0.0001189753 0.0001026552 -3.99438e-05 -0.8308255101 0.133362245
95299430.0 -0.1433625484 0.0600310043 0.000115272 0.0001469587 0.0001538634 0.0001454445 -0.8292758585 0.1428030058
100299400.0 -0.1418288308 0.0602001339 4.98205e-05 -2.31291e-05 -0.0001580308 -9.95095e-05 -0.8285528025 0.1521288896
105299370.0 -0.1401332907 0.0601183347 0.0001283332 1.90258e-05 4.7838e-05 -3.5158e-06 -0.826917941 0.1613324525
110299340.0 -0.1383692551 0.0600594834 -2.83868e-05 0.0002601099 0.0001398527 9.91069e-05 -0.8254668277 0.1705651252
115299310.0 -0.1370263453 0.0599168836 -4.1021e-05 0.0002969671 0.0001858224 3.57963e-05 -0.8244431705 0.1796282209
120299280.0 -0.1358314487 0.059955088 -7.031e-05 -1.86013e-05 -2.72081e-05 0.0001380621 -0.8220439113 0.1884989809
125299250.0 -0.1349379493 0.0599704257 6.99127e-05 -2.54536e-05 0.0001646451 9.70244e-05 -0.8212347516 0.1979373362
130299220.0 -0.1342779622 0.0606193611 0.0001194897 5.55507e-05 3.76818e-05 -2.6721e-05 -0.8185021038 0.2069105261
135299190.0 -0.1331836362 0.0605995284 4.206e-06 0.0001871491 -2.034e-06 -9.4702e-05 -0.8164439301 0.2162602681
140299160.0 -0.1323762136 0.0607620398 -0.0002368636 -6.88827e-05 -4.97565e-05 0.0002272266 -0.8139677963 0.2251719333
145299130.0 -0.1313878007 0.0609476331 -3.52606e-05 7.07748e-05 3.62017e-05 0.0001345384 -0.8118186261 0.2341693316
150299100.0 -0.1306704484 0.0615147954 0.0001057872 0.0001005721 -8.04063e-05 6.11052e-05 -0.8103739223 0.2430667799
155299070.0 -0.1302433633 0.0619392009 -8.66684e-05 5.26323e-05 0.0002255606 0.0001765982 -0.8070550904 0.251507104
160299040.0 -0.1296897444 0.0626549976 0.000173465 3.79201e-05 -1.52982e-05 -6.74462e-05 -0.8044166278 0.2606885336
165299010.0 -0.1287738351 0.0628403179 0.000112 -0.0001702633 0.0001256653 -0.0001358596 -0.8023624627 0.2694232901
170298980.0 -0.1284074713 0.0635433365 0.0001346748 5.73186e-05 0.0001083169 -3.33822e-05 -0.7990316143 0.2779745956
175298950.0 -0.1281054762 0.0641168034 2.9703e-05 0.0001104131 0.0001666104 -0.0001383304 -0.7965333735 0.286394409
180298920.0 -0.1271822083 0.0648503477 0.0001684604 0.0001042247 0.0001519894 -0.0001017936 -0.7930980784 0.2950701268
185298890.0 -0.126633062 0.0651180942 3.05902e-05 -9.72427e-05 0.0001190594 0.0001522016 -0.790165998 0.3039140298
190298860.0 -0.1263673119 0.0660484121 3.60738e-05 -0.000155945 4.00431e-05 0.0001533252 -0.7878228215 0.3125972499
195298830.0 -0.1256623628 0.066681157 7.22019e-05 7.4101e-05 0.0001804311 0.0002215024 -0.7840023427 0.3214744936
200298800.0 -0.1253928295 0.0673959445 2.6108e-06 0.000110748 -0.0002112041 0.0001937613 -0.7815168655 0.329170121
205298770.0 -0.1246086266 0.0681505541 0.0001129728 0.0001864636 9.5493e-06 0.0001920507 -0.7773265133 0.3374564261
210298740.0 -0.1243747152 0.0690679839 6.54919e-05 0.0003285894 -0.0002228612 0.0001662863 -0.7742811594 0.3458114828
215298710.0 -0.1240584971 0.0701577112 0.0002160946 0.0001779106 0.0001879102 5.09765e-05 -0.770839722 0.3539700644
220298680.0 -0.1237056611 0.0704763246 2.08976e-05 -7.41938e-05 3.80208e-05 5.18112e-05 -0.7674556492 0.3624682757
225298650.0 -0.1232693754 0.0714610157 -9.3368e-06 0.0001527687 -0.0002289423 0.0001730238 -0.7639048425 0.3701806661
230298620.0 -0.1227959161 0.0724891783 0.0001097476 0.0001098875 0.0002007853 2.56867e-05 -0.7597223295 0.3786711
235298590.0 -0.1220884149 0.0734019994 -0.0001138867 0.0003093918 0.0001858278 4.47474e-05 -0.7556661545 0.3870715909
240298560.0 -0.121871124 0.0740897224 0.0002910554 8.11513e-05 0.0001076174 4.19342e-05 -0.7516767813 0.3956298466
245298530.0 -0.1214179625 0.0748132156 -0.0002787923 0.0002102774 1.13918e-05 0.0001429681 -0.7479884474 0.4026109457
250298500.0 -0.1208011108 0.0758908454 3.31995e-05 0.0001860761 -7.56318e-05 4.01324e-05 -0.7436277405 0.4101777825
255298470.0 -0.1204090879 0.0767063811 -6.65717e-05 4.10564e-05 1.22699e-05 0.0001107378 -0.7388775685 0.4176841192
260298440.0 -0.1201876136 0.0776982565 -1.05404e-05 0.0001365369 0.000134207 0.0001604787 -0.7346829865 0.4263959877
265298410.0 -0.1195113031 0.0789194299 -8.88985e-05 -0.0001637359 7.70765e-05 -7.41444e-05 -0.7302340685 0.4331272881
270298380.0 -0.1191909595 0.0800020913 0.0001610301 0.0001005419 8.00703e-05 0.0001876808 -0.7255833699 0.4411851447
275298350.0 -0.1182078112 0.0807646583 0.0001218677 -0.0002791316 1.3282e-06 0.0001167438 -0.7207439489 0.448625318
280298320.0 -0.1175841999 0.0817611272 0.000133849 0.0003354104 4.61328e-05 6.90102e-05 -0.7159479329 0.4558963361
285298290.0 -0.1170942468 0.0830137038 0.000164229 -9.92013e-05 0.0001035752 -0.0001635427 -0.7107642666 0.4635765923
290298260.0 -0.1167077526 0.0838026013 0.0002488451 -1.35825e-05 -1.35688e-05 4.72655e-05 -0.705902174 0.4708386154
295298230.0 -0.1159970153 0.0847028477 0.0001413422 -5.44845e-05 0.0002650232 0.0003543948 -0.7012877485 0.4782917669
300298200.0 -0.1153023164 0.0858776217 -7.71965e-05 0.0001861835 -0.0001242782 1.3161e-05 -0.6960329243 0.4852052817
305298170.0 -0.11466293 0.0866687476 -2.71245e-05 5.49803e-05 -6.26325e-05 6.11413e-05 -0.6899177287 0.4927806106
310298140.0 -0.1141076345 0.0878986993 0.0003798151 0.0002563739 7.773e-05 -3.72762e-05 -0.6854749695 0.4998006644
315298110.0 -0.1132507699 0.0886808527 -8.4425e-05 0.0002580943 0.0001986 -8.41417e-05 -0.6799571962 0.5067667187
320298080.0 -0.112779369 0.0896207651 0.0002951142 0.0001704995 -3.77758e-05 -8.3792e-05 -0.6745867315 0.5143731057
325298050.0 -0.1120248661 0.0908594515 -6.79262e-05 0.0002075024 0.0001055652 -9.14679e-05 -0.6691212711 0.5207606132
330298020.0 -0.1114846474 0.0915611257 0.0001908221 0.0004624703 0.0001927153 4.36606e-05 -0.6632209609 0.528083077
335297990.0 -0.1108910429 0.0925712041 2.08747e-05 0.000263971 0.0001573994 -4.44197e-05 -0.658090925 0.5356262416
340297960.0 -0.1107053967 0.0938500298 0.0002838997 0.0001034629 8.46087e-05 0.0001000369 -0.6521797599 0.5425309622
345297930.0 -0.1100185996 0.0950363148 0.0001869293 0.0001304073 0.0002133932 -3.41068e-05 -0.6466867015 0.5484508813
350297900.0 -0.1093562487 0.0961047357 1.94851e-05 -0.0001967787 0.0002091853 0.000228819 -0.6414988623 0.5553805636
355297870.0 -0.1083031113 0.097131737 0.0002584303 8.50592e-05 0.0001067372 0.0001216759 -0.6351088149 0.5617702106
360297840.0 -0.1077880827 0.0983282889 0.0003681508 1.46565e-05 0.00029516 0.0001393558 -0.6295453475 0.5689179349
365297810.0 -0.1073780062 0.0996866741 0.0001564458 2.05442e-05 0.0001955726 8.64755e-05 -0.6235134009 0.575236634
370297780.0 -0.1063991333 0.1006005814 0.0001629238 7.02503e-05 3.48718e-05 0.0002766958 -0.6175894305 0.5818321919
375297750.0 -0.1053523635 0.1018814628 0.0001902893 0.0001561784 2.82543e-05 3.93496e-05 -0.6117818999 0.5877393635
380297720.0 -0.1047645049 0.102615844 -5.2793e-05 5.79716e-05 -6.06136e-05 0.0001244842 -0.6056620054 0.5944526342
385297690.0 -0.1039879876 0.1038314685 0.0001087538 5.16136e-05 0.000243776 9.06928e-05 -0.5991699342 0.6006901645
390297660.0 -0.1032170136 0.1050273964 -9.52184e-05 -2.55643e-05 0.0003187963 0.0001106016 -0.5933241371 0.6072104314
395297630.0 -0.1024329872 0.1062583928 0.0002051806 0.0003810804 0.0001151185 -7.62304e-05 -0.5865759734 0.6130585352
400297600.0 -0.1016792302 0.1072047922 0.0001085008 2.90769e-05 0.0002105511 -6.40405e-05 -0.5807311726 0.6188915792
405297570.0 -0.1009226001 0.1082318321 0.0001043519 0.0001703702 0.0001151515 -9.67139e-05 -0.5742414826 0.6247133346
410297540.0 -0.0998585518 0.1091759307 7.8168e-06 7.0521e-05 0.0001097064 5.17376e-05 -0.5678810936 0.6309863995
415297510.0 -0.0991035328 0.1102573041 0.0001675795 -1.33215e-05 0.0002203836 1.7408e-06 -0.5609514088 0.6365198728
420297480.0 -0.0984398126 0.111443985 0.0001351243 0.0002607637 0.0001444786 -1.70647e-05 -0.554489344 0.6424367964
425297450.0 -0.0970031167 0.1124662563 0.0001034811 -7.5871e-05 0.0002053654 0.0001476667 -0.5478630526 0.6473404903
430297420.0 -0.0962442533 0.1134415592 0.0001073963 0.0001325466 0.0002103256 7.55932e-05 -0.5411811208 0.6531747097
435297390.0 -0.0955808251 0.1146267544 9.64504e-05 0.0001379008 8.22505e-05 0.0002823494 -0.5341992827 0.6586010677
440297360.0 -0.0945531637 0.1157105809 0.0004849517 0.0001630801 -1.97929e-05 0.0001324397 -0.5274594487 0.663997642
445297330.0 -0.0936654267 0.1166931808 9.10831e-05 6.1211e-05 0.0002385771 9.49789e-05 -0.5205066558 0.6685566181
450297300.0 -0.0923576943 0.1173452021 0.000162348 3.83817e-05 0.0001982454 0.0001617604 -0.5130815734 0.674058189
455297270.0 -0.0913833602 0.1187455034 0.000197853 0.0001377814 -4.2119e-05 0.0002012041 -0.5061288663 0.6784173252
460297240.0 -0.0907357706 0.1196413986 -5.93245e-05 0.000119463 8.43558e-05 4.81392e-05 -0.4994541746 0.6842992234
465297210.0 -0.0894406857 0.1209022487 2.97393e-05 -4.15779e-05 0.000418258 0.000137471 -0.4914170791 0.6887098775
470297180.0 -0.0885572575 0.1217501901 4.8468e-06 7.71667e-05 0.0002447633 4.04723e-05 -0.4847005086 0.6944264556
475297150.0 -0.0875090894 0.1224644677 0.000218036 3.51575e-05 5.69315e-05 0.0002485799 -0.4775170544 0.6981110737
480297120.0 -0.0867066985 0.1236360274 0.000221076 3.23758e-05 0.0003326084 0.000112996 -0.4699193163 0.7036660139
485297090.0 -0.0851411802 0.1245634722 -8.438e-06 0.000244242 2.7646e-06 0.0001191601 -0.4630516873 0.7079504876
490297060.0 -0.0845881729 0.12586865 0.0001035941 1.78662e-05 8.05144e-05 -4.6855e-06 -0.4557040527 0.7126766211
495297030.0 -0.083563788 0.1265427901 0.0001987845 -4.76691e-05 0.0002098896 0.00017563 -0.4486302855 0.7176995816
500297000.0 -0.0818775227 0.1277455276 0.0002140655 0.0002161294 0.0002118858 0.0003594795 -0.4404698771 0.7226841153
505296970.0 -0.0808969882 0.1284594281 0.0002018609 -0.0001195761 0.0002592197 8.49476e-05 -0.4335642335 0.7262524213
510296940.0 -0.0797615282 0.1293183384 0.0001621893 -4.18342e-05 0.00019198 -5.67363e-05 -0.426101771 0.7306669572
515296910.0 -0.0785208003 0.1301796121 0.0002133975 0.0001952335 0.0002307792 -5.81852e-05 -0.4181206718 0.7356468208
520296880.0 -0.0776614245 0.1311526365 0.0002131146 0.0001617938 7.98713e-05 7.99183e-05 -0.4104173892 0.739088444
525296850.0 -0.0760788092 0.1317161766 0.0002749867 3.35784e-05 0.000288715 0.0001577616 -0.4037128009 0.743527166
530296820.0 -0.075227127 0.1328531861 0.0002165849 9.08977e-05 0.0001111116 3.88107e-05 -0.3962201593 0.7473703446
535296790.0 -0.0741953888 0.1340947803 0.0002436322 0.0001368355 0.0003436877 0.0001159053 -0.3889645095 0.7515153794
540296760.0 -0.0730203675 0.1348202767 0.0001784589 0.0001150421 7.31318e-05 0.0002227987 -0.3809256178 0.7558099486
545296730.0 -0.0718184624 0.1357460469 0.0003364465 7.95946e-05 0.0002595221 9.17871e-05 -0.3733593685 0.7593960103
550296700.0 -0.0706342435 0.1365239535 0.0001113083 -0.0001419105 0.0003459105 -4.559e-05 -0.3652389626 0.7633060027
555296670.0 -0.0693280176 0.1372264156 0.0001752508 -4.24967e-05 0.0002074529 7.60335e-05 -0.358384302 0.7675386448
560296640.0 -0.0680449536 0.1382352953 0.0002419573 5.545e-05 0.0003223852 -6.80292e-05 -0.3497364931 0.7710529604
565296610.0 -0.0668888962 0.1391984113 -8.9785e-06 -0.0001018119 0.0002787363 7.813e-07 -0.3422942245 0.7737167566
570296580.0 -0.0657493924 0.1396680664 0.0002514299 1.1524e-06 0.0001225228 0.0001528486 -0.3349271386 0.77809399
575296550.0 -0.0643913611 0.140899027 0.0002953578 0.0001777234 0.000293791 0.0001297117 -0.3264321125 0.7810692462
580296520.0 -0.062887133 0.1414682408 0.0001180509 -1.55429e-05 0.0001972986 0.000112021 -0.3178788104 0.7844456713
585296490.0 -0.0619047266 0.1422173132 1.2938e-05 6.93711e-05 -0.0001380722 2.59896e-05 -0.310185607 0.7878752643
590296460.0 -0.0604295415 0.1429578784 -3.49326e-05 -3.31257e-05 0.0003306821 -3.78552e-05 -0.3028963046 0.7900293381
595296430.0 -0.0593101257 0.1437968556 0.0003228601 4.26529e-05 8.26451e-05 -7.20194e-05 -0.2946194408 0.7924434574
600296400.0 -0.0583136299 0.1445425754 0.0001450727 4.51104e-05 0.000315123 6.07329e-05 -0.2863457091 0.795324898
605296370.0 -0.0570671761 0.1450273742 0.0002479294 0.0001170381 0.0001172242 -1.0402e-06 -0.2784067868 0.7985911258
610296340.0 -0.0555261452 0.1460003794 0.0002420798 7.83293e-05 0.0001393887 5.65086e-05 -0.2704032605 0.8008898794
615296310.0 -0.0540296928 0.1466387643 -1.74697e-05 -0.0002536687 0.0004890794 9.6599e-05 -0.2615859853 0.8033821967
620296280.0 -0.0531103006 0.1471770385 0.0002649477 5.99443e-05 0.0002461111 -5.89559e-05 -0.2545409337 0.8060364003
625296250.0 -0.0514686334 0.147963054 0.0004689589 0.000123008 0.0003641171 0.0002945901 -0.2451665989 0.8079504551
630296220.0 -0.0498963957 0.1484122573 0.0003774948 -7.23797e-05 0.0002650049 0.0001451855 -0.2374603383 0.8105554434
635296190.0 -0.0490335215 0.1493726054 0.0002414011 -1.48095e-05 0.0002671007 0.0001553957 -0.2290903715 0.8127556442
640296160.0 -0.0472526205 0.1497946056 0.000209046 3.81668e-05 0.0001470182 0.000135998 -0.2211795801 0.8151927403
645296130.0 -0.0461928533 0.150839713 0.0003828807 -9.89548e-05 0.0002853974 -1.60929e-05 -0.2129813287 0.8173307273
650296100.0 -0.0446153649 0.1513273964 0.0001664281 0.0001758114 0.0003390784 -8.78995e-05 -0.2044470001 0.8187680689
655296070.0 -0.0432203266 0.1520074989 0.0003389417 0.0001125598 0.0002798105 6.02012e-05 -0.1957907355 0.8203252102
660296040.0 -0.0419122129 0.1525237547 0.0002115628 4.46217e-05 0.0003203709 -7.86543e-05 -0.1875106344 0.8226436972
665296010.0 -0.040553393 0.1527873577 0.0003523482 -1.86707e-05 0.0004351569 0.0001430279 -0.1794857377 0.8251483944
670295980.0 -0.0393189354 0.1535990117 0.0001928613 1.88537e-05 0.0002862355 0.0002339119 -0.1715622804 0.8270554227
675295950.0 -0.0378712964 0.1541106903 0.0001540605 0.0003205891 0.0001652823 0.0002309936 -0.1634440932 0.8286377168
680295920.0 -0.0361896311 0.1545301936 0.0001374117 -6.75479e-05 0.0001968821 -0.0002067493 -0.154291644 0.8310819422
685295890.0 -0.0347084542 0.1554115392 0.0001583539 -0.0003679 0.0003290367 0.000199093 -0.1457309953 0.8316975911
690295860.0 -0.0333886216 0.155906497 0.0003541987 -9.05282e-05 0.0001677175 -0.000110446 -0.1378478601 0.8332082568
695295830.0 -0.0322025556 0.1563394345 0.0001887355 -0.0001549325 0.0002820382 -3.36107e-05 -0.1291201318 0.8348082142
700295800.0 -0.0305470418 0.1569889797 0.0001694927 -5.60778e-05 -3.95401e-05 0.0001700064 -0.1215369534 0.8360641646
705295770.0 -0.0293229498 0.157597194 0.0002774704 -0.0002669379 0.0005174984 -4.36531e-05 -0.1135017525 0.8374558549
710295740.0 -0.0278133252 0.1578920801 0.0001960748 0.0001142799 -4.5624e-06 3.1977e-06 -0.1045438938 0.8386209121
715295710.0 -0.0262199047 0.1580676619 0.0003414012 8.82766e-05 0.0004009091 -0.0001643614 -0.0959307223 0.83942026
720295680.0 -0.025050091 0.1587071522 0.0002785679 -0.0001466373 0.0004654879 6.85827e-05 -0.0880852024 0.8410896195
725295650.0 -0.0230531297 0.1592535995 0.000405573 6.29305e-05 0.0002154613 -9.8018e-06 -0.0798309158 0.8422491945
730295620.0 -0.0216091154 0.1595526864 0.0002050099 -2.74636e-05 0.0002449021 -1.7051e-06 -0.0717889509 0.8425210861
735295590.0 -0.020435199 0.1603975008 0.0002915381 -0.0001504287 0.0003465323 4.87142e-05 -0.0625154605 0.842609659
740295560.0 -0.0191365476 0.1607207911 -8.71346e-05 2.48695e-05 0.0001555786 -0.0001814833 -0.0538370051 0.843767352
745295530.0 -0.0176231642 0.1610292231 0.0003054203 -0.0001888261 0.0004281183 -0.0001918657 -0.045737575 0.8436961409
750295500.0 -0.0157839447 0.1614438424 0.0002789419 8.52417e-05 0.0004324068 -7.91027e-05 -0.0377109318 0.8445079362
755295470.0 -0.0143396517 0.1615382419 0.0003245869 7.1722e-05 0.0002342922 -8.34835e-05 -0.0288654934 0.8445100495
760295440.0 -0.0130966062 0.1617913634 0.0004367147 -0.0001386639 0.0003987967 4.9267e-06 -0.020825306 0.8440231244
765295410.0 -0.0113369983 0.1621474946 0.0003649365 1.01411e-05 0.0002769695 -3.64545e-05 -0.0125566156 0.8447973521
770295380.0 -0.0101008607 0.1629067403 0.0002917315 -3.31656e-05 0.0001244063 -0.0001029505 -0.004129569 0.8450521544
775295350.0 -0.0088888261 0.1628324851 0.0001367213 -0.0002483411 0.0003196886 1.66478e-05 0.0041514651 0.8443342296
780295320.0 -0.0071060237 0.1628841407 0.0003557282 2.38685e-05 0.0001323037 3.96542e-05 0.0124773991 0.8441874832
785295290.0 -0.005835223 0.1631351839 4.53486e-05 0.0002083483 0.0002503991 7.18163e-05 0.0215611899 0.8434593057
790295260.0 -0.0037967633 0.1636077204 0.0003882301 5.60314e-05 0.0002223963 -6.19034e-05 0.0298019227 0.8438368587
795295230.0 -0.0024397351 0.1640182626 0.000356923 -2.60377e-05 0.0002985352 -0.0001255151 0.0389321994 0.8428443576
800295200.0 -0.0010934081 0.1640174883 0.0001884916 0.0001556053 0.0003237324 9.98145e-05 0.0470845359 0.8425639419
805295170.0 0.0009015691 0.1640867849 0.0001702464 0.0001148392 0.0002624522 4.90367e-05 0.0550220506 0.8424605254
810295140.0 0.0024510722 0.1643856871 0.0004640841 -0.0002586179 0.0003384726 -7.75161e-05 0.0638386869 0.8413521041
815295110.0 0.0036179962 0.1642301943 0.0003802488 -0.0001998162 0.0004822952 6.1629e-05 0.0725837025 0.8406655838
820295080.0 0.0053136975 0.1650304287 0.0001862685 -0.0001585113 0.000491688 -0.0002247061 0.0807294393 0.8403572841
825295050.0 0.0068347331 0.1649030836 0.0002070861 7.57585e-05 9.68629e-05 -0.0001248797 0.0890368706 0.8395682324
830295020.0 0.0081904137 0.1649679715 0.0004906327 0.0002573849 0.000492684 -7.1803e-06 0.0981721733 0.8382523159
835294990.0 0.0098670618 0.1651911927 0.0001819916 0.0001046406 0.0005085426 -4.32694e-05 0.1057180641 0.8375037184
840294960.0 0.0113066783 0.1654022585 0.0004021446 0.0001422606 0.0002307999 -0.0001347169 0.1144101366 0.8364395755
845294930.0 0.012796967 0.1655248391 0.0001331489 -0.0001463513 0.0004887867 -0.0001443636 0.1221298544 0.8354464465
850294900.0 0.0147383917 0.1655709026 0.00040511 -0.0002004945 3.89675e-05 -3.51353e-05 0.1302545361 0.8337166457
