!Created with skrf (http://scikit-rf.org).
# Hz S RI R 50.0 
!freq ReS11 ImS11 ReS21 ImS21 ReS12 ImS12 ReS22 ImS22
300000.0 -0.0935137842 -0.1046803513 0.6210501742 0.0966540136 0.6205561359 0.0977274479 -0.0939498726 -0.1090288903
5299970.0 -0.1012625851 0.0112424172 0.630420403 0.0113263752 0.6306342994 0.0114951602 -0.1016948753 0.0111204231
10299940.0 -0.0969657837 0.0287180918 0.634605132 0.0160503078 0.6342884659 0.0167373776 -0.0963724112 0.0283706598
15299910.0 -0.0892604789 0.0423370124 0.6408383235 0.0214619636 0.6406456798 0.0213467681 -0.0900279829 0.0418482864
20299880.0 -0.0804380296 0.0533996416 0.6489423014 0.024147919 0.6490716781 0.0244515355 -0.0810110274 0.0527541224
25299850.0 -0.0703007047 0.0621631846 0.6583686164 0.0261023183 0.6585681143 0.0255607993 -0.0713122061 0.0616421561
30299820.0 -0.0610054599 0.0687442727 0.6679078472 0.0247933859 0.6680717499 0.0242084967 -0.0614417694 0.0683619318
35299790.0 -0.0505765468 0.0734340662 0.6771086169 0.0219405988 0.6774614515 0.0218207082 -0.0521844919 0.0738137837
40299760.0 -0.0409905129 0.0762677842 0.6867633284 0.0176618055 0.6872260725 0.0177348012 -0.0425939996 0.0769869588
45299730.0 -0.0318260647 0.078628054 0.6961100423 0.0122429323 0.6959642617 0.0119764569 -0.0330059427 0.0790415406
50299700.0 -0.022737448 0.0789209559 0.7039050488 0.0050453304 0.7041972449 0.0052844024 -0.0245300288 0.0801269544
55299670.0 -0.0151559407 0.0788209083 0.7113415048 -0.0018974816 0.7109523378 -0.0022526428 -0.0172746108 0.0803874695
60299640.0 -0.007765197 0.0787308583 0.7181525797 -0.0109565422 0.7182345573 -0.0109232009 -0.0096179979 0.0798171858
65299610.0 -0.0013080965 0.0771609522 0.7243267406 -0.0193921471 0.7242803423 -0.0198327083 -0.0023856305 0.0785829198
70299580.0 0.0052924579 0.0752644799 0.7293283155 -0.028712543 0.7290528239 -0.0287219206 0.0029269016 0.0771548208
75299550.0 0.0104630615 0.0732506464 0.73307191 -0.0392605098 0.7336518412 -0.0385068522 0.0087866187 0.0753003121
80299520.0 0.0153723384 0.0715156652 0.7377236371 -0.0487310418 0.7379024867 -0.0484691712 0.0138765651 0.0735356244
85299490.0 0.0201082386 0.0690195889 0.7407226285 -0.0589792508 0.7410479498 -0.0580749759 0.0182089662 0.071238159
90299460.0 0.0240204052 0.0666916431 0.743460908 -0.0686948994 0.7431499512 -0.0687176943 0.0225524296 0.069194529
95299430.0 0.0279840426 0.064180651 0.7462031658 -0.0786743961 0.7462991882 -0.0792452744 0.0259492906 0.0664576972
100299400.0 0.0313821155 0.061495998 0.7476184532 -0.0885216446 0.7477802441 -0.0884685616 0.0290839966 0.0648360983
105299370.0 0.0342424279 0.0592209418 0.74889105 -0.09868506 0.7494845537 -0.098836406 0.0327643454 0.0615957003
110299340.0 0.0374298088 0.0564745924 0.7503810611 -0.108344435 0.7509745509 -0.1085808962 0.0352860619 0.0594853756
115299310.0 0.0396249535 0.0542434698 0.7511973544 -0.1187265857 0.751026896 -0.1185235294 0.0375666933 0.0577756364
120299280.0 0.0415493957 0.0520921347 0.7520608559 -0.1295383687 0.7518214938 -0.1291731806 0.0398750726 0.0547484702
125299250.0 0.043916234 0.0496050478 0.7525477354 -0.1394223642 0.7520380529 -0.1385808532 0.0422429815 0.0527918927
130299220.0 0.0456614293 0.046974671 0.7522458661 -0.1493430683 0.7518314359 -0.148921122 0.0439652851 0.0508188174
135299190.0 0.0469684886 0.0454012317 0.7520320399 -0.1584761699 0.7524316964 -0.1589970684 0.0454180472 0.0479686359
140299160.0 0.0487664572 0.0432646683 0.7517248155 -0.1686807939 0.7510858975 -0.1682084907 0.0465493401 0.0456705159
145299130.0 0.0494859271 0.0411761619 0.7503964468 -0.1784621004 0.7504693895 -0.1783677394 0.047987759 0.0439422508
150299100.0 0.0509475204 0.0391599558 0.7492303682 -0.1879180168 0.7493343987 -0.1877177961 0.0492149569 0.0420424261
155299070.0 0.0525303189 0.0372629613 0.7476896037 -0.197704022 0.7484634348 -0.1978932928 0.0508024966 0.0397163972
160299040.0 0.0534454311 0.0354638502 0.7467170307 -0.2071685988 0.7467403521 -0.20698998 0.0511001111 0.0379741387
165299010.0 0.0543425031 0.0334659947 0.7452965963 -0.2161383013 0.7448126034 -0.2165892932 0.0523117368 0.0358295558
170298980.0 0.0552860962 0.0320230927 0.7432299708 -0.2256444664 0.7433224276 -0.2262391831 0.0528456931 0.0339804333
175298950.0 0.0558999658 0.0304448105 0.7417997053 -0.2351107946 0.7421151201 -0.235389257 0.0535498049 0.0327946247
180298920.0 0.0564276387 0.0287235304 0.7394873103 -0.2451268679 0.7390822121 -0.2443964834 0.0538816892 0.0309916967
185298890.0 0.0568019854 0.0270925868 0.7377402944 -0.2535364624 0.7373628443 -0.253060921 0.0552493683 0.0290136006
190298860.0 0.0578653941 0.0255733069 0.7338695394 -0.2628613545 0.7349968189 -0.2623916156 0.0555381493 0.0273228424
195298830.0 0.0580569671 0.0241604836 0.7328754505 -0.2715458373 0.7325143682 -0.2717783254 0.0557886588 0.0260236009
200298800.0 0.058704855 0.0224141094 0.7298276289 -0.2812038862 0.7296538142 -0.2808983525 0.0565788318 0.0242176271
205298770.0 0.0584439873 0.0207394439 0.7268098375 -0.28929267 0.7271430071 -0.2892558261 0.057196958 0.0228592777
210298740.0 0.0589640338 0.0198414356 0.7241139565 -0.2982416215 0.7235471945 -0.2986372443 0.0567904516 0.0208938594
215298710.0 0.0593904857 0.0184320779 0.7210619513 -0.3070152442 0.720994804 -0.3070991612 0.057016876 0.0199634879
220298680.0 0.0596416053 0.0174108883 0.7176133758 -0.3153921712 0.7175332088 -0.3158557872 0.0575802179 0.0184022406
225298650.0 0.0598664297 0.0160636319 0.7142662074 -0.3242791781 0.7145349745 -0.3237789202 0.0573784326 0.0165939808
230298620.0 0.0604410169 0.0151218839 0.7112220334 -0.3329152654 0.711453393 -0.332981986 0.0573850589 0.0153210883
235298590.0 0.0596801357 0.0136626775 0.7078971556 -0.341973597 0.7080076256 -0.3413652237 0.0579064886 0.0145019933
240298560.0 0.0602818325 0.0126181172 0.7042714678 -0.3492839729 0.7039148871 -0.3494030129 0.0579333005 0.0129193568
245298530.0 0.0601136488 0.0111966711 0.7004238557 -0.3581658733 0.7003612193 -0.3578796549 0.0579087615 0.0116895359
250298500.0 0.0601349552 0.0102063796 0.6967528951 -0.3658540811 0.6970537998 -0.3658313218 0.0577321794 0.0109578979
255298470.0 0.0607620025 0.0097901654 0.6930316035 -0.3742278077 0.6938011498 -0.3740958485 0.0579814145 0.0099224612
260298440.0 0.060466686 0.0082685864 0.689553043 -0.3816052903 0.6889291218 -0.3818630806 0.057825559 0.0081443674
265298410.0 0.0600312565 0.007653282 0.6843892745 -0.3907163533 0.6849256404 -0.3908586273 0.0589612843 0.0068138604
270298380.0 0.0600550081 0.0062474045 0.680531567 -0.3984894836 0.680358992 -0.3981701627 0.0582158113 0.0062152927
275298350.0 0.060438576 0.0054846024 0.6757019106 -0.4058529913 0.6755873706 -0.4059914737 0.057795113 0.0050365409
280298320.0 0.0596968591 0.0044547096 0.671825954 -0.413484271 0.6724522212 -0.4144321964 0.0584876779 0.004054896
285298290.0 0.0598150651 0.0034956947 0.6667451065 -0.4212942098 0.6677435514 -0.4209695626 0.0579372101 0.0028697453
290298260.0 0.0601140458 0.0026088363 0.6637893492 -0.4297176518 0.6632181932 -0.4297286703 0.0582354904 0.0020355648
295298230.0 0.0599300572 0.0012418276 0.6585596041 -0.4383403948 0.6585131807 -0.4377801588 0.0579652149 0.0002630618
300298200.0 0.0601768852 0.0009366479 0.6541723612 -0.4449042553 0.6539442493 -0.4449017725 0.0579634515 -0.0003103333
305298170.0 0.0601634024 -0.0008950921 0.6493161417 -0.4532066458 0.6492384165 -0.453127391 0.0577770588 -0.0020195875
310298140.0 0.0605489992 -0.0017224718 0.6444202188 -0.460577671 0.6444970153 -0.4603223363 0.0583063033 -0.0034136007
315298110.0 0.0597667413 -0.003164825 0.6395153321 -0.4685312376 0.6393304914 -0.4686928762 0.0577993239 -0.0043843235
320298080.0 0.0594105137 -0.003897244 0.6333798225 -0.4758219474 0.6343594608 -0.4762360166 0.0571007686 -0.0055304539
325298050.0 0.0585508286 -0.0052350402 0.6286847792 -0.4827713369 0.6288028918 -0.48302421 0.0569343096 -0.0068441177
330298020.0 0.0574723213 -0.0056942601 0.6229012274 -0.4909106207 0.6232542044 -0.4907812861 0.0560253548 -0.0077639792
335297990.0 0.0575972189 -0.0066618749 0.6173565113 -0.4973103871 0.6172091098 -0.4973306036 0.0557124545 -0.0087399749
340297960.0 0.0570655719 -0.0078592553 0.6116110823 -0.5049260301 0.6110354914 -0.5049472334 0.0554209968 -0.0092681819
345297930.0 0.0564328985 -0.0083003671 0.6062236942 -0.5117075505 0.6055530301 -0.5121021123 0.0551619921 -0.0100985074
350297900.0 0.0558422588 -0.0091001786 0.6006025033 -0.5178946349 0.6004846547 -0.517792225 0.0546187647 -0.0110749296
355297870.0 0.0557834591 -0.0097521169 0.5946247742 -0.5244173686 0.594644113 -0.5246816196 0.0546366687 -0.0118680109
360297840.0 0.0552424869 -0.010430861 0.5885561507 -0.5315870253 0.5881398257 -0.5315881081 0.0534684891 -0.0122307103
365297810.0 0.0545949466 -0.0109958509 0.5823234608 -0.5380872361 0.5825395962 -0.5385330817 0.0531795294 -0.013362992
370297780.0 0.0548125361 -0.0114421253 0.5763684606 -0.544706638 0.5765635985 -0.5442060277 0.0528684936 -0.0139877796
375297750.0 0.0543684584 -0.0120543154 0.5707155609 -0.5504670901 0.5706021065 -0.5508598945 0.0530992665 -0.0146569654
380297720.0 0.0535072074 -0.0127856368 0.5647096034 -0.5577854342 0.5644115542 -0.5576397301 0.0523505858 -0.0149394752
385297690.0 0.0531729478 -0.0138556656 0.5578268918 -0.5636124909 0.5584298257 -0.5642773842 0.052223863 -0.0156003777
390297660.0 0.0528300016 -0.0144552313 0.5516477767 -0.5691763431 0.552357319 -0.5700586085 0.0522908767 -0.0166764394
395297630.0 0.0530382599 -0.0149403755 0.5460943546 -0.5748965769 0.5459937932 -0.5751772134 0.0512654778 -0.0167788262
400297600.0 0.0520516381 -0.0158691755 0.5399096273 -0.5818912308 0.5398213297 -0.5817781695 0.0514149328 -0.0171677717
405297570.0 0.05199527 -0.0168049972 0.5338362388 -0.5878363306 0.5333688484 -0.5874349103 0.0508643931 -0.0175925773
410297540.0 0.0516387881 -0.0165495018 0.5269351301 -0.5938269925 0.5270757045 -0.5937763721 0.0503562902 -0.0186915225
415297510.0 0.0509553978 -0.0174359573 0.5198915318 -0.5995680791 0.5206041752 -0.5996713928 0.0502316248 -0.0190998612
420297480.0 0.0507311596 -0.0185246319 0.5133835088 -0.6056851212 0.5138149977 -0.6055361775 0.0504174782 -0.0192818931
425297450.0 0.0509916256 -0.018682136 0.5069889503 -0.6103571347 0.5068053974 -0.611365861 0.0500553316 -0.0204778487
430297420.0 0.0501507821 -0.0193144721 0.5008776212 -0.6167595098 0.5009993787 -0.6162866471 0.0499797488 -0.0206764016
435297390.0 0.0496743683 -0.0204848735 0.4934023598 -0.6227088182 0.4934264762 -0.6220140052 0.0487194431 -0.0211552427
440297360.0 0.0497126167 -0.0211279521 0.4863907606 -0.6278305489 0.4860233005 -0.6281139607 0.048718641 -0.0216606932
445297330.0 0.0493348919 -0.0218739829 0.4803811991 -0.6330006459 0.4795841826 -0.6330517292 0.0481034302 -0.0219897389
450297300.0 0.0488386562 -0.0221570167 0.4729184997 -0.6378253183 0.4730887222 -0.6383840519 0.0480580673 -0.0225167609
455297270.0 0.0480441385 -0.0227716315 0.4654551353 -0.6436198395 0.4659864167 -0.643245428 0.0478142902 -0.0229842566
460297240.0 0.0482386066 -0.0233750772 0.4584075202 -0.6492990105 0.4587870976 -0.6493609851 0.0475074556 -0.0239643614
465297210.0 0.0475752914 -0.0240655813 0.4507989297 -0.6539097862 0.4510152125 -0.6539747666 0.0475250037 -0.0237757973
470297180.0 0.0473116741 -0.0248730529 0.4441210897 -0.6583533495 0.4449849972 -0.6583603407 0.0472591486 -0.0249985569
475297150.0 0.0464600547 -0.0251918513 0.4368605158 -0.663260804 0.437468763 -0.6637856373 0.0466460942 -0.0254632968
480297120.0 0.0468474155 -0.0250872757 0.4298441815 -0.6679818163 0.4297486736 -0.6682796099 0.0460137416 -0.0260302716
485297090.0 0.0461760296 -0.0268147977 0.4224057383 -0.673032676 0.4225005576 -0.6731099074 0.0457204708 -0.0261439073
490297060.0 0.0462346075 -0.0265873013 0.4141155749 -0.6776436936 0.4149615667 -0.6779508043 0.0453514043 -0.0270684954
495297030.0 0.0452535152 -0.0276478445 0.4076380075 -0.6828180944 0.4073262872 -0.682772092 0.0453155396 -0.0276662951
500297000.0 0.044804573 -0.0278906634 0.4000334896 -0.68643701 0.4000100726 -0.6867342452 0.0448480591 -0.0276057823
505296970.0 0.0449801241 -0.0283343295 0.3926583841 -0.6909640263 0.3923771932 -0.6912349298 0.044524773 -0.029097641
510296940.0 0.0443008663 -0.0290074182 0.3852244898 -0.6961853599 0.3853416988 -0.6959051894 0.0442229659 -0.0288406546
515296910.0 0.0438100245 -0.0292421511 0.3767066295 -0.6996849001 0.3768971743 -0.6998040605 0.0438242931 -0.0298194388
520296880.0 0.0433198242 -0.0294827121 0.3693816023 -0.7037734181 0.369506305 -0.7036414051 0.0439576395 -0.0295137963
525296850.0 0.043308176 -0.030452822 0.3617691666 -0.7078528554 0.3611816991 -0.7079744866 0.0437677132 -0.0304266725
530296820.0 0.0424875794 -0.0313332553 0.3541914726 -0.7120556235 0.3541765099 -0.7120250886 0.0429991429 -0.0310466771
535296790.0 0.0428633629 -0.0311401295 0.3462566727 -0.7157543491 0.3460307388 -0.7156779637 0.0430477019 -0.0312759394
540296760.0 0.0421909317 -0.0313398011 0.337852435 -0.7196444437 0.338554236 -0.7196974688 0.0420905134 -0.0324585717
545296730.0 0.0411567047 -0.0316883235 0.3301386614 -0.7229852757 0.330397315 -0.7229470011 0.0418559191 -0.0324945694
550296700.0 0.0414442679 -0.0321535329 0.3223197966 -0.7269605985 0.3220128565 -0.7269111608 0.0417290316 -0.0328015823
555296670.0 0.0407330055 -0.0328180957 0.3146481261 -0.7308787398 0.3147040535 -0.7307070887 0.041013237 -0.033925894
560296640.0 0.0411766797 -0.0331094775 0.3062429018 -0.7333948331 0.3073570859 -0.7335713983 0.0404597743 -0.0336222324
565296610.0 0.0397805498 -0.0335390467 0.298662951 -0.737079024 0.2991517926 -0.736796065 0.0402500126 -0.0341657593
570296580.0 0.0393959864 -0.0339813041 0.2903354697 -0.7397927921 0.2908623962 -0.7405923631 0.0394719226 -0.0349741266
575296550.0 0.0392039325 -0.0344111599 0.2827564147 -0.7435544328 0.2823265302 -0.7427766014 0.0392546959 -0.0352555213
580296520.0 0.0389373011 -0.034252311 0.2748130213 -0.7466152034 0.2744382383 -0.7465219102 0.0383369104 -0.0355909052
585296490.0 0.038169854 -0.0346471335 0.266114947 -0.7488402371 0.2657996954 -0.7492667473 0.0389475378 -0.0356746774
590296460.0 0.0386145942 -0.0349674917 0.2578350715 -0.7520630623 0.2581348199 -0.7520951996 0.0373242305 -0.0358159201
595296430.0 0.0376571315 -0.0355629335 0.2489875584 -0.7551297023 0.2492943857 -0.7553316829 0.0374972745 -0.0371584035
600296400.0 0.0377070413 -0.0355081215 0.2410383137 -0.7574237201 0.2415517848 -0.7576994803 0.0369768829 -0.037101837
605296370.0 0.0363201024 -0.0359963534 0.2334249834 -0.7599446694 0.2323913272 -0.7602579144 0.0365625789 -0.0370713275
610296340.0 0.0365038645 -0.0358154047 0.2243824636 -0.7622809453 0.2251059458 -0.7624194537 0.0356036867 -0.0374443432
615296310.0 0.0361081305 -0.0366357745 0.2163021096 -0.7654767944 0.2160677412 -0.7653139619 0.0354698559 -0.0378725655
620296280.0 0.0352550234 -0.0363852215 0.207708504 -0.7674277069 0.2079085575 -0.767471452 0.034634227 -0.0380100043
625296250.0 0.0344792024 -0.0369738772 0.1996651609 -0.7698240535 0.1996956032 -0.7701238495 0.0333402829 -0.0387201199
630296220.0 0.0344613837 -0.0368418526 0.1908897693 -0.7720627745 0.1911036431 -0.7716671696 0.0337230193 -0.0388646997
635296190.0 0.0332289905 -0.0368607169 0.1822791212 -0.7736333686 0.1825497105 -0.7737335131 0.0328371409 -0.0393724569
640296160.0 0.0329651816 -0.0371992073 0.1739263749 -0.7762056079 0.1738876252 -0.7760275329 0.0319849433 -0.0395304581
645296130.0 0.0328454779 -0.0369033506 0.1654085129 -0.7776848098 0.1659359202 -0.7774816754 0.0315269822 -0.0405956824
650296100.0 0.032146423 -0.0374774694 0.1576043656 -0.7800330548 0.1570166232 -0.7794929629 0.0321753087 -0.0401731095
655296070.0 0.0314144819 -0.0375074236 0.1480306384 -0.78131198 0.1486259374 -0.7808966681 0.0305651908 -0.0402070168
660296040.0 0.031047682 -0.0375938525 0.1398480837 -0.7828616567 0.1404345739 -0.7827504744 0.029850482 -0.0413476442
665296010.0 0.0308740186 -0.0378556535 0.1307592003 -0.7842188962 0.1315121225 -0.7843760646 0.0293970083 -0.040988133
670295980.0 0.0302779737 -0.0378172518 0.122344698 -0.7851897807 0.1226004794 -0.7850272467 0.0284076289 -0.0414387281
675295950.0 0.0295167352 -0.0382602944 0.1140870378 -0.7863579434 0.1145632347 -0.7870999736 0.0278779776 -0.0412966233
680295920.0 0.0288465369 -0.0379266148 0.1058587278 -0.7879097271 0.1056843914 -0.7878237825 0.0278052993 -0.0421829294
685295890.0 0.0286222863 -0.0380326255 0.0966715207 -0.7893898347 0.0974475427 -0.7892285574 0.0270538685 -0.0414142946
690295860.0 0.0275599739 -0.0381741437 0.0885691329 -0.7899856026 0.0881159004 -0.7903994779 0.0263085804 -0.0419393726
695295830.0 0.02729935 -0.038483192 0.0802943151 -0.7910609059 0.080321057 -0.7911115004 0.0256788449 -0.0421229338
700295800.0 0.0267562236 -0.0383128847 0.07182048 -0.7921172405 0.0715378439 -0.7914924263 0.0250870881 -0.0421515786
705295770.0 0.0260070363 -0.0383214854 0.0627278218 -0.7931023421 0.0627318291 -0.7923422888 0.024358903 -0.0420071731
710295740.0 0.025523093 -0.0386670244 0.054444193 -0.7933891445 0.0544641175 -0.7935762577 0.0238747799 -0.0423239443
715295710.0 0.0246523396 -0.0381719667 0.0453651855 -0.7935501342 0.0460152716 -0.7939972114 0.0231828198 -0.0425812169
720295680.0 0.024686943 -0.0383638054 0.036797593 -0.7939248844 0.0370426395 -0.7948518302 0.0226970942 -0.0429266043
725295650.0 0.0232033169 -0.0383499868 0.0285410961 -0.7941051818 0.02851078 -0.794462692 0.021687161 -0.0422081782
730295620.0 0.0224318229 -0.0389085058 0.0192663884 -0.7943114283 0.0199614557 -0.7938611931 0.020825174 -0.0419749881
735295590.0 0.0226050547 -0.0385294751 0.0108649025 -0.7948040803 0.0108948103 -0.7949098939 0.0202744471 -0.0431058258
740295560.0 0.0217512944 -0.0389617688 0.0026929687 -0.7948919727 0.0026122417 -0.7949074179 0.0191881245 -0.0422673738
745295530.0 0.0207107505 -0.0384199494 -0.0062253619 -0.7945746857 -0.0055278658 -0.7942632535 0.0181871097 -0.0428632701
750295500.0 0.0201110349 -0.038374038 -0.0150240369 -0.794591694 -0.0148449598 -0.7943468455 0.018041014 -0.0426442661
755295470.0 0.0194677628 -0.0383268313 -0.0231784709 -0.7951085807 -0.0227314762 -0.7948599263 0.017667444 -0.0422405544
760295440.0 0.0187933029 -0.0377772327 -0.0326092938 -0.7936964617 -0.0316525994 -0.7939838201 0.0171735822 -0.043875424
765295410.0 0.0186910446 -0.0386515128 -0.0412364201 -0.7935367618 -0.0399603137 -0.7935608044 0.0162677437 -0.0428399648
770295380.0 0.0178311213 -0.0380558026 -0.0487782886 -0.7929890156 -0.049016677 -0.7932641963 0.0153862248 -0.0425989617
775295350.0 0.0171607471 -0.0383529369 -0.0577818853 -0.7933670077 -0.057543477 -0.7919419564 0.0150571795 -0.0425655331
780295320.0 0.01631141 -0.0381525911 -0.0663950818 -0.7912473354 -0.065847189 -0.791636965 0.0145481118 -0.0427134986
785295290.0 0.0157026959 -0.038403454 -0.0747291533 -0.7913782129 -0.074886441 -0.7911450795 0.01306534 -0.0421471652
790295260.0 0.0153968677 -0.0385434115 -0.0831689254 -0.7907527386 -0.083000504 -0.7905605692 0.0127214252 -0.0417587652
795295230.0 0.0147086853 -0.0386583518 -0.0917995255 -0.7897161774 -0.0917279495 -0.7898140088 0.0122254435 -0.0429183383
800295200.0 0.0135219285 -0.0381061336 -0.1001966175 -0.7874200706 -0.1004752463 -0.7879517612 0.0113732626 -0.0423452394
805295170.0 0.0126468352 -0.0381432439 -0.1094628315 -0.7872665336 -0.1084467876 -0.7870916306 0.0113485827 -0.0419599874
810295140.0 0.012795703 -0.0380545625 -0.1174750773 -0.7857007483 -0.1174746711 -0.7857152084 0.0104828433 -0.0419344727
815295110.0 0.0119210521 -0.0376664029 -0.1256802577 -0.7844300241 -0.12562532 -0.7846916939 0.0096301743 -0.0418605383
820295080.0 0.0115281563 -0.0377351463 -0.1336980919 -0.7823139211 -0.1342752054 -0.783151988 0.0079822088 -0.0410225175
825295050.0 0.0103794865 -0.037967985 -0.1429924173 -0.7816214157 -0.1426447543 -0.7814250668 0.008900336 -0.0410123688
830295020.0 0.0096411392 -0.0377684368 -0.1514315108 -0.7800296406 -0.1515430001 -0.7804053085 0.0077545613 -0.0419106833
