!Created with skrf (http://scikit-rf.org).
# Hz S RI R 50.0 
!freq ReS11 ImS11 ReS21 ImS21 ReS12 ImS12 ReS22 ImS22
300000.0 0.8608978371 -0.0016678386 -0.000860876 -0.0008298283 8.00571e-05 0.0004277249 -0.7640200102 -0.2041132967
5299970.0 0.8601473816 -0.0105087975 -0.0001110522 7.5903e-06 0.0001265753 -0.0003275305 -0.7843323843 -0.010220903
10299940.0 0.8586146011 -0.0192137831 0.0001656916 4.7504e-05 -1.1233e-05 0.000219966 -0.7874514813 -0.0057481762
15299910.0 0.8576952747 -0.0269303253 -1.78286e-05 3.80942e-05 -8.05196e-05 -4.60209e-05 -0.7922550254 -0.0025975498
20299880.0 0.8579113096 -0.0357963522 -6.87506e-05 0.0001027869 -7.62475e-05 0.0001653625 -0.7995883881 0.0016910656
25299850.0 0.8566375606 -0.0440356071 6.90594e-05 3.5124e-06 4.40124e-05 -0.0001620018 -0.8057842162 0.0076494594
30299820.0 0.8561247711 -0.0524483377 0.0001119137 3.2708e-05 0.0002070696 7.21712e-05 -0.8116315661 0.015900809
35299790.0 0.8552776233 -0.0606387977 -0.0001974525 0.0002235398 -5.0318e-06 -0.0001119529 -0.8166625218 0.0246689913
40299760.0 0.8548139125 -0.0679287317 -2.28179e-05 6.69943e-05 -0.0003196961 -9.98212e-05 -0.8208931247 0.034221257
45299730.0 0.8534564354 -0.0766139841 4.281e-05 -0.0001143218 1.45102e-05 -0.0001214418 -0.8237790587 0.04385084
50299700.0 0.853045409 -0.0844248416 7.03205e-05 0.0001332459 0.0002724424 0.0001428414 -0.8259702015 0.0539454919
55299670.0 0.8522465212 -0.0930214271 0.000147487 -0.0001240347 -4.72167e-05 9.97515e-05 -0.8286864777 0.0639606958
60299640.0 0.8507170273 -0.1008789119 3.91141e-05 -0.000148065 -0.0002029752 -4.95707e-05 -0.8288878392 0.0741034225
65299610.0 0.8499801065 -0.108832288 3.20016e-05 0.00011433 -6.07059e-05 -2.54632e-05 -0.8298217376 0.0841046424
70299580.0 0.8490295992 -0.1174728459 -0.0001014923 5.50018e-05 -9.1424e-06 6.6497e-06 -0.8304780773 0.0937548943
75299550.0 0.8481975453 -0.1251318265 -0.0002566813 0.0001009295 -0.0002131314 -0.0002558239 -0.8302156384 0.1043210411
80299520.0 0.8465749752 -0.1331826312 4.31751e-05 -0.0001781703 2.23846e-05 -7.82507e-05 -0.8306762592 0.1140917023
85299490.0 0.8450504807 -0.1418703563 0.0001138929 -5.80639e-05 -8.82354e-05 -4.72307e-05 -0.8295462692 0.123185661
90299460.0 0.8444550783 -0.1501412897 -0.0001906947 -0.0001121572 0.000172026 -9.15367e-05 -0.8285794424 0.1329900025
95299430.0 0.8425426736 -0.1581609055 2.60351e-05 -0.0001461218 -2.46226e-05 -0.0001044584 -0.8279735664 0.1428044385
100299400.0 0.8407317191 -0.1666545929 0.0002870244 -0.0002190046 -3.17004e-05 3.64801e-05 -0.826862959 0.1516154764
105299370.0 0.839339709 -0.1744387987 0.0001020772 -0.000107506 -6.8877e-06 8.83899e-05 -0.8255606514 0.1608314288
110299340.0 0.8372755731 -0.1830157802 -7.8696e-05 4.23864e-05 8.0229e-05 -0.000199216 -0.8240575606 0.16990965
115299310.0 0.8359119596 -0.1912508731 -4.53035e-05 -9.4351e-06 -0.0001179849 1.02885e-05 -0.8232458783 0.1791003462
120299280.0 0.8339055992 -0.1985110743 -0.000176548 -6.43411e-05 5.33241e-05 -0.0001395915 -0.8207015298 0.1880795775
125299250.0 0.8319404145 -0.2062143168 0.00024516 -7.23285e-05 -0.0002638684 -0.0001531544 -0.8191277099 0.196945953
130299220.0 0.8298871168 -0.2146302674 -7.91976e-05 -0.0001485364 -6.76206e-05 7.40759e-05 -0.817396824 0.2061466904
135299190.0 0.8278090071 -0.2230876959 -0.0001423923 -2.16648e-05 -2.12759e-05 0.0001932121 -0.8157938853 0.2149480458
140299160.0 0.8258204572 -0.229949222 2.84907e-05 0.0001542291 9.71126e-05 8.06799e-05 -0.8135438518 0.2236941598
145299130.0 0.8235411065 -0.2383819361 2.79097e-05 -0.0001030255 -1.94786e-05 0.0001485083 -0.8118859525 0.23260303
150299100.0 0.8212046187 -0.2465268251 3.04774e-05 -8.16229e-05 -6.40547e-05 -7.01359e-05 -0.8092124814 0.2413776526
155299070.0 0.8184167232 -0.2539671407 -0.000106325 4.34819e-05 -7.03511e-05 -0.0001235097 -0.8067311629 0.2505117264
160299040.0 0.8161231683 -0.2616091537 2.1783e-06 -6.80544e-05 -5.21823e-05 0.0002329136 -0.8043383515 0.2592285813
165299010.0 0.8137025822 -0.2692981834 -0.0001249696 -0.0001634172 -4.4304e-06 -1.53684e-05 -0.8017839048 0.2669171302
170298980.0 0.8111343585 -0.2776135388 -0.0001173285 0.0001136316 2.97868e-05 -5.8603e-05 -0.7995224575 0.2752503577
175298950.0 0.8088424906 -0.2855982721 8.1788e-06 1.52192e-05 -0.0001255928 -0.0001158758 -0.796304731 0.2849253273
180298920.0 0.8059915763 -0.2930092962 1.47618e-05 0.0001657329 -1.08608e-05 -0.0001486185 -0.7932349709 0.2932495312
185298890.0 0.8024390723 -0.3007916237 -0.0001304032 -2.66679e-05 1.99682e-05 7.93442e-05 -0.7902075921 0.3017107537
190298860.0 0.8001509138 -0.3087782859 0.0001231214 -6.95229e-05 4.35369e-05 6.4312e-06 -0.7870019427 0.3097416343
195298830.0 0.7968553178 -0.3158111792 -0.0002430279 -0.0001486885 -0.0001108766 -6.9535e-05 -0.7838565923 0.318047347
200298800.0 0.7939754543 -0.323203197 -1.66613e-05 -1.17508e-05 -4.1585e-05 3.33138e-05 -0.7806005335 0.3264807706
205298770.0 0.7908295117 -0.3318722808 4.81601e-05 -5.5611e-05 0.0001186929 -0.0001119282 -0.7768905783 0.3353274561
210298740.0 0.7879155905 -0.3386866001 -0.0002816724 9.5614e-06 7.77705e-05 4.99776e-05 -0.7743375115 0.3431041057
215298710.0 0.7845475833 -0.3464653894 -4.49049e-05 -0.0001098512 4.56763e-05 4.5237e-06 -0.7700346989 0.3515250978
220298680.0 0.7814920116 -0.3537238552 -0.0001332792 0.0002626027 -7.3047e-06 1.36884e-05 -0.766408265 0.3593523805
225298650.0 0.7776783975 -0.3618527965 0.0001067662 0.0001321748 -0.0001682185 0.0001986707 -0.7626406987 0.3679517867
230298620.0 0.7732541179 -0.3683351421 -0.0001817046 -0.0001157481 -4.40666e-05 3.7207e-05 -0.7585959553 0.3753330664
235298590.0 0.7701969864 -0.3766352515 2.1716e-05 -8.64722e-05 -0.000160774 0.000197751 -0.7553339126 0.3833952913
240298560.0 0.7663409508 -0.3836575351 0.0001038032 0.0002417616 -0.0002584602 -4.29804e-05 -0.7512760698 0.390443926
245298530.0 0.7627596369 -0.3911380347 4.52314e-05 7.08314e-05 0.0001964223 0.0001472621 -0.7468791841 0.398881269
250298500.0 0.7588893397 -0.3984065549 -7.31532e-05 0.0001160923 6.11181e-05 -0.0001274221 -0.7429001624 0.4073621065
255298470.0 0.7552277926 -0.4057737172 -0.0003288794 -9.89826e-05 -6.69008e-05 1.22151e-05 -0.7383184266 0.4148211481
260298440.0 0.7517685896 -0.4129813413 -0.000112195 -0.0002743807 1.80721e-05 -4.021e-07 -0.7339244408 0.4219825244
265298410.0 0.7473523937 -0.4199655635 0.0001838605 -9.08423e-05 0.0001221488 -0.000295158 -0.7297398326 0.430345403
270298380.0 0.743814019 -0.4267160846 5.34319e-05 -0.0001402956 -7.97667e-05 -0.0001891299 -0.72482227 0.4382158332
275298350.0 0.7391059926 -0.4342543305 0.0001564524 -7.47378e-05 3.85083e-05 0.0002088713 -0.7200160703 0.4454157647
280298320.0 0.7344197592 -0.4414711319 -2.19839e-05 0.0001279075 4.4891e-06 6.69607e-05 -0.7160166392 0.4532883936
285298290.0 0.7306448369 -0.4484751359 0.0002837649 1.88981e-05 -0.0001414874 6.71021e-05 -0.711777277 0.4604646913
290298260.0 0.7266872161 -0.4557655781 6.10856e-05 -5.52333e-05 7.2735e-06 2.23456e-05 -0.7063501437 0.4678307142
295298230.0 0.7226629569 -0.4624600286 5.73892e-05 -0.0001231737 2.60939e-05 0.0001873375 -0.7012407823 0.4754544102
300298200.0 0.7179734589 -0.4698691589 -0.0001805454 -6.94879e-05 5.76196e-05 -2.7601e-06 -0.6967319553 0.4825636243
305298170.0 0.7137512257 -0.4771672702 -4.0823e-06 -0.000314426 1.1386e-05 7.71225e-05 -0.6911285552 0.4894454642
310298140.0 0.7091371571 -0.4855332156 2.76714e-05 0.0001116412 -5.47561e-05 0.0001129538 -0.685706155 0.4969114998
315298110.0 0.703657031 -0.4921000704 0.0001508652 -0.0002121417 1.85393e-05 -4.65106e-05 -0.6813842959 0.5044602111
320298080.0 0.6987045349 -0.4993698683 4.88502e-05 -0.0002396188 4.72289e-05 0.0001956048 -0.6758696826 0.5110108534
325298050.0 0.6928336945 -0.5072727581 -9.60197e-05 -0.0001419544 0.0002626989 -5.19819e-05 -0.6704315127 0.518098295
330298020.0 0.6868463625 -0.5135903467 2.3966e-05 -0.0001204249 -0.0001307046 -5.01712e-05 -0.6646876278 0.5251944172
335297990.0 0.6812147762 -0.5193232052 -1.87029e-05 -0.0001170551 7.76417e-05 7.08824e-05 -0.659397315 0.5319344659
340297960.0 0.675702253 -0.52526927 7.57535e-05 -2.39282e-05 -1.04919e-05 7.07458e-05 -0.6542640546 0.5384928642
345297930.0 0.6707261786 -0.5323149872 2.731e-05 8.81542e-05 -9.75501e-05 -2.65698e-05 -0.6482359944 0.5447597826
350297900.0 0.6650342648 -0.538561758 8.37952e-05 -0.0001144786 -0.000299577 7.57928e-05 -0.6430168594 0.5517655411
355297870.0 0.6598998782 -0.5450360927 -7.3758e-05 -0.0001035345 -4.93271e-05 0.0001541093 -0.6366687185 0.5593179259
360297840.0 0.6543226576 -0.5507570084 6.20523e-05 4.94106e-05 7.77669e-05 0.0001333544 -0.6304537621 0.5651677252
365297810.0 0.6487814873 -0.5570532736 -0.0001111164 1.47835e-05 -4.2333e-05 -1.81694e-05 -0.6257603318 0.5710035379
370297780.0 0.6433015888 -0.5629706723 3.11092e-05 1.20338e-05 0.0001369686 -0.000111683 -0.6193413301 0.577941421
375297750.0 0.6380751829 -0.5690308345 4.60841e-05 5.56033e-05 -1.94959e-05 1.35422e-05 -0.6128821295 0.5841231755
380297720.0 0.6313841851 -0.5745793135 0.0001172865 6.76972e-05 0.0001140066 6.84217e-05 -0.6068203145 0.5904688289
385297690.0 0.6264940811 -0.5811551914 -2.36612e-05 7.85091e-05 0.0001182386 7.15332e-05 -0.6015793863 0.5965584697
390297660.0 0.621729036 -0.5873398743 -5.71637e-05 -0.0001190438 0.0001818565 2.50526e-05 -0.5947009779 0.6023173404
395297630.0 0.6148438005 -0.5925568414 0.0001119235 -5.24026e-05 -4.2044e-06 0.0001970512 -0.5876048285 0.607501292
400297600.0 0.6085431408 -0.5985265519 0.0001262448 -0.0001331848 3.67133e-05 -8.03082e-05 -0.5826228133 0.6140796237
405297570.0 0.6033872464 -0.6047157652 -7.89017e-05 0.0001331636 -0.0001290312 0.0001546119 -0.5755901268 0.6198983703
410297540.0 0.5985437038 -0.6097118197 5.30983e-05 -8.41045e-05 5.74013e-05 -4.68167e-05 -0.5694952395 0.6261193195
415297510.0 0.591837489 -0.6155433033 0.0002390057 0.0001636316 2.82981e-05 0.0001997776 -0.5628310496 0.6314374864
420297480.0 0.5858267122 -0.6219268584 -9.53285e-05 -0.0003236487 -6.32399e-05 -5.81975e-05 -0.5564579535 0.6378464195
425297450.0 0.5797728907 -0.6274463634 2.65711e-05 -0.0002132172 -4.43861e-05 0.0001239048 -0.549652711 0.6430188819
430297420.0 0.5735459226 -0.6331481718 2.4438e-05 1.28227e-05 6.47855e-05 0.0001281916 -0.5427465219 0.6491646894
435297390.0 0.5671493764 -0.6387429245 0.0001730857 9.94813e-05 4.37015e-05 -4.80209e-05 -0.5366044153 0.6544991589
440297360.0 0.5615959721 -0.644004256 -3.99159e-05 -1.1257e-06 -5.73239e-05 1.51879e-05 -0.5302207034 0.6598174405
445297330.0 0.5551849274 -0.6492595312 -6.04155e-05 8.29788e-05 9.94352e-05 7.91578e-05 -0.5228181532 0.6650862303
450297300.0 0.5492369697 -0.655295794 6.691e-07 -0.0001632408 0.0001236464 0.0002070068 -0.5158154123 0.6701301624
455297270.0 0.5424904478 -0.6599665247 0.0001281321 0.0001324391 -5.53913e-05 -0.0001077557 -0.5087214371 0.675618056
460297240.0 0.5360635702 -0.6648870286 -6.7921e-05 0.0001008776 -0.0001236324 3.19508e-05 -0.5022005745 0.6799946794
465297210.0 0.5296887523 -0.6701718352 -0.0001292401 -0.0001964603 -2.2932e-05 -0.0002229984 -0.4947947972 0.686107578
470297180.0 0.523125348 -0.6754728786 -3.21416e-05 0.0003273771 -9.63907e-05 -0.0002175423 -0.4879422162 0.6908079492
475297150.0 0.5159122969 -0.6809089704 1.75088e-05 -4.43954e-05 -1.6775e-05 2.55949e-05 -0.4814068773 0.6954964187
480297120.0 0.5098897509 -0.6856296765 0.0002053193 0.0001320489 -0.0001568513 0.0002057663 -0.4741862186 0.7002156575
485297090.0 0.5032426027 -0.6902716043 6.26768e-05 0.0001026755 9.11816e-05 -4.22439e-05 -0.4669705439 0.705151094
490297060.0 0.4972654833 -0.6949424522 8.7136e-06 -4.61156e-05 3.1599e-06 -8.39508e-05 -0.4594471676 0.7093079521
495297030.0 0.4900037852 -0.6998151645 -2.16076e-05 2.79709e-05 -1.67981e-05 0.000202061 -0.4522878628 0.7141326827
500297000.0 0.4834024216 -0.7042697707 0.0001671293 -6.46214e-05 -7.16054e-05 5.81076e-05 -0.44512835 0.7186653064
505296970.0 0.4765760488 -0.7092316733 -6.19775e-05 -6.7297e-05 9.22579e-05 -2.91802e-05 -0.4373235966 0.7228579113
510296940.0 0.469540921 -0.7138717694 -9.23154e-05 -0.0001665208 3.68911e-05 0.0001192702 -0.4296863229 0.7278136697
515296910.0 0.4619091823 -0.7179611968 1.7493e-05 -0.0002077586 -1.96311e-05 5.25847e-05 -0.4224066008 0.7313701502
520296880.0 0.4562831784 -0.7229469084 8.3721e-06 4.1786e-05 0.0002197309 0.0001039438 -0.4149853185 0.7361461379
525296850.0 0.4494038545 -0.7269307044 9.51554e-05 -0.0001877864 0.000109201 1.283e-05 -0.4079086905 0.7399696991
530296820.0 0.4422099274 -0.7315009531 -0.0001493514 0.0001190453 -1.4982e-06 6.02764e-05 -0.400579088 0.7434124698
535296790.0 0.4350456987 -0.7353220784 -8.02912e-05 -3.877e-07 -4.59833e-05 -1.13188e-05 -0.3931223707 0.7481349236
540296760.0 0.4279983083 -0.739320014 -0.000267775 -1.78551e-05 -0.0001723182 0.0001457801 -0.3852842223 0.7514434681
545296730.0 0.4200247981 -0.7438445833 -5.73155e-05 -0.0002580761 -5.03662e-05 2.59468e-05 -0.3778204883 0.7560488333
550296700.0 0.4129874692 -0.7470787372 0.0001378475 0.0001904101 2.15481e-05 -0.0001758265 -0.3700843061 0.7587049467
555296670.0 0.4060971649 -0.7516100307 -0.0001986294 8.73148e-05 0.0001048923 8.85165e-05 -0.3623930289 0.7626800439
560296640.0 0.3993953649 -0.7547019588 -3.825e-06 0.0001417254 -0.0001241233 7.36367e-05 -0.3546715861 0.7668865333
565296610.0 0.3914722886 -0.7593447227 -9.51218e-05 2.93264e-05 4.52937e-05 0.0003015857 -0.3465259221 0.7709427167
570296580.0 0.3839667733 -0.7631760729 1.18671e-05 -3.24063e-05 -6.62156e-05 -0.0001463137 -0.3386846089 0.7731808449
575296550.0 0.3764230446 -0.7664081222 -0.0001402465 -0.0002266074 -0.0001233477 0.000106667 -0.3308937513 0.7766270691
580296520.0 0.3694274984 -0.7700135276 0.0003179184 -4.9174e-05 -3.26746e-05 -0.0001632022 -0.3236260904 0.7799669494
585296490.0 0.3618670025 -0.7726580146 -3.04384e-05 0.0001481574 -5.4906e-06 0.000182942 -0.3153516019 0.7834051366
590296460.0 0.3539604577 -0.7756643635 3.50328e-05 0.0001386677 -2.10853e-05 -0.0001429621 -0.3072444397 0.7857893338
595296430.0 0.3463769681 -0.7800572284 0.0001380994 -0.0001648771 2.25337e-05 -3.17944e-05 -0.2996163823 0.789603339
600296400.0 0.3390165512 -0.7837576064 9.64419e-05 -5.12914e-05 0.00015772 -4.4389e-06 -0.2921952101 0.7919567493
605296370.0 0.3308433737 -0.786873341 -3.51095e-05 -7.26942e-05 -8.61754e-05 7.19352e-05 -0.2834163926 0.7952855205
610296340.0 0.3231744017 -0.7896101236 -3.1553e-05 6.60493e-05 -0.0003216833 0.0001119877 -0.2760259208 0.7979541528
615296310.0 0.3158438986 -0.7924681345 -0.0001830446 0.0001325111 -0.0001143809 1.58131e-05 -0.2674956278 0.8004806
620296280.0 0.3079229975 -0.7946211138 -2.26012e-05 4.59321e-05 -6.97791e-05 0.0001702669 -0.2598674201 0.8033438503
625296250.0 0.2995347024 -0.7980988993 -9.37077e-05 5.36849e-05 2.20074e-05 0.0001815732 -0.2521569816 0.8052698864
630296220.0 0.2914054029 -0.8007469792 7.15632e-05 0.0001799935 7.96183e-05 9.18477e-05 -0.2434526736 0.8080188782
635296190.0 0.2840893165 -0.8031039339 5.46515e-05 -3.34636e-05 4.31326e-05 -9.43234e-05 -0.2351683193 0.8096360469
640296160.0 0.2758773441 -0.8061926002 3.71215e-05 6.66273e-05 7.74566e-05 -0.0002075744 -0.2269647993 0.8126768996
645296130.0 0.2686188163 -0.808259716 -3.29216e-05 7.99739e-05 -0.0001161591 -0.0001840478 -0.2194758087 0.8146071042
650296100.0 0.2604327931 -0.8102028897 1.16231e-05 4.00879e-05 5.57921e-05 6.96345e-05 -0.2108032702 0.8167240446
655296070.0 0.2524778968 -0.812870042 5.0763e-06 2.23216e-05 5.9699e-05 -5.4831e-06 -0.2031487077 0.8192596466
660296040.0 0.2440602307 -0.8155117573 -1.67646e-05 -3.39774e-05 2.29841e-05 9.27715e-05 -0.1940649528 0.8209932192
665296010.0 0.2362869681 -0.8171331613 0.0001259446 -0.0001877389 -0.0001348261 -6.83589e-05 -0.1865916783 0.8223796331
670295980.0 0.2281384611 -0.8196088575 -4.6436e-05 -4.42569e-05 -0.0001386277 1.35891e-05 -0.1784049005 0.8243154858
675295950.0 0.2195377072 -0.8219104756 0.0002488174 2.66863e-05 -9.36467e-05 1.02361e-05 -0.1698700599 0.826421944
680295920.0 0.2109841207 -0.8232398801 8.0034e-06 5.45969e-05 -9.703e-07 -5.31707e-05 -0.1610903676 0.8277510878
685295890.0 0.2030701103 -0.8245893769 -5.80222e-05 7.02051e-05 0.0001891435 1.44532e-05 -0.1533533546 0.8299571
690295860.0 0.1949523114 -0.8265071262 0.0003011514 8.74658e-05 -6.77668e-05 0.0001837752 -0.1449163237 0.8312562078
695295830.0 0.1868165681 -0.828961758 -5.26218e-05 -9.06926e-05 9.38694e-05 0.0001702976 -0.1368968057 0.8325846828
700295800.0 0.1785046898 -0.8304711443 -4.69825e-05 9.31484e-05 -0.0001370719 0.000103487 -0.1283510933 0.833377806
705295770.0 0.1701048862 -0.8314318437 4.4505e-05 -0.0001628583 -0.0001546022 0.0001399628 -0.1205006742 0.8352848064
710295740.0 0.1615412724 -0.8323438804 7.19099e-05 4.66036e-05 -3.45311e-05 -4.79795e-05 -0.1115207602 0.83634522
715295710.0 0.1539584413 -0.8338639318 -9.1441e-06 -9.317e-06 -2.96854e-05 -0.0001542543 -0.1028640063 0.8370183423
720295680.0 0.1457265139 -0.8349886009 4.06168e-05 0.0001038889 9.48531e-05 0.0001891649 -0.0946583847 0.8380736423
725295650.0 0.1366209792 -0.8359491454 -9.6542e-05 2.63886e-05 0.0001206071 0.0001736151 -0.0866112774 0.8391890249
730295620.0 0.1278391495 -0.8374511575 -0.0002909174 4.95048e-05 0.0001695011 0.000166485 -0.0785915081 0.8401759878
735295590.0 0.1197296584 -0.8385922362 0.0001744053 -0.0001153528 -8.84412e-05 -3.18062e-05 -0.0698395569 0.8405844628
740295560.0 0.1116164657 -0.8395379648 -0.000152078 9.80873e-05 -3.04218e-05 5.00033e-05 -0.0618072368 0.8413681177
745295530.0 0.1031877379 -0.8403285778 1.28268e-05 2.0587e-06 5.85731e-05 5.7943e-05 -0.0537071744 0.8420087882
750295500.0 0.0947941523 -0.8408124869 4.983e-05 0.0001122519 -6.21995e-05 6.56683e-05 -0.0445906135 0.8423359461
755295470.0 0.0865083717 -0.8415504463 -0.000315647 4.13654e-05 4.08842e-05 -3.54051e-05 -0.0370958816 0.8429413337
760295440.0 0.0788668048 -0.8413748394 0.0002410325 9.63399e-05 1.48568e-05 6.459e-06 -0.0277544626 0.8423213281
765295410.0 0.0702317303 -0.842801515 0.0001759844 -0.0001171368 0.0001521897 8.1153e-05 -0.019720326 0.843165904
770295380.0 0.0614714728 -0.842444609 4.78172e-05 -2.64892e-05 8.06127e-05 0.0001313671 -0.0115897769 0.8432745074
775295350.0 0.0532293418 -0.842467363 2.4268e-05 0.00021991 -1.53246e-05 5.6091e-06 -0.003026174 0.8430854615
780295320.0 0.0441537874 -0.8428610694 -9.09978e-05 1.65747e-05 -0.0002544136 -1.12324e-05 0.005421827 0.8436429721
785295290.0 0.0362484172 -0.8430985136 -4.30539e-05 6.60725e-05 -0.0001793715 -2.27124e-05 0.0133483222 0.8435091699
790295260.0 0.0276871383 -0.8436742074 -7.56219e-05 0.0001764736 -5.35695e-05 -9.56845e-05 0.0218454855 0.8429852252
795295230.0 0.019545192 -0.8440897265 8.53368e-05 0.0002379555 1.28846e-05 5.18654e-05 0.0299319907 0.8422447093
800295200.0 0.0108925758 -0.8435007226 -8.66107e-05 0.0001185966 0.0001956881 0.0001263315 0.0382342091 0.8422512905
805295170.0 0.0022936028 -0.8439488115 0.000180397 2.88749e-05 4.85852e-05 -0.0001115466 0.0472258429 0.8420665652
810295140.0 -0.0057460762 -0.8423604577 0.000271255 0.0001651768 -4.54052e-05 -0.0001816132 0.0559356958 0.8412399464
815295110.0 -0.0143137824 -0.842859594 4.63041e-05 1.56216e-05 -5.69702e-05 5.097e-05 0.0632665709 0.8407337436
820295080.0 -0.0221552505 -0.8426178085 0.0001304642 -0.000227426 -0.0001464614 -0.0001117376 0.0712709177 0.840475948
825295050.0 -0.0317255475 -0.8421228036 -1.95527e-05 -0.0001969862 -2.37442e-05 9.06351e-05 0.0804474385 0.8392248537
830295020.0 -0.039197246 -0.8415054488 7.04991e-05 -9.57241e-05 -0.0001355177 8.68489e-05 0.0880966069 0.8380177954
835294990.0 -0.0474402096 -0.840928289 4.49636e-05 1.7099e-06 4.9435e-06 0.0001392415 0.0962861775 0.8377442834
840294960.0 -0.055848967 -0.840804058 -0.0001228945 -0.0001992619 -3.45107e-05 0.0001602218 0.1053727479 0.8367558675
845294930.0 -0.0643638181 -0.8392368284 5.83196e-05 9.96721e-05 4.27146e-05 -0.0002729041 0.1137046747 0.8352515461
850294900.0 -0.0722720572 -0.8387479955 0.0001397803 -0.0002373861 3.55145e-05 0.0001364208 0.1216287888 0.8349091345
