!Created with skrf (http://scikit-rf.org).
# Hz S RI R 50.0 
!freq ReS11 ImS11 ReS21 ImS21 ReS12 ImS12 ReS22 ImS22
300000.0 -0.0421179764 -0.0682075297 -0.0001690807 0.0009437975 -0.001022996 0.0027344584 -0.7694730977 -0.1774563133
5299970.0 -0.0459000706 0.0146854055 -2.31449e-05 -0.0002000826 1.71815e-05 -9.88959e-05 -0.7853427517 -0.0090702439
10299940.0 -0.0403713778 0.0329134197 -0.0001106582 -2.78011e-05 -0.0001322248 -0.000122368 -0.7879164633 -0.0048630716
15299910.0 -0.0315303841 0.0474306747 6.13885e-05 0.0001526038 -0.0001292032 4.15455e-05 -0.7931380121 -0.002436157
20299880.0 -0.0215956278 0.0593939079 0.000139693 0.0004318385 -0.0001223635 -5.53681e-05 -0.7996306195 0.001695762
25299850.0 -0.0100901826 0.068694345 -0.0002395942 0.0001108379 -5.2776e-05 1.08065e-05 -0.8064183418 0.0079732608
30299820.0 0.0015015229 0.0755380178 -0.000187283 -0.0001201276 2.38415e-05 7.59338e-05 -0.8123426015 0.0160856094
35299790.0 0.0132944411 0.0803912167 -4.19868e-05 -9.3498e-05 -0.0001526684 5.5819e-05 -0.8173386905 0.0248733055
40299760.0 0.0244983907 0.0828476451 5.73837e-05 -0.0001271503 0.0001607913 0.0001365767 -0.8214634829 0.0342491422
45299730.0 0.035236401 0.084200395 -9.0554e-06 3.0562e-05 3.04485e-05 3.87509e-05 -0.824460254 0.0435893503
50299700.0 0.0454745443 0.0841763562 -4.9346e-06 2.93138e-05 -8.5295e-06 0.0001307248 -0.8264806219 0.0536145481
55299670.0 0.0547760766 0.083321743 0.0001311614 2.09497e-05 -2.48414e-05 1.62148e-05 -0.82874789 0.0639768215
60299640.0 0.0633882999 0.0813659053 0.0001009388 0.0002857511 0.0001805841 3.18747e-05 -0.8297856056 0.0740770704
65299610.0 0.0715602069 0.0791500102 2.06567e-05 5.8563e-05 0.000101894 1.8718e-05 -0.8302110838 0.0843102256
70299580.0 0.0778273327 0.0760239521 6.26151e-05 -0.0002856358 9.864e-07 0.0002318252 -0.8313657924 0.0936521058
75299550.0 0.0847260678 0.0729501628 0.0001576232 1.61016e-05 8.45088e-05 -5.74299e-05 -0.8310176423 0.1040698543
80299520.0 0.0903641117 0.0694282912 -9.4817e-06 -4.15298e-05 0.0001815779 -0.0001415163 -0.8313370862 0.1139293453
85299490.0 0.0958941557 0.0657192969 0.0001511957 0.0002953992 6.14722e-05 -0.0001388765 -0.8301928256 0.1233624527
90299460.0 0.1004548656 0.0617240636 2.0553e-05 7.58062e-05 0.0001538217 0.0001350791 -0.8290801031 0.1326883467
95299430.0 0.1044924086 0.0580427957 9.04646e-05 -3.46014e-05 -0.000152809 0.0001201694 -0.8284172606 0.1430190607
100299400.0 0.1082411952 0.0541349805 -0.0001497665 -6.13398e-05 8.36118e-05 5.0949e-06 -0.8274417956 0.1518441628
105299370.0 0.1116276434 0.0500560549 -6.4383e-06 4.63073e-05 -8.25385e-05 -2.20908e-05 -0.8260372426 0.1610532742
110299340.0 0.1145234698 0.0462507486 0.0001360801 0.000102202 0.0001485297 0.0002664254 -0.8247711665 0.1698219525
115299310.0 0.1170342073 0.0427615052 5.6096e-05 2.29707e-05 -6.06804e-05 0.0001633434 -0.823841519 0.179396359
120299280.0 0.1194301598 0.0390029157 2.8756e-05 7.33844e-05 -2.21558e-05 -3.04682e-05 -0.8210216697 0.188201951
125299250.0 0.1212490402 0.0348601326 -0.0001134269 0.0003588401 8.19639e-05 7.42653e-05 -0.819730953 0.1972894062
130299220.0 0.1229174855 0.0310303479 0.0001280891 -5.62185e-05 -0.0001321177 -6.2079e-06 -0.8177725036 0.2059899414
135299190.0 0.1247209955 0.0276569203 -6.81422e-05 0.0001638167 0.0002126568 -7.74898e-05 -0.8162248731 0.2146498922
140299160.0 0.1261416259 0.0245209488 5.8164e-05 -0.00018432 0.0001087556 0.000167071 -0.8143010268 0.2235339531
145299130.0 0.1275312903 0.0211576405 5.25562e-05 0.0001373814 0.0001723264 0.0001289573 -0.8119133041 0.2322969416
150299100.0 0.1281195072 0.0176137506 -7.03161e-05 0.0001813128 -6.78587e-05 0.000205199 -0.8096590749 0.2417613292
155299070.0 0.1293895772 0.0146379586 4.87783e-05 -8.55207e-05 1.4723e-05 6.54052e-05 -0.8077083197 0.2507947726
160299040.0 0.129990741 0.0115539304 -8.89127e-05 6.87926e-05 0.0001289732 1.97796e-05 -0.8048682529 0.2588011555
165299010.0 0.1306039295 0.0085415912 0.0002389583 4.7273e-05 -0.0002389691 0.0001583793 -0.8018471025 0.2673480808
170298980.0 0.1309181338 0.0052012926 -2.77552e-05 -0.0001505073 -0.0001871066 0.0002733369 -0.799881931 0.2756886006
175298950.0 0.1314920505 0.0023933526 -0.0001627106 0.0001201671 9.83305e-05 0.0001234278 -0.7967547035 0.2850034644
180298920.0 0.1316654263 -0.0003943273 7.6919e-05 -0.000102205 -0.0001170323 7.44241e-05 -0.7933085343 0.2931838242
185298890.0 0.1319999656 -0.0032352237 3.95798e-05 0.0001576011 -0.0001710327 2.901e-07 -0.7907734754 0.3014895023
190298860.0 0.1317850445 -0.0057387435 0.0002354514 0.0001504544 0.0001106108 8.95149e-05 -0.7874144809 0.3096884218
195298830.0 0.1320809645 -0.0083967893 -3.87816e-05 0.0001138433 8.71866e-05 -4.39187e-05 -0.7845395451 0.3179680032
200298800.0 0.1322108039 -0.0114383626 1.97269e-05 0.0001046459 8.12986e-05 0.0003617908 -0.7809973803 0.3266613909
205298770.0 0.1314912058 -0.0136033305 6.83787e-05 8.70834e-05 3.0873e-05 3.58212e-05 -0.7779226857 0.3347100047
210298740.0 0.1316628069 -0.0162960087 4.6128e-05 -3.19328e-05 0.0001301853 9.18332e-05 -0.7744936305 0.3429469824
215298710.0 0.1311751286 -0.0185318221 0.0001500475 -6.23338e-05 9.82414e-05 0.0001516927 -0.7706590731 0.3514771574
220298680.0 0.1312396493 -0.0210170296 9.59705e-05 4.62522e-05 -1.63451e-05 2.40394e-05 -0.7668820906 0.3597091331
225298650.0 0.1309096347 -0.0231921132 0.0002999447 1.44774e-05 9.89721e-05 4.13556e-05 -0.7631864786 0.3674759241
230298620.0 0.1300370531 -0.0251959825 -7.71006e-05 0.000189245 0.0001806334 0.0002066753 -0.7594021354 0.3752462504
235298590.0 0.1298295228 -0.0275228607 6.71225e-05 0.0001978906 0.0001628548 6.73754e-05 -0.7549721053 0.3833938164
240298560.0 0.1289377963 -0.029624164 0.0001625773 0.0001416889 0.0002081791 0.0001238271 -0.7516457899 0.3908629801
245298530.0 0.1283478841 -0.03198868 -7.57719e-05 0.0001324169 8.42558e-05 -8.1833e-06 -0.7475753633 0.3991797054
250298500.0 0.1280834635 -0.0340065172 0.0002428191 0.0002251329 -1.6181e-06 0.0001173241 -0.7431093156 0.4072648658
255298470.0 0.1271314621 -0.0356080698 0.0002836817 0.0002275785 3.98464e-05 -1.1795e-05 -0.7388134498 0.4145094167
260298440.0 0.1265812576 -0.0379648043 -6.9996e-06 7.26704e-05 0.0001141397 0.0003666701 -0.7343094245 0.4224482492
265298410.0 0.1257905398 -0.0397288942 0.0001114146 0.0002811359 6.05613e-05 3.1909e-05 -0.7303566424 0.4303394613
270298380.0 0.125077188 -0.0417626179 9.50833e-05 0.0001274328 0.0002243095 1.06885e-05 -0.7251547056 0.4378013076
275298350.0 0.1244173995 -0.0435594084 0.0003154932 0.000199527 0.0001256912 4.07801e-05 -0.720360603 0.4457060742
280298320.0 0.123591374 -0.0454347597 0.0001028298 0.0001922204 0.0001980055 0.0001340611 -0.7163342519 0.453151756
285298290.0 0.1227531287 -0.0472075782 0.0002052823 0.0003801772 0.0001011235 2.16299e-05 -0.7123199288 0.4610257216
290298260.0 0.1218394473 -0.0489580922 0.0001311264 -7.56913e-05 4.46189e-05 -9.79446e-05 -0.7062646432 0.4677260471
295298230.0 0.1211943288 -0.0509622934 -0.0001364686 0.0001969362 -8.54838e-05 0.0002061593 -0.7014257154 0.4746946976
300298200.0 0.1202370172 -0.0524596767 -9.55228e-05 0.0001213091 -3.29454e-05 0.0001981379 -0.6964176313 0.4818811867
305298170.0 0.1193981497 -0.0543353264 0.0001696644 6.49011e-05 7.82281e-05 0.0001653294 -0.6913691766 0.4893277417
310298140.0 0.1185522769 -0.0564428734 9.73102e-05 0.0002529469 0.0001248319 -1.01861e-05 -0.6865358721 0.4968276366
315298110.0 0.1172149177 -0.058208661 0.0001102395 0.0001698484 1.56556e-05 0.0001209412 -0.6817651636 0.503957629
320298080.0 0.1161508917 -0.0600862656 -4.2237e-05 7.23927e-05 0.0001172352 3.90515e-05 -0.676319629 0.5103004821
325298050.0 0.1147055582 -0.062325917 0.0001781421 1.68434e-05 6.57353e-05 4.68134e-05 -0.6703953217 0.5175163687
330298020.0 0.1133720065 -0.0631299304 0.0001803328 2.32776e-05 0.0002650581 -5.36099e-05 -0.6648228012 0.5243853524
335297990.0 0.1120728707 -0.064755044 1.94621e-05 0.000357545 0.0003201195 -0.0001117286 -0.6597948964 0.5315324301
340297960.0 0.1109218782 -0.0661092294 0.0001053379 0.0001668117 0.0001755981 0.0001507514 -0.6541229495 0.5381012428
345297930.0 0.1097294344 -0.0675686791 1.7476e-06 -4.64596e-05 7.2266e-05 7.80538e-05 -0.6485735156 0.5447449364
350297900.0 0.1085220451 -0.0692995807 9.371e-05 -1.44808e-05 0.0002332953 0.0001993638 -0.6431320168 0.5510850504
355297870.0 0.1075161513 -0.0704363612 0.0002228225 0.0003236541 -1.29171e-05 0.0002125583 -0.636955573 0.5585812353
360297840.0 0.105982166 -0.0718200563 6.50072e-05 6.66e-05 9.34869e-05 0.0001195786 -0.6305885723 0.5650417044
365297810.0 0.1052791484 -0.0727985318 0.0001737503 0.0001633465 0.0001482414 0.000154401 -0.625823446 0.5707630909
370297780.0 0.1039327005 -0.0744942826 0.0001535472 -2.57656e-05 0.0002107622 -1.51066e-05 -0.6195751227 0.5773036495
375297750.0 0.1026606191 -0.075552305 7.53844e-05 0.0001823246 0.0002444571 0.000137507 -0.6134449132 0.5838875895
380297720.0 0.1013344285 -0.076703308 0.0002431962 0.0002405782 0.0001703669 -0.0001222243 -0.606807903 0.5906190618
385297690.0 0.1001384152 -0.0782640538 6.48918e-05 -5.21858e-05 0.000238914 0.0001743701 -0.6017051816 0.5966076993
390297660.0 0.0992404265 -0.0797220102 0.000172814 0.0002566535 0.0001533814 0.0001486509 -0.5944987811 0.6018482469
395297630.0 0.0977632241 -0.0807316311 8.51605e-05 0.0001902846 0.000245398 0.0002812607 -0.5881032648 0.6078786364
400297600.0 0.09616441 -0.0815662133 0.0002930219 0.0002123999 8.7353e-05 1.33223e-05 -0.5826078832 0.6139501559
405297570.0 0.0949566423 -0.0832703346 0.000329566 0.0001276919 0.0001879395 0.0002125479 -0.5754047552 0.6203441199
410297540.0 0.0942994599 -0.0841350149 -1.88884e-05 0.0001406038 -2.6043e-06 1.4643e-05 -0.5692146182 0.6259029267
415297510.0 0.0925955403 -0.0852974285 4.07116e-05 3.66176e-05 0.0002990499 0.0001943648 -0.5630413758 0.6316532568
420297480.0 0.0915088617 -0.0866988215 0.0001567713 3.72589e-05 0.000538926 0.0001151728 -0.5562283511 0.6382216822
425297450.0 0.0901968833 -0.0877363438 0.0002882831 0.0001670438 5.53261e-05 0.0001641362 -0.549698478 0.6424489414
430297420.0 0.0889070481 -0.0888911306 0.000185376 -0.0001266452 0.0001152334 4.09295e-05 -0.5428414844 0.6485120535
435297390.0 0.0874797491 -0.0900395016 0.0002128033 0.0002735358 0.0002605614 -0.0001227935 -0.5363988367 0.6545741466
440297360.0 0.0864120813 -0.0910970269 0.0003170324 0.0003678176 0.0003724831 0.0003489336 -0.5298556307 0.6595791679
445297330.0 0.0851394367 -0.092082204 0.0001656551 4.63994e-05 0.0001492243 7.96961e-05 -0.5231165358 0.6650017631
450297300.0 0.0839768325 -0.09321344 0.0001325923 0.0001004239 0.0003270945 0.0001995133 -0.516043048 0.6698660358
455297270.0 0.0824850171 -0.0939496636 -1.61024e-05 0.0001307067 0.0003090692 0.0003260396 -0.5092747174 0.6751637371
460297240.0 0.0812778096 -0.0948993829 0.0003882885 0.0001569216 0.0003301692 0.0001721904 -0.5025784513 0.6800723716
465297210.0 0.0800395211 -0.0959706823 9.15559e-05 9.6557e-05 0.0001997124 0.0002127198 -0.4947698893 0.685409501
470297180.0 0.0788474854 -0.0968752158 0.0003030855 0.0002196006 0.0001235545 6.60813e-05 -0.4876335666 0.6899794683
475297150.0 0.0770563426 -0.0975306474 0.0001152891 0.0001287079 0.000220334 0.000252829 -0.4811682507 0.6948290594
480297120.0 0.07633561 -0.0988222549 0.000186764 2.40513e-05 0.0003826219 0.0002640589 -0.4745863185 0.6997971391
485297090.0 0.0748530435 -0.099544605 0.0002419883 -8.80058e-05 0.0001527952 0.0002691604 -0.4672182751 0.7044844035
490297060.0 0.0739647012 -0.100390557 0.0003119992 0.0001294603 0.0001572061 9.54458e-05 -0.4597001902 0.7092413076
495297030.0 0.0722573774 -0.1012275344 0.0002656093 0.0001497353 6.2941e-05 0.000160682 -0.4524630968 0.7132764933
500297000.0 0.0710304241 -0.1017513627 0.0001348223 -4.86597e-05 0.0002293528 0.0001699503 -0.4448781801 0.7178735577
505296970.0 0.0698239053 -0.1025617723 0.0002540973 0.0001478202 0.0002667793 -9.80169e-05 -0.4379849804 0.7226121728
510296940.0 0.0684506587 -0.1033791564 0.000302538 0.0001988481 0.0001140073 0.0001304244 -0.4299259408 0.7278416543
515296910.0 0.0670033975 -0.1040898029 9.20381e-05 -0.0001263043 0.0003919015 9.40364e-05 -0.4227056704 0.7308877197
520296880.0 0.0659675952 -0.1047087206 0.0001780086 0.0001561258 0.0002608995 1.7842e-06 -0.4150497084 0.7358268569
525296850.0 0.0645277943 -0.1058791479 0.0002959721 0.0001807203 0.0004415247 7.13257e-05 -0.4082638563 0.7389216954
530296820.0 0.0629306433 -0.1061575991 0.0002008301 0.000213724 0.000171985 -3.97024e-05 -0.4004901587 0.7435293824
535296790.0 0.0620164365 -0.1066615404 0.0001358252 3.49418e-05 0.0002914351 5.69284e-05 -0.3930197955 0.7481857571
540296760.0 0.0610367538 -0.1073789524 0.0001702671 7.3077e-05 0.0001733713 6.35151e-05 -0.3849654725 0.7511074549
545296730.0 0.0590217156 -0.1075968096 0.0002459558 0.0001326715 0.000425201 -1.33307e-05 -0.3779276051 0.75525257
550296700.0 0.0577528008 -0.1081925256 0.0002322535 -3.4776e-06 0.0003552763 -0.0001060379 -0.3704017496 0.7586500754
555296670.0 0.0566585369 -0.1085571745 0.0002699409 0.0001981536 0.0004330651 -1.04432e-05 -0.3627320219 0.7620061725
560296640.0 0.0554865933 -0.1093525274 0.0001806887 -5.0728e-06 0.0003439518 3.02982e-05 -0.354660611 0.7663333763
565296610.0 0.0536454772 -0.1097355321 0.0003295526 -0.0001013372 0.0002728755 -5.29671e-05 -0.346592233 0.7698576858
570296580.0 0.0523401979 -0.1100602493 0.0003798444 0.0003040574 0.0001591973 0.0002244426 -0.3392645004 0.7731067742
575296550.0 0.0511779367 -0.1105308239 0.0001950224 4.78692e-05 0.0003378919 -2.86981e-05 -0.3313507134 0.7762185194
580296520.0 0.0498075945 -0.1108149507 0.0004032071 0.0001243563 0.0003585558 1.29997e-05 -0.3233932262 0.7793478219
585296490.0 0.0485587041 -0.111024779 0.0002307945 0.0001659441 0.0003493004 6.3578e-06 -0.3155926404 0.7833871824
590296460.0 0.0470743215 -0.1115003713 0.0003038716 3.26599e-05 0.0003720324 0.0001799103 -0.3075155926 0.7857628006
595296430.0 0.0458235527 -0.1117119097 0.0002639935 -2.52522e-05 0.0004512583 0.0001558497 -0.3000770244 0.7888737533
600296400.0 0.0442392838 -0.1119258662 -1.10234e-05 0.00023029 0.0003221239 0.0001008477 -0.2918797421 0.7915034735
605296370.0 0.0429006258 -0.1121179657 0.0003356519 0.000265619 0.0003947758 0.0001055195 -0.2838481429 0.7955025679
610296340.0 0.0415854368 -0.1125087644 0.000351374 8.90211e-05 0.0004117842 0.0001042993 -0.2762071558 0.7975042204
615296310.0 0.0403638318 -0.1125947198 0.0003369714 3.29401e-05 0.000420806 0.0001726477 -0.26736132 0.8007288577
620296280.0 0.0389583676 -0.1124122353 0.0002675471 0.000156303 0.0002620464 5.37803e-05 -0.2599885597 0.803115927
625296250.0 0.0372941554 -0.112921628 0.0003801475 0.0001549798 0.0002543157 -1.46722e-05 -0.2513060584 0.805452803
630296220.0 0.0360073327 -0.1131095555 0.0002013449 -8.47455e-05 0.0003644352 0.0001200902 -0.2434813297 0.8085083876
635296190.0 0.0346860246 -0.1129281526 0.0005602253 0.0001943441 0.0003040474 0.0001698563 -0.2356510652 0.8097830438
640296160.0 0.0330835483 -0.1133982787 0.0004701678 -7.58436e-05 0.0003586334 9.71152e-05 -0.2272678014 0.812592049
645296130.0 0.0321678256 -0.1132909034 0.00045547 -2.69142e-05 0.0002083128 -3.87766e-05 -0.2194213148 0.8141785604
650296100.0 0.0304371546 -0.1134681501 0.0004272906 0.0002045169 0.0003136688 1.81219e-05 -0.2107711825 0.8167504968
655296070.0 0.0291273969 -0.1132223886 0.0004560399 8.8304e-05 0.0003707852 -8.06397e-05 -0.2030633019 0.8189947251
660296040.0 0.0272028745 -0.1133877665 0.0004073037 7.46115e-05 0.0003341804 6.77668e-05 -0.1940359514 0.8209775734
665296010.0 0.0260633751 -0.1132554293 0.0002608924 0.0001684866 0.0001664959 2.9439e-05 -0.1864908612 0.8222780406
670295980.0 0.024558309 -0.1132347589 0.0003418491 -4.04743e-05 0.0002998576 5.3156e-06 -0.1782661966 0.8243728735
675295950.0 0.0229029601 -0.1132244609 0.0002907219 -5.4704e-06 0.0002534153 3.24937e-05 -0.1697095225 0.8262517889
680295920.0 0.021451712 -0.1127998672 0.0002850281 0.0001675635 0.0002749888 0.0001030489 -0.1613110301 0.8281286914
685295890.0 0.0201776241 -0.1128191096 0.0002502831 -2.80675e-05 0.0002751569 0.0001808686 -0.1533759958 0.8294277808
690295860.0 0.0185269832 -0.1128177092 0.0003265214 -5.91672e-05 0.0003102331 0.0001222701 -0.1451592658 0.8308049703
695295830.0 0.0172494539 -0.1125898746 0.0002743179 -0.0002196816 0.0003240711 6.57583e-05 -0.1368395571 0.8329529514
700295800.0 0.0157065463 -0.1123886205 0.00044926 -4.26947e-05 0.0005605754 1.40453e-05 -0.1283623405 0.8334767891
705295770.0 0.0141239907 -0.1120468041 0.0001846492 -0.0002316883 0.0003229785 -6.21278e-05 -0.1202916716 0.8350337486
710295740.0 0.0126923555 -0.1121115675 0.000198064 -0.0001897974 0.0002391732 -5.60252e-05 -0.111520814 0.8366492724
715295710.0 0.0113590427 -0.1118143846 0.0002709349 6.81355e-05 0.0002841296 -0.0001847035 -0.1031740469 0.8368599569
720295680.0 0.0097712946 -0.1118710659 0.0003803201 -0.000160471 0.0004294714 4.75237e-05 -0.0946821245 0.8378146483
725295650.0 0.0081908077 -0.1114095153 0.0004607548 -0.0001555477 0.0003222744 -1.80879e-05 -0.0868152371 0.8390469098
730295620.0 0.0064613522 -0.1113439373 0.0004173227 -6.09319e-05 0.0003820535 8.62371e-05 -0.0786747145 0.8397054477
735295590.0 0.0053105014 -0.1108866846 0.0003824665 -0.0001883353 0.00016833 -5.80429e-05 -0.0695984179 0.8405846973
740295560.0 0.0036773328 -0.1107724604 0.0004902678 7.27899e-05 0.000374959 0.0001007507 -0.0613739174 0.8415810672
745295530.0 0.0022548759 -0.110468582 0.0001660655 -0.0002101776 0.0003134609 -0.0001756434 -0.0535225377 0.8417730884
750295500.0 0.0005338983 -0.1097687953 0.0004202841 -0.0001753304 0.0002576524 -0.0001111682 -0.0442951219 0.8421427862
755295470.0 -0.0010210066 -0.1096928913 0.000453209 -6.36715e-05 0.000371553 0.0001102761 -0.0365276942 0.8428369685
760295440.0 -0.0023418641 -0.1091668224 0.0001905596 9.6054e-05 0.0004299453 1.11105e-05 -0.0280927355 0.8426191281
765295410.0 -0.0035901812 -0.1093484016 0.000386748 4.29912e-05 0.000253545 -1.03009e-05 -0.0195516749 0.8431847896
770295380.0 -0.0051126805 -0.1084914178 0.0004042815 -1.17216e-05 0.0004133247 -0.0001069851 -0.0111863758 0.8432181641
775295350.0 -0.0066363901 -0.10826324 0.0002777221 -0.0001423577 0.0004123439 -8.3516e-06 -0.0032541359 0.8433635358
780295320.0 -0.0081335764 -0.1079298262 0.0005719602 -0.0001627971 0.0002896764 -0.0002265382 0.0053136423 0.8436508433
785295290.0 -0.0094971567 -0.1076322388 0.0003815064 -0.0002481638 0.0004632788 4.80506e-05 0.013690698 0.8433961027
790295260.0 -0.0109198641 -0.1072177519 0.0002907959 -0.0003135619 0.0005310229 -0.0003399241 0.0218778339 0.8431742212
795295230.0 -0.0125166864 -0.1066706129 0.0007127036 -2.00058e-05 0.0005024976 -0.0001515825 0.0302167926 0.8421971388
800295200.0 -0.0138271624 -0.1062937396 0.0005743354 -0.0001618803 0.0004387724 -7.36935e-05 0.038327828 0.8420220162
805295170.0 -0.0155632181 -0.1061168599 0.000323518 -0.0004116951 0.0004328285 -6.438e-07 0.0475172559 0.8419485845
810295140.0 -0.0169292271 -0.1051952691 0.0002905037 -0.0001223148 0.0002602222 -0.0001164477 0.0560968911 0.841095075
815295110.0 -0.0182759904 -0.1050736788 0.000467949 5.8296e-06 0.000376125 2.77656e-05 0.0634488918 0.8409443794
820295080.0 -0.0198136873 -0.1045820907 0.0003942103 -0.0001882751 0.0004315261 6.08287e-05 0.0720585422 0.8402072671
825295050.0 -0.0211665741 -0.1040833087 0.000559377 0.0001542117 0.0002895834 -0.0001324082 0.0803397533 0.839561985
830295020.0 -0.0226993283 -0.1037394788 0.0003818478 -0.0001722957 0.0003004387 -0.0001092877 0.0882781293 0.8380944539
835294990.0 -0.0239600775 -0.1031641108 0.0005181025 -8.59421e-05 0.0003679287 8.76364e-05 0.0970192047 0.8373979721
840294960.0 -0.025228877 -0.1026434122 0.0004839243 -0.0001436491 0.0002799492 4.3592e-05 0.105471379 0.8368380738
845294930.0 -0.0267323491 -0.1018968714 0.0004500316 -0.0001614249 0.0004083605 -0.0001547353 0.1138858653 0.8356302284
850294900.0 -0.0277897176 -0.1017612552 0.0005977125 -0.0001601164 0.0005697922 -0.0002594424 0.1216797582 0.8345795516
