!Created with skrf (http://scikit-rf.org).
# Hz S RI R 50.0 
!freq ReS11 ImS11 ReS21 ImS21 ReS12 ImS12 ReS22 ImS22
300000.0 -0.776608977 -0.1082653507 -0.0003087837 0.0004695307 -0.0005909939 -0.0003876445 -0.045814907 -0.0634745554
5299970.0 -0.784908684 -0.0064461135 5.05022e-05 4.0115e-05 3.67846e-05 -0.0001467271 -0.0456306191 0.0155008199
10299940.0 -0.7875438353 -0.0039429497 0.0001380404 -0.0001175919 -9.75685e-05 0.0001688364 -0.0400083095 0.0340393105
15299910.0 -0.7934188739 -0.002130235 7.40865e-05 -0.0001200462 -0.0001682179 -3.368e-06 -0.0316014493 0.0485227024
20299880.0 -0.799938745 0.0020904768 5.7851e-05 4.49784e-05 0.0001754591 6.82795e-05 -0.0212139472 0.0600551925
25299850.0 -0.8065738842 0.0074156074 2.73738e-05 0.0001712586 1.38975e-05 0.0001458514 -0.0099079446 0.0696094818
30299820.0 -0.812215321 0.0149556364 -5.67562e-05 0.0001692975 0.0001789459 1.5571e-05 0.0016386974 0.0762817684
35299790.0 -0.8170464169 0.0240084813 0.0001514507 2.8551e-05 -9.88882e-05 -0.0001148144 0.013021891 0.0814465063
40299760.0 -0.8210723455 0.0336489837 -0.000107458 -2.59328e-05 7.17558e-05 5.3019e-05 0.0245561226 0.0841195104
45299730.0 -0.8243838652 0.0428015413 -1.17841e-05 0.0001063872 -1.9945e-05 6.42858e-05 0.0355860292 0.0856668691
50299700.0 -0.8272098855 0.052590039 -1.96437e-05 8.56183e-05 8.25426e-05 7.93706e-05 0.0455756067 0.0853253902
55299670.0 -0.8297645518 0.0625831498 -3.2111e-06 -0.0001324703 -0.0001117831 7.44274e-05 0.0546885195 0.0844554892
60299640.0 -0.8305236908 0.0726702486 0.000125996 0.000204118 -1.54793e-05 -0.0001570724 0.0631990483 0.0824973553
65299610.0 -0.8308918901 0.0833552021 -3.83321e-05 0.0001057982 0.0001174998 0.0001033847 0.0705617212 0.0801489743
70299580.0 -0.8317448937 0.0929948924 9.66734e-05 8.41437e-05 -6.14289e-05 7.57654e-05 0.077497329 0.0773663063
75299550.0 -0.8317689428 0.1034701801 -3.6003e-06 -5.67089e-05 0.0001004949 9.47601e-05 0.0840250704 0.073758596
80299520.0 -0.8323622426 0.1131094744 -0.0002075438 0.0001054804 0.0001862543 -2.78204e-05 0.0896226315 0.0704543665
85299490.0 -0.8315653397 0.1229450341 -0.0002322948 3.48011e-05 0.0002078852 4.07696e-05 0.0946052853 0.0665453715
90299460.0 -0.8301525281 0.1317842125 -9.12734e-05 0.0002540056 -4.876e-07 1.604e-05 0.0993898383 0.0629217869
95299430.0 -0.8292633753 0.1416446412 -0.0001276558 -0.0001479845 0.0001036683 9.36643e-05 0.1032773796 0.0588733568
100299400.0 -0.8285687816 0.1508803777 -5.30301e-05 0.0001540567 -1.899e-07 0.0002425711 0.1070852415 0.0548025838
105299370.0 -0.8269975238 0.1604290653 -4.78903e-05 0.0003309124 0.0002038493 0.0003496175 0.1107258893 0.0512465094
110299340.0 -0.8253798335 0.1691246606 5.82183e-05 0.0001200573 -2.0443e-05 0.0001531903 0.1133429082 0.0472506735
115299310.0 -0.8237340731 0.1785528674 0.0001166297 0.0001570209 0.0001760468 -2.66145e-05 0.115902844 0.0433568548
120299280.0 -0.8222274732 0.1868621774 7.96683e-05 -0.0002474856 -0.0001166087 0.0001578871 0.1184604817 0.0398661798
125299250.0 -0.8204707351 0.1955826041 0.0002151795 -3.77935e-05 -1.24574e-05 0.0001252414 0.1201989045 0.0355310588
130299220.0 -0.8186143141 0.2056213961 0.0002049464 -0.0001966076 3.0399e-05 -1.595e-06 0.1222208222 0.0318940628
135299190.0 -0.8167682845 0.2140416012 -0.000229968 -8.83858e-05 -2.72144e-05 -7.2875e-05 0.1236196987 0.0283783151
140299160.0 -0.8144283006 0.2227143143 -2.62604e-05 7.47408e-05 0.0001562458 -8.50243e-05 0.124913048 0.025200936
145299130.0 -0.8127161514 0.2319908368 5.042e-05 8.83233e-05 0.0002051109 4.16539e-05 0.1258824063 0.0217241435
150299100.0 -0.8103046966 0.2413559685 -6.24225e-05 0.0001479719 2.7512e-06 7.48322e-05 0.126869228 0.018617576
155299070.0 -0.8080903775 0.2492031587 9.8487e-05 8.29764e-05 5.40737e-05 0.0002811821 0.1280702861 0.0154333044
160299040.0 -0.805196248 0.2574568924 -2.7862e-06 0.0001371919 6.08205e-05 0.0003515948 0.1281227299 0.0125344237
165299010.0 -0.8029185346 0.2668411696 5.61383e-05 0.0001601877 -0.0001439106 0.000152586 0.1290118971 0.0093272426
170298980.0 -0.7999098239 0.2752280963 0.0001169743 0.0001029346 0.0001063769 -9.95885e-05 0.1295822452 0.0064013217
175298950.0 -0.7970847689 0.2839020463 -0.000195893 5.6076e-05 -7.09622e-05 -5.18846e-05 0.1297024468 0.0033825284
180298920.0 -0.7943484303 0.2924210809 -0.0001050361 0.000122345 5.88756e-05 -6.97385e-05 0.1297830547 0.0008140687
185298890.0 -0.791110929 0.3008698976 8.40851e-05 0.0001402378 5.19696e-05 0.000170836 0.1302536317 -0.0019934573
190298860.0 -0.7889016983 0.3090973001 1.8283e-05 0.0001576783 0.0002896002 7.05984e-05 0.1299976041 -0.0047707176
195298830.0 -0.7849473265 0.3176374901 8.55951e-05 0.0002772593 0.0001271671 0.0001992241 0.1302508354 -0.007524056
200298800.0 -0.7816484361 0.3257496768 -6.32403e-05 0.0003417636 8.5015e-05 0.0001970795 0.1296337912 -0.0104041258
205298770.0 -0.7782818771 0.3342546083 3.37534e-05 8.0483e-06 2.2293e-06 2.68672e-05 0.1299315471 -0.0131291896
210298740.0 -0.7749586696 0.3423183811 0.0001466005 0.0002731578 3.03732e-05 0.0001424715 0.1296345937 -0.0153724641
215298710.0 -0.7718194671 0.3504800168 -0.0002703464 3.20692e-05 -0.0001051526 0.0001783482 0.1290786162 -0.0178329904
220298680.0 -0.7677530121 0.3586462027 0.000129669 0.0002210553 0.0002047404 -1.07979e-05 0.1283533163 -0.020354326
225298650.0 -0.7645198495 0.3663918487 -2.63385e-05 -1.0299e-06 0.0002316056 8.50991e-05 0.1279742861 -0.0226719918
230298620.0 -0.7597632657 0.3747638957 0.0001406832 7.95991e-05 -0.0001270786 0.0001147306 0.1277064121 -0.0251817171
235298590.0 -0.7566988502 0.3830385671 -0.000114959 -0.0001048194 7.43124e-05 2.47099e-05 0.1272430489 -0.02747527
240298560.0 -0.7527842887 0.3909005706 -2.99258e-05 0.0001925445 0.0002190418 4.43169e-05 0.1264632373 -0.0295059198
245298530.0 -0.7483076828 0.3994038758 0.000231295 2.13042e-05 -9.8767e-06 -6.36154e-05 0.1261244207 -0.032101627
250298500.0 -0.7445601884 0.4061400428 0.0001932969 -3.34102e-05 0.000148276 0.0001554911 0.1251702352 -0.0340674984
255298470.0 -0.7399372347 0.4135036322 0.0001057627 0.0001088315 5.6513e-05 0.0001662866 0.1246611005 -0.0364929132
260298440.0 -0.7356231421 0.4211441093 0.0001322764 1.77651e-05 0.0001144459 5.17395e-05 0.124280875 -0.0381992272
265298410.0 -0.7314885511 0.4295939847 -0.0002068531 0.0002251781 0.0002396136 -2.9538e-06 0.12358648 -0.0399686256
270298380.0 -0.7270750635 0.4370217823 0.0001184133 5.64856e-05 0.0001188008 0.000134326 0.1230696897 -0.0422806683
275298350.0 -0.7225172084 0.4446691086 1.00707e-05 9.69935e-05 -1.93674e-05 0.0002084446 0.1221858309 -0.043980043
280298320.0 -0.7170204962 0.4517459466 -2.35245e-05 -2.80397e-05 7.82132e-05 9.72738e-05 0.1217835804 -0.0461492852
285298290.0 -0.7128160103 0.4603986884 -0.0001746364 8.74295e-05 4.36004e-05 0.0003827591 0.1208354583 -0.0480570087
290298260.0 -0.7077909524 0.4673685722 6.54744e-05 5.63903e-05 0.0001359127 -1.38924e-05 0.1203241845 -0.049858516
295298230.0 -0.7024671327 0.4741084952 0.0001503625 0.0003494414 0.0003172548 3.17783e-05 0.1191353904 -0.0516485
300298200.0 -0.6981296865 0.4812755386 0.0001142333 0.0001333108 0.0001490858 4.80038e-05 0.1189206209 -0.0534889048
305298170.0 -0.6929494168 0.4881518108 7.2458e-05 0.0001728689 9.05864e-05 0.0003174135 0.1182168477 -0.0556634925
310298140.0 -0.6876907025 0.4960623966 6.41891e-05 0.0001697165 8.32488e-05 0.0001463615 0.1170830158 -0.0574485426
315298110.0 -0.6826498336 0.5028495522 6.09188e-05 6.50995e-05 -6.05458e-05 2.87951e-05 0.1158753959 -0.0593759573
320298080.0 -0.6775254175 0.5098135569 8.91993e-05 0.000342955 0.0001489658 0.0001449905 0.115062619 -0.0609428649
325298050.0 -0.6718141993 0.5170715658 0.000124277 0.0003458464 0.0001034966 0.0003217775 0.1138379794 -0.0631106838
330298020.0 -0.6663401886 0.5234504737 7.36324e-05 0.0002355113 -9.79089e-05 0.000117561 0.1122268316 -0.0642125005
335297990.0 -0.6607298398 0.5304525764 0.0002288409 0.0002282535 0.0002143363 0.0001310417 0.1113111246 -0.0653007351
340297960.0 -0.6560251631 0.5374015979 0.0001110819 0.0002545691 0.0001296787 5.82763e-05 0.1106373918 -0.0667616785
345297930.0 -0.6502571139 0.5444555678 0.0001012968 0.0003431779 0.0001798866 -1.19523e-05 0.1087790371 -0.0683099934
350297900.0 -0.6441228069 0.5513386976 0.0001855553 0.0001677093 0.00013252 2.173e-05 0.1073744633 -0.0688672502
355297870.0 -0.6381144603 0.5577190278 0.0002664841 0.0002879722 0.0003168471 -0.0001315045 0.1063463229 -0.0708671574
360297840.0 -0.6324829609 0.5635822656 5.54192e-05 0.0001266839 0.0002450751 0.0002169966 0.1054636811 -0.0720370234
365297810.0 -0.6275694462 0.570404603 0.0002253391 0.0001412556 0.0002547066 0.0001738391 0.1042261781 -0.073587985
370297780.0 -0.6212399686 0.5766097716 0.0001841283 0.0003670327 0.0001026953 -5.86585e-05 0.1034194577 -0.074495644
375297750.0 -0.6144146788 0.5835251514 0.0001710017 0.0002635587 0.0001992445 -4.38837e-05 0.10171276 -0.0759737442
380297720.0 -0.6092035721 0.5889072088 8.75991e-05 0.0003484857 0.0002411477 2.2234e-06 0.1004799937 -0.0772431698
385297690.0 -0.60337469 0.5952371188 0.0002416188 0.0002973777 0.0003106729 0.0002677043 0.0995096652 -0.0784722174
390297660.0 -0.5966870982 0.6010536272 0.0001195371 0.000148711 0.0001419563 0.0001659204 0.0979436868 -0.079053772
395297630.0 -0.5901314961 0.6080684599 0.0001124761 0.0003182963 0.0002055666 0.0001743954 0.0967488402 -0.0806918246
400297600.0 -0.5845240825 0.614108152 0.0001380392 0.0002708667 0.0001030412 0.0002163382 0.0957321694 -0.081584921
405297570.0 -0.5782027093 0.6192046123 0.0002413698 -9.92486e-05 0.0001535886 8.596e-06 0.0941728356 -0.083098932
410297540.0 -0.571803034 0.6247054432 0.0001915004 0.0002966723 0.0001880476 0.0001601001 0.093149465 -0.0842529851
415297510.0 -0.5650615733 0.6306610749 9.64266e-05 -3.32718e-05 0.0003446225 7.5716e-06 0.0917905932 -0.0856104643
420297480.0 -0.5596142506 0.6370081515 0.0001206077 -8.77471e-05 6.82143e-05 5.23517e-05 0.0904065233 -0.0864856059
425297450.0 -0.5520513597 0.6426464841 8.42368e-05 0.0003690838 0.0003054413 0.000127029 0.0892406213 -0.0875911248
430297420.0 -0.5453591518 0.6481618777 0.0001456052 -0.0001335451 0.0002822045 -6.202e-07 0.0878381618 -0.088318329
435297390.0 -0.5387914209 0.6530600289 0.0003968262 4.32778e-05 4.85669e-05 1.07063e-05 0.0866155972 -0.0897005331
440297360.0 -0.5321745161 0.6589976077 0.0004400361 -8.02625e-05 0.0002426172 0.0001536462 0.0852285643 -0.0907530857
445297330.0 -0.5251332893 0.6641260324 9.43457e-05 0.0002899432 -2.4272e-06 0.0001402191 0.0844808955 -0.0921431562
450297300.0 -0.5187106571 0.6688396226 7.78916e-05 0.000214638 0.0002045892 0.0001819779 0.0829234138 -0.0925930248
455297270.0 -0.5114030974 0.6744636624 0.0002967245 1.67968e-05 0.000207844 0.0001743202 0.081613998 -0.0937956789
460297240.0 -0.5053600936 0.6792125753 0.0004370457 0.0002374456 0.0003049886 9.75033e-05 0.0801877089 -0.094331866
465297210.0 -0.498094274 0.6846184115 0.0003053549 0.0001252948 0.0001883776 -3.0225e-05 0.0789980313 -0.0953627672
470297180.0 -0.4902573879 0.6895063961 -2.75029e-05 1.2954e-05 0.000204519 -1.92645e-05 0.0779602903 -0.0959119962
475297150.0 -0.4835854595 0.6941895891 0.0001161034 9.56831e-05 0.0002267863 0.0001694667 0.0764156347 -0.0973008211
480297120.0 -0.476930048 0.6995702016 0.0002497361 0.0001549823 3.83486e-05 7.4827e-05 0.0752763021 -0.0979387785
485297090.0 -0.4692625309 0.7041369982 0.0002504608 0.0001012102 0.0004823689 0.0001675956 0.0741295734 -0.098468578
490297060.0 -0.4623087982 0.7088166812 0.000372142 -1.03704e-05 0.000190744 0.0001582421 0.0728678833 -0.0993680231
495297030.0 -0.455192792 0.7125206416 0.0002640519 -3.04447e-05 0.0001277307 0.0001523217 0.0709473087 -0.10012277
500297000.0 -0.4481869773 0.717682804 0.0001147987 7.52897e-05 0.0002078236 0.0001567298 0.0699415529 -0.1005480118
505296970.0 -0.440357699 0.7221371674 0.0002062113 0.0001377795 0.0001690851 -0.0002101407 0.0685032713 -0.1016815317
510296940.0 -0.4329874411 0.7265196182 0.0001453297 0.0001768367 0.0003447746 0.0001057056 0.0671630943 -0.1019357159
515296910.0 -0.425052323 0.7301333366 0.0003604129 -0.0001532986 0.0002290891 0.0001593579 0.0658227385 -0.1027596272
520296880.0 -0.4185933453 0.7351262983 0.0005422219 2.1144e-05 0.0002134986 -0.0001275792 0.0641987721 -0.1033627425
525296850.0 -0.4103918628 0.7387772527 0.0002091188 0.0001656193 0.0001926273 8.6224e-06 0.0628585867 -0.1033412208
530296820.0 -0.4031921598 0.743236988 0.0002747947 -2.08529e-05 0.0003597301 -8.78916e-05 0.0615726856 -0.1042242208
535296790.0 -0.3961439674 0.7470084162 0.000174289 4.91272e-05 0.0004842028 8.31965e-05 0.0596872292 -0.1050857334
540296760.0 -0.3877024598 0.7503233001 0.0002188418 -4.74025e-05 0.0002756016 7.57974e-05 0.058421624 -0.1052995925
545296730.0 -0.3813688343 0.7555134208 1.71755e-05 0.000301936 0.0001480412 -0.0001332761 0.0569381497 -0.1058271291
550296700.0 -0.3731243163 0.7589283185 0.0001347613 9.81503e-05 0.0001966807 0.000180362 0.0553350674 -0.1066016793
555296670.0 -0.3656823395 0.7616380835 0.0003417697 0.0001579824 0.0002840504 3.357e-06 0.0541299418 -0.1066526018
560296640.0 -0.3577367607 0.7663469627 0.0003574683 0.0001637399 0.0002391812 6.70182e-05 0.0526497331 -0.1074384359
565296610.0 -0.3498725809 0.76942297 0.0002708115 0.0001381812 0.0003242927 2.29846e-05 0.0513069449 -0.1080744964
570296580.0 -0.3423153886 0.7723169067 0.0003115421 -2.81332e-05 0.0003466039 0.0001117177 0.0494988879 -0.1085559633
575296550.0 -0.334707096 0.7764030336 0.000313465 -8.65567e-05 0.0002628447 1.82111e-05 0.0478786989 -0.1087861954
580296520.0 -0.3266985227 0.7789409781 0.0006284067 7.26582e-05 0.0001417041 0.0001806952 0.0468370884 -0.1092064711
585296490.0 -0.3192704672 0.7823789846 0.0003969455 -0.0002154881 0.0003677392 0.0001448087 0.0455798129 -0.1097860754
590296460.0 -0.3106329253 0.7860939424 0.0003607254 6.98664e-05 0.0004810682 -0.0001047604 0.0435420763 -0.1099409582
595296430.0 -0.3031592808 0.7881099509 0.000269216 0.0001619289 0.0001581124 2.85844e-05 0.0422485027 -0.1109047497
600296400.0 -0.2954037943 0.7921743525 0.0001263658 2.34639e-05 0.0001588276 -4.12808e-05 0.0408755492 -0.111145194
605296370.0 -0.2880611331 0.794301983 0.0002564292 -8.31918e-05 0.0004950583 -0.0001213784 0.0393356781 -0.1110198665
610296340.0 -0.2784470082 0.7978206503 0.0004130876 7.66318e-05 0.0003650291 0.0001938525 0.0380131168 -0.1112341427
615296310.0 -0.2707858002 0.7996105187 0.0001928916 0.0002131813 0.0004400322 0.0001012904 0.0364340889 -0.1120733119
620296280.0 -0.2632040903 0.8022684502 0.0002559038 -3.94347e-05 0.00031033 0.0002397835 0.0350396755 -0.112318403
625296250.0 -0.2553001061 0.8055253181 0.0001705328 0.000173647 0.0003793725 0.0001327791 0.0341020503 -0.1124972326
630296220.0 -0.2465407132 0.8082127953 9.60762e-05 -0.0001762465 0.0002254547 0.0003378466 0.0323191338 -0.112331522
635296190.0 -0.2392956188 0.8102798305 0.0003248007 -0.0001522294 0.0003593514 -0.0001004761 0.0311809513 -0.1128207452
640296160.0 -0.2308961399 0.8123512876 0.0003055258 0.0001094599 0.0004562189 0.0002520052 0.0297035867 -0.1130688534
645296130.0 -0.2230049304 0.8151739639 0.0001621386 1.99063e-05 7.82253e-05 -0.0001164621 0.0280605742 -0.1129252777
650296100.0 -0.2145815639 0.8169086952 0.0004022755 -0.0001856535 0.0004317153 6.3122e-05 0.0268201232 -0.1136074797
655296070.0 -0.2069668712 0.8187381945 0.0004720915 -4.40035e-05 0.0003013225 -0.0001655407 0.0256925232 -0.1132341809
660296040.0 -0.1978875417 0.8205636047 0.0003541347 2.25639e-05 0.0003950861 -0.0001732327 0.0242161027 -0.1133992482
665296010.0 -0.1897726664 0.8222386964 0.0003815383 -1.28062e-05 0.0002238753 0.0001186628 0.0225593305 -0.1129839807
670295980.0 -0.1821966422 0.824225495 5.06555e-05 0.0002024812 0.0004200082 0.0001719335 0.0211141525 -0.1133228776
675295950.0 -0.1737033379 0.8259105081 0.000456502 -6.94918e-05 0.0003761114 0.0001133275 0.0195962353 -0.1131357531
680295920.0 -0.165135533 0.8285574958 0.0002903695 -8.4174e-06 0.0003231096 0.0002460131 0.0183022318 -0.1131359013
685295890.0 -0.1564600636 0.8306931609 0.0003611146 5.60983e-05 0.0001622584 7.97738e-05 0.0170370393 -0.1130088341
690295860.0 -0.1486561351 0.8309097872 0.0003677277 -0.00025198 0.0003097127 0.0002337437 0.0153876738 -0.1128474271
695295830.0 -0.1407496449 0.8324309596 0.0002721517 4.55266e-05 0.0003679902 4.23823e-05 0.0141469884 -0.1129067953
700295800.0 -0.1318333652 0.8339136365 0.0002794255 -3.23027e-05 0.0003411209 0.0001533863 0.0123221345 -0.1128074006
705295770.0 -0.1245725635 0.8351178803 0.0003052705 -6.9843e-06 0.0003720294 -2.54774e-05 0.0108770718 -0.1121708218
710295740.0 -0.116211261 0.8368333473 0.000200049 0.0001628516 0.000329288 -0.0002355045 0.0091705588 -0.1128688238
715295710.0 -0.1071924655 0.8372884171 0.0004966225 -7.6421e-06 0.0002749404 -6.76759e-05 0.0078740165 -0.1123516085
720295680.0 -0.0994888801 0.8380979369 0.0004065242 -0.0001015499 0.0005426827 -0.000110486 0.0064624481 -0.1122765608
725295650.0 -0.0908910907 0.8392963485 0.000284588 3.95418e-05 0.0005726322 -5.6033e-05 0.0048218336 -0.1117544649
730295620.0 -0.0824019068 0.8405251026 0.0003178416 0.0001070908 0.0003301809 6.86788e-05 0.0031986023 -0.1117736991
735295590.0 -0.0742963397 0.8415239075 0.0003779511 1.42872e-05 0.0002239679 -0.0001974289 0.001746252 -0.1119336224
740295560.0 -0.065982243 0.8423973754 0.0005001975 -0.0004019175 0.0004981958 -0.0001495397 0.0005165429 -0.1114560938
745295530.0 -0.0576933215 0.842654023 0.0003071217 3.81197e-05 0.0003754987 -2.166e-06 -0.0008010236 -0.111417864
750295500.0 -0.0491119907 0.8427637645 0.0003461179 -3.02818e-05 0.0004026989 -0.0002783472 -0.002527906 -0.1107922261
755295470.0 -0.0411507105 0.8430261589 0.0001083343 -0.0002936962 0.0004591677 0.000127895 -0.0036055319 -0.1113165998
760295440.0 -0.0326904588 0.8435085699 0.000444453 -0.0001043914 0.000463252 -0.0001389542 -0.0053699368 -0.1110450066
765295410.0 -0.0245850848 0.8441734337 8.32015e-05 -0.0001559268 0.0006312258 -9.44993e-05 -0.0065353991 -0.110519723
770295380.0 -0.0164729975 0.8443526793 0.0004663888 -6.86191e-05 0.0004207234 -3.2295e-06 -0.0083562365 -0.1105428688
775295350.0 -0.0078022441 0.8441022075 7.04659e-05 -5.691e-05 0.000506816 -7.95809e-05 -0.0095972362 -0.110000192
780295320.0 0.0009072566 0.8438580109 0.0003217023 -9.70095e-05 0.000320202 -0.0002195229 -0.0109996369 -0.1098297919
785295290.0 0.0091941453 0.843271456 0.0004093302 -0.0002286324 0.0004452526 -0.000150116 -0.0117346248 -0.1094229085
790295260.0 0.0175301359 0.8442696616 0.0003570199 -0.0002478186 0.0004815599 2.52856e-05 -0.0126976057 -0.1090594822
795295230.0 0.0255328248 0.843450503 0.0003548244 -2.78613e-05 0.000335188 6.58805e-05 -0.0145063632 -0.1086245015
800295200.0 0.0336889619 0.8434295502 0.0004606632 6.4983e-05 0.0005179878 -0.0001828272 -0.0160016856 -0.1080329397
805295170.0 0.0423546716 0.8432517057 0.0003974831 -0.0001772149 0.0004326869 -2.71608e-05 -0.0173883194 -0.1077507961
810295140.0 0.050840403 0.8424408475 0.0005459204 -0.0001421205 0.0002683863 -5.7999e-06 -0.018462115 -0.1070958911
815295110.0 0.05862012 0.8423719356 0.0004677202 -0.0001399098 0.0003059023 -0.0001263761 -0.0199975391 -0.1068977416
820295080.0 0.0670179498 0.8415075113 0.0006108613 -0.0001828443 0.0004792507 -0.0001061918 -0.0208341018 -0.1064286052
825295050.0 0.0761695102 0.8405378108 0.0003847429 -2.97362e-05 0.0003414341 -0.0001693825 -0.0221188762 -0.1060155166
830295020.0 0.0837521137 0.840127656 0.0003158642 -7.03535e-05 0.000335419 -5.9566e-06 -0.0231044189 -0.1049839646
835294990.0 0.0921711807 0.8388506152 0.000469172 -0.000261685 0.0003322754 -0.0002497734 -0.0247620238 -0.1044509001
840294960.0 0.0999363347 0.8386440781 0.0003982669 -0.0001835102 0.0005637627 7.24212e-05 -0.0260894017 -0.1039975546
845294930.0 0.1083596887 0.8365670115 0.0001401718 -0.0003150174 0.0006471195 -8.91996e-05 -0.0274572342 -0.103570405
850294900.0 0.1161822643 0.8364562351 0.0004818445 -0.0001571725 0.0004703076 -0.0001374833 -0.028624203 -0.1031266875
