!Created with skrf (http://scikit-rf.org).
# Hz S RI R 50.0 
!freq ReS11 ImS11 ReS21 ImS21 ReS12 ImS12 ReS22 ImS22
300000.0 -0.7736133876 -0.1429194375 0.000616305 0.0003169191 -0.0005306721 -8.18829e-05 0.8595911474 -0.0018872237
5299970.0 -0.7852773175 -0.0071744553 7.29932e-05 0.0001119339 -2.3332e-05 6.38442e-05 0.8593443871 -0.0104801498
10299940.0 -0.7879114235 -0.004039654 -5.0433e-06 4.62457e-05 -7.84674e-05 -1.78471e-05 0.8580093795 -0.0185491983
15299910.0 -0.793346379 -0.0017375818 -0.0001433943 7.95448e-05 -3.01388e-05 2.85891e-05 0.8568165393 -0.0275627697
20299880.0 -0.799801559 0.0023004505 1.82848e-05 3.6329e-05 -8.2292e-06 6.97716e-05 0.8564262143 -0.0361230247
25299850.0 -0.8067192607 0.0080761375 -1.50045e-05 -4.79036e-05 -0.0001044434 0.0001027123 0.8552745547 -0.0437325334
30299820.0 -0.811834102 0.0161389544 0.0001069079 0.0001151795 -0.0001140512 4.59675e-05 0.8548603484 -0.052278298
35299790.0 -0.8166268283 0.0251978847 -0.0001721088 -4.46156e-05 9.6447e-05 0.0001463936 0.8542459612 -0.0605222031
40299760.0 -0.8213170525 0.0341893064 0.0001070341 -6.16827e-05 5.43416e-05 9.73359e-05 0.8535764397 -0.0687048606
45299730.0 -0.8251894332 0.0439957156 0.0001521843 -8.30562e-05 0.0001016344 2.48547e-05 0.8522839562 -0.0768843109
50299700.0 -0.8269998475 0.0536537579 -1.33457e-05 7.5271e-06 0.0001241806 0.0001439226 0.8516817955 -0.0854559413
55299670.0 -0.8285762106 0.0641056656 -4.49684e-05 0.000131515 0.0001579877 5.49929e-05 0.8509999503 -0.0932843384
60299640.0 -0.8296451923 0.0744221729 -1.2499e-06 0.0002637776 -1.25061e-05 7.11313e-05 0.8496197351 -0.101649182
65299610.0 -0.8311131123 0.0850652597 -0.0001532785 -5.5648e-05 -0.0001049093 -0.0001059768 0.8487503614 -0.1103454518
70299580.0 -0.8312566166 0.0941771456 -0.000143482 -9.29786e-05 0.0001520777 3.12324e-05 0.8475008292 -0.1185948787
75299550.0 -0.8316054217 0.1048505847 2.18552e-05 -2.21033e-05 -0.0001232548 -1.76745e-05 0.8470381006 -0.1265183533
80299520.0 -0.8312643234 0.1141685126 -0.0002112037 1.0763e-06 -9.0015e-06 -0.0001002406 0.8447818908 -0.1343385053
85299490.0 -0.8308409452 0.123869079 -0.0001016961 -0.0001880127 -5.47324e-05 0.0001725564 0.8434591513 -0.1427140722
90299460.0 -0.8298260864 0.1340331355 -0.0001138623 -0.0001565831 0.0001334067 8.0284e-06 0.8422337421 -0.1513563598
95299430.0 -0.828828043 0.14365094 -8.56533e-05 -1.57799e-05 -0.0001489204 -6.0707e-05 0.8404636243 -0.1591368265
100299400.0 -0.8278986147 0.1533328638 -3.45271e-05 0.0003302525 8.7363e-05 0.0001037809 0.8389170124 -0.1677950424
105299370.0 -0.8266986639 0.1624714696 7.08599e-05 0.0001676531 -2.44585e-05 0.0001083392 0.8372610229 -0.1755182775
110299340.0 -0.8254089825 0.1709117834 0.0001029575 0.0001389361 0.0002526482 -6.62093e-05 0.8353260276 -0.1837512608
115299310.0 -0.8238717474 0.1803958204 9.35317e-05 -0.0001294025 0.0002647215 9.28373e-05 0.8334357688 -0.1920552159
120299280.0 -0.8215009386 0.1897045382 -6.3374e-06 5.61024e-05 7.40579e-05 7.99393e-05 0.8316345268 -0.1999300442
125299250.0 -0.8203805347 0.1981410269 -0.000216527 0.0001629525 0.0001313378 7.87516e-05 0.8295063693 -0.2083063356
130299220.0 -0.8185731767 0.2074182273 -0.000111148 0.0001400618 5.6333e-05 8.12835e-05 0.8275378876 -0.2161598752
135299190.0 -0.8164602856 0.2168074018 -9.05895e-05 -7.41808e-05 -1.27943e-05 -5.06188e-05 0.82567331 -0.2244268658
140299160.0 -0.8147332665 0.2259441788 -4.416e-07 -5.57936e-05 0.0002103304 -9.96428e-05 0.8234201976 -0.2320426532
145299130.0 -0.812452511 0.2343227069 -3.1606e-05 7.6835e-06 0.0002111693 0.0001844918 0.8207055919 -0.240602708
150299100.0 -0.8098816988 0.2431200999 -0.000194813 0.0001038648 2.77773e-05 5.22784e-05 0.8185653099 -0.2487159779
155299070.0 -0.8075014694 0.2526628147 6.1589e-06 -0.000151864 -9.55163e-05 -2.50118e-05 0.8157458477 -0.256069244
160299040.0 -0.8047017002 0.2611449186 -0.0001210686 -7.89572e-05 -0.0001530655 3.82762e-05 0.8129897606 -0.2646504317
165299010.0 -0.8021959297 0.2693384916 3.67078e-05 -0.000246368 -3.1008e-05 -1.33639e-05 0.8111690687 -0.2731299935
170298980.0 -0.7997746888 0.2778085136 8.80781e-05 -0.0001332497 -9.615e-05 -9.02086e-05 0.808057114 -0.2804500898
175298950.0 -0.7968250958 0.2871285681 -0.0001727438 -0.0001563843 -1.56857e-05 0.000136599 0.805091586 -0.2882748611
180298920.0 -0.7937020115 0.2950314299 0.000180457 -9.22209e-05 -9.85521e-05 -0.0001136076 0.8023892948 -0.2957284417
185298890.0 -0.7908143595 0.3041599123 -0.0001179127 8.33068e-05 0.0001153707 4.87629e-05 0.799323101 -0.3041568013
190298860.0 -0.7872164041 0.3123614762 -7.64563e-05 -5.46919e-05 0.0001017834 -0.0001470495 0.7961806159 -0.3111245981
195298830.0 -0.784068751 0.3209304657 -8.67268e-05 -6.96099e-05 3.19677e-05 -0.0001201899 0.7930450486 -0.3190679152
200298800.0 -0.7813876458 0.3294824712 -5.65904e-05 -6.05652e-05 -5.86923e-05 4.7324e-05 0.7905792339 -0.3272155276
205298770.0 -0.7775167309 0.3372743369 0.0001668327 0.0001092409 -1.83269e-05 -4.98757e-05 0.7869634896 -0.3343870503
210298740.0 -0.7733150817 0.3459624826 -0.0001279263 -5.07634e-05 6.71913e-05 4.2285e-06 0.7840692314 -0.342550184
215298710.0 -0.7702887962 0.3539102551 0.0002062405 1.30345e-05 9.46238e-05 3.88366e-05 0.7805303472 -0.3501534772
220298680.0 -0.767022864 0.3622042157 6.7375e-05 -0.0001367115 -5.92079e-05 -3.21666e-05 0.7767582709 -0.3575389292
225298650.0 -0.7627998828 0.3708485483 0.000108064 -9.66235e-05 -8.39347e-05 -0.0001246558 0.7727162168 -0.3650011865
230298620.0 -0.7590179875 0.3784182548 -0.0001185269 7.81034e-05 0.0001435873 -0.0002380532 0.7693059474 -0.3729190142
235298590.0 -0.7543535701 0.3874200126 -9.75861e-05 -0.0001142932 -7.54376e-05 5.6304e-05 0.766299238 -0.3791695352
240298560.0 -0.7509932615 0.3950463486 0.0001606376 0.0001114046 -8.12752e-05 -5.69645e-05 0.7624677364 -0.387353635
245298530.0 -0.746953613 0.4024195308 -9.87345e-05 0.00023647 9.64695e-05 -0.0002253997 0.7583095565 -0.3948737969
250298500.0 -0.742349113 0.4106482402 0.0001104037 2.05514e-05 3.26583e-05 3.49719e-05 0.7547028876 -0.4023471624
255298470.0 -0.7374747095 0.4187706181 0.0001368942 -0.0001000972 6.65485e-05 -0.0001222098 0.750837314 -0.4090082615
260298440.0 -0.7339981281 0.4255921646 -0.0001640661 -1.35021e-05 0.0001078767 -6.88597e-05 0.7466041504 -0.4160941775
265298410.0 -0.7295473439 0.4343377777 6.84136e-05 0.0002045815 -4.9454e-06 -5.49433e-05 0.7432847644 -0.4237835544
270298380.0 -0.724393008 0.4416233647 0.0001407109 -7.8232e-05 -3.15343e-05 1.99526e-05 0.7391883121 -0.430558844
275298350.0 -0.7195094566 0.4487820851 -0.0001303862 -5.87952e-05 -1.04991e-05 0.0001395062 0.7345993944 -0.437393109
280298320.0 -0.715144598 0.4567381138 -4.82411e-05 2.96881e-05 0.0002501277 7.29592e-05 0.7310414363 -0.4451029499
285298290.0 -0.7101277648 0.4643697373 0.0001561467 -0.0001005677 -8.75435e-05 0.000103916 0.7266548693 -0.4518939954
290298260.0 -0.7054164205 0.4716064559 8.11843e-05 -3.05583e-05 -9.65096e-05 -6.26314e-05 0.72203311 -0.4586017894
295298230.0 -0.7008771835 0.4796242583 -0.0001373398 6.5056e-05 0.0001457959 -7.91357e-05 0.7181044881 -0.4653804804
300298200.0 -0.6952605362 0.4863513198 0.0001166108 -3.75551e-05 -8.71555e-05 -9.82043e-05 0.7137364337 -0.473170462
305298170.0 -0.690299978 0.4942340539 0.0001701764 -2.64697e-05 -9.10723e-05 9.99513e-05 0.7101395443 -0.4793718002
310298140.0 -0.6846845482 0.5011404996 0.0001262506 -2.1095e-06 8.11476e-05 -0.0001041167 0.705721448 -0.4865660598
315298110.0 -0.6793921888 0.5081756823 7.60255e-05 -4.31958e-05 -8.30708e-05 -8.08443e-05 0.7010903358 -0.4941283597
320298080.0 -0.6743107299 0.5154428846 -9.76003e-05 9.07365e-05 0.000222521 4.87315e-05 0.6962980745 -0.5013513255
325298050.0 -0.6685944249 0.5221640006 -4.15222e-05 -2.52562e-05 -7.92103e-05 5.25011e-05 0.6912297444 -0.5095876901
330298020.0 -0.6632401397 0.5289412859 7.12128e-05 8.0542e-06 -2.51872e-05 -2.7226e-06 0.6859713787 -0.5166720942
335297990.0 -0.657142314 0.5364589604 0.0002132827 -7.6301e-05 0.0002106346 8.38984e-05 0.6805332699 -0.523044941
340297960.0 -0.6521766153 0.5423986935 -8.54814e-05 4.93497e-05 0.0001359347 7.79578e-05 0.6747035245 -0.5298075172
345297930.0 -0.6463023653 0.5488104945 0.0002162492 6.33524e-05 0.0001040853 9.04789e-05 0.6688842629 -0.5356881201
350297900.0 -0.6406814169 0.5561764865 -7.00221e-05 -4.63608e-05 -0.0001428844 -9.63011e-05 0.6637339524 -0.5416657298
355297870.0 -0.634057418 0.5630102974 -9.00689e-05 5.07077e-05 -6.00975e-05 5.29834e-05 0.6577174299 -0.5477888593
360297840.0 -0.6283840881 0.5689091703 -0.0001630988 -0.0002481255 7.97049e-05 0.000203133 0.6521130453 -0.5538284469
365297810.0 -0.6224323998 0.5757731093 -1.80766e-05 -0.0001588394 -2.71045e-05 6.31113e-05 0.6468362706 -0.560498393
370297780.0 -0.6162419978 0.5818349129 -0.0001312414 4.22273e-05 -0.0001128056 0.0001406199 0.6415649799 -0.565820627
375297750.0 -0.6102847451 0.5882266252 -0.0001010412 -0.000251556 -4.34112e-05 0.0001331371 0.635779342 -0.5720331924
380297720.0 -0.6040514308 0.5951998247 0.0003673301 -0.000100856 -0.0001931164 4.38557e-05 0.6300077136 -0.5778490195
385297690.0 -0.5979590137 0.6009134451 -0.0003188672 5.71981e-05 0.0002138227 -9.69248e-05 0.6239956806 -0.5837840806
390297660.0 -0.5910399655 0.6068451536 3.79281e-05 -0.0001570488 -0.0001023906 -0.000116097 0.6190659487 -0.5900014828
395297630.0 -0.585699956 0.6127093071 4.60242e-05 0.0002323979 -9.39116e-05 5.42918e-05 0.613117821 -0.5954012261
400297600.0 -0.5786896174 0.619572841 0.0001868088 0.0001522487 -0.0001063188 7.81727e-05 0.6072849957 -0.6016469849
405297570.0 -0.5728397051 0.6246994025 0.0001915999 8.31811e-05 -7.15382e-05 5.07538e-05 0.6014544338 -0.6072911563
410297540.0 -0.565759469 0.6308300332 0.0001165124 -0.0003376287 -2.59694e-05 -0.0001212261 0.595381105 -0.6125935812
415297510.0 -0.5593815562 0.6368033975 0.0002321238 -0.0002801322 7.32351e-05 7.63607e-05 0.5894902261 -0.6184079555
420297480.0 -0.5517750001 0.6422960243 0.0002589472 7.82296e-05 -4.66313e-05 6.45322e-05 0.5833582241 -0.6246423242
425297450.0 -0.5456022622 0.6483956641 7.66361e-05 8.21197e-05 6.13135e-05 -0.0001756439 0.5775965096 -0.6293481938
430297420.0 -0.5392552613 0.653375579 0.0001124256 -9.05201e-05 1.47129e-05 5.44735e-05 0.5715331211 -0.6349871706
435297390.0 -0.5318119026 0.6591243302 2.10542e-05 0.000191914 -0.0001037839 -3.88371e-05 0.5649439699 -0.6401536767
440297360.0 -0.5251357827 0.6643349702 -7.60347e-05 -4.10504e-05 -8.34991e-05 -4.86146e-05 0.5586073708 -0.6461109201
445297330.0 -0.5185574394 0.6698485482 -0.0001699776 -0.0001971753 6.6748e-05 1.3704e-05 0.552354999 -0.6511705328
450297300.0 -0.511123502 0.674346988 -5.30956e-05 -0.0001595482 6.69912e-05 -0.000108381 0.5451407132 -0.6563319396
455297270.0 -0.5042181743 0.6801359565 1.50321e-05 0.0001791475 -0.0001983436 1.11288e-05 0.5395597427 -0.6619140662
460297240.0 -0.4981205857 0.6854347046 1.04117e-05 -4.3006e-06 5.05975e-05 0.0001130508 0.5331574652 -0.6671456575
465297210.0 -0.4901362797 0.690318992 -0.0001607186 -0.00025511 -4.49829e-05 0.0001449579 0.5260706884 -0.6720672591
470297180.0 -0.4829047328 0.6947115039 -1.19871e-05 0.0001133921 -0.0001049116 -0.0001641187 0.5190665187 -0.6770969971
475297150.0 -0.4759080585 0.7003315547 6.58173e-05 -9.39586e-05 0.00013866 2.41483e-05 0.5133097102 -0.6816731235
480297120.0 -0.4694595293 0.7047686451 -8.49212e-05 0.000114484 -6.82e-06 7.46448e-05 0.5058332252 -0.6868311771
485297090.0 -0.4615053536 0.7092779668 -0.0001989841 -4.84359e-05 6.12093e-05 -3.60963e-05 0.4991102339 -0.691837749
490297060.0 -0.4542435886 0.7139995906 -3.94306e-05 6.11011e-05 -0.0001432432 -2.14847e-05 0.4922811947 -0.6967805292
495297030.0 -0.4468652529 0.7184903554 -0.0001386573 -0.000121217 -3.25957e-05 6.5815e-06 0.4854596106 -0.7013484212
500297000.0 -0.4388118709 0.7237049806 -1.80647e-05 5.92279e-05 -3.70666e-05 -4.23445e-05 0.4777516764 -0.7065071914
505296970.0 -0.4315198606 0.7270375912 -8.4329e-06 0.0002512198 0.0002650656 0.0001347654 0.4709354703 -0.7107706555
510296940.0 -0.4248532338 0.7320830819 5.51174e-05 0.0001478515 0.0002185016 9.3299e-05 0.4637251147 -0.7144368997
515296910.0 -0.4172675836 0.736253395 -7.12776e-05 0.0001179743 0.0002425107 -6.89726e-05 0.4562333613 -0.7189381325
520296880.0 -0.4093265306 0.740505277 8.57866e-05 1.44391e-05 -3.43225e-05 6.18001e-05 0.4500225568 -0.7240240369
525296850.0 -0.4020715855 0.7447054901 -6.13224e-05 5.30107e-05 -0.000231927 -9.2098e-06 0.4424221465 -0.7275001405
530296820.0 -0.3940732084 0.7483760319 6.40873e-05 6.45104e-05 -7.37528e-05 -0.0003478638 0.4352238656 -0.7323971762
535296790.0 -0.38606595 0.7521456526 0.0001173956 0.0001421343 1.48774e-05 0.0001178961 0.4278266173 -0.737422006
540296760.0 -0.3784111319 0.7559383188 -1.22413e-05 0.0001061174 -8.7655e-06 -3.58307e-05 0.4198777949 -0.7407392096
545296730.0 -0.3710902819 0.7597969747 -3.70419e-05 3.92946e-05 -5.88483e-05 -2.87682e-05 0.4127432738 -0.744833063
550296700.0 -0.3634719785 0.763855535 8.9467e-05 -9.01674e-05 0.0002082851 -7.21457e-05 0.4054838324 -0.7491819357
555296670.0 -0.3551039739 0.7667523779 -7.57357e-05 1.45115e-05 -2.08343e-05 -8.63634e-05 0.3979948448 -0.7529817616
560296640.0 -0.3471303932 0.7706614398 -0.0001019794 -0.0001998251 -4.44775e-05 0.0001809892 0.3897603498 -0.7561946929
565296610.0 -0.3399145928 0.7742112906 8.51876e-05 4.8414e-05 -0.0001233431 -1.0101e-06 0.3825556367 -0.7603002505
570296580.0 -0.3320596621 0.7775217205 -4.0771e-05 7.52473e-05 6.34527e-05 -3.72253e-05 0.3750794977 -0.7638461312
575296550.0 -0.32394131 0.7808534399 3.02528e-05 6.135e-05 7.5188e-06 -0.0001123225 0.3667072653 -0.7675340248
580296520.0 -0.3159380497 0.7846657171 7.4075e-05 0.0001390378 -0.0001733074 0.0001400394 0.3593487222 -0.7705611371
585296490.0 -0.3078820316 0.7863337895 -9.45552e-05 -1.94799e-05 3.77815e-05 -0.0001647621 0.3522240953 -0.7746500419
590296460.0 -0.3000617165 0.7894292824 9.47456e-05 -6.69184e-05 6.81405e-05 5.20429e-05 0.3439576687 -0.777427474
595296430.0 -0.2915666575 0.7934661928 3.93447e-05 -5.9827e-06 1.36993e-05 8.05341e-05 0.3358988814 -0.780939323
600296400.0 -0.2837076738 0.7959248469 -4.22813e-05 8.59759e-05 -2.86867e-05 0.0001330238 0.3287406868 -0.7840685089
605296370.0 -0.2753985704 0.7983792733 -0.0003425509 0.0002137902 1.06289e-05 -5.09807e-05 0.3201482627 -0.7874455364
610296340.0 -0.267483006 0.801988297 8.8262e-05 0.0002217539 1.0309e-06 -8.72701e-05 0.3121084257 -0.7896554162
615296310.0 -0.2590784972 0.8041495279 -4.39e-06 8.15449e-05 -0.0001267065 1.60384e-05 0.3052156504 -0.7933492214
620296280.0 -0.2509472653 0.8060931404 -0.0001091626 -5.43312e-05 3.10808e-05 3.45529e-05 0.2971317441 -0.7967296987
625296250.0 -0.2426693091 0.8089334782 7.82453e-05 9.41436e-05 5.18607e-05 -8.28224e-05 0.2887001295 -0.7985208249
630296220.0 -0.2343463855 0.8113313424 -0.000101354 -1.96893e-05 -0.0002473637 -7.21386e-05 0.280218203 -0.8011726526
635296190.0 -0.2263441339 0.813819013 -3.46642e-05 -2.41938e-05 -0.0001123976 -4.7731e-06 0.2727820478 -0.8036618807
640296160.0 -0.2178616075 0.8153744235 -0.0002331638 2.12358e-05 -0.0003337358 -0.0002443007 0.264434913 -0.8066731146
645296130.0 -0.2102285624 0.8179429107 0.0001161198 -0.0001592374 -0.000159814 -7.08035e-05 0.2564386888 -0.8094658406
650296100.0 -0.201956253 0.8201708792 -9.45133e-05 -0.0002087019 2.96507e-05 4.88302e-05 0.2481434084 -0.8113635015
655296070.0 -0.1928854114 0.8216121994 0.0001693641 7.1992e-05 8.93683e-05 -2.9522e-05 0.2401370763 -0.8138907978
660296040.0 -0.1849842477 0.8238893889 0.000292113 -0.0001751202 -4.5771e-06 0.0002045942 0.2319310028 -0.8159430055
665296010.0 -0.1775649641 0.8256366531 4.34834e-05 -7.79828e-05 3.91347e-05 -0.0001326708 0.2243718261 -0.8178360283
670295980.0 -0.1680679344 0.8270084675 -7.59257e-05 0.0001787678 0.0001193055 8.13753e-05 0.2160768336 -0.820081788
675295950.0 -0.1604286427 0.8286157295 7.24e-05 -8.992e-06 -9.86524e-05 -0.0001591082 0.2075948975 -0.8217673247
680295920.0 -0.1522222331 0.8304494595 8.3408e-06 5.5943e-06 -6.54559e-05 -2.87389e-05 0.1994759677 -0.8242876201
685295890.0 -0.1433109696 0.8320120371 -0.0003445044 8.54857e-05 -6.64663e-05 -4.46581e-05 0.1915967754 -0.8260796024
690295860.0 -0.1349048468 0.8336495328 -0.0001105489 4.467e-07 0.0001255995 2.738e-05 0.1836352831 -0.827266287
695295830.0 -0.1259715287 0.8344763175 -0.0001562233 -5.55976e-05 -5.0837e-06 9.96902e-05 0.1740922995 -0.8294691693
700295800.0 -0.1182457086 0.8362666725 5.32646e-05 -0.0002410785 2.03298e-05 1.25674e-05 0.1661609598 -0.8306331533
705295770.0 -0.1088970577 0.8378015817 -7.27382e-05 5.2308e-06 0.0001372098 6.04602e-05 0.1581268075 -0.8313795318
710295740.0 -0.1011527917 0.8383726309 -0.0001398049 -0.0001109207 -0.0001421155 0.0001553482 0.149437385 -0.8328122732
715295710.0 -0.0932597652 0.8386752387 -3.36567e-05 -0.0002517436 3.28921e-05 -1.93232e-05 0.141426233 -0.8348687046
720295680.0 -0.0842091734 0.8396092699 -2.231e-05 8.14645e-05 -1.20095e-05 1.5873e-05 0.1333991734 -0.8362725135
725295650.0 -0.0753058376 0.8410098128 5.19583e-05 -6.39503e-05 8.48777e-05 0.0001057326 0.1250025042 -0.8366625938
730295620.0 -0.0674803159 0.8415833362 -6.29919e-05 0.0002649514 -8.4487e-05 -6.86992e-05 0.1168788549 -0.8381704433
735295590.0 -0.0585759849 0.8414931698 9.00471e-05 -8.25164e-05 -4.88281e-05 3.32038e-05 0.1077947749 -0.8392055582
740295560.0 -0.0506780557 0.8425762268 2.66333e-05 0.000153684 -1.99409e-05 -7.73901e-05 0.0998403001 -0.8404390768
745295530.0 -0.0421417266 0.8425024386 3.26713e-05 -3.68665e-05 5.78941e-05 8.34111e-05 0.0908592346 -0.8410791662
750295500.0 -0.0336802062 0.8430364229 -9.07627e-05 -0.0001050706 -0.0002419559 0.0001129394 0.0831159781 -0.8417619781
755295470.0 -0.0246228463 0.8430896313 -0.0001362569 0.0001448439 -6.73599e-05 9.3068e-06 0.0738561331 -0.8416557398
760295440.0 -0.016042484 0.8434290739 -0.0002355843 -0.0001049605 -5.45286e-05 0.0001036348 0.0657315228 -0.8431934323
765295410.0 -0.008082847 0.8437636623 -0.0001069251 3.69065e-05 5.35726e-05 1.51533e-05 0.0575711787 -0.8429091083
770295380.0 0.0005249186 0.8440177818 -0.0002988006 8.31208e-05 -7.14958e-05 2.26901e-05 0.0494207389 -0.8431348227
775295350.0 0.0090448192 0.8438275941 -7.45536e-05 1.09387e-05 -0.0003004621 2.59995e-05 0.0410241156 -0.844496334
780295320.0 0.017549488 0.8431379195 -1.71841e-05 -0.0001006445 0.0001859429 -0.0001551582 0.0318429711 -0.8433635328
785295290.0 0.0260764343 0.8440693909 0.0002116346 -1.7212e-06 0.0001143549 -0.0001072167 0.0240569686 -0.8445266591
790295260.0 0.0340928675 0.8427842249 -3.047e-07 -9.92999e-05 -3.62845e-05 5.15886e-05 0.0163557549 -0.8442534172
795295230.0 0.042685723 0.8430272837 4.18848e-05 -0.0001520458 -5.93718e-05 -3.55554e-05 0.0069489163 -0.8440426688
800295200.0 0.0510274862 0.8425991655 0.0001104099 -8.30203e-05 -0.0002304978 -0.0001795459 -0.0014722531 -0.8445982308
805295170.0 0.0597048471 0.8419157948 -0.0001045022 0.0002211559 1.2152e-06 3.229e-05 -0.0101483972 -0.8438714385
810295140.0 0.0680354127 0.8412663246 7.56723e-05 -4.72391e-05 9.0773e-05 7.596e-07 -0.0182148678 -0.8428504235
815295110.0 0.0766266104 0.8402119344 -0.0001547324 5.0821e-05 -8.32926e-05 0.000143235 -0.0273106225 -0.8429944987
820295080.0 0.0851500176 0.8387335707 1.30137e-05 5.72149e-05 -0.0001810759 -0.0001732801 -0.0352258504 -0.8426345745
825295050.0 0.0941489599 0.8382938363 -3.7538e-05 0.0001087565 -0.0001010471 0.0001713145 -0.0438961342 -0.8422019858
830295020.0 0.1022707982 0.8373817943 0.0001202504 0.0001914557 3.53041e-05 3.80121e-05 -0.0521522299 -0.8414891154
835294990.0 0.1099883093 0.836753147 -0.0001526739 -4.39644e-05 5.04528e-05 5.55976e-05 -0.0609952421 -0.8411369886
840294960.0 0.1184861567 0.8354982908 4.86536e-05 1.18537e-05 -8.23138e-05 7.56636e-05 -0.0694478828 -0.8395936629
845294930.0 0.1272315345 0.8344405574 0.0002115471 -0.0001006333 3.86058e-05 -7.21198e-05 -0.0769163169 -0.8389867384
850294900.0 0.1346379958 0.8328040016 7.59935e-05 0.0001432445 1.65246e-05 0.0001118906 -0.0853921162 -0.8373307949
