!Created with skrf (http://scikit-rf.org).
# Hz S RI R 50.0 
!freq ReS11 ImS11 ReS21 ImS21 ReS12 ImS12 ReS22 ImS22
300000.0 -0.775436279 -0.1024141758 -0.0008932194 0.0003955165 0.0006018071 0.0005738737 -0.7743736193 -0.1361847644
5299970.0 -0.7849783765 -0.0061171113 0.0001402747 0.0002299263 -0.0002394771 0.0002615329 -0.7840691231 -0.007224715
10299940.0 -0.7875810762 -0.0041613496 7.3289e-06 -0.0001075762 -0.0001080658 -9.3287e-05 -0.7874526788 -0.0036450447
15299910.0 -0.7934090567 -0.0026334167 0.0001209683 8.81475e-05 -2.6318e-06 -8.2995e-06 -0.7927755892 -0.0015724121
20299880.0 -0.799932353 0.0018731915 3.31938e-05 5.83311e-05 8.50469e-05 -9.23535e-05 -0.7996377823 0.0021737337
25299850.0 -0.8066407576 0.0078485813 -8.7056e-06 9.28781e-05 -0.0001067404 -0.000139731 -0.8057408998 0.0080113126
30299820.0 -0.8124076326 0.0150381776 -0.0001310276 -3.83552e-05 -0.0001449893 0.0002032708 -0.8120210263 0.0165278181
35299790.0 -0.8171040823 0.0245711397 -4.52386e-05 0.0002022889 0.0001550495 -2.70623e-05 -0.8169747453 0.0251450846
40299760.0 -0.8211950922 0.0338628758 -3.47954e-05 -2.2014e-06 3.932e-07 -3.82836e-05 -0.820689802 0.0346677071
45299730.0 -0.8249231476 0.0433807686 3.6811e-06 6.6542e-05 0.0001131439 9.80793e-05 -0.8250507151 0.0441557063
50299700.0 -0.8274454372 0.0531820376 -0.0001540322 -6.51692e-05 -0.0001104753 0.0001140084 -0.8272111262 0.0541696789
55299670.0 -0.829357332 0.0628986356 -6.2965e-05 -0.0002721229 4.0544e-05 -2.33525e-05 -0.8289015363 0.064160363
60299640.0 -0.8300830093 0.0734727764 7.6866e-06 2.3321e-06 1.95779e-05 -0.0001290269 -0.8303512899 0.074138234
65299610.0 -0.8313349252 0.0831948915 -0.0001090742 9.36454e-05 -5.05915e-05 -0.0001178324 -0.8319184499 0.0837035138
70299580.0 -0.8316219925 0.0942347564 -4.07722e-05 0.0001410254 7.31352e-05 -6.0431e-06 -0.8316014655 0.0941751707
75299550.0 -0.83212832 0.1036264464 -0.0001711325 -0.0002669671 0.0001267527 -8.62593e-05 -0.8322666206 0.1038290224
80299520.0 -0.8318981714 0.1139462349 8.878e-05 -1.77155e-05 -0.0001311061 3.31379e-05 -0.8322167977 0.1138383176
85299490.0 -0.8308463101 0.122701174 8.7953e-05 -0.0001505852 -6.23244e-05 -1.75e-07 -0.8315906624 0.1237471386
90299460.0 -0.8299601631 0.1323619865 5.13271e-05 -5.40587e-05 -8.25692e-05 6.21561e-05 -0.8307536088 0.1332312687
95299430.0 -0.8289757853 0.1419490745 5.62694e-05 7.29713e-05 -1.50648e-05 9.2667e-06 -0.8291423098 0.1429542903
100299400.0 -0.8283032649 0.1509199775 1.16298e-05 7.40315e-05 -0.000146606 2.0355e-05 -0.8282877623 0.1524682397
105299370.0 -0.8271495673 0.1606230584 0.000241936 4.19949e-05 0.0001169518 7.6119e-05 -0.8268327845 0.1610662454
110299340.0 -0.8255094487 0.1695671179 0.000384157 -0.000104385 0.0001543328 -6.00508e-05 -0.8253520062 0.1706816797
115299310.0 -0.8237364087 0.1782031197 0.0001384563 0.0001033042 -0.0001839639 8.50232e-05 -0.8241635368 0.1797791571
120299280.0 -0.8221872537 0.187108656 -0.0001578934 0.0002204839 -0.0001601583 8.5957e-05 -0.8217786172 0.1886946276
125299250.0 -0.8207443341 0.1960364273 4.95877e-05 0.0001124373 8.68767e-05 -5.24184e-05 -0.8204132607 0.1972465214
130299220.0 -0.8188003763 0.2053806875 -4.35639e-05 -0.000132481 6.85589e-05 -9.1428e-06 -0.8182195524 0.2066969281
135299190.0 -0.8170854185 0.2143595047 9.9128e-06 3.35942e-05 -0.0002133568 -0.0001322347 -0.8166012066 0.2159172658
140299160.0 -0.8144906786 0.222917166 3.64166e-05 -4.55408e-05 -0.0001016184 -8.51851e-05 -0.8139782352 0.2245446066
145299130.0 -0.8124179624 0.2322459981 -3.8904e-05 0.0001939352 6.34278e-05 0.0001444644 -0.811627068 0.2339869573
150299100.0 -0.8103565242 0.2408996293 -5.27297e-05 -6.62515e-05 7.61822e-05 -0.0001014581 -0.8103263613 0.2428346741
155299070.0 -0.8077696632 0.2497294942 0.0002124466 -0.0001089075 6.276e-07 5.2048e-06 -0.8071109085 0.2513780517
160299040.0 -0.8055637884 0.2579357868 9.41043e-05 7.26072e-05 0.0001179766 -6.20708e-05 -0.804781156 0.2605450041
165299010.0 -0.8031461337 0.2664145867 -0.0002837881 3.15958e-05 -0.0002454459 0.0001068539 -0.8024571665 0.2695910904
170298980.0 -0.7998719866 0.2751875358 1.44192e-05 -0.0001886724 -1.947e-07 0.0002195848 -0.7986491026 0.2782549608
175298950.0 -0.7976075352 0.284288273 0.0001035655 -0.0001243789 -6.3541e-06 -0.0001207119 -0.7966773327 0.2866175525
180298920.0 -0.7951491964 0.2928095977 8.22675e-05 0.0001957744 0.0001752805 3.86074e-05 -0.7933030923 0.2953752275
185298890.0 -0.7910602826 0.3011554468 0.0001968564 -0.0001455683 -0.0001012318 -0.0003359692 -0.7903891576 0.3034978548
190298860.0 -0.7882937616 0.3102617068 3.652e-07 -9.70434e-05 -3.45959e-05 -0.0002671359 -0.7875706996 0.3124666257
195298830.0 -0.7851904928 0.3178632665 -0.0001028414 -0.0001937523 5.9519e-06 0.0001156439 -0.7841613557 0.3210031994
200298800.0 -0.78144524 0.3257365938 6.37771e-05 3.56519e-05 4.33209e-05 -4.3487e-05 -0.7814489408 0.3290808423
205298770.0 -0.7784048115 0.3342594818 5.19119e-05 -9.69594e-05 0.0001331538 -8.0465e-05 -0.7774151585 0.3371817365
210298740.0 -0.774940216 0.3426123188 -5.43126e-05 0.0001575328 -1.8485e-05 -5.49412e-05 -0.7740457267 0.3460442172
215298710.0 -0.7717488 0.351119622 -0.0001720853 -4.0335e-05 4.83698e-05 -3.20262e-05 -0.770852206 0.3539848929
220298680.0 -0.7675026232 0.358700009 4.0995e-05 -0.0002837855 -0.0001709094 6.26953e-05 -0.7671609811 0.3623131889
225298650.0 -0.7640605681 0.3664898848 -0.0001871534 -7.68404e-05 3.34859e-05 -1.07633e-05 -0.7631701908 0.3705249223
230298620.0 -0.7601541045 0.3748309549 5.99176e-05 1.6104e-05 3.4385e-05 -8.21026e-05 -0.7596125886 0.3783596014
235298590.0 -0.7565273 0.3834092273 -0.0001111468 0.0001314074 -8.55606e-05 2.75276e-05 -0.7556562426 0.3871325575
240298560.0 -0.7522237099 0.3914365117 0.0001888781 -2.41831e-05 0.0001748812 -5.8708e-06 -0.751652546 0.3952232393
245298530.0 -0.7490104885 0.3988456532 0.0002009988 -2.14e-06 0.0001597473 -9.47028e-05 -0.7477776144 0.4023317776
250298500.0 -0.744070823 0.4066731201 -7.64573e-05 -4.11711e-05 -8.4822e-06 -1.70001e-05 -0.7433802308 0.4104334835
255298470.0 -0.739651888 0.4141341211 -3.31416e-05 2.77058e-05 1.04616e-05 -5.46345e-05 -0.739148004 0.4178605453
260298440.0 -0.735286355 0.421665657 0.0001841581 -5.59152e-05 -0.0001338921 9.5258e-06 -0.7344027068 0.426394389
265298410.0 -0.7313407357 0.4302331819 0.000106354 -0.000148266 0.0002983105 -0.0001283682 -0.729992216 0.4336549373
270298380.0 -0.7271990486 0.4371170691 -5.12157e-05 0.0001336755 4.91379e-05 0.0001657859 -0.7256930712 0.441385898
275298350.0 -0.7219017009 0.4443001119 3.90612e-05 -1.91498e-05 5.0554e-06 1.52321e-05 -0.7209063922 0.4484720472
280298320.0 -0.7172774828 0.4525092271 0.0002280684 -7.23199e-05 -0.0001140138 3.49986e-05 -0.7155950399 0.4557737227
285298290.0 -0.7125680472 0.4597380554 -3.68679e-05 -0.0001953857 -0.0001023973 5.83429e-05 -0.7109427579 0.4632227458
290298260.0 -0.7077243959 0.4673723274 8.585e-06 -0.0001412409 -1.74088e-05 -5.45537e-05 -0.7058164672 0.4709524021
295298230.0 -0.7024310003 0.4745328436 -0.0001022547 -9.95938e-05 -0.0001757826 0.0002130971 -0.7011416881 0.4776707245
300298200.0 -0.6978655517 0.4816849801 -7.99429e-05 9.602e-05 -3.00098e-05 0.0001965501 -0.6958443192 0.4849478962
305298170.0 -0.6922529312 0.4878669551 -0.0001348826 0.000176487 -8.94156e-05 9.5416e-05 -0.6901775987 0.4929371479
310298140.0 -0.687167393 0.4961188326 0.0002304002 0.0001127191 -0.0002169988 -0.000174764 -0.6856764317 0.4995312066
315298110.0 -0.6825652692 0.5031071462 -8.0143e-06 -4.4572e-05 -2.58687e-05 -0.0001013755 -0.6796397744 0.506378753
320298080.0 -0.6773320672 0.5101022521 -5.5719e-05 8.59042e-05 -4.61513e-05 0.0002134415 -0.6748387895 0.5140258446
325298050.0 -0.6715564144 0.5177079457 -5.92534e-05 4.07637e-05 -8.53129e-05 -0.0001396635 -0.66870829 0.5207707812
330298020.0 -0.6663117912 0.5242992956 3.67528e-05 -0.0001485658 -2.08824e-05 -3.71553e-05 -0.6633625879 0.5282662552
335297990.0 -0.6611935705 0.5309613068 8.9829e-05 -4.5165e-05 1.60974e-05 1.28532e-05 -0.6578176251 0.5348854198
340297960.0 -0.6560255731 0.5376552072 0.0001061498 2.61788e-05 -4.13639e-05 -0.000108834 -0.6520294028 0.542407146
345297930.0 -0.6504091423 0.5444890509 -0.0001314412 7.457e-06 0.0001556412 5.5482e-05 -0.6465473646 0.5485128525
350297900.0 -0.6449617658 0.5510324402 0.0001191788 3.03728e-05 -5.49996e-05 -0.0002344351 -0.6411345618 0.5552595964
355297870.0 -0.6387115669 0.5581195583 -1.49972e-05 8.12717e-05 -0.0001408342 -0.0001417426 -0.6354050059 0.5616078332
360297840.0 -0.6328526021 0.56360405 0.0001524411 -1.24563e-05 -3.38439e-05 0.0001148207 -0.6299662185 0.5688213411
365297810.0 -0.6269701881 0.5707142471 0.0001826088 -0.0002043593 -0.0001470934 -0.0001439309 -0.6226831114 0.5754896055
370297780.0 -0.6209547793 0.5767723935 0.0002850566 0.0001222387 0.0001361373 0.0001958776 -0.6172818485 0.5822907231
375297750.0 -0.6145555073 0.5833496527 0.0001233379 0.000231163 -1.80155e-05 -7.9212e-06 -0.6119436027 0.5878417302
380297720.0 -0.6088610926 0.5890162427 -5.70439e-05 7.20775e-05 -4.57292e-05 -0.0001770197 -0.6055398032 0.5940264632
385297690.0 -0.6032582147 0.5953865667 2.28947e-05 -0.0001024933 -5.60994e-05 -2.41625e-05 -0.5993083205 0.6006538399
390297660.0 -0.5969326149 0.601246884 -0.0001050443 5.49624e-05 0.0001053563 -1.68567e-05 -0.5928975367 0.6063567214
395297630.0 -0.590035829 0.6076097875 2.57615e-05 -0.0001440675 -0.0001291933 -3.09052e-05 -0.5870909316 0.6136317281
400297600.0 -0.5842372019 0.6139226809 1.36322e-05 0.0001144066 0.0001095166 3.03601e-05 -0.5800794912 0.6185354018
405297570.0 -0.5777624026 0.6196278608 9.63055e-05 1.22109e-05 -0.0001465763 -0.00022266 -0.5738624621 0.6243874035
410297540.0 -0.5707075683 0.6254166357 -0.0001343514 1.88409e-05 -8.61964e-05 0.0001429781 -0.5673680991 0.6307998544
415297510.0 -0.5646201894 0.6309868965 -0.00017983 -4.03611e-05 -4.04049e-05 2.2418e-06 -0.5609000383 0.6365407912
420297480.0 -0.5592096403 0.6374833496 1.34161e-05 6.50506e-05 7.89553e-05 0.0001138671 -0.554850606 0.6423903685
425297450.0 -0.5516965257 0.642501366 9.32933e-05 7.45355e-05 -0.0001195554 -5.7108e-06 -0.5477968434 0.6479893142
430297420.0 -0.5451982721 0.6479660526 -3.1553e-05 0.0002110315 7.27706e-05 8.39426e-05 -0.5414045692 0.6530446836
435297390.0 -0.5384315807 0.6531997366 -5.71707e-05 0.0001117633 0.0001192574 9.2647e-06 -0.5337721585 0.658827559
440297360.0 -0.5319826323 0.6590803635 -0.0001701345 6.79484e-05 1.8905e-06 0.000120345 -0.5272754094 0.6636385002
445297330.0 -0.5247799072 0.6647807611 -4.96244e-05 -4.2937e-06 0.0002332343 -0.0002589615 -0.5200000064 0.6685541578
450297300.0 -0.5180967015 0.6693698094 9.09516e-05 -2.43405e-05 9.109e-06 0.0001430346 -0.512956693 0.6738409092
455297270.0 -0.5110872683 0.6743244459 -3.00587e-05 0.0001448234 7.4658e-05 6.83075e-05 -0.5062167224 0.6786220608
460297240.0 -0.5049812127 0.6792199296 0.0001390656 0.0001813197 -1.17037e-05 6.39143e-05 -0.4996547502 0.6840313338
465297210.0 -0.4974471742 0.6849657437 -4.21667e-05 -9.6734e-06 -5.05911e-05 -1.67311e-05 -0.4916556967 0.6885636403
470297180.0 -0.4901784128 0.6899595713 -5.61201e-05 0.0001747879 -1.76806e-05 2.38837e-05 -0.4848353376 0.6940246789
475297150.0 -0.4833140397 0.6943429551 4.92696e-05 -0.0002212478 2.55097e-05 9.13839e-05 -0.477542145 0.698476975
480297120.0 -0.4766373643 0.6993940523 1.65312e-05 6.66799e-05 -0.0001428996 -0.0001369771 -0.4701127374 0.7035857744
485297090.0 -0.4693311756 0.7039999879 -3.92186e-05 0.0001299247 9.38809e-05 -4.73707e-05 -0.4629985631 0.7083043706
490297060.0 -0.4621776784 0.7086941271 -1.5371e-06 -1.44553e-05 -7.96113e-05 4.92094e-05 -0.4553379897 0.7120737811
495297030.0 -0.4555248938 0.713224732 0.0001593237 -3.91839e-05 4.30497e-05 4.34055e-05 -0.4485607156 0.7176828972
500297000.0 -0.4474257979 0.7178274799 -9.21447e-05 1.92352e-05 6.91973e-05 1.67256e-05 -0.4405492574 0.7223855847
505296970.0 -0.4398278734 0.7223284143 0.0001390789 9.03166e-05 -3.72649e-05 -1.88295e-05 -0.4336735634 0.7263554231
510296940.0 -0.432879638 0.7267147631 -2.35973e-05 -8.832e-07 -2.3024e-05 -3.83293e-05 -0.4259575345 0.7299614729
515296910.0 -0.4244666202 0.7306369292 8.58492e-05 -2.27302e-05 -0.0002225917 0.0002741902 -0.418234527 0.7348427752
520296880.0 -0.4182912196 0.7353617384 -8.45961e-05 5.78061e-05 -0.0001808833 -5.61282e-05 -0.4115715182 0.73903768
525296850.0 -0.4102375393 0.7388186201 -0.0002008805 0.0001489458 -1.59256e-05 3.15934e-05 -0.403918184 0.7437891067
530296820.0 -0.4027901555 0.7435692199 -7.53456e-05 -0.0002274222 9.7351e-06 6.75562e-05 -0.3964715007 0.7475549835
535296790.0 -0.3959475449 0.7470651414 0.000171619 -9.21863e-05 7.57693e-05 -0.0001906456 -0.3884781995 0.751151271
540296760.0 -0.3880972849 0.7507158361 2.28234e-05 4.08749e-05 0.0001755345 8.4546e-06 -0.3808767522 0.755818495
545296730.0 -0.380312187 0.7551183169 5.61458e-05 5.57093e-05 -5.73397e-05 -0.0001344506 -0.3731199249 0.7589964616
550296700.0 -0.3734835823 0.7584787825 -0.0001638352 -9.82157e-05 1.72736e-05 4.19998e-05 -0.3657211505 0.7637018119
555296670.0 -0.3653242238 0.7614974303 -7.41017e-05 -5.44827e-05 3.15124e-05 -0.000119295 -0.357569152 0.7674598829
560296640.0 -0.3572997036 0.7662314682 -0.000142347 -0.000168885 8.48406e-05 -7.9561e-06 -0.3497934385 0.770436081
565296610.0 -0.3497030675 0.7697652748 1.63672e-05 -0.0001597999 -0.0001981412 -0.000206217 -0.3424472576 0.7735041923
570296580.0 -0.3417150869 0.7721851576 4.45133e-05 0.0001271157 -5.45526e-05 -6.84371e-05 -0.3351290051 0.7777260948
575296550.0 -0.3344902861 0.7762987429 0.0001260903 -9.60716e-05 -5.2889e-05 -0.0001246342 -0.3270114686 0.7807283165
580296520.0 -0.3261695315 0.7795547254 -4.0696e-05 1.00455e-05 -8.70348e-05 3.25352e-05 -0.3181720426 0.7842694008
585296490.0 -0.3187906084 0.7827818566 1.14571e-05 2.55415e-05 1.15075e-05 -7.18881e-05 -0.3104520049 0.7872522583
590296460.0 -0.3101915363 0.7856800121 0.0001009117 7.17564e-05 0.0001788566 -0.0001041021 -0.3028862379 0.7899175063
595296430.0 -0.3029343111 0.7881850006 8.95857e-05 0.0002003322 0.0001080361 -8.11637e-05 -0.2947459588 0.7920359597
600296400.0 -0.294845461 0.7918592099 7.29342e-05 6.44679e-05 -2.20422e-05 -6.42251e-05 -0.2864867235 0.7956701681
605296370.0 -0.2871358027 0.794691755 0.0001189674 0.0001106083 -0.0002495916 -9.09039e-05 -0.2784335438 0.7982831481
610296340.0 -0.2791271627 0.7977401617 0.0001346488 -0.0001131345 -0.0001500305 -2.17826e-05 -0.2704870582 0.8010167282
615296310.0 -0.2700949152 0.7998988271 2.37955e-05 0.0001292628 1.4702e-06 8.99631e-05 -0.2622204859 0.8032829321
620296280.0 -0.2627250776 0.8022758128 0.0002829161 6.16064e-05 3.84691e-05 1.77522e-05 -0.2546208962 0.8059347931
625296250.0 -0.2550693357 0.8051984446 3.46737e-05 3.38046e-05 -0.0001341303 -6.4923e-06 -0.2453191711 0.8081274088
630296220.0 -0.2461133003 0.8078787042 1.42265e-05 8.34588e-05 -0.0002256979 -1.48581e-05 -0.2375266964 0.8107396495
635296190.0 -0.2383287371 0.8102641227 -9.69976e-05 -5.94498e-05 6.27731e-05 2.24399e-05 -0.2296093604 0.812765352
640296160.0 -0.2307732198 0.81255898 -1.54153e-05 -8.84837e-05 -3.14736e-05 -9.9361e-06 -0.2211750974 0.8154866711
645296130.0 -0.2224493774 0.8151671749 0.0001006446 4.11284e-05 -6.75682e-05 3.74273e-05 -0.2131622449 0.8170658021
650296100.0 -0.214260271 0.8166230882 -6.61519e-05 -2.9713e-06 0.0001011733 -0.0001743839 -0.2046895737 0.8186530267
655296070.0 -0.2055438437 0.818880417 -4.02237e-05 1.01885e-05 -0.000283411 0.0003340191 -0.195966534 0.8203899828
660296040.0 -0.1979925893 0.8207474845 -3.82875e-05 -0.0001003617 8.41572e-05 8.21655e-05 -0.1871925292 0.8228455148
665296010.0 -0.1896442127 0.8219295265 8.66667e-05 1.658e-05 3.90131e-05 -2.27801e-05 -0.1789988242 0.8247940876
670295980.0 -0.1824389572 0.824347784 3.37296e-05 -2.00805e-05 -5.4677e-06 -0.0001413937 -0.1713918692 0.8261381819
675295950.0 -0.1731858841 0.8260039943 -7.93361e-05 -0.0001266994 5.47672e-05 -0.0001721203 -0.1631582894 0.8284026626
680295920.0 -0.1645350727 0.8277343735 3.3726e-05 0.0002460033 0.0001832857 -3.83985e-05 -0.1548782629 0.8308233934
685295890.0 -0.1569863804 0.8302759858 8.4858e-05 0.0001507956 4.51533e-05 0.0001953177 -0.1454642954 0.8313975419
690295860.0 -0.1486829181 0.8303502197 -6.71862e-05 -0.0001133866 3.77053e-05 3.33122e-05 -0.1382464144 0.8336032834
695295830.0 -0.1406440488 0.8322660068 8.03774e-05 0.0002095802 2.67841e-05 -6.44222e-05 -0.1293231202 0.8349688758
700295800.0 -0.1319346765 0.833710127 -5.67416e-05 7.5883e-06 -1.17954e-05 2.648e-07 -0.1226490549 0.8356745223
705295770.0 -0.1241059481 0.8348883738 -5.58027e-05 0.000237868 -0.000232749 2.13429e-05 -0.1132656023 0.8383529779
710295740.0 -0.116088552 0.8360988712 7.2106e-05 0.0001270431 3.04843e-05 0.0001555289 -0.1046315406 0.8387149591
715295710.0 -0.1071149656 0.8371522688 0.0001547944 -4.84853e-05 5.74072e-05 -0.0001881661 -0.0964372075 0.8391696245
720295680.0 -0.0994631498 0.8390558771 -0.0002097137 6.18275e-05 0.0002143234 0.0001586567 -0.0872905576 0.8401578854
725295650.0 -0.0906419556 0.8396958219 1.16052e-05 4.58814e-05 0.0001642273 -0.0001512677 -0.0796666613 0.8419292733
730295620.0 -0.0820246047 0.8402250539 -0.0001367868 -6.6124e-05 -7.7341e-06 0.0001528455 -0.072212321 0.8418845412
735295590.0 -0.0738340818 0.8413670164 2.54318e-05 -0.0002101137 0.0001142239 -4.1375e-06 -0.0632998271 0.8424806502
740295560.0 -0.0654752017 0.8421826633 -0.0004031921 -3.80237e-05 -7.17702e-05 8.75346e-05 -0.0536209459 0.8442341142
745295530.0 -0.0576450776 0.8428012641 -0.0003482923 5.57017e-05 2.71678e-05 -0.0001616704 -0.045954019 0.8438858144
750295500.0 -0.0485713968 0.8430281077 0.0001240373 9.25811e-05 -1.8571e-06 2.0249e-06 -0.0377988948 0.8442879189
755295470.0 -0.0400245162 0.8432826487 -1.93276e-05 -0.000233389 0.0001696805 6.87095e-05 -0.0290857821 0.8434906508
760295440.0 -0.0326996467 0.8430354995 0.0001640005 8.04835e-05 8.2842e-06 0.0001019935 -0.0210300103 0.8442686648
765295410.0 -0.0240606127 0.8438238434 -8.41426e-05 -0.000222714 -2.61282e-05 -8.9369e-06 -0.0126929946 0.8444872042
770295380.0 -0.0157232444 0.8444221923 4.61549e-05 8.75169e-05 7.50257e-05 -0.0001338531 -0.0041344432 0.8444749191
775295350.0 -0.0074827825 0.8442439061 0.0001479341 -0.0001705316 -0.0001618316 5.47216e-05 0.0039939863 0.8441823873
780295320.0 0.0012496832 0.8444894909 -7.99542e-05 0.0001664728 -4.455e-06 0.0001287338 0.0124224624 0.8443132272
785295290.0 0.0092873387 0.8436111099 -1.85797e-05 -0.0001406057 -3.19534e-05 -7.92165e-05 0.0211085274 0.8436307501
790295260.0 0.0178646998 0.8435238843 -3.15305e-05 8.83076e-05 -7.97109e-05 7.8092e-05 0.0298529215 0.8436910054
795295230.0 0.0256484993 0.8434585585 8.71322e-05 4.67349e-05 -9.94978e-05 2.01505e-05 0.0386098016 0.8424731597
800295200.0 0.0343393552 0.8434923988 3.4951e-06 0.0001154289 -4.77785e-05 0.0002704916 0.0466776311 0.842214526
805295170.0 0.0426583963 0.8428142979 -4.04734e-05 -9.25853e-05 6.4099e-05 -5.69347e-05 0.0548784386 0.8420809069
810295140.0 0.051148171 0.8421551264 0.0001581689 0.0001065846 -1.56339e-05 3.63e-05 0.0635553624 0.8409579068
815295110.0 0.0589844764 0.8418218066 -8.26455e-05 0.0002385755 7.37344e-05 -3.42152e-05 0.0721000016 0.8402335165
820295080.0 0.0673745238 0.8414805753 5.19462e-05 -7.21615e-05 -0.0002414581 0.0002424647 0.0803146687 0.840352219
825295050.0 0.0766969273 0.8405645726 -5.24586e-05 -2.75639e-05 -1.70531e-05 -0.0001908194 0.0887377954 0.8394462867
830295020.0 0.0842465123 0.8395423238 -0.0002846016 -0.000267766 -0.0002669546 -0.000189012 0.0976451532 0.838202727
835294990.0 0.0921872982 0.8389614025 9.2339e-06 -0.0002705697 -1.41187e-05 0.0001089755 0.1053143875 0.8376373598
840294960.0 0.1002855709 0.8382623716 -7.35065e-05 7.20292e-05 -1.80815e-05 0.0002422398 0.1135804091 0.8360613181
845294930.0 0.1085539594 0.8367751688 0.0001136924 8.30489e-05 -6.59469e-05 2.00744e-05 0.1214001008 0.8347855376
850294900.0 0.1169761418 0.8357689376 0.0002004147 -0.0001847938 -2.20555e-05 4.78142e-05 0.1299579618 0.833945963
