!Created with skrf (http://scikit-rf.org).
# Hz S RI R 50.0 
!freq ReS11 ImS11 ReS21 ImS21 ReS12 ImS12 ReS22 ImS22
300000.0 -0.2362437336 -0.1152272176 0.4664626956 0.0751716067 0.4664326456 0.0769225232 -0.2371974852 -0.1232784865
5299970.0 -0.2448146365 0.0054348678 0.4737986685 0.0057558221 0.4740784715 0.0056603749 -0.2436613302 0.0053711091
10299940.0 -0.2416897475 0.0187109185 0.4759021169 0.0071325463 0.4760393645 0.0071200288 -0.2403633132 0.0180073873
15299910.0 -0.2367435828 0.0284456962 0.4792399736 0.0084839084 0.4797450521 0.008351883 -0.2360311738 0.0273166034
20299880.0 -0.2315410264 0.0363241893 0.4838285422 0.0084253298 0.4844024877 0.0084889414 -0.2313634277 0.0353242064
25299850.0 -0.2256270709 0.0426845277 0.4897804929 0.0079574037 0.489582004 0.0077097132 -0.2262414044 0.0417362916
30299820.0 -0.2202216141 0.0478454023 0.4950828141 0.0055599013 0.4950206301 0.0053415966 -0.2207555265 0.046657716
35299790.0 -0.2144009694 0.05180767 0.4999177607 0.0025751396 0.5008686909 0.0022238003 -0.2159370338 0.0513890197
40299760.0 -0.2090432576 0.0548903456 0.5056325924 -0.001378095 0.5057980038 -0.0015372734 -0.2106725333 0.0547048023
45299730.0 -0.2040366969 0.0573162494 0.5105357069 -0.0062928343 0.5102995514 -0.0064199977 -0.2056640482 0.0577105402
50299700.0 -0.199321814 0.0589841234 0.5145277056 -0.0119225523 0.5144861323 -0.0120513483 -0.2010868575 0.0602062601
55299670.0 -0.1948545598 0.0604039248 0.5182108835 -0.017391589 0.5178971758 -0.0181256957 -0.1977702702 0.0617239383
60299640.0 -0.190795399 0.0617150752 0.5218090489 -0.0239605833 0.5217648393 -0.0239938609 -0.1938233792 0.0633652943
65299610.0 -0.1872651813 0.0626964065 0.5249345068 -0.0301333431 0.525097095 -0.0305552498 -0.1901009643 0.0647958578
70299580.0 -0.1838110341 0.063229944 0.5268139194 -0.0367291995 0.5271799567 -0.0372198746 -0.1869936348 0.0657924159
75299550.0 -0.1809480277 0.063964866 0.5286104347 -0.0442813977 0.5293755355 -0.044049254 -0.1840944202 0.067037354
80299520.0 -0.1785664014 0.0645795624 0.5309854065 -0.0508492995 0.531484644 -0.0509901122 -0.1815536222 0.0681066185
85299490.0 -0.1757218419 0.0645842939 0.5323503861 -0.0575240559 0.5326415383 -0.0573776048 -0.1794148779 0.0685389192
90299460.0 -0.1735401796 0.0654057849 0.5329033499 -0.0646519014 0.5330524973 -0.0645200781 -0.1767082056 0.0699221745
95299430.0 -0.1714202624 0.0656798362 0.5341129409 -0.0714334952 0.5345391242 -0.0717715229 -0.1750535913 0.0704167009
100299400.0 -0.169596689 0.0661749875 0.534648194 -0.0781813124 0.5348662066 -0.0782004696 -0.1733101775 0.071856252
105299370.0 -0.1672876902 0.0663767259 0.5346211187 -0.0851863087 0.5353549931 -0.0853044684 -0.1712059917 0.0721162764
110299340.0 -0.1657879896 0.0669938273 0.5352544841 -0.0920295381 0.5355228199 -0.09196613 -0.1697452529 0.0731017454
115299310.0 -0.1644550435 0.0676943488 0.5349195286 -0.09841697 0.5352917932 -0.0987351077 -0.1679535015 0.0744193631
120299280.0 -0.1630626822 0.068182019 0.5350124564 -0.1059766413 0.5347644563 -0.10634864 -0.1663073518 0.0746397331
125299250.0 -0.1619032875 0.0686828766 0.5346579603 -0.1125065517 0.5348000271 -0.1124913544 -0.1653877239 0.0759736695
130299220.0 -0.1606257134 0.0692108061 0.533960173 -0.1195059715 0.5339067662 -0.1198835993 -0.1640363156 0.0770700354
135299190.0 -0.1596723592 0.0703038406 0.5340303258 -0.1257356541 0.5337127985 -0.1263253982 -0.1629021358 0.0774505787
140299160.0 -0.1584805233 0.0708488213 0.5328760023 -0.1326307036 0.5325082735 -0.1324901057 -0.1623707353 0.0788598709
145299130.0 -0.1578158179 0.0715929196 0.5314963646 -0.139246169 0.5316458709 -0.1390720744 -0.1608248633 0.0799637202
150299100.0 -0.1566741434 0.0728800247 0.5304862723 -0.1456598996 0.5305500575 -0.1454626169 -0.159876194 0.0812445224
155299070.0 -0.1553871963 0.0736940892 0.5288301863 -0.1524982246 0.529849821 -0.1523223542 -0.1586165513 0.082203151
160299040.0 -0.15478655 0.074320548 0.5277366602 -0.1587126683 0.5278607112 -0.1588916502 -0.1582718567 0.0833889141
165299010.0 -0.1537699517 0.075539991 0.5268272884 -0.165092945 0.5266330708 -0.1652570455 -0.1567501005 0.0843907105
170298980.0 -0.1530195057 0.0762032136 0.5243844272 -0.1712389488 0.5251454677 -0.1715843009 -0.1563057003 0.0855913198
175298950.0 -0.1523093494 0.0772841234 0.5234169129 -0.1779043831 0.5236815389 -0.1782419037 -0.1551316318 0.0872366773
180298920.0 -0.151595185 0.0784469788 0.5216424662 -0.1843188018 0.5216915383 -0.1847452737 -0.1539661974 0.088147793
185298890.0 -0.1510734042 0.0796263442 0.5204052447 -0.1904288985 0.5197631078 -0.1901395893 -0.1527275256 0.0893070079
190298860.0 -0.1497911741 0.0808492235 0.5175969385 -0.1967546082 0.5180959172 -0.1963038747 -0.1523381684 0.0907188966
195298830.0 -0.149004242 0.0819324472 0.5162990363 -0.2024963222 0.5160934802 -0.203159936 -0.1514244279 0.0921951261
200298800.0 -0.1482014833 0.0827492389 0.5140709914 -0.2094412012 0.5139783652 -0.2089532736 -0.1501483308 0.0934838656
205298770.0 -0.1478291627 0.0841491799 0.5111159031 -0.2150065785 0.51162283 -0.2146173633 -0.1493645468 0.0951999765
210298740.0 -0.1469017501 0.0852774309 0.5092213551 -0.2208333821 0.509210772 -0.2206795559 -0.1488074613 0.0961100851
215298710.0 -0.1461752007 0.0867580954 0.5067707395 -0.2266289751 0.506891269 -0.2270170453 -0.1475219447 0.0978988783
220298680.0 -0.1451106654 0.0879248061 0.5041002997 -0.2324115198 0.5046388905 -0.2330709613 -0.146298815 0.0991881012
225298650.0 -0.1445716436 0.0890583639 0.5020162136 -0.2384860555 0.5021344553 -0.2381585295 -0.1453823451 0.1004949708
230298620.0 -0.1437936684 0.0904386864 0.4998115831 -0.244124557 0.4998621026 -0.2442012426 -0.1448195405 0.1015513834
235298590.0 -0.1432802692 0.0917628754 0.4972168731 -0.2504123845 0.4973180975 -0.2504121192 -0.1434591922 0.1034241295
240298560.0 -0.1422905438 0.093165197 0.4941773351 -0.2556256945 0.4942820925 -0.2558784271 -0.1426950277 0.1043386643
245298530.0 -0.1413682622 0.0943225715 0.4915187584 -0.2617376975 0.4915698265 -0.2617795662 -0.1414188533 0.1058018361
250298500.0 -0.1407721731 0.0953023584 0.4888400583 -0.2669227866 0.4886943555 -0.2671205215 -0.1407602284 0.1077597225
255298470.0 -0.1399030056 0.0969708446 0.4859164398 -0.2723830363 0.4861858714 -0.2730250406 -0.1396048184 0.1091861833
260298440.0 -0.1391450397 0.0982115145 0.4831511395 -0.277497296 0.4830626197 -0.277992049 -0.1384837112 0.1100296862
265298410.0 -0.1384721122 0.0997604121 0.4797636419 -0.2839839573 0.4796863385 -0.2842192522 -0.1367262459 0.1114164614
270298380.0 -0.1378136685 0.1006308438 0.4768060992 -0.2889457231 0.4768019686 -0.2893684738 -0.135784644 0.1135081972
275298350.0 -0.1366854988 0.1025379971 0.4731898225 -0.2943455856 0.473413863 -0.2941650099 -0.1350067519 0.1147800123
280298320.0 -0.1362221517 0.1034374833 0.4703508072 -0.2997036264 0.4709770674 -0.2999526836 -0.1336242628 0.1161623228
285298290.0 -0.1350183816 0.105000385 0.466854852 -0.3053797193 0.4676929436 -0.3049081972 -0.1327138117 0.1179411552
290298260.0 -0.134255427 0.1063938084 0.4644696167 -0.3105927845 0.464096021 -0.3107144589 -0.1311259185 0.1191362091
295298230.0 -0.1334307784 0.1075280867 0.4606660969 -0.3161003895 0.4609245863 -0.3162577166 -0.1302207357 0.1203547054
300298200.0 -0.1322756846 0.1090431269 0.4573538305 -0.3210574309 0.4572449632 -0.3210852161 -0.1285350968 0.1222361269
305298170.0 -0.131615722 0.1100956659 0.4539673572 -0.3267549681 0.454065956 -0.3265582525 -0.1272596455 0.1230558138
310298140.0 -0.130222626 0.1112270058 0.4502612687 -0.3313743549 0.4505367503 -0.3311942987 -0.1259921044 0.1245169836
315298110.0 -0.1295353455 0.1122297102 0.446847435 -0.3370508053 0.446767318 -0.3370344152 -0.1249220476 0.1258402411
320298080.0 -0.1285714754 0.1135361584 0.4425208029 -0.3419066646 0.4430616312 -0.3421406663 -0.1238238028 0.1268499127
325298050.0 -0.1279604356 0.1143625233 0.4389383624 -0.347136081 0.4393903388 -0.3468657536 -0.122068112 0.1281738739
330298020.0 -0.127717866 0.1160603614 0.4350628615 -0.3520204112 0.4356840265 -0.3517133588 -0.1213946314 0.1295259447
335297990.0 -0.1263182692 0.1175178453 0.4308148795 -0.3570671685 0.4312100839 -0.3564099526 -0.1200862123 0.1309413759
340297960.0 -0.1257316018 0.1185298182 0.4264501982 -0.361647931 0.4267572923 -0.3614603516 -0.1187532553 0.1325426439
345297930.0 -0.1248179431 0.1199411594 0.4229083556 -0.3668520809 0.4227328741 -0.3664838329 -0.1175176912 0.1338260351
350297900.0 -0.1242989721 0.1209829977 0.4190343375 -0.3707957104 0.4193748209 -0.3705067902 -0.1161026998 0.1347419841
355297870.0 -0.1227629242 0.1224039819 0.4147866584 -0.3751306623 0.4144543463 -0.3750330598 -0.1145441353 0.1364828463
360297840.0 -0.1221148365 0.1239738094 0.4103312064 -0.3800152297 0.4107419649 -0.380328881 -0.1134270712 0.138116556
365297810.0 -0.1211242335 0.1251714457 0.4062713139 -0.3841257739 0.4062072148 -0.3847128434 -0.1122031092 0.1392255085
370297780.0 -0.1199347456 0.1267496444 0.401681657 -0.3886938855 0.4019804048 -0.3886929705 -0.1106671821 0.1407257517
375297750.0 -0.1190340133 0.1277815512 0.3977931977 -0.3931450613 0.3978438411 -0.393466008 -0.1089930404 0.1420492846
380297720.0 -0.1182745946 0.1292513872 0.3939292234 -0.3978105017 0.3934237736 -0.3975499276 -0.1074316306 0.1433438497
385297690.0 -0.1170572713 0.1302044491 0.3888457435 -0.4016760474 0.389081742 -0.4024275397 -0.1058747148 0.1450342076
390297660.0 -0.1157738632 0.1312934961 0.3846419399 -0.4058560576 0.3849895492 -0.4063713776 -0.1043668284 0.1459043047
395297630.0 -0.1144827499 0.1325983952 0.3802976982 -0.409706116 0.3801673689 -0.4096853196 -0.1030619522 0.1468463045
400297600.0 -0.1136053126 0.134049209 0.3760289551 -0.4148180607 0.3758445124 -0.4144814257 -0.101233169 0.1489047666
405297570.0 -0.1124229876 0.1343108421 0.3712641255 -0.4184019236 0.371363858 -0.4185165625 -0.0994435878 0.1500650763
410297540.0 -0.1109994244 0.1362847232 0.3668471302 -0.423025034 0.3668454036 -0.4225028624 -0.098103348 0.1512315764
415297510.0 -0.1100490383 0.1373101522 0.3619139256 -0.4264593959 0.3620526355 -0.4270059348 -0.0960648078 0.1525543823
420297480.0 -0.1087340095 0.1380890794 0.3570916483 -0.4306838983 0.357368384 -0.4309151191 -0.0942830347 0.1538553708
425297450.0 -0.1069347917 0.1395270476 0.3526090842 -0.4343501082 0.3525599236 -0.4346261161 -0.0928906194 0.1545739405
430297420.0 -0.1058737236 0.1406337201 0.3479662745 -0.4385596029 0.3483348591 -0.4380218263 -0.0909467915 0.1558851706
435297390.0 -0.1044252363 0.1415693553 0.3425750437 -0.4426623943 0.3430745466 -0.4423080228 -0.0900394126 0.1575860463
440297360.0 -0.103308512 0.14268088 0.3380943023 -0.4458502901 0.3377836998 -0.4459288208 -0.0877937672 0.1583990346
445297330.0 -0.1018236943 0.1435568864 0.3334523419 -0.4492142636 0.3332692042 -0.4494813004 -0.0858137119 0.1595939342
450297300.0 -0.1004739438 0.1446495346 0.3282413662 -0.4530131741 0.3287586509 -0.4530267243 -0.0842299168 0.1608226649
455297270.0 -0.099365472 0.1457218913 0.3231923655 -0.4566356879 0.3238460651 -0.4567198241 -0.0823753348 0.1617837514
460297240.0 -0.097737061 0.1471207336 0.3182277453 -0.4608784001 0.3184591294 -0.4602729608 -0.0805040882 0.1625368074
465297210.0 -0.0966016217 0.1479992734 0.3133572871 -0.4639135485 0.3127699205 -0.4637180197 -0.0787065428 0.164091358
470297180.0 -0.0950466997 0.1489377559 0.3078548439 -0.4671694643 0.3083650411 -0.4668505812 -0.0763355096 0.1647847218
475297150.0 -0.0936520489 0.150132624 0.3028479862 -0.4705055008 0.3032273267 -0.4702321707 -0.0750616854 0.16569247
480297120.0 -0.0918859092 0.1513930029 0.2977347533 -0.4737304541 0.2980213204 -0.4734934151 -0.0735496582 0.1667485208
485297090.0 -0.0906213812 0.1518222763 0.2924443463 -0.4769923091 0.2925502203 -0.4767659927 -0.0714549586 0.1677754842
490297060.0 -0.0885059421 0.1531239441 0.2871716802 -0.4804659296 0.2874987195 -0.4803501959 -0.0695387233 0.1686409881
495297030.0 -0.087706146 0.1538141612 0.2825516591 -0.4829183669 0.2821065647 -0.4834538106 -0.0674012409 0.1695345919
500297000.0 -0.0861067155 0.1548775781 0.2771408757 -0.486139569 0.2770313724 -0.4862702719 -0.0656757905 0.1706961045
505296970.0 -0.0842776849 0.1559707221 0.2718546791 -0.4893057886 0.2714763338 -0.488804734 -0.0636113086 0.1710921276
510296940.0 -0.0828993516 0.1568413999 0.2663788769 -0.4927692658 0.2664216037 -0.4924723162 -0.0612507775 0.1722019291
515296910.0 -0.0812163662 0.1578332013 0.2605684516 -0.4950364127 0.2606778464 -0.4946759018 -0.0597769505 0.1725099966
520296880.0 -0.0795491302 0.1587464729 0.2552786645 -0.4977126643 0.2552184067 -0.4978155664 -0.0573224094 0.1741708149
525296850.0 -0.0780166957 0.1593882461 0.2498674281 -0.500359204 0.2494638002 -0.5005540574 -0.055564306 0.1744929078
530296820.0 -0.0765417712 0.160332713 0.2443053804 -0.5033213953 0.244312567 -0.5029782324 -0.0537417164 0.1748744891
535296790.0 -0.0743998754 0.161355678 0.2390177856 -0.5055625219 0.2389292555 -0.5060114978 -0.0512996881 0.1761906201
540296760.0 -0.0728528613 0.1624080083 0.2330885001 -0.5084153768 0.2333104036 -0.5081555244 -0.0497917544 0.1762259005
545296730.0 -0.0716592911 0.1633966428 0.2279296531 -0.510602599 0.2278184103 -0.5104303182 -0.0475760805 0.1770988338
550296700.0 -0.0693721955 0.1641501603 0.2223053953 -0.5135258734 0.2221859192 -0.5136374102 -0.0456132938 0.178142613
555296670.0 -0.0681659763 0.1649043686 0.2164169056 -0.5158770236 0.2165616058 -0.5159031648 -0.0438391771 0.1781956778
560296640.0 -0.0660507937 0.1657763357 0.2108919306 -0.5179519435 0.2111349751 -0.5177821718 -0.0415752317 0.1792764341
565296610.0 -0.0648546505 0.1665124271 0.2057524584 -0.5199412647 0.2050900732 -0.5195775469 -0.039394449 0.1798926231
570296580.0 -0.0631019808 0.1675002034 0.1998302898 -0.5221163853 0.1995728186 -0.5225008684 -0.037650037 0.1803638602
575296550.0 -0.0612597314 0.1680065624 0.194067022 -0.5246080907 0.1939664806 -0.5247360695 -0.03570072 0.1806580303
580296520.0 -0.0593909903 0.1691428752 0.1884627493 -0.5264230245 0.1883525856 -0.5266615085 -0.0337914367 0.1815471949
585296490.0 -0.0575315372 0.1699371104 0.1828780375 -0.5283820373 0.1822462884 -0.528401948 -0.0310818243 0.1820333038
590296460.0 -0.0553384595 0.1704848053 0.1768606722 -0.5301946935 0.1767342461 -0.5304024615 -0.0298861195 0.1823652096
595296430.0 -0.0539464464 0.171302813 0.1706726713 -0.5321547097 0.1704396647 -0.5322721269 -0.0270356689 0.1826807309
600296400.0 -0.0520884406 0.1721237235 0.1649872007 -0.5342273894 0.1646876716 -0.5337669824 -0.0251612186 0.1829769522
605296370.0 -0.0508208682 0.1729134551 0.1599327317 -0.535509624 0.1589435489 -0.5354546741 -0.0233912354 0.1835795261
610296340.0 -0.0486390691 0.173760705 0.1538214391 -0.536965588 0.1538129808 -0.5371675388 -0.0215456461 0.1840377873
615296310.0 -0.0465562827 0.1741619902 0.1472292371 -0.5393943406 0.1470470844 -0.5391254839 -0.0189110709 0.1844398947
620296280.0 -0.0453389851 0.1752587006 0.1416566772 -0.540244067 0.1416845255 -0.5401865756 -0.0171789491 0.184906773
625296250.0 -0.0438144059 0.1757514838 0.1356652388 -0.5422452031 0.1361714737 -0.5420482617 -0.0155361204 0.1848790076
630296220.0 -0.0417268023 0.1764979937 0.1299052094 -0.5434380848 0.1298171715 -0.5431154068 -0.0129005297 0.1852513547
635296190.0 -0.0401967211 0.1773426173 0.1244429392 -0.5446953585 0.1240934203 -0.5442116034 -0.0110443814 0.1857098403
640296160.0 -0.0382931407 0.1777255208 0.1178631909 -0.5462108197 0.1181244926 -0.545929896 -0.0093123891 0.1856474086
645296130.0 -0.0360780232 0.178847741 0.1120515979 -0.5472548699 0.1122274117 -0.5467789319 -0.0070610908 0.1858940025
650296100.0 -0.0347479448 0.1789475184 0.106492471 -0.5486930026 0.1059232156 -0.5484577961 -0.004152716 0.185965388
655296070.0 -0.0328526468 0.1795169997 0.1002220122 -0.5496413114 0.1005957849 -0.5489306479 -0.0030712672 0.1867992178
660296040.0 -0.0313219857 0.1802465441 0.0949618092 -0.550335915 0.0943399674 -0.5504165888 -0.0006557164 0.1861797413
665296010.0 -0.0294675406 0.1808579494 0.0882736805 -0.5509963034 0.0880374489 -0.5513977531 0.0014450532 0.1871108552
670295980.0 -0.0277142861 0.181545111 0.0825164726 -0.5523605347 0.0818735545 -0.5519169299 0.0031681274 0.186740791
675295950.0 -0.0259777169 0.182054095 0.0763870385 -0.5527412543 0.0764580031 -0.5531924284 0.0052585044 0.187142755
680295920.0 -0.0244914853 0.1827967105 0.0707769368 -0.5538000035 0.0707958106 -0.5536659162 0.0078106163 0.1867332755
685295890.0 -0.0221722507 0.1831407618 0.0642546957 -0.5548742166 0.0644197024 -0.5547110246 0.0098010539 0.1872071924
690295860.0 -0.0206090145 0.1836178117 0.0583244517 -0.5551748287 0.05841478 -0.5554868673 0.0116122512 0.187265925
695295830.0 -0.0189467063 0.1839742578 0.0530645438 -0.5557448725 0.0526379817 -0.5557753412 0.0135438448 0.1873669616
700295800.0 -0.0169105457 0.184546594 0.046737763 -0.5562168718 0.0465620133 -0.5562797837 0.0159161404 0.1872393743
705295770.0 -0.0156031276 0.1848550032 0.0409108372 -0.5569367353 0.0405629538 -0.5566834046 0.0179371727 0.1874958869
710295740.0 -0.0140074307 0.1852073181 0.0347982956 -0.5571618631 0.0344468104 -0.5574390167 0.0202726257 0.1875205439
715295710.0 -0.0116480216 0.1856621109 0.0289146794 -0.5573423053 0.0288030358 -0.5573554954 0.0221321923 0.1870357333
720295680.0 -0.0095738002 0.1860265531 0.0227144228 -0.5576139973 0.0222826306 -0.5574960279 0.0242942172 0.1868581057
725295650.0 -0.0083931323 0.1865877527 0.0169477219 -0.5578009175 0.0170305665 -0.5581132844 0.0260134407 0.1874182385
730295620.0 -0.0072088613 0.1868203016 0.0107053256 -0.5576131225 0.010340927 -0.5574425467 0.0279097331 0.1873522029
735295590.0 -0.0049075632 0.1872406561 0.0045807303 -0.5582911388 0.0045404587 -0.5581188669 0.0300221928 0.1867393169
740295560.0 -0.0035598149 0.1869947338 -0.0012174117 -0.5581001163 -0.0009865641 -0.5582135428 0.0320013675 0.1870476267
745295530.0 -0.0015523889 0.1876400752 -0.0070161676 -0.5572532584 -0.0065367275 -0.5577258777 0.0337485358 0.1863585697
750295500.0 -1.18419e-05 0.1879970769 -0.0128969708 -0.5575357713 -0.0134272718 -0.5577728987 0.0359422234 0.1863580869
755295470.0 0.0013920436 0.1881903305 -0.0188439299 -0.5581499466 -0.0192644242 -0.5578629045 0.0383165439 0.186562044
760295440.0 0.0037080835 0.1887535732 -0.025541855 -0.55707637 -0.0251085378 -0.5567738012 0.0404863638 0.1851554354
765295410.0 0.0054196718 0.1885836292 -0.0312559146 -0.5569804726 -0.0309871598 -0.556623328 0.0424396639 0.1852088821
770295380.0 0.0069537233 0.1890886393 -0.0369530159 -0.5561704644 -0.037204415 -0.5568971802 0.0441139018 0.1849878563
775295350.0 0.0088913842 0.1891702879 -0.0430399462 -0.5561514084 -0.0430388134 -0.5557846053 0.0464461756 0.1848035562
780295320.0 0.0104055865 0.1892885505 -0.0485341069 -0.5550878861 -0.0490074243 -0.555409761 0.0484341776 0.1844007004
785295290.0 0.0120359308 0.1891562539 -0.0547565965 -0.5551891246 -0.0548828699 -0.5551394055 0.0500312638 0.1845365933
790295260.0 0.0139513291 0.1892028016 -0.060758032 -0.5543650439 -0.0611619617 -0.5546390709 0.052288614 0.1841533266
795295230.0 0.0156164895 0.189224379 -0.0664797615 -0.5538932721 -0.0668596216 -0.5537310638 0.0542488842 0.1828700857
800295200.0 0.0171114888 0.189675717 -0.0722040298 -0.552652065 -0.0726265069 -0.5529339805 0.0561333069 0.1829089027
805295170.0 0.0188414111 0.1896799391 -0.0783935264 -0.551879782 -0.0784331838 -0.5525661088 0.058553067 0.1824079806
810295140.0 0.0209463057 0.1897340497 -0.0846036605 -0.5508763454 -0.0846338766 -0.551267068 0.0603086572 0.1819009505
815295110.0 0.0224993578 0.189705648 -0.090189838 -0.5500666909 -0.090071376 -0.5502044799 0.0624263328 0.1812682506
820295080.0 0.0241966101 0.1897170099 -0.0960673315 -0.5488802493 -0.0956815137 -0.5495755279 0.0636613991 0.1815965706
825295050.0 0.0260157758 0.1894617287 -0.1020463658 -0.548198456 -0.1021502979 -0.5478338813 0.0666428168 0.1807395667
830295020.0 0.0276026282 0.1894015477 -0.1080661597 -0.546920397 -0.1082508723 -0.5469974046 0.068388992 0.1796510024
