!Created with skrf (http://scikit-rf.org).
# Hz S RI R 50.0 
!freq ReS11 ImS11 ReS21 ImS21 ReS12 ImS12 ReS22 ImS22
300000.0 -0.2407697464 -0.0798810638 0.4738921382 0.0538825555 0.4685186221 0.0516996499 -0.2419419346 -0.0928701939
5299970.0 -0.2441493834 0.0069676236 0.4736523635 0.005164909 0.4736264125 0.0052185899 -0.2442556517 0.0073248874
10299940.0 -0.2410972501 0.0188744215 0.4755752529 0.0060515168 0.4754543926 0.0064336702 -0.2407118776 0.0201158651
15299910.0 -0.236469229 0.0279106534 0.4791851675 0.0077989889 0.47942628 0.007859958 -0.2364679236 0.0294390874
20299880.0 -0.2320623721 0.0356145687 0.4840996957 0.0083757447 0.4842079351 0.0085345838 -0.2311367022 0.037415815
25299850.0 -0.2268545323 0.0420263728 0.4889258644 0.0075982183 0.4890924514 0.0073727883 -0.2249451395 0.0439977724
30299820.0 -0.2216162299 0.047090535 0.4946320188 0.0055254597 0.4945526744 0.0053990609 -0.2191624817 0.0491527775
35299790.0 -0.2163353892 0.0512486344 0.4999762038 0.0021561087 0.4999272431 0.0024166262 -0.2138354672 0.053388401
40299760.0 -0.2114638836 0.0550444911 0.5050443668 -0.0016910221 0.5050365166 -0.0017528395 -0.2083270706 0.0556969173
45299730.0 -0.2065022161 0.057826476 0.5096278022 -0.0067025947 0.5100048878 -0.0064014602 -0.2033268733 0.0589011319
50299700.0 -0.2022210395 0.0599967686 0.514158507 -0.0120485791 0.5140782729 -0.0115306601 -0.1987900914 0.0606385747
55299670.0 -0.1984594054 0.0618827708 0.5183611854 -0.0182907352 0.5177421529 -0.017915043 -0.1941057553 0.0622577435
60299640.0 -0.1942225523 0.0635281831 0.5211289737 -0.0242207481 0.5211577162 -0.0241152489 -0.190526626 0.063306544
65299610.0 -0.1909890524 0.0646501764 0.5241197661 -0.0303743833 0.5241476416 -0.0303566363 -0.1871578455 0.0640473535
70299580.0 -0.1878801674 0.0661473138 0.5267102194 -0.0371491433 0.5266766989 -0.0370843381 -0.1838576037 0.0649174081
75299550.0 -0.1848547959 0.0670074782 0.5283627139 -0.0439106531 0.5281166852 -0.0441696579 -0.1805155726 0.0654838701
80299520.0 -0.1827456058 0.0679100168 0.5306313133 -0.0508405832 0.5304550418 -0.0507839521 -0.1783153345 0.065842871
85299490.0 -0.1801700359 0.0688538955 0.531442943 -0.0573536347 0.5317891919 -0.0573174585 -0.1761178832 0.0660543155
90299460.0 -0.1781793834 0.0696116225 0.5322368584 -0.0645259742 0.5326184475 -0.0644999241 -0.1734848705 0.0669359669
95299430.0 -0.1757585524 0.0703897824 0.5336780927 -0.07169738 0.5336870157 -0.0716475191 -0.1714120881 0.0671937981
100299400.0 -0.1737695408 0.0714322399 0.5336399062 -0.0784255801 0.5338122647 -0.0782787512 -0.169334836 0.0672427413
105299370.0 -0.1721536583 0.072312297 0.5339712783 -0.0857655524 0.5344397508 -0.0856299607 -0.1678327074 0.0681060721
110299340.0 -0.1703484106 0.0733385975 0.534746289 -0.0922729126 0.5344452854 -0.0916817949 -0.1663285915 0.068413053
115299310.0 -0.1687068948 0.0739938676 0.5346273523 -0.0991684482 0.5346221299 -0.0989114231 -0.1648062279 0.0688536098
120299280.0 -0.1674744446 0.0745097685 0.5344738403 -0.1059076437 0.5343832326 -0.1060601238 -0.1634824587 0.0695558064
125299250.0 -0.1659100834 0.0753088839 0.5337043418 -0.1124966387 0.5339296216 -0.112044555 -0.162283689 0.0697291147
130299220.0 -0.1650289731 0.0767619248 0.5330555319 -0.1194520613 0.5333562127 -0.1191161234 -0.1610231444 0.0701444518
135299190.0 -0.16362227 0.0778925233 0.5330386708 -0.1261369363 0.5326969949 -0.1256170439 -0.1598801324 0.0712440381
140299160.0 -0.1626587928 0.0788581751 0.5320068126 -0.1328458914 0.5321064296 -0.1327236974 -0.1588063951 0.0722942429
145299130.0 -0.1613729659 0.079822292 0.531057669 -0.1392038877 0.5308977426 -0.1391859902 -0.1578359801 0.0728461154
150299100.0 -0.1602520872 0.0810567738 0.5298514547 -0.1454402155 0.5301168177 -0.1454714621 -0.1570887472 0.0737402927
155299070.0 -0.1593226918 0.0821319326 0.5286962566 -0.1524140172 0.5281895975 -0.1520359175 -0.1557990732 0.0748357793
160299040.0 -0.1580961118 0.083411642 0.5273639141 -0.1588519855 0.5268494307 -0.1587254933 -0.1555009235 0.0752675361
165299010.0 -0.1572718526 0.0847931316 0.5256152091 -0.1658496048 0.5258789028 -0.1652698332 -0.1542663563 0.0768809483
170298980.0 -0.1564495422 0.0857658781 0.5239669042 -0.1714673606 0.5247209407 -0.1717700425 -0.153555365 0.0776755873
175298950.0 -0.1555714077 0.0870781176 0.5229917483 -0.1776843904 0.5224830922 -0.177523914 -0.1527356199 0.0786705624
180298920.0 -0.1547376371 0.0884517342 0.5211336377 -0.1842949309 0.5205664514 -0.1840597022 -0.1520503858 0.0798624815
185298890.0 -0.1532918694 0.0895538775 0.5186871136 -0.1903349222 0.5187004815 -0.1898849063 -0.1512536385 0.0808462455
190298860.0 -0.1526853924 0.0910346826 0.5174788525 -0.1965180579 0.517361514 -0.1962242123 -0.1505929623 0.0816312875
195298830.0 -0.1517029473 0.0920437169 0.5153437804 -0.2027414579 0.5154631049 -0.202298739 -0.1497959731 0.0828037239
200298800.0 -0.1506461766 0.0938165509 0.5128138674 -0.2093082527 0.5133372914 -0.2088368668 -0.1493973269 0.0842181285
205298770.0 -0.1496724133 0.0949711327 0.510926447 -0.2152706324 0.5106347829 -0.2145663723 -0.1485547771 0.0845626994
210298740.0 -0.1487210867 0.0961697194 0.5087920597 -0.2202161079 0.5086055913 -0.2205381353 -0.1478568283 0.0868710856
215298710.0 -0.1480995324 0.0979689994 0.5060845702 -0.2268172832 0.5062344366 -0.2267867691 -0.1471787654 0.087644493
220298680.0 -0.1471884607 0.098955055 0.503543503 -0.2323649104 0.5039276872 -0.2326352737 -0.1469124718 0.0885495492
225298650.0 -0.1464941892 0.1004567868 0.5017324085 -0.2386747963 0.5014649795 -0.2385614506 -0.14601152 0.0896942601
230298620.0 -0.1450911752 0.1019117809 0.4987753694 -0.2440423263 0.4990998223 -0.2445848111 -0.145571947 0.0910123254
235298590.0 -0.1440889404 0.1038347725 0.4963450262 -0.2502638103 0.4961501244 -0.2496534621 -0.1446975048 0.0920158734
240298560.0 -0.1430538729 0.1051563477 0.4935112365 -0.2562028506 0.493535265 -0.2557089034 -0.1439256618 0.0936488219
245298530.0 -0.1421586813 0.1065761763 0.4909145338 -0.2614840445 0.4908566148 -0.2613789911 -0.1428174494 0.0942530335
250298500.0 -0.1407666892 0.1080920379 0.4873297664 -0.2673022725 0.4873546864 -0.2669266738 -0.1424089361 0.0957497452
255298470.0 -0.1401295668 0.109297168 0.4844948108 -0.2726728564 0.4849760739 -0.2724175987 -0.141481403 0.0968147766
260298440.0 -0.1391822688 0.1106913306 0.4818998356 -0.2782775251 0.4821482251 -0.278149554 -0.1401096134 0.0983371283
265298410.0 -0.1375005841 0.112559764 0.4787231358 -0.2839242326 0.4794174518 -0.2834129769 -0.1396729369 0.0995013666
270298380.0 -0.1364745611 0.1139468782 0.4758651462 -0.2887425839 0.476122669 -0.2891584649 -0.1391727724 0.1007099489
275298350.0 -0.1351935558 0.1149697042 0.4727761935 -0.2946450104 0.4730246834 -0.2947668388 -0.1375699874 0.1020267895
280298320.0 -0.1339359439 0.116757525 0.4699218232 -0.3001666582 0.4695566511 -0.2999240335 -0.1368043799 0.1030362822
285298290.0 -0.1329924517 0.1183333795 0.4664362702 -0.3053878868 0.4660259592 -0.3053552282 -0.1357807 0.1041576866
290298260.0 -0.1314886396 0.1196921696 0.4624895138 -0.309952806 0.463045529 -0.3105821408 -0.134807711 0.1056606187
295298230.0 -0.1300430692 0.1207174749 0.4596715836 -0.315895501 0.4598560119 -0.31561519 -0.1334409562 0.1067437888
300298200.0 -0.1293226842 0.1224086757 0.4564190938 -0.3207067913 0.4562522394 -0.3212683305 -0.1329502162 0.107925912
305298170.0 -0.1275318009 0.1235611517 0.4525282387 -0.3265247003 0.4526257306 -0.3262758555 -0.1315529196 0.1092055388
310298140.0 -0.1265946071 0.1252637058 0.4489368792 -0.331769283 0.4493682767 -0.3309960954 -0.130757952 0.1102644614
315298110.0 -0.1250739295 0.1262236969 0.445481827 -0.3368700007 0.4457491017 -0.3366026097 -0.1294886451 0.1117640948
320298080.0 -0.1237779737 0.1276488397 0.441579256 -0.3420669531 0.4418311368 -0.3418988345 -0.128895495 0.1128196735
325298050.0 -0.1224879805 0.1289720606 0.4379932933 -0.3471001454 0.4378864161 -0.3469077868 -0.1279529071 0.1140886513
330298020.0 -0.1212942261 0.1300109719 0.4336584169 -0.3519545575 0.4340613821 -0.3517030474 -0.1270916597 0.1152399722
335297990.0 -0.1201165769 0.1312300366 0.4300669625 -0.356734558 0.4299913563 -0.3567843663 -0.1265601817 0.1170206358
340297960.0 -0.1193661261 0.133079795 0.4254029017 -0.3616529205 0.4257070208 -0.361899044 -0.1247706015 0.1182144012
345297930.0 -0.1179965838 0.1349398478 0.4215733344 -0.3665669626 0.4216215148 -0.3664281993 -0.1242025318 0.1190990566
350297900.0 -0.1165881365 0.1357822173 0.4169719408 -0.3713411316 0.417072513 -0.3704803926 -0.1234918604 0.1211808782
355297870.0 -0.1149328894 0.1376838257 0.4130299206 -0.3752985736 0.4134320658 -0.3752616777 -0.1224068543 0.1220645747
360297840.0 -0.1137489214 0.1388457609 0.4091185795 -0.3795326111 0.4100151656 -0.3795797353 -0.1214126372 0.1238126074
365297810.0 -0.1124646201 0.1404127259 0.4050192938 -0.3847493579 0.4052885052 -0.3845300603 -0.1200993927 0.1246265226
370297780.0 -0.1109286584 0.1414716432 0.4007564314 -0.3887544075 0.4011461596 -0.3887081666 -0.1191559394 0.1263377513
375297750.0 -0.1090524419 0.1429453017 0.396197281 -0.39333944 0.3967638735 -0.3929749125 -0.1178756154 0.1274252893
380297720.0 -0.1079072067 0.1443510056 0.3921959336 -0.3976609491 0.3921420517 -0.3968753335 -0.1173247483 0.128830251
385297690.0 -0.1063732808 0.1456170074 0.3873316297 -0.4017485577 0.3874328358 -0.401755324 -0.1155207142 0.1302773807
390297660.0 -0.104907301 0.1471309436 0.3831703563 -0.4065375867 0.3831217293 -0.4059915317 -0.114699854 0.1311957631
395297630.0 -0.1030231554 0.1485976545 0.3788662068 -0.4106961979 0.3788855852 -0.4104461266 -0.1129457082 0.1324514148
400297600.0 -0.1017541841 0.1499035231 0.3738575618 -0.4149684019 0.3742407947 -0.4143496167 -0.1121056161 0.1337428399
405297570.0 -0.1004482664 0.15066264 0.3697643582 -0.4184396025 0.369763453 -0.4184021153 -0.1114085165 0.1351411602
410297540.0 -0.098186335 0.1519433746 0.3649208235 -0.4226116173 0.3655580056 -0.4226220308 -0.1099118959 0.1362548396
415297510.0 -0.09680189 0.153143087 0.3605316196 -0.4267463224 0.3609753627 -0.4267406461 -0.108735531 0.1374717586
420297480.0 -0.0950647909 0.1547420939 0.3556671431 -0.4306587662 0.3557790063 -0.4308626479 -0.1077456019 0.1386063211
425297450.0 -0.0937216556 0.1555743359 0.351021183 -0.4340248026 0.3516373174 -0.4345501199 -0.1065207643 0.1400367579
430297420.0 -0.0919489398 0.1566215746 0.3462615059 -0.4382224144 0.3459334816 -0.4378333089 -0.1050529704 0.1409697095
435297390.0 -0.0900669202 0.1579396513 0.3409072481 -0.4415252067 0.3411871371 -0.4419249067 -0.1031921189 0.1419018716
440297360.0 -0.0881752763 0.1588582603 0.3362405267 -0.4453923482 0.3365923705 -0.4454041344 -0.1021558385 0.1429451772
445297330.0 -0.0866427176 0.1599720595 0.3314267004 -0.4490699145 0.3315365408 -0.4484301476 -0.100736411 0.1437439003
450297300.0 -0.0847224974 0.1610810162 0.3267415588 -0.452849232 0.3269336197 -0.4531218593 -0.0995234692 0.1448833475
455297270.0 -0.0830324831 0.1620919251 0.3215448182 -0.4563631971 0.3221327855 -0.4564073397 -0.0983209418 0.1457826577
460297240.0 -0.0818057456 0.1631623404 0.3168580677 -0.4594642202 0.317070211 -0.4597518446 -0.0966599212 0.1470865644
465297210.0 -0.0793259089 0.1644020216 0.3116502015 -0.4635402244 0.3116666271 -0.4632713227 -0.0949894099 0.1479591864
470297180.0 -0.0776482039 0.1652456654 0.306270091 -0.4666667505 0.3068816532 -0.4666844987 -0.0936085891 0.1492452918
475297150.0 -0.0762090257 0.1658209189 0.3010708483 -0.4690357732 0.3014807101 -0.4697705908 -0.0918606782 0.1499981825
480297120.0 -0.0740097255 0.1673467068 0.2963380366 -0.4733486721 0.2963168332 -0.4734316574 -0.090460018 0.15121601
485297090.0 -0.0724804407 0.1682525347 0.2913784116 -0.4763165055 0.2912547661 -0.4759929355 -0.0892121479 0.1521750742
490297060.0 -0.070883611 0.1692434152 0.2860516562 -0.4797340879 0.2862199462 -0.4791926672 -0.0874733428 0.1532822329
495297030.0 -0.0690574377 0.1699641623 0.2804963021 -0.482726303 0.2814187703 -0.4822022584 -0.0863003353 0.1542457051
500297000.0 -0.0667817938 0.1709625182 0.2751038646 -0.4852439189 0.2751993456 -0.4852191658 -0.0846294857 0.1557766797
505296970.0 -0.0649344166 0.1717586665 0.2698713949 -0.4882697596 0.2698471808 -0.4885202589 -0.0831017804 0.1564420993
510296940.0 -0.0632861339 0.1727267761 0.2648211725 -0.4915523088 0.2643632709 -0.4913692914 -0.0814225503 0.1578191716
515296910.0 -0.0611917718 0.1737829502 0.2593995418 -0.4942461375 0.2590480002 -0.4938981856 -0.0800432085 0.1583735937
520296880.0 -0.0593071989 0.1742449297 0.2537749402 -0.4971953124 0.2540386572 -0.4965543033 -0.0785036104 0.1589625794
525296850.0 -0.0572095441 0.1747825787 0.2480016272 -0.499375211 0.2485070055 -0.4992432582 -0.0773164776 0.1604608787
530296820.0 -0.0554104348 0.1758251971 0.2429687072 -0.5024273139 0.243204693 -0.5020981623 -0.0754357985 0.1614406643
535296790.0 -0.0538482889 0.1765501845 0.2376685023 -0.5047368731 0.2374980297 -0.5044114508 -0.0740211135 0.1616787332
540296760.0 -0.0520616469 0.1775720128 0.232294002 -0.5073890171 0.2323496816 -0.5072624296 -0.0729072876 0.1634918099
545296730.0 -0.0498941593 0.1782579814 0.2259724389 -0.5095779553 0.2263555855 -0.5097551103 -0.0712027558 0.1640867692
550296700.0 -0.0474664654 0.1787646986 0.2206754492 -0.5121831764 0.2211110282 -0.5126350403 -0.0697784024 0.1649535007
555296670.0 -0.045910748 0.179400222 0.2154614125 -0.514411044 0.2156381086 -0.5139996 -0.0679783185 0.1659026294
560296640.0 -0.0436466426 0.1802490963 0.2093673048 -0.517063982 0.2099516567 -0.5168851939 -0.0666321243 0.1663021107
565296610.0 -0.0419662236 0.1808643957 0.2041005769 -0.5190725125 0.2042822828 -0.5189946393 -0.0649762858 0.1671838116
570296580.0 -0.0400396831 0.1813556389 0.198394742 -0.5218014784 0.1982998497 -0.5216234592 -0.0638532654 0.1684467483
575296550.0 -0.0379068433 0.1823111955 0.1927128938 -0.5237048774 0.1927510415 -0.5236705467 -0.0616923587 0.1687581193
580296520.0 -0.0357254621 0.1825966335 0.1866960935 -0.5258962585 0.1871537755 -0.5255888503 -0.0600368793 0.1696020547
585296490.0 -0.0339625866 0.1826259884 0.1812610742 -0.5272706504 0.1817393551 -0.5277391747 -0.0584949966 0.1704178586
590296460.0 -0.0316980976 0.1837543664 0.1754756836 -0.5286822409 0.1757759927 -0.5291948177 -0.057403308 0.1708423431
595296430.0 -0.0295547181 0.1843562273 0.1695325915 -0.5316322286 0.1697762905 -0.531223227 -0.0554052726 0.1713468913
600296400.0 -0.027947687 0.1843727727 0.1639040473 -0.5328045356 0.1642562782 -0.5327472873 -0.0539518657 0.1719488797
605296370.0 -0.0260113828 0.1851914011 0.1586090984 -0.5347720113 0.1584615038 -0.5347966546 -0.0520727268 0.1729599573
610296340.0 -0.0235092273 0.1852577766 0.151894602 -0.5360603626 0.152856765 -0.5362208671 -0.0504582126 0.1733698545
615296310.0 -0.0215741142 0.1856268904 0.1462925647 -0.5375120314 0.14641296 -0.5383991574 -0.0481463599 0.1739620664
620296280.0 -0.0198437699 0.1857774154 0.140753356 -0.5393622294 0.1408062146 -0.5394270678 -0.0468007905 0.1745980431
625296250.0 -0.0177358549 0.1859939291 0.1355555175 -0.5411832886 0.1352121834 -0.5406544416 -0.0446654385 0.1750851058
630296220.0 -0.0147993772 0.186491813 0.1284038112 -0.5422816353 0.1288779339 -0.5420366464 -0.0435542571 0.1759054757
635296190.0 -0.013956043 0.1867718925 0.1235426958 -0.5435054611 0.1233300611 -0.5435913694 -0.0414906137 0.176176638
640296160.0 -0.0114995009 0.1872195087 0.1172119864 -0.5445567677 0.1173639072 -0.5450695714 -0.0396019044 0.176967123
645296130.0 -0.0094650787 0.1878414628 0.1110612977 -0.545717332 0.1116356237 -0.5461547071 -0.0382993918 0.1777837207
650296100.0 -0.0070289629 0.1878337727 0.1051943077 -0.5470002747 0.1056450181 -0.5469368349 -0.035953154 0.1773325885
655296070.0 -0.0054345592 0.1877829208 0.0995589587 -0.5483034556 0.0995915035 -0.5481002056 -0.0340687645 0.1782310863
660296040.0 -0.0035701053 0.1878044914 0.0936212903 -0.5492655237 0.0942067904 -0.5491609154 -0.0323472256 0.1790568273
665296010.0 -0.0008631583 0.1879099356 0.0874950296 -0.5500700829 0.0880633173 -0.5500595665 -0.0308214046 0.1795690068
670295980.0 0.0002404153 0.1883111809 0.0818677873 -0.550755189 0.0821349603 -0.5509438987 -0.0291963126 0.179781361
675295950.0 0.0025873442 0.1886578053 0.0759966681 -0.551664264 0.0758284166 -0.5510655289 -0.0275675461 0.180229962
680295920.0 0.0046295984 0.1884183007 0.0697929256 -0.552221346 0.0696559225 -0.5528408605 -0.0256082287 0.1815295549
685295890.0 0.006808409 0.1889834957 0.0636309864 -0.553274731 0.0636984352 -0.5529971346 -0.0238536187 0.1814082221
690295860.0 0.0092698999 0.1887843423 0.0580178304 -0.553266888 0.0578420174 -0.5542674801 -0.0223844605 0.1823918146
695295830.0 0.0111054155 0.188801169 0.0524223432 -0.554404008 0.0518758594 -0.5544252819 -0.0205449119 0.1827371637
700295800.0 0.0133539579 0.188498771 0.0456325409 -0.5546733318 0.0455062677 -0.5547262352 -0.0190708195 0.1834538267
705295770.0 0.0150489614 0.1894158432 0.0396311409 -0.555334647 0.0402041663 -0.555511558 -0.0170771815 0.1839787395
710295740.0 0.0176920865 0.1890739284 0.0339641192 -0.5562037786 0.0344897267 -0.5558663199 -0.0153678026 0.1833794197
715295710.0 0.0193564922 0.1887727672 0.0285264074 -0.5560104197 0.0277975309 -0.556098636 -0.0132664449 0.1839428703
720295680.0 0.0214950947 0.1886449489 0.0220185011 -0.5561771447 0.0221215618 -0.5563577254 -0.0114463883 0.1844989639
725295650.0 0.023448598 0.1888032521 0.0157815076 -0.5565346987 0.016074751 -0.5565636296 -0.0102870203 0.1848878879
730295620.0 0.0257472253 0.1888957831 0.0100671966 -0.5563007703 0.0100047818 -0.5567281056 -0.0089500319 0.1848642842
735295590.0 0.0277889744 0.1886848139 0.0038933153 -0.5566928728 0.0039399573 -0.5564452959 -0.0068455728 0.1848992401
740295560.0 0.0296131804 0.1884186513 -0.0022204174 -0.5563617449 -0.0018819959 -0.5565628251 -0.0045771593 0.1856683832
745295530.0 0.0317410153 0.188246447 -0.0084991664 -0.5556511902 -0.0079968961 -0.5564459378 -0.0027390987 0.1850348238
750295500.0 0.0343760575 0.1880480962 -0.0142552508 -0.5562736379 -0.0136869146 -0.5565848428 -0.0012671833 0.1856361623
755295470.0 0.0361143822 0.1875654922 -0.0196747932 -0.5559347576 -0.0197814349 -0.5559381222 0.0010242611 0.1853035977
760295440.0 0.0377814822 0.1873899841 -0.0256279091 -0.5561001556 -0.0259582682 -0.5560645779 0.0023722003 0.1855407727
765295410.0 0.0400888421 0.1872004345 -0.0321793891 -0.5552074939 -0.0320722737 -0.5557377348 0.0042883106 0.1859684014
770295380.0 0.041676759 0.1866339826 -0.0381176438 -0.5548879166 -0.0376423159 -0.5550521588 0.0058655128 0.1855570406
775295350.0 0.043898371 0.1864033005 -0.0443565463 -0.5542658594 -0.0435334016 -0.5543050257 0.0075429373 0.1860272423
780295320.0 0.0463146604 0.1856915035 -0.049998118 -0.5534798457 -0.0494889504 -0.5539981604 0.0092464767 0.1855067112
785295290.0 0.0480983341 0.1851500202 -0.0561810294 -0.5530785979 -0.0558136969 -0.5534267615 0.0118668588 0.1859407489
790295260.0 0.0507208781 0.1855347336 -0.0614843919 -0.5526183185 -0.0609513018 -0.552594765 0.013289936 0.1860518011
795295230.0 0.0521679452 0.1844256632 -0.0676854229 -0.5516899804 -0.0672953189 -0.5521151929 0.0155109752 0.1858918611
800295200.0 0.054041184 0.1846587042 -0.0741356506 -0.5508807316 -0.0733844567 -0.550942074 0.0171755213 0.1859718499
805295170.0 0.0563897415 0.1838460816 -0.0799614493 -0.5501146216 -0.0794968872 -0.5505543985 0.0191151509 0.1857516823
810295140.0 0.0581035548 0.1830929626 -0.085294457 -0.5492831667 -0.0852120618 -0.5493393597 0.0210576806 0.1860177406
815295110.0 0.0604474351 0.1826183656 -0.0915764325 -0.5481122509 -0.0914167191 -0.5484426526 0.0226965507 0.185966235
820295080.0 0.0620983639 0.1826202737 -0.0975126897 -0.5470711766 -0.0970358048 -0.5473010441 0.024686562 0.1861342535
825295050.0 0.0644635305 0.181801653 -0.102648495 -0.5455760921 -0.1029939576 -0.5464200375 0.0267545365 0.1860698642
830295020.0 0.0661977362 0.1812214018 -0.1091118677 -0.5448696655 -0.1090442987 -0.5448619691 0.0289957839 0.1858568216
