!Created with skrf (http://scikit-rf.org).
# Hz S RI R 50.0 
!freq ReS11 ImS11 ReS21 ImS21 ReS12 ImS12 ReS22 ImS22
300000.0 -0.3203228614 -0.073904265 0.3770196307 0.0377596268 0.3725335666 0.0362794659 -0.32317213 -0.0875071255
5299970.0 -0.326775826 0.0045576959 0.3784325756 0.0022571431 0.3782110829 0.0025282119 -0.324424022 0.0052042928
10299940.0 -0.3242813803 0.0135076129 0.3792536486 0.0020338944 0.3796052739 0.0021727817 -0.3221201415 0.0160334748
15299910.0 -0.3217679748 0.0203591431 0.3819656911 0.0021606654 0.381918282 0.0022616269 -0.3187287331 0.0235354521
20299880.0 -0.3187600143 0.026150516 0.3847117124 0.0018174598 0.3848901451 0.0014534631 -0.3152575428 0.0300144334
25299850.0 -0.3157976273 0.0315311235 0.3879649372 -2.88438e-05 0.3880847839 0.000160352 -0.3112356659 0.0357805338
30299820.0 -0.3126140656 0.0356015899 0.3912873582 -0.0023776168 0.3914526232 -0.0024218932 -0.307570161 0.0406911941
35299790.0 -0.3098063523 0.0396558224 0.394354951 -0.0056556505 0.394895947 -0.0054900797 -0.3037592627 0.0450019092
40299760.0 -0.3072577943 0.0435766535 0.3979932705 -0.009018289 0.3981146941 -0.0088769167 -0.3006762452 0.0480897128
45299730.0 -0.3046198517 0.0466841457 0.4008356169 -0.01285108 0.4008140402 -0.0127328717 -0.2974425055 0.0518070984
50299700.0 -0.3024112734 0.0491316288 0.4037146812 -0.0170536043 0.4034887313 -0.0170085334 -0.2944214262 0.0539251836
55299670.0 -0.3003154436 0.0520043414 0.4057422494 -0.0225359085 0.4057340914 -0.0220292421 -0.2918819939 0.0567434626
60299640.0 -0.2977983272 0.0549710251 0.4076202711 -0.0270708651 0.4075909509 -0.0268012679 -0.2888405756 0.0593427522
65299610.0 -0.2963115893 0.0572007498 0.4090282756 -0.0318191478 0.4092754876 -0.0316939578 -0.2870089632 0.0612766666
70299580.0 -0.2947071187 0.0600803973 0.4104015911 -0.0368358282 0.410524432 -0.0368898625 -0.2849811659 0.0637445462
75299550.0 -0.2930938708 0.0626622815 0.4114255619 -0.0421541489 0.4111407578 -0.0421203101 -0.2828467032 0.065645747
80299520.0 -0.2913945887 0.0647803703 0.4125126445 -0.0472294608 0.412237189 -0.0472207248 -0.281294443 0.0678999574
85299490.0 -0.290026931 0.0668025775 0.4129016816 -0.052330132 0.4129938921 -0.0522327112 -0.2800486469 0.0697508112
90299460.0 -0.2887476451 0.0692025338 0.4129944762 -0.0575708339 0.4135774056 -0.0578565307 -0.278052101 0.0721541917
95299430.0 -0.2873374818 0.0714227757 0.4137007171 -0.0629618303 0.4136901961 -0.0631249943 -0.2763141732 0.0741711617
100299400.0 -0.28607343 0.0739467998 0.4128603679 -0.0680473723 0.4131921056 -0.0683264946 -0.2750693659 0.0761890383
105299370.0 -0.2851692095 0.0765388888 0.4131299423 -0.0736988778 0.4135877957 -0.0733917091 -0.2735795602 0.0783455459
110299340.0 -0.2840026663 0.0787166056 0.4132579022 -0.0782996499 0.4130156463 -0.0783658346 -0.272856911 0.0802226985
115299310.0 -0.2826795448 0.0810726717 0.4127559758 -0.0838881972 0.4128145918 -0.0835657071 -0.2716137825 0.0826865603
120299280.0 -0.2819160539 0.0830750098 0.4125342974 -0.0888035208 0.4125695622 -0.0889973399 -0.2703337658 0.084855235
125299250.0 -0.2811129347 0.0852073471 0.4119958177 -0.0933810733 0.411973347 -0.0934851165 -0.2696433135 0.0865313931
130299220.0 -0.280150269 0.0882327609 0.4112359125 -0.0990115964 0.4113342283 -0.0987776302 -0.2684713593 0.0888698586
135299190.0 -0.2793710766 0.0908805502 0.4107144728 -0.1040578627 0.4107339285 -0.1039003498 -0.2673602826 0.0912498577
140299160.0 -0.2787786097 0.093189685 0.4098276733 -0.1091517758 0.4099123199 -0.1088597914 -0.2663552951 0.0938966092
145299130.0 -0.2775170289 0.09584396 0.40886878 -0.1140274511 0.4087017316 -0.1140595196 -0.2655789299 0.0959775526
150299100.0 -0.276337185 0.0982262389 0.4077385413 -0.11874511 0.4079524846 -0.118594352 -0.264717172 0.0989990083
155299070.0 -0.2759244022 0.1007820767 0.4071269282 -0.1241373145 0.4066068713 -0.123712166 -0.2636850687 0.101136324
160299040.0 -0.2746205815 0.1034686644 0.405471581 -0.1287468298 0.4054304717 -0.1286510992 -0.2630799311 0.1032622203
165299010.0 -0.2736733785 0.1060148909 0.4042858421 -0.1342190531 0.404387661 -0.1335366905 -0.2617510146 0.1059097917
170298980.0 -0.2729647014 0.108464694 0.4027929708 -0.1382361174 0.4032357391 -0.1381136711 -0.2610208794 0.1082788104
175298950.0 -0.271918758 0.1111681285 0.401773458 -0.1431090782 0.4015279655 -0.1427990732 -0.2602386433 0.1106829454
180298920.0 -0.2712436254 0.1141634247 0.4003375023 -0.1480962636 0.4003179621 -0.1476018498 -0.2590188346 0.1132778738
185298890.0 -0.2695742301 0.1163609332 0.3986317941 -0.1524244405 0.3982108733 -0.152577538 -0.2575429009 0.1160400393
190298860.0 -0.2687577692 0.1192868133 0.3970765515 -0.1573340314 0.3970673134 -0.1572067164 -0.2566651291 0.1180360791
195298830.0 -0.26793582 0.1217067153 0.3954022553 -0.1616084667 0.3954623842 -0.161800175 -0.2557316208 0.1207125366
200298800.0 -0.2662795465 0.1247482832 0.3933264489 -0.1665040405 0.3939958819 -0.1666716398 -0.2545661138 0.1233750919
205298770.0 -0.2654734637 0.1271801939 0.3913456841 -0.1713964085 0.3917359701 -0.1708725396 -0.2532667523 0.1251737404
210298740.0 -0.2643642136 0.1297023564 0.389490274 -0.1751707308 0.3897376893 -0.1752128242 -0.2520316442 0.1281709321
215298710.0 -0.2634840357 0.1326965984 0.38817143 -0.1800873257 0.3878230265 -0.1803445981 -0.2512668578 0.1307528034
220298680.0 -0.2619532861 0.1352542234 0.3858359052 -0.1843847775 0.3858080304 -0.184377026 -0.2502397863 0.1330869241
225298650.0 -0.2607188884 0.1380092969 0.384081256 -0.1889345233 0.3843313028 -0.188870296 -0.249272525 0.1355710049
230298620.0 -0.259758214 0.1405490644 0.3820424548 -0.19317063 0.3826398546 -0.1932276791 -0.2478953908 0.1378824
235298590.0 -0.2580512356 0.1437774823 0.3797250944 -0.1977602651 0.380097081 -0.1974640938 -0.2462979278 0.1409917851
240298560.0 -0.2569768649 0.1461954818 0.3779341224 -0.2022276456 0.3775380971 -0.2023395327 -0.2448898156 0.1440539856
245298530.0 -0.255788629 0.148794748 0.3759265603 -0.2065631008 0.3757719145 -0.2067119467 -0.2438134166 0.1457664559
250298500.0 -0.2540905567 0.1514827105 0.3729236192 -0.2106351261 0.3728607805 -0.2105068424 -0.2428022702 0.1483816816
255298470.0 -0.2530591653 0.154003814 0.3706066162 -0.2147029443 0.3708568498 -0.2148348159 -0.2408293025 0.151114157
260298440.0 -0.2519092144 0.1565619184 0.3686166284 -0.219033812 0.3688214664 -0.2193023962 -0.2395532972 0.1540628175
265298410.0 -0.249849897 0.1599426204 0.3659286617 -0.2235817952 0.3662019318 -0.2230923959 -0.237958688 0.1563172232
270298380.0 -0.2488524851 0.1625509902 0.3640868587 -0.2272198763 0.3638989946 -0.2275399526 -0.2369235034 0.1586627902
275298350.0 -0.2467654068 0.1651886611 0.3608731351 -0.2320643314 0.3613964887 -0.231428331 -0.2352754947 0.1614998667
280298320.0 -0.2452320161 0.1678563926 0.3589076829 -0.2357464339 0.3587251314 -0.2352200671 -0.2332231383 0.1637080049
285298290.0 -0.2436724396 0.1706817946 0.3562922225 -0.2395478725 0.3560656838 -0.2395952457 -0.2319268464 0.1661966281
290298260.0 -0.2420657579 0.1730680579 0.3533647259 -0.2435958757 0.353349287 -0.2436652154 -0.230318184 0.1688739114
295298230.0 -0.2399155011 0.175593936 0.3506981362 -0.247833696 0.3507968851 -0.2475191128 -0.2285239283 0.1710615913
300298200.0 -0.2386399163 0.1781603052 0.3483150552 -0.2513233544 0.3482993148 -0.2518553349 -0.2267761483 0.1737026445
305298170.0 -0.236824843 0.1805344284 0.3448307411 -0.2558432308 0.3452500428 -0.2557456245 -0.2247604508 0.1761913407
310298140.0 -0.2352475705 0.1833848274 0.3427385677 -0.2595528944 0.3423785477 -0.2594612322 -0.2234064783 0.1786354484
315298110.0 -0.2332840433 0.1858029044 0.3396707644 -0.2634558535 0.3397669233 -0.263201878 -0.2218226045 0.1808965031
320298080.0 -0.2312855172 0.1882902424 0.3362612654 -0.2674645812 0.3366653178 -0.2674558032 -0.2200291787 0.1833661645
325298050.0 -0.2295786714 0.1909038683 0.3334350123 -0.2715437464 0.3335530789 -0.2711005238 -0.2184456695 0.1855980326
330298020.0 -0.2279393287 0.1928540662 0.3302956163 -0.2750427909 0.3302257674 -0.2748914975 -0.2166186769 0.1881644749
335297990.0 -0.2257223737 0.1954197783 0.3269669184 -0.2784187174 0.3272752975 -0.2784721091 -0.2152359769 0.1906195259
340297960.0 -0.2242639075 0.198221417 0.3239888052 -0.2823452889 0.3239239993 -0.2824100324 -0.2125979356 0.1933223287
345297930.0 -0.2221320394 0.2006534544 0.320897981 -0.2857823627 0.3206768936 -0.2860035856 -0.2111741712 0.1951886416
350297900.0 -0.2202347147 0.2034338806 0.3171783571 -0.289344313 0.3174763035 -0.2892207798 -0.2094350541 0.1978113827
355297870.0 -0.2180986732 0.2060423751 0.3139829187 -0.2927840936 0.3149815687 -0.2922932012 -0.2076265819 0.2002775602
360297840.0 -0.2160767255 0.208264315 0.3109934355 -0.2960717079 0.3116944951 -0.2962800464 -0.2054855854 0.2027805882
365297810.0 -0.2142613668 0.2107673422 0.3078517896 -0.2995228254 0.3079242721 -0.2997422595 -0.2032922297 0.2049225266
370297780.0 -0.2117671018 0.213125681 0.3043364644 -0.3027606702 0.3045825455 -0.3027320232 -0.2011123048 0.2070787326
375297750.0 -0.2095932852 0.2157343364 0.3012041172 -0.3064920953 0.3014473391 -0.306429411 -0.1995077129 0.2091585845
380297720.0 -0.2073762532 0.217727554 0.2976352001 -0.3097076117 0.297838205 -0.3091187675 -0.1973710731 0.2114398098
385297690.0 -0.2057526478 0.2202199001 0.2941394492 -0.3124441597 0.2938714044 -0.312769126 -0.1946658549 0.2138384085
390297660.0 -0.2032597865 0.222601787 0.2911441348 -0.3161185467 0.2907820634 -0.3156156694 -0.1930183561 0.2159853922
395297630.0 -0.2007847433 0.2250616422 0.287339261 -0.3192322675 0.2871527199 -0.319233986 -0.1900073889 0.2181761585
400297600.0 -0.1985990017 0.2274280417 0.2834583783 -0.3226112846 0.2838608103 -0.3225135864 -0.1883271989 0.2206683911
405297570.0 -0.1965335565 0.2293982469 0.2802060326 -0.3251152076 0.2803844508 -0.3249824981 -0.1861452086 0.2223588151
410297540.0 -0.1939441704 0.231527345 0.2766714273 -0.3284815269 0.2766049574 -0.3284742748 -0.1837911008 0.2249988938
415297510.0 -0.1911764907 0.2335890268 0.2726172358 -0.3315880291 0.2729754625 -0.3317187875 -0.1811172364 0.2269321215
420297480.0 -0.1893116821 0.2361446221 0.2690288634 -0.3343189949 0.2691044557 -0.3346618773 -0.1790636201 0.2289707766
425297450.0 -0.1866373683 0.2379629505 0.2656307614 -0.3372999182 0.2659460191 -0.3376905645 -0.1769092134 0.2315578052
430297420.0 -0.1842625247 0.2400825157 0.2615458984 -0.3399914142 0.2616746817 -0.3399761304 -0.174491934 0.2329293451
435297390.0 -0.1819151688 0.2424238776 0.2579266449 -0.3428625468 0.2577738019 -0.3433032281 -0.1717832852 0.2352790635
440297360.0 -0.1794591649 0.24450158 0.2544719858 -0.3459312102 0.2545443634 -0.3458243596 -0.1696273032 0.2370750792
445297330.0 -0.176852873 0.246169061 0.2506485573 -0.3483263869 0.2505964512 -0.3484029961 -0.1670229972 0.2387113362
450297300.0 -0.174071264 0.2484488357 0.246678689 -0.3514187468 0.2466095778 -0.3513943839 -0.1646484819 0.2405873903
455297270.0 -0.1714545673 0.2504886476 0.2423132087 -0.3539143049 0.2427454479 -0.3538251666 -0.1618650638 0.2428696909
460297240.0 -0.1691379744 0.2526805963 0.2386768344 -0.3563783215 0.2389747247 -0.3564189533 -0.1598031509 0.2449740288
465297210.0 -0.1663339759 0.2546114411 0.2348934507 -0.3589912222 0.2349073724 -0.3593735009 -0.1568255107 0.2462837711
470297180.0 -0.1636475645 0.2560355223 0.230662132 -0.361485226 0.2309002319 -0.3616435194 -0.1543921072 0.2485140532
475297150.0 -0.1612315647 0.2579025984 0.2267320817 -0.3636357953 0.226837367 -0.363779121 -0.1515085087 0.2496616805
480297120.0 -0.1585404629 0.2603567396 0.2227281029 -0.3668372909 0.2229703527 -0.3664522157 -0.1491751652 0.2515780792
485297090.0 -0.1556008897 0.261786174 0.2189953526 -0.3688040509 0.2189937834 -0.368811348 -0.1462909717 0.2535117578
490297060.0 -0.1530836001 0.2635942178 0.2151285873 -0.3712124642 0.2151054553 -0.3711513229 -0.1437565505 0.2553069582
495297030.0 -0.1504927548 0.2655658108 0.2109370303 -0.3736266015 0.2109605203 -0.3735221006 -0.1415274252 0.2568762902
500297000.0 -0.1474623479 0.2673479556 0.2065428024 -0.3757644089 0.2065266667 -0.3755610602 -0.1385387909 0.2590728144
505296970.0 -0.1444653419 0.2689477697 0.2023957165 -0.3777906277 0.2023473894 -0.3780688672 -0.136324391 0.2601694208
510296940.0 -0.1419724278 0.2705204955 0.198084585 -0.3801359988 0.1983115186 -0.3803059812 -0.1330532399 0.2619560592
515296910.0 -0.1386972559 0.2719209802 0.193891861 -0.3826098374 0.1941034309 -0.3821289326 -0.1302244209 0.263564128
520296880.0 -0.1365840081 0.2738452209 0.190174497 -0.3845649876 0.1897803977 -0.384130525 -0.1278610835 0.2647612408
525296850.0 -0.1332632442 0.2747486092 0.1851016508 -0.3860134154 0.1857784159 -0.3860177987 -0.1250038805 0.2666816594
530296820.0 -0.1304870986 0.2768564468 0.1814853245 -0.3882457774 0.1814058925 -0.3884044805 -0.1221630548 0.2677688446
535296790.0 -0.1275814851 0.2782635854 0.1773876278 -0.390036618 0.1771521062 -0.3895349633 -0.1196599368 0.2689020648
540296760.0 -0.1245860056 0.279711591 0.1726289874 -0.392303369 0.1728199729 -0.3924190749 -0.1170186163 0.271152819
545296730.0 -0.1216620169 0.2810585183 0.1683665805 -0.3935597614 0.1685182163 -0.3939004789 -0.1138924866 0.2718351063
550296700.0 -0.1185961047 0.2828583876 0.1639258466 -0.3960470709 0.1644829502 -0.3957402094 -0.1114869031 0.2733350829
555296670.0 -0.1159077686 0.2839402586 0.16009268 -0.3973291835 0.1602884106 -0.3971758433 -0.1082835591 0.2749113422
560296640.0 -0.1124802781 0.2855040805 0.1556853034 -0.3994229815 0.1557497585 -0.3993719513 -0.1050459339 0.2760209949
565296610.0 -0.1101923213 0.2867727488 0.1508992752 -0.4006925877 0.151221378 -0.4005105803 -0.1025038163 0.2771524112
570296580.0 -0.1071908997 0.288001162 0.1471501645 -0.4027511322 0.1467395147 -0.402275568 -0.099645631 0.2785429593
575296550.0 -0.1040944977 0.2895667969 0.1424434883 -0.404307042 0.1425550367 -0.4040350061 -0.0964805135 0.2796881919
580296520.0 -0.1007799606 0.290598941 0.1378709399 -0.4054442179 0.1379105959 -0.4056563727 -0.0936008663 0.2808515549
585296490.0 -0.0981248671 0.2913920798 0.1336942494 -0.4066125448 0.1338583398 -0.4071423698 -0.0905748854 0.2822409496
590296460.0 -0.0944624424 0.2928739293 0.1290700832 -0.4076809409 0.1295062058 -0.4082194523 -0.0879236813 0.2836964015
595296430.0 -0.0915560609 0.2938539043 0.1242257516 -0.4095389217 0.1246625227 -0.4096020983 -0.0844815247 0.2840136768
600296400.0 -0.0889581952 0.2951613685 0.1200989294 -0.4110503124 0.1204281347 -0.4106498689 -0.0818291827 0.285431673
605296370.0 -0.0857016323 0.2961423112 0.1153863196 -0.4121375147 0.1159178308 -0.4119242043 -0.0785566964 0.2863159102
610296340.0 -0.0825051712 0.2970749367 0.1110974847 -0.4130225688 0.1114376923 -0.4133668231 -0.0756147591 0.2873678917
615296310.0 -0.0792649124 0.2979517281 0.1064306785 -0.4140105265 0.1065969171 -0.4146042655 -0.0723356806 0.2879783691
620296280.0 -0.0761568166 0.2988374066 0.101940166 -0.4152629293 0.1021503987 -0.4152803975 -0.0696862996 0.2889154288
625296250.0 -0.0732592587 0.2996180506 0.0981477578 -0.4167022273 0.0974644463 -0.4167665121 -0.0661903569 0.2899893921
630296220.0 -0.069486587 0.3007786576 0.0926477832 -0.4176681339 0.0931858514 -0.4173531261 -0.0632128961 0.2913040764
635296190.0 -0.0671889348 0.3017700003 0.0888650607 -0.4182003656 0.0888151092 -0.4185748269 -0.0603032091 0.2918680012
640296160.0 -0.0640462898 0.3026347903 0.0841317306 -0.419149606 0.0842196907 -0.4194860858 -0.0570042374 0.2926933499
645296130.0 -0.060404759 0.3037776374 0.0790447053 -0.4202244646 0.0797398725 -0.4203757534 -0.0543142622 0.2935190614
650296100.0 -0.0572205278 0.3043009391 0.0747029814 -0.4209540358 0.0748552466 -0.4206833443 -0.0507454859 0.2935860735
655296070.0 -0.0540830354 0.304773161 0.0703321441 -0.4216273458 0.0703240874 -0.4217890522 -0.047674544 0.294589067
660296040.0 -0.051100132 0.305367518 0.0657403223 -0.4223733587 0.06591764 -0.4223762336 -0.0446271651 0.2952372344
665296010.0 -0.0475721773 0.3056881155 0.0609591345 -0.4229504906 0.0607866149 -0.4230368491 -0.0413136899 0.2962359298
670295980.0 -0.0450987642 0.3069182365 0.0569459904 -0.4232941492 0.0566350696 -0.4236518798 -0.0390275466 0.2966811862
675295950.0 -0.0414548219 0.3076873569 0.0521067445 -0.4238282879 0.052312456 -0.4237607554 -0.0359009307 0.2974312444
680295920.0 -0.0385348835 0.3079981749 0.0475493939 -0.4243309748 0.0472086253 -0.4251947169 -0.0324750586 0.2984506718
685295890.0 -0.0346105008 0.3092311967 0.0424449196 -0.425111501 0.0425805086 -0.4253219787 -0.0292390972 0.2983798045
690295860.0 -0.0315771578 0.3092103686 0.0379537444 -0.4251032236 0.0382120523 -0.425673681 -0.0264644987 0.2992073231
695295830.0 -0.0284867377 0.3094159034 0.033755989 -0.4255183019 0.0333139288 -0.4261389296 -0.0228651474 0.2993417518
700295800.0 -0.0251651005 0.3099829272 0.0289347879 -0.4260986899 0.0287780161 -0.4260765337 -0.0201737425 0.2997860141
705295770.0 -0.0221353227 0.3109108046 0.024028714 -0.4265681904 0.0246057709 -0.4263761199 -0.0169923649 0.3004685203
710295740.0 -0.0186234971 0.3107379158 0.0198440665 -0.4267874638 0.0201300102 -0.4270720404 -0.0140734263 0.3003587863
715295710.0 -0.0159057543 0.3106317821 0.0153634133 -0.4266916807 0.0150799158 -0.4268465747 -0.0105372015 0.3008217906
720295680.0 -0.0122687875 0.3112925888 0.0102672396 -0.4271685004 0.0107320974 -0.4271336697 -0.0073137037 0.3014315766
725295650.0 -0.0090157811 0.3115693816 0.0056890693 -0.4268568912 0.0059320229 -0.4271238196 -0.0046030306 0.3017160844
730295620.0 -0.0060429768 0.3120978773 0.001339182 -0.4265065948 0.001353934 -0.4269346198 -0.001605939 0.3014995101
735295590.0 -0.0027576137 0.3124307255 -0.0034113457 -0.4270248231 -0.0033933976 -0.4267233848 0.001640314 0.301253663
740295560.0 0.0004798491 0.3124907577 -0.0078882769 -0.4270130449 -0.0078536837 -0.4268546681 0.0054580543 0.3016709297
745295530.0 0.0038541076 0.3127225203 -0.0128319376 -0.4262559515 -0.0125182654 -0.4268170004 0.008305175 0.30141663
750295500.0 0.0073156636 0.3126383837 -0.0171381455 -0.4263330598 -0.0171068115 -0.4264559049 0.0114296108 0.3018251804
755295470.0 0.0104776882 0.3124782899 -0.0217177532 -0.4262097703 -0.0217572718 -0.4262912985 0.0149359049 0.301182324
760295440.0 0.0135678645 0.3125111669 -0.0267286248 -0.4261441753 -0.0266069052 -0.4262874129 0.0177811077 0.3015839132
765295410.0 0.016882802 0.3124934084 -0.0312985508 -0.4254276908 -0.0313032008 -0.4258897601 0.0211751831 0.3017795486
770295380.0 0.0199972602 0.3123184813 -0.0357875006 -0.4251171604 -0.0359976777 -0.4249020187 0.024193835 0.3014716394
775295350.0 0.023018336 0.3121584372 -0.0403057443 -0.4243842887 -0.039801493 -0.4245423781 0.0268781522 0.3013624267
780295320.0 0.0265350933 0.3121268717 -0.0448474671 -0.4239284943 -0.0442043233 -0.4240049929 0.0302758308 0.3011271978
785295290.0 0.0294029452 0.3116193949 -0.0492864311 -0.4232478844 -0.0493631569 -0.4237215443 0.034119042 0.3009275907
790295260.0 0.0337231018 0.3118887071 -0.0539788416 -0.4227033228 -0.0533975579 -0.4231444856 0.0372346381 0.3010438984
795295230.0 0.0364483062 0.3112707171 -0.0582261101 -0.4222541532 -0.0581963017 -0.4227528735 0.0405235717 0.3007630229
800295200.0 0.0394988767 0.31124925 -0.0632365393 -0.4215420998 -0.0629710179 -0.4215430827 0.0435363471 0.3002959361
805295170.0 0.0432237785 0.3109479441 -0.0678819952 -0.4209172995 -0.0676483726 -0.4211333536 0.0464131054 0.3004806157
810295140.0 0.0461489113 0.3104598622 -0.071673972 -0.419695542 -0.0723562998 -0.4202650857 0.0500599526 0.2997039303
815295110.0 0.0494026258 0.3101446785 -0.0768015247 -0.4189889291 -0.0763963003 -0.4193623237 0.0532500546 0.2993020523
820295080.0 0.0523148461 0.3100383205 -0.0811606749 -0.4179991185 -0.080688537 -0.4184489397 0.0562828863 0.2991158854
825295050.0 0.0563355649 0.30943029 -0.0853459083 -0.4169206309 -0.0856742295 -0.4171565069 0.0595712274 0.2987051434
830295020.0 0.0592155493 0.3092928835 -0.0901783362 -0.4164749832 -0.0901485469 -0.4163127358 0.0630046902 0.2982536377
