!Created with skrf (http://scikit-rf.org).
# Hz S RI R 50.0 
!freq ReS11 ImS11 ReS21 ImS21 ReS12 ImS12 ReS22 ImS22
300000.0 -0.7737150787 -0.0843774943 -0.0007445019 0.0001880657 -0.000622212 -0.0006407318 -0.7707043074 -0.1241364099
5299970.0 -0.78463319 -0.0049631625 3.13046e-05 3.50242e-05 -1.81541e-05 0.000114106 -0.7841684687 -0.0066480132
10299940.0 -0.7880362478 -0.0038197122 -0.0001063707 6.2442e-06 -4.39665e-05 -0.0001480565 -0.7873119407 -0.0031874846
15299910.0 -0.7937880677 -0.0013967249 0.0001253439 0.0002210609 -8.75825e-05 -6.1184e-06 -0.7928583839 -0.0012559146
20299880.0 -0.8000442694 0.0022875363 -0.0001262311 -0.0001444646 3.89512e-05 -1.8353e-06 -0.7994198073 0.002442318
25299850.0 -0.8058542114 0.0076567002 3.62644e-05 8.48036e-05 -0.0001458363 0.0001491273 -0.805831173 0.0083958535
30299820.0 -0.8124920167 0.0154616558 4.22703e-05 8.62535e-05 0.0001629451 1.17107e-05 -0.8119973393 0.0162207475
35299790.0 -0.8169695087 0.0247344511 -2.13304e-05 2.8272e-06 8.26404e-05 -2.15685e-05 -0.8170184599 0.0252730742
40299760.0 -0.8216369857 0.0341953632 1.39779e-05 3.41191e-05 -4.44096e-05 9.85391e-05 -0.8215342637 0.0347625609
45299730.0 -0.824683553 0.0433851518 0.0001415683 0.0001258116 3.92616e-05 9.61071e-05 -0.8252149921 0.0440777425
50299700.0 -0.827310929 0.0533356867 -8.77532e-05 -3.4562e-05 9.42065e-05 2.79054e-05 -0.827295043 0.0539765491
55299670.0 -0.8292575203 0.0634930373 6.74859e-05 1.52867e-05 -7.66875e-05 -5.23729e-05 -0.8298195641 0.0644547321
60299640.0 -0.8301178487 0.073413449 0.0001539501 -0.0001222727 3.00671e-05 9.6537e-06 -0.8302970476 0.0739414842
65299610.0 -0.8312021878 0.0840593479 -4.23341e-05 6.0742e-06 -2.78185e-05 -5.0064e-05 -0.8321089254 0.0845716927
70299580.0 -0.8321889569 0.0937634663 -6.764e-06 0.0001029364 -7.19016e-05 7.72995e-05 -0.8321288124 0.0946274645
75299550.0 -0.8315702198 0.1040858199 -7.37803e-05 0.0002419106 4.56673e-05 -5.99309e-05 -0.8329147361 0.1043027373
80299520.0 -0.8317271902 0.1134923689 -0.0001673939 -0.0001732902 7.05236e-05 -0.0001432192 -0.8324529507 0.1140628604
85299490.0 -0.8309522543 0.1227371723 0.0001250753 -4.3319e-06 0.0002539939 -7.88372e-05 -0.831358891 0.1240369076
90299460.0 -0.8298813937 0.1325975644 6.70807e-05 -4.51561e-05 8.57882e-05 -1.04464e-05 -0.8310977273 0.1334750277
95299430.0 -0.8291527587 0.1420855974 -4.24564e-05 4.32702e-05 2.6308e-06 7.44862e-05 -0.8294771733 0.1432054502
100299400.0 -0.8282573733 0.1514876683 7.68384e-05 0.0001073334 -1.74719e-05 0.0001762366 -0.8286677728 0.1525475056
105299370.0 -0.827014484 0.1606980667 -4.6961e-06 0.0001254709 6.7926e-05 0.0001794282 -0.8270870618 0.1612084109
110299340.0 -0.8254847332 0.169941712 0.0002222401 2.13065e-05 2.78593e-05 -9.82047e-05 -0.8255057167 0.1710366051
115299310.0 -0.8241450678 0.1783863211 -2.25453e-05 4.71411e-05 -9.92289e-05 -4.77188e-05 -0.8245018185 0.1798766485
120299280.0 -0.8219814677 0.1877072282 0.0002155753 0.0002080386 9.35516e-05 -0.0001057542 -0.8224417318 0.1884165766
125299250.0 -0.8208007797 0.1960658532 0.000197831 -2.98997e-05 -2.79537e-05 -0.0003505408 -0.8208805438 0.1980272893
130299220.0 -0.8184818881 0.2055460779 -1.28896e-05 -7.1867e-05 -0.0001924667 -0.0001155925 -0.8187535018 0.2070730488
135299190.0 -0.8167855289 0.2142505127 -2.41561e-05 5.72751e-05 -0.0002538803 -4.62251e-05 -0.816657105 0.2163136876
140299160.0 -0.8148700202 0.2232492326 8.3551e-06 4.62698e-05 5.0323e-06 0.0001170281 -0.814267602 0.2252165614
145299130.0 -0.8127670361 0.2324084813 9.48291e-05 0.0002015027 3.02169e-05 -8.47715e-05 -0.8123690187 0.2341794545
150299100.0 -0.8097552462 0.241185598 -0.000141973 5.41888e-05 4.12252e-05 2.14934e-05 -0.8103873484 0.2430620731
155299070.0 -0.8076161056 0.2501844755 -7.37453e-05 1.73829e-05 0.000154887 -9.11086e-05 -0.8074086826 0.2520603009
160299040.0 -0.8047679126 0.2581570747 1.16644e-05 0.0001863106 0.0001002944 -7.34771e-05 -0.8052062155 0.2608354688
165299010.0 -0.8030806514 0.2676103131 0.0001700393 0.0001416275 5.86782e-05 8.3872e-05 -0.8019205699 0.2694100706
170298980.0 -0.799962491 0.27578242 -1.87974e-05 -0.0001258839 2.11081e-05 -0.0001556022 -0.7991044583 0.2783111609
175298950.0 -0.7968101668 0.2847722786 -3.54e-06 -0.0001554262 1.44107e-05 -4.8379e-05 -0.7965724043 0.2869364917
180298920.0 -0.794641307 0.2934077109 -7.2098e-05 -2.50134e-05 7.023e-06 -9.15899e-05 -0.7936529302 0.2952706225
185298890.0 -0.7912460808 0.3011687845 -3.6346e-05 1.40025e-05 6.38026e-05 9.51605e-05 -0.7907316877 0.30406947
190298860.0 -0.7881911278 0.3105922842 -4.07865e-05 -5.04795e-05 -0.0001242683 -0.0001764828 -0.7878560135 0.3123204195
195298830.0 -0.7852744292 0.3182123377 0.000137363 0.0002490144 -5.50141e-05 -5.85415e-05 -0.7842264425 0.3210783799
200298800.0 -0.7814328081 0.3261516745 -0.0001036871 -3.95421e-05 0.0001152615 3.91357e-05 -0.7817095354 0.3296336991
205298770.0 -0.7785867443 0.334696515 -4.46394e-05 0.0003079427 0.0001552976 -0.0001263921 -0.7776916782 0.3376126975
210298740.0 -0.7748539394 0.342863991 -1.97468e-05 -0.0001028353 1.54296e-05 -0.0001127346 -0.7743614516 0.3464737909
215298710.0 -0.7718517911 0.3506569737 0.0001016978 4.99041e-05 -3.25282e-05 3.38132e-05 -0.770928849 0.3540671533
220298680.0 -0.7676382457 0.3590909493 0.0001209052 -0.0002037192 -9.11759e-05 -6.95323e-05 -0.7669819273 0.3618929029
225298650.0 -0.7643983788 0.3668778118 0.0003954896 -9.05667e-05 -0.0001261726 -9.15992e-05 -0.7645702059 0.3705985897
230298620.0 -0.7604523389 0.3752833197 -1.36856e-05 0.0001955472 6.0033e-05 -6.94585e-05 -0.7597973695 0.3789094275
235298590.0 -0.7564044122 0.3837480731 6.56047e-05 2.3606e-05 -5.79354e-05 -0.0001182722 -0.7557947447 0.3872469291
240298560.0 -0.7522285919 0.3914859387 9.39037e-05 3.46618e-05 -6.9763e-05 3.16502e-05 -0.752035986 0.3951609833
245298530.0 -0.7488618711 0.3989612784 -1.43432e-05 -0.0001095996 -0.000217809 7.9567e-05 -0.7483599046 0.4025665943
250298500.0 -0.744069797 0.4076179352 -3.9825e-05 -0.0001409642 -2.00811e-05 0.00014221 -0.743732921 0.4105796759
255298470.0 -0.7395798053 0.4143067351 -5.95163e-05 4.06009e-05 -4.15311e-05 -9.39584e-05 -0.7386478619 0.4178790424
260298440.0 -0.7350926169 0.4219742282 -4.23543e-05 -0.0001545985 1.17187e-05 -2.07193e-05 -0.735232721 0.4265322326
265298410.0 -0.7312113887 0.4299889067 -3.9214e-05 4.55028e-05 4.57474e-05 -8.33063e-05 -0.7305783412 0.4341943581
270298380.0 -0.7267960989 0.4378862082 0.0002819096 4.90006e-05 -0.0001995014 -8.55273e-05 -0.7257969173 0.4411744313
275298350.0 -0.7219875024 0.4452956715 -4.07034e-05 5.72827e-05 0.0001017406 -7.69061e-05 -0.7205922458 0.44891706
280298320.0 -0.7169449636 0.4530931769 0.0001561611 4.59686e-05 7.12382e-05 -4.96888e-05 -0.7156532133 0.4563501454
285298290.0 -0.7125119952 0.4603694258 -2.0062e-05 -2.02577e-05 -8.34517e-05 -0.0002467818 -0.7105140508 0.4638048281
290298260.0 -0.7078377738 0.4677657961 -2.49095e-05 -9.57196e-05 -4.43946e-05 2.96236e-05 -0.70598765 0.4706636312
295298230.0 -0.7022981905 0.474939345 6.5882e-05 0.0001786045 5.35041e-05 -0.0002871621 -0.7010364332 0.4781667743
300298200.0 -0.6975837664 0.4823296271 6.86004e-05 -1.97208e-05 8.78466e-05 0.0002084808 -0.695657977 0.4855746751
305298170.0 -0.6926534993 0.4886122317 -8.58637e-05 -9.7072e-06 -4.1295e-06 -7.20542e-05 -0.6903036573 0.4934284881
310298140.0 -0.6875103601 0.4962281992 -4.40933e-05 1.32863e-05 -4.22269e-05 -2.62382e-05 -0.6859779841 0.5000153149
315298110.0 -0.6825834982 0.5036683379 -0.0001151258 -2.64013e-05 0.0001657019 3.69986e-05 -0.679690247 0.5069213537
320298080.0 -0.6770519333 0.5103637703 2.35716e-05 -7.89208e-05 -0.0001338582 0.0001425294 -0.6746619662 0.5144373493
325298050.0 -0.6711300906 0.5176164411 -5.3307e-05 -0.0001275731 3.48903e-05 -4.51996e-05 -0.6684955393 0.5213166013
330298020.0 -0.6660246639 0.5241874601 -1.27528e-05 -0.0001928714 6.80649e-05 -9.9348e-05 -0.6639118101 0.5281500019
335297990.0 -0.6604446316 0.5309969064 0.0001939981 -4.96412e-05 9.51053e-05 -4.97249e-05 -0.6584514391 0.5357973343
340297960.0 -0.6556694514 0.5379299205 -1.519e-05 0.0004116239 3.59642e-05 -0.0001392815 -0.6524817457 0.5420593021
345297930.0 -0.6492109857 0.5448515846 0.0001412673 -6.3082e-06 -0.0001258252 0.0001421872 -0.64672989 0.5487851025
350297900.0 -0.6440335719 0.5516525298 0.0001404807 -0.0001346535 -6.28567e-05 6.63206e-05 -0.6409796728 0.5560393445
355297870.0 -0.6379872548 0.558101492 2.47428e-05 0.000178608 2.92078e-05 0.0002152548 -0.6354053574 0.5619416198
360297840.0 -0.6323952481 0.5640965091 5.60339e-05 -4.13479e-05 -0.0001592193 1.69373e-05 -0.629601328 0.5689521618
365297810.0 -0.6270409325 0.5707802214 0.0002097897 0.0001774862 -2.17051e-05 6.23854e-05 -0.6229540319 0.5756443782
370297780.0 -0.6208057008 0.5769631651 -0.0001078659 -9.6214e-05 0.0001038066 -4.21596e-05 -0.6173700144 0.5815658572
375297750.0 -0.614442543 0.5833884686 2.3147e-05 0.0001697884 -6.10413e-05 -0.0001041019 -0.6110612093 0.588215312
380297720.0 -0.6089479321 0.5889198057 -3.93928e-05 -5.06857e-05 -5.36083e-05 0.0001745873 -0.6060459366 0.5948134591
385297690.0 -0.6032164547 0.5954234271 0.0001325433 8.77069e-05 5.88734e-05 9.90941e-05 -0.5989530792 0.601151585
390297660.0 -0.5966637349 0.6016032327 -0.0001024389 -0.0001849099 -4.58547e-05 0.0001521028 -0.5931882141 0.6074424391
395297630.0 -0.5894730994 0.6084302094 -7.97647e-05 2.62892e-05 0.0001517748 4.47222e-05 -0.5862961385 0.6131440258
400297600.0 -0.583887715 0.6142565216 -5.0286e-06 8.16328e-05 -0.0001476128 -2.85302e-05 -0.5805085226 0.618925191
405297570.0 -0.5776804735 0.6200981202 0.0002440968 7.18629e-05 0.0001121552 -0.0001657129 -0.5739036786 0.6250362122
410297540.0 -0.5708859012 0.6256589314 -0.0001873715 -0.0002150959 -6.7417e-06 1.68886e-05 -0.5673801587 0.6311939546
415297510.0 -0.5643240302 0.6313650669 -8.0877e-05 8.83762e-05 5.97154e-05 0.0003351199 -0.5607415609 0.6364392224
420297480.0 -0.5586375204 0.6379239127 -6.79415e-05 0.0001232545 -0.0001285465 -2.25648e-05 -0.5541050346 0.6424192524
425297450.0 -0.5510322918 0.6428989406 3.96398e-05 -1.2696e-06 -0.0002041638 0.0001107519 -0.547747459 0.6482653952
430297420.0 -0.5452948183 0.6487780588 0.000134928 -0.0001834184 -0.0001102307 -0.0001202695 -0.5414209982 0.6535339301
435297390.0 -0.5382998205 0.6536708175 -0.0001934867 0.0002077372 2.53508e-05 -2.72452e-05 -0.533705124 0.6585352653
440297360.0 -0.531350979 0.6594302482 -1.14327e-05 -5.19826e-05 -5.66176e-05 -5.62457e-05 -0.5268727852 0.6639587392
445297330.0 -0.5248477244 0.6646208802 -0.0001517607 5.07842e-05 0.0001139953 0.0001005199 -0.5201057636 0.6685318626
450297300.0 -0.517765095 0.6697271173 0.0001061158 0.0001734399 -0.0002230653 -5.46179e-05 -0.5133144414 0.6741332147
455297270.0 -0.5108735736 0.6747639447 3.18545e-05 -6.2119e-05 0.000283693 2.56033e-05 -0.5063000296 0.6788458456
460297240.0 -0.5045722398 0.6800956954 3.18758e-05 -1.42981e-05 -9.55397e-05 0.0001905611 -0.4992095212 0.6841615692
465297210.0 -0.4976691056 0.6849926835 -0.0001370268 -3.87219e-05 -0.0001554078 0.0001009992 -0.4919209795 0.6889222948
470297180.0 -0.4900693553 0.6895838776 1.74901e-05 -0.0002566054 -0.0001505244 0.0002808348 -0.4846553672 0.694412489
475297150.0 -0.4830989618 0.69437786 -0.0001591998 3.97767e-05 7.66177e-05 -2.42568e-05 -0.4773194953 0.698508189
480297120.0 -0.4762320641 0.6997600457 1.631e-07 0.0001440497 -5.27809e-05 7.0569e-06 -0.4698062723 0.7037678268
485297090.0 -0.4684328578 0.7042057508 -6.47841e-05 -8.7677e-05 -8.53361e-05 -6.04051e-05 -0.4628967944 0.7082905916
490297060.0 -0.4617031933 0.7089303145 2.12332e-05 0.000194819 2.3757e-05 -6.76275e-05 -0.4556596755 0.7126243702
495297030.0 -0.4548101155 0.7133385821 -0.0003041835 0.0002492587 -7.01199e-05 9.97783e-05 -0.4487743735 0.7179651594
500297000.0 -0.4475846529 0.7182881019 9.64402e-05 -1.60795e-05 -3.3661e-06 0.0001314323 -0.4410062787 0.7226335833
505296970.0 -0.4395539204 0.7226191798 6.63303e-05 0.000128396 -0.0002408628 -0.0001080069 -0.4334676324 0.7267106452
510296940.0 -0.4326359645 0.726692289 -7.45327e-05 3.94791e-05 -0.0001983148 -2.85503e-05 -0.4258213539 0.7307322139
515296910.0 -0.4237192788 0.7307099601 4.7491e-05 -6.30001e-05 0.0001939155 -0.0001288552 -0.4181922262 0.7352143926
520296880.0 -0.4174885992 0.7352621009 4.15092e-05 7.43e-07 9.93621e-05 8.817e-06 -0.41110138 0.7391317934
525296850.0 -0.4098873523 0.7392460361 -0.000204679 0.0001592888 0.0001240817 0.0001345834 -0.4035351087 0.7443282684
530296820.0 -0.4023376067 0.7436460081 -3.91725e-05 -4.64188e-05 -2.23222e-05 -3.0422e-05 -0.3961719519 0.7473241535
535296790.0 -0.3952198874 0.7475284955 -8.92434e-05 5.01515e-05 -0.0001658802 -9.28168e-05 -0.3892091602 0.7519756141
540296760.0 -0.3877260342 0.7507535353 5.70473e-05 -0.0001441063 -3.46021e-05 -0.0001641224 -0.380483727 0.7556802699
545296730.0 -0.3800931012 0.7553320785 5.61475e-05 -0.0002751747 2.17338e-05 2.46645e-05 -0.3734408946 0.7596386004
550296700.0 -0.3724937921 0.7595225034 9.28518e-05 0.0001112185 -0.0002503951 4.78767e-05 -0.3646576264 0.7637585328
555296670.0 -0.3643102853 0.7622100816 -6.8456e-06 -6.69327e-05 -5.9149e-06 0.0001024906 -0.3578427062 0.7673770392
560296640.0 -0.3574795822 0.7663284631 6.7492e-06 8.87002e-05 0.000154866 -0.0001026655 -0.3496825135 0.7713735611
565296610.0 -0.349213496 0.7700027532 -0.0002128606 -0.0002840831 -0.0001657714 -0.0001250208 -0.341877591 0.7738633942
570296580.0 -0.3418725721 0.7727567828 -7.87398e-05 3.41173e-05 -0.0002166868 -5.5289e-06 -0.3350368568 0.7779122544
575296550.0 -0.3344203337 0.7766282112 0.0001069038 8.3795e-06 -0.0002023418 -2.30704e-05 -0.3264224343 0.7813098429
580296520.0 -0.3258346863 0.7800763558 -0.0001539439 -0.0002714172 -0.0001719799 7.40409e-05 -0.3176675894 0.7837790722
585296490.0 -0.3181758661 0.7831443547 3.8065e-06 -8.20478e-05 -0.0001976278 0.0001797113 -0.3103542207 0.7877898028
590296460.0 -0.3104808935 0.7862862148 7.74354e-05 -0.0001271005 0.0001004805 0.0002201468 -0.3024014746 0.7903763461
595296430.0 -0.3021245444 0.7884108803 -0.0002923547 -0.0003073102 -4.78002e-05 -4.66951e-05 -0.29431517 0.7928025252
600296400.0 -0.2945287779 0.7922191394 7.49883e-05 -0.000152029 -1.63061e-05 -2.79336e-05 -0.2865672577 0.7957141144
605296370.0 -0.286715963 0.7947764228 7.4077e-05 6.455e-06 5.66194e-05 2.98961e-05 -0.2778826678 0.7986114323
610296340.0 -0.2785262616 0.7969280949 2.42915e-05 -3.32118e-05 -9.12951e-05 9.4737e-06 -0.2701301958 0.8010430487
615296310.0 -0.270033709 0.8004707458 -4.20229e-05 4.3631e-06 -0.0001411746 5.76484e-05 -0.2615543583 0.8035646678
620296280.0 -0.2621877248 0.8023782196 -6.93591e-05 -0.0001258818 9.52722e-05 0.000149409 -0.2539941372 0.8061939133
625296250.0 -0.2541870257 0.8054578934 2.84982e-05 -0.0001057539 3.85274e-05 2.61668e-05 -0.2452545379 0.8081200347
630296220.0 -0.2454506699 0.808099301 -0.0001209701 -0.0001175793 -4.49471e-05 -0.0001643291 -0.2376505111 0.8110244333
635296190.0 -0.2384725731 0.8100678191 8.9043e-06 0.0001165996 2.01495e-05 8.05018e-05 -0.2292100011 0.8125616559
640296160.0 -0.230407487 0.8120681429 -0.0001398804 0.000115674 0.0001059758 -5.05499e-05 -0.220789689 0.81539965
645296130.0 -0.2221293859 0.815452199 -0.0001495856 0.0001527599 -5.5281e-05 -8.32293e-05 -0.2126262382 0.8175543436
650296100.0 -0.213564072 0.816839298 -9.0658e-06 0.0002005689 0.0001424974 7.6222e-06 -0.2044164607 0.8188277834
655296070.0 -0.2055292321 0.8192857989 4.19008e-05 -3.0943e-05 0.0001530505 9.41814e-05 -0.1960858819 0.8210836642
660296040.0 -0.1975297707 0.8205477516 -0.0001120324 0.0001512397 0.0001457633 -4.4773e-06 -0.187471505 0.8228760193
665296010.0 -0.1888927774 0.8222403655 0.0002459006 6.9742e-05 -2.61067e-05 -2.13949e-05 -0.1789928243 0.8253041678
670295980.0 -0.1810944443 0.8242766167 -0.0001856955 -0.0002702469 -1.01018e-05 -0.0001713281 -0.1711767698 0.8266805831
675295950.0 -0.1729792287 0.8256615044 -4.6796e-05 -0.0001057879 -9.10338e-05 1.50574e-05 -0.1631698581 0.8283872274
680295920.0 -0.1641190555 0.8282394604 -6.10061e-05 2.9819e-06 9.8837e-06 0.0002474833 -0.1546314829 0.8309354103
685295890.0 -0.1559808534 0.8306248441 8.68442e-05 0.0001319604 0.0001853644 -5.87383e-05 -0.145673737 0.8318385949
690295860.0 -0.1482223449 0.8312306222 6.91562e-05 -0.0001782767 -9.4945e-06 -6.3206e-06 -0.1374918339 0.833595288
695295830.0 -0.1399875147 0.83209086 -4.22583e-05 0.000100373 -6.89859e-05 4.82787e-05 -0.1288604741 0.8345999339
700295800.0 -0.1315156232 0.8339123477 0.000130994 0.0001145897 -6.60473e-05 6.64178e-05 -0.1216395508 0.8364717582
705295770.0 -0.1235352436 0.8356653226 0.0001565367 -0.0001882603 7.4953e-05 7.77069e-05 -0.1130616528 0.8380984307
710295740.0 -0.1152569692 0.8363768411 0.0001300058 -1.37736e-05 -5.5008e-05 4.09451e-05 -0.104379639 0.8392143897
715295710.0 -0.1067029981 0.8376014672 -3.63407e-05 5.85472e-05 -3.37326e-05 -3.36103e-05 -0.0957259382 0.8395497703
720295680.0 -0.0983186388 0.8381348807 3.31209e-05 2.39351e-05 1.81731e-05 0.0002038645 -0.087147227 0.8410335625
725295650.0 -0.0896544332 0.8393340025 0.00021 7.07711e-05 -0.0001062266 0.0001730948 -0.0791441713 0.8419763391
730295620.0 -0.0812828349 0.8403211058 0.0001429591 -0.0003620109 -0.0001811017 -1.262e-07 -0.071824262 0.8419506783
735295590.0 -0.0734747892 0.8413160099 0.0002600609 -0.0001420302 7.01749e-05 -8.93222e-05 -0.0627786338 0.8425562989
740295560.0 -0.0649557101 0.8424892409 -6.29685e-05 -0.0002059535 -5.75373e-05 5.76308e-05 -0.0535736236 0.8441467578
745295530.0 -0.0565908569 0.8425963795 4.2598e-06 4.0231e-06 0.0001508957 6.0011e-06 -0.0454895786 0.8439907372
750295500.0 -0.0482448721 0.8429887065 0.0001696544 0.0001014708 4.1577e-06 8.18912e-05 -0.0372957782 0.8442945198
755295470.0 -0.0397244032 0.8431739415 -0.0001698111 -7.61577e-05 -7.7361e-05 -0.0001859794 -0.0287026811 0.8443093503
760295440.0 -0.0316048101 0.8433453576 1.9122e-06 9.29795e-05 0.0002183418 -0.0001068982 -0.0199352574 0.8444371877
765295410.0 -0.0230869994 0.8438220885 0.0001180752 0.0001941505 -0.000198931 -3.83874e-05 -0.0118291775 0.8448089549
770295380.0 -0.0149259016 0.8443395154 -9.33631e-05 -4.0685e-05 -8.00367e-05 9.13985e-05 -0.003616503 0.8449616383
775295350.0 -0.0069005676 0.8441392333 -9.4424e-06 6.9226e-06 -8.85992e-05 0.000112935 0.0039005391 0.8444962536
780295320.0 0.0019805183 0.8442299556 -2.24624e-05 -0.0001582177 0.0001392267 -0.0002003464 0.0127197749 0.8441273752
785295290.0 0.0099722745 0.8433795966 -1.9459e-06 8.18005e-05 2.07308e-05 0.0001419715 0.0214910987 0.8435667578
790295260.0 0.0190101315 0.8439412865 -0.0001831396 -2.55689e-05 -5.44796e-05 -5.75298e-05 0.0302938518 0.8441452483
795295230.0 0.0264627428 0.8435996486 2.5549e-06 -0.000118296 -0.0001369076 -0.0001167898 0.0387949779 0.8426627478
800295200.0 0.0347477904 0.8428252887 -0.0001732909 -0.0001080873 -0.0001374538 0.0001107266 0.0473387473 0.8422917115
805295170.0 0.0440012376 0.8429877037 0.0001469563 -0.0001765208 -0.0001758576 7.85978e-05 0.0555817136 0.8422365028
810295140.0 0.0520144423 0.8420052537 2.33755e-05 -7.56679e-05 2.89371e-05 -1.92482e-05 0.0640009102 0.8416175909
815295110.0 0.0603487727 0.841638778 -0.0002550069 -0.0001225028 0.000100424 -5.021e-05 0.0725453398 0.8407132157
820295080.0 0.0677520156 0.8411135192 9.66503e-05 0.0002458694 -3.07144e-05 -0.0002211305 0.0805520645 0.8402855738
825295050.0 0.0770709282 0.840084502 0.0001329869 4.59858e-05 -0.0001577945 -0.0001982845 0.0894905246 0.8395067293
830295020.0 0.0850131247 0.8397961798 -4.669e-06 -5.7197e-06 -0.0001553454 -6.27142e-05 0.09837116 0.8380875223
835294990.0 0.0928605902 0.8389565884 -5.20428e-05 7.58066e-05 4.266e-05 -1.67231e-05 0.1058927681 0.8374741871
840294960.0 0.1009292196 0.8384198571 0.0001114918 -5.44301e-05 -0.0002371491 -0.0001230241 0.1139843861 0.8363741924
845294930.0 0.1095084686 0.8366446385 -0.0001607503 -6.42585e-05 -3.188e-05 0.0002872636 0.1223637252 0.8346786673
850294900.0 0.1177617694 0.8357401681 0.0001985179 2.06676e-05 -0.0001732166 -5.83573e-05 0.1306007414 0.833869454
