!Created with skrf (http://scikit-rf.org).
# Hz S RI R 50.0 
!freq ReS11 ImS11 ReS21 ImS21 ReS12 ImS12 ReS22 ImS22
300000.0 -0.77443154 -0.0905423556 -0.000573069 -0.0012483055 -2.83941e-05 0.0005761491 -0.0461612214 -0.056030112
5299970.0 -0.7849280624 -0.0054138946 -0.0001651991 0.0001632294 0.0001772226 -5.59196e-05 -0.0463315483 0.0159240533
10299940.0 -0.7879420853 -0.0034517292 -9.27847e-05 -7.91675e-05 3.63557e-05 4.54892e-05 -0.0405115239 0.0338626745
15299910.0 -0.7934061734 -0.0019952557 0.00013648 4.45102e-05 -8.79374e-05 -1.25298e-05 -0.031804697 0.0482873473
20299880.0 -0.8001540966 0.002142577 0.0002029367 5.00612e-05 -0.0001275835 -3.75237e-05 -0.0214774276 0.0600378386
25299850.0 -0.8062432922 0.0077156273 0.0001952214 -1.90911e-05 -2.887e-07 8.7454e-06 -0.0103061768 0.069549381
30299820.0 -0.8123436676 0.015476938 -2.35323e-05 -6.78841e-05 6.90238e-05 2.67064e-05 0.0016185625 0.0763559179
35299790.0 -0.8175602216 0.0246186024 7.78425e-05 5.11439e-05 0.0001715768 -4.77978e-05 0.0132027119 0.0809370704
40299760.0 -0.8211729256 0.0332980643 0.000185287 7.23923e-05 9.0499e-05 1.19592e-05 0.0246888072 0.0836208152
45299730.0 -0.824306733 0.0427325867 -2.0596e-05 -0.000103984 -0.0001898821 0.0001085538 0.0354466643 0.0851782539
50299700.0 -0.8276025015 0.0526113347 -7.92155e-05 -8.41775e-05 6.28495e-05 -8.50391e-05 0.0451463737 0.0849255057
55299670.0 -0.8293762511 0.0628702213 0.0001936406 -0.0002192932 -3.4887e-05 0.0001021523 0.0545745377 0.0840350741
60299640.0 -0.8303733334 0.0732017487 -1.34388e-05 -0.0001155189 2.48161e-05 -0.0002646039 0.0633420341 0.0823973843
65299610.0 -0.8313701334 0.0834789647 0.0001266664 0.0001472885 1.05651e-05 8.36947e-05 0.071193515 0.0799149339
70299580.0 -0.8317137514 0.0928153349 -8.32691e-05 -0.0002039006 -0.0001527164 1.0672e-06 0.0782063362 0.0770443278
75299550.0 -0.8318329196 0.1034707414 8.84456e-05 -0.0001017794 7.1618e-05 0.0001333557 0.084255395 0.0735145395
80299520.0 -0.8314610647 0.1132285647 -0.0002716889 0.0001030658 -7.8015e-06 0.0001426712 0.0898798771 0.0707674264
85299490.0 -0.8306948728 0.1224993366 6.5118e-06 4.45881e-05 0.0001288298 -6.98058e-05 0.0947409443 0.066560905
90299460.0 -0.8300447089 0.1321432122 -6.21679e-05 0.0001370045 1.2769e-05 -6.4655e-05 0.0996074079 0.062901784
95299430.0 -0.8292618817 0.1408927455 -2.78769e-05 -0.0002411257 0.0001172484 0.0002102391 0.1037050484 0.0594753001
100299400.0 -0.8276876496 0.1503561135 -0.0001396296 -3.49291e-05 -3.8757e-05 0.0001253557 0.1076310412 0.0552082111
105299370.0 -0.8263257889 0.15985655 -4.97856e-05 0.0001512098 -0.0001067763 8.71032e-05 0.1108325672 0.05130727
110299340.0 -0.8252932047 0.1689627343 -0.000123088 -7.24609e-05 0.0001573665 0.0001654069 0.1137487033 0.0477037004
115299310.0 -0.8236312039 0.1783439911 8.626e-05 -0.0001729366 -2.12456e-05 0.0001352639 0.1163406576 0.0438896644
120299280.0 -0.822176067 0.1872366087 -7.9044e-06 2.6872e-05 -0.0001118671 3.44389e-05 0.1181896837 0.0401479745
125299250.0 -0.8201563113 0.1956731355 8.14661e-05 3.20282e-05 1.9419e-06 -6.07869e-05 0.1203536274 0.0358961979
130299220.0 -0.8185660411 0.2053103416 6.85473e-05 0.0002310868 1.75589e-05 -2.47739e-05 0.1217945438 0.0321410318
135299190.0 -0.8170112254 0.2139382558 0.0001320416 -6.54622e-05 0.0002028249 1.61705e-05 0.1234770002 0.0288008084
140299160.0 -0.8150307911 0.2230644303 -3.20534e-05 -0.000135842 4.91774e-05 0.000101344 0.1246003225 0.0256511128
145299130.0 -0.8125870547 0.2318174297 0.0001270504 -3.17369e-05 9.68344e-05 -0.0001198444 0.12579499 0.0222090302
150299100.0 -0.8103480396 0.2408970209 -8.84874e-05 0.0001971925 9.77981e-05 0.0001391189 0.1267142171 0.0189999066
155299070.0 -0.8073456035 0.2492806228 0.0001742518 -7.25028e-05 -5.28971e-05 -4.89454e-05 0.1278720975 0.0158850231
160299040.0 -0.8053004884 0.2576950564 7.21271e-05 0.00020279 2.84787e-05 9.48073e-05 0.1278869103 0.01245258
165299010.0 -0.8026606194 0.2667360449 0.0002167223 -4.75209e-05 -0.0001035401 8.03488e-05 0.1288446375 0.0093387685
170298980.0 -0.8002878411 0.2755353339 -1.40597e-05 4.59059e-05 3.88911e-05 1.13944e-05 0.1292478193 0.0061583717
175298950.0 -0.7970019949 0.2843363975 4.319e-05 0.0001965444 6.73147e-05 5.27508e-05 0.1291301369 0.0033856645
180298920.0 -0.7949490699 0.2922539243 2.45566e-05 0.0001193247 -0.0001282209 4.68314e-05 0.129584765 0.0008295266
185298890.0 -0.7915046688 0.3008902838 -3.19367e-05 8.39829e-05 0.000213879 5.72277e-05 0.1296383483 -0.0021787839
190298860.0 -0.7891663228 0.3090230735 -1.19993e-05 0.0001517368 7.78693e-05 0.0002224904 0.1300869366 -0.0049080733
195298830.0 -0.7852260077 0.3178111066 -2.3305e-05 0.000189632 0.0002106638 3.5195e-05 0.1299649889 -0.0076240011
200298800.0 -0.7813739599 0.3254901227 -6.567e-06 0.0002323627 -0.0001064581 9.39259e-05 0.1297657133 -0.0106765162
205298770.0 -0.7783069361 0.3338211027 0.0002281127 0.0003767819 0.0002748274 5.36131e-05 0.129548861 -0.0134126354
210298740.0 -0.7749667934 0.3416493603 0.000415806 0.0001338727 8.03544e-05 7.66608e-05 0.1295137475 -0.0156216485
215298710.0 -0.7714166743 0.3503912481 -0.0001438607 0.0002601569 -2.17893e-05 0.0001502663 0.128976784 -0.0180456506
220298680.0 -0.7679584153 0.3584454052 -5.87678e-05 0.0002275717 -9.8657e-06 7.61654e-05 0.1286285502 -0.0207178102
225298650.0 -0.763840397 0.3660822712 0.0002808391 1.62588e-05 0.0001564733 0.000100979 0.1280794076 -0.0228682531
230298620.0 -0.7602848845 0.3746298979 1.57427e-05 -8.54287e-05 4.40228e-05 -5.49431e-05 0.1279749996 -0.0251274491
235298590.0 -0.7563514719 0.3828962559 -0.0001407623 0.0002828108 0.0002333842 0.0001505111 0.1274012849 -0.0276091996
240298560.0 -0.7523487279 0.3906827746 0.0001892644 3.52219e-05 -0.0001101884 2.56343e-05 0.127073101 -0.0297217457
245298530.0 -0.7489830631 0.3985890615 0.0001296461 3.6284e-05 0.0002394413 0.0003166629 0.126520792 -0.0319380943
250298500.0 -0.7441270913 0.4058225659 4.4975e-06 0.0001355227 -4.65393e-05 0.0001312373 0.1255194164 -0.0341831606
255298470.0 -0.7394607896 0.4137845318 -4.29272e-05 4.14763e-05 6.15885e-05 0.0001956369 0.1249389869 -0.0364007266
260298440.0 -0.7354978829 0.4212293277 6.47302e-05 3.94008e-05 -4.45812e-05 0.0005611957 0.1245323629 -0.0381341248
265298410.0 -0.7313918781 0.4293157214 0.0001998429 5.5474e-05 0.0002680249 2.52121e-05 0.1242102656 -0.0400619251
270298380.0 -0.726855456 0.4369417192 -2.91706e-05 0.0001274472 1.16969e-05 0.0002347778 0.123190765 -0.0419793891
275298350.0 -0.722276174 0.4443955183 7.58326e-05 0.0001103625 6.82898e-05 0.0002103871 0.1222381995 -0.0441028598
280298320.0 -0.7169399427 0.4522738463 -2.64143e-05 0.0002875969 -2.15488e-05 0.0002473976 0.1219214794 -0.046048142
285298290.0 -0.7127511438 0.4596051275 -3.39595e-05 0.0001857885 0.0002316995 7.99263e-05 0.1211330465 -0.0479406661
290298260.0 -0.7077394376 0.4669679029 0.0002652022 0.0001366248 0.0003127459 0.0001921493 0.12033533 -0.0494913096
295298230.0 -0.7027028479 0.4741804505 -0.0001396274 0.0002467953 0.0002659175 0.0003863123 0.1196897136 -0.0514086273
300298200.0 -0.6976916588 0.4812547023 0.0002214237 0.0001528435 -4.95375e-05 -3.55826e-05 0.1188051127 -0.0531722517
305298170.0 -0.6927617671 0.4883025919 4.07617e-05 -6.73207e-05 0.0003485258 0.000407599 0.1182438601 -0.0552363499
310298140.0 -0.6875220135 0.495690893 -0.0001124294 9.35575e-05 8.67336e-05 0.0001329412 0.1168731501 -0.0572243323
315298110.0 -0.6830720391 0.5027391386 5.92158e-05 0.0001520712 0.000286615 -3.41978e-05 0.1155875154 -0.0588860124
320298080.0 -0.6773110235 0.5100689095 1.8991e-05 0.0002219617 6.09361e-05 0.000191085 0.114919958 -0.0607106226
325298050.0 -0.6719776874 0.517134857 0.0001958182 -6.2592e-06 0.0001535125 0.0002035444 0.1135772087 -0.0626967357
330298020.0 -0.6667450968 0.5234312605 6.81527e-05 0.000102047 0.0004271326 0.0001874798 0.1119619585 -0.0639260708
335297990.0 -0.6606132531 0.5302034467 7.69643e-05 0.0001340825 8.00422e-05 -1.2943e-05 0.1109835604 -0.0650613601
340297960.0 -0.6558460181 0.5373670646 0.0001148865 0.0002065094 7.0493e-06 0.00010314 0.1100088758 -0.0667698308
345297930.0 -0.6497793164 0.5441348248 9.68649e-05 0.0002476929 0.0001388043 0.0001826006 0.1088170276 -0.0685008465
350297900.0 -0.6446748321 0.5508201009 0.0001427639 0.0002975043 8.52447e-05 0.000271957 0.1074463628 -0.0693739016
355297870.0 -0.638562633 0.5579056526 0.0002857345 0.0001558937 -7.0028e-06 8.76081e-05 0.1061106728 -0.0707559616
360297840.0 -0.6323628889 0.5636530799 0.0002244389 0.0002419373 0.0001341318 0.0002570667 0.1051013856 -0.0722298069
365297810.0 -0.6274883317 0.5701163887 -3.60943e-05 0.000104947 0.000173399 4.90005e-05 0.1036800719 -0.0736557749
370297780.0 -0.6209861241 0.5765914291 0.0001370761 0.0003854215 0.00025761 0.000104742 0.1033635884 -0.0748642179
375297750.0 -0.615088995 0.5834969494 0.0001604939 5.82974e-05 0.0002416181 0.0001299932 0.1017200853 -0.0763530979
380297720.0 -0.6084475923 0.5884643425 0.0004296873 0.0001220304 0.0002507686 5.15991e-05 0.1001756151 -0.0775876869
385297690.0 -0.6030197033 0.5951978524 1.01309e-05 -0.0002415987 0.000208157 0.0001210889 0.0992979888 -0.0789378264
390297660.0 -0.597084675 0.601105213 0.0003535126 3.53177e-05 0.0002886254 1.89155e-05 0.0978750593 -0.080011241
395297630.0 -0.5901678628 0.6071857834 0.0001764581 0.0001410233 0.0002141143 0.000305582 0.0969887707 -0.0809813608
400297600.0 -0.584343012 0.6137606459 0.0001118304 7.93379e-05 8.58608e-05 2.81116e-05 0.0958088905 -0.0821769782
405297570.0 -0.5782442235 0.6190290042 6.4714e-05 4.92508e-05 0.0001515417 8.50845e-05 0.0943383278 -0.0832251464
410297540.0 -0.5712443778 0.625012705 0.0004641658 0.0003555884 0.0001632629 0.0001027542 0.0935637147 -0.0843048547
415297510.0 -0.5645827526 0.6307757186 0.0001466894 0.0001381882 4.01799e-05 -9.6482e-06 0.0919192465 -0.0856512041
420297480.0 -0.558724791 0.6367470139 -0.0001625988 9.90656e-05 0.0001702162 8.20702e-05 0.0907691498 -0.0866697315
425297450.0 -0.5520936534 0.6421864401 0.000353808 0.0003494451 0.0001917262 0.000175543 0.0897285349 -0.0876227079
430297420.0 -0.5454957281 0.6474467936 0.0001614302 2.231e-05 0.0001361242 2.3651e-06 0.0880595141 -0.0889416455
435297390.0 -0.5392677666 0.6530761995 0.0002835486 0.0003241759 9.39337e-05 0.0001073616 0.0869174728 -0.0896967115
440297360.0 -0.5318704186 0.658273674 0.0003526534 1.07155e-05 0.0001644521 0.0001348381 0.0858438803 -0.0904750498
445297330.0 -0.5251551502 0.664087611 0.0001842173 0.0002194682 0.000442588 0.0001684551 0.0843785862 -0.0920432732
450297300.0 -0.5189036411 0.6687890908 0.0003436462 0.0003169106 7.78531e-05 0.0002011748 0.0832429873 -0.0925013297
455297270.0 -0.5111324253 0.674330603 0.000378561 2.97331e-05 0.0004544146 0.0003872104 0.0817566009 -0.0934264917
460297240.0 -0.5050503446 0.6795609211 0.0001556869 -9.17555e-05 0.0001939149 8.50533e-05 0.0802607179 -0.0942835804
465297210.0 -0.4979707719 0.6847033389 0.0002011498 3.33909e-05 0.0003318325 0.0001494402 0.0790961581 -0.0949956485
470297180.0 -0.4904419555 0.6890965034 0.0002523651 1.6548e-05 0.0004207565 9.61139e-05 0.0779599121 -0.0959436646
475297150.0 -0.4841029264 0.6941476723 0.0002486099 9.02739e-05 7.10367e-05 5.00584e-05 0.0765772066 -0.0970090975
480297120.0 -0.4768761221 0.699309642 0.0003830726 -2.16183e-05 0.0003518436 0.0001762846 0.0755222302 -0.0974243755
485297090.0 -0.4694331942 0.7038670067 0.0002374461 8.18802e-05 0.0002746124 -1.71228e-05 0.0739876474 -0.0981395531
490297060.0 -0.4625205513 0.7084527182 0.0001012778 0.0002000059 4.8295e-05 0.0001753466 0.0722197727 -0.099082115
495297030.0 -0.4554717272 0.7131346753 0.0001685668 0.0002129927 0.000287032 0.0003982122 0.0708087778 -0.099430231
500297000.0 -0.4481538937 0.7176893548 0.00048922 -6.51431e-05 0.0003358238 -0.000128825 0.0696652292 -0.1000442516
505296970.0 -0.4404759988 0.7225014425 0.0004291917 0.0001331613 0.000463998 -2.18116e-05 0.0681442071 -0.1012652395
510296940.0 -0.4333130107 0.7264526583 0.0005153579 0.00027642 0.0002208818 0.0001107351 0.0667716321 -0.1020819633
515296910.0 -0.42520809 0.7300952675 0.0002204272 2.26051e-05 0.000126125 3.266e-05 0.0654592252 -0.1024307064
520296880.0 -0.4184891426 0.7354003714 0.0001518641 -0.0001376412 0.0004502615 2.94526e-05 0.0639995294 -0.1031482562
525296850.0 -0.4108231838 0.738649811 0.000164505 0.0002042213 0.0005127353 0.0001678215 0.0628837267 -0.1039695934
530296820.0 -0.4027898756 0.7430210566 0.0001629737 6.52602e-05 0.0002288264 0.0001657586 0.0611942421 -0.1041464417
535296790.0 -0.3961169127 0.7469184724 0.0001287202 0.0002508835 8.99529e-05 0.0001067657 0.0595022389 -0.1051201501
540296760.0 -0.3886585419 0.750312125 8.95108e-05 -5.9248e-06 0.0003197979 2.40769e-05 0.0582872111 -0.1054699608
545296730.0 -0.3812385321 0.7552088616 0.0002611533 0.00019359 0.0003498691 -2.99063e-05 0.0568773183 -0.1063054784
550296700.0 -0.3733912916 0.7590352879 0.0004221361 3.72601e-05 0.0002383109 3.48449e-05 0.0552989189 -0.1066006838
555296670.0 -0.3649603474 0.7610811735 0.0003501938 0.0001400794 0.0003535281 0.0001201288 0.0539586529 -0.1070924401
560296640.0 -0.3576035039 0.765678344 0.0004855894 -5.79562e-05 0.0002653279 8.49943e-05 0.0526408429 -0.1077178926
565296610.0 -0.3502918156 0.7696334793 0.0004050935 5.94036e-05 0.0003036808 -0.0001915557 0.0512373407 -0.1081257009
570296580.0 -0.342947051 0.7719133546 0.0001240602 -0.0002651734 0.0004797616 -0.000138497 0.0497144253 -0.1085794421
575296550.0 -0.3350414445 0.7763366433 0.0004379508 -1.06262e-05 0.0002309197 7.97134e-05 0.0484356813 -0.1089019764
580296520.0 -0.3261326927 0.778885625 0.0003579907 0.0001197635 0.000365783 5.85821e-05 0.0470993601 -0.1095830619
585296490.0 -0.3189599193 0.7820996572 0.0005002937 9.35759e-05 0.0002955245 -0.0002053288 0.0458442019 -0.1102181949
590296460.0 -0.3107063344 0.7856093084 0.0001390124 3.2571e-05 0.0003589118 7.1531e-06 0.0439892217 -0.1101680999
595296430.0 -0.3029942787 0.7882958423 0.0001080454 -2.86825e-05 0.0002469036 0.0001198783 0.0426525847 -0.1106728841
600296400.0 -0.2953245085 0.7917854447 0.0002051124 3.71759e-05 0.0003986981 -1.16088e-05 0.0412094785 -0.1110338668
605296370.0 -0.2880435768 0.7941325096 0.0003207855 9.7951e-06 0.0001682872 9.66158e-05 0.0400020385 -0.1112688548
610296340.0 -0.2793457041 0.7974429794 0.0003871311 7.16798e-05 0.0004462804 5.4405e-06 0.0381839698 -0.1113592564
615296310.0 -0.2707080053 0.7997771353 0.0003367116 0.0001477408 0.0005116742 9.9513e-06 0.0369099068 -0.1120134758
620296280.0 -0.2630684864 0.8018243512 0.0002950824 0.0001569593 0.0003320433 1.9534e-05 0.0353789474 -0.1120046292
625296250.0 -0.2550867771 0.8052044335 0.000288004 1.85379e-05 0.0005294693 -8.60852e-05 0.0342429869 -0.1121677385
630296220.0 -0.2466253999 0.8081056763 0.000370073 5.81377e-05 0.0002543183 5.52233e-05 0.0328576454 -0.1120644412
635296190.0 -0.2392645895 0.8099511446 0.000426544 -3.01321e-05 0.0004304678 8.3484e-06 0.031294127 -0.1125699204
640296160.0 -0.2313633084 0.8120763658 0.000334819 -4.19491e-05 0.0002829267 -0.0001064473 0.0295899852 -0.1128656765
645296130.0 -0.2229579453 0.8149903604 0.0002321697 3.42222e-05 0.0003817546 2.87722e-05 0.0281764582 -0.1126268047
650296100.0 -0.2149481553 0.8164860073 0.0001581869 6.51559e-05 0.0003540434 -5.47653e-05 0.0268157928 -0.1133778204
655296070.0 -0.2065598558 0.8190672618 0.0004486042 7.89888e-05 0.000215909 -0.0001935669 0.0256063708 -0.1128912171
660296040.0 -0.1980868729 0.8203034834 0.0003569014 2.5918e-06 0.0004106946 2.90062e-05 0.024102957 -0.1133200506
665296010.0 -0.1900453628 0.8218963984 0.0003742206 0.0002287974 0.0003160004 5.49368e-05 0.0224824292 -0.1131237262
670295980.0 -0.1820993626 0.8242784165 0.0003345247 4.26225e-05 0.0002535069 1.11231e-05 0.0207869257 -0.1133753737
675295950.0 -0.1737088409 0.8256789948 0.0002502814 -2.67038e-05 0.0002451056 0.0001688035 0.0193025882 -0.112891863
680295920.0 -0.1651901251 0.828039362 0.0002707654 0.0001554971 0.0003913362 -9.12467e-05 0.0183058942 -0.1131138553
685295890.0 -0.1568826535 0.8300160488 0.000412928 0.0002021846 0.0003596562 -7.4615e-06 0.0165162222 -0.112879516
690295860.0 -0.1488810332 0.8309573771 0.0001629814 0.0001507167 0.0001737184 8.42611e-05 0.0150718816 -0.1126151358
695295830.0 -0.1411124856 0.8318077077 0.0001503524 -1.81039e-05 0.0004702152 -9.28936e-05 0.0135188262 -0.1130930561
700295800.0 -0.1322213911 0.8332754279 0.0003765751 -5.55432e-05 0.0003481385 0.000103127 0.012226578 -0.1128938015
705295770.0 -0.1245364899 0.8351039282 0.0002171557 -7.75623e-05 0.0004177297 -7.05156e-05 0.0106307859 -0.1126132158
710295740.0 -0.1159631656 0.8360701061 0.0002072294 -2.10747e-05 0.0002615663 -0.0001205528 0.008986962 -0.1130743931
715295710.0 -0.1079112241 0.8366982099 0.0002634823 0.0001653766 0.0005187588 -9.39368e-05 0.0078102328 -0.1124988744
720295680.0 -0.0990887024 0.8385523213 0.0003441084 -0.0001488046 0.0004027248 -2.93662e-05 0.0064110702 -0.1125079777
725295650.0 -0.0911650923 0.8394819167 0.0004381676 -0.0001175365 0.0002822929 1.6818e-06 0.005136479 -0.111951066
730295620.0 -0.0823499818 0.8403276003 0.0003385609 -6.82085e-05 0.0001856268 5.76999e-05 0.0032562405 -0.1123476234
735295590.0 -0.0743580854 0.8412647077 0.0003203263 0.0001308817 0.0005799858 -0.0001285049 0.0017590976 -0.112329921
740295560.0 -0.0662943803 0.8418406687 0.0002975837 3.9617e-06 0.0003882379 5.06877e-05 0.0008353584 -0.1118568104
745295530.0 -0.0579149857 0.8424157351 0.0005853147 0.000142337 0.0002446796 -5.01964e-05 -0.000928794 -0.1119285666
750295500.0 -0.0495635912 0.8430495905 0.0002364646 -0.0002825906 0.0004087283 -1.92362e-05 -0.0020909366 -0.1112618438
755295470.0 -0.0408572493 0.8430397429 0.0004805009 -0.000272894 0.0003749886 -0.0001061412 -0.0033322642 -0.1113719283
760295440.0 -0.0329000511 0.8431156564 0.0002436047 -0.0001510563 0.0007229004 8.9369e-06 -0.00465662 -0.11096072
765295410.0 -0.0248095752 0.8435487187 0.000103523 0.0001588524 0.0004551344 -0.0001553499 -0.006297514 -0.1108223701
770295380.0 -0.0162803113 0.8443035076 0.0002529391 1.99949e-05 0.0005335418 -0.00015413 -0.0079895753 -0.1104279825
775295350.0 -0.0079964897 0.8441313739 0.0001624657 4.5619e-05 0.000325424 1.67991e-05 -0.0094519391 -0.1100374173
780295320.0 0.0004535758 0.8444070315 0.0006528768 -5.21198e-05 0.0004894252 -0.0002269474 -0.0103628637 -0.1099525171
785295290.0 0.0084039649 0.8435184621 0.0004395162 -5.50068e-05 0.0003644975 -1.05285e-05 -0.0115105056 -0.1091346857
790295260.0 0.0176676524 0.844115307 0.0002652462 0.0001001957 0.0004326513 -0.0001179795 -0.0125795618 -0.108991492
795295230.0 0.0251595426 0.8434894619 0.0002270833 5.6068e-05 0.0002779131 1.52109e-05 -0.0143241877 -0.1086868162
800295200.0 0.0339517179 0.8431064002 0.0003450953 -0.0002403994 0.0001785025 -0.0002015046 -0.0158117885 -0.1078757861
805295170.0 0.0426845471 0.8425730549 0.0004018744 -4.45735e-05 0.0001777353 0.0001243305 -0.0171625884 -0.1073672612
810295140.0 0.0505151047 0.8426602215 0.0002097336 -2.32183e-05 0.0004439117 0.0001453936 -0.0178477618 -0.1070684212
815295110.0 0.0590265953 0.841644419 0.0001957305 -3.78978e-05 0.0003005833 -0.0001118995 -0.019637368 -0.1066047324
820295080.0 0.067356132 0.8413754376 0.0002066287 2.5025e-06 0.0003874404 -9.89966e-05 -0.0207042305 -0.1059380257
825295050.0 0.0760824291 0.8401563927 0.0002648961 -8.49468e-05 0.0003538534 -0.0001226362 -0.0221618862 -0.1056303653
830295020.0 0.0839767371 0.8402204136 0.0004480395 -0.0001934653 0.0003287825 -0.0003292164 -0.0230968299 -0.1050618801
835294990.0 0.091858039 0.8391947993 0.000382496 -2.2716e-06 0.0005665169 -0.000297159 -0.0252975038 -0.1044966246
840294960.0 0.0997193807 0.8383905637 0.0004324987 -0.0001469611 0.0002901044 -0.0001797115 -0.026191959 -0.1037713021
845294930.0 0.1081782869 0.8365346945 0.0001423541 8.88422e-05 0.0004542456 7.31781e-05 -0.0274356601 -0.1032209796
850294900.0 0.1164159141 0.8363359301 0.0003645392 3.9112e-05 0.0001281094 -4.54015e-05 -0.0290485409 -0.1025556135
