!Created with skrf (http://scikit-rf.org).
# Hz S RI R 50.0 
!freq ReS11 ImS11 ReS21 ImS21 ReS12 ImS12 ReS22 ImS22
300000.0 -0.2109466047 -0.0849042163 -0.0004386384 0.0016650916 -0.0002403937 0.000762538 -0.7694518881 -0.1648617484
5299970.0 -0.2141951085 0.0086831806 5.23691e-05 0.0001153945 0.0001457917 2.9777e-06 -0.7847960243 -0.0090802442
10299940.0 -0.210270904 0.021362647 0.0001180492 -7.4e-09 -5.40095e-05 -4.45046e-05 -0.7884309362 -0.0050808521
15299910.0 -0.2054145903 0.0311179633 -0.0001776676 -5.3366e-05 -0.000171655 -4.40752e-05 -0.7937997948 -0.0030585289
20299880.0 -0.1992477974 0.0388615986 -7.33146e-05 0.000254114 -3.16579e-05 -3.1726e-06 -0.8003845657 0.0016635128
25299850.0 -0.1931636433 0.0455955246 -6.21932e-05 0.0001953502 1.04984e-05 -0.0002020596 -0.806888079 0.007272787
30299820.0 -0.186387202 0.0504263611 -0.0001004926 0.0001808734 -0.000126988 7.3745e-06 -0.8127583335 0.0146067806
35299790.0 -0.1799676001 0.0544272072 -3.86493e-05 6.85266e-05 -0.000210265 -0.000174523 -0.8179702864 0.0239661652
40299760.0 -0.1738799983 0.057085858 2.9468e-05 -5.88794e-05 -4.20071e-05 -4.08606e-05 -0.8217688114 0.0329401938
45299730.0 -0.1685245712 0.0595412681 0.0003162587 0.0001759087 7.22626e-05 -3.58701e-05 -0.8255557555 0.0421851735
50299700.0 -0.1627911488 0.0608941899 0.0001784442 -5.77553e-05 0.0002027687 0.0001262222 -0.8279406599 0.0527350747
55299670.0 -0.1585350702 0.0617523177 3.35929e-05 -6.68496e-05 6.92852e-05 -0.0002319958 -0.83016845 0.0633926997
60299640.0 -0.153842256 0.0623154066 -0.0002540826 6.96824e-05 -0.000199366 -0.0001174585 -0.8314643054 0.0728522399
65299610.0 -0.1500954958 0.0625434965 -0.0001347454 -8.36145e-05 -6.28141e-05 -5.732e-06 -0.8314765338 0.0828772453
70299580.0 -0.1464528952 0.0627398771 -0.0001403194 1.56396e-05 -0.0002547858 -9.13812e-05 -0.8322946012 0.0927038462
75299550.0 -0.1430989346 0.0625720545 -0.0001159848 -0.0001323312 -7.84847e-05 4.44134e-05 -0.8324889048 0.1026535131
80299520.0 -0.1405958542 0.0626896028 -6.5244e-05 8.66093e-05 -6.22598e-05 0.0001167529 -0.8323303113 0.1127824598
85299490.0 -0.1378012527 0.0622313401 7.12595e-05 1.67838e-05 1.3396e-05 -0.0001168774 -0.8318618012 0.1219849291
90299460.0 -0.1356005689 0.0623605694 -0.0001931181 2.12182e-05 8.88055e-05 4.83211e-05 -0.8309495307 0.1311577437
95299430.0 -0.1331661334 0.0619766952 -7.65603e-05 0.0002765189 -9.71433e-05 9.40314e-05 -0.8304983853 0.141015896
100299400.0 -0.1313866119 0.0621408058 7.37923e-05 -6.7048e-05 7.36808e-05 -7.95465e-05 -0.8293093888 0.1496559147
105299370.0 -0.1298684996 0.0614217381 0.0001792083 5.0313e-06 0.0001052883 5.42603e-05 -0.8275434467 0.1585276461
110299340.0 -0.1284143322 0.0614039826 -0.0001651009 -1.0701e-06 -0.0001533811 -0.0001131268 -0.8268764824 0.1680928001
115299310.0 -0.1269935435 0.0611785565 -0.0003188278 5.78818e-05 0.0002003917 5.76654e-05 -0.8250275677 0.1764574598
120299280.0 -0.1256749273 0.061427074 -0.0002918603 9.29103e-05 5.42745e-05 1.42484e-05 -0.8236147723 0.1859109621
125299250.0 -0.1249096281 0.0609490853 0.0001234222 4.4167e-05 3.21005e-05 -1.67082e-05 -0.8219547225 0.1947487862
130299220.0 -0.1234402838 0.0612263546 5.01002e-05 0.0001016747 0.0002223241 -3.33103e-05 -0.8198642011 0.2044022003
135299190.0 -0.1223236114 0.0612838985 -2.75716e-05 0.0001334871 -0.0001336026 -0.0001070152 -0.8180283042 0.2128455729
140299160.0 -0.1214979259 0.0612544979 0.0002307279 2.85381e-05 9.6965e-05 6.6979e-05 -0.8160830939 0.2214952619
145299130.0 -0.1207995703 0.0614362794 0.0001236064 7.76334e-05 -9.2661e-05 -3.08072e-05 -0.8136252248 0.2299245897
150299100.0 -0.1202607194 0.0614483662 -0.000297209 6.52822e-05 8.92454e-05 -1.45211e-05 -0.8124555708 0.2384131315
155299070.0 -0.1195662658 0.0618555592 0.0001210497 4.07614e-05 -3.66094e-05 8.24086e-05 -0.8095084753 0.2476492573
160299040.0 -0.1184090188 0.0624435378 0.0001174525 5.34138e-05 -0.0001892443 0.0001945567 -0.8076613504 0.2565823005
165299010.0 -0.1183972837 0.0625635638 -1.36475e-05 0.0002719093 5.12721e-05 0.0001136373 -0.8041621497 0.264743738
170298980.0 -0.1178382952 0.0627835467 0.0001225926 0.0002803565 -1.59002e-05 1.62675e-05 -0.8022105813 0.2736242277
175298950.0 -0.1168388305 0.0634088516 0.0002438023 0.0001002955 9.0037e-05 1.3614e-06 -0.7992789032 0.2818518953
180298920.0 -0.1162613075 0.0638066191 5.27751e-05 0.0002161464 0.0001520738 0.0001221066 -0.7958005767 0.2903132664
185298890.0 -0.1158770215 0.0641155583 0.0001702036 -2.47015e-05 0.000114144 3.89904e-05 -0.7924951725 0.2982719883
190298860.0 -0.1153156392 0.0645469041 0.0001611586 0.000136133 9.96824e-05 -0.0001183972 -0.7895706523 0.307857297
195298830.0 -0.1144703652 0.0652575393 -8.5392e-06 -7.01945e-05 7.97443e-05 0.0001719711 -0.7871371246 0.315790824
200298800.0 -0.1143366926 0.0660246999 0.0001539368 0.0001920036 7.19234e-05 5.51975e-05 -0.7832792982 0.3240129213
205298770.0 -0.1136372534 0.0666317651 0.0001340618 -8.48725e-05 -6.46035e-05 0.0002665415 -0.7801187753 0.3320914446
210298740.0 -0.1134454933 0.0670278929 0.0001695912 0.0001968019 -6.9905e-05 7.90737e-05 -0.7769691466 0.3403932144
215298710.0 -0.1128010502 0.068138483 0.0001570141 -4.14003e-05 -5.9187e-06 0.0001717381 -0.773457963 0.3484554088
220298680.0 -0.1124417786 0.0686781854 0.0001393642 0.0001241854 5.87324e-05 0.0001835398 -0.7696169148 0.3570378011
225298650.0 -0.1118599381 0.0691586626 -6.72883e-05 -2.15737e-05 0.0001393375 5.90514e-05 -0.7663013027 0.3644466129
230298620.0 -0.1115824149 0.0699498669 -8.83553e-05 1.27459e-05 0.0001431736 2.91039e-05 -0.7616631962 0.3730102223
235298590.0 -0.111032764 0.0705732794 -0.000161245 0.0002008327 0.0002143779 0.0001798736 -0.758250423 0.3806039086
240298560.0 -0.1107351997 0.0716905728 0.0003192656 -7.75712e-05 -5.44389e-05 0.0002002013 -0.7539845714 0.3882965897
245298530.0 -0.1100241761 0.0723486647 1.15433e-05 0.0001317171 0.000119416 1.94241e-05 -0.7500195697 0.396611653
250298500.0 -0.1097213555 0.0731452856 0.0001385397 0.0002724887 -0.0001971758 6.95532e-05 -0.7460012274 0.4045824362
255298470.0 -0.1091177435 0.0740226087 0.0002414928 -2.51142e-05 -1.72119e-05 8.71863e-05 -0.741280327 0.4123310096
260298440.0 -0.1085259338 0.0747379431 -1.56176e-05 9.6902e-06 -9.55867e-05 0.0001437701 -0.7365921617 0.4202112351
265298410.0 -0.1080898599 0.0758855758 2.03104e-05 0.0001819893 3.60435e-05 8.49973e-05 -0.7325949558 0.4274846265
270298380.0 -0.107680605 0.0765367787 0.0001589945 0.0001080317 0.0001514277 4.08695e-05 -0.7276622729 0.4358079781
275298350.0 -0.1074666594 0.0773919188 0.0001243422 2.34124e-05 -1.98654e-05 -0.0001052538 -0.7228089579 0.4431605541
280298320.0 -0.1066582799 0.078720178 0.0001575446 4.50384e-05 4.02064e-05 0.0001537015 -0.7187974477 0.4507114583
285298290.0 -0.1059548597 0.0796504884 -8.9957e-05 4.04373e-05 4.35817e-05 -5.32693e-05 -0.713794603 0.4581145006
290298260.0 -0.105404594 0.0803284005 7.28247e-05 -7.927e-05 5.71446e-05 5.76839e-05 -0.7090408551 0.4658587166
295298230.0 -0.104886238 0.0812634729 0.000232398 0.000205408 1.78563e-05 -5.21697e-05 -0.7037275337 0.4729290255
300298200.0 -0.104139491 0.0817749578 1.6374e-05 0.0002201887 2.1492e-05 -0.0001336427 -0.6987634631 0.4801976928
305298170.0 -0.1033282434 0.0830643398 -0.000105777 4.19259e-05 0.0001989221 4.58612e-05 -0.6937977022 0.4874176952
310298140.0 -0.1029614777 0.0833376379 0.0001371413 0.0001490395 5.31392e-05 0.000195793 -0.6885377385 0.494982191
315298110.0 -0.1025518556 0.0843831577 2.1812e-05 0.0001047476 6.52625e-05 5.5228e-06 -0.6830603647 0.5023153309
320298080.0 -0.1018545728 0.085395732 -6.20871e-05 0.0001928383 5.237e-07 7.9424e-05 -0.6779644546 0.5096895505
325298050.0 -0.1012115023 0.0860246071 5.29e-07 7.89725e-05 1.83459e-05 0.0002759058 -0.6722060542 0.5161678249
330298020.0 -0.1008756041 0.0872649568 0.000133093 1.2676e-05 3.67302e-05 -2.72775e-05 -0.6670041428 0.5231777439
335297990.0 -0.1006707988 0.0881435631 -0.0001843806 -2.45243e-05 0.0002855407 0.0002770017 -0.661507934 0.5301075188
340297960.0 -0.0999696046 0.0892353663 0.0001068863 0.000169795 9.21731e-05 0.0001194017 -0.6558184945 0.5374720315
345297930.0 -0.0993424351 0.0901570583 -6.4576e-06 -7.63443e-05 -0.0001155778 0.0001467175 -0.6501439679 0.5436940146
350297900.0 -0.0981972578 0.091375587 -8.86671e-05 5.0426e-06 -2.71531e-05 -0.0001850291 -0.6444641397 0.5512108311
355297870.0 -0.0980430405 0.0921717964 0.0001015761 0.0002446067 0.0003051942 0.0002458712 -0.6384819482 0.5573996978
360297840.0 -0.0973847758 0.0932979185 0.0001231227 0.0001426585 5.71433e-05 0.0001520379 -0.6327437433 0.563527646
365297810.0 -0.0967237609 0.094180203 0.0001590314 0.0001161758 0.0001668927 7.4019e-06 -0.6264720398 0.5707946101
370297780.0 -0.0960336104 0.0951708064 6.14358e-05 2.93437e-05 0.0001667449 -1.54737e-05 -0.6206952394 0.576594804
375297750.0 -0.0952816401 0.0965487457 0.0003408128 4.74397e-05 9.39943e-05 0.0003758649 -0.6143852156 0.5835022412
380297720.0 -0.0942097178 0.0972206426 0.0001027929 -0.0001089748 0.0001831364 -0.0002047955 -0.6081192282 0.5902408744
385297690.0 -0.0936870483 0.0983322187 0.0001387057 0.0001908927 9.12487e-05 0.0002668694 -0.6025175938 0.5960133351
390297660.0 -0.0928591661 0.0993962007 0.000103104 0.0002045866 3.26412e-05 5.9372e-06 -0.5954437066 0.6016154648
395297630.0 -0.0919798456 0.100351898 2.5762e-06 0.00015986 9.22347e-05 2.35008e-05 -0.5891065151 0.6083259653
400297600.0 -0.0910675072 0.1014671586 0.000260363 0.0001785022 0.0001103059 0.0001872665 -0.5832165083 0.6134176292
405297570.0 -0.0902221968 0.1021950907 0.0001726469 0.0001112017 0.0001807821 0.000141842 -0.5773436115 0.6199893624
410297540.0 -0.0894227728 0.1031585897 0.000105182 -7.75662e-05 0.0002180007 5.34076e-05 -0.5701232625 0.6255306245
415297510.0 -0.0886147749 0.1041993782 0.0001327127 7.6089e-05 0.0001579272 9.76481e-05 -0.5639533398 0.6314968604
420297480.0 -0.0878661237 0.1052972421 -3.23029e-05 9.39271e-05 0.0002074463 0.0001682153 -0.5572674964 0.6371464915
425297450.0 -0.0868209712 0.1061183332 0.0001834955 7.98818e-05 9.37208e-05 0.0002980854 -0.5507827439 0.6426674685
430297420.0 -0.0860886891 0.1071278325 8.68967e-05 -2.86927e-05 8.06949e-05 5.0528e-05 -0.5437515858 0.6484891377
435297390.0 -0.0852808829 0.1081217138 5.76125e-05 0.0002025772 0.0002190737 7.75688e-05 -0.5369230472 0.6537258045
440297360.0 -0.0841017975 0.1091042291 0.0003371099 0.0001563253 0.0001086209 5.75969e-05 -0.5305753749 0.658967145
445297330.0 -0.0834240513 0.1099433889 0.0001170881 0.000194126 4.96219e-05 0.0001318066 -0.5241296198 0.6643469532
450297300.0 -0.0824496916 0.1109631809 -5.8769e-06 3.86087e-05 0.0001752134 -1.0343e-05 -0.5177831907 0.6698320226
455297270.0 -0.0813132258 0.1118346977 9.70143e-05 -0.0001955273 -3.79908e-05 -4.36782e-05 -0.5102212404 0.6748974689
460297240.0 -0.0805469852 0.113125271 0.0002979631 2.87374e-05 0.0005069172 0.0001293581 -0.5032050462 0.6804647979
465297210.0 -0.0795284078 0.1137984203 7.91732e-05 0.0002074153 0.0001761723 6.5177e-06 -0.49634479 0.6851912497
470297180.0 -0.0785282729 0.1148109341 5.34843e-05 -4.30246e-05 0.0003144606 -4.90383e-05 -0.4898853084 0.6899864922
475297150.0 -0.0777287058 0.1155803777 0.0003985179 0.0001634099 -5.95391e-05 -7.76993e-05 -0.4822755785 0.6948713997
480297120.0 -0.076714242 0.1161135435 0.0003524629 0.0001130755 0.0001481403 1.95131e-05 -0.4757678267 0.6997856774
485297090.0 -0.0754114438 0.1173128853 5.84193e-05 9.07298e-05 0.0003548158 -8.54156e-05 -0.4682724381 0.7043722009
490297060.0 -0.0743486389 0.1180167605 3.49751e-05 0.0001073086 0.0002041749 0.0001391753 -0.4614170483 0.709040062
495297030.0 -0.0736572324 0.1190023632 0.0002134808 2.76324e-05 0.0001973394 5.42737e-05 -0.4537235027 0.7130175293
500297000.0 -0.0724520756 0.1199715648 0.0002225672 0.0001063291 0.0001693656 7.62308e-05 -0.446748408 0.718384518
505296970.0 -0.0715043738 0.1206989487 0.0002244454 0.0002252234 6.48619e-05 -1.5686e-06 -0.440000465 0.7220968574
510296940.0 -0.0704667545 0.1214809784 8.26615e-05 3.176e-05 4.36822e-05 0.0001477655 -0.4323406042 0.7264075577
515296910.0 -0.0694555584 0.1228144038 8.59474e-05 7.29979e-05 0.0001384897 5.38205e-05 -0.4244200192 0.7306682041
520296880.0 -0.0681298557 0.1234751451 0.0001555303 0.0001151068 0.0001192615 -6.907e-07 -0.417441903 0.7346078727
525296850.0 -0.0669695317 0.1241877023 0.0001779395 4.24037e-05 7.22189e-05 -0.0001518172 -0.4099377384 0.7398219574
530296820.0 -0.065982047 0.1250221709 0.0002960922 0.0001265189 0.0002841233 9.70759e-05 -0.4033319342 0.7431352402
535296790.0 -0.064890152 0.1258660109 -4.83106e-05 0.0001155238 -2.59476e-05 8.84244e-05 -0.3958845702 0.7462300776
540296760.0 -0.0638818051 0.1264397396 0.0002352431 -5.75064e-05 0.0002652028 5.79313e-05 -0.3883867936 0.7511105761
545296730.0 -0.0626269251 0.1273664841 5.44591e-05 -7.86417e-05 0.0002342314 5.14821e-05 -0.3809432226 0.7541049726
550296700.0 -0.0619336183 0.1283459804 0.0003977649 0.0001087582 0.0002143765 -8.86682e-05 -0.3732183077 0.7580552691
555296670.0 -0.059997839 0.1290686488 0.0003548802 -3.56424e-05 0.0002263937 -1.08515e-05 -0.3656228086 0.7619869326
560296640.0 -0.0592558299 0.1295873335 0.0003265654 5.42106e-05 0.0001447377 5.95666e-05 -0.3579367885 0.7655985217
565296610.0 -0.0580893331 0.1306664252 7.91682e-05 0.0001684946 4.57196e-05 -0.0001025383 -0.3504998655 0.7686962485
570296580.0 -0.0568313906 0.1313261263 0.0003190906 0.0001491662 7.71067e-05 0.000117634 -0.3431592602 0.7726642557
575296550.0 -0.0553359529 0.1319797397 7.5725e-06 -2.59942e-05 0.0001341848 9.6001e-06 -0.3348040374 0.7758527839
580296520.0 -0.0542346988 0.1327898768 0.0003922537 1.051e-06 0.0001335162 -0.0002797524 -0.3272506317 0.779223978
585296490.0 -0.0532160259 0.1331909891 7.39415e-05 1.7224e-06 0.000157346 3.51497e-05 -0.3195417338 0.7819239423
590296460.0 -0.0519892482 0.1336126005 0.0001320194 -0.0001040472 0.0001625515 0.000223875 -0.3116234152 0.7848744187
595296430.0 -0.0506653914 0.1348838641 0.0001024465 0.0002532819 0.0001941741 -0.0001267036 -0.3038495919 0.7875397169
600296400.0 -0.0494551665 0.1354570156 0.0002592271 1.74035e-05 0.0002563893 0.0001127791 -0.2965068592 0.7917707763
605296370.0 -0.0480541308 0.135980548 0.0001816321 0.0002364895 0.0003530526 0.0001147183 -0.2886536757 0.794309351
610296340.0 -0.0469858508 0.1366826871 0.0002761442 6.50539e-05 0.0001644982 6.23719e-05 -0.2802760218 0.7970168839
615296310.0 -0.0454876536 0.1376624641 0.0002082736 7.57542e-05 0.0001781244 -0.0002739581 -0.272646668 0.7995892276
620296280.0 -0.0441026939 0.1378477768 7.71569e-05 -5.08693e-05 0.0003004007 -8.2659e-05 -0.2647927696 0.801991039
625296250.0 -0.0429526342 0.1386536932 0.0002882062 3.93066e-05 0.0001599602 -0.0001713535 -0.256908369 0.8049818992
630296220.0 -0.0417830981 0.1391162103 0.0003302787 -3.54674e-05 0.0003409828 -2.11807e-05 -0.2484709101 0.8078719033
635296190.0 -0.0402818559 0.1397579253 0.0001877221 -0.0001630053 0.0002438713 -0.0001561617 -0.2408347952 0.808970871
640296160.0 -0.0390695484 0.1403586316 0.0001987685 -4.38757e-05 5.29269e-05 8.63956e-05 -0.2326118001 0.8115760266
645296130.0 -0.0378604558 0.1408145504 0.0001169784 0.0001803628 0.0002379193 -0.0001674699 -0.2248755274 0.8142369644
650296100.0 -0.0366833544 0.1417782451 0.0001433088 0.0003091924 0.0002833905 0.000136394 -0.2166782311 0.8165446966
655296070.0 -0.0354163654 0.1420486917 3.70464e-05 -0.0001870745 0.0001308488 9.37469e-05 -0.2084919051 0.8183836715
660296040.0 -0.0339563705 0.1427730687 0.0001756136 -0.0001034945 0.0002557851 0.0001766059 -0.2008809585 0.8203775693
665296010.0 -0.0325312241 0.143110927 0.0002318547 0.000193343 0.0001543019 -3.75542e-05 -0.1928888014 0.8228261588
670295980.0 -0.0310966326 0.1437600454 0.0003244322 0.0002277074 0.0002071083 5.85805e-05 -0.1851805729 0.8244584577
675295950.0 -0.0297470603 0.144171074 0.0002762794 1.60459e-05 4.37863e-05 -0.0001552353 -0.1766017922 0.8260336135
680295920.0 -0.0284099219 0.145001148 0.0003263172 -0.0001120451 0.0003220427 0.0001523136 -0.1678583847 0.8281012252
685295890.0 -0.0271992764 0.1451394133 0.0002540647 -0.0001128038 0.0001611253 0.0002651775 -0.1595488831 0.8297183058
690295860.0 -0.0256466133 0.1456836424 0.0003131343 0.0001180063 0.0001532852 3.10392e-05 -0.1516997097 0.8308365415
695295830.0 -0.0242524582 0.1459406036 0.0002477655 7.88156e-05 7.992e-06 -0.0001006472 -0.1437137305 0.8325598114
700295800.0 -0.0230549 0.146563912 0.0002424553 0.0001678544 0.0001272081 8.41869e-05 -0.134482042 0.8331765773
705295770.0 -0.0213047804 0.1468379081 0.0004393194 -6.0406e-05 0.0004314714 -0.0001468071 -0.1272199432 0.8350985669
710295740.0 -0.019986795 0.1471944905 0.0002621434 2.92575e-05 0.0002423916 -0.000120171 -0.1195172584 0.8364312759
715295710.0 -0.0189953397 0.1479512959 0.0003174752 3.14396e-05 0.0002234144 -5.47625e-05 -0.1111540438 0.8375228511
720295680.0 -0.017594133 0.1479166719 0.0001176381 1.97011e-05 0.0003078713 4.4051e-05 -0.1018729476 0.8384876941
725295650.0 -0.0156959503 0.1485214273 0.0002500991 -0.0002285684 0.0002277047 0.0001698097 -0.0942822533 0.8395193891
730295620.0 -0.0144948954 0.1488453499 -3.09937e-05 -7.99768e-05 0.0002108482 -4.04982e-05 -0.0854905478 0.8405015201
735295590.0 -0.0128727236 0.1491178216 0.0002142534 -8.245e-05 0.000283365 -0.0002074302 -0.076819897 0.8409382304
740295560.0 -0.0117997656 0.1497350137 0.0001265432 -2.50633e-05 0.0002179325 7.69629e-05 -0.0688007631 0.8413720368
745295530.0 -0.0104515652 0.1496621521 0.0002630719 -6.07413e-05 0.0003859521 2.30006e-05 -0.0605633561 0.8424201916
750295500.0 -0.0089252437 0.1501111611 0.0001240663 1.26868e-05 0.0002803232 -0.0001792725 -0.0523587804 0.8425029811
755295470.0 -0.0071377139 0.1506497368 0.0003631006 0.0003048063 6.44418e-05 0.0002034833 -0.0445775222 0.8437319946
760295440.0 -0.005946416 0.1508907328 0.0002147491 8.09322e-05 0.0003055876 1.94732e-05 -0.0360023279 0.8439577212
765295410.0 -0.0046385357 0.15066679 0.000168346 9.17123e-05 0.0002422706 8.8352e-06 -0.027019096 0.844862814
770295380.0 -0.0031626105 0.1512752272 0.0003553765 -0.0001293989 4.2889e-05 0.0001553694 -0.0192192199 0.8444612679
775295350.0 -0.001794033 0.1517633971 0.0001134549 2.03723e-05 0.0001961385 7.27536e-05 -0.0114559832 0.8444284463
780295320.0 -0.0002396111 0.1514760502 0.0003238144 2.64127e-05 0.0002712836 3.00589e-05 -0.0032020956 0.8451272934
785295290.0 0.0015406085 0.1522932209 0.0003928142 -0.0001243295 0.0002612668 1.95534e-05 0.0048289018 0.8449715182
790295260.0 0.0027263256 0.1521407514 0.0001384554 -3.97369e-05 0.0001198022 -9.96208e-05 0.0144465677 0.8446573962
795295230.0 0.0041900615 0.1525103192 0.0001817977 -2.53609e-05 0.0003135725 0.0001042168 0.0223680829 0.844946584
800295200.0 0.0058012024 0.1526304238 0.0001294533 -0.0001853084 0.0002120721 -0.0001541039 0.0303586879 0.8437497783
805295170.0 0.0072312291 0.1527673002 0.0001917353 -0.0001283395 0.0002307332 -0.0001885575 0.03850367 0.8436342632
810295140.0 0.0088102469 0.152965083 0.0002689917 -0.0001243235 0.0001410081 -0.0002824123 0.0468836328 0.8443965753
815295110.0 0.0101945147 0.1530322665 0.0001026931 -0.0001204228 0.0002405004 -1.8736e-06 0.0550592707 0.8433230884
820295080.0 0.0116011148 0.1529412997 0.0001530763 -0.0003482215 0.0003802659 -7.26666e-05 0.0631808858 0.8420972805
825295050.0 0.0133389229 0.1532515999 0.0001167786 3.09953e-05 0.0003185971 -0.0002296757 0.0720117322 0.8418504866
830295020.0 0.0146268057 0.1531525722 0.0001478283 1.65274e-05 0.0002040271 -4.95593e-05 0.0797146295 0.841145228
835294990.0 0.016065225 0.1536482865 0.0002418845 -0.0001662521 0.0003203821 -7.57451e-05 0.0878117422 0.8401474122
840294960.0 0.0179129566 0.1532760783 0.0002114328 -1.46068e-05 7.30914e-05 4.35918e-05 0.0956905 0.8391386926
845294930.0 0.0191518208 0.1537383434 0.0003678367 -0.0001109192 0.0004383361 0.0002026678 0.1041901103 0.8380726484
850294900.0 0.0206817632 0.1534171732 0.0004697077 -3.4901e-05 0.0003652735 -0.0002331092 0.1129633264 0.8374670269
