!Created with skrf (http://scikit-rf.org).
# Hz S RI R 50.0 
!freq ReS11 ImS11 ReS21 ImS21 ReS12 ImS12 ReS22 ImS22
300000.0 -0.0476984932 -0.0673722318 -0.0017704714 0.0002548793 0.0005916842 -0.0004503962 -0.7617649164 -0.1906636849
5299970.0 -0.0504546325 0.0144074546 5.859e-05 -0.0001012161 0.0001036559 -0.000108092 -0.7854024614 -0.0090698366
10299940.0 -0.0444808316 0.0328641032 -5.8831e-06 9.23521e-05 -0.0001348023 -6.98784e-05 -0.7876720717 -0.0049828119
15299910.0 -0.0358753191 0.0474043384 0.0001376659 5.24483e-05 -0.0001061371 -1.68487e-05 -0.7930703184 -0.0024783052
20299880.0 -0.0256863706 0.0594063733 6.68527e-05 -1.92526e-05 0.0001184711 -0.0002612546 -0.7997259681 0.0015495104
25299850.0 -0.0142595257 0.0685875173 -0.0002014148 8.83072e-05 1.73115e-05 -0.0002035059 -0.8060104654 0.0079797049
30299820.0 -0.0026889304 0.0752672417 -3.20364e-05 -0.0001336851 -9.18839e-05 4.38191e-05 -0.8122845534 0.0159843894
35299790.0 0.0090733026 0.0798987516 0.0002368176 -6.92591e-05 -0.0001589053 -6.58452e-05 -0.8175702653 0.0248178091
40299760.0 0.0205333406 0.0826545809 4.49635e-05 0.0001330728 2.74866e-05 1.07889e-05 -0.8211936479 0.0338785877
45299730.0 0.0312147188 0.0836658276 -4.00486e-05 -8.7468e-05 0.0001705912 0.0001148434 -0.824443183 0.0431316733
50299700.0 0.0417977662 0.0837842016 5.42839e-05 7.71379e-05 -4.86222e-05 -4.77093e-05 -0.8268514585 0.0538951542
55299670.0 0.0512317398 0.0826043664 0.0002152619 6.94557e-05 5.08363e-05 -0.0001189894 -0.8286732416 0.0634050252
60299640.0 0.0595999687 0.080719133 -0.0001482279 2.40621e-05 5.3271e-06 -4.73634e-05 -0.8300555648 0.0737632923
65299610.0 0.067983733 0.0781954539 -0.0001201208 0.0001054214 -0.0002389848 0.0001922148 -0.8306719683 0.0839147386
70299580.0 0.074502005 0.0749897143 -0.0001300837 -1.5964e-06 0.0001287785 -6.89099e-05 -0.8310675167 0.0936549989
75299550.0 0.0808539246 0.071642719 0.0001624179 2.6243e-05 0.0003833229 9.47923e-05 -0.8309487414 0.1038134712
80299520.0 0.0865286631 0.0679346761 0.0002199626 2.2262e-05 -5.10518e-05 9.18784e-05 -0.8311088553 0.1141163521
85299490.0 0.0917417844 0.0639946393 -0.0001901636 3.82976e-05 -0.0001089214 -9.7348e-06 -0.8298502224 0.1230834179
90299460.0 0.0967811307 0.0600960884 -3.63414e-05 -3.18017e-05 4.0471e-06 -0.0002233118 -0.8288834433 0.1327041857
95299430.0 0.1005313549 0.0560906566 -1.90027e-05 0.0002314913 8.79331e-05 9.9802e-06 -0.8283212082 0.1426029767
100299400.0 0.1043840776 0.0517564251 -5.78238e-05 9.22366e-05 -2.2151e-05 -0.0001008628 -0.827321087 0.1519069229
105299370.0 0.1077887592 0.0478446102 0.0001869896 0.0002087123 -9.85873e-05 -0.00014385 -0.8261472429 0.1607185572
110299340.0 0.1108199493 0.0438203882 -0.0001237006 -5.96847e-05 3.12356e-05 0.0001628514 -0.8248559356 0.1699859875
115299310.0 0.1133288232 0.0397791373 2.01101e-05 -9.36496e-05 2.5769e-06 0.0002534477 -0.8235540977 0.1789277299
120299280.0 0.1157590839 0.035937768 -7.36762e-05 -0.0002159848 -8.98516e-05 0.0001213357 -0.8213067674 0.1880014077
125299250.0 0.1175643021 0.0320357501 -0.0001795833 -4.8018e-06 -1.58369e-05 0.000117073 -0.8198703424 0.1969469308
130299220.0 0.1193963451 0.0280488931 0.0001483195 0.0001849732 2.3176e-05 -0.0001105836 -0.8176505496 0.2054499532
135299190.0 0.1209481488 0.024485071 7.80214e-05 -4.05793e-05 0.0001578898 0.0002406213 -0.8157426569 0.2150034055
140299160.0 0.1222717792 0.0208065473 3.80889e-05 -0.0001194548 1.31318e-05 0.0001063201 -0.8141892528 0.2234597503
145299130.0 0.123295661 0.0172789284 -5.28445e-05 -0.0001784268 0.0001671579 3.04743e-05 -0.8119107713 0.2328175304
150299100.0 0.1242621562 0.0136946522 0.0001143248 7.63614e-05 -0.0002206883 1.64637e-05 -0.8099101886 0.2411512365
155299070.0 0.125103203 0.0104795675 -9.10362e-05 -0.0001568656 0.0001979523 0.0001682576 -0.8068950959 0.2506959434
160299040.0 0.1256091836 0.0070516436 0.0001933157 0.0002922455 -4.12676e-05 -8.75384e-05 -0.8045863672 0.2587146477
165299010.0 0.1262203161 0.0040172756 0.0001461454 0.0001483582 0.0001077958 -0.000127825 -0.8021269556 0.2670409874
170298980.0 0.1264857868 0.0007658453 -2.6669e-05 6.25422e-05 9.82748e-05 8.0817e-05 -0.799808041 0.2756731352
175298950.0 0.1268467464 -0.0021104803 0.0001743148 -3.84837e-05 -0.0001471125 -9.75035e-05 -0.7967372422 0.2851085378
180298920.0 0.126907515 -0.0052760202 0.000164012 2.21496e-05 -8.6832e-06 7.09107e-05 -0.7936450419 0.2934450559
185298890.0 0.1268788278 -0.0083484026 -9.52783e-05 -0.0001311399 0.0001394256 4.88847e-05 -0.790588785 0.3012378408
190298860.0 0.1269266953 -0.0109881975 0.0001309476 9.64891e-05 -0.0001418959 -7.83569e-05 -0.7878253915 0.3099941869
195298830.0 0.1269817329 -0.0136471243 -1.40033e-05 0.0003808612 5.555e-07 1.90295e-05 -0.7841711 0.318005039
200298800.0 0.1268162367 -0.0167380414 0.0001605044 7.87255e-05 -0.0002036795 9.59555e-05 -0.7809514431 0.3265756715
205298770.0 0.1262346449 -0.0191490886 0.0001802073 0.0002512279 5.29802e-05 -3.67697e-05 -0.7782228411 0.3350259814
210298740.0 0.1261803787 -0.0218815451 0.000117752 -0.0001871983 0.0002534603 -0.0001151952 -0.7739921486 0.3432933229
215298710.0 0.1254829072 -0.024415445 -5.43364e-05 -6.58536e-05 -4.73588e-05 9.28032e-05 -0.7704361922 0.3513797511
220298680.0 0.1255298754 -0.0268302996 6.09365e-05 0.0001451727 1.68528e-05 7.08358e-05 -0.7671371354 0.3593959768
225298650.0 0.1250016419 -0.0294505603 9.76332e-05 -9.93228e-05 -0.0001650048 8.06081e-05 -0.7631897116 0.3679684958
230298620.0 0.1237518893 -0.0315077608 -0.000137144 -1.6334e-06 0.0001754384 0.0001569103 -0.7592966986 0.3751286282
235298590.0 0.1234280415 -0.0338200076 -9.79107e-05 3.51407e-05 0.0001903271 -6.14228e-05 -0.7548944207 0.3836141329
240298560.0 0.1226697735 -0.0361647929 0.0002057822 0.000246452 1.69991e-05 6.03002e-05 -0.7509587507 0.3907687816
245298530.0 0.1220578808 -0.0386238878 -0.000165571 -1.45088e-05 3.96126e-05 9.38225e-05 -0.74733344 0.3995851874
250298500.0 0.1215779419 -0.0406428923 -0.0001338389 6.49758e-05 0.0002550648 0.000126584 -0.7430404817 0.4072692746
255298470.0 0.120508833 -0.042416172 -0.0001587518 -1.38665e-05 -0.0001508019 -7.4988e-06 -0.7388509596 0.4145101771
260298440.0 0.1197380442 -0.0450542092 -0.0001039031 0.0001572741 2.91668e-05 2.6931e-06 -0.734679674 0.4220753381
265298410.0 0.1188183461 -0.0470314802 -4.23384e-05 -0.0002447802 5.71708e-05 5.6065e-05 -0.7297898379 0.4299841779
270298380.0 0.1177590393 -0.049074737 6.5369e-05 0.0001911145 1.56908e-05 -4.59407e-05 -0.725302254 0.4379800114
275298350.0 0.1167847619 -0.0506318102 -9.65887e-05 0.0001306868 0.0001540099 0.000149211 -0.7205327575 0.4454665471
280298320.0 0.1159908104 -0.0526366666 0.0001926121 -0.0001261768 -6.5214e-06 -6.08779e-05 -0.7163087307 0.4527579862
285298290.0 0.114985529 -0.0547199661 -5.20899e-05 -2.78134e-05 0.0001796024 -2.06394e-05 -0.7117061073 0.460849036
290298260.0 0.1137113731 -0.0566342785 -1.62159e-05 3.16987e-05 -4.84536e-05 0.0001243039 -0.7069416248 0.4676320804
295298230.0 0.1129256536 -0.0587488203 3.07004e-05 -6.8579e-06 3.49875e-05 0.0001200258 -0.7013600251 0.4749493404
300298200.0 0.1118317154 -0.0600875715 -6.46212e-05 -2.9221e-06 4.5333e-05 6.62509e-05 -0.6962179548 0.4825822417
305298170.0 0.1107047024 -0.0625695988 0.0003263861 0.0001091682 -4.70465e-05 -0.0001751572 -0.6917477293 0.489153123
310298140.0 0.1098779714 -0.0645272463 -5.41177e-05 -9.11703e-05 -2.07078e-05 -2.49115e-05 -0.6863546 0.4970109692
315298110.0 0.108420432 -0.0663325952 -7.31569e-05 0.0001076492 0.0001708619 9.8469e-06 -0.6812885892 0.5041491704
320298080.0 0.1072486672 -0.0681572647 0.0001038485 6.81815e-05 0.0001264903 -0.0001518013 -0.6763957649 0.5106778247
325298050.0 0.1052143722 -0.0703246279 -3.99369e-05 -6.8991e-06 0.0001980993 0.0001284717 -0.6702275655 0.5175235357
330298020.0 0.1038093584 -0.0715424535 -0.0001217642 7.711e-05 -0.0001314884 3.49767e-05 -0.6650274184 0.5245428877
335297990.0 0.102224674 -0.0731550732 4.24754e-05 0.0001214179 8.82405e-05 0.0002241405 -0.6595145721 0.5312504974
340297960.0 0.101049397 -0.0744162429 0.0001140297 0.0001103568 0.0001313702 2.442e-05 -0.6542023743 0.5383206504
345297930.0 0.099439344 -0.0760641618 -8.96456e-05 0.0001184465 0.0001952897 -9.06554e-05 -0.6486307304 0.544843272
350297900.0 0.0982149159 -0.0773423989 -3.35266e-05 -6.8568e-06 0.0001468928 2.43302e-05 -0.6430592319 0.5508545285
355297870.0 0.0967428532 -0.0790939251 0.0001738738 -1.89829e-05 -0.000156439 7.85402e-05 -0.6374093292 0.5588785675
360297840.0 0.0952749257 -0.0802147512 8.01419e-05 4.93115e-05 -0.000160809 -3.04332e-05 -0.6310344734 0.5653891159
365297810.0 0.0941370656 -0.0815128454 0.0002498011 0.0001173724 -4.5496e-06 0.0002167726 -0.6253314382 0.5709662582
370297780.0 0.0927241267 -0.0830308229 -0.000178423 -5.77089e-05 -5.53936e-05 1.52139e-05 -0.619323613 0.5776689714
375297750.0 0.0911839021 -0.0840968423 -1.15688e-05 0.0001310962 0.0003405289 -2.14782e-05 -0.6138152621 0.5833737687
380297720.0 0.089580637 -0.0851194719 0.0003224248 -5.3112e-06 0.0001390087 -4.50057e-05 -0.6067015019 0.590036245
385297690.0 0.0881911665 -0.0867276545 -0.0001179423 -4.16711e-05 0.0001393438 2.90102e-05 -0.6009232305 0.5964783184
390297660.0 0.0867644431 -0.088160226 9.12469e-05 9.28633e-05 0.0003078112 -3.22172e-05 -0.5944043449 0.6018730578
395297630.0 0.0854368796 -0.089427652 6.86129e-05 4.05127e-05 5.70169e-05 -3.08492e-05 -0.5885185202 0.6079337459
400297600.0 0.0837476243 -0.0904771557 -8.03736e-05 5.1767e-05 6.02241e-05 1.4776e-06 -0.5825815264 0.6139531507
405297570.0 0.0821814966 -0.0917721485 9.03029e-05 0.0001967656 0.0001190664 0.0001043183 -0.575383395 0.619824985
410297540.0 0.0812669302 -0.0928676817 2.8517e-06 0.0001900438 5.05971e-05 3.03991e-05 -0.5691780834 0.6262104647
415297510.0 0.0792286257 -0.0938280759 0.0001091628 3.08341e-05 0.000117309 0.000186837 -0.5630501912 0.6310176642
420297480.0 0.0777302944 -0.0954424078 0.0001098202 5.80469e-05 3.76645e-05 -3.40022e-05 -0.556035941 0.6383079534
425297450.0 0.0763647877 -0.0964975464 6.50033e-05 0.0001395468 6.12979e-05 8.68284e-05 -0.5499796976 0.6426279378
430297420.0 0.0748098554 -0.0975480531 -0.0002048357 -0.000142768 4.10169e-05 0.0001343712 -0.5429005166 0.648309627
435297390.0 0.073068656 -0.0984347892 0.0002285067 6.1093e-05 4.59166e-05 8.30165e-05 -0.5365994685 0.6541998712
440297360.0 0.0716619925 -0.0995718134 0.00023709 7.35281e-05 0.0001100385 -3.1769e-06 -0.5300624985 0.659673902
445297330.0 0.0704714661 -0.1007355189 -7.35225e-05 4.93898e-05 7.63354e-05 0.0001958792 -0.5228022403 0.6652633705
450297300.0 0.0689442506 -0.1017755181 -5.3399e-06 5.24764e-05 0.0002141867 -6.71494e-05 -0.5159999721 0.6696051333
455297270.0 0.0672798688 -0.1025259865 0.0001376109 9.1864e-05 0.0001064274 7.02486e-05 -0.5092238854 0.6747522602
460297240.0 0.0658736484 -0.1032811451 0.0003521631 0.0001605403 0.0002127495 0.0001012526 -0.5021252022 0.6801147558
465297210.0 0.0643104058 -0.1042356964 0.0001138641 0.0001546931 0.0001709362 0.0001008229 -0.4952482385 0.6857605903
470297180.0 0.0626750216 -0.1049133081 -6.97754e-05 -2.5191e-06 3.01944e-05 7.22874e-05 -0.4882811812 0.6901313449
475297150.0 0.0610331836 -0.1057998082 0.0001320644 5.9885e-05 -4.004e-06 -6.99614e-05 -0.4812176487 0.695407949
480297120.0 0.0597020567 -0.1067651591 9.03558e-05 2.13138e-05 0.0002105959 -1.35436e-05 -0.4744497237 0.6998883312
485297090.0 0.057955843 -0.1075988778 0.0003909228 0.00010413 0.0001422439 7.6485e-06 -0.4674160039 0.7049233838
490297060.0 0.0569332307 -0.1085236978 9.0048e-05 -0.0001152253 -3.63214e-05 -7.37661e-05 -0.4597847514 0.7087911889
495297030.0 0.0549342716 -0.1090322033 -2.33994e-05 0.0002033115 0.0001725727 -0.0001603266 -0.4522764129 0.7134421085
500297000.0 0.0532553627 -0.1096952505 5.12368e-05 3.52455e-05 -5.65209e-05 0.000137448 -0.4453823248 0.7185684548
505296970.0 0.0521493073 -0.110757589 0.000247004 5.04073e-05 1.78714e-05 6.08199e-05 -0.4374255719 0.722645253
510296940.0 0.0506697204 -0.1111361888 4.58884e-05 4.95087e-05 4.3875e-06 -3.32212e-05 -0.4303937402 0.7272988885
515296910.0 0.0486183841 -0.1117823611 -5.66465e-05 -0.0001365964 0.0002240002 -0.0001947361 -0.4233940741 0.7305264984
520296880.0 0.0472690967 -0.1124332478 -0.0001258646 0.0001132068 4.6428e-06 7.46134e-05 -0.4152631085 0.7361594374
525296850.0 0.0456052376 -0.1130145421 0.000257544 -0.0001267142 -3.72529e-05 -6.80333e-05 -0.4080224128 0.7396274837
530296820.0 0.0438628222 -0.1132850739 7.85227e-05 4.98289e-05 0.0001583735 -3.07657e-05 -0.4005046494 0.7433637235
535296790.0 0.0427754072 -0.1137018804 0.0002900885 0.0001032775 0.0002494587 -9.84645e-05 -0.3931830296 0.7480433625
540296760.0 0.0414119245 -0.1145305587 -8.92188e-05 0.0001161406 5.9281e-05 -1.94515e-05 -0.3844719413 0.7510207849
545296730.0 0.0391729705 -0.1145419343 3.91469e-05 7.86529e-05 0.0001449273 0.0001162853 -0.3778116677 0.7553607691
550296700.0 0.0376806906 -0.1151565688 6.20049e-05 5.85528e-05 0.000101688 0.0001351952 -0.3700510499 0.7589646397
555296670.0 0.0361381322 -0.1153552324 0.0002199867 0.0001508622 0.0002230286 6.78287e-05 -0.3629590396 0.7627671012
560296640.0 0.0350449852 -0.1159943177 0.0002274495 0.0001125308 0.0001423855 4.37491e-05 -0.3543526493 0.7666125713
565296610.0 0.0329166467 -0.1164558078 -3.3673e-06 -6.93289e-05 0.0001302148 -4.11949e-05 -0.3465909734 0.7701141958
570296580.0 0.031376359 -0.1163815433 7.502e-05 -4.423e-07 9.00738e-05 4.79922e-05 -0.3390778793 0.7730505504
575296550.0 0.0299806432 -0.1169868973 0.0001860103 -8.21633e-05 0.00014401 6.08862e-05 -0.3309192602 0.7760065449
580296520.0 0.0281486833 -0.1168957143 0.0001503129 7.36587e-05 0.0003660809 -3.27914e-05 -0.3233862784 0.7797586738
585296490.0 0.0265609425 -0.1169570236 3.47144e-05 -7.85464e-05 0.0003209985 -4.26428e-05 -0.3151900439 0.7832762078
590296460.0 0.0251743446 -0.1171496369 0.0001232267 3.80648e-05 8.1471e-06 0.000144681 -0.3073419898 0.7858256405
595296430.0 0.023568682 -0.1176737312 8.63581e-05 -9.84931e-05 0.0001931455 1.96085e-05 -0.2998812532 0.7890012952
600296400.0 0.0218491102 -0.1177255298 0.0001106574 1.06473e-05 0.0001707343 3.2851e-05 -0.2917823035 0.7916951687
605296370.0 0.0199025436 -0.117583634 0.0003390466 -0.0001734834 0.0001117523 1.87168e-05 -0.2838713016 0.7949425188
610296340.0 0.0185799329 -0.1175198749 0.000279199 -0.0002316031 0.0001684488 -0.0001242358 -0.276447513 0.7977402581
615296310.0 0.016981759 -0.1176582992 5.1896e-06 -7.79452e-05 0.0001804097 1.46849e-05 -0.2670576714 0.8004453555
620296280.0 0.0151929765 -0.1173003711 -2.35867e-05 -5.61394e-05 1.94242e-05 1.33948e-05 -0.2597242086 0.8031826674
625296250.0 0.0135715663 -0.1175199776 0.0001820895 -0.0001912757 2.55525e-05 1.73807e-05 -0.2513766534 0.8052305669
630296220.0 0.011970576 -0.1171541351 0.0001361025 -0.0002025256 0.0002219724 -6.19156e-05 -0.2433946465 0.807953065
635296190.0 0.0101467674 -0.1170471444 7.9428e-06 -6.76726e-05 0.0001636805 1.25574e-05 -0.2354888198 0.8098987867
640296160.0 0.0085597423 -0.1171801456 -7.66983e-05 0.0001154 0.0002038085 -3.047e-06 -0.2272855549 0.8126879794
645296130.0 0.0073555649 -0.1169139226 0.0002796716 0.0001640293 0.0001539335 -1.14666e-05 -0.2189145686 0.8145404622
650296100.0 0.0052192364 -0.1167611199 8.53595e-05 -0.0001254687 7.37258e-05 0.0001055833 -0.2108413675 0.8165259379
655296070.0 0.00374005 -0.1165958352 0.0002980538 -0.0001025678 5.59845e-05 8.23212e-05 -0.2033633452 0.8190578978
660296040.0 0.0019042977 -0.1165716295 0.0001028285 0.0001807514 0.0001028184 -6.85504e-05 -0.1943484202 0.8209306015
665296010.0 0.0003645674 -0.1161448727 2.08556e-05 8.28783e-05 5.33717e-05 0.0001237747 -0.1860090337 0.8223001955
670295980.0 -0.0013057784 -0.1159072159 0.0003502285 -7.8468e-05 0.000213094 3.06451e-05 -0.1777954161 0.8243013489
675295950.0 -0.0029994127 -0.1157880337 0.0002837558 -0.0001086922 0.0003633043 -6.44917e-05 -0.1697138391 0.8262444845
680295920.0 -0.0050799056 -0.1150997636 4.55521e-05 -6.15708e-05 0.0001175547 0.0001529097 -0.1611562929 0.8274822042
685295890.0 -0.0064312947 -0.1149970258 0.0001617704 0.0001412274 0.0002061447 -2.88945e-05 -0.153188593 0.8294678549
690295860.0 -0.0083153732 -0.1147593934 6.30574e-05 -0.0001657566 0.0002016686 2.17369e-05 -0.145046691 0.8311844476
695295830.0 -0.0096067236 -0.1143959914 0.0003617281 -4.46707e-05 0.0002170914 7.16987e-05 -0.1367270925 0.832671743
700295800.0 -0.011438624 -0.1137256968 0.0002864779 0.000134604 3.65091e-05 2.3111e-06 -0.1283797881 0.8334591816
705295770.0 -0.0130979639 -0.113438937 2.153e-05 5.10496e-05 0.0004308909 -4.66758e-05 -0.1201100115 0.8351267838
710295740.0 -0.0149911763 -0.1132128158 8.20747e-05 -5.2592e-06 0.0001879125 -0.0001087166 -0.1118493604 0.8362328578
715295710.0 -0.0160652489 -0.1125751487 0.0002956767 2.3604e-05 0.0003170277 -2.55647e-05 -0.1031561779 0.8366074327
720295680.0 -0.0184534447 -0.1123323821 0.0003388552 0.0002827887 0.0002316372 4.7573e-06 -0.0950298591 0.8376165727
725295650.0 -0.0197122365 -0.1114190497 0.0001628135 -0.0001465655 0.0001553957 0.000150907 -0.0872712468 0.839190994
730295620.0 -0.0217708291 -0.1110232018 1.55698e-05 -0.0001311023 5.20932e-05 -0.0001592042 -0.0787241712 0.8403965281
735295590.0 -0.0232868492 -0.110406007 -2.13877e-05 4.9098e-06 0.0001127938 -0.000251516 -0.0695579741 0.8405055287
740295560.0 -0.0250121172 -0.1098986174 0.000344387 0.0001021967 0.000176113 -3.32283e-05 -0.0614649503 0.8415532408
745295530.0 -0.0266105791 -0.1093351259 5.55357e-05 -0.0001121216 1.81574e-05 -0.0002088447 -0.0535694208 0.8416314575
750295500.0 -0.0285712994 -0.108745881 0.0002250137 5.2815e-05 0.0002299293 -2.29233e-05 -0.0447563413 0.8421063554
755295470.0 -0.0300616164 -0.1082379511 0.0001604785 3.72807e-05 0.0002048228 -2.85147e-05 -0.0366414705 0.8425465203
760295440.0 -0.0314809937 -0.1075788718 9.3507e-06 -5.92698e-05 0.0001005278 5.18868e-05 -0.02791079 0.8427820575
765295410.0 -0.0330609878 -0.1071419549 -0.0002648886 -2.96228e-05 0.0001085855 -0.0002893818 -0.0198087607 0.8432094986
770295380.0 -0.0347213959 -0.1060596602 0.000107591 5.40454e-05 0.0001934462 4.88584e-05 -0.0113842171 0.8429491246
775295350.0 -0.0364559436 -0.1053928984 0.000236743 -0.0002436348 4.50433e-05 0.0001249846 -0.0031989061 0.8432626198
780295320.0 -0.0380149999 -0.104698816 0.0001465202 -8.98494e-05 -2.7008e-05 -0.0001141673 0.0053859017 0.8436724915
785295290.0 -0.03968987 -0.1041125452 0.0001808314 -0.0001359478 0.0002131573 0.000177511 0.0134488678 0.843479343
790295260.0 -0.041305246 -0.1036411839 0.0002708233 -0.0001967456 0.0003556954 -6.56368e-05 0.0220480358 0.843206636
795295230.0 -0.0428454784 -0.1026353541 9.94974e-05 -4.42112e-05 3.67672e-05 -0.0001459803 0.030398389 0.8422633111
800295200.0 -0.0444385391 -0.102144172 0.0003343987 -0.0002674408 8.36881e-05 2.57043e-05 0.0385865916 0.8419031946
805295170.0 -0.0461016813 -0.1011758998 -0.0001237481 -0.0003522496 0.00026507 -3.177e-07 0.0473698929 0.8416545532
810295140.0 -0.0477460127 -0.1000063757 5.30555e-05 1.2087e-05 0.000331589 -6.24472e-05 0.0554430105 0.8415413501
815295110.0 -0.0495447297 -0.0996859769 0.0001183565 -1.2565e-05 0.000250281 -3.64961e-05 0.0633148828 0.8408192043
820295080.0 -0.0510354264 -0.0989440955 0.0001884398 0.0001839633 0.0002220558 -7.85445e-05 0.071809964 0.840205905
825295050.0 -0.052505696 -0.0982521901 9.19965e-05 -0.0002665505 0.0002913745 -1.164e-05 0.0802738985 0.8397993306
830295020.0 -0.0538793552 -0.097547366 0.0002082142 5.47301e-05 1.90172e-05 -0.0003901238 0.0882628638 0.8382326232
835294990.0 -0.0556157545 -0.0965043784 7.265e-05 -0.0002135982 4.41167e-05 -9.39597e-05 0.0969080757 0.837670494
840294960.0 -0.0570508189 -0.0956872056 0.0002924053 -0.0001181646 0.0001799982 5.84185e-05 0.1057027074 0.8369013911
845294930.0 -0.0583874102 -0.0944726637 0.0003668749 8.20847e-05 0.0002830821 -0.0003193404 0.1135232462 0.8352941437
850294900.0 -0.0595529588 -0.0940234588 0.000218129 8.51521e-05 0.0002709708 -0.0003238756 0.1215898785 0.8351263643
