!Created with skrf (http://scikit-rf.org).
# Hz S RI R 50.0 
!freq ReS11 ImS11 ReS21 ImS21 ReS12 ImS12 ReS22 ImS22
300000.0 -0.3205889553 -0.0752669363 0.3769204444 0.0381037037 0.3739072769 0.0380754444 -0.3228506554 -0.0891886852
5299970.0 -0.3267598028 0.0046286759 0.3783071832 0.002433768 0.3786754076 0.0024944722 -0.3246474014 0.005384756
10299940.0 -0.3241485373 0.0133630055 0.379462985 0.0022079093 0.3796690336 0.0023272024 -0.3221222359 0.0159609804
15299910.0 -0.3215865408 0.020632172 0.3819263679 0.0018415645 0.3819675391 0.002393921 -0.3189665025 0.0233945423
20299880.0 -0.319056161 0.0259475795 0.3852179803 0.0022052694 0.3848916925 0.0015706115 -0.3155191621 0.0298738649
25299850.0 -0.3159249121 0.0314175359 0.3881248409 0.0002151553 0.3882749482 0.0002176007 -0.3114226157 0.0359067928
30299820.0 -0.3129701683 0.0358019422 0.391607533 -0.0021095923 0.391487883 -0.0020191247 -0.3075119598 0.0406633659
35299790.0 -0.3102969208 0.0398491999 0.3949022795 -0.005421633 0.3953772341 -0.0054193095 -0.304343251 0.0447844759
40299760.0 -0.3076282419 0.0433726808 0.3981361259 -0.0085273441 0.3981572232 -0.0085023727 -0.30029817 0.0477655316
45299730.0 -0.3047748313 0.0463180459 0.4007685412 -0.0125945494 0.4011735647 -0.0124952129 -0.297330418 0.0513192433
50299700.0 -0.3024127254 0.0491731736 0.4038036259 -0.0170480741 0.4035138976 -0.0171617501 -0.2943515977 0.054097273
55299670.0 -0.3003079717 0.0522237932 0.4060922538 -0.0225565932 0.4056594221 -0.0219354686 -0.2918840983 0.0566666159
60299640.0 -0.2979712878 0.0545957135 0.407568561 -0.0270840202 0.4079241576 -0.0265160018 -0.2891250577 0.0589027448
65299610.0 -0.2962192099 0.0572052531 0.4092423538 -0.0316162636 0.4090289679 -0.0318677212 -0.2870861767 0.0616305288
70299580.0 -0.2946048281 0.0598057192 0.4104921768 -0.0367957976 0.4103945609 -0.0368687286 -0.2847698541 0.0634749543
75299550.0 -0.292603122 0.0623099204 0.4108670905 -0.041904054 0.4113708816 -0.0420651542 -0.2830532112 0.065745296
80299520.0 -0.2914671086 0.0646679492 0.4126385003 -0.0474167854 0.4126493898 -0.0474517645 -0.2814118578 0.0680054124
85299490.0 -0.2904929222 0.0666790783 0.4130854161 -0.0520056235 0.4129898144 -0.0523074391 -0.2800064077 0.0700597984
90299460.0 -0.2888996873 0.0695000251 0.4133400289 -0.0580237141 0.4134319592 -0.0575905683 -0.2780580441 0.0718699735
95299430.0 -0.287374801 0.0714516346 0.4136029202 -0.06304714 0.4134082611 -0.0633153828 -0.2764809976 0.0745903829
100299400.0 -0.28637448 0.0743015608 0.4134055566 -0.0683107869 0.4133371073 -0.0680717105 -0.2752080459 0.076281373
105299370.0 -0.2852242105 0.0764750507 0.4134729153 -0.0735578241 0.4134880676 -0.0734846393 -0.2736635645 0.0787670943
110299340.0 -0.2839039597 0.0787449209 0.4135832126 -0.0784904346 0.4132655551 -0.0783172477 -0.2728518091 0.0803480281
115299310.0 -0.2829547641 0.0806711591 0.4132996043 -0.0834657702 0.4129971728 -0.0837717583 -0.2717905918 0.0829519646
120299280.0 -0.2818714658 0.0829479612 0.4123226123 -0.0889733292 0.4126634539 -0.0887453503 -0.2703242869 0.0847889617
125299250.0 -0.2810940736 0.0854775784 0.4120588405 -0.0938033123 0.4122838259 -0.0937747014 -0.2697265826 0.0868322829
130299220.0 -0.280546142 0.0881030862 0.4111648035 -0.0991632597 0.4111550903 -0.0989736833 -0.268670851 0.0889416361
135299190.0 -0.2795337933 0.0910705837 0.4107785208 -0.1043111277 0.4105637097 -0.1039977904 -0.2673770761 0.0914797825
140299160.0 -0.2785238748 0.0930285767 0.4095187363 -0.1089827073 0.4099297932 -0.1088154234 -0.2667880812 0.0938669382
145299130.0 -0.2775569015 0.0958562719 0.4090295681 -0.1140996247 0.408774312 -0.1141044879 -0.2659206556 0.0962102712
150299100.0 -0.2763405048 0.0980320213 0.4078500418 -0.1183039688 0.4080644821 -0.1184112667 -0.2649138815 0.0986883117
155299070.0 -0.2759514168 0.1008157676 0.4067763657 -0.124163778 0.4067535048 -0.1236577533 -0.2637162852 0.1011282539
160299040.0 -0.2746938397 0.1032586939 0.4053116602 -0.1285542952 0.4053987206 -0.1288740052 -0.2631655912 0.1036000583
165299010.0 -0.2739964027 0.1059634032 0.4044156926 -0.1336859772 0.404364615 -0.1335672331 -0.2620965697 0.1060322505
170298980.0 -0.2728931952 0.1084632641 0.4029891202 -0.138273955 0.4031208136 -0.138269891 -0.2609000203 0.1082939848
175298950.0 -0.272131196 0.111138265 0.4018696516 -0.1428336635 0.4016384885 -0.1430962273 -0.2603355038 0.1105758147
180298920.0 -0.2710331918 0.1139344777 0.4003116246 -0.1475305912 0.4001532354 -0.1477803874 -0.2589172381 0.1131060637
185298890.0 -0.2698953008 0.1163052611 0.3987939172 -0.1524773423 0.3985750297 -0.1522000984 -0.2580743056 0.1156089764
190298860.0 -0.2690930803 0.1192839631 0.397401996 -0.1571510144 0.3974975743 -0.1569400334 -0.2569642288 0.1180326141
195298830.0 -0.2679450249 0.1216463321 0.3955874512 -0.1616892478 0.3955455346 -0.1613263889 -0.2556184221 0.1204480507
200298800.0 -0.2666332286 0.1243537786 0.3934927432 -0.1662995972 0.3940300269 -0.1664562888 -0.2550877365 0.123258534
205298770.0 -0.2654375953 0.1271747616 0.3913958391 -0.171302577 0.3916307844 -0.1709923888 -0.2534995337 0.1251231815
210298740.0 -0.2643760747 0.1298039806 0.3899536221 -0.1751261621 0.3899051067 -0.1754009481 -0.252352434 0.1283324671
215298710.0 -0.2638797814 0.1326139876 0.3882795289 -0.1799332836 0.3878903793 -0.1803022376 -0.2510532507 0.1308088141
220298680.0 -0.2621869398 0.1350446929 0.3857002337 -0.1843464647 0.3863130316 -0.184179684 -0.2502993512 0.1329237334
225298650.0 -0.2611338091 0.1379214918 0.3839339079 -0.1892424363 0.3842390785 -0.1890835821 -0.2493244317 0.1356159277
230298620.0 -0.2599383166 0.1407317607 0.3823099768 -0.1931544483 0.3826485603 -0.1934072842 -0.247715699 0.1379828078
235298590.0 -0.2584746386 0.1437184844 0.3799773099 -0.1978887802 0.380116384 -0.1973077898 -0.2465310202 0.1407521145
240298560.0 -0.2572707648 0.1463551972 0.3780543389 -0.2024149988 0.3775822046 -0.2023836918 -0.2449924147 0.1436883931
245298530.0 -0.2557583749 0.1490501933 0.3758021593 -0.2067537986 0.3757211128 -0.2064773142 -0.2438839232 0.1455399958
250298500.0 -0.2543409437 0.1515986923 0.3731123037 -0.2109275187 0.3730355598 -0.210694058 -0.2427477247 0.1487896945
255298470.0 -0.2528853289 0.1537733854 0.3705779818 -0.2146617355 0.3710582947 -0.2146441535 -0.2411088001 0.1506865356
260298440.0 -0.251689804 0.1565521311 0.3686891822 -0.2192307448 0.3686886561 -0.2190277865 -0.2392734919 0.1540622566
265298410.0 -0.2500535253 0.1599211483 0.3659713692 -0.2233223627 0.3663273734 -0.2230811533 -0.2380670517 0.1562744392
270298380.0 -0.2486812567 0.1625289967 0.3635526538 -0.2271956602 0.363968513 -0.2273530275 -0.2364687537 0.1588193137
275298350.0 -0.2468875738 0.1648106383 0.3611371509 -0.2315081145 0.3614546218 -0.2315708466 -0.2349822993 0.1613175005
280298320.0 -0.2451107459 0.1676841649 0.3588740321 -0.2356186088 0.3587950435 -0.2356644225 -0.2333073384 0.1640528142
285298290.0 -0.2436650565 0.1706342842 0.3562385704 -0.2396592579 0.356217764 -0.2395788452 -0.2317549527 0.1661710096
290298260.0 -0.2417943634 0.1729013698 0.3533209705 -0.2434784361 0.3538210685 -0.2439026343 -0.2303654605 0.169303408
295298230.0 -0.2400202708 0.1753598396 0.3508312448 -0.2476529872 0.3508569784 -0.2476827076 -0.2283455198 0.1711839121
300298200.0 -0.2385315138 0.1783722444 0.3483223854 -0.251312444 0.3482328379 -0.2518358852 -0.2270602223 0.1738819536
305298170.0 -0.236634042 0.180649748 0.345302513 -0.2558657924 0.3453119586 -0.2555541233 -0.2249835345 0.1763022958
310298140.0 -0.2351071585 0.1835193031 0.3428505368 -0.2593376627 0.3429790495 -0.2596171785 -0.2235175889 0.1784873303
315298110.0 -0.2332355741 0.1857891546 0.3395710622 -0.2633557632 0.339901305 -0.2633316755 -0.2217554724 0.1808522527
320298080.0 -0.2312458172 0.1885586037 0.3361814486 -0.2676453647 0.3368746615 -0.2676637393 -0.2198770549 0.1835573485
325298050.0 -0.2295092396 0.1909853116 0.333725479 -0.2715129054 0.3337031036 -0.2710719234 -0.2184085443 0.1857999026
330298020.0 -0.2276894007 0.1929200096 0.3301617479 -0.2747738934 0.3307705894 -0.2748067721 -0.2166071945 0.1883552226
335297990.0 -0.2255360099 0.1958976131 0.3270856811 -0.2784297082 0.3273555766 -0.2786283585 -0.2153850718 0.1910939891
340297960.0 -0.2243067197 0.198226743 0.3241058394 -0.282204438 0.3238945115 -0.2822456889 -0.2128807526 0.1929971317
345297930.0 -0.2223668076 0.2011942065 0.3210551566 -0.2860361873 0.3206572433 -0.2857588154 -0.2110613525 0.1952270414
350297900.0 -0.2203199467 0.2033204958 0.3173670839 -0.2895440536 0.3176622088 -0.2892193147 -0.209652524 0.1979146968
355297870.0 -0.2179061188 0.206131167 0.3142325782 -0.2929385601 0.3146811406 -0.2926913569 -0.2079324546 0.2003615663
360297840.0 -0.2163501547 0.2085639663 0.3116698954 -0.2962588132 0.3116977797 -0.2961635133 -0.205491583 0.2028958341
365297810.0 -0.2142108874 0.2109590622 0.3079049836 -0.2994365692 0.3083439896 -0.2996967835 -0.2034640036 0.2047862548
370297780.0 -0.2118260052 0.2133827641 0.3042767453 -0.3027920946 0.3047753725 -0.3027386051 -0.2012108084 0.2070870192
375297750.0 -0.209258203 0.2157243472 0.3011226105 -0.306457374 0.3015382577 -0.3063682208 -0.1991349432 0.2091889569
380297720.0 -0.2076727153 0.2177268068 0.2980376086 -0.3096882253 0.297841225 -0.309030185 -0.1975716765 0.2117497338
385297690.0 -0.2057449994 0.2202469836 0.2944692019 -0.312720489 0.294396732 -0.3127089921 -0.1949078645 0.2142862883
390297660.0 -0.2035737683 0.2227181083 0.2907448491 -0.3163391089 0.2906799604 -0.3155049768 -0.1930342833 0.2159699236
395297630.0 -0.200831614 0.2253240398 0.2870909389 -0.3193437221 0.2871249522 -0.3194111673 -0.1899690125 0.2182768484
400297600.0 -0.198806972 0.2273122402 0.2836070625 -0.3227199226 0.2838721046 -0.3223760863 -0.1878233474 0.2202418064
405297570.0 -0.1967230387 0.2294932391 0.2804686079 -0.3252867477 0.2803546722 -0.3251759639 -0.1863149745 0.2227196118
410297540.0 -0.1940786805 0.2316110062 0.2768161714 -0.3285829939 0.2773235541 -0.3283947678 -0.1837840521 0.2247649165
415297510.0 -0.1915960592 0.2337812944 0.2728692073 -0.3318856482 0.2729279316 -0.3314244186 -0.181362604 0.2266245969
420297480.0 -0.1895652555 0.2363761699 0.2697555115 -0.3344743596 0.2693112597 -0.3346762192 -0.1789923006 0.2291305195
425297450.0 -0.1868208777 0.2380700532 0.265978363 -0.3372523187 0.2662444019 -0.3376354209 -0.177175628 0.23137779
430297420.0 -0.1843858698 0.2404756574 0.2620109785 -0.339900993 0.261968956 -0.3401034648 -0.1743065253 0.2331107683
435297390.0 -0.1819251177 0.2423442551 0.258026188 -0.3429312934 0.2577597724 -0.3430506319 -0.1719297707 0.2351436647
440297360.0 -0.1792756545 0.2447147082 0.254506022 -0.3460775962 0.2544837227 -0.3458512985 -0.1696373724 0.2369354642
445297330.0 -0.1768662486 0.2464806743 0.2506800998 -0.3487868701 0.2504932478 -0.3484823907 -0.1672015493 0.2389734021
450297300.0 -0.1740923042 0.2484642574 0.247023109 -0.3516669994 0.2467531628 -0.3514888961 -0.1645668225 0.2409371005
455297270.0 -0.1716925525 0.2504370778 0.2425743859 -0.3538032803 0.2428506741 -0.3541939854 -0.1622799618 0.2426330744
460297240.0 -0.169671266 0.2523493468 0.2388654018 -0.3566124028 0.2392379285 -0.3564953348 -0.1596852949 0.2448384512
465297210.0 -0.1664115753 0.2544716392 0.2351661012 -0.3591614423 0.2353494814 -0.3594170528 -0.1571039393 0.2464149078
470297180.0 -0.163605478 0.2562327933 0.2307083526 -0.3615538789 0.2309298322 -0.3616240661 -0.1542192056 0.2485527656
475297150.0 -0.1611607895 0.2578792399 0.2267044208 -0.3635950074 0.2270212755 -0.3637450181 -0.1516310043 0.2498302269
480297120.0 -0.1583150129 0.2603539801 0.2227448188 -0.3667563227 0.2229022249 -0.3668497183 -0.1489734589 0.2517805314
485297090.0 -0.1558255908 0.2620973461 0.2191902627 -0.3688192966 0.2190435294 -0.3686429507 -0.1462468823 0.2535696802
490297060.0 -0.1534011845 0.2638513265 0.2151071203 -0.3714632214 0.215129765 -0.3712260532 -0.1441083929 0.2553812589
495297030.0 -0.1501992259 0.2656678327 0.2105543889 -0.3737863806 0.2112483244 -0.3734272639 -0.1414721223 0.257230863
500297000.0 -0.1474224557 0.2671384794 0.2064838152 -0.3756665329 0.2064929681 -0.3756027722 -0.1385758442 0.2593888798
505296970.0 -0.1446896423 0.2689038468 0.2022629011 -0.3775893455 0.2023535576 -0.3780567891 -0.1359109749 0.2605007203
510296940.0 -0.141948306 0.2707226754 0.198359642 -0.3802795542 0.1984379563 -0.3801820218 -0.1330424847 0.2619715305
515296910.0 -0.1388996041 0.2723276478 0.1939767837 -0.3823104975 0.1943504717 -0.3822871915 -0.1306383935 0.2635931143
520296880.0 -0.1360745699 0.273959335 0.1900105989 -0.384535288 0.1898707721 -0.3841782123 -0.1279608573 0.2646654611
525296850.0 -0.1331294105 0.2751367015 0.1853232087 -0.3864446162 0.186170916 -0.3863563694 -0.1251542879 0.266484251
530296820.0 -0.1304979778 0.2771302418 0.1812957279 -0.3884082103 0.1815142693 -0.3884955354 -0.1224956705 0.268108781
535296790.0 -0.1278944617 0.2785179457 0.1774522741 -0.3902857078 0.1773534948 -0.3895938608 -0.1200372159 0.2692621591
540296760.0 -0.1248477759 0.2798671357 0.1728144147 -0.3921624712 0.1731698774 -0.3922912465 -0.1169580661 0.270976545
545296730.0 -0.1219497083 0.2813642482 0.1685015691 -0.3937108163 0.1688293724 -0.3939029922 -0.1142477548 0.2719090096
550296700.0 -0.1186917573 0.282918763 0.1641953277 -0.3957422313 0.1645181962 -0.395819974 -0.1113215347 0.2733977629
555296670.0 -0.1158525358 0.2840636123 0.1600291872 -0.3973064669 0.1600644127 -0.3973015494 -0.1080264636 0.2750867176
560296640.0 -0.1128679703 0.2857414177 0.1555387637 -0.3991524387 0.1558698817 -0.3990286408 -0.1053476333 0.2760406415
565296610.0 -0.1100180477 0.286667943 0.1511011719 -0.4007699089 0.1518184103 -0.4005579514 -0.1024556945 0.2771063173
570296580.0 -0.1073809973 0.2878166194 0.147023117 -0.4026125087 0.1470309297 -0.402522745 -0.0997291124 0.2788262061
575296550.0 -0.1042446861 0.289735307 0.142498227 -0.4042487967 0.1425945615 -0.4040727711 -0.0965265983 0.2801051824
580296520.0 -0.1009928971 0.2907848257 0.1381651861 -0.4056229689 0.138395558 -0.4054623847 -0.0938078347 0.2808110302
585296490.0 -0.0980024038 0.2916303275 0.1339974547 -0.406707442 0.1338454272 -0.4070605793 -0.0907735858 0.2822582367
590296460.0 -0.0948512625 0.292819215 0.1294564853 -0.4078344107 0.1294007823 -0.4083118667 -0.0879802645 0.2833396198
595296430.0 -0.0918625217 0.2942086875 0.1246439332 -0.4097972582 0.1246301544 -0.4095259603 -0.0844967049 0.284099533
600296400.0 -0.0888274008 0.2952726723 0.1204352175 -0.4112869762 0.1202364834 -0.4105307751 -0.081830252 0.2854309738
605296370.0 -0.0860756711 0.2963562395 0.1159780234 -0.4121375106 0.1161752889 -0.4122925765 -0.0786194284 0.2863546905
610296340.0 -0.0825527541 0.2972905371 0.1111827683 -0.4132722367 0.1115919001 -0.4131929489 -0.0755504248 0.2874556128
615296310.0 -0.0792555388 0.298048936 0.1067147678 -0.4138851534 0.1067444629 -0.4148548884 -0.0724651218 0.2885972759
620296280.0 -0.0764979319 0.2989853481 0.1023718017 -0.415475355 0.1023961037 -0.4155196091 -0.0698775238 0.2894742816
625296250.0 -0.073388366 0.3001885882 0.0982734385 -0.4169513719 0.0977994201 -0.4167691954 -0.06609464 0.2902783987
630296220.0 -0.0695043185 0.3008551983 0.0925906427 -0.4177801666 0.0930157077 -0.4175974178 -0.0637412803 0.2913254263
635296190.0 -0.0670346718 0.3017438598 0.0887307036 -0.4183959282 0.0886738236 -0.4185753148 -0.0602431517 0.2920023466
640296160.0 -0.0637647883 0.3028902198 0.0842121075 -0.4194724915 0.0842483166 -0.4195115303 -0.057195859 0.2928069645
645296130.0 -0.0607131902 0.3039378919 0.0794525371 -0.4200545998 0.0797160508 -0.4202234977 -0.0541380735 0.293604642
650296100.0 -0.05745217 0.3045369459 0.0749177892 -0.4211188604 0.07506104 -0.4209143866 -0.0511942758 0.293910859
655296070.0 -0.0543024936 0.305144662 0.0702230052 -0.4216603006 0.0706992281 -0.4219902564 -0.0477924337 0.2948353992
660296040.0 -0.0512480664 0.3057590703 0.0658950893 -0.4227272006 0.0661242669 -0.4226466287 -0.0447911488 0.2957204506
665296010.0 -0.0477408091 0.306260374 0.0610031214 -0.4231736591 0.0611981262 -0.4230679627 -0.0417026979 0.2963366082
670295980.0 -0.0452551627 0.3074213696 0.0569801681 -0.4239111963 0.056647955 -0.4235897079 -0.0389705098 0.2966237956
675295950.0 -0.0415530178 0.3075301864 0.0520760601 -0.4239167954 0.0524347285 -0.4238647919 -0.0359041076 0.2973645746
680295920.0 -0.0381835829 0.3082431148 0.047258821 -0.424746336 0.0471409042 -0.4251668057 -0.0323046888 0.298686341
685295890.0 -0.0349454087 0.3092116805 0.0426165761 -0.4250400289 0.0429666593 -0.4254778676 -0.0293485542 0.2984994244
690295860.0 -0.0319789962 0.309186026 0.0383347446 -0.4251619942 0.0386967565 -0.4258648895 -0.0265211387 0.2996040347
695295830.0 -0.0287021774 0.3096646352 0.0338266598 -0.4255790818 0.0337731058 -0.4261088398 -0.0230775001 0.2991039933
700295800.0 -0.0254202661 0.309986735 0.0289622164 -0.4258563893 0.0286694875 -0.425977649 -0.0202986974 0.2999745627
705295770.0 -0.022395128 0.3109269468 0.0242055774 -0.4265762883 0.0245694993 -0.4267382417 -0.0169586235 0.3006409558
710295740.0 -0.0187164122 0.3111277025 0.0198288476 -0.4273957759 0.0200766918 -0.4268996692 -0.0138158046 0.3002472151
715295710.0 -0.0159345728 0.3110386827 0.0155995836 -0.4268301262 0.014978749 -0.4265474553 -0.0105033446 0.3004862151
720295680.0 -0.0121831795 0.3115124998 0.0105875032 -0.4269933064 0.0106383586 -0.4270995883 -0.0074798832 0.3012444694
725295650.0 -0.0088936525 0.3120634503 0.0056300237 -0.4269921458 0.0059981681 -0.4274017875 -0.0045829695 0.3017428593
730295620.0 -0.0054733427 0.3122858553 0.0010420374 -0.4267198028 0.0014482541 -0.4272787622 -0.0013194597 0.3013696802
735295590.0 -0.0029806202 0.3124866644 -0.0030981013 -0.4272052001 -0.0031142783 -0.4268007533 0.0017009604 0.301436512
740295560.0 0.0001714791 0.312732133 -0.0080063045 -0.426827016 -0.0080710108 -0.4270984996 0.0057083527 0.3019797778
745295530.0 0.0034781814 0.3126684535 -0.0120831305 -0.4263662324 -0.0125122696 -0.4265426689 0.0084244741 0.3017189476
750295500.0 0.0072824542 0.3129275643 -0.0172179097 -0.4264353239 -0.0166057414 -0.4266408487 0.0112766193 0.3015219538
755295470.0 0.0104040665 0.3128119953 -0.0215075049 -0.4263140667 -0.0217093844 -0.4264149496 0.0149564434 0.3015740766
760295440.0 0.0134814443 0.3125960742 -0.0264047355 -0.4260864969 -0.0263053679 -0.4262358766 0.0180843422 0.3016622045
765295410.0 0.0169175113 0.3128537272 -0.0310844539 -0.4253138283 -0.0311027302 -0.4256789106 0.0213228242 0.3019353018
770295380.0 0.0201174655 0.3126347553 -0.0360202393 -0.4250946577 -0.0358516484 -0.4252318345 0.0241969747 0.3014067919
775295350.0 0.0231340662 0.3122869463 -0.0405120991 -0.4246682036 -0.0398278265 -0.4250087402 0.0269223417 0.3015494685
780295320.0 0.0266694737 0.3125133615 -0.0447731752 -0.4238761891 -0.0442267603 -0.4241515175 0.0302665827 0.3012031511
785295290.0 0.0297068512 0.3117000232 -0.0492182466 -0.4233889091 -0.0492815276 -0.4237919629 0.0340100561 0.3013020972
790295260.0 0.0335633574 0.3123484374 -0.0536145731 -0.4230950296 -0.052970455 -0.4229628994 0.0370646161 0.3012156155
795295230.0 0.0362306007 0.3117203993 -0.0582998978 -0.4223843447 -0.0579126871 -0.42281223 0.0402209012 0.3007460059
800295200.0 0.0395626856 0.3114507964 -0.063303625 -0.4215150191 -0.0630272165 -0.4218680014 0.0436341633 0.3006779498
805295170.0 0.0430449658 0.3110678911 -0.067675204 -0.4208627926 -0.0676140052 -0.4210527053 0.0466726204 0.3003527054
810295140.0 0.0460927637 0.3106932701 -0.0718235968 -0.4197853862 -0.0718090233 -0.4203437269 0.0501056138 0.3000283361
815295110.0 0.0494657653 0.31040798 -0.076597585 -0.4191166734 -0.0761532708 -0.4193786165 0.0529562171 0.2995667506
820295080.0 0.0523177196 0.310062076 -0.0810408489 -0.4181922247 -0.0808188901 -0.418421632 0.0561773506 0.2992994671
825295050.0 0.0563939445 0.3094773107 -0.0852134871 -0.4173922677 -0.085471112 -0.4174098817 0.0593597468 0.2989001199
830295020.0 0.0593384347 0.3090976378 -0.0902891438 -0.4164480105 -0.0901003174 -0.4162550489 0.0631976984 0.2983119744
