!Created with skrf (http://scikit-rf.org).
# Hz S RI R 50.0 
!freq ReS11 ImS11 ReS21 ImS21 ReS12 ImS12 ReS22 ImS22
300000.0 -0.7750023625 -0.1036572557 0.0001546225 0.0009086975 0.0015203127 -0.0002302057 -0.0510631597 -0.0599296765
5299970.0 -0.7851856467 -0.0054514231 9.82436e-05 -5.18396e-05 0.0001138035 1.89425e-05 -0.0499341903 0.0154546094
10299940.0 -0.7877935044 -0.0035829673 -0.0001418595 -6.0334e-06 -6.49026e-05 7.32795e-05 -0.0442396402 0.0337709833
15299910.0 -0.7932815368 -0.0023045956 3.0792e-05 -0.0001128566 -9.5539e-05 2.57092e-05 -0.0355895067 0.0481698214
20299880.0 -0.7998738293 0.0021731873 0.0001171548 -0.0002513336 7.93701e-05 -1.38144e-05 -0.0251603732 0.0600326221
25299850.0 -0.8069550665 0.0082626496 5.48188e-05 -7.214e-05 -2.046e-06 8.75298e-05 -0.0140232535 0.0694121154
30299820.0 -0.8124199554 0.0154983706 -0.0001722332 -2.63999e-05 0.0001863631 9.07408e-05 -0.0024801603 0.0760333513
35299790.0 -0.8174965402 0.0247222162 -0.0001312397 -3.51977e-05 1.07907e-05 7.03699e-05 0.0092710094 0.0808143084
40299760.0 -0.8218591693 0.0341429777 -2.90153e-05 -2.50267e-05 2.71155e-05 0.0002208889 0.0206658775 0.0835941845
45299730.0 -0.8247096289 0.0434777518 -0.0002491817 -5.24978e-05 6.40307e-05 5.52192e-05 0.03133115 0.0850819869
50299700.0 -0.8270755128 0.053381329 2.7063e-06 -0.0002588265 5.8815e-05 9.1287e-05 0.0417755556 0.0846750231
55299670.0 -0.82911404 0.0633294001 -1.85128e-05 -0.0002966873 -0.0001082691 6.89504e-05 0.0506448102 0.083561266
60299640.0 -0.8303569232 0.0733353328 -0.0001126801 0.0001682794 7.28581e-05 4.1087e-05 0.059637141 0.0814170736
65299610.0 -0.8309507921 0.0830808087 0.0002184438 0.0002151521 0.0001109229 -3.01705e-05 0.0670126723 0.0790288559
70299580.0 -0.8316926603 0.0934427189 -0.0001052053 -8.85215e-05 -0.0001260493 7.74388e-05 0.0738865757 0.0760244057
75299550.0 -0.8319871571 0.1037519695 -0.0001499418 -0.000214244 0.0001364267 2.96561e-05 0.0806280298 0.0723335846
80299520.0 -0.8317367935 0.1134969301 -0.0001261809 0.000188402 0.0001362895 7.60504e-05 0.0859074239 0.0689988519
85299490.0 -0.8307256718 0.122695271 0.000547032 0.0001295266 -7.53579e-05 -0.0001261248 0.0910436481 0.0649473755
90299460.0 -0.8302188127 0.1322950444 0.0003784231 -7.7412e-05 -5.50972e-05 -2.92593e-05 0.095710735 0.0608925771
95299430.0 -0.8293494695 0.1420208369 -3.91888e-05 -5.89429e-05 -9.44883e-05 4.6121e-05 0.0995175613 0.0571147682
100299400.0 -0.8286576683 0.1507950506 -1.33578e-05 0.000161179 0.0001718699 3.67725e-05 0.1036405433 0.0527595453
105299370.0 -0.8270216313 0.1604261455 -0.0001257738 4.81066e-05 0.0001451853 -4.58392e-05 0.1070542422 0.0483951981
110299340.0 -0.8251343822 0.1701717623 4.84429e-05 0.0001803374 4.51046e-05 3.2151e-06 0.1094369027 0.044725551
115299310.0 -0.8239792104 0.178489198 0.0001257467 -9.23316e-05 -0.0001227131 0.0001224972 0.1120505996 0.0406525905
120299280.0 -0.8218123643 0.1875522768 -0.0001435956 -0.0002501638 -1.76881e-05 -1.89178e-05 0.1145855688 0.0366262826
125299250.0 -0.8206762125 0.1959356058 0.0001367563 5.7006e-06 1.60671e-05 5.75916e-05 0.1162479169 0.0327432407
130299220.0 -0.8187957759 0.2056672303 -4.68223e-05 3.65385e-05 -4.48952e-05 2.80891e-05 0.1181647879 0.0288330611
135299190.0 -0.8167952985 0.2139291623 -3.04907e-05 9.20337e-05 -6.60067e-05 0.0001214851 0.1197068457 0.0249512571
140299160.0 -0.8145081231 0.2232176158 -2.18826e-05 0.0003262578 1.40465e-05 4.651e-06 0.1209714169 0.0214612659
145299130.0 -0.8128343244 0.2323407194 9.5703e-05 0.0002986691 0.0001017183 9.86516e-05 0.122057821 0.0178564732
150299100.0 -0.8106693637 0.2412410035 -2.26732e-05 -1.3134e-06 -0.0001340694 1.29747e-05 0.122857639 0.0148237578
155299070.0 -0.808164021 0.2496433602 0.0002434422 5.95735e-05 2.87217e-05 3.47583e-05 0.1239935415 0.0114936499
160299040.0 -0.8051326569 0.2581736624 0.0001357462 -4.77324e-05 9.6051e-05 -0.00015783 0.1242350056 0.007734871
165299010.0 -0.8030925898 0.2668397846 7.12633e-05 0.0001403027 0.0001662474 -7.1554e-06 0.1247867935 0.0046338355
170298980.0 -0.7999420223 0.2756881956 -3.82604e-05 3.52796e-05 2.94345e-05 0.0001676371 0.1253259355 0.0015767545
175298950.0 -0.7972527375 0.2842237259 -0.0002304552 -5.834e-05 -7.2753e-06 7.18934e-05 0.1250936596 -0.0013463042
180298920.0 -0.7948535819 0.2929686508 -0.0001070719 2.2872e-06 8.35128e-05 6.94364e-05 0.1256159195 -0.0040331329
185298890.0 -0.7913277128 0.30092461 8.45211e-05 -0.0001992916 0.0002162196 -1.65915e-05 0.1256081415 -0.0071563623
190298860.0 -0.7888595157 0.3097140313 0.0001228221 4.02657e-05 -0.0001141049 -0.0001095349 0.1254016388 -0.0099313584
195298830.0 -0.7851338764 0.3176839857 -6.0122e-05 8.75448e-05 0.0001491202 5.586e-06 0.1251279596 -0.0130386854
200298800.0 -0.7812416978 0.3263069112 -0.0001028601 9.29409e-05 0.0001387397 -8.35459e-05 0.1249423501 -0.0159191226
205298770.0 -0.7787583252 0.3343868788 1.7967e-06 0.0002371637 2.71066e-05 9.72269e-05 0.1244430101 -0.0187555811
210298740.0 -0.7749355863 0.3425014444 0.0001781806 -0.0001204339 -3.74869e-05 0.0001518058 0.1240398819 -0.0210765204
215298710.0 -0.7716235818 0.3508142262 0.0001438731 -0.0001088657 0.0001148862 0.0001599545 0.1235869707 -0.0237599496
220298680.0 -0.7674267028 0.3590906889 3.19565e-05 -0.0001568519 -0.0001159558 7.06809e-05 0.1230466948 -0.0265709889
225298650.0 -0.7644977067 0.3666513744 5.11957e-05 0.0002400325 7.55597e-05 -0.0001108704 0.1220380848 -0.0288468453
230298620.0 -0.7607438996 0.3748936267 4.22338e-05 8.74812e-05 -0.0001814659 -4.01549e-05 0.1217112574 -0.0313087321
235298590.0 -0.7564407118 0.3830563602 0.0001194832 0.0002072512 -3.2727e-05 -0.0001171428 0.1211167776 -0.0337111771
240298560.0 -0.7525691964 0.3913349634 -9.22737e-05 0.0002045788 0.0001249837 7.11959e-05 0.1203854043 -0.0359439885
245298530.0 -0.7485007785 0.3989432172 6.86311e-05 3.19894e-05 -2.69869e-05 2.85598e-05 0.1197139792 -0.0385592565
250298500.0 -0.74417943 0.4073613931 0.0001882747 -0.0001690382 0.0002150083 4.39158e-05 0.1186341771 -0.0407650179
255298470.0 -0.7394919223 0.4142168315 4.28286e-05 -8.60239e-05 4.46915e-05 -4.6249e-06 0.1178927925 -0.0433323716
260298440.0 -0.7354748876 0.4217105671 -4.2991e-05 -1.13279e-05 6.73893e-05 0.0001740571 0.1172853502 -0.0452681365
265298410.0 -0.7313696764 0.4301047489 -1.66577e-05 5.60444e-05 0.0001740591 0.0001678193 0.1165711107 -0.0474418127
270298380.0 -0.7271522985 0.4375704168 0.0002695582 7.071e-07 1.22607e-05 1.71124e-05 0.1155354485 -0.0494918121
275298350.0 -0.7215513533 0.4447841453 0.0001948679 0.0001606325 0.0002449936 4.74478e-05 0.1147361081 -0.051474483
280298320.0 -0.7169200577 0.4527308461 6.54602e-05 4.33023e-05 0.0001410356 0.0001661821 0.1137463805 -0.0535892331
285298290.0 -0.7125559099 0.4601022118 0.0001214113 0.0001393616 -4.05299e-05 0.0001600763 0.1129098032 -0.0556611738
290298260.0 -0.7078851595 0.4674968099 -5.28787e-05 -0.0001133231 5.42189e-05 0.0001063596 0.1120918347 -0.057275855
295298230.0 -0.7024110719 0.4743300627 0.0001266203 -9.03687e-05 0.0001326071 -0.0002118618 0.1114619665 -0.0596574804
300298200.0 -0.6979788889 0.4817744941 -6.22748e-05 4.40122e-05 0.000354219 0.000123015 0.1103351277 -0.061528624
305298170.0 -0.6925979693 0.4885176775 3.59593e-05 3.63712e-05 9.66304e-05 -0.0001541916 0.1095802175 -0.0636588697
310298140.0 -0.6875789687 0.496513292 0.0001323286 4.0546e-06 -3.58221e-05 4.20756e-05 0.1080230949 -0.0656866569
315298110.0 -0.6823950413 0.5034372131 0.0001650208 0.0003206726 0.0001715346 4.92047e-05 0.1069601659 -0.0671900873
320298080.0 -0.6772625566 0.5103085075 -5.25032e-05 -0.0001008686 -1.04266e-05 -0.0001062083 0.1059060216 -0.0692593836
325298050.0 -0.672126065 0.5174640569 -3.39309e-05 -9.32944e-05 8.96333e-05 -7.10606e-05 0.104320528 -0.0713549142
330298020.0 -0.666464482 0.5241220469 0.0001619747 7.7526e-05 -2.27391e-05 0.0001166273 0.102482701 -0.0725521647
335297990.0 -0.6607185053 0.5305985471 0.0002272162 0.0001208143 0.0001297887 0.0001047845 0.1013535247 -0.0738063683
340297960.0 -0.6559291797 0.537991025 -3.09283e-05 0.0002495324 -1.6583e-06 6.78414e-05 0.1004286768 -0.0753541865
345297930.0 -0.6501356873 0.544515881 0.0001255227 7.44932e-05 0.0001819031 0.0001989388 0.0985399338 -0.0768353041
350297900.0 -0.6440941287 0.5507938864 -0.0002546231 0.0001399134 6.19009e-05 1.72311e-05 0.0973301808 -0.077540676
355297870.0 -0.6380631485 0.5580375763 0.0002011542 7.6602e-05 3.97582e-05 -6.2243e-05 0.0959344734 -0.0791686579
360297840.0 -0.6327096992 0.5637449823 -2.53106e-05 -0.0001701939 -1.04567e-05 9.5749e-06 0.0944343712 -0.0807863842
365297810.0 -0.6268571089 0.5706293325 -1.55635e-05 0.000205169 0.0004597369 0.0001102413 0.093323319 -0.0820815281
370297780.0 -0.6207231735 0.576834734 -6.86251e-05 -8.4526e-06 0.0001509196 -0.0001737999 0.0919650057 -0.0830798832
375297750.0 -0.6143159843 0.5835601368 0.000114034 0.0001049579 0.0002678741 0.0002474631 0.0901375808 -0.084686162
380297720.0 -0.6089844519 0.5894296696 -1.26e-07 -8.24259e-05 0.0001406441 0.0001076135 0.0882935561 -0.0856724433
385297690.0 -0.6036160614 0.595526084 0.0001135646 0.0001083492 0.0001406149 0.0001159414 0.0874246342 -0.0870951316
390297660.0 -0.5966783543 0.6015168114 -1.50162e-05 0.0001209739 -3.98536e-05 0.0001165678 0.085629897 -0.08797758
395297630.0 -0.5900770738 0.6081042997 0.0002086556 0.0003168472 -2.0941e-05 0.0002809875 0.0846035216 -0.0891606264
400297600.0 -0.583874942 0.6142176637 2.99055e-05 7.78578e-05 -2.67111e-05 6.33985e-05 0.0829117855 -0.0903871892
405297570.0 -0.5776082163 0.6198476225 9.7865e-06 8.4065e-06 0.0001936655 -2.95829e-05 0.0814747479 -0.0916900682
410297540.0 -0.5710457361 0.6251246388 8.16833e-05 0.0001222569 3.1153e-06 0.0001315551 0.0797672365 -0.0926340283
415297510.0 -0.564506594 0.6310545422 0.0002842469 0.0002491888 4.45052e-05 -0.0001506267 0.0782746276 -0.0938955636
420297480.0 -0.559161434 0.6371523577 3.36571e-05 -0.0001569731 1.1054e-05 -0.0002072663 0.0768562441 -0.0950803336
425297450.0 -0.5514799009 0.6426048076 0.000123481 1.73107e-05 9.44155e-05 -3.69714e-05 0.0752661581 -0.0961206783
430297420.0 -0.545091335 0.6481920178 2.71514e-05 -0.0001401061 0.0003269979 0.0001021056 0.07349513 -0.0975052286
435297390.0 -0.5386197419 0.6532320231 -1.49183e-05 3.83919e-05 0.0001333254 0.000250845 0.0723796888 -0.0981434501
440297360.0 -0.5320963587 0.658979186 7.62995e-05 0.0001276766 0.000231537 -4.63805e-05 0.0705037515 -0.0992035211
445297330.0 -0.5248334244 0.6646771043 8.32658e-05 -8.28408e-05 0.0001754018 6.17169e-05 0.069158004 -0.1004679399
450297300.0 -0.5180529853 0.6693393103 0.0001635079 -0.0001043929 0.0001438557 4.68785e-05 0.0676043788 -0.101167497
455297270.0 -0.5113365377 0.6743243716 -1.7817e-05 0.0002484461 5.1606e-05 0.0001560613 0.0658479836 -0.1023713671
460297240.0 -0.5051229773 0.6797963077 0.0001589862 0.0001325974 0.0003587825 1.44172e-05 0.0646086698 -0.1030495288
465297210.0 -0.4976540575 0.6851973788 0.0001547027 9.32814e-05 0.0002905925 -0.0001021435 0.0630790291 -0.1038498731
470297180.0 -0.4898986484 0.6897066492 0.0005066362 -6.90681e-05 6.92413e-05 -6.56371e-05 0.0615385381 -0.1046347439
475297150.0 -0.4828909943 0.694949001 -5.6177e-06 7.0106e-05 3.51552e-05 0.0001119789 0.0600496968 -0.1055042525
480297120.0 -0.4765086882 0.7000086097 0.0001616023 0.0002180226 8.95e-05 -8.24771e-05 0.0588070922 -0.1060610179
485297090.0 -0.4691501141 0.7041428188 2.6072e-05 9.71516e-05 0.0002385865 -0.0001019837 0.0571425602 -0.1067377385
490297060.0 -0.4617590365 0.7087073391 6.45663e-05 -3.88509e-05 7.26598e-05 -0.0002309711 0.055334379 -0.1077851101
495297030.0 -0.4551862794 0.7131075188 0.0001141486 7.22509e-05 -2.53377e-05 0.0001399239 0.0538150658 -0.1079937279
500297000.0 -0.4474463621 0.7184759293 8.71939e-05 5.16783e-05 0.0002456574 -0.0001032242 0.0524870169 -0.1088079771
505296970.0 -0.4401615413 0.7223465886 8.8499e-06 -3.57497e-05 2.34487e-05 -0.0001286364 0.0505343388 -0.1095916052
510296940.0 -0.4324472168 0.7268938273 0.0001260613 -2.10091e-05 0.000107216 6.99741e-05 0.0488473689 -0.1099058782
515296910.0 -0.4245999602 0.7310676189 4.46835e-05 -0.0002044325 0.0001824343 -0.0001288397 0.0474430679 -0.1102642043
520296880.0 -0.4178859447 0.735318037 0.0001627115 0.000126299 0.0001526865 -0.0001209968 0.0456534712 -0.1108982257
525296850.0 -0.4101404115 0.7392576853 0.0001858877 0.000113918 9.65602e-05 -0.0001738215 0.0442222577 -0.1114103491
530296820.0 -0.4024561051 0.7433363357 0.0001378419 3.5841e-06 0.000130593 0.0001389825 0.0423499776 -0.1115812477
535296790.0 -0.3959189314 0.7470593981 -0.0001035514 -6.3189e-05 0.0002191467 8.68537e-05 0.0402907622 -0.1123576641
540296760.0 -0.3881377678 0.7506063511 -4.42466e-05 -6.42828e-05 1.403e-05 1.12313e-05 0.0387213439 -0.1126731981
545296730.0 -0.3807858335 0.7555019926 0.000241624 -4.16509e-05 0.0001265804 -8.00067e-05 0.0372870997 -0.1129459559
550296700.0 -0.3730311367 0.7589177044 -0.0001383754 1.33978e-05 0.000138451 -0.000112643 0.0351484691 -0.1133034327
555296670.0 -0.3649014242 0.7617418526 -3.69705e-05 -2.17198e-05 0.0003111399 0.0001177801 0.0336641007 -0.1135668576
560296640.0 -0.3570597887 0.7662815009 4.35967e-05 -5.50738e-05 0.0001355876 -8.4471e-06 0.031865697 -0.1137558424
565296610.0 -0.3490940543 0.7701911682 5.35671e-05 0.0001425358 5.5712e-05 5.331e-06 0.0302944357 -0.1144321282
570296580.0 -0.341868641 0.772720238 -0.000144026 9.79061e-05 0.0001751135 0.0003056856 0.0283478806 -0.1146475734
575296550.0 -0.3341733683 0.7770840969 0.0001717574 -1.4521e-06 0.000169459 0.0001033884 0.0267644305 -0.1146507521
580296520.0 -0.3258515533 0.7796890841 2.63314e-05 -9.35454e-05 0.0001453966 0.0001883559 0.0252191835 -0.1154182944
585296490.0 -0.3181850142 0.7829591735 5.03877e-05 -9.39918e-05 0.0003043687 -0.0001414225 0.0237055752 -0.1157200523
590296460.0 -0.3102757717 0.7862331426 0.0001922547 -1.29935e-05 0.0002398002 0.0001666737 0.0215237248 -0.1156197896
595296430.0 -0.3028983579 0.7884792114 -1.22707e-05 5.33797e-05 0.0001152115 -0.0001196983 0.0198463275 -0.1161743258
600296400.0 -0.2944772101 0.7920865011 0.000160156 0.0001319361 0.000149733 0.0001113013 0.0184381027 -0.1162705865
605296370.0 -0.2872858334 0.7947344201 0.0003579058 -0.0001320026 9.15655e-05 -0.00014225 0.0166362861 -0.1163070389
610296340.0 -0.2784435262 0.7969074445 0.0002338263 -0.0001293601 0.000112436 0.0001542973 0.0149804961 -0.1163755159
615296310.0 -0.2700432519 0.7999441597 -3.66681e-05 9.9747e-06 0.0001389786 0.0001305282 0.0134747887 -0.1166441859
620296280.0 -0.2626276807 0.8027318925 0.000320592 3.9773e-06 0.0002099054 5.45601e-05 0.0116569639 -0.116757849
625296250.0 -0.2541855179 0.8051239702 5.8062e-06 -7.21061e-05 0.0002099175 -8.19284e-05 0.0101408871 -0.1171679807
630296220.0 -0.2457926192 0.8082568503 0.0002477288 -0.0001999443 0.0001453078 -0.0001882635 0.008200442 -0.1168544218
635296190.0 -0.238403471 0.8102024955 0.0001109506 -0.0001731589 8.03869e-05 1.17876e-05 0.0066655019 -0.1170630352
640296160.0 -0.2309690076 0.8125220648 -0.0001188575 -7.4419e-05 0.0001976251 0.0001071073 0.0048052672 -0.117098639
645296130.0 -0.2223649743 0.8151311767 0.0002618272 -0.0002423216 5.64363e-05 -7.43713e-05 0.0034913064 -0.1167145781
650296100.0 -0.2139066354 0.8164185173 0.000124534 -0.0001894518 0.0002488087 6.45933e-05 0.0018432827 -0.1168287414
655296070.0 -0.2058762164 0.8187562426 9.00571e-05 0.0002277758 -8.18574e-05 7.57854e-05 0.0004594297 -0.1166488533
660296040.0 -0.197571492 0.8205789068 -4.25521e-05 6.0673e-05 -0.0001495167 0.0001650159 -0.0012307968 -0.1165503579
665296010.0 -0.1889624976 0.8224607848 0.0003186857 -6.53144e-05 3.9822e-06 -2.52438e-05 -0.0031899128 -0.116175008
670295980.0 -0.181549264 0.8248412986 6.26326e-05 -0.0001158093 0.0001960815 -0.0001073752 -0.0047234439 -0.116432368
675295950.0 -0.1729581545 0.8261753272 7.10847e-05 4.14827e-05 0.0002773151 -0.0001042912 -0.0062444514 -0.115597393
680295920.0 -0.1644533661 0.8279469069 0.0002930546 -0.0001793641 -4.98307e-05 -0.0001209029 -0.0074370502 -0.1158759885
685295890.0 -0.156457304 0.8298457457 0.0002117509 -0.0001976167 9.68453e-05 9.1523e-06 -0.0096577797 -0.1152533897
690295860.0 -0.1482456053 0.831152088 6.11615e-05 -7.27907e-05 1.86357e-05 4.70978e-05 -0.0114203511 -0.114477869
695295830.0 -0.1406723892 0.8323528535 0.0004216518 0.0001341101 0.0002583333 -0.0001437171 -0.0128646072 -0.1142485841
700295800.0 -0.1314445662 0.8339876737 0.0004277194 1.56941e-05 5.44753e-05 -2.35709e-05 -0.0147199249 -0.1143909584
705295770.0 -0.1239802702 0.834966522 0.0002581854 0.0003247083 0.0001316807 6.01971e-05 -0.0165921908 -0.1130859509
710295740.0 -0.1153331384 0.8360065574 0.0001792411 -4.59722e-05 0.0001507613 -0.0001462681 -0.017965526 -0.1131806747
715295710.0 -0.1069951191 0.8371631451 6.59753e-05 -0.0001627525 0.0002214934 1.25367e-05 -0.019869994 -0.1129835424
720295680.0 -0.0987384816 0.8385156948 0.0001576494 -8.00436e-05 0.0002626742 7.90916e-05 -0.021335549 -0.1122728472
725295650.0 -0.0902425151 0.840015353 -9.91225e-05 8.57267e-05 0.000365791 9.0721e-05 -0.0229884807 -0.1117990518
730295620.0 -0.081543727 0.8404660588 1.516e-05 0.0001227851 0.0001285166 -1.67747e-05 -0.0249860095 -0.111356837
735295590.0 -0.0740257384 0.8410872511 0.0001978981 -6.8458e-06 0.0001242587 -4.96937e-05 -0.0268813384 -0.1109156853
740295560.0 -0.0654584693 0.8421134685 0.0004989698 -4.75902e-05 0.0002769154 -9.4852e-06 -0.0279566486 -0.1106127678
745295530.0 -0.0572827834 0.8426775188 0.0001749934 3.59247e-05 -0.0001387332 5.9669e-05 -0.0297211948 -0.1100926476
750295500.0 -0.0484497435 0.842834845 0.0002685361 -2.52117e-05 -4.38454e-05 -0.000151489 -0.0311950833 -0.1097293895
755295470.0 -0.0401230164 0.8431371225 1.12979e-05 2.59446e-05 0.0001014962 -3.18823e-05 -0.0330194936 -0.1095115416
760295440.0 -0.031874616 0.8432457143 -3.0188e-05 0.0001062986 0.0001570118 9.1636e-06 -0.0344642159 -0.1086239561
765295410.0 -0.0234950134 0.8437765883 0.0001423613 6.6723e-05 0.0002596083 -4.19053e-05 -0.0361781844 -0.1077172807
770295380.0 -0.0151658815 0.8439112513 -0.000205891 -2.579e-05 2.99745e-05 0.0001718604 -0.0381100218 -0.1075565265
775295350.0 -0.0067441363 0.8440271453 6.827e-07 7.68404e-05 8.38511e-05 -0.000188258 -0.039501865 -0.1068279272
780295320.0 0.0013084658 0.8442246462 0.0002011237 -2.37516e-05 0.0001464134 -0.0003023426 -0.0409860279 -0.1065014561
785295290.0 0.0097224657 0.843321361 0.0001342742 -2.14439e-05 4.20193e-05 9.0221e-05 -0.0422102476 -0.1057978714
790295260.0 0.0185082092 0.8436165789 0.0001618336 -0.0001175306 0.0001642741 -7.5915e-06 -0.0432648116 -0.104889899
795295230.0 0.0259585653 0.8431135835 0.0002339002 -2.73547e-05 0.0003086284 -6.62712e-05 -0.045080149 -0.1043307668
800295200.0 0.0348358401 0.8432540644 2.86445e-05 -9.39248e-05 0.0001884099 -0.0001280261 -0.0468166234 -0.1036249807
805295170.0 0.0436968496 0.8430741261 0.0002355421 0.0001821887 7.6551e-05 -6.6775e-05 -0.0481593375 -0.1026119418
810295140.0 0.0515337284 0.8422790808 0.000197483 -0.0001913143 4.55841e-05 -0.0001394917 -0.0492678028 -0.102426565
815295110.0 0.0596372536 0.8415854578 0.0001315156 -6.60378e-05 5.68459e-05 -0.0001929087 -0.0512242238 -0.1014139274
820295080.0 0.0679449021 0.8411462094 0.0002479363 6.76071e-05 3.67751e-05 3.41133e-05 -0.0519243544 -0.1002660428
825295050.0 0.077230936 0.8399603123 9.80751e-05 -8.07006e-05 0.0002117394 -8.74416e-05 -0.0537094748 -0.099853697
830295020.0 0.0845380109 0.8396728439 0.0001398578 5.02669e-05 -6.26541e-05 -9.65688e-05 -0.0548330089 -0.0985832558
835294990.0 0.0928421093 0.8385441735 9.99004e-05 -0.0002021065 0.000278429 -0.0001820997 -0.056411847 -0.0979958715
840294960.0 0.1007687409 0.8380921887 0.0001630251 -3.23806e-05 0.000161484 5.98759e-05 -0.0578801872 -0.0969284268
845294930.0 0.1086525819 0.8366317889 0.0001831216 0.0002346509 0.0002051603 -5.18681e-05 -0.0594579436 -0.0960469594
850294900.0 0.1177285754 0.8356457042 0.0002107077 -0.0002069198 7.70551e-05 -0.0002069513 -0.0606103442 -0.0944536227
