!Created with skrf (http://scikit-rf.org).
# Hz S RI R 50.0 
!freq ReS11 ImS11 ReS21 ImS21 ReS12 ImS12 ReS22 ImS22
300000.0 -0.7719856866 -0.1406508956 -0.0005827466 0.0011437515 -0.0006442031 1.08479e-05 0.8603162616 -0.0020428779
5299970.0 -0.7854094854 -0.0069616675 4.72496e-05 0.000101827 4.5214e-05 0.0001005805 0.8589918968 -0.0100569418
10299940.0 -0.7872910856 -0.0040587184 -5.1344e-05 9.8653e-06 -2.33668e-05 6.72991e-05 0.8581396703 -0.0181028656
15299910.0 -0.7934254779 -0.0016978178 6.51248e-05 1.422e-06 3.53751e-05 0.0001776359 0.8570088772 -0.0273479678
20299880.0 -0.7994432387 0.0020416967 4.11784e-05 1.57356e-05 2.16817e-05 -2.61079e-05 0.8568978066 -0.0361249318
25299850.0 -0.8060462314 0.0088627397 -7.54305e-05 -2.6659e-05 -5.49828e-05 -7.79378e-05 0.8556144822 -0.0438987278
30299820.0 -0.8119193084 0.0162649164 -0.0001658619 0.0001900754 5.95063e-05 0.0001063571 0.8552361869 -0.0525061211
35299790.0 -0.8166305518 0.025187336 6.25603e-05 -0.0001089357 0.0002638849 0.0001146132 0.8543032643 -0.0604980266
40299760.0 -0.8215656204 0.0343537577 5.341e-05 -0.0001249096 8.28073e-05 0.0001407803 0.8538377164 -0.0687215149
45299730.0 -0.8247212234 0.0437493101 -3.12349e-05 -8.34633e-05 0.0001661903 -0.0001569435 0.8531033479 -0.0768439331
50299700.0 -0.8271664934 0.0536992786 6.58928e-05 -2.65741e-05 8.1786e-05 0.0001244002 0.8516663754 -0.0852330259
55299670.0 -0.8289644266 0.0642037411 -0.0001580871 8.91922e-05 4.81643e-05 3.38199e-05 0.850417883 -0.0935215752
60299640.0 -0.8299949449 0.074246194 6.8503e-05 9.12754e-05 4.10197e-05 5.48438e-05 0.8498667532 -0.1019758423
65299610.0 -0.8311658157 0.0846736344 -1.82769e-05 0.0001200888 -5.82268e-05 -9.45578e-05 0.8483030056 -0.1102983503
70299580.0 -0.8314382404 0.0947968073 -1.85111e-05 9.57314e-05 0.0001074354 -9.36303e-05 0.8476562544 -0.1187793756
75299550.0 -0.8317521855 0.1049252645 -6.55894e-05 -8.82162e-05 -6.74783e-05 -1.69965e-05 0.8466516772 -0.1266652194
80299520.0 -0.8314679037 0.1145220052 2.1595e-05 -4.95818e-05 -3.9523e-06 0.0001534163 0.8450942275 -0.1346468578
85299490.0 -0.8308283401 0.1237958192 -1.41062e-05 2.37006e-05 -3.66416e-05 9.9378e-05 0.8435334455 -0.1429675547
90299460.0 -0.8298976277 0.1339159901 5.5907e-05 0.0002016996 1.80872e-05 6.92578e-05 0.8420098498 -0.1511279981
95299430.0 -0.8286752475 0.1433150416 8.262e-06 8.9754e-06 0.0003337548 -5.9369e-05 0.8402287282 -0.1597372013
100299400.0 -0.8277370907 0.1529233399 5.28114e-05 -0.0001014475 8.7922e-06 -1.44449e-05 0.8387268843 -0.1676157096
105299370.0 -0.8265552579 0.16189731 -0.0001710804 -4.47904e-05 -5.37105e-05 -2.35054e-05 0.8372067315 -0.1763008944
110299340.0 -0.8254281612 0.1711193917 -4.18859e-05 -4.88277e-05 -0.0001587991 2.59475e-05 0.8354869917 -0.1836491389
115299310.0 -0.8234865389 0.1806961534 -0.0002495248 -6.11056e-05 1.94125e-05 -5.78361e-05 0.8334062781 -0.1925593316
120299280.0 -0.8220659812 0.1894455008 -0.000168834 0.0001868162 -7.39923e-05 -1.75086e-05 0.8313406998 -0.1998723461
125299250.0 -0.8206121839 0.1988560495 -8.37862e-05 0.0001405751 -2.0846e-06 -4.18074e-05 0.8291028342 -0.2082038897
130299220.0 -0.8184797257 0.2079986088 -0.0001761196 -3.30177e-05 -9.52602e-05 0.0001318676 0.8272042086 -0.2165111418
135299190.0 -0.8167653607 0.2165327076 -2.33124e-05 -3.08094e-05 0.000141481 -0.0001929497 0.8252574154 -0.2247451494
140299160.0 -0.8143347578 0.2250811914 1.04509e-05 2.08379e-05 -3.05492e-05 -8.46754e-05 0.8231430912 -0.2326590472
145299130.0 -0.8120660776 0.2341939305 -0.0002721931 0.0001151194 -0.000105957 1.92526e-05 0.8207348209 -0.2411977869
150299100.0 -0.8101115728 0.2431694166 -0.0001342967 -7.59142e-05 0.0001242864 -0.0001624553 0.8178642059 -0.2488672526
155299070.0 -0.807638077 0.2522837831 9.73948e-05 2.1509e-05 1.37941e-05 -6.6583e-06 0.8153236074 -0.256150696
160299040.0 -0.8053213467 0.2611361331 3.15624e-05 -0.0002331568 -0.0002282003 9.02513e-05 0.8130245153 -0.264362727
165299010.0 -0.8019898103 0.2690859263 -0.0002428044 -0.0001204361 -0.0001416882 0.0002492443 0.8111134403 -0.2729834166
170298980.0 -0.7999605232 0.2781018792 -6.07526e-05 -2.0369e-05 1.85932e-05 -1.53472e-05 0.8074875216 -0.2804109256
175298950.0 -0.7967045612 0.2872696888 6.51189e-05 0.0001281781 7.69948e-05 6.1542e-05 0.8045053613 -0.2885002348
180298920.0 -0.7935807057 0.2948736321 -5.72804e-05 -2.95658e-05 -3.9107e-05 0.0001332938 0.8020264021 -0.2961433424
185298890.0 -0.7907781827 0.3042846379 -0.00011253 -8.77788e-05 0.0001646054 -3.96354e-05 0.7991272017 -0.3042301215
190298860.0 -0.7876420941 0.3122612299 -8.57028e-05 0.000143067 -0.0001016674 0.0001116246 0.796315905 -0.3117687281
195298830.0 -0.7839729044 0.321349895 0.0001322688 -0.0001782416 1.44205e-05 -0.0001406895 0.7930043717 -0.3193542063
200298800.0 -0.7809902817 0.329740471 0.0001731563 0.000244051 -4.80357e-05 8.01026e-05 0.7902107422 -0.3279756552
205298770.0 -0.7775130402 0.3378087364 9.97462e-05 2.16213e-05 5.57482e-05 8.11016e-05 0.7864480149 -0.3349149978
210298740.0 -0.7736137704 0.3460472769 6.00204e-05 0.0002247291 1.69005e-05 3.23029e-05 0.7832215662 -0.3429834178
215298710.0 -0.7705705702 0.354080605 -7.03323e-05 -0.0002308215 -6.27234e-05 2.78072e-05 0.7796163474 -0.3496769912
220298680.0 -0.7669963993 0.3623262268 -0.0002106013 -7.21923e-05 4.66042e-05 -7.9683e-06 0.7762631978 -0.3575026487
225298650.0 -0.7630143334 0.3708236444 -7.5694e-05 0.000124267 5.2156e-05 8.58471e-05 0.7727398594 -0.364960175
230298620.0 -0.7586840167 0.3787193018 -5.92084e-05 0.0001832272 0.0001162157 -6.8762e-06 0.7693694913 -0.3729849029
235298590.0 -0.754927461 0.3868703469 -6.75261e-05 -1.90785e-05 1.7121e-06 -2.01079e-05 0.7658392871 -0.379839588
240298560.0 -0.7507645677 0.3947793865 0.0001186582 -8.19187e-05 0.0001126438 0.00012798 0.7618936484 -0.3876494109
245298530.0 -0.7465821204 0.4031637486 6.21798e-05 0.0001040368 0.0001560919 -8.68737e-05 0.7584272604 -0.3951548122
250298500.0 -0.7429278096 0.410358569 3.16325e-05 0.0001658562 5.86774e-05 -0.0001453138 0.7545126964 -0.4022311955
255298470.0 -0.7381253121 0.4189525892 0.0001225001 0.0001135695 6.69885e-05 6.70375e-05 0.7509708917 -0.40983697
260298440.0 -0.7333674941 0.4261545599 -3.05968e-05 0.0001102442 4.10321e-05 -3.557e-05 0.7467923579 -0.416591244
265298410.0 -0.7295234954 0.4341048321 -5.05599e-05 0.0001609826 -0.0001146707 -0.0001076752 0.7427546357 -0.4245672329
270298380.0 -0.7244080111 0.4415337102 -5.28597e-05 0.0001024037 -4.60777e-05 0.0002330429 0.7388403861 -0.4304847937
275298350.0 -0.7192468922 0.4492898588 -2.64032e-05 0.0001589297 -1.60622e-05 -6.8091e-05 0.7345436285 -0.4373883993
280298320.0 -0.7148729754 0.4566793743 -0.0001805699 0.0001481736 -5.66602e-05 -2.27619e-05 0.7306953662 -0.4451907125
285298290.0 -0.7101613114 0.4646761608 3.1525e-06 0.000104936 5.88571e-05 -0.000197071 0.7256536971 -0.4521871403
290298260.0 -0.705595366 0.4717648479 1.51041e-05 -0.0002529894 -3.93786e-05 3.72742e-05 0.7217752459 -0.4594167855
295298230.0 -0.7009185051 0.4794686868 0.000219948 7.37849e-05 7.2743e-05 0.000159009 0.717655358 -0.4656687424
300298200.0 -0.695175615 0.486812037 0.0002369752 0.0001314965 -3.95981e-05 -7.8973e-06 0.7128174575 -0.473422762
305298170.0 -0.6903443773 0.4948145413 -0.0002714813 -0.0001982477 -5.27648e-05 0.0001171532 0.7096795112 -0.4800367027
310298140.0 -0.684511943 0.5008717454 -1.85927e-05 -2.2145e-05 -0.0002411379 1.93568e-05 0.705180397 -0.4871745345
315298110.0 -0.6794924345 0.5075462343 -1.27822e-05 3.28405e-05 0.0001992931 0.0001569843 0.7004247158 -0.4945834859
320298080.0 -0.6736190615 0.5156138351 1.46286e-05 4.85855e-05 -0.0001159332 -9.57519e-05 0.6960939799 -0.5023139561
325298050.0 -0.6685863354 0.5224392723 8.83e-05 9.96918e-05 -9.9908e-06 -0.0002640572 0.6908401137 -0.5100594693
330298020.0 -0.6628256171 0.5292733332 -7.57226e-05 4.90045e-05 7.40492e-05 -8.14049e-05 0.6850227073 -0.517055012
335297990.0 -0.6570722247 0.5361348255 -9.12166e-05 -0.0001194129 4.98113e-05 0.0002457929 0.6795372132 -0.5239595911
340297960.0 -0.6520457822 0.5427016309 -7.85686e-05 6.93777e-05 0.0001175118 3.971e-07 0.6741926339 -0.5301412709
345297930.0 -0.6465464079 0.5490146929 -3.837e-05 -0.0002236144 -0.000111205 -0.0001065746 0.6683661598 -0.5362620213
350297900.0 -0.640191188 0.5561244682 0.0001290063 -0.000121757 -1.20962e-05 -5.72572e-05 0.6627820261 -0.5420985144
355297870.0 -0.6346280001 0.5627486641 -5.8086e-06 3.08457e-05 0.0001259538 -3.01545e-05 0.6571926006 -0.5484717225
360297840.0 -0.6284798836 0.5693490432 1.86114e-05 9.51284e-05 5.62895e-05 4.02283e-05 0.6517220955 -0.5547120117
365297810.0 -0.6224540119 0.5758376021 -2.91205e-05 -2.4927e-06 -0.000101797 -1.37253e-05 0.6461090872 -0.5605086417
370297780.0 -0.6161188346 0.5817052959 1.14654e-05 -0.0002412592 3.94673e-05 -8.81154e-05 0.6407345954 -0.5663282531
375297750.0 -0.6106481981 0.5886387666 4.3381e-06 5.79672e-05 2.19066e-05 1.45965e-05 0.6350012455 -0.5727547469
380297720.0 -0.6042787969 0.5951471868 -0.0002190248 -7.28828e-05 5.60553e-05 1.2858e-05 0.6297874143 -0.5779518101
385297690.0 -0.5978240781 0.6008609029 -4.67913e-05 -2.65876e-05 -0.0002157587 -6.78163e-05 0.6234797565 -0.5835968914
390297660.0 -0.5915768384 0.607217818 4.84162e-05 0.000113284 7.83836e-05 1.19574e-05 0.6183577462 -0.59011673
395297630.0 -0.5853831621 0.6132289174 -2.57283e-05 8.653e-07 7.41e-05 2.08625e-05 0.6127204734 -0.595793273
400297600.0 -0.5790782071 0.6193551987 4.42507e-05 0.0002652417 -5.93844e-05 -0.0001072754 0.6064305406 -0.6017715718
405297570.0 -0.5726608933 0.6246415014 -4.68229e-05 2.48757e-05 -7.84801e-05 -5.6933e-05 0.6007752949 -0.6071853531
410297540.0 -0.5655663561 0.6309774873 -3.00586e-05 -0.0002833058 6.13141e-05 0.0002554614 0.595137856 -0.613137998
415297510.0 -0.5592804962 0.6363959763 4.4878e-05 2.1287e-05 2.84025e-05 -9.36145e-05 0.588686191 -0.6188770539
420297480.0 -0.5519050843 0.6425437035 0.0001327656 4.91802e-05 2.50406e-05 -7.2033e-06 0.5825606037 -0.6246075087
425297450.0 -0.5462313159 0.6483622163 -0.0001099659 0.0001771997 -0.0001223386 7.46367e-05 0.5766276409 -0.629653301
430297420.0 -0.5400337613 0.6531616583 -4.09958e-05 5.29632e-05 -4.68853e-05 -0.0001021677 0.5702862851 -0.6358447323
435297390.0 -0.5318073403 0.6595727798 -3.16866e-05 -9.046e-05 -3.8208e-05 -0.0001624418 0.5639095536 -0.6404573566
440297360.0 -0.5251557749 0.6645254111 -5.26276e-05 -0.0001807722 -2.84537e-05 -8.32926e-05 0.5579761131 -0.6461719131
445297330.0 -0.5184756239 0.6698167292 8.06202e-05 -0.0001311441 -0.0001928358 0.000214659 0.5515988072 -0.6516076965
450297300.0 -0.5111389711 0.6745265677 -3.45164e-05 0.0002824498 -5.68785e-05 9.13329e-05 0.5443993802 -0.6569255678
455297270.0 -0.504220404 0.6802115465 -0.0001701506 -0.0001158777 -0.0001778219 -4.98141e-05 0.5380932394 -0.6626618666
460297240.0 -0.497633961 0.6855193775 3.20893e-05 -0.0001321213 7.64035e-05 0.0001663245 0.5323708026 -0.6670172968
465297210.0 -0.4899437618 0.6905376875 -5.38581e-05 0.0001099706 -6.42859e-05 1.48297e-05 0.5253285322 -0.6725529095
470297180.0 -0.4829819881 0.6945754315 3.61114e-05 -2.69657e-05 0.0001749721 -6.11935e-05 0.5182329931 -0.6776150214
475297150.0 -0.4757220175 0.7006860537 -9.93737e-05 3.90413e-05 0.0001068137 5.3817e-06 0.5121690376 -0.6820353894
480297120.0 -0.4686907555 0.7046806279 -0.000160454 0.0001976551 0.0001768799 6.82731e-05 0.5050719606 -0.6872091825
485297090.0 -0.4612007248 0.7092840179 0.0001652602 -0.0001359336 0.0002480624 0.0001003172 0.4982666645 -0.6921377207
490297060.0 -0.4542735046 0.7139560623 -0.0001161075 -0.0001200053 -0.0002745915 3.4294e-06 0.4915951258 -0.697122749
495297030.0 -0.4470555948 0.719125994 7.18583e-05 9.71344e-05 -0.0001725001 0.0001690219 0.4851765256 -0.7014149901
500297000.0 -0.4393130441 0.7232566219 -0.000131381 -2.0181e-05 -8.22933e-05 -1.21892e-05 0.4772042094 -0.7065026997
505296970.0 -0.4310132958 0.7266932934 -9.926e-06 4.67284e-05 -5.18934e-05 -0.0001309692 0.469906892 -0.7109614554
510296940.0 -0.4241298026 0.7320476512 -0.0001938227 0.0001750518 -6.84578e-05 5.10613e-05 0.4630578034 -0.7146316004
515296910.0 -0.4169670904 0.7365591741 0.0001237247 4.74043e-05 -0.0002309303 -0.0001750874 0.4557600472 -0.7189494576
520296880.0 -0.4087341214 0.741031344 2.6959e-06 9.65893e-05 -0.0002037633 -9.10267e-05 0.4493002353 -0.7242645661
525296850.0 -0.4013099602 0.7444236282 0.0001317713 1.05686e-05 9.25358e-05 9.19562e-05 0.4418394005 -0.7279037693
530296820.0 -0.3935709588 0.7481916684 -5.5545e-06 7.7131e-06 0.0001106707 -9.02824e-05 0.4339952096 -0.7323289954
535296790.0 -0.3860191805 0.7527209769 -4.83945e-05 -8.45903e-05 7.98421e-05 6.15855e-05 0.427006113 -0.7379698866
540296760.0 -0.3781023032 0.756403259 6.67173e-05 -6.28831e-05 2.489e-05 8.29602e-05 0.41901482 -0.7410262276
545296730.0 -0.3712726657 0.7600111909 9.88239e-05 -5.0873e-05 1.17588e-05 -8.70331e-05 0.4119462392 -0.745080233
550296700.0 -0.3632525611 0.7635878209 5.09889e-05 -3.81822e-05 -0.0001641032 0.0001604035 0.4041782177 -0.7496031125
555296670.0 -0.3545377005 0.7675867044 -4.89913e-05 -1.08937e-05 9.8873e-05 -5.90405e-05 0.396833795 -0.7529318947
560296640.0 -0.3468257894 0.7711465 -6.14821e-05 0.0001230532 9.33792e-05 -3.92222e-05 0.3892270976 -0.7564617036
565296610.0 -0.3399846707 0.7734810126 1.94476e-05 9.22617e-05 1.45976e-05 5.93634e-05 0.3819771649 -0.7600522453
570296580.0 -0.3316373338 0.7772674194 -7.24556e-05 -7.45366e-05 0.0002259857 9.62535e-05 0.3742807402 -0.763721546
575296550.0 -0.3237619685 0.7807527224 2.54862e-05 3.40564e-05 0.0001536152 2.34856e-05 0.3663507793 -0.7679743655
580296520.0 -0.3158332312 0.7846126772 9.24591e-05 -0.0001570893 0.0001152121 0.0001124909 0.3584605475 -0.7704173128
585296490.0 -0.3071410628 0.7862895818 -8.23604e-05 7.9838e-05 0.0001175511 0.0002046815 0.3509074744 -0.7751946415
590296460.0 -0.2998429477 0.7900862226 0.0001467005 0.0001772751 6.25063e-05 4.56707e-05 0.3436020434 -0.7775547355
595296430.0 -0.2911879818 0.7937174857 -0.0001370116 -7.3735e-06 3.58276e-05 0.0001564229 0.3348828968 -0.780895017
600296400.0 -0.2837159996 0.7957700214 -1.06094e-05 -6.57656e-05 -8.486e-06 -0.0001113863 0.3277346174 -0.7838669379
605296370.0 -0.2753478007 0.7987947358 0.0001120102 -0.0001171993 3.11452e-05 -0.000128337 0.3191508746 -0.7877213725
610296340.0 -0.2676027562 0.8013058934 -0.0002531298 -6.75474e-05 2.4971e-06 0.0001920293 0.3116201926 -0.7899085651
615296310.0 -0.2590667181 0.8041045013 -2.4108e-05 -3.61544e-05 -4.136e-05 -5.40184e-05 0.3040702737 -0.7939660319
620296280.0 -0.2511574634 0.8059591481 5.29034e-05 4.79041e-05 -2.3078e-06 0.000117136 0.2960891319 -0.7965359844
625296250.0 -0.2424341315 0.8094333375 -0.0001028008 -8.6146e-06 -0.0001460008 0.0001424382 0.2879233817 -0.7981601043
630296220.0 -0.2341092051 0.8120263871 1.89393e-05 0.0002527622 1.51563e-05 -0.0003179026 0.2796205207 -0.8015056398
635296190.0 -0.2262830304 0.8142356239 0.0001997759 9.48586e-05 -7.20933e-05 0.0001711286 0.2718681725 -0.8037319689
640296160.0 -0.2178423666 0.8152486855 -3.91995e-05 -3.18743e-05 4.38762e-05 0.0001851672 0.2637865485 -0.8073237385
645296130.0 -0.2097475451 0.8182793045 0.0001104806 7.41562e-05 9.56895e-05 -5.98324e-05 0.2555298539 -0.8095020216
650296100.0 -0.2020323612 0.8207487574 7.66109e-05 -8.65152e-05 0.0001475989 0.0001563097 0.247302536 -0.8117042731
655296070.0 -0.1928527809 0.8223534864 7.21204e-05 -4.07879e-05 -1.12363e-05 -0.0001285229 0.239043817 -0.8136862265
660296040.0 -0.1850227753 0.8243368093 -0.0001515329 3.45786e-05 -9.94626e-05 -3.54572e-05 0.2307513644 -0.8157577597
665296010.0 -0.1766045758 0.8257136063 1.1487e-05 7.54521e-05 0.0001042403 4.7774e-05 0.2228870783 -0.8180319492
670295980.0 -0.1678959638 0.8271665442 -0.0001076856 0.000291356 -1.67889e-05 0.0001116167 0.2146640583 -0.8200200435
675295950.0 -0.1600352799 0.8285099161 -0.0002067427 -9.46798e-05 2.4005e-05 5.79543e-05 0.2068162579 -0.8217671403
680295920.0 -0.1516973052 0.8307517284 -2.6666e-06 0.0001019379 9.20571e-05 8.93121e-05 0.1983342015 -0.8241882475
685295890.0 -0.1431039461 0.8322269293 5.7165e-06 -0.0001524866 8.59025e-05 6.65791e-05 0.1904941925 -0.8258168506
690295860.0 -0.1336920571 0.8335877603 0.0001087305 -1.04404e-05 1.37003e-05 6.48216e-05 0.1819535456 -0.8273253351
695295830.0 -0.1259744601 0.8341352679 8.70028e-05 0.0001898965 0.0001056284 0.0001065868 0.1730265361 -0.8295575324
700295800.0 -0.1181702885 0.8354389904 0.0002862729 -1.51908e-05 -4.32298e-05 1.13808e-05 0.1650133034 -0.8307062967
705295770.0 -0.1087898697 0.8371671072 2.20021e-05 -8.2995e-06 -6.6206e-06 -7.14717e-05 0.1569972227 -0.8315924431
710295740.0 -0.1008161019 0.8382842785 -4.52176e-05 -0.0001299838 6.5915e-06 -1.77929e-05 0.1482894938 -0.832982729
715295710.0 -0.092834475 0.8393638241 -0.0001330561 -3.27478e-05 -0.0001122915 0.0001549768 0.1401671677 -0.834457493
720295680.0 -0.0844430595 0.8395164062 0.0002017619 -2.77258e-05 -5.30972e-05 -0.0001218865 0.1324432889 -0.8357234076
725295650.0 -0.0748760122 0.840319787 -9.04417e-05 -0.0002269129 -0.0001765543 3.2226e-06 0.1239941983 -0.8369721671
730295620.0 -0.0672206037 0.8410713382 -9.29688e-05 -0.0002823751 0.0001811299 3.8109e-05 0.1151668872 -0.8382355522
735295590.0 -0.0581058229 0.8416856211 0.0001004409 -6.26807e-05 -2.48566e-05 5.22416e-05 0.1071192706 -0.8390374734
740295560.0 -0.050026948 0.8427190927 -0.0002041148 -0.0001415914 -0.0002335715 4.78504e-05 0.0984318354 -0.8401393759
745295530.0 -0.041476699 0.8430033989 9.17628e-05 0.0001153856 0.0002358408 -2.2385e-06 0.0892687545 -0.841150571
750295500.0 -0.0338329345 0.8429511333 -0.0001655423 -1.18684e-05 -1.71623e-05 4.5298e-05 0.0814437821 -0.8419873866
755295470.0 -0.0242441795 0.8439808578 -1.7922e-05 -0.0001525033 0.0001896058 0.000119771 0.0731063973 -0.8416882814
760295440.0 -0.0162048902 0.8435576087 -6.13013e-05 -0.0001320519 5.11227e-05 9.08966e-05 0.0647046517 -0.8427612791
765295410.0 -0.0078528165 0.8438203484 -9.14444e-05 5.4744e-05 -0.0002338415 -0.000133282 0.0563545412 -0.8428820053
770295380.0 0.0007500361 0.8443192028 1.99907e-05 0.0001175732 -0.0001701218 0.0001367277 0.0483280108 -0.8428541966
775295350.0 0.0091794201 0.8436248401 -4.2225e-05 -0.0001379987 5.25006e-05 -9.19091e-05 0.0400234724 -0.8445026855
780295320.0 0.0180023566 0.84293774 0.0002167921 -0.0001131857 0.0001200238 -8.14619e-05 0.0306934801 -0.8434758997
785295290.0 0.0258742184 0.8442133596 -3.61857e-05 -8.0689e-05 -0.0002247305 -0.0001188024 0.0232042594 -0.8436971188
790295260.0 0.0344612626 0.8427784781 7.26235e-05 -6.77308e-05 5.60819e-05 0.0002307363 0.0145427499 -0.844073087
795295230.0 0.0430952816 0.8437838623 8.02252e-05 -0.0001398869 -0.0001710953 2.98659e-05 0.0063195342 -0.8437589937
800295200.0 0.0515047341 0.8431651089 -0.0001776544 -3.01293e-05 -0.0002153582 -2.65619e-05 -0.0023372649 -0.844010609
805295170.0 0.0596934897 0.8422862854 -0.0001371003 -5.3871e-06 0.0002398315 -1.36814e-05 -0.0104395949 -0.8435990127
810295140.0 0.0684169172 0.8413444712 3.5339e-05 0.0001173073 0.0002227614 -4.402e-06 -0.0198367535 -0.8428283188
815295110.0 0.0768594439 0.8403490634 7.11054e-05 0.0001993518 0.0001393244 -5.31571e-05 -0.0280029574 -0.842454427
820295080.0 0.0849605936 0.8388640652 0.0001463946 0.0001935428 -0.0001121492 1.64119e-05 -0.0364042153 -0.8431336657
825295050.0 0.0938899986 0.8380354716 -6.48262e-05 5.95489e-05 8.596e-06 5.08083e-05 -0.043993785 -0.8420288469
830295020.0 0.102314762 0.837980732 2.59923e-05 -0.0001852893 -0.0001551702 5.72282e-05 -0.0530776086 -0.8413944648
835294990.0 0.1105134017 0.8374335654 -9.06337e-05 -3.04485e-05 7.12567e-05 1.47779e-05 -0.0615164068 -0.8410827444
840294960.0 0.1188404647 0.8349015512 -3.57946e-05 7.77413e-05 6.11396e-05 -0.0001923905 -0.0705503603 -0.8393778277
845294930.0 0.1272202322 0.8340609743 -8.57437e-05 0.000130085 -5.94308e-05 5.69576e-05 -0.0780731211 -0.8386567937
850294900.0 0.1354208106 0.8324070337 -1.22143e-05 -6.6374e-06 -8.63377e-05 -0.0001278484 -0.0864913004 -0.8372079352
