!Created with skrf (http://scikit-rf.org).
# Hz S RI R 50.0 
!freq ReS11 ImS11 ReS21 ImS21 ReS12 ImS12 ReS22 ImS22
300000.0 -0.2434794141 -0.0819159446 0.473051003 0.0539583083 0.467741464 0.054293505 -0.2407088919 -0.0931129559
5299970.0 -0.2442692407 0.0073107962 0.473591292 0.0051127693 0.4737132981 0.0050436908 -0.2440206389 0.0072937821
10299940.0 -0.2409894033 0.0187666794 0.4752401965 0.0061702112 0.4756069858 0.0063071222 -0.2406594601 0.0203687623
15299910.0 -0.236711445 0.027998252 0.4792712283 0.007651368 0.4793808252 0.0076438794 -0.2363769915 0.0297993149
20299880.0 -0.2320898736 0.0355162 0.4839111267 0.0083953201 0.4838561745 0.0086194278 -0.230747693 0.0374652235
25299850.0 -0.2268386041 0.0422211376 0.4889809421 0.0073604514 0.4891854176 0.0077723043 -0.224842829 0.0439257315
30299820.0 -0.2215594189 0.0472079081 0.494680262 0.0053633162 0.4944246184 0.0058790831 -0.2192170237 0.048985395
35299790.0 -0.2164132735 0.0516342699 0.5000620762 0.002071762 0.4999598107 0.0019576553 -0.2136939752 0.0537404065
40299760.0 -0.2115512042 0.0550390281 0.5051909644 -0.0016274091 0.5049985372 -0.0016986146 -0.2082639642 0.0562896187
45299730.0 -0.2064338134 0.0576735521 0.5093505265 -0.0065661609 0.5101139761 -0.0063140142 -0.2034466835 0.058940523
50299700.0 -0.2024859567 0.0598451872 0.5141861574 -0.0121042016 0.5142473024 -0.0116565779 -0.1984004286 0.0607984721
55299670.0 -0.1985203113 0.061741759 0.5179692726 -0.0181872789 0.5177898816 -0.0181024769 -0.1945379542 0.0625990051
60299640.0 -0.1942709067 0.063454816 0.5212471337 -0.0245675769 0.5213741705 -0.0239934111 -0.1905868543 0.0632686139
65299610.0 -0.1912159578 0.0648178003 0.5240903861 -0.0306285495 0.5241475933 -0.0305289804 -0.1871926472 0.0639172812
70299580.0 -0.1881400415 0.0660428763 0.5262320376 -0.0373654877 0.5264219726 -0.0373341762 -0.1839085764 0.0650325114
75299550.0 -0.1851448128 0.0675237725 0.5282799059 -0.0441123504 0.5283328993 -0.0442607216 -0.1811342884 0.0653125231
80299520.0 -0.1826046936 0.0680566212 0.5303547557 -0.0508819259 0.5305807427 -0.0511631914 -0.1784221029 0.0660685044
85299490.0 -0.1801065565 0.0690138909 0.5314814781 -0.057306273 0.5315743949 -0.0572509096 -0.1760346128 0.0661664656
90299460.0 -0.1780158864 0.0700260355 0.5325950675 -0.0648572493 0.5327374647 -0.0649678899 -0.1733415656 0.0669651657
95299430.0 -0.1757451187 0.0704524899 0.5337969672 -0.0715421941 0.533617761 -0.0721514217 -0.1717153361 0.0676067141
100299400.0 -0.1739028236 0.0716909284 0.5334182733 -0.078701769 0.5341686221 -0.0786910394 -0.1695790656 0.067329805
105299370.0 -0.1719584108 0.0726212193 0.5340893779 -0.0854623549 0.5341509285 -0.0852238317 -0.1675748599 0.0681506431
110299340.0 -0.1701938929 0.0733171393 0.5343916764 -0.0919482705 0.5342343776 -0.092212011 -0.1665548541 0.0685431058
115299310.0 -0.1686718784 0.074110233 0.534595337 -0.0989502492 0.5345487334 -0.0991923626 -0.1648202284 0.0688901129
120299280.0 -0.1673534064 0.0747756276 0.5343214927 -0.1060203075 0.5347643961 -0.1062325574 -0.1634498512 0.0693462281
125299250.0 -0.1661618132 0.0754731675 0.5339851913 -0.1126438216 0.5336918822 -0.1124891655 -0.1624214797 0.0696066299
130299220.0 -0.1648657564 0.0768895051 0.5332845043 -0.1196802658 0.5333000369 -0.1193280802 -0.1611313754 0.070092376
135299190.0 -0.1638146262 0.0779282453 0.5327473352 -0.1261659409 0.5327383824 -0.1260332189 -0.1596707795 0.0710138644
140299160.0 -0.1627940885 0.0790318767 0.531858485 -0.1330197116 0.5319032264 -0.1328301299 -0.1588359117 0.0720984136
145299130.0 -0.1614409044 0.0800906668 0.5311257838 -0.1394166731 0.5307964796 -0.1393778184 -0.1577351658 0.0727513893
150299100.0 -0.1601740141 0.0811528923 0.5297351528 -0.1458381753 0.5297740632 -0.1452717292 -0.1568380356 0.0738957445
155299070.0 -0.1594300388 0.0823075393 0.528540256 -0.1530170323 0.5284137325 -0.1524742042 -0.1556791911 0.0746670064
160299040.0 -0.1580724166 0.0835511105 0.5272455251 -0.158957827 0.5270980136 -0.158964752 -0.1553631838 0.0753425109
165299010.0 -0.1573817308 0.084749549 0.5256375922 -0.1655102546 0.5257128816 -0.1652902938 -0.1540348627 0.07669487
170298980.0 -0.1564379682 0.085690618 0.523921738 -0.1719277419 0.5244743046 -0.171359029 -0.1535110005 0.0776486781
175298950.0 -0.1554584736 0.087003252 0.5225186146 -0.1779435925 0.5223427498 -0.1776284987 -0.1527120391 0.0786767649
180298920.0 -0.15458461 0.0883092823 0.5205774085 -0.1842544967 0.5209489469 -0.1841659382 -0.1518270141 0.0798757685
185298890.0 -0.1532568545 0.0894879612 0.5189117141 -0.1903894861 0.5189133195 -0.1901841426 -0.1513043956 0.0811294497
190298860.0 -0.1525781186 0.0910575987 0.5170532307 -0.1966208368 0.5173967217 -0.1962206839 -0.1504215941 0.0818262615
195298830.0 -0.1519343361 0.0921557654 0.5154536159 -0.202519484 0.5153269382 -0.2023792324 -0.1496647673 0.0832345659
200298800.0 -0.1508653436 0.0935126282 0.5127810193 -0.2088951861 0.5133029519 -0.2092054302 -0.1491140223 0.0840295331
205298770.0 -0.1497824819 0.0951150553 0.5106181085 -0.2151878643 0.5105372447 -0.2149348044 -0.1484575016 0.0847016915
210298740.0 -0.1488693699 0.0962307944 0.5083918065 -0.2207655081 0.5083989623 -0.2204293971 -0.1474366631 0.0868361326
215298710.0 -0.1483432339 0.0978109749 0.5065290749 -0.2266253555 0.5064239378 -0.2271226829 -0.1471398552 0.0877783443
220298680.0 -0.1469872679 0.0987110862 0.5033114383 -0.2327360042 0.5037131283 -0.2326844001 -0.1465700646 0.088479354
225298650.0 -0.1462038197 0.1004451579 0.5011233661 -0.2386635385 0.5018304394 -0.238747504 -0.1461460226 0.0897731661
230298620.0 -0.1450719664 0.1021187354 0.4986992957 -0.2440198259 0.4994469389 -0.2444054822 -0.145548129 0.0909588486
235298590.0 -0.1440293594 0.1036994729 0.4961332922 -0.2502067806 0.4964535582 -0.2494653463 -0.1447079425 0.0923026423
240298560.0 -0.1433940312 0.1052311682 0.4936789527 -0.256059359 0.4936320571 -0.2562603577 -0.1437512214 0.0940021039
245298530.0 -0.1422789206 0.1062623951 0.4906805233 -0.2616677568 0.4907264963 -0.2618153331 -0.1431136202 0.0941087336
250298500.0 -0.1407667432 0.1080387855 0.4874482811 -0.2673723621 0.487599057 -0.2669687861 -0.1424669048 0.0957342573
255298470.0 -0.1400153217 0.1090892648 0.4847661062 -0.2723892537 0.4846872874 -0.2726358903 -0.1414094254 0.0968816439
260298440.0 -0.1393292449 0.1105853886 0.4820056434 -0.2786875887 0.4820734392 -0.2779486769 -0.1403840957 0.0980763475
265298410.0 -0.1373962479 0.1126940181 0.4789030064 -0.2840156654 0.4790756161 -0.283837683 -0.1396525563 0.0992553161
270298380.0 -0.1366174386 0.1137073792 0.4761265333 -0.2891055821 0.4760112305 -0.2892856598 -0.1391657928 0.1008378351
275298350.0 -0.135127906 0.1154320636 0.4726958973 -0.2946649765 0.4727540469 -0.2945565511 -0.138029295 0.1018842515
280298320.0 -0.1340569503 0.1169291903 0.4698296839 -0.3001972528 0.469463783 -0.3000059164 -0.1367982409 0.1030556755
285298290.0 -0.1326154261 0.1184004788 0.466484685 -0.3057100102 0.4659783633 -0.305722281 -0.1360141136 0.1045004598
290298260.0 -0.1316044212 0.1196602556 0.4628066238 -0.3104534974 0.4630896641 -0.3105909504 -0.1348082928 0.1055959036
295298230.0 -0.1302266684 0.120881392 0.4598512521 -0.3158786905 0.4595332005 -0.3157359476 -0.1333950751 0.1065781625
300298200.0 -0.1292034621 0.1224393511 0.4563108025 -0.3207573356 0.4562611658 -0.3212902981 -0.1328625028 0.1078869095
305298170.0 -0.1275387961 0.1237120953 0.4520759409 -0.3269730783 0.4526850294 -0.3262625364 -0.1313120455 0.1089094757
310298140.0 -0.1264614635 0.1251471173 0.4492228659 -0.3315340624 0.4493465967 -0.3313838975 -0.1304190367 0.1102519603
315298110.0 -0.1252309795 0.1262961067 0.4455709759 -0.3363443934 0.4458307074 -0.3371520516 -0.1293467667 0.1114292669
320298080.0 -0.1235916389 0.1275058575 0.4407957125 -0.3418956817 0.4416187095 -0.3418761127 -0.1285658036 0.1126560882
325298050.0 -0.1224798764 0.128899353 0.4374796832 -0.3474461981 0.4380661968 -0.3470146376 -0.1278538228 0.1139784705
330298020.0 -0.1213653793 0.1299169465 0.433479508 -0.3518807637 0.4341239244 -0.3520097402 -0.1267388816 0.1148073905
335297990.0 -0.1199058686 0.1309901995 0.4294279216 -0.3563810036 0.4294123505 -0.356724173 -0.1265540432 0.116751084
340297960.0 -0.1190371683 0.1331439215 0.4251977131 -0.3616865353 0.4249079036 -0.3617799275 -0.1248492956 0.1180315799
345297930.0 -0.1179643215 0.1345434629 0.4212503637 -0.3663170114 0.4213705833 -0.3662481073 -0.1241589895 0.1193225593
350297900.0 -0.1164832447 0.1356118593 0.4167764134 -0.3709382346 0.4172524922 -0.3707450149 -0.1232741238 0.1208888023
355297870.0 -0.11496466 0.137389766 0.4128736325 -0.3754200757 0.4132590055 -0.375008762 -0.1225374905 0.1217980778
360297840.0 -0.1137654117 0.1388787777 0.4097932379 -0.3797996041 0.409518201 -0.3796751306 -0.1213782736 0.1236668428
365297810.0 -0.1123827718 0.1403202686 0.4051300203 -0.3848826516 0.4051878209 -0.3846365681 -0.120066521 0.1250676537
370297780.0 -0.1107365232 0.1416833276 0.399984585 -0.3888199085 0.4007568618 -0.3883784953 -0.1190705474 0.1263729171
375297750.0 -0.109219107 0.1426950652 0.3963304366 -0.3931411465 0.3967721054 -0.3932178864 -0.1178219361 0.1273631869
380297720.0 -0.1077939549 0.144004688 0.3920147092 -0.3977041502 0.3920964731 -0.3965707688 -0.1172959205 0.1286707108
385297690.0 -0.1066742631 0.1454200647 0.3875618075 -0.4016753082 0.3873228026 -0.4017852909 -0.1156515904 0.1302042949
390297660.0 -0.1048080913 0.1470707397 0.3828930279 -0.4060337892 0.3828560633 -0.4058920014 -0.1147195163 0.1312618559
395297630.0 -0.1034355017 0.1482909767 0.3785377274 -0.4101546585 0.3786532426 -0.4105944467 -0.1130780131 0.1326364949
400297600.0 -0.1017461012 0.1494683244 0.3737203629 -0.4148397775 0.3742033718 -0.4146607579 -0.112147776 0.1337899362
405297570.0 -0.1003204258 0.1508972041 0.3693906285 -0.4182223102 0.3695869668 -0.4183440873 -0.1113816075 0.1350531002
410297540.0 -0.0984817245 0.1521467083 0.3650995473 -0.4226897241 0.3654510632 -0.4227760359 -0.1100564185 0.1364937866
415297510.0 -0.0967900373 0.1531803817 0.3598336634 -0.4267554261 0.3607103613 -0.4265798824 -0.1087420837 0.1376078109
420297480.0 -0.0951385632 0.1548224919 0.3551577095 -0.4309020517 0.3555625921 -0.4309411815 -0.1077227345 0.1384935299
425297450.0 -0.0935070425 0.1553170081 0.3510396902 -0.4344773757 0.3510969667 -0.4345621872 -0.1067365302 0.1401458317
430297420.0 -0.0920634387 0.1565842756 0.3458769862 -0.4379840576 0.3459923719 -0.4380179056 -0.1052577357 0.1408169207
435297390.0 -0.0901474626 0.1578876899 0.3405936715 -0.4419230561 0.3411663223 -0.4421506348 -0.1033140754 0.1419166799
440297360.0 -0.0887060937 0.1590164697 0.3363847201 -0.445783692 0.3365338791 -0.4455999918 -0.1022005278 0.1428973738
445297330.0 -0.0868392438 0.1599792942 0.3319212169 -0.4490690794 0.3318651833 -0.4489804709 -0.1007665275 0.1436014323
450297300.0 -0.0848630037 0.1609721793 0.3267295523 -0.4526083955 0.3263459727 -0.4530560293 -0.0997403414 0.1444665147
455297270.0 -0.0830729057 0.1621681887 0.3213659002 -0.4559738801 0.3215814714 -0.4565282734 -0.0981568694 0.1459124424
460297240.0 -0.081557202 0.1631553566 0.3163233287 -0.4597359387 0.3165949905 -0.4599888623 -0.0966475763 0.1470549352
465297210.0 -0.0793618828 0.164275296 0.3115056984 -0.463262756 0.3116484092 -0.4635854564 -0.095130461 0.1477498723
470297180.0 -0.0776801213 0.1651487611 0.3063681163 -0.4667392577 0.3065544968 -0.466568857 -0.093613708 0.149323173
475297150.0 -0.0757786792 0.165799081 0.3007006592 -0.4691842949 0.3014487245 -0.4698101611 -0.0918580544 0.1497989737
480297120.0 -0.0741820642 0.1672511203 0.2960400901 -0.473571187 0.2957649736 -0.4736662358 -0.0902683497 0.1511621663
485297090.0 -0.0724650256 0.16800483 0.2912721301 -0.476075557 0.290616064 -0.4758039838 -0.0887590447 0.1518564532
490297060.0 -0.0708365623 0.1691118977 0.2859225377 -0.4794788849 0.2859351332 -0.4791496513 -0.0875581692 0.1532020106
495297030.0 -0.0686366463 0.1700058663 0.2800840248 -0.4827246069 0.2810305563 -0.4825298926 -0.0863655054 0.1543155844
500297000.0 -0.0670016834 0.1707240767 0.2752761663 -0.4851299468 0.2745740474 -0.4852756611 -0.0842294448 0.1558529527
505296970.0 -0.0648550274 0.1719072353 0.2700614861 -0.4881531751 0.2696673499 -0.4885148393 -0.0830168155 0.156704752
510296940.0 -0.0629633078 0.1725255031 0.2643289821 -0.491701792 0.2643280074 -0.4914416275 -0.0814738625 0.157593458
515296910.0 -0.0612398722 0.1735491879 0.2590141811 -0.494109616 0.2588395922 -0.4940704358 -0.0798007518 0.158485478
520296880.0 -0.059277271 0.1742245176 0.2539991465 -0.4971299603 0.2538605136 -0.4968589893 -0.0785037736 0.1590583035
525296850.0 -0.0572121078 0.1743333248 0.2478511042 -0.4997242983 0.2487110401 -0.4993159108 -0.0771120889 0.1604729437
530296820.0 -0.0551612203 0.1759315082 0.2424461252 -0.5026484365 0.2430921272 -0.5025323552 -0.0753013193 0.1616045708
535296790.0 -0.0538162468 0.1764890208 0.2376042264 -0.5051471951 0.2376414601 -0.5042475062 -0.074104249 0.161742206
540296760.0 -0.0519211836 0.1774827553 0.2318331235 -0.5075893865 0.2315047608 -0.5075760046 -0.0727270284 0.1633360553
545296730.0 -0.0498185056 0.1781118866 0.2260665537 -0.5096936563 0.226590373 -0.5098163983 -0.0711951581 0.1638036911
550296700.0 -0.047541627 0.1789704596 0.2206078355 -0.5119742124 0.2209633533 -0.5124691358 -0.069766199 0.1650749695
555296670.0 -0.0459384938 0.1793911643 0.2153109137 -0.5144825907 0.215572653 -0.5145731775 -0.0678203761 0.1658592873
560296640.0 -0.0435884062 0.1801579815 0.2094752673 -0.5170730653 0.2097172677 -0.5168886889 -0.0662923682 0.1667064293
565296610.0 -0.0420659128 0.180817797 0.2038132882 -0.5189846468 0.2043042703 -0.519035817 -0.0652038492 0.1672154219
570296580.0 -0.0401229642 0.181350417 0.1979756091 -0.521737725 0.198084365 -0.5213024668 -0.0636248851 0.1684100908
575296550.0 -0.0381472322 0.1823215883 0.1928023434 -0.5238916632 0.1925111609 -0.5234869973 -0.0616356461 0.1688980814
580296520.0 -0.0357284836 0.1826999947 0.1862861012 -0.5258489394 0.1870439116 -0.5256170794 -0.0601233857 0.1693978831
585296490.0 -0.0339636781 0.1827100718 0.181451441 -0.526839807 0.1813508796 -0.527457511 -0.0586571244 0.1704022419
590296460.0 -0.0316855978 0.1835896346 0.1755276754 -0.5284746998 0.1755253182 -0.5290099531 -0.0571752089 0.1709396762
595296430.0 -0.0296793366 0.1841969618 0.1694812874 -0.5317777014 0.1694327605 -0.531075833 -0.0553871038 0.1713390951
600296400.0 -0.0279506073 0.1846089391 0.1639854635 -0.5331594531 0.1640691046 -0.5326589472 -0.0538972241 0.1720280148
605296370.0 -0.0260185422 0.1851220028 0.1580940378 -0.5347187287 0.1582546897 -0.5347210274 -0.0520936083 0.1728888298
610296340.0 -0.0236552805 0.1853845786 0.151778809 -0.5360294174 0.152324972 -0.5362561578 -0.0503915506 0.1732195287
615296310.0 -0.0211938669 0.1854118195 0.1461757311 -0.5375060745 0.1463168078 -0.5382683433 -0.0485554357 0.173976519
620296280.0 -0.0195989307 0.1854995353 0.1405368939 -0.5392223816 0.1407025777 -0.5391317416 -0.0473403782 0.1743884542
625296250.0 -0.0177429767 0.1859419365 0.1357442808 -0.5409375697 0.1347208995 -0.5410677225 -0.0447305668 0.1749838179
630296220.0 -0.0149259672 0.1865687135 0.1281852153 -0.5424245956 0.1287679674 -0.5420322792 -0.0431166573 0.1758050516
635296190.0 -0.013902549 0.1865814716 0.1230829093 -0.5436334131 0.1230363621 -0.5435234624 -0.0412611394 0.1760845878
640296160.0 -0.0113789556 0.1870999443 0.1170575421 -0.5442197593 0.1171506909 -0.5447486533 -0.0398867916 0.1768934344
645296130.0 -0.009453375 0.1874968834 0.1107216271 -0.5455854485 0.111447461 -0.5460507759 -0.0377826354 0.1773410126
650296100.0 -0.0071626169 0.1874722481 0.1048061539 -0.5470786431 0.1052900079 -0.5466947875 -0.0358483568 0.1774478768
655296070.0 -0.0053234495 0.187906073 0.099244334 -0.5481911589 0.0994458254 -0.5482237607 -0.0340276063 0.178229601
660296040.0 -0.0035948914 0.1876012138 0.0935404124 -0.5492756179 0.0935519667 -0.5492324112 -0.032359981 0.1785224492
665296010.0 -0.0008026154 0.1878442919 0.0873200259 -0.549764319 0.0875889338 -0.5499742298 -0.0305727037 0.1796210512
670295980.0 0.0005454304 0.188445533 0.0814164163 -0.5506497853 0.0818305316 -0.5508790627 -0.0292002952 0.1798431388
675295950.0 0.0027370829 0.1885183296 0.07552605 -0.5515096057 0.0757582712 -0.5509007222 -0.0275900049 0.1802679182
680295920.0 0.0047628212 0.1881822797 0.0696347662 -0.5521404664 0.0691617016 -0.5529209002 -0.0254552237 0.1813856787
685295890.0 0.0069930381 0.1890022651 0.0635737943 -0.5529576039 0.0635297233 -0.5532138053 -0.0237302499 0.1813277926
690295860.0 0.0091319712 0.1888604716 0.0579221134 -0.5535052938 0.0579593418 -0.5540567199 -0.0220741285 0.1826086904
695295830.0 0.0111251391 0.1883858518 0.0522005878 -0.5540805915 0.0513004167 -0.5543456586 -0.0204351376 0.1825642652
700295800.0 0.0131881028 0.1885311571 0.0455140498 -0.5546608251 0.0455188811 -0.5545751024 -0.0189993507 0.1832904304
705295770.0 0.0150343228 0.1893107257 0.039665243 -0.5551550868 0.039756768 -0.5549875193 -0.0173270456 0.1834948636
710295740.0 0.0176350344 0.1886025983 0.0336185652 -0.5558991753 0.0341046854 -0.5562216342 -0.0151038456 0.1834600569
715295710.0 0.0192022703 0.18856924 0.0283537736 -0.5560038286 0.0275344194 -0.5558825437 -0.013040473 0.1839365837
720295680.0 0.021404208 0.1885790425 0.021763884 -0.5564580444 0.0219133004 -0.5564633015 -0.0116396672 0.1848367489
725295650.0 0.0233035166 0.188563745 0.0163484551 -0.5564187078 0.0159545336 -0.556780776 -0.0103682384 0.1852894954
730295620.0 0.0257949621 0.1887482411 0.0094679147 -0.5564641886 0.0099241753 -0.5567114968 -0.0087549991 0.1848797899
735295590.0 0.0276478595 0.1886102086 0.0038615815 -0.5566825848 0.0038262634 -0.5563468068 -0.0068326374 0.1850140712
740295560.0 0.0296462441 0.1883422043 -0.0025000087 -0.5565012058 -0.0020950547 -0.5566749424 -0.0044300449 0.1856120649
745295530.0 0.0318770225 0.1884473035 -0.0081125108 -0.5561923696 -0.00829313 -0.5565937728 -0.0032157297 0.1855057341
750295500.0 0.0341588759 0.1877895502 -0.0143572404 -0.5561605141 -0.0140760732 -0.5563308475 -0.0011819157 0.1854074652
755295470.0 0.0362101772 0.1874409449 -0.0200125133 -0.5561802774 -0.0204171544 -0.5561956156 0.0008274175 0.1855008318
760295440.0 0.0381113263 0.1873677208 -0.0258278138 -0.5561092814 -0.026164685 -0.5562609672 0.0024502211 0.1855001375
765295410.0 0.0399645804 0.1871795782 -0.032155495 -0.555415217 -0.03243892 -0.5556372843 0.0044751191 0.1858075553
770295380.0 0.0419064374 0.1864568115 -0.0384479473 -0.5552448368 -0.0383405433 -0.5547124906 0.0056646465 0.1855324653
775295350.0 0.0439580798 0.1860642556 -0.0445283657 -0.554393411 -0.0438405735 -0.5542796763 0.0069348041 0.1860962576
780295320.0 0.046127257 0.185825267 -0.0501177171 -0.5533568059 -0.0494295253 -0.5539879681 0.0093862022 0.1856834874
785295290.0 0.0477988363 0.1851656793 -0.0563953102 -0.552957601 -0.0559112411 -0.5533986006 0.0116870256 0.1858770501
790295260.0 0.0507057655 0.1853571653 -0.0618396058 -0.552611204 -0.0611864542 -0.5526642982 0.0135119579 0.1858119291
795295230.0 0.0522058143 0.1846422243 -0.068154304 -0.5519755748 -0.0679011337 -0.5523350343 0.0153423707 0.1861573792
800295200.0 0.054098363 0.1844664578 -0.0745634481 -0.5508901444 -0.0739139252 -0.551046006 0.0170356669 0.1856304759
805295170.0 0.0563543424 0.1836943133 -0.0795697252 -0.5502527671 -0.0800232141 -0.5505880547 0.0189060454 0.1857186422
810295140.0 0.0583524135 0.1827645219 -0.0855742098 -0.5487695552 -0.0860058998 -0.5492825217 0.0212351273 0.1858902557
815295110.0 0.0603416993 0.1821741316 -0.0917685104 -0.5478349776 -0.0912771509 -0.5483815498 0.0227412288 0.1857804772
820295080.0 0.0620481958 0.1825242195 -0.0974527014 -0.5471248414 -0.0968403445 -0.5470405102 0.0245774532 0.1857861665
825295050.0 0.0646357289 0.1814895101 -0.102932058 -0.5457935327 -0.1033374251 -0.5463384483 0.0266568775 0.1859411615
830295020.0 0.0662137556 0.1811289066 -0.1094195509 -0.5446480259 -0.1095035477 -0.5448174913 0.0291849619 0.185841819
