!Created with skrf (http://scikit-rf.org).
# Hz S RI R 50.0 
!freq ReS11 ImS11 ReS21 ImS21 ReS12 ImS12 ReS22 ImS22
300000.0 -0.2385922005 -0.1013186989 0.4681718808 0.0672457955 0.4693718528 0.0715887089 -0.2373101949 -0.1107376849
5299970.0 -0.2438664631 0.0071103125 0.4738463467 0.0050399424 0.4739258786 0.0058247983 -0.2441758947 0.0057263296
10299940.0 -0.2402938435 0.019788691 0.4757675682 0.00632733 0.4758319668 0.0067894882 -0.2410424199 0.0183345119
15299910.0 -0.2360827726 0.0294270867 0.4792767573 0.0079089165 0.4793780342 0.0082364511 -0.2366342165 0.0274095365
20299880.0 -0.2306146808 0.0375895243 0.4840951809 0.0080755222 0.4842275121 0.0085421067 -0.2320643319 0.035546066
25299850.0 -0.2248846102 0.0434864722 0.4892714231 0.007143857 0.4896086967 0.0075084313 -0.2269413573 0.0418384718
30299820.0 -0.2188306125 0.0484374539 0.495211054 0.0054264565 0.4948779818 0.0053211058 -0.2215640312 0.0469589019
35299790.0 -0.2132353508 0.0527518822 0.5005373401 0.0020938777 0.5003693391 0.0023951811 -0.2162688244 0.0507115706
40299760.0 -0.2075628922 0.055670613 0.5056557404 -0.0018408272 0.5058481473 -0.0017491434 -0.2116944318 0.0547898678
45299730.0 -0.2025410027 0.0585883668 0.5102782752 -0.0065886403 0.5104193603 -0.0063401037 -0.2067404792 0.0571728793
50299700.0 -0.1977988767 0.0602383779 0.5142854961 -0.0120166458 0.5145412564 -0.0121831109 -0.2023879632 0.0596068674
55299670.0 -0.1936166723 0.0617542989 0.5180248018 -0.0181738192 0.5179358694 -0.0177251804 -0.1983821696 0.0613480781
60299640.0 -0.1895108704 0.0628065136 0.521029162 -0.0244632899 0.5213985399 -0.02427908 -0.1945535878 0.0632832437
65299610.0 -0.1861881999 0.0637908427 0.5244661061 -0.0298638252 0.5245553056 -0.0304543423 -0.1908791226 0.0644390584
70299580.0 -0.182745531 0.0643578875 0.5268627735 -0.0371329971 0.526895247 -0.0371683216 -0.1880441882 0.0656253373
75299550.0 -0.1796936937 0.0651307245 0.5289162377 -0.0438369842 0.5288249 -0.0439922823 -0.1852188383 0.0666731377
80299520.0 -0.1772292011 0.0656246368 0.5308152718 -0.0508074761 0.5311718708 -0.0508483634 -0.1827703384 0.0674312432
85299490.0 -0.1747300014 0.0657129023 0.5320478135 -0.0577783949 0.531911064 -0.0575905841 -0.1801732734 0.0681481658
90299460.0 -0.172628673 0.0664508561 0.5331664892 -0.0644039602 0.5331154984 -0.0647927164 -0.1776891353 0.0690254178
95299430.0 -0.1707605626 0.067190855 0.5343571946 -0.0717816968 0.534396128 -0.0716196312 -0.1759487478 0.0701955944
100299400.0 -0.1689571567 0.0676357304 0.5340643345 -0.078348111 0.5342080564 -0.0788323065 -0.1740112838 0.0708541814
105299370.0 -0.1669620621 0.0682800883 0.53445235 -0.0853010799 0.5346144713 -0.0853097126 -0.1721906371 0.0713700151
110299340.0 -0.1654842728 0.0684712361 0.5348427237 -0.0920507787 0.5349251227 -0.0927733141 -0.1708458388 0.072480969
115299310.0 -0.1639455485 0.0685423181 0.534844488 -0.098770084 0.534788031 -0.0987457298 -0.1690725058 0.0729117064
120299280.0 -0.1628188849 0.0694492336 0.5347967271 -0.1060834478 0.5348751412 -0.1059032174 -0.1680718033 0.0741840713
125299250.0 -0.1620495895 0.0699241211 0.5341291893 -0.112437018 0.5345058514 -0.1127962485 -0.1663432534 0.0745852517
130299220.0 -0.1606668433 0.0703301737 0.5338189566 -0.1188816014 0.5337948339 -0.1195336889 -0.1652702629 0.0758812739
135299190.0 -0.1594777889 0.0708739763 0.5332488737 -0.1256985771 0.532565751 -0.1258528745 -0.1640698886 0.0767887118
140299160.0 -0.1584613151 0.0722941004 0.5320699653 -0.1328182347 0.5325753866 -0.1326615881 -0.1626987226 0.0778663993
145299130.0 -0.157421963 0.0727133157 0.5319257823 -0.1393770105 0.5313043971 -0.1389285369 -0.1619534371 0.0786778248
150299100.0 -0.1565515141 0.073665552 0.530031945 -0.1458177046 0.5301393127 -0.1454106398 -0.1606104619 0.0798926148
155299070.0 -0.1560319126 0.0748896028 0.5290433337 -0.1523228397 0.5292007282 -0.1524955303 -0.1602432137 0.0809751662
160299040.0 -0.1550576642 0.0753926451 0.5274554565 -0.1584120254 0.5279772742 -0.1587772185 -0.1590674855 0.0824073576
165299010.0 -0.154478341 0.076155457 0.5263708367 -0.1654204216 0.5263896132 -0.1652653199 -0.1577682104 0.0833402797
170298980.0 -0.153565384 0.0772680911 0.5239600386 -0.1714775747 0.5246855255 -0.171401292 -0.1567399209 0.0841427459
175298950.0 -0.1526206354 0.0781329685 0.5232801082 -0.1777287404 0.5234653703 -0.178020053 -0.1559387365 0.0858108204
180298920.0 -0.1515887392 0.0791755653 0.5214493532 -0.1844281112 0.5213560163 -0.1839640482 -0.1545867214 0.0871238149
185298890.0 -0.1506937959 0.0803709336 0.5194039593 -0.1907940164 0.5198109142 -0.1905491936 -0.1541510518 0.0883058154
190298860.0 -0.1502503065 0.0813458264 0.5176958638 -0.1966286594 0.5175383782 -0.1967260373 -0.1524341261 0.0896583535
195298830.0 -0.1494870724 0.0820511366 0.5159454407 -0.2021614863 0.5154218345 -0.2029503764 -0.151798629 0.0905473711
200298800.0 -0.1489404475 0.0833541638 0.5136679463 -0.2081771226 0.5138182897 -0.2089164953 -0.151112608 0.0922088058
205298770.0 -0.1480446841 0.0845455206 0.5116389798 -0.2142639828 0.5120246196 -0.2147813103 -0.1501441555 0.0931293878
210298740.0 -0.1472827306 0.0856312447 0.5092985814 -0.220579685 0.5093388505 -0.2211041599 -0.1487932997 0.0949641983
215298710.0 -0.1467408845 0.0868536317 0.5074334509 -0.2269662927 0.5068260299 -0.2267297406 -0.1482863858 0.0961268473
220298680.0 -0.1460673669 0.08785472 0.5044048034 -0.2328867335 0.5047064797 -0.2328225166 -0.1469814645 0.0979556641
225298650.0 -0.1446301884 0.0893022296 0.501756513 -0.2382377393 0.5020122724 -0.2382397246 -0.1463847381 0.0991680551
230298620.0 -0.1444980015 0.0905205029 0.4996604598 -0.2443931682 0.4998007431 -0.244324344 -0.1449018853 0.1004962878
235298590.0 -0.1435610229 0.0916053719 0.497017317 -0.2500133974 0.4973591245 -0.250531081 -0.1438579921 0.1015543337
240298560.0 -0.1430407942 0.0930922127 0.4942648672 -0.2556747919 0.494268143 -0.2554782048 -0.1432877709 0.1032655124
245298530.0 -0.1419709533 0.0940962887 0.4908221072 -0.2614163259 0.4913327733 -0.2612016527 -0.1418537705 0.1048462555
250298500.0 -0.1416051838 0.0953665582 0.488622573 -0.2666011438 0.4888509652 -0.2666039489 -0.1405740933 0.1063165731
255298470.0 -0.140631474 0.0965766633 0.4853807091 -0.2728795301 0.4855789379 -0.2726735422 -0.1395257092 0.1075893857
260298440.0 -0.1395337307 0.0979888929 0.4827236615 -0.2779700373 0.4825767134 -0.2785221043 -0.1381609705 0.1091607675
265298410.0 -0.138892368 0.0995740995 0.4796391628 -0.2842985216 0.4794391139 -0.2841445252 -0.1371541395 0.1103060001
270298380.0 -0.1379049315 0.1006841011 0.4765398828 -0.2889443996 0.4767749778 -0.2892230357 -0.1358294525 0.1121443154
275298350.0 -0.1373305404 0.1018568311 0.4733815078 -0.295098835 0.4738105601 -0.2948184739 -0.1347427877 0.1134572194
280298320.0 -0.1363975887 0.1032952691 0.4702652586 -0.2997680202 0.4700079995 -0.3002419028 -0.1335752385 0.1148824708
285298290.0 -0.1352891237 0.1047967292 0.4670259201 -0.3051234854 0.4667999422 -0.3054557545 -0.1325174081 0.1163025157
290298260.0 -0.1342351645 0.1060236395 0.46363028 -0.3106369633 0.4638866922 -0.3106940986 -0.1309930144 0.1181000099
295298230.0 -0.1333217974 0.107007558 0.4603892521 -0.3158180314 0.4600225859 -0.3161187581 -0.1295524994 0.1196232116
300298200.0 -0.1321307271 0.1086992832 0.4567610786 -0.3212718371 0.4572944551 -0.3216082318 -0.1286925206 0.120980499
305298170.0 -0.1309925384 0.109486862 0.4535956845 -0.3265715414 0.4537230128 -0.3267615827 -0.1266952364 0.1227186708
310298140.0 -0.1297231316 0.1106065495 0.4497956905 -0.3318965953 0.4497630315 -0.3321842322 -0.1254206927 0.1240475452
315298110.0 -0.1292548927 0.1118992629 0.4459531992 -0.3369764593 0.4464067789 -0.3372721913 -0.1240501235 0.1251055568
320298080.0 -0.1281547332 0.1135083861 0.4422950174 -0.3421575121 0.4426960886 -0.3423094836 -0.1228552006 0.126409621
325298050.0 -0.1272151424 0.1142291876 0.4387510732 -0.3475419893 0.439068405 -0.3475422898 -0.1216369116 0.1277835765
330298020.0 -0.1262365875 0.1156106498 0.4342171611 -0.3525113056 0.4345827392 -0.3522913813 -0.1204657935 0.1289750183
335297990.0 -0.1253337328 0.1167006219 0.430380968 -0.3571028777 0.4302929574 -0.3570186155 -0.1191368388 0.1305951085
340297960.0 -0.1246137865 0.1183051147 0.4258835157 -0.3623763254 0.4268215662 -0.3616001727 -0.1178420711 0.131777513
345297930.0 -0.1239518475 0.1196488528 0.4224248975 -0.3659288323 0.4223440124 -0.3662519576 -0.1167313765 0.133208323
350297900.0 -0.1223982015 0.1207680038 0.418010922 -0.3707637287 0.4187130603 -0.3708283891 -0.1152909991 0.1347151097
355297870.0 -0.1215684326 0.1220513612 0.4140710126 -0.3755569769 0.4137951017 -0.3758708128 -0.1138921682 0.1363736169
360297840.0 -0.1202262214 0.1235662359 0.4097686202 -0.3802882407 0.4097633862 -0.380316019 -0.1121580147 0.1377458217
365297810.0 -0.1190296485 0.1244581781 0.405360635 -0.3845895824 0.4055347454 -0.3848185941 -0.110844707 0.1395295247
370297780.0 -0.1177302938 0.1258470011 0.4009861566 -0.3891963741 0.4014743573 -0.3895079227 -0.1094254917 0.141004378
375297750.0 -0.1167134608 0.1275645866 0.397440121 -0.3933432844 0.3971743835 -0.3938689276 -0.1077613867 0.1424782818
380297720.0 -0.1155266686 0.1283032489 0.3926115342 -0.3978140251 0.3927276004 -0.3979796116 -0.1061115488 0.1439411432
385297690.0 -0.1142341077 0.129916067 0.3879873167 -0.4016956733 0.3882770834 -0.4025629344 -0.1047420534 0.1454317937
390297660.0 -0.1133841368 0.1311650436 0.3835906333 -0.4068057063 0.3836323622 -0.4067138284 -0.1027837171 0.1460180097
395297630.0 -0.1119598935 0.1320223254 0.3794411754 -0.4101827474 0.379669576 -0.4104909301 -0.1014451534 0.1481937247
400297600.0 -0.110594701 0.1336861034 0.3745593611 -0.4149024515 0.3749700204 -0.4151365961 -0.1001511032 0.1490314252
405297570.0 -0.1093999905 0.1347983412 0.3700792077 -0.4185934083 0.3701298295 -0.4189328041 -0.0984347939 0.1506205109
410297540.0 -0.1080113284 0.1358651964 0.3653440711 -0.4230054741 0.3655685882 -0.4229932731 -0.0967034911 0.151768684
415297510.0 -0.1067967444 0.1371961864 0.3609109732 -0.4267806066 0.3610921665 -0.4270715364 -0.0954058992 0.1535540795
420297480.0 -0.1054023877 0.1379025887 0.3560017269 -0.4311226243 0.3562842448 -0.4307705775 -0.0935868776 0.154101087
425297450.0 -0.1035575564 0.1390791359 0.3511880422 -0.4344509825 0.351797799 -0.4347612603 -0.091582418 0.1558396533
430297420.0 -0.1029433118 0.1405323749 0.3466240923 -0.4388548917 0.3469892804 -0.4386053538 -0.0902815945 0.1567997485
435297390.0 -0.1010131694 0.1415949285 0.3417210024 -0.4420338893 0.3419824282 -0.4422581506 -0.0884472985 0.1582819422
440297360.0 -0.0998140012 0.1423675582 0.3365650104 -0.4454975988 0.3367777862 -0.4458201364 -0.0870400636 0.158906333
445297330.0 -0.0982640934 0.1437621705 0.3316055283 -0.4499302566 0.3322025165 -0.4497176839 -0.085425444 0.1603147409
450297300.0 -0.0967108571 0.1446000609 0.3269908246 -0.4533196254 0.3271222433 -0.4532487692 -0.0833486486 0.1616603859
455297270.0 -0.0957489453 0.1458370525 0.3222298622 -0.4570635572 0.3222029772 -0.4566178855 -0.081552787 0.1627245572
460297240.0 -0.0944611318 0.1468115635 0.3171314554 -0.4596276104 0.3166943679 -0.4602775748 -0.0797861827 0.1643108448
465297210.0 -0.0928265859 0.1478569759 0.3121710824 -0.4637101897 0.3126851447 -0.4635758393 -0.0784145668 0.1647735635
470297180.0 -0.091399564 0.1487077556 0.3070979092 -0.4664802887 0.3074964199 -0.4672006567 -0.0769672638 0.1657621364
475297150.0 -0.0902819333 0.1496006008 0.3017433739 -0.4700084901 0.3023134786 -0.4699786683 -0.0748381668 0.1668932607
480297120.0 -0.0881701354 0.1504318503 0.2961252887 -0.4731516982 0.2968227238 -0.473214284 -0.0728862722 0.1683617807
485297090.0 -0.0867468705 0.1517418966 0.2919503145 -0.4768646513 0.2913886417 -0.4765102405 -0.0712230498 0.1687558654
490297060.0 -0.0852729904 0.1525161157 0.2861608591 -0.4797541552 0.2864130073 -0.4797926041 -0.0694302228 0.1701483237
495297030.0 -0.0841584017 0.1539521147 0.2811471745 -0.4827520772 0.2809448182 -0.4829807436 -0.06759446 0.1709038623
500297000.0 -0.0825213705 0.1542237145 0.2756120792 -0.4855986033 0.2759175262 -0.4854211695 -0.0657056369 0.1717062649
505296970.0 -0.0811952963 0.1551511438 0.2699090385 -0.4884980013 0.2702376845 -0.4885002815 -0.0643082873 0.1731951357
510296940.0 -0.0795815249 0.1563168762 0.2652040972 -0.4917767028 0.2653960587 -0.4918275577 -0.0620436388 0.1743514172
515296910.0 -0.0785580354 0.1572403792 0.2595353762 -0.4940506359 0.2595328105 -0.4946153477 -0.06055274 0.1748479943
520296880.0 -0.076385939 0.158281869 0.2544818253 -0.4972587173 0.2544956489 -0.4970910447 -0.0585401707 0.1756753232
525296850.0 -0.0752998216 0.1588989476 0.2491737564 -0.5000580635 0.2489351783 -0.5000462351 -0.0561753932 0.1764203486
530296820.0 -0.073305861 0.1595574908 0.2436239029 -0.5020544369 0.2436500506 -0.5026566138 -0.0547381477 0.1769397771
535296790.0 -0.0720908029 0.1604913118 0.238068963 -0.5048847077 0.2383414842 -0.5050070845 -0.0528313113 0.1773974286
540296760.0 -0.070631707 0.1611326087 0.2326195429 -0.5080030135 0.2325025648 -0.5079947489 -0.0514794355 0.178720176
545296730.0 -0.0690662625 0.1622736345 0.2266072856 -0.5099138031 0.2271727014 -0.5102042188 -0.0490226267 0.1792810048
550296700.0 -0.0676670249 0.1631914642 0.2213196924 -0.5126921501 0.2221990068 -0.5130251089 -0.0472416922 0.1803176032
555296670.0 -0.0655580463 0.1637617709 0.2160186779 -0.5152046043 0.2161836828 -0.5148786974 -0.0453530117 0.1808424999
560296640.0 -0.0643303634 0.1643675021 0.2105182066 -0.5170019278 0.2104204349 -0.5167277743 -0.0431023772 0.1816548916
565296610.0 -0.0628636513 0.1650571922 0.2042519996 -0.5194231898 0.2042303434 -0.5192559398 -0.0414569769 0.1820109046
570296580.0 -0.0607018567 0.1657994149 0.1991053717 -0.5212624344 0.1993642085 -0.5217824893 -0.0394835065 0.1830941454
575296550.0 -0.0594880075 0.1670630184 0.1932858714 -0.5235676062 0.1937387914 -0.5232716423 -0.0372609424 0.1833488317
580296520.0 -0.057981158 0.1672624717 0.187972463 -0.5255068146 0.1877416526 -0.5256534389 -0.0353812252 0.1841095193
585296490.0 -0.0560062604 0.1678827967 0.182232952 -0.5275452763 0.1818618311 -0.5274241516 -0.0337992881 0.1840492735
590296460.0 -0.0548396472 0.1684875273 0.1760760625 -0.5294817884 0.1762779818 -0.5294179621 -0.0314651656 0.184945492
595296430.0 -0.0528512016 0.169456636 0.170286242 -0.5314823959 0.1707026799 -0.531631538 -0.0293495931 0.1853979009
600296400.0 -0.051382858 0.1698875806 0.1649130827 -0.5329815436 0.1652057246 -0.5332357832 -0.0275771404 0.1860621398
605296370.0 -0.0493655305 0.1710410817 0.1590604993 -0.5351825079 0.1589899545 -0.5347525735 -0.025219186 0.1861847888
610296340.0 -0.0478990638 0.17129658 0.1534403726 -0.5365693872 0.1535473128 -0.5368998876 -0.0234181315 0.18744697
615296310.0 -0.0462615455 0.1722803681 0.1469160989 -0.5380848825 0.1472793966 -0.5383308375 -0.0214014183 0.1874148791
620296280.0 -0.0443420004 0.1723718286 0.1412953665 -0.5393557567 0.1417700762 -0.5397969247 -0.0194928258 0.1873035002
625296250.0 -0.0426750704 0.1729593888 0.1353933909 -0.541191964 0.1357409609 -0.541442854 -0.0171177523 0.188095289
630296220.0 -0.0409965725 0.1738512775 0.1294401125 -0.542905465 0.1299801714 -0.5424593846 -0.0154020785 0.1881065904
635296190.0 -0.0397458892 0.1741718465 0.1236658869 -0.5435803305 0.123781031 -0.5435092444 -0.013451409 0.1885771093
640296160.0 -0.0375097427 0.1745693821 0.1183549898 -0.5453029643 0.1182286913 -0.5454052594 -0.0109432492 0.1889536249
645296130.0 -0.0360339036 0.1756297188 0.1119387913 -0.546605124 0.1118832776 -0.5463502945 -0.0096162413 0.188821045
650296100.0 -0.0346077036 0.1761111456 0.1067481609 -0.5474750907 0.1064482066 -0.5474761748 -0.0070233043 0.189240675
655296070.0 -0.0326828233 0.1760999003 0.1003369508 -0.548207136 0.1003695486 -0.548918591 -0.0049510497 0.189934284
660296040.0 -0.0313308104 0.1769704347 0.0947370614 -0.5491600711 0.0946269054 -0.549778724 -0.0030649735 0.1895770515
665296010.0 -0.0294776566 0.177337923 0.0891286615 -0.5503014262 0.0891863909 -0.5503400773 -0.0012430087 0.1905233451
670295980.0 -0.0270329409 0.1777099379 0.0826099857 -0.5513869298 0.0832410101 -0.5510127234 0.000462678 0.1900800767
675295950.0 -0.0255242387 0.1779379095 0.0765768985 -0.5523702401 0.0772061956 -0.5525142711 0.0029023894 0.190530199
680295920.0 -0.0238621513 0.1788974592 0.070482164 -0.5532399034 0.0705334135 -0.5533459938 0.005351451 0.1902503555
685295890.0 -0.022264786 0.1788242936 0.0651110543 -0.553355492 0.0643935663 -0.5540129626 0.0071107743 0.190758592
690295860.0 -0.02063609 0.1794694258 0.0588497435 -0.5539645597 0.0583735997 -0.5540395734 0.0097478959 0.190725341
695295830.0 -0.0184136842 0.1793544745 0.0518179638 -0.5547763178 0.0521164432 -0.5551775444 0.011195195 0.1909278202
700295800.0 -0.0166009676 0.1800269787 0.0461295898 -0.5555838203 0.0466221668 -0.5554577957 0.013578918 0.1903087503
705295770.0 -0.0151200021 0.1803577966 0.0403572143 -0.5560224095 0.041188432 -0.555790249 0.0154553789 0.1908828553
710295740.0 -0.0132546329 0.1806698047 0.0343206264 -0.5559548539 0.0345275235 -0.5560783712 0.0172549056 0.1911345778
715295710.0 -0.0115296422 0.1809454215 0.0286252118 -0.5567711862 0.0287721755 -0.5566128663 0.0196589897 0.1904854703
720295680.0 -0.0097357868 0.1808542674 0.0224975513 -0.5564645905 0.0231234829 -0.5571221573 0.0219861906 0.1908022588
725295650.0 -0.0078350246 0.1813857154 0.0161269907 -0.556740076 0.0165598852 -0.5568758089 0.0237855285 0.1908178912
730295620.0 -0.0064830983 0.1816438324 0.0103972745 -0.5567356845 0.0103584858 -0.5572345376 0.0259745384 0.1900165873
735295590.0 -0.0042119995 0.1816593608 0.0046395898 -0.5569488222 0.0049912764 -0.5573472315 0.0279957438 0.1901376488
740295560.0 -0.0024996914 0.1821937491 -0.0014214701 -0.5564437396 -0.001462123 -0.5570173027 0.0302851151 0.1900367255
745295530.0 -0.0009629479 0.1821962544 -0.0072244157 -0.5567678018 -0.0071880667 -0.5570690223 0.0317937738 0.1898899317
750295500.0 0.0007177634 0.182197691 -0.0131572127 -0.5564912901 -0.0133868293 -0.5568164475 0.0342279108 0.1893549525
755295470.0 0.0030326552 0.1827408306 -0.0190610451 -0.55677508 -0.0191963003 -0.5567977466 0.035819581 0.1891697765
760295440.0 0.0044215197 0.1827558534 -0.025193823 -0.556291982 -0.0251636841 -0.5563492757 0.037806151 0.1890857329
765295410.0 0.006175153 0.1822796442 -0.0306835868 -0.5556269912 -0.0307088393 -0.5562688472 0.040828782 0.1891655578
770295380.0 0.0084500093 0.1828930888 -0.037741424 -0.5553005796 -0.0373037923 -0.5561391653 0.042727547 0.1890077656
775295350.0 0.010128617 0.1830713613 -0.0435018885 -0.5544903013 -0.0432553431 -0.5551011648 0.0441029304 0.1878777672
780295320.0 0.0119031269 0.1828217027 -0.048943753 -0.5548138196 -0.0488834605 -0.5547738741 0.046511694 0.1879464397
785295290.0 0.0133596959 0.1831712654 -0.0552138148 -0.5534675753 -0.0551258005 -0.5540993646 0.0481188734 0.1876236355
790295260.0 0.0153099026 0.1830980134 -0.0607580644 -0.5535031382 -0.0609816726 -0.5537443512 0.0504640877 0.1871949598
795295230.0 0.0170873527 0.1834080124 -0.0667010007 -0.5523937634 -0.0666699637 -0.5528100169 0.0526258558 0.1874351723
800295200.0 0.0190533775 0.1832130367 -0.0732461158 -0.5519474885 -0.0733657293 -0.5520591807 0.0547253051 0.1865459804
805295170.0 0.0205634796 0.1829697113 -0.0788699365 -0.5503884425 -0.0790311178 -0.5506868042 0.0562807033 0.185722268
810295140.0 0.0225920916 0.18312657 -0.0845119493 -0.5494181183 -0.0844607212 -0.5506123266 0.0586491494 0.1859330282
815295110.0 0.024254748 0.182948797 -0.0907170268 -0.5485448495 -0.0909056099 -0.5491866841 0.0607113041 0.1850313741
820295080.0 0.0259804014 0.1824945015 -0.0964412413 -0.5478197115 -0.0966311246 -0.5483697318 0.0624978709 0.1846264493
825295050.0 0.0278770361 0.1824100846 -0.1023004486 -0.5464625551 -0.1021733496 -0.5469228269 0.0647708138 0.1842780901
830295020.0 0.0297583699 0.1826498749 -0.10870716 -0.5454222811 -0.1086677078 -0.5459946243 0.0664823591 0.1835817155
