!Created with skrf (http://scikit-rf.org).
# Hz S RI R 50.0 
!freq ReS11 ImS11 ReS21 ImS21 ReS12 ImS12 ReS22 ImS22
300000.0 -0.7778020865 -0.1533827775 0.0007281567 0.0012204362 -0.0011475919 0.00199548 -0.2093946374 -0.0978390794
5299970.0 -0.7854559136 -0.0078899481 -5.68778e-05 -0.0001069595 4.90965e-05 0.0001057995 -0.2163428177 0.0063911163
10299940.0 -0.787853712 -0.0047283982 0.0001859749 -0.0001467865 -5.77164e-05 -1.98143e-05 -0.2127976477 0.0184557287
15299910.0 -0.7932830985 -0.0022499833 0.0001469358 -9.01978e-05 -1.85335e-05 1.64349e-05 -0.2081599723 0.0278479558
20299880.0 -0.7994761618 0.002252511 -4.59607e-05 -2.39478e-05 -2.924e-05 0.000121872 -0.202804946 0.0355646691
25299850.0 -0.8061513236 0.008410728 -0.000231037 -9.04633e-05 6.55273e-05 -0.0001931898 -0.1972131651 0.0418649544
30299820.0 -0.8117270093 0.0163766286 0.0002488909 0.0001283163 -0.0001176036 0.0001593188 -0.1916328911 0.0464126738
35299790.0 -0.8168618469 0.025366961 -2.78733e-05 7.14404e-05 5.07651e-05 0.0001710956 -0.1857601993 0.0502866367
40299760.0 -0.8213389761 0.0341404017 -1.01873e-05 -8.4521e-05 8.00362e-05 0.0001167169 -0.1804690017 0.0530734458
45299730.0 -0.8247492595 0.0445435177 -4.30624e-05 -1.83573e-05 -0.000131869 -9.69601e-05 -0.1754342007 0.0551481206
50299700.0 -0.8265339046 0.0544814495 0.0001925558 -5.21598e-05 -7.28963e-05 -4.9636e-06 -0.1703653917 0.0569075645
55299670.0 -0.8284122221 0.0637099082 3.1127e-05 0.0001700639 0.0001809008 -5.18883e-05 -0.1663325 0.0578486757
60299640.0 -0.8299563614 0.074645528 0.0001163449 -6.01015e-05 0.0003021607 -4.00142e-05 -0.1623214317 0.0587299595
65299610.0 -0.8308958029 0.0847994428 0.000210553 -0.0002411273 -0.000161916 0.0001217827 -0.1586520792 0.0592010308
70299580.0 -0.8313772088 0.0945276117 1.13734e-05 8.48766e-05 2.50578e-05 -0.0001560606 -0.155662 0.059285888
75299550.0 -0.8311105787 0.1045000316 -3.98893e-05 -0.0001183472 -0.0001243983 0.0002039575 -0.1524504821 0.0597384784
80299520.0 -0.8307783378 0.1148931771 5.51862e-05 7.31084e-05 0.0001006491 -1.83008e-05 -0.1500857317 0.0597054608
85299490.0 -0.8303225214 0.1241230687 0.0002028218 0.0002044329 -4.48735e-05 -7.91798e-05 -0.1478700493 0.0598528463
90299460.0 -0.8299078107 0.1342720559 3.93098e-05 4.70301e-05 -3.54312e-05 0.0001526129 -0.1453482835 0.0595402075
95299430.0 -0.8284883693 0.1436482156 -3.44422e-05 7.339e-06 0.0001354795 -2.73225e-05 -0.1431752493 0.0600080972
100299400.0 -0.8274983349 0.1528470147 -2.89274e-05 0.0001086277 0.0001164952 -2.91409e-05 -0.1419474918 0.0594860907
105299370.0 -0.826698886 0.1624032043 0.0002501726 -2.1478e-05 0.0001337978 0.0001469571 -0.1399361212 0.0593539628
110299340.0 -0.8251715696 0.1704388962 -3.37551e-05 -5.42965e-05 -7.12198e-05 3.39e-06 -0.1388227368 0.0597896752
115299310.0 -0.8236149629 0.1803999414 -7.26843e-05 0.00022618 -5.11282e-05 -0.0001038097 -0.1371394315 0.0592398009
120299280.0 -0.8220953921 0.1894447291 0.0003437649 -0.0001029852 0.0001589478 5.74842e-05 -0.1361662997 0.0593484646
125299250.0 -0.820160078 0.1984973731 7.66134e-05 -5.44967e-05 9.38814e-05 -1.479e-06 -0.1350147167 0.0592976443
130299220.0 -0.8183073385 0.2074848197 0.0001548928 -9.98938e-05 4.47855e-05 -1.31853e-05 -0.1343138959 0.059596993
135299190.0 -0.8160968458 0.2169018783 1.56257e-05 0.0001630717 0.0001169039 0.0001408597 -0.1335580555 0.0596913193
140299160.0 -0.8144475485 0.2256855583 -0.0001069898 0.0001474804 -0.0001135224 0.00024367 -0.1322082911 0.0596863182
145299130.0 -0.8120353012 0.2340399844 5.5557e-05 9.55541e-05 -5.48779e-05 9.51619e-05 -0.1319714248 0.0604351135
150299100.0 -0.8102285548 0.2432029197 2.85015e-05 0.0002947186 4.99825e-05 1.76439e-05 -0.1308498035 0.0602564837
155299070.0 -0.8078173593 0.252684245 -4.56725e-05 9.57441e-05 -1.20579e-05 -3.98784e-05 -0.1304659779 0.061006399
160299040.0 -0.8050155749 0.2614938186 0.0001950558 0.0001965186 0.0001227555 3.48178e-05 -0.1295402379 0.0615668048
165299010.0 -0.802141978 0.2694166172 5.79517e-05 0.0001307486 0.0001605568 -6.64864e-05 -0.1292229218 0.0614891223
170298980.0 -0.7992048387 0.2780408422 -9.01647e-05 0.0001213108 6.21695e-05 -0.0001221717 -0.1286107732 0.0622049823
175298950.0 -0.7969432634 0.2874413872 -0.000213881 0.0001425455 -0.000127297 0.0001924437 -0.1281462378 0.0626370253
180298920.0 -0.7937759818 0.2954090236 -0.000174614 5.88808e-05 0.0002183466 0.0001890899 -0.1272993714 0.0631783565
185298890.0 -0.7903508478 0.3045462317 0.0001103955 -8.00169e-05 6.25811e-05 -1.05122e-05 -0.1269461522 0.0635963651
190298860.0 -0.7869561545 0.3122262234 0.0001082522 0.000150393 2.95607e-05 0.0001848452 -0.1262413212 0.0642190192
195298830.0 -0.7839828265 0.3210025006 -3.84435e-05 4.7581e-05 -9.10503e-05 6.43951e-05 -0.1258875868 0.0648309726
200298800.0 -0.7809645305 0.329345886 5.34504e-05 -0.0001235545 -0.0001690439 0.000151837 -0.1251269327 0.0654359171
205298770.0 -0.7775746258 0.3377593115 0.0001063136 -2.28588e-05 2.43849e-05 8.98371e-05 -0.1246334557 0.0663971007
210298740.0 -0.7735277863 0.3456686497 0.000169715 9.31761e-05 8.02911e-05 2.58596e-05 -0.1242039056 0.0670851477
215298710.0 -0.7706058337 0.3542812047 3.66869e-05 7.80007e-05 0.0002521366 0.0001940859 -0.1242548702 0.0677250218
220298680.0 -0.766968493 0.3621412393 0.0003065703 6.06912e-05 6.70368e-05 -3.3005e-06 -0.1229397193 0.0686764766
225298650.0 -0.7628119259 0.3712148709 0.0001384063 0.0002025862 3.83841e-05 4.26458e-05 -0.1229789019 0.0698415917
230298620.0 -0.7586824081 0.3785842997 4.97715e-05 7.73948e-05 4.70714e-05 0.0001205492 -0.1221295485 0.0702299356
235298590.0 -0.7543809522 0.3869625445 0.0001305415 -8.651e-07 -6.12683e-05 0.0001751738 -0.1217510916 0.0711289409
240298560.0 -0.7505403036 0.395009109 0.0001519715 0.0001286944 -2.10138e-05 5.41176e-05 -0.1212213774 0.0718253886
245298530.0 -0.7462045745 0.4031782998 0.0002176681 -6.89967e-05 0.0001869501 0.0001314096 -0.1204375312 0.0730027275
250298500.0 -0.7420997402 0.4107237922 0.0001971916 0.0001389362 0.0001674955 0.0001298685 -0.1196599125 0.0740631004
255298470.0 -0.7377129646 0.4189867479 9.84383e-05 0.0003436301 0.0001411138 0.0001233725 -0.1195770582 0.0746854813
260298440.0 -0.7334294971 0.4261849271 5.00854e-05 0.0001792616 -0.0001069196 9.85029e-05 -0.1189350666 0.0756861123
265298410.0 -0.7289823037 0.4340550325 0.0001646309 0.00012436 2.09889e-05 0.0001052768 -0.1183427076 0.0765897431
270298380.0 -0.7241785635 0.4417730792 0.0002816828 0.0002196008 -3.28812e-05 0.0001951829 -0.1173421097 0.0776971028
275298350.0 -0.7192690046 0.4489977642 0.0002959916 -4.96952e-05 6.82038e-05 0.0001854487 -0.116966426 0.0787715225
280298320.0 -0.7155982048 0.4565426725 9.3396e-05 -2.0512e-05 9.90281e-05 5.3748e-05 -0.1164284418 0.0797214102
285298290.0 -0.7105034313 0.4648138679 7.836e-07 9.26526e-05 0.000179294 0.000136714 -0.1156337461 0.0809392376
290298260.0 -0.7054648258 0.4714963391 0.0001273102 -1.6016e-06 9.81143e-05 2.14408e-05 -0.1150723994 0.0817850382
295298230.0 -0.7008079754 0.4790102985 0.0001445618 0.000149897 0.0001174865 3.06973e-05 -0.1144002735 0.0829501381
300298200.0 -0.6949917498 0.4869253744 9.60941e-05 0.0001517483 4.94457e-05 1.15518e-05 -0.1140457421 0.0838948616
305298170.0 -0.6901205133 0.4940626981 0.0001524346 0.0001227003 0.0002641314 0.0001318614 -0.1130195801 0.0853715559
310298140.0 -0.6845916065 0.5008650736 9.44911e-05 0.000160879 9.50405e-05 6.02604e-05 -0.1124278681 0.0863311261
315298110.0 -0.6799601815 0.5075641462 -2.07359e-05 -4.4632e-06 0.0001777892 0.0001990328 -0.1114710595 0.0873011056
320298080.0 -0.6738188936 0.5159296699 7.30806e-05 -5.84003e-05 9.71905e-05 -2.62315e-05 -0.1108558222 0.0882710703
325298050.0 -0.6686650319 0.5222980061 0.0002009776 9.91574e-05 5.27361e-05 -0.0001644679 -0.1102597185 0.0890614457
330298020.0 -0.6627166536 0.5290752128 0.0001962798 0.0002390518 -0.00013178 0.0001588307 -0.109430735 0.0900181178
335297990.0 -0.6570198023 0.5365474597 -8.84792e-05 -1.00043e-05 -4.58373e-05 -5.24618e-05 -0.1091367853 0.0910852773
340297960.0 -0.6520266022 0.543206954 0.0002082209 -5.71089e-05 0.0001109177 5.4604e-05 -0.1081621471 0.092267267
345297930.0 -0.6460932545 0.549095855 5.83521e-05 -2.2859e-05 0.0002738432 0.0002861741 -0.1076506828 0.0936866924
350297900.0 -0.6402266525 0.5564474073 0.0001188755 9.4951e-05 0.000171789 7.04122e-05 -0.1067260487 0.0947393861
355297870.0 -0.6341318355 0.5631361522 0.0001410843 0.0001192933 0.0001016601 4.84703e-05 -0.1062226346 0.0958432598
360297840.0 -0.6284127641 0.5694653976 0.000109046 6.74782e-05 -1.08831e-05 0.0001141015 -0.105403819 0.0972574033
365297810.0 -0.6219883821 0.5759104657 9.92799e-05 5.7615e-06 0.0002106757 0.0001455038 -0.1051250258 0.0986555195
370297780.0 -0.616360694 0.5816416478 2.51733e-05 -0.000115935 0.0002420918 -5.22821e-05 -0.1045554842 0.0995279297
375297750.0 -0.6100127315 0.5881699863 8.67813e-05 0.0001575945 4.98122e-05 0.0001073997 -0.1033964217 0.1012374912
380297720.0 -0.6038185952 0.5952249025 9.04675e-05 0.0001533583 0.00016945 0.0002246756 -0.1025150827 0.1021390516
385297690.0 -0.5975482758 0.6015695219 0.000113856 -4.2009e-05 0.0001095659 0.000195202 -0.1017951 0.1035399189
390297660.0 -0.5910039715 0.6071593313 -6.54643e-05 3.95867e-05 -2.545e-05 0.0001606995 -0.1009412006 0.1044714929
395297630.0 -0.5853019407 0.6125300574 0.0003294701 0.0001860443 0.000215143 -9.22145e-05 -0.0999679157 0.1056005083
400297600.0 -0.5785411415 0.619220547 0.0001691372 8.49959e-05 0.000144508 -0.0001864365 -0.099427129 0.1067758477
405297570.0 -0.5726746102 0.6256779962 0.000125392 0.0001560847 3.36646e-05 3.73882e-05 -0.0985574494 0.1074053128
410297540.0 -0.5659180662 0.6310131787 0.0004411854 0.000149323 0.0001913571 5.44996e-05 -0.0977897884 0.1090131006
415297510.0 -0.5591196767 0.6369979015 0.0001116484 4.10579e-05 0.0002704162 5.90103e-05 -0.0967961046 0.1106778591
420297480.0 -0.5520008239 0.6418286911 0.0001478966 7.16839e-05 5.74938e-05 9.11649e-05 -0.0961413374 0.1112012544
425297450.0 -0.5458671672 0.6482452845 4.72858e-05 5.79718e-05 3.92228e-05 0.0001826314 -0.0949959585 0.1124979168
430297420.0 -0.5390674353 0.6532817952 0.0001434739 3.56479e-05 0.0002788015 0.0001632473 -0.094217391 0.1134919316
435297390.0 -0.532102326 0.6593327766 0.0002796787 1.19761e-05 0.0002091082 0.0001457049 -0.0929803364 0.1147638488
440297360.0 -0.5252598293 0.6641508382 0.0002085534 0.0001224197 0.0002109455 0.0003205087 -0.0925274615 0.1156809104
445297330.0 -0.5183734477 0.6700075102 0.000126164 0.0001808973 1.22193e-05 8.62577e-05 -0.09165812 0.1165832836
450297300.0 -0.5113401248 0.6746973035 2.22708e-05 -0.0001628668 0.0001263313 0.0001227016 -0.0907275915 0.117925429
455297270.0 -0.5043833713 0.6795579072 0.0001774238 0.0001269675 0.0002104646 0.0001206576 -0.0893590844 0.1186716072
460297240.0 -0.4973585517 0.6853911079 0.0003390648 -0.0001163042 -1.0377e-05 0.0002838906 -0.0886176651 0.1200185018
465297210.0 -0.4898453543 0.6907363861 0.0003732319 -1.62954e-05 0.0001546945 0.0001341492 -0.0877477217 0.1209163075
470297180.0 -0.4832688321 0.6944832212 0.0003478362 0.0002313261 0.0002103733 0.0001701649 -0.0870426431 0.1221671759
475297150.0 -0.4759631272 0.6998634921 0.000296837 0.00022808 0.0001896345 -4.83733e-05 -0.085603749 0.1231016353
480297120.0 -0.4685028977 0.7047972788 0.0001429017 8.513e-06 8.07786e-05 5.11746e-05 -0.0845876107 0.1243051007
485297090.0 -0.461395039 0.7094503645 0.0003859145 0.0001380691 0.0002776355 -0.0001095385 -0.0838031513 0.125166854
490297060.0 -0.4541025032 0.7142859564 0.0002042319 5.31683e-05 0.0002306351 6.78332e-05 -0.082878817 0.1260305938
495297030.0 -0.4472110636 0.719040436 0.0001929296 8.3375e-05 9.06954e-05 0.0001863281 -0.0815342718 0.1267661454
500297000.0 -0.4382818306 0.7232063726 0.0003710724 -0.0001883218 0.0001875637 -4.021e-05 -0.0807109657 0.1280018143
505296970.0 -0.4310195672 0.7273733708 0.0004617515 0.0002452859 1.42783e-05 7.04433e-05 -0.0797472093 0.1290926858
510296940.0 -0.4238797585 0.7322121017 -0.0002485256 -3.39294e-05 0.0001965647 0.0001172459 -0.0783534087 0.1297739668
515296910.0 -0.4165908173 0.7362026939 8.00736e-05 5.0966e-06 0.0002180284 -8.08413e-05 -0.0773399726 0.1309866092
520296880.0 -0.4089206741 0.7409452834 0.0001324191 0.0001227942 0.0001203181 9.646e-07 -0.0759928353 0.1317264469
525296850.0 -0.4014203687 0.7446342994 0.0002574798 0.0002751977 0.0002032419 -5.58527e-05 -0.0748024031 0.1327416461
530296820.0 -0.3937858004 0.7483393529 0.0001226548 -1.32541e-05 7.2187e-05 6.64179e-05 -0.0743637724 0.1334627288
535296790.0 -0.3858360405 0.7523949234 0.0004073305 0.0001285921 0.0003675399 8.10681e-05 -0.0729655273 0.134352283
540296760.0 -0.378529443 0.756249631 0.0002858621 0.0002118305 -0.0001596656 0.000122789 -0.0718149589 0.1353649678
545296730.0 -0.3711553028 0.7600165877 0.0004761531 0.0001519729 0.0003064013 7.1271e-05 -0.0707729199 0.1360520764
550296700.0 -0.3629019058 0.7637834329 -5.49681e-05 0.00013761 6.68804e-05 9.99673e-05 -0.0695391941 0.1368527975
555296670.0 -0.3547902774 0.7673681974 0.0002243655 -0.0001938723 0.0001701286 9.5821e-06 -0.068155748 0.1379448223
560296640.0 -0.3468602696 0.7707315166 0.0005354581 3.47066e-05 -5.25e-05 8.27774e-05 -0.0668586436 0.1389115747
565296610.0 -0.3399994492 0.7741225984 0.0002447441 1.84562e-05 0.0001758532 -8.4939e-06 -0.0659266157 0.139354157
570296580.0 -0.3318406659 0.7775459406 0.0002224433 6.2557e-06 0.0001462883 2.07982e-05 -0.064434156 0.1406192881
575296550.0 -0.323290374 0.7806731575 0.0003541965 -8.62289e-05 0.0003229377 4.59384e-05 -0.0633075548 0.1412143065
580296520.0 -0.3155648807 0.7843049952 0.0003541595 -9.81974e-05 0.0002866571 0.0001411777 -0.0621199961 0.1422545526
585296490.0 -0.3073832872 0.7870308451 0.0001715393 5.53256e-05 0.0002845913 2.04991e-05 -0.0611122163 0.1426630475
590296460.0 -0.2996225709 0.7901293668 4.88007e-05 1.28123e-05 0.0001814076 8.0428e-05 -0.0597781863 0.1434559775
595296430.0 -0.2913159956 0.7936044788 0.0001842849 0.0001365471 6.11155e-05 -5.7264e-05 -0.0584422605 0.1443693509
600296400.0 -0.282933015 0.7958671124 -6.0179e-06 0.0001641569 0.0002691324 0.0001694805 -0.0569289322 0.1452014818
605296370.0 -0.2755807007 0.7993183662 5.18913e-05 6.63079e-05 9.77261e-05 7.1917e-06 -0.0556718579 0.1462950593
610296340.0 -0.2672231571 0.8015027005 3.99528e-05 4.13406e-05 7.0176e-05 0.0002358857 -0.0544990512 0.1465003818
615296310.0 -0.25874293 0.8045614846 0.0002454567 9.35364e-05 8.34578e-05 -2.46971e-05 -0.0532510866 0.1472089823
620296280.0 -0.2502558933 0.8060609813 -9.50216e-05 3.96571e-05 -2.7896e-06 -3.70248e-05 -0.0521387794 0.1478167193
625296250.0 -0.2428559601 0.8090355547 0.0002887053 -0.0002014129 0.0002377709 -0.0001297019 -0.0506388014 0.1490401827
630296220.0 -0.2338686967 0.8121089497 0.0002933856 -0.0001218185 0.000382411 -2.95766e-05 -0.0492020418 0.1495014877
635296190.0 -0.2267429085 0.8141434863 0.000163195 5.31773e-05 0.0001611417 -0.0001118822 -0.0480303496 0.1504534087
640296160.0 -0.2175869921 0.8153775833 0.0001759343 -6.68264e-05 0.0002667427 -3.25847e-05 -0.0467991784 0.1508276952
645296130.0 -0.2096921079 0.8184606897 0.0001117736 -8.95399e-05 0.000262145 0.0001304201 -0.0454013374 0.1515013034
650296100.0 -0.2015398101 0.8204686839 0.000284859 0.0002984355 0.0002422427 0.000116627 -0.0442969215 0.1521697534
655296070.0 -0.1930635436 0.8220652723 0.0001133247 -6.17973e-05 0.0002877894 -6.04777e-05 -0.0426239697 0.1527509856
660296040.0 -0.1849568055 0.8243523318 0.0004571939 -3.12551e-05 0.0004560115 0.0002262263 -0.0413700588 0.1534919773
665296010.0 -0.1764292725 0.8257123132 0.0003655129 -1.2137e-05 0.0002396321 -0.0002052006 -0.0403077126 0.1544294821
670295980.0 -0.1680122552 0.8274670706 0.0002047219 0.0001308807 0.000550912 0.000148373 -0.0387655532 0.1547241205
675295950.0 -0.1599453593 0.8287099529 0.0003697801 -0.0001770635 0.0001608671 1.22017e-05 -0.037308091 0.1552553114
680295920.0 -0.1518138496 0.8309165295 0.0001506086 8.13983e-05 0.0003060901 0.0001203779 -0.0361406601 0.1558933474
685295890.0 -0.142630719 0.8323593324 0.0001611915 9.95562e-05 0.000252496 6.83772e-05 -0.0345781079 0.1564980429
690295860.0 -0.134161475 0.83369218 0.0004438921 -5.7333e-06 0.0002656394 0.0001219218 -0.0330717668 0.1567860683
695295830.0 -0.1262796181 0.8345520897 0.0002322429 2.15034e-05 0.0002308654 2.36162e-05 -0.0318435353 0.1572733368
700295800.0 -0.118044784 0.8358161006 0.000252954 -0.0001387743 0.0003452795 -7.888e-05 -0.0303024104 0.1576935309
705295770.0 -0.1087976505 0.8369661429 5.31349e-05 8.73594e-05 8.76514e-05 3.46957e-05 -0.0291182011 0.1588245331
710295740.0 -0.1007548938 0.8382744754 0.0001662037 0.0001056106 0.0001403532 2.86079e-05 -0.0278503259 0.1593461132
715295710.0 -0.0923284314 0.8390669714 0.0004249932 5.72002e-05 0.0002235493 -6.2476e-06 -0.026091708 0.15968032
720295680.0 -0.0835082262 0.8395973648 0.0001396152 -0.0001612115 0.0001068793 -1.66814e-05 -0.0245965534 0.1599668117
725295650.0 -0.0745413068 0.841274885 0.0006138491 4.18918e-05 0.0001440274 6.95304e-05 -0.0229861181 0.1604075661
730295620.0 -0.0671387384 0.8414008245 7.01953e-05 -0.0001066829 0.0002936605 -0.0001429879 -0.0218449002 0.1606198138
735295590.0 -0.0583211217 0.8414607484 0.0002207167 -3.95024e-05 0.0001807353 -3.91931e-05 -0.0199677941 0.1610215236
740295560.0 -0.0498696801 0.8427876848 0.0002012442 -1.96106e-05 0.0002200666 -0.000134139 -0.0189623762 0.1613067962
745295530.0 -0.0417832826 0.8425042294 0.0002924849 2.93656e-05 9.85159e-05 -2.02646e-05 -0.0175409844 0.1617178358
750295500.0 -0.033585289 0.8434745028 0.0004342593 -1.98173e-05 0.0003008695 -0.0001100051 -0.0161069698 0.1619402123
755295470.0 -0.0243257736 0.8434686116 0.0003468878 -0.0001044641 0.000206417 -7.85356e-05 -0.0145865578 0.1627054489
760295440.0 -0.0162879508 0.8442440487 0.0002636804 -0.0002968584 0.0003814836 -8.51041e-05 -0.0132359924 0.1628712499
765295410.0 -0.0078193788 0.8437365251 0.0002687496 -4.75968e-05 0.0001111333 -0.0001139699 -0.0114251098 0.1632119369
770295380.0 0.0004524341 0.8441128371 0.0002293276 -0.0001554173 0.0004319902 -0.0001319946 -0.0097939984 0.1636624489
775295350.0 0.0089632049 0.8438840072 0.0003934004 -0.0001075514 0.0003270198 -0.0001405035 -0.0088605331 0.1636493073
780295320.0 0.0180460479 0.8435150247 0.0002052347 -0.0001862015 0.0002649066 0.0001366384 -0.0071811021 0.1642183093
785295290.0 0.0262348273 0.8440724996 0.0002251417 -3.60608e-05 0.0003493933 -5.20132e-05 -0.0058748133 0.1644481677
790295260.0 0.03441673 0.8427203819 0.000268149 -0.0001403298 0.0004821856 0.0001387191 -0.0037330109 0.1645419088
795295230.0 0.0426954745 0.8436202355 0.0004596264 -0.000112986 0.0003701676 -0.0002085836 -0.0025254056 0.1649893684
800295200.0 0.0518082708 0.8426773854 0.0002856575 0.000156997 0.0002059677 -1.50595e-05 -0.0008513779 0.1650226217
805295170.0 0.0595890825 0.8419474739 0.0004134337 8.22145e-05 0.0002300059 -0.0001895964 0.0002904958 0.1651906818
810295140.0 0.0680080318 0.8415282151 0.0002524526 -7.99364e-05 0.0003748682 -0.0001262253 0.0021160584 0.1658600532
815295110.0 0.0765844424 0.8405528028 0.0001865274 -0.000127423 0.0004910549 -5.41924e-05 0.0035040669 0.1659365729
820295080.0 0.0849567336 0.8390522923 0.0001910824 -3.63929e-05 0.0001256604 -0.000190317 0.0048606419 0.1660937608
825295050.0 0.0937855399 0.8381620135 0.0003651521 -0.0001196301 0.0001416958 -0.0002067716 0.0067113726 0.1659233293
830295020.0 0.1023774466 0.8379446756 0.0001771174 -0.0001398439 0.0003036704 7.12936e-05 0.0079696662 0.166153088
835294990.0 0.1101045101 0.8367394734 0.0003953882 2.4371e-05 0.000240465 -0.000126933 0.0100321048 0.1662112476
840294960.0 0.1186196634 0.83528482 0.0002527158 -8.9336e-05 0.0004054684 -6.90325e-05 0.0110100463 0.1666620916
845294930.0 0.1272709586 0.8346622798 0.0003472273 -9.08001e-05 0.0001955861 -5.90077e-05 0.0130818045 0.1665254155
850294900.0 0.1352390516 0.8328490359 0.000316075 2.28123e-05 0.0002316982 -0.0001677676 0.0143104553 0.1667300436
