!Created with skrf (http://scikit-rf.org).
# Hz S RI R 50.0 
!freq ReS11 ImS11 ReS21 ImS21 ReS12 ImS12 ReS22 ImS22
300000.0 0.8603264015 -0.0008399072 -0.0003577563 0.0001379512 -0.0010740097 0.0007229259 -0.7639188575 -0.1892317995
5299970.0 0.860092998 -0.0102857519 0.0002083897 -0.0001540606 -0.0001663156 -4.24417e-05 -0.784856367 -0.0094701541
10299940.0 0.8583161518 -0.0185946402 9.37803e-05 0.0001880395 -3.28099e-05 9.48186e-05 -0.7873574055 -0.0054741141
15299910.0 0.8580650391 -0.0277871829 -9.1108e-06 -5.46981e-05 1.02025e-05 -5.43722e-05 -0.7931558523 -0.0025664178
20299880.0 0.8573740014 -0.0355999753 0.0003425842 5.0436e-06 0.0001661011 -7.5535e-05 -0.7995400522 0.0018510625
25299850.0 0.8562449892 -0.0438446276 -4.27097e-05 4.1116e-06 -9.59551e-05 4.00002e-05 -0.806216262 0.0077080434
30299820.0 0.8561357277 -0.0523175238 1.11423e-05 7.11507e-05 2.66999e-05 3.28693e-05 -0.8121499777 0.015830112
35299790.0 0.8553455648 -0.0603288303 -0.0001214415 -6.92309e-05 2.03828e-05 4.83491e-05 -0.816993719 0.0243343698
40299760.0 0.8546627628 -0.0678854395 1.38605e-05 -0.0001863648 -9.15115e-05 -0.0001682247 -0.8210980578 0.0338215565
45299730.0 0.8532417748 -0.0766773053 -8.43368e-05 -8.45019e-05 -4.02627e-05 8.83514e-05 -0.8239028963 0.0435509361
50299700.0 0.8526097647 -0.0844077036 -5.03152e-05 -0.0001978107 1.64277e-05 -1.22565e-05 -0.8265984037 0.0536325624
55299670.0 0.8518342591 -0.0928089325 -7.85726e-05 -0.0001903172 -0.0002281524 -0.0002523298 -0.8287137056 0.0639370662
60299640.0 0.8510843222 -0.1009694539 9.6868e-06 0.0001612828 0.0001026531 -9.97241e-05 -0.8292910782 0.0739419341
65299610.0 0.8498982038 -0.1092365196 -0.0002100899 0.0001352861 -4.87323e-05 6.97258e-05 -0.830663207 0.0842509733
70299580.0 0.8489128542 -0.1174634334 0.0001242351 -8.92634e-05 -7.30906e-05 -0.000341938 -0.831002548 0.0933719344
75299550.0 0.8478575185 -0.125766176 0.0001369928 7.5756e-06 3.47263e-05 -9.05457e-05 -0.8308039149 0.1038955401
80299520.0 0.8462185721 -0.1333454515 0.0002004031 8.28129e-05 9.43418e-05 -6.48546e-05 -0.8308115061 0.1142026096
85299490.0 0.8449200275 -0.1417563235 -5.70431e-05 -8.17167e-05 0.0002462456 -7.4251e-06 -0.8302084641 0.1231931502
90299460.0 0.8443017076 -0.1499156394 0.0003127125 -7.93538e-05 -1.67601e-05 -8.28865e-05 -0.8292487059 0.1327234661
95299430.0 0.8428617358 -0.158108166 0.0001325036 7.26345e-05 -4.731e-07 0.0002652345 -0.8284374732 0.1421184029
100299400.0 0.8403065106 -0.1662976839 1.97213e-05 7.01715e-05 -2.77538e-05 -6.507e-07 -0.8272981455 0.1518714948
105299370.0 0.8391228536 -0.174202198 -4.89009e-05 -6.34218e-05 -1.95236e-05 -0.0001244618 -0.826040049 0.1606761141
110299340.0 0.8375392152 -0.1826391981 -7.68569e-05 2.10722e-05 7.62288e-05 -6.72261e-05 -0.8245507189 0.169795879
115299310.0 0.8359312705 -0.1908234304 -1.88214e-05 2.41039e-05 -1.07788e-05 -7.95114e-05 -0.8233655737 0.1791710806
120299280.0 0.8337526553 -0.1986642544 -4.18708e-05 5.60402e-05 5.85781e-05 2.7013e-06 -0.8210181904 0.1880494299
125299250.0 0.8321458901 -0.2066671146 4.47705e-05 -0.0001273056 2.57399e-05 -8.66258e-05 -0.8197572028 0.1975664908
130299220.0 0.830136165 -0.2147986925 2.84824e-05 -1.21481e-05 -6.53589e-05 -0.0001834526 -0.817508575 0.2054186331
135299190.0 0.8281769282 -0.2227601099 0.0002037903 5.97434e-05 8.8461e-05 -4.87053e-05 -0.8161508026 0.2150133103
140299160.0 0.8258261205 -0.2302896279 0.0001393518 4.4249e-05 2.1924e-05 3.73909e-05 -0.8139906264 0.2232307529
145299130.0 0.8235379277 -0.2379979319 -0.0001237084 5.65042e-05 -3.82896e-05 -5.6222e-05 -0.8119095069 0.2324535612
150299100.0 0.8207127143 -0.2457917105 -0.0001233117 -0.0001026109 -1.72801e-05 0.0003130468 -0.809435583 0.2417016294
155299070.0 0.8182854242 -0.2542387139 -9.01962e-05 6.97184e-05 -3.24075e-05 -9.55868e-05 -0.8071714462 0.2502920011
160299040.0 0.816328259 -0.2618969046 7.749e-05 -1.19503e-05 5.21295e-05 5.8673e-06 -0.8046346019 0.2589058108
165299010.0 0.8140759405 -0.2690605537 9.74534e-05 0.0001490881 -6.92489e-05 9.2846e-05 -0.8016601091 0.2673573275
170298980.0 0.8112869507 -0.2776783146 -2.46679e-05 -0.0001381671 1.04863e-05 0.0001688514 -0.7993593353 0.2757823511
175298950.0 0.8088455198 -0.2856173253 -3.76457e-05 0.0002350757 -3.94478e-05 -0.0002432463 -0.7962771849 0.2851100296
180298920.0 0.8062100488 -0.2929067757 -0.0001026644 1.00125e-05 -0.0001195534 6.90527e-05 -0.7935476866 0.2932401981
185298890.0 0.8030638372 -0.3007056134 5.64034e-05 -0.0001999296 4.35438e-05 -1.72327e-05 -0.7901747251 0.3016559976
190298860.0 0.7998690492 -0.3088838539 6.43294e-05 -8.98854e-05 9.82808e-05 -1.07834e-05 -0.7874003153 0.3101067517
195298830.0 0.7966152219 -0.3154480776 -9.58836e-05 -3.1488e-05 0.0001344997 -6.11426e-05 -0.7840019193 0.318312354
200298800.0 0.7936629666 -0.323571044 -2.22709e-05 -1.6934e-06 4.03537e-05 1.57447e-05 -0.7808251899 0.327015672
205298770.0 0.7908935115 -0.3317168726 7.8697e-06 -0.0001332566 0.0002189904 4.25574e-05 -0.7778128019 0.3352643249
210298740.0 0.7879315482 -0.3388982151 5.43427e-05 0.0001024807 -2.0548e-06 4.7783e-05 -0.773981273 0.3432867284
215298710.0 0.7849150685 -0.346490692 3.0506e-06 -4.62142e-05 8.8815e-06 -2.56176e-05 -0.7706572077 0.3513065735
220298680.0 0.7817328878 -0.353382386 -7.3803e-06 0.0001076228 0.0001161513 5.00812e-05 -0.7668014911 0.3590872902
225298650.0 0.7778812287 -0.3615377112 0.0001509916 -0.0002631131 -0.0001033733 7.80146e-05 -0.7630990978 0.3676923959
230298620.0 0.7734238779 -0.3688833926 0.0001365033 -8.37242e-05 -5.50662e-05 -9.3321e-05 -0.7590528912 0.3755464187
235298590.0 0.7705352824 -0.3763778803 -5.07594e-05 2.70905e-05 0.0001000315 0.0001014897 -0.7547796808 0.3834230003
240298560.0 0.7663283558 -0.383522825 9.5751e-06 -2.81213e-05 -1.5419e-06 1.97862e-05 -0.751328909 0.3904921381
245298530.0 0.7623217811 -0.3908631654 4.32765e-05 -5.54028e-05 -8.65032e-05 7.32769e-05 -0.7477491498 0.3993119873
250298500.0 0.7592090247 -0.3984625339 -0.0001245821 -0.0001755663 9.44177e-05 -5.31829e-05 -0.7429136971 0.4070790387
255298470.0 0.7555117727 -0.4048961442 1.81443e-05 -5.10254e-05 -9.40237e-05 3.6333e-05 -0.7390494045 0.4146680048
260298440.0 0.7517503506 -0.4122340312 -8.36347e-05 -3.8463e-06 -4.46444e-05 7.02627e-05 -0.734071628 0.4219927647
265298410.0 0.7467852752 -0.4193843582 9.07625e-05 6.19343e-05 -7.6259e-06 0.0002181506 -0.7299892185 0.4297201877
270298380.0 0.7439453333 -0.4267505398 9.77561e-05 9.40725e-05 -0.0001228815 3.63104e-05 -0.7252701503 0.4381859526
275298350.0 0.7391031501 -0.4337334167 2.26015e-05 -0.0001639174 6.47896e-05 9.66528e-05 -0.720833575 0.4454533527
280298320.0 0.7352100064 -0.4410156464 -2.74224e-05 8.64201e-05 3.35742e-05 -1.50513e-05 -0.7161951446 0.4524468928
285298290.0 0.730890084 -0.4483610707 0.0001066618 -0.000127508 -9.81484e-05 -8.43691e-05 -0.7118516817 0.4601374661
290298260.0 0.7265609656 -0.4556820327 -7.46484e-05 -0.000152308 2.45014e-05 0.0001511154 -0.7062619518 0.4675665776
295298230.0 0.7227432975 -0.4622205187 0.0003099264 0.000106071 -2.32375e-05 -3.35904e-05 -0.7011200359 0.4753222472
300298200.0 0.7175565467 -0.4694167765 -0.0001418138 -6.02829e-05 2.24898e-05 1.96821e-05 -0.6963767265 0.4825935869
305298170.0 0.7142414643 -0.4769507638 1.27963e-05 -0.0001772592 -5.27971e-05 -0.0001479655 -0.6912497201 0.4895160539
310298140.0 0.7092256804 -0.4849876578 -0.0002105916 -5.35267e-05 4.0101e-06 8.2618e-06 -0.6861787845 0.4966146033
315298110.0 0.7041760401 -0.4920342168 -0.000164548 -3.96648e-05 -8.8113e-05 0.0001647858 -0.6815661127 0.5038114368
320298080.0 0.6986821619 -0.4991599893 -4.25256e-05 -0.0002801127 -0.0001217471 0.0001029875 -0.6760402826 0.5103259954
325298050.0 0.6925049395 -0.5066720057 -7.9401e-06 -4.02337e-05 0.0001746579 1.41531e-05 -0.6703569226 0.5176233973
330298020.0 0.6865145922 -0.5137287477 9.40741e-05 0.0001693836 0.0001013231 -8.29731e-05 -0.6647010307 0.5243500134
335297990.0 0.6810382224 -0.5190566321 0.0002431342 5.2814e-06 2.15029e-05 -2.90589e-05 -0.659626621 0.5316335337
340297960.0 0.6759241599 -0.5254609082 -6.58871e-05 5.25207e-05 2.14738e-05 -8.23645e-05 -0.654101419 0.537963119
345297930.0 0.6708550155 -0.5318660682 -3.57382e-05 0.000147612 -7.01835e-05 6.57794e-05 -0.6485716538 0.5451590058
350297900.0 0.6648443342 -0.5378469446 0.0001315758 7.54072e-05 -4.00927e-05 0.0001001008 -0.6434443768 0.5510699073
355297870.0 0.6603109672 -0.5442854352 -3.867e-05 -8.15641e-05 0.0001517441 1.12359e-05 -0.637083173 0.5587909165
360297840.0 0.6544074408 -0.5505468929 8.3241e-05 -6.7479e-05 0.0001435803 0.0001839642 -0.630569899 0.5646816371
365297810.0 0.6486552983 -0.5567906785 -7.5303e-06 -6.46744e-05 4.36015e-05 3.98092e-05 -0.6257308209 0.5704328656
370297780.0 0.6430657333 -0.5628642502 -6.46268e-05 9.766e-07 3.99029e-05 -0.0001875232 -0.6195436268 0.5776412227
375297750.0 0.6377359523 -0.569041768 0.0001675024 -6.09983e-05 -0.0001674606 -4.82377e-05 -0.6128829391 0.5840685141
380297720.0 0.6322007975 -0.5741771585 -0.0001069942 1.90077e-05 6.73701e-05 4.30905e-05 -0.6065752087 0.5900383492
385297690.0 0.6262340077 -0.5811819491 0.000186796 -5.26419e-05 0.0001458132 -6.06234e-05 -0.6016534073 0.5965620199
390297660.0 0.6211840165 -0.5875242728 -9.83866e-05 6.89616e-05 4.91103e-05 -2.16841e-05 -0.5950242142 0.6021897491
395297630.0 0.6152281559 -0.5924467803 -0.0001899788 -3.71767e-05 5.14307e-05 -0.0001415182 -0.5878544206 0.6078913045
400297600.0 0.6086005931 -0.5986517128 -6.40935e-05 -2.35375e-05 -2.47545e-05 -6.65677e-05 -0.5828551163 0.6145674907
405297570.0 0.6036249389 -0.6046437138 9.3127e-05 0.0001323725 0.0001881455 7.9324e-06 -0.5753219838 0.6202309344
410297540.0 0.5984007366 -0.6094647368 -0.0001232228 8.3081e-06 -6.22206e-05 0.0001067418 -0.569511885 0.625926559
415297510.0 0.5913136891 -0.6157336631 -9.99011e-05 0.0001933529 0.000143078 5.72365e-05 -0.5632179915 0.631596077
420297480.0 0.5858985789 -0.6220089841 5.26929e-05 -0.000100878 0.0001666918 2.581e-06 -0.5561760212 0.6381936762
425297450.0 0.5794265457 -0.6271245573 -0.0001006322 -0.0002889168 -9.62943e-05 -0.0001288743 -0.5494689348 0.6426527592
430297420.0 0.5735061158 -0.6332669595 -0.0001287238 8.41697e-05 -2.67512e-05 -1.18007e-05 -0.542859099 0.648255938
435297390.0 0.566799767 -0.6386052614 7.2862e-06 4.6045e-05 -2.53724e-05 0.0001676855 -0.5368311974 0.6540283914
440297360.0 0.5609529093 -0.6440842257 -8.532e-07 4.7467e-06 6.95665e-05 0.0002675781 -0.5302410513 0.6598859533
445297330.0 0.5555894647 -0.649098395 -0.0001339663 -4.72533e-05 0.0002254071 8.71552e-05 -0.5229752871 0.6651149538
450297300.0 0.5494452705 -0.655002884 0.0001700297 0.000177679 -0.0001290724 3.48562e-05 -0.5157407412 0.6699113038
455297270.0 0.5424567555 -0.6600322465 7.19258e-05 1.5038e-05 0.0001054585 0.000124286 -0.5091404574 0.6751608485
460297240.0 0.5362348881 -0.6647012389 1.61582e-05 -3.66207e-05 0.0001878188 0.0001298482 -0.5028325339 0.6802082171
465297210.0 0.5297302651 -0.6700671556 5.46234e-05 0.0002175768 0.0002581699 -9.63096e-05 -0.4946931324 0.6858029501
470297180.0 0.5230914881 -0.6755344701 -5.54359e-05 0.0001218114 -0.0001394435 0.0001181402 -0.4881961353 0.6907346738
475297150.0 0.5159988628 -0.6805822103 -4.60627e-05 8.6483e-06 -0.0001445402 6.3832e-06 -0.4811291772 0.6953876101
480297120.0 0.5101577125 -0.6856400613 -0.0001155323 -5.01673e-05 4.63356e-05 -9.88503e-05 -0.4745198209 0.7000608184
485297090.0 0.5028253882 -0.6900393383 0.0002119437 -3.78595e-05 2.26534e-05 5.951e-07 -0.4672295608 0.704952557
490297060.0 0.4968699946 -0.6947429806 0.0001995992 3.51463e-05 6.48204e-05 -0.0001175001 -0.459355386 0.7089584391
495297030.0 0.4898072352 -0.6994102803 -7.32763e-05 -0.0001276533 -5.67393e-05 5.7709e-06 -0.4521462518 0.7134829424
500297000.0 0.4835208941 -0.7042549684 0.0001636319 1.4237e-06 6.28826e-05 3.58778e-05 -0.4446839402 0.7184243331
505296970.0 0.4761194101 -0.7092239896 -0.0001090134 -6.31303e-05 0.0001317929 3.81131e-05 -0.4372964179 0.7223717108
510296940.0 0.469362926 -0.7137005752 -8.7569e-06 3.26151e-05 -0.0002649074 9.47805e-05 -0.4305363281 0.7271690877
515296910.0 0.462064058 -0.7182591117 -0.0001457515 6.17139e-05 -7.55522e-05 0.0001257669 -0.4232722765 0.7309845304
520296880.0 0.4563401304 -0.7225661395 1.26536e-05 0.0002435474 -0.0001197877 -0.0001670111 -0.4150662385 0.7362312005
525296850.0 0.4492348969 -0.7269863875 -0.0002595833 -2.66766e-05 -5.71979e-05 -3.331e-06 -0.4082277773 0.7393218382
530296820.0 0.4420033971 -0.7319291997 0.0001117931 -0.0001514423 -1.17753e-05 0.0001274355 -0.4001068151 0.74345699
535296790.0 0.434822693 -0.7350785585 -2.89946e-05 -7.30666e-05 1.29894e-05 -5.64547e-05 -0.3931994506 0.7478993727
540296760.0 0.428599862 -0.7399730957 1.67839e-05 -0.0001143495 -0.0001527055 -9.5041e-05 -0.3847569963 0.7513240033
545296730.0 0.4198861429 -0.7432834361 -0.0001426672 -3.33941e-05 -0.0001036313 -8.78888e-05 -0.3776085879 0.755490598
550296700.0 0.4132890946 -0.7472487029 -7.80709e-05 6.6693e-05 0.0001154481 0.0001497793 -0.3701371771 0.7592443124
555296670.0 0.4058052261 -0.7515894374 -2.09248e-05 -6.16035e-05 -3.02972e-05 9.79151e-05 -0.3625290824 0.7622746119
560296640.0 0.3988338559 -0.7550450171 -5.06633e-05 -0.0001334272 8.45275e-05 3.38995e-05 -0.3542278763 0.7667123585
565296610.0 0.3912150427 -0.7594838119 -0.0001049877 0.000101044 0.0002109279 -4.09842e-05 -0.346845467 0.7699362587
570296580.0 0.3839328816 -0.7627552971 0.0001330983 -0.0001635099 -7.67879e-05 -8.93168e-05 -0.3391738334 0.7730717977
575296550.0 0.3774755147 -0.7664269305 -3.95251e-05 1.08232e-05 2.97893e-05 1.51718e-05 -0.330508494 0.7761321674
580296520.0 0.3697904685 -0.7699802084 -0.0001340993 1.39909e-05 -4.2708e-06 2.63892e-05 -0.3238023565 0.7800115484
585296490.0 0.3620533443 -0.7730279914 -6.78635e-05 6.62266e-05 -0.0001961977 -6.40647e-05 -0.3153286414 0.7834359871
590296460.0 0.3544685372 -0.7754558797 6.33419e-05 -9.7609e-06 0.0001107607 0.0001162699 -0.3077491522 0.7860638738
595296430.0 0.3466802774 -0.7798634926 3.43589e-05 0.0002994917 -0.0001825682 -1.24322e-05 -0.2997014317 0.7893570999
600296400.0 0.339089482 -0.7832982675 5.65233e-05 0.0001092681 -0.0001166708 -9.01489e-05 -0.2918590439 0.7919812244
605296370.0 0.3310261971 -0.7860462294 -0.0001465341 -1.25282e-05 -3.13577e-05 -0.0001797459 -0.2836331022 0.7952453101
610296340.0 0.323513152 -0.7897072818 0.0001134898 -2.74829e-05 0.0001761366 -0.0001825496 -0.275989587 0.797814585
615296310.0 0.3161285987 -0.7924997682 8.37863e-05 2.48705e-05 -1.16144e-05 -1.37696e-05 -0.2670847344 0.8006654253
620296280.0 0.3083117884 -0.7947128888 9.4819e-06 1.09511e-05 6.8399e-06 1.978e-07 -0.2599487805 0.8035398127
625296250.0 0.3001805556 -0.7983098871 -0.0001148873 1.79529e-05 -0.0001496685 0.0001426535 -0.251235463 0.8052972922
630296220.0 0.2917917437 -0.8006370282 0.0001099649 -5.47672e-05 8.81191e-05 6.83132e-05 -0.2431883883 0.8081463941
635296190.0 0.2843725247 -0.8030976487 -5.20673e-05 -2.0145e-05 -5.02107e-05 1.31481e-05 -0.2353854623 0.810199046
640296160.0 0.275732431 -0.8059247833 -8.79865e-05 -7.28198e-05 -0.000154509 -4.48728e-05 -0.2268730074 0.81251221
645296130.0 0.2693392154 -0.8083529145 -0.0001768234 -3.3562e-06 2.2509e-05 -0.0001027751 -0.2193687707 0.8143368293
650296100.0 0.2608254974 -0.8106792072 -4.29293e-05 3.99447e-05 1.83181e-05 2.77975e-05 -0.2107278394 0.8170010078
655296070.0 0.2528189452 -0.8129591654 6.15099e-05 2.45833e-05 3.21196e-05 2.39939e-05 -0.2031632438 0.8191971507
660296040.0 0.2436129555 -0.814781973 0.0001454446 3.41124e-05 -0.0001057982 6.671e-05 -0.1942380819 0.8209634086
665296010.0 0.2358091405 -0.8169588709 -0.000153383 -2.97864e-05 -4.62556e-05 -5.02107e-05 -0.1863385057 0.8227837924
670295980.0 0.2285017116 -0.8192554381 -0.0001111817 -0.0002919061 -3.5643e-06 -3.6885e-05 -0.1784096461 0.8242131869
675295950.0 0.2197719109 -0.8215065533 -0.0002689944 -1.92436e-05 -0.0001488648 -9.56721e-05 -0.1698668043 0.8265513649
680295920.0 0.2111564942 -0.8235670001 4.91e-07 -0.0001196574 -3.0587e-05 -0.0001658989 -0.1609914863 0.8274320143
685295890.0 0.2035246365 -0.8245108434 -5.92033e-05 -0.0001127259 0.0001634332 -0.0001699228 -0.1532391424 0.8298287977
690295860.0 0.1954765805 -0.8266955707 0.0001190319 0.0001067808 8.78486e-05 6.84159e-05 -0.1454917735 0.8311008262
695295830.0 0.1870190473 -0.8289164495 -6.64155e-05 2.21206e-05 0.0001738291 2.24957e-05 -0.136724417 0.8327494079
700295800.0 0.1781670506 -0.8298284922 2.7739e-05 -0.0001495896 4.3113e-06 2.76275e-05 -0.1282532872 0.833607946
705295770.0 0.1701484461 -0.8313405289 -0.0001436193 0.0001549709 -0.000242155 -3.77537e-05 -0.1202942916 0.8355128436
710295740.0 0.1624658793 -0.832559087 2.99654e-05 0.0001252575 -0.0001787904 4.1057e-06 -0.1114640317 0.8360725179
715295710.0 0.1535800291 -0.8336917576 -1.2368e-06 0.0001390013 -9.56785e-05 6.01634e-05 -0.1029755636 0.8366570611
720295680.0 0.1454752545 -0.8353494047 -3.33203e-05 2.3343e-06 7.97108e-05 -4.7655e-05 -0.0943780316 0.8373858429
725295650.0 0.1368152335 -0.8359518689 -0.0001254211 0.0001002123 0.0001876322 8.109e-07 -0.0871758845 0.83934428
730295620.0 0.1280058131 -0.8374413548 -0.0001861474 0.0001557543 -5.36311e-05 4.69876e-05 -0.078611316 0.8402137698
735295590.0 0.1199251831 -0.8386794921 -4.3288e-06 -0.0002331535 2.5799e-05 0.000167859 -0.0696152353 0.8406901836
740295560.0 0.1119755327 -0.8397222435 4.16152e-05 -2.2293e-06 1.09125e-05 7.529e-06 -0.0612838996 0.8414588796
745295530.0 0.103228353 -0.8400166554 0.000179183 -0.0001427197 -6.69253e-05 0.0001146408 -0.0532993184 0.8415705715
750295500.0 0.0949243719 -0.8406683728 -0.0001145809 0.0001479742 7.5144e-05 -2.3708e-05 -0.0450238684 0.8422025819
755295470.0 0.0867013925 -0.8413939332 6.69035e-05 -0.0001395226 -0.0001581217 0.0001024914 -0.0371429722 0.8430188181
760295440.0 0.0782610882 -0.8412715271 1.3405e-06 -7.38772e-05 0.0002427266 -7.33078e-05 -0.0275991503 0.8424373256
765295410.0 0.0699512748 -0.8425641301 -0.0001735425 7.38291e-05 2.72774e-05 -2.62129e-05 -0.0195538548 0.8431735487
770295380.0 0.0614251231 -0.8422027297 -8.62856e-05 7.34843e-05 -0.0001807296 0.0001017375 -0.0114934898 0.8435046586
775295350.0 0.0530683344 -0.8425293137 -0.0001910905 -0.0002435072 -2.13446e-05 3.4655e-06 -0.0031945903 0.8431293631
780295320.0 0.0446057661 -0.8434264071 2.84728e-05 -0.0001442137 -2.87567e-05 4.9094e-05 0.0053993664 0.8438124393
785295290.0 0.0362444164 -0.8428456673 -4.91834e-05 0.0001300767 5.84642e-05 -0.0001231272 0.0135787269 0.8432502099
790295260.0 0.0284959088 -0.8437443445 7.04225e-05 -0.0003441555 -0.000131692 -0.0001199302 0.0215285734 0.8434368686
795295230.0 0.0195647038 -0.8440429831 0.0001776357 4.62573e-05 -9.2467e-06 -8.35042e-05 0.0302258277 0.8423434199
800295200.0 0.0110804837 -0.8436500606 0.0001223035 -1.44012e-05 -0.0001225776 -0.0001058311 0.038428399 0.841668516
805295170.0 0.002242933 -0.8439122756 1.78646e-05 9.66658e-05 7.33287e-05 3.91124e-05 0.0472014929 0.8416274922
810295140.0 -0.0056558891 -0.8426265622 0.0001423723 -0.0001094193 6.99636e-05 5.0118e-05 0.0554273597 0.8415421574
815295110.0 -0.0144217703 -0.84288902 -0.0001206585 8.77166e-05 -2.85293e-05 -4.41676e-05 0.0633329531 0.8408238524
820295080.0 -0.0224073637 -0.8422690475 1.53847e-05 0.0004325505 6.51739e-05 0.0001481771 0.071642313 0.8406898857
825295050.0 -0.0313521874 -0.8423395977 -1.84371e-05 6.4781e-05 0.0001187355 0.0001745974 0.0800398382 0.8393491491
830295020.0 -0.0390723959 -0.8418513703 7.06451e-05 -7.38825e-05 0.0001060222 4.63321e-05 0.0882453166 0.8381681929
835294990.0 -0.0475167044 -0.8410906689 0.0002256756 0.000101042 -4.71809e-05 -1.95122e-05 0.096732561 0.8375730126
840294960.0 -0.055244833 -0.8403018727 -0.0002185614 -0.0001532807 5.3263e-06 -5.30699e-05 0.1056184146 0.8369279224
845294930.0 -0.0645905764 -0.8389211694 -3.68642e-05 -0.0001611707 4.56383e-05 -0.0001865221 0.1138410645 0.8354468239
850294900.0 -0.071684167 -0.838555045 -0.0001271387 5.45778e-05 -1.80564e-05 1.35854e-05 0.1214975977 0.8348960435
