!Created with skrf (http://scikit-rf.org).
# Hz S RI R 50.0 
!freq ReS11 ImS11 ReS21 ImS21 ReS12 ImS12 ReS22 ImS22
300000.0 -0.047942801 -0.0448743088 0.0011681335 -0.0007650678 0.0004404035 0.0014853179 -0.7737996936 -0.1401620089
5299970.0 -0.0496980993 0.0156165208 -8.543e-05 -0.0002505337 -4.28105e-05 1.08445e-05 -0.7846896458 -0.0076088133
10299940.0 -0.0441692674 0.0327667936 0.0002677554 6.92459e-05 1.4148e-05 -0.0001424617 -0.7878012349 -0.0036648017
15299910.0 -0.0359827405 0.0469929931 -4.46676e-05 -7.40383e-05 -2.09398e-05 0.0001603674 -0.7930824553 -0.0015800743
20299880.0 -0.0262418308 0.0587017643 -9.40048e-05 -0.000287478 0.0001480527 9.5907e-06 -0.7997970741 0.002169883
25299850.0 -0.0153967166 0.0682710614 -3.94203e-05 -9.67341e-05 -2.46294e-05 0.0001629071 -0.8062224848 0.0082221676
30299820.0 -0.0040679561 0.0750529366 -7.07697e-05 0.0001239126 -0.0001575949 7.38083e-05 -0.812082859 0.0161491323
35299790.0 0.0072242502 0.0796781696 4.6348e-05 -0.0001646552 6.60045e-05 0.0002942477 -0.8167449153 0.0251711225
40299760.0 0.0186832464 0.0829190166 0.0001926961 -7.85835e-05 6.18899e-05 5.66307e-05 -0.8212317869 0.0345204563
45299730.0 0.0292948127 0.0843919304 0.0002649315 0.0002665181 0.0001669473 4.72158e-05 -0.8251503748 0.0438842632
50299700.0 0.0391449956 0.0844265257 7.58029e-05 0.0001446085 -0.0001439616 3.7659e-06 -0.8272122604 0.0538051577
55299670.0 0.0484549417 0.083481441 2.58418e-05 -2.85759e-05 0.0002458088 0.0001019308 -0.8293825275 0.0647636136
60299640.0 0.0568883564 0.0819947308 0.0001448529 1.52031e-05 6.79791e-05 8.37443e-05 -0.8303946208 0.0744036643
65299610.0 0.0647680691 0.0797575188 0.0002236918 -9.31774e-05 -0.0001440231 7.82054e-05 -0.8316409835 0.0841169242
70299580.0 0.0713986869 0.0769860287 -1.45426e-05 0.0002061249 0.0003995074 -3.78802e-05 -0.8316343893 0.0943837388
75299550.0 0.0780834283 0.0740331403 -0.0002068427 -3.31299e-05 2.79116e-05 -6.19767e-05 -0.8319687928 0.1036751387
80299520.0 0.0838726223 0.0708528452 -1.15562e-05 9.76073e-05 9.22052e-05 0.0001115123 -0.8321200777 0.1136949753
85299490.0 0.0883863961 0.0667053878 0.0001155902 1.72416e-05 2.99105e-05 0.0001375345 -0.8314052472 0.1235785613
90299460.0 0.0934163181 0.0631475812 -1.3554e-05 7.5842e-06 7.35992e-05 0.0001474843 -0.8305740844 0.1329953757
95299430.0 0.0977710249 0.0592447702 -4.71001e-05 7.34339e-05 -0.0002900641 0.0001209205 -0.8290036085 0.1427989233
100299400.0 0.1012302852 0.0556589556 1.43029e-05 6.45174e-05 2.85503e-05 0.00016448 -0.8280892627 0.1522916336
105299370.0 0.1045160268 0.0519045834 4.59024e-05 2.95843e-05 9.06399e-05 2.58537e-05 -0.8267319714 0.1610764412
110299340.0 0.1073947021 0.0480002623 1.02575e-05 -0.0001573623 9.7009e-05 0.0002703902 -0.8253509961 0.1707093647
115299310.0 0.1102280505 0.043960375 -7.6664e-06 7.50205e-05 -9.17909e-05 8.28171e-05 -0.8242135825 0.179635568
120299280.0 0.112180523 0.0404847124 0.0001490996 -1.68359e-05 5.21196e-05 0.0001589885 -0.8223127668 0.1887206184
125299250.0 0.1141640942 0.0366930721 5.94085e-05 9.71566e-05 0.0002756722 0.0001002627 -0.8207962588 0.1976586906
130299220.0 0.1160209558 0.033304449 0.0001361396 -2.3906e-05 -4.23897e-05 0.0001460953 -0.8190091766 0.2067277888
135299190.0 0.1174966134 0.0297767363 -3.60366e-05 0.0001085418 0.0001414581 0.0002593938 -0.8166554365 0.2156658844
140299160.0 0.1186710681 0.0262249525 1.93591e-05 8.99105e-05 0.0001110821 5.61008e-05 -0.8142937396 0.2245647745
145299130.0 0.1199333079 0.0226371879 0.000107348 -0.0001169872 5.28669e-05 -5.9575e-06 -0.8125834336 0.2338966939
150299100.0 0.1211593735 0.0193723056 -3.61361e-05 0.0001130728 -6.42376e-05 -0.0001260102 -0.8105250486 0.2427683594
155299070.0 0.1217182769 0.0161848941 0.0002064758 0.0002496077 2.79224e-05 -4.86518e-05 -0.8072838714 0.2517359774
160299040.0 0.1221916688 0.0132256866 0.0001641775 1.86362e-05 0.0002454617 1.70267e-05 -0.8051694794 0.2605488756
165299010.0 0.1230564087 0.0095853421 0.0002651689 -5.12415e-05 -7.15523e-05 4.46287e-05 -0.8023221054 0.2694209706
170298980.0 0.1232137913 0.00715523 0.0001557246 0.0003145913 -0.0002201003 0.0001038191 -0.7992519623 0.2780118739
175298950.0 0.123401816 0.0039638746 -0.000153782 0.0002006471 0.000171299 0.0002116939 -0.7968945134 0.2864612086
180298920.0 0.1240773295 0.0014170757 -0.0001486922 0.0002168084 -6.32172e-05 0.0001955369 -0.7936884595 0.2946047635
185298890.0 0.1242546646 -0.0017338622 -9.76472e-05 0.0001896865 8.4822e-05 9.64311e-05 -0.7902964736 0.3038476125
190298860.0 0.1242665087 -0.0044710409 -0.0001533516 6.71301e-05 7.12773e-05 0.0001918439 -0.7876545784 0.3126471118
195298830.0 0.1241092482 -0.0069831469 0.0003185709 0.0002640398 4.41417e-05 0.0001736736 -0.7844821549 0.3209897209
200298800.0 0.1240733882 -0.0095576168 -3.08616e-05 0.0001513794 4.8492e-05 0.0001295756 -0.7812592197 0.3289218187
205298770.0 0.1237917887 -0.0120626296 0.0001770725 -6.70791e-05 0.0001425884 0.000105125 -0.7776152929 0.3374726776
210298740.0 0.1235637369 -0.0146358701 0.0001640964 0.0001368531 0.0001485581 6.21645e-05 -0.7746785927 0.3461567099
215298710.0 0.1233010814 -0.0173894079 0.0001339416 -6.11031e-05 -4.01713e-05 5.20378e-05 -0.7710160073 0.3538815919
220298680.0 0.1227678171 -0.0199642892 0.0002145516 0.0002599772 0.0001181343 0.0001413553 -0.7672764514 0.3618412082
225298650.0 0.1220113813 -0.0220994379 9.98906e-05 -4.98326e-05 4.79961e-05 6.16121e-05 -0.7637437383 0.3698550008
230298620.0 0.1217192574 -0.0242206349 0.0001641631 4.71676e-05 8.3728e-05 0.0001007742 -0.7598954763 0.3781397832
235298590.0 0.1214736899 -0.0263342743 0.0001286891 3.31898e-05 0.0001280402 0.0001556558 -0.7555664401 0.3866083612
240298560.0 0.1210065418 -0.0289699639 -0.0001677002 0.0001450714 2.95172e-05 0.0001853741 -0.7512125964 0.3944843176
245298530.0 0.120414106 -0.0307989107 0.0001411692 0.0002251207 0.000213256 0.0002228747 -0.7475415982 0.4026127734
250298500.0 0.1197800106 -0.0330517269 6.83531e-05 0.0001733296 8.96526e-05 4.04346e-05 -0.7440303807 0.4101248632
255298470.0 0.1187585185 -0.0352529389 0.0002689943 0.0001160063 -5.70083e-05 9.92495e-05 -0.7386900814 0.4176285029
260298440.0 0.1182286731 -0.0369958001 7.31253e-05 8.17018e-05 0.0001859276 2.34616e-05 -0.7348045337 0.4260863506
265298410.0 0.1176642515 -0.0390249572 0.0001219366 0.0001568715 2.9287e-06 0.000170162 -0.730410781 0.433137824
270298380.0 0.1169218287 -0.0410577818 5.62018e-05 0.0001157414 0.000253063 0.0001964138 -0.7255403938 0.4406900134
275298350.0 0.1161785736 -0.0428898793 0.0001566156 -2.70737e-05 0.0001785882 4.66335e-05 -0.7205184021 0.4485027306
280298320.0 0.1156940055 -0.0447257067 -4.39218e-05 -2.6372e-05 0.0001045575 0.00022842 -0.7159344595 0.4557379751
285298290.0 0.1147957253 -0.0461635017 0.0003016165 0.0004268579 7.00398e-05 0.0001946502 -0.7106638308 0.4634087768
290298260.0 0.114074983 -0.0484820671 0.0002954595 -2.25704e-05 0.0001383784 0.0002522691 -0.7061458217 0.470732739
295298230.0 0.1130675413 -0.05069189 8.44722e-05 8.3921e-06 -4.05101e-05 5.53167e-05 -0.7012725226 0.4777922331
300298200.0 0.1123400623 -0.052094735 4.49961e-05 0.000248307 0.0002751988 0.0001323679 -0.6959653313 0.4849307146
305298170.0 0.111424152 -0.0537792518 4.22274e-05 0.0003742525 0.0001049691 2.8679e-05 -0.6901774474 0.4922634299
310298140.0 0.1105859641 -0.0553741436 0.0002955384 0.0001454539 0.0003314037 0.0001276443 -0.6859566937 0.4992207068
315298110.0 0.1100363886 -0.0571575478 -0.0001550413 1.34812e-05 6.16555e-05 -0.0002050911 -0.6800874455 0.5067593927
320298080.0 0.1089081501 -0.0594061702 7.71098e-05 8.46572e-05 -9.1436e-06 0.0003324152 -0.6748079641 0.5146992915
325298050.0 0.1077882239 -0.0608086433 0.0002133109 -6.77137e-05 0.0001963852 3.78311e-05 -0.6692430828 0.5209789665
330298020.0 0.106669231 -0.062999384 8.96237e-05 0.0002268347 0.0001212093 3.10106e-05 -0.6638087633 0.5283658797
335297990.0 0.1053538241 -0.0645372234 0.0001096835 0.0001161619 0.0002099669 4.63471e-05 -0.658216173 0.5353880053
340297960.0 0.1037946236 -0.0657718249 0.0002602929 0.0001534402 -8.5396e-06 -3.4283e-06 -0.6528400185 0.542115453
345297930.0 0.1024653778 -0.0670183532 0.0001793162 0.0002414178 0.000219369 4.27187e-05 -0.6473233704 0.5487585802
350297900.0 0.1016413921 -0.0683182128 -3.69922e-05 0.000143299 0.000386273 0.0002477874 -0.6414997789 0.555505861
355297870.0 0.1001800342 -0.0697737895 0.0002959553 0.0001469092 3.05828e-05 0.0001795521 -0.6358426691 0.5618705927
360297840.0 0.0990464879 -0.0708531959 0.0003450193 0.000109286 0.0001690021 7.58604e-05 -0.6295335385 0.5686053888
365297810.0 0.0975213915 -0.0719978829 0.0001391462 0.0001717987 0.0002595837 0.0001055102 -0.6233959743 0.5749112394
370297780.0 0.0965226271 -0.0734855257 0.0002526401 0.0001614693 0.0001621987 0.0001412284 -0.6174290739 0.5814530928
375297750.0 0.0954607193 -0.0747089992 0.0001085768 0.0001036934 0.0002933265 0.0001730778 -0.6117795786 0.5874127029
380297720.0 0.0942836005 -0.0760716464 0.0001243776 0.0001119847 0.0001938215 8.0924e-06 -0.6055640494 0.5938475751
385297690.0 0.0927050995 -0.0768403399 0.0003235776 0.000205091 0.0001831415 1.58623e-05 -0.5995056404 0.6004263999
390297660.0 0.0914128655 -0.0780572969 -7.35667e-05 0.0001958679 0.0001386468 0.0001025204 -0.5932922967 0.6063592615
395297630.0 0.0903493201 -0.0793978845 0.0002461503 0.0002745567 0.0002602084 0.0001160481 -0.5863220887 0.6130942692
400297600.0 0.0892502846 -0.0801903921 0.0001016063 2.93512e-05 0.0001130715 8.89513e-05 -0.5811154812 0.6191734445
405297570.0 0.0877561256 -0.0814466709 0.0001680295 8.16824e-05 0.0001022799 0.0001058709 -0.5740039688 0.6246412063
410297540.0 0.0866716604 -0.0825825969 0.0002573206 9.39457e-05 9.82558e-05 8.77534e-05 -0.5674362057 0.630631071
415297510.0 0.085592047 -0.0836886034 0.0001501613 0.0001981078 0.0002404019 0.0001511535 -0.5609291262 0.6360299734
420297480.0 0.0840032475 -0.0843446527 0.0002026664 -8.83589e-05 0.0002917547 5.92124e-05 -0.5543763125 0.642138639
425297450.0 0.083070876 -0.0856343219 0.0001834303 -9.98362e-05 0.0002931805 7.65667e-05 -0.5477088154 0.6474981188
430297420.0 0.0818265323 -0.0866334301 0.0001960802 3.63034e-05 0.0004226358 0.0001767969 -0.5408522882 0.6527682565
435297390.0 0.0802258288 -0.0877395775 0.000301942 0.0002175538 0.0001703121 0.0002427278 -0.5336382449 0.6586745912
440297360.0 0.0789790828 -0.0885273177 0.0002607396 0.0002465885 0.0004633974 0.0002102167 -0.5272849823 0.6634414491
445297330.0 0.0776008806 -0.0894617369 0.0002212584 0.0002170509 0.0002333471 0.000248401 -0.5206618283 0.6687470189
450297300.0 0.0766220839 -0.0904878294 0.00022323 0.0002119331 0.0003088936 5.96382e-05 -0.5134356473 0.6740213534
455297270.0 0.0750285622 -0.0913805532 0.0002302986 0.0002504357 0.0003345085 7.93937e-05 -0.5064286917 0.6783184594
460297240.0 0.0735763771 -0.0922753348 0.0002784719 0.0001598487 0.000189179 1.1546e-06 -0.4997515779 0.6839098784
465297210.0 0.072371287 -0.0926938232 0.0003168241 0.0001243796 0.000154336 2.30382e-05 -0.4925101606 0.6891902512
470297180.0 0.0708321167 -0.0935386388 0.0001761668 6.04347e-05 0.0001976732 0.0003060295 -0.4852879405 0.6945371595
475297150.0 0.0696205924 -0.0946952608 1.03414e-05 -1.15649e-05 0.0001233713 8.81358e-05 -0.4778400176 0.6985760307
480297120.0 0.0683426341 -0.0952274663 0.0002248628 9.27267e-05 0.0002622738 8.09112e-05 -0.4706285371 0.7034089239
485297090.0 0.0669742588 -0.0959062683 0.0004221836 -8.17741e-05 0.0002426891 -9.62668e-05 -0.4634818754 0.7085322635
490297060.0 0.0655136854 -0.0964278617 0.0001803897 4.83172e-05 0.0001542603 -5.84734e-05 -0.4561466945 0.7126932982
495297030.0 0.0639774849 -0.097403182 0.0004823697 9.1664e-05 0.0002816794 3.36999e-05 -0.4486812668 0.7177664384
500297000.0 0.0628076885 -0.0980903413 0.0001761296 0.0002338681 0.0002341757 0.0001419747 -0.4411774797 0.7227642791
505296970.0 0.0616291411 -0.0987955162 -1.81567e-05 -0.0001390682 0.0002213972 0.0002602545 -0.4339788446 0.7262242062
510296940.0 0.0602486893 -0.0994198058 0.0002371972 8.99052e-05 0.0001880255 0.000173832 -0.4264181112 0.7308569216
515296910.0 0.0589379279 -0.099856098 0.0001950042 0.0002465606 0.0001300168 0.00033438 -0.4189643674 0.7354843514
520296880.0 0.0571079479 -0.100407717 0.0004072964 0.000144882 0.0003361459 0.0002116329 -0.4109595526 0.7395244323
525296850.0 0.0559016876 -0.1013224978 0.0004104959 9.4822e-06 0.0002925273 -2.55401e-05 -0.4039539623 0.7438803453
530296820.0 0.0545701465 -0.101591045 0.0003774167 0.0002209248 0.0002316237 5.3832e-05 -0.3962365596 0.7479160157
535296790.0 0.0530710021 -0.1020272637 0.0003470375 3.62127e-05 0.0003096402 -1.20045e-05 -0.3895149938 0.7513380719
540296760.0 0.0515271223 -0.1025727376 0.0002218086 0.0001030291 0.0002735336 3.20545e-05 -0.381424497 0.75548529
545296730.0 0.0499683129 -0.102793381 0.0002143541 0.0001384484 0.0004578946 0.0001971044 -0.3735127682 0.7591668851
550296700.0 0.0489898647 -0.1035843819 0.0001566905 -1.55713e-05 0.0002601249 6.87177e-05 -0.3660063571 0.7630766577
555296670.0 0.0471063562 -0.1039907799 5.70485e-05 8.63182e-05 0.0002894563 -6.49021e-05 -0.3583543553 0.7672320409
560296640.0 0.0459827672 -0.1042244011 0.0003432215 0.0001613645 0.000216702 -7.65366e-05 -0.3504396955 0.7710519496
565296610.0 0.0444404869 -0.1045201998 0.000494997 6.58791e-05 0.0001931781 -1.70491e-05 -0.3424366234 0.7738125105
570296580.0 0.0426482379 -0.1050064583 0.0001581816 6.1012e-05 0.0001998462 4.40215e-05 -0.3350123832 0.7772658295
575296550.0 0.0413698491 -0.1053946917 0.000457886 -0.0001371023 0.000261568 -4.63557e-05 -0.326914816 0.7802006758
580296520.0 0.0402559365 -0.1058865758 0.0005116507 -7.589e-06 0.0002817006 -5.952e-06 -0.3183894276 0.783495138
585296490.0 0.0384447593 -0.1064541138 0.0002284179 -5.9561e-06 0.000290569 3.69326e-05 -0.3105018419 0.7873265326
590296460.0 0.0373753038 -0.1062623673 0.0004781723 -0.0001916902 0.0005077356 3.59715e-05 -0.3034342661 0.7901542963
595296430.0 0.0356917919 -0.1068106655 0.0003797881 -8.81678e-05 0.0004374528 -8.1078e-06 -0.2948691895 0.792740507
600296400.0 0.0341750224 -0.1070689962 0.000624356 0.0002350348 0.000218503 -8.64079e-05 -0.2868172669 0.795383724
605296370.0 0.0327640824 -0.107155472 0.0002288703 0.0001338118 0.0004588606 0.0001850531 -0.2786320614 0.798149246
610296340.0 0.0310941163 -0.1075917716 0.000480392 -0.0001321595 0.0002125016 8.77138e-05 -0.2702757073 0.8010585202
615296310.0 0.0301144016 -0.1074798969 0.0002862907 -0.0001567837 0.0003422916 0.0001155378 -0.2619474048 0.8033275025
620296280.0 0.0280611493 -0.1079589182 0.0003813807 -5.755e-07 0.0003588987 8.84631e-05 -0.2544981995 0.8057540166
625296250.0 0.0269620162 -0.1080447137 0.0003046682 0.0002308129 0.0003851282 -0.0001395802 -0.2455611661 0.8079019311
630296220.0 0.0257759888 -0.1084199265 0.0002088509 0.0001313129 0.0005739987 -0.0001822362 -0.2378135745 0.8108587384
635296190.0 0.0238909074 -0.1082804398 0.0002968588 -0.0001530081 0.0003592558 0.0002620658 -0.2294163769 0.8126314792
640296160.0 0.0226002239 -0.1084229831 0.0003786834 -9.52809e-05 0.0003276508 7.22075e-05 -0.2217232809 0.8150798626
645296130.0 0.0212024996 -0.1084238935 0.0002710701 0.0001555204 0.0006586434 8.4307e-06 -0.2128556888 0.8176244381
650296100.0 0.0195483244 -0.1084180726 0.0003237517 3.11777e-05 0.0003484309 -7.7352e-05 -0.2052988192 0.8189755909
655296070.0 0.0182334223 -0.1086337679 0.0004457052 0.0001042756 0.0001823616 6.64934e-05 -0.1963519337 0.8209815015
660296040.0 0.0166115453 -0.1086190164 0.0002547949 0.0002234643 0.0006342166 0.0002513977 -0.187524316 0.8233919453
665296010.0 0.0156198692 -0.1088831175 0.000315918 -2.6219e-05 0.0003512678 0.0001188957 -0.1797825439 0.8255499281
670295980.0 0.0138678513 -0.1085508292 0.0002056865 2.48093e-05 0.0001900555 3.0596e-05 -0.1724160783 0.8266610346
675295950.0 0.0123585688 -0.1085893717 0.0002060625 -0.0001242649 0.0004444452 -0.0001802669 -0.1639694891 0.8292671538
680295920.0 0.0109978072 -0.1084643795 0.0004264624 -0.0001040979 0.000502422 0.0001449838 -0.1549937232 0.831454042
685295890.0 0.0097336297 -0.1083514985 0.0003740905 6.35217e-05 0.0002922796 -6.78773e-05 -0.1464807887 0.8312830933
690295860.0 0.00835599 -0.1083507692 0.0004414877 7.63959e-05 0.0002681482 6.85066e-05 -0.1385862012 0.8333843615
695295830.0 0.006715182 -0.1081481488 0.0003526577 1.95015e-05 0.0005327328 -6.6378e-05 -0.1297935346 0.835000169
700295800.0 0.0052028383 -0.1081598823 0.0003597377 -0.0001384354 0.0003293218 -0.0002886659 -0.1226282613 0.8360627547
705295770.0 0.003793491 -0.1080187844 0.000430292 4.8516e-05 0.0003578044 0.0001408072 -0.1141428135 0.8382155023
710295740.0 0.0023994231 -0.1077349447 0.0002822027 7.01488e-05 0.0003412342 2.86264e-05 -0.1053490029 0.8387169622
715295710.0 0.0008928886 -0.1075182221 0.0003170216 -0.0001758557 0.0005306124 -8.71451e-05 -0.0963904511 0.8397886798
720295680.0 -0.000636406 -0.1075135129 0.0005853376 -3.36332e-05 0.0004096919 0.0002369883 -0.0880114819 0.8403028091
725295650.0 -0.0018841171 -0.1070255214 0.0005660849 -7.9653e-05 0.0002035526 5.00827e-05 -0.08020484 0.8417561533
730295620.0 -0.0033078473 -0.1066985291 0.0001733529 4.28665e-05 0.0002887503 0.000187333 -0.0721078022 0.8417862387
735295590.0 -0.004641909 -0.1065633384 0.0004951962 5.85965e-05 0.0002961748 8.07343e-05 -0.0636580994 0.8429382659
740295560.0 -0.0062419209 -0.1062016448 0.0003735147 0.0001908762 0.0001303299 -6.78328e-05 -0.0544116164 0.8435208091
745295530.0 -0.0076247522 -0.1060323046 0.0003254414 -8.4086e-06 0.0005505675 -0.0001640657 -0.0460877088 0.8437844994
750295500.0 -0.008908251 -0.1056579621 0.0002224638 -0.0001724477 0.0004134014 8.73281e-05 -0.038064044 0.8443601079
755295470.0 -0.0104184751 -0.1052278142 0.0004017149 -0.0002190426 0.0003772848 -8.87884e-05 -0.0296934107 0.8442298926
760295440.0 -0.011713446 -0.1049497811 0.0002237986 -4.36859e-05 0.0004442619 -3.94945e-05 -0.021131981 0.8444691447
765295410.0 -0.0129496866 -0.1046584585 0.000560398 -0.0002569141 0.000573579 -0.000143471 -0.0127275465 0.8448197038
770295380.0 -0.0147128089 -0.104144925 0.0003357055 -4.31074e-05 0.0005442756 5.47861e-05 -0.0043415899 0.8446703824
775295350.0 -0.0164347582 -0.104158977 0.0002413015 -6.99082e-05 0.0004971651 -4.49379e-05 0.0035564063 0.8442092639
780295320.0 -0.0173342522 -0.103344879 0.000455987 -3.00287e-05 0.0005171239 -0.0001253721 0.0120847963 0.8441926133
785295290.0 -0.0187794163 -0.1032598808 0.0002393117 -0.000174775 0.0002425194 -0.0001695562 0.0209589594 0.8440004441
790295260.0 -0.0197341071 -0.1027312725 0.0005583102 7.18795e-05 0.0002888704 -0.0002068122 0.0296541196 0.8440994295
795295230.0 -0.0213949656 -0.101993816 0.0003043304 -0.0002946957 0.0004021778 -2.626e-05 0.038645617 0.8430297248
800295200.0 -0.0228775072 -0.1017816636 0.0005462253 0.0001400902 0.0004042778 -0.0003483778 0.0467323371 0.8429316868
805295170.0 -0.0238995067 -0.1012757457 0.0003392684 -0.0001276844 0.0003601491 0.0001138405 0.0549205359 0.8426170437
810295140.0 -0.0251415075 -0.1005730339 0.0004222645 -0.0002967394 0.0003694901 -0.0003040304 0.063384957 0.8413338314
815295110.0 -0.0268264597 -0.1003037854 0.0004908157 -8.06118e-05 0.0005858035 -0.0002586097 0.0716446657 0.8413851281
820295080.0 -0.0279933059 -0.0993847337 0.0006009501 8.8513e-06 0.0005507874 -7.45016e-05 0.0803361011 0.8404161097
825295050.0 -0.0290178394 -0.0991473997 0.0006731042 -0.000201391 0.000511195 -9.18257e-05 0.0882568126 0.8392844248
830295020.0 -0.0301736986 -0.0987045562 0.0004703183 -0.000332749 0.0006492016 -8.99512e-05 0.097316836 0.8380647272
835294990.0 -0.0318607288 -0.0977087306 0.0003818773 -0.0003346338 0.0004140011 -2.08439e-05 0.1050160153 0.8380292892
840294960.0 -0.0329928817 -0.0968193439 0.0002309697 -4.1357e-05 0.0003946056 0.0001078496 0.1135395618 0.8365974323
845294930.0 -0.0342684845 -0.0966199464 0.0004277562 -0.0001080427 0.0004889966 -0.0001094402 0.1213981393 0.8352258141
850294900.0 -0.0352564168 -0.095651336 0.000458002 -0.0001467362 0.0005459339 -0.0002973048 0.1297820331 0.8339908079
