!Created with skrf (http://scikit-rf.org).
# Hz S RI R 50.0 
!freq ReS11 ImS11 ReS21 ImS21 ReS12 ImS12 ReS22 ImS22
300000.0 -0.0485002916 -0.0742202614 0.0001446404 -0.0010710161 -0.0009619389 0.0010940858 -0.7706313284 -0.1979007702
5299970.0 -0.050231406 0.01408152 -8.91345e-05 2.54556e-05 0.0002736564 9.79474e-05 -0.784577879 -0.0096468639
10299940.0 -0.0443799671 0.0325042137 -0.0001261696 6.51033e-05 5.55874e-05 -9.81076e-05 -0.7874398131 -0.0054570924
15299910.0 -0.0357785963 0.0473497661 -0.0003031481 0.0001253818 -1.12304e-05 -0.0001767101 -0.7924781187 -0.002970483
20299880.0 -0.0257856579 0.0591084984 -0.0001643789 -2.84169e-05 -2.24838e-05 -0.0002210448 -0.7992317253 0.0014673058
25299850.0 -0.0141671041 0.0684391059 -0.0001285464 -0.0001348338 0.0001036143 -6.52985e-05 -0.8054727469 0.0078901885
30299820.0 -0.0028495761 0.0753737282 0.0001760816 -0.0001800616 -8.41289e-05 -0.000124352 -0.8113143249 0.0154910478
35299790.0 0.0090043033 0.0798216347 -8.32393e-05 -0.0001224332 7.80719e-05 0.0001698312 -0.8166541839 0.0249687491
40299760.0 0.0206291123 0.0828481371 0.0002121085 -3.6764e-06 0.0001340377 0.0002553471 -0.8208895576 0.0337988667
45299730.0 0.0310788626 0.0832901166 9.13189e-05 -5.35638e-05 -1.99612e-05 -3.80442e-05 -0.8239484786 0.0438621828
50299700.0 0.0417171626 0.0838941876 7.34407e-05 0.0001941193 -0.0001069565 7.14494e-05 -0.826443145 0.053960249
55299670.0 0.0508908174 0.082468692 4.39065e-05 0.0001266119 -9.10554e-05 6.51052e-05 -0.8286364298 0.063669649
60299640.0 0.0597493301 0.0805149143 0.0002193125 -2.92046e-05 -0.0001010786 -0.0001196721 -0.8295271226 0.074041208
65299610.0 0.0679582146 0.0781366743 8.36276e-05 8.67405e-05 0.0001482662 0.0001821808 -0.8299517848 0.0838443945
70299580.0 0.0744858123 0.0749171764 -5.2145e-06 1.7676e-06 5.71765e-05 -5.43723e-05 -0.8309331383 0.0939118181
75299550.0 0.0810218027 0.0716134709 1.1263e-05 1.15786e-05 0.000144731 3.78927e-05 -0.8301416553 0.1042988377
80299520.0 0.0867834893 0.0680549676 -6.54185e-05 0.0001782081 9.48823e-05 0.0001167167 -0.8310225116 0.1137202241
85299490.0 0.0920868651 0.0640107008 -6.37282e-05 1.92129e-05 -0.0001062165 -1.06748e-05 -0.8300051831 0.1229604149
90299460.0 0.0968737195 0.0600653573 -0.0001076133 -0.0001322074 0.0001236355 -1.1193e-06 -0.8287443099 0.1327873239
95299430.0 0.1009407434 0.0561456912 1.04944e-05 0.0002858965 0.0002321089 6.88168e-05 -0.8281416655 0.1421295041
100299400.0 0.1046781411 0.0520964305 -0.0001088892 0.0001198825 0.0001273266 0.0001632933 -0.8266917885 0.1520136766
105299370.0 0.1078903905 0.0480191396 0.0001861604 8.01902e-05 0.0002319924 -9.91889e-05 -0.8256378339 0.1605431202
110299340.0 0.1108651173 0.043699381 8.05e-06 -7.00872e-05 0.0001233518 1.03266e-05 -0.8242919078 0.1699493214
115299310.0 0.1130846619 0.0399713969 5.64933e-05 7.08414e-05 6.85507e-05 0.0002509356 -0.8231661921 0.1788693176
120299280.0 0.1157900113 0.0362804663 0.0001005078 -6.21512e-05 7.62123e-05 6.4824e-05 -0.8208135955 0.1876073017
125299250.0 0.1176348532 0.0318923336 0.000266258 7.2939e-06 0.0001087301 3.34438e-05 -0.8193946674 0.1973298052
130299220.0 0.1192805361 0.0280201722 -0.0001315168 -1.67598e-05 0.0001492622 0.0001324063 -0.8173292875 0.2057686097
135299190.0 0.121019711 0.0244816675 0.0001166667 -6.63134e-05 -2.77082e-05 1.8844e-05 -0.815882318 0.2149730819
140299160.0 0.1221522394 0.0208392241 -7.13403e-05 -0.0001135808 -7.44408e-05 0.0002410778 -0.8136557284 0.2233425323
145299130.0 0.1233247617 0.0174218863 5.40574e-05 0.0003289049 -4.37635e-05 2.49792e-05 -0.8117260976 0.2324207785
150299100.0 0.1243485877 0.0139549213 0.0001207845 2.39198e-05 -0.0001277145 0.000162858 -0.8092443774 0.241510222
155299070.0 0.1249527131 0.0106078726 -0.0002853909 0.0001726601 9.32629e-05 2.09308e-05 -0.8069988186 0.2501834688
160299040.0 0.1257273407 0.0073352047 0.0001186255 0.0001868684 4.08481e-05 3.32841e-05 -0.8041954409 0.2587178511
165299010.0 0.126303379 0.0040917933 0.0002018065 0.0002473879 3.91381e-05 8.09501e-05 -0.8017950215 0.2672338683
170298980.0 0.1265339696 0.0004533058 -0.0001038679 -1.35991e-05 -8.1371e-05 -0.0001245236 -0.7993762861 0.2757906345
175298950.0 0.1270227196 -0.0023818823 2.11351e-05 -0.000168702 -2.4752e-05 6.22169e-05 -0.7964386004 0.2846430947
180298920.0 0.127027389 -0.0053909254 0.0001889127 -5.71929e-05 -1.41559e-05 6.22969e-05 -0.7930505866 0.2935878089
185298890.0 0.1270433166 -0.0082347143 0.0001020793 0.0001316277 9.73372e-05 -6.47536e-05 -0.7902733673 0.3018583468
190298860.0 0.126918428 -0.0110335691 9.47452e-05 -0.0002122838 7.40757e-05 0.0001399911 -0.7871317406 0.3101633702
195298830.0 0.1271582494 -0.0137265771 -2.34856e-05 0.0001271814 0.0001106423 -5.5126e-05 -0.784066893 0.3183648857
200298800.0 0.1270074353 -0.0167207644 0.0002180866 -9.03171e-05 -0.0001112985 -1.89802e-05 -0.7805846829 0.3267319267
205298770.0 0.1260216197 -0.0192764492 -3.64765e-05 -0.0001897794 -7.2538e-06 -8.09245e-05 -0.7777493701 0.335002593
210298740.0 0.126462396 -0.0217687466 6.27302e-05 -0.000167996 0.0001197202 9.24334e-05 -0.773788297 0.343370203
215298710.0 0.1254807136 -0.0244293866 0.000317022 -6.39174e-05 5.66702e-05 0.000114632 -0.7698059287 0.3514475183
220298680.0 0.125365333 -0.0268931836 -8.50132e-05 0.0002595254 0.0001043322 0.0001004618 -0.7664233325 0.359456382
225298650.0 0.1248536905 -0.0294739834 0.0002766162 0.0001133839 2.45142e-05 -8.95115e-05 -0.7628800407 0.3676399176
230298620.0 0.1241224212 -0.0315319341 -6.92507e-05 3.59081e-05 4.88045e-05 -0.0001658554 -0.7589417501 0.3754163787
235298590.0 0.1234962222 -0.0339149628 -6.1182e-06 -0.0001019298 -6.03595e-05 2.94005e-05 -0.7547668262 0.3833280277
240298560.0 0.12265034 -0.0360139336 0.0001070636 -1.6924e-06 -1.78124e-05 -1.90697e-05 -0.7514616847 0.3910210818
245298530.0 0.1219799663 -0.0385598798 -0.0001714425 -9.84114e-05 -7.47084e-05 6.0881e-06 -0.7470686978 0.3994423459
250298500.0 0.1213093244 -0.0406686949 -0.0001334376 9.97375e-05 0.0001113012 -0.0001563274 -0.7426769307 0.4070219265
255298470.0 0.1203958695 -0.0425950759 0.0001986637 -8.11068e-05 0.0001338495 0.0001077434 -0.7388514707 0.4144900442
260298440.0 0.1198436745 -0.0449083341 -7.26596e-05 0.0002030537 -0.0001852352 7.14363e-05 -0.7342587482 0.4220621091
265298410.0 0.118539744 -0.046905451 5.36532e-05 0.0002156621 0.0001543374 8.32225e-05 -0.7296527347 0.4301164098
270298380.0 0.1179268132 -0.0490499686 -4.90654e-05 -0.0001699802 -3.59164e-05 0.0001303564 -0.7247929604 0.4380869391
275298350.0 0.1171882103 -0.0507715895 0.0001342756 0.0001631068 -4.82659e-05 0.0001347834 -0.7201013401 0.4455484949
280298320.0 0.115860209 -0.0524976824 0.0001208362 7.88592e-05 4.15516e-05 0.0001131328 -0.7158330969 0.4527810277
285298290.0 0.1148240324 -0.0546800694 -4.36384e-05 0.000158652 -2.00946e-05 -0.0001819093 -0.7116327874 0.460341364
290298260.0 0.1138077342 -0.0565442464 0.0001912506 -7.45098e-05 0.0002414069 -0.0001293933 -0.7059199784 0.4679305599
295298230.0 0.1129627006 -0.0585097775 0.0001180783 -2.52059e-05 8.96142e-05 1.21813e-05 -0.7011782587 0.4750380778
300298200.0 0.1118189119 -0.0602222593 6.76996e-05 0.0001458225 0.0001633015 0.0001614538 -0.6964926652 0.4824651399
305298170.0 0.1109490788 -0.0623600804 0.0001766488 -6.19348e-05 0.0001925578 1.7165e-06 -0.6908223586 0.4894860594
310298140.0 0.1096963201 -0.0646684849 -1.17272e-05 -3.96259e-05 0.0001122698 -1.87979e-05 -0.68633335 0.4972650537
315298110.0 0.1085052266 -0.0664331563 7.04934e-05 0.0002011657 0.0002318146 -7.1502e-06 -0.6807575014 0.5038684391
320298080.0 0.1072605715 -0.0682468615 -4.1585e-06 -9.50706e-05 -9.3002e-06 -1.44813e-05 -0.6761462818 0.5106031664
325298050.0 0.1053203311 -0.0701168926 8.64948e-05 -1.70488e-05 6.971e-05 4.92915e-05 -0.6703493898 0.5178432747
330298020.0 0.1036651465 -0.0716079456 4.44e-05 0.0002101957 7.40824e-05 0.0001180053 -0.664595964 0.5245944476
335297990.0 0.1022739424 -0.0729097668 0.0001865709 0.0001857469 -9.87937e-05 0.0001949168 -0.6595500386 0.5313390867
340297960.0 0.1010342748 -0.0745068664 8.31264e-05 6.19305e-05 9.42164e-05 -8.68756e-05 -0.6540006508 0.5381900422
345297930.0 0.0995232964 -0.0761405745 7.69909e-05 -0.0001135795 -1.44061e-05 0.000197789 -0.6485280292 0.5448681004
350297900.0 0.0978644805 -0.0774092779 -0.0001299166 0.0001040411 0.0001953757 -3.78528e-05 -0.6433106891 0.5513533383
355297870.0 0.0967840464 -0.0789074695 0.0001536072 9.39e-08 0.0001119847 -0.000102609 -0.6364403267 0.5586727015
360297840.0 0.0954607982 -0.0801931671 3.48922e-05 -4.34735e-05 -0.000122979 0.0001278452 -0.6307137456 0.5651985229
365297810.0 0.0942617561 -0.0815142472 1.09608e-05 1.22397e-05 0.0001263439 -3.11303e-05 -0.6258155476 0.5705966624
370297780.0 0.0924403143 -0.0831627599 3.31491e-05 5.9103e-05 3.62175e-05 0.0001648481 -0.6194196637 0.5780355083
375297750.0 0.0911314988 -0.0841104954 3.46887e-05 1.53809e-05 0.0001063077 0.0001780365 -0.6127988037 0.5838743805
380297720.0 0.089489767 -0.0849754598 6.22084e-05 -5.46872e-05 1.23196e-05 0.0001535353 -0.6065934867 0.5904689889
385297690.0 0.0883332074 -0.0866554397 0.0001298339 8.13598e-05 0.0002754288 4.31747e-05 -0.6007377165 0.596485054
390297660.0 0.0868068471 -0.08835685 1.20067e-05 -3.42774e-05 0.0001647791 4.56394e-05 -0.5950902723 0.6023855212
395297630.0 0.0855630431 -0.0891382605 0.00019168 5.53828e-05 -9.1478e-06 -9.33931e-05 -0.5879489882 0.6078785524
400297600.0 0.0834651123 -0.0906805441 1.91997e-05 0.000159074 -0.0001171146 0.000154581 -0.5822199549 0.6143483
405297570.0 0.0822102678 -0.0920797066 6.8829e-06 0.0001664426 6.1969e-06 0.0002013607 -0.5755109821 0.6200685373
410297540.0 0.0813472476 -0.0928886826 -7.2003e-06 7.77545e-05 3.27913e-05 0.0003855781 -0.5691308717 0.625863518
415297510.0 0.0794094087 -0.0940809592 4.16303e-05 0.0001578014 3.1777e-05 6.68954e-05 -0.5628414456 0.6318116165
420297480.0 0.0775478939 -0.0955015186 0.0001330582 -0.0001031021 6.76398e-05 0.0001559776 -0.5562233104 0.6382470369
425297450.0 0.0764231406 -0.0963821196 -2.82894e-05 2.84749e-05 1.87423e-05 4.68069e-05 -0.5495739086 0.6430590996
430297420.0 0.0749750652 -0.0975425867 0.000156326 7.8284e-05 -1.33472e-05 0.0002241778 -0.5433573596 0.648780572
435297390.0 0.0734937503 -0.0984105091 5.70955e-05 -8.00031e-05 -0.0001127289 0.000155557 -0.5365436 0.6547181465
440297360.0 0.0718974077 -0.0995637075 3.21664e-05 0.000177524 0.0001198024 0.0001910335 -0.529833282 0.6599141992
445297330.0 0.070380253 -0.1007117778 7.36127e-05 -1.4224e-05 9.9231e-06 -1.2297e-05 -0.522689745 0.6648813302
450297300.0 0.0691447516 -0.1018253703 3.22849e-05 -5.8782e-06 7.1636e-06 -3.48684e-05 -0.5157857363 0.669879778
455297270.0 0.0672759298 -0.1024965643 0.0001609393 -3.9935e-06 0.0001563759 -8.7684e-06 -0.5089182012 0.675344217
460297240.0 0.0658101678 -0.1034628529 -2.76552e-05 4.11857e-05 0.0002563056 -6.21503e-05 -0.5027438168 0.6796982237
465297210.0 0.0641035244 -0.1043703882 0.0002899651 6.4686e-05 0.0001084548 4.5274e-06 -0.4951457447 0.6863093605
470297180.0 0.0625312823 -0.1050137149 7.45123e-05 0.000101658 9.5716e-05 7.34115e-05 -0.4877070106 0.6904813465
475297150.0 0.0609361258 -0.1060166875 5.0807e-05 -1.25332e-05 6.49997e-05 0.0001755057 -0.480911366 0.6951467972
480297120.0 0.0597357523 -0.1070656722 4.78458e-05 -9.23014e-05 0.000262722 4.40364e-05 -0.4742140638 0.7001628267
485297090.0 0.0580669965 -0.1076770307 0.0001625936 -0.0001127062 0.0002601728 0.0001187969 -0.4669090432 0.7051971203
490297060.0 0.0567941081 -0.1083433774 8.76975e-05 -6.05391e-05 0.000279019 5.46383e-05 -0.4595308835 0.7089639319
495297030.0 0.0549454855 -0.1093998664 0.0001564185 -3.3565e-06 0.0002640128 -8.57639e-05 -0.4523522921 0.7133695464
500297000.0 0.0534443871 -0.1098425474 0.0002253805 0.0001197476 0.0002125952 3.48096e-05 -0.4453432008 0.717929623
505296970.0 0.0518812982 -0.1107506127 0.0002404167 -0.0001175248 0.0001175565 -4.2358e-05 -0.437531897 0.7227028626
510296940.0 0.0502918739 -0.1113050364 9.12983e-05 -6.19104e-05 0.0002590947 2.05893e-05 -0.4302373314 0.72746676
515296910.0 0.0487725854 -0.1117065374 5.56778e-05 0.0001419563 0.0002603558 0.0001074604 -0.4228475497 0.7314436838
520296880.0 0.047256355 -0.1123823497 0.0002433151 3.57893e-05 9.29939e-05 4.24218e-05 -0.4153163051 0.7367224734
525296850.0 0.0456825161 -0.1133057052 -4.46244e-05 -3.18095e-05 5.92263e-05 8.99108e-05 -0.4080043565 0.7396223586
530296820.0 0.0438428529 -0.1137421337 0.0001399069 2.0058e-05 0.0001607232 2.8808e-05 -0.4004379546 0.7434629632
535296790.0 0.0425682291 -0.1141307647 0.0002683811 -5.5149e-05 5.19215e-05 -0.0001715911 -0.3930288934 0.7482447623
540296760.0 0.0411928915 -0.1144857851 -5.40327e-05 7.3716e-05 0.0001642418 -1.15301e-05 -0.3848523378 0.751747434
545296730.0 0.0391135938 -0.1147445304 0.0002623412 1.62511e-05 0.0002111772 -0.0001603507 -0.3774426708 0.755647848
550296700.0 0.0378618511 -0.1151681976 5.88699e-05 3.2832e-05 9.09055e-05 0.0001079391 -0.3701466344 0.7589810917
555296670.0 0.03617599 -0.1156286422 7.82091e-05 4.88784e-05 0.0002036926 2.59077e-05 -0.3625307294 0.7624884217
560296640.0 0.0346287217 -0.1161495232 0.0002264287 4.546e-05 5.33215e-05 0.0002633504 -0.3545060489 0.7665709886
565296610.0 0.0328205115 -0.1165959497 0.0002346233 7.98057e-05 4.49018e-05 4.85408e-05 -0.3462954738 0.7702803146
570296580.0 0.0313468317 -0.1166904426 0.0001742544 8.06431e-05 0.000163759 -3.98571e-05 -0.3389838274 0.7730778005
575296550.0 0.0298089524 -0.1171798491 -6.86235e-05 4.9818e-06 0.0001576528 0.0001285733 -0.3307641967 0.7763082408
580296520.0 0.0284164414 -0.1167433353 0.000227988 1.83432e-05 0.0001401233 -5.03466e-05 -0.323695771 0.7796096158
585296490.0 0.0265668594 -0.1171734328 -0.0001487238 7.11257e-05 0.0001484899 -2.0288e-05 -0.3150073999 0.7830857964
590296460.0 0.0252912524 -0.1169691973 0.0001869303 8.2052e-06 -6.35859e-05 6.53062e-05 -0.3080444939 0.7861818954
595296430.0 0.0233930543 -0.1176510155 0.000160167 0.0001270134 0.0001303861 -0.0001154672 -0.2998023472 0.7897507379
600296400.0 0.0216695407 -0.1176595919 0.0002865678 0.000150065 0.0002387447 -0.0001078073 -0.2919642871 0.7920841243
605296370.0 0.0197600551 -0.1175654418 0.0001113758 -0.0001300025 0.0001026396 -1.95645e-05 -0.2836645366 0.79532131
610296340.0 0.0186264462 -0.1176048966 8.96775e-05 -7.45016e-05 0.0001922368 3.86053e-05 -0.276073562 0.7975776545
615296310.0 0.0171589747 -0.1177540955 3.10356e-05 -2.7326e-06 0.0001216597 3.31121e-05 -0.2674111108 0.8009612696
620296280.0 0.0153272216 -0.1175924008 -5.05161e-05 4.63264e-05 0.000212596 -4.23996e-05 -0.2595255303 0.8032439931
625296250.0 0.0134853074 -0.1174512204 0.0002816527 -0.0001091021 0.0002405948 -0.0002112411 -0.2515660083 0.8050370539
630296220.0 0.0120354468 -0.117484222 0.0001361466 1.90013e-05 0.0001318413 6.12471e-05 -0.2434671617 0.8075619532
635296190.0 0.01003678 -0.1171088258 3.14984e-05 -0.0001161696 0.0001019158 8.5475e-05 -0.2352799405 0.8096302604
640296160.0 0.0088615321 -0.1174985453 0.000327034 3.35451e-05 0.0001666835 4.24385e-05 -0.2272133915 0.8128262197
645296130.0 0.0074692363 -0.1170100417 0.0003823571 -2.83685e-05 0.0003174013 -1.82505e-05 -0.2193771315 0.8145901973
650296100.0 0.0052045467 -0.1169782937 0.0002371212 0.0001036987 4.08553e-05 -5.72493e-05 -0.2105679031 0.8168439419
655296070.0 0.003866882 -0.1168422694 0.0001536073 2.23361e-05 0.0002361027 4.69326e-05 -0.2030858913 0.8188383489
660296040.0 0.0018424423 -0.1165148912 0.0002391224 3.89794e-05 0.0001350212 8.57803e-05 -0.1941270531 0.8210994521
665296010.0 0.0003157445 -0.1161118456 -3.8148e-05 -6.19519e-05 4.33179e-05 -1.2485e-06 -0.1859442748 0.8224899322
670295980.0 -0.001421006 -0.1159534261 0.0002157728 8.05686e-05 4.8994e-05 4.03967e-05 -0.1783879838 0.824633588
675295950.0 -0.0030567106 -0.1157578129 0.0002360591 8.82786e-05 0.0001381295 -4.13006e-05 -0.1698242645 0.8270075032
680295920.0 -0.0048698859 -0.1150204533 0.0002515519 0.0001096337 0.0001584635 -0.000153416 -0.1611926377 0.8279188752
685295890.0 -0.0064730624 -0.1150949522 0.0004671034 -5.96208e-05 0.0003584584 1.40237e-05 -0.1532675868 0.8296702048
690295860.0 -0.0080802553 -0.1146427026 0.0001940251 -0.000192314 0.0001313187 -0.0001146717 -0.1449827536 0.8313201044
695295830.0 -0.0099283551 -0.1146467566 9.3307e-05 4.44218e-05 0.0001837707 5.71274e-05 -0.1370431669 0.8328122974
700295800.0 -0.0114700686 -0.1140497202 -6.0873e-05 6.93409e-05 0.000115793 -3.05606e-05 -0.1281511185 0.8335224666
705295770.0 -0.0130140731 -0.1135174442 0.0002127258 -1.07782e-05 0.000143191 -7.85404e-05 -0.1201812765 0.8353532143
710295740.0 -0.014679798 -0.1130609299 0.0001762997 -9.71243e-05 0.0001842196 -0.0001691693 -0.1119021894 0.8362370121
715295710.0 -0.0161595492 -0.1125242244 0.0002173771 5.75166e-05 0.0001446864 -9.60322e-05 -0.1030383834 0.8364298429
720295680.0 -0.0182219699 -0.1120501865 0.0003060649 -0.0001713586 0.0001429888 0.0002056065 -0.0947975219 0.8382721112
725295650.0 -0.0197904802 -0.1115670602 8.26124e-05 -4.13565e-05 0.0001334653 9.43054e-05 -0.0870698552 0.8391459401
730295620.0 -0.0217970752 -0.1108936015 4.17263e-05 4.61501e-05 0.0002364016 0.0001680191 -0.0785427569 0.8403396915
735295590.0 -0.0231918386 -0.1104988991 0.0001621195 -1.63252e-05 -5.66424e-05 -3.02075e-05 -0.0695353598 0.8402512932
740295560.0 -0.0252624167 -0.1099676157 0.0001847468 0.0001216245 8.78226e-05 -6.15017e-05 -0.0614802638 0.8412615286
745295530.0 -0.0264819849 -0.1093561287 0.0001523879 -7.092e-06 0.0001758825 -0.0002356906 -0.0537572326 0.8416026476
750295500.0 -0.028241389 -0.1085106763 0.0001631087 -1.55513e-05 9.1174e-05 6.52916e-05 -0.0449014788 0.841940393
755295470.0 -0.0301416542 -0.10814559 0.0002564256 -0.00015457 0.0001978181 -3.2038e-05 -0.036858453 0.8425961034
760295440.0 -0.0317238295 -0.1076628144 -5.81605e-05 -0.0001151887 0.0001752951 -8.0284e-05 -0.0278867941 0.8425789496
765295410.0 -0.0331157444 -0.1072149865 0.0002243261 7.43399e-05 0.0003645027 -7.57112e-05 -0.0195258078 0.8436881079
770295380.0 -0.0345329827 -0.1061612158 -1.40426e-05 -0.000154728 0.0001750032 4.78623e-05 -0.0113259603 0.843116037
775295350.0 -0.0368643655 -0.1056158586 0.0001678587 -6.48749e-05 0.000132587 -0.0001332758 -0.0030137087 0.8433824912
780295320.0 -0.0381768623 -0.104598568 0.0001636239 -0.0001132399 0.0002535469 1.72934e-05 0.0056647197 0.8434116452
785295290.0 -0.0398710429 -0.1043220926 0.0001670036 -3.5229e-05 8.2043e-05 -0.0001310175 0.0136573012 0.8433068031
790295260.0 -0.0412922816 -0.1033835977 0.0001945909 0.0002041554 0.0001159082 -0.0001412545 0.0217403497 0.8429761325
795295230.0 -0.0430367976 -0.1028919605 -0.0001094271 6.01159e-05 0.0001934328 -7.4174e-05 0.0301771493 0.8421874981
800295200.0 -0.0443536341 -0.1021416912 0.0004030358 -9.72808e-05 9.3874e-05 -3.19776e-05 0.0379837825 0.8425143992
805295170.0 -0.0464998472 -0.1012625354 0.0001048161 -0.000109997 0.0004451498 -0.0001260635 0.0472863338 0.8417883322
810295140.0 -0.0477737962 -0.100348793 -4.3757e-06 -0.0002081674 0.0002120138 -0.0001277671 0.0558581746 0.8410145759
815295110.0 -0.0492789982 -0.0995565061 0.0001049639 -0.0002106777 -8.70961e-05 -1.84385e-05 0.0634108442 0.8410859383
820295080.0 -0.0510228844 -0.0988878968 0.0004203012 -0.0003736695 0.0002489386 -0.0001371467 0.0716312887 0.8403605912
825295050.0 -0.052543143 -0.0983167118 9.17547e-05 -3.59237e-05 0.0003345327 -2.13999e-05 0.0800628558 0.839779411
830295020.0 -0.0538838585 -0.0972368574 -2.19867e-05 -3.2853e-06 0.0001092907 8.05166e-05 0.0883765635 0.8378288539
835294990.0 -0.0557947035 -0.096619528 0.0001483133 2.90471e-05 6.378e-05 9.7198e-06 0.0969056527 0.8377947527
840294960.0 -0.0569529502 -0.0955928659 -0.0001917539 4.41518e-05 0.000165927 0.0002134166 0.1056080785 0.8366511817
845294930.0 -0.0586720189 -0.0946008153 -2.49754e-05 -4.36975e-05 0.0002229718 4.23154e-05 0.1137018952 0.8353593194
850294900.0 -0.0598895472 -0.0939797851 0.0002142492 0.0001074844 3.2671e-05 -5.29155e-05 0.1213275007 0.8344149569
