!Created with skrf (http://scikit-rf.org).
# Hz S RI R 50.0 
!freq ReS11 ImS11 ReS21 ImS21 ReS12 ImS12 ReS22 ImS22
300000.0 -0.0986018105 -0.0767465996 0.6244532733 0.0719960806 0.6259271806 0.0768185378 -0.0982508199 -0.0869454266
5299970.0 -0.100265901 0.0133360535 0.6304867155 0.0103645337 0.6305523175 0.0108620978 -0.1022667769 0.0120219294
10299940.0 -0.0955358022 0.029933555 0.6346812105 0.0152290913 0.634138005 0.0156847188 -0.0974338907 0.0289967212
15299910.0 -0.0883667866 0.043176001 0.6400999619 0.0202658668 0.6403685123 0.0211967775 -0.0899679962 0.0420121946
20299880.0 -0.0795072258 0.0543468719 0.6486942427 0.0241287777 0.6489695625 0.0244225811 -0.0818486499 0.0530743946
25299850.0 -0.0696331479 0.0627908413 0.6579610727 0.0249943277 0.6580559064 0.0249801532 -0.0725689615 0.0621862358
30299820.0 -0.0596227371 0.0690558816 0.668153893 0.0248382152 0.6674770414 0.0244679108 -0.0627917669 0.0687913585
35299790.0 -0.0496329018 0.0740046415 0.6773706188 0.0221057041 0.6772267534 0.0218339984 -0.0525878272 0.0734016599
40299760.0 -0.039667757 0.0770099213 0.6867015366 0.0178483241 0.686519469 0.0178011885 -0.0438521506 0.0768682889
45299730.0 -0.0304442774 0.0794880058 0.6959873866 0.0113642619 0.6955515137 0.0120582098 -0.0339736456 0.0791215834
50299700.0 -0.0217762335 0.0798821696 0.7035499947 0.0044864243 0.7035206154 0.0048245086 -0.0254691412 0.0799594195
55299670.0 -0.014290093 0.0799612721 0.7104805339 -0.0033092867 0.7111909581 -0.0027862224 -0.0177893974 0.0797547879
60299640.0 -0.0069005933 0.0788274063 0.7175072283 -0.0117737191 0.7174840844 -0.0113626825 -0.010447925 0.0796603746
65299610.0 -0.000243274 0.0780861465 0.7234891682 -0.0195116295 0.723992706 -0.020235412 -0.0037389198 0.0786253997
70299580.0 0.0060601078 0.0758456751 0.7281643478 -0.0292822744 0.7285612296 -0.0296059536 0.002410319 0.0770884201
75299550.0 0.0116679736 0.0743262964 0.7325614765 -0.0388999574 0.7334513021 -0.0393957154 0.008110406 0.075879994
80299520.0 0.0160696424 0.0719761827 0.7376639595 -0.048868309 0.7374938992 -0.0490432682 0.0132335295 0.0727123659
85299490.0 0.0207890523 0.0695986491 0.7404009281 -0.0591963013 0.7406991243 -0.0587055849 0.0175036326 0.0709553659
90299460.0 0.0246181076 0.0672823986 0.7433750424 -0.0685250435 0.7434023487 -0.0691118737 0.0225032506 0.0685454936
95299430.0 0.0282216866 0.0654448485 0.745940789 -0.0792530207 0.746175161 -0.0789549782 0.0253240925 0.0665126942
100299400.0 0.03146048 0.0628886947 0.7476048674 -0.089473438 0.7476225536 -0.0893587558 0.0283954533 0.0639668182
105299370.0 0.0348406143 0.0602020344 0.7485216651 -0.0988689174 0.749262601 -0.0993084419 0.0319401044 0.0616636699
110299340.0 0.0369632189 0.0576996498 0.7500062992 -0.1088072368 0.750075716 -0.1097603331 0.034822645 0.0590818547
115299310.0 0.0397993376 0.0548298287 0.7506268741 -0.1191377689 0.7509634204 -0.1188532305 0.0373070791 0.0561783927
120299280.0 0.0413677562 0.0525669795 0.7516878386 -0.1292901163 0.7514635935 -0.1296200858 0.0389961763 0.0543233791
125299250.0 0.0435192062 0.0501716109 0.7521788203 -0.1393568116 0.7522629677 -0.139399739 0.0412429594 0.0514643289
130299220.0 0.044997169 0.0478690556 0.7518374645 -0.1488936479 0.7516789439 -0.1492720908 0.0433792005 0.049665488
135299190.0 0.0467578995 0.0455221436 0.7515609992 -0.1587344466 0.7505578971 -0.1589850001 0.0448186095 0.0472832098
140299160.0 0.0479425375 0.04417159 0.7506936065 -0.1688398858 0.7513231707 -0.1688917853 0.0463062417 0.0453804559
145299130.0 0.0492060357 0.0417205683 0.7503865486 -0.1783674051 0.7500003524 -0.1786533793 0.0473651454 0.0430816272
150299100.0 0.0507123229 0.0397938296 0.7490434372 -0.188724917 0.7492016062 -0.1883280064 0.048618617 0.0408926992
155299070.0 0.0512570993 0.038253757 0.7479510873 -0.1985352285 0.7477704639 -0.1983324608 0.0493342406 0.038813687
160299040.0 0.0523750238 0.0359037098 0.746270062 -0.2071193669 0.7461854544 -0.2073993173 0.0508748535 0.0371296896
165299010.0 0.0528877555 0.034230073 0.7454779136 -0.2172104921 0.7446775948 -0.2167969791 0.0516301169 0.0347709319
170298980.0 0.0534395938 0.0325719 0.7423539424 -0.2260622376 0.743133726 -0.2263148511 0.0527398156 0.0329454405
175298950.0 0.054401854 0.0304074342 0.7412961799 -0.2356043361 0.7414163053 -0.2352465824 0.0533344744 0.03114704
180298920.0 0.0553147655 0.0290816645 0.7391660809 -0.2447838893 0.739108243 -0.24435528 0.0536782329 0.0299042699
185298890.0 0.0560826184 0.0273035274 0.7367602172 -0.2543208933 0.7369164458 -0.2538483429 0.0542570555 0.0277045261
190298860.0 0.0562774185 0.0257118268 0.7342413154 -0.2630634196 0.7349497511 -0.2629476321 0.0552397071 0.0262266672
195298830.0 0.0561684303 0.0239088396 0.7316458639 -0.2712490056 0.7319877167 -0.272557414 0.0561361164 0.0241896434
200298800.0 0.0570865843 0.0228268055 0.7296638293 -0.2800605552 0.72894896 -0.2803518644 0.0562501947 0.0232136918
205298770.0 0.0572437593 0.0215246547 0.7264799671 -0.2894399578 0.7265859759 -0.2898471856 0.056086792 0.0208947834
210298740.0 0.0570486643 0.0194528558 0.7232123137 -0.2987018037 0.7236026513 -0.2988444361 0.0571084922 0.0199439311
215298710.0 0.0578412429 0.0185337666 0.7207555857 -0.3073120067 0.7206327119 -0.3072393448 0.0569209578 0.0180878394
220298680.0 0.0584188822 0.0171706544 0.7176421062 -0.3162009347 0.7171126685 -0.3159097012 0.0573611343 0.0175217518
225298650.0 0.0585658546 0.0160164703 0.7139601645 -0.3241297917 0.714021031 -0.3244822507 0.0575008379 0.0159876015
230298620.0 0.0581902606 0.0145261186 0.7109305662 -0.3331170397 0.711175806 -0.3328730684 0.0576671122 0.0143874303
235298590.0 0.0585946012 0.013206898 0.707195531 -0.3411422835 0.7073676007 -0.3417228966 0.0580140923 0.0126987637
240298560.0 0.0582632025 0.0120042681 0.7039196093 -0.3495575795 0.7035649647 -0.3491441672 0.057864682 0.0121417592
245298530.0 0.0588513533 0.0109827597 0.6992484587 -0.3576605312 0.6994423189 -0.3581305477 0.0582100719 0.0108441221
250298500.0 0.0583101803 0.0097082523 0.6957315752 -0.3654405878 0.6965259735 -0.3656740326 0.0585805648 0.0092200504
255298470.0 0.0582086835 0.0088300722 0.6918942857 -0.374955312 0.6920128096 -0.3740715242 0.0585583774 0.0076847229
260298440.0 0.058406464 0.007721371 0.6878814548 -0.3823135714 0.6884834701 -0.3826143231 0.0592703312 0.006933372
265298410.0 0.0590141638 0.0068031629 0.6837085733 -0.3910326862 0.6837920678 -0.3905412484 0.0586390489 0.0056901713
270298380.0 0.0590349564 0.0055136238 0.6792279332 -0.3986738184 0.680070004 -0.3983687106 0.058925206 0.0050481078
275298350.0 0.0585990837 0.0045819419 0.6751919278 -0.4071269034 0.6757287761 -0.406578614 0.0587763466 0.0037361531
280298320.0 0.0588086237 0.0041041294 0.6708429484 -0.4137957779 0.6706982001 -0.4144741497 0.0590585168 0.0030028456
285298290.0 0.0585966606 0.0031517475 0.6664993694 -0.4212820776 0.6663250479 -0.4224877806 0.0588003043 0.0013944285
290298260.0 0.0585451714 0.0016423513 0.6626208932 -0.4298217189 0.6623722017 -0.4295348467 0.0594867285 0.0006551114
295298230.0 0.0585253537 0.0005906846 0.6578379652 -0.4377491158 0.6572532825 -0.437756137 0.0593515856 -0.0004311952
300298200.0 0.0589698162 -0.0001504703 0.6531328333 -0.4445937963 0.6530268284 -0.4455840761 0.0589870859 -0.0015101837
305298170.0 0.0587628543 -0.0013477945 0.6480382291 -0.4530441451 0.6488019896 -0.4531697703 0.059472616 -0.0022048188
310298140.0 0.0594949282 -0.0023020699 0.6437341325 -0.4606557708 0.6437728091 -0.4610283071 0.059210997 -0.0028367865
315298110.0 0.0587929471 -0.0035097138 0.6379504195 -0.4685452079 0.6385584246 -0.468734903 0.0597390032 -0.0046132938
320298080.0 0.0585098676 -0.0046360118 0.6333034667 -0.4759295247 0.6333658195 -0.4762031273 0.0591282808 -0.0060589223
325298050.0 0.0582498005 -0.0058505112 0.6281835824 -0.4833159859 0.6281479911 -0.4836878652 0.0588040828 -0.0073400452
330298020.0 0.057806973 -0.0063879561 0.6216318932 -0.4904672837 0.621662821 -0.4908612831 0.058261631 -0.0082894755
335297990.0 0.0573450942 -0.0078731644 0.6162418056 -0.4979253023 0.6160731971 -0.4983684542 0.0578409194 -0.0093204709
340297960.0 0.0566845367 -0.0079252203 0.6107399895 -0.5045569489 0.6107522392 -0.5044464971 0.057124956 -0.00980626
345297930.0 0.0561596886 -0.008797151 0.6044437186 -0.511235861 0.6041191512 -0.5116183648 0.057499124 -0.011059567
350297900.0 0.0564628565 -0.0094220956 0.5986016186 -0.517690686 0.5993106156 -0.5180827495 0.0567189505 -0.0107925175
355297870.0 0.0558581113 -0.0104434627 0.5930447375 -0.5247209538 0.5929373683 -0.5252248233 0.056270518 -0.0114880012
360297840.0 0.0559441803 -0.0106446943 0.587294825 -0.5321909786 0.5873459383 -0.5319728596 0.0562083512 -0.012222024
365297810.0 0.0556412633 -0.0115228892 0.5815580571 -0.5379717658 0.5815789538 -0.5378606522 0.0558421421 -0.012552623
370297780.0 0.0554768616 -0.0123838517 0.5757266196 -0.5439047812 0.5754279625 -0.5447171898 0.0559966349 -0.0129612395
375297750.0 0.0549876269 -0.0124466973 0.5699031667 -0.5515635853 0.5693826719 -0.5514120367 0.0556034356 -0.013873503
380297720.0 0.0552648735 -0.0137597183 0.5633372286 -0.5569197157 0.5634065731 -0.5569810177 0.0551357665 -0.0144785492
385297690.0 0.0550299892 -0.0139104422 0.5572719135 -0.563060471 0.5569958445 -0.5636557021 0.0549289131 -0.015015968
390297660.0 0.0543582488 -0.014852916 0.5507673133 -0.569637373 0.5508884414 -0.5706525012 0.0550399451 -0.0159638544
395297630.0 0.0543816043 -0.0159158839 0.5447210592 -0.5756713958 0.5448802701 -0.5760761368 0.0542971846 -0.016247754
400297600.0 0.0536646503 -0.0160625117 0.5379179719 -0.5822268081 0.5386735366 -0.5826229817 0.0531302946 -0.0171321025
405297570.0 0.0538869866 -0.016510057 0.5319792102 -0.5880762838 0.5320095873 -0.5882959873 0.0535465077 -0.0172095934
410297540.0 0.0537609327 -0.0174846821 0.5248505364 -0.5937634733 0.5252566857 -0.5944328478 0.0532047171 -0.018219007
415297510.0 0.0532427881 -0.0172831507 0.5181846594 -0.5992691876 0.5191763168 -0.5997539088 0.0526446646 -0.0184770546
420297480.0 0.0528765375 -0.0190420446 0.5120045348 -0.6055944245 0.5124969819 -0.6060184646 0.0529360574 -0.0194182313
425297450.0 0.0531952578 -0.0196677533 0.5054570089 -0.6112222531 0.5059760997 -0.6109499971 0.0523370484 -0.0191231966
430297420.0 0.0522914475 -0.0199224299 0.4987499333 -0.6175351204 0.4991908362 -0.6173967894 0.0516248991 -0.020578425
435297390.0 0.0524816971 -0.0207880844 0.4920687815 -0.6219098173 0.4919304706 -0.6220066517 0.0512326796 -0.0203677752
440297360.0 0.0520846014 -0.021482876 0.4852518169 -0.6274555004 0.4845680054 -0.6279426681 0.0510746513 -0.021616402
445297330.0 0.0521112317 -0.0221808039 0.4779615967 -0.6335779069 0.4778624327 -0.6330978395 0.0508118178 -0.021917802
450297300.0 0.0517028854 -0.0225497018 0.4712548512 -0.6384521422 0.4714331425 -0.6391523224 0.050251496 -0.0223137587
455297270.0 0.0508948298 -0.02329564 0.4645522597 -0.643188342 0.4648687667 -0.6437501727 0.0502054925 -0.022662222
460297240.0 0.050307323 -0.0237746702 0.4567510527 -0.6483943079 0.456435271 -0.6490829068 0.0500324832 -0.0225478741
465297210.0 0.0505575949 -0.024705757 0.4500973368 -0.6537402825 0.4500472915 -0.6545241229 0.0487882771 -0.0238494256
470297180.0 0.0498292366 -0.0250768422 0.4430525043 -0.6582172253 0.4433402011 -0.6591483643 0.0483291097 -0.0245186465
475297150.0 0.0493169331 -0.0262803243 0.4348752128 -0.6637557864 0.4358068974 -0.6630359326 0.0483724878 -0.0247671902
480297120.0 0.049788014 -0.0270823152 0.4282488144 -0.6684589799 0.4283872138 -0.6682234166 0.0476416739 -0.0247071928
485297090.0 0.0491048428 -0.0272102523 0.421523294 -0.6729953487 0.4211309604 -0.6737434017 0.0470808134 -0.0258620163
490297060.0 0.048672794 -0.0281982874 0.4133708892 -0.6777559048 0.4135037584 -0.6780529056 0.0471537238 -0.0255690199
495297030.0 0.0478456324 -0.0281884174 0.4061045109 -0.6823693523 0.4058753943 -0.6824237608 0.046488394 -0.0264532683
500297000.0 0.0478641025 -0.0290203014 0.3986187577 -0.6865525777 0.3988093727 -0.68671783 0.0457419079 -0.0269430731
505296970.0 0.0470074431 -0.0296550037 0.3903781021 -0.6910392014 0.3904543239 -0.6911317661 0.0448658847 -0.0270118757
510296940.0 0.0466699106 -0.0301851536 0.3831916323 -0.6957443812 0.3834582626 -0.695783472 0.0452433592 -0.0269822129
515296910.0 0.0459995148 -0.0306007901 0.3752305895 -0.6990716042 0.3753831918 -0.6993918805 0.0440294595 -0.0279101685
520296880.0 0.045800928 -0.0313648039 0.3678664028 -0.7034284399 0.3680442538 -0.7033944323 0.04440839 -0.0281371725
525296850.0 0.0451208511 -0.0322842122 0.3602845875 -0.7075309865 0.3607754636 -0.7079631118 0.043961919 -0.028742549
530296820.0 0.0449858234 -0.0323578468 0.3527075424 -0.7107739743 0.3523233773 -0.712004297 0.0429708704 -0.0300537704
535296790.0 0.0442989802 -0.032983384 0.3446069222 -0.7149345413 0.3448563863 -0.7154430389 0.0424638322 -0.0302065203
540296760.0 0.0439627516 -0.03375433 0.3370693797 -0.7196621073 0.3362425451 -0.7195237986 0.0415432521 -0.0299156672
545296730.0 0.0433581932 -0.0334714538 0.3292099472 -0.7223965532 0.3286244274 -0.7235293668 0.0411013395 -0.0308714441
550296700.0 0.0426762509 -0.0344047585 0.3209310616 -0.7264653977 0.321159093 -0.7270561581 0.0407090362 -0.030631525
555296670.0 0.0425444853 -0.035361624 0.3139065543 -0.7300863589 0.3129892959 -0.7296621591 0.0398787146 -0.030803689
560296640.0 0.0415940152 -0.0356076443 0.3056909105 -0.7330500717 0.3054008017 -0.7330668317 0.039537214 -0.0314893115
565296610.0 0.0406906821 -0.0362035364 0.2967768171 -0.7365253737 0.2971963111 -0.7368320898 0.0389509968 -0.0322698875
570296580.0 0.0409675189 -0.0366679766 0.2892670335 -0.7397763427 0.2889584673 -0.7401721453 0.0387189725 -0.0317237743
575296550.0 0.0400419033 -0.0361036047 0.2808282077 -0.7425868291 0.281433782 -0.7430589373 0.0382350247 -0.0324706376
580296520.0 0.0393673338 -0.0372559173 0.2731674128 -0.7459226537 0.272509027 -0.7459903174 0.0372170572 -0.0333005437
585296490.0 0.0392454207 -0.0378661844 0.2651627031 -0.7488062928 0.2646606916 -0.7488267825 0.0366140813 -0.0336275439
590296460.0 0.0379988044 -0.0386879902 0.2564420187 -0.752133294 0.256197745 -0.7517451753 0.0365053152 -0.033458741
595296430.0 0.0375620347 -0.0385225229 0.2486530142 -0.7546301345 0.2480154132 -0.7551219707 0.0364878449 -0.0340638176
600296400.0 0.0371996196 -0.0388031187 0.2395767079 -0.7571993517 0.240520611 -0.7576386883 0.0353741409 -0.0342252549
605296370.0 0.0367001487 -0.0387533789 0.2321638951 -0.7598700984 0.2314358119 -0.7598266539 0.034861666 -0.0350623486
610296340.0 0.0359108437 -0.0395909758 0.2236179432 -0.762544268 0.2235570797 -0.7625383974 0.0341455683 -0.0341039636
615296310.0 0.0353349658 -0.0395118986 0.2150991845 -0.7644900742 0.2153501452 -0.7647414812 0.0339612788 -0.0349276915
620296280.0 0.0343829707 -0.0401633865 0.2069466699 -0.7668205314 0.2069661398 -0.7665319963 0.0333978697 -0.0357665559
625296250.0 0.0345225317 -0.0400979582 0.1980318547 -0.7692414514 0.1983483181 -0.7692662643 0.0329409576 -0.0354486537
630296220.0 0.0335868943 -0.0406335496 0.1895713188 -0.7715520609 0.1900220627 -0.7716213119 0.0315589631 -0.0357549868
635296190.0 0.0332396163 -0.0409348194 0.1814238657 -0.7726873883 0.1810286293 -0.7725954515 0.0312678552 -0.0365597052
640296160.0 0.0322187269 -0.0411589672 0.1732691384 -0.7751097811 0.1733495909 -0.7751665919 0.0312117423 -0.0363599657
645296130.0 0.0318520077 -0.0413323167 0.1644518636 -0.7771991679 0.1644405941 -0.7769868031 0.0292655632 -0.0374155292
650296100.0 0.0308826845 -0.0409852635 0.1564970462 -0.7780539621 0.1561679206 -0.7786170778 0.0292270376 -0.0372539753
655296070.0 0.0301523057 -0.0421194798 0.1476540053 -0.7802270423 0.1474970564 -0.7800717654 0.0294356079 -0.0370304078
660296040.0 0.0291429487 -0.0418089405 0.1388748666 -0.7812874461 0.1391870044 -0.7819746074 0.0284089981 -0.0380680029
665296010.0 0.0291035573 -0.0424487927 0.1306746554 -0.7836745293 0.1311291201 -0.7836643518 0.0276314597 -0.0375281501
670295980.0 0.0293225541 -0.0421425235 0.12227536 -0.7849108816 0.1224075589 -0.7849024165 0.0267664062 -0.0383802197
675295950.0 0.0284009907 -0.0425106147 0.1136440684 -0.785838209 0.1138539129 -0.7863057658 0.0266362984 -0.0379370758
680295920.0 0.0271324133 -0.0426400223 0.1049357945 -0.7872541657 0.1049306189 -0.7873949107 0.0262801795 -0.0387832398
685295890.0 0.0265556224 -0.0428064406 0.0966046331 -0.788087199 0.0961055202 -0.7883082779 0.0255377276 -0.0386732952
690295860.0 0.0263809092 -0.0432878584 0.088166744 -0.7884661049 0.0873910929 -0.7887471159 0.0253317394 -0.038238373
695295830.0 0.0263958752 -0.0436838321 0.0782389032 -0.7905787943 0.0789143052 -0.7904196613 0.0240510237 -0.0387942778
700295800.0 0.0256870708 -0.0434210855 0.0702305843 -0.7910092969 0.0703353871 -0.7912641737 0.0234068356 -0.0395668198
705295770.0 0.0245908384 -0.0436352224 0.0619657038 -0.7917194591 0.0618600823 -0.7916917639 0.0226181886 -0.0392981248
710295740.0 0.0238051224 -0.0432781258 0.0528886842 -0.7919743739 0.0533900467 -0.7916111178 0.0213485993 -0.0392271958
715295710.0 0.0234997771 -0.0438405771 0.0447999058 -0.7925894288 0.0450695259 -0.7928219029 0.0213879372 -0.0401720251
720295680.0 0.0226420774 -0.0440886225 0.0358140879 -0.7925691376 0.035841198 -0.7936072728 0.0214490129 -0.0396303745
725295650.0 0.0225248639 -0.0442617313 0.0270821629 -0.7931542464 0.0270615614 -0.7933069051 0.0208364953 -0.0394452
730295620.0 0.0211865826 -0.0444493353 0.0192153281 -0.7938855976 0.018686612 -0.7935036307 0.0205309171 -0.0408078609
735295590.0 0.0211675761 -0.0440310507 0.0105399195 -0.7935022622 0.0100456097 -0.7941231079 0.0196102445 -0.0399875765
740295560.0 0.0203087918 -0.0442056352 0.0013443612 -0.7932735356 0.0013515343 -0.794077807 0.0193900443 -0.0402516256
745295530.0 0.0198350295 -0.0447203047 -0.0070595688 -0.7944541056 -0.0070759169 -0.7941819187 0.0182023656 -0.0398919717
750295500.0 0.0192060451 -0.0447796646 -0.015436389 -0.7931813594 -0.0154395375 -0.7934608265 0.017904114 -0.0406622046
755295470.0 0.0189637164 -0.0444133904 -0.0241939922 -0.7936392537 -0.0244251743 -0.7936829302 0.0166988618 -0.040143906
760295440.0 0.0178790445 -0.0445617524 -0.032997116 -0.7930717871 -0.0335329148 -0.7934394232 0.0156104254 -0.0405454498
765295410.0 0.0169200838 -0.0448241391 -0.041118007 -0.7924707493 -0.0411924531 -0.792942564 0.0165155307 -0.0400610462
770295380.0 0.0167431834 -0.0447921068 -0.0503600327 -0.7918760095 -0.0503506586 -0.7924382238 0.0159681394 -0.0400816012
775295350.0 0.0160882358 -0.0447354656 -0.0589230167 -0.7914209254 -0.0585075597 -0.7911712514 0.0147243154 -0.0411347435
780295320.0 0.015757728 -0.0449227533 -0.0671397576 -0.790970104 -0.0670103907 -0.7906724975 0.0140853915 -0.0401434965
785295290.0 0.0146667282 -0.0443167871 -0.0756033661 -0.7888619797 -0.0761834431 -0.790357295 0.0132365796 -0.0404749567
790295260.0 0.0141093434 -0.0444241861 -0.0848150724 -0.7893016841 -0.0847030342 -0.7900130094 0.0132571571 -0.0407671882
795295230.0 0.0133954675 -0.0446751347 -0.0924763167 -0.7876713467 -0.0924535344 -0.7881984383 0.0123243549 -0.0397109936
800295200.0 0.0130500882 -0.0442593087 -0.102108371 -0.7870359991 -0.1022073939 -0.7874756763 0.0119373647 -0.0403428072
805295170.0 0.0118672948 -0.0446182189 -0.1098905823 -0.7850747 -0.1101388357 -0.7858341556 0.0107835959 -0.0407363271
810295140.0 0.0115196588 -0.0445458853 -0.1184503589 -0.7850609917 -0.1184940138 -0.7852158799 0.0106201201 -0.0398557082
815295110.0 0.0108720536 -0.0442339775 -0.1272010569 -0.7823729141 -0.1280037056 -0.7833192285 0.0096904123 -0.0404370667
820295080.0 0.0104636496 -0.0449309194 -0.1358898835 -0.781807284 -0.1358881809 -0.7822916324 0.008971061 -0.0399610726
825295050.0 0.009634236 -0.0446460648 -0.1442307226 -0.7801153985 -0.144448249 -0.780308156 0.0087782663 -0.0400669963
830295020.0 0.0091701486 -0.0440995991 -0.1529397034 -0.7787205507 -0.1533961596 -0.7790238267 0.0079561848 -0.0399151394
