!Created with skrf (http://scikit-rf.org).
# Hz S RI R 50.0 
!freq ReS11 ImS11 ReS21 ImS21 ReS12 ImS12 ReS22 ImS22
300000.0 -0.3155659572 -0.1273873188 0.3709139945 0.0627389774 0.3723912713 0.0634481409 -0.3192218304 -0.1279913807
5299970.0 -0.3248176884 0.0031127603 0.3784358102 0.00307538 0.3787998099 0.0033329266 -0.3257016844 0.0018673466
10299940.0 -0.322611119 0.0140601105 0.3801106433 0.0027287218 0.3797795357 0.0032294635 -0.3234723365 0.0126885422
15299910.0 -0.3190367064 0.0224737181 0.3820947073 0.0028209476 0.3824788771 0.0027577971 -0.3208407672 0.0199016354
20299880.0 -0.3154382058 0.0291736357 0.3848697578 0.0017302265 0.3854937796 0.0015994754 -0.3178394576 0.0260119006
25299850.0 -0.3114466954 0.0348753991 0.3884799557 0.000386537 0.3887394835 0.0002324227 -0.3150175748 0.0312325955
30299820.0 -0.3082997075 0.0394629876 0.3921428932 -0.002062767 0.3921077947 -0.002029908 -0.3120739584 0.03566402
35299790.0 -0.3045761114 0.0432451708 0.3950591285 -0.0048310738 0.3954249434 -0.005139436 -0.309385037 0.0399186801
40299760.0 -0.3012869431 0.0467969559 0.3984010318 -0.0084637868 0.3985845846 -0.0088224867 -0.3065968856 0.0432515678
45299730.0 -0.2981431924 0.0500532919 0.4012282771 -0.0124395537 0.4016684167 -0.0126229936 -0.3035078141 0.0466899473
50299700.0 -0.2947894201 0.0527735011 0.403705166 -0.0172757998 0.4039375038 -0.0173283736 -0.3012712435 0.0497845321
55299670.0 -0.2923637953 0.0554364456 0.4058845334 -0.0217253028 0.4059370805 -0.0219729263 -0.299471326 0.0523518622
60299640.0 -0.2896250926 0.0580661782 0.4078529717 -0.0268967799 0.4079494064 -0.0266787701 -0.2969568123 0.0548366482
65299610.0 -0.2874476525 0.0599108683 0.4098601914 -0.0314137906 0.4096738147 -0.0318175709 -0.2951942653 0.0575138649
70299580.0 -0.285240448 0.0622039531 0.4107834568 -0.0365429378 0.4109184682 -0.0367314897 -0.2938562681 0.0597489185
75299550.0 -0.2839090394 0.0643318144 0.4119075677 -0.0420108559 0.4121195127 -0.0420553823 -0.2921372981 0.0623382817
80299520.0 -0.2817048503 0.0665561762 0.412832283 -0.0471187156 0.4132258636 -0.0472883255 -0.2905855832 0.0647872597
85299490.0 -0.2797541094 0.0685679314 0.4132126118 -0.0526617808 0.4134552895 -0.0524743206 -0.2890559228 0.0670845308
90299460.0 -0.2783532965 0.0708531465 0.4135057603 -0.0579455988 0.4137570193 -0.0578310926 -0.2877248023 0.0695809766
95299430.0 -0.276777764 0.072650805 0.4137857704 -0.0630604111 0.4141806797 -0.0635627649 -0.2866362581 0.0719250273
100299400.0 -0.2752883945 0.074770874 0.4139883483 -0.068079192 0.4142325683 -0.0681752958 -0.2854998345 0.07452115
105299370.0 -0.2737160663 0.0768365283 0.413666448 -0.073330637 0.4143584907 -0.0732841966 -0.284158634 0.0764903803
110299340.0 -0.2727288361 0.0786280694 0.4137069837 -0.0778903687 0.4138258611 -0.0783345006 -0.2833908914 0.0785763216
115299310.0 -0.2718934533 0.0811140894 0.4131612634 -0.0835326025 0.4135360124 -0.0835027055 -0.28210012 0.0810855505
120299280.0 -0.2707675872 0.0832912958 0.4133536914 -0.0891042008 0.4129725159 -0.08913986 -0.2811182062 0.0831787316
125299250.0 -0.2693317238 0.0851234058 0.4127277522 -0.0935614121 0.4125028909 -0.0938379997 -0.2799959868 0.0861243036
130299220.0 -0.2685893411 0.0875384342 0.4120207294 -0.0990194303 0.4119112565 -0.0994285572 -0.2789928537 0.0882823784
135299190.0 -0.2673205149 0.0900417674 0.4116008246 -0.103721571 0.4116969169 -0.1040567336 -0.2784051436 0.0909536175
140299160.0 -0.2664692786 0.0922550733 0.4105893961 -0.1093897625 0.4105779577 -0.1087952272 -0.2778398071 0.0930481338
145299130.0 -0.2653006844 0.0947657349 0.4096673043 -0.1141751789 0.409420902 -0.1139431985 -0.276691117 0.0957328027
150299100.0 -0.2642706243 0.0968217631 0.4085519196 -0.1189133933 0.4083109686 -0.1189248966 -0.2757713375 0.0983640794
155299070.0 -0.263194299 0.0994869844 0.4070881022 -0.1236755575 0.4075436648 -0.1238833167 -0.2748125 0.1011924362
160299040.0 -0.262465305 0.1020780515 0.406131099 -0.1287396306 0.4063043645 -0.1288942808 -0.2738470244 0.1034437337
165299010.0 -0.2612435689 0.104280729 0.4051467075 -0.1331767284 0.4049272656 -0.1337489401 -0.2727334341 0.1060401986
170298980.0 -0.2601446141 0.1066765492 0.4034806934 -0.138110965 0.4035391108 -0.1385690182 -0.2721313615 0.1085887975
175298950.0 -0.2594428012 0.1092111376 0.4023025603 -0.1430592257 0.4026296089 -0.143213369 -0.2712451095 0.1115997051
180298920.0 -0.2582885622 0.1118991103 0.4007902249 -0.1481391619 0.4009011248 -0.1482322594 -0.2698518643 0.1141004345
185298890.0 -0.2570663341 0.1142486215 0.3995704275 -0.1526591163 0.3992462027 -0.1526783234 -0.2689854428 0.1165188604
190298860.0 -0.2558163961 0.1172730773 0.3970171201 -0.157447154 0.3978196502 -0.1572818764 -0.2680260542 0.11921882
195298830.0 -0.254791663 0.1196292818 0.3959796478 -0.16179544 0.3962290992 -0.1621535782 -0.2671425539 0.1220207978
200298800.0 -0.2536683319 0.122212862 0.3944741677 -0.166917975 0.3943426939 -0.1667641067 -0.2658381533 0.1243945785
205298770.0 -0.2528314548 0.1248231273 0.3921266258 -0.1707890688 0.3926728549 -0.171100495 -0.264451027 0.12716967
210298740.0 -0.2515476613 0.1274945893 0.3908191832 -0.1752141866 0.3905404007 -0.1758297612 -0.2636856439 0.1299303147
215298710.0 -0.2505425472 0.130262229 0.3885611751 -0.1798731765 0.388886493 -0.180339424 -0.2623284102 0.1327120842
220298680.0 -0.2491038277 0.1324805808 0.3863565415 -0.1844430191 0.3865716668 -0.1847190077 -0.2610810826 0.1353467193
225298650.0 -0.2478468706 0.1354739262 0.3846278061 -0.1890677256 0.3846865323 -0.1888041482 -0.2601547139 0.1379429428
230298620.0 -0.246605339 0.1381400067 0.3828450662 -0.1937017226 0.3828326531 -0.1935509091 -0.2590216435 0.14064471
235298590.0 -0.2457051317 0.1407936924 0.3807875679 -0.197955679 0.3810311494 -0.1979230078 -0.2574304327 0.1435142207
240298560.0 -0.2441438683 0.1432533527 0.3783178068 -0.2023171167 0.3784052105 -0.2022652413 -0.2563074288 0.1458220094
245298530.0 -0.2427797848 0.1458532013 0.3761291128 -0.2064261741 0.3763503743 -0.2065105753 -0.2550090875 0.1485319327
250298500.0 -0.2417334858 0.1482241049 0.3741041083 -0.2106494967 0.3739898881 -0.2104511822 -0.2538383772 0.1514752162
255298470.0 -0.2399102751 0.1514059232 0.3717918496 -0.214804435 0.372067482 -0.2152176637 -0.2519901375 0.1542319593
260298440.0 -0.2387042761 0.1535051458 0.3695201875 -0.218744662 0.3692734891 -0.2192988354 -0.2505808585 0.1567831437
265298410.0 -0.2374814039 0.1562835399 0.3669592901 -0.2236019188 0.3667607015 -0.2237662873 -0.2487218038 0.1592135953
270298380.0 -0.2358596256 0.1589415886 0.3640994417 -0.2274687652 0.3643904382 -0.2276526953 -0.2471713631 0.1622678451
275298350.0 -0.234483084 0.1616484416 0.3614150617 -0.2312251365 0.3615160569 -0.2314688296 -0.2456068251 0.1649213418
280298320.0 -0.2331662527 0.1639100575 0.3590062053 -0.2352190377 0.3599147216 -0.2359180504 -0.2444404296 0.1675977347
285298290.0 -0.231569087 0.1667372369 0.3565883849 -0.2395334429 0.3571279571 -0.2391977379 -0.2428739448 0.1700930034
290298260.0 -0.2298593082 0.1693603254 0.3541546792 -0.2437515551 0.3544066893 -0.2437207923 -0.2412860334 0.1727821245
295298230.0 -0.2282688578 0.17164007 0.3513976002 -0.2480920863 0.3518255222 -0.2480953374 -0.2394399909 0.1754417788
300298200.0 -0.2266774008 0.174259408 0.3487219949 -0.2517905559 0.3491836032 -0.2516614508 -0.2376799742 0.177774746
305298170.0 -0.2251866947 0.1765881208 0.3463635399 -0.2557822246 0.3467186515 -0.2558093827 -0.2358446962 0.1805734027
310298140.0 -0.2233729745 0.1788293306 0.3435756873 -0.2593750557 0.3437387962 -0.2594110308 -0.2340755578 0.1827662597
315298110.0 -0.2218879806 0.1814286917 0.3407443427 -0.2640324889 0.3406028588 -0.2637783946 -0.232001449 0.1855172573
320298080.0 -0.2198542059 0.1837475896 0.3368635787 -0.2674102167 0.3378354525 -0.2675103817 -0.2305683904 0.1881325624
325298050.0 -0.2184252604 0.1857137335 0.3343619725 -0.2710209642 0.3349602514 -0.2715100442 -0.2284566438 0.1902563956
330298020.0 -0.2171027403 0.1886769307 0.3312401045 -0.2751719564 0.331901202 -0.2750998975 -0.2271011045 0.1928779307
335297990.0 -0.2154373743 0.1908048507 0.3282174921 -0.2785208888 0.3286932807 -0.2786031703 -0.224879251 0.1954094772
340297960.0 -0.2137590611 0.193415278 0.324789767 -0.2826923491 0.3249798211 -0.2821346417 -0.2231518392 0.1980845143
345297930.0 -0.2120191419 0.1957670618 0.3221580084 -0.286121283 0.3221011567 -0.2858670682 -0.2211443522 0.2001682982
350297900.0 -0.2100460922 0.1977870141 0.3188067846 -0.2889417459 0.3190576836 -0.289281868 -0.2195086371 0.2025981275
355297870.0 -0.2084888132 0.2001258522 0.3156651423 -0.2926885923 0.3155670535 -0.2926504034 -0.2172914019 0.2053927505
360297840.0 -0.2060582534 0.2028365292 0.3118707355 -0.2963519944 0.3123005839 -0.2965246734 -0.2150150793 0.2078339159
365297810.0 -0.2045118913 0.204974479 0.3092136894 -0.2994679268 0.3092170717 -0.2995689748 -0.2134638036 0.2102702092
370297780.0 -0.2022767754 0.207168185 0.3049339732 -0.3030514928 0.3057894723 -0.302970219 -0.2111328127 0.2124330868
375297750.0 -0.2005600322 0.2095998909 0.3021991665 -0.3065270528 0.3025599222 -0.3064157374 -0.2091817228 0.2150251675
380297720.0 -0.1986519995 0.2119459049 0.2990714543 -0.3098840461 0.2988542651 -0.3097570488 -0.2066375483 0.2175874472
385297690.0 -0.1965534097 0.2139987921 0.2955940592 -0.3131476742 0.295736323 -0.3134885831 -0.2045212868 0.2199664148
390297660.0 -0.1942637901 0.2161180166 0.2922550066 -0.3156874988 0.2920742351 -0.3162482171 -0.2020787437 0.2219559163
395297630.0 -0.1921631615 0.2186119746 0.2884875319 -0.319414973 0.2885446193 -0.3191255756 -0.1999853923 0.2239552906
400297600.0 -0.1900680522 0.2207657346 0.2847948805 -0.3226569783 0.2849316165 -0.3225952103 -0.1976479308 0.2269544818
405297570.0 -0.1880640607 0.2224285837 0.281523559 -0.3255650243 0.2816042477 -0.3256467055 -0.194974989 0.2290655981
410297540.0 -0.1854438654 0.2249046056 0.2780730247 -0.3290435531 0.2778748406 -0.3285796719 -0.1928240918 0.2314327546
415297510.0 -0.1837238523 0.227134086 0.2742215378 -0.3318804806 0.274383764 -0.3320482217 -0.1902687206 0.2336046837
420297480.0 -0.1811151446 0.228630672 0.270341634 -0.3346807903 0.2707711008 -0.3349135584 -0.187893816 0.2358588815
425297450.0 -0.178541779 0.2304911826 0.2669813139 -0.3371460083 0.2667957394 -0.3375429076 -0.1851737814 0.2374782063
430297420.0 -0.1764710732 0.2326462268 0.2633321511 -0.3405675229 0.2633560139 -0.3404381777 -0.1829888697 0.239853565
435297390.0 -0.1741192957 0.2349075555 0.2592243406 -0.3437308015 0.2595298519 -0.3436202488 -0.1812116544 0.2423745988
440297360.0 -0.1716460149 0.2363434326 0.2552269668 -0.3460028021 0.2552170282 -0.3462684753 -0.1783655335 0.244091205
445297330.0 -0.1690198061 0.2382662942 0.2517450291 -0.348732981 0.2517205326 -0.3492851032 -0.1755005962 0.2464820301
450297300.0 -0.1664354637 0.2404089855 0.2477918601 -0.35158676 0.2479420679 -0.351496735 -0.1723305535 0.2482089949
455297270.0 -0.164328674 0.2422611409 0.2438798005 -0.354416126 0.2443470353 -0.3543687939 -0.1702380142 0.2500686626
460297240.0 -0.1612396901 0.243952629 0.2400152208 -0.3575748371 0.2404747254 -0.3575190258 -0.1679270052 0.2521618882
465297210.0 -0.159095703 0.2457724347 0.2359774943 -0.359665288 0.2358184311 -0.3599876439 -0.1646286354 0.2545217731
470297180.0 -0.1566740726 0.2474612138 0.2321679066 -0.3616739328 0.2323136103 -0.3622164359 -0.1620718805 0.2559962711
475297150.0 -0.1538651644 0.2493605132 0.2279707802 -0.3645641237 0.2282885936 -0.3647616513 -0.1595410216 0.2579103049
480297120.0 -0.150942191 0.2514270925 0.223973306 -0.3672830116 0.2240396769 -0.3671529713 -0.1570421762 0.2597701031
485297090.0 -0.1484335457 0.2528960634 0.2198683017 -0.3694109507 0.2198520835 -0.3697069247 -0.1542901504 0.261661068
490297060.0 -0.1454431828 0.2547176198 0.2159349972 -0.3722204885 0.2161365323 -0.3721195736 -0.151509018 0.2628082908
495297030.0 -0.1429716324 0.2560134953 0.2123114262 -0.3743720438 0.2118628303 -0.3738910799 -0.1484014347 0.2647614537
500297000.0 -0.1405156222 0.2578812029 0.2079590688 -0.3765270691 0.207776699 -0.3768265604 -0.1460267423 0.2667578251
505296970.0 -0.1370957172 0.2595048278 0.203741749 -0.3790461469 0.2037604795 -0.3785831307 -0.142818348 0.2681880167
510296940.0 -0.134536478 0.261179355 0.1997356983 -0.3813866906 0.1998646987 -0.3812393502 -0.1397366211 0.2702585613
515296910.0 -0.1318752023 0.2626286319 0.1951270337 -0.3829055992 0.1948615571 -0.3828390223 -0.1371779038 0.2714239992
520296880.0 -0.1286775635 0.2643953085 0.1905970238 -0.3851249693 0.1906546352 -0.3850798607 -0.1340429058 0.2735565971
525296850.0 -0.1261393246 0.2657258095 0.1866633133 -0.3869454015 0.1866501345 -0.3871493286 -0.1314225905 0.2750000062
530296820.0 -0.1235083584 0.2670424656 0.1825143437 -0.3888691419 0.18246858 -0.3891218205 -0.1284850444 0.2761654449
535296790.0 -0.1198428016 0.2685817959 0.1780203048 -0.391082441 0.1782566397 -0.3914092598 -0.1255600937 0.2778611835
540296760.0 -0.117227574 0.269880243 0.1738454416 -0.3928954223 0.1733551457 -0.3928094812 -0.122481334 0.2788935929
545296730.0 -0.1144891888 0.2716192058 0.1692838279 -0.394383819 0.1692781883 -0.3944932103 -0.1193014062 0.2805277785
550296700.0 -0.1109747671 0.2730710582 0.1648072713 -0.3965789472 0.1650484401 -0.3968210549 -0.1164347626 0.2819127523
555296670.0 -0.1082678599 0.2742679248 0.1606015746 -0.3984335319 0.1608582025 -0.3983106617 -0.1137154877 0.2829718193
560296640.0 -0.1053506586 0.2753972609 0.1560389151 -0.4000126489 0.156465024 -0.3999488301 -0.110652844 0.2847718131
565296610.0 -0.1024978255 0.2768900333 0.1521664171 -0.4019353622 0.1519976496 -0.4012812324 -0.1072413632 0.2860692766
570296580.0 -0.0995754345 0.2782462807 0.1475860294 -0.4032194709 0.1476540855 -0.4029767556 -0.1047286451 0.2872090423
575296550.0 -0.0961611911 0.2791283257 0.1434368983 -0.4044612076 0.1433148926 -0.4047026733 -0.1012207928 0.2886143623
580296520.0 -0.0933224233 0.2809847934 0.1386528243 -0.4063991372 0.1387678405 -0.4065241514 -0.0985841192 0.2897033985
585296490.0 -0.0901316718 0.2818784547 0.1347351223 -0.4074448127 0.1339441035 -0.4076835466 -0.0951950559 0.2906412373
590296460.0 -0.0865793012 0.2830346917 0.1298417237 -0.4089217794 0.129965471 -0.4092366097 -0.0924771047 0.2920025552
595296430.0 -0.0839717423 0.2841902584 0.12489084 -0.4103719939 0.1248918582 -0.4105338383 -0.0893193194 0.2931042852
600296400.0 -0.0807986174 0.2854295672 0.1208217838 -0.4117052897 0.1206805061 -0.411753559 -0.0861223357 0.2937496354
605296370.0 -0.0780185763 0.2860409242 0.1168317277 -0.4125296233 0.1160809034 -0.4132401733 -0.0827007419 0.2952969724
610296340.0 -0.0745226349 0.2877919544 0.1119346865 -0.4139240803 0.1118374546 -0.414109219 -0.0800191261 0.2962865229
615296310.0 -0.0711701555 0.2883868348 0.1072399631 -0.4154399749 0.1070435311 -0.4153259996 -0.0764459371 0.2971896336
620296280.0 -0.0683895276 0.2897471619 0.102727166 -0.416437317 0.1026844379 -0.4163015655 -0.0735687375 0.2981170362
625296250.0 -0.0654228319 0.2901122708 0.0980036148 -0.4174531779 0.0980867685 -0.4176819529 -0.0706832245 0.2990557527
630296220.0 -0.0623844479 0.2915176869 0.0935899185 -0.4186325892 0.0934557335 -0.4183772326 -0.0672255817 0.300068341
635296190.0 -0.0592466777 0.2927336345 0.0892146978 -0.4192402496 0.0889729855 -0.4194332347 -0.0641650498 0.3006454328
640296160.0 -0.0558905537 0.2931676101 0.0844102983 -0.4205396343 0.084371681 -0.420526449 -0.0611130236 0.3015248544
645296130.0 -0.0525939339 0.2943367454 0.0801906063 -0.4212902538 0.0799246254 -0.4210938002 -0.0582564536 0.3022496075
650296100.0 -0.0496369964 0.2948797426 0.0754685613 -0.4222563626 0.0748947781 -0.4221006949 -0.0543691751 0.3030473359
655296070.0 -0.0469717518 0.295726745 0.071095036 -0.4230061537 0.0706109536 -0.4224092221 -0.0513358008 0.3038474144
660296040.0 -0.0436315257 0.2966204997 0.0661293737 -0.4235470092 0.0661110608 -0.4236291597 -0.0484521942 0.3043937898
665296010.0 -0.040258323 0.2972979448 0.0613174472 -0.4236148606 0.0612861035 -0.4239354383 -0.0451206168 0.3050709168
670295980.0 -0.0372922623 0.2980078981 0.0567985674 -0.4246442093 0.0569802106 -0.4241569311 -0.0421598104 0.305401122
675295950.0 -0.0340134109 0.2986478988 0.052289756 -0.4250760194 0.052395372 -0.4251865245 -0.0385971497 0.3063857281
680295920.0 -0.0313499966 0.2994504286 0.04760901 -0.4256658963 0.047470782 -0.4254101261 -0.0352259952 0.3067089965
685295890.0 -0.0278012261 0.3004319717 0.043077409 -0.4263368307 0.0428799607 -0.4263824485 -0.0323946084 0.3073176504
690295860.0 -0.0249970764 0.3005061191 0.0388952331 -0.4264384912 0.0381065027 -0.4266629981 -0.0290568014 0.3078480376
695295830.0 -0.0215871958 0.3009926727 0.0342193474 -0.4270323998 0.0337050731 -0.4266536262 -0.025763383 0.3081397589
700295800.0 -0.0184009924 0.3016030021 0.029709803 -0.4271676734 0.0292727191 -0.4271123952 -0.0223825445 0.3082880431
705295770.0 -0.0155413631 0.3018560053 0.0245537358 -0.42766617 0.0245417406 -0.4276062719 -0.0195736017 0.3093184716
710295740.0 -0.0125898818 0.3024358397 0.0205270027 -0.4277937184 0.019634912 -0.4278742473 -0.0160573759 0.3094157723
715295710.0 -0.009397148 0.3030776737 0.0156104958 -0.4280449539 0.0152908356 -0.4279238961 -0.012540896 0.3096043506
720295680.0 -0.0055278054 0.3029919324 0.0104372413 -0.4278353918 0.0105839311 -0.4281313202 -0.0095381332 0.3098851497
725295650.0 -0.0032647163 0.3038951792 0.0064516227 -0.4279680406 0.0062885342 -0.4281203561 -0.0065303369 0.3104082592
730295620.0 -0.000619912 0.3037895736 0.0018203631 -0.4277857375 0.0015296633 -0.4278053151 -0.0034398024 0.3107370777
735295590.0 0.0029883157 0.3042100761 -0.0028742837 -0.4277661225 -0.003195758 -0.4279526061 0.0003669563 0.3105013279
740295560.0 0.0059888687 0.3042906565 -0.0074744658 -0.4280158093 -0.0073301771 -0.4280580226 0.003140768 0.3109583169
745295530.0 0.008967417 0.3046453033 -0.0117497412 -0.4273469643 -0.0116119393 -0.4276568004 0.0063820242 0.3108294025
750295500.0 0.0117953456 0.3045536985 -0.0161059251 -0.4274200924 -0.0168464382 -0.4277035592 0.0095854992 0.3109585618
755295470.0 0.0152857707 0.3050690735 -0.0211507909 -0.427516865 -0.0213366593 -0.427665015 0.0127269502 0.3114218014
760295440.0 0.0184722359 0.3051807801 -0.0264462926 -0.4269859294 -0.0259630029 -0.4268353825 0.0163331246 0.310780099
765295410.0 0.0215207014 0.3049889623 -0.0304684326 -0.4266576182 -0.0306652243 -0.4264705267 0.0197176226 0.3106617531
770295380.0 0.0242206099 0.3053479661 -0.0347024646 -0.4259335016 -0.0349986524 -0.4266424404 0.0224474457 0.3110526239
775295350.0 0.0274732084 0.3051569867 -0.0396233874 -0.4261267951 -0.039802064 -0.4255464994 0.0262305876 0.3109094942
780295320.0 0.0309420016 0.3050905286 -0.0440644405 -0.425445885 -0.0442100798 -0.425617574 0.0294392559 0.3109415002
785295290.0 0.0336553873 0.3046462154 -0.0488424471 -0.4244767514 -0.0487629015 -0.424961451 0.0325226924 0.3108286814
790295260.0 0.0366337943 0.3041749096 -0.0533959213 -0.4240066707 -0.0532621706 -0.4243830231 0.0356077221 0.3106235448
795295230.0 0.039778669 0.3042185408 -0.0576347022 -0.4237932483 -0.057990607 -0.4236162617 0.039038779 0.309830625
800295200.0 0.0427499201 0.3045817993 -0.0617025792 -0.4228816021 -0.0625956966 -0.423238101 0.0420374261 0.3098821152
805295170.0 0.0456265858 0.304219648 -0.0666454065 -0.4222880136 -0.0667640609 -0.4226724131 0.045848321 0.3095220181
810295140.0 0.0491597465 0.3043963754 -0.0716174574 -0.4214989504 -0.0714897382 -0.42146433 0.0491257137 0.3091330243
815295110.0 0.0515590431 0.3035488741 -0.0758072072 -0.4208021941 -0.0757460769 -0.4211198957 0.0517864002 0.3087656082
820295080.0 0.0548380158 0.3030721437 -0.0802435513 -0.419774049 -0.080384676 -0.420137464 0.0544783381 0.3086053418
825295050.0 0.0578359442 0.3027393923 -0.0850028227 -0.4192774919 -0.0850935045 -0.4191492092 0.0587245692 0.3081848857
830295020.0 0.0609855588 0.3020919212 -0.0894694324 -0.4178601913 -0.0896222177 -0.4180764022 0.0616186628 0.3072962179
