!Created with skrf (http://scikit-rf.org).
# Hz S RI R 50.0 
!freq ReS11 ImS11 ReS21 ImS21 ReS12 ImS12 ReS22 ImS22
300000.0 0.858936239 -0.0023102723 -0.0003173657 -0.0004567586 0.0001119862 0.0004014347 -0.7720399126 -0.1418803965
5299970.0 0.8588370401 -0.0098057856 0.0001218194 -0.0001172637 0.0001315703 -0.0001028378 -0.7848411937 -0.0073528373
10299940.0 0.85732482 -0.0186032437 -1.03197e-05 -0.0001919217 -5.56916e-05 -0.0001559283 -0.7880146143 -0.0038304261
15299910.0 0.8564666904 -0.0266835388 -7.22974e-05 -0.0001522927 -1.57479e-05 0.0001802104 -0.7928778658 -0.0015165069
20299880.0 0.8564847777 -0.0353704919 0.0001010098 9.80566e-05 2.07765e-05 -0.0001514617 -0.7998030337 0.0023966991
25299850.0 0.8558459641 -0.0434734606 0.0002589751 -0.0002267816 -7.55779e-05 0.0001748593 -0.8063029745 0.0083167415
30299820.0 0.8550047011 -0.0517579943 0.0001297717 -0.000187835 9.51679e-05 2.0141e-05 -0.8122383852 0.0162361525
35299790.0 0.8539876803 -0.060097572 3.02959e-05 -6.50677e-05 1.6674e-05 1.46565e-05 -0.8172818139 0.0250174158
40299760.0 0.8530599898 -0.0689760081 4.37556e-05 5.77744e-05 -0.0001011936 8.56157e-05 -0.8208667437 0.0344647352
45299730.0 0.8530452007 -0.0767200115 -8.60843e-05 -0.0001113678 -0.0001840732 9.63296e-05 -0.8248522589 0.0442834864
50299700.0 0.8522513912 -0.0850971443 0.0001989236 -0.0001801745 -7.40598e-05 0.0001180932 -0.827022132 0.0542181955
55299670.0 0.8512590206 -0.093417992 -3.52431e-05 1.69278e-05 -2.0495e-06 -0.0001125894 -0.8293614439 0.0644462455
60299640.0 0.849538623 -0.1008840986 1.90764e-05 -1.82849e-05 5.94719e-05 9.33828e-05 -0.8302605462 0.0742761248
65299610.0 0.8483298408 -0.109882188 2.18006e-05 -3.4733e-05 -0.0002102552 -7.34273e-05 -0.8317767718 0.0838756853
70299580.0 0.8473598152 -0.118762362 4.2565e-05 6.10184e-05 -4.76356e-05 -6.09357e-05 -0.8320250768 0.0943249592
75299550.0 0.845945959 -0.1266001206 2.48536e-05 -0.0001022382 0.0001544169 0.0003706165 -0.8323329348 0.1043906873
80299520.0 0.8449097086 -0.1346531079 8.4312e-06 6.91105e-05 -0.0001396775 3.04838e-05 -0.8318987847 0.1138889662
85299490.0 0.8436289924 -0.1428252773 -8.96279e-05 0.0001184983 -0.0001917191 2.6106e-05 -0.8318941446 0.1238193519
90299460.0 0.8416399385 -0.151008243 -0.0001080015 -0.0001144338 -0.0002771925 -0.0001928892 -0.8303306828 0.1333746057
95299430.0 0.8403743624 -0.1595399864 0.0001642906 -7.221e-06 -5.96802e-05 3.79446e-05 -0.8291667562 0.1428376035
100299400.0 0.8387754451 -0.1672639568 -0.0001308458 -5.13475e-05 -0.0001547225 0.0001616884 -0.8283789789 0.1525171942
105299370.0 0.8373991264 -0.1756059941 2.85327e-05 9.1723e-06 -9.89767e-05 1.30326e-05 -0.8270956239 0.1610152301
110299340.0 0.8351445964 -0.1838392572 -0.0001676598 1.69054e-05 0.0001198156 -2.9577e-06 -0.8255463314 0.1704411533
115299310.0 0.8334941394 -0.1918103788 -0.0001645397 -4.63071e-05 -0.0001745988 0.0001058091 -0.8243056251 0.1796718077
120299280.0 0.8315288695 -0.2002289111 4.0469e-05 -8.59873e-05 -0.0001851625 8.88504e-05 -0.8221674683 0.1888720794
125299250.0 0.8295397875 -0.2085581119 -3.5715e-06 8.7156e-05 -0.0001169896 3.20799e-05 -0.8207768439 0.1978325612
130299220.0 0.8275943387 -0.2163411517 6.95249e-05 -0.0001715054 -0.0001384993 -0.0001181854 -0.8192378244 0.2070415736
135299190.0 0.8256021521 -0.2243911257 0.0002191325 -6.05018e-05 0.0001659975 0.0001169418 -0.8167850265 0.2156721759
140299160.0 0.8231813106 -0.2324146936 0.000235073 -0.0002148871 -0.0003322416 -0.0001677646 -0.8143297966 0.2250005751
145299130.0 0.8209744988 -0.2408617003 -7.75402e-05 -2.7123e-05 6.19448e-05 -2.52493e-05 -0.8122105133 0.2335368119
150299100.0 0.8181818119 -0.2485958392 -5.69571e-05 0.0001783712 -0.0001266239 4.94879e-05 -0.8104167604 0.2425793111
155299070.0 0.8152092594 -0.2565144065 6.69475e-05 0.0001348099 9.37892e-05 4.28249e-05 -0.8074838097 0.2518662883
160299040.0 0.8127894027 -0.2645704646 -0.0003164039 -7.71083e-05 -3.78494e-05 -9.73728e-05 -0.8049601876 0.2607121748
165299010.0 0.8106300797 -0.2721693266 -0.0001266683 0.0004142665 8.14242e-05 7.9046e-05 -0.8025628458 0.269388912
170298980.0 0.8077258794 -0.2800483633 2.6436e-06 -0.0003368553 -0.0001596257 -0.0001341175 -0.7991752603 0.2777313246
175298950.0 0.8046887174 -0.2881395892 4.01987e-05 5.04764e-05 0.0002185103 -6.19618e-05 -0.7966069704 0.2869849878
180298920.0 0.8027810877 -0.2962418509 -0.0001322396 -0.0001621792 0.0001266953 2.06614e-05 -0.793407801 0.2951928572
185298890.0 0.7990242229 -0.3036374151 0.000151526 -0.0001562318 -1.67142e-05 -0.0002023751 -0.7900461856 0.3040688616
190298860.0 0.7955725582 -0.311333181 -6.09141e-05 -1.24191e-05 -9.41229e-05 5.25963e-05 -0.7876987783 0.3121996375
195298830.0 0.7931554861 -0.3189878307 5.55175e-05 -3.44632e-05 6.01316e-05 0.0001433916 -0.7848745532 0.3205001394
200298800.0 0.7895162289 -0.3262858722 3.51217e-05 -1.15613e-05 3.87366e-05 4.49604e-05 -0.781868805 0.3289023097
205298770.0 0.7867314995 -0.3343372116 -0.0002060543 0.0001892508 -1.55664e-05 2.20037e-05 -0.7773865426 0.3371911618
210298740.0 0.7829493729 -0.3418328062 5.41909e-05 -4.55978e-05 -0.0001868753 8.44359e-05 -0.7746821656 0.3457711314
215298710.0 0.7794502275 -0.3499039096 -0.0001859326 -3.88989e-05 0.0001111524 -6.24541e-05 -0.771270325 0.3541047627
220298680.0 0.7759948976 -0.3573403922 4.49803e-05 5.354e-06 0.0002777978 -6.02017e-05 -0.767514141 0.3617124946
225298650.0 0.7723759302 -0.3658606191 4.5572e-06 -6.82043e-05 3.60888e-05 0.0001216975 -0.7638622364 0.3697252156
230298620.0 0.7689365108 -0.3723351154 -5.44073e-05 -0.0001085903 0.0001064448 -6.22632e-05 -0.759759986 0.3784988687
235298590.0 0.764621373 -0.3796740249 6.53406e-05 -3.03571e-05 5.43867e-05 -8.75967e-05 -0.7560460539 0.3866921264
240298560.0 0.7614898865 -0.387317127 0.0001283537 0.0001188724 -5.77133e-05 -9.39307e-05 -0.7516438129 0.3946346211
245298530.0 0.7574987671 -0.3944714083 -0.0001626286 0.0001373247 0.0001420596 0.0001002127 -0.7479794699 0.402492322
250298500.0 0.7536190075 -0.4019404915 -0.0001213033 -0.0001353081 0.0001125017 -1.97171e-05 -0.7436653618 0.4101106641
255298470.0 0.7490262535 -0.4093234015 -2.02322e-05 -9.13212e-05 6.4802e-05 0.000178693 -0.7389540239 0.4174230988
260298440.0 0.7455015955 -0.4165968651 4.4444e-06 0.0001645454 9.61538e-05 1.66234e-05 -0.7348910415 0.4262558095
265298410.0 0.741465938 -0.424556034 -0.0001798292 0.0002542941 -1.0408e-06 2.91241e-05 -0.7303136462 0.433891429
270298380.0 0.7366117128 -0.4313251928 -7.19028e-05 -5.82651e-05 -0.0002103483 -4.2694e-06 -0.7254769508 0.4410941452
275298350.0 0.7329258992 -0.4385924584 -9.68783e-05 0.0002760663 -0.0001476823 0.0001322659 -0.7208896703 0.4487725832
280298320.0 0.7287675481 -0.445567407 -1.04601e-05 -3.94637e-05 5.15578e-05 2.41476e-05 -0.7159472281 0.4557541268
285298290.0 0.7246985509 -0.4526490343 9.97353e-05 6.24103e-05 5.6537e-05 -0.0001418572 -0.7107820486 0.4637909676
290298260.0 0.7204044373 -0.4591497387 -5.8705e-05 -0.0002372073 -5.04909e-05 3.01719e-05 -0.7060895193 0.4711150688
295298230.0 0.7159943542 -0.4666337835 0.0001921971 5.92399e-05 -5.0386e-05 -5.0442e-06 -0.7010571591 0.4783221144
300298200.0 0.7118122262 -0.4742491672 3.10089e-05 0.0001178699 -0.0001648058 1.65676e-05 -0.6962425972 0.4854901674
305298170.0 0.7074400566 -0.4810939196 0.0003482867 0.0002726524 0.0001088009 -0.0001147124 -0.6904090321 0.4930136706
310298140.0 0.7027376836 -0.4886330609 5.118e-07 -0.0001847212 -0.0001016617 0.0002234442 -0.6857838499 0.4997973558
315298110.0 0.6980225663 -0.4957254414 4.61918e-05 -9.16636e-05 6.33913e-05 4.08721e-05 -0.6804563181 0.5065974942
320298080.0 0.6933190612 -0.5040624948 -0.0002287371 -0.0001442124 2.81825e-05 8.6064e-06 -0.6744381952 0.5141606079
325298050.0 0.688046256 -0.510150859 -0.0001223162 3.18357e-05 -5.10569e-05 -6.33306e-05 -0.6691755796 0.5208977171
330298020.0 0.682351332 -0.518143349 -9.75272e-05 4.5628e-05 -6.69691e-05 2.119e-05 -0.6639245369 0.528282407
335297990.0 0.6763021517 -0.5250407669 2.12901e-05 0.0002922179 0.0001514918 -8.58924e-05 -0.6588300225 0.5356286849
340297960.0 0.6703203289 -0.5313763695 0.000100456 7.06401e-05 0.000130662 7.36461e-05 -0.6531072094 0.5422442347
345297930.0 0.664310625 -0.5374158721 -0.0001355948 -0.0001184188 -0.0001630018 0.0001621129 -0.6467221766 0.5484267129
350297900.0 0.6588123722 -0.5438468713 1.49813e-05 0.000230186 8.9257e-05 -8.66414e-05 -0.6413166762 0.5556687109
355297870.0 0.6529457153 -0.5499623472 -5.8927e-06 0.000224309 4.61015e-05 -4.70444e-05 -0.6362326676 0.5617601712
360297840.0 0.6476989289 -0.556100994 5.06403e-05 -8.07949e-05 6.06004e-05 -0.0002462351 -0.6301993321 0.5690728437
365297810.0 0.6414776399 -0.5620007403 6.73265e-05 -9.895e-07 -3.29649e-05 5.26703e-05 -0.6230221148 0.5751236852
370297780.0 0.6360762063 -0.5685128281 0.0001173768 -8.22643e-05 -0.0001939009 5.4975e-05 -0.6180218436 0.5813947074
375297750.0 0.6299437214 -0.5744966984 0.0002211834 -0.0001105097 -4.47313e-05 -2.3058e-05 -0.6120556904 0.5878084088
380297720.0 0.6245967063 -0.5806356393 7.58369e-05 -8.56095e-05 0.0002179113 0.0002069104 -0.6059585897 0.5942706055
385297690.0 0.6187004979 -0.5864217637 -8.7028e-06 4.33887e-05 -7.86636e-05 7.4861e-06 -0.5995359594 0.6004632385
390297660.0 0.6126678125 -0.591859386 -4.2287e-06 -3.60592e-05 0.0001120083 5.37293e-05 -0.5931949437 0.6066676722
395297630.0 0.6069562025 -0.5979974819 -0.0001788676 2.77653e-05 2.87871e-05 9.35664e-05 -0.5863538724 0.6137122995
400297600.0 0.6012465477 -0.6039000732 -0.0001762139 0.0001719897 -6.62544e-05 -0.0002183437 -0.5809063197 0.6185828592
405297570.0 0.5950323131 -0.6092983339 2.07014e-05 2.6082e-06 7.67825e-05 -2.31702e-05 -0.574594644 0.6244923927
410297540.0 0.5886547607 -0.6157442721 -2.92088e-05 -1.63165e-05 2.24917e-05 -4.991e-06 -0.5678856763 0.6306256769
415297510.0 0.5828068153 -0.6212873217 -9.12037e-05 7.55443e-05 8.11344e-05 -0.0001353031 -0.5615829256 0.6358538807
420297480.0 0.576486069 -0.6260789597 -0.0001964205 7.889e-07 0.0001041614 0.0002320816 -0.5546498325 0.6420028009
425297450.0 0.5697889815 -0.6324643541 -9.81961e-05 0.0001116373 -6.93773e-05 5.43467e-05 -0.5479341434 0.6476759026
430297420.0 0.5638871915 -0.6374429273 -3.41341e-05 -7.98212e-05 1.73257e-05 -3.06631e-05 -0.5413365782 0.6526908035
435297390.0 0.5576538556 -0.6427493083 2.94375e-05 2.5931e-05 -0.0002154517 -0.0001233185 -0.5339539857 0.6584210154
440297360.0 0.5512124767 -0.6490020227 0.0001307538 -7.75413e-05 5.3289e-06 -8.21199e-05 -0.5273885361 0.6638836676
445297330.0 0.5443068209 -0.6538370914 0.0001937766 0.0001370439 0.0001674851 8.41088e-05 -0.5205737783 0.6685147747
450297300.0 0.5389938591 -0.6588835159 -0.000117696 0.0001055648 7.71795e-05 2.15282e-05 -0.513421611 0.6741270455
455297270.0 0.5317596253 -0.6643694215 2.61388e-05 -0.0001015838 -2.39528e-05 3.72724e-05 -0.5063598763 0.6786652181
460297240.0 0.5251249813 -0.6696135439 -7.68588e-05 4.19147e-05 -4.58947e-05 1.74886e-05 -0.4996660304 0.6839633643
465297210.0 0.5180947003 -0.6744171228 -0.000216014 -1.68414e-05 -8.55702e-05 1.72674e-05 -0.4922903646 0.6888201287
470297180.0 0.511466119 -0.6792049802 -0.0001225493 0.000296766 -0.0001034178 -1.27346e-05 -0.4846388022 0.6942531595
475297150.0 0.5053766784 -0.6846661416 0.0001795697 0.0001047981 -3.5387e-06 7.50515e-05 -0.477707998 0.6984228601
480297120.0 0.4976655315 -0.6891574488 0.0002218202 -0.000136619 -0.0001177972 -0.0001229836 -0.4704359613 0.7033139145
485297090.0 0.4912879824 -0.6941757207 0.0002483581 0.0001063356 -0.0001391361 -1.35752e-05 -0.4631289491 0.7084375292
490297060.0 0.4842542457 -0.6986458135 9.89354e-05 -0.0002050388 1.66132e-05 9.34895e-05 -0.4557076325 0.7127136922
495297030.0 0.4772086256 -0.7031650076 6.29047e-05 -9.7937e-05 -2.82683e-05 0.0001491836 -0.448638661 0.7174887851
500297000.0 0.4696139869 -0.7074852614 0.00011266 -0.0001488359 0.0001252486 -0.0002031226 -0.4411900966 0.722244421
505296970.0 0.463602614 -0.7125875787 -2.45888e-05 -6.45707e-05 -0.0002449597 0.0002516257 -0.4338837019 0.7264567788
510296940.0 0.4557905426 -0.7169289223 -9.21048e-05 -0.0001920361 8.57984e-05 0.0001224823 -0.4263518681 0.7310750777
515296910.0 0.4489335632 -0.7210915056 4.85733e-05 8.76527e-05 -7.0051e-05 0.0001048001 -0.4194176277 0.7352499629
520296880.0 0.4411446678 -0.7258102265 0.0002861075 1.66727e-05 4.42299e-05 8.18472e-05 -0.4114810933 0.7394925739
525296850.0 0.4345510751 -0.7298826411 7.35449e-05 -0.0001147934 5.23962e-05 5.60703e-05 -0.4039852785 0.7436136451
530296820.0 0.42717847 -0.7335372708 7.95477e-05 0.0001055373 -0.0001450714 0.0001036274 -0.3965932442 0.7470473
535296790.0 0.4196963403 -0.7381752567 -7.27468e-05 -7.02048e-05 0.0001303201 0.0001980718 -0.3894995443 0.7514744819
540296760.0 0.4126447089 -0.741920157 0.0002197048 0.0002464545 -0.0001823649 -0.0001550019 -0.3812675821 0.7552343794
545296730.0 0.4047759601 -0.7457521627 5.90939e-05 -9.80309e-05 8.87945e-05 -4.20119e-05 -0.3734034498 0.7594123708
550296700.0 0.3977290623 -0.7491315114 7.38723e-05 8.39348e-05 -8.80605e-05 -3.38643e-05 -0.3658960565 0.762739348
555296670.0 0.3899986048 -0.7536809524 -0.0001831322 5.4525e-06 -2.98182e-05 -8.13079e-05 -0.3582748623 0.7668829428
560296640.0 0.3825574387 -0.7575009476 -0.0001075003 0.000146649 -0.0001283274 -8.09771e-05 -0.3499362516 0.7708911308
565296610.0 0.3749611442 -0.7606159906 -3.07894e-05 -6.44056e-05 -7.68986e-05 0.0002573538 -0.3429140927 0.7741300341
570296580.0 0.3672631387 -0.7639884164 -0.0002056002 4.79683e-05 0.000189197 2.03386e-05 -0.3353935847 0.7776407707
575296550.0 0.3600374713 -0.7671712222 1.84746e-05 -5.38881e-05 0.0002717785 -0.0002186391 -0.3266370438 0.7810102145
580296520.0 0.3522773043 -0.771351859 1.53967e-05 8.43881e-05 -8.00786e-05 2.156e-07 -0.3182715279 0.7839795666
585296490.0 0.3443454575 -0.7751662739 0.0002067134 -0.0001286041 -4.05938e-05 -0.0001797151 -0.3106431134 0.7872564542
590296460.0 0.3375062498 -0.7773697274 -5.09162e-05 0.0001388168 -0.0002773977 6.80927e-05 -0.302876344 0.7901386107
595296430.0 0.3291432486 -0.7808850938 0.0001792241 0.0001062703 8.65799e-05 -4.1273e-06 -0.2950248648 0.7925205677
600296400.0 0.3210456399 -0.7840486707 7.97803e-05 -6.97908e-05 0.0003161479 6.1504e-06 -0.2870963783 0.7954682281
605296370.0 0.3129451601 -0.7868037272 -0.000148709 -2.08513e-05 1.17772e-05 -6.16855e-05 -0.2781935966 0.7986305089
610296340.0 0.3054222758 -0.7899614047 -1.23605e-05 -6.68399e-05 -4.90338e-05 -9.2861e-06 -0.2700950558 0.8009217616
615296310.0 0.2976036216 -0.7932711821 -4.63042e-05 2.22566e-05 -4.42447e-05 0.0001340378 -0.2615927712 0.8032455279
620296280.0 0.2893345154 -0.7956010008 -0.0001505945 0.0002164047 4.53853e-05 -0.0003073877 -0.2542845223 0.8064649136
625296250.0 0.2817990164 -0.7990722931 3.59912e-05 4.52079e-05 9.01057e-05 -0.0001147644 -0.2454052864 0.8077995444
630296220.0 0.2742695929 -0.8010534514 -0.0001789996 3.74243e-05 -9.9606e-06 0.0001389204 -0.2381065364 0.810895817
635296190.0 0.2653098191 -0.8036204644 8.38214e-05 0.0002631242 0.0001865269 7.7305e-06 -0.2295715158 0.8129379456
640296160.0 0.257636973 -0.806592716 0.000140653 -2.09003e-05 0.0001097392 -0.0001725054 -0.2210686376 0.8159126218
645296130.0 0.2496136545 -0.8084151938 9.62041e-05 -0.0001442462 -0.0001395426 -1.43659e-05 -0.213238564 0.8175371274
650296100.0 0.2417673585 -0.810717432 -6.06664e-05 -4.20921e-05 5.62224e-05 -0.0001078192 -0.2049850444 0.8192585188
655296070.0 0.2339090714 -0.8135476963 4.23348e-05 -0.0001177981 -8.3864e-06 0.0001146873 -0.1962986231 0.8206399919
660296040.0 0.2251137821 -0.8151478586 -0.0001243161 0.0001529315 -0.0001438401 -0.000145476 -0.1875318007 0.823343515
665296010.0 0.2174684036 -0.8175725038 -5.1674e-05 2.76821e-05 0.0001799748 -0.0001019053 -0.1791599936 0.8253758489
670295980.0 0.2086812302 -0.8199826824 -8.8035e-06 9.29267e-05 -5.2223e-06 9.2556e-06 -0.1723497774 0.826777156
675295950.0 0.2006365637 -0.8206619377 -0.0001056644 -0.0001266648 4.90149e-05 4.32417e-05 -0.1637596734 0.8289040559
680295920.0 0.1926857423 -0.822953884 0.0001880588 -6.90591e-05 0.0003414669 8.9738e-05 -0.1553763077 0.8307595321
685295890.0 0.1843564713 -0.8240602412 0.0001098216 -2.5175e-06 6.05275e-05 2.14753e-05 -0.1460780017 0.8321685937
690295860.0 0.1761060681 -0.8263114514 -6.93995e-05 7.26166e-05 2.25945e-05 -6.93382e-05 -0.1385100555 0.8340084636
695295830.0 0.1677700706 -0.8283275252 2.8902e-06 1.19258e-05 -0.0003067245 -0.000116974 -0.1295367644 0.8346252612
700295800.0 0.159781598 -0.8298827118 -0.00010503 3.11878e-05 3.52378e-05 8.65958e-05 -0.1223561969 0.8362023641
705295770.0 0.1512372181 -0.8307552301 -5.57059e-05 -3.51452e-05 -4.82134e-05 7.47233e-05 -0.1135108622 0.8382923845
710295740.0 0.1432863083 -0.8318989642 -4.10052e-05 3.70508e-05 7.49654e-05 2.364e-05 -0.1049318252 0.8379485678
715295710.0 0.134276619 -0.8336505511 -2.56635e-05 2.90901e-05 2.67697e-05 -4.83785e-05 -0.0966413567 0.8391661651
720295680.0 0.1265754454 -0.8349192215 9.1783e-05 -0.0001173259 1.85648e-05 1.52352e-05 -0.0878459696 0.8403942579
725295650.0 0.1177194866 -0.8353069448 -1.69526e-05 0.0001849965 5.35071e-05 -2.24393e-05 -0.0802824677 0.8415888233
730295620.0 0.1094612487 -0.8362952981 1.98001e-05 -4.88622e-05 7.21362e-05 -0.0001252174 -0.0725231479 0.8425020569
735295590.0 0.1012522587 -0.8364685055 -0.000184601 0.0001824378 0.0001136247 -1.50819e-05 -0.0631747854 0.8426039859
740295560.0 0.0924598939 -0.8376855023 -0.000118557 0.0001166789 -1.2988e-05 4.5286e-05 -0.0544527117 0.8439468748
745295530.0 0.0846597446 -0.838973026 -8.9525e-06 5.83698e-05 -2.70037e-05 4.03489e-05 -0.0459633315 0.8437732199
750295500.0 0.0761783308 -0.8389489563 7.62173e-05 2.29401e-05 0.0001120306 -5.73728e-05 -0.0379467766 0.8443599231
755295470.0 0.0674189235 -0.8402925443 -0.0001395134 4.55122e-05 3.04998e-05 0.0002534031 -0.0293608666 0.8435525936
760295440.0 0.0586106968 -0.8401777722 1.86136e-05 8.08996e-05 -0.0002328831 4.38863e-05 -0.0212347085 0.8447631111
765295410.0 0.0509996568 -0.84097282 -0.0001343385 0.0001265931 0.000246863 0.0001312139 -0.012408523 0.8448564998
770295380.0 0.0420493766 -0.8408974252 -7.15735e-05 -5.12886e-05 6.16601e-05 0.0001790398 -0.0045799481 0.8448284213
775295350.0 0.033802687 -0.8420715831 -1.80228e-05 4.8745e-05 0.0001040602 4.03044e-05 0.0033325312 0.8443048259
780295320.0 0.0257321864 -0.8412629196 0.0002296272 0.0001753141 -1.70084e-05 6.53157e-05 0.0121859015 0.844617151
785295290.0 0.0172372774 -0.8420803996 -0.0001284907 -0.0001079924 1.7206e-06 0.0001551208 0.0210851723 0.8441423715
790295260.0 0.0086795133 -0.8417896675 -0.0001347853 -6.90219e-05 -4.58767e-05 3.56025e-05 0.0293354546 0.8442718008
795295230.0 0.000427348 -0.8412973416 4.0567e-06 -5.82833e-05 7.51673e-05 4.81755e-05 0.0383669054 0.8430759611
800295200.0 -0.0085629524 -0.841368576 5.00203e-05 0.0002274907 -0.0002481416 4.05694e-05 0.046873181 0.8429474724
805295170.0 -0.0169125973 -0.8415163162 -0.0002810408 -5.83656e-05 -2.85277e-05 -6.70216e-05 0.0546972502 0.8424540286
810295140.0 -0.0244535167 -0.8409135936 6.51709e-05 2.53608e-05 -0.0001823925 -5.77529e-05 0.0633011784 0.8417330318
815295110.0 -0.033182734 -0.8405821799 -0.0001505395 -0.0001301986 7.5996e-05 0.0001316845 0.0717870754 0.8413375252
820295080.0 -0.0415539904 -0.839597737 -0.0001262758 9.86388e-05 -6.89322e-05 -6.21975e-05 0.0800787589 0.8402974906
825295050.0 -0.0502340698 -0.8394164708 -6.299e-07 -5.47115e-05 -7.76654e-05 -2.5032e-05 0.0885977327 0.8400890052
830295020.0 -0.0583705947 -0.8390139604 1.2949e-06 3.35817e-05 -1.29021e-05 1.87609e-05 0.0976378033 0.8383234857
835294990.0 -0.0665614448 -0.8373803796 0.0001973762 -6.54108e-05 -0.0001443315 0.0001551067 0.1050522571 0.8380321944
840294960.0 -0.0747308017 -0.8364577368 6.34843e-05 8.49447e-05 -0.0002156401 -2.86049e-05 0.1135784748 0.8365489175
845294930.0 -0.0832795073 -0.8357564407 0.000224253 -5.63549e-05 -0.0001085407 3.42128e-05 0.1215907471 0.8352592802
