!Created with skrf (http://scikit-rf.org).
# Hz S RI R 50.0 
!freq ReS11 ImS11 ReS21 ImS21 ReS12 ImS12 ReS22 ImS22
300000.0 -0.2349656573 -0.1333862985 0.4688370973 0.087693246 0.4687258859 0.0869048639 -0.2368926288 -0.1330234329
5299970.0 -0.2420318037 0.0051180178 0.4751213177 0.0063476635 0.4753264338 0.0060908019 -0.2441605316 0.0045468841
10299940.0 -0.2385031139 0.0184852486 0.4772378922 0.0070216915 0.4768898466 0.0071203001 -0.2406017492 0.0172678237
15299910.0 -0.2336822955 0.0286885391 0.4804411157 0.0081387672 0.4810667564 0.0081175637 -0.2367234216 0.0263362126
20299880.0 -0.2283603112 0.0369845429 0.4847380715 0.0080990144 0.4856074678 0.0083119958 -0.232127092 0.0337190437
25299850.0 -0.2225240827 0.0435271345 0.4905861933 0.0074820386 0.4908024168 0.0072222526 -0.2270786215 0.0399613844
30299820.0 -0.2169809538 0.0486647161 0.4962011855 0.0047688656 0.4958678336 0.0045510539 -0.2214899267 0.0446413621
35299790.0 -0.2113523107 0.0530524307 0.5009264553 0.001998244 0.50126171 0.0017428885 -0.2166682075 0.0493016995
40299760.0 -0.2059735331 0.0560893556 0.5064057918 -0.0021853029 0.5067734242 -0.00213394 -0.2120398839 0.0520995886
45299730.0 -0.2010909023 0.0588829253 0.5114376218 -0.0067577144 0.5112507528 -0.0068644982 -0.2070133132 0.0549595337
50299700.0 -0.1960417421 0.060760643 0.5155156114 -0.0125615124 0.5154123376 -0.012850952 -0.2026341612 0.0570799253
55299670.0 -0.1920695952 0.0624984449 0.5189432276 -0.0178396252 0.518798247 -0.017945178 -0.1991107525 0.0583630711
60299640.0 -0.1876101232 0.0642809429 0.5224846168 -0.0247441976 0.5225925215 -0.0247669917 -0.1951639366 0.0598302985
65299610.0 -0.1841140341 0.0649930786 0.5253878732 -0.0307499236 0.5256014339 -0.030945402 -0.1918362992 0.0609183828
70299580.0 -0.1807218985 0.0657774651 0.5276543332 -0.0373074136 0.5277446897 -0.0376703647 -0.189089494 0.0619391189
75299550.0 -0.1776868607 0.0668954043 0.5295613809 -0.0447025393 0.5296957325 -0.04464471 -0.1859006906 0.0626306459
80299520.0 -0.1751142504 0.0678304471 0.5315611407 -0.051324488 0.5315974169 -0.0515186731 -0.1836971729 0.0636847875
85299490.0 -0.1726942662 0.0684401737 0.5329649687 -0.0583275054 0.5330271563 -0.058004718 -0.1815462971 0.0640202705
90299460.0 -0.1700623857 0.0689234818 0.5337090369 -0.0650204126 0.533274307 -0.0649908328 -0.179218683 0.064800867
95299430.0 -0.1680524742 0.0695914434 0.5345286612 -0.0719157306 0.534557056 -0.0725212056 -0.1774513928 0.0654259882
100299400.0 -0.166000737 0.0700727 0.53482079 -0.0786329066 0.5350190848 -0.0791474447 -0.1760229512 0.0665613589
105299370.0 -0.164072669 0.0710997194 0.5354346816 -0.0858506321 0.5356022859 -0.0857999919 -0.1738546641 0.066452818
110299340.0 -0.1623464707 0.0716520189 0.5351974569 -0.0920839 0.5358614392 -0.0920304306 -0.1727920742 0.0673675409
115299310.0 -0.160613948 0.0723913431 0.5352683104 -0.0989411194 0.5354514245 -0.0994417039 -0.1715714155 0.0682658789
120299280.0 -0.1596038375 0.0733036149 0.5358621331 -0.1067643143 0.5353297664 -0.1066075727 -0.1700517771 0.068837553
125299250.0 -0.1578720568 0.0737339052 0.5347260057 -0.1128828415 0.53469446 -0.1130454649 -0.1686552503 0.0698180055
130299220.0 -0.1567179371 0.0746326157 0.5345541319 -0.119649582 0.5341088458 -0.1201555375 -0.1675841893 0.0704291812
135299190.0 -0.1554494558 0.0759760407 0.5341652404 -0.12597155 0.5337845549 -0.1266194656 -0.1665151427 0.0708665349
140299160.0 -0.1543231929 0.0768812607 0.5331659544 -0.1328285158 0.5325052177 -0.1328948002 -0.1661452015 0.0717833535
145299130.0 -0.1533931572 0.0779787196 0.5318586845 -0.1397063297 0.5321770762 -0.1396992749 -0.1649967314 0.0728353592
150299100.0 -0.1519909153 0.0791037984 0.5308254594 -0.146291223 0.530508784 -0.1461936044 -0.1640784621 0.0740490513
155299070.0 -0.1508683813 0.0798170288 0.5289828201 -0.1524429096 0.5298693519 -0.1527186051 -0.1631486773 0.074702869
160299040.0 -0.1501329774 0.0811062293 0.5284839072 -0.1586485404 0.5280675624 -0.1593675035 -0.1624360961 0.0757853924
165299010.0 -0.1488665015 0.0821421424 0.5265838317 -0.165028431 0.5264526863 -0.1656837389 -0.161429801 0.0766674182
170298980.0 -0.1480736004 0.0833628667 0.5250407431 -0.1716401673 0.5254699323 -0.1718925381 -0.1610100568 0.0777199283
175298950.0 -0.146666595 0.0850298736 0.5238653064 -0.1781490849 0.5237971798 -0.1784669236 -0.1599930815 0.0792789477
180298920.0 -0.1460624909 0.0858025572 0.5219717498 -0.1843775114 0.5215403909 -0.1845252745 -0.1594615186 0.080036205
185298890.0 -0.1448470301 0.0872470641 0.5200110556 -0.1904601306 0.5198222118 -0.1906464987 -0.1583132373 0.0810767727
190298860.0 -0.1438211689 0.0887402439 0.5176188434 -0.1968339425 0.5181822459 -0.1966939175 -0.1579834011 0.0825308221
195298830.0 -0.1431881299 0.0902031916 0.5162331765 -0.2029640571 0.5161212765 -0.2027851178 -0.1574800552 0.0834828228
200298800.0 -0.1418133784 0.0913435232 0.5138570479 -0.2092863124 0.514083857 -0.2090241042 -0.1562406274 0.084246916
205298770.0 -0.1414605703 0.0926191112 0.5115531122 -0.2148691791 0.5120163393 -0.2148129113 -0.1556982546 0.086034283
210298740.0 -0.1401640051 0.0938828647 0.5096942585 -0.2210005317 0.5091853324 -0.2212852834 -0.1550093455 0.087045061
215298710.0 -0.1392047632 0.0954890339 0.5066814505 -0.226867879 0.50723012 -0.2267884978 -0.1543225545 0.0884550659
220298680.0 -0.1381442247 0.0969528684 0.504665431 -0.2329194521 0.5047299363 -0.2327597559 -0.1534433456 0.0893103775
225298650.0 -0.137191364 0.098430785 0.5019774086 -0.2385683308 0.5021891016 -0.2381285619 -0.1527549353 0.0907661554
230298620.0 -0.1363238591 0.1000011426 0.4997099586 -0.2446221464 0.5000351775 -0.2445847509 -0.1523046004 0.0918495056
235298590.0 -0.1354937819 0.1013598129 0.4972020263 -0.2506242675 0.497521641 -0.2502040088 -0.1511618116 0.0933601266
240298560.0 -0.1342489113 0.102925574 0.4944166345 -0.2556773399 0.4946310969 -0.2559809704 -0.1506303782 0.0948147963
245298530.0 -0.1334435435 0.1039512472 0.4916093728 -0.2614205814 0.4918272088 -0.2617308137 -0.1497603277 0.096069329
250298500.0 -0.1324800961 0.1053038341 0.4889450755 -0.2670427573 0.489179663 -0.2672546194 -0.1488433323 0.097500061
255298470.0 -0.1312380674 0.1070377274 0.4864187561 -0.2720356767 0.4864644486 -0.2726949265 -0.1478022155 0.098680718
260298440.0 -0.130216702 0.1085143399 0.4832212861 -0.2778927457 0.4832181819 -0.2777307894 -0.1473386199 0.099573373
265298410.0 -0.1291812865 0.1100086538 0.479939397 -0.2841087798 0.4800953266 -0.2842516559 -0.1458930642 0.1010035599
270298380.0 -0.1283492121 0.1113195909 0.4770080152 -0.289216006 0.4768507642 -0.289398289 -0.1449154527 0.1028582837
275298350.0 -0.127295756 0.1130139443 0.4735359741 -0.2944593394 0.4734965158 -0.2944169348 -0.1444690173 0.1039834138
280298320.0 -0.1263340676 0.1143892133 0.4709205584 -0.2995097016 0.4710773562 -0.2999497916 -0.1436178827 0.1053779557
285298290.0 -0.1250058027 0.1158406012 0.4670825272 -0.3052855632 0.4674272587 -0.3047719587 -0.1428249153 0.1070025189
290298260.0 -0.1236655619 0.117419944 0.4643253907 -0.3103604778 0.4643971965 -0.3104284793 -0.1415903204 0.1081951608
295298230.0 -0.122693214 0.1183026826 0.4607396804 -0.3157838104 0.4610611018 -0.3160941492 -0.1406589654 0.1093254646
300298200.0 -0.1213478577 0.1201555947 0.4574740245 -0.3210080647 0.4577801847 -0.3207958794 -0.1401137693 0.1108354549
305298170.0 -0.1199339163 0.1210976608 0.4541587256 -0.3264959624 0.4541658475 -0.3262305505 -0.1385797003 0.1114732525
310298140.0 -0.1186710985 0.1227732466 0.4506143905 -0.3311538505 0.450624961 -0.3311054427 -0.1373162391 0.1130492778
315298110.0 -0.1176344831 0.123574403 0.4470404312 -0.3370209408 0.4469994657 -0.336751451 -0.1365707593 0.1143387988
320298080.0 -0.1165034157 0.1252492634 0.4428279286 -0.3420353514 0.4434786485 -0.3418311517 -0.135657634 0.115370453
325298050.0 -0.1156195657 0.1259107604 0.438812535 -0.3463846462 0.4395214088 -0.3468590717 -0.1344760581 0.1165846044
330298020.0 -0.1146237022 0.127739725 0.4355111671 -0.3517809799 0.4357649337 -0.3518664496 -0.1340896364 0.1178683868
335297990.0 -0.1134330631 0.128865427 0.4316258359 -0.3567770409 0.4318900793 -0.3566517164 -0.1330198457 0.1193523131
340297960.0 -0.1122774925 0.1300613532 0.4268773206 -0.3613092665 0.4269969038 -0.3616775159 -0.1319526304 0.1208908954
345297930.0 -0.1114072154 0.1315599447 0.4233262014 -0.3658012831 0.4232960684 -0.3663836239 -0.1309964446 0.122142638
350297900.0 -0.1100917515 0.1327226606 0.4194488062 -0.3705287819 0.4194644106 -0.3706251659 -0.1300883925 0.1233244561
355297870.0 -0.1086717551 0.1343433772 0.4152821989 -0.3747971771 0.4150567564 -0.3748895243 -0.1287998503 0.1246220303
360297840.0 -0.1073841833 0.1355846753 0.4106954539 -0.3795575508 0.41114875 -0.3803643542 -0.1280998653 0.1264217617
365297810.0 -0.1061676671 0.1371547139 0.4066444198 -0.3843118896 0.4065083625 -0.3846564796 -0.1270482517 0.1273727706
370297780.0 -0.1048497633 0.1385890686 0.4020732744 -0.3890800953 0.4028142185 -0.3887549843 -0.1257459487 0.1288577797
375297750.0 -0.1033813792 0.1395417919 0.3980263439 -0.3930502136 0.3982069321 -0.3933154872 -0.1242716094 0.1301378716
380297720.0 -0.102178286 0.1412597782 0.3941115694 -0.397643223 0.3937313405 -0.3977068433 -0.1230120035 0.1315959526
385297690.0 -0.1007755812 0.1420793978 0.3893048795 -0.4015992433 0.3894864805 -0.4022148338 -0.1218015896 0.133084081
390297660.0 -0.0990991201 0.1434568211 0.3851111522 -0.4059333739 0.3852032189 -0.4058632877 -0.1206032857 0.133847283
395297630.0 -0.0975571714 0.1444949665 0.3808204473 -0.4097144468 0.3805656036 -0.4099344408 -0.1195804587 0.1353075255
400297600.0 -0.0963296744 0.1459106461 0.3760102139 -0.414187265 0.3762643692 -0.4142835025 -0.1179873305 0.1367851062
405297570.0 -0.0947629277 0.1464641914 0.3715885969 -0.4179712479 0.3713343092 -0.4187178479 -0.1164173131 0.1382004152
410297540.0 -0.0930634883 0.1482760568 0.3672267187 -0.4228859932 0.3671854805 -0.4224783319 -0.1155689722 0.1396084643
415297510.0 -0.0918191632 0.1491728359 0.3623218428 -0.4265185917 0.362836462 -0.4268621584 -0.1140859191 0.1407864917
420297480.0 -0.0902187026 0.1500596073 0.3572590995 -0.4305296334 0.3578396915 -0.4305069665 -0.1128135531 0.1423319128
425297450.0 -0.088423255 0.1512804434 0.3528868402 -0.4340159816 0.3527353347 -0.4342282581 -0.111573915 0.1428511096
430297420.0 -0.0869495046 0.1527008289 0.3487208166 -0.4388815387 0.3483862182 -0.4376526561 -0.1097938707 0.1443793186
435297390.0 -0.0852569846 0.1535150611 0.3432701582 -0.4424355104 0.3432303733 -0.4419929496 -0.1087640556 0.1460284391
440297360.0 -0.0833065446 0.1544102715 0.3384822726 -0.4459857087 0.3383815039 -0.4456839115 -0.1074245161 0.1468438037
445297330.0 -0.0816277452 0.1551384941 0.3337904414 -0.4491482991 0.3337146189 -0.4497048886 -0.1057307123 0.1483615271
450297300.0 -0.0800968115 0.1562162846 0.3286014935 -0.4529571946 0.3291248544 -0.4528627038 -0.1041230951 0.1495172328
455297270.0 -0.0787127387 0.1572806802 0.3238356484 -0.4562585431 0.3242217239 -0.456549398 -0.1029887012 0.1504759682
460297240.0 -0.0767737725 0.1584472957 0.3188248452 -0.4603592131 0.3188500141 -0.460546113 -0.1016450546 0.1516962879
465297210.0 -0.0749819472 0.1591718329 0.3132659349 -0.4637298009 0.3135205021 -0.4639909531 -0.0998422097 0.1532286486
470297180.0 -0.073302391 0.1603196837 0.3087017017 -0.4665883315 0.3087015604 -0.4669199616 -0.0981699789 0.1538356445
475297150.0 -0.0714192258 0.1612829093 0.3036588704 -0.4702887712 0.3038740985 -0.4701254995 -0.0968840102 0.1548857482
480297120.0 -0.06939878 0.1621746651 0.2982288299 -0.4735063886 0.2985603648 -0.4735836804 -0.0955765704 0.1562178249
485297090.0 -0.0675437693 0.1627198248 0.2927765246 -0.4771093994 0.293101232 -0.4766288225 -0.0941424825 0.157378301
490297060.0 -0.0654125318 0.1639780748 0.2875188454 -0.4796907987 0.287505109 -0.4800190941 -0.0923370502 0.1578625025
495297030.0 -0.0641058236 0.1642252504 0.283035713 -0.4830853371 0.2830765492 -0.4827519052 -0.0906642488 0.1589929658
500297000.0 -0.062258172 0.1654604372 0.2774715391 -0.4858666758 0.277300999 -0.4862496151 -0.0890605205 0.1600225831
505296970.0 -0.0598580707 0.1662697169 0.2721407162 -0.4891827775 0.2723451085 -0.488720346 -0.087423823 0.1607129131
510296940.0 -0.0578378364 0.1665679603 0.2669776782 -0.492300047 0.2669628076 -0.4927835083 -0.0854882519 0.1624378975
515296910.0 -0.0563470931 0.1680889449 0.2613961652 -0.4945561737 0.2612704263 -0.4948625792 -0.0845945976 0.1627328043
520296880.0 -0.0543076916 0.1686765802 0.2558611598 -0.4976279792 0.255317789 -0.4976991165 -0.0822548328 0.1644131469
525296850.0 -0.0522158996 0.1689666124 0.2503806314 -0.5001193378 0.2502709188 -0.5004525322 -0.080892107 0.1650095988
530296820.0 -0.0506201117 0.1698477004 0.2449089178 -0.5034988394 0.2448252093 -0.5029174246 -0.0791666526 0.1657352841
535296790.0 -0.0480842858 0.1706989293 0.2394100649 -0.5053849507 0.2393794994 -0.5055441942 -0.0771379742 0.1667429106
540296760.0 -0.0463792194 0.1714197985 0.2336420869 -0.5080509594 0.2336522853 -0.5078856998 -0.0756768807 0.1673928877
545296730.0 -0.044751465 0.1723107189 0.2286728064 -0.510437678 0.2281720018 -0.5102633136 -0.0739568454 0.1688624392
550296700.0 -0.042179377 0.172933088 0.2231530133 -0.5132377366 0.2226123274 -0.5132001513 -0.0723838474 0.169170852
555296670.0 -0.0403330513 0.1734485999 0.2172587157 -0.5155223476 0.217085761 -0.5155410066 -0.0707362713 0.1695888973
560296640.0 -0.0380805152 0.1738564939 0.2113980645 -0.5178015905 0.2120909723 -0.5175166653 -0.069004566 0.1709735961
565296610.0 -0.036503207 0.1745428912 0.2062882854 -0.5199793027 0.2061121375 -0.5193247936 -0.0673236025 0.1715381478
570296580.0 -0.0343962338 0.1752381019 0.2001548772 -0.5218537969 0.2003393081 -0.5218517135 -0.0658164653 0.1721616921
575296550.0 -0.0322543312 0.1757855731 0.1949652991 -0.5242756415 0.1947131926 -0.5240868986 -0.063986925 0.1731182605
580296520.0 -0.0301550071 0.1766730972 0.1890104307 -0.5261497995 0.188814113 -0.5264242563 -0.0626441444 0.1738633919
585296490.0 -0.0280642273 0.1769561627 0.1835411593 -0.5279174951 0.1829545641 -0.5280742176 -0.0604047071 0.1747508909
590296460.0 -0.0254920751 0.1776182103 0.1775161759 -0.5303326913 0.1775478029 -0.5302963184 -0.0589992256 0.1754813426
595296430.0 -0.0237081747 0.1780314769 0.17141479 -0.5321888282 0.1713537841 -0.5322734306 -0.0569809867 0.1757287106
600296400.0 -0.0215213971 0.1785318521 0.1656708503 -0.5336137612 0.1657075075 -0.5337391508 -0.0554145984 0.176555192
605296370.0 -0.0200176254 0.1792555503 0.1601800593 -0.5356277391 0.1598535822 -0.5353469296 -0.0537848216 0.1773159664
610296340.0 -0.0174599214 0.1795457259 0.1543257049 -0.5367131671 0.1546243118 -0.5370191331 -0.052181659 0.1779829681
615296310.0 -0.0151825685 0.1797422258 0.1484513253 -0.539369239 0.1480273688 -0.5388965815 -0.0498613598 0.1790066786
620296280.0 -0.0137078436 0.1807295712 0.1423311022 -0.5404116715 0.1425116428 -0.5403030664 -0.0487822181 0.1796864
625296250.0 -0.0116210829 0.1806951969 0.1368205583 -0.5419924674 0.1367706365 -0.5418247139 -0.0467750704 0.1801882833
630296220.0 -0.0094188547 0.1815147944 0.1306895262 -0.5433841829 0.1304164825 -0.5432248072 -0.0449415168 0.1806868423
635296190.0 -0.0075892092 0.1819057241 0.1253511922 -0.5444010837 0.1247799765 -0.5442244269 -0.0431723872 0.1809632709
640296160.0 -0.0055072848 0.1819617325 0.1192516507 -0.5463909213 0.1191015581 -0.545842285 -0.041522973 0.181714788
645296130.0 -0.002786966 0.1825164007 0.1130337448 -0.547375871 0.1130203942 -0.5469038191 -0.0399675755 0.1819314391
650296100.0 -0.0010558235 0.1825438497 0.1070123186 -0.548349898 0.1069296135 -0.5483908258 -0.037393801 0.1825559455
655296070.0 0.0008005419 0.1828371959 0.1011176408 -0.5495979129 0.1012982448 -0.5495565762 -0.036572083 0.1835770704
660296040.0 0.0030489288 0.1832404101 0.0952282775 -0.5502101097 0.0950872834 -0.5504237875 -0.0340739899 0.1834823065
665296010.0 0.005036632 0.1836289669 0.0891298447 -0.5509689168 0.0890923919 -0.5511334739 -0.0324094286 0.1840553623
670295980.0 0.0069014401 0.1838691259 0.0833751857 -0.5521165436 0.0832141957 -0.5518058663 -0.0312189804 0.1846187782
675295950.0 0.0090511966 0.1839453491 0.0773599562 -0.5529993004 0.0773930696 -0.5529579964 -0.0292376273 0.1851204335
680295920.0 0.0110277207 0.1841986749 0.0714446651 -0.5538053193 0.0717420581 -0.5535169027 -0.0269627362 0.1851168157
685295890.0 0.0133096729 0.1845244835 0.0651350512 -0.554882648 0.0649994312 -0.5547745801 -0.0251453545 0.1860900507
690295860.0 0.0153240095 0.1845821642 0.059498374 -0.5553518134 0.0590404588 -0.5550708314 -0.0235550198 0.186166905
695295830.0 0.0172224683 0.1843421258 0.0536958737 -0.5558662833 0.0530803575 -0.555609575 -0.0216347566 0.1868975375
700295800.0 0.0195752566 0.1846937487 0.0474065327 -0.5565499265 0.0473026014 -0.5559046171 -0.0200082445 0.1868148307
705295770.0 0.0211637302 0.1848384231 0.0413494564 -0.5568678589 0.0412288512 -0.5565893407 -0.0184142196 0.1877071247
710295740.0 0.0230428908 0.1848038132 0.0356938849 -0.5572906953 0.0355975572 -0.5573031066 -0.0162226019 0.1880885912
715295710.0 0.0251478441 0.1850807873 0.0299183925 -0.5579714638 0.0292591986 -0.5574595769 -0.0143023877 0.1878829245
720295680.0 0.0276553367 0.1847307795 0.0235238022 -0.5575158704 0.0232637938 -0.5580514258 -0.0128232592 0.1881085556
725295650.0 0.0290455063 0.1851949094 0.0175939482 -0.5579910959 0.0176006283 -0.5579455584 -0.0110758693 0.1888887143
730295620.0 0.0307730185 0.1845253776 0.0116251005 -0.5578198031 0.011580523 -0.557881418 -0.0092183963 0.1893682682
735295590.0 0.0331726247 0.1846977191 0.0056251099 -0.5586068312 0.0054759662 -0.5583965643 -0.0074047131 0.1892816884
740295560.0 0.0350122336 0.184378654 -2.68047e-05 -0.5585662486 -0.0002316816 -0.5585160632 -0.005709655 0.1896886931
745295530.0 0.0367814763 0.1844791134 -0.0060792976 -0.5574838478 -0.0056788568 -0.5578247298 -0.0041741498 0.1897423686
750295500.0 0.0387165368 0.1846025104 -0.0121280103 -0.5579148832 -0.0127230082 -0.5579415144 -0.0018543771 0.189941534
755295470.0 0.0407583419 0.1841166434 -0.0179125997 -0.5580444278 -0.0183895846 -0.55826786 -0.0002192681 0.1908231229
760295440.0 0.0425833558 0.1843518903 -0.0248766485 -0.5574680641 -0.0243641274 -0.5571830929 0.0018000876 0.1897135997
765295410.0 0.0448289897 0.1836675521 -0.0305838862 -0.5568831955 -0.0301904877 -0.5569579108 0.0035981315 0.1900057138
770295380.0 0.0465401069 0.1837596013 -0.0357296969 -0.5564508389 -0.036062999 -0.5570090068 0.0052051597 0.1904945119
775295350.0 0.0485126547 0.1832385346 -0.0418706886 -0.5566248045 -0.0420708999 -0.556088103 0.0074990701 0.1907326898
780295320.0 0.0504073042 0.18300779 -0.0482577269 -0.5554988279 -0.0479429337 -0.5554714863 0.0094901605 0.1905399209
785295290.0 0.0522074097 0.1824903908 -0.054198838 -0.5550543459 -0.0540775443 -0.5550942777 0.0106193777 0.1911138673
790295260.0 0.0541963358 0.1818222349 -0.0599020485 -0.5548027198 -0.0596963961 -0.5548048105 0.0126198585 0.1914541197
795295230.0 0.0562191933 0.1816238987 -0.0660697636 -0.5543884539 -0.0659445845 -0.5539579217 0.0144580515 0.1904692488
800295200.0 0.0576811258 0.1816137391 -0.0714237411 -0.5530647021 -0.0720152533 -0.5532341069 0.0161928363 0.1908627117
805295170.0 0.0595114128 0.1811320432 -0.0775624214 -0.5526889519 -0.0779523014 -0.5525534806 0.0185712606 0.1907761475
810295140.0 0.0616962188 0.1807222478 -0.0835721863 -0.5511084965 -0.0835878387 -0.5518418581 0.0204575871 0.190964796
815295110.0 0.0633466307 0.180254354 -0.0894277036 -0.5506526098 -0.0893720031 -0.5507664633 0.0218418976 0.1910294218
820295080.0 0.0656591618 0.1795511282 -0.0949396608 -0.5493550128 -0.095335572 -0.549904114 0.0231792644 0.1913998014
825295050.0 0.0671694003 0.1790594746 -0.1012707924 -0.5487310136 -0.1011586236 -0.5486597832 0.0259117082 0.1911369269
830295020.0 0.0690532599 0.1782072327 -0.1070619724 -0.5475450802 -0.1070057091 -0.5474843347 0.0274572956 0.1904451376
