!Created with skrf (http://scikit-rf.org).
# Hz S RI R 50.0 
!freq ReS11 ImS11 ReS21 ImS21 ReS12 ImS12 ReS22 ImS22
300000.0 -0.0475015519 -0.0401070636 2.715e-07 -0.0015078249 -0.0007582706 0.00060681 -0.7791806311 -0.1170016401
5299970.0 -0.048705151 0.0156048104 5.38331e-05 0.0001415867 -2.52593e-05 -8.81539e-05 -0.7855271765 -0.0064959622
10299940.0 -0.0432844414 0.0320463596 -0.0001019769 0.0002203524 8.60445e-05 0.0001457478 -0.7882541584 -0.003675549
15299910.0 -0.0350303133 0.0460943435 -7.11505e-05 0.0001700163 0.0002245645 0.0001190597 -0.7939325656 -0.0014849063
20299880.0 -0.0253711288 0.0575139734 -0.0001224886 1.55783e-05 -3.06158e-05 -2.00713e-05 -0.8003696529 0.0016216566
25299850.0 -0.0146616395 0.0665492068 -4.94046e-05 -8.06915e-05 -3.8557e-05 0.0002404725 -0.8066797812 0.0081529987
30299820.0 -0.0033785547 0.0731627287 -0.0001579486 -0.000268143 2.76359e-05 -1.28128e-05 -0.8124431035 0.0162254563
35299790.0 0.0076854298 0.0774273554 -0.0002046279 -0.0001708243 4.4485e-05 -7.52418e-05 -0.8175296846 0.0249560883
40299760.0 0.0189262873 0.0803349502 6.79959e-05 0.0004020275 1.96104e-05 3.33181e-05 -0.8212331972 0.0345623734
45299730.0 0.0295256001 0.0813854369 6.4165e-05 9.93584e-05 2.53311e-05 -0.0001597445 -0.8257991982 0.0436642896
50299700.0 0.0391354197 0.081513736 0.0002051011 0.0002547761 3.4604e-06 0.0002238885 -0.8272207727 0.0540084214
55299670.0 0.0483711713 0.0803611051 4.2667e-05 -4.1067e-06 -4.72656e-05 0.0002843498 -0.8294128367 0.0639853138
60299640.0 0.0569185304 0.0787545738 8.10195e-05 6.19181e-05 6.22134e-05 9.80719e-05 -0.8301062006 0.0738038646
65299610.0 0.0642663565 0.0761884156 0.0001011451 -3.28052e-05 5.82708e-05 -0.0001408967 -0.8318919835 0.0839459615
70299580.0 0.0710306946 0.0733062534 0.0001088098 1.33829e-05 1.91147e-05 -8.92149e-05 -0.8317670112 0.0943316466
75299550.0 0.0773736925 0.0702283065 9.75725e-05 0.0001140361 5.81656e-05 -6.96667e-05 -0.8322240668 0.1041226584
80299520.0 0.0829802473 0.066494777 -0.0001209526 -8.05107e-05 -8.83536e-05 -0.0001014512 -0.83212345 0.1137766179
85299490.0 0.0876248419 0.062904082 5.13326e-05 0.0001941687 -1.2628e-06 -0.0001477501 -0.8314120298 0.1233999104
90299460.0 0.0920316708 0.0589606864 6.73559e-05 -0.0001670487 -9.15994e-05 1.8976e-06 -0.830223038 0.1333280856
95299430.0 0.0964374544 0.054874061 2.72143e-05 9.85299e-05 2.94033e-05 -9.084e-07 -0.8287948292 0.1429851128
100299400.0 0.0995331341 0.0511359156 4.93363e-05 -1.995e-07 0.0001333612 -4.17734e-05 -0.82861997 0.1522471258
105299370.0 0.1030677628 0.0473741392 -4.13587e-05 4.63819e-05 -6.38605e-05 1.71331e-05 -0.8271823797 0.160962936
110299340.0 0.1060457134 0.0434305791 -1.1705e-05 -6.2562e-06 -4.52683e-05 -3.85761e-05 -0.8259034822 0.17045203
115299310.0 0.10831715 0.0393227897 0.0001353777 0.0001479279 3.87529e-05 0.0001564916 -0.824266461 0.1798840932
120299280.0 0.1103938065 0.0353035149 0.0001616856 -5.1335e-06 0.0001477265 0.0001234288 -0.8226128769 0.1892241803
125299250.0 0.1118684791 0.0313993925 6.69688e-05 4.84493e-05 5.79693e-05 -4.8863e-06 -0.8212341907 0.1981497895
130299220.0 0.1137740285 0.0278550412 9.25279e-05 -4.79402e-05 -0.0001085211 -3.19422e-05 -0.8194820584 0.2066002551
135299190.0 0.1152323884 0.0245591554 -0.0001151763 0.0001000896 -0.0001126706 -0.0001351281 -0.8170576243 0.2160056578
140299160.0 0.1161570659 0.0206365006 0.000214014 5.25017e-05 0.0002762448 0.0001220652 -0.8148868547 0.2250698335
145299130.0 0.1172784395 0.0171280487 -0.0001656598 2.58665e-05 -0.0001523043 -2.19384e-05 -0.8126861735 0.234303346
150299100.0 0.1183295504 0.0135848096 0.0002100822 0.0003727912 3.0165e-05 7.26547e-05 -0.8110297201 0.243116423
155299070.0 0.1188697683 0.0104365634 -2.05999e-05 -8.50015e-05 0.0002036268 -1.3289e-06 -0.8083108324 0.2520157944
160299040.0 0.1193032723 0.0073041775 2.34e-06 -6.57931e-05 -0.0001580782 -7.1025e-05 -0.8057034207 0.2603311728
165299010.0 0.1200671726 0.0038538296 0.0001893956 -5.9116e-06 -1.52583e-05 0.0001185654 -0.8035250817 0.2696240407
170298980.0 0.1198841819 0.0011720662 9.13857e-05 2.09755e-05 0.0002827592 2.0295e-06 -0.8000347267 0.2775483393
175298950.0 0.120343736 -0.0021610818 -7.34842e-05 -3.06104e-05 -0.000118652 6.75083e-05 -0.797613274 0.2870285959
180298920.0 0.120368694 -0.0050280218 0.0001233158 -0.0002117052 2.10115e-05 9.98969e-05 -0.7945736667 0.2953863077
185298890.0 0.1206950738 -0.0082027022 -0.0001057015 0.0001125392 -4.18677e-05 0.0001428613 -0.7906044146 0.303891588
190298860.0 0.1204150851 -0.0110261828 0.0001530412 0.0001643211 -4.16101e-05 -7.9651e-06 -0.7889556374 0.3123539855
195298830.0 0.1201267234 -0.0136398724 -9.64403e-05 -4.9959e-05 -3.39388e-05 8.3047e-06 -0.7850545993 0.3209497201
200298800.0 0.1200263036 -0.0163522412 -0.0001019944 0.0002020525 -0.0001569803 0.0001033405 -0.782295299 0.3287524358
205298770.0 0.11946388 -0.0188788581 -5.86069e-05 -5.65499e-05 1.74715e-05 0.000187597 -0.7782691659 0.3371140307
210298740.0 0.1191119373 -0.0215729016 0.0001297287 7.7804e-06 -1.71908e-05 -0.0001030634 -0.7747101891 0.3456865651
215298710.0 0.1185513188 -0.024244128 0.0001183587 0.0001867833 -9.08234e-05 3.33532e-05 -0.7711180353 0.3535255897
220298680.0 0.11804293 -0.0269557136 9.82882e-05 2.44341e-05 9.2203e-05 0.0001084539 -0.7674419185 0.3617288602
225298650.0 0.1172375803 -0.0293896148 8.2802e-05 1.98764e-05 3.01905e-05 -2.74971e-05 -0.7637687114 0.3699497756
230298620.0 0.1170238924 -0.0316642912 -0.0001269316 5.15359e-05 -0.0001556692 9.94202e-05 -0.7605646043 0.3779497101
235298590.0 0.1164967136 -0.0338500774 -3.08941e-05 6.4388e-06 0.0002055851 -6.47828e-05 -0.7555083705 0.3865339784
240298560.0 0.1157905283 -0.036220938 0.0001872007 -2.34686e-05 6.26975e-05 8.38575e-05 -0.7516683563 0.3948032616
245298530.0 0.1151217844 -0.038573463 3.29299e-05 0.0001365198 0.0002316321 0.0001150363 -0.7477952174 0.4020745109
250298500.0 0.1142043423 -0.0408602563 1.3828e-05 -1.90208e-05 0.0001187266 4.48479e-05 -0.7437461771 0.4097932317
255298470.0 0.1131945425 -0.0430491022 0.000151554 -0.0001405893 9.5698e-06 6.70028e-05 -0.7384666901 0.4177477122
260298440.0 0.1123657837 -0.0451697684 0.0001679575 9.02362e-05 3.01109e-05 9.04995e-05 -0.7345474261 0.4260990449
265298410.0 0.1114103598 -0.046891252 0.0001492405 1.47382e-05 0.0001146706 0.0003705336 -0.730325308 0.4335968425
270298380.0 0.1105572924 -0.0491759726 0.000125975 0.0001236087 0.0001592982 4.36596e-05 -0.7253393593 0.441155954
275298350.0 0.109655752 -0.0511514541 -2.13706e-05 -4.15317e-05 0.0001238246 0.0002091209 -0.7208838236 0.4488115671
280298320.0 0.1089261662 -0.0529030796 0.0001770513 7.904e-06 8.92621e-05 -9.0536e-06 -0.7160451227 0.4558289609
285298290.0 0.1079967308 -0.054468892 0.000134755 5.19963e-05 -2.71086e-05 -0.0001079604 -0.7110312456 0.4634731894
290298260.0 0.1070869354 -0.0563426817 4.09116e-05 0.0001049279 7.51395e-05 -3.33601e-05 -0.7061702415 0.4711528819
295298230.0 0.1062836001 -0.0586818212 3.77652e-05 4.93559e-05 -3.12054e-05 -5.5941e-06 -0.7014951438 0.4780735865
300298200.0 0.1050682049 -0.0604482705 -8.63465e-05 2.84581e-05 0.0001299478 1.78802e-05 -0.6964816796 0.4853829346
305298170.0 0.1038810388 -0.0622170648 8.42321e-05 -6.35093e-05 4.67248e-05 -8.52106e-05 -0.6907646685 0.4930237182
310298140.0 0.102818159 -0.063869713 4.51637e-05 0.000107084 -0.0001573151 0.0001899532 -0.6862643408 0.5000757766
315298110.0 0.1019545792 -0.0658480728 0.0001479973 0.0001915092 -1.46591e-05 0.0002438575 -0.6804975533 0.5068293369
320298080.0 0.1007586296 -0.0677912755 5.19718e-05 3.51064e-05 8.98241e-05 9.54559e-05 -0.6754247776 0.5142929258
325298050.0 0.0995830305 -0.0695534893 0.0001174118 0.0001392448 9.44152e-05 9.102e-06 -0.6695252427 0.5213211172
330298020.0 0.0980386374 -0.0713621459 0.0002381092 7.28559e-05 -5.0479e-06 3.80162e-05 -0.6641263499 0.5288897058
335297990.0 0.0965699127 -0.0728574323 -4.38171e-05 -5.77107e-05 -7.296e-06 3.85219e-05 -0.659349013 0.5354601007
340297960.0 0.0947290676 -0.0744782999 -1.50208e-05 -0.0001602571 6.59256e-05 -0.0001050271 -0.6534348348 0.5425069405
345297930.0 0.0934181884 -0.0759503421 0.0001622618 3.40207e-05 0.0001143422 0.0001038782 -0.6477031168 0.5488011011
350297900.0 0.0921143588 -0.0771359246 -0.000134919 0.0002215935 4.5014e-05 -4.9686e-05 -0.6417906346 0.5557140132
355297870.0 0.0909606076 -0.0785983865 0.0001579393 0.000133208 6.93143e-05 -1.70862e-05 -0.6362492114 0.5617874631
360297840.0 0.0893879929 -0.0799225132 -2.61232e-05 4.96351e-05 0.0002748037 -1.86724e-05 -0.6300411941 0.5688477847
365297810.0 0.0878695635 -0.0808994183 -1.66925e-05 -6.93495e-05 6.3514e-05 8.023e-07 -0.6232664205 0.5747723094
370297780.0 0.0868032646 -0.0823173141 2.04475e-05 0.0001748502 0.0001390835 -4.98348e-05 -0.6177656201 0.5817597238
375297750.0 0.085204746 -0.0834487282 -0.0001241662 0.000136731 0.0001362743 6.67764e-05 -0.6120139562 0.5875030667
380297720.0 0.0836820409 -0.0852542929 0.0002477585 0.0001137424 -4.31322e-05 -0.0001023421 -0.6063105117 0.5936194777
385297690.0 0.082320744 -0.0858911551 -0.000131423 -1.5297e-06 8.69218e-05 -2.34161e-05 -0.5997698322 0.600096832
390297660.0 0.0809033809 -0.0871843808 7.29435e-05 -0.0001186789 5.33195e-05 4.31713e-05 -0.5935361131 0.606694046
395297630.0 0.0795928824 -0.0883630623 0.0001759926 -0.000107759 0.0002045117 0.0003224902 -0.586979213 0.6128673792
400297600.0 0.0783612441 -0.0894896227 0.0003572948 0.0001269754 8.29231e-05 -6.32523e-05 -0.580802036 0.6183537066
405297570.0 0.076332269 -0.0904269208 0.0001729324 -9.09989e-05 -2.85306e-05 0.0001204437 -0.574615063 0.6245599541
410297540.0 0.074933652 -0.0915859443 -6.45919e-05 7.82178e-05 0.000116948 0.0001181518 -0.5675991915 0.6304954396
415297510.0 0.0737749474 -0.0930259609 8.53936e-05 0.0001506904 0.000209591 9.61245e-05 -0.5611049911 0.635795187
420297480.0 0.0722250593 -0.0934277079 0.0002364452 5.5665e-06 7.026e-06 0.0001941846 -0.554527779 0.6419710635
425297450.0 0.0706257646 -0.0946421721 -0.0001726593 3.16166e-05 6.28812e-05 0.0001414529 -0.5483240193 0.64777588
430297420.0 0.0694168016 -0.0959368874 0.0003112867 -0.0001106893 3.53324e-05 0.0001218505 -0.541604475 0.6525798246
435297390.0 0.0675006423 -0.096361819 -5.65504e-05 -0.0001327466 -9.4575e-06 -5.74791e-05 -0.533831356 0.658464956
440297360.0 0.0658835742 -0.0976784865 -3.70852e-05 4.31238e-05 0.000145743 -3.18792e-05 -0.527376357 0.6635352901
445297330.0 0.064593121 -0.098477596 -3.57622e-05 1.86347e-05 0.0001960316 -3.5e-08 -0.520515064 0.6689519947
450297300.0 0.0630044185 -0.0993251581 0.0001592296 -0.0001086907 8.91695e-05 3.91021e-05 -0.5132958682 0.6742343648
455297270.0 0.0613421025 -0.100094276 4.87348e-05 -6.35718e-05 0.0001760035 0.0001895525 -0.5068246486 0.6786971504
460297240.0 0.0599338701 -0.1009847856 0.0001902051 0.0003134035 -5.72492e-05 1.00195e-05 -0.5000595838 0.6841013868
465297210.0 0.058149272 -0.1016348464 5.63672e-05 -3.72263e-05 7.31395e-05 -4.4291e-05 -0.4926445555 0.6894599426
470297180.0 0.056580045 -0.1022621333 -0.0001429756 -7.47081e-05 0.0001950383 0.0002165303 -0.4853107325 0.6945670836
475297150.0 0.0550524086 -0.1034964193 1.27608e-05 0.0002709567 0.0001726306 0.0001244462 -0.4783376287 0.6985875015
480297120.0 0.0536650835 -0.1038058585 -6.35679e-05 8.10401e-05 0.0001953093 -6.23172e-05 -0.4704434418 0.7041079939
485297090.0 0.0520476607 -0.1044685544 0.0001420639 -0.0001888878 4.87844e-05 4.28235e-05 -0.4636835386 0.7088054971
490297060.0 0.0501863204 -0.1051729896 8.2781e-05 0.0002586612 0.0001049147 0.0001923984 -0.456328491 0.7131597757
495297030.0 0.0486779829 -0.1058253605 1.41998e-05 -5.6565e-05 -4.36771e-05 -6.3716e-05 -0.4492212635 0.7184332183
500297000.0 0.047337463 -0.1063791726 0.0001821326 -0.0002066588 0.0001649978 7.88705e-05 -0.4416254772 0.7232219906
505296970.0 0.0457899382 -0.1070248134 0.000181701 -0.0002781414 0.0001264488 -2.62445e-05 -0.4342940302 0.7269783361
510296940.0 0.0439254787 -0.1075388062 -4.01332e-05 9.761e-06 2.9591e-06 0.0001088654 -0.4264403088 0.7312553315
515296910.0 0.0425762821 -0.1082869152 0.0003540744 0.000162712 4.09763e-05 0.0002547843 -0.4196144948 0.7356934282
520296880.0 0.0405167178 -0.1086857509 0.0004637384 -5.32477e-05 0.0003129729 -1.93085e-05 -0.4117939113 0.7393166914
525296850.0 0.0390689202 -0.109566599 0.0001969637 -5.21377e-05 -1.20564e-05 8.51838e-05 -0.4048740294 0.7436244176
530296820.0 0.0372832572 -0.109630948 0.0001280147 4.26e-07 7.16434e-05 1.11569e-05 -0.3971322127 0.7478525418
535296790.0 0.0359537711 -0.1099411003 -6.35183e-05 -3.44643e-05 8.3539e-05 2.06395e-05 -0.3898522002 0.7514146631
540296760.0 0.0338567562 -0.1104242023 0.000182937 2.1539e-05 4.57274e-05 0.0003135561 -0.3813896711 0.7558300144
545296730.0 0.0322369741 -0.1108687585 0.000210356 7.4286e-05 8.93099e-05 -0.0001578753 -0.3738111623 0.7589934492
550296700.0 0.0310861426 -0.1112620301 -5.74264e-05 -7.18967e-05 0.0001712154 8.04614e-05 -0.3660201287 0.7627926467
555296670.0 0.0290728311 -0.1114794108 6.73898e-05 0.0001144892 0.0001474212 0.000151609 -0.3579768392 0.7667935193
560296640.0 0.0275394335 -0.1119751718 0.0002395669 -0.000281668 0.0001250906 9.32421e-05 -0.350402423 0.7709769604
565296610.0 0.0257348746 -0.112165404 0.0001134369 2.0785e-06 0.0001750714 -5.10879e-05 -0.3425843934 0.7733851103
570296580.0 0.0240102867 -0.1126114451 0.000276917 0.000160218 3.9892e-06 6.37374e-05 -0.3351953216 0.7775176246
575296550.0 0.0223805444 -0.1127083138 0.000143937 0.0002329497 5.57899e-05 -9.15806e-05 -0.3272558651 0.7804604981
580296520.0 0.0207374132 -0.1128714979 0.0002672396 9.73629e-05 0.0001350493 -0.0001210724 -0.3185177489 0.7838985932
585296490.0 0.0190308083 -0.113296382 0.0001422659 0.0001339618 1.69614e-05 2.16153e-05 -0.3108302688 0.7867845464
590296460.0 0.0175479361 -0.1132278124 -2.76826e-05 0.0001333302 3.5829e-05 -0.0001235808 -0.3030467962 0.7900043746
595296430.0 0.0156058231 -0.1133828289 0.0002229461 0.0001931982 6.1396e-05 5.28313e-05 -0.2951136699 0.7923125906
600296400.0 0.0138484471 -0.1135769026 0.0002150054 -3.49822e-05 0.0001065464 5.53602e-05 -0.2869357947 0.7952978875
605296370.0 0.0123456083 -0.1136809153 0.0002036888 -2.32458e-05 4.02803e-05 -0.0001127133 -0.2786604965 0.7989382588
610296340.0 0.0105563518 -0.1141989361 0.0003624095 -7.12264e-05 0.000116094 5.64916e-05 -0.2706972213 0.8011490381
615296310.0 0.008854445 -0.1139330707 -1.0744e-06 -2.57783e-05 7.26987e-05 -2.18434e-05 -0.262419443 0.8037260391
620296280.0 0.0073052708 -0.1141168838 0.0001769607 -1.70444e-05 1.92799e-05 -6.57396e-05 -0.2546662321 0.8068482456
625296250.0 0.005636996 -0.1138806928 0.0002778772 6.84244e-05 -2.62397e-05 0.0003245637 -0.245654409 0.8086428412
630296220.0 0.0041789388 -0.1140775482 9.35326e-05 8.91e-05 0.0003805327 -3.11289e-05 -0.2378415354 0.8113602201
635296190.0 0.0021930377 -0.1138467758 0.0001830385 0.0001905235 8.29679e-05 -2.07896e-05 -0.2297792465 0.8134918074
640296160.0 0.0006608457 -0.1138447156 3.2479e-05 -2.92835e-05 3.42444e-05 -5.99743e-05 -0.2214185854 0.8160032495
645296130.0 -0.0009265586 -0.1135479332 3.34697e-05 -1.77702e-05 0.0002433155 1.9939e-06 -0.2136201138 0.8182016487
650296100.0 -0.0027878014 -0.1135033484 0.0003156454 -0.0001111876 2.89375e-05 9.44084e-05 -0.2052417609 0.8197114968
655296070.0 -0.0043668439 -0.1134323591 0.000326253 6.96035e-05 -9.33818e-05 -2.041e-06 -0.1966716107 0.8215504211
660296040.0 -0.0064020922 -0.1135021088 0.0002905282 0.000103864 -4.55082e-05 -7.2747e-06 -0.1882373687 0.8240369869
665296010.0 -0.007664971 -0.1137778657 3.78661e-05 -0.0002043597 0.0002114516 -5.39254e-05 -0.1798282595 0.826005568
670295980.0 -0.0096952048 -0.1128449514 0.0001828316 5.0513e-05 0.0001495793 -0.0001006814 -0.1727346603 0.8272480792
675295950.0 -0.0111795592 -0.1125577777 0.0002630317 0.0002932274 -0.0001891089 1.76952e-05 -0.1644102415 0.8292409724
680295920.0 -0.0128600179 -0.1122574149 -7.543e-06 -3.84689e-05 -1.2034e-06 -6.67155e-05 -0.1556575493 0.8315769027
685295890.0 -0.0142440668 -0.1118989121 0.0003939773 0.0001257399 0.0003308709 -4.43796e-05 -0.146525089 0.8320234295
690295860.0 -0.0158526619 -0.1119931691 1.40774e-05 -2.27657e-05 0.000136529 8.15304e-05 -0.1388506193 0.8341181563
695295830.0 -0.0176386375 -0.1112611607 0.0002395041 -5.7549e-06 0.0001009048 -0.0001405915 -0.129941694 0.8348736751
700295800.0 -0.0194755584 -0.1113727068 -6.69458e-05 3.32417e-05 0.0004034894 -0.0001741147 -0.122428194 0.8364158413
705295770.0 -0.0212690224 -0.1108268863 0.0001727057 -3.11606e-05 8.95114e-05 -0.0001143089 -0.1140292612 0.8381192521
710295740.0 -0.0226488625 -0.1098834419 2.8465e-06 -3.7676e-05 0.000147885 0.0001375028 -0.1050738418 0.8382925242
715295710.0 -0.0242940252 -0.1101646268 0.0004275065 -2.54e-05 0.0001589871 -0.0002291925 -0.0968073358 0.8393128593
720295680.0 -0.0259311616 -0.1094904149 0.0002121948 -3.60441e-05 0.0001366909 -9.4795e-06 -0.0880657383 0.8408877138
725295650.0 -0.0274745846 -0.1088713689 2.00948e-05 -8.32829e-05 0.0001852133 -6.9385e-05 -0.0809021625 0.8417613749
730295620.0 -0.0291111603 -0.1085941915 0.0002002406 0.0001156372 5.13112e-05 -5.32639e-05 -0.0726646595 0.8423799338
735295590.0 -0.0306786734 -0.1079013698 0.0001608273 -3.47645e-05 1.38937e-05 2.13561e-05 -0.0634957179 0.84233655
740295560.0 -0.0323870426 -0.1077077194 -9.9629e-06 -9.33619e-05 -6.2795e-06 -8.10038e-05 -0.0546060775 0.8439668928
745295530.0 -0.0340385754 -0.1070007401 0.0001465582 -9.83342e-05 0.0001761388 4.78427e-05 -0.0463270807 0.8437638459
750295500.0 -0.0355936114 -0.1065427869 6.08332e-05 -5.5116e-06 0.0001490549 -0.0001758495 -0.0383981136 0.8444528568
755295470.0 -0.0374216588 -0.1058286701 0.0003256099 -3.3463e-05 0.0003312181 4.58207e-05 -0.0295159365 0.8438966589
760295440.0 -0.0387945673 -0.1053915819 0.00030311 -5.90435e-05 0.0001200334 7.14716e-05 -0.0211241277 0.8445868629
765295410.0 -0.040258463 -0.1045183571 0.0002107364 4.99671e-05 6.48395e-05 -9.8604e-05 -0.012696088 0.8451479336
770295380.0 -0.0417539003 -0.1040622658 8.56999e-05 -3.82045e-05 -3.81548e-05 -0.000152172 -0.0045410647 0.8446485707
775295350.0 -0.0437518199 -0.1034744548 0.0002997741 -0.000372885 0.0003892939 0.0002478444 0.003439812 0.8445678922
780295320.0 -0.0449951202 -0.1025068727 9.28287e-05 -0.0001350673 4.6912e-06 0.000138194 0.0117855295 0.8446306022
785295290.0 -0.0465769687 -0.1021322117 -9.14486e-05 -0.0002496814 0.0001539413 -1.82161e-05 0.0211603113 0.8443241114
790295260.0 -0.0479369545 -0.1011159918 0.000234664 -2.94734e-05 -4.77294e-05 3.66823e-05 0.0298862178 0.8446879717
795295230.0 -0.0495478575 -0.1005510922 0.0001031209 0.0002204291 0.0003052803 1.21525e-05 0.038207206 0.8434796083
800295200.0 -0.050940137 -0.099563604 0.0001703935 0.0001859846 0.0001647542 -3.8585e-06 0.0469048783 0.8433620409
805295170.0 -0.0522529399 -0.0991345576 0.000104499 3.8629e-06 0.0002379965 -0.0001117988 0.0548035272 0.8431426298
810295140.0 -0.0535578287 -0.0980750182 1.47663e-05 7.95583e-05 0.0001559121 0.0001878109 0.0631381447 0.8422985197
815295110.0 -0.0552966478 -0.0974471999 7.4906e-06 5.14232e-05 0.0002755283 -0.0001323829 0.0719068345 0.8415725557
820295080.0 -0.0567368493 -0.0964936491 0.0002025811 -0.0002472453 0.0001428985 -0.0001068941 0.0800310458 0.8409667597
825295050.0 -0.0580040616 -0.0957030016 5.3812e-05 -6.80693e-05 6.93597e-05 -1.06116e-05 0.0880458393 0.8404827349
830295020.0 -0.0594793755 -0.0948391577 8.89712e-05 -0.0003701804 0.0001690953 9.1693e-06 0.0977523099 0.8392143192
835294990.0 -0.0611239686 -0.0937074277 4.68254e-05 -8.93907e-05 0.0001320396 0.000221343 0.1049302964 0.8383395837
840294960.0 -0.0624849711 -0.0929955462 0.0002147607 4.7967e-06 0.0002620269 -5.99558e-05 0.1135089261 0.837078423
845294930.0 -0.0638651445 -0.0917675255 0.0001039646 -0.0001075571 0.0001302425 -3.06645e-05 0.1212876584 0.8359986341
850294900.0 -0.0649768692 -0.0907210403 0.0002099527 3.90495e-05 0.000160573 -0.0001095434 0.1300297617 0.8347281169
