!Created with skrf (http://scikit-rf.org).
# Hz S RI R 50.0 
!freq ReS11 ImS11 ReS21 ImS21 ReS12 ImS12 ReS22 ImS22
300000.0 -0.2363516188 -0.1175820295 0.4670371894 0.0766040443 0.4656785714 0.0780424941 -0.2363466831 -0.1237063513
5299970.0 -0.2451222146 0.0056267877 0.4736402038 0.0055995241 0.4741421342 0.0060087319 -0.2437301554 0.0052496437
10299940.0 -0.2416458048 0.0184627645 0.4759118555 0.0072598565 0.4759519039 0.0070777524 -0.2402354291 0.0180078424
15299910.0 -0.2366629199 0.0284102446 0.479405338 0.0082848219 0.4796371328 0.0082582473 -0.2362198493 0.0274175974
20299880.0 -0.2316526944 0.0363749468 0.4840660379 0.00829738 0.484413883 0.0084901621 -0.2312016094 0.0352356874
25299850.0 -0.2256372401 0.0429269954 0.4895259478 0.0077704305 0.4898306481 0.0078790207 -0.2260885232 0.0417565112
30299820.0 -0.2204096252 0.0477354657 0.4951428326 0.005561589 0.4951023198 0.0055041414 -0.2207207707 0.0471530424
35299790.0 -0.2142804302 0.0517217248 0.4999468354 0.0025269526 0.5005559515 0.0021418547 -0.2157072399 0.0515270667
40299760.0 -0.2090690492 0.0546587218 0.5054410857 -0.0015743147 0.5054574133 -0.0016395433 -0.2106678654 0.0546890763
45299730.0 -0.2039700548 0.0570826208 0.5101604055 -0.0060563501 0.5104696762 -0.006244739 -0.2056893339 0.0573842698
50299700.0 -0.1990479403 0.0588207294 0.5142614856 -0.0119022719 0.5146779786 -0.0122620199 -0.2012869697 0.060239326
55299670.0 -0.19517978 0.0605713707 0.5181206856 -0.0174519145 0.518411349 -0.0178081809 -0.1975490311 0.0619681478
60299640.0 -0.1911261634 0.0617770998 0.521768751 -0.0239478265 0.5218880111 -0.0242695479 -0.1936860616 0.0634693476
65299610.0 -0.1872364275 0.0626102593 0.524577275 -0.0299359964 0.5246193431 -0.0305479008 -0.1900759729 0.0649173064
70299580.0 -0.1838509568 0.0630783416 0.52670982 -0.0368943135 0.5273386597 -0.0368921064 -0.1872575547 0.065999708
75299550.0 -0.1809568094 0.0637187579 0.5289025633 -0.0440885678 0.5291133561 -0.0438764155 -0.1841214763 0.067069818
80299520.0 -0.1785395513 0.0645458862 0.5313819963 -0.0507919163 0.5311073358 -0.0511358063 -0.1815876879 0.0680656683
85299490.0 -0.1756338531 0.0648315447 0.5320876317 -0.0578503823 0.5325238677 -0.0573130054 -0.1792500143 0.068588623
90299460.0 -0.173534414 0.0654911943 0.5332884373 -0.0645975594 0.5331837449 -0.0643838007 -0.17676421 0.0696843407
95299430.0 -0.1714451292 0.0658465306 0.5338763353 -0.0716149741 0.5344069775 -0.072047961 -0.1744810859 0.0707674703
100299400.0 -0.1691992141 0.0661687649 0.5345926281 -0.0783782032 0.534382547 -0.0782951394 -0.1733144767 0.0714946925
105299370.0 -0.1674741398 0.0664985556 0.534751169 -0.0852375814 0.5353963044 -0.0856368768 -0.1708706951 0.0720893652
110299340.0 -0.1659595211 0.0667307976 0.5349399108 -0.0915989716 0.5355921345 -0.0919551994 -0.169667282 0.0729938427
115299310.0 -0.1644946814 0.0675480769 0.5348784295 -0.098426405 0.535319616 -0.0988176516 -0.1681526777 0.074336343
120299280.0 -0.1630580467 0.0682641848 0.5349646746 -0.1060530868 0.5350106844 -0.1061118703 -0.1669130549 0.0747135526
125299250.0 -0.1619808137 0.0686121589 0.5343267494 -0.1124210648 0.5346518437 -0.1124232468 -0.1651391919 0.0760767971
130299220.0 -0.1606757714 0.0688492604 0.5341497324 -0.1192042568 0.5339114209 -0.1197829635 -0.1640399185 0.0771578667
135299190.0 -0.1597563613 0.0700419479 0.5336770659 -0.1254798556 0.5336653235 -0.1260116962 -0.1628994764 0.0777532555
140299160.0 -0.1587037173 0.0707579239 0.5330456186 -0.1328352588 0.5329708017 -0.1323530949 -0.162377755 0.0787710674
145299130.0 -0.1578240481 0.0717373831 0.5318624137 -0.1391154855 0.5317907433 -0.1393414193 -0.1609206769 0.0799888852
150299100.0 -0.1565227435 0.0725636503 0.5306485717 -0.1458442825 0.5304454662 -0.1454263803 -0.1600329751 0.081189284
155299070.0 -0.1557015518 0.0736367112 0.5290521612 -0.1520345607 0.5295825373 -0.1522192405 -0.1588449987 0.0821787235
160299040.0 -0.1548323156 0.0742904684 0.5278474921 -0.1589480523 0.5281375962 -0.1587586402 -0.1578923365 0.0835525043
165299010.0 -0.1540195493 0.0752788085 0.526595683 -0.1650512026 0.5262769576 -0.1650815914 -0.1566858974 0.0844562888
170298980.0 -0.1527991962 0.0763604184 0.5246563207 -0.1718088817 0.5252295361 -0.171470427 -0.156078768 0.0856638087
175298950.0 -0.1522950908 0.0771989164 0.5234664687 -0.1776378857 0.5238427047 -0.1781456672 -0.155024602 0.0871187344
180298920.0 -0.151557442 0.0783702381 0.5217649143 -0.1840660227 0.5217954986 -0.1841609914 -0.1541165368 0.0883891155
185298890.0 -0.1509734534 0.0795298256 0.5202621149 -0.1902998854 0.5200005028 -0.1905089392 -0.1528783171 0.0898101046
190298860.0 -0.149823416 0.0810265225 0.5172969246 -0.1963705426 0.518154076 -0.196495789 -0.1519751189 0.0909359163
195298830.0 -0.1493170285 0.0818165165 0.5161131202 -0.2024729171 0.5165696592 -0.2027170702 -0.1514604636 0.0922596588
200298800.0 -0.1480845106 0.0826027046 0.514087709 -0.2091357146 0.5140969061 -0.2090365541 -0.1499307027 0.0934601605
205298770.0 -0.1479596641 0.0836889491 0.5115654463 -0.2144930925 0.5118424642 -0.2143347392 -0.1490066673 0.0951171147
210298740.0 -0.1471303833 0.0854976534 0.5097790585 -0.2205767478 0.5091718738 -0.2208576087 -0.1487115092 0.0961527054
215298710.0 -0.1462399502 0.0868706833 0.5067623844 -0.226514143 0.50720083 -0.2268982783 -0.1473835865 0.0977548965
220298680.0 -0.1451980984 0.0880145309 0.5047472122 -0.2324836848 0.5044826118 -0.2325397917 -0.1464035711 0.0989122347
225298650.0 -0.1444879208 0.0890503433 0.5018493876 -0.2382495711 0.5021903558 -0.2381630072 -0.1455906692 0.1003195319
230298620.0 -0.1436268761 0.0904028498 0.4995455217 -0.2443111695 0.499957025 -0.2445126819 -0.1449526626 0.1016918805
235298590.0 -0.1432736442 0.0917980175 0.4973124089 -0.2502775734 0.4971351597 -0.2501879882 -0.143643921 0.1031638997
240298560.0 -0.1420996685 0.0932986856 0.4943836056 -0.2558683324 0.4941246567 -0.2558881774 -0.1424991428 0.1046215214
245298530.0 -0.1416817425 0.0943072173 0.4917942842 -0.2615019003 0.4917919795 -0.2616613314 -0.1415766669 0.1060940051
250298500.0 -0.1408595892 0.0954786183 0.4888811357 -0.2667115514 0.4893349745 -0.2668322107 -0.1404243644 0.1077809309
255298470.0 -0.1396500533 0.0972224736 0.4858388892 -0.2724308741 0.4864494941 -0.2725705369 -0.1393987529 0.1092630112
260298440.0 -0.1391067165 0.0983349601 0.4826748188 -0.277690658 0.4834500059 -0.2777372385 -0.1385627285 0.1102327335
265298410.0 -0.1385789117 0.0996274315 0.4801087591 -0.28396682 0.4799420519 -0.2840917273 -0.136598848 0.1115685204
270298380.0 -0.1376539293 0.1007328964 0.4768661037 -0.2889639279 0.4772799177 -0.2892112351 -0.1358399258 0.1134276835
275298350.0 -0.1366724427 0.1025036494 0.4730329162 -0.2943454908 0.4736992008 -0.2944318532 -0.1349170412 0.1148965097
280298320.0 -0.1360273217 0.1037012438 0.4705783497 -0.2996020233 0.4708715182 -0.299954989 -0.1334339753 0.1165429339
285298290.0 -0.1351026177 0.1049388522 0.4670902464 -0.3047743616 0.4676976011 -0.3050875547 -0.1325241527 0.1179665209
290298260.0 -0.1340791614 0.1064744547 0.4643458338 -0.3104157288 0.4641070008 -0.310553972 -0.1313917885 0.1191228051
295298230.0 -0.1334535261 0.1072508471 0.4604303383 -0.3157317963 0.4606783941 -0.3158083079 -0.1302272947 0.12023896
300298200.0 -0.1323226467 0.1091951571 0.457633554 -0.3211494241 0.4574769419 -0.3209132147 -0.128725587 0.1218427889
305298170.0 -0.1314833219 0.1101620609 0.4540631036 -0.3264327664 0.4540823753 -0.3264264629 -0.1274505032 0.1230797859
310298140.0 -0.1301238744 0.1111395155 0.4503272497 -0.3312732121 0.4507370009 -0.3312403304 -0.1261027089 0.1244396464
315298110.0 -0.1296679638 0.1122818605 0.4468781102 -0.3369056832 0.4470243028 -0.3372248145 -0.1247396457 0.1258769562
320298080.0 -0.1286442585 0.1134826565 0.4422467155 -0.3419853999 0.4434856193 -0.342053844 -0.1234308521 0.127100203
325298050.0 -0.1280018604 0.114382017 0.438867957 -0.346978215 0.4394534321 -0.3466731042 -0.1222734741 0.1281900524
330298020.0 -0.1274544014 0.1160082501 0.4348853892 -0.3517576932 0.4357599309 -0.3523248714 -0.1214691541 0.1297557628
335297990.0 -0.1264946113 0.1171220885 0.4313243058 -0.3566317393 0.431671142 -0.3569446889 -0.1199065529 0.1311103331
340297960.0 -0.1258240365 0.1184832922 0.4267917105 -0.3617801528 0.4266246749 -0.3615944835 -0.1186843877 0.1327272044
345297930.0 -0.1248526272 0.1197929268 0.4230533802 -0.3666851382 0.4231119846 -0.3665970722 -0.1172719563 0.1340741351
350297900.0 -0.1240108 0.1211896862 0.4192076365 -0.3702654206 0.419188114 -0.3710642442 -0.1160719312 0.1350089096
355297870.0 -0.1234321566 0.1225133556 0.4147545462 -0.3750609686 0.4146803163 -0.3751286825 -0.1145030502 0.1366939632
360297840.0 -0.1220649009 0.123820808 0.4105782132 -0.379859463 0.4109495888 -0.3802122352 -0.113357581 0.1382514527
365297810.0 -0.121085679 0.1252261438 0.40637938 -0.3844235135 0.406701562 -0.3843890667 -0.1124751668 0.1392879949
370297780.0 -0.1199025476 0.1264148789 0.4020249776 -0.3892364831 0.402485492 -0.3886425699 -0.1106790404 0.1404887682
375297750.0 -0.1189282977 0.127667027 0.3980514883 -0.3931390205 0.3979293241 -0.3935831722 -0.1088105974 0.1419913866
380297720.0 -0.1180831853 0.128985453 0.3941473541 -0.397818632 0.3934692565 -0.3977169006 -0.1074793641 0.1435305341
385297690.0 -0.1168913416 0.1301710396 0.3889670478 -0.4018216627 0.3894706415 -0.402478554 -0.1060934426 0.1450824344
390297660.0 -0.1156085027 0.1313715694 0.3844867121 -0.4058405442 0.3849060737 -0.4059892239 -0.1043964341 0.1458843191
395297630.0 -0.1144072276 0.1326332843 0.3803814778 -0.4097640327 0.3801983869 -0.4100900607 -0.1025715225 0.147279639
400297600.0 -0.1134763875 0.1338062961 0.3758301639 -0.414411669 0.3763540797 -0.4144884462 -0.1011866396 0.1488661951
405297570.0 -0.1122016353 0.1347452084 0.3712061483 -0.4183573581 0.3713965922 -0.4185243802 -0.099473882 0.1501631618
410297540.0 -0.1109083431 0.1363106702 0.3667157772 -0.4229426336 0.3668986422 -0.4225101738 -0.0981299302 0.1515110564
415297510.0 -0.110193279 0.1374355034 0.3622673758 -0.4265700126 0.3624508212 -0.4268313901 -0.0962123605 0.1523579027
420297480.0 -0.1086035668 0.1381558185 0.3573330592 -0.430683835 0.3578089726 -0.4310027357 -0.0942403608 0.1541545315
425297450.0 -0.1069970251 0.1397440119 0.3524202168 -0.4346736125 0.3523424824 -0.4343081988 -0.0925921536 0.1546977767
430297420.0 -0.1064073172 0.1405560127 0.3485844142 -0.438095208 0.3481633944 -0.4382170757 -0.0907860738 0.1565225214
435297390.0 -0.1048368702 0.1416474029 0.3431819232 -0.4425192529 0.343364024 -0.4420209838 -0.0896882541 0.1578024168
440297360.0 -0.1032860306 0.142545198 0.3381138517 -0.4459235539 0.3381555411 -0.4459963384 -0.0876439714 0.1587922018
445297330.0 -0.1019366684 0.1435950235 0.333336788 -0.4489809304 0.3333813289 -0.4497515926 -0.0858661767 0.1598535376
450297300.0 -0.1007492103 0.1447967403 0.3284844874 -0.4527642182 0.3287564736 -0.4528283243 -0.084226548 0.1609608516
455297270.0 -0.0995910983 0.1455928475 0.3238495642 -0.4562901623 0.3234906999 -0.4570894341 -0.0822007995 0.1622185668
460297240.0 -0.0977895334 0.1469876701 0.3184150223 -0.4606945846 0.3187762226 -0.4605502658 -0.0805977117 0.1628755132
465297210.0 -0.096382105 0.1480453226 0.3131107327 -0.4639518439 0.3129481248 -0.4641720038 -0.0784022766 0.1645422744
470297180.0 -0.0950789763 0.1487269371 0.3082707053 -0.4667570719 0.3085619893 -0.4669702572 -0.0765359952 0.1649689331
475297150.0 -0.0938490292 0.1500843849 0.3032453011 -0.4703530009 0.303393792 -0.4705737402 -0.0749256061 0.1661709825
480297120.0 -0.0919002011 0.1511364928 0.2978895235 -0.4737436433 0.2982628187 -0.4736165111 -0.0731917779 0.1670349468
485297090.0 -0.0906625248 0.1517592222 0.2928136936 -0.4768820195 0.2927993228 -0.4769675254 -0.071362348 0.1681962471
490297060.0 -0.0882948596 0.1530486992 0.2866298428 -0.4802459923 0.2876538324 -0.4803826324 -0.0695909773 0.1685158932
495297030.0 -0.0876120514 0.1537731179 0.2824687245 -0.4832203729 0.2823251628 -0.4832278524 -0.0673338737 0.1697614173
500297000.0 -0.086235695 0.1549038552 0.2770733655 -0.4860340285 0.2772234622 -0.486495567 -0.0655883875 0.1709321895
505296970.0 -0.0841195872 0.1557738698 0.2719304654 -0.4890914234 0.2717614637 -0.4889617934 -0.0635798972 0.1712899685
510296940.0 -0.082843159 0.1566272772 0.2669195183 -0.4925854535 0.2662640818 -0.4927366078 -0.0612403787 0.1724733744
515296910.0 -0.081223815 0.15785829 0.2607593823 -0.4949238244 0.2606653774 -0.4949973706 -0.0599072205 0.1730813184
520296880.0 -0.0796075761 0.1586044633 0.2553311155 -0.4975537701 0.2552414831 -0.4976075478 -0.0573214681 0.1741642876
525296850.0 -0.0778360401 0.1592676379 0.2498093421 -0.5003696281 0.2497593225 -0.500280283 -0.055786087 0.1744428771
530296820.0 -0.0765939601 0.1604006026 0.2444272367 -0.5031301655 0.2444953723 -0.5031055873 -0.0534148656 0.1752538624
535296790.0 -0.0741963138 0.1612952615 0.2389880533 -0.5054859014 0.2392590034 -0.5057948877 -0.0512879431 0.176465915
540296760.0 -0.0730618737 0.1623544322 0.2331430529 -0.5084096166 0.2331220881 -0.5081565968 -0.0497179966 0.1765800013
545296730.0 -0.0716942807 0.1634971854 0.2280574092 -0.510438877 0.2277689359 -0.5105794913 -0.0475478364 0.177649031
550296700.0 -0.0693594063 0.1638237261 0.2221679559 -0.5129689428 0.2221957144 -0.5133738997 -0.045484887 0.1780949951
555296670.0 -0.0679990814 0.165011825 0.2165124693 -0.5157260621 0.2167808659 -0.5152290147 -0.0438218066 0.1781555927
560296640.0 -0.0659059001 0.1654459253 0.2107394849 -0.5177184979 0.2113292937 -0.5177387854 -0.0415424963 0.1795941598
565296610.0 -0.064923533 0.1663054358 0.2056342197 -0.5201634135 0.2057122715 -0.5200035825 -0.0394356399 0.1803328309
570296580.0 -0.0629842366 0.16738303 0.1999217218 -0.5218939423 0.2000220676 -0.5223367472 -0.0376763545 0.1804165556
575296550.0 -0.0611880892 0.1678792355 0.1945306525 -0.5243501143 0.1940837045 -0.5243518152 -0.0354290677 0.1809464288
580296520.0 -0.059346118 0.1690482268 0.1887624313 -0.5266474392 0.1884370187 -0.526424451 -0.0338490052 0.1813184809
585296490.0 -0.0577039877 0.1697614728 0.1833613603 -0.5285821473 0.182371908 -0.5283658903 -0.0310653849 0.1822170015
590296460.0 -0.0554974221 0.1703471637 0.1770104639 -0.5303179298 0.1767772682 -0.5310020556 -0.0295292612 0.1827439751
595296430.0 -0.0539816636 0.1713744872 0.1706589407 -0.5324400719 0.1707773701 -0.5322489234 -0.0274566678 0.1826518002
600296400.0 -0.0521273391 0.1720507226 0.1653406236 -0.5339694403 0.1650644695 -0.5337430486 -0.0253222809 0.1831188609
605296370.0 -0.0509297641 0.1727652658 0.1600568535 -0.5354502885 0.1590320683 -0.5357705127 -0.0231860608 0.183892141
610296340.0 -0.0487329484 0.1738599202 0.1537913114 -0.5371011161 0.1539787791 -0.5371450795 -0.0216706002 0.1843720447
615296310.0 -0.046465683 0.174134024 0.1475928727 -0.5391958154 0.1476819461 -0.5390525316 -0.0191098637 0.1846683192
620296280.0 -0.0453698147 0.1752702376 0.1416132382 -0.5406141393 0.1414814434 -0.5403592848 -0.0172367395 0.1851457672
625296250.0 -0.0438513435 0.1755579813 0.1362433979 -0.5416525811 0.1357798561 -0.5422038055 -0.0152002763 0.1851838912
630296220.0 -0.0419417199 0.1764198558 0.1300638972 -0.5433497333 0.1298191465 -0.5430486059 -0.0128123183 0.1856291587
635296190.0 -0.0402823413 0.1771543614 0.1247050567 -0.5446820095 0.1241953093 -0.5445352589 -0.0109681768 0.185923409
640296160.0 -0.0383678065 0.1774846935 0.1182640162 -0.5461245062 0.1181810814 -0.5461336354 -0.0090002228 0.186054554
645296130.0 -0.036367838 0.1785644784 0.1126374569 -0.5472202468 0.1123175606 -0.5470772614 -0.0070252903 0.1859864157
650296100.0 -0.0346372539 0.1790236912 0.1069526607 -0.5484841312 0.1061519332 -0.5485900565 -0.0042156422 0.1862490586
655296070.0 -0.0330983248 0.1794507115 0.1002510359 -0.5494876394 0.1003931416 -0.5494121206 -0.0029784309 0.1867783706
660296040.0 -0.0312650189 0.1803164883 0.0947421694 -0.5501174926 0.0944101497 -0.5507377396 -0.0007217891 0.1864882176
665296010.0 -0.0295224698 0.1810642968 0.0882507416 -0.551357493 0.0883480168 -0.5511780856 0.0015125272 0.1866946956
670295980.0 -0.0280321738 0.1813892134 0.0826755932 -0.5522170425 0.0822215355 -0.5518362819 0.0030377965 0.1868974769
675295950.0 -0.0258349277 0.181876963 0.076448752 -0.5527983094 0.0767170545 -0.5531239201 0.0052305162 0.1872860865
680295920.0 -0.0245487754 0.1826086337 0.0707181006 -0.5535904503 0.0708550727 -0.5537216989 0.0077166015 0.1867906178
685295890.0 -0.0223537705 0.1830779781 0.0646658062 -0.5547128402 0.0645452282 -0.5545800004 0.009724805 0.1875926791
690295860.0 -0.0207303328 0.1833839817 0.0588360734 -0.5553396732 0.058411589 -0.5553491256 0.0117818362 0.1872522751
695295830.0 -0.0188315093 0.1837770769 0.0532665683 -0.5559847362 0.0528057579 -0.5555841165 0.0136043987 0.1877440112
700295800.0 -0.0168872189 0.1845209117 0.0469880772 -0.5559198158 0.0467297224 -0.5563078254 0.0159913984 0.1873857639
705295770.0 -0.0152930536 0.1849727936 0.0407336871 -0.5569949563 0.0408850543 -0.5562747244 0.0179462473 0.1873965327
710295740.0 -0.013724898 0.1852287864 0.0350217129 -0.5572219755 0.0345845275 -0.557119524 0.0201151902 0.1875526786
715295710.0 -0.0118318452 0.1856677131 0.0290393926 -0.5575587574 0.0287106405 -0.5575692286 0.0220449094 0.1872768862
720295680.0 -0.0098312984 0.1863343977 0.0225842788 -0.5575747693 0.0225928847 -0.5578701716 0.0240447341 0.1871272142
725295650.0 -0.008686842 0.186555203 0.017088121 -0.5577357268 0.016829785 -0.5579988189 0.0259045607 0.1873274009
730295620.0 -0.0074913493 0.1867213926 0.011024529 -0.5576598931 0.0106093568 -0.5575258799 0.0279411612 0.1875909389
735295590.0 -0.0050023648 0.1871969702 0.0045589111 -0.5581768435 0.0048331438 -0.5578238264 0.0301125072 0.1866514025
740295560.0 -0.0034672991 0.1871090632 -0.0009759535 -0.5579581486 -0.0011353906 -0.5583278753 0.0321336906 0.1870123689
745295530.0 -0.0015334259 0.1878390635 -0.0071811261 -0.5572946988 -0.0067149963 -0.5577978398 0.0338635833 0.1868078933
750295500.0 3.5314e-06 0.1880387924 -0.0130665768 -0.5577382242 -0.0132897187 -0.5579054525 0.0360917644 0.1864740816
755295470.0 0.0016473392 0.1884511887 -0.0185290405 -0.5576835318 -0.0189967129 -0.5580332729 0.0384608342 0.1865942088
760295440.0 0.0035077731 0.1888578593 -0.025610883 -0.5572251131 -0.0252494626 -0.557169295 0.0403765495 0.1854824271
765295410.0 0.0053892094 0.1887802798 -0.0309387342 -0.5568365252 -0.0310058481 -0.5568154698 0.0421661552 0.1858797262
770295380.0 0.0068878384 0.1891444147 -0.036798955 -0.5564408279 -0.0371215424 -0.5571776357 0.0441469584 0.1855268494
775295350.0 0.0085852393 0.189223383 -0.0425888221 -0.5562502543 -0.0429494535 -0.5558974012 0.0466142826 0.1848366922
780295320.0 0.0102491376 0.1893776889 -0.0485161451 -0.5553216675 -0.048874841 -0.5555136831 0.048659825 0.1846852551
785295290.0 0.0122068173 0.189315953 -0.0548919459 -0.5551194113 -0.0545952155 -0.5552559129 0.0498759937 0.1846368344
790295260.0 0.0139758291 0.1892816532 -0.0605178851 -0.554471507 -0.0602827289 -0.5548931228 0.0519816059 0.184402291
795295230.0 0.0153658556 0.1894222539 -0.0664276767 -0.5537110705 -0.0666316646 -0.5536995263 0.0542740727 0.1830240175
800295200.0 0.016969861 0.1896148634 -0.0718311779 -0.5530168998 -0.0727832825 -0.5528007954 0.0561887257 0.1831134115
805295170.0 0.0186766676 0.1897148416 -0.0785666011 -0.5520037776 -0.0784368154 -0.5523487325 0.0587456206 0.1826815397
810295140.0 0.0208916812 0.1896901344 -0.0844446189 -0.5508240212 -0.0845552426 -0.5511634902 0.0606668779 0.1821335996
815295110.0 0.0221067692 0.1896597573 -0.0896992061 -0.5499853126 -0.0902474181 -0.5502947142 0.0621740601 0.1817050483
820295080.0 0.0240929029 0.1895128337 -0.0956238972 -0.5489031076 -0.0958063927 -0.5490423515 0.0636356806 0.1818043721
825295050.0 0.025968086 0.1894695341 -0.1022263883 -0.5480837241 -0.102211579 -0.5479145099 0.0665513583 0.1811122423
830295020.0 0.0276280803 0.1893574592 -0.1075214067 -0.5467933974 -0.1080164225 -0.5473093654 0.0681220119 0.1799223893
