!Created with skrf (http://scikit-rf.org).
# Hz S RI R 50.0 
!freq ReS11 ImS11 ReS21 ImS21 ReS12 ImS12 ReS22 ImS22
300000.0 -0.0484587211 -0.0602039027 -0.0013599764 -0.0003974785 0.0002354185 0.001114946 -0.7668136087 -0.1687363651
5299970.0 -0.049050544 0.015816272 0.0001243681 0.0003186577 -8.08471e-05 -8.2421e-06 -0.7845436227 -0.0090987275
10299940.0 -0.0432379185 0.0333495321 -9.39219e-05 -0.000166438 0.0001360488 -4.80144e-05 -0.7881212455 -0.0049590127
15299910.0 -0.0350354892 0.0479692693 -0.0002049931 6.40411e-05 6.70846e-05 0.0001621971 -0.7936431062 -0.002847882
20299880.0 -0.0245482347 0.0597029205 -0.0001271382 -6.1657e-06 -4.13846e-05 0.0001201823 -0.800383058 0.0015955306
25299850.0 -0.0133262613 0.0693000454 3.7127e-06 0.0002553849 0.000106289 2.45146e-05 -0.8064063127 0.0071714512
30299820.0 -0.0013366692 0.075825819 2.75735e-05 -1.26304e-05 0.0001223166 -3.90876e-05 -0.8124975438 0.0149554735
35299790.0 0.0103227764 0.0805111665 -4.88132e-05 0.0002115019 -1.67812e-05 0.0001701528 -0.8177491726 0.0238950981
40299760.0 0.0219486264 0.0831355672 -8.83534e-05 -1.66989e-05 -1.5537e-06 5.94844e-05 -0.821270233 0.0332029577
45299730.0 0.0325176802 0.084667816 -0.000160669 -0.0001712844 -0.0002148828 7.3625e-05 -0.8251096468 0.0420980097
50299700.0 0.0429082564 0.0843120243 7.22348e-05 -9.0671e-06 8.23856e-05 0.0001302515 -0.8273398056 0.0527315385
55299670.0 0.0520139935 0.0832621443 9.21732e-05 -8.09828e-05 6.242e-05 -0.0001316799 -0.829613768 0.0632248255
60299640.0 0.0607190684 0.0812694743 7.35685e-05 -6.93097e-05 -0.0001342322 4.0081e-05 -0.8307987583 0.0731875529
65299610.0 0.0688384749 0.0789049478 0.0001905453 -6.64487e-05 -1.22014e-05 -4.38972e-05 -0.8310174512 0.0829401299
70299580.0 0.0755332098 0.0755422909 0.0001658981 -4.767e-05 -0.0001460717 0.0001566701 -0.8324277328 0.09312369
75299550.0 0.0821288152 0.0722815497 0.00020579 0.0002480675 3.83166e-05 -4.2151e-05 -0.8328438948 0.1025972769
80299520.0 0.0876089348 0.0686601878 -0.0001246813 0.0001419273 0.0001475636 0.000248527 -0.8320302594 0.1123935173
85299490.0 0.0926266614 0.0647634146 -5.66563e-05 2.29181e-05 7.26567e-05 -5.62296e-05 -0.8320179946 0.121610358
90299460.0 0.0974964001 0.060783336 4.75253e-05 -5.71365e-05 8.59858e-05 -6.32959e-05 -0.8303542944 0.1316693869
95299430.0 0.1014100766 0.0566703056 1.51804e-05 0.0002113879 -1.0793e-06 -1.0435e-06 -0.8294577547 0.1412948198
100299400.0 0.1048637653 0.0530305108 0.0001960859 1.0658e-05 3.88778e-05 5.07351e-05 -0.8289396667 0.1499463929
105299370.0 0.1084159182 0.0486239203 7.3923e-05 3.23573e-05 4.35794e-05 0.0003107864 -0.8273857151 0.159145578
110299340.0 0.1108112548 0.0447806973 -7.12312e-05 5.52596e-05 8.69355e-05 2.55028e-05 -0.8268801388 0.1684249395
115299310.0 0.1135054195 0.0404141576 -3.716e-05 -8.4967e-05 -0.0001572721 5.55125e-05 -0.8244880729 0.1774262872
120299280.0 0.1154349915 0.0367267108 7.72302e-05 2.86447e-05 7.86126e-05 9.49841e-05 -0.8233547922 0.1856321946
125299250.0 0.1172881643 0.0326652008 -7.91966e-05 3.04389e-05 0.0001582507 4.42618e-05 -0.8223210201 0.1957234207
130299220.0 0.1191960634 0.0290553411 9.42973e-05 5.22029e-05 1.67848e-05 7.213e-06 -0.8202290478 0.204180046
135299190.0 0.1207204059 0.0252274026 0.000270078 6.04843e-05 4.84195e-05 -1.64299e-05 -0.8182339174 0.2132145927
140299160.0 0.1218646881 0.0213835917 4.11285e-05 8.20074e-05 0.0001473293 1.61903e-05 -0.8156411983 0.2215005259
145299130.0 0.1231381751 0.0178571008 -1.17836e-05 9.93559e-05 0.0001481387 2.7032e-05 -0.8138561797 0.2297053016
150299100.0 0.1238914378 0.0142802956 2.43016e-05 0.0002938358 -7.06491e-05 -7.62175e-05 -0.811918222 0.2384307016
155299070.0 0.1246644705 0.0107535563 1.29502e-05 0.0001346583 1.15309e-05 -0.0001653009 -0.8093922883 0.2475773135
160299040.0 0.125120927 0.0075543542 -0.0001574891 -6.70611e-05 7.17464e-05 0.0001348798 -0.8076461169 0.2566572964
165299010.0 0.1253325784 0.0042993157 0.0001406309 0.0001154873 1.9388e-06 -2.54475e-05 -0.8042923649 0.2648574963
170298980.0 0.1257869225 0.000793758 1.87513e-05 0.0001149662 -2.19074e-05 0.000164139 -0.8021973426 0.2733863402
175298950.0 0.1262226392 -0.0020967576 -5.84042e-05 3.4333e-05 0.0001096139 0.0001587934 -0.7988825146 0.281791612
180298920.0 0.1264125145 -0.0051806903 0.0001826943 -0.0001554137 -6.8599e-06 -0.0001751914 -0.795599422 0.2906336023
185298890.0 0.12602504 -0.0082965005 3.57144e-05 0.0001326098 0.0001253142 6.77436e-05 -0.7929384487 0.2984595064
190298860.0 0.1261304507 -0.0113193319 1.29617e-05 0.0001321282 6.9339e-05 3.7669e-06 -0.7893590278 0.3076964036
195298830.0 0.1263455193 -0.0141584638 6.04268e-05 -5.34e-08 -8.93224e-05 6.4434e-05 -0.7867127643 0.3157258468
200298800.0 0.1257430397 -0.0171551725 0.0001347632 -6.7223e-06 -3.87346e-05 9.68384e-05 -0.7833772966 0.324129923
205298770.0 0.1253982992 -0.0195425575 6.47767e-05 -6.08301e-05 -1.69572e-05 0.0001455815 -0.7799711208 0.3321440167
210298740.0 0.1252796538 -0.0223413847 -1.94059e-05 1.69948e-05 6.876e-05 -3.25957e-05 -0.7770245569 0.3404231087
215298710.0 0.1245729294 -0.0248631172 -6.7106e-05 0.0001974224 -8.97252e-05 2.065e-05 -0.7735721863 0.3483063988
220298680.0 0.1243702756 -0.0274868718 5.02932e-05 -6.34437e-05 3.89693e-05 9.48e-05 -0.7693504311 0.3570713677
225298650.0 0.1238229473 -0.0300210333 0.000138033 -2.44273e-05 -1.7933e-05 0.0001847213 -0.7655808259 0.3644543881
230298620.0 0.1230383483 -0.0324541472 9.76766e-05 -6.18521e-05 1.7497e-05 -3.75184e-05 -0.7615533967 0.3730079382
235298590.0 0.1222971654 -0.0351533192 -5.23392e-05 2.87247e-05 4.57491e-05 0.0002812679 -0.7578355189 0.3806507406
240298560.0 0.1217246781 -0.0373848607 0.0002244048 -6.04612e-05 9.35367e-05 0.0001766882 -0.7541513692 0.3886461448
245298530.0 0.1209606564 -0.0398342415 3.57921e-05 -0.0002728728 2.40454e-05 4.28099e-05 -0.749723728 0.3966631126
250298500.0 0.1202335754 -0.0419506844 -0.0001383031 0.0003938706 5.1056e-05 0.0001211326 -0.7455977576 0.4044830569
255298470.0 0.1197090677 -0.0439370827 -7.64544e-05 -6.75307e-05 -2.22382e-05 -0.0001341659 -0.7413050204 0.4126319711
260298440.0 0.1186314647 -0.0461423172 0.000101241 0.0002219158 -5.6958e-06 6.97274e-05 -0.7366209718 0.4195825256
265298410.0 0.1175777172 -0.0480489068 3.3132e-06 2.7458e-06 0.0001075048 7.8891e-05 -0.7323710197 0.4274701703
270298380.0 0.1169556681 -0.0504491573 0.0001340563 -4.8597e-06 0.0001253804 1.80522e-05 -0.7274748616 0.4351447324
275298350.0 0.1160488527 -0.052345474 -0.0001179001 -4.5307e-06 -0.0001825007 -6.3747e-05 -0.7230546262 0.4433011082
280298320.0 0.1150264376 -0.0542892122 6.2087e-05 4.33022e-05 0.0001982319 -9.31971e-05 -0.7182597352 0.4500315427
285298290.0 0.1139604515 -0.0562256211 0.0001800673 0.0002981077 -2.84033e-05 0.0002534088 -0.713050337 0.4577498171
290298260.0 0.1132806017 -0.058053784 2.57667e-05 1.13546e-05 8.2673e-06 0.0002371122 -0.7085011175 0.4654451296
295298230.0 0.1123130053 -0.0602930103 9.16305e-05 0.0002754724 7.8908e-06 -0.0001458853 -0.7034336307 0.4727887567
300298200.0 0.1112152027 -0.0625386046 7.44534e-05 4.74388e-05 7.41377e-05 0.0001038716 -0.6980972386 0.4800654759
305298170.0 0.1105773981 -0.0642232759 9.79426e-05 -0.0001039808 -2.07229e-05 0.0001003755 -0.6929387215 0.4879110931
310298140.0 0.1093310659 -0.0662626329 -7.84865e-05 1.2468e-05 8.674e-07 0.0002532353 -0.6886013405 0.4950391971
315298110.0 0.10766421 -0.0680036561 4.49697e-05 0.0001669426 0.0001447969 0.0001651732 -0.6830892337 0.5019355085
320298080.0 0.1064498437 -0.0699439337 -7.35008e-05 -8.17393e-05 5.98018e-05 -4.18269e-05 -0.6777721165 0.5091009259
325298050.0 0.1051815818 -0.0719786443 0.0002083811 -3.92345e-05 9.97909e-05 -2.18796e-05 -0.6719849475 0.5161644166
330298020.0 0.1035322985 -0.0733428607 7.11046e-05 1.2178e-05 1.2563e-05 9.61639e-05 -0.6662812087 0.5231836951
335297990.0 0.1022193299 -0.0752174595 0.0001887127 -8.81877e-05 0.0001517433 0.0001702403 -0.6609993644 0.5303428821
340297960.0 0.1007315181 -0.0766553934 -1.74368e-05 0.0001158811 -6.62827e-05 -0.000110642 -0.6553019966 0.5371170393
345297930.0 0.098958262 -0.0779359409 -2.43064e-05 0.0001868554 8.66829e-05 8.5567e-06 -0.6497786149 0.5443940541
350297900.0 0.0979836345 -0.079352932 7.35063e-05 -7.1918e-05 0.0002009256 0.0001828902 -0.6441697383 0.5512348938
355297870.0 0.0964362261 -0.0808877498 0.0001742054 -6.68738e-05 5.35948e-05 0.0002357087 -0.6382236423 0.5573187922
360297840.0 0.0949987108 -0.082256193 0.0001658179 -0.0002116843 6.91269e-05 -0.0001254775 -0.6320495811 0.563882797
365297810.0 0.0937886432 -0.0837519379 -0.000130212 -9.44526e-05 6.33035e-05 -0.0001565758 -0.6260907972 0.5709098609
370297780.0 0.0924512866 -0.0847060437 -0.0001291279 3.53211e-05 -3.15808e-05 -3.4934e-06 -0.6203207957 0.5768517578
375297750.0 0.0910536765 -0.0860372774 3.50512e-05 0.0002072957 8.5101e-06 0.0001094801 -0.6138217289 0.5833857744
380297720.0 0.0900151425 -0.0875116234 -0.0001096826 0.0003126855 0.000286095 -0.0001201713 -0.6078718641 0.5905404062
385297690.0 0.0878978833 -0.088679384 0.0002453192 0.0002032995 -1.53708e-05 -9.4248e-06 -0.6018105418 0.5958327738
390297660.0 0.0867236673 -0.0899190973 8.93787e-05 -0.0001459433 -2.93152e-05 1.93057e-05 -0.5956923126 0.6013273249
395297630.0 0.0854919326 -0.091188292 0.0001662876 -6.57415e-05 -7.40639e-05 -1.01152e-05 -0.588926954 0.6085466708
400297600.0 0.0840082328 -0.09207991 -0.0001079517 8.79525e-05 0.0001530918 0.0001670621 -0.5829218082 0.6139657592
405297570.0 0.082540451 -0.0934405868 0.0001368654 0.0001077864 0.0001331491 0.0001038931 -0.5772319964 0.6201702932
410297540.0 0.081063629 -0.0945456864 0.0003249983 1.93579e-05 0.0001853486 1.66787e-05 -0.5701547843 0.6258642904
415297510.0 0.0797735365 -0.0955515074 0.0001628865 0.0001114964 0.0001503263 -9.73953e-05 -0.563672264 0.6324536307
420297480.0 0.0780537382 -0.0966501296 6.87532e-05 -0.000143134 9.57451e-05 -5.28886e-05 -0.557113761 0.6367760464
425297450.0 0.0764245189 -0.0979544305 5.4543e-06 -5.3844e-05 0.0001310482 -0.0002015923 -0.5499815332 0.6434697993
430297420.0 0.0750167043 -0.0985506933 0.0002215906 -1.01322e-05 -4.5157e-06 -5.23381e-05 -0.543874056 0.649104322
435297390.0 0.0735285974 -0.0996425348 0.0001011359 -0.0001133491 0.0001856002 1.02037e-05 -0.5368245622 0.6537088198
440297360.0 0.0719082727 -0.1007613546 0.000110571 9.42254e-05 0.0001571842 8.66779e-05 -0.530194935 0.6592747173
445297330.0 0.0701386406 -0.1014873175 0.0001108498 2.97672e-05 -2.4062e-06 0.0001781281 -0.523475174 0.6644088574
450297300.0 0.0688341309 -0.1026010536 -5.0837e-05 0.0001350915 0.0001449932 9.49771e-05 -0.5169367116 0.6696026094
455297270.0 0.0672863244 -0.1033560399 0.0003864688 0.0001264298 7.04964e-05 -4.36569e-05 -0.5099129205 0.6746608814
460297240.0 0.0656816012 -0.1041179328 9.80433e-05 -4.14198e-05 0.0002678078 0.0001262338 -0.5026404661 0.6805123044
465297210.0 0.0641330664 -0.1050356104 0.0002987652 -4.1536e-06 0.0002192809 -0.000141486 -0.4960656884 0.685038371
470297180.0 0.0626140441 -0.1057675159 -0.0001198343 9.81087e-05 0.0002021479 -0.0001085838 -0.4895307545 0.6896950486
475297150.0 0.0608705609 -0.106599248 0.0001549937 0.0001062079 7.35209e-05 9.5235e-05 -0.4820251891 0.6949155581
480297120.0 0.059187287 -0.1075706721 4.39146e-05 0.000104473 0.0001667136 2.32932e-05 -0.4752278873 0.7000429365
485297090.0 0.0577282055 -0.1080448661 0.0002790352 8.77414e-05 3.44481e-05 -4.123e-07 -0.4680047516 0.7041972707
490297060.0 0.0562059943 -0.1087830759 0.0001246491 -9.28292e-05 0.0001071597 -1.15383e-05 -0.4606622218 0.7082457639
495297030.0 0.0544258093 -0.1093314675 3.92964e-05 0.0001148688 0.0001670787 9.21379e-05 -0.4538150711 0.7127844558
500297000.0 0.0527090859 -0.1103783798 0.0001517414 -5.22962e-05 0.0001243114 -3.25288e-05 -0.4464014571 0.7175771841
505296970.0 0.0508573595 -0.1108341705 9.68733e-05 0.0001153906 0.0001839994 7.03971e-05 -0.4395044579 0.721793991
510296940.0 0.0494306385 -0.1112364506 -1.56e-05 -0.0001443536 0.0001376423 -0.0001051111 -0.4316834377 0.7262313893
515296910.0 0.0476894514 -0.1120126671 2.0356e-06 -8.82357e-05 0.0001585635 -0.0001418367 -0.4246341675 0.7307837285
520296880.0 0.0461744495 -0.1125517476 0.0003712403 0.0001628842 -3.29787e-05 -0.0001162777 -0.417428625 0.7346872491
525296850.0 0.0445677693 -0.112996968 -8.3336e-06 0.0002266773 7.85919e-05 -1.04086e-05 -0.4098538918 0.7393189737
530296820.0 0.0429121966 -0.1136960616 -2.5686e-06 5.42015e-05 9.40587e-05 -8.25984e-05 -0.4028639853 0.743090808
535296790.0 0.0412093226 -0.1139570309 7.13444e-05 0.0002066328 -7.55413e-05 6.99584e-05 -0.395397191 0.7464827289
540296760.0 0.0393536362 -0.1146785124 -2.1208e-05 7.58116e-05 8.09252e-05 2.03015e-05 -0.3880950884 0.7508178593
545296730.0 0.0377874008 -0.1148867776 0.0002000318 -0.0001444129 0.0001286958 1.39183e-05 -0.3803845518 0.7541365713
550296700.0 0.0359990876 -0.1152401398 0.0001090795 7.45624e-05 0.0001333773 -7.58912e-05 -0.3725781123 0.757812668
555296670.0 0.034544178 -0.1155932636 0.0001173316 0.0001185364 9.24722e-05 8.86693e-05 -0.3651864903 0.7615860761
560296640.0 0.0329624514 -0.116031582 -0.000124942 -7.64033e-05 -1.41388e-05 -0.0001876531 -0.3572164631 0.765311206
565296610.0 0.0310965435 -0.1161520051 6.60635e-05 -1.66375e-05 7.10113e-05 1.02046e-05 -0.3497057019 0.7686850678
570296580.0 0.0296759961 -0.1168089855 0.0002812769 -3.81446e-05 0.0002593064 5.87066e-05 -0.3426486875 0.7725079827
575296550.0 0.0281042528 -0.1168288197 5.11493e-05 -0.0001297426 4.805e-05 0.0002151458 -0.3340310534 0.7753758617
580296520.0 0.0262483998 -0.1172938897 -0.0001188275 -8.63756e-05 0.000214374 0.0002428646 -0.3268614825 0.7792535697
585296490.0 0.0243223839 -0.1172651594 0.0003326784 0.0003008356 6.62728e-05 -0.0002507212 -0.3197562249 0.7815988933
590296460.0 0.0224048429 -0.117757247 -0.0001771921 -6.58289e-05 5.6958e-06 0.0001854923 -0.3115254197 0.7845680497
595296430.0 0.0212414571 -0.1178612506 -8.37619e-05 5.17683e-05 0.000165753 -8.28326e-05 -0.3034377685 0.7871198847
600296400.0 0.0193742632 -0.1179715547 0.000104678 -0.0001420117 0.0001185019 -0.0001500489 -0.2960188887 0.7909528272
605296370.0 0.0179284898 -0.1181518744 0.0001148591 -0.0001681713 3.89171e-05 -4.0562e-05 -0.2883066286 0.7943270807
610296340.0 0.0161826975 -0.1182744691 0.0002912473 9.82472e-05 1.65944e-05 0.0001300264 -0.2799801598 0.7963785716
615296310.0 0.0144638438 -0.1182791577 -3.0935e-06 0.0001539557 0.0001145867 -0.0002058427 -0.2722302045 0.7994736374
620296280.0 0.0126507807 -0.1183624982 0.0001052591 -7.97476e-05 0.0001254665 -0.0001733673 -0.2635395049 0.8018813854
625296250.0 0.0108753272 -0.1186033271 0.0001750726 -5.41803e-05 0.0002264027 -0.0001321757 -0.2567895888 0.8045858225
630296220.0 0.0092080002 -0.1182209863 0.000120816 7.03837e-05 0.000325842 3.23282e-05 -0.2484947234 0.8074451057
635296190.0 0.0076576812 -0.118520164 3.66009e-05 -0.0001106763 0.000195596 5.33736e-05 -0.240769506 0.8094078267
640296160.0 0.0060345757 -0.1184686468 0.0002978752 -0.0001729548 0.0001479705 3.81786e-05 -0.2321434468 0.8121280006
645296130.0 0.0041723291 -0.1183558593 0.0001600279 0.0002155091 0.0001344956 -9.74659e-05 -0.224550201 0.8143048843
650296100.0 0.0024119279 -0.118257208 5.04395e-05 -5.34373e-05 4.24555e-05 -0.0002062996 -0.2162691134 0.8169787769
655296070.0 0.0005396495 -0.1181491869 -8.90179e-05 3.84502e-05 9.25917e-05 -7.65329e-05 -0.2084660967 0.8179510916
660296040.0 -0.0009229842 -0.118006896 0.0003921842 2.78003e-05 0.0001975062 -0.0001041538 -0.2000877169 0.820436156
665296010.0 -0.0025487509 -0.1180039472 0.0002543233 -4.59837e-05 2.11664e-05 0.0001111188 -0.1924933634 0.8221611514
670295980.0 -0.0041045839 -0.1178704001 -7.03008e-05 8.0186e-06 7.1089e-06 -0.0001055091 -0.1847130991 0.8244272431
675295950.0 -0.0057474183 -0.1177379781 0.0001656567 -3.68913e-05 0.0002083381 -1.24007e-05 -0.1760097199 0.826223908
680295920.0 -0.0077342842 -0.1170993588 4.47381e-05 0.0001593566 0.0001637505 -9.808e-07 -0.168070363 0.8276616535
685295890.0 -0.0094327118 -0.1169829715 0.0002570897 -9.74541e-05 8.68279e-05 -0.0001735073 -0.1594818334 0.8291906838
690295860.0 -0.0104666408 -0.1167044153 0.0003329352 8.62969e-05 0.00029511 -5.68487e-05 -0.1510807553 0.8302444779
695295830.0 -0.0124543995 -0.1167670788 0.0001706168 8.94199e-05 2.83929e-05 -3.31206e-05 -0.143589973 0.8326187521
700295800.0 -0.0141837675 -0.1163595796 8.01903e-05 8.74999e-05 9.37661e-05 -8.80271e-05 -0.1346302728 0.833690085
705295770.0 -0.0156132749 -0.1159915953 7.3572e-05 -4.84936e-05 0.0001585648 -1.66868e-05 -0.1272866901 0.8349324537
710295740.0 -0.0174326366 -0.1154865994 0.0002830239 -8.8662e-05 3.63505e-05 0.0001512132 -0.1193457658 0.83695292
715295710.0 -0.0191561579 -0.1151098857 0.0001678152 1.90667e-05 0.0001399632 2.54732e-05 -0.1100881115 0.8375132267
720295680.0 -0.0207697183 -0.1149704145 -1.79724e-05 0.0001680527 0.0002663237 3.3831e-05 -0.1016805561 0.8387033029
725295650.0 -0.0221211254 -0.1143328752 0.0001057095 0.0001107386 -1.94511e-05 -4.85666e-05 -0.0933596646 0.8395757406
730295620.0 -0.0241665525 -0.1143648191 0.0003439654 0.000141925 0.000159169 -5.60785e-05 -0.0855357005 0.8402324598
735295590.0 -0.0253339636 -0.1133764218 1.06376e-05 -3.68062e-05 7.10711e-05 -3.101e-07 -0.0763101652 0.8414099901
740295560.0 -0.0270834387 -0.112903993 0.0001257778 -3.51275e-05 7.52416e-05 0.0001167197 -0.0686382545 0.8412027865
745295530.0 -0.0288300563 -0.112591112 1.13346e-05 -0.0001648617 0.0002535826 0.0001156211 -0.0605298344 0.8421678551
750295500.0 -0.0303939942 -0.1120992779 0.000267128 -9.00999e-05 0.0001075344 2.97472e-05 -0.0517302484 0.8422627155
755295470.0 -0.0316004817 -0.1112293232 0.0001596465 -4.798e-06 0.0001959414 -6.67587e-05 -0.0442259737 0.8435379449
760295440.0 -0.0334242569 -0.1108372427 0.0003706204 -1.45996e-05 0.0002488743 -0.0001418987 -0.0361095443 0.843594394
765295410.0 -0.035072577 -0.1104600683 1.90349e-05 8.38167e-05 0.0002248145 8.58491e-05 -0.0268029215 0.843685276
770295380.0 -0.0364444358 -0.1096593909 -9.3981e-06 -0.0002509175 0.0002122439 -8.20136e-05 -0.0186530527 0.8441368971
775295350.0 -0.0382842909 -0.1091315256 5.6926e-05 -0.0001576973 0.0001789709 -4.4773e-05 -0.0109181099 0.8439461807
780295320.0 -0.0397547895 -0.1084974454 0.0002153053 -9.03561e-05 8.20329e-05 -3.28275e-05 -0.0024175137 0.8443112209
785295290.0 -0.0412415979 -0.1074243425 4.24642e-05 -6.97578e-05 0.0003468982 -9.22394e-05 0.0058348175 0.844119724
790295260.0 -0.0428455672 -0.1068567255 0.0004202234 0.0001921111 1.98984e-05 -1.59752e-05 0.014681013 0.8443569259
795295230.0 -0.0443514529 -0.1060911595 0.0001120939 6.55726e-05 0.0003684059 6.73929e-05 0.0226695022 0.8442092218
800295200.0 -0.0457181714 -0.1054708086 0.0001875996 -3.95544e-05 0.0001661527 9.22483e-05 0.0305298975 0.8436303855
805295170.0 -0.0472590228 -0.1047104644 -0.0001081983 -4.41093e-05 0.0001661556 -0.000186605 0.0388321525 0.8430768787
810295140.0 -0.048841205 -0.1040501713 0.0001159911 -5.82649e-05 0.0001631091 -5.01716e-05 0.0473512023 0.8438911812
815295110.0 -0.0500865284 -0.1032683093 0.0003322941 -0.0001307442 0.0001598459 9.14422e-05 0.0555321952 0.8427569423
820295080.0 -0.0517391611 -0.1025277975 2.6504e-05 -0.0001122243 0.0001067188 -4.99794e-05 0.063329184 0.8417970632
825295050.0 -0.053150831 -0.1015250278 -4.95148e-05 0.0001009366 -7.7801e-05 6.6568e-05 0.0721589287 0.8416858962
830295020.0 -0.0543064116 -0.100827473 0.0002351625 -0.0001366473 0.0003786765 6.4016e-06 0.0800009037 0.8401893926
835294990.0 -0.0557164264 -0.0994988586 0.0002882811 0.0001654692 0.0001377072 0.0001187455 0.0884248074 0.839527458
840294960.0 -0.0573724621 -0.099145202 0.0001964389 1.97597e-05 8.30526e-05 -0.0001110459 0.096230626 0.8390624542
845294930.0 -0.0589094373 -0.0980588078 0.0003506422 3.10994e-05 -7.73084e-05 -0.0002182167 0.1049914115 0.8379900106
850294900.0 -0.0601871505 -0.0970699935 0.0002912014 -0.0001798217 0.0001059161 -0.0001056683 0.1129439711 0.8373076303
