!Created with skrf (http://scikit-rf.org).
# Hz S RI R 50.0 
!freq ReS11 ImS11 ReS21 ImS21 ReS12 ImS12 ReS22 ImS22
300000.0 -0.7764141454 -0.1370751965 -0.0007507404 -0.0002879276 0.0005816848 0.0004596239 0.8604321453 -0.0014345204
5299970.0 -0.7848796107 -0.0065985192 6.27535e-05 -0.0001535768 8.54209e-05 -2.27953e-05 0.8588777062 -0.0108299869
10299940.0 -0.7877100212 -0.0042834201 9.90682e-05 4.95571e-05 -0.0001277828 -5.09118e-05 0.8575623143 -0.0187452213
15299910.0 -0.7934106344 -0.0016758768 1.6588e-06 0.0001871023 5.7339e-06 6.09497e-05 0.8569716219 -0.0270991902
20299880.0 -0.7999847596 0.0024631913 4.98828e-05 -0.0001842863 4.14926e-05 -2.37236e-05 0.8570817 -0.0363258329
25299850.0 -0.8067578371 0.008049457 9.06765e-05 7.5775e-06 2.20941e-05 -0.0001934285 0.8554998146 -0.0434516198
30299820.0 -0.8120291144 0.0165167672 7.002e-05 2.6396e-05 -8.7818e-06 -0.0002289352 0.8546107042 -0.05239017
35299790.0 -0.8167251989 0.0253025045 -1.93426e-05 -7.41582e-05 3.62119e-05 2.34343e-05 0.8539154508 -0.0607701206
40299760.0 -0.8211860885 0.0339678094 -8.00047e-05 -0.0001068409 -3.95884e-05 0.0002115672 0.8532800473 -0.0687767118
45299730.0 -0.8249973319 0.0444747005 -7.22736e-05 -0.0001494195 3.557e-06 3.85519e-05 0.8526822904 -0.0767143583
50299700.0 -0.8271591156 0.0541615359 3.311e-05 -1.51888e-05 9.3726e-06 -1.57213e-05 0.8514135607 -0.0852535384
55299670.0 -0.8290918587 0.0647727036 0.0001114201 0.0002160993 -0.0001454593 0.0001351056 0.8501191904 -0.0936613268
60299640.0 -0.8301902768 0.0742215958 -0.0001076287 -1.29589e-05 -3.9063e-06 7.96426e-05 0.849531118 -0.1020314409
65299610.0 -0.8309903777 0.0845327548 -8.65342e-05 3.30105e-05 0.0003028919 3.85394e-05 0.8485360542 -0.110274099
70299580.0 -0.8317699974 0.0948541943 0.0001166576 0.0001735201 4.6521e-06 -4.12748e-05 0.8474702339 -0.1192023151
75299550.0 -0.8314847618 0.1046375469 -2.22588e-05 4.19973e-05 -8.99858e-05 -0.0001399009 0.8474079383 -0.1268668845
80299520.0 -0.8313662581 0.1148414613 -9.06403e-05 -6.2332e-05 -1.21494e-05 0.0001191753 0.845117923 -0.13470746
85299490.0 -0.8305002819 0.1241636593 -0.0001059301 0.0001106438 -0.00012165 -6.89531e-05 0.8435011723 -0.1430448165
90299460.0 -0.8297578942 0.1336777225 -1.05749e-05 -8.53505e-05 0.0001169213 -0.0001408439 0.8421296358 -0.15156567
95299430.0 -0.8290364068 0.1436995002 -7.74379e-05 -0.0001147764 0.0001961537 -0.0001071325 0.84044344 -0.1587962989
100299400.0 -0.8279535064 0.1525692998 0.0001137992 -0.0001036624 -7.772e-06 -0.0001175833 0.8387256714 -0.1677110806
105299370.0 -0.8267010781 0.162040318 2.60059e-05 2.59106e-05 -6.28549e-05 0.0001270333 0.8371216804 -0.1757378321
110299340.0 -0.825311888 0.1712433794 -1.05584e-05 2.77918e-05 9.79819e-05 -8.39311e-05 0.8353055074 -0.1837642472
115299310.0 -0.8237058923 0.1803493142 -0.0001146695 -0.0001181164 1.1451e-05 -5.65307e-05 0.8326005653 -0.1922564976
120299280.0 -0.8221927116 0.1891673529 0.0001901444 -0.0001190479 1.06676e-05 8.84456e-05 0.8310488844 -0.2001644226
125299250.0 -0.8204850916 0.1984461549 -2.08466e-05 -0.0001352717 0.0001404517 -4.73309e-05 0.8293061944 -0.2081327848
130299220.0 -0.8187561346 0.2076629715 -3.39588e-05 0.0001332208 -0.0001148068 0.0001313682 0.8269336604 -0.2164729567
135299190.0 -0.8164326423 0.2169803317 0.0001078141 0.0001157942 -1.68763e-05 -2.40579e-05 0.8255309188 -0.2245378268
140299160.0 -0.8146989025 0.22589655 3.66872e-05 0.0001674456 5.74259e-05 0.0001315551 0.8228839684 -0.2325526124
145299130.0 -0.8122530302 0.2344887884 2.07816e-05 0.0001077893 -8.13313e-05 0.0001367367 0.8201216417 -0.2409038649
150299100.0 -0.8103335394 0.2434600659 6.72393e-05 2.47555e-05 0.0001058038 -8.1232e-06 0.8178201107 -0.2490972972
155299070.0 -0.8075378709 0.252539557 -0.0001064315 9.32835e-05 0.0002268696 0.0001078146 0.8149010868 -0.256510717
160299040.0 -0.8049460437 0.2611404854 9.83867e-05 -0.0001309242 8.1903e-05 -1.44323e-05 0.8126547315 -0.2645719836
165299010.0 -0.8023671658 0.2694148261 -2.7517e-05 -0.0001245139 0.0001302831 7.05476e-05 0.8105935042 -0.2730819245
170298980.0 -0.7995786003 0.2780093095 0.0001553195 -0.0001795428 3.04427e-05 0.0001306324 0.807246398 -0.2805817706
175298950.0 -0.7968981449 0.2872280105 -5.23541e-05 0.0001115728 -6.87344e-05 0.0001944337 0.8044520341 -0.2884185207
180298920.0 -0.7940754066 0.2954638176 6.39098e-05 -0.0001537532 6.73653e-05 3.4128e-06 0.8017971966 -0.2964807163
185298890.0 -0.7906237007 0.3044431876 0.0001097402 0.0001406562 -1.8354e-06 -0.0003240039 0.7988725738 -0.3041704109
190298860.0 -0.7875058411 0.3121218629 4.14841e-05 2.04721e-05 -8.91679e-05 -5.38933e-05 0.7959683668 -0.3114674362
195298830.0 -0.784124916 0.3209487906 8.10913e-05 6.56006e-05 2.34905e-05 -2.59753e-05 0.7928078339 -0.3193374311
200298800.0 -0.7812513613 0.3297563498 -2.107e-06 -0.0002631991 5.17121e-05 -0.0001343357 0.7898003247 -0.3273002746
205298770.0 -0.7775391838 0.337274752 0.0002134944 3.87147e-05 -0.0001969632 -0.0001769276 0.7868367489 -0.3348111999
210298740.0 -0.7734993488 0.3458962258 0.0003882993 0.0001038489 -1.88038e-05 -5.26197e-05 0.7832568068 -0.3430249421
215298710.0 -0.7699606257 0.3538546864 -0.0002464083 -1.80156e-05 -1.8476e-06 6.0549e-05 0.7793590105 -0.3506221083
220298680.0 -0.7674683924 0.3620311356 -0.0001179557 5.97134e-05 0.0001686466 0.0001432771 0.7766206504 -0.3577407204
225298650.0 -0.7629598133 0.3711214852 -0.0001378944 -0.0001020712 -4.48497e-05 -9.51423e-05 0.7723302153 -0.365368344
230298620.0 -0.7588010517 0.3789870756 8.72536e-05 0.000115743 1.4045e-05 -7.41605e-05 0.7689476851 -0.3729478838
235298590.0 -0.754777346 0.3871221249 -0.0001004595 0.0002102217 -4.59762e-05 5.61882e-05 0.7650686417 -0.3799436878
240298560.0 -0.7510532766 0.3952913635 0.0002011923 -0.0003264155 0.0002597839 -2.01649e-05 0.7617873382 -0.3880956619
245298530.0 -0.7462818788 0.4031588897 -0.0001782398 -7.45544e-05 -4.55966e-05 0.000147223 0.7574831061 -0.3949662189
250298500.0 -0.7426817461 0.4106935696 0.0001226424 0.0001519595 2.58724e-05 -0.0001095097 0.7542590305 -0.4019173537
255298470.0 -0.7376892566 0.4187029861 0.0002714551 -4.40069e-05 -2.22432e-05 -0.0003016469 0.7504631726 -0.4096992663
260298440.0 -0.7338720262 0.426448848 -0.0001044 -0.0001122155 0.0001441774 -0.0001992517 0.7462000547 -0.4167902379
265298410.0 -0.7292556839 0.4342840715 -7.44991e-05 -8.16271e-05 4.43957e-05 -4.22331e-05 0.7427832452 -0.4243966726
270298380.0 -0.7245005841 0.4414240295 3.36218e-05 -9.58467e-05 8.37129e-05 -0.000178577 0.7388378377 -0.4313176921
275298350.0 -0.7194328872 0.4489792085 -0.0001388667 -8.88776e-05 2.8629e-05 -0.0001024951 0.7338468437 -0.4376158807
280298320.0 -0.7152690962 0.4567091267 -0.0002099433 -0.0002215515 -6.52069e-05 7.85e-06 0.7306653349 -0.4457744828
285298290.0 -0.7101929346 0.4645782543 0.0001262409 6.26377e-05 -6.64756e-05 -5.10546e-05 0.7265338174 -0.4525834722
290298260.0 -0.705765039 0.4722729255 1.12036e-05 -0.0001201629 -7.15108e-05 4.76043e-05 0.7217521633 -0.4596259896
295298230.0 -0.7006154798 0.4793064771 3.34132e-05 -4.01632e-05 6.3507e-06 5.65013e-05 0.7174294748 -0.4660027768
300298200.0 -0.6948100104 0.4866879845 7.38588e-05 4.18775e-05 0.0001410562 -9.70126e-05 0.713111192 -0.4737396258
305298170.0 -0.6901724205 0.4944385739 -0.0001021733 1.6044e-06 -0.000159604 5.12234e-05 0.7091188771 -0.4801051231
310298140.0 -0.6847128347 0.5009313105 0.0002435818 -0.0002013662 -0.0001908139 -6.6042e-06 0.7046077695 -0.4871301851
315298110.0 -0.6791688932 0.5080580294 -5.23537e-05 3.4497e-06 -3.92437e-05 -0.0001152057 0.6998357006 -0.4942102473
320298080.0 -0.6741302599 0.5158571222 2.20953e-05 -7.97522e-05 -9.29527e-05 -3.3831e-06 0.6956470598 -0.5022860188
325298050.0 -0.6687461954 0.5218813094 0.0001435562 -4.93056e-05 -9.42652e-05 0.0002591546 0.6903986832 -0.5100386344
330298020.0 -0.6629954115 0.5291273524 3.12337e-05 1.11175e-05 0.000113576 -2.98414e-05 0.6849464379 -0.5170741859
335297990.0 -0.6569597362 0.5361868579 4.81977e-05 3.6524e-06 -9.27788e-05 -0.000112388 0.6792696253 -0.5242565254
340297960.0 -0.6519177603 0.542926813 4.80088e-05 0.0001151112 0.0001447647 5.45673e-05 0.6737151201 -0.5301144129
345297930.0 -0.6465707073 0.5488843233 -0.0001303169 5.36628e-05 8.7021e-06 8.55679e-05 0.6676543203 -0.5368139952
350297900.0 -0.6402775075 0.5559315807 7.5776e-05 1.43031e-05 -2.76313e-05 0.0001725436 0.662569255 -0.5421997988
355297870.0 -0.6342207778 0.5628921189 -4.92451e-05 -4.08703e-05 3.50148e-05 -5.12661e-05 0.6564446165 -0.5486193574
360297840.0 -0.6284273099 0.5687460321 -2.1042e-06 -6.74526e-05 5.96479e-05 -8.81951e-05 0.6514431001 -0.554342767
365297810.0 -0.6224552125 0.5760679214 2.80208e-05 -0.0001450326 0.0001246319 7.01519e-05 0.6458869232 -0.5607859917
370297780.0 -0.6162595649 0.5819435581 -2.32523e-05 0.000169078 -4.12579e-05 -0.000143013 0.6403013787 -0.5663231693
375297750.0 -0.6100543627 0.5885060909 -0.000173183 -0.0002267157 7.4344e-06 3.73435e-05 0.6348743621 -0.5724500502
380297720.0 -0.6041355273 0.5948066601 -2.9331e-06 -0.000186668 -0.0001368111 -0.0001032568 0.6290770717 -0.578201724
385297690.0 -0.5979134453 0.6008922186 7.9219e-06 -3.0194e-06 4.22902e-05 -0.0002102329 0.6229274496 -0.5836574521
390297660.0 -0.5914979851 0.6076236085 0.000223226 0.0001868646 6.00808e-05 0.0001074711 0.6179230051 -0.5904708569
395297630.0 -0.5857690729 0.6137344646 0.0001313903 7.701e-06 8.89851e-05 -4.59646e-05 0.6124003205 -0.5957959108
400297600.0 -0.578470615 0.6191709639 4.56626e-05 -0.0001729658 5.16402e-05 -0.0002093255 0.6061907809 -0.602010555
405297570.0 -0.5727783256 0.6252016627 8.66596e-05 -9.86758e-05 -0.0001685986 4.02329e-05 0.6005315565 -0.607101821
410297540.0 -0.5655116679 0.6310425393 -0.0001446386 2.56285e-05 -8.00116e-05 -4.69525e-05 0.5945771094 -0.6131130223
415297510.0 -0.5593569295 0.6366687365 -2.039e-07 -8.11247e-05 -0.000144594 8.12877e-05 0.5885983291 -0.6185690475
420297480.0 -0.5521889608 0.6423679027 0.0001491967 9.1644e-05 -9.90161e-05 1.6988e-05 0.5822236133 -0.6247325158
425297450.0 -0.5457211962 0.6477518862 0.0002619526 -8.448e-05 -5.38845e-05 0.0001089707 0.5766367271 -0.6296550151
430297420.0 -0.5392519386 0.6532073158 4.15651e-05 0.0001792208 -8.79974e-05 -2.225e-06 0.5703397673 -0.6354591922
435297390.0 -0.5320900711 0.6592405125 -0.0003280439 0.0001456171 0.0001481798 4.0932e-05 0.5636954761 -0.6406262031
440297360.0 -0.525281918 0.6646611508 8.99922e-05 -0.0001138056 8.05715e-05 3.33383e-05 0.5572199163 -0.6464299372
445297330.0 -0.5187568382 0.670193174 -0.0001827397 6.88674e-05 -0.0001404694 -0.0001145048 0.5512947573 -0.6514035026
450297300.0 -0.5111376649 0.6743918659 6.58208e-05 3.79391e-05 9.95781e-05 7.9306e-06 0.5445637391 -0.656892939
455297270.0 -0.5043647143 0.6807319217 2.30772e-05 -8.64867e-05 -7.47746e-05 0.0001405026 0.5380213123 -0.6625520868
460297240.0 -0.4972989037 0.6855313629 -0.0001103408 4.6435e-06 0.0002248372 8.8305e-05 0.5323215064 -0.6670282701
465297210.0 -0.4893707827 0.6903796148 5.7065e-06 -0.0001119397 -0.0001382528 -8.12798e-05 0.524723968 -0.6722132079
470297180.0 -0.4827160926 0.6949857571 -3.82665e-05 -3.39098e-05 2.50036e-05 -0.0001576445 0.5181365423 -0.6775108538
475297150.0 -0.47547224 0.7004241465 -5.615e-06 -9.2594e-06 2.93833e-05 -0.0001906655 0.5116397256 -0.6822094783
480297120.0 -0.468745665 0.704535533 -0.0001463729 0.0001258898 4.9475e-05 -7.7412e-05 0.5049561736 -0.6867258812
485297090.0 -0.4610123866 0.7093949608 -0.0001711945 -0.0001335674 0.0001471595 2.8238e-06 0.4982448409 -0.6920947259
490297060.0 -0.4540257702 0.7141588778 -0.0001637199 -0.0001221832 5.81647e-05 -0.0001460305 0.4909975915 -0.6972822063
495297030.0 -0.446870616 0.7189024525 -0.0003454882 -7.63454e-05 6.07069e-05 -7.37572e-05 0.4849783778 -0.7016368491
500297000.0 -0.4387635572 0.7235938002 -4.50685e-05 0.0001093939 -0.0001091462 -0.0001425248 0.4767500393 -0.706386552
505296970.0 -0.4312717033 0.7269812399 -0.0002394272 -0.0001561143 -3.4996e-06 -3.5672e-06 0.4700352797 -0.710793843
510296940.0 -0.4241984228 0.7322512925 -4.86652e-05 -0.0001419518 -0.0001125215 9.50648e-05 0.462518617 -0.7146439938
515296910.0 -0.4171622475 0.735952728 0.0001397453 0.0002636643 -0.0001562172 0.0001138571 0.4552993112 -0.7188123748
520296880.0 -0.4091963062 0.7409183902 8.4596e-05 -0.0002485613 5.7117e-06 5.43473e-05 0.448976784 -0.7243785288
525296850.0 -0.4013261189 0.7446323673 -8.62481e-05 4.78042e-05 -9.03722e-05 2.57449e-05 0.4411733506 -0.7274643228
530296820.0 -0.3942024105 0.7482652146 -1.80223e-05 -9.02364e-05 -1.37796e-05 0.0002349617 0.4333725089 -0.7328682726
535296790.0 -0.386496643 0.7524766651 -9.93991e-05 -0.0001473435 -5.36107e-05 -0.0001167971 0.4266811626 -0.7377148589
540296760.0 -0.3784845278 0.7559883246 -0.0001610738 -4.30859e-05 4.0373e-06 4.35847e-05 0.419174447 -0.7406498861
545296730.0 -0.3713717058 0.759818591 -4.84e-08 0.0001703335 -9.96862e-05 -4.83168e-05 0.4118351982 -0.745334136
550296700.0 -0.3638611018 0.7637704111 2.06674e-05 8.58658e-05 -1.98349e-05 8.87197e-05 0.4046063292 -0.7488933595
555296670.0 -0.3553581075 0.7674219029 0.0001066639 -3.0179e-06 -3.359e-05 -7.8382e-06 0.3967390899 -0.7526832415
560296640.0 -0.3470596219 0.7711251977 -6.0115e-06 5.5761e-05 2.88935e-05 2.12437e-05 0.3893887529 -0.7565861455
565296610.0 -0.3396185745 0.7744204404 6.85302e-05 0.0001252258 -0.000196817 -1.2565e-06 0.38147977 -0.7601814847
570296580.0 -0.3316719416 0.7773444956 0.0001396661 -0.0002257436 3.91583e-05 0.0001451754 0.3738766851 -0.7637006999
575296550.0 -0.3239092955 0.7808320459 0.0001692678 -0.0001671875 -6.97271e-05 6.02972e-05 0.3662034975 -0.7677196013
580296520.0 -0.3161065097 0.7845115598 -0.0001664198 -1.37349e-05 0.0001661948 0.000154102 0.3584293073 -0.7708711548
585296490.0 -0.3079012649 0.7870030047 -6.994e-06 2.86946e-05 0.0001250408 4.90442e-05 0.3511076294 -0.7752239069
590296460.0 -0.2996179051 0.790050072 -0.0001261601 -4.45143e-05 -2.75288e-05 -0.0001003349 0.3430267199 -0.7783915967
595296430.0 -0.2908463879 0.7933228981 5.77444e-05 6.41628e-05 2.42752e-05 -0.0001069594 0.3347941137 -0.7812267821
600296400.0 -0.2835435656 0.7954329579 -3.93249e-05 0.0002513797 -2.85685e-05 -6.0681e-06 0.327284597 -0.78400559
605296370.0 -0.2753178735 0.798830395 -2.86704e-05 8.11432e-05 -1.91073e-05 -0.0001914146 0.3191131267 -0.7875014699
610296340.0 -0.267659538 0.8016151949 7.33056e-05 -0.0001987624 -1.4603e-05 -4.63622e-05 0.3111133873 -0.7901160379
615296310.0 -0.2591561213 0.8044647281 -0.0001123268 9.86496e-05 -4.37351e-05 2.03967e-05 0.3034699471 -0.7935157423
620296280.0 -0.2505736855 0.8060430991 -0.0003760708 -0.0002174291 3.98591e-05 -5.31507e-05 0.2956372034 -0.7962766136
625296250.0 -0.2422503559 0.8094134747 7.77945e-05 0.0001396518 5.26785e-05 6.63504e-05 0.287283242 -0.7987678281
630296220.0 -0.2339449776 0.8121654398 2.43457e-05 -4.54651e-05 8.89704e-05 6.01422e-05 0.2791199712 -0.8015706774
635296190.0 -0.22644869 0.8141943569 -5.7195e-06 0.0002790835 3.96826e-05 -0.0002026794 0.2715879978 -0.8037455264
640296160.0 -0.2176154728 0.8153586535 -8.02603e-05 0.0001347398 0.0001138652 -1.5262e-06 0.2631452045 -0.806807537
645296130.0 -0.2094704202 0.8180713657 6.2376e-05 -2.3719e-05 6.7467e-05 -0.0001282814 0.2551578079 -0.8091271107
650296100.0 -0.2017273524 0.8205724652 -0.000116337 0.0001418151 0.0001374221 6.35604e-05 0.2468506434 -0.811051378
655296070.0 -0.1926727365 0.8220905605 0.0001371066 -0.0001175585 -2.3368e-05 -0.0001885412 0.2384581411 -0.8132685859
660296040.0 -0.185198474 0.8240806648 0.0001624235 -7.67138e-05 6.04172e-05 -3.93961e-05 0.2304364402 -0.8155869625
665296010.0 -0.1764398954 0.8263448633 0.0002044787 -4.94922e-05 0.0001262484 -0.0001822772 0.2225312301 -0.8181470756
670295980.0 -0.1680477422 0.8279970752 -2.04302e-05 0.0001528025 -9.61299e-05 6.58031e-05 0.2146950259 -0.8199928817
675295950.0 -0.1599123859 0.8285956411 9.92391e-05 -9.95261e-05 1.69793e-05 8.75314e-05 0.2062817268 -0.8222286642
680295920.0 -0.1516527128 0.8305044726 8.0269e-05 0.0001118372 0.000113399 -7.86905e-05 0.1978286415 -0.824139386
685295890.0 -0.1425822214 0.8319453953 -5.29253e-05 6.5842e-05 -0.0001035479 -0.0001291572 0.1900811951 -0.8257737977
690295860.0 -0.1344875127 0.8335521629 -5.10837e-05 0.000110564 0.0001207054 -1.80632e-05 0.1814524298 -0.827172987
695295830.0 -0.1258986447 0.8341922535 -5.01749e-05 0.0002744462 1.13123e-05 0.000109167 0.1729881722 -0.82895589
700295800.0 -0.1175848932 0.8357362241 -0.0001503725 -3.20491e-05 -3.53904e-05 7.26321e-05 0.1651018107 -0.8305840869
705295770.0 -0.1087168287 0.8370450877 1.77349e-05 4.91064e-05 -5.87014e-05 -6.54102e-05 0.1560677665 -0.8314753455
710295740.0 -0.101189107 0.8381104379 -5.84655e-05 -4.36154e-05 0.0002400783 9.61021e-05 0.1475950573 -0.8324414947
715295710.0 -0.0927072764 0.8394023435 -0.0002014259 -0.0003279041 2.79263e-05 6.2788e-05 0.1399054798 -0.834688375
720295680.0 -0.0844359497 0.8395414464 -0.0001207117 0.0002273058 -6.11975e-05 2.85905e-05 0.1316574247 -0.8358642205
725295650.0 -0.0749601396 0.8408196699 -0.0001847204 -0.0001835361 -1.0484e-05 9.01101e-05 0.123205076 -0.8365634364
730295620.0 -0.0669629775 0.8411149475 4.3551e-06 -0.0003071473 0.0001568805 -0.0002450823 0.1149561474 -0.838270143
735295590.0 -0.0581726036 0.8414103964 9.7441e-06 0.0001591098 -0.000192111 -9.42235e-05 0.1066620308 -0.8388225551
740295560.0 -0.0504487445 0.8425553063 0.0001184757 -0.0001615383 -1.59024e-05 -1.54122e-05 0.0984440526 -0.8399013984
745295530.0 -0.0417140814 0.8428932045 0.0001453909 0.0001897292 7.69037e-05 -2.81344e-05 0.0893256401 -0.8404481693
750295500.0 -0.0336220847 0.84286203 1.31362e-05 0.0001468436 -9.91197e-05 9.63931e-05 0.0816380257 -0.8413590846
755295470.0 -0.0243057127 0.8433140922 -5.10044e-05 9.38749e-05 8.1822e-06 0.0001834569 0.0725461268 -0.8415732057
760295440.0 -0.0162433956 0.8437136233 -0.0001611141 7.45503e-05 8.26826e-05 -0.0001509844 0.0640514782 -0.8429474961
765295410.0 -0.0078557833 0.8436477266 4.95751e-05 -0.0001208497 3.89626e-05 5.66626e-05 0.0560489768 -0.8420329733
770295380.0 0.0009427093 0.8442001388 -9.3749e-05 -0.0001200306 0.0002304719 9.72584e-05 0.0482494423 -0.8427724794
775295350.0 0.0090226466 0.8440707498 -0.0001098903 -0.0001303095 3.81757e-05 -0.0001470118 0.039654938 -0.8439811075
780295320.0 0.0177528009 0.8434321454 4.87664e-05 -9.14436e-05 -0.0001672977 2.90473e-05 0.030705964 -0.8433001688
785295290.0 0.0264544359 0.843758088 0.0002970008 -4.2159e-06 0.0002016085 -7.09096e-05 0.0224423415 -0.8439031715
790295260.0 0.034814811 0.842894871 0.0001404026 -0.0001314276 -0.0001186727 -1.16224e-05 0.0146014767 -0.8439165839
795295230.0 0.0426962388 0.8434806808 -0.0001383248 -3.37115e-05 5.5199e-06 -0.0002197951 0.005265429 -0.8439903623
800295200.0 0.0520397095 0.8426067821 -7.65537e-05 0.0002716796 -0.0002034198 8.32987e-05 -0.0028592954 -0.8442876663
805295170.0 0.0598522588 0.8422531521 -5.6111e-06 -0.0001953441 0.0002001464 0.000110165 -0.0114838203 -0.843830133
810295140.0 0.0683852113 0.8416812293 -3.19421e-05 5.28688e-05 4.67204e-05 0.0001984252 -0.0195563009 -0.8427747652
815295110.0 0.0767677555 0.8400575206 -0.0001041435 1.33952e-05 2.25755e-05 -5.3179e-06 -0.0283004949 -0.8427203871
820295080.0 0.0852869304 0.838998246 -0.0001502068 -4.47269e-05 0.0001996786 0.0003043018 -0.0367154152 -0.8425650687
825295050.0 0.0942156264 0.8384273704 -0.0002662948 -0.0002471805 -0.0001039365 4.30818e-05 -0.0448609646 -0.8416037523
830295020.0 0.1026728479 0.8376351336 -6.97668e-05 5.43648e-05 0.0001149364 0.0001014397 -0.0539016431 -0.8409433205
835294990.0 0.1104538053 0.8367471772 -5.21874e-05 2.31788e-05 3.46001e-05 -3.45826e-05 -0.0622934914 -0.8410050032
840294960.0 0.1192462042 0.835233941 -1.3048e-05 0.0001010614 -2.38646e-05 -2.7735e-05 -0.0702922998 -0.8388071486
845294930.0 0.1271633722 0.8342364524 -0.0001476503 -2.85728e-05 -0.0001512488 0.0002266596 -0.0777057385 -0.8381380576
850294900.0 0.1354633304 0.832952567 0.0001649476 -0.0001296712 0.0001924845 -9.9838e-06 -0.0866588975 -0.8376122768
