!Created with skrf (http://scikit-rf.org).
# Hz S RI R 50.0 
!freq ReS11 ImS11 ReS21 ImS21 ReS12 ImS12 ReS22 ImS22
300000.0 -0.2371719838 -0.1097515953 0.4673061616 0.0720343053 0.4726272315 0.0741490443 -0.2391384606 -0.1146143817
5299970.0 -0.2410079451 0.0069375178 0.4752577372 0.0053303824 0.475449089 0.0057098945 -0.2449065951 0.005427224
10299940.0 -0.237413566 0.0196701031 0.477123962 0.0066846909 0.4770426805 0.0064798325 -0.2418236343 0.017481301
15299910.0 -0.2330700291 0.0297567182 0.4807691732 0.007646847 0.4804692661 0.0078227127 -0.2376036465 0.0265523199
20299880.0 -0.2274708925 0.0378117196 0.4857285225 0.0077911166 0.4853604586 0.0082951982 -0.2330148332 0.0340477649
25299850.0 -0.2217466529 0.0442950564 0.4906363052 0.0069300231 0.4907313638 0.0069700919 -0.227848724 0.0399809858
30299820.0 -0.2158408216 0.0494004918 0.4961377351 0.0053034635 0.4957956703 0.0046993221 -0.2226518243 0.0448491089
35299790.0 -0.2098630313 0.0541719723 0.501431819 0.0012338708 0.5013639554 0.0015148636 -0.2171028818 0.0487672077
40299760.0 -0.2045133567 0.0571726332 0.5061761317 -0.0017909045 0.5066008284 -0.0023430572 -0.21293574 0.0523711266
45299730.0 -0.1997224284 0.0602048981 0.511125515 -0.0070826671 0.5113085945 -0.006980043 -0.2081179508 0.0546392686
50299700.0 -0.1947809404 0.0620757689 0.5147103566 -0.0126683153 0.5152904112 -0.0125945228 -0.2037598659 0.0567157001
55299670.0 -0.1907921138 0.0638375371 0.5183514194 -0.0185466605 0.5189852213 -0.0185242522 -0.1999332248 0.058209388
60299640.0 -0.1866566975 0.0648138242 0.5219559842 -0.0250884555 0.522313828 -0.0246056629 -0.1963191815 0.0597280036
65299610.0 -0.1832108697 0.0663235793 0.5247942445 -0.0306477578 0.5253321872 -0.0310925118 -0.1929788114 0.0606379017
70299580.0 -0.1797197461 0.0671100263 0.5274497339 -0.0374406233 0.5273543599 -0.0378026824 -0.1902565205 0.0615870919
75299550.0 -0.1765582261 0.0683578521 0.5289626849 -0.0445058769 0.5291372734 -0.0448903768 -0.1870542448 0.0625633079
80299520.0 -0.1739643267 0.0689906614 0.5312613232 -0.0514528073 0.5314029499 -0.0515556776 -0.1848223336 0.06287206
85299490.0 -0.1714782233 0.0694629607 0.5324576257 -0.0582488487 0.5325957258 -0.058363254 -0.1829454844 0.0634247087
90299460.0 -0.1692599472 0.0702897305 0.5335998072 -0.0651100325 0.5337549994 -0.0650258535 -0.180247608 0.0640070957
95299430.0 -0.1674173052 0.0713613031 0.5344620433 -0.0725285889 0.5347373095 -0.0720622878 -0.1786831178 0.0651075189
100299400.0 -0.1656034711 0.0718353625 0.534737637 -0.0789160965 0.5348417769 -0.0791844712 -0.1769975889 0.0657119093
105299370.0 -0.1634564823 0.0725409603 0.5347354027 -0.0858751767 0.5351015663 -0.0861830598 -0.1749022361 0.066211217
110299340.0 -0.1621845471 0.0730348011 0.5351654909 -0.092533534 0.535161114 -0.0929862231 -0.1739159723 0.066773879
115299310.0 -0.1603829106 0.0734126242 0.535005322 -0.0991570823 0.5352547074 -0.0994404531 -0.1722009302 0.0670699061
120299280.0 -0.1591800188 0.0744833328 0.5352599043 -0.1064669356 0.5351378528 -0.1061810838 -0.1711284589 0.0682865832
125299250.0 -0.1579697076 0.0751794755 0.5347922251 -0.1129577363 0.5346773622 -0.1132029862 -0.1701055623 0.068304436
130299220.0 -0.1565068773 0.076036849 0.533746301 -0.1194132912 0.5339501719 -0.1197311763 -0.1689223308 0.06952614
135299190.0 -0.1551284446 0.076685234 0.5332948834 -0.1259588971 0.5328408468 -0.1266399694 -0.1677829083 0.070320013
140299160.0 -0.1541637221 0.0780907571 0.5324994557 -0.1331212053 0.5328537168 -0.1330037454 -0.166590809 0.0710563292
145299130.0 -0.1532198589 0.0790829075 0.531765412 -0.140033055 0.5315960028 -0.1391813498 -0.1661734625 0.0717053227
150299100.0 -0.1520016467 0.0799052968 0.5304020942 -0.1461282132 0.5304750518 -0.146008484 -0.1650882919 0.072302398
155299070.0 -0.1511274821 0.0812794332 0.5292720942 -0.1528496124 0.529065965 -0.1531922123 -0.1645627856 0.0736316654
160299040.0 -0.1502114706 0.0819608046 0.5276355994 -0.1587123444 0.5280571858 -0.1590769512 -0.1633481683 0.0749465513
165299010.0 -0.1493312223 0.0831058752 0.5267308601 -0.16567758 0.5264455883 -0.1656316392 -0.1626305926 0.0754782662
170298980.0 -0.1485595993 0.084523481 0.5242739256 -0.1719269537 0.5246311036 -0.1717326867 -0.1618084842 0.0761774197
175298950.0 -0.1472757736 0.0852989982 0.5235952511 -0.1779577154 0.5235477666 -0.1778442982 -0.1608937056 0.0774726441
180298920.0 -0.1464223869 0.0866451926 0.5218820177 -0.1848217741 0.52172249 -0.1842295891 -0.160511562 0.0788526329
185298890.0 -0.1452191651 0.0879462139 0.5196740411 -0.1908942288 0.5196503309 -0.190673821 -0.1597453614 0.0796313882
190298860.0 -0.1444377589 0.0891125611 0.5175535154 -0.1966689343 0.51834778 -0.1967607939 -0.1584874043 0.0807988576
195298830.0 -0.1435186587 0.0900873774 0.5157172836 -0.2027753272 0.5159616403 -0.2028981051 -0.1581158825 0.0818809487
200298800.0 -0.1426734471 0.0917578635 0.5142286664 -0.2087670559 0.5135861388 -0.2086679108 -0.1569904538 0.0834597303
205298770.0 -0.1417450941 0.0928471411 0.511895951 -0.2148722665 0.5115005523 -0.215128633 -0.1560491515 0.0842879032
210298740.0 -0.1407735595 0.0942683178 0.509603416 -0.2213670304 0.5093934095 -0.2211931364 -0.1556205876 0.085580192
215298710.0 -0.1399767749 0.0956794452 0.5072779709 -0.226754922 0.5071300627 -0.2270180059 -0.1552656982 0.0869948114
220298680.0 -0.1389689941 0.0971359619 0.5045780772 -0.2329182338 0.5050555687 -0.2327736811 -0.1540957779 0.08819061
225298650.0 -0.1376796857 0.0984905295 0.5021477938 -0.238086078 0.5018426287 -0.2382620464 -0.1535831823 0.0896486172
230298620.0 -0.1371490955 0.1000139973 0.5000009648 -0.2442245593 0.4998505947 -0.2444219922 -0.1525658565 0.0907084174
235298590.0 -0.1359799207 0.1011969448 0.4969089132 -0.250223478 0.4970873268 -0.2501746212 -0.1517785267 0.0914640265
240298560.0 -0.1351863156 0.10282917 0.4946037808 -0.2557379486 0.4942433837 -0.2558044361 -0.1511742716 0.093117124
245298530.0 -0.1337947519 0.1040706165 0.4910429639 -0.2616639231 0.4914393935 -0.2617709445 -0.1503047956 0.0947561665
250298500.0 -0.133036551 0.1051033668 0.488600348 -0.2667108795 0.4890590454 -0.2666181418 -0.1490676037 0.0958729275
255298470.0 -0.132089081 0.1069826473 0.4859477594 -0.2730896002 0.4857404683 -0.2724515802 -0.1483746596 0.0968796481
260298440.0 -0.1308032382 0.108078687 0.4828176927 -0.2777225862 0.4828125427 -0.2785361365 -0.1471037727 0.0986130587
265298410.0 -0.1292847544 0.1098219896 0.4796417324 -0.284144807 0.4794529072 -0.2838225663 -0.1465872407 0.0995648975
270298380.0 -0.1282841859 0.1109124682 0.4763816116 -0.2893036816 0.4769688536 -0.289482559 -0.1456661608 0.101545742
275298350.0 -0.1276039908 0.1124429809 0.4736198461 -0.2948024932 0.4741468243 -0.2949487565 -0.1445550342 0.1025449438
280298320.0 -0.1262796105 0.1141337522 0.4706359566 -0.2997444025 0.4701027408 -0.3002786638 -0.1435788857 0.1038690613
285298290.0 -0.1250861979 0.1156722601 0.4671385894 -0.3051862821 0.4670936526 -0.3053959974 -0.1429286642 0.1053173814
290298260.0 -0.1238067659 0.1167665293 0.4637447548 -0.3106053995 0.463809374 -0.3108285939 -0.141359459 0.1066528525
295298230.0 -0.1224463866 0.1181176425 0.4606805945 -0.3157458271 0.4603674709 -0.3160627197 -0.1402337429 0.1082106974
300298200.0 -0.1210201212 0.1195729842 0.4570354792 -0.32095166 0.4571857713 -0.3212644318 -0.1393497457 0.1095461636
305298170.0 -0.1197911508 0.1210116202 0.4538803215 -0.3266128139 0.4538477357 -0.3268227926 -0.1379991736 0.1110417873
310298140.0 -0.1179405418 0.1218587733 0.4500762079 -0.3317564897 0.4501105078 -0.3319957103 -0.1372172598 0.1126545507
315298110.0 -0.1173222159 0.1233764654 0.4464343856 -0.3368473075 0.4467057277 -0.3369906834 -0.1356575911 0.1131838712
320298080.0 -0.1160717407 0.1244219753 0.4425645221 -0.3420621316 0.4428848429 -0.3419673398 -0.135115735 0.1144862257
325298050.0 -0.1147648328 0.1256258134 0.4391468834 -0.3473379929 0.4389764603 -0.3472125715 -0.1340241857 0.1157707275
330298020.0 -0.1133269714 0.1271921892 0.4344839398 -0.3521364612 0.4347967138 -0.3522841246 -0.1331504132 0.1171617627
335297990.0 -0.1120665106 0.128204622 0.4307299046 -0.3573080015 0.4306563831 -0.3572542478 -0.1321778262 0.1185069874
340297960.0 -0.1115902088 0.1296243991 0.4265967931 -0.3618461943 0.4272410981 -0.3616341665 -0.1311985455 0.1199142893
345297930.0 -0.1101618971 0.1310036189 0.4224801033 -0.3658150625 0.4219694833 -0.3659652294 -0.1297320064 0.1210704633
350297900.0 -0.1082735924 0.1326462947 0.418329274 -0.3708767208 0.4188061606 -0.3708575933 -0.1291356104 0.1229427852
355297870.0 -0.1072616486 0.133718643 0.4140735256 -0.3753786384 0.4142030356 -0.3755253955 -0.1282458463 0.1241499626
360297840.0 -0.1056407205 0.1352983202 0.4100237764 -0.3802201173 0.4100502815 -0.3801988205 -0.1266641982 0.1257570288
365297810.0 -0.104315649 0.1362226747 0.4055757159 -0.3845652939 0.4059053885 -0.3847559797 -0.1259944705 0.1275740655
370297780.0 -0.1025096312 0.1378381667 0.4011801507 -0.3890119322 0.4018208322 -0.389245972 -0.124102545 0.1287548392
375297750.0 -0.1013755036 0.1395462445 0.398046043 -0.3930807187 0.39714597 -0.3936519716 -0.1230404456 0.1299869772
380297720.0 -0.0993791344 0.1403232613 0.3931322352 -0.3978047136 0.3929089617 -0.3979208684 -0.1217736468 0.1315823975
385297690.0 -0.0981158745 0.1415945701 0.3884629894 -0.4014542253 0.3885081388 -0.4021825715 -0.1205533858 0.1332182661
390297660.0 -0.0966317458 0.1429374702 0.3841804473 -0.4066570169 0.3843783107 -0.4068723489 -0.1193469449 0.1340122773
395297630.0 -0.0945905557 0.1439009522 0.3798538079 -0.4103038283 0.3797068331 -0.4104015312 -0.1179968235 0.1359672946
400297600.0 -0.0937066612 0.1455784612 0.3752445136 -0.4148445807 0.3752962381 -0.4147871906 -0.1174380315 0.1368443476
405297570.0 -0.0918285504 0.1466056409 0.3708054675 -0.4189875358 0.3709057311 -0.4190371216 -0.1159384038 0.1385464457
410297540.0 -0.090170466 0.1475091819 0.3657163386 -0.422245716 0.3656188006 -0.4227072479 -0.1141770959 0.1398431493
415297510.0 -0.0883124709 0.1490144526 0.3612575885 -0.4269261008 0.361403465 -0.4267524155 -0.1133106399 0.1414365089
420297480.0 -0.0869763326 0.1496933009 0.3560483818 -0.4306401609 0.3567984916 -0.4306937007 -0.1118247545 0.1423299701
425297450.0 -0.085101703 0.1509174823 0.3522471358 -0.4346518558 0.3523500793 -0.4346681691 -0.1101816136 0.1439429292
430297420.0 -0.0836161174 0.1519833147 0.3472596461 -0.4384051648 0.3472984434 -0.4385985809 -0.1093190815 0.1448552247
435297390.0 -0.0815074184 0.1531549394 0.3421429768 -0.442165551 0.3425064599 -0.4418852296 -0.1075717379 0.1463217175
440297360.0 -0.0798415017 0.154192426 0.336977596 -0.445842773 0.337050953 -0.4458126412 -0.106421962 0.1472770953
445297330.0 -0.0780746818 0.1553038426 0.3320622627 -0.4498658993 0.332166345 -0.4494297396 -0.1050455564 0.1485068103
450297300.0 -0.0762715281 0.1560324942 0.3273156317 -0.4529828218 0.3274563324 -0.4532996426 -0.1035696694 0.1498594895
455297270.0 -0.074817245 0.1571987887 0.3229537645 -0.4568096376 0.3229367368 -0.4565470527 -0.1018068531 0.1511063877
460297240.0 -0.0733590087 0.1579642513 0.3174969706 -0.4597079542 0.3173778201 -0.4601713963 -0.1004327381 0.1526413962
465297210.0 -0.0709508658 0.1587169093 0.3125896048 -0.4632242337 0.312778682 -0.4635992637 -0.0997561978 0.1533456201
470297180.0 -0.0696641678 0.1597562294 0.307638384 -0.4668782564 0.3076098752 -0.4669643047 -0.0983986778 0.1547663059
475297150.0 -0.0676631961 0.1607668038 0.3022555461 -0.4700268437 0.3026222665 -0.4698539474 -0.0962953659 0.1560283332
480297120.0 -0.0657890105 0.1612649818 0.2969136881 -0.4728117293 0.2975694754 -0.4731998106 -0.0951650342 0.1572605962
485297090.0 -0.0638205554 0.1624422014 0.292250447 -0.4765560346 0.2922462052 -0.4767390208 -0.0939015254 0.1584040182
490297060.0 -0.0620033084 0.1628771905 0.2867216644 -0.4793387333 0.2869937339 -0.4796646964 -0.0920835952 0.1592838439
495297030.0 -0.0607543827 0.1642095674 0.2815036542 -0.4828144586 0.2813141175 -0.4826357574 -0.0905157626 0.1603755902
500297000.0 -0.0585941508 0.1646310296 0.2759365808 -0.4854954195 0.2766255208 -0.4856668244 -0.0894818935 0.1611598598
505296970.0 -0.0569687058 0.1654887123 0.2706522577 -0.4883163942 0.2709524818 -0.4886702205 -0.0883798918 0.1623366808
510296940.0 -0.0551395746 0.1662745793 0.2656587124 -0.4916531951 0.2655422998 -0.4916037375 -0.0856896933 0.1639643235
515296910.0 -0.0532867203 0.1672478985 0.2599100459 -0.4943762075 0.2606862519 -0.4945904744 -0.0849289756 0.1646822085
520296880.0 -0.0512399293 0.167798331 0.2548974859 -0.497089903 0.2552179403 -0.4970757741 -0.0828432651 0.1653634723
525296850.0 -0.0495467362 0.1682594443 0.2493962205 -0.4999252004 0.2495021559 -0.4999566606 -0.0812897489 0.1666575602
530296820.0 -0.0474578691 0.1690642232 0.244419732 -0.5021801854 0.2438866145 -0.5022106225 -0.0803284492 0.1672403896
535296790.0 -0.0458158174 0.1696845482 0.2383559487 -0.5045165526 0.2390838122 -0.5047941843 -0.078803372 0.1681661919
540296760.0 -0.0438443889 0.1699820398 0.2326661097 -0.5077067504 0.2329425777 -0.5079434715 -0.0774688473 0.1694226967
545296730.0 -0.0418771991 0.1713521036 0.2270724974 -0.5100947007 0.2276872071 -0.5103050997 -0.0753909312 0.1700812282
550296700.0 -0.0401646644 0.171416853 0.2220740423 -0.5122844826 0.2223439335 -0.5125918966 -0.0741016065 0.1713009222
555296670.0 -0.0379657441 0.1719576997 0.2166762843 -0.5151092371 0.2165199298 -0.5149717462 -0.0722894939 0.1721998438
560296640.0 -0.0363254605 0.1725970733 0.2108252923 -0.517029471 0.2111045869 -0.5166226269 -0.070824602 0.1730414193
565296610.0 -0.0344296892 0.1733033269 0.2051349025 -0.5189157959 0.2048816006 -0.5194196198 -0.0692130292 0.1736700323
570296580.0 -0.0323377215 0.1734635466 0.1994480254 -0.5210451357 0.1999451796 -0.5215822986 -0.0676295309 0.1750602245
575296550.0 -0.0305437875 0.1744940521 0.19407026 -0.5233750844 0.1945393148 -0.5234841842 -0.0656498052 0.175687645
580296520.0 -0.0285425207 0.1747481052 0.1884605251 -0.5255602218 0.1883633204 -0.5259435632 -0.064192267 0.1761041219
585296490.0 -0.0264496929 0.1747640032 0.1829576726 -0.5275591849 0.1824776608 -0.5274036481 -0.0626215033 0.1767786628
590296460.0 -0.0249049801 0.1753687208 0.1770695154 -0.5292877301 0.176523837 -0.5296241618 -0.0607162139 0.1777223839
595296430.0 -0.0226680726 0.1758304401 0.1712252473 -0.5312189297 0.1708715634 -0.5318550195 -0.0592364998 0.1781329492
600296400.0 -0.020774536 0.1762153897 0.1657056014 -0.5330463319 0.1656485129 -0.5333903839 -0.057388534 0.1791452363
605296370.0 -0.0186694778 0.1770037451 0.1594000371 -0.5350274557 0.1598265875 -0.5348275657 -0.0558772715 0.1799179511
610296340.0 -0.0170812021 0.1770800674 0.1543120771 -0.5364734691 0.1543642945 -0.5366476153 -0.054034766 0.1808925131
615296310.0 -0.0148459953 0.1775612979 0.1479914037 -0.5377808612 0.1479845965 -0.5383768815 -0.0523084879 0.1815594404
620296280.0 -0.0129968296 0.1776182118 0.1425433915 -0.5390036557 0.1423718403 -0.5395862898 -0.0506456577 0.1813503079
625296250.0 -0.01071507 0.1779530479 0.1357318943 -0.5414233869 0.1359973531 -0.541197334 -0.048812915 0.182687986
630296220.0 -0.0087380579 0.178371053 0.1303533738 -0.5428136165 0.1309443235 -0.5428502545 -0.0474669651 0.1832767984
635296190.0 -0.006894345 0.1785094826 0.1247962634 -0.5431271243 0.1244471768 -0.543419874 -0.0455389352 0.1836382777
640296160.0 -0.0048917753 0.178681559 0.1186482415 -0.5448223196 0.1186568462 -0.545217457 -0.0433835957 0.1841215615
645296130.0 -0.002980141 0.1793011898 0.112952629 -0.5467896435 0.113295608 -0.5462666511 -0.0425504757 0.1844951549
650296100.0 -0.0008801495 0.1794805338 0.1075483064 -0.5475572945 0.107045645 -0.5471517469 -0.0403445091 0.1851363128
655296070.0 0.0011203687 0.1793488945 0.1014370063 -0.5483705874 0.1009654072 -0.5488017338 -0.0379318895 0.1859882227
660296040.0 0.0026227488 0.17954744 0.0954607941 -0.549600542 0.095270942 -0.5496463141 -0.0366646475 0.1861427153
665296010.0 0.0049924535 0.1795763651 0.0894964921 -0.5502732564 0.0896465612 -0.5502672613 -0.0351777199 0.1870717386
670295980.0 0.0071212117 0.1798720907 0.0835203589 -0.5514007192 0.0836627002 -0.5514878873 -0.0336374936 0.1872990625
675295950.0 0.0088611375 0.1795276356 0.0772117744 -0.5520512618 0.077551281 -0.5528717453 -0.0312718418 0.1880875086
680295920.0 0.0111696775 0.1802043604 0.071355338 -0.5530900007 0.0713438295 -0.5531553676 -0.0294003613 0.1882527342
685295890.0 0.0131147054 0.1798013835 0.0656595234 -0.5535248441 0.0652163902 -0.5540443039 -0.0275762757 0.1889105683
690295860.0 0.015343899 0.1800992765 0.0594404376 -0.5539619517 0.0591323254 -0.5541836359 -0.0258065643 0.189517725
695295830.0 0.0174248752 0.1798113769 0.052772681 -0.554761337 0.0532636168 -0.5548223623 -0.0241401733 0.1895113526
700295800.0 0.0195438999 0.1798755723 0.0470540186 -0.555225263 0.0477394764 -0.5557552742 -0.0222671909 0.1894708374
705295770.0 0.0213956852 0.1798352898 0.0413489605 -0.5559564457 0.0418695216 -0.555988438 -0.0210522548 0.1902731779
710295740.0 0.0232929348 0.1798903894 0.0354722181 -0.5561206631 0.0355555108 -0.5559698749 -0.0195019873 0.1908387296
715295710.0 0.0253028097 0.1797172278 0.0292520705 -0.5566533499 0.0299015855 -0.5569812085 -0.0171504168 0.1909882329
720295680.0 0.027198875 0.1790822344 0.0236097804 -0.5567337524 0.0234698262 -0.5573060451 -0.0149661864 0.1913030812
725295650.0 0.0296986765 0.179272482 0.0169341246 -0.5567650318 0.0174294985 -0.5568894165 -0.0132043407 0.1916313255
730295620.0 0.0311433512 0.1791136208 0.0110897258 -0.5571776808 0.0115292647 -0.5577010555 -0.0113965511 0.1916868393
735295590.0 0.0336868054 0.1789332418 0.0055315583 -0.5571908681 0.0055233683 -0.5574088025 -0.0093886045 0.1922361249
740295560.0 0.0351361818 0.1788938971 -0.0003329719 -0.5567114014 -0.0006178804 -0.5572062281 -0.007538651 0.1921425575
745295530.0 0.0372668105 0.1783828971 -0.006280511 -0.5568797906 -0.0059854748 -0.5574955093 -0.0059805847 0.1925589155
750295500.0 0.0396384704 0.1782615514 -0.0123505655 -0.5568357188 -0.0124458774 -0.5571258174 -0.0038893282 0.1925242008
755295470.0 0.0419404952 0.1781582966 -0.0182970741 -0.5567277571 -0.0184724374 -0.5571431082 -0.0024551191 0.1928893351
760295440.0 0.0436874174 0.1777973323 -0.0246467583 -0.5567697622 -0.0246477219 -0.5566093115 -0.0007072972 0.1930722273
765295410.0 0.0453608676 0.1772194101 -0.0301052124 -0.5558141319 -0.0301464148 -0.5562676128 0.0020483028 0.1935712253
770295380.0 0.0477431077 0.1770172442 -0.0363730654 -0.5553552851 -0.0363121339 -0.5558447511 0.0039874913 0.1934602082
775295350.0 0.0493050642 0.17673547 -0.0419950565 -0.5546053849 -0.0422596656 -0.5549726464 0.0049995908 0.1931383691
780295320.0 0.051583067 0.1760457505 -0.0479711841 -0.5551821671 -0.0482800664 -0.5550821212 0.0072712127 0.1940972562
785295290.0 0.0534880877 0.1758650596 -0.0544444077 -0.5535913042 -0.0543861236 -0.5545041605 0.0087717184 0.1937572126
790295260.0 0.0552475226 0.1755120193 -0.0601969786 -0.5536657824 -0.0601603022 -0.5537309406 0.0111726939 0.194040044
795295230.0 0.057231967 0.1753099513 -0.0654994457 -0.5522771381 -0.0658862342 -0.5529540087 0.0125437228 0.1945121865
800295200.0 0.0593941801 0.1748671918 -0.072452898 -0.5524204586 -0.0725506936 -0.5523933743 0.014671838 0.1940068615
805295170.0 0.0610306091 0.174112765 -0.0779225136 -0.550780694 -0.0780652502 -0.5511043213 0.0160592387 0.1937997841
810295140.0 0.0630329611 0.1733193916 -0.0836969616 -0.5502605764 -0.0838755766 -0.5508764626 0.0184652129 0.1945032354
815295110.0 0.0650300347 0.1728868393 -0.0899604026 -0.5491085416 -0.0900975211 -0.5494209774 0.0199767817 0.1939520451
820295080.0 0.0670798773 0.1720926049 -0.0955837158 -0.548206504 -0.0957663163 -0.5488792835 0.0217935272 0.1937553589
825295050.0 0.0688634951 0.1714632662 -0.1016074047 -0.5463436461 -0.1015636543 -0.5473485613 0.0238391078 0.1938975196
830295020.0 0.0709509263 0.1712429274 -0.1079280324 -0.5460206503 -0.1077221395 -0.5462204257 0.0255390388 0.1938056183
