!Created with skrf (http://scikit-rf.org).
# Hz S RI R 50.0 
!freq ReS11 ImS11 ReS21 ImS21 ReS12 ImS12 ReS22 ImS22
300000.0 -0.7739530228 -0.1798772357 -0.0006410523 0.0006596007 -0.0007595363 0.0017596613 -0.2071270175 -0.1066070663
5299970.0 -0.7861680072 -0.0096907812 3.6576e-06 4.70792e-05 -0.0002672115 -7.40052e-05 -0.2161079822 0.0060150539
10299940.0 -0.7893921434 -0.0062568561 -7.1512e-05 -7.056e-06 2.20925e-05 0.0001666981 -0.2122405552 0.0187992566
15299910.0 -0.7941377027 -0.003346773 2.96863e-05 0.0001729241 0.0001426281 -3.37045e-05 -0.2076002978 0.0280626245
20299880.0 -0.8010453462 0.0005010656 0.0002022533 0.0001714801 5.81453e-05 5.62286e-05 -0.2023298156 0.0357755471
25299850.0 -0.8081800208 0.0068933905 -0.000200826 0.0001134492 -0.0001113152 -0.0001544807 -0.1965484264 0.0417569976
30299820.0 -0.8138530878 0.0141880568 0.0001016826 6.4635e-06 3.03606e-05 -0.000121021 -0.1906972646 0.046791629
35299790.0 -0.8188169599 0.0234641932 0.00020859 -1.02967e-05 3.67441e-05 9.7731e-05 -0.1850777015 0.0503964405
40299760.0 -0.8239904138 0.0321426138 3.30581e-05 9.20053e-05 0.0002301981 4.01976e-05 -0.1793031863 0.0530842186
45299730.0 -0.8263948686 0.041543151 0.0001272668 -3.86385e-05 1.41036e-05 9.03423e-05 -0.1744299802 0.0554394329
50299700.0 -0.8287776437 0.0516115682 -0.0001224783 -0.0001212768 -5.81254e-05 4.64754e-05 -0.1696872116 0.0569882894
55299670.0 -0.831281289 0.0612406512 0.0002157975 3.17326e-05 8.05188e-05 1.72334e-05 -0.1654614188 0.057890387
60299640.0 -0.832703617 0.0718856072 -0.0003060233 -1.68779e-05 -0.0001482817 -4.6402e-06 -0.1612564466 0.0585811626
65299610.0 -0.8333961343 0.0817359371 -7.65867e-05 5.29966e-05 0.0001599731 5.4215e-05 -0.1576048436 0.0593116662
70299580.0 -0.8337857633 0.0915707296 0.000116169 0.0002010526 1.42836e-05 0.0001107583 -0.154471998 0.0597726541
75299550.0 -0.8339296279 0.1015825919 -8.95513e-05 -4.8501e-05 -9.89622e-05 6.28232e-05 -0.1513147177 0.0599998848
80299520.0 -0.8342085293 0.1120968329 0.0001227725 0.0002189243 -0.0002362071 0.0001804764 -0.1489334345 0.060095064
85299490.0 -0.8328987834 0.120614156 -0.0001041539 2.54987e-05 6.6161e-06 0.0001687146 -0.1463154235 0.0598089389
90299460.0 -0.8322754964 0.1315948037 -0.0001260519 9.46274e-05 -8.74564e-05 -0.0001507984 -0.1440957318 0.0600392635
95299430.0 -0.8318002302 0.1404086699 0.0001835364 -6.2835e-06 0.0001009079 0.0002196127 -0.1420472422 0.0601455381
100299400.0 -0.8304989913 0.149868597 -0.0001648182 0.0002852134 9.8606e-06 0.0001675193 -0.140464498 0.0603826885
105299370.0 -0.8287623591 0.1594456925 -5.83868e-05 0.0001456932 6.18178e-05 -1.28072e-05 -0.1389006434 0.0597103063
110299340.0 -0.82740908 0.168300817 -0.0002329166 -0.0001181379 0.0001437153 7.51706e-05 -0.1375767507 0.0598637743
115299310.0 -0.8257385388 0.1776549297 0.0002258089 3.06719e-05 -5.93364e-05 0.0001695991 -0.1361038164 0.0602045802
120299280.0 -0.8248666655 0.1869495207 -4.0429e-05 -1.976e-07 -0.0002691997 0.0002254441 -0.1346407028 0.0596678898
125299250.0 -0.8229018136 0.1954454525 0.0002529676 -0.0001299167 -4.37737e-05 -5.32303e-05 -0.1337172078 0.06020014
130299220.0 -0.8210132983 0.2051909582 -0.0001949685 -3.95486e-05 3.09773e-05 0.0001446155 -0.1326871544 0.0601192159
135299190.0 -0.8187419123 0.2145832462 0.0001180695 -8.1287e-05 2.23444e-05 -0.0001405778 -0.1319198561 0.0603668688
140299160.0 -0.8171292294 0.2232452366 -1.95987e-05 -0.0001282716 7.79434e-05 -4.4342e-06 -0.1312290579 0.0605489462
145299130.0 -0.8149786934 0.231857116 0.0001147175 0.0001005336 2.5847e-05 -3.75178e-05 -0.1301385087 0.0609131157
150299100.0 -0.8116279635 0.2408312011 8.4936e-06 3.35319e-05 -1.5628e-06 -6.07638e-05 -0.1297977181 0.0616669761
155299070.0 -0.8103940894 0.2503224923 0.0002616213 0.0001600957 0.0001797828 0.0001852377 -0.129143318 0.0622034419
160299040.0 -0.8076247563 0.2594783114 -0.0001637891 -1.39091e-05 0.0001016239 0.0001075989 -0.1284200063 0.0623542154
165299010.0 -0.8045572492 0.2671369453 0.000210406 -0.0001109853 -4.06519e-05 -8.27995e-05 -0.1275092762 0.0624645894
170298980.0 -0.80192463 0.2762020136 0.0002000872 6.70921e-05 0.0001891982 -4.95344e-05 -0.1273397412 0.0632505205
175298950.0 -0.7988113404 0.2843723966 0.0001119488 0.0001358419 -0.000177299 0.0001541949 -0.1265785442 0.0639201784
180298920.0 -0.7961711869 0.2934522076 -0.0001729247 -3.60871e-05 9.95744e-05 -0.0001501685 -0.1260351908 0.0643620982
185298890.0 -0.7925818404 0.3016263199 -6.38742e-05 8.35495e-05 2.38162e-05 -4.76991e-05 -0.1254894962 0.0648233754
190298860.0 -0.7890896827 0.3111428484 0.0003616342 5.49387e-05 -6.2004e-06 0.0001522081 -0.1249049513 0.065785686
195298830.0 -0.7863566675 0.3192228618 -3.06664e-05 -4.40238e-05 0.0001681646 0.0001710684 -0.1246623083 0.0663532394
200298800.0 -0.7826487447 0.3279009089 0.00013135 0.0003003805 -1.80996e-05 -6.94938e-05 -0.1242415752 0.0672827205
205298770.0 -0.7791503141 0.3362872389 0.0003176019 -5.77944e-05 2.84587e-05 -2.88093e-05 -0.1237752703 0.0679889055
210298740.0 -0.7760468225 0.3444385713 0.0002411757 0.0001433523 0.0002943297 9.80635e-05 -0.1232751334 0.0684501572
215298710.0 -0.7724455089 0.3536068373 -3.31317e-05 9.87124e-05 -6.7411e-06 2.10911e-05 -0.122648733 0.069119389
220298680.0 -0.768778612 0.3608049456 0.0001764733 4.22996e-05 8.40275e-05 4.37305e-05 -0.1222518931 0.0703167227
225298650.0 -0.7649593174 0.3696717224 -1.43429e-05 -6.40192e-05 0.0002538486 -4.56185e-05 -0.1217362779 0.0711492486
230298620.0 -0.760590016 0.3774173802 -9.9104e-06 7.55122e-05 0.0001841885 0.0001049787 -0.1215044276 0.0718424135
235298590.0 -0.7572782029 0.3857408048 0.0002213618 1.16169e-05 5.82394e-05 0.0002133867 -0.1210512572 0.0726827087
240298560.0 -0.753019816 0.3936440128 -2.05392e-05 -0.000152145 0.0001547484 7.41666e-05 -0.1205068221 0.073356543
245298530.0 -0.7486447808 0.4015687696 -9.70855e-05 3.73462e-05 8.4563e-06 -5.81511e-05 -0.1202560874 0.0744732766
250298500.0 -0.7449005729 0.4090824213 6.20829e-05 -1.68982e-05 8.5212e-05 0.0001380297 -0.1196806191 0.0756241419
255298470.0 -0.7405763768 0.4174221202 -7.03594e-05 0.0001919038 -3.72571e-05 0.0001470104 -0.1189821222 0.0764415173
260298440.0 -0.736587039 0.4244650191 0.0002362178 0.0002650918 0.0002442125 0.0001006215 -0.1188573096 0.077349448
265298410.0 -0.7319179349 0.4325659846 5.5403e-06 0.0002739185 2.10748e-05 -3.44654e-05 -0.117799625 0.0783615611
270298380.0 -0.7269584372 0.4402081925 0.000157624 -3.16575e-05 -0.0001383691 0.0001801673 -0.1173069413 0.0793582829
275298350.0 -0.7233838324 0.4478183852 4.3853e-05 0.0003511696 0.000187065 0.0001994675 -0.1169718719 0.0802839459
280298320.0 -0.7182940581 0.4553694859 6.97503e-05 4.69225e-05 0.0001147986 -7.16845e-05 -0.1164299964 0.0810655347
285298290.0 -0.7133068666 0.463281699 0.000362976 -9.66024e-05 0.000127945 -5.94587e-05 -0.1158848954 0.0825184416
290298260.0 -0.7089884857 0.4710689568 -6.958e-06 0.0001142289 0.0001841585 0.0001504377 -0.1153733321 0.0834918106
295298230.0 -0.7037514614 0.4780044733 0.000135757 -5.02558e-05 -2.10752e-05 0.0001511865 -0.1147347597 0.0841909449
300298200.0 -0.6993479381 0.4855068874 0.0002360097 9.6469e-05 0.0001606394 0.0001209095 -0.1140517595 0.0854015161
305298170.0 -0.6945964668 0.4925136657 0.0003239259 0.0001640815 0.0001773868 2.86657e-05 -0.1132134919 0.0862682141
310298140.0 -0.6890042725 0.4994090708 0.0001995025 0.0001263394 0.0002652034 8.34446e-05 -0.1124952543 0.0876842498
315298110.0 -0.6843379585 0.5073137554 1.53108e-05 -6.29086e-05 0.0001442164 -0.0002533899 -0.1119595328 0.0885392651
320298080.0 -0.6794149991 0.5145258963 0.000113027 0.0001964171 0.0001300928 7.3753e-06 -0.1114751697 0.0895243579
325298050.0 -0.6736148835 0.5208451176 0.0001686336 5.71866e-05 5.90882e-05 8.27788e-05 -0.1104170107 0.090130746
330298020.0 -0.6684278537 0.5279976314 -4.66486e-05 4.58412e-05 -7.6711e-06 -2.1887e-05 -0.1099878123 0.0910703856
335297990.0 -0.6628762157 0.5346687688 -0.0001301155 -0.0001696512 0.0001020576 4.09375e-05 -0.1093957636 0.0920055728
340297960.0 -0.6576443682 0.5415286348 8.17435e-05 0.0001805897 0.0001260839 0.0001547493 -0.1090561792 0.093313302
345297930.0 -0.6522473257 0.5481068619 0.0002796533 -1.82844e-05 0.0001290709 7.71998e-05 -0.108698286 0.0943537267
350297900.0 -0.6460100568 0.5546095709 -0.0001020056 6.0505e-06 0.0002475634 7.59284e-05 -0.108192814 0.095338612
355297870.0 -0.6409452763 0.5611057862 8.46111e-05 0.0002322741 0.0001936322 0.0001395977 -0.107265068 0.0967805014
360297840.0 -0.6349171648 0.5678250433 3.69831e-05 0.0002497447 8.92269e-05 3.94181e-05 -0.1064822536 0.0975911594
365297810.0 -0.6295710035 0.5748387034 9.38186e-05 -2.91454e-05 0.000130944 0.000155902 -0.1057494341 0.0985993994
370297780.0 -0.6233445413 0.580305628 8.30391e-05 -1.47686e-05 0.000190367 6.46777e-05 -0.1054031532 0.0999485113
375297750.0 -0.6181035863 0.5871147469 0.0002158527 0.0002319923 3.204e-05 0.0002582161 -0.1042547338 0.1010255748
380297720.0 -0.612316983 0.5932498425 0.0004322807 0.0001111696 0.0002056317 0.0001981396 -0.1033836137 0.1023339329
385297690.0 -0.6063567207 0.5988967552 0.0001180358 -5.44993e-05 0.0002058605 -4.64554e-05 -0.1029894229 0.1033890077
390297660.0 -0.5990434355 0.6054364847 7.46941e-05 -1.04834e-05 0.0001251839 3.40379e-05 -0.1018311847 0.1043965239
395297630.0 -0.5931937134 0.6118991918 6.43316e-05 -0.0001883861 0.0001035231 0.0001269579 -0.1012707968 0.1051507237
400297600.0 -0.5865943423 0.6184885599 7.94822e-05 0.0002517055 0.0002231837 -8.52204e-05 -0.1001878198 0.1064170482
405297570.0 -0.5806202886 0.6230408902 1.1625e-06 0.0002113259 0.0001175765 0.0003050201 -0.0993007444 0.1073428993
410297540.0 -0.5740262612 0.6296718108 0.0001212072 0.0001456528 0.0002677161 -8.66151e-05 -0.0986082434 0.1087418365
415297510.0 -0.5674650765 0.6352852413 -4.19968e-05 0.0001036321 0.0001639247 0.0002342977 -0.0976364501 0.1096394979
420297480.0 -0.5606611836 0.6413769254 0.0003183904 8.70956e-05 0.0001065977 -7.42805e-05 -0.0963097009 0.1109749895
425297450.0 -0.5547446168 0.646267284 0.0002367291 0.0001718849 0.0003981473 5.36429e-05 -0.0958668477 0.1115219001
430297420.0 -0.5478992561 0.6517545183 0.0002176511 -6.19849e-05 0.0001642836 -8.97636e-05 -0.0948129836 0.1128635478
435297390.0 -0.5410295244 0.6574972637 0.0002033525 9.69869e-05 0.0001461828 2.94528e-05 -0.0940715563 0.1141184676
440297360.0 -0.5340246949 0.6629606525 0.0001034063 6.41883e-05 5.76349e-05 0.0002589975 -0.0931486623 0.1151238333
445297330.0 -0.5274627627 0.6683518039 8.6503e-05 8.02826e-05 0.0002759132 -0.000106351 -0.091932328 0.1156604662
450297300.0 -0.5203542219 0.6734167974 0.0002523438 0.000113582 0.0002586405 -0.0001645195 -0.0909699254 0.116593298
455297270.0 -0.5135325807 0.678578544 0.000189029 0.0001984992 9.5362e-06 0.0002487203 -0.089941473 0.1180309122
460297240.0 -0.5060345408 0.6843031303 0.0001765574 -8.97925e-05 4.9497e-05 0.0001853991 -0.0890691074 0.1186550688
465297210.0 -0.4996603933 0.6888328755 0.0002792462 2.94331e-05 0.0002531865 4.36742e-05 -0.0878529535 0.1202543959
470297180.0 -0.4917202017 0.6939557601 0.0002284574 -4.43799e-05 0.0003078729 -1.066e-06 -0.0870997871 0.1209157915
475297150.0 -0.485172078 0.6989775113 0.0003878811 0.0001255177 5.04891e-05 0.0001627052 -0.0858165094 0.1218988574
480297120.0 -0.4771894978 0.7040940139 2.45294e-05 -8.55826e-05 0.000439621 8.64242e-05 -0.0852811692 0.1228702431
485297090.0 -0.4701534284 0.7083710855 7.58535e-05 0.00026622 0.0002788647 4.03533e-05 -0.0841744499 0.1240164227
490297060.0 -0.4620512276 0.7138278345 0.0001662843 0.000252047 0.0002360059 0.0001716991 -0.0828453336 0.1246058266
495297030.0 -0.4550660267 0.7180950982 5.73982e-05 3.34481e-05 0.0001567314 0.0001027312 -0.0816612651 0.1254878503
500297000.0 -0.447605131 0.7222615954 0.0002707295 -0.0001801336 0.0001509197 0.0001811675 -0.0806456016 0.1268272273
505296970.0 -0.4395878487 0.7275134381 0.0002561885 0.0001614987 0.0003677744 1.80108e-05 -0.0795791184 0.1274362604
510296940.0 -0.4322252564 0.7315453223 0.0002430415 6.64658e-05 0.0001894463 -6.61678e-05 -0.077962204 0.1288787631
515296910.0 -0.424084569 0.7358260465 8.79372e-05 5.10851e-05 0.0001943177 -7.39937e-05 -0.0774603091 0.1292750537
520296880.0 -0.4165393777 0.7400044314 0.0002904467 0.0001279005 0.000242938 -1.44855e-05 -0.0757346562 0.1305193713
525296850.0 -0.408607857 0.744261165 0.0002335587 2.15381e-05 0.0002843264 0.0001078529 -0.0749472189 0.131188
530296820.0 -0.4018239268 0.7479628966 0.0002165385 8.34639e-05 9.70934e-05 -8.55874e-05 -0.0737007283 0.1320757836
535296790.0 -0.3928109031 0.7520371574 0.0002670823 0.0001226624 0.000335359 -0.0001786995 -0.0722868518 0.133194878
540296760.0 -0.3849893149 0.7562551992 0.0001832411 6.61507e-05 0.0002901559 9.60607e-05 -0.0713188934 0.1337498455
545296730.0 -0.3775077731 0.7603437736 8.96703e-05 9.23459e-05 0.0001684991 0.0001427486 -0.0701760295 0.1347498858
550296700.0 -0.3694613817 0.7636748042 0.0002186783 0.0001638143 0.0001607044 3.74495e-05 -0.0686909743 0.1354064896
555296670.0 -0.3617378375 0.7673456318 0.0002931882 2.014e-06 0.0004949466 0.0001136152 -0.0681140369 0.1364228307
560296640.0 -0.3535453072 0.7705177417 0.0001259694 9.66215e-05 0.0003162616 0.0001236515 -0.0666233678 0.1373636493
565296610.0 -0.3456374964 0.7739529337 0.0002392447 5.77905e-05 0.0004705153 4.43078e-05 -0.0652580561 0.1380156626
570296580.0 -0.337239015 0.7780623993 8.06107e-05 4.43584e-05 0.0003413954 7.22795e-05 -0.0644155803 0.1387939813
575296550.0 -0.3283468426 0.7809050821 0.0002908914 0.0001262719 0.0002561732 -3.98478e-05 -0.0627167421 0.1394253467
580296520.0 -0.3210867083 0.784432075 9.86363e-05 1.79132e-05 0.0001600394 9.78076e-05 -0.0616402241 0.1402922651
585296490.0 -0.3125049571 0.7873559091 0.0002183841 3.1542e-05 0.0001479823 -2.12113e-05 -0.0600715776 0.1411011571
590296460.0 -0.3043007343 0.7906100789 0.0002018284 7.23331e-05 0.0001027804 0.0001644605 -0.0592068744 0.1418094457
595296430.0 -0.2965068849 0.793454921 0.0001924197 -0.0001320628 0.0002042394 6.12643e-05 -0.0577857435 0.1425904561
600296400.0 -0.2880814223 0.7965576312 0.0002644545 5.33336e-05 0.0001730124 -2.444e-05 -0.0563806849 0.1433226992
605296370.0 -0.2801517782 0.799242139 0.0002456573 8.51352e-05 0.0002853312 8.6625e-05 -0.0550723839 0.1440899481
610296340.0 -0.2717650834 0.8024413504 0.0003757507 0.0002052077 4.59307e-05 3.20836e-05 -0.0539557747 0.1449433552
615296310.0 -0.2631135514 0.8052721206 -6.5159e-06 0.000186087 0.0003490973 -0.0001814344 -0.0523229665 0.1456015895
620296280.0 -0.2555574893 0.8083300305 0.0003740006 9.5122e-06 0.0001857523 3.97766e-05 -0.0510691977 0.1463897038
625296250.0 -0.2473988097 0.8097502571 0.0003958739 0.0002582976 0.0002073456 5.48134e-05 -0.0497756088 0.1467853063
630296220.0 -0.238951976 0.8130174363 0.0002567466 -0.0001942969 5.92977e-05 0.0001088824 -0.048319788 0.1474201646
635296190.0 -0.2304176426 0.8155418961 0.0001487638 -0.0001316356 0.0002786334 0.0001993802 -0.0473212021 0.1481595985
640296160.0 -0.2220425502 0.817617468 0.0001454845 -0.000203165 0.0003152978 -4.95458e-05 -0.0457732528 0.148965739
645296130.0 -0.2140954536 0.8201585768 0.0002357822 0.0001481475 0.0002499124 0.0002402881 -0.0447551748 0.1494118632
650296100.0 -0.2052544165 0.8223705046 0.0001844811 -1.302e-06 0.0002691387 -5.38712e-05 -0.0430960424 0.1502250314
655296070.0 -0.1976545163 0.8243969648 0.0004145826 -0.0001536117 0.0003127974 -5.0837e-05 -0.0419935844 0.1509732452
660296040.0 -0.1889754161 0.8259647255 0.0001183652 -0.0002166208 0.0003412227 -6.636e-05 -0.0401318655 0.1511558646
665296010.0 -0.1814609488 0.8286853095 0.0002882707 5.30174e-05 0.0001546934 0.0001298152 -0.0388355076 0.1517448128
670295980.0 -0.1727836865 0.8300561004 0.0001365354 -1.67083e-05 0.0002703202 -8.11152e-05 -0.03753567 0.1525382251
675295950.0 -0.1642571396 0.8322069379 0.0002280695 0.0001379404 0.0001503781 0.0001162208 -0.036028464 0.152957932
680295920.0 -0.1562500698 0.8336999761 0.0003241566 -0.0001118425 0.0001712424 -4.26933e-05 -0.0346417061 0.152984726
685295890.0 -0.1475894506 0.8354782873 0.0001852134 0.0002510129 0.0002622636 7.2809e-05 -0.033489903 0.1542543335
690295860.0 -0.1393337374 0.8372188378 1.38251e-05 4.15225e-05 0.0003129111 8.72104e-05 -0.0319439893 0.1545650299
695295830.0 -0.1311447263 0.8389319506 0.0002537023 0.0001456102 0.0002453035 7.57647e-05 -0.0305501111 0.1552992286
700295800.0 -0.1222907469 0.8397843078 0.0001917727 -2.66198e-05 0.0004080354 -0.0001179694 -0.0286953814 0.1552728958
705295770.0 -0.1148772992 0.841472968 0.0001560623 -0.0001588118 0.0003669686 7.63072e-05 -0.0275918102 0.1561335023
710295740.0 -0.106867047 0.8422320676 0.0001869395 -4.47306e-05 0.0003438606 -2.46455e-05 -0.0258316048 0.1567789994
715295710.0 -0.09775183 0.8434528284 0.0001930496 0.0002292657 0.0001947284 -1.35197e-05 -0.0244560671 0.1569234301
720295680.0 -0.0886485869 0.8444369818 0.0003265254 9.28413e-05 0.0004139752 6.47897e-05 -0.0231241899 0.1571458741
725295650.0 -0.0816604537 0.8459541554 0.0004238504 -0.0001330811 0.0001995188 5.47784e-05 -0.0218334269 0.1582505645
730295620.0 -0.0740674484 0.8470636881 0.0002272811 5.69128e-05 0.000311851 -0.00015683 -0.0203826152 0.1585578892
735295590.0 -0.0656107297 0.8478583404 0.0001945227 -3.60583e-05 0.0002423363 -9.88129e-05 -0.018360116 0.1585818956
740295560.0 -0.0576018915 0.8477311237 0.0002445408 7.44583e-05 0.0003811409 4.09069e-05 -0.0169620067 0.1591507749
745295530.0 -0.0488996851 0.8490805658 6.82581e-05 -2.78043e-05 0.0003943182 -0.0003119459 -0.0159016744 0.1594310271
750295500.0 -0.0408618516 0.8487005934 3.3084e-05 -2.75214e-05 0.0002924805 0.0001868128 -0.0141311239 0.1596252259
755295470.0 -0.0324914479 0.8499642836 0.0003425823 -0.0001205002 0.0004405188 0.0001574742 -0.0126090867 0.160441871
760295440.0 -0.0244117139 0.8507520874 0.0003958191 3.65341e-05 0.0003928909 0.0001363969 -0.0112022208 0.1602100853
765295410.0 -0.0160712537 0.8507511191 0.0004540698 5.3853e-06 0.0003456512 -6.84881e-05 -0.0095815744 0.1606792655
770295380.0 -0.0088183919 0.8510581752 0.0002644652 -0.0003319992 0.0002184241 2.0992e-06 -0.0080800157 0.1609675266
775295350.0 5.36002e-05 0.8514782565 0.0003504787 -0.0001960957 0.0005407133 -9.10361e-05 -0.0068703942 0.1612076868
780295320.0 0.0085533941 0.8516084093 0.0004615374 -0.0003277299 6.75679e-05 -6.83561e-05 -0.0049732916 0.1615717535
785295290.0 0.0167898757 0.850757164 0.0003994648 -0.0002411857 0.0001350328 -8.3178e-05 -0.0040312533 0.1619801494
790295260.0 0.025253955 0.8508158203 0.0002895789 4.25724e-05 0.0005878478 5.21938e-05 -0.0022482012 0.1622407288
795295230.0 0.0327680979 0.8505979172 0.0002390882 -2.18238e-05 0.0002503806 9.28037e-05 -0.0006332013 0.1619017207
800295200.0 0.0410711065 0.8504290576 0.0003843728 -7.45146e-05 0.0003450326 -0.0002604351 0.0007430016 0.1622530585
805295170.0 0.0491173367 0.8504280576 0.0002793832 -5.521e-05 0.0003503808 1.13667e-05 0.0025489736 0.1625160828
810295140.0 0.0574541146 0.8504508553 0.00046471 0.0001171079 0.0001585826 -6.52345e-05 0.0039635849 0.1627261881
815295110.0 0.0651361431 0.849837021 0.0002334423 -6.7204e-05 0.0003267 -0.000179105 0.0053846635 0.1631279219
820295080.0 0.0735253066 0.8491066437 0.0004255116 -0.0001008524 0.0003024151 -0.0003778517 0.0068344846 0.1634472551
825295050.0 0.0813429569 0.8483990965 0.0003027451 9.0065e-06 0.0002894823 -9.9976e-05 0.0085418269 0.163345625
830295020.0 0.0905834897 0.8480542048 0.0003298248 -0.0002416559 0.0001912306 -0.0002338516 0.0100548696 0.1632474242
835294990.0 0.0975440409 0.8465243982 0.0002848199 -7.16312e-05 0.0002948475 -2.68812e-05 0.0119871114 0.1635954538
840294960.0 0.1066779232 0.8455103554 0.0002180183 -0.0002740578 0.0003000139 -7.9914e-05 0.0133335682 0.1637094286
845294930.0 0.1146392427 0.8442966985 0.0002762801 -0.0001189752 0.00031433 -0.0001921121 0.0147394305 0.1637095062
850294900.0 0.1234355219 0.8430867612 0.0002308468 1.5275e-05 0.0002370337 0.0001636041 0.0162079908 0.1637880131
