!Created with skrf (http://scikit-rf.org).
# Hz S RI R 50.0 
!freq ReS11 ImS11 ReS21 ImS21 ReS12 ImS12 ReS22 ImS22
300000.0 -0.2420216737 -0.0736748461 0.4716277283 0.0484699225 0.4686394656 0.0488763487 -0.2422273043 -0.0850881617
5299970.0 -0.2444674142 0.0074153217 0.4737290762 0.0050339994 0.4738259981 0.0049033671 -0.2445851183 0.0078212784
10299940.0 -0.2412013213 0.0190102157 0.4755189843 0.0059697154 0.4755411237 0.00656853 -0.2415830262 0.0203893062
15299910.0 -0.2367454332 0.0280557875 0.479344263 0.0077237926 0.4792812359 0.007657455 -0.2366489949 0.0296664331
20299880.0 -0.232411846 0.0355860315 0.4841171984 0.0085919333 0.4840578147 0.0083939067 -0.2313418323 0.0372565106
25299850.0 -0.2272649271 0.0420646833 0.4896426531 0.0075678109 0.4892225986 0.0075472942 -0.2255141376 0.0437962656
30299820.0 -0.2216853628 0.0472490938 0.4945564162 0.0055777565 0.4946255358 0.0055285633 -0.219379617 0.0488634391
35299790.0 -0.2165140229 0.0514430525 0.4999751303 0.0020717632 0.5001473612 0.0021541417 -0.2139318869 0.0530169362
40299760.0 -0.21150303 0.0548810971 0.5051019646 -0.0015496237 0.5055301275 -0.0018162693 -0.2084741265 0.0559985331
45299730.0 -0.2067363922 0.0576186789 0.5098437943 -0.0067353446 0.5101671057 -0.0061775597 -0.2034459264 0.058746034
50299700.0 -0.2026689305 0.059919878 0.5141392107 -0.0121868836 0.514734056 -0.0116372977 -0.19864413 0.0601719981
55299670.0 -0.1984087359 0.0615376873 0.518136597 -0.0181613144 0.5180149952 -0.0177192065 -0.1943059617 0.0619361358
60299640.0 -0.1943460196 0.0634894524 0.5212443597 -0.0240568462 0.5215394055 -0.0238383594 -0.1902541279 0.062937051
65299610.0 -0.1912447013 0.0646928701 0.5237614588 -0.0306094415 0.5242503814 -0.0301645774 -0.1871699679 0.0637450083
70299580.0 -0.1879161774 0.0660074275 0.5266816141 -0.0369401002 0.5268173865 -0.0367588814 -0.1839222738 0.0646371196
75299550.0 -0.1851679012 0.0671847097 0.528634315 -0.0438250372 0.5284995234 -0.0439837419 -0.1808771011 0.0651708845
80299520.0 -0.1824375996 0.0679575819 0.5306565877 -0.0508314581 0.5307779759 -0.0511258898 -0.1781845382 0.0661038458
85299490.0 -0.1798742634 0.0689589553 0.5317465592 -0.0574749766 0.5320786468 -0.0574190935 -0.1761269943 0.0660676736
90299460.0 -0.1780496951 0.0695294662 0.5328634485 -0.0646300795 0.5331246491 -0.0644694428 -0.1733363641 0.0670115769
95299430.0 -0.1752026061 0.0701218167 0.5335653465 -0.0716599251 0.533907038 -0.0714719272 -0.1709595585 0.067277309
100299400.0 -0.1740354103 0.0716196462 0.5338235876 -0.0782757309 0.5336901369 -0.0783846391 -0.1691685877 0.0675097766
105299370.0 -0.1719343634 0.0721951968 0.5344153557 -0.085414997 0.5345965713 -0.0853823217 -0.1673727005 0.0680340592
110299340.0 -0.1702923084 0.0731783787 0.5349175617 -0.0923066233 0.5342825231 -0.092141864 -0.1664129417 0.0687480956
115299310.0 -0.1686110211 0.0739284146 0.5347247901 -0.0988332305 0.5344283032 -0.0990996996 -0.1648208138 0.069337443
120299280.0 -0.1676200845 0.0744299246 0.5341099566 -0.1057017596 0.5345156639 -0.1058615312 -0.163567152 0.0698108983
125299250.0 -0.1660629962 0.0756357725 0.5341315937 -0.1124886347 0.5341237912 -0.1121414179 -0.1626550789 0.070148239
130299220.0 -0.1652229272 0.0767436779 0.5334500284 -0.1194804439 0.5335431258 -0.1190978592 -0.1612515608 0.0706019122
135299190.0 -0.1637693612 0.0778512744 0.5332097064 -0.1260793132 0.5329077545 -0.125382811 -0.1598124041 0.0713997139
140299160.0 -0.162743397 0.079066349 0.5319459905 -0.1328190183 0.5320637908 -0.1327335223 -0.1590191618 0.0727434719
145299130.0 -0.1616083344 0.079857287 0.5313655805 -0.1391777474 0.5308521877 -0.1391349683 -0.1581458509 0.0733609738
150299100.0 -0.1601986185 0.0811127594 0.5296120908 -0.1452101625 0.530123401 -0.1451458166 -0.1574751839 0.0741634031
155299070.0 -0.1595718631 0.0820996776 0.5290552211 -0.152630942 0.5286409042 -0.1521490497 -0.1565643071 0.0748179724
160299040.0 -0.1584529274 0.083392715 0.5271781161 -0.1587901063 0.527046703 -0.1586058283 -0.1563809203 0.0757341128
165299010.0 -0.1575665283 0.0848180113 0.526015042 -0.165181104 0.5259890179 -0.1653885953 -0.1549483533 0.0766720598
170298980.0 -0.1569453531 0.0858923649 0.524500443 -0.1716350192 0.5247541668 -0.1714048879 -0.1539783388 0.0777922823
175298950.0 -0.1557376155 0.0869331466 0.5233821927 -0.1778046098 0.5227475519 -0.1779273359 -0.1531930988 0.0789353509
180298920.0 -0.1549104425 0.0884491491 0.5211576493 -0.1839493459 0.5210400487 -0.1836822631 -0.152614913 0.0796626868
185298890.0 -0.1533009228 0.0895283835 0.5188972432 -0.1902848925 0.5189835932 -0.1903866414 -0.1518442037 0.0806377334
190298860.0 -0.1528585359 0.0913280365 0.5174813085 -0.1964480719 0.5176405656 -0.1960904331 -0.1511331151 0.0816864709
195298830.0 -0.1517427153 0.092152586 0.5151281171 -0.2023398772 0.5155995474 -0.2024669794 -0.1502791301 0.0831191906
200298800.0 -0.1507645481 0.0934732786 0.5130439396 -0.2087517712 0.5133354057 -0.2088035112 -0.1498080354 0.0839017547
205298770.0 -0.1499772614 0.0951219515 0.5111054628 -0.2149618331 0.5108998957 -0.2148264539 -0.1488152894 0.0844329643
210298740.0 -0.148873853 0.0962088473 0.5089691055 -0.2206858602 0.5088670231 -0.2205856007 -0.1477951384 0.0863716405
215298710.0 -0.1483495527 0.0978146634 0.5065652455 -0.2268835587 0.5066517808 -0.2268846238 -0.1474695745 0.0875609375
220298680.0 -0.1468951153 0.0988961053 0.5035513542 -0.2323593579 0.5038440116 -0.2323284857 -0.1467365561 0.0882581487
225298650.0 -0.1464001785 0.1004858448 0.501665063 -0.2387005224 0.5016894981 -0.2382457522 -0.1461708485 0.0893941144
230298620.0 -0.1451137966 0.1019911502 0.4994145878 -0.244380981 0.4995254748 -0.2444815064 -0.1455252319 0.0905225846
235298590.0 -0.1440889476 0.1036368809 0.4965338502 -0.2499631588 0.49651813 -0.2495554869 -0.144802101 0.0922672445
240298560.0 -0.1429718801 0.1050188582 0.4938646446 -0.2560852374 0.4940567572 -0.2561262682 -0.1438727238 0.0935828334
245298530.0 -0.1421409917 0.1063865462 0.4913734731 -0.2614574326 0.4912442757 -0.2615317837 -0.1426208183 0.0940437055
250298500.0 -0.1409787705 0.1080331591 0.4875844949 -0.2671394965 0.4875801243 -0.2663589091 -0.1422062886 0.0957182222
255298470.0 -0.1397286781 0.1091144393 0.4845501406 -0.272516421 0.4852570633 -0.2723814113 -0.1411164865 0.0968760661
260298440.0 -0.1390423234 0.1105015465 0.4822192464 -0.2783216601 0.4825394759 -0.2780469007 -0.1403534037 0.098031058
265298410.0 -0.1375964341 0.1125514267 0.4792802522 -0.2839734834 0.4794688575 -0.2832859583 -0.1395433088 0.0995684207
270298380.0 -0.1368866436 0.1137034936 0.4765264436 -0.2889925108 0.4761764852 -0.2888496673 -0.1389439264 0.100877545
275298350.0 -0.1352984305 0.1149187034 0.4729281925 -0.2948536511 0.4733158563 -0.2944629171 -0.137697816 0.1019306599
280298320.0 -0.1340853763 0.1168460222 0.4700407591 -0.2999926179 0.4700212192 -0.2997105373 -0.1366225548 0.1032456144
285298290.0 -0.1329075466 0.1183434248 0.4668703605 -0.305107079 0.4664098806 -0.3051482999 -0.1360838365 0.1047919545
290298260.0 -0.1314766676 0.1198028674 0.4629378536 -0.310265376 0.4632857281 -0.3105033334 -0.1349053466 0.1063907771
295298230.0 -0.1301371983 0.120889821 0.4597693638 -0.3156486104 0.4600756705 -0.3154682255 -0.1335412349 0.1069482183
300298200.0 -0.1292745944 0.1223372912 0.4562619704 -0.3210732013 0.4570795054 -0.3210947625 -0.13281893 0.1085080071
305298170.0 -0.1278197371 0.1236675567 0.4525959141 -0.3264722191 0.4530684055 -0.3264258052 -0.1314568132 0.1096613657
310298140.0 -0.1265851168 0.1250755918 0.4491780628 -0.3312631935 0.4496403346 -0.3312782937 -0.1306020324 0.11071957
315298110.0 -0.1252360661 0.1261660381 0.4455349447 -0.3364929326 0.4458877362 -0.33663739 -0.1299499964 0.1118206825
320298080.0 -0.1236314393 0.1277100386 0.4414387939 -0.3421504065 0.4423786924 -0.3419291584 -0.1290232083 0.113041754
325298050.0 -0.1228018921 0.1288438654 0.4382428892 -0.3471122804 0.4382072202 -0.3467672467 -0.1284531561 0.1142858081
330298020.0 -0.1216638467 0.1300996478 0.4339072032 -0.35208279 0.4341454447 -0.3519284025 -0.1275326178 0.1155249187
335297990.0 -0.1202488566 0.1314008026 0.4297686028 -0.356709961 0.4298445898 -0.3568321988 -0.1271092318 0.1171531221
340297960.0 -0.1192127309 0.1331765736 0.4256674295 -0.3617768323 0.4257174948 -0.3616553897 -0.1255401508 0.1182998319
345297930.0 -0.117855536 0.134692302 0.4215897153 -0.3664144446 0.4217000425 -0.366347598 -0.1247158238 0.1193468714
350297900.0 -0.1163758869 0.1357141326 0.4170691563 -0.3711599358 0.4173853714 -0.3705858229 -0.1241359833 0.1210604074
355297870.0 -0.1150714071 0.1377013495 0.4132621175 -0.3755142099 0.4135438037 -0.3752568892 -0.1229484366 0.1220012717
360297840.0 -0.1137333922 0.1389620625 0.4094426307 -0.3796268217 0.4099304172 -0.3795062711 -0.1219541736 0.1237611074
365297810.0 -0.1125706736 0.1404887441 0.4053755095 -0.3850643302 0.4057149984 -0.3844231699 -0.1206824013 0.1250085502
370297780.0 -0.1106605728 0.1416618987 0.4007746321 -0.3885381434 0.4011113991 -0.3884956824 -0.1193987187 0.1261165291
375297750.0 -0.1091704122 0.1428546235 0.3965777032 -0.3930241481 0.3969660185 -0.3933512202 -0.1181200658 0.1272631469
380297720.0 -0.1075163352 0.144172342 0.3921155919 -0.3976542653 0.392520207 -0.3973075008 -0.117430808 0.1283030351
385297690.0 -0.1062796492 0.1455454905 0.38789196 -0.4018742393 0.3878161234 -0.4019856838 -0.1159348278 0.1300384798
390297660.0 -0.105112991 0.1470821751 0.3835555916 -0.4063809785 0.3833345352 -0.405657066 -0.1151843847 0.130859538
395297630.0 -0.1030725181 0.1482359379 0.3789615074 -0.4101996606 0.3791599454 -0.4102339099 -0.1131336197 0.1323757899
400297600.0 -0.101602746 0.1496821006 0.3741093913 -0.4148594946 0.3746299489 -0.4144736212 -0.1121887874 0.1333719888
405297570.0 -0.1001857048 0.1508038442 0.3696953365 -0.4184025499 0.3701530172 -0.4182930168 -0.1114865324 0.1347421361
410297540.0 -0.0983876957 0.151905899 0.3651370702 -0.4222820378 0.3656018104 -0.4226903577 -0.1099029284 0.1363106326
415297510.0 -0.0964176705 0.1529660524 0.3602739695 -0.42714814 0.3607883499 -0.4263931924 -0.1083388429 0.1372804526
420297480.0 -0.095094993 0.1546162958 0.3560424572 -0.430809539 0.3556443828 -0.4304707584 -0.1073409358 0.1383465574
425297450.0 -0.0935226143 0.1550584718 0.3511407617 -0.4340335114 0.3516867083 -0.434391794 -0.1064783023 0.1399113773
430297420.0 -0.0918008013 0.1564395389 0.3468350522 -0.437788437 0.3464767432 -0.4380241268 -0.1050699972 0.1408034593
435297390.0 -0.0904980421 0.157903143 0.3413623387 -0.4416159247 0.3414340027 -0.441833074 -0.102964826 0.1419026283
440297360.0 -0.0884367455 0.1589932567 0.3366394942 -0.4451185979 0.3370506401 -0.4455969085 -0.1022826031 0.14308301
445297330.0 -0.0866241675 0.1599378352 0.3318497458 -0.4495219973 0.3320560753 -0.4486498014 -0.100242458 0.1437184405
450297300.0 -0.0849427238 0.1608821783 0.3268715344 -0.4529091531 0.3269711444 -0.4529267456 -0.0992561223 0.1451311162
455297270.0 -0.0832393333 0.1623042873 0.3216425793 -0.4558824931 0.322023969 -0.4561821721 -0.0979459359 0.1461273566
460297240.0 -0.0814217631 0.1632126771 0.3165602279 -0.4594797772 0.3174558537 -0.4601276148 -0.0967202707 0.1476190976
465297210.0 -0.0793951424 0.1645924654 0.3121243072 -0.4631187855 0.3118908027 -0.4635766467 -0.0951673755 0.1484465023
470297180.0 -0.0779853564 0.1650901402 0.3067211951 -0.4666109523 0.3068948928 -0.4666969815 -0.0937832807 0.1497197757
475297150.0 -0.0762141015 0.1659661593 0.3011353708 -0.4692972536 0.3019215717 -0.4697571787 -0.092159889 0.1504534242
480297120.0 -0.0740909896 0.1675716502 0.296197815 -0.4737524451 0.2965513533 -0.4733952723 -0.0905609663 0.1515983126
485297090.0 -0.0726691168 0.168582392 0.2915419665 -0.476286876 0.2916461825 -0.4762619543 -0.0892873914 0.1524968541
490297060.0 -0.0711424233 0.1692575112 0.2866445526 -0.4795100595 0.2865589555 -0.4789630394 -0.0876398531 0.15391792
495297030.0 -0.0689513349 0.1704110304 0.2809939222 -0.4825363351 0.2814813728 -0.4825190144 -0.0868073875 0.1548129086
500297000.0 -0.0666964694 0.1709227045 0.2753299397 -0.4854754586 0.2752137595 -0.4852776851 -0.0848278935 0.1560944845
505296970.0 -0.0650315391 0.1717504609 0.2703677404 -0.4886112474 0.2701732733 -0.4884419582 -0.0838204513 0.1567390125
510296940.0 -0.063280473 0.1727549728 0.2645639744 -0.4914808691 0.2649895339 -0.4914310088 -0.0819620659 0.1577338256
515296910.0 -0.0612275035 0.1736260973 0.2593003374 -0.4944172215 0.2596010284 -0.4938162271 -0.0803665911 0.1588284475
520296880.0 -0.0593700288 0.1744403952 0.2540990154 -0.4972572689 0.2545653555 -0.4970590048 -0.0789946028 0.159476819
525296850.0 -0.0572862124 0.1747388425 0.2483114895 -0.4998374327 0.249229043 -0.499585878 -0.0776642699 0.1604270595
530296820.0 -0.0553961416 0.1760173763 0.2431523143 -0.502846386 0.2435583234 -0.5022242971 -0.075993962 0.1614672153
535296790.0 -0.053824754 0.1766114332 0.2381546212 -0.5046520386 0.2378446758 -0.5043762583 -0.0746522414 0.1620654605
540296760.0 -0.0519389294 0.1776394069 0.2322541001 -0.5076402841 0.23193663 -0.5078338552 -0.0732179025 0.1635327684
545296730.0 -0.0499247644 0.1780649581 0.2264480512 -0.5100707738 0.2267679992 -0.5099912133 -0.0718348726 0.1638826717
550296700.0 -0.0471858105 0.1789853646 0.221039181 -0.5120977159 0.2212501243 -0.5123097081 -0.0699087497 0.164584329
555296670.0 -0.0461880965 0.1793997632 0.2157289256 -0.5150344265 0.2156401051 -0.514436205 -0.068174626 0.1656355827
560296640.0 -0.0435385483 0.1805551689 0.2100624173 -0.5171576322 0.2100182388 -0.5170958318 -0.0665978844 0.166172422
565296610.0 -0.0419076604 0.180423827 0.2039797888 -0.5192987551 0.2043806347 -0.5192689048 -0.0648209892 0.1669005992
570296580.0 -0.0402100114 0.1810598212 0.1989659363 -0.5217832736 0.1982508653 -0.5215061969 -0.0635251009 0.1680499042
575296550.0 -0.0381564512 0.1821038562 0.1927296717 -0.5238170936 0.1926980313 -0.5234274173 -0.0616880969 0.1686743458
580296520.0 -0.0357975994 0.1824763182 0.1872190788 -0.5260067259 0.1873510475 -0.525495223 -0.0599475278 0.1693474587
585296490.0 -0.0340302877 0.1826432345 0.1816951984 -0.5272328522 0.1819882175 -0.5278283169 -0.058147372 0.1703155215
590296460.0 -0.03168972 0.1832414241 0.1756560998 -0.5288794836 0.1759081208 -0.5290271144 -0.0572263375 0.1711636642
595296430.0 -0.0297283059 0.1840089142 0.1695320448 -0.5318290799 0.1701586337 -0.5312986961 -0.0551133257 0.1712845122
600296400.0 -0.0279329891 0.1842420059 0.1645177294 -0.5324409915 0.1645663551 -0.5328776217 -0.0539383551 0.1719585824
605296370.0 -0.0258840215 0.1850316897 0.1584635104 -0.5347254649 0.1586433457 -0.5346833979 -0.0515823703 0.1731513273
610296340.0 -0.0235286104 0.1852678465 0.1524516604 -0.5361366993 0.1528363576 -0.5363024591 -0.049725746 0.1733679892
615296310.0 -0.0217381846 0.1854677304 0.1469375897 -0.5374843647 0.1466610489 -0.5382279507 -0.0480743893 0.174239302
620296280.0 -0.0198545922 0.1858721749 0.1412973612 -0.5390525568 0.1411780343 -0.5393492159 -0.0468261872 0.1748682946
625296250.0 -0.0178699526 0.1861881862 0.135681888 -0.541164437 0.1350684947 -0.5411756349 -0.0448467258 0.1753074657
630296220.0 -0.0149952214 0.1870524515 0.1286670983 -0.5427305648 0.12908596 -0.5421110878 -0.0433867339 0.1763966906
635296190.0 -0.0137370223 0.1865924616 0.1237265253 -0.543529867 0.1232981244 -0.5439207057 -0.0414514846 0.1769386382
640296160.0 -0.0114697725 0.1873727683 0.1175438574 -0.5446721529 0.1177629572 -0.5448467541 -0.039672091 0.1770906447
645296130.0 -0.0095335148 0.1878003997 0.1114502164 -0.546066713 0.1119258072 -0.5463450726 -0.0380597945 0.1780654468
650296100.0 -0.007346121 0.1878795902 0.1058530329 -0.5470185294 0.1057652328 -0.547303683 -0.0359887752 0.1778784395
655296070.0 -0.0055575183 0.1877912134 0.099447999 -0.5482763901 0.1001184336 -0.5481659411 -0.0344541307 0.178958232
660296040.0 -0.0035438696 0.187654607 0.0941795793 -0.5490838348 0.0944333052 -0.5492552307 -0.0326921834 0.1795654855
665296010.0 -0.0007325406 0.1880276473 0.0879844208 -0.5501043103 0.088208411 -0.5502909034 -0.0309855911 0.1802784419
670295980.0 0.0001671067 0.1886634548 0.0824618712 -0.5510354036 0.0819996234 -0.55072288 -0.0297474514 0.1803689479
675295950.0 0.0026778518 0.1888079281 0.0762947322 -0.5519267722 0.0762493751 -0.5513120088 -0.0281892486 0.1807394457
680295920.0 0.0047177409 0.1883537993 0.0699133842 -0.5525703843 0.0695433413 -0.5532917141 -0.0258092241 0.1817969747
685295890.0 0.0069960479 0.1892866128 0.0638828842 -0.5534284728 0.0641370815 -0.5536910067 -0.0242985016 0.1819439985
690295860.0 0.0093177525 0.1891053171 0.0578500157 -0.5534754959 0.0580397377 -0.5539815226 -0.0229824687 0.1828527769
695295830.0 0.0112275212 0.1888519314 0.0524196763 -0.5543136092 0.052164029 -0.5543741269 -0.0209046986 0.182640655
700295800.0 0.0132134836 0.1885069257 0.0457082808 -0.5548974344 0.0458398591 -0.5548291109 -0.0191535454 0.1832652586
705295770.0 0.0150613408 0.1894215813 0.0396620034 -0.5555447102 0.0405251224 -0.5554776508 -0.0174322446 0.1837062543
710295740.0 0.0173724269 0.1889256636 0.0347320192 -0.5563617216 0.0345543563 -0.5564964286 -0.015536501 0.1835990586
715295710.0 0.0188585339 0.1887742067 0.0287530966 -0.5562245875 0.0279270059 -0.5561493708 -0.0137612618 0.1836719779
720295680.0 0.0214305937 0.1886916958 0.0222715825 -0.5564213843 0.0225775094 -0.5564827135 -0.0119530031 0.1845360214
725295650.0 0.0235286358 0.1885512675 0.016040746 -0.5563735841 0.016327455 -0.5568298064 -0.0103142711 0.1847376173
730295620.0 0.0258075806 0.1887476846 0.0100488212 -0.5566307608 0.0102758112 -0.5567628176 -0.0089556975 0.1847344281
735295590.0 0.0276856367 0.1885751778 0.0043602839 -0.5568564178 0.0042924024 -0.5565144759 -0.0067836764 0.1848336071
740295560.0 0.0295361736 0.1884394654 -0.0017388303 -0.5563934989 -0.0020323047 -0.5571245638 -0.0045186721 0.1855512669
745295530.0 0.0315101204 0.1883996715 -0.0077074356 -0.5563321967 -0.0079715803 -0.5567592994 -0.0029248881 0.1850510442
750295500.0 0.033875443 0.1880208592 -0.0136590348 -0.556414474 -0.0134327347 -0.5568001272 -0.0013471418 0.1855167817
755295470.0 0.0357323179 0.1875152745 -0.0195553427 -0.5563068333 -0.0197182555 -0.556432807 0.0011915024 0.1852400793
760295440.0 0.0377151679 0.1876761477 -0.0251954847 -0.5564400507 -0.0260117825 -0.5564968757 0.0024957183 0.1856327206
765295410.0 0.0400410073 0.1871545936 -0.0319264278 -0.5555842832 -0.0321824414 -0.5559083267 0.0046730837 0.1859833708
770295380.0 0.0418239313 0.1868268013 -0.0377967037 -0.555495523 -0.0378456308 -0.5551037657 0.0060131013 0.1857780698
775295350.0 0.0436591138 0.1861119909 -0.0439049014 -0.5547609155 -0.0434994196 -0.5546765449 0.0073711098 0.1860792261
780295320.0 0.0462478779 0.1862495783 -0.0501133506 -0.5540453771 -0.0490211458 -0.5540530036 0.0093832296 0.1858252146
785295290.0 0.0478724578 0.1851447084 -0.0558774263 -0.5527986978 -0.0555445716 -0.5536777515 0.0118129978 0.185987146
790295260.0 0.0504840281 0.1856208562 -0.061318287 -0.5528236617 -0.0610010579 -0.5531772682 0.0135818138 0.186536483
795295230.0 0.0522038902 0.1848857443 -0.0676910268 -0.5518288467 -0.067058912 -0.5524205498 0.0156881929 0.1866351787
800295200.0 0.0539495583 0.1844413633 -0.0738114218 -0.5510004549 -0.0733641351 -0.551232021 0.0173727867 0.1863502158
805295170.0 0.0566823972 0.1838524783 -0.0796743621 -0.5505580786 -0.0794018225 -0.550607243 0.0189526147 0.1868976968
810295140.0 0.0583283453 0.1831453043 -0.0849362717 -0.5493538258 -0.0851801892 -0.5500993163 0.0214130059 0.1866460643
815295110.0 0.0601570516 0.1826170175 -0.0913676221 -0.5483162213 -0.0912459054 -0.5488258546 0.022673058 0.1861930786
820295080.0 0.061948829 0.1825800653 -0.0971811085 -0.5472117988 -0.0968011317 -0.5472255477 0.0244179972 0.1864157163
825295050.0 0.065035138 0.181701337 -0.1026720436 -0.5462597954 -0.1029196275 -0.5466420131 0.0265424104 0.1866534186
830295020.0 0.0665589937 0.1812677389 -0.109131135 -0.5448303954 -0.108833684 -0.5448534639 0.0289213663 0.1864632944
