!Created with skrf (http://scikit-rf.org).
# Hz S RI R 50.0 
!freq ReS11 ImS11 ReS21 ImS21 ReS12 ImS12 ReS22 ImS22
300000.0 -0.7737090401 -0.1783724486 0.0003126258 0.0020126019 0.0012126055 0.001468659 -0.764279131 -0.2002282849
5299970.0 -0.7865207798 -0.0091324632 -0.0001758825 6.73671e-05 -7.30328e-05 -3.2822e-06 -0.7848476407 -0.0099032921
10299940.0 -0.7896563667 -0.0056435203 6.15509e-05 5.12485e-05 -0.0001975206 0.0002091082 -0.7871105036 -0.0055273693
15299910.0 -0.7941931415 -0.0031364595 -7.744e-05 0.0002064069 -0.0001424496 1.95323e-05 -0.7928425514 -0.0024083217
20299880.0 -0.8011710105 0.0004923663 0.0002853414 5.73564e-05 -0.0002291825 0.0001763574 -0.7991733876 0.0015818199
25299850.0 -0.807889178 0.0069220759 0.0001232474 3.62128e-05 5.36217e-05 -1.86447e-05 -0.806093622 0.0075211887
30299820.0 -0.8137379115 0.0136942287 -3.75922e-05 -7.2017e-05 -0.0002156407 9.014e-05 -0.8115245845 0.0158249549
35299790.0 -0.8186969302 0.0228565115 -0.0001087387 -0.0001608204 -7.63039e-05 0.0001779919 -0.816509383 0.0247577485
40299760.0 -0.8234624206 0.0318769571 4.25928e-05 -0.0002116249 0.0001086659 -0.0001022174 -0.8208084098 0.0339236574
45299730.0 -0.8270993088 0.0417005154 -0.000104507 -0.0001106126 -0.0001501761 -8.0548e-05 -0.8238409427 0.0434348258
50299700.0 -0.8292467481 0.0516252075 -2.81052e-05 2.55139e-05 0.0001714709 -7.73888e-05 -0.8261958541 0.0539330253
55299670.0 -0.8314586526 0.0614432301 -0.0001447599 2.01714e-05 0.0001574785 0.0002164436 -0.8284171493 0.0638546838
60299640.0 -0.8329737062 0.0719160255 0.0001124642 0.0001681729 1.45508e-05 0.0001081512 -0.829624228 0.0739808509
65299610.0 -0.8333472573 0.0820022298 9.32537e-05 -1.92436e-05 0.0001102779 -0.0001879958 -0.8302301737 0.0838600325
70299580.0 -0.8337223768 0.0915797894 0.0001577028 -7.75496e-05 -0.0002111602 0.0001198584 -0.8306446589 0.0935320035
75299550.0 -0.8337623911 0.1014861491 1.2973e-05 4.2861e-06 3.6061e-05 6.9399e-06 -0.830370494 0.1044358925
80299520.0 -0.8337710542 0.1122351756 2.64133e-05 -3.54743e-05 -8.35591e-05 -9.88781e-05 -0.8307432719 0.113765258
85299490.0 -0.8327213821 0.121498259 0.0001890519 -6.33455e-05 1.25129e-05 1.05811e-05 -0.8297590128 0.1230829605
90299460.0 -0.832302981 0.1315113825 -0.0001813577 -0.0001067269 -9.97528e-05 6.865e-06 -0.8289872105 0.1332401921
95299430.0 -0.8314662195 0.1403703531 0.0001639894 5.81004e-05 -0.0001550051 0.0002511576 -0.8279548766 0.1426266725
100299400.0 -0.8304988501 0.1503937823 -0.0001350852 -0.0001616005 0.0001082923 -0.0001656225 -0.8265627131 0.1516424931
105299370.0 -0.8287836357 0.1591843222 -0.0001803003 4.52069e-05 -2.35962e-05 -8.40812e-05 -0.8253903518 0.1607614096
110299340.0 -0.8279246906 0.1687956242 0.000198898 -8.28766e-05 -3.95715e-05 -2.76202e-05 -0.8241789106 0.1697615789
115299310.0 -0.8259140075 0.1776963585 0.0001763394 -3.43385e-05 8.99078e-05 -1.1937e-06 -0.8227034206 0.1788624993
120299280.0 -0.8247009269 0.1865511114 -0.0002304738 8.68549e-05 0.0001401493 -7.99604e-05 -0.8208909984 0.187666633
125299250.0 -0.822811357 0.1958955111 0.0001443248 8.44844e-05 7.0327e-05 4.84243e-05 -0.8196837199 0.1970210312
130299220.0 -0.8209689475 0.2050961544 7.28082e-05 0.0001547113 -8.3535e-06 0.0001260026 -0.8175032717 0.2056254128
135299190.0 -0.8185097125 0.2145332951 -0.0001143647 -1.64463e-05 0.0003910975 -6.10556e-05 -0.8158029328 0.2148371829
140299160.0 -0.817128164 0.2231052098 -0.0001244784 0.0002091143 -1.21406e-05 -0.0001511774 -0.813959726 0.2231758419
145299130.0 -0.814865995 0.2327919106 -3.47041e-05 -5.97152e-05 -7.67347e-05 -0.0001004906 -0.8122133344 0.2324719675
150299100.0 -0.8121069367 0.240843358 -3.22679e-05 -0.0001212508 4.48425e-05 -9.53737e-05 -0.8096804739 0.2413943028
155299070.0 -0.8103004809 0.2504201394 0.0001413671 -0.0001051518 0.0001281164 1.99862e-05 -0.8067948652 0.250799699
160299040.0 -0.8073308355 0.2594605075 -0.000230419 0.0001358575 0.0002486266 -8.12529e-05 -0.8041688032 0.2588640156
165299010.0 -0.8049009403 0.2674617871 -8.43695e-05 6.66347e-05 7.22066e-05 6.35092e-05 -0.8015988575 0.267644954
170298980.0 -0.8017777312 0.2763848091 2.59561e-05 6.39143e-05 -1.57398e-05 -3.69918e-05 -0.799440448 0.2755232788
175298950.0 -0.7993080959 0.2846673102 4.43907e-05 -0.0001853489 0.0001499913 -0.000159019 -0.7958257671 0.2848523931
180298920.0 -0.7960131406 0.2935127827 -0.0001063264 -0.0001154903 -0.000102152 0.000116283 -0.7931326764 0.2929318423
185298890.0 -0.7924994962 0.3023660843 0.0001050297 -2.75942e-05 -1.04352e-05 -9.2819e-06 -0.7902499323 0.301515815
190298860.0 -0.7895624336 0.3111022462 -1.14772e-05 -0.0002371151 6.74522e-05 -2.12395e-05 -0.7871509448 0.3094733015
195298830.0 -0.7866733038 0.3192979079 -3.817e-05 0.0001292827 3.19211e-05 4.0681e-05 -0.7839291099 0.3179523708
200298800.0 -0.7826561641 0.3280032197 9.7985e-06 3.3055e-06 3.53531e-05 -1.55892e-05 -0.7805565274 0.3266089583
205298770.0 -0.7797229563 0.3363144142 3.18524e-05 -6.0242e-06 -0.000128934 -0.0001280768 -0.7775092021 0.3352979289
210298740.0 -0.7760705945 0.3450488308 -1.82407e-05 6.61964e-05 0.0001627671 -2.48808e-05 -0.7738179172 0.3432069099
215298710.0 -0.7724383463 0.3535808747 0.0001400977 7.13178e-05 5.90937e-05 -0.0001645798 -0.7701586759 0.3512254174
220298680.0 -0.7688618172 0.3608336822 6.71777e-05 0.0001362487 -6.967e-07 0.000123211 -0.7664237952 0.3595289899
225298650.0 -0.764931981 0.3695001577 0.0001106292 -9.43192e-05 1.36953e-05 2.4528e-06 -0.7624795909 0.3676564948
230298620.0 -0.7612989527 0.3775098504 -5.35934e-05 1.01772e-05 3.7905e-06 7.51792e-05 -0.7592582311 0.3753054405
235298590.0 -0.7569253251 0.3858257205 -9.9503e-06 0.000206951 0.0001666918 6.06556e-05 -0.7547955772 0.3834516993
240298560.0 -0.7528513307 0.3938661697 -8.015e-05 -2.50747e-05 -0.0001221968 9.7603e-06 -0.7508882923 0.3909484299
245298530.0 -0.7486800191 0.4017140899 3.46966e-05 9.23155e-05 -8.58289e-05 1.74559e-05 -0.7473709978 0.3991016268
250298500.0 -0.7443793586 0.4097470027 -1.59156e-05 -0.0001536422 1.50838e-05 0.0001981394 -0.7424554426 0.4073442496
255298470.0 -0.740170867 0.4179499883 0.000156507 0.0001552482 2.05354e-05 -3.76995e-05 -0.7384913383 0.4147090697
260298440.0 -0.7359937601 0.4249240659 0.0001325734 -0.0001027028 6.61355e-05 -0.0001139896 -0.7339458647 0.4220211106
265298410.0 -0.7319543103 0.4327886569 3.73953e-05 -1.8522e-05 3.16906e-05 -0.0002200328 -0.7294606137 0.4298274904
270298380.0 -0.7266969231 0.4404594262 1.49552e-05 0.0001421445 8.9967e-06 -0.0002028421 -0.7253888344 0.437691865
275298350.0 -0.7236280467 0.4480910259 2.76232e-05 -0.0001527235 3.52811e-05 -0.0001152783 -0.7203356728 0.445685734
280298320.0 -0.7183609792 0.4558026935 0.0002035602 -0.0001817553 -5.87673e-05 0.0001607973 -0.7161136306 0.4531308045
285298290.0 -0.7131262616 0.4636092073 4.61437e-05 0.0001338353 -0.0001091041 7.63508e-05 -0.7111993221 0.4606231339
290298260.0 -0.7080575993 0.47111501 -0.0002329713 -0.0001076391 1.03198e-05 0.0001478743 -0.7066920064 0.4675939347
295298230.0 -0.7037717116 0.4783083243 7.16647e-05 0.0001032755 -0.0001700416 -1.55008e-05 -0.7013688612 0.4751852067
300298200.0 -0.6994545623 0.4856063116 0.0001730592 -2.55906e-05 1.87337e-05 4.97547e-05 -0.696797738 0.4820024553
305298170.0 -0.694251779 0.4927426522 9.73812e-05 0.0001188897 -1.84212e-05 3.36863e-05 -0.6914540941 0.4888937341
310298140.0 -0.6885454108 0.4997621282 9.1524e-06 1.30411e-05 6.21271e-05 -3.85675e-05 -0.6862130037 0.4972363357
315298110.0 -0.6842109962 0.5071559966 0.0002632674 -2.9608e-05 -8.01713e-05 -0.0001211568 -0.681100556 0.5038504428
320298080.0 -0.679041741 0.5149093714 0.0001033674 -5.40478e-05 -9.54281e-05 0.0001866266 -0.6762474739 0.5107286721
325298050.0 -0.6737410403 0.5210401792 -3.06275e-05 -7.65956e-05 0.0001362561 5.15337e-05 -0.6700706113 0.5174902556
330298020.0 -0.6682494076 0.5277911113 -1.28609e-05 2.0117e-06 -9.26464e-05 4.46637e-05 -0.6645569912 0.5240336841
335297990.0 -0.6631803762 0.5345756775 -0.0001256297 0.0001240775 3.65169e-05 0.0001263377 -0.6593231467 0.5318348364
340297960.0 -0.6577654476 0.5417066576 1.43671e-05 1.2893e-06 -1.2285e-05 3.10612e-05 -0.6538654861 0.5383631523
345297930.0 -0.6518050296 0.5478316826 8.60487e-05 1.71657e-05 -3.83868e-05 -0.0002115406 -0.6485250483 0.5451757043
350297900.0 -0.6463568844 0.5549905781 -4.2529e-05 0.000101815 3.86069e-05 7.96689e-05 -0.6431956338 0.5511993023
355297870.0 -0.6410451866 0.5613607026 -0.000155145 1.16887e-05 4.64024e-05 8.60485e-05 -0.6366638417 0.5589433805
360297840.0 -0.6346658883 0.5681421457 5.72858e-05 3.38121e-05 2.83813e-05 -1.8231e-06 -0.6305026645 0.5645869142
365297810.0 -0.6299473811 0.5748692907 -0.0003077954 -0.0001085632 9.89454e-05 -6.57137e-05 -0.6259857132 0.5704814476
370297780.0 -0.6234771527 0.5805760244 1.54732e-05 5.42106e-05 -2.87946e-05 -3.28527e-05 -0.619190424 0.5773234707
375297750.0 -0.6180993683 0.5871810738 -1.79326e-05 6.32702e-05 0.0001270171 -2.55691e-05 -0.6130675305 0.584000754
380297720.0 -0.6121208096 0.593472663 -0.0002058411 1.71478e-05 -7.81384e-05 6.28418e-05 -0.6067125457 0.5903847673
385297690.0 -0.6056792201 0.5997153985 -8.22004e-05 6.593e-05 1.63571e-05 -8.48273e-05 -0.6011710152 0.5968382037
390297660.0 -0.5985399758 0.6055030739 1.57413e-05 0.000174594 -6.29249e-05 -6.121e-05 -0.5944588175 0.6020268484
395297630.0 -0.5928121306 0.6122819694 -2.0824e-06 6.635e-05 0.0001791461 -5.06326e-05 -0.5883712856 0.6080889642
400297600.0 -0.5868908996 0.6181278634 1.49774e-05 -0.0001425412 -0.0001978671 -0.0002829357 -0.5823506288 0.6142638349
405297570.0 -0.580538845 0.6226488735 -8.95668e-05 2.09063e-05 9.39577e-05 3.42278e-05 -0.5750052402 0.6198975439
410297540.0 -0.5734241035 0.6299059282 0.0002042214 -7.37715e-05 -0.0001527422 -8.60295e-05 -0.5692525562 0.6260980884
415297510.0 -0.5682779572 0.6359328438 1.96468e-05 3.10182e-05 -7.8371e-06 0.0001004017 -0.5626521368 0.6312267857
420297480.0 -0.5611688497 0.64105288 6.42548e-05 0.0001378836 0.0001069884 -6.4284e-05 -0.5558392617 0.6381898884
425297450.0 -0.5544911332 0.6467242712 0.0001108937 -9.25623e-05 -0.0001653111 -0.00013507 -0.5495667167 0.6424767448
430297420.0 -0.547998689 0.6523203677 0.0001009496 2.18715e-05 -4.5824e-06 -0.0001649435 -0.5431556825 0.6488838963
435297390.0 -0.5415835981 0.6572715051 -1.40167e-05 0.0001923294 -8.35909e-05 2.28674e-05 -0.5367831191 0.6545690151
440297360.0 -0.5341235702 0.663011088 3.4078e-06 1.41701e-05 1.6395e-06 -7.68776e-05 -0.5305346835 0.6597244299
445297330.0 -0.5276868412 0.6683386276 -0.0002025078 -0.0001457484 7.96138e-05 -1.74066e-05 -0.5228443574 0.6652302057
450297300.0 -0.5198781816 0.673719095 -4.05174e-05 7.54523e-05 -7.83553e-05 2.13344e-05 -0.5151930555 0.6700277102
455297270.0 -0.5135036412 0.6789342171 0.0002211859 0.0001117714 -3.77414e-05 -0.000204894 -0.5089968648 0.6754626365
460297240.0 -0.5063509048 0.684211971 5.25844e-05 -0.0001138831 0.0002016509 8.05191e-05 -0.5020817474 0.6799675477
465297210.0 -0.4994829248 0.6893717506 0.0001398934 -1.27144e-05 -0.0001394859 -9.2814e-06 -0.49479253 0.6854451652
470297180.0 -0.4923199049 0.6944075755 -0.0001548896 9.26025e-05 8.4963e-06 0.0001880955 -0.4882091338 0.6903623078
475297150.0 -0.484585442 0.6987798015 -3.39649e-05 2.6213e-06 6.83992e-05 -5.06326e-05 -0.4813274712 0.6955621907
480297120.0 -0.476661391 0.7035825907 5.38844e-05 -6.92472e-05 -0.0001926984 -7.0928e-06 -0.4740463843 0.6998777043
485297090.0 -0.4700222814 0.708387801 0.0001502499 -0.000100391 0.0001713315 -1.89509e-05 -0.4672025387 0.7049164567
490297060.0 -0.4624971483 0.7133682859 -8.7064e-06 4.91375e-05 -1.3563e-06 6.44227e-05 -0.459897798 0.7089950829
495297030.0 -0.4547886894 0.7182545071 -4.4379e-06 0.0001352625 4.66018e-05 -9.42464e-05 -0.4520619627 0.7136878054
500297000.0 -0.4477659412 0.7223564072 -0.0001192547 0.0001898433 3.00209e-05 -3.82161e-05 -0.4451361549 0.7189408247
505296970.0 -0.4394245598 0.7269794823 2.10867e-05 -1.10523e-05 -8.3106e-05 0.00014499 -0.4374694815 0.7232227167
510296940.0 -0.4321484541 0.731396567 -1.2793e-06 2.89399e-05 7.27343e-05 4.60582e-05 -0.4299636247 0.7274822478
515296910.0 -0.4241586066 0.7358610279 -2.96073e-05 -0.0001292873 9.24352e-05 -0.0001180889 -0.4231485279 0.7313053335
520296880.0 -0.4157474845 0.7398627108 6.43916e-05 7.9675e-05 -3.4557e-06 0.000155237 -0.4149935873 0.736194994
525296850.0 -0.408476563 0.7440393345 -6.60645e-05 6.35592e-05 6.50909e-05 7.96253e-05 -0.4080062422 0.739776904
530296820.0 -0.4011844316 0.7478965549 -3.59355e-05 7.82098e-05 4.36818e-05 -0.0001020582 -0.4002727802 0.743545737
535296790.0 -0.3926366319 0.7518326514 4.14097e-05 1.63012e-05 -0.0001307962 -9.91017e-05 -0.3933316129 0.7487540737
540296760.0 -0.3849988079 0.7559247353 -4.68477e-05 -4.74287e-05 -2.50007e-05 5.92154e-05 -0.38489181 0.7513708872
545296730.0 -0.3778193131 0.7603947557 -3.8879e-06 -2.91619e-05 0.0002722713 -9.62102e-05 -0.377467841 0.7559434296
550296700.0 -0.369312776 0.7641391663 -2.93964e-05 -4.49793e-05 -7.07405e-05 0.0001595933 -0.369900386 0.758892198
555296670.0 -0.3616072497 0.7671950297 -0.0001342301 0.0002445613 5.07564e-05 -5.68132e-05 -0.3627407276 0.7626859011
560296640.0 -0.3528825764 0.7707330673 0.0001135772 4.97254e-05 7.47158e-05 -0.0001327386 -0.3542164708 0.7666870644
565296610.0 -0.3458360341 0.7744607995 -2.25026e-05 -0.0002597765 -1.54118e-05 -2.37134e-05 -0.3465851531 0.7699784253
570296580.0 -0.3371092588 0.7777771 -0.0001187643 -6.72767e-05 0.0001043236 0.0002403413 -0.3388613654 0.7730013964
575296550.0 -0.3284856435 0.7811325559 -9.29339e-05 -5.71972e-05 2.18516e-05 9.23113e-05 -0.3314006103 0.776238604
580296520.0 -0.3214892081 0.7844998191 -6.4199e-05 0.0001340882 4.27794e-05 0.0001151465 -0.323659795 0.7797929334
585296490.0 -0.3126737421 0.787281754 -1.00285e-05 5.07447e-05 3.69385e-05 3.51085e-05 -0.3154299759 0.7829797444
590296460.0 -0.3038682827 0.7912261504 6.79106e-05 4.33392e-05 9.25399e-05 -0.0001058595 -0.3074409516 0.7857933338
595296430.0 -0.2958636126 0.794139051 0.0001629492 0.0002208956 -2.78219e-05 6.8558e-05 -0.299930643 0.7889376049
600296400.0 -0.288460612 0.7965772926 0.0001577107 -2.25622e-05 -4.667e-05 3.3671e-06 -0.2922106419 0.7919933521
605296370.0 -0.2801541742 0.7994729634 -0.000101345 0.0001419592 2.90723e-05 3.86932e-05 -0.2837687756 0.7951490392
610296340.0 -0.2712473737 0.8029634594 0.0001466956 -0.0001255244 0.0001284707 0.0001163825 -0.2761867976 0.798079206
615296310.0 -0.2629204239 0.8054088641 6.3269e-05 -0.0001130074 3.78585e-05 0.0001053227 -0.2672259102 0.8004829121
620296280.0 -0.2554620023 0.808639337 8.31192e-05 -3.86445e-05 0.0001015988 -1.45308e-05 -0.2599272801 0.803387422
625296250.0 -0.2478771298 0.8103852498 -2.19958e-05 0.0002101575 -7.18497e-05 0.0001185729 -0.2518257624 0.8053627687
630296220.0 -0.2388462187 0.8132766704 -0.0001693515 6.66755e-05 9.70028e-05 -0.0002431992 -0.2431759295 0.8076981062
635296190.0 -0.2305451268 0.8155332509 -0.0001881734 0.0001901001 4.85665e-05 6.16527e-05 -0.2353319101 0.8102737909
640296160.0 -0.2218278956 0.8178928951 6.7661e-05 0.0001068456 -6.85055e-05 -5.20841e-05 -0.2271519238 0.8121569895
645296130.0 -0.213837029 0.8202893335 0.0001949489 -0.0001916276 8.92495e-05 -7.85426e-05 -0.219115284 0.8143494654
650296100.0 -0.2052896783 0.8218741503 5.4065e-05 6.70656e-05 -2.33681e-05 -4.84267e-05 -0.2108952416 0.8169950379
655296070.0 -0.1974725573 0.8244308589 -5.50779e-05 0.0001530714 1.90257e-05 9.23636e-05 -0.2030641543 0.8189154697
660296040.0 -0.1893530576 0.8262802375 7.46888e-05 6.05176e-05 -0.0002070817 -2.4237e-06 -0.1945707681 0.8207082901
665296010.0 -0.1806881754 0.8286945469 -5.88729e-05 -2.85231e-05 -2.02457e-05 0.0002487316 -0.1861672827 0.8224566435
670295980.0 -0.1726831401 0.830792368 -0.0001584887 -5.16585e-05 0.0001003491 -0.0001289088 -0.1780925289 0.8242572076
675295950.0 -0.163620797 0.8319708347 9.55619e-05 0.0003155794 -0.0001171841 -0.000162956 -0.1695673717 0.826540614
680295920.0 -0.1567553961 0.8340799237 -6.87755e-05 -7.03097e-05 -3.328e-07 8.51524e-05 -0.1612283427 0.8277283193
685295890.0 -0.1471968327 0.8357398399 -0.0001157848 2.80223e-05 -3.29682e-05 7.39507e-05 -0.1532681913 0.8295839201
690295860.0 -0.1391163512 0.8371148384 -5.55079e-05 -0.0001866713 -6.6021e-05 -7.8642e-06 -0.1454184893 0.8311228379
695295830.0 -0.1308630511 0.8386762616 -7.76009e-05 9.4447e-06 1.0382e-06 -1.47794e-05 -0.1370953205 0.8331297956
700295800.0 -0.1224567872 0.8398495778 -5.10218e-05 8.36918e-05 -4.3217e-05 -9.99788e-05 -0.128486063 0.8335032442
705295770.0 -0.1150580166 0.8418635684 0.0001411733 -0.0001212977 1.16017e-05 -9.131e-06 -0.1201810457 0.8351274964
710295740.0 -0.1066792572 0.8421027619 0.0001326115 -0.0002430496 -7.289e-07 -5.11741e-05 -0.1116549828 0.836231241
715295710.0 -0.0978236244 0.8436702216 5.41116e-05 -5.14595e-05 -0.0001154859 -0.0001116651 -0.1032795756 0.8363128926
720295680.0 -0.0889950253 0.8442494333 0.0001411696 -3.5747e-06 0.0001032092 -4.53787e-05 -0.094239715 0.8382369511
725295650.0 -0.0811844275 0.8458990157 -7.4433e-05 0.0001229241 0.0001272859 -0.0001096353 -0.0868659249 0.8391784076
730295620.0 -0.0734438492 0.8470295178 7.45356e-05 -0.0001965957 -0.0001679637 7.06659e-05 -0.0788148585 0.8402577196
735295590.0 -0.0655915828 0.8476216751 8.6718e-06 -5.83017e-05 7.29783e-05 -0.000129458 -0.0697551357 0.8403496466
740295560.0 -0.0578351197 0.8475145275 -1.42096e-05 -6.36622e-05 5.422e-06 -2.62682e-05 -0.0613989006 0.8415038161
745295530.0 -0.0488985716 0.8488677562 0.0002420209 -0.0001265607 -2.06653e-05 0.0003462894 -0.0535724212 0.8416828176
750295500.0 -0.0412670717 0.8490897454 0.0001599504 -7.30769e-05 -4.51526e-05 -0.0001155864 -0.0449394529 0.8424496833
755295470.0 -0.0319890654 0.8500882454 0.0001224965 -6.17661e-05 1.9161e-06 0.0001461307 -0.0367004407 0.8431938513
760295440.0 -0.0242958791 0.8511919637 3.06228e-05 -3.95356e-05 -8.80989e-05 5.20551e-05 -0.0277776772 0.8426329581
765295410.0 -0.016428056 0.8507576294 0.0001435794 2.29677e-05 0.0001045821 -0.0002324032 -0.0195367749 0.8433619707
770295380.0 -0.0081899165 0.8510159122 -0.0002639329 -0.0001128505 -5.45911e-05 2.6321e-05 -0.0111510404 0.8432452734
775295350.0 0.0003630676 0.8510486001 5.45857e-05 0.0001467048 -0.0001181626 5.45745e-05 -0.0035091223 0.8429959994
780295320.0 0.008818116 0.8514207186 -0.0001118216 -6.08339e-05 7.284e-07 -0.0001522828 0.0054042686 0.8435739688
785295290.0 0.016554787 0.850827032 0.0001143065 -6.45559e-05 4.25231e-05 3.20289e-05 0.0134058556 0.8433512811
790295260.0 0.0245328516 0.8508805749 0.0001225849 -0.0001040046 1.15282e-05 6.11678e-05 0.0217553988 0.8432434515
795295230.0 0.0333219286 0.8506267204 -0.0001240178 -4.58299e-05 0.0002895581 0.0001664498 0.0302183796 0.8420727419
800295200.0 0.0409314061 0.8504120156 0.0001738821 4.74002e-05 2.1076e-06 -3.64313e-05 0.0382177409 0.8419108067
805295170.0 0.0493048001 0.8508266683 -9.12376e-05 -1.41625e-05 2.46883e-05 5.47437e-05 0.0473810454 0.8418204653
810295140.0 0.0578964913 0.8502357155 4.49537e-05 -0.000213316 0.0001313164 -7.13128e-05 0.0558135855 0.8412943567
815295110.0 0.0653507812 0.8496965535 -0.0001521979 -5.16703e-05 -0.0001665305 -2.06152e-05 0.0630344574 0.8406052813
820295080.0 0.073577179 0.8492328281 0.0002077648 0.0001192209 9.18931e-05 0.0001102118 0.0712849691 0.840652836
825295050.0 0.0817379816 0.8482611079 -4.46962e-05 2.50815e-05 -0.0001020715 -0.000104114 0.0801842812 0.839305561
830295020.0 0.0903494608 0.8475655539 -6.99207e-05 0.0002384138 -0.000112789 -8.98681e-05 0.0879874126 0.8378723434
835294990.0 0.0979588982 0.8465624113 -0.0001538178 0.0002236386 -0.0001026655 1.49925e-05 0.0966474483 0.837686738
840294960.0 0.1065115247 0.8454772855 0.0001438248 5.10108e-05 2.55938e-05 -0.0001277517 0.1058281368 0.8368941209
845294930.0 0.1153078236 0.8444001671 -9.20599e-05 8.48805e-05 0.0001762285 -8.75047e-05 0.1134946327 0.8354563406
850294900.0 0.1239840067 0.8433550523 5.10525e-05 -8.31437e-05 5.02071e-05 -9.03204e-05 0.1216194493 0.8342627695
