!Created with skrf (http://scikit-rf.org).
# Hz S RI R 50.0 
!freq ReS11 ImS11 ReS21 ImS21 ReS12 ImS12 ReS22 ImS22
300000.0 -0.774989933 -0.1767767883 0.0001528246 -0.0008948326 -9.6552e-06 0.0005540428 -0.0442898142 -0.0785405708
5299970.0 -0.7862913545 -0.0092670831 -2.5846e-05 9.4432e-06 0.0001268321 7.29806e-05 -0.047717247 0.0135898807
10299940.0 -0.7889570447 -0.0055549966 -9.26174e-05 -6.2081e-06 -6.92018e-05 0.0001153946 -0.0419114309 0.0316098607
15299910.0 -0.7940874903 -0.0036058236 -9.50344e-05 0.000113043 -2.2667e-06 8.9038e-05 -0.0338515604 0.0455849711
20299880.0 -0.8007740368 0.0002536418 0.0001216331 0.0001002043 -3.1092e-05 0.0001610011 -0.0243029053 0.0572358075
25299850.0 -0.8075552698 0.0066864732 9.78338e-05 0.0002505346 5.04004e-05 -0.0001841311 -0.0135630509 0.0662318
30299820.0 -0.8138170522 0.0138054634 1.7109e-05 2.6648e-06 -0.0001268596 0.0001997664 -0.0019692654 0.0729917363
35299790.0 -0.8187780424 0.0230219883 -6.28608e-05 1.59294e-05 9.68516e-05 6.51943e-05 0.0091018521 0.0775484938
40299760.0 -0.8236860506 0.0317315396 -0.000125928 -3.76687e-05 -4.762e-05 -0.0001690503 0.020028903 0.0799473241
45299730.0 -0.8267805583 0.0415764815 3.97876e-05 3.31871e-05 5.50541e-05 0.0001308723 0.0306441285 0.0811597774
50299700.0 -0.8287272827 0.0519007366 -8.9607e-06 0.000164838 -0.0001291393 0.0002043897 0.0405041005 0.0814090139
55299670.0 -0.8312269852 0.0613671793 -0.0001695572 0.0001019247 3.00411e-05 2.30408e-05 0.0494907045 0.0804255842
60299640.0 -0.8323558501 0.0719524098 0.0001205644 -8.5379e-05 -0.0001132263 5.25489e-05 0.0579325257 0.0784287622
65299610.0 -0.8333382007 0.0818460321 3.55664e-05 0.0001354592 0.0001708996 -5.03611e-05 0.0653552638 0.0759125534
70299580.0 -0.8340695033 0.0914166492 -2.85518e-05 1.05341e-05 3.02306e-05 5.77238e-05 0.0723488733 0.0732223302
75299550.0 -0.8333907695 0.1015338504 9.1073e-06 0.0001494726 -0.0001798078 -7.57271e-05 0.0784620429 0.0698722649
80299520.0 -0.8335782338 0.1117605704 3.42879e-05 0.0001797241 -4.90772e-05 0.0001091391 0.0840505376 0.0662027206
85299490.0 -0.8325606278 0.1213915891 0.0001809911 -7.90673e-05 0.0001460407 -0.0001645609 0.0888768679 0.0626852295
90299460.0 -0.8315219404 0.1317000129 -0.0002331646 -8.04031e-05 7.25996e-05 9.37841e-05 0.0934275515 0.0588198804
95299430.0 -0.831459138 0.1404852333 8.89792e-05 -5.49198e-05 -5.3383e-06 0.0001526353 0.0977986814 0.0548497448
100299400.0 -0.8301689369 0.1503287373 4.58581e-05 0.0001174599 -6.39843e-05 0.0001969143 0.1011203753 0.0513550302
105299370.0 -0.8290742992 0.1591274393 -6.20888e-05 -2.16256e-05 8.13194e-05 3.94188e-05 0.1042566417 0.0467786827
110299340.0 -0.8275084565 0.1682667771 9.36959e-05 -1.8456e-05 -9.53616e-05 -9.04262e-05 0.1068398032 0.0425119811
115299310.0 -0.8260091944 0.1772050434 3.38148e-05 8.6564e-06 0.0001060644 0.0001650269 0.1090949353 0.0391611985
120299280.0 -0.8247339548 0.1867317222 -3.34568e-05 -3.93084e-05 9.0525e-06 -5.99544e-05 0.1113878271 0.0350715866
125299250.0 -0.8221675387 0.1955834354 0.0001198389 8.1043e-05 0.0001804584 2.08621e-05 0.1134376883 0.0313278659
130299220.0 -0.8213589332 0.2054099214 0.0001395751 -8.4524e-05 0.0001346343 -5.07119e-05 0.1150134507 0.0274238375
135299190.0 -0.8186712592 0.2143338177 5.9289e-05 0.000288407 0.0001477025 -2.14506e-05 0.1163344067 0.0235766804
140299160.0 -0.8171334053 0.2230040337 0.0002777006 3.15428e-05 -0.0001320293 9.2486e-05 0.1171864257 0.0204300612
145299130.0 -0.8145625031 0.2321498241 0.0002285745 0.0001754145 -9.38588e-05 3.3499e-06 0.1186578661 0.0168480618
150299100.0 -0.8117030335 0.2411173813 0.0001565947 -7.2443e-06 0.0002033724 7.42936e-05 0.1194551208 0.0132847312
155299070.0 -0.8101050673 0.2497399584 -2.95286e-05 0.00014078 1.90356e-05 -8.26946e-05 0.1201493027 0.0099750518
160299040.0 -0.8072734096 0.2595026052 -0.0001041055 -8.49497e-05 7.90888e-05 0.0001604471 0.1201741189 0.0069742063
165299010.0 -0.8042346796 0.2677591734 0.0001790509 -0.0002091676 -1.38434e-05 -2.7678e-06 0.1210258824 0.0033667043
170298980.0 -0.8014529949 0.2766764452 -0.0001067724 0.0002256132 -0.0002711307 -0.0002064371 0.1211716511 0.0004790806
175298950.0 -0.7991484772 0.2846780366 1.82092e-05 0.0001495076 -0.0001029344 0.0001620696 0.1212861106 -0.0024307817
180298920.0 -0.7959976277 0.2935820749 0.0001860807 5.17851e-05 7.3105e-05 7.82603e-05 0.1217792664 -0.0057788326
185298890.0 -0.7923682308 0.3017335492 0.0001423052 0.0001139852 -2.6817e-05 0.0002399573 0.1216589061 -0.0088526992
190298860.0 -0.7895928841 0.3108335481 0.0001089862 0.0001544557 -1.82402e-05 0.0001661192 0.1212849265 -0.0114617607
195298830.0 -0.7863777666 0.3191363368 -0.0001362658 -0.00012501 5.19221e-05 0.0001546294 0.1209566008 -0.0142158516
200298800.0 -0.7824462248 0.3280440361 -5.90304e-05 -7.54712e-05 -4.495e-07 9.65796e-05 0.121160885 -0.0169066787
205298770.0 -0.7793812554 0.3366601451 2.0871e-05 -0.0001036691 7.1134e-05 3.63372e-05 0.1206716355 -0.0196081093
210298740.0 -0.7764257397 0.3443157834 1.7492e-06 -1.31211e-05 0.0002136437 -0.0001389421 0.1202540333 -0.022251645
215298710.0 -0.7723259782 0.3531235977 0.0002165814 -7.20762e-05 -3.99957e-05 -5.45659e-05 0.1198875927 -0.0252096353
220298680.0 -0.7686364441 0.3611395452 -7.2042e-05 -8.2537e-06 5.17832e-05 0.0001157374 0.1193654159 -0.0270098862
225298650.0 -0.7647532355 0.3692538372 -2.64957e-05 -8.67134e-05 0.0002044925 0.0002450296 0.1188992193 -0.0297844126
230298620.0 -0.7607637394 0.3779189386 9.06617e-05 -4.68475e-05 0.0003132031 0.0001125164 0.1180930361 -0.03253982
235298590.0 -0.7569156236 0.3859365098 2.5981e-06 7.90887e-05 8.1088e-06 7.26566e-05 0.1174012927 -0.0342190119
240298560.0 -0.7526675699 0.3937675672 0.0002305111 8.91992e-05 0.0001664531 6.26181e-05 0.1167898491 -0.0368830906
245298530.0 -0.7484263082 0.4017744034 3.07945e-05 -6.2543e-06 0.0001098079 0.0001765047 0.1160083431 -0.0389208994
250298500.0 -0.7444098482 0.4090226405 -3.40197e-05 8.73942e-05 0.0001416129 8.02988e-05 0.1152227046 -0.0410730325
255298470.0 -0.7406510026 0.4170851821 0.000275669 -7.92816e-05 1.50593e-05 0.0001123837 0.1143538524 -0.0435107867
260298440.0 -0.7364888986 0.4250073826 -5.19917e-05 2.57987e-05 1.68689e-05 0.0001891428 0.1132250202 -0.0453732224
265298410.0 -0.7320128732 0.4330711312 -2.34445e-05 1.64973e-05 5.68933e-05 -2.39614e-05 0.1128370392 -0.0480509116
270298380.0 -0.7276546126 0.4400291624 3.52167e-05 3.69838e-05 -3.64766e-05 -8.5081e-06 0.1119297686 -0.0498592824
275298350.0 -0.7228977231 0.448249148 0.0001224945 -0.0001562985 5.5097e-05 0.0001013483 0.1110538426 -0.0516749298
280298320.0 -0.7182982181 0.4555399717 0.000215206 -3.652e-06 0.00015486 -4.53006e-05 0.1098281508 -0.0537167924
285298290.0 -0.7136636818 0.4632356771 -9.62672e-05 5.48891e-05 0.0001448138 -8.1908e-06 0.1088894514 -0.0555212865
290298260.0 -0.7087313746 0.4707498542 6.35511e-05 -1.90174e-05 0.0002026029 0.0001189446 0.1077267747 -0.0571905291
295298230.0 -0.7034416806 0.4783343768 0.0001832798 -8.78417e-05 4.78268e-05 4.2066e-06 0.1069744979 -0.0592973916
300298200.0 -0.6995637231 0.4852953836 -8.13527e-05 7.26576e-05 0.0001322288 -0.0001300226 0.1060421404 -0.0608378732
305298170.0 -0.6943019842 0.4919443949 0.000128256 6.44654e-05 -5.3116e-06 0.0002151425 0.1049984007 -0.0630986767
310298140.0 -0.6890857272 0.4996679021 0.0003511136 -2.53976e-05 0.0001930548 4.5512e-06 0.1039725716 -0.0647166442
315298110.0 -0.6845741421 0.5070790148 -6.35024e-05 8.50144e-05 0.0002818753 4.46484e-05 0.1031397407 -0.0665529862
320298080.0 -0.6787723137 0.5142399982 -0.0001528614 0.0001890956 -0.0001903121 0.000104896 0.1015675052 -0.0682709564
325298050.0 -0.6733861638 0.5206544561 8.9174e-05 0.0001954483 9.93739e-05 -2.71995e-05 0.1005143525 -0.0703310868
330298020.0 -0.6679780554 0.527994034 -0.0001044995 -0.0001830942 -5.40071e-05 -0.0001361624 0.0993228267 -0.0722471361
335297990.0 -0.6625213611 0.535016545 0.000200947 0.0001524858 -5.74031e-05 0.0002403224 0.0975650741 -0.0738389103
340297960.0 -0.6579180092 0.5412566452 -1.39211e-05 -9.61441e-05 0.0001782764 -4.9868e-05 0.0960142286 -0.0750286055
345297930.0 -0.6522907198 0.5482644481 0.0002235089 -0.0001508999 0.0003031037 6.54295e-05 0.0948242944 -0.0766411869
350297900.0 -0.6461471273 0.5550517655 6.1738e-05 -0.0002492453 7.42797e-05 4.02691e-05 0.0931255683 -0.0783080771
355297870.0 -0.6410370401 0.5610785213 -4.6472e-06 2.21213e-05 7.33057e-05 0.0001173028 0.0919557989 -0.0795864961
360297840.0 -0.6348501614 0.5681125288 -8.8954e-06 0.0002049873 0.0002137032 -3.14938e-05 0.0906119793 -0.0807815116
365297810.0 -0.6292900037 0.5747130208 -7.35537e-05 -6.99638e-05 3.1967e-05 4.78997e-05 0.0892271894 -0.0820704803
370297780.0 -0.6231055122 0.5803983982 -3.39902e-05 0.0001008238 8.92056e-05 0.0002157503 0.0875720243 -0.0835711954
375297750.0 -0.6178384969 0.5871553262 9.87038e-05 0.0001717234 -3.91641e-05 -2.01446e-05 0.0861492627 -0.0846106609
380297720.0 -0.6116957046 0.5933374462 -5.39101e-05 -2.01439e-05 8.21502e-05 0.0001313054 0.0849636514 -0.0857450831
385297690.0 -0.6063019402 0.5990382929 -5.78066e-05 -2.28595e-05 0.0001249814 3.4294e-05 0.0832804766 -0.0870136097
390297660.0 -0.5983614727 0.6051674622 0.0001987032 6.33146e-05 9.21976e-05 -5.50183e-05 0.0817392211 -0.0883629319
395297630.0 -0.5927332475 0.6122191194 0.0001475143 6.34106e-05 0.0003231728 1.40954e-05 0.0804328327 -0.0894670617
400297600.0 -0.5868403695 0.6176760496 -1.37482e-05 0.000305183 0.0001060943 -5.30404e-05 0.0790380242 -0.0903931228
405297570.0 -0.580301011 0.6232620602 9.61391e-05 0.0001439416 0.0001227774 -1.03069e-05 0.0777531511 -0.0914539425
410297540.0 -0.5740206709 0.6299289071 0.0001866901 -7.57283e-05 8.87242e-05 3.0561e-06 0.0763886765 -0.0924838447
415297510.0 -0.5677453619 0.6353844966 0.0001667384 -5.37309e-05 0.000119672 2.8098e-06 0.0747300272 -0.0936518054
420297480.0 -0.56086342 0.6412326636 7.51815e-05 -4.86596e-05 0.000148784 -0.0001188493 0.0733700947 -0.0944470024
425297450.0 -0.5545242933 0.6461196234 0.0001804576 8.01972e-05 -2.91085e-05 -9.34251e-05 0.0715552349 -0.095883257
430297420.0 -0.5476281193 0.6519421005 7.32963e-05 2.01284e-05 8.76717e-05 0.000287746 0.0702429002 -0.0967901002
435297390.0 -0.5411713281 0.6573594385 0.0001451971 -5.49057e-05 9.59437e-05 1.14308e-05 0.0684770184 -0.097373106
440297360.0 -0.5340437257 0.6634708545 0.0002378483 -7.732e-06 -2.765e-07 -7.84305e-05 0.0669152169 -0.0983962795
445297330.0 -0.5273152291 0.6679414246 -3.827e-05 -0.0002825327 3.74149e-05 -8.81966e-05 0.0657999594 -0.0992834856
450297300.0 -0.5198625866 0.6736013703 2.90384e-05 0.0001809716 -7.85186e-05 -9.75108e-05 0.0638955408 -0.1002325916
455297270.0 -0.5136538564 0.6785646281 6.37117e-05 4.07319e-05 0.0002894373 7.50783e-05 0.0625076785 -0.1008079445
460297240.0 -0.5058686882 0.6841384855 1.32971e-05 -9.1456e-06 -9.26037e-05 1.08148e-05 0.0609164941 -0.1019246876
465297210.0 -0.4998856172 0.689091736 0.0002888349 2.528e-07 2.14521e-05 0.0001101531 0.0591706299 -0.1024836289
470297180.0 -0.4924707763 0.694054316 0.0002218991 0.0001414324 0.0002526801 -0.0001156471 0.0576093179 -0.1034752551
475297150.0 -0.4846848029 0.6990838874 1.29972e-05 -4.79041e-05 -3.95436e-05 -1.45341e-05 0.0565438371 -0.1041308423
480297120.0 -0.4770198561 0.7037729318 5.30899e-05 -4.26253e-05 0.0001663988 -5.52534e-05 0.0546570418 -0.1048990342
485297090.0 -0.4699458897 0.7087198671 5.61588e-05 0.0002251479 4.7082e-06 0.0002086732 0.0528278864 -0.1057834177
490297060.0 -0.4621225282 0.7137744349 -1.74567e-05 -0.0001933596 6.63317e-05 6.63873e-05 0.051383032 -0.1064439741
495297030.0 -0.4543601514 0.7177183133 -4.53655e-05 6.41789e-05 7.55524e-05 0.0001213886 0.0497309978 -0.1070455515
500297000.0 -0.4472383393 0.722231978 7.81888e-05 -7.52709e-05 4.77077e-05 0.0002575736 0.0482700402 -0.1075229438
505296970.0 -0.4391474535 0.7270596916 2.10323e-05 -0.0001364239 -0.0001729896 -7.46527e-05 0.0466140151 -0.1082337824
510296940.0 -0.4317334125 0.7312881607 4.02933e-05 0.0001910908 0.0003101563 -4.97436e-05 0.0452532893 -0.1084385538
515296910.0 -0.4243350582 0.7356446201 1.77181e-05 7.91782e-05 0.000135857 6.0866e-05 0.0432730356 -0.1092207124
520296880.0 -0.4160160802 0.7400987901 0.000260466 -3.88404e-05 0.0003474534 -4.27893e-05 0.0417316311 -0.1095820905
525296850.0 -0.4086311288 0.7441509168 0.0002160872 -0.00011547 8.95762e-05 -3.72514e-05 0.0399925149 -0.1102044855
530296820.0 -0.401633863 0.7481392375 0.0001429435 -2.59137e-05 9.34011e-05 0.000134023 0.0384929993 -0.1109187842
535296790.0 -0.3926483355 0.75173296 0.0001162903 9.70555e-05 0.0003144355 -7.79173e-05 0.0370584817 -0.1111579937
540296760.0 -0.3848700983 0.7561707254 2.42706e-05 -9.34469e-05 -9.09663e-05 -0.0002423931 0.0348940391 -0.1116312931
545296730.0 -0.3774226599 0.7602598731 0.0001801412 2.13509e-05 -0.0001507288 -1.29427e-05 0.033566314 -0.1120711443
550296700.0 -0.3691604652 0.7641056688 0.0001210152 0.000141635 0.0001361011 0.0001170116 0.031626899 -0.1125251761
555296670.0 -0.3616120549 0.767258573 2.39932e-05 0.0001146647 0.0001997573 -1.89233e-05 0.0297864304 -0.1131317151
560296640.0 -0.3533660481 0.7705971118 4.31568e-05 -9.0561e-06 0.0002363734 9.66875e-05 0.0284233039 -0.1130971411
565296610.0 -0.3457040831 0.7742316815 -8.35515e-05 6.96438e-05 0.0002030631 4.90666e-05 0.0268912712 -0.113241934
570296580.0 -0.3374586038 0.7782382106 0.0001901293 -0.0001889058 0.0002585063 -6.43691e-05 0.0251404601 -0.1140354807
575296550.0 -0.3285799968 0.7811368456 -0.0001849352 0.0001812029 -3.77817e-05 -7.37257e-05 0.0236122455 -0.1141100414
580296520.0 -0.3209001334 0.7844449765 0.000172349 -2.76804e-05 0.0001061637 7.71904e-05 0.0216950219 -0.1140949782
585296490.0 -0.3126066914 0.7875637975 0.0001760249 8.0291e-05 0.0003530492 0.0001124678 0.0202003376 -0.1141858076
590296460.0 -0.3038576906 0.7909237561 0.0003057269 -0.0001101539 -9.78188e-05 7.9526e-05 0.0181323644 -0.1144514704
595296430.0 -0.2964976949 0.7939952445 3.89563e-05 -7.00181e-05 0.0002265375 7.3241e-06 0.0164979793 -0.1149458951
600296400.0 -0.2882211941 0.7968060128 0.000141269 0.0002022227 0.0002160466 -0.0001118206 0.0150368297 -0.1149411175
605296370.0 -0.2797360702 0.7997541826 0.0001602319 0.0001984128 1.8549e-06 -7.87699e-05 0.0134565551 -0.1150868314
610296340.0 -0.2713981573 0.8025112263 0.0002564688 -2.97496e-05 0.0001392081 1.55943e-05 0.0116906804 -0.1149843951
615296310.0 -0.2633246519 0.8053085069 0.0001537671 -0.0001152924 4.65535e-05 5.77458e-05 0.0102732693 -0.1151744252
620296280.0 -0.2555734359 0.8080536553 -8.243e-06 -9.67529e-05 -3.16699e-05 -2.02053e-05 0.0080105579 -0.1150424134
625296250.0 -0.2475268395 0.8105671158 0.0002807248 -5.0291e-06 0.0001930494 6.58196e-05 0.006623123 -0.1152442601
630296220.0 -0.2388434738 0.8132503691 -9.08903e-05 -0.0001149874 0.000104088 4.4663e-06 0.0051124648 -0.1150058308
635296190.0 -0.2301820586 0.8148074913 5.44634e-05 4.06771e-05 0.0001555058 -3.72736e-05 0.003197835 -0.115060111
640296160.0 -0.2222400891 0.8174927094 0.0003145971 -8.25044e-05 -8.099e-07 -8.55479e-05 0.0016138015 -0.1150548845
645296130.0 -0.2133882665 0.8202840031 0.0002602448 -2.79793e-05 0.0001853951 8.56038e-05 -0.0004888529 -0.1149441736
650296100.0 -0.2055001732 0.8218669282 0.0001987501 0.0001261185 0.0001671272 -7.6981e-05 -0.0017994049 -0.1150209208
655296070.0 -0.1976334544 0.8247171921 0.0002677663 0.0001400618 -7.39841e-05 0.0001556626 -0.0037167235 -0.1144599541
660296040.0 -0.1887415668 0.8264190513 0.0001161492 -0.0001265692 0.0001194003 -0.0002234353 -0.0049269475 -0.1144839788
665296010.0 -0.1812221659 0.8280531973 0.0002383922 -0.000245203 0.0001836428 4.46539e-05 -0.0066281799 -0.1142902536
670295980.0 -0.1725112895 0.8306299284 0.0001989563 -0.0001401134 -3.01806e-05 3.39716e-05 -0.008489859 -0.1144974232
675295950.0 -0.1637315984 0.8321202915 0.000208997 6.01895e-05 3.68076e-05 -0.0001213278 -0.0102488833 -0.1138843421
680295920.0 -0.1559777346 0.8337160512 0.0001584764 5.69765e-05 0.0002479336 -7.6002e-06 -0.0117830742 -0.1140329494
685295890.0 -0.1472377753 0.8358600609 -1.73297e-05 3.90364e-05 2.70029e-05 -0.0001017101 -0.0135575882 -0.1133779181
690295860.0 -0.1393090537 0.8365862738 -4.30308e-05 6.52221e-05 0.0003176307 3.31305e-05 -0.0151856021 -0.113029708
695295830.0 -0.1306243819 0.8385006718 3.88404e-05 0.0002775564 6.15212e-05 -0.0001726299 -0.0169673934 -0.1128456419
700295800.0 -0.122543107 0.8401873584 0.0001100958 -0.0001486069 0.0001836877 2.54844e-05 -0.018215485 -0.1124715275
705295770.0 -0.1143417044 0.8411870208 9.18218e-05 -0.0001186321 0.0002153126 -5.98676e-05 -0.0200112502 -0.1117717198
710295740.0 -0.10667761 0.842081076 -7.93304e-05 5.93067e-05 0.0002802595 -0.0002346359 -0.0214174233 -0.1116840367
715295710.0 -0.0976607909 0.8436786654 9.8008e-05 0.0001855752 0.0002886387 3.8413e-06 -0.0231360333 -0.1114516337
720295680.0 -0.0891415253 0.8440788956 9.83278e-05 -8.5434e-06 0.0001288982 -1.54419e-05 -0.0249774605 -0.1109140085
725295650.0 -0.0813111241 0.8457714702 0.0002038494 -4.27448e-05 0.0001171825 -0.0001952398 -0.0263722784 -0.1105371061
730295620.0 -0.0737925447 0.8467455453 0.0001969654 0.0001133117 -0.0001049952 0.0001029624 -0.0281726902 -0.1099092757
735295590.0 -0.0658985349 0.8476029403 0.0002099026 0.0001192951 0.0001708084 -3.42312e-05 -0.0294756925 -0.1093495103
740295560.0 -0.0578447478 0.8473919025 2.64097e-05 -0.000231877 0.0001425655 6.3474e-06 -0.0312065798 -0.1090574388
745295530.0 -0.0487886549 0.8488254205 0.0002046802 -2.5896e-06 0.0002538203 3.09463e-05 -0.032898711 -0.1082668003
750295500.0 -0.0408466536 0.8491621986 -0.0001734672 -0.0001196124 -1.94436e-05 -3.48449e-05 -0.0344094365 -0.1078587706
755295470.0 -0.0319962731 0.8496867577 0.000150603 6.15231e-05 7.28729e-05 -0.0002200695 -0.0359804491 -0.1072822775
760295440.0 -0.0242196521 0.850977327 4.97238e-05 -0.0001555862 0.0001555684 -0.0001379971 -0.0372827121 -0.106975696
765295410.0 -0.0158148191 0.8503963602 0.0002784825 -0.0001525272 0.0002364858 0.0001018474 -0.0392350884 -0.1062374741
770295380.0 -0.0082178463 0.851484811 6.34253e-05 1.33474e-05 0.0001405299 3.86172e-05 -0.0407716713 -0.1052789774
775295350.0 0.0001208527 0.8510782052 -3.38597e-05 0.0001825393 -8.2537e-06 -0.0002082023 -0.0422263396 -0.105042243
780295320.0 0.0087611087 0.8511970262 0.0001739565 -9.73399e-05 0.0001186546 -4.72874e-05 -0.0437394666 -0.1041235955
785295290.0 0.01705485 0.8509486453 0.0004052952 1.2103e-05 0.0003392181 -2.5319e-06 -0.0457017438 -0.1031748218
790295260.0 0.0249524889 0.8506725966 8.79141e-05 -1.45959e-05 0.0001916992 8.43986e-05 -0.0470651781 -0.1027141013
795295230.0 0.0328317579 0.850397398 1.20122e-05 -0.0001127385 0.0004171909 -0.0001359346 -0.0485168003 -0.1023715918
800295200.0 0.0412407723 0.8507434995 0.0003099482 -0.0001224793 0.0001117206 5.18076e-05 -0.0500277936 -0.1012642049
805295170.0 0.049112257 0.8504836128 9.38719e-05 -0.0001236971 9.95262e-05 -7.04348e-05 -0.0511298249 -0.1005556458
810295140.0 0.0582783026 0.8508873807 0.0001047034 -9.38549e-05 1.91324e-05 -0.0001540554 -0.0524353803 -0.0996259195
815295110.0 0.0654327049 0.8495859431 1.10701e-05 0.0001524619 0.0001103607 -4.40264e-05 -0.054328249 -0.0989120456
820295080.0 0.0741254724 0.8491360651 0.0001889573 1.93192e-05 0.000126254 -3.18081e-05 -0.0561357245 -0.0975697355
825295050.0 0.0818120183 0.8481184966 7.45056e-05 2.33021e-05 3.0058e-06 -0.0001039049 -0.0572193515 -0.0970591044
830295020.0 0.0912404031 0.8471514081 0.0001746443 9.251e-07 0.0001412521 0.0001006325 -0.0586189057 -0.0962805677
835294990.0 0.0980743039 0.8468204944 3.45855e-05 -7.50617e-05 8.55878e-05 4.64248e-05 -0.0597647404 -0.0950805634
840294960.0 0.1070857155 0.8451374506 -6.4876e-05 -0.0001565856 4.53924e-05 -3.51877e-05 -0.0615735018 -0.0942864617
845294930.0 0.1146722604 0.8441030685 0.0003352164 0.0002251929 0.000136431 0.0001870229 -0.0630385678 -0.0932601234
850294900.0 0.1242831215 0.8432403642 0.0002192635 4.42949e-05 0.0001799504 -8.30651e-05 -0.0643178892 -0.0923292091
