!Created with skrf (http://scikit-rf.org).
# Hz S RI R 50.0 
!freq ReS11 ImS11 ReS21 ImS21 ReS12 ImS12 ReS22 ImS22
300000.0 -0.0481712347 -0.060608666 -0.0015454861 0.0005152257 4.20235e-05 0.0015263141 -0.7743361746 -0.165962278
5299970.0 -0.0488786765 0.0157712337 -0.0001143892 -7.76127e-05 0.0001115188 -0.0002159032 -0.784825637 -0.0087902962
10299940.0 -0.0431623365 0.0334190985 -1.67323e-05 2.30132e-05 0.0001450239 -0.000252097 -0.7880710428 -0.0052591247
15299910.0 -0.0349699942 0.0480155878 0.0001700976 0.0001344517 -8.09505e-05 -1.97276e-05 -0.7934544429 -0.0032163691
20299880.0 -0.0245595452 0.0597334279 -4.37646e-05 1.84352e-05 -0.0001158997 -7.29e-07 -0.8003870979 0.0015236707
25299850.0 -0.0133100575 0.0690579442 1.43305e-05 2.26226e-05 5.62023e-05 0.0001100545 -0.806342503 0.0073242801
30299820.0 -0.0013545558 0.0755691649 -0.0001104977 -3.20881e-05 -0.0001642884 -2.74634e-05 -0.8120179376 0.0149760181
35299790.0 0.0104059153 0.080548577 5.0285e-06 9.87069e-05 -0.0001930561 0.0002169566 -0.8176272389 0.0238069077
40299760.0 0.0220501516 0.0832401672 -6.204e-06 0.0001384609 0.000199417 -0.0001221737 -0.8216638158 0.033383849
45299730.0 0.0327865766 0.0847593983 -5.55097e-05 7.22047e-05 5.44775e-05 0.0001025798 -0.8253824144 0.0424863037
50299700.0 0.0428764789 0.0842609558 -3.19747e-05 -0.0001714799 -0.0001299538 6.13696e-05 -0.8278219079 0.0525503122
55299670.0 0.0520842292 0.0836332192 -0.0001462278 0.0001367233 0.0001700558 9.56487e-05 -0.8297572826 0.0632248987
60299640.0 0.0607387673 0.0812602591 6.22061e-05 -8.75612e-05 6.46861e-05 -0.0001711263 -0.8308139803 0.0732208153
65299610.0 0.0685329273 0.0786959323 -0.0001738595 1.18004e-05 4.20092e-05 -0.0002066253 -0.8312891664 0.08288784
70299580.0 0.0755077987 0.0756045494 -6.5469e-05 1.22721e-05 -0.0002145463 5.76125e-05 -0.8321349338 0.0929957573
75299550.0 0.0822117144 0.0720238433 2.7476e-05 -4.49107e-05 4.06042e-05 0.0001063145 -0.8329342127 0.1025655282
80299520.0 0.0874752967 0.0687595955 0.0001119156 3.9158e-05 -0.0001567254 -9.1355e-06 -0.832028295 0.1121496345
85299490.0 0.0926420297 0.0646416045 0.0001561218 -9.3608e-06 5.2135e-05 -7.87204e-05 -0.831362799 0.1218732134
90299460.0 0.0972469833 0.0609228677 -3.74661e-05 0.0001493988 8.1735e-06 -0.0001666355 -0.8311490774 0.131206414
95299430.0 0.1014607482 0.0565589188 -2.84712e-05 8.31387e-05 -6.2086e-06 -5.20602e-05 -0.8299572966 0.1412848214
100299400.0 0.1048438087 0.0527420325 -4.13692e-05 -6.71187e-05 3.18738e-05 0.0001111338 -0.8285393358 0.1497182501
105299370.0 0.108050717 0.048976715 8.00719e-05 -4.0889e-06 -0.0001880523 -3.59178e-05 -0.8275955623 0.1588538651
110299340.0 0.1109668138 0.044743901 -2.40143e-05 -2.65145e-05 -0.0001311566 0.0001534898 -0.8270308925 0.1681021104
115299310.0 0.1135815736 0.0404264364 3.4534e-06 1.42153e-05 -3.95136e-05 9.92435e-05 -0.8247855742 0.1774477663
120299280.0 0.1156546784 0.0366785032 -9.45332e-05 1.30505e-05 6.72402e-05 0.0001518289 -0.8233811746 0.1861518336
125299250.0 0.1175216205 0.0326030816 -0.0001417042 -3.41834e-05 -1.71464e-05 -0.0001095844 -0.8219209555 0.1954275415
130299220.0 0.1194675329 0.0289249663 5.5094e-06 8.22513e-05 -2.49316e-05 0.0001180707 -0.8204106965 0.204167331
135299190.0 0.1207211272 0.02512629 -8.19837e-05 -6.57782e-05 7.37821e-05 0.0001775237 -0.8180614089 0.212528309
140299160.0 0.1220990578 0.0216508854 -2.33951e-05 0.0001279405 0.0001093898 0.0001191752 -0.8158839168 0.2211537191
145299130.0 0.1231938021 0.017626994 0.0002505743 5.09887e-05 -0.0001159082 -9.09676e-05 -0.8137192137 0.229854471
150299100.0 0.1236488128 0.0141664227 9.26378e-05 -1.96998e-05 0.0001676798 0.0001614492 -0.81151324 0.238668969
155299070.0 0.1244371229 0.0109137782 0.000139512 -3.45044e-05 0.000149622 0.0002058872 -0.8091529529 0.2477242167
160299040.0 0.124803766 0.0075023596 -3.21189e-05 0.0001126316 6.59189e-05 -0.0002615004 -0.8076605527 0.2570808511
165299010.0 0.125565474 0.0042998868 -0.0001831955 0.0001050121 0.0001656085 0.0001923806 -0.8043859072 0.2651113981
170298980.0 0.1257801247 0.0009259855 -0.0001257094 5.42783e-05 7.95479e-05 0.0001149527 -0.8019096398 0.2736410482
175298950.0 0.1263007022 -0.0018120782 -2.23995e-05 -4.31639e-05 8.15951e-05 0.0001754999 -0.7989927562 0.2821436897
180298920.0 0.1262003949 -0.0051837244 5.656e-06 -4.11459e-05 8.88888e-05 -1.03998e-05 -0.7954883419 0.2906543591
185298890.0 0.1262468742 -0.0083799812 0.000313517 7.26428e-05 0.0001001309 0.000129424 -0.7926508541 0.2981493251
190298860.0 0.126094013 -0.0113470443 4.19038e-05 2.07409e-05 4.17618e-05 7.9812e-05 -0.7900956298 0.3073198535
195298830.0 0.1262906311 -0.0141564497 -0.0001867544 3.9528e-06 0.0002472946 2.65883e-05 -0.786923118 0.3152076132
200298800.0 0.1256623554 -0.0168754264 -0.0001087015 -1.8304e-06 9.9198e-05 0.0002716425 -0.7835062668 0.3242643439
205298770.0 0.1255504946 -0.0197943425 -3.12636e-05 0.0002789136 -1.0246e-06 4.20632e-05 -0.7800533424 0.332166829
210298740.0 0.1252361011 -0.0222639559 4.89122e-05 1.27428e-05 0.0001438961 -0.0001430938 -0.7772279002 0.3407280578
215298710.0 0.1246811582 -0.0248351411 -5.7285e-06 -5.25108e-05 0.0001120924 8.57051e-05 -0.773261356 0.3487545259
220298680.0 0.124306557 -0.0276889524 0.0003005886 2.66031e-05 -7.26319e-05 3.71835e-05 -0.76969494 0.3570216273
225298650.0 0.1236035611 -0.0301351825 2.78332e-05 -4.94569e-05 1.9645e-05 0.0001548073 -0.7657648793 0.3645415411
230298620.0 0.1230857166 -0.0323446831 0.0002603256 9.87607e-05 0.0002538344 0.0001009995 -0.7615950858 0.3724319309
235298590.0 0.1221134935 -0.0350553482 1.55703e-05 -0.0001693022 -0.0001339839 0.0001293939 -0.7575628296 0.3805703099
240298560.0 0.1215965791 -0.0374392301 -1.4283e-06 -6.7153e-05 4.2064e-06 1.50101e-05 -0.753837308 0.3883891457
245298530.0 0.1212420924 -0.0394985628 3.7313e-05 0.0002149373 0.0002576832 -0.000124257 -0.7499941136 0.3964904174
250298500.0 0.1201733592 -0.0417026671 0.0001396797 0.0001723996 0.000151991 0.0001103549 -0.7456640315 0.4047082213
255298470.0 0.1193507135 -0.0440817364 -0.0001236243 0.0001598314 -6.55946e-05 -3.05965e-05 -0.7407278416 0.4127589922
260298440.0 0.1188963053 -0.0459929622 -0.0001629143 -7.13419e-05 0.0001162663 7.86163e-05 -0.736313949 0.419823744
265298410.0 0.1177275196 -0.0481728355 8.84219e-05 0.0001206758 1.84488e-05 0.0001544321 -0.7325450045 0.4274043696
270298380.0 0.1170287469 -0.0502824072 8.55791e-05 0.0001892095 0.000119461 1.99719e-05 -0.7274946138 0.4353616913
275298350.0 0.1159899046 -0.0521781449 0.0002270341 -9.17317e-05 6.9916e-05 -7.19291e-05 -0.7227038986 0.4428710517
280298320.0 0.1152699898 -0.0540083604 9.27673e-05 -4.6118e-06 -5.76689e-05 -0.0002212789 -0.7182820403 0.4505771245
285298290.0 0.1142698598 -0.0562819593 0.0002140823 -0.0001639156 1.05979e-05 9.81175e-05 -0.7132071726 0.457897217
290298260.0 0.1132492346 -0.0580768106 0.0001657338 0.0001022854 -1.7265e-05 5.57672e-05 -0.708651604 0.4657720285
295298230.0 0.1122437618 -0.0602619656 0.0002541891 9.594e-07 0.0001474688 0.0001177391 -0.7033462635 0.47271558
300298200.0 0.111235872 -0.0625599495 0.0001537245 8.47411e-05 -2.88607e-05 6.51161e-05 -0.6985719986 0.4800210657
305298170.0 0.1105676066 -0.0640832427 -0.000120813 6.93067e-05 -3.91495e-05 -0.0001051467 -0.6930555142 0.4877015936
310298140.0 0.1090525717 -0.0665515028 0.000208959 9.83455e-05 -4.34082e-05 -5.7256e-06 -0.6888484921 0.4948892849
315298110.0 0.1077596914 -0.0681847956 -4.88927e-05 -5.00945e-05 0.0001331667 -3.83952e-05 -0.6827101753 0.501965982
320298080.0 0.1065979576 -0.0699342562 -4.17117e-05 -1.73218e-05 -0.0001532435 0.0001875039 -0.6775902683 0.5097793435
325298050.0 0.1051501101 -0.0719031256 0.0001953974 0.00012205 0.0001709997 9.69016e-05 -0.6720090847 0.5163082848
330298020.0 0.1036149353 -0.0734675143 0.0001329514 0.0002880245 4.5828e-06 0.0001276643 -0.6663093894 0.5234275687
335297990.0 0.1021357832 -0.0751109759 0.0001412263 0.0003674384 -1.96902e-05 0.0001728177 -0.6614443597 0.5298579404
340297960.0 0.1008183623 -0.0764579594 0.0001043521 8.48211e-05 -6.142e-06 2.27226e-05 -0.6551660744 0.5369897259
345297930.0 0.0991425486 -0.0778707202 -0.0001396178 9.75913e-05 0.000271672 0.0001795527 -0.6493476005 0.5442395494
350297900.0 0.0982418978 -0.0793348691 0.0001165573 0.0001395009 -5.82947e-05 0.0002282003 -0.6439331843 0.5511807894
355297870.0 0.0963168777 -0.0807782392 0.0001960563 -4.10808e-05 0.0001968254 0.000266761 -0.6382656981 0.5567346845
360297840.0 0.0950944484 -0.0821374543 0.0001027317 -6.74493e-05 9.59457e-05 0.0002259034 -0.6323616194 0.5637169288
365297810.0 0.0938781217 -0.0837075057 7.7362e-06 2.71649e-05 0.0001712998 0.0001028891 -0.6258428998 0.5704517856
370297780.0 0.0923346727 -0.0849975079 2.57446e-05 6.48616e-05 0.0002844247 -9.85556e-05 -0.6206209203 0.5763967327
375297750.0 0.0910318906 -0.0859269604 4.13452e-05 4.09892e-05 0.000109658 3.31344e-05 -0.6141467355 0.5838803926
380297720.0 0.0900780458 -0.0874293987 -9.841e-05 0.0001199912 0.0001406376 0.0001116246 -0.6080104274 0.5901814792
385297690.0 0.0883271568 -0.0883912441 3.50399e-05 1.26168e-05 -7.49583e-05 7.79461e-05 -0.6017728103 0.5963580627
390297660.0 0.0866651592 -0.0900315723 0.0002025269 4.01012e-05 -0.0001231261 0.0001038583 -0.5956837501 0.6015915299
395297630.0 0.0855136071 -0.0910293996 0.000151387 -5.80009e-05 0.0001209981 0.0001371742 -0.5890202632 0.6087736841
400297600.0 0.083770425 -0.0921805978 -5.74863e-05 0.0001406142 8.97639e-05 7.37457e-05 -0.5837501812 0.6141208921
405297570.0 0.0824667879 -0.093191767 0.0001103631 0.0001149248 2.40623e-05 0.000111341 -0.5769090223 0.6198027453
410297540.0 0.0809506952 -0.094504314 -6.2642e-06 5.28037e-05 2.58165e-05 -9.20909e-05 -0.5701229806 0.6255075752
415297510.0 0.079859608 -0.0957361672 -5.79258e-05 -8.82213e-05 7.63659e-05 0.0001877872 -0.563652804 0.6320393182
420297480.0 0.0778977594 -0.0969096712 0.0001380501 1.55574e-05 8.22779e-05 -5.32662e-05 -0.5570237042 0.6364966058
425297450.0 0.0764248093 -0.0978052595 0.0001478695 0.0001049439 5.33116e-05 1.3594e-05 -0.5506997106 0.6430471939
430297420.0 0.0748818663 -0.0986671188 -5.6606e-06 2.60766e-05 9.53916e-05 3.49279e-05 -0.5439830398 0.648944781
435297390.0 0.0733318131 -0.0998155833 0.0001632438 6.45445e-05 -3.44089e-05 0.0001221354 -0.5369659833 0.6537844235
440297360.0 0.071858652 -0.1006789588 0.0002323239 0.0001979853 4.21641e-05 -0.0001235196 -0.529787189 0.6591753789
445297330.0 0.0703107989 -0.101584942 -3.9187e-06 -0.0001082729 4.11936e-05 2.00801e-05 -0.5237983834 0.6642579784
450297300.0 0.0687442791 -0.10264504 4.856e-06 0.0001880444 0.0001456559 -2.69829e-05 -0.5172315433 0.6697798609
455297270.0 0.0672970455 -0.1032191687 0.0002020479 2.58897e-05 4.77454e-05 -1.08783e-05 -0.5102338769 0.674904163
460297240.0 0.0655607336 -0.1041267451 9.6403e-06 0.0002347065 3.842e-05 -5.85906e-05 -0.5027446622 0.6805828411
465297210.0 0.0643928331 -0.1050784257 0.0002102772 5.62454e-05 -2.62914e-05 -1.95451e-05 -0.4960746072 0.6854125823
470297180.0 0.0625668961 -0.1057526811 5.27838e-05 7.52528e-05 0.0004275492 9.31035e-05 -0.4895440243 0.6896535968
475297150.0 0.0606334952 -0.1066051398 0.0001142326 0.0001378025 0.0001500516 7.40756e-05 -0.482242968 0.6950416739
480297120.0 0.0592868094 -0.107528932 7.17058e-05 4.70412e-05 -4.88887e-05 -1.59232e-05 -0.4749699907 0.7000105566
485297090.0 0.0578137062 -0.1080736301 6.0166e-06 4.81805e-05 0.0001513165 -4.63462e-05 -0.4676056845 0.703962668
490297060.0 0.0561575801 -0.10903691 9.25488e-05 0.0001848239 0.0001373298 5.85248e-05 -0.4609453316 0.7085151894
495297030.0 0.0545712082 -0.1095490567 0.000156314 0.0001077801 0.0003184679 -0.0001180135 -0.4533665661 0.7123246421
500297000.0 0.0528534767 -0.1104657173 9.0105e-05 0.000101633 -1.02563e-05 -1.99032e-05 -0.4469779303 0.7175731468
505296970.0 0.0511230157 -0.1108572903 0.0001735386 1.0538e-05 -5.55287e-05 9.42364e-05 -0.4399553882 0.7220730981
510296940.0 0.0495651692 -0.1112344962 -0.000100068 4.33828e-05 0.0001006943 -3.7556e-06 -0.431942964 0.7259473692
515296910.0 0.047654721 -0.1118604088 0.0002215825 8.32219e-05 0.0001331222 -0.0001014806 -0.4243036422 0.730899967
520296880.0 0.046392034 -0.1123898981 0.0002056062 9.7312e-06 0.0002032418 0.0001024934 -0.4171583769 0.7345908669
525296850.0 0.0445606092 -0.1130537555 0.0002404322 -0.0002894312 6.38796e-05 -8.14711e-05 -0.4097968321 0.7391357651
530296820.0 0.0428964359 -0.113523197 -0.0001168845 -4.27951e-05 -4.35337e-05 -6.78253e-05 -0.4033796478 0.7428075341
535296790.0 0.0412059239 -0.1137975032 1.3647e-06 -1.97504e-05 1.29631e-05 0.0001868722 -0.3953281554 0.7464145908
540296760.0 0.0393284171 -0.1148159692 0.0001282449 -4.65948e-05 -8.1584e-06 4.61725e-05 -0.3877485553 0.7506883413
545296730.0 0.0377874719 -0.1149320109 -4.5096e-06 0.0001106937 8.89279e-05 1.1188e-05 -0.3802617018 0.7540767431
550296700.0 0.036139787 -0.1150638479 2.31871e-05 0.0002083763 1.72404e-05 -8.4393e-06 -0.3730488864 0.7577807669
555296670.0 0.0347399711 -0.1155516002 5.34767e-05 -4.36774e-05 0.0001394229 0.0002089577 -0.365675929 0.76175457
560296640.0 0.032867893 -0.1163146523 5.74342e-05 2.65592e-05 -7.7966e-06 -9.6792e-06 -0.3571761727 0.7658088083
565296610.0 0.0311012385 -0.11613465 0.0001383316 6.03087e-05 0.0002279969 -0.0001246456 -0.3500438569 0.768900496
570296580.0 0.0295017343 -0.1167488134 0.0002124769 -6.09157e-05 0.0002949872 6.41889e-05 -0.3425137009 0.7722384903
575296550.0 0.0278881347 -0.116862011 -7.66994e-05 0.000169481 0.0003666911 -0.0001798766 -0.3345296405 0.7756816039
580296520.0 0.0264757174 -0.1170687976 3.33247e-05 0.0001506526 8.94014e-05 0.0001195804 -0.3269580546 0.7786839273
585296490.0 0.0244214444 -0.1174478653 5.62309e-05 0.0001835874 0.0001343991 -5.95619e-05 -0.3191753253 0.7815478031
590296460.0 0.0225979263 -0.1177610973 0.0002865037 -0.0001240602 -5.73877e-05 -1.98429e-05 -0.3112439502 0.7848336741
595296430.0 0.0212998045 -0.1179358612 2.3862e-05 -1.41693e-05 -9.7871e-06 0.0001403969 -0.3035325216 0.7869531143
600296400.0 0.0195101206 -0.1181495128 0.0002679975 -3.80581e-05 0.0004106704 2.22157e-05 -0.2954220729 0.7911407636
605296370.0 0.017729341 -0.1182222782 0.0002423199 0.0002037864 0.0003943756 0.0001009552 -0.2881719481 0.7945926722
610296340.0 0.0161270008 -0.1184758701 9.79034e-05 0.0001130335 8.70835e-05 -0.0001195895 -0.2798224971 0.7970477586
615296310.0 0.0142677696 -0.1181479324 -8.14176e-05 -1.09763e-05 -3.90514e-05 5.73602e-05 -0.272452112 0.7994289053
620296280.0 0.012602251 -0.1183386703 0.000106038 6.05601e-05 -3.95719e-05 -5.53473e-05 -0.264566892 0.8018197058
625296250.0 0.0108816736 -0.1184242516 0.0001566783 -0.000142165 2.61663e-05 0.0001027109 -0.2565668891 0.8051685437
630296220.0 0.0092063967 -0.1185877968 -8.81908e-05 0.000114125 0.0002647764 0.0001806515 -0.2482326677 0.8072128798
635296190.0 0.0074786447 -0.1184666461 7.533e-05 6.8527e-06 0.0002326045 -4.63275e-05 -0.2405613837 0.8091160416
640296160.0 0.0057956447 -0.1182533024 -0.0001088533 -4.76193e-05 -2.21837e-05 -5.26516e-05 -0.2320227421 0.8113927772
645296130.0 0.0040051349 -0.118378508 0.0002162326 3.71259e-05 0.000107352 -9.50456e-05 -0.2247252724 0.8144623852
650296100.0 0.0024385537 -0.1181479765 6.98149e-05 0.000160791 0.0002180945 -1.07872e-05 -0.2163771752 0.8168573769
655296070.0 0.0005994843 -0.1182558502 9.20202e-05 -0.0001378391 0.0002503899 1.56733e-05 -0.208207349 0.8179466688
660296040.0 -0.0010158347 -0.1178553159 1.47127e-05 -0.00016549 0.0003547703 2.85316e-05 -0.2001542868 0.8200135837
665296010.0 -0.0024227444 -0.1178343519 0.0001987071 -0.0001348197 0.0002839462 -5.86781e-05 -0.192670383 0.822316238
670295980.0 -0.0040595098 -0.1178469187 0.0001614489 -0.0001086391 -0.0001210726 -3.61811e-05 -0.1847665202 0.8242304844
675295950.0 -0.0057746785 -0.1177371314 0.0001520829 -4.20019e-05 0.0002995927 -7.03447e-05 -0.1757034561 0.8260076461
680295920.0 -0.0078014691 -0.1172393046 0.0001435956 3.21173e-05 0.0001314738 1.87653e-05 -0.1676785379 0.8278603993
685295890.0 -0.0094539561 -0.1168792308 0.0002015708 0.0001944876 5.66222e-05 1.4957e-06 -0.159642065 0.8294516735
690295860.0 -0.0108168707 -0.1170008235 0.0002797586 0.0001413036 -3.8051e-05 -0.0001100409 -0.1519282116 0.8304763623
695295830.0 -0.0123136341 -0.1168682431 0.0001680814 5.84904e-05 8.2974e-06 -9.94445e-05 -0.1429226024 0.8326859643
700295800.0 -0.0140751825 -0.1165679184 -2.26564e-05 -2.09026e-05 6.07332e-05 7.70123e-05 -0.1347627729 0.8331699348
705295770.0 -0.0157281771 -0.11601404 0.0001401917 4.77501e-05 0.000247258 -9.6613e-06 -0.1269657252 0.8355850184
710295740.0 -0.0173575378 -0.1156501386 7.32942e-05 0.0001446491 0.0002402507 -8.85425e-05 -0.1189737357 0.8368409676
715295710.0 -0.0189939009 -0.1149599941 8.06378e-05 8.81349e-05 0.0001109759 4.41047e-05 -0.1104354894 0.8374376412
720295680.0 -0.0208708047 -0.1149146485 0.0002659044 -4.6132e-06 0.0001171022 1.60085e-05 -0.1020912272 0.8384798485
725295650.0 -0.0220788009 -0.1143736071 0.0002340939 -0.0004031219 0.0001408113 -3.24135e-05 -0.0940125565 0.8395521431
730295620.0 -0.0239710773 -0.1142127247 0.0002267321 -0.0001266962 0.0001970363 0.0001475044 -0.0854781531 0.8403457611
735295590.0 -0.0253114475 -0.1135100141 0.0002441959 -1.9022e-05 0.0001204995 -0.0001221581 -0.0767657217 0.8412286274
740295560.0 -0.0270755727 -0.1130466027 0.000121096 -0.0002030002 0.0002473875 -3.43034e-05 -0.0687204133 0.8414479112
745295530.0 -0.0289838234 -0.1123529545 0.0001777223 -0.0001337485 0.000145631 1.1946e-05 -0.0609863786 0.842160073
750295500.0 -0.0305428118 -0.112112808 0.0002155753 -1.31245e-05 6.97323e-05 -0.0001236248 -0.0518126973 0.8421056278
755295470.0 -0.0318657535 -0.1114640772 0.0003043995 -2.00485e-05 0.0002323182 -3.89401e-05 -0.0439265524 0.8433858051
760295440.0 -0.0334106654 -0.1107040377 0.0001183321 7.8196e-06 9.98331e-05 -8.12421e-05 -0.0359545533 0.8437854257
765295410.0 -0.0350960256 -0.1104706047 6.97941e-05 0.0002842802 0.0003287808 -0.0001088456 -0.026948949 0.8440836908
770295380.0 -0.0366166421 -0.1093214385 0.0001930835 -0.0001338435 1.60661e-05 -1.9394e-06 -0.0187111488 0.8442424983
775295350.0 -0.0381667806 -0.1089639397 7.53091e-05 -0.0001966874 0.0002226688 -0.0001632427 -0.0114863251 0.8441166037
780295320.0 -0.0400593247 -0.10847326 0.0002665264 0.0001803211 0.0001507296 -6.14632e-05 -0.0027758441 0.8450589223
785295290.0 -0.041349625 -0.1076710356 0.0003193848 -7.33759e-05 0.0002073306 3.82762e-05 0.0055023921 0.8443991706
790295260.0 -0.0428161905 -0.1070410125 -0.0001977866 -1.79557e-05 0.0001498533 -0.000176585 0.0144419245 0.8440265528
795295230.0 -0.0443497922 -0.106031395 0.0002717082 -2.51583e-05 0.0005454008 -4.07074e-05 0.0224448591 0.8442748635
800295200.0 -0.0455016949 -0.1053918814 0.0002160612 -1.46103e-05 0.0001486512 3.08427e-05 0.0306443816 0.8436451708
805295170.0 -0.0472999852 -0.1046332933 5.41916e-05 -6.05318e-05 1.39209e-05 5.48378e-05 0.0386445911 0.842834838
810295140.0 -0.0487477755 -0.1039925932 0.0002969391 -0.0002304161 0.0001329579 -0.0001045808 0.0469806144 0.843716305
815295110.0 -0.0502933957 -0.1029245899 -6.12964e-05 0.0001947556 0.0002592719 -6.203e-06 0.0551147084 0.843025997
820295080.0 -0.0517131674 -0.1024882244 0.0001528809 -0.0001141656 0.0002974407 -5.57278e-05 0.063729063 0.8417633791
825295050.0 -0.0532346445 -0.1015218213 0.0001764859 -4.48549e-05 0.0002645457 -0.0002819202 0.0717430396 0.841243417
830295020.0 -0.0543061188 -0.1005624171 3.46694e-05 0.0001133497 0.0001427183 -0.0001469822 0.0801413137 0.8403940453
835294990.0 -0.0560612408 -0.0995223362 2.49292e-05 -0.0002541943 9.10137e-05 -8.75458e-05 0.0882501681 0.8401473298
840294960.0 -0.0571290582 -0.0990452405 0.0001423373 -0.0001740749 0.0002822496 -0.0002172897 0.0965630292 0.8386789225
845294930.0 -0.0588482351 -0.0979542822 0.0001446134 -3.30948e-05 0.0001017833 -7.34413e-05 0.1050900196 0.837946067
850294900.0 -0.0601969968 -0.0970926259 7.1465e-06 1.47157e-05 -0.0001551508 -6.7405e-05 0.1130411174 0.8365624734
