!Created with skrf (http://scikit-rf.org).
# Hz S RI R 50.0 
!freq ReS11 ImS11 ReS21 ImS21 ReS12 ImS12 ReS22 ImS22
300000.0 -0.7738615979 -0.0948158353 -0.0012732942 0.0001784027 0.0011945468 0.0013905998 -0.045576633 -0.063547416
5299970.0 -0.7848836619 -0.0056121455 -0.0001825009 8.63815e-05 -8.81363e-05 -1.4829e-05 -0.0457084349 0.0155479865
10299940.0 -0.7876659805 -0.0041021823 -0.0001358189 0.0002118797 -0.000134495 0.0001112231 -0.0398148851 0.0337290743
15299910.0 -0.7932189907 -0.0020488732 0.0001941909 -0.000165215 -8.52468e-05 9.84388e-05 -0.0314731076 0.0482473859
20299880.0 -0.799812722 0.0018716136 -0.0001051762 -0.000179464 -9.14694e-05 0.000131708 -0.0212708961 0.0602316695
25299850.0 -0.8062718482 0.007632004 -0.0001649172 6.4896e-06 8.7178e-06 -7.22349e-05 -0.0101827706 0.0697246288
30299820.0 -0.8120829433 0.0151672441 0.0002220568 -0.0003104704 7.05192e-05 0.0002933392 0.0016511051 0.0766501931
35299790.0 -0.8171684971 0.0244972359 9.13063e-05 8.80587e-05 0.0001177175 9.36925e-05 0.0133153738 0.0814785886
40299760.0 -0.8207439725 0.0340609299 0.0001337494 6.47788e-05 5.78822e-05 -3.51912e-05 0.024481356 0.0841410582
45299730.0 -0.824343703 0.0432061148 -4.93374e-05 -3.21828e-05 7.6701e-06 8.95328e-05 0.0353768235 0.0859410471
50299700.0 -0.8273927562 0.0528830225 -0.0001783799 0.0003442958 -9.74757e-05 8.4235e-06 0.0452420291 0.0855059681
55299670.0 -0.828912824 0.0627825662 -5.47733e-05 7.66261e-05 5.70962e-05 0.0001268642 0.0547621066 0.0843297874
60299640.0 -0.8301043703 0.0732280919 4.80381e-05 -4.83734e-05 0.0002055468 2.74794e-05 0.0632316821 0.0824730305
65299610.0 -0.8309464711 0.0829641434 -3.82046e-05 -5.46048e-05 4.7645e-06 0.0001305925 0.070708886 0.0799581149
70299580.0 -0.8317470557 0.0929172162 -3.9621e-05 -9.49064e-05 0.0002455901 -9.03951e-05 0.0774164515 0.0772137812
75299550.0 -0.8320592202 0.1038258797 0.0001174903 0.0002028229 -0.0002048362 -4.89432e-05 0.0840169618 0.0739768196
80299520.0 -0.8318622585 0.1129898961 0.0001620003 7.9603e-05 0.0001822845 0.0001187194 0.0894302722 0.0705389897
85299490.0 -0.8308908034 0.1224430479 0.0001134792 -1.59288e-05 -6.57764e-05 0.0001014423 0.0948399948 0.0666426894
90299460.0 -0.8303722073 0.1319602831 -6.74389e-05 0.0001889423 3.04577e-05 0.0002693762 0.0992782752 0.0629049249
95299430.0 -0.8289280964 0.1417112282 -0.0001138916 -0.0002094684 3.95022e-05 0.0002175046 0.1032243938 0.05925971
100299400.0 -0.8282530944 0.1511770335 0.0001591315 8.23507e-05 -3.79796e-05 0.000109595 0.1072564196 0.0550176429
105299370.0 -0.8271510883 0.1603953237 -0.0001775886 0.0001286199 -0.0001944737 -0.0001407768 0.110581448 0.0510718301
110299340.0 -0.8255919388 0.1692970047 9.74719e-05 0.0001784087 5.32657e-05 0.0001716444 0.1132330306 0.0475121395
115299310.0 -0.8239528382 0.178717191 -0.0001598803 9.92283e-05 2.00566e-05 -0.0001017349 0.1160525351 0.0434694536
120299280.0 -0.822004557 0.1873336391 0.0001148687 9.42295e-05 4.52298e-05 8.10564e-05 0.1179380907 0.0399013154
125299250.0 -0.8203266436 0.1959171601 -0.0002598127 -0.0002354401 -6.06679e-05 4.34164e-05 0.1200069437 0.0356546827
130299220.0 -0.81841108 0.2056687125 2.55534e-05 1.4629e-05 -6.28771e-05 0.0001964298 0.1218929688 0.0320092457
135299190.0 -0.8172461428 0.2134928158 3.50942e-05 0.0002028581 -0.0001410592 0.0001355401 0.1235107147 0.0285394389
140299160.0 -0.814055929 0.2230106145 -2.95207e-05 4.52114e-05 -6.14527e-05 2.67344e-05 0.1250085676 0.0252942416
145299130.0 -0.8128968258 0.2324100234 1.03355e-05 4.06907e-05 -1.99607e-05 9.93733e-05 0.1258811548 0.0215735055
150299100.0 -0.8100407198 0.2410007755 -5.29491e-05 7.98196e-05 -6.71631e-05 0.0001202914 0.1271738984 0.0188722015
155299070.0 -0.8077830558 0.2498831066 8.63258e-05 -0.0001018029 1.43173e-05 -9.6985e-06 0.1281204477 0.015549325
160299040.0 -0.8050402548 0.2578800089 0.0001076403 -0.0001487274 0.0001619997 6.37943e-05 0.1282786142 0.0125268962
165299010.0 -0.8029240559 0.2666433493 9.08113e-05 3.88123e-05 0.0001173403 0.0001670574 0.1289708446 0.009357572
170298980.0 -0.799403195 0.274706742 7.3076e-05 1.66415e-05 0.0002370683 -7.40426e-05 0.1295454252 0.0061793444
175298950.0 -0.7971087544 0.2841146408 1.5013e-05 0.0001747282 8.47374e-05 -1.90371e-05 0.1298082704 0.0033368845
180298920.0 -0.7944728937 0.2925950915 0.0002353224 -5.02231e-05 4.67579e-05 3.18515e-05 0.1298945469 0.0006844858
185298890.0 -0.7912596848 0.3010339465 0.0001448188 0.0002381825 0.0002044776 0.0002352815 0.1299553341 -0.0021912672
190298860.0 -0.7883581559 0.3091562927 -2.2419e-05 -0.0002009906 4.67308e-05 -3.41128e-05 0.1303214512 -0.0048141817
195298830.0 -0.7848673547 0.3178568557 0.0001520391 0.0003138359 -0.0001681638 9.40815e-05 0.1299811762 -0.0076534791
200298800.0 -0.7813908446 0.3260204924 6.68501e-05 0.0002848046 -3.81883e-05 5.08269e-05 0.1299758381 -0.0104710153
205298770.0 -0.778186937 0.3340847718 0.0001035126 0.000152254 1.59048e-05 1.82491e-05 0.1297141006 -0.0131514966
210298740.0 -0.7750750021 0.3423038205 0.000211059 2.30615e-05 0.0001947041 -4.47619e-05 0.1296536289 -0.0153870075
215298710.0 -0.7721676955 0.3505437455 0.0001028276 6.97965e-05 3.19745e-05 0.0001057928 0.1287708586 -0.0181170958
220298680.0 -0.7673546052 0.3585637247 -2.13205e-05 0.0003193248 -6.62314e-05 5.91927e-05 0.1285589594 -0.0203263917
225298650.0 -0.7640984851 0.3666686691 0.0001408307 0.0001572341 0.0002270401 -0.0001793529 0.1278906158 -0.022569379
230298620.0 -0.7602571185 0.3750632293 8.81618e-05 0.0001649646 0.0001075164 9.77231e-05 0.1277618733 -0.0251023013
235298590.0 -0.756158837 0.3831868783 3.89305e-05 0.0001562161 0.0001587951 7.60573e-05 0.1271806816 -0.0271457406
240298560.0 -0.7522682695 0.3912984734 0.0002317511 9.3595e-05 -0.0001276534 7.25307e-05 0.1265224062 -0.0297729932
245298530.0 -0.748636852 0.3989716645 -1.9149e-06 0.0003013375 -5.44911e-05 0.0002224346 0.1259309493 -0.0320512201
250298500.0 -0.7443616023 0.4067170105 0.0003181747 9.84653e-05 0.0002267217 0.000120556 0.1254361975 -0.0340240161
255298470.0 -0.7398049478 0.4138127368 0.0002820768 2.58018e-05 0.0001265876 0.0001073325 0.1245786089 -0.0365102739
260298440.0 -0.7356546624 0.4216695018 0.0001683984 -0.0001372975 5.9287e-05 -1.86453e-05 0.1242795417 -0.0381521934
265298410.0 -0.7313458131 0.4298075478 0.0001524449 7.37255e-05 0.0001404903 0.0002770258 0.123257627 -0.0400466683
270298380.0 -0.7268022206 0.437161973 3.64886e-05 0.0001518203 -4.45179e-05 0.000127144 0.1228286497 -0.0423382743
275298350.0 -0.7223731196 0.44449699 0.0001308548 3.15893e-05 8.06858e-05 0.0001178293 0.1219673963 -0.0440724115
280298320.0 -0.7166732831 0.4524883384 0.0002550259 0.0001086454 -6.05939e-05 3.34486e-05 0.1217263209 -0.0461711037
285298290.0 -0.712744645 0.4597025598 0.0002133559 -9.14692e-05 3.08221e-05 0.0001190632 0.1207051069 -0.0481500597
290298260.0 -0.7077721471 0.4676692735 0.0001241528 -0.000129018 0.0001137625 0.0002893859 0.1199939721 -0.0495792291
295298230.0 -0.7025657599 0.4742016796 2.5754e-06 -9.544e-06 0.0001440586 -7.61854e-05 0.1192631682 -0.0518589602
300298200.0 -0.6975176433 0.4818685517 0.0002830127 0.0002283945 0.00025064 0.000221988 0.1187800267 -0.0537737733
305298170.0 -0.6924728428 0.4884071527 -1.54543e-05 0.0002002553 -9.10436e-05 0.0001515931 0.1181575084 -0.0557590009
310298140.0 -0.6875705018 0.4960938333 0.000158796 0.000136056 0.000172487 5.602e-05 0.1169317488 -0.0575906266
315298110.0 -0.6825060314 0.5029749118 1.4523e-06 9.88954e-05 0.0001226821 0.0001362384 0.1159000929 -0.0593708244
320298080.0 -0.6772210007 0.5099312565 6.86015e-05 0.0001985716 0.0001722117 -2.1529e-06 0.1150175378 -0.0609884977
325298050.0 -0.6717597108 0.5169885217 0.0002456966 -0.0001318274 0.0002668037 0.0002541584 0.113567569 -0.0629514359
330298020.0 -0.6661877469 0.5237151002 1.86591e-05 -6.89029e-05 0.0002780225 0.000187882 0.1121273959 -0.0640579815
335297990.0 -0.6610972423 0.530507715 0.0001581226 0.0002687832 0.0002697962 0.000190353 0.1112517983 -0.0654978939
340297960.0 -0.6560129224 0.5374994103 2.3006e-06 9.72057e-05 0.0001327083 6.85342e-05 0.1102091251 -0.0669298003
345297930.0 -0.6502687697 0.5444144883 0.0002084668 6.15759e-05 0.0001237872 0.0001158347 0.1085710548 -0.0684667622
350297900.0 -0.6443244453 0.5508522422 -6.35344e-05 0.0001344448 0.0002720438 -2.19552e-05 0.1074955388 -0.0690332211
355297870.0 -0.6385005001 0.5582823257 0.0002079736 0.0001140065 4.52316e-05 0.0001150061 0.1062798216 -0.0708366184
360297840.0 -0.6326636956 0.563655322 1.61607e-05 1.22427e-05 -4.69559e-05 0.0001775443 0.1050358355 -0.0721602121
365297810.0 -0.6275376462 0.5702346145 0.0003782441 0.0001751473 -4.40453e-05 -9.1457e-06 0.1040337357 -0.0736896747
370297780.0 -0.6209551852 0.5766633047 0.0001322323 2.2502e-06 0.0002090738 0.0001028006 0.103381534 -0.07463468
375297750.0 -0.614792321 0.5836394536 7.92143e-05 0.0002055295 0.0003002093 0.0002681232 0.1019235344 -0.0761003321
380297720.0 -0.6089130812 0.5892172508 1.39833e-05 0.0001570856 0.0001579108 -8.88889e-05 0.1001784715 -0.0771401363
385297690.0 -0.6030513005 0.5953186083 0.0002764512 0.0001800927 0.0002096527 -7.33814e-05 0.0993081123 -0.0782377775
390297660.0 -0.5971341567 0.6010332421 0.0001986003 -5.95371e-05 5.49512e-05 -1.07429e-05 0.0978787991 -0.0795135242
395297630.0 -0.5902743959 0.6079525553 9.57239e-05 0.0003405806 0.0003205674 0.000174061 0.0968179317 -0.0806500643
400297600.0 -0.584132644 0.6137765751 0.000131094 0.0001694957 0.0002431996 0.0001711618 0.0957124581 -0.0817191379
405297570.0 -0.578035204 0.6190143503 0.0002740018 1.32733e-05 0.0001854556 0.0001333853 0.0940969306 -0.0831271599
410297540.0 -0.5715737004 0.6250206221 6.84813e-05 0.0001089012 0.0001261127 0.0002060738 0.0931767569 -0.0839410679
415297510.0 -0.5646522075 0.630678923 0.0003369395 4.12263e-05 0.0001259291 0.0003505386 0.0915371088 -0.0852718864
420297480.0 -0.558711467 0.637843589 0.0001356941 0.0001568852 0.0002448279 0.0001963795 0.0904413204 -0.0864707778
425297450.0 -0.55132504 0.642382457 -1.84761e-05 -1.72663e-05 0.0001947096 3.4299e-05 0.0894436434 -0.0874502141
430297420.0 -0.5453107787 0.6482568971 0.0001121206 0.0002262681 0.0001522516 0.0001117262 0.0876787433 -0.0887257838
435297390.0 -0.5389854723 0.6531723636 0.0003256687 0.0001833996 0.0003466988 -3.8051e-06 0.0865775337 -0.089921967
440297360.0 -0.5317950006 0.6591674583 0.0001292195 6.89343e-05 9.82574e-05 3.01068e-05 0.0856600439 -0.0907832046
445297330.0 -0.5249114388 0.663955058 0.0001971086 3.99543e-05 0.000249675 0.0001125978 0.0841103115 -0.092128904
450297300.0 -0.518204427 0.6688832148 0.000177051 0.0002811494 0.000306216 0.0001415213 0.0828311698 -0.0927108993
455297270.0 -0.5114637476 0.674698811 0.0001992934 1.49821e-05 0.000182625 0.0003561559 0.0813913568 -0.0934294215
460297240.0 -0.5050605306 0.6794180551 -2.4912e-06 8.9464e-05 0.0003059207 0.0001163089 0.0800315031 -0.0945784516
465297210.0 -0.4972955082 0.6849083945 0.0001684362 0.000174894 0.0001878498 0.0001372322 0.0788611064 -0.095440486
470297180.0 -0.4899456252 0.6898942857 0.0002005075 -5.87455e-05 0.0001758596 -4.0397e-05 0.0777451447 -0.0962003863
475297150.0 -0.4836309545 0.6942363168 0.0001696211 9.81614e-05 0.0002222151 0.0002692241 0.0765846929 -0.0972518325
480297120.0 -0.4764781556 0.6993202948 0.00011599 0.0002452481 0.0001482144 9.48077e-05 0.0751176441 -0.0977385668
485297090.0 -0.4690104616 0.7041210467 0.0003210339 4.6406e-06 9.6705e-05 4.7115e-06 0.0739218376 -0.098413777
490297060.0 -0.4619833333 0.7085798144 -2.88244e-05 -9.13166e-05 0.0001453489 4.8828e-05 0.0725096593 -0.0996389668
495297030.0 -0.4549347754 0.713122101 0.0001687542 6.01174e-05 0.0003473592 2.40312e-05 0.0712016918 -0.1001305206
500297000.0 -0.4477687012 0.7182943292 0.0003183367 -0.0001194865 0.0002377187 5.04456e-05 0.0700500974 -0.1004106981
505296970.0 -0.4402527894 0.7222600114 0.0001626163 -0.0001152587 0.0001895439 5.15175e-05 0.0686094383 -0.1014222729
510296940.0 -0.433179784 0.7265163189 0.0003257432 7.69014e-05 0.0003697441 7.35243e-05 0.066924524 -0.1019852518
515296910.0 -0.4249498611 0.7303938336 0.000430375 0.000122444 0.0001997937 7.7995e-05 0.0655442845 -0.102666819
520296880.0 -0.4181432643 0.734961436 0.0002060276 2.25338e-05 0.0001770619 5.50188e-05 0.0640052381 -0.1037007792
525296850.0 -0.4102345975 0.738916453 0.0003688102 5.14979e-05 0.0001929906 -3.78079e-05 0.0627026303 -0.1036921083
530296820.0 -0.4027215284 0.7437534772 0.0003792785 -0.0001178755 -5.01642e-05 0.0001222545 0.0614126582 -0.104377099
535296790.0 -0.3958149977 0.7467552327 0.0002593439 3.82396e-05 0.0003265644 8.7495e-06 0.0595744547 -0.1050316528
540296760.0 -0.3879951332 0.7509760753 0.0003933399 5.97657e-05 0.0002844507 -2.56775e-05 0.0584275485 -0.1054430074
545296730.0 -0.3807526511 0.7550645073 0.0002055381 -3.94722e-05 0.0004293025 8.56299e-05 0.0569162537 -0.1062377404
550296700.0 -0.3729633256 0.7587414841 0.0004145945 -9.35664e-05 0.0004462799 1.53893e-05 0.0550942842 -0.1065270406
555296670.0 -0.3648434916 0.7613090037 0.0003337103 0.0001875307 0.0003703522 -0.0001345273 0.0539154209 -0.1065393647
560296640.0 -0.3569643779 0.766126019 0.000227588 0.0001080347 0.0005189395 0.0003615143 0.0525142722 -0.1071399284
565296610.0 -0.3491078332 0.7692136378 0.0003502614 0.0001429793 0.000310029 0.0001362258 0.0509239912 -0.1080842499
570296580.0 -0.3425880223 0.771947561 0.000466413 1.821e-07 0.0001495057 4.09657e-05 0.0495144774 -0.1082000164
575296550.0 -0.3345062587 0.7772773934 0.0005034533 -0.0001067964 0.0001842988 0.0002155865 0.048168298 -0.1085262135
580296520.0 -0.3263363065 0.7792820628 0.000291409 0.0001481373 0.0002954734 0.0001495079 0.0465483845 -0.1092638419
585296490.0 -0.3190757982 0.7823584727 0.0004599864 0.0001566487 6.52052e-05 -4.33825e-05 0.0452036197 -0.1099979802
590296460.0 -0.310284847 0.7853355614 -7.2443e-06 3.8918e-06 0.0003694008 0.0001503972 0.0435661291 -0.1101680137
595296430.0 -0.3031154627 0.7883342588 0.0005791625 -1.13883e-05 0.0001478193 -2.56676e-05 0.04241148 -0.1107701696
600296400.0 -0.2949348034 0.7916762781 0.0002189307 2.22295e-05 0.0001881668 -0.0002597135 0.0406741182 -0.1112601081
605296370.0 -0.2877250541 0.7946095839 0.0002781648 -6.71028e-05 0.0005134811 3.6957e-06 0.0394999835 -0.1111463805
610296340.0 -0.2791881792 0.7974381458 0.0002683631 -0.000118435 0.0003285119 0.0001855695 0.0380908389 -0.1113137284
615296310.0 -0.2703437052 0.8000392024 4.68519e-05 -7.26714e-05 0.0004291554 9.6008e-05 0.0361816026 -0.1119525371
620296280.0 -0.2627271537 0.8020541912 0.0002405617 -5.28104e-05 0.0004020459 0.0001845952 0.0349230793 -0.111968109
625296250.0 -0.2548107203 0.8050646363 0.0004282891 1.62004e-05 0.0003909246 0.0001607676 0.0339883426 -0.112262015
630296220.0 -0.2460563159 0.8080471446 0.0001304493 -1.22779e-05 0.0004974181 -8.6181e-06 0.0321834514 -0.1122774149
635296190.0 -0.2385622511 0.8098617228 0.0002878637 4.88608e-05 0.0001437914 -0.0003238879 0.0310612827 -0.1128480948
640296160.0 -0.2308967752 0.8120733523 0.0002832328 0.0001144739 0.0004930297 4.10874e-05 0.0293549091 -0.1128654475
645296130.0 -0.2226988462 0.8144741022 0.0002178228 -0.0001451965 0.0002937253 1.36611e-05 0.0278685602 -0.1127721176
650296100.0 -0.2142446007 0.8166809297 0.0003999827 3.62209e-05 0.0005103998 0.0002020934 0.0268904524 -0.1134195532
655296070.0 -0.2059319423 0.818938309 0.0004910125 2.71861e-05 0.0002890496 -0.0001003664 0.025610928 -0.1131065839
660296040.0 -0.1979939908 0.8209324283 0.0003400004 0.0001862251 8.29874e-05 -8.37745e-05 0.0239484992 -0.1136991241
665296010.0 -0.1895947942 0.8220483135 0.0003990629 4.67964e-05 0.0004129256 0.0001258738 0.0226462991 -0.1133220704
670295980.0 -0.1818852162 0.8243439867 0.0002961356 8.44409e-05 0.0002155635 4.4824e-05 0.020761082 -0.1133344128
675295950.0 -0.1737290749 0.826034537 8.49109e-05 1.56201e-05 0.000393708 -3.56807e-05 0.019593612 -0.113117922
680295920.0 -0.1652382971 0.8281087519 0.0002068269 0.0001262417 0.0003309553 -0.0001451166 0.0184138448 -0.1131587225
685295890.0 -0.1568192744 0.8300660892 0.0001582375 0.0001366219 0.0005470719 -9.11792e-05 0.0169836033 -0.1129717905
690295860.0 -0.1485864582 0.8311839555 0.0004142997 3.9118e-05 0.0003770772 9.86093e-05 0.0153028383 -0.1126522461
695295830.0 -0.1406335413 0.8319377278 0.0003499194 0.0001147078 0.0003553087 -0.0001439909 0.0140262217 -0.112910605
700295800.0 -0.1315491787 0.8337888421 3.06271e-05 -0.0001943079 9.342e-05 -6.08972e-05 0.0120861603 -0.1126817435
705295770.0 -0.1242195564 0.8350904024 0.0002399919 -6.43695e-05 0.0003555445 -9.2049e-06 0.0108229211 -0.1121521452
710295740.0 -0.115641608 0.8363807466 0.0003615908 -0.0003560098 7.39274e-05 -5.91179e-05 0.0089973983 -0.1125852362
715295710.0 -0.1071424644 0.8375636082 0.0002422749 3.3283e-05 0.0003745005 -0.0001113822 0.0080756452 -0.1125278579
720295680.0 -0.0994786799 0.838515398 0.000411589 -0.0001148152 8.65787e-05 3.0549e-06 0.0064857548 -0.1123905725
725295650.0 -0.0913646936 0.8398127254 0.0003513885 -9.25595e-05 0.0004078897 -0.0001373657 0.004901962 -0.1117376043
730295620.0 -0.0820110114 0.8401821457 0.0003987177 -0.0001831222 0.0004574692 6.11142e-05 0.003107939 -0.1116802496
735295590.0 -0.07443718 0.8409307897 0.0005082266 -7.57281e-05 0.0003903501 -0.0001127172 0.0017124501 -0.1120611963
740295560.0 -0.0662885575 0.8422191881 0.0005203476 -2.06568e-05 0.0004908284 2.93598e-05 0.0004236137 -0.1111467035
745295530.0 -0.0571993966 0.8421675469 0.0003903459 1.88478e-05 0.0003880114 5.75139e-05 -0.0009304675 -0.1112627834
750295500.0 -0.0485883075 0.8429383797 0.0003019411 9.4738e-05 0.0003535836 -9.42742e-05 -0.0022761792 -0.1111583986
755295470.0 -0.0406192058 0.8431511592 0.0003487063 -7.58705e-05 0.0003952293 -2.3754e-05 -0.0037851908 -0.1113017643
760295440.0 -0.0328976645 0.8430989772 0.0001678817 -2.60137e-05 0.000108879 -2.03091e-05 -0.005458658 -0.1109775372
765295410.0 -0.024301176 0.8438739361 0.000335407 -0.0001916974 0.0004390085 -7.07337e-05 -0.0065076813 -0.1104741236
770295380.0 -0.0163532856 0.8438946028 0.0002612529 -2.62458e-05 0.0002866389 1.62945e-05 -0.0081669214 -0.110367546
775295350.0 -0.0076705437 0.843811928 0.0002808681 -7.29102e-05 0.0004491689 -0.0001435821 -0.0100832968 -0.1099873464
780295320.0 0.0007654661 0.844135285 0.0006294077 -3.13308e-05 0.0003806452 -0.0001525411 -0.0107444719 -0.1095561931
785295290.0 0.0091699408 0.8434063482 0.0004449702 -2.36704e-05 0.0003087907 -3.41299e-05 -0.0119521661 -0.1093585056
790295260.0 0.0179642763 0.8440007708 0.0004880259 -3.46412e-05 0.0003798696 -0.0002476983 -0.0132593927 -0.1091737852
795295230.0 0.0253203015 0.8434319631 0.0003902098 -0.0002873739 0.0004071704 -8.13978e-05 -0.0147647398 -0.1086455596
800295200.0 0.0335883011 0.8428616383 0.0003776099 -4.4074e-05 0.0002552896 -0.0001924663 -0.0159947714 -0.1081824639
805295170.0 0.0425884231 0.8429362932 0.0004887807 -0.0003024971 0.0003316758 -2.51573e-05 -0.0171775227 -0.1080735589
810295140.0 0.0508415516 0.8424169571 0.0003493599 4.81151e-05 0.0004332444 -0.0001676802 -0.0181128952 -0.1073539422
815295110.0 0.0593193389 0.8417919698 3.77664e-05 -0.0001912275 0.0003562642 -7.6194e-06 -0.0198452488 -0.1069066527
820295080.0 0.0673575242 0.8413078737 0.0004624709 -0.0001757288 0.0005111443 -4.13937e-05 -0.021135159 -0.1064416027
825295050.0 0.0764690978 0.8401874485 0.0003189693 -0.0001693349 0.0004013037 3.14644e-05 -0.0224216388 -0.1056597807
830295020.0 0.0842971934 0.8396474909 9.30697e-05 -9.51703e-05 0.0002688821 -5.70629e-05 -0.0230639796 -0.1052155572
835294990.0 0.0922594959 0.8389103305 0.000586669 -0.0002344113 0.0003042698 -0.0002234706 -0.024898558 -0.1046490142
840294960.0 0.1000880926 0.8383327984 0.0002737426 0.0001794806 0.0002608366 -0.0002501635 -0.0261706992 -0.1041489909
845294930.0 0.1087304399 0.8367408331 0.0003906751 -0.0001986669 0.0005836118 -0.0001405257 -0.0275749835 -0.1033802041
850294900.0 0.1168266586 0.8359596009 0.0001975479 -0.0002958197 0.0002707758 5.11544e-05 -0.0289889458 -0.1024813582
