!Created with skrf (http://scikit-rf.org).
# Hz S RI R 50.0 
!freq ReS11 ImS11 ReS21 ImS21 ReS12 ImS12 ReS22 ImS22
300000.0 -0.2380653905 -0.1236252163 0.4678266365 0.0802296571 0.4658780794 0.0809873504 -0.2359426654 -0.1273682684
5299970.0 -0.2450023165 0.0050057849 0.4736604151 0.0061835972 0.4741389669 0.0060707351 -0.2434922584 0.0050507453
10299940.0 -0.2418556482 0.0184392271 0.4759648509 0.0071354034 0.4757246863 0.0072867527 -0.2400594469 0.0181211062
15299910.0 -0.236703852 0.0282846514 0.4790675553 0.0082612555 0.4799034101 0.0083672841 -0.2358369826 0.0273430646
20299880.0 -0.231826857 0.0359381622 0.484043722 0.0085516255 0.4845590201 0.0084423401 -0.2309756747 0.0353387036
25299850.0 -0.2255211657 0.0425976641 0.4896760565 0.0078744753 0.4897632574 0.007831909 -0.2257893291 0.0417978507
30299820.0 -0.2201158679 0.0475868686 0.4949989864 0.0057533292 0.4952209959 0.0052835555 -0.2204639099 0.0468882303
35299790.0 -0.2143149777 0.0516683271 0.500059169 0.0026725492 0.5006381639 0.0024917421 -0.2155325314 0.051536333
40299760.0 -0.2091798645 0.0546276728 0.5054981859 -0.0013866091 0.5058489439 -0.001536539 -0.2104357713 0.0547289676
45299730.0 -0.2041260364 0.0572267992 0.5104096358 -0.006440554 0.5104241771 -0.006417345 -0.2053734323 0.0576753222
50299700.0 -0.1988703996 0.0592125068 0.5146318643 -0.0120780261 0.5145512274 -0.0123177233 -0.2008942222 0.0601818942
55299670.0 -0.1950557695 0.0604557229 0.518503505 -0.0173702768 0.5183389296 -0.0178173178 -0.1972969534 0.0621825262
60299640.0 -0.1907960323 0.0617956954 0.5216501761 -0.0239995173 0.5218383004 -0.0242828782 -0.1933186558 0.0633294443
65299610.0 -0.1871498643 0.0626994801 0.5249906 -0.0302346892 0.5247079687 -0.0306568367 -0.1898213759 0.0647882854
70299580.0 -0.1837554466 0.0633011806 0.5270516772 -0.037221958 0.5271561508 -0.0370128049 -0.1869868253 0.0658961056
75299550.0 -0.1810280907 0.0636185405 0.5288310842 -0.04401615 0.5290140559 -0.0438911063 -0.1838991157 0.0668196465
80299520.0 -0.1783251863 0.0644718218 0.5305916818 -0.050782048 0.5311306056 -0.0509416058 -0.181229563 0.068160861
85299490.0 -0.175854511 0.0649202577 0.5322878269 -0.0579446845 0.5325024207 -0.0575524604 -0.1788377418 0.0686986675
90299460.0 -0.1734578682 0.0653309853 0.5329120253 -0.064684361 0.5331175965 -0.0645718147 -0.1765208967 0.0697799628
95299430.0 -0.1711374601 0.0655574236 0.5341964894 -0.0712744418 0.5345447538 -0.0716394066 -0.1747241335 0.0706795814
100299400.0 -0.1693116225 0.0661392626 0.5344564022 -0.078342861 0.5344019255 -0.0784051985 -0.172866261 0.071919487
105299370.0 -0.1675261275 0.0665190024 0.5346748197 -0.0848632434 0.5352745363 -0.0851936681 -0.1707145904 0.0722946549
110299340.0 -0.1658398066 0.0667542558 0.5350067123 -0.0914809237 0.5352759356 -0.0920064872 -0.1696951779 0.0730788449
115299310.0 -0.1645563788 0.0674486823 0.5348895046 -0.098507543 0.5353372659 -0.0986523924 -0.1679882761 0.0745089342
120299280.0 -0.1632000067 0.0682989869 0.535037525 -0.1058276031 0.5351480803 -0.1063654546 -0.166675481 0.074808327
125299250.0 -0.1617910818 0.0686241509 0.5345126776 -0.1122727237 0.5346065161 -0.1123569916 -0.1650501682 0.0760609235
130299220.0 -0.1609358478 0.0693396159 0.5344188672 -0.1195196245 0.5343585272 -0.1199317219 -0.1638926169 0.0772391277
135299190.0 -0.159617525 0.0700902669 0.5336529653 -0.1255454297 0.5336021291 -0.1259153556 -0.162651024 0.0775580082
140299160.0 -0.1585523164 0.070877516 0.5328679459 -0.1327353447 0.532638859 -0.1322873327 -0.1621227341 0.0787144641
145299130.0 -0.15791565 0.0715638797 0.5316906408 -0.1390880715 0.5316626078 -0.1389241416 -0.1606879874 0.0798740228
150299100.0 -0.1569193508 0.0722691884 0.5307832765 -0.1456612691 0.5305799962 -0.1457071133 -0.1595629356 0.0814952631
155299070.0 -0.155708219 0.0731919935 0.5289699316 -0.152087183 0.529338777 -0.1523249787 -0.1586745992 0.0825183047
160299040.0 -0.1548978465 0.0744165957 0.5278638982 -0.1585247091 0.528011198 -0.1590643443 -0.1579294933 0.0837643977
165299010.0 -0.1535955531 0.0751626099 0.52668162 -0.1648845557 0.5265092213 -0.1652907722 -0.1565425801 0.0845860892
170298980.0 -0.1532006272 0.0762857442 0.524719592 -0.1715417643 0.5251948725 -0.1714959836 -0.1556618695 0.085867809
175298950.0 -0.1520147405 0.0774881473 0.5233269215 -0.177858932 0.5238045291 -0.1781942074 -0.154844957 0.0872719219
180298920.0 -0.1513587877 0.0785106109 0.5214578501 -0.1842663145 0.5215690953 -0.1842571097 -0.1539615491 0.088491452
185298890.0 -0.1507142983 0.0793622133 0.5201583374 -0.190206951 0.5199816417 -0.1901458445 -0.1526713101 0.0896362241
190298860.0 -0.1495011033 0.0808573365 0.5178272905 -0.1965202408 0.5181546245 -0.1964107019 -0.1518057699 0.0912437677
195298830.0 -0.1490177203 0.0820524757 0.5160167895 -0.2023765899 0.5161695274 -0.2026477574 -0.1512136553 0.0924434935
200298800.0 -0.1482189865 0.0827325505 0.5140698379 -0.209381765 0.514417699 -0.2090610615 -0.1502244437 0.093554283
205298770.0 -0.1479143732 0.0840717162 0.5110356587 -0.2143912174 0.5116975037 -0.2145693461 -0.1489819362 0.0951352103
210298740.0 -0.1470679659 0.0855240214 0.509506735 -0.2207757773 0.5093104193 -0.2208828777 -0.1485226408 0.0962284595
215298710.0 -0.1460510276 0.0864619271 0.5069268754 -0.226330823 0.5070429387 -0.22669986 -0.1472920525 0.0978890361
220298680.0 -0.145112202 0.0877115943 0.5040800647 -0.2325062263 0.5044159893 -0.2326416215 -0.14615791 0.0993102882
225298650.0 -0.1447195776 0.0890943444 0.5019492008 -0.2385138282 0.5019577818 -0.2384634538 -0.1452842335 0.1005030618
230298620.0 -0.1434239982 0.0903492697 0.49952788 -0.2445724498 0.4997342049 -0.2445368196 -0.1442579582 0.1018590363
235298590.0 -0.1431422559 0.0918784916 0.4971743731 -0.250577762 0.4973109043 -0.2501602287 -0.1431391233 0.1035884412
240298560.0 -0.1421132126 0.0931823293 0.4942183888 -0.2554528969 0.494460986 -0.2556720301 -0.1422683089 0.1048431392
245298530.0 -0.1412950914 0.0942116011 0.4915583834 -0.2617028792 0.4914318993 -0.261904418 -0.1409712886 0.1063856559
250298500.0 -0.1406522469 0.0953730088 0.4888090295 -0.2671744075 0.4888833459 -0.2669526435 -0.1405325647 0.1078537425
255298470.0 -0.1398414861 0.0970400867 0.4858209341 -0.272182538 0.4866481806 -0.2727415773 -0.1393294902 0.1095061422
260298440.0 -0.1391399186 0.0981574521 0.4828360088 -0.2774478361 0.4830895286 -0.277762404 -0.1382758461 0.1104002796
265298410.0 -0.138523436 0.0997232231 0.479778893 -0.2839756818 0.4797450432 -0.2837184921 -0.1367189165 0.1118128983
270298380.0 -0.1377829596 0.1008775808 0.4764708375 -0.2892352585 0.4766832022 -0.289159739 -0.13570373 0.113580554
275298350.0 -0.1366906944 0.1025017165 0.4730913581 -0.2941461688 0.4735770939 -0.2946384281 -0.1345721051 0.1149901538
280298320.0 -0.136139181 0.1036407857 0.4704491474 -0.2990592634 0.4707892247 -0.299882533 -0.1334081073 0.1165588155
285298290.0 -0.1351439232 0.1050417984 0.4670054581 -0.3050488679 0.4674822362 -0.3049010979 -0.1324381068 0.1182401498
290298260.0 -0.1341416368 0.1064508598 0.4642950516 -0.3103312979 0.4644019249 -0.3107015486 -0.1312993587 0.1193931182
295298230.0 -0.1332245907 0.1072920753 0.4607173985 -0.3158033371 0.4608192251 -0.3161628695 -0.1298137616 0.1206116593
300298200.0 -0.1321628688 0.1091435956 0.4573603795 -0.321168397 0.4576207836 -0.3208018194 -0.1285877046 0.1222196829
305298170.0 -0.1312931459 0.109807259 0.4536417391 -0.3263855787 0.453996008 -0.3264725996 -0.1271768991 0.1233730231
310298140.0 -0.1302543961 0.1109987104 0.4503732291 -0.330984642 0.4505040946 -0.3313128633 -0.1257611337 0.1245981531
315298110.0 -0.1299217864 0.112275539 0.4467914967 -0.3368908769 0.4470776489 -0.3370139539 -0.124611966 0.1260836021
320298080.0 -0.1284670601 0.1135228729 0.441952137 -0.3422460263 0.4434250441 -0.3419942743 -0.1236347888 0.127315905
325298050.0 -0.1280238147 0.1143478406 0.4389331268 -0.3470432256 0.4393027558 -0.346676141 -0.1219723683 0.1284737048
330298020.0 -0.1276382951 0.1161302351 0.4347312433 -0.3521555467 0.4358908907 -0.3519309372 -0.1213344047 0.1295754797
335297990.0 -0.1264357996 0.1174579966 0.4310786247 -0.3569019794 0.4315180323 -0.3568795562 -0.1198587003 0.131427896
340297960.0 -0.1258958987 0.1185892955 0.4267224539 -0.3612782538 0.4268856607 -0.3615471258 -0.1185154237 0.1328601301
345297930.0 -0.1247240251 0.1197552368 0.4227624138 -0.3663986906 0.4230967511 -0.3663593272 -0.1173473964 0.1341460088
350297900.0 -0.1244268652 0.1212244531 0.4190891537 -0.3707563615 0.4191141382 -0.3705092046 -0.1160227331 0.1352277529
355297870.0 -0.1230165925 0.1223340602 0.4150184036 -0.3752291887 0.4149887661 -0.3753241161 -0.1144545831 0.136800649
360297840.0 -0.1217531212 0.12369143 0.4102277463 -0.3795626591 0.4107824467 -0.3806917202 -0.1131233454 0.1385418824
365297810.0 -0.1211228857 0.1254385261 0.4064180696 -0.3844954207 0.4066944686 -0.3844283602 -0.1123184499 0.1393747483
370297780.0 -0.1200503372 0.1263472945 0.4016813455 -0.3888933615 0.4025514628 -0.3886556136 -0.1105971485 0.1409541282
375297750.0 -0.1189672449 0.1278514787 0.39786505 -0.3930633414 0.3980715779 -0.3933343284 -0.1089461181 0.1424670059
380297720.0 -0.1180943821 0.1292977434 0.3936640923 -0.397972637 0.3937630815 -0.3978367065 -0.1076993916 0.1436244902
385297690.0 -0.1170223498 0.130093619 0.3888409437 -0.4021524854 0.3892104869 -0.4025984623 -0.1057977256 0.145368891
390297660.0 -0.1154847363 0.1313405278 0.3843085429 -0.4058522799 0.3850136754 -0.4061685858 -0.1042439602 0.1462044508
395297630.0 -0.114193027 0.1326534258 0.3803044932 -0.4098120596 0.380400575 -0.4101520795 -0.1027243166 0.1473912633
400297600.0 -0.1134965172 0.1337786955 0.3755614998 -0.4146664646 0.3760624031 -0.4150307755 -0.1012502904 0.1492339605
405297570.0 -0.1122270801 0.1347886587 0.3715448987 -0.4183308185 0.3717047893 -0.4187543766 -0.0992729605 0.1505025922
410297540.0 -0.1112880976 0.1363275832 0.366682404 -0.4225201943 0.3668451679 -0.4225960343 -0.0976060046 0.1516407991
415297510.0 -0.1099971869 0.1372230472 0.3618103848 -0.4264841226 0.362507943 -0.4267627206 -0.0962011052 0.1529579319
420297480.0 -0.109038399 0.1383118403 0.3575149779 -0.4307839268 0.3576933911 -0.4309228966 -0.0943328017 0.154485583
425297450.0 -0.1069492358 0.1395303098 0.3523847949 -0.4341802439 0.3528658751 -0.4345780392 -0.0930465126 0.155074448
430297420.0 -0.1062492778 0.1406466351 0.3484903684 -0.4385691354 0.3481030282 -0.4380756534 -0.0907606435 0.156232835
435297390.0 -0.1047099072 0.1418380478 0.3428842905 -0.4429043075 0.3431736274 -0.4418674007 -0.0897236511 0.1577226066
440297360.0 -0.1034929387 0.1427070475 0.3379526278 -0.4459223017 0.3380450677 -0.4461451735 -0.0878192951 0.1588570164
445297330.0 -0.1020231483 0.1435159946 0.3332853083 -0.4493479166 0.3331560764 -0.449974288 -0.0857845486 0.1600457944
450297300.0 -0.1009832172 0.1449945021 0.3283713866 -0.4530098218 0.3286204004 -0.4528308299 -0.0840263265 0.1611648014
455297270.0 -0.0995598989 0.1458037057 0.3234144176 -0.4569842949 0.3234940129 -0.4568160978 -0.0821454112 0.162170008
460297240.0 -0.0978462858 0.1469179431 0.318464337 -0.4602990968 0.318462597 -0.46062446 -0.0803513532 0.1633498002
465297210.0 -0.0961789875 0.14791072 0.3133946503 -0.4637195801 0.3127636637 -0.4640498229 -0.0783509117 0.1648328574
470297180.0 -0.095069236 0.1489221452 0.3078902026 -0.4668088444 0.308758847 -0.4670941896 -0.076816349 0.1654976098
475297150.0 -0.0938246323 0.1498512313 0.3028047288 -0.4703945159 0.3032407513 -0.470512368 -0.0748969324 0.1662362115
480297120.0 -0.0916555309 0.1512236689 0.2976539912 -0.4736437897 0.2980202139 -0.4737109154 -0.0731037581 0.1673536366
485297090.0 -0.0906008315 0.1516975686 0.2923355407 -0.4770605024 0.2926548112 -0.4768074299 -0.0712484565 0.1681598155
490297060.0 -0.0886623329 0.1530293946 0.2874770667 -0.480394151 0.2874917092 -0.4802089275 -0.0694244624 0.1686373915
495297030.0 -0.0875670301 0.1537462434 0.281915351 -0.4832286099 0.2822115031 -0.4835596216 -0.0674323852 0.1699443111
500297000.0 -0.0862556259 0.1548958565 0.2772175423 -0.4858644899 0.2770809695 -0.4864472349 -0.0655104254 0.1710026074
505296970.0 -0.0840692819 0.155833115 0.2718643984 -0.4892193661 0.2717936233 -0.4890852728 -0.0634532593 0.171260739
510296940.0 -0.0829627756 0.1565173791 0.2668335226 -0.4926359234 0.2662917577 -0.4925741114 -0.0610144041 0.1728968571
515296910.0 -0.081278406 0.1579527092 0.2607773462 -0.4951187651 0.2604672562 -0.4954219005 -0.0597359152 0.1730538292
520296880.0 -0.0797407753 0.1588651177 0.255678027 -0.4978114559 0.254856138 -0.4978308147 -0.057181664 0.1744583328
525296850.0 -0.0780801492 0.1596015728 0.2498765059 -0.5005311261 0.2495995702 -0.5002031592 -0.0553964857 0.1745211704
530296820.0 -0.0767846507 0.160381416 0.2441351156 -0.50346515 0.2441711639 -0.5031572251 -0.0534845494 0.1753133663
535296790.0 -0.0744030135 0.1611743959 0.2388924013 -0.5057440344 0.2387770696 -0.505612063 -0.0512590993 0.1766009362
540296760.0 -0.0728852953 0.1622388427 0.2334676673 -0.5082956391 0.2334321451 -0.5082367181 -0.0494802293 0.1764856419
545296730.0 -0.0716703723 0.1632259723 0.2279736529 -0.5103313126 0.2277185438 -0.5105992565 -0.0475278499 0.1776850987
550296700.0 -0.0694968617 0.1639261991 0.2221132113 -0.5131423651 0.2219095933 -0.5135297387 -0.0457121658 0.1783763556
555296670.0 -0.0681161417 0.1649028016 0.216660181 -0.5157486808 0.2166588539 -0.515555183 -0.0438792041 0.1782869328
560296640.0 -0.0659131358 0.1652301727 0.2110569153 -0.517570741 0.2112185489 -0.5178859854 -0.0416220893 0.1797336442
565296610.0 -0.0648856341 0.1664107025 0.2057057527 -0.5203760179 0.2056358677 -0.5197098673 -0.0396180682 0.1802724184
570296580.0 -0.063099784 0.1674126717 0.199823821 -0.5220711989 0.1993743575 -0.5221243403 -0.0373049283 0.1805303761
575296550.0 -0.0609828666 0.1677585718 0.1942925212 -0.5240090532 0.1940640196 -0.5243110117 -0.0355737848 0.1811104451
580296520.0 -0.0593224358 0.1690649301 0.1882648962 -0.5261720551 0.1881882364 -0.5266148339 -0.033782587 0.181548884
585296490.0 -0.0576061293 0.1696749044 0.1828940844 -0.5283383029 0.1822869042 -0.5283648732 -0.0314604734 0.1823739811
590296460.0 -0.0552563625 0.1705183949 0.176973478 -0.5302854255 0.1769837247 -0.5304289251 -0.0296105432 0.1826460581
595296430.0 -0.0540998345 0.1711135507 0.1705488352 -0.5319663962 0.1706427041 -0.532293794 -0.0275653641 0.1828703294
600296400.0 -0.0520962684 0.1717798323 0.1650855739 -0.5337690253 0.1649560973 -0.5342683498 -0.02528163 0.1835001164
605296370.0 -0.0507097204 0.1725977009 0.1600368326 -0.5355924076 0.1590001275 -0.535869703 -0.0232965982 0.1840251115
610296340.0 -0.0484232781 0.1739470131 0.1536418176 -0.5369226647 0.1537399087 -0.5373878818 -0.0215042992 0.1843614913
615296310.0 -0.0467414232 0.1740913368 0.1477052393 -0.5392689553 0.1475621006 -0.5393395414 -0.0189691194 0.1849982799
620296280.0 -0.0454463125 0.1753092115 0.1420221376 -0.5403226477 0.1415731688 -0.5404816528 -0.0173136963 0.1854254559
625296250.0 -0.0437075382 0.1753868664 0.1359119403 -0.5420493649 0.1360251552 -0.5425122474 -0.0157754046 0.1854704919
630296220.0 -0.0417821377 0.1764826467 0.129717039 -0.5437162258 0.1298210834 -0.5430741656 -0.0129524659 0.1855518275
635296190.0 -0.0400203591 0.1773949449 0.1242534372 -0.544368952 0.1239325176 -0.5444374878 -0.011242201 0.1859766705
640296160.0 -0.0380096054 0.1777866554 0.1181222858 -0.5464788345 0.1180089525 -0.5457405923 -0.0091013621 0.1860378909
645296130.0 -0.0360954643 0.1787172693 0.1122089962 -0.5469681026 0.1121767341 -0.547019585 -0.0070322228 0.185947474
650296100.0 -0.0346014726 0.1790673011 0.106814919 -0.5481411295 0.1061185686 -0.5484728947 -0.0045030052 0.1867898601
655296070.0 -0.0329384174 0.1797269389 0.1000356322 -0.5493908718 0.1002275703 -0.5493896822 -0.0029976167 0.186900686
660296040.0 -0.0309568521 0.1802796929 0.0946976923 -0.5506974384 0.0945411658 -0.5504187903 -0.0007225588 0.1866540417
665296010.0 -0.0292675434 0.1808811995 0.0881508236 -0.5508345119 0.0884976219 -0.55143626 0.0009905512 0.1871372062
670295980.0 -0.0275986752 0.1815130359 0.0827065004 -0.5522851433 0.0820667803 -0.5517569613 0.0033064213 0.1869952919
675295950.0 -0.0256479997 0.1818489254 0.0766473521 -0.5529196304 0.0763744073 -0.5530730642 0.0054030223 0.1873790714
680295920.0 -0.0244283979 0.1825179002 0.0709282142 -0.5536092473 0.0706409704 -0.5537333832 0.0075971923 0.1873611154
685295890.0 -0.0221560047 0.1833332101 0.0644374014 -0.554786056 0.0644826924 -0.5548221203 0.0095122009 0.187711836
690295860.0 -0.0205050585 0.1836001392 0.0585608044 -0.5547610046 0.0583434876 -0.5553219561 0.0116569548 0.1876168265
695295830.0 -0.0187661482 0.1837757091 0.0531152013 -0.5556808166 0.0525086636 -0.555522284 0.0136450265 0.1876581982
700295800.0 -0.0168665164 0.1846689738 0.0469123398 -0.5564339706 0.0465945324 -0.5562118275 0.0155926495 0.1874956851
705295770.0 -0.0155441205 0.1851878504 0.0411124046 -0.5569164885 0.0406788574 -0.5566733394 0.0177608397 0.1876926181
710295740.0 -0.0135073406 0.1849711388 0.0349926045 -0.5568349684 0.0345483218 -0.5573759718 0.0199464492 0.1876585166
715295710.0 -0.0116611951 0.1858203771 0.0290569925 -0.557529074 0.0286660934 -0.5578922934 0.0218999185 0.1873944326
720295680.0 -0.0096917039 0.1860126329 0.0226029218 -0.5576561536 0.0226014833 -0.5579885335 0.0240434865 0.1870798659
725295650.0 -0.0083260774 0.1867447239 0.017213258 -0.5581654556 0.0167875795 -0.5581211432 0.0259671474 0.1875496454
730295620.0 -0.0068638941 0.1865441946 0.0106247255 -0.5576383645 0.0108925898 -0.5573826239 0.0278686112 0.1876031603
735295590.0 -0.0049602829 0.1873027371 0.00523878 -0.5581381091 0.0047337495 -0.557716175 0.0301083017 0.1869674596
740295560.0 -0.0033992024 0.1874940323 -0.0011887923 -0.5580786086 -0.0009344663 -0.558032095 0.0319963029 0.1868672068
745295530.0 -0.0015308481 0.1877873919 -0.0071287991 -0.5575439114 -0.0066471759 -0.5577761985 0.0335462184 0.1866437249
750295500.0 -6.80752e-05 0.1879872316 -0.012959747 -0.5575327825 -0.0136851288 -0.5578214411 0.0358816805 0.1863842178
755295470.0 0.0015630842 0.1882333423 -0.0190085202 -0.557724505 -0.0191180754 -0.5579911323 0.0381283402 0.1868837478
760295440.0 0.0035226224 0.1890200654 -0.0257262956 -0.5573090816 -0.0253724515 -0.5568660367 0.0402564853 0.1853118576
765295410.0 0.0056371895 0.1884609677 -0.031221144 -0.5564155875 -0.031030011 -0.557016593 0.0423275767 0.1856381225
770295380.0 0.0069936399 0.189127485 -0.0369523049 -0.5560461261 -0.0370517192 -0.5568446879 0.0438617496 0.1854503096
775295350.0 0.0087861385 0.1890761961 -0.0432979137 -0.5561978793 -0.0430219212 -0.5558687614 0.0463939089 0.185346422
780295320.0 0.0106737053 0.1893997999 -0.0488247597 -0.554994262 -0.0489612286 -0.5553040296 0.0484154233 0.1845303007
785295290.0 0.0120861848 0.1894908378 -0.0548487815 -0.5549100715 -0.0544835125 -0.5550246796 0.0499784515 0.1846800547
790295260.0 0.0139980566 0.1890467678 -0.0605017329 -0.5543639686 -0.0606094038 -0.5542584728 0.0521725832 0.1844898591
795295230.0 0.0155099647 0.1894182039 -0.0666843921 -0.5535969114 -0.0668917887 -0.5538267313 0.0543639196 0.1831915222
800295200.0 0.0169630775 0.1897036029 -0.0719958134 -0.5525257122 -0.0728488325 -0.5532355442 0.0559099412 0.1830738202
805295170.0 0.0187783497 0.1897703231 -0.0782434373 -0.5522922631 -0.0784689454 -0.5520131179 0.0587024892 0.1825319607
810295140.0 0.0210870266 0.1896791178 -0.0845176005 -0.5508562292 -0.0843087364 -0.5512369719 0.0605137558 0.1821168388
815295110.0 0.0223960908 0.1896131144 -0.0900595599 -0.5499502303 -0.0900476127 -0.5504102624 0.0619063744 0.1817488714
820295080.0 0.0243438418 0.1896144215 -0.0956547547 -0.5488365615 -0.095654798 -0.5495049529 0.0635033858 0.1817356742
825295050.0 0.0255912291 0.1894672754 -0.1022860872 -0.5482831811 -0.1022060143 -0.5480664671 0.0664622151 0.1808909045
830295020.0 0.0275743639 0.1894715148 -0.1079464579 -0.5471979186 -0.107813228 -0.5471560058 0.0680586909 0.1799483577
