!Created with skrf (http://scikit-rf.org).
# Hz S RI R 50.0 
!freq ReS11 ImS11 ReS21 ImS21 ReS12 ImS12 ReS22 ImS22
300000.0 -0.7711697065 -0.1677082112 -0.000126135 0.0015756998 -0.0001713059 0.0005154235 -0.0451136859 -0.0752881132
5299970.0 -0.7855356325 -0.0089223642 -8.46164e-05 -9.90824e-05 -0.0001568139 8.0392e-05 -0.0479324556 0.0139761028
10299940.0 -0.7892057779 -0.0053862059 7.35937e-05 -2.36796e-05 0.0001348706 -6.95625e-05 -0.0419532783 0.0316502512
15299910.0 -0.7940546283 -0.0035490436 9.23566e-05 -0.000173809 -0.000124911 0.0001448895 -0.0338826549 0.0456228432
20299880.0 -0.8007884711 0.0012534313 -0.0002297659 1.96785e-05 6.26345e-05 8.72226e-05 -0.0240830623 0.0574167264
25299850.0 -0.8076842004 0.0069638557 7.16861e-05 -3.36803e-05 7.18773e-05 -4.0563e-05 -0.0135037893 0.0660188311
30299820.0 -0.8137677214 0.0139030242 0.0002268877 0.0001060268 5.9392e-05 5.15803e-05 -0.0019353474 0.0727682138
35299790.0 -0.8183128678 0.0230414699 -0.0001124822 -3.5703e-06 2.61623e-05 -5.59011e-05 0.0088334409 0.0775477011
40299760.0 -0.8231145457 0.031820464 -7.28953e-05 -4.01061e-05 -6.59916e-05 -0.0002028926 0.020076138 0.080142762
45299730.0 -0.8263452913 0.0421508908 -0.0001671831 -0.0001815491 0.0001393603 -9.41363e-05 0.0306892041 0.0812179139
50299700.0 -0.8295095919 0.0521077323 -0.0002128927 7.87921e-05 2.02311e-05 9.6507e-06 0.0403366095 0.0814870914
55299670.0 -0.8312130893 0.061704637 0.0002515032 0.000110903 -1.15317e-05 -6.38598e-05 0.0492909322 0.0801921002
60299640.0 -0.8324349357 0.072222783 -0.0003018528 0.0001459323 6.11597e-05 0.0001563165 0.0578586201 0.0783690079
65299610.0 -0.8329994731 0.0818106287 3.28857e-05 9.5045e-05 5.01665e-05 -0.000129505 0.065517749 0.0761276347
70299580.0 -0.833590252 0.0916980704 9.1467e-06 -7.09295e-05 7.12189e-05 0.0001532996 0.0719614231 0.0729796704
75299550.0 -0.8333739873 0.1019324762 -0.000109008 0.0001039383 5.26775e-05 0.0001964321 0.0785227596 0.069791666
80299520.0 -0.8335031206 0.1122420442 0.0001020286 0.0002372209 1.89228e-05 -3.23098e-05 0.0839893658 0.0663507624
85299490.0 -0.8326373103 0.121549567 -6.47324e-05 -2.08852e-05 -8.16764e-05 6.71076e-05 0.0889114613 0.0624061342
90299460.0 -0.8323710489 0.1316936418 -3.2886e-06 -5.28692e-05 0.0001053831 -2.35813e-05 0.0932948718 0.0585698184
95299430.0 -0.8311582258 0.1407641554 -8.9898e-06 -0.0001645485 -0.0001086261 -3.1047e-06 0.0974532166 0.0546167523
100299400.0 -0.8304965758 0.1503030155 0.0002888216 0.0001283322 -0.0001291085 7.70813e-05 0.1008752159 0.0510502922
105299370.0 -0.8285242801 0.1595936036 -1.57572e-05 -8.16035e-05 7.62345e-05 2.62301e-05 0.104339838 0.0467802574
110299340.0 -0.8270623765 0.1683186421 -2.04637e-05 6.5971e-06 -0.000134675 8.9598e-06 0.1067532343 0.0426393596
115299310.0 -0.82566364 0.1781100922 4.31278e-05 5.2307e-05 7.80469e-05 8.03725e-05 0.1090690682 0.0388729676
120299280.0 -0.8237517737 0.1868592177 1.74573e-05 2.1838e-05 4.86464e-05 -0.0001115254 0.1112752781 0.0353243206
125299250.0 -0.8221501708 0.1956002317 0.0001876256 -0.0002773651 -0.0002314836 0.0001117712 0.1132406152 0.0312400907
130299220.0 -0.8205480907 0.2052983417 4.37323e-05 5.29536e-05 -1.204e-06 3.96654e-05 0.1149371512 0.0274245867
135299190.0 -0.8185920939 0.2142145432 7.86922e-05 -8.34721e-05 1.43622e-05 8.55757e-05 0.1163481958 0.0235925208
140299160.0 -0.8166686608 0.223681251 9.33276e-05 -5.97932e-05 0.0001206713 5.76201e-05 0.117464394 0.0202179747
145299130.0 -0.8141906228 0.2323309455 -2.58336e-05 -0.0001839146 2.25275e-05 -2.12504e-05 0.1183297216 0.0167935241
150299100.0 -0.8120977498 0.2408701568 -5.01e-06 8.42403e-05 0.0001500235 8.39753e-05 0.1192378265 0.0131315421
155299070.0 -0.8093039332 0.2500896744 0.000175792 4.41138e-05 9.93256e-05 1.38735e-05 0.1199736946 0.0101595596
160299040.0 -0.807626896 0.2591455059 0.0001002024 -2.83024e-05 7.13159e-05 0.0001049339 0.1201640926 0.0064179214
165299010.0 -0.8041868474 0.2675564259 -0.0001260989 -7.96853e-05 -9.08661e-05 0.0001101116 0.1209104455 0.0032203519
170298980.0 -0.8014905607 0.2765609099 -8.18168e-05 2.59219e-05 -0.0002156362 0.0001163663 0.1208736209 0.0004475444
175298950.0 -0.7989418977 0.2846639041 0.0002568028 -6.30033e-05 3.15622e-05 6.27258e-05 0.1212356273 -0.0025324896
180298920.0 -0.7956866062 0.2935239617 0.0003362392 -3.98731e-05 -7.82709e-05 -7.39593e-05 0.1217315016 -0.0057767418
185298890.0 -0.7926488342 0.3028896236 0.0002317548 0.0001312415 9.74374e-05 0.0001418705 0.1214267688 -0.0089235141
190298860.0 -0.7895242467 0.3109846971 -5.3426e-05 0.0001202959 1.18625e-05 5.47928e-05 0.1211209571 -0.0115947251
195298830.0 -0.7864887556 0.3193053222 -0.0001068867 -0.0001869824 0.0001098252 4.92347e-05 0.1210609803 -0.0145843774
200298800.0 -0.7827427696 0.3277946771 2.84795e-05 0.0002235342 -6.13179e-05 5.66359e-05 0.1211044112 -0.0168830566
205298770.0 -0.778897119 0.3367074448 4.90315e-05 1.72635e-05 0.0001457643 1.8896e-06 0.1206466358 -0.0200049982
210298740.0 -0.7763437614 0.3450124175 7.02762e-05 9.53099e-05 -9.77563e-05 7.36393e-05 0.1201512333 -0.0225013562
215298710.0 -0.7719996851 0.3531061353 -0.0001267516 -2.5923e-05 1.1701e-05 8.65537e-05 0.1196788762 -0.0252315554
220298680.0 -0.768595723 0.3610900828 2.9687e-06 0.0002974961 0.0002022472 7.2114e-05 0.119317152 -0.0273698002
225298650.0 -0.7641580132 0.3696688838 5.08735e-05 -1.95223e-05 5.81972e-05 -5.47698e-05 0.1184238618 -0.0301883256
230298620.0 -0.7607505547 0.3777130196 0.0001313469 0.0001429405 3.14159e-05 -0.0001416399 0.1179886253 -0.0325544415
235298590.0 -0.7571889376 0.3859650947 9.09977e-05 -0.0001316071 0.0001390918 4.85038e-05 0.1173878662 -0.0345348386
240298560.0 -0.7525349544 0.3937113599 -7.56918e-05 4.6372e-06 2.73972e-05 0.0001709307 0.1169156595 -0.0372289589
245298530.0 -0.7483315428 0.4016591484 9.79611e-05 0.0001777422 0.0002844482 2.2967e-05 0.1158571339 -0.0393745547
250298500.0 -0.7448063409 0.4093045027 -2.98987e-05 -8.12012e-05 2.34497e-05 0.0001859312 0.115105584 -0.0412913896
255298470.0 -0.7404463834 0.4173345406 -2.77731e-05 -2.6747e-06 0.0001914714 -0.0001286944 0.1142835371 -0.0440902801
260298440.0 -0.7365691009 0.4252759312 8.19261e-05 4.76836e-05 0.0001571407 0.0001083343 0.1132258235 -0.045822201
265298410.0 -0.7314204137 0.43308786 0.0001727908 1.8364e-06 8.48145e-05 5.70242e-05 0.1126420144 -0.0480490442
270298380.0 -0.7272962094 0.4406614583 -9.21947e-05 -9.0494e-06 1.42845e-05 -3.7542e-06 0.1118886867 -0.0499724203
275298350.0 -0.7231364012 0.4482359992 0.0001299088 6.29667e-05 -9.8667e-06 -0.0001134596 0.1108920534 -0.0519222114
280298320.0 -0.7182259922 0.4557007783 -6.78829e-05 0.0002757876 0.0001492909 0.0001411054 0.1098918701 -0.0538891792
285298290.0 -0.7133488013 0.4633841882 0.000189738 7.49194e-05 0.000128082 -0.0001925174 0.1090804426 -0.0556272701
290298260.0 -0.7082706228 0.4709886651 -0.0001115405 0.0001591664 0.0002191055 2.0371e-05 0.1076811713 -0.0574533811
295298230.0 -0.7037887318 0.4781692959 -2.37027e-05 -0.0001484703 -8.07177e-05 3.65905e-05 0.1070047559 -0.0593470703
300298200.0 -0.6992472238 0.4859005703 -0.0001369561 0.0002302312 -0.0001284289 9.61159e-05 0.1059716107 -0.0612220457
305298170.0 -0.6940870799 0.4921245751 -0.0001179572 0.0001931745 0.0001382313 0.0001184132 0.1050125871 -0.0630535507
310298140.0 -0.6886386708 0.499651524 -9.16548e-05 0.0001143249 0.0002711124 0.0001786437 0.1038523417 -0.0648348414
315298110.0 -0.6842585094 0.5070400752 -8.4791e-06 2.53002e-05 2.60698e-05 1.25558e-05 0.1027268119 -0.066826879
320298080.0 -0.6785351331 0.5146408655 2.36215e-05 -2.75975e-05 8.08346e-05 -8.41828e-05 0.101533576 -0.0685878708
325298050.0 -0.6730703069 0.5209624239 7.08058e-05 8.79032e-05 0.0001995287 -5.99496e-05 0.1007696572 -0.0706058944
330298020.0 -0.6679082748 0.5278820772 9.39977e-05 3.98911e-05 5.33922e-05 1.75062e-05 0.0990350278 -0.0723193387
335297990.0 -0.6622487759 0.5348134245 0.0001170104 -2.475e-05 -4.05783e-05 -0.0002528391 0.097746434 -0.0740879033
340297960.0 -0.657378694 0.5417004642 1.32376e-05 7.76605e-05 -4.89029e-05 4.74036e-05 0.0960128831 -0.0752280042
345297930.0 -0.6517580903 0.5482968762 -5.98985e-05 -2.53306e-05 2.88524e-05 0.0002086786 0.0946693884 -0.0767213674
350297900.0 -0.6454151173 0.55563338 0.0001183234 -8.29106e-05 0.0001766474 4.97117e-05 0.0927949521 -0.078362749
355297870.0 -0.6403041313 0.5611250772 0.0002735226 0.0001990741 6.4609e-06 -6.46345e-05 0.0918165354 -0.079676453
360297840.0 -0.6342299517 0.5682018906 -2.39243e-05 -3.84037e-05 -3.50417e-05 1.36696e-05 0.0904418878 -0.0809559239
365297810.0 -0.6291257698 0.5749175763 0.0003143415 0.0001387996 0.0001696785 5.73783e-05 0.0888490748 -0.0825294654
370297780.0 -0.6229043117 0.5808636753 -0.000125606 -1.85835e-05 3.97789e-05 -3.62049e-05 0.0872979349 -0.0837013944
375297750.0 -0.6171720586 0.5869757561 -0.0001107701 5.38932e-05 -3.33858e-05 7.94336e-05 0.0862171923 -0.0848327392
380297720.0 -0.6114941025 0.5936764988 -1.85399e-05 0.0001492763 2.42076e-05 -6.52386e-05 0.0847336199 -0.0858928015
385297690.0 -0.6052505394 0.5991022204 9.0638e-05 -9.4469e-05 -2.47266e-05 -1.93253e-05 0.0836711479 -0.0870596464
390297660.0 -0.5975885784 0.6056386926 -9.686e-05 0.0001535786 -6.68979e-05 3.12334e-05 0.0817293833 -0.0883641007
395297630.0 -0.592946367 0.6122133373 8.44587e-05 -0.0002252892 0.000179913 -1.71248e-05 0.0802543926 -0.0896724657
400297600.0 -0.5856694783 0.6183352565 -7.27159e-05 0.000168905 -4.16281e-05 0.0002242898 0.0789289246 -0.0906568575
405297570.0 -0.5799071917 0.6227553683 9.525e-06 2.40047e-05 8.38522e-05 -0.0001100871 0.0774434414 -0.0918176304
410297540.0 -0.5727951604 0.6298450464 9.48023e-05 -5.26447e-05 1.041e-07 -7.03694e-05 0.0762276909 -0.0926972188
415297510.0 -0.5670712016 0.6356853928 -2.0538e-05 1.07016e-05 -0.0001283291 -4.53656e-05 0.0744936386 -0.0940650588
420297480.0 -0.5600803563 0.641470501 -6.52113e-05 0.0001364105 0.0001485418 -0.0001625072 0.0733475177 -0.0946546788
425297450.0 -0.5542204776 0.6464536539 0.000208132 9.05525e-05 5.1483e-06 3.14077e-05 0.0715409645 -0.0961550747
430297420.0 -0.5472910863 0.6517877978 -1.8706e-06 0.0003135833 6.07433e-05 7.5061e-05 0.0703044248 -0.0970625111
435297390.0 -0.5404351389 0.6575681519 -0.0001239076 -0.0001884924 3.70942e-05 9.03761e-05 0.0682136878 -0.0979248574
440297360.0 -0.5334942683 0.6631196391 0.0001070519 0.000107551 0.0002000486 4.56042e-05 0.0668995008 -0.0987344737
445297330.0 -0.5269446536 0.6676888532 6.46221e-05 -1.16183e-05 8.19852e-05 5.04508e-05 0.0656457109 -0.0996463665
450297300.0 -0.519428348 0.6740368522 0.0001209325 -7.47111e-05 5.90527e-05 4.95222e-05 0.0640426943 -0.1004879416
455297270.0 -0.512795735 0.6788933099 8.72853e-05 -0.0001875462 0.0002374866 0.0002490269 0.0623919369 -0.1013244423
460297240.0 -0.5050324469 0.6841060724 6.89287e-05 0.0001462615 -0.0001739053 -0.0001046649 0.0607887537 -0.1024282332
465297210.0 -0.4987367294 0.6890290583 -0.0001347838 0.0001480857 -6.78479e-05 9.05335e-05 0.0592883161 -0.1028208363
470297180.0 -0.490956311 0.6939396196 4.50567e-05 -5.41824e-05 4.54509e-05 7.76563e-05 0.0577736682 -0.1038594707
475297150.0 -0.4838457416 0.6989959116 7.49676e-05 -0.0002326302 0.0002645593 7.8693e-06 0.0562156977 -0.1044591869
480297120.0 -0.4765237095 0.7040083842 0.0004041365 -3.822e-05 -0.0001425137 -7.01694e-05 0.0543379083 -0.1048461885
485297090.0 -0.4696100304 0.7085825106 -0.0001153697 0.0001775299 0.0002162463 -0.0001774542 0.052695415 -0.1058689188
490297060.0 -0.4613582684 0.7137547213 0.0003332453 0.0001060789 8.17093e-05 -7.2652e-05 0.051391718 -0.1066059465
495297030.0 -0.4541431715 0.717992294 -2.15231e-05 -3.05485e-05 0.0001711944 0.0001195336 0.0498489707 -0.1071702703
500297000.0 -0.4465515988 0.7218143684 0.0001663818 -9.955e-06 -1.75569e-05 -4.0362e-05 0.0481643181 -0.1076534624
505296970.0 -0.4388778558 0.7268726794 9.67858e-05 0.000142816 0.0001031409 8.53903e-05 0.0463003399 -0.1085203476
510296940.0 -0.4313688896 0.731592267 0.0001401531 -4.41978e-05 0.0001656978 -1.2177e-06 0.0451192757 -0.1086429516
515296910.0 -0.4234265096 0.7361402637 5.45206e-05 -9.09359e-05 2.57773e-05 -5.81714e-05 0.04322391 -0.1096042438
520296880.0 -0.4156310611 0.7395363722 0.0001780857 0.0001203639 -9.1869e-06 -0.0001113204 0.0419491389 -0.1099898344
525296850.0 -0.4083889724 0.7443385823 -0.000107927 -0.000121036 8.94317e-05 5.11379e-05 0.0399110533 -0.1103536699
530296820.0 -0.4009422293 0.7481290062 3.29189e-05 0.0001372993 0.0002310493 7.49497e-05 0.0383207111 -0.1113975936
535296790.0 -0.3919158623 0.7517184117 0.0001138221 0.0002392884 0.000156801 0.0001643011 0.0368406036 -0.1113318796
540296760.0 -0.3844066494 0.7558482976 0.0001989702 0.0001731349 4.80679e-05 -2.45985e-05 0.034935285 -0.1117391193
545296730.0 -0.3771896778 0.76023331 0.0003068741 -9.51658e-05 -3.17148e-05 -3.55056e-05 0.0334574819 -0.112449926
550296700.0 -0.368593863 0.7635925419 7.63803e-05 -3.20393e-05 -2.24339e-05 0.0001411981 0.0317997931 -0.1129125861
555296670.0 -0.3609526448 0.7672051074 0.0001104534 9.47521e-05 9.47747e-05 7.47418e-05 0.0300062388 -0.1131977226
560296640.0 -0.3529781869 0.7704002121 0.0001145892 -9.94313e-05 0.0003874641 3.20814e-05 0.0281936223 -0.1132151982
565296610.0 -0.3449455345 0.7740794937 0.0001070093 0.000130767 0.0001597409 -0.0001282568 0.0268584129 -0.1134084524
570296580.0 -0.3367372291 0.7782686941 0.0002951685 -2.9125e-06 9.80312e-05 0.0003804703 0.0249377827 -0.1137578096
575296550.0 -0.3278518452 0.7810445684 0.0001968116 -4.98297e-05 -2.21856e-05 -0.0001810711 0.0233774317 -0.1144641964
580296520.0 -0.3205923743 0.784143345 0.0002236136 0.0002025392 0.0001918074 -0.0001989421 0.0216380315 -0.114612128
585296490.0 -0.3123068561 0.7877560269 0.0001479221 -0.0001205647 -4.9817e-06 0.0002134449 0.0199926157 -0.1143836246
590296460.0 -0.3033430627 0.7913638215 0.0001256611 -7.71772e-05 0.0001754099 0.0001031746 0.0183046419 -0.1147691069
595296430.0 -0.2954830484 0.7935453142 0.0001451085 3.1451e-06 -2.237e-07 1.32079e-05 0.0165482365 -0.1149806964
600296400.0 -0.2879852754 0.7966527489 0.0001440394 -2.79384e-05 -0.0001113407 -0.0001002936 0.015025093 -0.1151114502
605296370.0 -0.279304022 0.799175829 0.0002590047 9.18053e-05 0.0003746926 -0.0001296139 0.0133684846 -0.1152632724
610296340.0 -0.2710772679 0.8027294549 2.46644e-05 3.5231e-05 0.000220312 -1.50152e-05 0.0112320244 -0.1153960326
615296310.0 -0.2625994784 0.805095894 0.000236066 -4.18353e-05 0.0002919902 6.14541e-05 0.009949476 -0.115484488
620296280.0 -0.2548020622 0.8089964462 1.87139e-05 4.77485e-05 0.0002504103 -2.15516e-05 0.0082365511 -0.1150819765
625296250.0 -0.2470555823 0.8100125094 0.0001936746 -2.30045e-05 4.46181e-05 -1.58832e-05 0.0063034919 -0.1153741917
630296220.0 -0.2386248365 0.8126421628 -7.10275e-05 8.27759e-05 0.0002198077 -4.76513e-05 0.0048100113 -0.1153739119
635296190.0 -0.2307191612 0.8154669081 1.80802e-05 2.74104e-05 0.0002454886 0.00012854 0.0029866528 -0.1151474922
640296160.0 -0.2211847293 0.8170774237 6.73444e-05 -9.90763e-05 0.000274332 -7.8239e-06 0.00124366 -0.1151805771
645296130.0 -0.2132928673 0.8204833534 0.000365779 3.29595e-05 7.62968e-05 -6.57875e-05 -0.0004707597 -0.1155971521
650296100.0 -0.2047464898 0.8217237177 0.0004669383 6.1512e-06 8.34025e-05 -0.0001364652 -0.0016300042 -0.1152313385
655296070.0 -0.1968836065 0.8237997187 0.0001253203 0.0001684131 0.0001946513 -0.0002223678 -0.00411201 -0.114915095
660296040.0 -0.1883095821 0.8262191597 0.0003186453 0.0001909821 0.000127692 3.86951e-05 -0.0051408023 -0.1150376283
665296010.0 -0.1806701547 0.8280325693 0.0001220828 -0.0003106673 -8.913e-06 -0.0001294242 -0.0066906199 -0.1147626956
670295980.0 -0.172469791 0.8301442095 0.0001500167 6.561e-06 0.0001671142 0.0001947844 -0.0087086815 -0.114546854
675295950.0 -0.1634262002 0.8317947822 0.0002368019 -0.0003457843 0.0001478628 0.0002000794 -0.0103373815 -0.1141049352
680295920.0 -0.1559751665 0.8338465759 8.5096e-06 -0.000158648 5.33699e-05 0.0001239813 -0.0120582686 -0.1139863594
685295890.0 -0.1472666611 0.8357872404 0.0001870261 -0.0001765443 9.15402e-05 0.0001632459 -0.0135262027 -0.1137133193
690295860.0 -0.1390807665 0.8366319934 9.62682e-05 4.8955e-05 0.000126432 9.5823e-05 -0.0150522882 -0.1135155784
695295830.0 -0.1300959562 0.8381372839 0.0002298472 -9.40747e-05 0.0001900454 -0.0001253159 -0.0168481096 -0.1130518143
700295800.0 -0.1216300686 0.8396101219 5.42746e-05 2.2206e-06 0.0002706814 -0.0002579693 -0.0182911414 -0.113133687
705295770.0 -0.1143500026 0.8410096138 8.1984e-05 -3.06277e-05 0.0001418805 -0.0001379041 -0.0201670401 -0.1124088161
710295740.0 -0.1061931158 0.8421502947 0.0001225876 -8.753e-06 4.9519e-05 -9.28297e-05 -0.0216421822 -0.1122405451
715295710.0 -0.0974289557 0.8434538747 -0.0002148 -0.0001200803 4.18979e-05 0.0001493342 -0.0233857237 -0.1118951043
720295680.0 -0.0882416282 0.8442326268 9.73692e-05 0.0002132942 0.0001141281 -0.0002171052 -0.0249497385 -0.1113798167
725295650.0 -0.0812676898 0.8453334271 0.0003780184 -5.85062e-05 9.85688e-05 -6.38347e-05 -0.0266146709 -0.1108286933
730295620.0 -0.0729703022 0.8463665612 0.0002473039 5.70803e-05 0.0002446205 -3.4506e-05 -0.0283353009 -0.1101407735
735295590.0 -0.0650282069 0.8470331919 0.0001722087 -2.39507e-05 0.0001992586 2.554e-05 -0.0298286863 -0.1098546634
740295560.0 -0.0571121415 0.8474705238 8.11602e-05 -2.01804e-05 0.0002169322 -0.0001863684 -0.0313596501 -0.1095500717
745295530.0 -0.0483713622 0.8480534575 0.0001569705 -0.0001702482 0.000241962 7.54513e-05 -0.0330971009 -0.1085260295
750295500.0 -0.0402520719 0.848659823 0.0002193701 -7.14997e-05 0.0002651512 0.0002249545 -0.0346744459 -0.1082362774
755295470.0 -0.0317855174 0.8494420838 5.80788e-05 -0.0001458345 0.000270949 -0.0001534981 -0.0361567437 -0.1073680448
760295440.0 -0.0234305204 0.8505189226 0.0001192968 5.31793e-05 0.0002927763 -2.46807e-05 -0.0376993904 -0.1072098711
765295410.0 -0.0152313587 0.8501492979 0.0003285797 -0.0001149908 7.93125e-05 -0.0001509015 -0.0391260475 -0.1063499771
770295380.0 -0.0080760766 0.8507990305 4.06986e-05 1.71393e-05 0.0001509806 -0.0002188182 -0.0411385591 -0.1057707164
775295350.0 0.0004599367 0.8504807441 0.0001812568 -0.0002176754 0.0002979002 1.32745e-05 -0.0422635444 -0.1049467425
780295320.0 0.0097627469 0.8507449558 5.08508e-05 2.01114e-05 0.0001666834 -3.74095e-05 -0.0435639173 -0.1043652052
785295290.0 0.017501963 0.8506720971 0.0001462304 -2.59648e-05 1.4994e-06 1.16881e-05 -0.0455638269 -0.1037936387
790295260.0 0.0256898271 0.850422604 0.0001783209 -5.81762e-05 0.0001474215 -0.0003316943 -0.0470258523 -0.1025359726
795295230.0 0.0336795825 0.8499507833 -2.54647e-05 0.0001318487 2.67517e-05 -0.0001836115 -0.0485749683 -0.1024088381
800295200.0 0.0415276616 0.8502947386 0.0002814581 0.0001036406 0.0002114729 0.0001502674 -0.0501187062 -0.1015583052
805295170.0 0.0498041269 0.8503081525 0.0002177661 0.0001142675 0.0001234195 -1.05576e-05 -0.0511317513 -0.1010416326
810295140.0 0.0583713416 0.8502921032 0.000206442 -5.89487e-05 0.0001685228 9.0649e-05 -0.0527436372 -0.0997404137
815295110.0 0.0657166458 0.8494873707 0.0002002941 -0.0001560671 0.0003452382 -0.0001268031 -0.0546138019 -0.0993110665
820295080.0 0.0745952932 0.8485822786 0.000215805 -6.47584e-05 4.29605e-05 -9.06962e-05 -0.0562585371 -0.0979691265
825295050.0 0.0828161287 0.8478319469 -6.77803e-05 -0.0002455423 0.0002570621 0.0001318618 -0.0571368995 -0.0972770945
830295020.0 0.0911451796 0.8471707149 0.0002484075 -4.2685e-06 0.0002935546 -0.0001416928 -0.0587878184 -0.0968021837
835294990.0 0.0989029873 0.8465392108 6.21996e-05 -2.2068e-05 0.0002452953 -1.92277e-05 -0.0602463584 -0.0954557045
840294960.0 0.1077930067 0.8451132707 0.0001534908 -0.0001027949 0.0002993956 -6.5778e-05 -0.0613173818 -0.094571182
845294930.0 0.1155067517 0.8441557984 0.0001217054 -4.94382e-05 7.62443e-05 -7.82808e-05 -0.0629791025 -0.093393019
850294900.0 0.1247331822 0.8429075944 0.000425478 -0.0001420316 1.29176e-05 1.3716e-05 -0.0643403874 -0.0925343559
