!Created with skrf (http://scikit-rf.org).
# Hz S RI R 50.0 
!freq ReS11 ImS11 ReS21 ImS21 ReS12 ImS12 ReS22 ImS22
300000.0 -0.3146097671 -0.1337492506 0.3711319118 0.0656878489 0.3708788108 0.0670169834 -0.3137673008 -0.1316196057
5299970.0 -0.3248769572 0.0027773168 0.3782613661 0.0034658495 0.378869034 0.0033548352 -0.3254941015 0.0019473758
10299940.0 -0.3224434811 0.0140626465 0.3800670351 0.0028338821 0.3799603561 0.0031822799 -0.3229322362 0.0125034212
15299910.0 -0.3188070343 0.0222734306 0.3818875723 0.0025938338 0.3822390676 0.0026668424 -0.3204279259 0.0198103263
20299880.0 -0.3153669432 0.0288609772 0.3851135226 0.0019990116 0.3852628163 0.0019837961 -0.3175042279 0.025916442
25299850.0 -0.3117074275 0.0349007698 0.3885046691 0.0004230531 0.3890817221 8.26165e-05 -0.314698902 0.0313736914
30299820.0 -0.3080961377 0.0394131921 0.3918173522 -0.0021404378 0.39170615 -0.0021845905 -0.3116899154 0.035619486
35299790.0 -0.3044425857 0.0436783637 0.3947544472 -0.0053287166 0.3952108452 -0.0052330162 -0.3089435033 0.0399701538
40299760.0 -0.3013590819 0.047076585 0.3985851281 -0.0085849693 0.3987061671 -0.0086859423 -0.3061727808 0.0433676255
45299730.0 -0.2979553164 0.0501083837 0.4012140201 -0.0124620201 0.4013131988 -0.0128485241 -0.3033808966 0.0467233497
50299700.0 -0.2947068172 0.0526881773 0.4037992948 -0.0169040691 0.4041439425 -0.0172001012 -0.3011987167 0.0497971997
55299670.0 -0.2921588675 0.055359472 0.4059583679 -0.021546431 0.4060972947 -0.0218131681 -0.2993920962 0.0522338589
60299640.0 -0.2898628388 0.0579808858 0.4080944684 -0.0268898297 0.4080895575 -0.0270269311 -0.2966641876 0.0550852722
65299610.0 -0.2872774929 0.0602940415 0.4101633908 -0.0314690746 0.4095943708 -0.0316378793 -0.2950185322 0.057473767
70299580.0 -0.2852639516 0.0619367588 0.410435875 -0.0362938883 0.4111309849 -0.0367533808 -0.2933589549 0.060045712
75299550.0 -0.2834627134 0.0642224013 0.4116126501 -0.0421640108 0.4120091558 -0.0421008659 -0.2915099119 0.062185428
80299520.0 -0.2816359251 0.0666511765 0.4128589479 -0.0473525887 0.4128248661 -0.0473716367 -0.2900644348 0.0650685317
85299490.0 -0.2797946296 0.0684741668 0.4131190666 -0.05260256 0.4137171875 -0.0524291116 -0.2888755115 0.0671903358
90299460.0 -0.2781855974 0.0710417009 0.4133778348 -0.0579862498 0.4137911942 -0.0577769597 -0.2876228999 0.0694420203
95299430.0 -0.2766768808 0.0726884422 0.4138221813 -0.062839737 0.4143232632 -0.0633507025 -0.2861660548 0.071848258
100299400.0 -0.2752487473 0.074715271 0.4139265295 -0.0680549031 0.41403858 -0.0683738388 -0.2850242753 0.0744288729
105299370.0 -0.2738117844 0.0768811624 0.4136562052 -0.0734656789 0.4143685714 -0.0734260042 -0.2836587475 0.076459404
110299340.0 -0.2724879389 0.0787120344 0.4136722707 -0.078153191 0.4142039263 -0.0782970149 -0.2829887657 0.0786485822
115299310.0 -0.2716678248 0.0812799346 0.4133794736 -0.0833863412 0.4137338276 -0.0835382143 -0.2820037481 0.0813599412
120299280.0 -0.2704606971 0.08337376 0.4132662566 -0.0891077686 0.4129315842 -0.0889575042 -0.2808583531 0.0833693706
125299250.0 -0.2689722998 0.0851710024 0.4120752509 -0.0939037184 0.4126188943 -0.0938373844 -0.2797351299 0.0860978052
130299220.0 -0.2681597276 0.0873377899 0.4118596758 -0.0991116017 0.412213433 -0.0995099208 -0.2787979556 0.0884533491
135299190.0 -0.267282293 0.0899651846 0.4113433263 -0.1036496493 0.4113586715 -0.1040648939 -0.2780041593 0.0906540668
140299160.0 -0.2662609397 0.0921558373 0.4104760028 -0.1091426979 0.4103816698 -0.1088501825 -0.2773750251 0.0931669262
145299130.0 -0.2653543713 0.094790763 0.4095458955 -0.1140763902 0.4097204595 -0.11385687 -0.2764186141 0.0960740383
150299100.0 -0.2641178516 0.0969396012 0.408473286 -0.1189614043 0.4082494254 -0.1191042568 -0.2753124928 0.0985577135
155299070.0 -0.2629701167 0.0994990241 0.4069350567 -0.1237344531 0.4074370261 -0.1237317204 -0.2743911266 0.1010073802
160299040.0 -0.2622283497 0.1020820363 0.4059692955 -0.128658091 0.4058949641 -0.1289407048 -0.2737512964 0.103844948
165299010.0 -0.2608825651 0.1042699136 0.4048388208 -0.1334031806 0.4048243976 -0.133650762 -0.2724239538 0.1061393944
170298980.0 -0.2603701478 0.1069673708 0.4031122841 -0.1385149817 0.4036143888 -0.1383067211 -0.2719388354 0.1087403801
175298950.0 -0.2589753412 0.1093290171 0.4022612444 -0.1431360946 0.4024125956 -0.1434297254 -0.2705714447 0.111855328
180298920.0 -0.2584228543 0.11187863 0.4006959507 -0.1479584187 0.4006695704 -0.1479198278 -0.2697591477 0.1140305595
185298890.0 -0.2570499107 0.1142039475 0.3993879833 -0.1526479466 0.398947217 -0.1525308919 -0.2685930234 0.1164759881
190298860.0 -0.2556250497 0.1170965126 0.3968338946 -0.1573539902 0.3975125826 -0.1573834225 -0.2674593831 0.1191810084
195298830.0 -0.2549856085 0.1194580618 0.396092028 -0.1617801691 0.3961327988 -0.1619731363 -0.2667020747 0.1221653454
200298800.0 -0.2534329616 0.121977977 0.3943926897 -0.1669801804 0.3943226192 -0.166590215 -0.2654288253 0.1244489735
205298770.0 -0.2528428097 0.1247369819 0.3921117825 -0.1709677109 0.3926111965 -0.170945439 -0.2641847908 0.127425239
210298740.0 -0.2515181824 0.1273744734 0.3906461269 -0.1757425563 0.390197692 -0.1756086258 -0.2635170457 0.1300817446
215298710.0 -0.2504817004 0.1299780731 0.3884402874 -0.1798589683 0.3887238234 -0.1801915624 -0.2620079365 0.132664503
220298680.0 -0.2488820868 0.1325678603 0.3864336694 -0.1848157068 0.386580117 -0.1848324595 -0.2609043776 0.1352475638
225298650.0 -0.2476003831 0.1354543501 0.3843426931 -0.1892507592 0.3848279096 -0.1887529377 -0.2597182798 0.1382838298
230298620.0 -0.2466307629 0.1378848381 0.3825479076 -0.1935065178 0.3829985973 -0.1936347651 -0.2584338661 0.1406008387
235298590.0 -0.2453170325 0.1405016456 0.3803249677 -0.1980726408 0.3808784663 -0.1979434285 -0.2571828702 0.1435788588
240298560.0 -0.2438225402 0.1432620201 0.3781699582 -0.2020791417 0.378495398 -0.2020061968 -0.2557875342 0.1459741453
245298530.0 -0.2427087284 0.1456241796 0.3759925666 -0.2065373303 0.3763945933 -0.2064359052 -0.2547755195 0.149023959
250298500.0 -0.2413393588 0.1482687375 0.3738922694 -0.2105993724 0.3740338538 -0.2108145349 -0.2531082406 0.1516031827
255298470.0 -0.2401229905 0.1512458522 0.3717659088 -0.2146870249 0.3720191764 -0.2153241185 -0.2517885981 0.1545438529
260298440.0 -0.2386871296 0.1533295068 0.3690961408 -0.2188625105 0.3694155793 -0.219144355 -0.2503394033 0.1566892215
265298410.0 -0.2372048696 0.1564423247 0.3668156753 -0.2235645637 0.3669663927 -0.2237532276 -0.2485802748 0.1596536113
270298380.0 -0.2359828827 0.1586660363 0.364454805 -0.2276050263 0.3643929605 -0.227421725 -0.2471901633 0.162566973
275298350.0 -0.2342663766 0.1614262454 0.3613663904 -0.231197172 0.361532217 -0.2315639045 -0.2455606699 0.1650420996
280298320.0 -0.2332126625 0.1641380175 0.359397704 -0.2351653151 0.3596862745 -0.2357079842 -0.2439114492 0.1676647674
285298290.0 -0.2315765518 0.1665986133 0.3567729696 -0.2392414416 0.3568712042 -0.2393086462 -0.2425510458 0.1704134419
290298260.0 -0.2298827515 0.1692722947 0.354624273 -0.2435069386 0.354020305 -0.2441591751 -0.240739409 0.1729678384
295298230.0 -0.2284798613 0.1711957577 0.3516556209 -0.2476184493 0.3520028608 -0.2480619799 -0.239362557 0.1756654439
300298200.0 -0.2268872636 0.1744272276 0.3488289591 -0.2519679667 0.349267273 -0.2518480663 -0.2374909688 0.1781891196
305298170.0 -0.2250190399 0.1763713129 0.346068045 -0.2556233937 0.3464430451 -0.2556553681 -0.2353134676 0.1804646977
310298140.0 -0.2232432228 0.1788387373 0.3436079677 -0.2593535324 0.3432674346 -0.2593120974 -0.2336073166 0.1830425508
315298110.0 -0.2213732749 0.1809359649 0.3402516528 -0.263741585 0.3405272981 -0.2636053309 -0.2317360721 0.1856004
320298080.0 -0.2198280786 0.1838718598 0.3369111814 -0.2675685083 0.3377372273 -0.2679320803 -0.2304914792 0.1881484146
325298050.0 -0.2186474183 0.1858792854 0.3344840964 -0.2712784184 0.3349616218 -0.2712269483 -0.2282435375 0.190536837
330298020.0 -0.2168123338 0.1884981639 0.33136512 -0.2747822902 0.3317594224 -0.2752602412 -0.226636025 0.1931425291
335297990.0 -0.2152595493 0.1910136621 0.3282354351 -0.2786597356 0.3285322648 -0.2786036443 -0.2245045684 0.1954891159
340297960.0 -0.2136442334 0.1932155096 0.3250905697 -0.2825244559 0.3250387423 -0.2824109119 -0.2227994357 0.1979474118
345297930.0 -0.2118691254 0.1956242685 0.3217982367 -0.2860399949 0.3219163667 -0.2860445963 -0.2209810258 0.2005293361
350297900.0 -0.2102728345 0.1978763488 0.3189602701 -0.2890949824 0.3189330287 -0.2891708613 -0.2192594946 0.2028142254
355297870.0 -0.2083994265 0.2002870808 0.3156713219 -0.2924081984 0.3158889138 -0.2925375849 -0.2168523274 0.2055479668
360297840.0 -0.2062978949 0.202667892 0.3120618445 -0.2962176635 0.3125046475 -0.2965517259 -0.2149428057 0.2080213721
365297810.0 -0.2046090244 0.2052075023 0.3090138949 -0.2998622944 0.309079295 -0.299799737 -0.2131900544 0.2102577173
370297780.0 -0.2024507675 0.2071789578 0.3053264523 -0.3031820047 0.3054349529 -0.3029098771 -0.2107705186 0.2128774102
375297750.0 -0.2005273129 0.2094814434 0.3020175165 -0.3060700923 0.3020196157 -0.306467659 -0.208581651 0.2151376768
380297720.0 -0.1986279702 0.2120671107 0.2989591981 -0.3097654788 0.298986412 -0.3098222496 -0.2062022166 0.2175122518
385297690.0 -0.1966238568 0.2140377358 0.2952377093 -0.3126170245 0.2955917234 -0.3132608261 -0.2042465997 0.2202433843
390297660.0 -0.1940823909 0.2162802131 0.2918883414 -0.3158825733 0.2922042743 -0.3163173124 -0.2018653118 0.2223369512
395297630.0 -0.1919376336 0.2187235444 0.2886618204 -0.3191494027 0.2883630198 -0.3190371654 -0.1996654847 0.2242958918
400297600.0 -0.1900068994 0.2204686055 0.2849811262 -0.3219764683 0.2850863338 -0.3225240194 -0.1973197033 0.2265483096
405297570.0 -0.1880723875 0.2223024622 0.2817286325 -0.3249175681 0.2817268026 -0.3257764724 -0.1948214884 0.2292922327
410297540.0 -0.1855891108 0.2248739694 0.2776809391 -0.3285426724 0.278104887 -0.3285212889 -0.1927899893 0.2312315899
415297510.0 -0.1836440029 0.2270385932 0.2741346231 -0.3317103371 0.2744892465 -0.3317421924 -0.1903824806 0.2333461864
420297480.0 -0.1811420429 0.2286933579 0.2704971641 -0.3347307006 0.2706209584 -0.3348564998 -0.1875480865 0.2360757665
425297450.0 -0.1785715778 0.2305104675 0.2668638703 -0.3375841503 0.2666954698 -0.3376155659 -0.1855694005 0.237671786
430297420.0 -0.1765094904 0.2325541131 0.2636872852 -0.3405607546 0.2633060174 -0.3402434444 -0.1825952611 0.2401360601
435297390.0 -0.1740708698 0.2345847046 0.2592403516 -0.3437845072 0.2595605488 -0.3433710601 -0.1806664815 0.2423391806
440297360.0 -0.1715493643 0.2367796333 0.2552744778 -0.3462980181 0.2555197597 -0.3462561101 -0.1781130779 0.2444323464
445297330.0 -0.1690349327 0.2383746648 0.2517382624 -0.3486463698 0.2517719169 -0.3490319681 -0.1753499093 0.2462903922
450297300.0 -0.1664513721 0.2402239818 0.247640141 -0.3513052265 0.2481312874 -0.3514627309 -0.1728057111 0.2483522546
455297270.0 -0.1646058779 0.2418983227 0.2442081492 -0.3540888015 0.2443766767 -0.3544963728 -0.1701918635 0.250568902
460297240.0 -0.1615176 0.2441045509 0.2399087425 -0.357384661 0.2402744777 -0.357280382 -0.1676409361 0.2520300835
465297210.0 -0.1590204834 0.245782987 0.2359607541 -0.3597563452 0.2357187864 -0.3597130824 -0.1647112818 0.2543833682
470297180.0 -0.156533395 0.2475538266 0.2319493967 -0.3618153091 0.2324098998 -0.3625552928 -0.1623009509 0.2564031717
475297150.0 -0.1542275147 0.2496040159 0.2282831599 -0.364521253 0.2280433212 -0.3648096263 -0.1592544677 0.2582560739
480297120.0 -0.1510875503 0.2513240789 0.2240024763 -0.3670626943 0.2242582546 -0.367021707 -0.157025771 0.2595090899
485297090.0 -0.1484955452 0.2526007697 0.2200568977 -0.3694056314 0.2199722207 -0.3695067353 -0.1542874418 0.2617660799
490297060.0 -0.1453132244 0.2545532136 0.2156674229 -0.3720156419 0.2163453484 -0.3720518029 -0.1514069028 0.2633360931
495297030.0 -0.1431481819 0.2559023054 0.2122219314 -0.3739711319 0.2120002625 -0.3742964673 -0.1484644437 0.2652045237
500297000.0 -0.1404035472 0.2576286374 0.2079817156 -0.3762343725 0.2080183094 -0.3767561523 -0.1460396468 0.2670276601
505296970.0 -0.1372767177 0.2595640699 0.2035830786 -0.3788454998 0.2035498619 -0.3783433791 -0.1426006704 0.2684064684
510296940.0 -0.1345591459 0.2609278695 0.1996252208 -0.3812183854 0.1994959234 -0.3813797781 -0.13971961 0.2705820624
515296910.0 -0.1318630818 0.2624496678 0.1950596977 -0.3829711407 0.1948966364 -0.3831482406 -0.1372349231 0.2717610796
520296880.0 -0.1288852453 0.264511419 0.1910653594 -0.3851927153 0.1910687822 -0.3853933582 -0.1340505127 0.2737154031
525296850.0 -0.1261073583 0.265486309 0.1865210029 -0.3868966962 0.1863248874 -0.3871827933 -0.1309550954 0.2748038745
530296820.0 -0.1233277807 0.2670491315 0.1823382323 -0.3891202142 0.1825374627 -0.3889585928 -0.1286180734 0.2761962485
535296790.0 -0.1199321966 0.2683571968 0.1778931109 -0.3906196932 0.1779435553 -0.39102086 -0.1252934664 0.2781227342
540296760.0 -0.1173022591 0.2698800738 0.1740202813 -0.3930599466 0.1735271875 -0.3930289504 -0.1224943983 0.2790712231
545296730.0 -0.1146676687 0.2718961354 0.1697150845 -0.3947452383 0.1693373087 -0.3944310641 -0.1194264952 0.2808134481
550296700.0 -0.1110010937 0.272898263 0.1651843127 -0.3965277814 0.1648406325 -0.396641783 -0.1163075997 0.2820916043
555296670.0 -0.1087261274 0.2741817785 0.1610566924 -0.398368757 0.1609776771 -0.3981814437 -0.1138112345 0.28316579
560296640.0 -0.1049522944 0.2751865726 0.1560913 -0.3999025898 0.1565605111 -0.4000675331 -0.1106451392 0.2849529033
565296610.0 -0.1027735387 0.2767790623 0.1522328276 -0.4016508646 0.1520854327 -0.4012918259 -0.107494992 0.286455237
570296580.0 -0.0994247706 0.2784199397 0.147690818 -0.4030988237 0.1476853567 -0.4032244045 -0.1046646252 0.2873535016
575296550.0 -0.0961579175 0.2791056941 0.1432745525 -0.4046454375 0.1433960802 -0.4050781208 -0.1015602508 0.2886478177
580296520.0 -0.0934872581 0.2807143781 0.1389435643 -0.4063686526 0.1386044159 -0.4063422689 -0.0986532009 0.2896163648
585296490.0 -0.0899304698 0.2817187279 0.1344929908 -0.4077258705 0.1341611807 -0.4074956398 -0.0951714984 0.2910437204
590296460.0 -0.0867974693 0.2828186185 0.129847705 -0.4089605916 0.1297425445 -0.4093551873 -0.0922523599 0.2920631869
595296430.0 -0.0838057743 0.2839526145 0.1254554602 -0.4101567274 0.1248837924 -0.4106101149 -0.0891974729 0.2934254071
600296400.0 -0.0807685518 0.2851470492 0.1207197364 -0.4115223764 0.1208181997 -0.4116923325 -0.0862559583 0.2942315781
605296370.0 -0.0777840456 0.286353995 0.1168906513 -0.4125680655 0.116236705 -0.4131628564 -0.083077427 0.2952663958
610296340.0 -0.0743729251 0.287590217 0.1122869866 -0.4137190125 0.1122048633 -0.4142043799 -0.0800153329 0.2963126293
615296310.0 -0.0710735713 0.2884561332 0.1070887375 -0.4152132349 0.1071402839 -0.4152703115 -0.0767208672 0.2973787242
620296280.0 -0.0684963744 0.2894578841 0.1024792003 -0.4163378344 0.1026206228 -0.4162123476 -0.0739336835 0.2983996704
625296250.0 -0.0655325246 0.2905201368 0.0981936993 -0.4174435447 0.0982483031 -0.4173860464 -0.0706696755 0.2990409505
630296220.0 -0.062050579 0.2914413118 0.0936346849 -0.4182637673 0.0933210208 -0.4183281738 -0.0672207349 0.3000518451
635296190.0 -0.0589903647 0.292390957 0.0893310823 -0.4192708629 0.0890812442 -0.4192806784 -0.0643577225 0.3008588911
640296160.0 -0.0560238015 0.2930984677 0.0844901779 -0.4202131059 0.084426212 -0.4203226543 -0.0612210487 0.30144681
645296130.0 -0.0524874717 0.2945420102 0.0798888662 -0.4211211838 0.0799838396 -0.4209868582 -0.058432515 0.3019460709
650296100.0 -0.0494935941 0.2947827478 0.0754652697 -0.422142629 0.0748448437 -0.4221119058 -0.0544205295 0.3029699019
655296070.0 -0.0465569907 0.2956522672 0.0705638394 -0.4226672726 0.0705554865 -0.4226836993 -0.0516209967 0.3042540072
660296040.0 -0.0435861465 0.2968369318 0.0663463761 -0.4236350326 0.0662304702 -0.4235681815 -0.0482685974 0.3043700022
665296010.0 -0.0405036623 0.2973012947 0.0614572003 -0.4236278609 0.0613759715 -0.4239479389 -0.0453651997 0.3050750427
670295980.0 -0.0371794384 0.2980332031 0.05683763 -0.4248028232 0.0566955343 -0.4244060908 -0.0423681974 0.3056935287
675295950.0 -0.0342215845 0.2989378781 0.0523286087 -0.4248362645 0.0522964282 -0.4251065873 -0.0388367179 0.3064318431
680295920.0 -0.0311469137 0.2995723848 0.0478562678 -0.4251213728 0.0477161364 -0.4254319211 -0.0354260608 0.3065124637
685295890.0 -0.0276597152 0.3001984581 0.0430520135 -0.4262331533 0.0428156597 -0.4261382201 -0.0325020691 0.307511298
690295860.0 -0.0248150338 0.3004888552 0.0389183083 -0.4264328296 0.0381319782 -0.4267433597 -0.0292958868 0.307838841
695295830.0 -0.0214874471 0.300998526 0.03434124 -0.4269787459 0.0335834333 -0.4268843061 -0.0259233037 0.3086109732
700295800.0 -0.0183490807 0.3017075329 0.0297821546 -0.4271681153 0.0293507899 -0.4273287617 -0.0225778279 0.3088059477
705295770.0 -0.0154893334 0.3021065241 0.0247950241 -0.4275783404 0.02466388 -0.4277077995 -0.0193320347 0.3092969633
710295740.0 -0.0125604046 0.3022637633 0.0207598459 -0.4275134033 0.0195894113 -0.428005027 -0.0161994699 0.309726339
715295710.0 -0.0091845557 0.3031043731 0.015759237 -0.4280329657 0.0153012516 -0.4280560792 -0.0129290465 0.3096524852
720295680.0 -0.0056717585 0.3034411216 0.0105688443 -0.4278639717 0.0104623695 -0.4279721337 -0.0096928817 0.3097161253
725295650.0 -0.0032202836 0.3036140749 0.0067902814 -0.4278931184 0.006216293 -0.4281985165 -0.0064395471 0.3108469194
730295620.0 -0.000463361 0.3038816461 0.0015486946 -0.4277181864 0.0016506786 -0.4275477004 -0.0035053535 0.3109403973
735295590.0 0.0029647657 0.3045272529 -0.0029099184 -0.4279998082 -0.0030723029 -0.4279070103 -1.81541e-05 0.3104750209
740295560.0 0.0057832218 0.3041403284 -0.0073338164 -0.4277513147 -0.0074250745 -0.428227189 0.0030025795 0.311238243
745295530.0 0.0093183586 0.3047351207 -0.0120157293 -0.4273377892 -0.0117548518 -0.4276566164 0.0060467838 0.3110677903
750295500.0 0.0120066276 0.3048715999 -0.016347263 -0.427442306 -0.0168971142 -0.4277757906 0.0094868064 0.3111682077
755295470.0 0.0153042742 0.3050139333 -0.0212028685 -0.4275507814 -0.0214057328 -0.4277084615 0.0127732071 0.3114772435
760295440.0 0.018096249 0.305254726 -0.0259846929 -0.4271003227 -0.0260556076 -0.4267976755 0.0162152203 0.3106998361
765295410.0 0.0214255586 0.3049732118 -0.030489324 -0.4266933728 -0.0302999803 -0.4269301077 0.0195742431 0.3109749049
770295380.0 0.0245223643 0.3050494603 -0.0349383666 -0.4262108377 -0.0349954123 -0.4264738749 0.0225926891 0.3109789699
775295350.0 0.0274175861 0.3052391514 -0.0397351802 -0.4256645479 -0.039562253 -0.4257408401 0.0258072671 0.3109833025
780295320.0 0.0304118431 0.3050682973 -0.0438752609 -0.425388225 -0.044106781 -0.425294265 0.0292368204 0.310922235
785295290.0 0.0335846548 0.3047872952 -0.0485572046 -0.4249267052 -0.0487378668 -0.4249271727 0.0321357892 0.3105719714
790295260.0 0.0366463297 0.3043601207 -0.0533602829 -0.4239768123 -0.0532245685 -0.42435682 0.0353644307 0.310834149
795295230.0 0.0397947825 0.3041733034 -0.0578335018 -0.4237743425 -0.057964427 -0.4237191498 0.0386235764 0.3099936751
800295200.0 0.0426882137 0.304416107 -0.062021771 -0.4225564892 -0.0624768457 -0.4231335457 0.0418610806 0.3099093621
805295170.0 0.045488079 0.3042428487 -0.0669193499 -0.4223588234 -0.066758793 -0.4224795047 0.0457373757 0.3092336122
810295140.0 0.0488685019 0.3038495646 -0.0715530946 -0.4212353032 -0.0715994711 -0.421371934 0.0487670825 0.3092919114
815295110.0 0.0518142546 0.3035028016 -0.0756797107 -0.4206204709 -0.0759413563 -0.4207830178 0.0518342299 0.3088129114
820295080.0 0.0549524665 0.3031656341 -0.0799613205 -0.419496418 -0.080403595 -0.4199342545 0.0545506668 0.3088139548
825295050.0 0.0576787146 0.3026251491 -0.0845625881 -0.4190085478 -0.0850155636 -0.4190012393 0.0584013681 0.3084415624
830295020.0 0.0606818854 0.3021942131 -0.0891885047 -0.4176551956 -0.0894750535 -0.4179608749 0.0613909075 0.3072537553
