!Created with skrf (http://scikit-rf.org).
# Hz S RI R 50.0 
!freq ReS11 ImS11 ReS21 ImS21 ReS12 ImS12 ReS22 ImS22
300000.0 -0.2326925893 -0.1333573162 0.4660535073 0.0872522205 0.4668193875 0.0858383898 -0.2355798531 -0.1309368475
5299970.0 -0.2418410779 0.0051005446 0.4749053243 0.0060362186 0.4753720612 0.0058177445 -0.2441418384 0.0046677812
10299940.0 -0.2388810507 0.0187067351 0.4775269587 0.0069335744 0.4773038902 0.0070904245 -0.2409449666 0.0173917585
15299910.0 -0.2336781211 0.0288623928 0.4806861299 0.0078812585 0.4808666956 0.0081332511 -0.236613021 0.0263539057
20299880.0 -0.2285967536 0.0369588717 0.4851347643 0.0082401913 0.4856715766 0.0082029559 -0.2318035693 0.0338321865
25299850.0 -0.2225719024 0.043553165 0.4908286035 0.0077741338 0.4907355375 0.0072814391 -0.2268926142 0.039876355
30299820.0 -0.2169832716 0.048758667 0.495925048 0.0044862626 0.4962939775 0.0051849568 -0.2217496036 0.0448525426
35299790.0 -0.2112880448 0.0528072823 0.5009013488 0.0023685915 0.5015278275 0.0019475049 -0.2169114541 0.0491455608
40299760.0 -0.2061155398 0.056043794 0.506312072 -0.0015559939 0.5068519203 -0.0019874257 -0.2117118166 0.0522177192
45299730.0 -0.2011076656 0.0586899769 0.5112506361 -0.0064704152 0.5111292243 -0.0068521556 -0.2069766346 0.0548713659
50299700.0 -0.1958517146 0.0607973219 0.5154369168 -0.0122953673 0.5151284188 -0.0127670027 -0.2027764343 0.0569992855
55299670.0 -0.191878726 0.0624131933 0.5188750647 -0.0180594322 0.5188725298 -0.0185492508 -0.1991443396 0.0584005689
60299640.0 -0.1878596172 0.0641262274 0.5224121727 -0.0246761227 0.5224256886 -0.0247469092 -0.19537643 0.0598320121
65299610.0 -0.183992854 0.0652494258 0.5257291167 -0.0310080607 0.5253751269 -0.0309424318 -0.1915604414 0.0607676325
70299580.0 -0.1809100424 0.0659286428 0.5277007966 -0.0371100132 0.5277740966 -0.0375045155 -0.1890201216 0.0619565731
75299550.0 -0.1779365846 0.0667368975 0.5291321508 -0.0445995125 0.5296721768 -0.0447089087 -0.1860278565 0.0628961251
80299520.0 -0.1753668552 0.0678660204 0.5313312759 -0.0510788141 0.5319107235 -0.0515940376 -0.1836165456 0.0636395266
85299490.0 -0.1725731973 0.0684614505 0.5326845639 -0.0583557637 0.5326906907 -0.0583481469 -0.1814687619 0.0639213117
90299460.0 -0.1701924737 0.0690113291 0.5337532224 -0.0647653711 0.5340596028 -0.0649578117 -0.1793581141 0.0650401924
95299430.0 -0.1680233178 0.0694230002 0.5344505014 -0.0719537508 0.5348695615 -0.0722128012 -0.1773178071 0.0657008689
100299400.0 -0.165898509 0.0700109177 0.5345949875 -0.078799187 0.5351213501 -0.0789652661 -0.1758172864 0.0666370605
105299370.0 -0.1640681067 0.0709018901 0.5348779725 -0.0856574607 0.5360580798 -0.0858369588 -0.1738887429 0.0666639992
110299340.0 -0.1621982426 0.0712525008 0.5353375914 -0.0920002758 0.5359214575 -0.0921716591 -0.1728352184 0.067135998
115299310.0 -0.1607968982 0.0725197683 0.5355048674 -0.099311319 0.5353111043 -0.0995575701 -0.1713480738 0.0682941289
120299280.0 -0.1592131142 0.0735285372 0.5355435412 -0.1066431816 0.5349356556 -0.1066178676 -0.1698886005 0.0682899199
125299250.0 -0.158183678 0.073649665 0.5348955662 -0.1127267846 0.5347821873 -0.1125697291 -0.1686815815 0.0697032576
130299220.0 -0.1566050094 0.0746914007 0.5342393469 -0.1197677965 0.5339364145 -0.1201703112 -0.1676514867 0.0704720592
135299190.0 -0.1555630266 0.0756265878 0.5338951696 -0.1256841807 0.5337464755 -0.1266631008 -0.1664465934 0.0710126419
140299160.0 -0.1542816956 0.0768764878 0.5329671422 -0.1330403427 0.5329627075 -0.1327245172 -0.1662105172 0.071781381
145299130.0 -0.1535355213 0.0779905749 0.5318300893 -0.139152522 0.5320127854 -0.1394335348 -0.1648247449 0.0725110626
150299100.0 -0.1520760937 0.0789034138 0.5307378334 -0.1460258651 0.5308052907 -0.1461393954 -0.1641670533 0.0739751574
155299070.0 -0.1509936011 0.0800322822 0.5290304042 -0.1522541153 0.5297194286 -0.152674777 -0.162881034 0.0746867174
160299040.0 -0.1499576197 0.0811937442 0.5282914195 -0.1587785524 0.5282983053 -0.1590142007 -0.1625886158 0.07621038
165299010.0 -0.1486287713 0.0823910429 0.5268737645 -0.1654694673 0.5267131241 -0.1655812544 -0.1614172249 0.0765817514
170298980.0 -0.1478508726 0.0835636987 0.5248181809 -0.1718461087 0.5253017556 -0.1720899891 -0.1609567519 0.0780273868
175298950.0 -0.146830974 0.0847157189 0.5234055676 -0.1777420034 0.523799061 -0.1784422666 -0.1598546007 0.0794774203
180298920.0 -0.146008094 0.0861328127 0.5218852652 -0.1844519088 0.5219096689 -0.1847188381 -0.1594716636 0.0800484229
185298890.0 -0.1451633146 0.0873056524 0.5201973626 -0.1903675597 0.5198973433 -0.1902520621 -0.1584196279 0.0809947368
190298860.0 -0.1437953327 0.0889024833 0.5178720682 -0.1966579602 0.5182131123 -0.1965602957 -0.1579262801 0.0823388521
195298830.0 -0.1429083373 0.0900664304 0.515969186 -0.2026647906 0.5165012883 -0.2029239576 -0.1572114259 0.0836823666
200298800.0 -0.1418784434 0.0912200209 0.5143769882 -0.2094617808 0.5139301732 -0.2090543511 -0.1566026531 0.0846520658
205298770.0 -0.1414287532 0.0924377738 0.511688705 -0.2147998829 0.5120497225 -0.2148089388 -0.1554912291 0.0860152422
210298740.0 -0.1401433926 0.0940103314 0.5093878479 -0.2209332057 0.5093746365 -0.2212489459 -0.1551896706 0.0868809093
215298710.0 -0.1392637506 0.0955711896 0.5069084123 -0.2265994243 0.5071314302 -0.227375825 -0.154191563 0.0883696287
220298680.0 -0.1380871645 0.096967857 0.5042277726 -0.2327400235 0.5046432794 -0.2326679517 -0.1533940712 0.0897576218
225298650.0 -0.1371114787 0.0983925403 0.5017791655 -0.2381330457 0.5022270569 -0.2383429922 -0.1528014078 0.0907714109
230298620.0 -0.1361784286 0.0997457979 0.4999368653 -0.244387261 0.5001857998 -0.2445416255 -0.1524126619 0.0919443586
235298590.0 -0.1355212492 0.1012181952 0.497450559 -0.2503515922 0.497161506 -0.2503175362 -0.1509505496 0.0933913668
240298560.0 -0.1341886249 0.1028280502 0.494483977 -0.2558582779 0.4941645181 -0.2558662678 -0.1505096411 0.0945325231
245298530.0 -0.1331257154 0.1042206745 0.4918496486 -0.2618431751 0.4919539016 -0.2615495806 -0.1497299446 0.0959212417
250298500.0 -0.1323278579 0.1055397783 0.4890583188 -0.2670257645 0.4891103478 -0.267117533 -0.1488278836 0.0973236652
255298470.0 -0.1312291187 0.107131297 0.4862359699 -0.2726094221 0.4866753193 -0.2728665019 -0.1481292306 0.0988608292
260298440.0 -0.1299858112 0.1083578138 0.4830540755 -0.2776013286 0.4833750782 -0.2779881793 -0.1475608756 0.0998622337
265298410.0 -0.1294637999 0.1101447313 0.479946051 -0.2841764842 0.4798559471 -0.283955324 -0.1458566009 0.1009314011
270298380.0 -0.1281817799 0.1112128553 0.4771444998 -0.2892113267 0.476755504 -0.2890889688 -0.1454175793 0.1028112714
275298350.0 -0.127018116 0.1129937584 0.473794141 -0.294134554 0.473577388 -0.2944454995 -0.1444974088 0.1039256102
280298320.0 -0.1263498517 0.1143473673 0.4706715686 -0.2994008675 0.4712509515 -0.2998982022 -0.1434374074 0.1055845214
285298290.0 -0.1250663688 0.1159672197 0.4673114169 -0.3049372748 0.4678802123 -0.3047516745 -0.1426552057 0.1068695925
290298260.0 -0.1235470803 0.1173472551 0.4646092794 -0.310357837 0.4642594194 -0.3104200303 -0.1415543085 0.1080400499
295298230.0 -0.1226945587 0.1186851799 0.4607106091 -0.3158912453 0.4610955613 -0.3161695235 -0.140736617 0.1094463168
300298200.0 -0.121379332 0.1201996633 0.4577092538 -0.3208397702 0.4576544148 -0.3212496863 -0.1397397874 0.1108497724
305298170.0 -0.1200532985 0.1211141415 0.4538886847 -0.3261889546 0.4544156232 -0.3264406011 -0.1385535181 0.1114588981
310298140.0 -0.1184462489 0.1225736048 0.4505772195 -0.3310437961 0.4508466489 -0.3311300973 -0.1375641106 0.1130520557
315298110.0 -0.1177905636 0.1235225766 0.4468893548 -0.3368559919 0.446852778 -0.3367860413 -0.1364781876 0.1143136508
320298080.0 -0.1163930933 0.1251395282 0.4428566634 -0.3422676688 0.4434765755 -0.3420750043 -0.1356368608 0.1153537306
325298050.0 -0.1158363691 0.1259361081 0.4391383731 -0.3468069163 0.4397565343 -0.3469337055 -0.1346979283 0.116659343
330298020.0 -0.1146895206 0.1275686021 0.4353337283 -0.3520537912 0.4358810365 -0.3518909668 -0.1338862852 0.1177583264
335297990.0 -0.1133348441 0.129188506 0.4310246971 -0.3568144612 0.4316224046 -0.3569920375 -0.1328277231 0.1195481693
340297960.0 -0.1124507171 0.1301622486 0.4269124085 -0.3615404016 0.4268085212 -0.3617533604 -0.1318235097 0.1208470402
345297930.0 -0.1112306807 0.131771518 0.4230907612 -0.3664444187 0.4231341922 -0.3661795146 -0.1309431703 0.1218734678
350297900.0 -0.110454417 0.1327783278 0.419683384 -0.3702565975 0.4194992893 -0.3705172653 -0.1298664995 0.1229866988
355297870.0 -0.1088914355 0.1340240895 0.4152636515 -0.3745345474 0.4151606914 -0.3751355153 -0.1287438056 0.1248374713
360297840.0 -0.1073372138 0.1356215621 0.4104735457 -0.3799221701 0.4111075396 -0.3799808724 -0.1278751527 0.1262505864
365297810.0 -0.1061846821 0.1372049504 0.4065319016 -0.3845376349 0.406903464 -0.3844917025 -0.1270701731 0.1274776973
370297780.0 -0.1046602429 0.1384833257 0.4021174161 -0.3892003832 0.4028320157 -0.3888474376 -0.1257109914 0.1287008992
375297750.0 -0.1034134573 0.1396097528 0.3984340759 -0.3925758817 0.3983618022 -0.3930766049 -0.1243424747 0.1302023912
380297720.0 -0.1023715274 0.1411825474 0.3943414702 -0.3977849271 0.3937808162 -0.3978120171 -0.1233435274 0.1319730572
385297690.0 -0.1007745168 0.1422120094 0.3893124058 -0.4017665731 0.3895183814 -0.4024670598 -0.1218370526 0.1330748625
390297660.0 -0.0991759153 0.1433032469 0.3847201313 -0.4054187575 0.385316039 -0.4061381656 -0.1204268277 0.1341448766
395297630.0 -0.097424633 0.1445556575 0.380754207 -0.4099677975 0.3806138887 -0.4100241283 -0.1195703346 0.1351784821
400297600.0 -0.0965080394 0.1459311149 0.376532365 -0.4145011955 0.3761839443 -0.4142996989 -0.1180894772 0.1366961323
405297570.0 -0.0949258831 0.1464283825 0.3720464711 -0.4179980161 0.3717902383 -0.4183520543 -0.1168318271 0.1382959695
410297540.0 -0.0930181819 0.1483039795 0.3669115529 -0.4228103562 0.3673615507 -0.422458378 -0.1155988372 0.1394757505
415297510.0 -0.0917758986 0.1492052187 0.3622048998 -0.4264061641 0.3628804318 -0.4266460139 -0.1144883647 0.1408314774
420297480.0 -0.0902835623 0.1499752275 0.3576584473 -0.4305760277 0.3578937722 -0.4303974853 -0.1125636927 0.1421217037
425297450.0 -0.0884021012 0.1512153217 0.3532342809 -0.4338440098 0.3529428499 -0.4342621214 -0.1115517571 0.142847983
430297420.0 -0.0870220885 0.1523360412 0.3487108536 -0.4385288458 0.348540801 -0.4380840644 -0.1096399586 0.1444966426
435297390.0 -0.0852589885 0.1533343829 0.3431668243 -0.4423945762 0.3431833695 -0.4419443081 -0.1089044406 0.1459633416
440297360.0 -0.0833180012 0.1541213248 0.3382987063 -0.4459048427 0.3385488876 -0.4459381034 -0.1073971353 0.1472239919
445297330.0 -0.0816481251 0.1550929365 0.3341182878 -0.4491717338 0.3336426241 -0.4498358275 -0.1054005027 0.1482895313
450297300.0 -0.0799331713 0.1564015019 0.3289372515 -0.4528831184 0.3294075972 -0.4525008318 -0.1042828549 0.1493825697
455297270.0 -0.0786288165 0.1572960747 0.3238063262 -0.4567101622 0.3241956126 -0.4566125931 -0.1027265183 0.1506718132
460297240.0 -0.0765874093 0.1582317915 0.3191840899 -0.4603111491 0.3190607916 -0.4603296266 -0.1017163039 0.1514021587
465297210.0 -0.074979955 0.1592489359 0.3131940563 -0.4633216615 0.3135836843 -0.4635657818 -0.0997374073 0.1533666073
470297180.0 -0.0730788044 0.1600732624 0.3085036716 -0.4663598096 0.3091157735 -0.4667901746 -0.0983012657 0.1538330906
475297150.0 -0.0718633925 0.1613141049 0.3034208069 -0.4702821156 0.303506702 -0.4702040574 -0.0967248817 0.1550632873
480297120.0 -0.0693978636 0.1623278415 0.2982514047 -0.4735154689 0.2985123122 -0.4733271146 -0.095306855 0.1558181115
485297090.0 -0.0672756358 0.1625582508 0.2931288755 -0.4768843791 0.2934020956 -0.4766499293 -0.0939097953 0.157239042
490297060.0 -0.0651305893 0.1639375623 0.2873294517 -0.4799245859 0.2879116225 -0.4796541296 -0.0923922908 0.1578372433
495297030.0 -0.0642295634 0.1643172233 0.28288795 -0.4831417243 0.2824650121 -0.483298999 -0.0905674542 0.1590934041
500297000.0 -0.0622624916 0.1654958413 0.2775154923 -0.4857380358 0.2775139006 -0.4859948661 -0.0888715424 0.1602447206
505296970.0 -0.0598229558 0.1662213294 0.2723738488 -0.4893019855 0.2725603921 -0.4886808458 -0.0876346839 0.1606012137
510296940.0 -0.0581732582 0.1669321948 0.2668688584 -0.4923524887 0.2671778219 -0.4925223344 -0.0856430864 0.1625307488
515296910.0 -0.0564045839 0.1678192806 0.2610761291 -0.4951110345 0.2612628246 -0.4949183959 -0.084443192 0.162670713
520296880.0 -0.0542382819 0.1686099703 0.2560555601 -0.4974399012 0.2560019294 -0.4978294496 -0.0824218145 0.1645200488
525296850.0 -0.0522033692 0.1692807244 0.250730454 -0.5003480995 0.2499341773 -0.5000603854 -0.0806993962 0.1647760315
530296820.0 -0.0504671901 0.1697557357 0.2449136532 -0.5029659081 0.2451501823 -0.5029459916 -0.0794607782 0.1658407951
535296790.0 -0.0479668817 0.1707651381 0.2396484745 -0.5056435564 0.2395583636 -0.5056909348 -0.0773029582 0.1670656705
540296760.0 -0.0458236696 0.171361789 0.2341616374 -0.5080639607 0.2339148596 -0.507958694 -0.075905204 0.1675617787
545296730.0 -0.0445734255 0.1724820659 0.2281730488 -0.5103296205 0.2285657265 -0.5102982007 -0.0742260554 0.1684923467
550296700.0 -0.042141513 0.1730383621 0.2228007492 -0.5131636523 0.2226760654 -0.51330851 -0.0720949397 0.1693430011
555296670.0 -0.0402165892 0.1734150906 0.2172753176 -0.5156668936 0.2173030145 -0.5152714502 -0.0709215498 0.1696211302
560296640.0 -0.0379885353 0.173949681 0.2114573454 -0.5176597799 0.2119935776 -0.517830863 -0.0691997219 0.170791245
565296610.0 -0.0366762306 0.1747975933 0.2062225147 -0.5200903814 0.2063679598 -0.519496616 -0.0672401198 0.1718336637
570296580.0 -0.0344159415 0.1752300516 0.2005237615 -0.5215392237 0.2003818139 -0.5221878628 -0.0657553735 0.1724270198
575296550.0 -0.0322388963 0.1757429889 0.1949770074 -0.5242896108 0.1944860418 -0.5240073837 -0.0639470583 0.1730681795
580296520.0 -0.0302176018 0.176496841 0.1888017125 -0.5260669303 0.1886896487 -0.526574619 -0.0625556548 0.1739388717
585296490.0 -0.0281064704 0.1770355041 0.1836129281 -0.5277807212 0.1827675253 -0.5281846325 -0.0601720217 0.1748160637
590296460.0 -0.0256811644 0.1773817106 0.17770337 -0.530162052 0.1776915124 -0.5304000901 -0.0591215493 0.1752752207
595296430.0 -0.0233905878 0.1782169625 0.171010998 -0.5320811274 0.1713053399 -0.532324951 -0.0574120941 0.1761913967
600296400.0 -0.0215561321 0.1782408457 0.1660474023 -0.5336685855 0.1657682067 -0.5337256971 -0.0553038116 0.1765868296
605296370.0 -0.0196647583 0.1791472672 0.160514776 -0.5353379333 0.1601647152 -0.5358529413 -0.0535108785 0.1775194139
610296340.0 -0.0174447905 0.179733128 0.1545067724 -0.5369514733 0.1548127981 -0.5369901719 -0.0523063147 0.1781315012
615296310.0 -0.0152233031 0.1797743725 0.1487528936 -0.5385661277 0.1481864166 -0.5388035652 -0.0499958786 0.1788852033
620296280.0 -0.0135270806 0.180768775 0.1424668152 -0.540323027 0.1423439801 -0.5404159179 -0.0486287679 0.1798409976
625296250.0 -0.0116856501 0.1806946365 0.1369446879 -0.5418826133 0.1366445199 -0.5419094792 -0.0467046143 0.1798870292
630296220.0 -0.0091735272 0.181113006 0.1304391415 -0.5435345603 0.1306277943 -0.5429828466 -0.0449147078 0.1808329041
635296190.0 -0.0075618424 0.1815514626 0.1252106082 -0.5446750086 0.1250088752 -0.5445297404 -0.0431308025 0.1812598302
640296160.0 -0.0054838795 0.1816645982 0.1189168094 -0.5457963472 0.1187588672 -0.5459555045 -0.0415279907 0.1815300152
645296130.0 -0.0030567733 0.1828163623 0.1131119003 -0.5471576523 0.1130600475 -0.5469367463 -0.0397141762 0.1817973476
650296100.0 -0.0012685463 0.1823936964 0.1076737262 -0.5486049985 0.1067643809 -0.5485841728 -0.0374168559 0.182672351
655296070.0 0.0006480296 0.1830834496 0.1012663777 -0.5495609289 0.1011357802 -0.5490580514 -0.0361591464 0.1834281588
660296040.0 0.0029079447 0.1833084033 0.0952211564 -0.5506784334 0.0953710974 -0.5507978185 -0.0345302559 0.1834763526
665296010.0 0.0052322145 0.1836494213 0.0887602581 -0.5511995491 0.0890423062 -0.5513123674 -0.0323556301 0.1840798959
670295980.0 0.007011054 0.1838654183 0.0833520479 -0.5522644174 0.0831469364 -0.5515513911 -0.030886235 0.1843058134
675295950.0 0.0090174525 0.1839135778 0.0777263987 -0.5526651891 0.0773061396 -0.5530531935 -0.0290333109 0.1851778078
680295920.0 0.0108212942 0.1839252167 0.0717751701 -0.5533801047 0.0714215854 -0.5538325757 -0.0268919673 0.1852463347
685295890.0 0.0132564755 0.1843756652 0.0653734503 -0.554714824 0.0651652676 -0.5547437097 -0.0252159674 0.1861142169
690295860.0 0.0151343866 0.1846161828 0.0595894704 -0.5553430484 0.0590163356 -0.5555433779 -0.0235467081 0.186191267
695295830.0 0.0172685398 0.1845028148 0.0540969691 -0.5558592876 0.053422624 -0.5556556383 -0.0218340145 0.1866469966
700295800.0 0.0194073146 0.1848133468 0.0477922417 -0.5564575359 0.0476555966 -0.5562164716 -0.0196975825 0.1871111471
705295770.0 0.0209944439 0.1848966665 0.0417154344 -0.5568403933 0.0413669836 -0.556807472 -0.0180992997 0.1877645092
710295740.0 0.0229341889 0.1845636766 0.0357384842 -0.5573873068 0.0353743009 -0.5574521541 -0.0162134064 0.1877580916
715295710.0 0.0253795924 0.1847304818 0.0297302171 -0.5576272849 0.0294691411 -0.5572565481 -0.0144707711 0.1879788433
720295680.0 0.027453477 0.184666647 0.0236257078 -0.5573477165 0.0233455631 -0.5581838095 -0.0125122378 0.1882286831
725295650.0 0.0287910072 0.1850724646 0.0180146044 -0.5581330331 0.0177205381 -0.5580842255 -0.0111103957 0.1890649774
730295620.0 0.0306418386 0.1845500071 0.0113807325 -0.5579359452 0.0118423496 -0.5577906615 -0.0093558638 0.1895346405
735295590.0 0.0330986613 0.184697571 0.0056615002 -0.558113557 0.0054353167 -0.558033651 -0.0072623177 0.1890479202
740295560.0 0.0348697125 0.1842711153 -0.0001526797 -0.5577109294 0.0001370635 -0.5586241966 -0.0056341227 0.1895805219
745295530.0 0.0369208703 0.1843406102 -0.0061189102 -0.5572630362 -0.0054803428 -0.5582878673 -0.0041446132 0.1895286647
750295500.0 0.0385344914 0.1843612769 -0.0119583198 -0.5581540026 -0.0124131852 -0.5577167917 -0.0021596831 0.1898898093
755295470.0 0.0405473755 0.184213464 -0.0179465085 -0.558345394 -0.0182774133 -0.5578898991 0.0002000175 0.190649648
760295440.0 0.0424624508 0.1842888779 -0.0243219506 -0.5576653297 -0.0244479117 -0.5573193546 0.0018051517 0.1898276344
765295410.0 0.0448809615 0.1833752151 -0.0302178084 -0.5571805817 -0.030121665 -0.5572990465 0.0037810705 0.1906017148
770295380.0 0.0464692765 0.183814138 -0.0360285412 -0.5568234576 -0.0362019602 -0.5573474857 0.0051224821 0.1905790701
775295350.0 0.0484039519 0.1829615581 -0.0422281226 -0.5563155505 -0.0418308925 -0.5559079915 0.007375749 0.1907286031
780295320.0 0.0502145975 0.182991921 -0.0475644688 -0.5554006938 -0.0478382748 -0.5559275665 0.0093480201 0.1905170877
785295290.0 0.0523035179 0.182508884 -0.0538620726 -0.5549367657 -0.0537837645 -0.555174186 0.0104219629 0.191106639
790295260.0 0.0541940701 0.1820213451 -0.0597834504 -0.5547376906 -0.0594143266 -0.5549583569 0.0126646184 0.1914357893
795295230.0 0.0558765758 0.1813861484 -0.0658761987 -0.5543624477 -0.0657149039 -0.5544238381 0.0146104198 0.1906526048
800295200.0 0.0579283407 0.1815735756 -0.0712946644 -0.5532189902 -0.0716531819 -0.5535432774 0.016249292 0.1909760852
805295170.0 0.059465025 0.1807349674 -0.0773543953 -0.552496919 -0.0776400771 -0.5526549631 0.0189370176 0.1906685727
810295140.0 0.0618453983 0.1804970364 -0.0838323362 -0.5515495541 -0.0837347716 -0.5516538997 0.0204751542 0.1910611346
815295110.0 0.0634476829 0.1802144353 -0.0892654133 -0.5506152609 -0.0890078869 -0.5507543078 0.0220283092 0.1909231208
820295080.0 0.0653813597 0.1795833133 -0.0944030645 -0.549326062 -0.0949798084 -0.5496503745 0.0229701349 0.1912875187
825295050.0 0.0671279549 0.178730456 -0.101170031 -0.5485059204 -0.1012263477 -0.5485610692 0.0260117001 0.191268901
830295020.0 0.0692138335 0.1782654021 -0.1072848685 -0.5472879306 -0.1070349676 -0.5471351998 0.027543559 0.1905861913
