!Created with skrf (http://scikit-rf.org).
# Hz S RI R 50.0 
!freq ReS11 ImS11 ReS21 ImS21 ReS12 ImS12 ReS22 ImS22
300000.0 -0.0445126539 -0.0598162884 -0.0010822815 -0.000195161 -0.0008027182 0.0016756104 -0.7703322617 -0.1694522204
5299970.0 -0.0446857541 0.0156942024 0.0002052791 -7.8412e-05 2.95502e-05 0.0003246191 -0.7850278288 -0.0090317135
10299940.0 -0.0389912699 0.0335081964 -9.4967e-05 8.57841e-05 -0.0001121988 -0.000109871 -0.7885305657 -0.0053271992
15299910.0 -0.0310037622 0.0482228776 -0.0001405473 9.41542e-05 -7.48089e-05 3.31834e-05 -0.7934427562 -0.00317127
20299880.0 -0.0204530871 0.0600555206 -1.5252e-06 6.67176e-05 0.0001999913 -1.3333e-06 -0.800403257 0.0016537652
25299850.0 -0.0091595977 0.0693357289 0.0001357633 7.08255e-05 -6.37921e-05 0.0001278838 -0.8062321825 0.0070791688
30299820.0 0.0027383258 0.0760613564 0.0001140441 0.0001066417 8.0068e-05 -0.0001549354 -0.8127487926 0.0148990058
35299790.0 0.0145450017 0.080951235 -0.0001388223 9.6378e-05 0.0001769456 1.57139e-05 -0.8177518919 0.0243287851
40299760.0 0.0257254408 0.0837615756 -9.73319e-05 6.827e-05 -0.0001477871 6.30095e-05 -0.8216751508 0.0332798647
45299730.0 0.0366326783 0.0853124837 -0.0001454107 0.0002305827 0.0002321329 6.55438e-05 -0.825107583 0.0423109817
50299700.0 0.0466390367 0.0851161309 0.0001281871 -1.07648e-05 -0.0001405612 -2.66898e-05 -0.8277286526 0.0527661701
55299670.0 0.055938146 0.083975125 -0.0001782451 -2.61453e-05 0.0001751475 0.0001167575 -0.829671068 0.0630310989
60299640.0 0.0644538643 0.0822758441 -4.8596e-05 6.07066e-05 -5.95249e-05 0.0001948651 -0.831202808 0.0733872467
65299610.0 0.0721735881 0.0799951022 -4.0985e-05 0.0002287956 0.000193997 -0.0001081001 -0.8313534492 0.0829053979
70299580.0 0.0791895187 0.0769323153 -0.0001188949 8.6875e-05 -7.62463e-05 0.0001073431 -0.8324944101 0.0930839966
75299550.0 0.0858411327 0.0734112654 9.62169e-05 -7.69456e-05 -0.0001745222 9.48142e-05 -0.8325930359 0.1023817028
80299520.0 0.0911039504 0.070443529 4.98547e-05 -0.0001533349 -0.0001316687 0.0001340851 -0.8321271704 0.112282824
85299490.0 0.0961851569 0.0662371373 -0.0001257441 -0.0001077744 -6.15677e-05 0.0001389116 -0.8315957852 0.1218763075
90299460.0 0.1007153978 0.062769374 -2.44662e-05 2.05016e-05 -6.9546e-06 -0.0001460134 -0.8307480159 0.1312877092
95299430.0 0.1051760501 0.0587705706 0.000132934 0.0001199424 5.50989e-05 0.0002215571 -0.8302407072 0.1412753464
100299400.0 0.1082971121 0.0550779689 0.0001167806 -3.03054e-05 -7.00448e-05 -1.78282e-05 -0.828566312 0.1495726877
105299370.0 0.1118675047 0.0509480039 6.51119e-05 7.55422e-05 6.82489e-05 5.29625e-05 -0.8273130763 0.1591186987
110299340.0 0.1147188701 0.047460088 0.0001390944 0.000121094 -6.2511e-05 -5.90954e-05 -0.8272269287 0.1683568963
115299310.0 0.1172662533 0.0429826822 -8.07553e-05 -2.41028e-05 8.1329e-06 8.54609e-05 -0.8246253778 0.1767754712
120299280.0 0.1192644613 0.039725484 3.4777e-05 4.2254e-06 3.02282e-05 -5.4665e-05 -0.8238208239 0.1860486783
125299250.0 0.1208849504 0.0356836321 6.94568e-05 0.0002409607 0.0001358557 -9.4418e-06 -0.8210687263 0.19609773
130299220.0 0.1233319515 0.0323131504 2.09637e-05 0.0002514651 0.0001363632 -4.85912e-05 -0.8202349232 0.2044316471
135299190.0 0.1245099013 0.0284228129 0.0001734164 -0.0001468603 7.52237e-05 9.19382e-05 -0.8180248909 0.2124575489
140299160.0 0.12611884 0.0250188533 -6.69614e-05 0.0001755369 -0.0001412784 -1.1504e-05 -0.8157117863 0.2210443859
145299130.0 0.1270273258 0.021459167 -9.0335e-06 -4.04627e-05 9.45537e-05 0.0001104951 -0.8137108902 0.2301692121
150299100.0 0.127925075 0.0181432492 0.0001517792 0.0001262368 0.0001315744 0.0001569597 -0.8117416911 0.2382929155
155299070.0 0.1286751645 0.0151572611 -3.7512e-06 0.0001031412 0.0001581747 -0.0001018878 -0.8093713461 0.2476705877
160299040.0 0.129351352 0.0114206978 -1.464e-06 5.87245e-05 0.0001032839 0.0001575278 -0.807278074 0.2563672916
165299010.0 0.1296436791 0.0086630592 0.0001606514 7.91666e-05 4.42489e-05 0.0001390218 -0.8040033814 0.2649044485
170298980.0 0.1301990251 0.0054715954 0.000148209 5.29819e-05 0.0001834538 0.0001776493 -0.802590693 0.2738067352
175298950.0 0.1306657283 0.0027476571 0.0001350684 9.374e-05 -3.95573e-05 0.0001325259 -0.7989797568 0.2821123097
180298920.0 0.1306203953 -0.0002356129 9.5955e-06 -2.16169e-05 0.0002407975 0.0001848636 -0.7957749805 0.2904304263
185298890.0 0.1309813227 -0.0033317807 0.0001941898 0.0001392461 -3.27356e-05 0.0001609974 -0.7929665924 0.2985450205
190298860.0 0.131010094 -0.0064191754 0.0001736562 0.0002242615 -2.15867e-05 -2.56122e-05 -0.789396199 0.307418445
195298830.0 0.1312704759 -0.0090950613 0.0001340733 6.24022e-05 0.0001771142 0.0001115261 -0.7866086586 0.315202241
200298800.0 0.1308925469 -0.0113999057 7.31501e-05 -8.68587e-05 5.26177e-05 1.28581e-05 -0.7832766433 0.3241990238
205298770.0 0.1307123038 -0.0139630923 0.0001900544 2.8005e-05 0.0001267299 7.9207e-05 -0.7798228721 0.3323992866
210298740.0 0.130586277 -0.0164493364 0.0001621257 0.0002456569 0.0002450048 5.78973e-05 -0.7768668844 0.3407035246
215298710.0 0.130091974 -0.0191675736 -1.11104e-05 4.06697e-05 4.8416e-06 -1.93948e-05 -0.7736721175 0.3484161183
220298680.0 0.1298537391 -0.0214753522 -0.0001807056 9.4772e-05 0.0001879092 0.0002544055 -0.7692982233 0.3566743079
225298650.0 0.1295068542 -0.0239876378 0.0001332507 0.0001218476 0.0001099675 -3.80151e-05 -0.7654454771 0.3651725121
230298620.0 0.1289723247 -0.026171942 0.0001289868 -0.0001263511 7.82387e-05 -6.1221e-05 -0.7616959415 0.3725805332
235298590.0 0.1285138019 -0.0286225957 -2.39622e-05 8.10181e-05 0.0002105366 0.0001556103 -0.7580151367 0.3808299717
240298560.0 0.1279965118 -0.0309790971 -4.71113e-05 8.48285e-05 0.0001944617 6.51572e-05 -0.7536845538 0.3883379415
245298530.0 0.1272734995 -0.0330179523 0.0001326865 0.0002016945 0.0001844403 0.0001285477 -0.750153812 0.3962830304
250298500.0 0.1267257524 -0.0353213068 0.0002057549 -4.00933e-05 0.0002633715 0.0003211077 -0.7456683613 0.4045016491
255298470.0 0.1260606412 -0.0371582401 1.56844e-05 5.24233e-05 7.02574e-05 0.0002858968 -0.7410462008 0.4123775761
260298440.0 0.125716041 -0.0389876704 -7.23222e-05 0.0001189852 8.86922e-05 8.31731e-05 -0.7367489227 0.4194421135
265298410.0 0.1249618107 -0.0410548158 9.8135e-06 0.0001252292 0.0001963553 9.02533e-05 -0.7325139928 0.4275371639
270298380.0 0.124025387 -0.0430279289 0.0002006958 0.0001335358 0.0001084284 3.01157e-05 -0.727181671 0.4352597097
275298350.0 0.1235293204 -0.0451229939 -5.84224e-05 0.0001112526 4.98611e-05 0.0002231549 -0.7227858071 0.442915912
280298320.0 0.1227507942 -0.0468709644 0.0002471236 7.96224e-05 9.08781e-05 0.0001358568 -0.7186706812 0.4496763469
285298290.0 0.121817356 -0.0486104054 -0.0001075795 2.5974e-05 0.0002542824 0.0001762003 -0.7131974629 0.4578369336
290298260.0 0.1211914779 -0.0505849123 -5.62768e-05 0.0001202676 0.0001705747 -6.1299e-06 -0.7090063586 0.4655395969
295298230.0 0.1206175276 -0.0526860161 0.0002234711 4.28825e-05 -9.40722e-05 0.0002479293 -0.7036661008 0.4732126661
300298200.0 0.1196854666 -0.0546694169 4.64957e-05 7.90041e-05 0.0002623152 9.8035e-05 -0.6987108895 0.4799256995
305298170.0 0.1189396245 -0.0563396405 0.0001077314 0.0002084104 0.0001629449 0.000312196 -0.6935037267 0.4877171983
310298140.0 0.1180356178 -0.0583415481 4.8261e-05 0.0001444821 0.0002126856 0.0001629301 -0.6885722384 0.4951743274
315298110.0 0.1167480923 -0.0603454219 0.0002498107 -1.46624e-05 -7.8969e-05 0.0001579056 -0.6830128901 0.502226347
320298080.0 0.1158797671 -0.0622348274 0.0002503956 -0.0002874689 0.0002625113 7.0127e-06 -0.6775720071 0.5092251787
325298050.0 0.1144625678 -0.063714309 0.000104943 0.0001988759 0.0001122814 7.94364e-05 -0.6721375044 0.5162091841
330298020.0 0.1132557363 -0.0654014241 0.0002828806 0.0003123203 0.0001353151 0.000162352 -0.666731331 0.5228200109
335297990.0 0.1118390369 -0.0666609253 1.32653e-05 -6.98503e-05 0.0001168393 0.0001356021 -0.6612731611 0.5295252337
340297960.0 0.1106812424 -0.0682565305 -8.2644e-06 0.0003675883 0.0002535676 7.32154e-05 -0.6553915282 0.5374193566
345297930.0 0.1093732339 -0.0696454117 0.0001871083 0.0002043221 0.0003425218 0.0001180913 -0.6498697329 0.544333371
350297900.0 0.1084999247 -0.0709834373 0.0002505444 0.0001861511 0.0003263725 0.0001931965 -0.6438599953 0.5510803263
355297870.0 0.1071188182 -0.0725428737 0.000116977 -0.0001469541 0.000197255 0.0002600861 -0.6382654949 0.5573415201
360297840.0 0.1059570826 -0.073951441 0.0001248938 0.0001484056 0.0001688759 5.0116e-06 -0.6318550829 0.5634627382
365297810.0 0.1048020785 -0.0753961693 0.0003336538 0.0002076477 0.0001280432 -0.0001007151 -0.6258929511 0.5706795923
370297780.0 0.1036466635 -0.0764468643 4.76591e-05 0.0003266167 0.0002225209 8.5886e-06 -0.6200925575 0.576234792
375297750.0 0.1024999096 -0.0775035171 0.0002417464 0.0001884111 5.00187e-05 -2.4825e-06 -0.6140098345 0.5828761555
380297720.0 0.10172158 -0.0787903758 1.07486e-05 0.0002628258 0.0001340087 0.000268139 -0.6079351356 0.5902396977
385297690.0 0.1002369736 -0.0800973544 0.0002914908 0.0001067285 6.54717e-05 -2.55791e-05 -0.6014754233 0.5965185697
390297660.0 0.0991369448 -0.0812857961 0.0001433188 6.27131e-05 1.11457e-05 0.0001626844 -0.5953632644 0.6019264158
395297630.0 0.097921562 -0.0826225987 0.0001130257 0.0001490933 0.0002363169 -8.3187e-06 -0.5891432489 0.6085086953
400297600.0 0.0965946096 -0.0835391273 0.0001491107 0.0001987333 0.0002616611 7.88243e-05 -0.5831164157 0.6138797404
405297570.0 0.095645299 -0.084876006 0.0001390336 0.0001343952 0.0003228773 9.06567e-05 -0.5771318383 0.6199813102
410297540.0 0.0940801565 -0.0859322328 0.0002336021 6.3643e-06 0.0001047038 -4.0109e-06 -0.5698589913 0.6257615956
415297510.0 0.0928182529 -0.087031957 0.0002697104 1.03706e-05 0.0002362767 5.75986e-05 -0.563766737 0.6321953754
420297480.0 0.0914409097 -0.0881019003 -2.29386e-05 0.0001058561 0.0001328524 6.51349e-05 -0.5568762242 0.6368316681
425297450.0 0.0906358437 -0.089230329 0.0003338311 -0.0001035683 8.90663e-05 1.0268e-06 -0.549746533 0.6431398579
430297420.0 0.089069865 -0.090167573 0.0002837385 -4.07296e-05 0.0001900747 -7.6391e-06 -0.5436453466 0.6484740203
435297390.0 0.0875663589 -0.0910846541 0.0001582642 3.6242e-05 5.59686e-05 0.0001518556 -0.5368410401 0.6539936624
440297360.0 0.0865414334 -0.0922171275 0.0001259292 0.0001831656 5.20146e-05 6.279e-07 -0.5303783448 0.6586777479
445297330.0 0.0849722884 -0.0931193529 7.71798e-05 -2.37829e-05 0.0002839251 1.66289e-05 -0.5235533106 0.6644625385
450297300.0 0.0839119767 -0.0941979987 0.0003111781 0.0001740702 0.0003998274 0.0001700283 -0.5171638043 0.6695984504
455297270.0 0.082476654 -0.0949567605 0.0001151066 0.0001999738 0.0001166546 0.0001935296 -0.5098537624 0.6748132336
460297240.0 0.0812893207 -0.0957157856 0.0003172507 -1.63064e-05 0.0001937111 0.0001343061 -0.50250985 0.6806241166
465297210.0 0.079806967 -0.0967292674 0.0003948926 0.0002157324 -1.8677e-06 -0.0001106573 -0.4964400625 0.6846967718
470297180.0 0.0786436891 -0.0976395001 0.0001410688 0.0001980779 0.0002003623 0.0001162426 -0.4891221018 0.6897307203
475297150.0 0.0769957254 -0.0983070696 0.0001971791 -1.52946e-05 0.0002175244 3.39088e-05 -0.4818217348 0.6948358315
480297120.0 0.0757463749 -0.0993353136 0.0003219449 0.0002007925 0.0001863073 0.0002494547 -0.4754008569 0.6999966022
485297090.0 0.0747681826 -0.1002398635 6.70451e-05 -0.0002381678 1.75657e-05 4.32155e-05 -0.4683220967 0.7039197698
490297060.0 0.0733146041 -0.1010839865 0.0002450915 7.98308e-05 0.0002038816 8.32653e-05 -0.4608973983 0.7087194017
495297030.0 0.0715800828 -0.1016499682 0.0003439412 0.0003224213 0.0002417245 0.0001250415 -0.4534323529 0.7132217975
500297000.0 0.0703074703 -0.1026822815 0.0003865842 6.69324e-05 0.0002778375 3.4795e-06 -0.4465186058 0.7175046779
505296970.0 0.0687965682 -0.1030558903 0.0004003903 7.19944e-05 0.0001339465 0.0001916997 -0.4399774926 0.7213673757
510296940.0 0.0676076091 -0.1036975265 0.0003568402 -6.01625e-05 0.0001714595 -1.09396e-05 -0.4315841335 0.726460612
515296910.0 0.0661983305 -0.1043926583 0.0003935621 -5.69651e-05 0.0002010855 0.0002433543 -0.4246971357 0.7306656392
520296880.0 0.0648296815 -0.1049932228 0.0003180719 0.0001106332 0.0002665196 0.0001517992 -0.4173170476 0.7346702779
525296850.0 0.0633755003 -0.1058275096 0.00013726 -0.0001235217 0.000109339 7.61206e-05 -0.4098288083 0.7392281405
530296820.0 0.0617353491 -0.1064924521 0.0001766322 0.0001582272 0.0003927491 5.53784e-05 -0.4034229967 0.7428731871
535296790.0 0.0607520388 -0.1067875446 3.21194e-05 -5.66681e-05 0.0002261802 0.0001312766 -0.395827869 0.7458876966
540296760.0 0.0589567702 -0.1078960087 0.0003839382 2.77235e-05 0.0003313978 0.0001968795 -0.3877086936 0.750928493
545296730.0 0.0577305613 -0.1078954028 0.000111501 -6.893e-07 0.0001499183 -0.0001575852 -0.3806776012 0.7541264351
550296700.0 0.0558764141 -0.108487175 0.0003249118 7.26461e-05 0.0002017747 -7.84418e-05 -0.373379218 0.757921155
555296670.0 0.0549074651 -0.1091960925 0.0001426436 8.13415e-05 0.0002806865 -1.88542e-05 -0.3654533764 0.761457898
560296640.0 0.0535215475 -0.1097288221 0.0002811406 -3.32137e-05 0.0003299763 0.0002697116 -0.3578678791 0.7650273556
565296610.0 0.0520608432 -0.1099067353 0.0003679595 0.0001817997 0.0003073223 0.0002214638 -0.3503219043 0.7693166507
570296580.0 0.0504193262 -0.110397144 -4.15099e-05 8.87552e-05 0.0003979221 3.62441e-05 -0.3427148653 0.7725089808
575296550.0 0.0492805517 -0.1109732577 0.0001146064 0.0002228341 7.16364e-05 0.0001636277 -0.3349569548 0.775816546
580296520.0 0.0479061852 -0.111101521 0.0004621222 0.0001077062 0.0003634005 -8.8254e-06 -0.327349576 0.7788661786
585296490.0 0.045943382 -0.1116851836 0.0001314418 6.8884e-05 0.0002462722 0.0003244031 -0.3195847303 0.7816558094
590296460.0 0.0444250828 -0.1122125768 5.12422e-05 -4.38188e-05 0.0003558155 0.0001218008 -0.311522724 0.7846970212
595296430.0 0.0433531045 -0.1122315685 0.0003280739 7.19516e-05 0.0002752018 -2.03517e-05 -0.3037475677 0.7872979067
600296400.0 0.0418052836 -0.1125585948 0.0002165834 9.8224e-06 0.000336376 0.0001433676 -0.2958278215 0.7915408138
605296370.0 0.040731626 -0.1131212935 0.0002511899 0.0001664378 0.0002657516 0.0001388803 -0.2884046347 0.7938067479
610296340.0 0.0389491522 -0.1134197716 0.0004273493 6.85574e-05 0.0003329162 0.0001270089 -0.2799911224 0.797079271
615296310.0 0.0375804229 -0.1134147164 0.0003718738 0.000127354 0.0003216307 -9.20301e-05 -0.2726465317 0.7989848096
620296280.0 0.0361972889 -0.1138879313 0.0003161014 0.0001096374 6.37134e-05 0.0001655343 -0.2644522351 0.8012869908
625296250.0 0.0347267228 -0.1140026011 0.0004944995 0.000131528 0.0003124879 -5.3927e-05 -0.2571204995 0.8042172787
630296220.0 0.0332133656 -0.1141677062 0.0003510558 7.54673e-05 0.0004894303 5.51743e-05 -0.2487203117 0.8072206168
635296190.0 0.0315851089 -0.1146537206 0.0002879173 0.0002489894 0.000116465 -3.92345e-05 -0.2413785263 0.8095173114
640296160.0 0.030492192 -0.1148409749 0.0002526071 -9.45063e-05 0.0001360122 -0.0002226197 -0.2326130636 0.8118829746
645296130.0 0.0287862542 -0.1146726744 0.0002690474 -0.0001629638 0.0003077986 7.22754e-05 -0.225106293 0.8138049291
650296100.0 0.0273195795 -0.1149164243 0.0003595674 -5.81396e-05 0.0001786416 -4.92027e-05 -0.2165788647 0.8167237346
655296070.0 0.025979933 -0.115204749 0.0003838635 4.35489e-05 0.0002805282 0.0001032637 -0.2082098497 0.8181512801
660296040.0 0.0239772118 -0.1150624473 0.0003590032 6.08385e-05 0.0006044406 7.75799e-05 -0.2002199622 0.8196872267
665296010.0 0.0229074335 -0.1150595063 0.0005777939 8.9904e-05 0.000167732 8.25677e-05 -0.1924620653 0.8220989862
670295980.0 0.021535648 -0.1155046768 0.0001986511 -8.32117e-05 0.0003378962 -0.0001605264 -0.1853832379 0.8236347127
675295950.0 0.0201049899 -0.1152572208 0.0005240414 5.15813e-05 0.0005243978 -9.60631e-05 -0.175980712 0.8262619626
680295920.0 0.0183351964 -0.1152327377 0.0001312 9.40984e-05 0.0004656865 -2.60595e-05 -0.1679042978 0.8278064249
685295890.0 0.0170085334 -0.1150097961 0.0002778685 -9.16306e-05 0.0002259493 6.1089e-05 -0.159591408 0.8292360995
690295860.0 0.0158431427 -0.1155064565 0.0001685331 5.13738e-05 0.0001928033 -9.01898e-05 -0.1514036554 0.8307058187
695295830.0 0.0143894982 -0.1151717275 0.0004061196 -2.84874e-05 0.0003076972 6.28945e-05 -0.1432057502 0.8319186129
700295800.0 0.012602871 -0.1153061736 0.000367568 2.24231e-05 0.0005429256 7.90197e-05 -0.1348842047 0.8330008453
705295770.0 0.0113018668 -0.1149655816 0.0003708421 -0.0001545736 0.0001369753 1.9096e-05 -0.1276475722 0.8351762336
710295740.0 0.0100089434 -0.1148771315 0.0002482314 -8.20075e-05 0.0003060997 -6.4613e-05 -0.1194205848 0.8365129774
715295710.0 0.0084005688 -0.1146733571 0.0003559976 -2.50931e-05 0.0003738987 -0.0001043414 -0.1107068944 0.8372835808
720295680.0 0.0071191568 -0.1148046358 0.0003526492 -6.2516e-05 0.0003115531 7.79495e-05 -0.102258987 0.83820462
725295650.0 0.0057760683 -0.1146597901 0.0007142406 2.83268e-05 0.0005113534 -4.802e-07 -0.0935479724 0.8393619242
730295620.0 0.00422403 -0.1146166928 0.0004077607 -7.34164e-05 0.0004626682 -0.0001352001 -0.0856701899 0.840482397
735295590.0 0.0028201084 -0.1142469537 0.0004449573 0.0002878854 0.0002509565 -6.334e-05 -0.0765868594 0.8411933731
740295560.0 0.0013335771 -0.113902632 0.0003209646 8.44997e-05 0.0002095958 0.0001397921 -0.0689061104 0.841369163
745295530.0 -0.0001427094 -0.1138998083 0.0003381613 -0.0001413638 0.0003534938 -8.82753e-05 -0.0607566384 0.8423844908
750295500.0 -0.0017216375 -0.1138636838 0.0003962681 -0.000143636 0.000307226 -0.0002073302 -0.052435798 0.8421497517
755295470.0 -0.0027703266 -0.1134848593 0.0002107447 -0.0001293308 0.0002443257 8.253e-07 -0.0444531075 0.8432279982
760295440.0 -0.0044134454 -0.1131596034 6.97902e-05 -0.0001432932 0.0003958448 -0.000147328 -0.0366031137 0.8435050926
765295410.0 -0.0056258033 -0.1131391857 0.0002171356 -4.14178e-05 0.0003400963 -0.0001249517 -0.0270847202 0.844501686
770295380.0 -0.0072144117 -0.1123899038 0.0004742523 0.0001063616 0.0006072273 -0.0001077086 -0.0189767079 0.8442678371
775295350.0 -0.0085699735 -0.1118472093 0.0003229253 -0.000119574 0.0002335559 -4.53626e-05 -0.0112629566 0.8438347699
780295320.0 -0.0098848713 -0.1120786696 0.0005558015 -5.79688e-05 0.0003839446 -8.69829e-05 -0.0029927206 0.8446738015
785295290.0 -0.011282349 -0.1113443008 0.0005146505 0.000102525 0.0004567251 -6.50251e-05 0.0052724597 0.8446405766
790295260.0 -0.0125692357 -0.1110289225 0.0004372351 -5.17174e-05 0.0003706429 -0.0001069199 0.0144076523 0.8443545617
795295230.0 -0.0140891614 -0.1105959591 0.0004253571 -8.7034e-05 0.0002943051 -0.0001871455 0.0225725297 0.8444247741
800295200.0 -0.0150456676 -0.1100846014 0.0004351548 0.0001149253 0.000154038 -6.55522e-05 0.0306891174 0.8436257388
805295170.0 -0.0167119949 -0.1098792274 0.0004280246 -0.0001583711 0.0002981621 -0.0001900577 0.038672168 0.8432649459
810295140.0 -0.0179734177 -0.1092194475 0.0004912422 -4.255e-05 0.0004376496 -2.6001e-05 0.0469475641 0.8438315378
815295110.0 -0.0194572405 -0.1086717849 0.000440657 -0.0001814848 0.0003233919 -0.0002268602 0.0551709979 0.8429623106
820295080.0 -0.0207814839 -0.1082252725 0.0005742258 -6.34733e-05 0.0004939925 -0.0002300752 0.0632855494 0.8417680998
825295050.0 -0.0217996742 -0.1079153447 0.0004644823 1.65558e-05 0.000257305 -0.000256179 0.0716298482 0.8414463763
830295020.0 -0.0231399264 -0.1073611718 0.0003523021 -0.0002781818 0.0004219235 -6.06585e-05 0.0793301408 0.8407538582
835294990.0 -0.0245471156 -0.1068323231 0.0003197295 -0.0001109315 0.0002506596 -2.5013e-05 0.0882362719 0.8393886109
840294960.0 -0.0257315138 -0.1065506643 0.0002849628 -0.0001111098 0.0004914458 -0.0002995526 0.0962341376 0.8389256127
845294930.0 -0.0273816368 -0.1057575158 0.0003407648 -3.91717e-05 0.0001418652 -0.0002052305 0.1048047096 0.8379907077
850294900.0 -0.0285395386 -0.105244585 0.0004914849 -7.1593e-05 0.0004334996 -6.18946e-05 0.1132207249 0.83694676
