!Created with skrf (http://scikit-rf.org).
# Hz S RI R 50.0 
!freq ReS11 ImS11 ReS21 ImS21 ReS12 ImS12 ReS22 ImS22
300000.0 -0.318685014 -0.1095751861 0.3727401608 0.0544731283 0.3742177862 0.0579980316 -0.31634844 -0.1135266434
5299970.0 -0.3238386596 0.0047125295 0.3784829661 0.002919093 0.3783334144 0.0029330448 -0.3261404798 0.0028047822
10299940.0 -0.3211640622 0.0153457835 0.3799248749 0.0022109474 0.3795496212 0.0026347344 -0.3243477546 0.0125910373
15299910.0 -0.317985664 0.0234672251 0.3817640244 0.0021392848 0.3818986653 0.002541168 -0.3213414228 0.0197651027
20299880.0 -0.3143799879 0.0300084579 0.3850416557 0.0017536154 0.3851770146 0.0016412994 -0.318654826 0.0260100301
25299850.0 -0.3107347764 0.0357704485 0.3883554207 -9.88416e-05 0.3883009746 -0.0001418346 -0.3158395745 0.031019415
30299820.0 -0.3065312719 0.0401989281 0.3919916079 -0.0018858616 0.3916560234 -0.0022951992 -0.3129768936 0.0355928269
35299790.0 -0.3029394296 0.0447608764 0.3952301161 -0.0053885305 0.3952519795 -0.0052468026 -0.309747384 0.0393277614
40299760.0 -0.2995510322 0.0479366462 0.398374 -0.0084168473 0.3983937994 -0.0088486993 -0.3072902491 0.0432225742
45299730.0 -0.2965450849 0.0514083908 0.4015782979 -0.0129215744 0.401195514 -0.0126000434 -0.3049000058 0.0462674751
50299700.0 -0.2932333932 0.0539727975 0.4036151536 -0.0169325637 0.4036168864 -0.0174853152 -0.3022403962 0.0490156756
55299670.0 -0.2909829815 0.0568300601 0.4057522132 -0.0220435307 0.4061946522 -0.0217532744 -0.3007089839 0.0518835972
60299640.0 -0.2883439153 0.0591852218 0.4075807728 -0.0272100513 0.4078383501 -0.0270137892 -0.2982746655 0.0545341783
65299610.0 -0.2858781509 0.0615620672 0.4094376225 -0.0313969193 0.4095303886 -0.0316891301 -0.2963211692 0.0571823196
70299580.0 -0.2837287619 0.0636489133 0.4104375819 -0.0367124949 0.4108727524 -0.0369272895 -0.2948275103 0.0593257835
75299550.0 -0.2821618895 0.0657451849 0.4117245003 -0.042008471 0.4117369689 -0.0422536962 -0.2929922062 0.0619602423
80299520.0 -0.2803842701 0.0679029727 0.412813972 -0.0472801492 0.4125812924 -0.0473843621 -0.2916263005 0.0641291693
85299490.0 -0.2784587129 0.0699236057 0.4131134325 -0.0527960967 0.4130202831 -0.0527870883 -0.2902473784 0.0664295435
90299460.0 -0.2771065893 0.0720922717 0.4135645673 -0.0574010045 0.4135905495 -0.058081032 -0.2887158963 0.0686923373
95299430.0 -0.2757511131 0.0742184828 0.4141930835 -0.0633648496 0.4139841666 -0.0630604095 -0.2876075046 0.0710249381
100299400.0 -0.274586898 0.0767068115 0.4138398182 -0.0683744621 0.4137104131 -0.0684146591 -0.2866061667 0.0732670606
105299370.0 -0.2729228625 0.0784549953 0.4133778891 -0.073132068 0.413802849 -0.0735113513 -0.2852181817 0.075583653
110299340.0 -0.2719205936 0.0802302757 0.4130880539 -0.0783158777 0.4134807996 -0.0789251935 -0.2844626371 0.0779081237
115299310.0 -0.2707593301 0.0823495572 0.4132077931 -0.083256559 0.4131852655 -0.0836166142 -0.2830205397 0.0800987772
120299280.0 -0.2697203362 0.0847336014 0.4131028376 -0.0889561627 0.4129160639 -0.089113104 -0.2825083303 0.082409584
125299250.0 -0.2689030853 0.086650229 0.4122266493 -0.0935628076 0.4126396435 -0.0941815717 -0.2813859552 0.0850675016
130299220.0 -0.2679251118 0.089207759 0.4115673424 -0.0984805841 0.4115982086 -0.0990814027 -0.2805403311 0.0874711691
135299190.0 -0.2665111077 0.0911610599 0.4107414558 -0.1038314223 0.4105231883 -0.1037639647 -0.2796254767 0.089591325
140299160.0 -0.2658605125 0.0938029177 0.4101628159 -0.109093217 0.410239327 -0.109127048 -0.2786554384 0.0922061035
145299130.0 -0.2646770538 0.0957829734 0.4094181466 -0.1141816256 0.4092503495 -0.113940295 -0.2780553339 0.0946024652
150299100.0 -0.2638207745 0.0981514026 0.4079780724 -0.1188229781 0.408230241 -0.1190380945 -0.2768352586 0.0967693326
155299070.0 -0.2629702451 0.1010756061 0.407458841 -0.1238235347 0.4071072583 -0.1239561667 -0.2761026667 0.0995494482
160299040.0 -0.2618448093 0.1029929489 0.4055800262 -0.1284062603 0.4058672611 -0.1287305865 -0.2753712176 0.102384421
165299010.0 -0.2610092576 0.1051582627 0.4045048796 -0.1338193279 0.404951272 -0.1337154966 -0.274534317 0.1046188931
170298980.0 -0.2600346153 0.1076994735 0.4027848904 -0.1384279783 0.4032458062 -0.1384693641 -0.2732236436 0.1072732677
175298950.0 -0.2589537723 0.1106905738 0.4019886062 -0.1429913554 0.4020769799 -0.1433127929 -0.2724062501 0.1099178512
180298920.0 -0.2579562573 0.112708866 0.4004906013 -0.1481727035 0.4007034708 -0.1480994074 -0.2711083293 0.1127146055
185298890.0 -0.2570061313 0.1152672345 0.3988145485 -0.1524881303 0.398829293 -0.1524542937 -0.2702908489 0.114744467
190298860.0 -0.2559127592 0.1178992288 0.3971303376 -0.1573049457 0.3974632934 -0.1575052779 -0.2686807685 0.1176933927
195298830.0 -0.2544165374 0.119915861 0.3958317515 -0.1617700318 0.3958749636 -0.1620581337 -0.2679646188 0.1201260272
200298800.0 -0.2536933171 0.1227387198 0.3940960765 -0.1661318669 0.3941900848 -0.1663997506 -0.2666989123 0.1229981212
205298770.0 -0.2526082345 0.1252249523 0.3924944554 -0.1712785292 0.3925503469 -0.1711914013 -0.2657094903 0.125444495
210298740.0 -0.2515555195 0.1276858696 0.3905440181 -0.1756814767 0.3906991352 -0.1758689351 -0.264562824 0.1281930239
215298710.0 -0.250332368 0.1302450715 0.3888108159 -0.1799545867 0.388555331 -0.1799312508 -0.263737111 0.1310096728
220298680.0 -0.2491170102 0.1327662921 0.3864175427 -0.1848826563 0.3867292997 -0.184939746 -0.2623283896 0.1337884286
225298650.0 -0.2477894938 0.1356291723 0.3843663342 -0.1890489684 0.3845530814 -0.1889594309 -0.2610525989 0.1363596976
230298620.0 -0.2467697349 0.1379752453 0.3827405247 -0.1934410757 0.3826947487 -0.1935383541 -0.2595927518 0.1391055624
235298590.0 -0.2454824277 0.140460702 0.3804646249 -0.1978594022 0.3806104527 -0.1978523825 -0.2585738373 0.1411045894
240298560.0 -0.2443729013 0.143112947 0.378322805 -0.2018133532 0.378341608 -0.2017936571 -0.2570330039 0.1442909577
245298530.0 -0.2426620819 0.1455805976 0.3756777133 -0.2065302558 0.376182906 -0.2066861273 -0.2558819871 0.1470919769
250298500.0 -0.2414591647 0.1480103789 0.3736196296 -0.2101732494 0.3740062265 -0.2102511144 -0.2540893562 0.1498394627
255298470.0 -0.2401459795 0.1510049885 0.3714583691 -0.215259636 0.3716210963 -0.2149818403 -0.2530030667 0.1522379258
260298440.0 -0.23867423 0.1537623886 0.3693223731 -0.2191414855 0.3690576087 -0.2191691235 -0.2510697586 0.1551631285
265298410.0 -0.2370544961 0.1564060348 0.3665737686 -0.2237073197 0.3669477795 -0.2234262762 -0.2495931957 0.1575940983
270298380.0 -0.2355929269 0.1588710524 0.3641507249 -0.2277594451 0.3643599285 -0.2278527103 -0.2479392373 0.1605349923
275298350.0 -0.2341730751 0.1610980627 0.3613918313 -0.2317714376 0.3619476738 -0.2319782431 -0.2462604251 0.16336301
280298320.0 -0.2325435526 0.1640123527 0.3587985194 -0.2355948519 0.3592760231 -0.2360569361 -0.2446512089 0.1658831549
285298290.0 -0.2309742224 0.1664059806 0.3566610277 -0.2393876381 0.35669231 -0.2399856395 -0.2431554197 0.1685019386
290298260.0 -0.2292116777 0.1688172538 0.3540685152 -0.2440852906 0.3539022153 -0.2439593526 -0.2412598307 0.1712587363
295298230.0 -0.2277398664 0.1712779976 0.3513979717 -0.2477277088 0.3513514897 -0.2479944775 -0.2395800268 0.1737471068
300298200.0 -0.2257208088 0.1738433209 0.3484453145 -0.2517381994 0.3485555343 -0.2519047143 -0.2378858774 0.1765357111
305298170.0 -0.2237660609 0.1761983956 0.3456682416 -0.2558792513 0.3459738461 -0.2558883588 -0.2358371836 0.1793619532
310298140.0 -0.222101201 0.1781404959 0.3433013795 -0.259625362 0.3431216312 -0.2599445367 -0.234073389 0.1821866628
315298110.0 -0.2205613548 0.1807325394 0.339764427 -0.2636168779 0.3403061734 -0.2638698904 -0.2320937198 0.1844489729
320298080.0 -0.2186464341 0.1834911861 0.3370694686 -0.2675884832 0.3374804646 -0.2678098302 -0.2304295539 0.1870767705
325298050.0 -0.217103424 0.1853631073 0.3343176352 -0.2713827273 0.3342353781 -0.2717737463 -0.228556694 0.1893350217
330298020.0 -0.2152170169 0.1880718633 0.3306143892 -0.2750743433 0.3307644814 -0.2751397531 -0.2265032067 0.191632766
335297990.0 -0.2134863013 0.1902336888 0.328089106 -0.278898462 0.3277947583 -0.2787711132 -0.2247510641 0.1941686931
340297960.0 -0.211885861 0.1929027856 0.3246825253 -0.282797565 0.3248324685 -0.2824632055 -0.2227761546 0.1969189754
345297930.0 -0.2099114006 0.1952998373 0.3212556855 -0.2858937519 0.3210327318 -0.2859135557 -0.2208609675 0.1993108511
350297900.0 -0.2074940037 0.1977053269 0.3178471704 -0.2893048693 0.3183344379 -0.2898590349 -0.2188116803 0.2022053286
355297870.0 -0.2057671781 0.1998740728 0.3144683396 -0.2930944781 0.3148221805 -0.293386451 -0.2169310702 0.2048845463
360297840.0 -0.2037691434 0.202126185 0.3114276487 -0.2966587163 0.3116040177 -0.2963834218 -0.2149876924 0.2073526463
365297810.0 -0.2015621034 0.2046271823 0.3080145282 -0.2999684921 0.308135419 -0.2999819447 -0.2125772781 0.2098502713
370297780.0 -0.1995178844 0.206858815 0.3049072525 -0.3032756223 0.3048990789 -0.3035099324 -0.2104895139 0.2121708262
375297750.0 -0.1975198214 0.2093540437 0.3019304036 -0.3067203754 0.3017327644 -0.3068355249 -0.2083474013 0.2148456929
380297720.0 -0.1953784176 0.2110995451 0.2980803594 -0.3096133869 0.2981303079 -0.309939037 -0.2061575645 0.2174484185
385297690.0 -0.1929994627 0.2136535591 0.2945855976 -0.3129625168 0.2946895404 -0.3133716445 -0.2036592794 0.2200626205
390297660.0 -0.1910330898 0.2159578678 0.2910561715 -0.3163942912 0.2911824059 -0.3164420632 -0.2015669039 0.221828668
395297630.0 -0.1886568906 0.2179775162 0.2876225913 -0.3194367815 0.2875978308 -0.3197046168 -0.1990907617 0.2244190063
400297600.0 -0.1868215333 0.2202913397 0.2837622515 -0.3229355849 0.2843387043 -0.3227794765 -0.1973670165 0.2264975922
405297570.0 -0.1843048108 0.2225743288 0.2804101881 -0.3258605475 0.2806324634 -0.3260392827 -0.1950451801 0.2291438491
410297540.0 -0.1817564179 0.2246424501 0.2767353551 -0.3289862335 0.2765189544 -0.3287665624 -0.1922417265 0.2312868374
415297510.0 -0.1794773323 0.2265699052 0.2730271169 -0.3319734056 0.2729713338 -0.3323495851 -0.1899724418 0.2341686756
420297480.0 -0.1771524474 0.2282715828 0.2692197507 -0.3347277932 0.2693673768 -0.3345829396 -0.1872834293 0.2357524746
425297450.0 -0.1746033767 0.2304854374 0.2656608792 -0.3375826868 0.2659295497 -0.3379545272 -0.1850401585 0.2384145173
430297420.0 -0.1726910926 0.2328423208 0.2621411868 -0.3408764867 0.2620691414 -0.3407167791 -0.1829150733 0.2404159606
435297390.0 -0.1695851247 0.2346947396 0.25810796 -0.3431331965 0.2582587661 -0.3432345521 -0.1799167868 0.2428767402
440297360.0 -0.1672440969 0.2363652173 0.2540886988 -0.3464115051 0.2540323043 -0.3462235641 -0.1775516722 0.2445129681
445297330.0 -0.1647702695 0.2383778084 0.2503379502 -0.3490323457 0.2506844477 -0.3489546548 -0.1750743137 0.2464820166
450297300.0 -0.162263414 0.2401125421 0.2466478338 -0.3515658777 0.2468615725 -0.3517391068 -0.1728676642 0.2488600234
455297270.0 -0.1598308093 0.2423570473 0.2429958548 -0.3543919193 0.2431271058 -0.3543314603 -0.1698272185 0.2509659252
460297240.0 -0.157557976 0.2441587604 0.2386440655 -0.3567235403 0.2385161962 -0.3569559137 -0.1674011637 0.2531625383
465297210.0 -0.1545980257 0.2456429636 0.2350906432 -0.3594562182 0.2352465533 -0.3593370486 -0.1649370684 0.254604934
470297180.0 -0.1522661274 0.2478046804 0.2311386112 -0.3621844518 0.2313381822 -0.3619647218 -0.1626087653 0.2565964945
475297150.0 -0.1497659829 0.2494396112 0.2270074986 -0.3642247796 0.2270630657 -0.3640252373 -0.1594880892 0.2586635067
480297120.0 -0.1467995041 0.2508753742 0.2228237794 -0.3667699264 0.2232779266 -0.3666229258 -0.1570330388 0.2608462109
485297090.0 -0.1442769002 0.2524634275 0.2190705341 -0.3691775028 0.2189585409 -0.3691219901 -0.1544322529 0.2624386218
490297060.0 -0.141365306 0.2543362011 0.2148011864 -0.3715407277 0.2149650647 -0.371612135 -0.1519852729 0.26435774
495297030.0 -0.1392744009 0.25619837 0.2109578598 -0.3736676956 0.2105850029 -0.3739513706 -0.1490351591 0.2657444829
500297000.0 -0.1362093377 0.257661936 0.2063231557 -0.3761296829 0.206673155 -0.3761752792 -0.1467696325 0.2676102
505296970.0 -0.1337865785 0.2591386019 0.2020073481 -0.3779145395 0.2024958802 -0.3780270655 -0.1440966442 0.2693527731
510296940.0 -0.1308099508 0.2607004137 0.1984379492 -0.3803978275 0.1986158434 -0.3805738093 -0.1410216575 0.2714152203
515296910.0 -0.1285707637 0.2625170991 0.193921369 -0.3821100826 0.1946566276 -0.3825917091 -0.1383199184 0.2728781961
520296880.0 -0.1252800752 0.2640101616 0.1895819628 -0.3846712701 0.1902213654 -0.3843476669 -0.1353331177 0.2745200812
525296850.0 -0.1225990656 0.264851592 0.1858321073 -0.3861476215 0.1860273316 -0.3865245931 -0.1322890843 0.2761082934
530296820.0 -0.119776409 0.2664905614 0.1813302521 -0.3879230273 0.1814987897 -0.3882361847 -0.1299855409 0.2778319411
535296790.0 -0.1171254349 0.2680188991 0.1773792405 -0.3902029097 0.1776886475 -0.3901219398 -0.1268667867 0.2790225637
540296760.0 -0.1143574495 0.2692765068 0.1731463522 -0.392469805 0.1729441894 -0.3926751616 -0.1243408091 0.2809836925
545296730.0 -0.111561593 0.2707554937 0.168557386 -0.3938238639 0.1687401245 -0.3940406408 -0.1214080941 0.281829557
550296700.0 -0.1086338224 0.2722791209 0.1642489757 -0.3959858841 0.1650334847 -0.3959215424 -0.118778602 0.283742005
555296670.0 -0.1054990456 0.2732057276 0.1598924695 -0.3973710301 0.1601447998 -0.3974496522 -0.1155687862 0.2850715815
560296640.0 -0.1028350053 0.2741644202 0.1558080945 -0.3985596149 0.1560880813 -0.3990020359 -0.112396195 0.2865573427
565296610.0 -0.1003897759 0.2757863902 0.1513986583 -0.4007733587 0.1516315789 -0.4007926596 -0.1097900782 0.2879199039
570296580.0 -0.0971251169 0.2769130143 0.1467579442 -0.4019808988 0.147325187 -0.4025928204 -0.1067160005 0.2894327064
575296550.0 -0.0939507125 0.2782992462 0.1426311219 -0.4035048194 0.142875694 -0.403809806 -0.1035773919 0.2903763141
580296520.0 -0.0911006129 0.2795481205 0.1382580752 -0.4054207586 0.1383537485 -0.4056232855 -0.1006837194 0.2916094693
585296490.0 -0.0881247027 0.2803749571 0.1338813751 -0.4069847959 0.1339656948 -0.406712547 -0.0978285993 0.2922938957
590296460.0 -0.0853090438 0.2814340659 0.1293234836 -0.4084721851 0.1295481773 -0.408707393 -0.0944821924 0.294023626
595296430.0 -0.0822324337 0.2827125963 0.1254928642 -0.4096384637 0.1249578665 -0.4098356996 -0.0915886752 0.2948293202
600296400.0 -0.0793038406 0.2836031187 0.1206871645 -0.4108726102 0.1210347574 -0.4108975199 -0.0889985747 0.2962773663
605296370.0 -0.0763474066 0.2848230695 0.116169666 -0.4122802607 0.1160082319 -0.412033502 -0.0856513474 0.2972720635
610296340.0 -0.0736545343 0.2856625716 0.1120957773 -0.4132920458 0.111803978 -0.4135711208 -0.0827239699 0.2984956753
615296310.0 -0.0705149824 0.2864465915 0.1069542508 -0.4145234234 0.1070971857 -0.4147324285 -0.0795853998 0.2994106719
620296280.0 -0.0670983783 0.287206353 0.1027138278 -0.4151784166 0.1025496039 -0.4156737404 -0.0761353475 0.2999177725
625296250.0 -0.0640061517 0.2881903293 0.0974127164 -0.4165727708 0.0980064473 -0.4169690473 -0.0734220266 0.3014150819
630296220.0 -0.0610189519 0.2890916189 0.0931375399 -0.4178583231 0.0938329089 -0.4175067055 -0.0703236794 0.3025586889
635296190.0 -0.0581873643 0.2900897044 0.0892174256 -0.4185023188 0.088953171 -0.4182050059 -0.0671629496 0.3030497061
640296160.0 -0.0552614313 0.2904552883 0.0845758457 -0.4192758355 0.0846287011 -0.4195416993 -0.063744732 0.3038031549
645296130.0 -0.0519673519 0.291393761 0.0796813841 -0.4203250464 0.0798165873 -0.4203342405 -0.0613353142 0.3043634016
650296100.0 -0.0489389416 0.2922352097 0.0755411954 -0.4211138067 0.0755589555 -0.4207277612 -0.0578347197 0.3052620021
655296070.0 -0.0457951592 0.292824055 0.0709157481 -0.4215544651 0.0706899251 -0.4221487113 -0.0541201641 0.306258232
660296040.0 -0.0431740232 0.2934826484 0.066569707 -0.4221942944 0.0660786581 -0.4223086992 -0.0513166476 0.3067260101
665296010.0 -0.0395031331 0.2938231358 0.0617249758 -0.4231526729 0.0620236529 -0.4234387906 -0.0482998567 0.307637829
670295980.0 -0.0364153309 0.2946323267 0.0569329524 -0.4240160761 0.0576505048 -0.4238623304 -0.0455950342 0.3079910681
675295950.0 -0.0333412295 0.2948064589 0.0522659908 -0.4245014604 0.0526838283 -0.4244172341 -0.0416948528 0.3087379628
680295920.0 -0.0303206142 0.2958496025 0.0477521001 -0.4250005165 0.0479305735 -0.4251625589 -0.0386211937 0.309453272
685295890.0 -0.0271326362 0.2958498446 0.0432928834 -0.4250297415 0.0431825892 -0.4254542306 -0.0353397366 0.3101062619
690295860.0 -0.0238303131 0.2966568751 0.0384875316 -0.4254660146 0.0383461788 -0.4255645412 -0.0322043934 0.3107457639
695295830.0 -0.0206157261 0.2966354976 0.0334667302 -0.4260172101 0.0339469735 -0.4261842978 -0.0292649449 0.311049711
700295800.0 -0.0173734865 0.2970787743 0.0291521751 -0.4264120358 0.0294378049 -0.4264425578 -0.0258290647 0.3108551322
705295770.0 -0.0144250119 0.2976192155 0.0244551767 -0.4267088829 0.025005773 -0.4265549836 -0.0225741937 0.3119099154
710295740.0 -0.0113766445 0.2979856647 0.0201093832 -0.426628325 0.0203528966 -0.426911288 -0.0199615005 0.3125544748
715295710.0 -0.0084316413 0.2981089016 0.0150273194 -0.426947081 0.0160257001 -0.426980026 -0.0164459887 0.3124519546
720295680.0 -0.0052651275 0.2980619945 0.0108358931 -0.4268406884 0.0108233748 -0.4275538873 -0.0124894181 0.3129769358
725295650.0 -0.0015101154 0.2985808514 0.0057914711 -0.4268304781 0.0062085456 -0.4272812805 -0.009654668 0.3133350511
730295620.0 0.0009913472 0.2989183548 0.0016619692 -0.4269778219 0.0015028984 -0.4269458757 -0.0064210289 0.3127674178
735295590.0 0.0046819 0.2986944891 -0.0030108373 -0.4272117153 -0.0028698687 -0.4270400438 -0.0028464077 0.3133772754
740295560.0 0.007484345 0.2992346988 -0.0075885239 -0.4267812162 -0.0077978501 -0.4268549152 0.0003052086 0.3133314709
745295530.0 0.01071523 0.2990138909 -0.0123250928 -0.4268942282 -0.0119741835 -0.4272849296 0.0032617491 0.3138976602
750295500.0 0.0140635018 0.298964199 -0.0168039064 -0.426289261 -0.0168377603 -0.4260791874 0.0067164765 0.3133733631
755295470.0 0.0176802554 0.2991308902 -0.0216163809 -0.4262167458 -0.0210955072 -0.4266555764 0.0094032216 0.3140127369
760295440.0 0.0202669467 0.2991831023 -0.0261665231 -0.4261502016 -0.0259364303 -0.4260784996 0.0125261449 0.3140652071
765295410.0 0.0231202364 0.2985221298 -0.0302035519 -0.4255382969 -0.0304373425 -0.4260588056 0.0166104565 0.3141883588
770295380.0 0.0269136892 0.2987521485 -0.0354891357 -0.4247710166 -0.0350908956 -0.42543464 0.0199021042 0.3142603488
775295350.0 0.0296209963 0.2988494776 -0.0396353005 -0.4247178946 -0.0397293343 -0.4250878807 0.0222650876 0.3136259222
780295320.0 0.0334113393 0.2984410461 -0.0445753657 -0.4244348247 -0.0442289369 -0.4246225883 0.0259061523 0.3139766426
785295290.0 0.0362476681 0.2982934958 -0.0491568523 -0.4229507619 -0.0486803176 -0.4239477181 0.029030693 0.3138714176
790295260.0 0.0392867089 0.2979741105 -0.0534660475 -0.4231368428 -0.0536398584 -0.4234963478 0.0327536078 0.3135484435
795295230.0 0.0422353633 0.2981278453 -0.0576491484 -0.422042381 -0.0578256101 -0.4228472956 0.0356346223 0.3138159471
800295200.0 0.0457106043 0.2975502807 -0.0628944664 -0.4221147477 -0.0630680011 -0.4222769683 0.0392924663 0.3133619144
805295170.0 0.0488772572 0.2972461993 -0.0670963269 -0.4209079336 -0.0672635625 -0.4213254015 0.0421287755 0.3126541403
810295140.0 0.052209338 0.2968271743 -0.0715934715 -0.4202609639 -0.0714013795 -0.4208098057 0.0455116558 0.3133035154
815295110.0 0.0550562252 0.2964591246 -0.0762932445 -0.4193234414 -0.0763405637 -0.4198299896 0.0487003412 0.3123067452
820295080.0 0.0582393963 0.2956734817 -0.0807071122 -0.4184718185 -0.0804655191 -0.4188139681 0.0519456025 0.3115943422
825295050.0 0.061647387 0.2956099575 -0.0853404479 -0.4174936831 -0.0850350051 -0.4178984432 0.0552911611 0.3115170306
830295020.0 0.0647346043 0.2953466465 -0.0898634687 -0.4167228662 -0.0901389457 -0.4166751434 0.0581132248 0.3108261788
