!Created with skrf (http://scikit-rf.org).
# Hz S RI R 50.0 
!freq ReS11 ImS11 ReS21 ImS21 ReS12 ImS12 ReS22 ImS22
300000.0 -0.2123237801 -0.0654298968 -0.0019878514 0.0015319957 0.0014131171 0.000819354 -0.77225239 -0.1439234838
5299970.0 -0.2168446066 0.0077026745 0.0001862102 3.80646e-05 -4.61598e-05 0.0001115894 -0.7836661623 -0.0077258487
10299940.0 -0.2133332567 0.0193193737 -0.0001372019 0.0001712994 6.73785e-05 9.19282e-05 -0.7862979765 -0.0037779138
15299910.0 -0.2085315245 0.0286315466 -4.01891e-05 0.0001083866 2.77421e-05 0.0001135709 -0.7923300368 -0.0013813037
20299880.0 -0.2032363303 0.0357796693 7.8659e-05 -6.46002e-05 0.0001050721 -0.0001509738 -0.7987167087 0.0022339015
25299850.0 -0.1976029583 0.0422734776 -8.99199e-05 0.0001092683 0.0001091245 7.24811e-05 -0.8051022061 0.0084749916
30299820.0 -0.1920767724 0.0466944908 -0.0001733606 9.5968e-06 0.0001442625 -9.39423e-05 -0.8113838781 0.0168439852
35299790.0 -0.1864424501 0.0508098867 0.0001245643 -2.12387e-05 5.55419e-05 -3.39712e-05 -0.8167282316 0.0255151382
40299760.0 -0.1806745439 0.0537722229 -0.0001179387 0.0002782354 2.31056e-05 2.97928e-05 -0.8209530999 0.0346884119
45299730.0 -0.1754901031 0.0551848952 -0.0001016694 8.75512e-05 -1.81877e-05 8.2061e-06 -0.8246561775 0.044333798
50299700.0 -0.1709898654 0.0572154638 -1.45079e-05 3.78229e-05 -0.000116515 -4.87632e-05 -0.8269008958 0.0546019347
55299670.0 -0.1665100343 0.0579264938 3.729e-05 -0.0001218438 -1.05473e-05 2.97361e-05 -0.8298727216 0.0644077585
60299640.0 -0.1622963352 0.0588156855 3.00157e-05 0.0002456693 8.80897e-05 8.93382e-05 -0.8302162501 0.0742685768
65299610.0 -0.1588166583 0.059360897 -0.0001387978 -4.64511e-05 -3.74901e-05 -8.62559e-05 -0.8318960775 0.0844741503
70299580.0 -0.1560190667 0.0598617403 -4.92995e-05 6.24271e-05 0.0001589144 -0.0001692615 -0.8320220457 0.0944637425
75299550.0 -0.1526823037 0.0598715561 3.677e-07 -0.0001196271 5.22648e-05 0.0002383306 -0.8326686766 0.1043674978
80299520.0 -0.1499195985 0.0602014157 8.26101e-05 3.43886e-05 4.95795e-05 0.0001850314 -0.8321637963 0.114252612
85299490.0 -0.1478447607 0.059875472 -0.0002112512 4.63232e-05 0.000116183 0.0001975063 -0.8316943937 0.1239120088
90299460.0 -0.1456562692 0.0600401251 -5.47768e-05 3.8425e-06 2.60917e-05 9.45084e-05 -0.8307638742 0.133337397
95299430.0 -0.1433114111 0.0597723918 2.41102e-05 4.72227e-05 2.64409e-05 6.50364e-05 -0.8286250142 0.1430937054
100299400.0 -0.1419088189 0.0600737283 0.0001869056 -1.75887e-05 0.0001005001 0.0001579282 -0.8284175708 0.1521655527
105299370.0 -0.1401756078 0.0599243126 6.69114e-05 -0.0001450106 2.62362e-05 -1.7511e-05 -0.8262380831 0.1613715976
110299340.0 -0.1385490114 0.060283153 7.15132e-05 0.000240971 -5.4775e-06 0.0002135303 -0.8256304395 0.1705907711
115299310.0 -0.1370001586 0.0599236343 5.27579e-05 0.000139571 2.87013e-05 0.0001575085 -0.8239133917 0.1797802866
120299280.0 -0.1359691346 0.0597258113 -0.0001080987 9.2001e-06 -5.88286e-05 1.47554e-05 -0.8215192072 0.1887481442
125299250.0 -0.1350942005 0.0600332215 0.000255526 -6.23555e-05 0.0002060124 0.0001180163 -0.8204456818 0.1978675347
130299220.0 -0.1339188816 0.0601961493 9.08302e-05 -4.0774e-06 0.0001786155 0.0002187229 -0.818284279 0.2064458411
135299190.0 -0.1331265444 0.0607008635 4.1016e-05 -0.0001472325 0.0001080617 -2.78367e-05 -0.8161473153 0.2159537739
140299160.0 -0.1322304946 0.0607694515 0.0001097672 9.55234e-05 1.95113e-05 0.0001279072 -0.8134727973 0.2249296392
145299130.0 -0.1311704014 0.0613013542 0.000411024 -3.83221e-05 5.35178e-05 0.0001550395 -0.8113170164 0.2341279206
150299100.0 -0.1307076586 0.0617594734 0.0002512489 -5.69592e-05 -3.98231e-05 -0.0002316942 -0.8098039487 0.2429668006
155299070.0 -0.1301893953 0.061794891 5.91585e-05 4.62682e-05 -0.0001289983 5.07241e-05 -0.8059554641 0.251321026
160299040.0 -0.1296545689 0.0625235475 0.0001755178 7.35604e-05 0.0001513258 0.0001138326 -0.8045071753 0.2604707329
165299010.0 -0.1288229599 0.0629249467 0.0002214804 -1.43017e-05 -0.0001145287 -0.0001339507 -0.8019310801 0.2690484345
170298980.0 -0.1285244889 0.0634769008 0.0001926452 -0.0002862471 0.000122253 0.0002518007 -0.7984906189 0.2782507047
175298950.0 -0.1278154418 0.0639971249 5.07513e-05 0.0001579305 0.0001510011 -0.0001905337 -0.7959610378 0.2866050085
180298920.0 -0.1271217468 0.0649021023 -3.35364e-05 0.0002695516 -5.45671e-05 0.0003043004 -0.7926481326 0.2947971
185298890.0 -0.1265745651 0.065198394 -6.32636e-05 -0.0001437037 0.0001065563 -2.50957e-05 -0.7892121535 0.303625358
190298860.0 -0.1261437 0.0661785806 -0.0001283123 0.000114601 5.42842e-05 0.0002287899 -0.786949811 0.3126448523
195298830.0 -0.1258296165 0.0669488349 -0.000139217 -1.5485e-05 0.0001345367 0.0002075745 -0.7837558015 0.3215535783
200298800.0 -0.12494682 0.067386366 0.000154671 0.0001603167 -4.42958e-05 0.0001110438 -0.7812832228 0.3297407271
205298770.0 -0.1247443676 0.068188741 0.0002193822 0.0004435721 -2.21536e-05 7.56338e-05 -0.7769642924 0.3372872469
210298740.0 -0.1244108246 0.0690537943 0.0001134042 8.4436e-06 6.30405e-05 4.9144e-05 -0.7737892404 0.3464204252
215298710.0 -0.1243489546 0.0696688782 7.97062e-05 -5.02985e-05 -0.0001089742 0.0001077646 -0.7704782383 0.3542392223
220298680.0 -0.1235994819 0.0703605237 -2.12953e-05 9.78685e-05 0.0001585351 0.000277133 -0.7670609809 0.3622278248
225298650.0 -0.1231875749 0.0714214652 -0.0001498409 -1.06511e-05 -0.0001844875 0.000173164 -0.7636085688 0.3705395705
230298620.0 -0.1227344528 0.0722731646 0.0001676422 0.0001421129 9.8453e-05 -4.54527e-05 -0.7594883855 0.3790719527
235298590.0 -0.1220782088 0.0732276071 0.0001545711 0.0001726644 3.41211e-05 6.34631e-05 -0.7556492749 0.3870796825
240298560.0 -0.1218516285 0.0740181925 2.8244e-05 2.9773e-05 -3.12865e-05 -5.508e-06 -0.7514225041 0.3955994869
245298530.0 -0.1215291426 0.0751352238 1.298e-05 0.0001117039 3.63695e-05 0.0001262974 -0.7476514604 0.4026552033
250298500.0 -0.1208077848 0.0758679737 0.0001674345 0.0001197173 0.0001759817 0.0001841089 -0.7439019819 0.4105632378
255298470.0 -0.1209489623 0.0766686473 0.0002385508 1.32007e-05 4.81439e-05 4.83026e-05 -0.7389579093 0.4179650121
260298440.0 -0.1200572703 0.0775290185 0.0001801873 -6.5427e-05 -7.441e-07 0.0001655514 -0.7343060495 0.4266209095
265298410.0 -0.1196693305 0.0790472572 0.0001778862 -5.06446e-05 0.0003099189 0.0001323329 -0.7301502558 0.4333142333
270298380.0 -0.1192368329 0.0797862552 0.0001246455 -2.8621e-06 9.9875e-05 0.0001365474 -0.7252566488 0.4414589552
275298350.0 -0.1186124465 0.0807235457 0.000132686 -3.86814e-05 -4.702e-05 0.0001232521 -0.7205680778 0.4485748928
280298320.0 -0.1176160129 0.0815803912 6.75943e-05 9.69201e-05 6.55322e-05 0.0001857337 -0.7157043882 0.4556250313
285298290.0 -0.1172688751 0.0829595964 0.0002343272 8.18198e-05 3.2704e-06 0.0001318835 -0.7102376623 0.4639054594
290298260.0 -0.1165570645 0.0835683672 2.9309e-06 -0.0001263296 -4.45425e-05 -9.23295e-05 -0.7059054435 0.4711837614
295298230.0 -0.1159441094 0.0845482372 0.000306406 -6.70688e-05 -2.52352e-05 0.0001869722 -0.7004511919 0.4781077175
300298200.0 -0.1153140177 0.0854998959 9.86201e-05 0.0001172438 0.0002628229 0.0001680694 -0.6950025117 0.485414457
305298170.0 -0.1147342883 0.0865333265 7.21134e-05 0.000163945 1.233e-05 6.2012e-06 -0.6894296751 0.4926507918
310298140.0 -0.1140819669 0.0877878738 0.0001076136 0.0001097086 0.0001845334 -2.17112e-05 -0.6847112046 0.4993343359
315298110.0 -0.113248328 0.0890733125 9.32666e-05 4.36093e-05 3.7363e-05 3.76681e-05 -0.6790417642 0.5061211366
320298080.0 -0.1127857551 0.0896391461 6.4026e-05 0.0002199889 1.48724e-05 5.48399e-05 -0.6737851884 0.5145241059
325298050.0 -0.1121195339 0.0905018243 0.0002660899 0.0001477932 3.38471e-05 0.0001096919 -0.6681653535 0.5207491172
330298020.0 -0.1113603794 0.091478867 0.0001486149 0.0002110449 0.0002505903 0.0001692755 -0.6627444646 0.5280821822
335297990.0 -0.1109765945 0.0922676934 1.04628e-05 -3.5695e-06 0.0001221535 2.31759e-05 -0.6573100122 0.5348133207
340297960.0 -0.1108367894 0.0936867797 0.0003436535 0.0001447473 0.0001665276 -0.0001628744 -0.6511639405 0.5422482148
345297930.0 -0.1100474272 0.0947713716 -4.42014e-05 -1.72975e-05 0.0001565597 4.39181e-05 -0.6460083363 0.5482955994
350297900.0 -0.1092528806 0.0959063036 0.0001914831 -0.0001998767 0.000107697 -3.95222e-05 -0.6401448066 0.5553170029
355297870.0 -0.1081778957 0.0969968453 0.000159655 -0.0001468146 0.0003941833 0.0001404164 -0.6347272935 0.5617710805
360297840.0 -0.1078779033 0.0980192729 -0.0001132508 0.0001972323 0.0001511925 0.0001101647 -0.6288670913 0.5685468903
365297810.0 -0.1069634508 0.0995675385 0.0002194686 4.40106e-05 -2.95302e-05 -8.5562e-05 -0.6230102441 0.5752976582
370297780.0 -0.1063356086 0.1004757982 0.0001749448 0.0003874704 0.0001953497 0.0001111638 -0.6167823453 0.5824077973
375297750.0 -0.1053866846 0.101951884 0.0004788777 0.0001260573 0.0002264859 5.46352e-05 -0.6114475634 0.5878959164
380297720.0 -0.1048794651 0.1024857386 0.000106923 0.000288589 0.0001385802 0.0001715857 -0.605033435 0.5946471002
385297690.0 -0.1040530817 0.1036617534 0.0001563914 0.0001153181 -0.0001097579 8.04129e-05 -0.5984759411 0.6010966057
390297660.0 -0.1034681567 0.1049351728 0.0001415296 -8.43461e-05 0.0002825736 -5.96216e-05 -0.5932048237 0.6072354901
395297630.0 -0.1020742842 0.1061599564 5.00727e-05 -2.78567e-05 0.000201702 -3.6191e-06 -0.5863348017 0.6138841639
400297600.0 -0.1013191573 0.1072760209 0.0002739395 0.000312548 0.0002391068 -3.59617e-05 -0.5803160834 0.6189949141
405297570.0 -0.1007766799 0.1083858871 3.63778e-05 0.0001940197 0.000148086 1.62784e-05 -0.5733684312 0.624955114
410297540.0 -0.1000811007 0.109321565 0.0001144981 -4.85996e-05 1.50307e-05 0.0002850979 -0.5668630775 0.6314340666
415297510.0 -0.0989038331 0.1100793326 -7.15194e-05 0.0001367072 0.000207894 -5.214e-06 -0.5608517028 0.6369873581
420297480.0 -0.0983806652 0.1116309509 0.0001097544 2.02518e-05 -7.13252e-05 0.0002247273 -0.5539558863 0.642578019
425297450.0 -0.0971427661 0.1124016353 0.0001132645 -4.707e-07 0.0001252901 0.0001167139 -0.547341853 0.6480451331
430297420.0 -0.0962184778 0.1134942865 6.89704e-05 0.0001622129 0.0002456788 0.0001794802 -0.5407949309 0.6531643743
435297390.0 -0.0955124574 0.1146443379 0.0002306837 -7.93293e-05 7.92441e-05 0.0002142689 -0.5335613688 0.6584855371
440297360.0 -0.0946593847 0.1156755666 0.0003399969 0.0002605537 2.93554e-05 0.0001704167 -0.5267140225 0.6636677587
445297330.0 -0.0936178239 0.1164865063 0.000289716 5.83334e-05 0.0002763493 -2.97184e-05 -0.5195990135 0.6684718721
450297300.0 -0.0924395652 0.1175273895 0.0003110266 0.000100507 9.40964e-05 -6.22688e-05 -0.5128781495 0.6735902097
455297270.0 -0.0915040935 0.1187109432 0.0001782381 0.0001055937 0.0003216228 7.84784e-05 -0.5056659805 0.6782268956
460297240.0 -0.0904955717 0.1192985091 0.0003229972 -9.17428e-05 0.0002521734 8.7268e-05 -0.4989456412 0.683494756
465297210.0 -0.0894798076 0.1205665822 -3.28171e-05 0.000169055 0.000153953 -1.5322e-05 -0.4910686503 0.6883448546
470297180.0 -0.0884021119 0.1216117724 8.8795e-05 0.000302976 0.0001309687 9.8167e-06 -0.4841089839 0.6935045437
475297150.0 -0.0874187423 0.1224412454 0.000181848 5.78914e-05 0.0001045557 0.0001887008 -0.4769679043 0.6981936744
480297120.0 -0.0863259588 0.123717213 0.0002286505 0.0001352894 0.0001880463 0.0001072532 -0.4693158511 0.7032177071
485297090.0 -0.0855580702 0.1244384123 0.0001977192 7.93985e-05 9.96446e-05 1.0176e-05 -0.4626824684 0.7078618738
490297060.0 -0.0845924633 0.1257473196 0.0001459337 2.9841e-05 0.0003617222 6.41298e-05 -0.4547720292 0.7118916318
495297030.0 -0.0834538863 0.1266554405 0.0004049148 9.90548e-05 0.0003271643 -8.28658e-05 -0.4477811517 0.7172197866
500297000.0 -0.0819183691 0.1272094505 7.93572e-05 0.000184458 0.0002029082 7.95376e-05 -0.4401278985 0.7222227454
505296970.0 -0.0809507764 0.1283712009 0.0002251829 -6.5143e-06 0.0003606755 4.69993e-05 -0.4328257642 0.7257942359
510296940.0 -0.0799029759 0.129201318 0.0002560422 -5.49517e-05 8.13451e-05 6.01776e-05 -0.4252581541 0.7306937133
515296910.0 -0.0786142091 0.1300796695 8.84515e-05 9.04966e-05 0.0002498563 5.98078e-05 -0.4177429484 0.7349026755
520296880.0 -0.0776734461 0.1311780741 0.0001496955 -6.72171e-05 0.0003452702 0.0001010243 -0.4102964811 0.7391573345
525296850.0 -0.0762901957 0.1317617979 0.0001831692 0.0001638994 7.44725e-05 9.81344e-05 -0.4032514921 0.7434688113
530296820.0 -0.0751196727 0.1330146131 0.0001059533 0.0001621442 0.0001073809 0.0001740609 -0.3958549727 0.7472039424
535296790.0 -0.0742398826 0.1340476444 0.0003355106 0.0001366559 0.0001397021 4.0958e-06 -0.3888537195 0.7511982491
540296760.0 -0.0728962851 0.1346789898 0.0001601636 0.0001622532 0.0002005044 -4.29536e-05 -0.3799461954 0.7551796064
545296730.0 -0.071900416 0.1357572469 0.000239956 3.57303e-05 0.0001182538 8.20795e-05 -0.3731395207 0.7589025702
550296700.0 -0.0703585084 0.1363337634 0.000397082 0.0001378369 0.0002993817 -0.0001682907 -0.3647149606 0.763455463
555296670.0 -0.0692307157 0.1369671986 0.0003626399 6.99295e-05 0.0001190816 -8.71009e-05 -0.3579025566 0.7671830318
560296640.0 -0.0680565238 0.1382017561 0.0004184622 -0.0001844326 0.0001956786 9.26221e-05 -0.3495899596 0.7709845349
565296610.0 -0.0670279788 0.1390951816 0.0001274739 7.44346e-05 0.0002761031 -5.81401e-05 -0.3416790335 0.7740462774
570296580.0 -0.065597625 0.1397620662 0.0001345612 6.90779e-05 0.0003908596 6.50068e-05 -0.3348599077 0.7778398354
575296550.0 -0.0644372647 0.1409963593 7.5683e-05 0.0002079631 7.55706e-05 -3.7625e-05 -0.326504538 0.780950093
580296520.0 -0.0628736972 0.1414406327 4.98903e-05 -0.0001597561 0.0001745849 3.80901e-05 -0.3177236423 0.7842672284
585296490.0 -0.0619515877 0.1419985066 0.0001459189 0.0001418948 0.0001286099 -2.3227e-06 -0.3101619416 0.787612228
590296460.0 -0.0601611201 0.142931828 0.0001715679 -4.9946e-06 0.0002350026 9.63683e-05 -0.3023475459 0.7904260929
595296430.0 -0.0593557573 0.1440648058 0.0002132134 0.0001358008 5.07526e-05 -0.0001721881 -0.2937886099 0.7922744476
600296400.0 -0.0580796291 0.1444925526 0.0001227357 -0.0001940267 0.0002030259 2.63605e-05 -0.2866507762 0.7950482545
605296370.0 -0.0570568642 0.1452372169 0.0002237016 8.82582e-05 0.0001290665 9.55695e-05 -0.2776548613 0.7983207233
610296340.0 -0.0555733312 0.145811735 0.0001750643 -2.20572e-05 0.0003669428 7.93962e-05 -0.2701622435 0.8001808961
615296310.0 -0.0538486228 0.1465152742 0.0001332526 2.0276e-06 0.0002072893 1.75356e-05 -0.2613167052 0.8029203243
620296280.0 -0.0529923608 0.1469564289 0.0002501613 0.0001204365 0.000260866 3.35299e-05 -0.2537676469 0.8059623299
625296250.0 -0.0515741089 0.1478086996 0.0003507147 0.0001176032 0.0003267852 0.0001191658 -0.244858179 0.8074794483
630296220.0 -0.0499156732 0.1482684958 0.0001812481 2.0946e-06 0.000202961 0.0001533435 -0.2368894748 0.8105158786
635296190.0 -0.0487364446 0.1491584363 0.0002003435 -5.91316e-05 0.0001325354 4.57974e-05 -0.2291365789 0.812189525
640296160.0 -0.0472444606 0.1497750804 0.0001059529 0.0003095961 0.000188564 -5.16994e-05 -0.2204023213 0.8145184322
645296130.0 -0.0459844946 0.1508919145 0.0003592173 -7.43981e-05 9.80989e-05 9.35329e-05 -0.2121903367 0.8166528649
650296100.0 -0.0445920314 0.1512843106 6.97066e-05 5.94086e-05 0.0002783156 -0.0002662592 -0.2042168422 0.8178441653
655296070.0 -0.0432441212 0.1516333457 0.0001519661 -2.7465e-05 0.0002009824 6.4722e-05 -0.1949257071 0.8196708905
660296040.0 -0.0421280918 0.1523878104 0.0003340973 -0.0001427548 0.0001876307 0.0002647507 -0.1870127744 0.8223026461
665296010.0 -0.0403814093 0.1524096778 4.22865e-05 -8.78704e-05 0.0004527043 -3.0031e-05 -0.17847836 0.824507293
670295980.0 -0.0392709629 0.1535099279 0.0002989805 3.0368e-06 0.0001242921 -0.0001262125 -0.1708227109 0.825848918
675295950.0 -0.0377165234 0.1537828255 0.0001430484 7.0195e-05 0.0003081396 4.89521e-05 -0.1626173319 0.8279412316
680295920.0 -0.0363996106 0.1546096047 0.0003192352 0.0001374652 0.0003702988 -0.0002304854 -0.1539167004 0.8297769974
685295890.0 -0.0344920747 0.1552780655 0.000347527 5.3778e-06 0.0003162309 0.0002017921 -0.1452785075 0.8310110535
690295860.0 -0.0332403005 0.1554863894 0.0003734282 0.0002064788 0.0002681109 -0.0001975794 -0.1372704673 0.8330884405
695295830.0 -0.0320948772 0.156276595 0.000213835 -1.63885e-05 7.54216e-05 -4.72651e-05 -0.128240491 0.8345147664
700295800.0 -0.0303768296 0.1565853831 0.0003936686 0.0001327507 0.0002173473 5.89048e-05 -0.1209200042 0.8356834134
705295770.0 -0.0292774222 0.1574062345 0.0001383941 0.0001050628 0.0003283614 9.64806e-05 -0.1125357316 0.8379708241
710295740.0 -0.0275561889 0.1577993949 0.0003365807 1.77947e-05 0.0002369935 6.15088e-05 -0.1035837727 0.8387147612
715295710.0 -0.0261815968 0.1578461766 0.0001741024 -0.0002303804 0.0002207782 1.77919e-05 -0.0954881252 0.838737942
720295680.0 -0.024696969 0.1585570491 0.0001873084 0.0002463572 0.0003605987 1.966e-05 -0.0872529998 0.8408612681
725295650.0 -0.0233601486 0.1590139173 0.0002485904 -0.0003791411 0.0003493766 -6.03151e-05 -0.0792622113 0.8419494249
730295620.0 -0.0218687094 0.1595602765 0.0001152903 2.97407e-05 0.0001064891 6.0242e-05 -0.0709648542 0.842259028
735295590.0 -0.0203207988 0.1599048112 8.8987e-05 -0.0002344045 0.0003741656 -0.0001747642 -0.0622222082 0.8422285132
740295560.0 -0.0188225957 0.1605499722 0.0002649258 3.42125e-05 0.0002611879 0.000160299 -0.0535724458 0.8438266819
745295530.0 -0.0177008137 0.1607389053 0.0004245304 -0.0002435691 0.0002596037 0.0001555589 -0.0453626654 0.8432816888
750295500.0 -0.0159077158 0.1613270122 0.0003709434 7.1328e-06 0.0002654709 -0.000149676 -0.0371623788 0.8441206827
755295470.0 -0.014681469 0.1614048023 0.0003564913 4.25034e-05 0.0003219476 0.0001150207 -0.028639528 0.8436742136
760295440.0 -0.0130501853 0.161817231 0.0004360158 5.23931e-05 0.0002018775 0.0001762348 -0.0204400569 0.8439683953
765295410.0 -0.0114812507 0.1621721333 0.0004720776 0.0001757845 0.0004421172 -5.75137e-05 -0.0116861764 0.8446801575
770295380.0 -0.0099202238 0.1622217507 0.000174415 -0.0001075058 0.0001447353 0.0001112119 -0.003476945 0.8442181116
775295350.0 -0.0089268886 0.1625983411 0.0003765886 -4.64928e-05 0.0001391384 4.11977e-05 0.0043827799 0.8437054603
780295320.0 -0.0072551673 0.1628810135 0.0004171398 2.84139e-05 0.0001709108 -0.0002410397 0.0130349061 0.8433632165
785295290.0 -0.005747583 0.1629270983 7.1004e-05 -4.9237e-06 5.93012e-05 -1.78944e-05 0.0213145976 0.842993546
790295260.0 -0.0039595434 0.1635960985 0.0004803333 2.93215e-05 0.0001682902 4.20878e-05 0.030356667 0.8431339554
795295230.0 -0.0024736054 0.1638686974 0.0003683585 -1.08355e-05 0.0004353686 8.29613e-05 0.0390074381 0.8417539929
800295200.0 -0.0013167687 0.1637331628 0.0003942488 -5.37018e-05 0.0004785096 -0.0001972566 0.0473597672 0.8416124281
805295170.0 0.0007003841 0.1637805928 0.0003370464 2.5812e-05 0.0002650722 0.0001389347 0.0551150829 0.8419107361
810295140.0 0.0021520709 0.1641275293 0.0001136696 -0.0002996465 0.0002391706 -0.0001382696 0.0639456602 0.8406111148
815295110.0 0.0036941265 0.1642387199 0.0003648043 2.75106e-05 0.0003343733 -0.0002053925 0.0725614672 0.8400333455
820295080.0 0.0052088057 0.1646357462 0.0003269393 -7.19182e-05 0.0001449453 -2.6412e-06 0.0806531937 0.8396354148
825295050.0 0.0069027155 0.1643873995 0.000400969 -0.0003632385 0.0003266398 -0.0002904617 0.089104213 0.8384118357
830295020.0 0.0086230558 0.1647912693 0.0003650955 -4.65107e-05 0.0002827926 -0.0001331315 0.0981960103 0.8373352976
835294990.0 0.009526585 0.1648581632 0.0004208816 -0.0003368292 0.0004244425 -0.0001390016 0.1059303788 0.8374123605
840294960.0 0.0112596488 0.1652670857 7.83987e-05 1.70703e-05 0.0002916626 -0.0001545252 0.1142651048 0.8352659216
845294930.0 0.0130004593 0.1648965896 0.0002225752 -9.23993e-05 0.0003128722 -0.0003047933 0.1225019862 0.8344957724
850294900.0 0.0144635309 0.1654086252 0.0003522673 -0.0001211881 0.000340008 4.6125e-05 0.1305120201 0.8336207518
