!Created with skrf (http://scikit-rf.org).
# Hz S RI R 50.0 
!freq ReS11 ImS11 ReS21 ImS21 ReS12 ImS12 ReS22 ImS22
300000.0 -0.7811245225 -0.1038463633 0.0003229733 -0.0008332732 0.0003259951 0.0004452431 -0.049867628 -0.0627132793
5299970.0 -0.7847370975 -0.0062153214 0.0001533577 4.39571e-05 9.6697e-06 -0.0003220348 -0.0502530544 0.0156992167
10299940.0 -0.7880904166 -0.0043400769 -3.8862e-05 -5.10212e-05 3.7089e-06 1.56202e-05 -0.0442319652 0.0337513081
15299910.0 -0.7931866127 -0.0022238788 5.10396e-05 3.39963e-05 0.0001569267 0.0001393226 -0.0356450139 0.0482140482
20299880.0 -0.8001102332 0.0019713502 5.52333e-05 -0.0001095099 0.0001733165 -0.0001086104 -0.025315961 0.0601211972
25299850.0 -0.8063524423 0.0071921233 -0.0001096882 -0.0001135056 7.41013e-05 -0.0001345911 -0.0140770331 0.0693848065
30299820.0 -0.8126637774 0.014706859 0.0001747109 -3.36822e-05 1.71144e-05 3.9379e-06 -0.002056253 0.0760989835
35299790.0 -0.8177026897 0.0244598221 1.25892e-05 -3.08709e-05 -6.62095e-05 0.0001179423 0.009300129 0.0810376698
40299760.0 -0.8215111197 0.0338429887 8.97301e-05 0.0001695934 3.57963e-05 -0.0001013938 0.0206691765 0.083350135
45299730.0 -0.8248246868 0.0432393176 0.0001168924 -0.0001418167 0.0001125322 -8.90842e-05 0.031460731 0.0850803196
50299700.0 -0.8270857574 0.0526867729 0.0001625571 6.00338e-05 0.0001217495 -4.83993e-05 0.041613783 0.0846410416
55299670.0 -0.8297519497 0.0631346402 -0.0001012596 0.0001279674 0.0001147574 1.73466e-05 0.0507341203 0.0834906429
60299640.0 -0.8299186514 0.0732000313 -0.0001266687 -1.63063e-05 -0.0001586144 -4.81991e-05 0.0595538573 0.0815468756
65299610.0 -0.8307947678 0.0831202276 0.0001265299 3.88466e-05 8.72916e-05 6.17493e-05 0.0672116276 0.0791117461
70299580.0 -0.8317901485 0.0931330994 3.71625e-05 5.66351e-05 -1.63768e-05 3.94084e-05 0.0739937366 0.0758581609
75299550.0 -0.8319959923 0.1036549989 6.97326e-05 0.0001172983 0.0001465782 3.42775e-05 0.0802711332 0.0724551876
80299520.0 -0.8319694317 0.1133345072 -5.456e-06 4.41303e-05 0.0001640234 0.0002188272 0.0860873206 0.0691537764
85299490.0 -0.8311537984 0.1226842656 0.0001580737 7.72351e-05 -4.89549e-05 9.28925e-05 0.0911747854 0.064916584
90299460.0 -0.8303805946 0.132015006 -0.0003041011 0.0001660934 2.02346e-05 2.5019e-05 0.0957171318 0.0608910161
95299430.0 -0.8290909515 0.1413635421 0.0001049354 -8.76818e-05 8.64186e-05 0.00019811 0.0996967857 0.0570657355
100299400.0 -0.8282188239 0.1511275885 0.0002409711 -8.03509e-05 8.54826e-05 3.1365e-05 0.1038255824 0.0528794393
105299370.0 -0.8269759281 0.1604368103 -2.54866e-05 9.02286e-05 -7.49116e-05 0.00023779 0.1070447785 0.0487617389
110299340.0 -0.8250923981 0.1691878577 -5.3897e-05 0.0001063865 -9.32501e-05 7.51101e-05 0.109688447 0.0447119438
115299310.0 -0.8241523366 0.17809167 -4.29298e-05 -6.8777e-06 7.18565e-05 1.2629e-06 0.1123340392 0.0409033953
120299280.0 -0.8221406485 0.1867703683 6.14045e-05 0.0003280173 -0.0001708834 -5.5881e-05 0.1146072126 0.0368708433
125299250.0 -0.8204566704 0.1956791221 -0.000167472 -0.0001748934 -1.44457e-05 -3.22149e-05 0.1164461869 0.0325699001
130299220.0 -0.8186841616 0.2054224303 -2.48351e-05 0.0001819148 -3.20181e-05 0.0001399831 0.1182928019 0.0290261533
135299190.0 -0.8169301313 0.2140022693 -0.0001666639 -6.45035e-05 5.694e-05 -0.0002008665 0.1197841058 0.025122613
140299160.0 -0.8152423597 0.2229837506 5.35401e-05 8.90019e-05 0.000146701 8.40981e-05 0.1213443374 0.0216645007
145299130.0 -0.8129034921 0.2319663992 4.25071e-05 9.30623e-05 -0.0001244969 -2.40406e-05 0.1220449187 0.0180004337
150299100.0 -0.8102081138 0.2407851902 0.0002482775 -1.51263e-05 -1.0435e-06 8.56958e-05 0.1227539775 0.0149556999
155299070.0 -0.8078149251 0.2495594359 -0.0001766497 8.53542e-05 -7.72859e-05 9.992e-06 0.1239836324 0.0115198719
160299040.0 -0.8052099415 0.2581074289 2.024e-07 -0.0002375381 -0.000127429 -9.2936e-06 0.1239738661 0.0084368059
165299010.0 -0.80256251 0.2667747583 7.4052e-06 -9.38374e-05 2.1318e-06 -1.32771e-05 0.1247551814 0.0048196403
170298980.0 -0.8000934061 0.2752636702 -0.0001541794 -1.36528e-05 -3.05708e-05 1.56671e-05 0.1250830704 0.0016118039
175298950.0 -0.7970376208 0.2845629153 0.0001855517 2.93152e-05 0.0001363988 4.85094e-05 0.1252334016 -0.0014761685
180298920.0 -0.7949943539 0.2923405054 4.51587e-05 0.0001090794 0.0001371822 0.0001615795 0.1254502248 -0.0039404861
185298890.0 -0.79133884 0.3008304004 1.10998e-05 0.0001659181 -9.44777e-05 -3.07716e-05 0.1256334465 -0.0070965239
190298860.0 -0.7884320733 0.3094703141 9.30486e-05 -1.94906e-05 9.85898e-05 0.0002002369 0.1256095542 -0.0098999898
195298830.0 -0.785281357 0.3174282603 4.21868e-05 -0.0001402476 0.0001259189 -2.90564e-05 0.1252441866 -0.0128585231
200298800.0 -0.7815376785 0.3261285691 0.000105495 3.83148e-05 0.0001545131 -0.0001332281 0.1249941279 -0.0157419582
205298770.0 -0.778285144 0.33392901 -7.5815e-06 7.91442e-05 -2.21843e-05 0.0001336117 0.1245375549 -0.0188118355
210298740.0 -0.7751929173 0.342560441 5.96611e-05 -9.54041e-05 6.2508e-05 0.0001271908 0.1241216318 -0.0210323859
215298710.0 -0.7715191467 0.3508315623 3.52101e-05 5.77357e-05 -0.0001102084 2.87376e-05 0.1237723589 -0.0236689742
220298680.0 -0.7673069184 0.3585944003 -0.0003960253 -7.68307e-05 0.0001115245 0.0002012948 0.1230261745 -0.0263945838
225298650.0 -0.7642382987 0.3664711271 0.0001002342 -0.0001583957 0.0001092926 -4.33931e-05 0.1220033826 -0.0286680281
230298620.0 -0.7600741839 0.3747159961 1.0868e-05 -5.46561e-05 -7.36904e-05 6.63091e-05 0.1220380486 -0.0312520396
235298590.0 -0.7566360462 0.3831025493 5.34567e-05 7.42839e-05 3.37805e-05 0.0002154217 0.1211392003 -0.0335910045
240298560.0 -0.7524893619 0.3908205346 7.57949e-05 0.0001010369 0.0001345964 3.45477e-05 0.1205284997 -0.0359987911
245298530.0 -0.7488209779 0.3991018236 -0.0001448481 -0.0001041164 0.0003158032 4.77846e-05 0.1197571107 -0.0384441488
250298500.0 -0.7441970364 0.4068336714 -0.0002264378 0.0002049542 0.0003097142 5.8398e-05 0.1186580435 -0.041005941
255298470.0 -0.739899679 0.4138001023 4.74869e-05 -0.0001207582 -2.41605e-05 5.93957e-05 0.1180108067 -0.0432704176
260298440.0 -0.7357041299 0.421485452 2.04376e-05 5.51821e-05 6.57095e-05 0.0001928384 0.1172512001 -0.0452000113
265298410.0 -0.7313036275 0.4297151062 4.15299e-05 0.0001050211 0.000246673 -0.0001210743 0.1166011811 -0.0472980198
270298380.0 -0.7268193303 0.4371781079 -5.31792e-05 -0.0001282348 0.000102733 7.26796e-05 0.115602128 -0.0493781595
275298350.0 -0.72202917 0.4443664254 2.2922e-06 5.61241e-05 0.0001578322 0.0001911643 0.114740781 -0.0514777732
280298320.0 -0.7168503882 0.4524151121 5.53405e-05 -8.41253e-05 -4.07276e-05 -8.94443e-05 0.1140420454 -0.0534655334
285298290.0 -0.7130284622 0.4598431236 0.0001788869 9.34621e-05 0.0001135892 0.0001107051 0.1132095025 -0.055484404
290298260.0 -0.7082548397 0.4673877219 0.0003412008 -5.07837e-05 -7.53551e-05 0.000321769 0.1124499826 -0.0573253065
295298230.0 -0.7025506951 0.4742691665 0.0001642679 -6.34666e-05 7.89067e-05 1.06204e-05 0.1113934561 -0.0593831036
300298200.0 -0.6980417028 0.481541018 0.000116325 -7.14039e-05 -5.73468e-05 0.0001556413 0.11030065 -0.0612199997
305298170.0 -0.692987767 0.4883367044 -4.95144e-05 0.0001088925 4.3297e-05 9.24905e-05 0.1097895394 -0.0633370452
310298140.0 -0.6877653464 0.4957340492 0.000186841 1.0147e-06 -5.33609e-05 0.000164041 0.1082123548 -0.0653976519
315298110.0 -0.6830152319 0.5030504476 2.36232e-05 -2.78511e-05 0.0001312356 8.38032e-05 0.1070723549 -0.0672463392
320298080.0 -0.6779357715 0.5101452977 -2.23377e-05 5.87558e-05 3.17358e-05 1.10246e-05 0.1058366822 -0.0691475241
325298050.0 -0.6718281506 0.5171591748 -8.51655e-05 -3.4779e-05 8.77785e-05 0.000130176 0.1041955149 -0.0710582982
330298020.0 -0.6665507938 0.5237454281 -3.69103e-05 0.0001562739 0.0001674333 8.67086e-05 0.1027073039 -0.0721823089
335297990.0 -0.6613215091 0.530677286 2.15634e-05 0.0001053699 -8.63589e-05 3.85185e-05 0.1012939773 -0.0735873474
340297960.0 -0.6557706743 0.537354197 0.0001293855 -9.445e-07 1.00733e-05 0.0001214327 0.1005938232 -0.0749986466
345297930.0 -0.650159349 0.5440058047 9.24712e-05 0.0001184014 0.0002733452 0.0001874609 0.0984653771 -0.0766573836
350297900.0 -0.6448741741 0.5504959238 -0.0001371469 5.9995e-06 5.17834e-05 -8.94409e-05 0.0972723115 -0.0776605491
355297870.0 -0.6382181745 0.5579022425 -0.0001372547 0.0001410316 -0.0001018111 0.000107697 0.0955749799 -0.0792336575
360297840.0 -0.6322810589 0.563619845 -1.93677e-05 6.5961e-05 6.83173e-05 -5.51321e-05 0.0945068206 -0.0806201331
365297810.0 -0.6271732316 0.5705735614 8.0605e-06 7.50143e-05 3.0302e-05 9.58328e-05 0.093224939 -0.0821661269
370297780.0 -0.621160424 0.5767832861 -9.5486e-05 0.0001103533 -1.31424e-05 -0.0001115316 0.0916496015 -0.0830702716
375297750.0 -0.6152364651 0.5835109366 8.18353e-05 0.0001845783 -7.86562e-05 0.0001561032 0.0900042669 -0.0845397598
380297720.0 -0.608517096 0.588564317 0.0002357695 -8.12494e-05 0.0001525965 0.0001660869 0.0883383203 -0.0856116333
385297690.0 -0.6034639032 0.5949334042 0.000258345 -3.2807e-06 0.0001688408 -0.0001221699 0.0873033036 -0.0870212813
390297660.0 -0.5972042414 0.6010655514 0.0002398919 -1.32503e-05 0.0003720293 -0.0001406172 0.0857629586 -0.0877710889
395297630.0 -0.5903273707 0.6077621471 -0.0002075087 3.8702e-06 3.27746e-05 -7.54262e-05 0.0845809303 -0.0891444692
400297600.0 -0.5840261874 0.6140966721 1.93772e-05 -0.0001007791 -2.641e-06 -7.2102e-05 0.0830800642 -0.0903447021
405297570.0 -0.5782096213 0.6195733476 4.4738e-06 -0.0001118188 -3.19196e-05 0.0001461969 0.0810733802 -0.0915922891
410297540.0 -0.5716608022 0.6245302492 0.0001521589 0.0001385529 0.0001471353 9.73692e-05 0.0799782987 -0.0927329473
415297510.0 -0.5647880422 0.6311512519 -2.41585e-05 0.0001553105 -2.77343e-05 3.63084e-05 0.078252037 -0.0939766364
420297480.0 -0.5594528351 0.6371345779 -8.66532e-05 0.0001819205 0.000112939 -1.0775e-06 0.0769651364 -0.0948977892
425297450.0 -0.5518113385 0.6421235371 0.0001358532 -4.42464e-05 0.0002970033 -3.72365e-05 0.0755881902 -0.0959174209
430297420.0 -0.5454856389 0.6479548159 5.87252e-05 7.65213e-05 2.81409e-05 9.75372e-05 0.0738226598 -0.0971763661
435297390.0 -0.5390467731 0.6533036231 0.0001598003 -0.000118745 -0.0001684755 0.0001410499 0.0723520826 -0.098162556
440297360.0 -0.5323665216 0.6587430137 0.000143805 -5.55128e-05 7.97508e-05 2.28453e-05 0.0708222511 -0.0990442868
445297330.0 -0.5249412265 0.6640410483 0.000141151 -6.4907e-05 -4.5548e-05 -0.000200354 0.0694912435 -0.1005969668
450297300.0 -0.5181661198 0.6690141575 1.39119e-05 1.6809e-05 0.0001381327 5.73736e-05 0.0680235257 -0.1011189699
455297270.0 -0.5117760303 0.6743570972 9.83738e-05 3.67957e-05 -0.0001141909 0.0001490777 0.0663086424 -0.1021152512
460297240.0 -0.5052454463 0.6796007617 0.0001607293 -6.63748e-05 0.0003628387 0.0001567403 0.0646063725 -0.102556951
465297210.0 -0.4983460595 0.6847680367 1.21226e-05 8.88995e-05 4.97232e-05 0.000227473 0.0631057585 -0.1035832527
470297180.0 -0.490399815 0.6895680966 0.000148235 0.0001653513 0.0004142548 -9.75144e-05 0.0617308951 -0.1043915383
475297150.0 -0.4835848085 0.6947245672 0.0001803123 -6.47615e-05 0.0002824827 8.49691e-05 0.0603705097 -0.1053679438
480297120.0 -0.4766873651 0.6992337396 5.00923e-05 0.0001645939 0.0002846653 0.0001810732 0.0590366515 -0.1058486118
485297090.0 -0.4688250173 0.7043251405 0.000199155 2.29735e-05 0.0001089725 -9.48106e-05 0.0570728341 -0.1066492393
490297060.0 -0.4628002761 0.7082864677 -7.40861e-05 -9.21147e-05 1.78268e-05 3.18712e-05 0.0555004591 -0.1075133158
495297030.0 -0.455259968 0.7131797698 0.0001944969 8.34524e-05 6.25629e-05 1.78797e-05 0.0540153659 -0.1076233345
500297000.0 -0.4478167376 0.7179470643 -9.12102e-05 -4.65809e-05 0.0001772843 3.49852e-05 0.0523404019 -0.1082762148
505296970.0 -0.4405269164 0.7222715284 3.70467e-05 -1.36475e-05 0.000273099 -0.000175318 0.0507086603 -0.1093356643
510296940.0 -0.4332923692 0.7268402622 0.0001795867 9.05954e-05 0.0001193242 1.03402e-05 0.0489215847 -0.1095920924
515296910.0 -0.4247791769 0.7303928647 -0.0001365766 2.83488e-05 -8.5081e-06 4.20635e-05 0.0475031888 -0.1101550555
520296880.0 -0.418689605 0.7357324878 0.0001394148 0.0001888706 0.0002594587 -0.0002434265 0.04569265 -0.1107531112
525296850.0 -0.4102962102 0.7388786252 0.0001801624 0.000145571 7.59723e-05 0.0001211883 0.044049698 -0.1109018273
530296820.0 -0.4030092673 0.7432437899 0.0001097536 -0.0001441192 7.03196e-05 -0.0001285935 0.0425256817 -0.1113775384
535296790.0 -0.3958324277 0.7469158547 -3.33874e-05 -3.46391e-05 5.891e-06 0.0001460179 0.0406150315 -0.1117999464
540296760.0 -0.3888043489 0.7507801401 -5.26474e-05 0.0001212187 0.000109948 -0.0001038321 0.0389810595 -0.1122059563
545296730.0 -0.3807209927 0.7548874612 -2.32975e-05 5.98328e-05 -2.97467e-05 5.15529e-05 0.0371008332 -0.1130987189
550296700.0 -0.3735723638 0.7584147651 0.0003862999 4.45008e-05 2.51755e-05 0.0002141749 0.0354251779 -0.1134574011
555296670.0 -0.365504241 0.7616189163 8.2368e-05 0.0002410096 3.94802e-05 -0.0001765363 0.0337439626 -0.1132919475
560296640.0 -0.3578571973 0.7657509137 0.0002796673 9.87598e-05 0.0001346746 9.77062e-05 0.0320693391 -0.1140643611
565296610.0 -0.3498696243 0.7694241699 4.90432e-05 8.51779e-05 0.0001099231 0.0002310527 0.0304403508 -0.1144909204
570296580.0 -0.3429528366 0.772388908 0.0001130733 0.0002984142 -0.0001320082 0.0001334338 0.0285372888 -0.1146758818
575296550.0 -0.3352348833 0.7765302538 9.82667e-05 -4.35174e-05 0.0001352898 -4.74431e-05 0.0268133603 -0.1149138261
580296520.0 -0.3262365961 0.779749411 0.0001506625 0.0001500701 5.84524e-05 3.77199e-05 0.0252815336 -0.1151918214
585296490.0 -0.3188667357 0.7824752515 0.0001552494 -3.71197e-05 -1.80805e-05 0.0002184699 0.0237139417 -0.1156318976
590296460.0 -0.3106577608 0.7861343466 0.0001840145 -1.03979e-05 7.27579e-05 3.69375e-05 0.0216203953 -0.1155799018
595296430.0 -0.302938668 0.7886290825 2.73953e-05 -6.6934e-06 0.0003476923 -4.4543e-06 0.0199230954 -0.1161201147
600296400.0 -0.2950366724 0.7920747121 0.0003636714 -0.0001231866 2.58569e-05 0.0001578437 0.0182320721 -0.1164647144
605296370.0 -0.2878485726 0.7948369288 -2.01299e-05 -0.0001243004 0.0002511397 0.0001802074 0.0169241294 -0.1164720487
610296340.0 -0.2792231258 0.7973745928 -4.06581e-05 0.0001032796 0.0002596178 -0.0001214263 0.0153272202 -0.1163106956
615296310.0 -0.2709000192 0.7999788464 5.16123e-05 -4.04931e-05 0.0002824918 2.98822e-05 0.0135459526 -0.1170270495
620296280.0 -0.2634214276 0.8023136096 0.0002278526 7.42842e-05 0.0001228845 5.07681e-05 0.0121939398 -0.1165865818
625296250.0 -0.2553266059 0.805280924 2.2822e-05 -0.0001198831 5.6131e-05 0.0001181314 0.0105181088 -0.1167555034
630296220.0 -0.2465978153 0.8078138656 0.0001820334 4.28087e-05 9.7569e-06 0.0001328674 0.0085306391 -0.116610131
635296190.0 -0.239091146 0.8102767022 0.0002208455 0.0001466696 0.0002137531 0.0001041454 0.0068529126 -0.1165921036
640296160.0 -0.2315713349 0.8123435825 0.0002719979 -0.0003160033 0.0002403625 4.16775e-05 0.0051768921 -0.1166785543
645296130.0 -0.2230132483 0.8151010266 0.0002126557 -6.87541e-05 0.0002544237 -0.0001685614 0.0037146496 -0.1165326958
650296100.0 -0.2144540445 0.8165300653 0.0002426545 -0.0001108987 0.0001214031 7.04714e-05 0.0022492372 -0.1167151012
655296070.0 -0.2062851386 0.8191839246 2.89713e-05 -0.0002054659 6.46716e-05 -0.0001938949 0.000662821 -0.1164213653
660296040.0 -0.1984974771 0.8202871805 4.84003e-05 -0.0002261898 5.40099e-05 -5.3551e-06 -0.0008896371 -0.116512608
665296010.0 -0.1901725561 0.8218896035 1.72822e-05 2.73983e-05 8.89347e-05 1.43415e-05 -0.0029030755 -0.1161611538
670295980.0 -0.1822912628 0.8247745504 0.0002891903 -9.6669e-06 0.0003385434 6.54103e-05 -0.0047817853 -0.1159220655
675295950.0 -0.1736115249 0.8258182918 9.0626e-06 -0.0001102505 0.0003108352 -6.0844e-05 -0.0065485821 -0.1152907114
680295920.0 -0.1646781888 0.8285661112 0.0003586821 -8.06124e-05 5.19619e-05 -0.0002080384 -0.0078848838 -0.1150095155
685295890.0 -0.1571399292 0.8304104551 0.0001874667 0.0002059273 -0.0001130173 -6.6968e-05 -0.0095061687 -0.1148444031
690295860.0 -0.1493262355 0.8305722193 8.0442e-06 -0.000185356 0.0002380384 2.0909e-05 -0.0108057876 -0.1143189004
695295830.0 -0.1411413518 0.832424358 0.0001025111 3.82166e-05 0.000331196 -0.0001545706 -0.0128083926 -0.1142326994
700295800.0 -0.1316721335 0.8338895709 0.0001883377 -2.97229e-05 0.0001381537 -5.9894e-05 -0.0147946465 -0.1139835937
705295770.0 -0.1248079906 0.8352126956 0.0004362489 0.0001480626 2.70619e-05 -2.85612e-05 -0.0162563646 -0.1132590364
710295740.0 -0.1163528911 0.8362896816 0.0002519095 -7.17837e-05 0.0001152247 7.7508e-06 -0.0181071503 -0.1131162407
715295710.0 -0.1078990777 0.8371544473 0.0001280076 -3.19013e-05 3.3536e-05 -8.7694e-05 -0.0195070178 -0.1128371365
720295680.0 -0.0992480706 0.8388056074 0.0004221195 -0.0001408811 -2.16103e-05 0.0002717728 -0.0212216745 -0.11230822
725295650.0 -0.0913915454 0.8396896292 9.24497e-05 -0.0001413602 7.62044e-05 -0.000158474 -0.0232819442 -0.1115145461
730295620.0 -0.0824861524 0.8403395412 6.32713e-05 -8.35628e-05 0.0001468376 -0.0001592289 -0.0248042147 -0.1113553798
735295590.0 -0.0752559229 0.8414933655 -0.0001425723 -5.93748e-05 1.37697e-05 -9.35358e-05 -0.0267672059 -0.1110883647
740295560.0 -0.0656462003 0.8425246151 0.0001150396 0.0001973713 0.0002663498 5.27146e-05 -0.0279637238 -0.110289015
745295530.0 -0.0578405447 0.8423889291 -0.0001285882 -0.0001575448 0.0003237344 -5.68337e-05 -0.0295764836 -0.1100001029
750295500.0 -0.049032736 0.8428489572 0.0001192656 0.0001699885 0.0001679499 2.0539e-05 -0.0312610416 -0.1095921227
755295470.0 -0.0410438948 0.8434463695 -1.63481e-05 4.63211e-05 0.0001893998 -7.95722e-05 -0.0326326672 -0.1097135751
760295440.0 -0.0331268705 0.8431331062 0.0004387927 -0.0003899518 9.17173e-05 -0.0002135559 -0.0340828209 -0.1088834501
765295410.0 -0.0245492129 0.8443753508 0.0002059674 3.71658e-05 0.0001950371 0.0002410003 -0.0357864443 -0.1078880689
770295380.0 -0.0166231869 0.8443627241 4.33259e-05 -2.83342e-05 -3.60324e-05 -0.000214256 -0.0377638356 -0.1075754933
775295350.0 -0.0074175962 0.8440960636 6.45666e-05 -2.09644e-05 0.0002286432 -1.54654e-05 -0.0393566834 -0.1069123787
780295320.0 0.0008087114 0.8443600082 0.0002557716 -7.51855e-05 5.8485e-05 -0.000127811 -0.0404754099 -0.106240254
785295290.0 0.0083810743 0.8442684832 0.0001159383 -0.0001749122 0.0001895752 -8.7351e-06 -0.0417291699 -0.1057313018
790295260.0 0.0177784077 0.8442553375 0.0001321914 -0.0001475564 5.69419e-05 -9.2157e-06 -0.0432021554 -0.1050924231
795295230.0 0.0250397113 0.8436961669 -1.20655e-05 -7.761e-05 0.0003503334 -0.0001111854 -0.044735532 -0.1043681388
800295200.0 0.0341451394 0.8430761438 0.0003876682 -0.0001173577 0.0001126696 -1.81079e-05 -0.0462851126 -0.1032209475
805295170.0 0.0429405466 0.8432769922 0.0003706094 -0.0002257409 6.1398e-05 3.00763e-05 -0.0479077025 -0.1026151575
810295140.0 0.0505866164 0.842790935 9.75242e-05 -0.0001425192 0.0002591007 -3.38679e-05 -0.0489293828 -0.1019338647
815295110.0 0.0587998634 0.8419624541 0.0002684037 -0.0002698085 0.0002269838 2.94903e-05 -0.0505060987 -0.1011501497
820295080.0 0.0675168489 0.8415011315 0.0001875404 -0.0001782268 8.77648e-05 -1.485e-06 -0.0521063012 -0.100599901
825295050.0 0.0764447428 0.8400683871 2.80059e-05 4.63477e-05 0.0003173958 -2.6606e-06 -0.0533541257 -0.0996731949
830295020.0 0.0837740608 0.8402063109 0.0001480897 3.68097e-05 0.0002660501 -0.0001441035 -0.0546790341 -0.0985476178
835294990.0 0.0921512615 0.8391583193 1.882e-05 8.22652e-05 0.0004109653 -7.04892e-05 -0.056554405 -0.0978221399
840294960.0 0.100032421 0.8386355707 0.0002434422 4.4905e-06 0.0001750175 -0.0001618876 -0.0574533151 -0.0966744177
845294930.0 0.1080792833 0.8371607633 7.0732e-06 0.0001920465 -0.0001116767 6.16297e-05 -0.0588724564 -0.0957062128
850294900.0 0.1162676096 0.8359682239 0.0001641458 -6.85799e-05 0.0001056831 0.0001506888 -0.0607327624 -0.0947597734
