!Created with skrf (http://scikit-rf.org).
# Hz S RI R 50.0 
!freq ReS11 ImS11 ReS21 ImS21 ReS12 ImS12 ReS22 ImS22
300000.0 -0.7705664131 -0.1809617671 -0.0006672984 0.0003777287 0.0002001129 0.0001139661 0.8597701772 -0.0029857923
5299970.0 -0.7859836677 -0.0098567498 0.0002159801 -0.0001687127 0.0001634143 -0.0001968029 0.8596067512 -0.0099005868
10299940.0 -0.7894020801 -0.0059436152 5.6294e-05 -7.65095e-05 1.12481e-05 -5.1334e-06 0.8583559731 -0.0190827552
15299910.0 -0.7942576703 -0.0031069394 3.91674e-05 8.33e-07 0.0001624853 7.14172e-05 0.8573665218 -0.0277044536
20299880.0 -0.8011863317 0.0009039619 6.93057e-05 -6.5041e-05 4.25704e-05 -5.34263e-05 0.8565955936 -0.0356121086
25299850.0 -0.8080358405 0.0067314203 -0.0001126036 -6.9262e-05 7.62816e-05 1.61914e-05 0.8554995315 -0.0440944131
30299820.0 -0.8141565519 0.0135363862 -0.0001347583 7.5854e-05 5.83876e-05 -5.27167e-05 0.8551111537 -0.0523159176
35299790.0 -0.8190976378 0.0228682031 -5.1639e-05 3.63842e-05 -7.9869e-05 0.0001164177 0.8545422681 -0.0611769268
40299760.0 -0.823517669 0.0320699483 -0.0001880684 -0.0002014135 0.0001349292 0.000185252 0.8539705168 -0.0686582552
45299730.0 -0.8264634844 0.0416384605 -3.1284e-05 0.0001279878 -0.0001180426 0.0001046835 0.8522533145 -0.0775776416
50299700.0 -0.8290856781 0.0519145941 -5.06234e-05 4.30711e-05 8.95018e-05 9.08444e-05 0.8524417884 -0.085543176
55299670.0 -0.8310062065 0.0611189233 0.00010677 4.10271e-05 -6.12992e-05 2.30701e-05 0.8506215906 -0.0938209026
60299640.0 -0.8325649679 0.0714357577 -0.0001748696 4.03855e-05 -7.31775e-05 1.73828e-05 0.8498742334 -0.1021585239
65299610.0 -0.8337715615 0.081883837 2.55504e-05 -4.93571e-05 2.25094e-05 -0.0001239421 0.8488424114 -0.1104165011
70299580.0 -0.8337971032 0.0913761009 -4.66932e-05 1.32063e-05 6.80543e-05 -1.99883e-05 0.8476760233 -0.1184567695
75299550.0 -0.833906618 0.1018267367 2.27348e-05 -8.29167e-05 1.2392e-06 -0.0001087149 0.8462052188 -0.1269864172
80299520.0 -0.8339148376 0.112193591 0.0001440066 -0.0001462636 -0.000188013 -8.17053e-05 0.8452011123 -0.1355961323
85299490.0 -0.8326908364 0.1215198026 -5.76969e-05 4.09903e-05 4.28677e-05 9.37292e-05 0.8441347659 -0.1435336356
90299460.0 -0.8322530466 0.1318870879 -4.89888e-05 -7.54828e-05 6.48466e-05 5.21917e-05 0.8422978464 -0.1513405317
95299430.0 -0.8316719981 0.140490196 -0.000112703 -0.0002250726 0.0001822704 -5.34106e-05 0.8405187181 -0.1602382501
100299400.0 -0.8304741177 0.1496506028 -2.36011e-05 -9.00488e-05 7.2473e-06 -3.84037e-05 0.8390521921 -0.1683856758
105299370.0 -0.8284220904 0.1589222755 -3.29214e-05 2.91871e-05 0.0001549092 0.000142241 0.837349295 -0.1759338744
110299340.0 -0.8271925284 0.1683141717 -5.46733e-05 0.0001471201 0.0001632181 -4.68782e-05 0.8353782361 -0.1847802045
115299310.0 -0.8259963049 0.1781037716 0.0001211222 0.0002364829 0.0001550857 7.47615e-05 0.8333821708 -0.1931549428
120299280.0 -0.8250535953 0.186782747 -0.0002830637 -6.50893e-05 6.6313e-05 0.0001558908 0.8317292838 -0.200767328
125299250.0 -0.8224516967 0.1956062484 0.0001542706 -0.000170259 0.0001205672 -9.6123e-05 0.8294040737 -0.2091869198
130299220.0 -0.8207126244 0.2046475487 -1.13438e-05 -4.75636e-05 -6.6783e-05 1.83702e-05 0.8274998616 -0.2165245014
135299190.0 -0.8187300801 0.2142834558 -1.77355e-05 -6.10297e-05 5.47627e-05 -0.0001824055 0.8257171996 -0.2249099186
140299160.0 -0.8172641686 0.2233885895 0.0002179844 0.0002505171 6.8177e-06 9.85617e-05 0.8231363988 -0.2331459079
145299130.0 -0.8149203526 0.2322614956 -2.14186e-05 9.69931e-05 7.14742e-05 3.43496e-05 0.8204795898 -0.2416784798
150299100.0 -0.8117113062 0.2411125956 5.99299e-05 9.68054e-05 -3.91235e-05 0.0002442522 0.8181818729 -0.2490994981
155299070.0 -0.81009871 0.2503903156 -6.82363e-05 0.0001068005 -0.0001138486 -5.47252e-05 0.8159810568 -0.2573704045
160299040.0 -0.8075028552 0.2593399029 9.45465e-05 -2.5907e-05 0.0002374463 0.0002181339 0.8132558735 -0.2650284943
165299010.0 -0.8044562956 0.2674386045 4.60506e-05 0.0001106506 -2.7341e-06 -9.57321e-05 0.8105492086 -0.2732542973
170298980.0 -0.801798692 0.2761652875 -0.0002948487 0.0001879211 -5.0211e-06 5.75265e-05 0.8071865264 -0.2804605576
175298950.0 -0.7991744152 0.2850953171 6.39667e-05 -1.63643e-05 7.70024e-05 -9.66582e-05 0.8052782259 -0.2886122768
180298920.0 -0.7958593036 0.2931219228 -3.36927e-05 -4.51785e-05 -2.2057e-06 9.5535e-06 0.8021941134 -0.2961207376
185298890.0 -0.7923755498 0.3025190389 7.14347e-05 -0.0001075949 -3.47412e-05 -0.0001210907 0.7996273875 -0.3043582547
190298860.0 -0.7899861805 0.3111245822 -5.43863e-05 5.31678e-05 0.0001791602 -0.0001794073 0.795251203 -0.3127699031
195298830.0 -0.7861140869 0.3195984714 -0.0001750383 -8.972e-06 5.38316e-05 0.0001477815 0.792881768 -0.3207576673
200298800.0 -0.7825943138 0.327530951 6.34533e-05 -0.0003024633 9.2158e-06 -6.506e-07 0.7893117142 -0.3280479745
205298770.0 -0.7788367625 0.3366444465 5.33453e-05 0.000202783 0.0001237933 -0.000177092 0.7860143093 -0.3355660985
210298740.0 -0.7757616918 0.3446202204 -0.0001969846 -5.2667e-06 -0.000260892 -2.41326e-05 0.7831982142 -0.3437216729
215298710.0 -0.7723800353 0.3532306201 -2.24586e-05 8.78997e-05 -1.46168e-05 2.40299e-05 0.7794152455 -0.3516238257
220298680.0 -0.7688423387 0.3606021515 -5.37455e-05 1.41621e-05 -0.0001217458 6.46635e-05 0.7757243018 -0.3583486339
225298650.0 -0.7645544811 0.3695955919 -0.000182817 -8.08955e-05 -7.65713e-05 0.000216636 0.7723931405 -0.3664004809
230298620.0 -0.7610815273 0.3777138116 2.4851e-05 4.28162e-05 0.0001464067 2.58144e-05 0.7689907005 -0.3731035509
235298590.0 -0.7575315328 0.3862140452 0.00014951 -0.000103019 0.0001092599 -7.06276e-05 0.7646517023 -0.380632725
240298560.0 -0.7528317532 0.3936756018 -3.9709e-06 6.3344e-05 -0.0002013493 0.0001813044 0.7617328994 -0.3887616994
245298530.0 -0.748643791 0.4016968591 -0.0002914728 2.99494e-05 0.0001182228 -8.0503e-05 0.7570611577 -0.3958739117
250298500.0 -0.7446705205 0.4093632962 -0.0001001305 -4.97118e-05 -8.32708e-05 -0.0001070214 0.7535593456 -0.403236263
255298470.0 -0.7407129241 0.4174271786 0.0001162916 -9.04166e-05 3.30327e-05 -2.941e-06 0.7493388816 -0.4108324307
260298440.0 -0.7364302647 0.4248299949 0.0001099013 6.61948e-05 -7.36774e-05 0.0001290045 0.7451699854 -0.4180175453
265298410.0 -0.73213862 0.432821801 -0.000145188 -0.0001188455 -3.10274e-05 -0.0001747029 0.7411564471 -0.4253030285
270298380.0 -0.7273230597 0.4407762862 0.0002417782 -3.71879e-05 -0.0001635638 4.28577e-05 0.7377016927 -0.432415165
275298350.0 -0.7230023603 0.4481093681 -2.0188e-05 0.0002287246 -5.36932e-05 -5.94894e-05 0.7324666881 -0.4402808879
280298320.0 -0.7182544475 0.4554547192 -0.0001127882 -2.55355e-05 -0.0002011551 9.90102e-05 0.7282882106 -0.4466732311
285298290.0 -0.7134184236 0.4632321146 1.84285e-05 -4.03783e-05 3.58781e-05 -4.61716e-05 0.7249247241 -0.4536508675
290298260.0 -0.7084047251 0.4707986708 0.0001333298 -1.45485e-05 6.31811e-05 0.0002233513 0.7203796704 -0.4608028679
295298230.0 -0.7032327316 0.4779170242 0.0001053446 -5.78108e-05 -1.66609e-05 -0.0001261646 0.7158386162 -0.4681864931
300298200.0 -0.6991859847 0.4859240375 3.05247e-05 -0.0001320129 1.41455e-05 0.0001768589 0.7112797903 -0.475246333
305298170.0 -0.6945795079 0.4924348579 -6.55214e-05 7.56581e-05 -2.42493e-05 0.0001274113 0.7063784323 -0.4820247593
310298140.0 -0.6889578573 0.4999724538 6.11971e-05 0.0002498192 6.17438e-05 -0.0001447781 0.7026904496 -0.4892299259
315298110.0 -0.6844219082 0.5072565461 4.48294e-05 0.0001584598 -4.23686e-05 0.0001318356 0.6976794891 -0.4965668032
320298080.0 -0.6790936764 0.514234873 -4.0201e-06 2.24622e-05 1.13521e-05 0.0001185423 0.6925105894 -0.5044561969
325298050.0 -0.6731886356 0.5207836008 6.98339e-05 3.97007e-05 0.0001521129 4.48965e-05 0.6873175033 -0.5119061202
330298020.0 -0.668104966 0.5275186789 -0.000150354 -0.0001660115 0.0002212169 -0.0001688105 0.6817328176 -0.5192604391
335297990.0 -0.6629305897 0.5348301471 9.96351e-05 0.0002206387 -8.56157e-05 -1.89975e-05 0.6761289861 -0.5260986389
340297960.0 -0.6582651243 0.541617731 -0.0001115624 2.59416e-05 -0.0001371733 4.17888e-05 0.6699439882 -0.5321912586
345297930.0 -0.6517106841 0.5476366354 -4.76622e-05 0.0001806382 -0.0001548162 1.34122e-05 0.6643227379 -0.538855371
350297900.0 -0.6464737726 0.5551438528 -1.8889e-06 0.0001288065 1.10328e-05 2.21358e-05 0.6585939812 -0.5451970208
355297870.0 -0.6411656953 0.5615042217 -0.0001164312 -9.75501e-05 5.91927e-05 -0.0002089756 0.6530107474 -0.551606504
360297840.0 -0.6349740609 0.5679864478 0.0001536097 -2.84034e-05 3.73677e-05 -9.19437e-05 0.6471907981 -0.5573546709
365297810.0 -0.6293103199 0.5747789868 9.79341e-05 3.85269e-05 7.33435e-05 1.71001e-05 0.641454697 -0.5638146908
370297780.0 -0.6227540757 0.5803018043 0.000229857 -3.41615e-05 -1.75827e-05 -4.89672e-05 0.6355192959 -0.5692687512
375297750.0 -0.6179010787 0.587393109 0.0002174448 -1.80197e-05 6.44191e-05 -4.83492e-05 0.6303912855 -0.5756211895
380297720.0 -0.612323009 0.5937129476 -0.0001256428 -0.0001903318 0.0001496942 -0.0001084611 0.6248522631 -0.5814888271
385297690.0 -0.6056566192 0.5993130202 -0.0001527011 -6.6497e-06 0.000104621 2.72681e-05 0.6184391549 -0.5877651149
390297660.0 -0.5988430688 0.6056706749 0.0001246716 -0.0003032111 -3.96849e-05 1.83519e-05 0.6123401315 -0.5933991526
395297630.0 -0.5928405448 0.6119699134 0.0001053141 0.0002014642 -1.0542e-05 -1.6747e-06 0.6062839357 -0.5994964456
400297600.0 -0.58673632 0.6179771553 9.63554e-05 -0.0001456165 -1.82302e-05 0.0001228377 0.6004788889 -0.6049271658
405297570.0 -0.5809661017 0.6230469064 4.42186e-05 -7.26974e-05 1.2331e-05 -0.000210891 0.5944142904 -0.6109675399
410297540.0 -0.5735741136 0.6296527307 0.0002624526 5.89522e-05 -4.7196e-05 -5.33065e-05 0.5883239177 -0.6163754524
415297510.0 -0.5678254639 0.6357840061 0.0001366906 0.0001764758 6.49715e-05 0.0001819597 0.5818569053 -0.6223195044
420297480.0 -0.5609963905 0.6408306778 -0.0001237734 3.28148e-05 -1.0317e-06 -4.0368e-06 0.5764398616 -0.6273009243
425297450.0 -0.5540009328 0.6462649451 0.0002459337 -0.0001331796 -0.0001543262 -7.11988e-05 0.5698576409 -0.6336993366
430297420.0 -0.5476877373 0.6517790953 4.46637e-05 0.0002283541 0.0001313226 -0.0001288555 0.5637456102 -0.6392078749
435297390.0 -0.5410890377 0.6569094663 7.85258e-05 4.67517e-05 -0.0001485789 -2.363e-06 0.5565823158 -0.6446652602
440297360.0 -0.5340363372 0.6630283829 8.7933e-06 8.53293e-05 2.8209e-06 -0.0002379377 0.5504248029 -0.649704605
445297330.0 -0.5274621708 0.6683534284 -0.0001633346 -3.24126e-05 -0.0001225163 5.56764e-05 0.5439343754 -0.6543173795
450297300.0 -0.5202713963 0.6734908515 -8.23591e-05 -0.0001195468 -0.0001435865 4.87884e-05 0.5377863705 -0.6600631948
455297270.0 -0.5136403627 0.6789807382 8.12084e-05 0.0001249181 2.34957e-05 -0.000100157 0.5309033629 -0.6648172595
460297240.0 -0.5059775541 0.684016522 -0.0001478822 -0.0002055991 8.00439e-05 5.38932e-05 0.523944879 -0.6706044917
465297210.0 -0.4990897948 0.6889097477 9.15194e-05 -0.0002337952 -2.54208e-05 -4.81702e-05 0.5180586464 -0.6749653811
470297180.0 -0.4923581467 0.6941084344 -0.0001404296 5.206e-06 -2.7814e-05 -8.57166e-05 0.5111935685 -0.6803813424
475297150.0 -0.4851335662 0.6986538376 0.0002113465 0.0001110047 -8.05994e-05 -8.26396e-05 0.5045308353 -0.6851900851
480297120.0 -0.4770493183 0.7039470355 -0.0001227857 0.0002677545 -1.97656e-05 -4.51093e-05 0.4972870855 -0.6901212595
485297090.0 -0.4701065111 0.7084191006 -0.0002104585 -4.01576e-05 -0.0001404645 0.0001189577 0.4911397867 -0.6954750193
490297060.0 -0.4618734219 0.7136625683 0.0001187741 -1.253e-07 0.0001016646 4.8339e-05 0.4833625877 -0.699769946
495297030.0 -0.4548026751 0.7181124521 7.6583e-06 -0.0001435341 2.94682e-05 -0.0002943837 0.4766496671 -0.7045657831
500297000.0 -0.4469350279 0.7223473246 4.0338e-06 -5.28013e-05 8.15767e-05 -0.0001915257 0.4695299202 -0.7087098659
505296970.0 -0.4392782128 0.7273814945 -6.5364e-05 -6.4209e-06 -0.0001531266 7.52079e-05 0.4623040568 -0.7132205784
510296940.0 -0.4318115292 0.7311857691 -0.0001549445 -6.47312e-05 -5.03439e-05 -5.35495e-05 0.4549433132 -0.7177786118
515296910.0 -0.424226742 0.735662669 -5.43909e-05 3.02197e-05 -0.0001445698 0.0002347273 0.4481051553 -0.7222697247
520296880.0 -0.4161134671 0.7396527225 -8.495e-06 0.0001629153 0.0001398601 6.36085e-05 0.4415554828 -0.726529972
525296850.0 -0.4086755381 0.7440805165 0.0002453289 -4.55258e-05 -6.16936e-05 -7.7774e-06 0.4341359417 -0.7308356794
530296820.0 -0.4013096257 0.7478840816 -0.0001770378 -0.0001039306 7.32678e-05 0.0001090216 0.4265722252 -0.7351155497
535296790.0 -0.3925467364 0.7519632591 -9.887e-06 9.09861e-05 2.46649e-05 -4.50286e-05 0.4196056692 -0.7388216784
540296760.0 -0.385177745 0.7559866338 6.02156e-05 2.5142e-06 2.9622e-05 -8.24867e-05 0.412191837 -0.7428867998
545296730.0 -0.3778335956 0.7606367409 -1.7256e-05 0.0001848262 -4.2784e-05 -3.14363e-05 0.4043570784 -0.7470307819
550296700.0 -0.3693892496 0.7635507606 3.06067e-05 4.01207e-05 0.0002502233 3.49526e-05 0.3970750428 -0.7504933812
555296670.0 -0.3613706159 0.7670746988 -0.000130467 -0.0002652405 0.0001556045 -0.0001248539 0.3899074246 -0.7545950672
560296640.0 -0.3534282614 0.7705493072 0.0001546738 0.0001621936 -4.32799e-05 -2.52144e-05 0.3817884129 -0.7582418567
565296610.0 -0.3453967383 0.7744696323 5.63128e-05 -0.0001213283 -0.0001983003 6.98177e-05 0.3749927166 -0.7617971655
570296580.0 -0.337462408 0.7778048184 -0.0001455379 -3.87022e-05 -7.1136e-06 0.0002439579 0.3672559576 -0.7660068695
575296550.0 -0.3283130466 0.7810688436 -0.0001006536 1.51314e-05 9.16792e-05 0.0001026031 0.3597071682 -0.7691704839
580296520.0 -0.321257775 0.784224432 0.0001332725 -1.60395e-05 -0.0001104893 1.32237e-05 0.3512829359 -0.7723670434
585296490.0 -0.3126637483 0.7876363897 -0.0001418791 -1.15922e-05 0.0001184778 -4.84316e-05 0.3438751087 -0.7754751965
590296460.0 -0.3039367335 0.7906579753 6.93791e-05 -4.63038e-05 -3.70925e-05 0.0002014214 0.3359805435 -0.7793261236
595296430.0 -0.2956948225 0.7935544084 8.24508e-05 -2.2371e-05 -0.0002570243 -7.75249e-05 0.3282592729 -0.7819445232
600296400.0 -0.2878958181 0.7966933264 2.6021e-06 -2.86215e-05 0.0001604024 -4.33158e-05 0.3206598881 -0.7852449098
605296370.0 -0.2794910266 0.7995956962 7.81347e-05 -9.3052e-06 -1.46018e-05 2.87391e-05 0.31277561 -0.7883844005
610296340.0 -0.2711362466 0.8027608062 -3.35622e-05 0.0001155888 1.0604e-06 4.50748e-05 0.3041664752 -0.7909587218
615296310.0 -0.262795089 0.8053440791 5.71409e-05 -0.000167212 0.0001306195 1.37241e-05 0.2969230273 -0.7940098251
620296280.0 -0.2552347417 0.8082491522 -0.000102017 0.0001210271 -0.0001189654 0.0002286624 0.2889510493 -0.7965494716
625296250.0 -0.2474112647 0.8101731688 0.0001002206 2.33683e-05 0.0001820696 -7.33342e-05 0.2808121402 -0.7994953203
630296220.0 -0.2388534989 0.8129554631 -6.9151e-06 8.29883e-05 -2.94346e-05 -0.0001076935 0.2732957453 -0.8020410018
635296190.0 -0.2307659696 0.8152600916 8.19805e-05 0.0001323522 -1.21259e-05 0.000197493 0.2651501301 -0.8042166034
640296160.0 -0.2218962954 0.8174049181 0.0001538091 4.40746e-05 9.90228e-05 -1.52333e-05 0.2571729465 -0.8064809992
645296130.0 -0.2140488575 0.8203413715 -5.08265e-05 -0.0001279755 0.0001664587 -8.18396e-05 0.248478839 -0.8094719131
650296100.0 -0.2059990238 0.8215840536 -0.0001218037 0.0001882245 -7.11929e-05 -0.0001499615 0.2403007649 -0.8113752478
655296070.0 -0.197364997 0.8244132131 -7.09756e-05 -4.21845e-05 0.0001484296 0.0001049236 0.2321938104 -0.8141648281
660296040.0 -0.1892337382 0.8259005096 5.60599e-05 -4.27287e-05 0.0001951534 0.0001132903 0.2248006643 -0.8165246012
665296010.0 -0.1808700891 0.8282802783 -2.54671e-05 4.41283e-05 0.0001172807 5.69048e-05 0.2167449858 -0.8178830553
670295980.0 -0.17246342 0.8303261151 0.0001874928 0.0001591312 -0.0001645764 7.93941e-05 0.2080905822 -0.8205807074
675295950.0 -0.1641851135 0.8318481893 -7.32536e-05 -0.0002061805 0.000187801 4.57524e-05 0.1994975386 -0.8219201086
680295920.0 -0.1566084817 0.8340006317 6.2264e-05 0.0002472071 2.6834e-05 -9.51122e-05 0.1915384271 -0.8241241966
685295890.0 -0.1476996369 0.834906243 -7.9e-08 7.56371e-05 1.18485e-05 -0.0001199511 0.1836018955 -0.8256283641
690295860.0 -0.1393116963 0.8369053496 -0.0001885506 0.0002270046 0.0001088697 -0.0002270393 0.1752661734 -0.8278394796
695295830.0 -0.1304546314 0.8381445642 -0.0001274298 7.62326e-05 -0.0002296159 -7.43686e-05 0.1670727917 -0.828468542
700295800.0 -0.1223816999 0.8402604825 6.97525e-05 -0.0001013723 4.9784e-05 0.000145196 0.1587551012 -0.8302482891
705295770.0 -0.1146550492 0.8417507657 -7.75312e-05 -6.04773e-05 7.40505e-05 -9.00733e-05 0.1501061515 -0.8317167778
710295740.0 -0.1068268652 0.842084082 -4.32214e-05 0.0003083956 4.63989e-05 -1.86691e-05 0.142411391 -0.8329792729
715295710.0 -0.0977563758 0.8430355027 -7.7901e-05 -2.54084e-05 -0.0001026956 4.63822e-05 0.1341158969 -0.834681457
720295680.0 -0.0888416641 0.8443816568 0.0001157844 0.0001132674 -1.59869e-05 -0.0001565848 0.1258982537 -0.8355071266
725295650.0 -0.0816811334 0.8457110329 6.45676e-05 -0.0001645108 7.5477e-06 -5.57639e-05 0.1168875235 -0.8364007363
730295620.0 -0.0735594674 0.8460272773 0.0001137346 -1.85558e-05 2.4551e-06 -2.35631e-05 0.108646756 -0.8370201309
735295590.0 -0.0658536768 0.8474444285 0.0001423232 2.67074e-05 0.0001289173 -1.66482e-05 0.1009056431 -0.8375313766
740295560.0 -0.0577568282 0.8474467028 0.00021849 0.0001004822 9.58556e-05 0.0001356518 0.0922255565 -0.8384105159
745295530.0 -0.0491479125 0.8487204952 -6.84483e-05 0.0002186294 -1.437e-07 -7.8796e-05 0.0832350555 -0.8399938737
750295500.0 -0.0411076764 0.8491799493 -6.14629e-05 -8.32473e-05 -0.0001946752 0.0001450713 0.0753046906 -0.8404216377
755295470.0 -0.0320034614 0.8497808383 0.0001389689 -1.28111e-05 6.30156e-05 6.12345e-05 0.0667402691 -0.8401482512
760295440.0 -0.0240444006 0.8509056177 6.69152e-05 -5.82269e-05 -0.0002463753 -3.7803e-06 0.0589206234 -0.841670978
765295410.0 -0.016025298 0.8504332239 -0.0001075959 -0.0001569916 3.383e-07 7.18349e-05 0.0504680924 -0.8419183463
770295380.0 -0.0086156667 0.8508339486 -7.53911e-05 -5.16104e-05 9.14791e-05 9.6115e-05 0.0423028057 -0.8416280952
775295350.0 0.0001628834 0.8510129394 3.31151e-05 1.7651e-06 -8.8687e-06 -4.16281e-05 0.0339442612 -0.842687171
780295320.0 0.0087086918 0.850997846 5.26659e-05 3.43999e-05 -1.69799e-05 2.62751e-05 0.0254189496 -0.8424195254
785295290.0 0.0166875481 0.8504588796 -5.59839e-05 -9.21441e-05 1.87656e-05 7.35069e-05 0.016678895 -0.8418695595
790295260.0 0.0248538602 0.8511873765 -0.0001035279 3.04592e-05 -8.60432e-05 -2.47107e-05 0.008256144 -0.8419475585
795295230.0 0.032995696 0.8509018366 -0.0001331898 -3.4163e-05 1.15321e-05 -3.85967e-05 -0.0005633881 -0.8432460898
800295200.0 0.040805989 0.8507785504 -3.5697e-06 8.98289e-05 6.31996e-05 9.34162e-05 -0.0084220963 -0.8418763768
805295170.0 0.0492778597 0.8501906841 -4.65936e-05 0.0001165603 5.75929e-05 0.0001186459 -0.0160929594 -0.8420534881
810295140.0 0.057980089 0.8505227193 -3.2391e-05 4.28704e-05 -2.05952e-05 -0.0001145712 -0.0254906851 -0.8413935422
815295110.0 0.0651732997 0.8494957096 8.42787e-05 1.7385e-05 4.35617e-05 -7.22673e-05 -0.0340083042 -0.8414914056
820295080.0 0.0734020953 0.8495551833 -8.7085e-06 4.72511e-05 0.0001421122 1.58302e-05 -0.0422140981 -0.8399702327
825295050.0 0.0817904067 0.8484902985 -0.0001352803 -0.0003426328 6.2517e-05 -2.0813e-06 -0.0502357853 -0.8401338596
830295020.0 0.0911870299 0.8474681541 -7.66638e-05 7.38962e-05 -1.80709e-05 0.0001273649 -0.0591390945 -0.8396007627
835294990.0 0.0980006912 0.8465789489 -0.0002438513 9.9921e-06 0.0001010924 3.2075e-05 -0.06745475 -0.838339373
840294960.0 0.1068161239 0.8456197273 -0.000209995 -0.0002036337 -8.51274e-05 1.23001e-05 -0.07564069 -0.8371635681
845294930.0 0.1149717874 0.8445307718 -0.0001819468 0.0001575724 0.0001134636 1.75095e-05 -0.0838302566 -0.836038255
850294900.0 0.1238068309 0.8432157354 -0.0001303892 -0.0001096433 -5.7637e-05 -0.0001161303 -0.0917473703 -0.8357386133
