!Created with skrf (http://scikit-rf.org).
# Hz S RI R 50.0 
!freq ReS11 ImS11 ReS21 ImS21 ReS12 ImS12 ReS22 ImS22
300000.0 -0.2398255162 -0.093472165 0.4707056454 0.063465018 0.4693318639 0.058675258 -0.2372937216 -0.1002789465
5299970.0 -0.2449461332 0.0063025903 0.4749238831 0.0049815464 0.4750735053 0.0049802793 -0.2411917396 0.0075086372
10299940.0 -0.2419055525 0.0176727365 0.4765324264 0.0060497183 0.4766058481 0.0063839565 -0.2377300663 0.0203636105
15299910.0 -0.2375620484 0.0266579617 0.4807412461 0.0073830638 0.4806237611 0.007356453 -0.2329071818 0.0302883857
20299880.0 -0.2329283976 0.0338790655 0.4849645468 0.0083846254 0.4850429444 0.0079286206 -0.2278188719 0.0381482268
25299850.0 -0.2277813749 0.0404091158 0.4899920169 0.0068194091 0.4900798218 0.0074026469 -0.2220311883 0.0447367925
30299820.0 -0.2224219292 0.0451577603 0.495567229 0.0045713451 0.4955917938 0.0048685532 -0.2161914559 0.050238122
35299790.0 -0.2173115943 0.048992101 0.5009521985 0.001642426 0.5007265943 0.0014698822 -0.2105187174 0.0545147174
40299760.0 -0.2126300643 0.0523326466 0.5056203815 -0.0024814479 0.5059789539 -0.0022872236 -0.2052389334 0.0572378154
45299730.0 -0.2076267386 0.0549941475 0.510236746 -0.007162431 0.5105634535 -0.0068331644 -0.200114753 0.0604664682
50299700.0 -0.2038865388 0.0566615601 0.5152022886 -0.0124547846 0.5148271098 -0.0123964725 -0.1955302867 0.0623619332
55299670.0 -0.1999344208 0.0583848458 0.5185723781 -0.0191646288 0.5186939783 -0.0180150754 -0.1914544105 0.064173366
60299640.0 -0.1960936265 0.0600842757 0.5220124292 -0.0251126817 0.52235185 -0.0247134184 -0.1877579855 0.0655859821
65299610.0 -0.1929786747 0.0607228071 0.5247436735 -0.0311457047 0.5246330452 -0.031211384 -0.1841762253 0.066577366
70299580.0 -0.1900811792 0.0623522263 0.5270044539 -0.0378950077 0.5267463637 -0.0375100007 -0.1804669966 0.0676993723
75299550.0 -0.1871451978 0.0630311915 0.529234834 -0.0445473739 0.5285828676 -0.044466497 -0.1778068074 0.0679061684
80299520.0 -0.1849119944 0.0636265143 0.5305738878 -0.0518114636 0.5310561979 -0.0514625817 -0.1753013366 0.0691783849
85299490.0 -0.1824580847 0.0639771226 0.5322813069 -0.0582552636 0.5322978566 -0.0579282136 -0.1729668881 0.0693077718
90299460.0 -0.1805202946 0.0648026282 0.5328416132 -0.0654440029 0.5333317872 -0.0652155566 -0.1703471351 0.0703576405
95299430.0 -0.1781262094 0.0651764628 0.5338952664 -0.0720827324 0.5340264027 -0.0722970804 -0.1681488514 0.0711575671
100299400.0 -0.1766151935 0.0664165269 0.5342663498 -0.0791699402 0.534289414 -0.0790476622 -0.1659603946 0.0716803424
105299370.0 -0.1749815716 0.0670225207 0.5347067635 -0.0860865057 0.5349258748 -0.0861602539 -0.1639103842 0.0725642759
110299340.0 -0.1734078639 0.0676049631 0.5344940778 -0.0927204205 0.53476298 -0.0925212306 -0.1628036348 0.0728872316
115299310.0 -0.1720485814 0.0682209546 0.5347685367 -0.0993906966 0.5346032524 -0.0994434157 -0.1612322147 0.073555325
120299280.0 -0.1706381198 0.0687363168 0.5341925588 -0.1063296981 0.5345252749 -0.1064208007 -0.159699532 0.0744205947
125299250.0 -0.1695547654 0.0692273856 0.5341511513 -0.1127298422 0.5343758422 -0.1126818942 -0.158551018 0.0746358856
130299220.0 -0.1687187147 0.0702062912 0.5335619756 -0.1199772203 0.5335861435 -0.1201167392 -0.1571317321 0.0755083312
135299190.0 -0.1676703875 0.0711636098 0.5330808502 -0.1263876867 0.5329418474 -0.1262464922 -0.1555868924 0.0767526312
140299160.0 -0.1667345363 0.0720885126 0.5324214759 -0.1333336272 0.5319606654 -0.1332543704 -0.1546306705 0.0781522619
145299130.0 -0.1654541238 0.0728747021 0.5314953799 -0.1396114757 0.5309005889 -0.1392565336 -0.1532587617 0.0788276142
150299100.0 -0.1642272195 0.0740951537 0.5297720768 -0.146235963 0.530158218 -0.1457694628 -0.1525333132 0.0802631856
155299070.0 -0.164034637 0.0748957432 0.5287824039 -0.1531992459 0.5286444224 -0.1525403824 -0.1511316619 0.0810492553
160299040.0 -0.1627872912 0.0760586116 0.527444588 -0.1592354753 0.5271942226 -0.1589330412 -0.1505240108 0.0823405595
165299010.0 -0.16217608 0.0769112396 0.5258608595 -0.1656088025 0.5259681797 -0.1656425375 -0.1492330196 0.0835849174
170298980.0 -0.1614207734 0.077775496 0.5241705472 -0.1718894568 0.5244311231 -0.1718518948 -0.1483178538 0.0848472269
175298950.0 -0.1607622484 0.078866975 0.5232351981 -0.1782124094 0.5225455682 -0.1782397467 -0.1474990725 0.0859995769
180298920.0 -0.1598824203 0.0800188947 0.5210190163 -0.1845102352 0.5211116415 -0.1840827347 -0.1466166266 0.0873312199
185298890.0 -0.1586834711 0.0809855405 0.5188839715 -0.1903685528 0.5189827734 -0.1904831495 -0.1454369773 0.0885884599
190298860.0 -0.1584109783 0.0821543984 0.5171826421 -0.1967335958 0.5176456609 -0.19665032 -0.1447076866 0.0895578296
195298830.0 -0.1578113261 0.0833701061 0.5151485805 -0.202817854 0.5156528505 -0.2027204802 -0.1435703146 0.0912013232
200298800.0 -0.1566997438 0.0847415472 0.5128410912 -0.2094415938 0.5132705439 -0.209098747 -0.1433036671 0.0923778539
205298770.0 -0.1561469589 0.0858371075 0.5107460643 -0.215082031 0.5107750228 -0.2148045112 -0.141833656 0.0932294935
210298740.0 -0.155426427 0.0870446865 0.5082166224 -0.2202713844 0.5088457993 -0.2205562988 -0.1408127817 0.0956574495
215298710.0 -0.1551634453 0.0886153982 0.5065689133 -0.226898308 0.5064325547 -0.2268085153 -0.1405598298 0.0965583934
220298680.0 -0.1540609864 0.0892673856 0.5035036383 -0.23272767 0.5035751017 -0.2326966907 -0.1396772021 0.0975581955
225298650.0 -0.1533318841 0.0904169097 0.5016122274 -0.2385757018 0.50150254 -0.238698445 -0.138805217 0.0989725314
230298620.0 -0.1525727853 0.0923561611 0.4989176657 -0.2440958211 0.4997828801 -0.244457107 -0.1380729666 0.1000066403
235298590.0 -0.1517317884 0.0938106621 0.4963991567 -0.2501067093 0.4964196582 -0.2497192138 -0.137085655 0.1016928818
240298560.0 -0.1511178006 0.095054079 0.4940867473 -0.2562342139 0.4934364148 -0.2559923639 -0.1361234724 0.1034111532
245298530.0 -0.1502834251 0.0962875678 0.4911368714 -0.2615992563 0.4910108791 -0.2616780305 -0.1349326292 0.103976007
250298500.0 -0.1491878405 0.0976393563 0.487412676 -0.2674188658 0.4878421304 -0.2671076217 -0.134260252 0.1055974615
255298470.0 -0.1485951777 0.0987121889 0.4848205465 -0.2725704166 0.4851957585 -0.2724941526 -0.1329221056 0.1069357272
260298440.0 -0.1479557471 0.1001670978 0.4820635564 -0.2784718207 0.4823141806 -0.2779353322 -0.1314366899 0.1081078341
265298410.0 -0.1467844384 0.1018402416 0.4789673308 -0.2841089711 0.4793237521 -0.2836571522 -0.1307332288 0.1097670817
270298380.0 -0.1458953115 0.1029990752 0.4760582938 -0.2892029204 0.4764174496 -0.2891153083 -0.1298353984 0.1110835171
275298350.0 -0.1448190548 0.1044262821 0.4724103369 -0.2948953629 0.4730735593 -0.2948070198 -0.1283450723 0.1122159649
280298320.0 -0.1439544712 0.105828879 0.4699408576 -0.3001326274 0.4696000007 -0.2997399382 -0.1266349334 0.1133602308
285298290.0 -0.1429962536 0.1074969291 0.4663915059 -0.3052907942 0.4664313954 -0.3052293045 -0.1256126044 0.1147467875
290298260.0 -0.14196815 0.1085798611 0.4631434131 -0.3103640123 0.4632636402 -0.3109425297 -0.1246257878 0.1169294441
295298230.0 -0.1410271822 0.1093790565 0.4599222519 -0.3158668328 0.459716514 -0.3157231967 -0.1228572215 0.1173980396
300298200.0 -0.140253894 0.1109078745 0.4566321755 -0.3205313322 0.456827676 -0.3213294551 -0.1217002108 0.1190041494
305298170.0 -0.1388924686 0.1121273266 0.4528157848 -0.326364527 0.4527771835 -0.3262402589 -0.1197541796 0.1201684251
310298140.0 -0.1380701527 0.1135747167 0.4496001299 -0.3312516861 0.4497552016 -0.3312394076 -0.1188718868 0.1214263573
315298110.0 -0.137182096 0.1145493747 0.4456831911 -0.3364554539 0.4458129447 -0.3368271484 -0.1177581103 0.1228257863
320298080.0 -0.1356121 0.1160174694 0.4410035392 -0.342404224 0.4418827714 -0.3417488053 -0.1161529027 0.124179839
325298050.0 -0.1348897901 0.1170711097 0.4382736778 -0.3471041537 0.438293015 -0.3467588713 -0.1153506023 0.1253251822
330298020.0 -0.1339508493 0.1180842662 0.4335447237 -0.3519792994 0.4342381182 -0.351733245 -0.1141150272 0.1266600894
335297990.0 -0.1331032236 0.119419577 0.4301105526 -0.3563852159 0.4296908002 -0.3565343979 -0.1133833988 0.128436292
340297960.0 -0.132450455 0.1211478651 0.4259577961 -0.3612789695 0.4257227166 -0.3615702061 -0.1115754738 0.1297311458
345297930.0 -0.1313631181 0.1228984588 0.4215247394 -0.3666411899 0.4215802347 -0.3663995202 -0.1103938764 0.130715302
350297900.0 -0.1305330858 0.1237957439 0.417097479 -0.3711062669 0.41765345 -0.3705861645 -0.1094614253 0.1329565065
355297870.0 -0.1293299285 0.1258148481 0.4133351004 -0.3756202439 0.4138343087 -0.3750298983 -0.1082769614 0.1338351787
360297840.0 -0.128035148 0.1268742289 0.409661793 -0.3795543498 0.4100604396 -0.3792525635 -0.1068522423 0.135618338
365297810.0 -0.12737108 0.1283267073 0.4052752231 -0.3846991719 0.4059413646 -0.3844072055 -0.1052780815 0.1368943323
370297780.0 -0.1257689665 0.1294500542 0.4007641191 -0.3885816807 0.4014425394 -0.388121689 -0.103696087 0.1383111199
375297750.0 -0.1245865663 0.1307877645 0.3967129524 -0.3929959474 0.3975428356 -0.3934076658 -0.1025231499 0.1395717952
380297720.0 -0.1235000114 0.1322071913 0.3923068839 -0.3974717744 0.3926923077 -0.3969297283 -0.1013770881 0.1404173184
385297690.0 -0.1226356746 0.1335915726 0.3876881088 -0.4017335006 0.3877350698 -0.4016772553 -0.0996427944 0.1419530081
390297660.0 -0.1213428859 0.1347922538 0.3834733404 -0.40585086 0.3834392756 -0.4057760898 -0.0984058192 0.143112438
395297630.0 -0.1197196832 0.1363080862 0.3792124953 -0.410323491 0.3791382173 -0.4101872816 -0.0963538007 0.1443416823
400297600.0 -0.1186055359 0.1375008847 0.3741362332 -0.4146833861 0.3745790819 -0.4144382865 -0.094923099 0.1455770017
405297570.0 -0.1175312086 0.1389781996 0.369883111 -0.418267236 0.3701658594 -0.4180935302 -0.0938601246 0.1469358894
410297540.0 -0.1161620158 0.1400372381 0.3652663806 -0.4223800485 0.3658442357 -0.4224767633 -0.092000055 0.1482737982
415297510.0 -0.1145509272 0.1412706418 0.3600997797 -0.4267407528 0.361138871 -0.4267223795 -0.0905626682 0.1492867113
420297480.0 -0.113452155 0.1430585207 0.3557119783 -0.4306934942 0.3560900279 -0.4303595855 -0.0892677472 0.1502025656
425297450.0 -0.1121059871 0.1433666376 0.3513123299 -0.4339645309 0.352068691 -0.4343810206 -0.0877174208 0.1518031309
430297420.0 -0.1105354549 0.144770419 0.3464067423 -0.4376388155 0.3466765275 -0.4375238072 -0.086173803 0.1522557049
435297390.0 -0.1095577432 0.1462386573 0.3414688321 -0.4417213432 0.3414303696 -0.4418287394 -0.0837768493 0.1535651671
440297360.0 -0.1080377562 0.1472431511 0.336582852 -0.445266872 0.3368490479 -0.4451749749 -0.0824493904 0.1542474676
445297330.0 -0.1067616398 0.1482230605 0.3321614365 -0.4489651574 0.3322568665 -0.4487969366 -0.0807357428 0.154971625
450297300.0 -0.1051397855 0.1494348685 0.3273752871 -0.452491726 0.3270695315 -0.4530578044 -0.0788741557 0.1561083663
455297270.0 -0.1036965393 0.150743558 0.3216447063 -0.4560415393 0.3221448495 -0.4561724831 -0.0772224635 0.1571609538
460297240.0 -0.102481803 0.1516462313 0.3167490597 -0.4595653163 0.3172713975 -0.4598072683 -0.0754968109 0.1584204182
465297210.0 -0.1007853188 0.1531367552 0.3121248967 -0.4631947301 0.3120006849 -0.463520522 -0.0734824358 0.1589331984
470297180.0 -0.0993257718 0.1539584632 0.3066074562 -0.4667179443 0.3068418509 -0.4662353094 -0.0719931879 0.160078677
475297150.0 -0.0978482769 0.154944119 0.3013678314 -0.4692426937 0.3017997453 -0.4695198698 -0.0694279433 0.1608162511
480297120.0 -0.0963104282 0.1564187747 0.2964589896 -0.4733389525 0.2960245569 -0.4731610646 -0.0677266455 0.1618436217
485297090.0 -0.0948260164 0.1574459777 0.2918634738 -0.4760579919 0.2915753105 -0.4760388122 -0.066097912 0.1628374808
490297060.0 -0.0937929281 0.1584234148 0.2864597723 -0.4796125055 0.2864628435 -0.4789900785 -0.0641776589 0.1638577018
495297030.0 -0.0918746039 0.1593955049 0.2805985499 -0.4821445981 0.2817368845 -0.4821174015 -0.06261157 0.1647512381
500297000.0 -0.0903872098 0.1602603007 0.2757226235 -0.4849611445 0.2756132966 -0.4851418535 -0.0606790675 0.1662038131
505296970.0 -0.0885184658 0.16110914 0.2705825497 -0.488026108 0.2702550446 -0.4882461858 -0.0588589336 0.1665267707
510296940.0 -0.0871348484 0.1622266956 0.2651686514 -0.4913164622 0.2651256201 -0.4915447834 -0.0568435091 0.1675927785
515296910.0 -0.0857411567 0.1635358095 0.2598416027 -0.49381187 0.2596988328 -0.4936349662 -0.0549626356 0.1683871719
520296880.0 -0.0843967746 0.1645540671 0.2541442573 -0.4970960245 0.2547283058 -0.4966741792 -0.0533063856 0.1688423472
525296850.0 -0.0825494614 0.164735047 0.2487649571 -0.4992345079 0.2493901538 -0.4993574496 -0.0515048494 0.170007236
530296820.0 -0.0807669827 0.1661292715 0.2432860266 -0.5021362377 0.2435269135 -0.5024261537 -0.0492785122 0.171026251
535296790.0 -0.079738137 0.1671821721 0.2382498059 -0.504466413 0.2382674344 -0.5043875298 -0.0482299552 0.1710063426
540296760.0 -0.0778840502 0.1681092916 0.232426232 -0.5073928939 0.2325162032 -0.5074912142 -0.0459235177 0.1723572438
545296730.0 -0.0761872273 0.1689194002 0.2266507753 -0.5095079263 0.2268929242 -0.5099703971 -0.0443548185 0.1728885181
550296700.0 -0.0743104419 0.1701351374 0.2212146166 -0.5119183011 0.2217561687 -0.5121293556 -0.0428556665 0.1738750617
555296670.0 -0.0728508324 0.1706556283 0.2159555294 -0.514466777 0.2163474435 -0.5143751351 -0.040510081 0.1744960985
560296640.0 -0.0711100426 0.1717935942 0.2099101745 -0.517076256 0.2103749101 -0.5166918607 -0.0383638907 0.1749078089
565296610.0 -0.0699949148 0.1724403032 0.2043026411 -0.5193420925 0.2047821133 -0.5191015722 -0.0368169821 0.1752340161
570296580.0 -0.0681792904 0.1733300778 0.1989107464 -0.5216118267 0.1986902403 -0.5213297255 -0.0351169157 0.1763786824
575296550.0 -0.0666876917 0.1744770148 0.1932439028 -0.5237593659 0.193255695 -0.5231951128 -0.0326661016 0.1762933946
580296520.0 -0.064470677 0.1751719454 0.1870392706 -0.5255160242 0.1876803474 -0.5251376764 -0.0310847643 0.1768691891
585296490.0 -0.0631604917 0.1752308247 0.1819521807 -0.5266833505 0.1818610999 -0.527535265 -0.0289011559 0.1773396735
590296460.0 -0.0610847022 0.176392541 0.1767189835 -0.5289266764 0.1766202961 -0.5291554479 -0.0276474528 0.1779082394
595296430.0 -0.0593818382 0.1772313656 0.1698665169 -0.5316289976 0.1705142643 -0.5309936038 -0.0255320315 0.177794066
600296400.0 -0.0578903388 0.1777889906 0.1646728235 -0.5329239853 0.1646203795 -0.532638943 -0.0235776787 0.1784307387
605296370.0 -0.0562119249 0.1788021266 0.1587775803 -0.5343913321 0.1591573795 -0.5344454679 -0.0213012924 0.1790729013
610296340.0 -0.054556181 0.1791667142 0.1527337048 -0.5364235827 0.1532913733 -0.5362076734 -0.019173423 0.1792291199
615296310.0 -0.0523665285 0.1796066843 0.1470203753 -0.5373604057 0.1471524794 -0.5382557345 -0.0172422711 0.1793957467
620296280.0 -0.0508121569 0.1798586986 0.1415391596 -0.5391686878 0.1414672831 -0.5392298502 -0.0154075074 0.1796156968
625296250.0 -0.0493630039 0.1804757139 0.1360434618 -0.5405817302 0.1358811132 -0.5412288415 -0.0126158902 0.1800142732
630296220.0 -0.0467056554 0.1816169396 0.1291903101 -0.5423128425 0.1295587844 -0.5422079344 -0.0112558575 0.1805593656
635296190.0 -0.0458963997 0.1817459639 0.1239660159 -0.5433118507 0.1241350507 -0.5435861714 -0.0088760912 0.1807073326
640296160.0 -0.0440839146 0.1825398867 0.1182038918 -0.5445249995 0.1183217398 -0.544548941 -0.0068428304 0.180986078
645296130.0 -0.0422644658 0.1833074118 0.1119450192 -0.5458235149 0.1123052962 -0.5460362712 -0.0048310236 0.1813701163
650296100.0 -0.0405269678 0.1838388545 0.1062231787 -0.5470796682 0.1067995455 -0.5471762236 -0.0026730135 0.1808719482
655296070.0 -0.0386864431 0.1843988922 0.1001621972 -0.5481350396 0.1003677977 -0.5482259193 -0.0004333315 0.1816366362
660296040.0 -0.0371592523 0.1845524269 0.0946180741 -0.5495625453 0.0946904611 -0.5494044583 0.001852491 0.18172227
665296010.0 -0.0348589682 0.1848988139 0.0879652445 -0.5501980732 0.0883519464 -0.5502031391 0.0037736894 0.1818357148
670295980.0 -0.0340267814 0.1859417804 0.082791773 -0.5510683838 0.0827178126 -0.5508192822 0.0053515149 0.1820502893
675295950.0 -0.0318236731 0.1863160295 0.0764413405 -0.5514495323 0.0766892699 -0.5517391387 0.0072007251 0.1822575356
680295920.0 -0.0300803427 0.1862878349 0.0705184108 -0.5524473945 0.069943299 -0.5532163717 0.0097849555 0.1827433924
685295890.0 -0.0278689668 0.1874736343 0.0646654096 -0.5532368776 0.0643902893 -0.5529858328 0.0113128539 0.1828780717
690295860.0 -0.0262407798 0.1878027766 0.0592632105 -0.5537506785 0.0585610953 -0.5543676609 0.0134901926 0.1833210263
695295830.0 -0.0242913238 0.1879637307 0.0528686609 -0.5546492919 0.0524146589 -0.5545590074 0.0156235853 0.1831738335
700295800.0 -0.0224543488 0.1882491622 0.0465881719 -0.5548804157 0.0461995143 -0.5547500881 0.017207669 0.1833456171
705295770.0 -0.0211526553 0.1894620401 0.0406493365 -0.5556025004 0.0408259909 -0.5555484885 0.0194075312 0.1835638722
710295740.0 -0.0187428432 0.189237786 0.0349326382 -0.5562762177 0.0351953904 -0.5557586907 0.0214811363 0.1828262973
715295710.0 -0.0170696539 0.1895800907 0.0291123684 -0.5559652986 0.028506834 -0.5561873805 0.0234684946 0.1832919837
720295680.0 -0.015461075 0.1896158669 0.0229263935 -0.556777025 0.0227298923 -0.5564025801 0.0256263411 0.1830727135
725295650.0 -0.0131641471 0.1899431611 0.0164639244 -0.5564451234 0.0167685308 -0.5566083462 0.0271616682 0.1832673566
730295620.0 -0.0111382124 0.1904599118 0.0105416454 -0.5564107767 0.0107300823 -0.5569924421 0.0288351266 0.1825004385
735295590.0 -0.0097006921 0.1908257303 0.0047886276 -0.5569049668 0.0047363012 -0.5565776316 0.0308730571 0.1821057338
740295560.0 -0.0081131987 0.1911812752 -0.0010141969 -0.556596904 -0.0015455333 -0.5568902406 0.0337923338 0.1824445424
745295530.0 -0.0060690205 0.191671972 -0.007288736 -0.5565469242 -0.007693742 -0.5567548518 0.0351431671 0.1818409217
750295500.0 -0.0039368869 0.1913416928 -0.0130353881 -0.5567168587 -0.0130078595 -0.5569133697 0.0372937164 0.1819937713
755295470.0 -0.0021431511 0.1911492974 -0.0188112174 -0.5563814635 -0.0193687094 -0.5567408143 0.0397034944 0.1810955981
760295440.0 -0.0002104518 0.1917806099 -0.0251375088 -0.5562661421 -0.0253452448 -0.5565008374 0.0413240753 0.1806486286
765295410.0 0.0014440401 0.1921294216 -0.0313597475 -0.5558919451 -0.0316615788 -0.555990468 0.043440075 0.1809685085
770295380.0 0.0031202825 0.1918370689 -0.0374150327 -0.5555838925 -0.0370584881 -0.5553645928 0.0452878384 0.180012639
775295350.0 0.005091131 0.1914810469 -0.0433219628 -0.5544789835 -0.0431191149 -0.554778334 0.0466961933 0.1799130489
780295320.0 0.0067187513 0.1919907114 -0.0493630428 -0.5540959042 -0.0485376121 -0.5541587116 0.0492066634 0.1788906683
785295290.0 0.0081327561 0.191669223 -0.0552343317 -0.553367895 -0.054926705 -0.5535469197 0.0512241115 0.1788061291
790295260.0 0.0110154087 0.1924852889 -0.0610269204 -0.5529281501 -0.059937804 -0.5528317241 0.0531995107 0.1783355976
795295230.0 0.0126733433 0.1920450056 -0.0670396364 -0.5523693672 -0.0664220423 -0.5527781791 0.055656288 0.1779147757
800295200.0 0.0142475197 0.1922740596 -0.0734914456 -0.5509642986 -0.0729179506 -0.5511686279 0.0574061694 0.1773060097
805295170.0 0.0164081049 0.1919936664 -0.0789892719 -0.5506609155 -0.0791952414 -0.550937052 0.0595814482 0.1770236825
810295140.0 0.0178880519 0.1918141309 -0.0845592828 -0.5494596766 -0.084688465 -0.5499401003 0.0616144897 0.1765098866
815295110.0 0.0199427866 0.1916962141 -0.0906724865 -0.5486559971 -0.0902833765 -0.548810148 0.0634284223 0.1762940773
820295080.0 0.0213040656 0.1921626737 -0.0964919993 -0.5474164127 -0.0961374728 -0.54770815 0.0656870232 0.1752868278
825295050.0 0.0240245498 0.1918015351 -0.1018847444 -0.5461428413 -0.1021573577 -0.5463817184 0.067277226 0.1748616963
830295020.0 0.0255379553 0.1917091819 -0.1084006255 -0.545297711 -0.1082382218 -0.5451572964 0.0701808448 0.1744834474
