!Created with skrf (http://scikit-rf.org).
# Hz S RI R 50.0 
!freq ReS11 ImS11 ReS21 ImS21 ReS12 ImS12 ReS22 ImS22
300000.0 -0.236178831 -0.0950798149 0.4652214933 0.0652525507 0.4678298663 0.0692261911 -0.2361969709 -0.1089826536
5299970.0 -0.2435165793 0.0073992992 0.4736002199 0.0051784326 0.4738458221 0.0055971915 -0.24391544 0.006070067
10299940.0 -0.2402848613 0.0198173434 0.4759640597 0.0060814829 0.4758318638 0.0064613871 -0.2409004016 0.0183356106
15299910.0 -0.2359883858 0.0293233062 0.4792375622 0.0075949342 0.4793310259 0.008022553 -0.2366440602 0.0274224259
20299880.0 -0.230463904 0.0371467067 0.4841797663 0.0078826386 0.4843802524 0.008592404 -0.2321954761 0.0354649767
25299850.0 -0.2248058085 0.0435388921 0.4893789757 0.0073645923 0.4894636401 0.0072451509 -0.2268183714 0.0416712603
30299820.0 -0.2187640835 0.0485467584 0.4952702768 0.0053050128 0.494755084 0.0056536836 -0.2218357127 0.047022719
35299790.0 -0.212980493 0.0526648924 0.5001335646 0.0021223935 0.5003887608 0.0022300863 -0.2161848038 0.0509171366
40299760.0 -0.2076550801 0.0558919309 0.5056808789 -0.0015555847 0.5055846887 -0.0017144395 -0.2115257185 0.0546683012
45299730.0 -0.2025557263 0.0584181995 0.5104750288 -0.0066507504 0.5103942661 -0.006105697 -0.2069125377 0.0576465598
50299700.0 -0.1974799903 0.0602347637 0.5144068248 -0.0121406196 0.5146165451 -0.0121029091 -0.2023543634 0.0597663702
55299670.0 -0.1936761166 0.061902208 0.5176851279 -0.0181585065 0.5184206164 -0.0178971901 -0.1984570125 0.0617537655
60299640.0 -0.1894990476 0.0627861447 0.5210739939 -0.0243397746 0.5212481914 -0.0244258138 -0.1941771684 0.0630880165
65299610.0 -0.1863166989 0.0636394654 0.5242854902 -0.0299633059 0.524617087 -0.030516098 -0.1912638254 0.0644191502
70299580.0 -0.1825160532 0.0643054242 0.5268350455 -0.036854599 0.5268180055 -0.0370735586 -0.1879551225 0.0654071364
75299550.0 -0.1796303165 0.0650827922 0.5284483291 -0.0440492816 0.5285937312 -0.0439409831 -0.1853456691 0.0665899749
80299520.0 -0.1773320745 0.0657622633 0.5307048586 -0.0510360607 0.5307514237 -0.0509918278 -0.1828855277 0.0673282089
85299490.0 -0.1746752686 0.065924827 0.5317536931 -0.0580567223 0.5317857347 -0.0581363863 -0.1801240518 0.0682252308
90299460.0 -0.1725883915 0.0664117453 0.5328997456 -0.0647208425 0.5333220864 -0.0648655624 -0.1777782223 0.069243233
95299430.0 -0.1705819161 0.0672646044 0.5342896513 -0.0719406688 0.5343289939 -0.0714672856 -0.1756461327 0.0702087263
100299400.0 -0.1690148052 0.0676420425 0.5342836576 -0.0785975308 0.5341095458 -0.0785277408 -0.1740679067 0.0708365422
105299370.0 -0.1668410183 0.067875311 0.5342249689 -0.0848168152 0.5348970383 -0.0854008205 -0.1721761265 0.0718093839
110299340.0 -0.1656417836 0.0684984212 0.5342358728 -0.0920986817 0.5349329674 -0.0925479049 -0.1707494374 0.0726599088
115299310.0 -0.1639023906 0.0687645418 0.5345307361 -0.0988021038 0.5350287559 -0.0990185285 -0.1689923127 0.072970993
120299280.0 -0.1628480072 0.0692754979 0.5347485408 -0.1059890751 0.534919312 -0.1064934487 -0.1678129376 0.0743580117
125299250.0 -0.1620159151 0.0697341669 0.5341128812 -0.1125636303 0.5345564598 -0.1127958414 -0.1664302639 0.0746953645
130299220.0 -0.1605814682 0.0708524181 0.5338379079 -0.1190769793 0.5337549213 -0.1194770952 -0.1654555882 0.0761296927
135299190.0 -0.1595194978 0.0709791711 0.5330132374 -0.1258373636 0.5326544706 -0.1265362081 -0.1639682342 0.0770730144
140299160.0 -0.1585708869 0.0720127775 0.5324472585 -0.1326119302 0.5324885753 -0.1328738946 -0.1628123802 0.0779879698
145299130.0 -0.1576815407 0.0726939185 0.5317750211 -0.139310965 0.5312180859 -0.1391305484 -0.1620445372 0.0789633871
150299100.0 -0.1566536079 0.0735157487 0.5301345054 -0.145794464 0.5302255759 -0.1455947275 -0.160861369 0.0796562606
155299070.0 -0.1559248627 0.0747291581 0.5289954757 -0.1526649918 0.5289606222 -0.1528073678 -0.1600363292 0.0811521813
160299040.0 -0.1550698016 0.0753025623 0.5276563748 -0.1585489966 0.5278945733 -0.1588104849 -0.1589117556 0.0824417188
165299010.0 -0.1544190377 0.0763252075 0.5264920615 -0.165517919 0.5263056583 -0.1651015122 -0.1577412274 0.0831237177
170298980.0 -0.1535062473 0.0776430176 0.5241173155 -0.1716953161 0.5245512782 -0.17182808 -0.1567556588 0.084324447
175298950.0 -0.1526932431 0.0781767265 0.523360573 -0.1772690447 0.5232646647 -0.1779995745 -0.1563184058 0.0859702125
180298920.0 -0.1517973424 0.0790066848 0.5216077854 -0.1842022984 0.52129594 -0.1842114816 -0.1547855049 0.0872118711
185298890.0 -0.150974095 0.0801274726 0.5195090105 -0.1906183916 0.5198744881 -0.1903746806 -0.1541529133 0.0882724827
190298860.0 -0.1502727899 0.0813373024 0.517296268 -0.1969904598 0.5176167007 -0.1968179497 -0.1528179489 0.0895024828
195298830.0 -0.1495069864 0.0819464248 0.5156192504 -0.2026682429 0.5153003262 -0.2029243747 -0.1520720431 0.0904559039
200298800.0 -0.1489576114 0.0834931011 0.5138426541 -0.2084049556 0.5135908912 -0.2086146114 -0.1508866664 0.0921259562
205298770.0 -0.1480915199 0.0846699773 0.5116207741 -0.2150767639 0.5118231648 -0.2149207509 -0.150257701 0.0930882355
210298740.0 -0.1477915164 0.0855042712 0.5095377324 -0.2210487741 0.5094658017 -0.2213593056 -0.1492038885 0.0950717898
215298710.0 -0.1466821046 0.0867907992 0.5067897463 -0.2265996481 0.5070892475 -0.2268380929 -0.1484163554 0.0961019567
220298680.0 -0.145750317 0.0877350053 0.5044693521 -0.2329118806 0.5044993122 -0.2326829181 -0.147336008 0.0978956075
225298650.0 -0.1449069126 0.0893487485 0.5017856207 -0.238539047 0.5021253139 -0.2382836244 -0.1465946216 0.0990416535
230298620.0 -0.1444392776 0.0903521887 0.4996191493 -0.2442271198 0.4997512236 -0.2445844586 -0.1451867843 0.1002818943
235298590.0 -0.1438750321 0.0916023163 0.4970091475 -0.2502745642 0.4967976725 -0.2505098541 -0.1437851035 0.1017349392
240298560.0 -0.14304764 0.0926612857 0.4946421331 -0.2553590721 0.4940972763 -0.2558271056 -0.1431596437 0.1032139147
245298530.0 -0.1417858251 0.0941408541 0.4907651968 -0.2617135662 0.4911766862 -0.261401854 -0.1420511514 0.104727223
250298500.0 -0.1416209942 0.0952413138 0.4885448409 -0.2664539232 0.4887770729 -0.2668876605 -0.1406680065 0.1061833549
255298470.0 -0.1405564486 0.0966135917 0.4853926066 -0.272809013 0.4857960398 -0.2729736437 -0.1396178374 0.1073125934
260298440.0 -0.1397901493 0.0978707089 0.482591437 -0.2775910623 0.4829015818 -0.2784420456 -0.1380660407 0.1090672497
265298410.0 -0.1386373665 0.0996287881 0.4794526891 -0.284096718 0.4791379385 -0.2836760351 -0.1375292083 0.110212921
270298380.0 -0.1376193015 0.1005394485 0.4759418419 -0.2891556888 0.4764060499 -0.2894394671 -0.1358983547 0.112186861
275298350.0 -0.1372456036 0.1020310061 0.4733020834 -0.2953372839 0.473607999 -0.295027686 -0.1347821318 0.1132964545
280298320.0 -0.1362867295 0.1031719122 0.4698284482 -0.2993894401 0.470012199 -0.3002851216 -0.1333954384 0.1148814967
285298290.0 -0.1351520556 0.1049503938 0.4665817199 -0.3057517403 0.4667354306 -0.3056094423 -0.1326203235 0.1162091933
290298260.0 -0.1342822197 0.1058633594 0.463565899 -0.310691925 0.4634808916 -0.3107254089 -0.1309478715 0.1180299759
295298230.0 -0.1334038684 0.107096911 0.4602650293 -0.3161008733 0.4599990429 -0.3161161637 -0.1297523813 0.1191639916
300298200.0 -0.1319419243 0.1082995646 0.4563858185 -0.3213664626 0.4568665267 -0.3216394306 -0.1284220785 0.1208310313
305298170.0 -0.131141933 0.109467082 0.4537151723 -0.3266436146 0.4535439816 -0.3267559173 -0.1267039707 0.1224661344
310298140.0 -0.1298772798 0.1106033645 0.4498609221 -0.3320447202 0.4499512247 -0.3322162821 -0.1254329351 0.1240536334
315298110.0 -0.1291604877 0.1118642207 0.4458741324 -0.3372182672 0.4462077201 -0.3372569824 -0.1242919318 0.1250480307
320298080.0 -0.1281757509 0.1132126995 0.442412396 -0.3423120479 0.4425048127 -0.3422453191 -0.1228637341 0.1262981035
325298050.0 -0.1273225113 0.1140695326 0.4388415278 -0.3473033185 0.4385635918 -0.3475940119 -0.1214040883 0.1277591001
330298020.0 -0.1263415976 0.1155805543 0.4339588655 -0.3523289602 0.4344332386 -0.35229614 -0.1205915482 0.1287733522
335297990.0 -0.1252819469 0.1167192197 0.4302329664 -0.3572583148 0.4304348598 -0.3575152425 -0.1189944986 0.1304884952
340297960.0 -0.1248616477 0.1181096125 0.4260744727 -0.3619148019 0.4264562617 -0.3619677743 -0.117857626 0.1321049401
345297930.0 -0.1240147298 0.1193651302 0.4222395961 -0.3659693661 0.4219077737 -0.3664809965 -0.1165393874 0.1332839232
350297900.0 -0.1225800728 0.1208710655 0.4181071665 -0.3707271916 0.4182066073 -0.3710385382 -0.1151650938 0.1348705821
355297870.0 -0.1214915655 0.1220263438 0.413614066 -0.3758554711 0.4139970808 -0.3757124625 -0.1141319845 0.1364563834
360297840.0 -0.1203107706 0.1234775331 0.4095855461 -0.3804068078 0.4097509534 -0.380070327 -0.1124810573 0.1379199734
365297810.0 -0.1190591225 0.1247109639 0.4051614901 -0.3846486468 0.4053646219 -0.3847870913 -0.110622962 0.1390335114
370297780.0 -0.1176199108 0.1258036436 0.400992792 -0.3890841405 0.4014514774 -0.3897741725 -0.1093115533 0.1407905054
375297750.0 -0.1169048146 0.1274482835 0.3975186081 -0.393696947 0.3969812339 -0.3942312353 -0.1078761292 0.1422534619
380297720.0 -0.115707277 0.1282653768 0.3927563579 -0.397598084 0.3926895154 -0.3977525639 -0.1059273126 0.1437688374
385297690.0 -0.114264442 0.1297747863 0.3876798192 -0.4015276373 0.3884386811 -0.4025290214 -0.1046806948 0.1454476556
390297660.0 -0.1132173069 0.1310058957 0.3836993666 -0.4067279689 0.3837573323 -0.4070505607 -0.1027845781 0.1460348062
395297630.0 -0.1116785036 0.1324123312 0.3796529566 -0.4102985425 0.3790094896 -0.4107587522 -0.1013363297 0.1480804386
400297600.0 -0.1106572916 0.1335836986 0.3746031 -0.4151602653 0.3750547553 -0.4150004331 -0.100196037 0.148824442
405297570.0 -0.109391051 0.1346288083 0.3701602642 -0.4187362756 0.3700385526 -0.4196092955 -0.0983495329 0.1507940116
410297540.0 -0.1079614672 0.1357371394 0.3649372579 -0.4226041815 0.3652310077 -0.4227558765 -0.0966652725 0.1516594093
415297510.0 -0.1067736791 0.1374357355 0.3606273584 -0.427095241 0.3609657219 -0.427035759 -0.0952428821 0.1535262698
420297480.0 -0.1052794909 0.1379969109 0.3556520077 -0.4309577196 0.3562300133 -0.4311870109 -0.0933575395 0.1543386567
425297450.0 -0.1038418198 0.1388967887 0.3514429939 -0.4343973221 0.3516719989 -0.4350624427 -0.0916513206 0.1557896084
430297420.0 -0.1026218364 0.1404696483 0.3465365523 -0.4387572587 0.3466560287 -0.4388419309 -0.0900989169 0.1568090999
435297390.0 -0.1011949848 0.1415681599 0.341767623 -0.4424366594 0.3418934931 -0.4420424721 -0.0883805618 0.1581122762
440297360.0 -0.0997875855 0.1425274715 0.3365645078 -0.4461797208 0.3366073166 -0.4459427684 -0.0867740614 0.1589794579
445297330.0 -0.0983585028 0.1437779712 0.3318494995 -0.449878584 0.3321807508 -0.4500776896 -0.0851060119 0.1601436533
450297300.0 -0.0968817381 0.1447902987 0.3266387065 -0.4535379478 0.3273989543 -0.453419477 -0.0837322363 0.1614864841
455297270.0 -0.0957452517 0.1457633612 0.3220917744 -0.4567045853 0.322703011 -0.4568231608 -0.081427474 0.162423713
460297240.0 -0.0944148616 0.1471888207 0.3170814478 -0.4599936452 0.3164193887 -0.4604613602 -0.0796081562 0.1641321025
465297210.0 -0.0925426224 0.1480609732 0.3124216908 -0.4637877361 0.3123073912 -0.4636467441 -0.0782470025 0.1646509362
470297180.0 -0.0914197464 0.1488502554 0.3068575333 -0.4666842955 0.3069863706 -0.467153231 -0.0772616683 0.1658988698
475297150.0 -0.0901178593 0.149416196 0.3015577943 -0.4699682427 0.3017771041 -0.4700264811 -0.0749712288 0.167107977
480297120.0 -0.0883415898 0.1506658639 0.2965041939 -0.4736203112 0.296865581 -0.4733466758 -0.0729351814 0.1683949951
485297090.0 -0.086752922 0.1515788184 0.2916845706 -0.4764580706 0.2916500725 -0.4766989234 -0.0714488271 0.1689535215
490297060.0 -0.0855634202 0.1527349401 0.2858956622 -0.4799982678 0.2860664195 -0.4799316191 -0.0692808854 0.1700374922
495297030.0 -0.0842365971 0.1538024759 0.2808837013 -0.4831326385 0.2805961943 -0.4829528407 -0.0672706175 0.1709552364
500297000.0 -0.0822809003 0.1543293233 0.2754143918 -0.4860043084 0.2756313961 -0.4859434218 -0.0659412753 0.1717720847
505296970.0 -0.0811745737 0.1551397918 0.2698166301 -0.4880059413 0.2703098261 -0.4888353599 -0.0642254497 0.1730350621
510296940.0 -0.0794362442 0.1564563517 0.2650345396 -0.4917920539 0.264821014 -0.4918235803 -0.0617611357 0.1742573303
515296910.0 -0.0779434095 0.157518715 0.2591233016 -0.4942843381 0.2598026704 -0.4947216371 -0.0604171672 0.1746426427
520296880.0 -0.0764351076 0.1579105195 0.2536148799 -0.4971280443 0.2543621539 -0.4970737695 -0.0582001879 0.1754479825
525296850.0 -0.0752366446 0.158814652 0.2489485803 -0.5000627348 0.2489007939 -0.5003211012 -0.0559255623 0.1762262201
530296820.0 -0.0734951154 0.1596613909 0.2434634725 -0.5019961355 0.2433858033 -0.5026327204 -0.0549223897 0.1767699491
535296790.0 -0.0720545183 0.1604256071 0.2377633377 -0.5046917995 0.2381354248 -0.5049119716 -0.0526327805 0.1774284089
540296760.0 -0.070260349 0.1611200267 0.232074558 -0.5080372244 0.2317466644 -0.5079738478 -0.0509291539 0.178801445
545296730.0 -0.0691158919 0.1625577126 0.2267835488 -0.5099087674 0.2268740435 -0.50993026 -0.0493003408 0.1787523623
550296700.0 -0.0675485991 0.1629758088 0.2214237145 -0.5122921622 0.221751322 -0.5125861239 -0.0473332394 0.1802637564
555296670.0 -0.0655218018 0.1636008861 0.2159292686 -0.5150991741 0.2154991657 -0.5149580193 -0.0452747045 0.180809477
560296640.0 -0.0640984232 0.1646756235 0.2101227116 -0.517275133 0.2102817677 -0.51675824 -0.0431483918 0.1813395878
565296610.0 -0.0628252563 0.1650941933 0.2041488958 -0.5196823745 0.2040960144 -0.5194465715 -0.0412114074 0.1818694845
570296580.0 -0.0608376945 0.1657877043 0.1987677871 -0.5208056286 0.1988715531 -0.521522348 -0.0392869752 0.1830003685
575296550.0 -0.0593264009 0.1668820457 0.1933234152 -0.5234160738 0.1934590593 -0.5236496648 -0.0370999914 0.1833361086
580296520.0 -0.0576899011 0.1674217282 0.187577275 -0.5256034359 0.1872434133 -0.5255851848 -0.0355633786 0.1838154692
585296490.0 -0.055742428 0.1679101544 0.1817016557 -0.5276999596 0.1818321739 -0.5278001584 -0.0336613711 0.1840822477
590296460.0 -0.054936956 0.1681754759 0.1762056573 -0.528967018 0.1759197155 -0.5298114299 -0.0311751087 0.1849040563
595296430.0 -0.0529591402 0.169548281 0.1704551792 -0.5316085371 0.1703810959 -0.5317014005 -0.0294177086 0.185392727
600296400.0 -0.0513467693 0.1699312492 0.1649196625 -0.5327640958 0.1649349929 -0.5334684037 -0.0273651223 0.186102432
605296370.0 -0.0496198734 0.1709141121 0.1589720537 -0.5351376329 0.1590376758 -0.5344923913 -0.0253837231 0.1864868086
610296340.0 -0.0479633395 0.1710620887 0.1531195418 -0.5365773752 0.1534599845 -0.5366108629 -0.0232349352 0.1872256157
615296310.0 -0.0462616621 0.1721984646 0.1467639201 -0.5380220977 0.1472555501 -0.5381068832 -0.0212528536 0.1874230232
620296280.0 -0.0444949788 0.1722855372 0.1412911028 -0.5392582358 0.14139768 -0.5398853991 -0.0190535946 0.1873292463
625296250.0 -0.0427681829 0.1729568859 0.1352619498 -0.5409699002 0.1352890019 -0.5413127518 -0.0169506727 0.1879537196
630296220.0 -0.041238787 0.1736976493 0.1292410689 -0.5428285165 0.1298613298 -0.5428060746 -0.0154333136 0.1882632066
635296190.0 -0.0395330488 0.1743957531 0.1236352126 -0.5437115731 0.1237387668 -0.5433620588 -0.0133953463 0.1882317023
640296160.0 -0.0380098282 0.1745553621 0.118023892 -0.544872914 0.1177809576 -0.5450225585 -0.010760267 0.1885609663
645296130.0 -0.036231179 0.1755357713 0.1118509846 -0.5465055563 0.1121012113 -0.5459980579 -0.0098105426 0.1887999136
650296100.0 -0.0346043356 0.1761273611 0.1064950077 -0.5475745924 0.1064878437 -0.5473416605 -0.0075835599 0.1891722964
655296070.0 -0.0330797047 0.1760337155 0.1001347863 -0.5483469254 0.0998979276 -0.5486826359 -0.0049248407 0.1897536571
660296040.0 -0.0315030494 0.1771763339 0.0944329916 -0.5493774261 0.0943419599 -0.5492864054 -0.0031687748 0.1897268546
665296010.0 -0.029516843 0.177142432 0.0886914781 -0.5509866974 0.0888094874 -0.5505631636 -0.0011831044 0.1901222463
670295980.0 -0.0270640403 0.177627712 0.0821680668 -0.5514856652 0.0827802439 -0.5512190044 0.0004514025 0.1899575955
675295950.0 -0.025675069 0.1780050565 0.0763342124 -0.5518329684 0.0764441172 -0.5527096043 0.0033511485 0.1904702024
680295920.0 -0.0241626064 0.179106175 0.0703580449 -0.5532361169 0.0700620459 -0.5531097457 0.0052622157 0.1904658121
685295890.0 -0.0224651519 0.178804264 0.0645246992 -0.5534051397 0.0642280689 -0.5538808501 0.0073050219 0.1906590733
690295860.0 -0.0203694255 0.1791743885 0.0586894542 -0.5537005519 0.0582795523 -0.5542218815 0.0097437685 0.1904951392
695295830.0 -0.0185306896 0.1795117906 0.0517799321 -0.5548944168 0.0521090322 -0.5551451915 0.0112738239 0.1907622059
700295800.0 -0.0167106592 0.1800964276 0.0462730764 -0.555081275 0.0465187843 -0.5557453246 0.013158462 0.1906416819
705295770.0 -0.0150614635 0.1805202694 0.0403692617 -0.5560733744 0.0406303842 -0.555678279 0.0153734247 0.1904585088
710295740.0 -0.0135208385 0.1808088211 0.0346369667 -0.5564845476 0.0341839203 -0.5560095353 0.016887454 0.1907683424
715295710.0 -0.0116956208 0.1810242289 0.0282697415 -0.5566396343 0.0285060584 -0.5564437077 0.019570516 0.1901738262
720295680.0 -0.0100600928 0.1808300289 0.0223211017 -0.5562319921 0.0227603036 -0.5570566824 0.0214023938 0.1903349279
725295650.0 -0.0079868185 0.1814428777 0.0162040954 -0.556845093 0.016324837 -0.5566387276 0.0234618285 0.1904222918
730295620.0 -0.0067480503 0.1816182858 0.0103722812 -0.5569611159 0.0104544618 -0.5566374519 0.0260164365 0.1895603901
735295590.0 -0.0039869308 0.181625191 0.00445848 -0.5568157459 0.0048663961 -0.5573154248 0.0279450002 0.1900158832
740295560.0 -0.0024933787 0.1824938491 -0.0018552074 -0.5566981089 -0.0017424301 -0.5569248836 0.0301778413 0.1897411771
745295530.0 -0.0008573705 0.1819820494 -0.0078371572 -0.5570765293 -0.007425725 -0.5571382151 0.0319346554 0.1897000166
750295500.0 0.0007049895 0.1820967361 -0.0131927497 -0.5563750892 -0.0133846519 -0.5564171929 0.0341407086 0.1891063375
755295470.0 0.0031695663 0.1826069347 -0.0194993776 -0.5565757694 -0.0194947843 -0.556793028 0.035716706 0.1893202977
760295440.0 0.0045847004 0.1829182119 -0.0256308889 -0.5563255029 -0.0255646279 -0.5563364236 0.0377242843 0.188947756
765295410.0 0.0061036474 0.1827524148 -0.031190708 -0.5556675133 -0.0314172891 -0.5563861001 0.0408441714 0.1887254726
770295380.0 0.0082143583 0.1830075002 -0.0379232571 -0.5553760394 -0.0375616975 -0.5558343986 0.0428949903 0.1886285164
775295350.0 0.0097763821 0.183012702 -0.0436138309 -0.5549421787 -0.0433104496 -0.5549237389 0.0439887217 0.1875659408
780295320.0 0.0119183653 0.182766901 -0.0494242037 -0.5544967102 -0.0494491281 -0.5550460314 0.0464053641 0.1876290654
785295290.0 0.013490752 0.1831769487 -0.0554457862 -0.5531896931 -0.0558199 -0.5540448509 0.0480945545 0.1872388382
790295260.0 0.0153066647 0.1830615987 -0.0610938474 -0.5532778844 -0.061465003 -0.5536824481 0.0507338078 0.1867179352
795295230.0 0.0171986863 0.1834848625 -0.0667436907 -0.5522692096 -0.0668874361 -0.552397784 0.0526504106 0.1869649103
800295200.0 0.0189418488 0.1833259456 -0.073464151 -0.5515029156 -0.0737874682 -0.5520637176 0.0548181803 0.1861366176
805295170.0 0.0205026361 0.1832409826 -0.0790365288 -0.5505000192 -0.0791973214 -0.5508923987 0.0560980142 0.1853524888
810295140.0 0.0227756896 0.1832196307 -0.0847424054 -0.5496725723 -0.0849343887 -0.550650701 0.0587952303 0.1853734758
815295110.0 0.0244075338 0.1831054547 -0.0910598029 -0.5490899244 -0.0914373927 -0.54910988 0.0605836829 0.1843546614
820295080.0 0.026227653 0.1826289864 -0.0967744388 -0.5478686138 -0.0969845054 -0.5481245335 0.0624726492 0.1841922504
825295050.0 0.0281151106 0.1825252644 -0.1030539874 -0.5461824336 -0.1030035612 -0.5471385577 0.0647910651 0.1839993608
830295020.0 0.0296197804 0.1828573228 -0.1088020906 -0.5455653635 -0.1093745395 -0.545689645 0.0667158077 0.1828484095
