!Created with skrf (http://scikit-rf.org).
# Hz S RI R 50.0 
!freq ReS11 ImS11 ReS21 ImS21 ReS12 ImS12 ReS22 ImS22
300000.0 -0.0998396952 -0.0739223604 0.6296974191 0.0674142752 0.6239735975 0.0682761106 -0.100353908 -0.0794544111
5299970.0 -0.1018515162 0.0129568551 0.6302059046 0.0099572561 0.6304335077 0.0105981741 -0.1006052597 0.0129680653
10299940.0 -0.0971708589 0.0293470048 0.6337649417 0.0155795877 0.6341519654 0.0155107548 -0.0955179205 0.0301409435
15299910.0 -0.089931462 0.0426321154 0.6402810443 0.0206779523 0.6406717684 0.0203756432 -0.0885728867 0.0436137818
20299880.0 -0.0813342138 0.0532338149 0.6488538342 0.0242442385 0.6484717601 0.0239043408 -0.0796574128 0.0544269757
25299850.0 -0.0723046418 0.0621614857 0.6577022955 0.0255535083 0.6575899665 0.025517856 -0.0696808848 0.0632405988
30299820.0 -0.0623051963 0.0688143839 0.6674692431 0.0244145502 0.6671839936 0.0246568994 -0.0598210865 0.0701771504
35299790.0 -0.0524652626 0.0736069509 0.6769477288 0.0217585726 0.6771047591 0.0213899193 -0.0496130107 0.0750278294
40299760.0 -0.0432260656 0.0773039356 0.6861671088 0.016846579 0.6869091597 0.0175656171 -0.0403824427 0.0778917093
45299730.0 -0.0341373312 0.0793969256 0.6948640141 0.0119690231 0.6953752263 0.0121281701 -0.0312730641 0.0798712906
50299700.0 -0.025693901 0.0801880376 0.7037985802 0.0053824431 0.7035281168 0.0054238656 -0.0224391686 0.0804346172
55299670.0 -0.0178546835 0.0804392235 0.7109460107 -0.0033892213 0.7107008072 -0.0026312209 -0.0151656221 0.0807776211
60299640.0 -0.0099325294 0.0802665538 0.7172034671 -0.0115923972 0.7178319654 -0.0111556571 -0.0080002562 0.0796360297
65299610.0 -0.0038003162 0.0788486834 0.7233185139 -0.0200438922 0.7234023453 -0.0196846729 -0.0014019234 0.0786955053
70299580.0 0.0026890506 0.077615355 0.7289956149 -0.0299520618 0.7286564975 -0.0289685282 0.0047975392 0.0768459348
75299550.0 0.0080324056 0.0758728052 0.7326207334 -0.0389699343 0.732392319 -0.0386204848 0.0099832169 0.074710911
80299520.0 0.0131092272 0.0737716685 0.7373631596 -0.0487169471 0.7375268451 -0.0490055562 0.0148572495 0.0727321397
85299490.0 0.0176597967 0.0714151542 0.7403628481 -0.0582983121 0.740487786 -0.0586587637 0.0195677445 0.0700787927
90299460.0 0.0216419054 0.0690543095 0.7426181462 -0.069255802 0.7432608135 -0.0683532159 0.0235553095 0.0680756504
95299430.0 0.0257949436 0.0667954133 0.7457367813 -0.0787757186 0.7456792621 -0.0790331193 0.0276064989 0.0655631448
100299400.0 0.0290830744 0.0647143087 0.747066641 -0.0890274235 0.7470723779 -0.0891939115 0.0310597298 0.0627545493
105299370.0 0.0323002017 0.0623173172 0.7484946458 -0.0995438485 0.7488025674 -0.0993228928 0.0341360727 0.0608459947
110299340.0 0.0350178443 0.0599286777 0.7502022729 -0.1095465307 0.7497271106 -0.1085888969 0.0360368557 0.0579537173
115299310.0 0.0375744575 0.0574030795 0.7509890785 -0.1189698895 0.7510323855 -0.1189410486 0.0389917189 0.0555905718
120299280.0 0.0397105383 0.0547067535 0.750997013 -0.1293635984 0.7514826703 -0.129520098 0.0412184765 0.0528799667
125299250.0 0.0418757549 0.0521395073 0.7516574287 -0.1386186647 0.7515726023 -0.1387200414 0.0426736636 0.0503237098
130299220.0 0.0435391122 0.0504405381 0.7514875173 -0.1491391685 0.7513715457 -0.1491892223 0.0450393885 0.0479624018
135299190.0 0.0454167293 0.0482882008 0.7512402813 -0.158760465 0.7512269435 -0.1586447021 0.0470118913 0.0459964028
140299160.0 0.0464063535 0.0464415735 0.7504820317 -0.168919031 0.7504999187 -0.1689144163 0.0480531063 0.0443998296
145299130.0 0.0483763325 0.0436856818 0.7502340051 -0.1782877367 0.749836204 -0.1782460044 0.0495011734 0.0420426031
150299100.0 0.0498425796 0.0421083154 0.7489464451 -0.1874674187 0.7492972948 -0.1875300999 0.0509229921 0.0401776869
155299070.0 0.0502513195 0.0397252856 0.7479661663 -0.1986544689 0.7476624532 -0.1977468995 0.0519215114 0.0382027828
160299040.0 0.0518601758 0.0379541207 0.7460899248 -0.2071625212 0.7459248223 -0.2073569279 0.0524319948 0.0364131531
165299010.0 0.0525508522 0.0363952545 0.7449184156 -0.2168013924 0.7449372146 -0.2170432031 0.0537787768 0.0347768468
170298980.0 0.0534386933 0.0339648169 0.7428848907 -0.2268348398 0.7429620501 -0.2261389817 0.0542666879 0.0333297686
175298950.0 0.0537786834 0.032085093 0.741679058 -0.235092026 0.7406836324 -0.2350903735 0.0549009438 0.0315767021
180298920.0 0.054479092 0.0306972458 0.7391572006 -0.2451665884 0.7386577611 -0.2444930851 0.0553790283 0.0298288163
185298890.0 0.0555955137 0.0287946145 0.7366434216 -0.2535694195 0.7364494021 -0.2537509007 0.055940933 0.0285424406
190298860.0 0.0553534921 0.0274473956 0.7341507872 -0.2632447199 0.7346547326 -0.2626503587 0.0565354941 0.0266327098
195298830.0 0.0561848207 0.0253004167 0.7317654275 -0.2721944479 0.7319964422 -0.271624853 0.0572956709 0.0250512515
200298800.0 0.0565260991 0.024023004 0.7285200421 -0.2812348976 0.7290254595 -0.2810674006 0.0568394987 0.0236980885
205298770.0 0.056814527 0.0228543015 0.7259962124 -0.2904036018 0.7261425773 -0.2896250257 0.0575588814 0.0215659834
210298740.0 0.0571622756 0.0210482467 0.7226385015 -0.2984120074 0.7230844655 -0.2977881067 0.0578499358 0.0213072317
215298710.0 0.0568686251 0.0197341652 0.7206983438 -0.3073465417 0.7197592399 -0.307576472 0.0577852709 0.019753243
220298680.0 0.0576365336 0.0178297926 0.7167793174 -0.3159604358 0.7165985206 -0.3158183811 0.0578054966 0.018093916
225298650.0 0.0579356336 0.0167575282 0.7135245258 -0.3246590409 0.7139742054 -0.324700407 0.0574126998 0.0167552159
230298620.0 0.0577881303 0.0159079563 0.7108274663 -0.332697907 0.7107180926 -0.3329870493 0.0575384458 0.0153618655
235298590.0 0.0579853641 0.014759032 0.706615919 -0.341328257 0.7070104782 -0.3407756889 0.0577072179 0.0137771886
240298560.0 0.0577357901 0.0134404397 0.7039448132 -0.3499448471 0.7033108228 -0.3503477364 0.0578574472 0.0131085622
245298530.0 0.0578178034 0.0122091302 0.6997835031 -0.3582420126 0.6992390961 -0.358332547 0.0582731434 0.0111644599
250298500.0 0.0584267104 0.0109623672 0.6953275235 -0.3667580329 0.6951670748 -0.3659352461 0.0578900938 0.0103044139
255298470.0 0.0584079588 0.0095147972 0.6911940349 -0.3743259996 0.6914550094 -0.3741421236 0.0580017716 0.0090285101
260298440.0 0.0579528269 0.0083160174 0.6873118434 -0.383043415 0.6876088108 -0.3821187505 0.0585921966 0.007839463
265298410.0 0.0589489475 0.007766982 0.6833894846 -0.3909858796 0.683656547 -0.3902555371 0.0580876591 0.0069440301
270298380.0 0.0584667075 0.0061474571 0.6799249341 -0.3980769882 0.6795010546 -0.3983842577 0.0577733984 0.0058984939
275298350.0 0.0590652952 0.0052152116 0.6750625736 -0.4068128061 0.6755260763 -0.4064643704 0.0583577078 0.0041144074
280298320.0 0.0588797091 0.0044564104 0.6713147386 -0.4146773883 0.6708407904 -0.4142362297 0.0587231348 0.0032943824
285298290.0 0.0586406566 0.0031751163 0.6668189304 -0.4221992506 0.6661393077 -0.4227034131 0.0585528839 0.002093107
290298260.0 0.0588409741 0.0023917564 0.6619565433 -0.4297279984 0.6621696401 -0.4299715271 0.0587651052 0.0017460689
295298230.0 0.0592979886 0.0008591715 0.6574523999 -0.4375574161 0.6572033162 -0.4373756282 0.0593274246 0.0002965816
300298200.0 0.0583477605 -0.0003319292 0.6528700117 -0.4450509759 0.6535514753 -0.4458190028 0.0587992566 -0.0008957423
305298170.0 0.0588064205 -0.0014508301 0.6476899808 -0.453413034 0.6480089329 -0.4533319352 0.0591971544 -0.0022944702
310298140.0 0.058582468 -0.0024819844 0.6430852434 -0.460830456 0.6432584412 -0.4605901926 0.0592855566 -0.0030535887
315298110.0 0.0583846256 -0.0042344764 0.6379275451 -0.4688954947 0.6383161825 -0.4685689991 0.058777526 -0.0042809378
320298080.0 0.0586792229 -0.0048431469 0.6323365637 -0.4760028388 0.6325717691 -0.4759557276 0.0590237175 -0.0053110854
325298050.0 0.0578638361 -0.0062657488 0.6270011017 -0.483966187 0.6274247602 -0.4832510597 0.0582776716 -0.0064494649
330298020.0 0.057549034 -0.0073269662 0.6214004797 -0.4914005828 0.6218703696 -0.4907380917 0.0575501957 -0.0075200254
335297990.0 0.0571758728 -0.0084378108 0.6156996264 -0.4979262033 0.6157927353 -0.4979254647 0.0563964654 -0.0078078038
340297960.0 0.0560597522 -0.0088777533 0.6100640628 -0.5047614598 0.6093781209 -0.5050567771 0.0571112727 -0.0086482767
345297930.0 0.055877729 -0.0093785002 0.603976236 -0.5120499707 0.6042921674 -0.5122982522 0.056762502 -0.0099110318
350297900.0 0.0551984768 -0.010670959 0.59741125 -0.5188898375 0.5978496135 -0.518349936 0.0558004066 -0.0099947058
355297870.0 0.0550963681 -0.0104599678 0.5926046896 -0.5250709769 0.5932208016 -0.5250588459 0.0554754681 -0.0103908679
360297840.0 0.0548704456 -0.0112970451 0.5874840273 -0.5313155781 0.5874352025 -0.5318069571 0.0552627226 -0.011155864
365297810.0 0.0539982645 -0.0119823451 0.580939241 -0.5385418192 0.5813539106 -0.5381446129 0.0548624107 -0.0117547245
370297780.0 0.0544492236 -0.0132085782 0.574533285 -0.5447802574 0.574958979 -0.5442534931 0.0543134535 -0.0124143105
375297750.0 0.0541067299 -0.0135378624 0.5690447954 -0.5512964645 0.5697242915 -0.5513087095 0.0543753402 -0.0129211799
380297720.0 0.0536816756 -0.0142867429 0.5627826772 -0.557742833 0.5630461235 -0.5570714238 0.0534925201 -0.0138289067
385297690.0 0.0529210773 -0.0150884412 0.5557466415 -0.5636058742 0.5560974185 -0.5633552958 0.0533523117 -0.0143696884
390297660.0 0.0528616523 -0.0154050184 0.5503276909 -0.5701334464 0.550232704 -0.5692927601 0.0527087407 -0.0149851114
395297630.0 0.0523139796 -0.0161329662 0.5442896386 -0.5759039027 0.5442360306 -0.5763668329 0.0531117044 -0.0156153668
400297600.0 0.051703975 -0.0166384319 0.5371501434 -0.5826130897 0.5375340431 -0.5818716601 0.0521420509 -0.0159445891
405297570.0 0.0512717588 -0.0173465882 0.5305814935 -0.5882836762 0.5311199035 -0.5876495775 0.0515529793 -0.0166784272
410297540.0 0.0513990231 -0.0180073911 0.5245553934 -0.5943625243 0.525261086 -0.593801031 0.0513926695 -0.0172076886
415297510.0 0.0512545808 -0.0185342318 0.517837328 -0.6005163547 0.5184961776 -0.5997795132 0.0512282571 -0.0177203895
420297480.0 0.0509893219 -0.0190616663 0.5114601322 -0.60610003 0.5110668024 -0.6060604908 0.0504557426 -0.0191535577
425297450.0 0.0504112883 -0.0201452688 0.5048246186 -0.611210065 0.5052198857 -0.6113879412 0.0497310527 -0.0189372614
430297420.0 0.0499387696 -0.0206709209 0.4979641821 -0.6162259441 0.4980642181 -0.6168841691 0.049596747 -0.0201211949
435297390.0 0.0495545086 -0.0210237447 0.49102489 -0.6223126914 0.4912188195 -0.6222156549 0.0499187707 -0.0205047785
440297360.0 0.049681796 -0.0214165419 0.484637523 -0.6273495335 0.4843530475 -0.627719689 0.0489012341 -0.0215356894
445297330.0 0.0488221636 -0.0227239478 0.4783417336 -0.6332870555 0.4778314909 -0.6328199212 0.0489541149 -0.0222024197
450297300.0 0.04902783 -0.0231845684 0.4706782227 -0.6383621213 0.4705457903 -0.6383323761 0.048429957 -0.0231354765
455297270.0 0.048518588 -0.0234640206 0.4635724602 -0.6435052823 0.4639802445 -0.6437272668 0.0482875216 -0.023382381
460297240.0 0.0478190617 -0.0242975784 0.4559603367 -0.6485531561 0.4565426438 -0.6490255842 0.0476487125 -0.0237168397
465297210.0 0.0478845165 -0.0247647448 0.4493287156 -0.6536975612 0.449116614 -0.6542050657 0.0476166084 -0.0247077736
470297180.0 0.0471330721 -0.0257063253 0.4419886184 -0.6587049698 0.4420145736 -0.6587756408 0.0471362376 -0.0248136221
475297150.0 0.0467892566 -0.0265352788 0.434547624 -0.6631535033 0.4350042204 -0.6629154876 0.0474968958 -0.0258949499
480297120.0 0.0464620936 -0.0263441856 0.4274706865 -0.6684051195 0.4274621408 -0.6684637702 0.0470990713 -0.0259827526
485297090.0 0.0456381016 -0.0270526282 0.4202810506 -0.6724707745 0.4202812119 -0.6725331798 0.046512015 -0.0268936678
490297060.0 0.0447443443 -0.0280273518 0.4129550741 -0.6783694254 0.4128609243 -0.6772430711 0.0460994099 -0.0267745846
495297030.0 0.0446826928 -0.0281841694 0.4048687003 -0.682161674 0.4061209497 -0.6821447566 0.0453260756 -0.0275926452
500297000.0 0.0443558691 -0.028729022 0.3971586994 -0.686259688 0.3973203167 -0.6856718792 0.0449420732 -0.0273996177
505296970.0 0.0438406045 -0.0293204554 0.3895980472 -0.6902558004 0.3902948696 -0.690598986 0.0445751821 -0.0282231172
510296940.0 0.0433260418 -0.0294863493 0.3829851758 -0.6948976657 0.3822772344 -0.6953559692 0.0446324069 -0.0284078183
515296910.0 0.0427062081 -0.0296264848 0.3745238751 -0.6994530812 0.3754214173 -0.699168058 0.0440340537 -0.0286438097
520296880.0 0.042214007 -0.0304898635 0.3669869628 -0.703829693 0.3670022184 -0.7031910031 0.0432752531 -0.0297579092
525296850.0 0.0419965581 -0.0313348124 0.359392278 -0.7070077462 0.3596411057 -0.7076332575 0.0426959673 -0.0299570718
530296820.0 0.0418356274 -0.0312435897 0.3518992866 -0.7116714298 0.351557582 -0.7112850475 0.0427158659 -0.0298504875
535296790.0 0.0403825268 -0.0317294438 0.3441233739 -0.7149205411 0.3444665116 -0.7145165442 0.0422072657 -0.0311116826
540296760.0 0.0401380465 -0.0318700702 0.3359228904 -0.7191093602 0.3358813735 -0.7191023749 0.0407953063 -0.0305124693
545296730.0 0.039780441 -0.0327486732 0.3275238699 -0.7225012494 0.327846413 -0.7222305871 0.0405304077 -0.0314220024
550296700.0 0.0400062882 -0.0323724052 0.3203347579 -0.726120914 0.3201145952 -0.7263664317 0.0396971152 -0.0315642253
555296670.0 0.0386999884 -0.0329896823 0.3127495672 -0.7297942986 0.312671299 -0.7290121603 0.039386552 -0.0318027253
560296640.0 0.0385779602 -0.0331782849 0.3037537251 -0.7328929106 0.3044341315 -0.7328418525 0.0388523879 -0.0323826037
565296610.0 0.037521716 -0.0338484419 0.2957782955 -0.7361212276 0.296196795 -0.735902601 0.0381071563 -0.0333128666
570296580.0 0.0368935089 -0.0341097884 0.2882632563 -0.7399253577 0.2875358442 -0.7396532223 0.0378508856 -0.0324895268
575296550.0 0.0362747476 -0.0341622641 0.2800783454 -0.7427157679 0.2799766678 -0.7425985943 0.0375454539 -0.0336150989
580296520.0 0.0363974135 -0.0345409831 0.2715491013 -0.7461600465 0.2719057081 -0.7457721638 0.0366562119 -0.0339306856
585296490.0 0.0355120547 -0.035725607 0.2640241452 -0.7485449932 0.2638357307 -0.7482382849 0.0361287933 -0.0341203616
590296460.0 0.035774462 -0.0352041683 0.2556699071 -0.7501910294 0.2558783497 -0.7512252751 0.0348914998 -0.0345090807
595296430.0 0.0351924382 -0.0352782721 0.2465503745 -0.7546838807 0.2470428111 -0.7538437684 0.0352180849 -0.0353544862
600296400.0 0.0339955891 -0.0361684391 0.2395400264 -0.7567663668 0.2391311017 -0.7566866705 0.0342130208 -0.035669403
605296370.0 0.0334416022 -0.036573594 0.23063434 -0.7591807827 0.2307384883 -0.759176559 0.0336555621 -0.0357963718
610296340.0 0.0332476855 -0.0368278538 0.2222938404 -0.7616014867 0.2225367359 -0.76167268 0.0336574851 -0.0360623275
615296310.0 0.0328833009 -0.0376981817 0.2137643031 -0.7643498758 0.2135461167 -0.7646496169 0.0332692248 -0.0364044719
620296280.0 0.0323304313 -0.0379236423 0.2058567264 -0.7662168008 0.2057323606 -0.7661738357 0.0320682108 -0.0367955821
625296250.0 0.0313087242 -0.0388366119 0.1985833221 -0.7695042804 0.1977474566 -0.7691292915 0.0326447163 -0.0368935053
630296220.0 0.0316915283 -0.0382565424 0.18830917 -0.7708388684 0.1881833697 -0.7704932628 0.0315125856 -0.0371322557
635296190.0 0.0297389424 -0.0391828352 0.1805689177 -0.7728569126 0.1807354494 -0.772452453 0.0313585808 -0.0376264981
640296160.0 0.029416761 -0.0392935888 0.1719455633 -0.7741518813 0.1722446714 -0.7746021762 0.0304399978 -0.0381696218
645296130.0 0.0292952306 -0.0392344346 0.1636148986 -0.7760652266 0.164030997 -0.7765734077 0.030344487 -0.0381314319
650296100.0 0.0286117193 -0.0396025476 0.155305592 -0.7780566372 0.1560212162 -0.7780579472 0.0303329996 -0.0390975088
655296070.0 0.0275795306 -0.0402842201 0.1464978255 -0.7798099564 0.1469073693 -0.7799558348 0.0295053737 -0.0388170695
660296040.0 0.0265478247 -0.040739765 0.1381137762 -0.7818319316 0.1383652617 -0.7816292156 0.0291527534 -0.038895312
665296010.0 0.0268210967 -0.0403450014 0.1297832774 -0.7824719303 0.1295742413 -0.7827149312 0.0283532986 -0.0386859621
670295980.0 0.0249672389 -0.0405127961 0.1210109054 -0.7841197618 0.1206792256 -0.7843662086 0.0272074143 -0.0391392376
675295950.0 0.0252436887 -0.0403806433 0.1128402153 -0.7851675501 0.1125060032 -0.7850037104 0.0269197787 -0.0395126214
680295920.0 0.0241897226 -0.0412273242 0.1039286931 -0.7863684547 0.1030324516 -0.7869495673 0.026440488 -0.0388559352
685295890.0 0.0239879839 -0.0402513813 0.0950593211 -0.7874552015 0.0950009841 -0.7877894021 0.0256493445 -0.0390576552
690295860.0 0.0237839637 -0.0408667817 0.0869810855 -0.7879606577 0.086533848 -0.7887590549 0.024923539 -0.0386074414
695295830.0 0.0228926054 -0.0413120318 0.078493305 -0.7893613232 0.0777148312 -0.7889645416 0.0243073302 -0.0390555966
700295800.0 0.0224003328 -0.0416578779 0.0692518952 -0.7899170964 0.069039091 -0.7897267683 0.0236590971 -0.0384089113
705295770.0 0.0215627015 -0.0407396828 0.0604157763 -0.7905227914 0.0612253049 -0.7911763786 0.0230333737 -0.0389277457
710295740.0 0.0214197662 -0.0411953171 0.0523461364 -0.792118342 0.0529763074 -0.7920345386 0.0226177196 -0.0400790988
715295710.0 0.019997389 -0.0416669648 0.0440534058 -0.792431473 0.0435844608 -0.7922759812 0.0224776902 -0.039828288
720295680.0 0.0197710404 -0.0416453664 0.0351145281 -0.7932359687 0.0354760523 -0.792306078 0.0214638961 -0.0390205878
725295650.0 0.0193843651 -0.0415295185 0.0260744427 -0.7926227019 0.0265702455 -0.7930193777 0.0202126688 -0.0392183292
730295620.0 0.0192367437 -0.0412870326 0.0178699235 -0.7924394877 0.0176403121 -0.7929305662 0.0195929536 -0.0400988869
735295590.0 0.0178676754 -0.041449271 0.0091795542 -0.7935875108 0.0091166839 -0.7932842941 0.0190166401 -0.0400393404
740295560.0 0.0170339078 -0.0414149134 0.000761912 -0.7927756877 0.0003717549 -0.7930883087 0.0189548686 -0.0395529249
745295530.0 0.016720186 -0.0416344483 -0.0076660423 -0.7928250577 -0.0080992401 -0.7930344418 0.0180907738 -0.0404887112
750295500.0 0.0160251297 -0.0415120365 -0.0166513974 -0.7923962365 -0.0166814725 -0.7932093502 0.0175559377 -0.0401909682
755295470.0 0.0157525563 -0.0421093377 -0.0252263943 -0.7928319505 -0.0246482972 -0.7929990916 0.0176870765 -0.0408193928
760295440.0 0.0149574809 -0.0418960298 -0.0340568182 -0.7924889069 -0.0337871009 -0.7931595053 0.0163773653 -0.0408970087
765295410.0 0.0142825852 -0.0418485568 -0.0424689771 -0.7918367949 -0.0427544095 -0.792262826 0.0161565196 -0.0404743193
770295380.0 0.0133496422 -0.0422315979 -0.0515520135 -0.791753554 -0.0514855737 -0.7918842676 0.0150116236 -0.0410076236
775295350.0 0.0129709083 -0.042767149 -0.059700399 -0.7905529782 -0.0596412003 -0.7907380386 0.013609454 -0.04035479
780295320.0 0.0126309693 -0.0422598164 -0.0683969583 -0.7896077237 -0.0675533059 -0.7901168096 0.0135639669 -0.0413475568
785295290.0 0.0114557897 -0.0430127159 -0.0768533477 -0.7891377137 -0.0767401641 -0.789245334 0.0136665953 -0.0408593212
790295260.0 0.011631643 -0.0418579146 -0.0852657538 -0.7884378016 -0.0843632518 -0.7881986393 0.0125209393 -0.0409552703
795295230.0 0.010515218 -0.042635724 -0.0937957278 -0.7869191985 -0.0930974674 -0.7873886681 0.012663016 -0.0405069105
800295200.0 0.009707561 -0.0418223806 -0.1037469269 -0.7859823277 -0.1029042807 -0.7862604355 0.0116118392 -0.0411450699
805295170.0 0.0091119462 -0.0425917889 -0.1112415305 -0.7849044303 -0.1112477917 -0.7854365574 0.0112006688 -0.0407918071
810295140.0 0.0082524763 -0.0428797709 -0.1192012292 -0.7835581062 -0.1195314615 -0.7842475771 0.0113434852 -0.0403508924
815295110.0 0.0080975159 -0.0428801835 -0.1284220851 -0.782000977 -0.1281529406 -0.7826220606 0.0099734265 -0.0406218457
820295080.0 0.0067368752 -0.0417731451 -0.136732188 -0.7800957908 -0.1361055106 -0.7807261922 0.0096233066 -0.0403698164
825295050.0 0.0072858766 -0.0418919936 -0.1445258622 -0.7790123155 -0.1450107699 -0.7794863398 0.0094627979 -0.0403093527
830295020.0 0.0060323246 -0.041876081 -0.1535741853 -0.7770943679 -0.1534350206 -0.7772634367 0.0093619276 -0.0401973659
