!Created with skrf (http://scikit-rf.org).
# Hz S RI R 50.0 
!freq ReS11 ImS11 ReS21 ImS21 ReS12 ImS12 ReS22 ImS22
300000.0 -0.7720470093 -0.1670207041 -0.0017498014 0.0001366218 0.0004296193 0.0004569745 -0.0443839964 -0.0756925422
5299970.0 -0.7859648983 -0.0091567761 4.09067e-05 9.69017e-05 -5.57124e-05 0.0001769141 -0.0477458129 0.0138330319
10299940.0 -0.7892721253 -0.0058202909 -0.000233621 -3.7842e-06 -8.15653e-05 0.0002840642 -0.042025754 0.031749486
15299910.0 -0.7940378712 -0.0031503652 5.55627e-05 3.55164e-05 -0.0002164608 -0.0001354407 -0.0338569231 0.0457307564
20299880.0 -0.8008698504 0.0006170779 -7.21496e-05 -4.17776e-05 0.0001670374 -0.0001797925 -0.0241842644 0.057087136
25299850.0 -0.8073888599 0.0062785011 3.51708e-05 6.17616e-05 -0.0001009007 2.3003e-06 -0.0135128597 0.066088274
30299820.0 -0.8139650945 0.0140254665 -3.18439e-05 8.48506e-05 -6.25836e-05 -0.0001473648 -0.0020706551 0.0727432754
35299790.0 -0.818481957 0.0230102582 -0.0001322165 1.9492e-06 0.000131448 -0.0001345213 0.0090677713 0.0777145646
40299760.0 -0.8233469204 0.0322976736 2.50043e-05 2.93062e-05 1.42411e-05 -3.95259e-05 0.0199160354 0.0800707587
45299730.0 -0.8265823364 0.0419488922 0.0001193411 4.91911e-05 0.0001141341 -2.08702e-05 0.0305671414 0.0815411215
50299700.0 -0.8292994561 0.0519814098 -0.0001409954 -9.6529e-06 4.47001e-05 -5.97053e-05 0.0404824563 0.081523018
55299670.0 -0.8313548874 0.060971064 0.0002058982 -0.0002779382 0.0001178961 2.76527e-05 0.0491892141 0.0804046874
60299640.0 -0.8325984222 0.0719002236 -6.6696e-05 -9.85833e-05 -4.91477e-05 0.0001694512 0.0577280507 0.0782487342
65299610.0 -0.8333373318 0.0817817786 1.39622e-05 3.89349e-05 -1.26732e-05 3.07506e-05 0.065407359 0.0760866455
70299580.0 -0.8340602634 0.0918582177 2.09016e-05 0.0001240998 -4.60722e-05 0.0001038309 0.0720568523 0.0731655123
75299550.0 -0.8341128173 0.1021723832 -0.000222985 6.18438e-05 -9.34842e-05 3.50222e-05 0.0784706103 0.0697342195
80299520.0 -0.8341043306 0.1124033308 -0.0001285601 1.41233e-05 -1.47471e-05 -0.0001702459 0.0841091123 0.0662877873
85299490.0 -0.8325701543 0.1219923844 6.68358e-05 -0.0001958253 -1.74112e-05 8.89246e-05 0.0889533709 0.0624166714
90299460.0 -0.8320320876 0.1314703795 0.0001202921 -2.72294e-05 -0.0001709006 4.64571e-05 0.0930721173 0.0585687255
95299430.0 -0.8314732225 0.1405997501 0.0001178234 -1.50192e-05 7.22541e-05 -1.23081e-05 0.0975023678 0.0547002495
100299400.0 -0.8300998518 0.1501001776 0.0001395949 -4.34406e-05 8.05688e-05 -0.0001065464 0.1009898646 0.0510522781
105299370.0 -0.8287094719 0.1593176458 -0.0001202946 0.0002976563 -3.57117e-05 5.46822e-05 0.1042346114 0.0467693893
110299340.0 -0.8274596983 0.1679148543 0.0003497304 5.57131e-05 -0.0002131313 -0.000115008 0.1068977703 0.0428173609
115299310.0 -0.8256412606 0.1773731387 0.0001310969 -1.48515e-05 4.02142e-05 0.0003010822 0.1091834955 0.0391465768
120299280.0 -0.824242556 0.1870037629 -2.061e-05 6.30915e-05 -7.40924e-05 -0.0001139603 0.1114366816 0.0349243896
125299250.0 -0.8219620923 0.1956976632 0.0002852277 -4.1095e-06 5.83549e-05 -7.36935e-05 0.1129998734 0.0312667807
130299220.0 -0.8206250266 0.2049577134 0.0001739022 0.0003164327 9.78073e-05 0.0002096249 0.1148198331 0.0275294106
135299190.0 -0.8185272228 0.2141694889 7.49512e-05 0.0001013202 6.9874e-05 -0.0001386292 0.1163752717 0.0236494397
140299160.0 -0.8171934061 0.2230681629 0.0001361925 -7.26068e-05 7.14705e-05 0.0001011863 0.1171572812 0.0201527298
145299130.0 -0.8144871161 0.2322553968 0.0001925152 0.0001393022 -2.62212e-05 0.0001104179 0.1183941055 0.0168035395
150299100.0 -0.812038651 0.2409020669 4.55791e-05 -4.18875e-05 0.0001528741 3.99846e-05 0.1193729402 0.0134073637
155299070.0 -0.8097419886 0.2499149118 5.536e-05 -3.89401e-05 -6.8318e-05 0.0002277457 0.1198966772 0.0101711178
160299040.0 -0.8076251716 0.2594903331 0.0002873409 -3.94098e-05 3.3792e-06 -0.0002716698 0.1201889679 0.0062844341
165299010.0 -0.8045034612 0.2673839898 0.000141759 9.3419e-06 -6.80992e-05 0.0002965637 0.1209884048 0.0034202778
170298980.0 -0.8019292164 0.2761272584 -3.45412e-05 -1.3355e-05 -0.0001553974 3.734e-05 0.1210266123 0.0002473539
175298950.0 -0.7988740462 0.284392313 -8.41136e-05 5.86219e-05 -1.46002e-05 2.49885e-05 0.1213011085 -0.0024334879
180298920.0 -0.7965057452 0.2934981942 4.5599e-06 7.61843e-05 0.000319425 -0.0001010818 0.1213520951 -0.0059427848
185298890.0 -0.7929760551 0.3017438739 -3.10266e-05 0.0001317325 -0.0001037375 -3.41769e-05 0.1216926248 -0.0090173432
190298860.0 -0.7891072441 0.3112618052 0.0001074869 0.0001525798 -7.81706e-05 0.0001950937 0.1212806355 -0.0117270807
195298830.0 -0.7867573149 0.3191961904 4.26977e-05 6.08733e-05 2.97298e-05 -0.0001235175 0.1210995267 -0.0145778226
200298800.0 -0.7829165648 0.327869389 0.0002250484 2.45511e-05 8.91299e-05 7.59121e-05 0.1211178057 -0.0171378772
205298770.0 -0.7793865668 0.3361392587 -9.3805e-05 -0.0001167609 0.0001261035 4.63552e-05 0.1205630138 -0.0198435543
210298740.0 -0.7759539836 0.3449870336 -4.04966e-05 8.7761e-06 -1.07757e-05 7.58522e-05 0.1201428045 -0.0227464693
215298710.0 -0.772198768 0.3533495185 0.0001209195 0.0001047723 6.1593e-05 -5.37292e-05 0.1195978932 -0.025140169
220298680.0 -0.7685344516 0.3605080462 1.61304e-05 -2.9287e-06 -4.17663e-05 0.00017739 0.1190764721 -0.0274656628
225298650.0 -0.7650702847 0.3700055441 0.0002510159 -1.54875e-05 3.20651e-05 0.0001938231 0.1184950763 -0.0298985521
230298620.0 -0.7610810116 0.3777072343 5.40707e-05 0.0001890085 5.73315e-05 6.7973e-05 0.1181138263 -0.0326234072
235298590.0 -0.7575902106 0.3858156618 0.0001068253 -6.00009e-05 0.000141673 2.74706e-05 0.1173672165 -0.0346649035
240298560.0 -0.753280643 0.3933051726 -7.61939e-05 7.76269e-05 5.60873e-05 -2.04984e-05 0.1168640481 -0.0373630733
245298530.0 -0.7488110129 0.4017140265 0.0002006746 7.90323e-05 0.0001080816 -5.80557e-05 0.1158007314 -0.0392643617
250298500.0 -0.7445384323 0.4094550971 0.0002696528 0.0001960454 -1.01584e-05 0.0001931863 0.1150819786 -0.0412458364
255298470.0 -0.7406215399 0.4173226466 -6.05877e-05 8.06147e-05 4.62825e-05 2.1787e-05 0.1142921853 -0.0439124251
260298440.0 -0.7362899231 0.4246466433 0.000309967 -7.5335e-05 -0.0001260914 0.0001585246 0.1132589341 -0.045866042
265298410.0 -0.7319651905 0.4325953745 0.0001856681 7.7704e-06 0.0001497302 2.15928e-05 0.1130075709 -0.0480086202
270298380.0 -0.7273962771 0.4407586147 6.10429e-05 0.0001170357 -0.0001543351 0.000183837 0.1120406333 -0.0501001665
275298350.0 -0.7229839708 0.4479130478 0.0001459285 0.0001432645 0.000245189 -0.0001127099 0.1109900624 -0.0518683701
280298320.0 -0.7180132933 0.4557287787 2.27402e-05 0.0001552101 0.0002708026 4.96269e-05 0.1097952674 -0.0536095954
285298290.0 -0.7133805971 0.4632269988 4.79413e-05 7.94451e-05 2.91952e-05 -8.25589e-05 0.1086140204 -0.0555151482
290298260.0 -0.7086746687 0.4714720723 7.29941e-05 0.0001342655 0.000141191 4.44495e-05 0.1078089115 -0.0576061768
295298230.0 -0.7039435862 0.4781302463 0.0001754076 0.0001355985 6.2976e-05 -6.3959e-05 0.1070283051 -0.059427235
300298200.0 -0.699129676 0.4863310741 6.38769e-05 -0.0001763415 0.0002327361 0.0001557671 0.106060822 -0.0611968753
305298170.0 -0.6943627738 0.4925098168 -0.0002414468 -0.0001764154 0.0002323263 -6.05039e-05 0.1048346136 -0.0633095304
310298140.0 -0.6890004067 0.4997468172 0.0001343334 1.56995e-05 0.0001625524 0.000191748 0.1038749543 -0.0647876632
315298110.0 -0.6844138938 0.5077942784 6.0081e-05 -8.43065e-05 -3.39451e-05 -7.60556e-05 0.1031279727 -0.066706402
320298080.0 -0.6786883286 0.5144772044 0.00018056 2.0314e-06 -1.9286e-06 5.49618e-05 0.101567341 -0.0684487468
325298050.0 -0.6732449345 0.5205463159 0.0001859403 7.44331e-05 3.1726e-06 -1.13713e-05 0.100684548 -0.0706281081
330298020.0 -0.6682402359 0.5278419164 0.0001542004 0.0001133823 0.0001033597 -8.0603e-06 0.0988991996 -0.0722383204
335297990.0 -0.6629754238 0.5347494167 0.000226097 2.62259e-05 -4.42679e-05 0.0002213299 0.0977377976 -0.0740033027
340297960.0 -0.657551643 0.5413266178 -1.28859e-05 7.83406e-05 0.0001097638 0.0001174757 0.0961569614 -0.0753183486
345297930.0 -0.6521922009 0.5480291806 0.0002014709 7.3855e-06 -1.5911e-06 6.95753e-05 0.0945491659 -0.0766351233
350297900.0 -0.6460993063 0.5547466024 9.77036e-05 -0.0002316024 8.28992e-05 4.35161e-05 0.0930754982 -0.0782799762
355297870.0 -0.6404123186 0.5612108024 0.0002136254 0.0001048873 0.0002706879 -0.0001065284 0.0920624064 -0.0797235045
360297840.0 -0.6345237091 0.5680542485 4.7407e-05 5.10044e-05 0.0002197014 0.0001471391 0.0907533614 -0.0810397341
365297810.0 -0.6290546851 0.5744606388 7.93295e-05 -0.0001343157 3.65249e-05 1.18707e-05 0.0890392672 -0.0822884452
370297780.0 -0.6228327242 0.5806410741 0.0002341457 0.0001341033 8.58657e-05 5.0003e-06 0.0874594084 -0.0834489236
375297750.0 -0.6175683395 0.5870192287 0.0001395903 -4.1126e-05 0.0001508935 4.88946e-05 0.0857208243 -0.0849505324
380297720.0 -0.6119464017 0.5932171182 0.0001225675 1.3777e-05 -6.29821e-05 5.24142e-05 0.0848175993 -0.0859035237
385297690.0 -0.6055429331 0.5993774823 0.0001614607 0.0001668351 0.0002703029 2.11889e-05 0.0832199811 -0.0871757202
390297660.0 -0.5981845677 0.6051569223 -5.11551e-05 -4.29665e-05 8.44472e-05 0.0001205762 0.0817344025 -0.0884462625
395297630.0 -0.5924787753 0.6124559887 6.21532e-05 -5.52483e-05 0.0001535463 -0.0001971559 0.0802570149 -0.0895680992
400297600.0 -0.5866539839 0.6183006046 9.35056e-05 0.0001095692 0.0002201161 -0.0001246659 0.0790429762 -0.0905109955
405297570.0 -0.5806189107 0.623480877 1.45135e-05 -0.0001266431 0.0001889124 5.72376e-05 0.0776705765 -0.091953797
410297540.0 -0.5734606166 0.62926461 -1.47968e-05 -0.0001099323 2.59748e-05 0.0001107105 0.0757283863 -0.0926517684
415297510.0 -0.5672989104 0.6356338025 0.0002993866 -0.0001851049 4.5116e-05 0.0002191132 0.0746375473 -0.0937829562
420297480.0 -0.5605785545 0.6409842305 8.11848e-05 6.4475e-06 -1.38873e-05 6.36332e-05 0.0733647294 -0.0945933114
425297450.0 -0.5541843982 0.6470356837 0.000420653 0.0001910842 -4.4768e-06 0.0001277881 0.071402229 -0.096040223
430297420.0 -0.548159838 0.6520029096 0.0001615381 -8.75365e-05 0.0002814218 -2.69323e-05 0.0700162017 -0.0968004759
435297390.0 -0.5405008413 0.6575612593 0.0002100324 2.54564e-05 0.0003589398 0.0001008154 0.0683738888 -0.0978785651
440297360.0 -0.5337885527 0.6632306688 -4.62006e-05 0.0001601676 4.1014e-05 -0.0001516958 0.0670497907 -0.098667088
445297330.0 -0.5266054963 0.6676865136 5.2137e-06 -6.62736e-05 0.0001603937 -3.8567e-06 0.0656482867 -0.0994000357
450297300.0 -0.5199551601 0.673580761 -0.0001351175 0.0001771433 0.000122542 1.63874e-05 0.0640065326 -0.1007263517
455297270.0 -0.5130690756 0.6784602191 5.69209e-05 -6.09736e-05 0.000256794 0.0002017581 0.0625620023 -0.101167274
460297240.0 -0.5053999694 0.683895167 -0.0001024565 -4.1225e-06 -8.77222e-05 -0.0001842159 0.0606579004 -0.1020310358
465297210.0 -0.4990683386 0.6891345619 6.55333e-05 0.0001334106 8.34028e-05 3.0325e-06 0.0596245864 -0.1029469243
470297180.0 -0.4917152009 0.6941426018 -5.5257e-05 -4.93632e-05 0.0001709876 -2.8153e-05 0.0578168911 -0.1038416992
475297150.0 -0.4849165734 0.6987285056 6.98268e-05 -0.0001162997 9.08217e-05 -1.01769e-05 0.05642207 -0.1042867277
480297120.0 -0.4765189243 0.7040432452 0.0001796482 -0.000159218 0.000106112 8.818e-06 0.0545035937 -0.1050038207
485297090.0 -0.4700455375 0.7084145563 -7.57079e-05 0.0002456431 0.0001774209 4.88915e-05 0.0528334266 -0.1056499285
490297060.0 -0.4614862998 0.713888668 -0.0001837295 1.4581e-05 3.70819e-05 -0.0001211132 0.0513973537 -0.1065878587
495297030.0 -0.4546034679 0.7181382151 0.0003180841 0.0002250728 -2.22932e-05 0.0001821283 0.0499296106 -0.1072418996
500297000.0 -0.4470407846 0.7222396672 0.0002630193 -3.9063e-06 -2.11654e-05 -7.50842e-05 0.048198036 -0.1076698304
505296970.0 -0.4393058673 0.727041938 0.0002446775 0.0002129825 0.0002243401 -8.71792e-05 0.046290689 -0.1083206012
510296940.0 -0.4325344696 0.7315012021 0.0001123982 6.87387e-05 3.63463e-05 0.0001294011 0.0452468383 -0.1088931536
515296910.0 -0.4240913547 0.735706518 0.0002245701 0.0002056664 0.0001301062 4.33852e-05 0.04308217 -0.1095286662
520296880.0 -0.4163275963 0.7397437408 3.66832e-05 0.0002271153 9.29889e-05 4.72642e-05 0.0419137814 -0.1100880919
525296850.0 -0.4084915212 0.743918594 0.0002482446 5.91894e-05 -8.27275e-05 1.6873e-06 0.0401894581 -0.110464889
530296820.0 -0.4014441471 0.7479860253 0.0001370557 2.16703e-05 0.0002360606 -0.0001210552 0.0385215427 -0.1112806559
535296790.0 -0.3923066952 0.7518959613 -9.56098e-05 -6.51982e-05 0.0002067517 9.575e-06 0.0371337115 -0.1113259268
540296760.0 -0.3847817189 0.7559800428 0.0001551386 -8.58983e-05 0.0001340565 -7.7056e-05 0.0350118305 -0.1117924164
545296730.0 -0.3776928835 0.7607808199 0.0001341401 0.0001004538 1.62912e-05 -2.60913e-05 0.0334842261 -0.1123083641
550296700.0 -0.3689090894 0.7635981273 2.89556e-05 -0.0001458887 0.0001950023 8.13446e-05 0.0319901927 -0.112684852
555296670.0 -0.3609871818 0.7675710895 0.0001061056 0.0002078607 0.0003081238 -8.3747e-06 0.0298753998 -0.1131422479
560296640.0 -0.3531600792 0.7705306816 -7.55057e-05 9.45761e-05 -0.0002150531 2.10679e-05 0.0282632658 -0.1133329374
565296610.0 -0.3453769922 0.7743659697 1.10805e-05 1.59089e-05 9.85321e-05 0.0001348855 0.0268211904 -0.1134024882
570296580.0 -0.3369141063 0.7776162578 -7.69397e-05 -8.15597e-05 8.76501e-05 -7.65129e-05 0.0249740102 -0.1139945928
575296550.0 -0.3283880879 0.7811726185 -6.24071e-05 9.62646e-05 6.4437e-05 -0.0002938302 0.0233781356 -0.1143318196
580296520.0 -0.320581428 0.7843884243 -5.0357e-05 6.3098e-06 3.29931e-05 5.48286e-05 0.0216952698 -0.1140679581
585296490.0 -0.3123878669 0.7875838943 8.10246e-05 0.0002387929 -3.29478e-05 -8.93873e-05 0.0201000692 -0.1143179565
590296460.0 -0.3037144462 0.7907360369 0.0002580572 -7.27294e-05 6.66222e-05 -7.6106e-06 0.0181245912 -0.1148085114
595296430.0 -0.2961665844 0.7936937359 0.0001548942 -0.0002179164 0.0002140751 -3.3604e-06 0.0165890884 -0.1150261838
600296400.0 -0.2882329884 0.7964879641 -0.0001163431 3.22565e-05 4.39681e-05 6.4839e-06 0.0152202056 -0.114789956
605296370.0 -0.2797326689 0.7991621383 7.49265e-05 0.0001137602 7.94511e-05 8.59453e-05 0.0134235404 -0.1152540782
610296340.0 -0.2711875177 0.8031770061 -0.0001371976 -0.00019599 -3.96695e-05 -0.0001433026 0.0115960364 -0.1151370542
615296310.0 -0.2626495474 0.805865975 0.0002972567 6.81186e-05 -4.77117e-05 -0.0002213792 0.0100036079 -0.1153504249
620296280.0 -0.2551049319 0.8082014657 0.0001470337 -5.43728e-05 0.0003347988 3.77911e-05 0.0081007665 -0.1151908508
625296250.0 -0.2477285548 0.8103706379 -9.38514e-05 -0.0001891469 0.0001411071 0.0001539511 0.0064391226 -0.1154723033
630296220.0 -0.238398548 0.8134959756 0.0001796565 -0.0001318232 0.0003128453 2.4898e-05 0.0050786244 -0.1152932031
635296190.0 -0.2302666989 0.8158103527 -1.0418e-05 -9.01459e-05 6.49528e-05 0.0001000068 0.0030838356 -0.1151129707
640296160.0 -0.2216263869 0.8174871523 6.31438e-05 -1.21159e-05 0.0002260332 2.06583e-05 0.0014609568 -0.1152293573
645296130.0 -0.2138207049 0.8206446125 0.0001038837 -0.0002130786 0.0001418689 4.66468e-05 -0.0004235931 -0.1152922813
650296100.0 -0.2056000559 0.8219533413 0.000114013 -0.0003369516 4.09996e-05 -0.0001491164 -0.0018208912 -0.1148632766
655296070.0 -0.1975508169 0.8241550005 -0.0001462098 -0.0001202601 7.72694e-05 -0.0001044677 -0.0037501204 -0.1147211538
660296040.0 -0.1894768924 0.8259145256 0.0002566135 0.0001626924 0.0001917201 -6.96416e-05 -0.0051611117 -0.1148529422
665296010.0 -0.1806453451 0.8282208505 0.0001220639 -0.000212243 6.69387e-05 -4.8093e-06 -0.0064447708 -0.1147366683
670295980.0 -0.1725577228 0.8301999469 8.44031e-05 -0.0001352562 0.0002763163 4.5856e-06 -0.008640144 -0.1144528459
675295950.0 -0.1639698164 0.8317831383 0.0001682789 -0.0001390704 0.0001797598 2.47828e-05 -0.0103167764 -0.1142546956
680295920.0 -0.1567881369 0.8334476557 0.0001413726 -1.20025e-05 -1.6713e-06 0.0001564213 -0.0121925638 -0.114028728
685295890.0 -0.1479912342 0.8355903606 0.0001750889 -0.0001273167 -9.86045e-05 -6.4656e-05 -0.0134484114 -0.1135072603
690295860.0 -0.1394287739 0.8369201432 0.00029033 8.40571e-05 2.47906e-05 -1.51238e-05 -0.0151997384 -0.113548752
695295830.0 -0.1306950398 0.8388149562 0.0002148191 -0.0001517709 2.91233e-05 -0.0002163598 -0.0168118911 -0.1127179541
700295800.0 -0.1224960486 0.8395566421 -0.0001108418 6.35041e-05 0.0003619663 4.1934e-06 -0.0180307886 -0.1125899007
705295770.0 -0.1148933145 0.8409887739 0.0003228853 4.2372e-06 0.0003153541 0.0002133108 -0.0201907721 -0.1122650091
710295740.0 -0.1066041498 0.8420564788 0.0002598573 0.0001500894 0.0001218602 -0.000100753 -0.0217011728 -0.1122605295
715295710.0 -0.0974378203 0.8436722028 0.0002487374 0.0001320457 4.50934e-05 9.34876e-05 -0.0231138588 -0.111674879
720295680.0 -0.088976319 0.8444993705 8.12116e-05 -8.75813e-05 5.04002e-05 -0.000175998 -0.0248027808 -0.1111919765
725295650.0 -0.0814471192 0.8458276434 8.96486e-05 7.05236e-05 0.0002398298 -0.0001143182 -0.0265402599 -0.1104473428
730295620.0 -0.0738039044 0.8470840664 6.56145e-05 -0.0001185651 0.0001411343 -6.752e-07 -0.0281303691 -0.1098842418
735295590.0 -0.0655700899 0.8476456419 5.89631e-05 -0.0002173704 -3.80526e-05 -0.0001277341 -0.0297976267 -0.1096211643
740295560.0 -0.0578264001 0.8476092485 0.0003042077 3.60694e-05 0.0001436825 4.05367e-05 -0.0311981638 -0.1093741342
745295530.0 -0.048641901 0.8484251321 0.0003511154 -8.05305e-05 1.9228e-06 8.6207e-06 -0.033075681 -0.1083754076
750295500.0 -0.0403818751 0.8494383291 0.0001046261 8.0385e-06 4.83086e-05 -0.0001023848 -0.0344946488 -0.1082902722
755295470.0 -0.031940936 0.8491344183 0.0002422497 -1.26869e-05 0.0002250443 -6.70571e-05 -0.0362533522 -0.1073035954
760295440.0 -0.0242007786 0.8507292555 0.0001407672 -0.000111144 0.0001126391 6.58319e-05 -0.0373676579 -0.1071290606
765295410.0 -0.0160483725 0.84996951 0.0003360191 -0.000124368 0.0001452716 8.94475e-05 -0.0391457568 -0.1065586713
770295380.0 -0.0085219729 0.8512220877 0.0002507158 -0.0001905376 6.15596e-05 -5.89106e-05 -0.0409537255 -0.1058016211
775295350.0 0.0003910496 0.8507604688 0.000217442 9.11235e-05 0.0001709405 -0.0001163615 -0.0421296938 -0.1050945176
780295320.0 0.009341018 0.8515614015 0.0001121182 4.35844e-05 0.0002539323 -0.0001827229 -0.0437607991 -0.1043621984
785295290.0 0.0171475375 0.8506446559 1.24239e-05 0.0002745058 0.000244777 -0.0002356902 -0.0455133424 -0.1033055098
790295260.0 0.0248650902 0.8507033883 0.0002072933 6.37546e-05 0.0002331201 -0.0001109915 -0.0466447948 -0.1026618258
795295230.0 0.0334054362 0.8503959103 9.74635e-05 0.0001648912 9.58679e-05 3.9479e-06 -0.0484849593 -0.1024258537
800295200.0 0.0413524786 0.8508064381 6.87283e-05 -0.0001661985 0.0001856705 -3.7762e-06 -0.0500564605 -0.1015513511
805295170.0 0.0493975362 0.8506434489 0.0002344566 -0.0003793143 0.0001693002 -0.0001539875 -0.0513690228 -0.1009363326
810295140.0 0.0580658894 0.8504660397 0.0001993622 -6.61822e-05 0.0002309422 -0.0001361193 -0.0530083865 -0.0999680123
815295110.0 0.0652520658 0.8494737892 3.07882e-05 -1.99747e-05 0.0002725853 -6.36887e-05 -0.0544899787 -0.0992143173
820295080.0 0.0739076826 0.8490299002 0.0003012642 5.60381e-05 2.05294e-05 -7.79132e-05 -0.0561941535 -0.0979424151
825295050.0 0.0825275868 0.8482625694 0.0001410397 6.06305e-05 5.83513e-05 -0.000156074 -0.056954352 -0.0970991187
830295020.0 0.09047382 0.8471934608 0.0001151611 8.28952e-05 7.67116e-05 -0.000217152 -0.0587197474 -0.0964690615
835294990.0 0.0979487766 0.8461066596 0.0001111853 -0.0002038502 0.0001627627 -9.91091e-05 -0.0600647916 -0.0953543815
840294960.0 0.10719634 0.845037017 9.54955e-05 0.000190854 0.0001503866 -1.4276e-05 -0.0616114157 -0.0944970922
845294930.0 0.115127437 0.8443035003 8.99426e-05 0.0001828748 1.3552e-05 -2.78562e-05 -0.0631059396 -0.093313349
850294900.0 0.1242050216 0.8433353907 0.0001874311 0.0001751116 0.0001107812 0.0001145819 -0.0641897264 -0.0923765766
