!Created with skrf (http://scikit-rf.org).
# Hz S RI R 50.0 
!freq ReS11 ImS11 ReS21 ImS21 ReS12 ImS12 ReS22 ImS22
300000.0 -0.3168750815 -0.1339287037 0.3716428155 0.0665092595 0.3714598123 0.0681796455 -0.3124377175 -0.1331596295
5299970.0 -0.3246941755 0.0025682862 0.3783539065 0.0035374787 0.3790535936 0.003403306 -0.3256245737 0.0017188516
10299940.0 -0.3226895165 0.014046233 0.3801684435 0.0031840005 0.3798911584 0.0030374161 -0.3229390378 0.0122943342
15299910.0 -0.3189788348 0.0224780836 0.3818340612 0.0026745587 0.3824035119 0.0025546887 -0.3205993601 0.01955976
20299880.0 -0.3155241989 0.0291184191 0.3848568812 0.0016074693 0.3853080796 0.0019791724 -0.3177343458 0.0261817511
25299850.0 -0.3114573531 0.034732973 0.3881728885 0.0007525234 0.3885635778 0.0003571781 -0.3147730663 0.0312099519
30299820.0 -0.3082512337 0.0395061306 0.3920552242 -0.0019717747 0.3922066369 -0.0021993849 -0.3118569253 0.0357164723
35299790.0 -0.3045441748 0.0436732115 0.3947952424 -0.004968495 0.3952326578 -0.0053352699 -0.3088757477 0.0401591007
40299760.0 -0.3010920175 0.0469660136 0.3984118296 -0.0085486084 0.3985618672 -0.0088986193 -0.306189688 0.0432135836
45299730.0 -0.2980166925 0.0501840521 0.4010523421 -0.012653198 0.4013938294 -0.0127976072 -0.3032992075 0.0465646657
50299700.0 -0.2946953841 0.0529452873 0.403554806 -0.0174009342 0.4038532847 -0.0172506112 -0.300953443 0.0497844007
55299670.0 -0.2923587837 0.0554231238 0.406090144 -0.0216645772 0.4060188722 -0.0218096792 -0.2993887967 0.0521975866
60299640.0 -0.289823159 0.0579426023 0.4078970023 -0.0268717921 0.4078147322 -0.0268846365 -0.2969870304 0.0549073083
65299610.0 -0.2872629759 0.0603002849 0.4095517632 -0.0316111517 0.4098313862 -0.0318092715 -0.2951670933 0.0576355785
70299580.0 -0.2853997494 0.0620127186 0.4107086371 -0.0365040097 0.4108838469 -0.0370028943 -0.2933101424 0.0597276386
75299550.0 -0.2831817212 0.064250369 0.4115631174 -0.0421970546 0.4120619928 -0.0421187206 -0.2915845308 0.0627826506
80299520.0 -0.2815759845 0.0664791643 0.4129027359 -0.0472957482 0.4128340127 -0.0474871089 -0.2903842143 0.0651240169
85299490.0 -0.2799373794 0.0685017485 0.4133440353 -0.0523584765 0.413653549 -0.0524215262 -0.2887400194 0.0670861807
90299460.0 -0.278109164 0.0706623497 0.4130877036 -0.058024363 0.4135338936 -0.0576079358 -0.2874004719 0.0695150882
95299430.0 -0.2766149888 0.0726933744 0.4139134889 -0.0629358615 0.4140102369 -0.0633843951 -0.2862869129 0.0717847259
100299400.0 -0.2754123946 0.0747108847 0.4141223667 -0.0678066613 0.4141621408 -0.068453111 -0.2852937245 0.0746821045
105299370.0 -0.2739334694 0.0768856824 0.4139161249 -0.0728180613 0.4142993109 -0.0733718173 -0.2834852694 0.0762780988
110299340.0 -0.2727054989 0.0787893956 0.4137060889 -0.0783965715 0.4139294182 -0.078330742 -0.2828511394 0.0786411857
115299310.0 -0.2716074777 0.0809115912 0.413428046 -0.083537574 0.4137380635 -0.0838413639 -0.2817415276 0.0813396607
120299280.0 -0.2704254014 0.0831478733 0.4128667192 -0.088891696 0.4131757058 -0.0892439013 -0.2809245857 0.0831288951
125299250.0 -0.2689979313 0.0849960123 0.412440942 -0.0939078252 0.4128046748 -0.0940908896 -0.2799965172 0.0862478685
130299220.0 -0.2682484656 0.0873445211 0.4118995505 -0.0991462982 0.4116850131 -0.0995248055 -0.2789452637 0.0882122001
135299190.0 -0.2672705583 0.0899671626 0.4113076957 -0.1036727231 0.4112607775 -0.1043726429 -0.2778173888 0.0906473631
140299160.0 -0.2660900396 0.0921508561 0.4104747684 -0.1088426217 0.4105974806 -0.1090506767 -0.2775114863 0.0930138997
145299130.0 -0.2654529322 0.0947031944 0.409432521 -0.1136999394 0.4094985945 -0.1141864857 -0.2764193132 0.0955924921
150299100.0 -0.2641252743 0.0972351783 0.4085073512 -0.1192110808 0.4084488812 -0.1189006133 -0.2752972504 0.0983871525
155299070.0 -0.263386677 0.099449673 0.4070530324 -0.1239466457 0.4075058311 -0.123973983 -0.2744726301 0.1013897348
160299040.0 -0.2622637423 0.1022198995 0.406270439 -0.1283970867 0.4060165256 -0.1290671816 -0.2735601613 0.1037277479
165299010.0 -0.2610733597 0.1044315517 0.4047569174 -0.1334741644 0.4049915079 -0.133604806 -0.2724552911 0.1060038449
170298980.0 -0.2601607301 0.1067474112 0.4029945719 -0.138366909 0.4036175226 -0.1384466702 -0.2718663875 0.1085046484
175298950.0 -0.2592526344 0.1094599314 0.4023162789 -0.1430480585 0.402263967 -0.1431048917 -0.2708158351 0.1117109669
180298920.0 -0.2582626523 0.1118026387 0.4005000957 -0.1480447187 0.4005995639 -0.1482483211 -0.2695879911 0.1140599487
185298890.0 -0.2570452172 0.114337317 0.3994278172 -0.1525858767 0.3990087393 -0.1528971588 -0.2684648718 0.1166644391
190298860.0 -0.2560034797 0.1174471771 0.3971910782 -0.1574282814 0.3977854931 -0.1573655135 -0.2675985025 0.1194684922
195298830.0 -0.2549375422 0.1197442533 0.3963880138 -0.1619112133 0.3961600537 -0.1620326982 -0.2665528426 0.1222852644
200298800.0 -0.2535253947 0.12195528 0.3944105999 -0.1668276571 0.3943894126 -0.1667451641 -0.2652134639 0.124518333
205298770.0 -0.2526399313 0.1245729489 0.3921464203 -0.170760143 0.392505133 -0.1709071566 -0.2644186837 0.1276488244
210298740.0 -0.2515025247 0.1272685743 0.3905675427 -0.175670924 0.3905217522 -0.1757614544 -0.2634728383 0.129873688
215298710.0 -0.2502307546 0.1299306252 0.3880987553 -0.1797862205 0.3886838421 -0.1803021736 -0.2619149316 0.1327465771
220298680.0 -0.2488970322 0.1323870155 0.3863617677 -0.1847077264 0.3866777145 -0.1847536983 -0.2608889222 0.1357666374
225298650.0 -0.2477961385 0.1353717614 0.384204792 -0.1890286222 0.3845810571 -0.1885593471 -0.2597600267 0.1381178311
230298620.0 -0.2466122081 0.1380523909 0.3824601943 -0.1934083164 0.3829149604 -0.1937002595 -0.2585800819 0.1407628045
235298590.0 -0.2456572382 0.1406983661 0.3805321192 -0.198159536 0.3805087083 -0.1979860331 -0.2570308809 0.1433071393
240298560.0 -0.2439843483 0.1430649672 0.378185824 -0.2017906229 0.3781318114 -0.2021272856 -0.2560507237 0.1461685654
245298530.0 -0.2427659353 0.1455839201 0.376028857 -0.2064801839 0.3762915457 -0.2064858929 -0.2544370095 0.1485954681
250298500.0 -0.2416228267 0.1482816226 0.3738107012 -0.2106604712 0.3741291943 -0.2105313384 -0.2533184769 0.1517259582
255298470.0 -0.2398728518 0.1512333953 0.3715837448 -0.2146141384 0.3719217931 -0.2150516743 -0.2517669779 0.1544435245
260298440.0 -0.2386104929 0.153598374 0.3693499956 -0.2187908586 0.3693427864 -0.2189681764 -0.250264503 0.1568258902
265298410.0 -0.2373903092 0.1562094271 0.3668119289 -0.2235146511 0.3667106314 -0.2236904344 -0.248564849 0.1594257295
270298380.0 -0.2359582348 0.1587907264 0.3640397163 -0.2275425377 0.3645823111 -0.2275212788 -0.2471063582 0.1623054352
275298350.0 -0.2345000773 0.1614935394 0.3614728356 -0.2312889312 0.3617731474 -0.2315685483 -0.245395855 0.1651681748
280298320.0 -0.233201308 0.1640086655 0.3594518883 -0.2354198928 0.3597811634 -0.2354961514 -0.2442518921 0.1675680784
285298290.0 -0.2313810009 0.1667077034 0.3566127239 -0.2396015715 0.3568648914 -0.2396106365 -0.2424427775 0.1706210183
290298260.0 -0.2300632123 0.1693547533 0.3545391307 -0.2435855234 0.3542932774 -0.2438808042 -0.240899264 0.1728659632
295298230.0 -0.228136897 0.1715536755 0.3514104108 -0.2477009472 0.3514962661 -0.2480889039 -0.2389716443 0.1754508996
300298200.0 -0.2268417027 0.174405934 0.3487971072 -0.251506558 0.3489570447 -0.2515354124 -0.2374100903 0.1779122076
305298170.0 -0.2249835889 0.1764369863 0.3458561213 -0.2558044772 0.346293721 -0.2555594292 -0.2356912787 0.1805147784
310298140.0 -0.2229838062 0.1787459431 0.3430442562 -0.2593666354 0.3435978261 -0.2591873407 -0.2339213208 0.1831420138
315298110.0 -0.2216210378 0.1812916932 0.3406277736 -0.2639288754 0.3408229606 -0.2635180193 -0.2320441455 0.1858935184
320298080.0 -0.2199627029 0.1837310053 0.3372122002 -0.2670693411 0.337970545 -0.2674691406 -0.2305842118 0.1881972127
325298050.0 -0.2185458593 0.1857291993 0.3345234462 -0.270750181 0.3348182595 -0.2714574317 -0.2281460424 0.1909023591
330298020.0 -0.2171175417 0.1885310314 0.3311772214 -0.2752444633 0.3316626411 -0.2751209316 -0.2270397891 0.1929224846
335297990.0 -0.2152024418 0.1909786873 0.3281852731 -0.2785711375 0.3284987609 -0.2787142099 -0.2247459683 0.1956015389
340297960.0 -0.2137420453 0.1932612 0.3248087508 -0.2824507526 0.3250799479 -0.2821519581 -0.2227590388 0.198161445
345297930.0 -0.2118910764 0.1956425737 0.3219115777 -0.2859871869 0.3217252049 -0.2860649718 -0.2207048284 0.2004026708
350297900.0 -0.2101019251 0.1978887245 0.3189369865 -0.289108219 0.3189213596 -0.2890913601 -0.219252671 0.202458365
355297870.0 -0.2081667624 0.2001594428 0.3155260385 -0.2924334394 0.3155462478 -0.2924994274 -0.2170618318 0.2054426653
360297840.0 -0.2062153206 0.2028003445 0.3117649002 -0.2960185415 0.3121437582 -0.2965662433 -0.2149381151 0.2080027457
365297810.0 -0.204567833 0.2051375273 0.3088716909 -0.2996104032 0.3092242346 -0.2996033734 -0.2134559322 0.2104681023
370297780.0 -0.2025438428 0.207068616 0.3049830035 -0.3028390106 0.3056719506 -0.3032839293 -0.2108884143 0.2129863973
375297750.0 -0.2004700781 0.2096637123 0.3022669249 -0.3063089311 0.3022930577 -0.3064808504 -0.208656981 0.2153940621
380297720.0 -0.198936529 0.2120843947 0.2993489936 -0.3099857813 0.2989440485 -0.3101447407 -0.2066164545 0.2179746475
385297690.0 -0.1965551263 0.2140492012 0.2954416484 -0.3128291898 0.2955747666 -0.3132250309 -0.2041613585 0.2200043431
390297660.0 -0.1940745908 0.2161025508 0.2917261504 -0.3160744525 0.2920346933 -0.3162624759 -0.2018269363 0.2224147448
395297630.0 -0.1918917427 0.218438752 0.288352501 -0.3189459227 0.2884371208 -0.3189017021 -0.1997977777 0.2243589033
400297600.0 -0.1900420783 0.2207313782 0.2848327642 -0.3223739538 0.2852907313 -0.3225829694 -0.1975620585 0.2268062656
405297570.0 -0.1878517239 0.2225861055 0.2812946537 -0.3254784148 0.2813638436 -0.3256410341 -0.1948229435 0.2290325683
410297540.0 -0.1854055753 0.2248262115 0.277582687 -0.3286486922 0.2780011339 -0.3287782451 -0.1927981474 0.2316604427
415297510.0 -0.1834718331 0.2267868501 0.2740404376 -0.3317431815 0.2746222374 -0.3316817251 -0.1902910785 0.233528738
420297480.0 -0.1811571877 0.2285036685 0.2703562509 -0.3345608514 0.2705045484 -0.3348194596 -0.1876586431 0.2361244762
425297450.0 -0.1785650167 0.2306927243 0.2667507612 -0.3371865313 0.2666553201 -0.3376286873 -0.1854029115 0.2376401848
430297420.0 -0.1763477169 0.2327532427 0.2630676599 -0.3408213306 0.2632530036 -0.3401284858 -0.1826970668 0.2401332332
435297390.0 -0.1739745602 0.2348186221 0.2593546926 -0.3436910167 0.2595667564 -0.3434280146 -0.180852977 0.2425004786
440297360.0 -0.17148462 0.2364587129 0.2552188819 -0.34641667 0.2555415292 -0.3463264462 -0.1781798299 0.2442843752
445297330.0 -0.1692106399 0.238344536 0.251643878 -0.348722898 0.2517777189 -0.3490142701 -0.1753373099 0.2464392523
450297300.0 -0.1666825882 0.2405857177 0.2478197836 -0.3514652705 0.24815174 -0.3517180742 -0.1725443184 0.2483240891
455297270.0 -0.1644220936 0.2423333995 0.2441271108 -0.354526356 0.2442425783 -0.354303269 -0.1701386165 0.2503638392
460297240.0 -0.1614216269 0.2443634011 0.2399162216 -0.3574072066 0.240146447 -0.3571450707 -0.1675806001 0.2521866883
465297210.0 -0.1591624138 0.245775057 0.235945477 -0.3596703848 0.2358909664 -0.3601253113 -0.1645745465 0.2548722091
470297180.0 -0.1564709682 0.2474803373 0.2319943096 -0.3617378881 0.2321697068 -0.3626133127 -0.1619176408 0.2560641454
475297150.0 -0.1540594844 0.2495721709 0.2283780264 -0.3645146012 0.2282632154 -0.3648060534 -0.1593413194 0.2579938639
480297120.0 -0.1508019634 0.2513416485 0.2240969612 -0.3670762864 0.2241605069 -0.3672875458 -0.1569728676 0.2599957857
485297090.0 -0.14825711 0.2526457539 0.2198809763 -0.3691366158 0.2197699074 -0.3697151816 -0.1543727693 0.2619944309
490297060.0 -0.145217254 0.2546367348 0.2156488791 -0.3720346247 0.2159855209 -0.3720685641 -0.151002554 0.2633399431
495297030.0 -0.1432365798 0.2557931896 0.2121364191 -0.3740724134 0.2119066619 -0.3744419929 -0.1484967097 0.2652261097
500297000.0 -0.1404213381 0.2580664631 0.2077290105 -0.3766722969 0.2078144716 -0.3766432934 -0.1456626758 0.2668135117
505296970.0 -0.1373267622 0.2594519416 0.2035098064 -0.3787221658 0.203548225 -0.3784998791 -0.1427712721 0.2683853261
510296940.0 -0.1346101595 0.2610488537 0.1992138896 -0.3814326746 0.199390909 -0.3814003886 -0.1395883167 0.2704663577
515296910.0 -0.1315965989 0.262802278 0.1947760164 -0.3830879918 0.1949187486 -0.3824441039 -0.1373549013 0.271304537
520296880.0 -0.1289615177 0.2643690963 0.1910121584 -0.384881066 0.1906497191 -0.3850371667 -0.1337439165 0.2735108749
525296850.0 -0.1262193382 0.2654234437 0.1867051064 -0.3868297033 0.186249286 -0.3868554587 -0.131120834 0.2751369795
530296820.0 -0.1234196151 0.2670014956 0.1822977135 -0.3889805746 0.1825470589 -0.388948989 -0.1284175236 0.2762520271
535296790.0 -0.1200006841 0.2683988527 0.1782121497 -0.3909351945 0.1782236997 -0.3912469662 -0.1253525299 0.2780119215
540296760.0 -0.117049152 0.2702054261 0.1738426493 -0.3928229557 0.1736341083 -0.392688569 -0.1226789285 0.2791618571
545296730.0 -0.1144353229 0.2716089612 0.1695406875 -0.3944336721 0.1693159036 -0.3943542868 -0.1195368317 0.2806300739
550296700.0 -0.1110515135 0.2727687837 0.1651762766 -0.3964765268 0.1648245103 -0.3966732497 -0.1164488181 0.2822334342
555296670.0 -0.1084903969 0.2743328262 0.1607096781 -0.3984177396 0.1607351486 -0.3982351617 -0.1135600573 0.2830930621
560296640.0 -0.1050466386 0.275615595 0.1561170348 -0.3999348522 0.1565752486 -0.4000190858 -0.1106411384 0.285072766
565296610.0 -0.1027275097 0.2768558369 0.1524009422 -0.4014527117 0.1519005577 -0.4013227059 -0.1073227416 0.2862126488
570296580.0 -0.0996417873 0.278257646 0.1474146331 -0.4032044826 0.1474360077 -0.4033153808 -0.1044759918 0.2873627534
575296550.0 -0.0959283707 0.279291852 0.1436057809 -0.404848559 0.1431203076 -0.4048868147 -0.1017249689 0.2884666597
580296520.0 -0.0933303665 0.2807486569 0.1390263811 -0.4062280915 0.138548266 -0.4062667813 -0.0983534408 0.2897574339
585296490.0 -0.0902764131 0.281729126 0.1348465976 -0.4074512316 0.1341468837 -0.4076572488 -0.0953215069 0.2912372961
590296460.0 -0.0865088572 0.2830285047 0.1300009976 -0.4090900393 0.1299794532 -0.4093015908 -0.0925832681 0.291934338
595296430.0 -0.0841112035 0.284014012 0.1253646129 -0.4104227625 0.1249274493 -0.4105053139 -0.0890982275 0.2931966114
600296400.0 -0.0807130243 0.2851730966 0.1205037194 -0.4114309006 0.1205795022 -0.4116273974 -0.0859776544 0.2941020675
605296370.0 -0.0777759548 0.2863119043 0.1167004174 -0.4132085249 0.1161829214 -0.4131736455 -0.0826829582 0.2954110226
610296340.0 -0.0744680721 0.2876044842 0.1120826943 -0.4138909051 0.1118452029 -0.4142091003 -0.0800297753 0.2966979072
615296310.0 -0.0710911104 0.288444011 0.1074392019 -0.4154376887 0.1070485416 -0.4156689706 -0.0764841296 0.2974009456
620296280.0 -0.0685893254 0.2899285146 0.1029118853 -0.4163671132 0.1025936807 -0.4163980547 -0.0735853043 0.298766131
625296250.0 -0.0655979259 0.2901550912 0.0983289807 -0.417547447 0.0980582274 -0.4177425351 -0.0705174933 0.2992177716
630296220.0 -0.0620333577 0.2915753722 0.0934941525 -0.4185270655 0.0933861592 -0.4185229485 -0.0672622339 0.3002728269
635296190.0 -0.0591630197 0.2923868109 0.0893830231 -0.4190580025 0.0888095817 -0.4191493024 -0.0644070019 0.3008153837
640296160.0 -0.0560386738 0.2932070815 0.0846808298 -0.4204785367 0.0842745908 -0.4204307947 -0.0611302727 0.3019043783
645296130.0 -0.0525521783 0.2945036833 0.0799973306 -0.4207425556 0.0799323818 -0.4209850446 -0.0581050594 0.3019896002
650296100.0 -0.049456785 0.2946381482 0.0755243642 -0.4219739261 0.074970484 -0.4222432514 -0.0541864795 0.3030678469
655296070.0 -0.0467387305 0.2956749077 0.0706109501 -0.4227076369 0.0707511864 -0.4226059002 -0.0517507965 0.3041372163
660296040.0 -0.0433855058 0.2964061562 0.066339944 -0.4233016982 0.066034564 -0.4236448169 -0.0480841659 0.3043987198
665296010.0 -0.040186694 0.2974622621 0.0611948074 -0.4237680098 0.0614394482 -0.4237366306 -0.045211937 0.3050189843
670295980.0 -0.0371709474 0.2979227069 0.0569039315 -0.4244710693 0.0569852445 -0.4241745109 -0.0423259197 0.3055112211
675295950.0 -0.0340092866 0.2986801113 0.0524150615 -0.4249308605 0.0521326202 -0.4254004117 -0.0388133258 0.3064733097
680295920.0 -0.0312527358 0.2995351993 0.0478879554 -0.4257230932 0.0478959426 -0.425547877 -0.0353203064 0.3067996415
685295890.0 -0.0279251765 0.2996589805 0.0433020275 -0.4262641364 0.0431916834 -0.4265580721 -0.0324405731 0.3075284115
690295860.0 -0.0246820297 0.3007321733 0.0386089284 -0.4268635108 0.038258762 -0.4265126471 -0.0289929587 0.3079473035
695295830.0 -0.0212947015 0.3010591034 0.0338177512 -0.4267068862 0.0334930245 -0.4268734626 -0.0257349056 0.3086045432
700295800.0 -0.0183141068 0.3016646889 0.0294819425 -0.4271609052 0.0292187794 -0.427500879 -0.0226715648 0.3086321955
705295770.0 -0.0157031749 0.3021710963 0.0249809999 -0.4274164751 0.0246924932 -0.4276655815 -0.019595415 0.3093478459
710295740.0 -0.0126207226 0.3022757588 0.0206470538 -0.4275331425 0.0198709052 -0.4281666599 -0.0162974491 0.3093388824
715295710.0 -0.009112644 0.3031855698 0.015778432 -0.4279557956 0.015217003 -0.4277947705 -0.0127228025 0.3095242744
720295680.0 -0.0054812166 0.3028526586 0.0103870458 -0.4277858504 0.010562887 -0.427925587 -0.0096259917 0.3098851181
725295650.0 -0.0033107879 0.3038750022 0.0066341206 -0.4280829114 0.0062651595 -0.4281590984 -0.0066345199 0.3105427108
730295620.0 -0.0005133298 0.3039267024 0.0019133661 -0.4275262184 0.0014913362 -0.4277670409 -0.003390406 0.310945101
735295590.0 0.0029232093 0.3042073233 -0.0026652674 -0.4280612062 -0.0030493479 -0.427967964 0.0001757004 0.3105380456
740295560.0 0.0058745287 0.304238741 -0.0075573328 -0.4280491296 -0.0075839267 -0.4279278957 0.0030775157 0.3109042349
745295530.0 0.0090863164 0.3044830397 -0.0116716282 -0.4272842921 -0.0116924985 -0.4278107325 0.0061954899 0.3112463497
750295500.0 0.0121549945 0.3047628011 -0.0166314657 -0.4274425648 -0.0169963087 -0.4276431468 0.0094542516 0.3114026887
755295470.0 0.0154481036 0.3047941734 -0.0211811796 -0.4275807464 -0.0212949214 -0.4276400676 0.0130387579 0.3114035855
760295440.0 0.0182091515 0.3051972007 -0.0263572941 -0.4270459921 -0.0262960256 -0.4268311445 0.0163568163 0.310749849
765295410.0 0.0217467214 0.3047760484 -0.0304460959 -0.4265549889 -0.0305706635 -0.4265817678 0.0195920789 0.3111052688
770295380.0 0.0242934433 0.3052806067 -0.0348712619 -0.4261848209 -0.0354189868 -0.4267226764 0.0223461802 0.3111869537
775295350.0 0.0276397363 0.3051352035 -0.0399432338 -0.4257936387 -0.0395519541 -0.4257232506 0.025972479 0.310796469
780295320.0 0.0305087262 0.3048523395 -0.0436971654 -0.4251470133 -0.0441382852 -0.425593635 0.0292874484 0.3109401776
785295290.0 0.033596416 0.3047273424 -0.0487679627 -0.4244586389 -0.0484235198 -0.4252046432 0.0320701216 0.3107116181
790295260.0 0.0367053239 0.304256747 -0.0532616639 -0.4239396969 -0.0531737107 -0.4245457765 0.0354181802 0.3107143624
795295230.0 0.0397583039 0.3042305391 -0.0579206902 -0.423470462 -0.0581954462 -0.4236713981 0.0388159926 0.3100506962
800295200.0 0.0424396781 0.3044108043 -0.0617119093 -0.4226778679 -0.0626607051 -0.42325459 0.0420911026 0.3097570299
805295170.0 0.0456126923 0.3041980752 -0.0668089902 -0.4224207482 -0.067019734 -0.4226423355 0.0457109253 0.3092201655
810295140.0 0.0489333476 0.3040441195 -0.0711350063 -0.4214765125 -0.0716408754 -0.4213696677 0.0489064862 0.3092864533
815295110.0 0.0517216716 0.3033947403 -0.0756640964 -0.4206043976 -0.0758910815 -0.4206055388 0.0518631518 0.3087673369
820295080.0 0.0547800618 0.3032174169 -0.0801095227 -0.4196382297 -0.0805040515 -0.4201104449 0.0544792309 0.3087489424
825295050.0 0.0577385955 0.3023997917 -0.0850052637 -0.4187894862 -0.0851724228 -0.4191567775 0.0583729388 0.3083395574
830295020.0 0.0611208961 0.3019169347 -0.0892097791 -0.4178524957 -0.0894152257 -0.4179933218 0.0613485013 0.3074157111
