!Created with skrf (http://scikit-rf.org).
# Hz S RI R 50.0 
!freq ReS11 ImS11 ReS21 ImS21 ReS12 ImS12 ReS22 ImS22
300000.0 -0.0970390513 -0.0857726968 0.622578006 0.0800665827 0.6266165326 0.0843082241 -0.0980555098 -0.094396034
5299970.0 -0.1004254372 0.0128269352 0.6306871174 0.0106932549 0.6311859907 0.0110610817 -0.1021245706 0.0116936632
10299940.0 -0.0953591244 0.0296928712 0.6345286412 0.0157028981 0.6345207297 0.0157710586 -0.0971630782 0.0288967656
15299910.0 -0.0884929811 0.0429956815 0.6403758365 0.0205311692 0.6402854119 0.0208855242 -0.090195097 0.0420513415
20299880.0 -0.0795470715 0.054314818 0.6485972029 0.0242031764 0.6488681857 0.0242666814 -0.0819768251 0.0534077046
25299850.0 -0.0696379529 0.0627436274 0.6578823494 0.0251002274 0.6580277713 0.0252095173 -0.0725431468 0.0619400021
30299820.0 -0.0596125466 0.0691954881 0.6678426557 0.0242288624 0.6673532524 0.0246213116 -0.0626927605 0.0687827272
35299790.0 -0.0494366688 0.0744162846 0.677303182 0.021348114 0.6774906108 0.0220439341 -0.0526956685 0.0733951463
40299760.0 -0.0396259877 0.0770397306 0.6865387616 0.0178371056 0.6868064038 0.0178558871 -0.043636551 0.077158333
45299730.0 -0.0304253096 0.0795693418 0.6955401074 0.0113988257 0.6962178974 0.0121268797 -0.0341657975 0.0791264925
50299700.0 -0.0218368301 0.0799755842 0.7031842137 0.005033007 0.7039775612 0.0048580565 -0.0256340937 0.0802863016
55299670.0 -0.0143770649 0.080136047 0.7105510236 -0.0032888628 0.7110479175 -0.002812794 -0.0177423152 0.0798830557
60299640.0 -0.0068186585 0.0788703179 0.7173054256 -0.0114706832 0.7176962865 -0.0112855377 -0.0104995834 0.0797622845
65299610.0 -0.0004230496 0.0779976318 0.7237169614 -0.0192073098 0.7234030076 -0.0202354327 -0.0035538836 0.0785238185
70299580.0 0.0060173127 0.0759000812 0.7286222841 -0.0287416395 0.7287906188 -0.0291305859 0.0021397326 0.0773497369
75299550.0 0.0114693031 0.0744976954 0.7326058627 -0.0387626589 0.7331415104 -0.0392111242 0.0081537331 0.0757997988
80299520.0 0.0161141211 0.0720140354 0.7375560912 -0.0489320295 0.7374541382 -0.0490098784 0.0129632774 0.072811203
85299490.0 0.0207689817 0.069702568 0.740495797 -0.0589881506 0.7407372119 -0.0585405263 0.017336187 0.0708757475
90299460.0 0.0245932278 0.0674736548 0.7433894107 -0.0688650004 0.743828655 -0.0686702182 0.0219016503 0.0688446781
95299430.0 0.0283728818 0.0653248352 0.7462395845 -0.0798628391 0.7462278863 -0.0787368053 0.0253899611 0.0664161083
100299400.0 0.0314878104 0.0628983035 0.7473935289 -0.0889216206 0.7477921573 -0.0892363523 0.0283694674 0.0638617362
105299370.0 0.0346236341 0.0601933401 0.7482418869 -0.0989015792 0.7492192068 -0.0992367455 0.0318227711 0.061834738
110299340.0 0.0370016099 0.0577534312 0.7498585828 -0.1084795816 0.7501367117 -0.1093734091 0.0346853539 0.0593342281
115299310.0 0.0397255771 0.0547741179 0.7513594092 -0.1189781837 0.7514149026 -0.1190423215 0.0372663308 0.0562542192
120299280.0 0.0412769619 0.0527019671 0.7513331921 -0.1290488546 0.7517311637 -0.129277593 0.0387564251 0.0541970026
125299250.0 0.0431971002 0.05032771 0.7514725942 -0.1392432028 0.7519270473 -0.1393608425 0.0413201683 0.0513818487
130299220.0 0.0451454704 0.0477849947 0.7516291872 -0.148913745 0.7518997892 -0.1493731693 0.0433256858 0.0496764407
135299190.0 0.0469173424 0.0454896648 0.7515654191 -0.1586783828 0.751074996 -0.1589687027 0.0445359703 0.0473698444
140299160.0 0.0476013988 0.0440936266 0.7509787247 -0.1686625163 0.75114276 -0.1687255957 0.0462263374 0.0453573206
145299130.0 0.0494270668 0.0421387902 0.7502675352 -0.1786550467 0.7503116981 -0.1782931906 0.0473518221 0.0428747716
150299100.0 0.0505706191 0.0398741518 0.7496194677 -0.1879787198 0.7490721585 -0.1881539122 0.0486164712 0.0406716671
155299070.0 0.0511188953 0.0381421973 0.7476546242 -0.1980559677 0.7480338106 -0.1982882774 0.0495847724 0.0386679533
160299040.0 0.052340014 0.0361048616 0.7461663791 -0.2066693766 0.7463303701 -0.2073037609 0.0506466062 0.0373110068
165299010.0 0.052780751 0.0342988791 0.7452981648 -0.2165524899 0.7455725982 -0.2169116778 0.051513868 0.0350966986
170298980.0 0.0535053687 0.0329306527 0.7425794082 -0.2257478698 0.7430808941 -0.2257725713 0.0527122027 0.0327594358
175298950.0 0.054451557 0.0307233568 0.7422940908 -0.2350360841 0.741479007 -0.2352558174 0.0534988064 0.0311431146
180298920.0 0.0554827744 0.0291529205 0.738912702 -0.2448440156 0.7391582873 -0.2444179937 0.0537535081 0.0298540881
185298890.0 0.056062166 0.0272798346 0.7369211455 -0.254003541 0.7370784694 -0.2539356369 0.0542363537 0.0278016155
190298860.0 0.0561760844 0.0259483789 0.7343004223 -0.2625282977 0.734759617 -0.2623472035 0.0556347112 0.0262202668
195298830.0 0.0565439825 0.0238768227 0.7318576292 -0.2718520623 0.7321937458 -0.2723500669 0.0558080264 0.0242515064
200298800.0 0.0570210774 0.0228181467 0.7295369946 -0.2802438584 0.729648247 -0.280020111 0.056215731 0.0232238947
205298770.0 0.0571707427 0.0215748992 0.7268079738 -0.2895425261 0.7269786736 -0.2895242504 0.0564791388 0.0210107869
210298740.0 0.0570214287 0.0197010554 0.7238157658 -0.2988097111 0.7238031071 -0.2986270295 0.0568250632 0.0198301019
215298710.0 0.0577602487 0.0188343226 0.720876507 -0.3065639626 0.7203559449 -0.3066717485 0.0568907238 0.0182588217
220298680.0 0.0584148751 0.0170615722 0.7174237493 -0.3161921574 0.7177395762 -0.3154812943 0.0575053505 0.0174161493
225298650.0 0.0586346348 0.016148561 0.7135259362 -0.3243804197 0.7143320908 -0.3240077208 0.0577102513 0.0159827482
230298620.0 0.0582378303 0.0149309456 0.7108750285 -0.3324348496 0.7114339753 -0.3330156822 0.0580301849 0.0144286952
235298590.0 0.0584432307 0.0132608256 0.7073247621 -0.3404924905 0.7077435319 -0.3417330302 0.0580504882 0.0125631833
240298560.0 0.058257764 0.0121153941 0.7043396058 -0.348832688 0.7043216503 -0.3490678163 0.0582553557 0.0119996892
245298530.0 0.0590454978 0.0111590041 0.6997755131 -0.3576798274 0.6998452477 -0.358100291 0.0581996046 0.010679785
250298500.0 0.0582773988 0.0096701614 0.6962206678 -0.3656483047 0.6964933758 -0.365774719 0.0588267482 0.0091986084
255298470.0 0.0581738801 0.0091188561 0.6920504535 -0.3741364016 0.6922331548 -0.3744578099 0.0587922269 0.0074466495
260298440.0 0.0582931648 0.0079491942 0.6882208969 -0.3819891549 0.6885763281 -0.3827561713 0.059434864 0.0070691898
265298410.0 0.0590097307 0.0072153468 0.6841628748 -0.3904622922 0.6839059369 -0.3903444097 0.0588596287 0.0053332335
270298380.0 0.0593723117 0.0056958486 0.6796260437 -0.3980740354 0.6800310268 -0.3981679035 0.0589097258 0.0052944492
275298350.0 0.0585170985 0.0048101023 0.6758121842 -0.4067404298 0.6763094461 -0.4066593816 0.0592926076 0.0036017429
280298320.0 0.0585363462 0.0042990853 0.6711831528 -0.4133593973 0.6711086084 -0.4140716252 0.0592027703 0.002857948
285298290.0 0.0587322109 0.0032223166 0.6665598747 -0.4215102658 0.6670870166 -0.4219895379 0.058996921 0.0017606169
290298260.0 0.0586727996 0.0018581637 0.6625621907 -0.4292500055 0.6624550944 -0.430001103 0.059576193 0.0006488385
295298230.0 0.0587358698 0.0004577022 0.6579834985 -0.4377287527 0.65790785 -0.4372494693 0.0595131156 -0.0004508468
300298200.0 0.0592507066 -7.17559e-05 0.6530505423 -0.4446673 0.6531350509 -0.4453277878 0.0591550809 -0.0011043477
305298170.0 0.0589338221 -0.0013786314 0.6485195992 -0.4527570434 0.6491729332 -0.45308638 0.0596934169 -0.002112252
310298140.0 0.0596742053 -0.0025499414 0.6439530968 -0.4608719024 0.6437221729 -0.4608887845 0.05968155 -0.0030152242
315298110.0 0.058882334 -0.0034311532 0.6380252693 -0.4679931227 0.6386275925 -0.4678483966 0.0599483121 -0.0044765461
320298080.0 0.0588411852 -0.00445922 0.6332443772 -0.4757743459 0.6335862693 -0.4756087261 0.0592344436 -0.0056608135
325298050.0 0.0584402329 -0.0058006725 0.6286777092 -0.4830886792 0.6284915113 -0.4836610265 0.0592531966 -0.0069443218
330298020.0 0.0582216694 -0.0065142879 0.6216814308 -0.4906850808 0.6222581755 -0.4904214135 0.0584966841 -0.0082599613
335297990.0 0.0576045297 -0.0075481528 0.6168506562 -0.4976739613 0.6168048567 -0.4978965477 0.0583269444 -0.008957927
340297960.0 0.0565981803 -0.0080109339 0.6104938948 -0.5046600929 0.6108885134 -0.5039969378 0.0575173509 -0.009680283
345297930.0 0.0562722289 -0.0085617628 0.6049743386 -0.5108842752 0.6047850695 -0.510913754 0.0576549895 -0.010756788
350297900.0 0.0565422412 -0.0094226118 0.5989030909 -0.5177538927 0.5994499911 -0.5181377193 0.0567238762 -0.0105527675
355297870.0 0.0560751531 -0.0101912115 0.5932643606 -0.5247950412 0.5934704924 -0.5252224602 0.0562890965 -0.0113715492
360297840.0 0.0560722632 -0.0106790467 0.5877809685 -0.5313501698 0.5874692924 -0.5314808103 0.0564128641 -0.0115470508
365297810.0 0.0558185634 -0.0116327175 0.5814038866 -0.5376874598 0.581674679 -0.5380980891 0.0560021196 -0.0124287421
370297780.0 0.0559284588 -0.0122389419 0.5757533212 -0.5441354307 0.576535177 -0.5450193953 0.0560991313 -0.0127838352
375297750.0 0.0550602459 -0.0125602166 0.5700596591 -0.550979135 0.5696511887 -0.5509473284 0.0558272019 -0.0134591783
380297720.0 0.0551441522 -0.0136502944 0.5638837562 -0.5568198496 0.5642422983 -0.556821525 0.0553325615 -0.0142577633
385297690.0 0.0547713152 -0.0139523448 0.5570970616 -0.562710669 0.5570005213 -0.5633476984 0.0550153301 -0.0146299073
390297660.0 0.0542284002 -0.0146325221 0.5508669045 -0.5697737984 0.5509654494 -0.5701293295 0.0550847814 -0.015335419
395297630.0 0.0545821074 -0.0157387231 0.5452504113 -0.5755213169 0.5447780389 -0.5759349907 0.0544897484 -0.0156181396
400297600.0 0.0539532799 -0.0159536373 0.5388030912 -0.5820828452 0.5390178194 -0.5823547624 0.0535719962 -0.0170344732
405297570.0 0.0539910286 -0.0166320818 0.5322324588 -0.5876020824 0.5321486264 -0.5878028417 0.0539539115 -0.0169286548
410297540.0 0.0538654886 -0.0173770522 0.5253321326 -0.593194221 0.5255846009 -0.5936749332 0.053453909 -0.0180666399
415297510.0 0.0533036097 -0.0172356213 0.5191014329 -0.599108727 0.5192217746 -0.5993455577 0.052628849 -0.0183297894
420297480.0 0.0531450372 -0.0187595173 0.5122139098 -0.6058994915 0.5128341143 -0.6055477689 0.0529478553 -0.0190314327
425297450.0 0.0534320123 -0.0194910468 0.5064007672 -0.6110511422 0.5063358244 -0.6109120405 0.0524801349 -0.0189102585
430297420.0 0.0524253775 -0.0195870174 0.4989971572 -0.6166790296 0.4990616466 -0.6168453285 0.0517486001 -0.0202693699
435297390.0 0.0525300667 -0.0208630168 0.4926308074 -0.621891643 0.4924681723 -0.6221168497 0.0511822969 -0.0199459366
440297360.0 0.0525005138 -0.0217011697 0.485868658 -0.6273969354 0.4852442244 -0.6277876144 0.0512167061 -0.0212984031
445297330.0 0.0523800538 -0.0220804463 0.4782875289 -0.6327056206 0.4784368027 -0.6330023536 0.0508661738 -0.0217209513
450297300.0 0.0518747573 -0.022407118 0.471072788 -0.6377332817 0.4717883899 -0.6389980288 0.0504564425 -0.0218857517
455297270.0 0.0510828365 -0.0235534841 0.4649412813 -0.6440989909 0.4649588661 -0.6437143196 0.0505877725 -0.0223307749
460297240.0 0.0502798895 -0.0240029324 0.4572289038 -0.6486922021 0.4572397846 -0.6489352938 0.0499380068 -0.0224964475
465297210.0 0.0508623007 -0.0247648351 0.4505005808 -0.6537258417 0.4509406709 -0.6536463997 0.0492286628 -0.0235369129
470297180.0 0.0499582362 -0.0250007137 0.4431729909 -0.657993352 0.4433688548 -0.6588962864 0.0482277274 -0.0239639674
475297150.0 0.0494365243 -0.0265201585 0.4355518139 -0.6626609749 0.4358002388 -0.6626843706 0.0482093174 -0.0242317507
480297120.0 0.0498753588 -0.0267459379 0.4287897591 -0.6682808649 0.4286087848 -0.6678404753 0.047933 -0.0244587919
485297090.0 0.0495030315 -0.0273043118 0.4213111984 -0.6728696602 0.4216157266 -0.6734520188 0.0470864923 -0.0258178993
490297060.0 0.0491070986 -0.0280394338 0.4149320931 -0.6777429255 0.4143100954 -0.6775402318 0.0472168923 -0.0252718501
495297030.0 0.0479238038 -0.0282743916 0.4062375156 -0.6820018539 0.4063624211 -0.6827310978 0.0467561804 -0.0262516826
500297000.0 0.0479903719 -0.029117984 0.3988845704 -0.6865097286 0.3989559176 -0.6868022494 0.0455637882 -0.0269302076
505296970.0 0.047002116 -0.0299469264 0.3909044982 -0.6905926412 0.3908658082 -0.6910849719 0.0450530941 -0.02688669
510296940.0 0.0468515528 -0.0300149044 0.3835410687 -0.6952299802 0.3837564031 -0.6953211352 0.0452526572 -0.0271066913
515296910.0 0.0462561286 -0.0304790391 0.3759410821 -0.6986865284 0.3761653951 -0.6993988126 0.0442982092 -0.0281607179
520296880.0 0.0460849019 -0.0313171896 0.3679840134 -0.7032782993 0.3686830671 -0.7035297552 0.0442731708 -0.0282165681
525296850.0 0.0452257929 -0.032138932 0.3605738623 -0.7074556748 0.3609321289 -0.7079713263 0.0438919227 -0.0286670222
530296820.0 0.0450918504 -0.0324141565 0.3535372012 -0.7103418099 0.3530741669 -0.711605763 0.0431136836 -0.0298858612
535296790.0 0.0442655524 -0.0330022258 0.3448204109 -0.7148342881 0.3455446299 -0.7152295706 0.0425898345 -0.0301551951
540296760.0 0.0437956652 -0.0337648191 0.3374277889 -0.71948958 0.3368927585 -0.7194387285 0.0414188764 -0.0299433523
545296730.0 0.0433611345 -0.0333804958 0.3293597578 -0.722072712 0.3294749238 -0.7233457115 0.0414572498 -0.0309444303
550296700.0 0.0425034609 -0.0344048516 0.3216934686 -0.7264815479 0.3221810901 -0.7264460024 0.0408255914 -0.0302548125
555296670.0 0.0426630107 -0.0353116235 0.3135955904 -0.7299060056 0.3134795681 -0.729877388 0.039810033 -0.0311708666
560296640.0 0.0419482099 -0.035725056 0.3057228141 -0.7335082419 0.3060812607 -0.7329400424 0.0397550543 -0.0314178778
565296610.0 0.0407583421 -0.0359348962 0.2975294576 -0.7367600832 0.2968612413 -0.7363408744 0.0388519826 -0.0320094885
570296580.0 0.0412311288 -0.0365641827 0.2891590022 -0.7396721673 0.2896811104 -0.7399348456 0.0387519407 -0.031555381
575296550.0 0.0402272353 -0.0360911847 0.281257132 -0.7422565419 0.2819659724 -0.7430866304 0.0385621998 -0.0326029797
580296520.0 0.0395089919 -0.037287582 0.2736612101 -0.745970332 0.2729315711 -0.7464066767 0.0375301435 -0.0332183481
585296490.0 0.0393145874 -0.0378775771 0.2657508944 -0.7488515694 0.2653081683 -0.7490286771 0.0368537051 -0.0336534187
590296460.0 0.0381340181 -0.0386075047 0.2564164075 -0.752129281 0.2570896635 -0.75161787 0.0368028101 -0.0331467168
595296430.0 0.0375891536 -0.0383544566 0.2489464689 -0.7547742222 0.248991848 -0.7543763807 0.0360611094 -0.0337577323
600296400.0 0.037158384 -0.0385309373 0.2407260421 -0.7570068324 0.2408910962 -0.757170998 0.0355206343 -0.0340142109
605296370.0 0.0368302582 -0.0387438368 0.2322602282 -0.7598456432 0.2320783874 -0.759673447 0.0348836847 -0.0344940175
610296340.0 0.0359189325 -0.0394583094 0.2245882345 -0.7620957464 0.2240213723 -0.7626301541 0.0344942669 -0.0342334786
615296310.0 0.0355242748 -0.0394683329 0.2152584796 -0.7645339692 0.2153564515 -0.7643343458 0.0340648004 -0.035080495
620296280.0 0.034572235 -0.0400469627 0.207359002 -0.7667198224 0.2074879931 -0.7672579863 0.0334718873 -0.0358009324
625296250.0 0.0349016555 -0.0403592417 0.1984843285 -0.7695523683 0.1988458365 -0.7694515592 0.0331196704 -0.0354291383
630296220.0 0.0336925515 -0.0406223808 0.1903696496 -0.7714295882 0.191117023 -0.7712295149 0.031934317 -0.0357705955
635296190.0 0.0332423222 -0.0407692015 0.1822966904 -0.7731847393 0.1817218496 -0.7726712523 0.0314190729 -0.0365400919
640296160.0 0.0324396477 -0.0412547018 0.1736491809 -0.774588909 0.1735933652 -0.7750547637 0.0316030505 -0.0363381635
645296130.0 0.0320457192 -0.0411145289 0.1654835073 -0.7776138035 0.1651203494 -0.7768342442 0.0295875636 -0.0375031857
650296100.0 0.0309304799 -0.0409348053 0.1569072876 -0.7785839363 0.1571023239 -0.7786421897 0.0299093179 -0.0371768636
655296070.0 0.030616351 -0.0421125757 0.1480409196 -0.7799830644 0.1481217893 -0.7803377058 0.029806915 -0.036759642
660296040.0 0.0294495607 -0.0418245518 0.1396329533 -0.7816297639 0.1395524025 -0.7819662989 0.0287316658 -0.0377947206
665296010.0 0.0293304907 -0.042539362 0.1314136297 -0.783048468 0.1320890534 -0.7832295151 0.0278035863 -0.0372938146
670295980.0 0.0294552659 -0.0421866356 0.1228389204 -0.7847630922 0.1231182021 -0.7845704978 0.0269069671 -0.0379743759
675295950.0 0.0284678456 -0.0424779935 0.1136501372 -0.7859541901 0.1141556525 -0.7864040422 0.0270720871 -0.0377961122
680295920.0 0.0275381309 -0.0422526641 0.1053962933 -0.7872536872 0.1053456426 -0.7872726009 0.026654622 -0.0383516386
685295890.0 0.0265763784 -0.0427266582 0.0973761193 -0.7878361735 0.0966708371 -0.788458789 0.0259107376 -0.0381599241
690295860.0 0.0264824694 -0.0430705371 0.0883915294 -0.7886995741 0.0881520501 -0.7892619194 0.0255690993 -0.0380791473
695295830.0 0.0263868936 -0.0434792241 0.0787788335 -0.790117083 0.0794143085 -0.7906242616 0.0243372612 -0.0384830963
700295800.0 0.0257632206 -0.0434602664 0.0707354103 -0.7908410308 0.0712042852 -0.7915008477 0.0236543937 -0.0395391371
705295770.0 0.0250326272 -0.0436715409 0.0627290538 -0.7917131967 0.0627186115 -0.7920175141 0.0232476862 -0.0393530729
710295740.0 0.0241338475 -0.0434420772 0.053927133 -0.7920855911 0.0534837448 -0.7921404261 0.0218125374 -0.0389403294
715295710.0 0.0236831832 -0.0438334795 0.0452427089 -0.7926440118 0.0459104958 -0.7930555007 0.0218660465 -0.0399387124
720295680.0 0.0228296841 -0.0442369419 0.036518114 -0.7928273843 0.0370589554 -0.7938171778 0.021618152 -0.0392243178
725295650.0 0.0225346188 -0.0441538202 0.0280431297 -0.7936475248 0.0281006513 -0.7935254802 0.0207016781 -0.0391188932
730295620.0 0.0213713689 -0.044688208 0.0188227342 -0.7937816403 0.0189279212 -0.7938203927 0.0204370463 -0.040471492
735295590.0 0.0211937948 -0.0442597135 0.0114746789 -0.7936315327 0.0109254907 -0.7940200456 0.0195660711 -0.0396641005
740295560.0 0.0203668031 -0.0440883391 0.0020409988 -0.7931946936 0.001769317 -0.7940307998 0.0198676231 -0.0398911825
745295530.0 0.0200440184 -0.0450114199 -0.0063737366 -0.7938394954 -0.0063949155 -0.7943431828 0.0183978905 -0.039618064
750295500.0 0.019074679 -0.0447986064 -0.0149639883 -0.7932223294 -0.0152823701 -0.7936605285 0.0184367561 -0.0404742181
755295470.0 0.0189623746 -0.0444710567 -0.0234059591 -0.7934742391 -0.0235476874 -0.7939685845 0.0168581021 -0.0401904
760295440.0 0.017775748 -0.0446912206 -0.032252198 -0.7934418591 -0.0327523537 -0.793270233 0.0162003145 -0.0401819476
765295410.0 0.0169981882 -0.045074083 -0.0399014285 -0.7929162446 -0.0405145209 -0.7929053954 0.0168527136 -0.0397915688
770295380.0 0.0171114131 -0.0449170352 -0.0494812785 -0.792498371 -0.049495454 -0.7927244573 0.015943078 -0.040000488
775295350.0 0.0160514322 -0.0448689538 -0.0579367093 -0.7916023101 -0.0574413733 -0.792011763 0.0148366361 -0.0410483906
780295320.0 0.0157590034 -0.0450867047 -0.0662733411 -0.7910416246 -0.0665910469 -0.7917606178 0.0143946365 -0.039814284
785295290.0 0.0146962357 -0.0443513231 -0.075743312 -0.7891675481 -0.0754016968 -0.7902154487 0.0134734549 -0.0400712858
790295260.0 0.0141266809 -0.0446273595 -0.0833274509 -0.7898778986 -0.084366936 -0.789741815 0.0130580398 -0.040271145
795295230.0 0.0135437847 -0.0447291324 -0.0914502132 -0.7876229569 -0.0924061612 -0.7884390498 0.0126319045 -0.0393018478
800295200.0 0.012776461 -0.0445276678 -0.1015323982 -0.7877897713 -0.1015114658 -0.7873261817 0.0121972286 -0.039998581
805295170.0 0.0118430062 -0.0446580126 -0.1094310818 -0.7856322119 -0.1096041015 -0.7860662008 0.0112783449 -0.0402248919
810295140.0 0.0114632788 -0.0447932792 -0.1177437745 -0.7848653071 -0.1176763822 -0.7857484606 0.0108626097 -0.0397118937
815295110.0 0.0109156859 -0.0443358377 -0.1270064929 -0.7831084214 -0.1270937913 -0.7836203056 0.0099541268 -0.0403677975
820295080.0 0.0102727583 -0.044989858 -0.1348239523 -0.7821784712 -0.1351409542 -0.7822667323 0.0093612226 -0.0397710688
825295050.0 0.0096949048 -0.0449765096 -0.1435369139 -0.7799693065 -0.1438035091 -0.780144709 0.0089011745 -0.0395767025
830295020.0 0.0090916523 -0.044208707 -0.1521296222 -0.7788309273 -0.1528511216 -0.7792649984 0.008099117 -0.0398703634
