!Created with skrf (http://scikit-rf.org).
# Hz S RI R 50.0 
!freq ReS11 ImS11 ReS21 ImS21 ReS12 ImS12 ReS22 ImS22
300000.0 -0.2402245715 -0.0943011968 0.4662112258 0.0611038987 0.4685837217 0.0662223713 -0.2348313409 -0.1048573568
5299970.0 -0.2439819651 0.0075110957 0.4738188962 0.0051821709 0.4737620572 0.0057688395 -0.2440527613 0.0059838021
10299940.0 -0.2402753178 0.0199172766 0.4760507856 0.0061529337 0.476038554 0.0065240492 -0.2410831485 0.0183506152
15299910.0 -0.2362237553 0.0298097264 0.4792473426 0.0077783109 0.4791108788 0.0076619953 -0.2367100872 0.0277199257
20299880.0 -0.2305399265 0.0374494552 0.484516831 0.0081665401 0.4843602564 0.0083061659 -0.2321632906 0.0356580925
25299850.0 -0.2248084518 0.0437300396 0.4896113497 0.0069593111 0.4894253124 0.0074644656 -0.2267844011 0.04171505
30299820.0 -0.2188278739 0.048376693 0.4953411536 0.0052708126 0.4946326798 0.0050608748 -0.2217208342 0.0467295158
35299790.0 -0.2130107784 0.0529399717 0.5001036583 0.0020297177 0.5003280157 0.0022774332 -0.2163448942 0.0510521252
40299760.0 -0.2074398491 0.0558018011 0.5054260505 -0.001555005 0.5055147147 -0.0018489348 -0.2114440862 0.0546453679
45299730.0 -0.2025547434 0.0585644713 0.5105471134 -0.0069652535 0.5100536241 -0.006443632 -0.206804693 0.0571340501
50299700.0 -0.1975521623 0.0600800812 0.5137788066 -0.0121064349 0.5145439379 -0.0122916963 -0.2021438734 0.0595978392
55299670.0 -0.1935850578 0.0617584532 0.5176548322 -0.0182739941 0.5182215805 -0.0179606394 -0.1986098046 0.0617139231
60299640.0 -0.1895723299 0.06275606 0.5212224858 -0.0245780649 0.5212445563 -0.0240713905 -0.1946254514 0.0631241319
65299610.0 -0.1862705015 0.0636778271 0.5241974711 -0.0301754097 0.5247671922 -0.0305730683 -0.191126366 0.0643792901
70299580.0 -0.182734889 0.0642946197 0.5269995078 -0.0368620108 0.5268129998 -0.0376572013 -0.188098878 0.0655526224
75299550.0 -0.1795335348 0.0651590799 0.528503138 -0.0439004949 0.5288326469 -0.0439353827 -0.1853752698 0.0667217155
80299520.0 -0.1772059226 0.0656177287 0.5311145972 -0.0508630042 0.5303673645 -0.0509872642 -0.1826264198 0.0670453295
85299490.0 -0.1747499481 0.0657720858 0.5321079306 -0.0578903813 0.5321478947 -0.0579162646 -0.1802512728 0.068266439
90299460.0 -0.1725861611 0.0665710171 0.5332819231 -0.0644030476 0.533393305 -0.0647110317 -0.1777872032 0.0691476163
95299430.0 -0.1705550564 0.0671011838 0.5340846477 -0.0720104918 0.5340980082 -0.0715425196 -0.1758735873 0.0701075996
100299400.0 -0.1689587441 0.067624173 0.534255069 -0.0786605249 0.5342241877 -0.0786206368 -0.1744084148 0.0706458619
105299370.0 -0.1668135469 0.0683238131 0.5344655174 -0.0854657019 0.5349910384 -0.0857788457 -0.1723378621 0.0716836444
110299340.0 -0.1656604605 0.0683594014 0.5346521574 -0.0920683865 0.5347394947 -0.0927101724 -0.1706707154 0.0723252225
115299310.0 -0.1638069204 0.0686947635 0.5344477271 -0.0987574106 0.5350667954 -0.0989913437 -0.1688132359 0.0729960182
120299280.0 -0.1630245855 0.0696827785 0.534931893 -0.1062122567 0.5348587638 -0.1062038316 -0.1679949625 0.073933894
125299250.0 -0.16180287 0.0699750066 0.5341936711 -0.1127746236 0.534418524 -0.1127535973 -0.1662491051 0.0746147065
130299220.0 -0.1605179337 0.0706200409 0.5337685019 -0.119021864 0.5336912688 -0.1195764145 -0.1649543093 0.075910184
135299190.0 -0.1592196809 0.0709203659 0.532735763 -0.126020989 0.5327328464 -0.1261957345 -0.1639532929 0.0768051649
140299160.0 -0.158826257 0.0721133352 0.5321624801 -0.1326833955 0.5326569213 -0.1328544237 -0.1628291478 0.0778228622
145299130.0 -0.1574255473 0.0726385923 0.5316389121 -0.1394409787 0.5314917624 -0.1389432479 -0.1619843667 0.0787804538
150299100.0 -0.1565952491 0.0734072436 0.5303310675 -0.1458540889 0.5304022485 -0.1455772478 -0.1608195971 0.0796618928
155299070.0 -0.1558774538 0.0748709569 0.5288579111 -0.1523687249 0.5292172702 -0.1523940466 -0.1601695464 0.0806872973
160299040.0 -0.1549541633 0.0752064985 0.5273889103 -0.1584184548 0.5276590812 -0.1593785791 -0.1588820641 0.0828956755
165299010.0 -0.1542414221 0.0762390319 0.5264007607 -0.1651907858 0.5266450784 -0.1654598232 -0.1581239174 0.0831375838
170298980.0 -0.1533698755 0.0771080869 0.5239180488 -0.1717745332 0.5242958237 -0.1717089599 -0.1565651657 0.0845207732
175298950.0 -0.1524763161 0.0782653398 0.5234825092 -0.1775798381 0.5236149348 -0.1780419653 -0.1560315873 0.0858360139
180298920.0 -0.151724964 0.0792695194 0.5212500898 -0.1847133058 0.5214700573 -0.1841804607 -0.1549286489 0.0872938097
185298890.0 -0.1510453276 0.0802491726 0.5193535285 -0.1905695484 0.5195323263 -0.1905179204 -0.1542665332 0.088137203
190298860.0 -0.1503102119 0.0813474072 0.5174046273 -0.1969768059 0.5179116056 -0.1969017113 -0.1525989765 0.0896476625
195298830.0 -0.1494725685 0.0819409127 0.5154649465 -0.2023464934 0.5157134033 -0.2029994601 -0.1520632906 0.0905415698
200298800.0 -0.1489678018 0.0834372553 0.5139264377 -0.2082401165 0.5138264286 -0.2084205834 -0.1509517564 0.0921807718
205298770.0 -0.1482610852 0.0847122763 0.5113165083 -0.214924933 0.5115224549 -0.2148678631 -0.1501860478 0.0933297764
210298740.0 -0.1476144047 0.0854461981 0.5093152589 -0.2212159447 0.5092462983 -0.2213069636 -0.1490186061 0.0950617729
215298710.0 -0.1464971402 0.0869175077 0.5069794959 -0.22650243 0.5070624721 -0.2266615972 -0.1484262726 0.0960894304
220298680.0 -0.1460072205 0.0880688826 0.5043140054 -0.2332048412 0.5045825118 -0.2329610355 -0.1471959045 0.0977435876
225298650.0 -0.1450180382 0.0895065788 0.5018011534 -0.2383525292 0.5017261751 -0.2385029675 -0.1465920061 0.0991719372
230298620.0 -0.144633926 0.0906987846 0.4995375296 -0.2444764701 0.4998559847 -0.2447475007 -0.1453597878 0.1001696648
235298590.0 -0.1436982018 0.0915752221 0.4968220323 -0.2502400812 0.497012911 -0.2509121772 -0.1442971008 0.101321761
240298560.0 -0.143056586 0.0929798667 0.4942810147 -0.2557356184 0.4944006767 -0.2552778773 -0.1431048718 0.1032696838
245298530.0 -0.1420726534 0.0941382206 0.4910426908 -0.2618760934 0.4912419408 -0.2618197195 -0.141861163 0.1049302395
250298500.0 -0.1415928965 0.0952793163 0.4882856571 -0.2670843399 0.4887425498 -0.2667514787 -0.1406675374 0.1060936512
255298470.0 -0.1405756803 0.0967470456 0.4850333684 -0.2730526727 0.4855887569 -0.2727202238 -0.1395327874 0.1073981559
260298440.0 -0.1399559224 0.0980410033 0.4827163222 -0.2779417988 0.4829406901 -0.2785054305 -0.1382661502 0.1090534563
265298410.0 -0.1386515106 0.0995138333 0.4795681895 -0.2841690081 0.4794672484 -0.2842677073 -0.1376272392 0.1103625305
270298380.0 -0.1377383401 0.1006887399 0.4763530666 -0.2893380458 0.4767318728 -0.2893778226 -0.1358995807 0.1122331625
275298350.0 -0.1371630372 0.1020568121 0.4735388174 -0.2950093283 0.4734321925 -0.2948244769 -0.1347625618 0.1133799414
280298320.0 -0.1363170109 0.1034242206 0.4703329198 -0.2996724971 0.4698609789 -0.3003674262 -0.1334902709 0.1149399714
285298290.0 -0.1352220168 0.1046603692 0.4664627113 -0.3053182138 0.4668572867 -0.3056577034 -0.132522726 0.1161797385
290298260.0 -0.1344019967 0.1057974334 0.4639401746 -0.3107120472 0.4634237864 -0.3108101342 -0.1308719498 0.1179218536
295298230.0 -0.1333329064 0.1071453182 0.4606521179 -0.3161524506 0.4601650195 -0.3162073574 -0.1295864781 0.1194430589
300298200.0 -0.1320470809 0.1083164075 0.4565366668 -0.3211859469 0.456794374 -0.3213310876 -0.1283229399 0.1209693807
305298170.0 -0.1309375601 0.1095085782 0.4533464564 -0.3267883698 0.4535865999 -0.3267470212 -0.1269970576 0.122262486
310298140.0 -0.1297939756 0.1105986652 0.4498670686 -0.3320352222 0.4499174897 -0.3321285028 -0.1253713466 0.124025354
315298110.0 -0.1292506727 0.111778571 0.4456396849 -0.3372562091 0.4461813015 -0.337388973 -0.1239929121 0.12529091
320298080.0 -0.128259773 0.1129034787 0.4423846961 -0.3417595928 0.4424983199 -0.3421828927 -0.1229404882 0.1260844307
325298050.0 -0.1273383214 0.1141181045 0.4388517851 -0.3474721168 0.4386960115 -0.3473302311 -0.1217326185 0.1276491498
330298020.0 -0.1262996609 0.11541245 0.4340737545 -0.3522969102 0.4343131157 -0.3525866788 -0.1203998113 0.1287295545
335297990.0 -0.125564547 0.1167936542 0.4308274106 -0.3574263842 0.4302462294 -0.3573153328 -0.1191459889 0.1301247166
340297960.0 -0.1247082447 0.118239534 0.4260251341 -0.3619477246 0.4266568577 -0.362278161 -0.1178754488 0.1320509442
345297930.0 -0.123988847 0.1194105464 0.4221958692 -0.3663912748 0.4220253163 -0.3664808759 -0.1166091039 0.1330045292
350297900.0 -0.1224540745 0.1209052648 0.4178472493 -0.3707399903 0.4182918789 -0.3712911074 -0.1150261846 0.1350409463
355297870.0 -0.1216551512 0.1219870906 0.4137133039 -0.3753389029 0.4140893717 -0.3756674988 -0.1138881901 0.1364132788
360297840.0 -0.120390238 0.123314697 0.4100693728 -0.3804165047 0.4099697201 -0.3806385445 -0.1122998997 0.1379878748
365297810.0 -0.1190456637 0.1242421549 0.405365008 -0.3847797766 0.4054848994 -0.3849265487 -0.1107872262 0.1394568102
370297780.0 -0.1178783123 0.1258914462 0.4011062049 -0.3889121951 0.4011631779 -0.3899043924 -0.1093327223 0.1407097203
375297750.0 -0.1166417041 0.1275803026 0.3971960419 -0.3937644719 0.3969024331 -0.3936320847 -0.1075743752 0.1421059314
380297720.0 -0.11550456 0.1281770979 0.3922702277 -0.3977909563 0.3927913122 -0.3979288094 -0.106305868 0.1438226117
385297690.0 -0.1142675971 0.1301185565 0.3879009296 -0.4020435085 0.3880459459 -0.4024645919 -0.1043658286 0.1451006076
390297660.0 -0.1134112723 0.1308341546 0.3836864296 -0.4066463279 0.3834043636 -0.4069335255 -0.1027474972 0.1462134116
395297630.0 -0.1118171439 0.1320966263 0.379245176 -0.4106134368 0.379177763 -0.4107542618 -0.1011913866 0.1479063156
400297600.0 -0.1108628828 0.133650015 0.3745346059 -0.4149859549 0.3753018482 -0.4153858746 -0.1002732559 0.1488706317
405297570.0 -0.109296763 0.134670281 0.3699923847 -0.4188720523 0.3705539058 -0.4191907453 -0.0984581341 0.1505083715
410297540.0 -0.1078839245 0.1360772594 0.3650751507 -0.4231813435 0.3654061883 -0.4229221965 -0.0966099347 0.1516506636
415297510.0 -0.1066400833 0.1370705235 0.3607079266 -0.4266384383 0.3612191551 -0.4272238769 -0.0954525428 0.1532401773
420297480.0 -0.1054061243 0.1378795391 0.3557968302 -0.4308310621 0.3561155939 -0.4308240067 -0.0932912502 0.1539444487
425297450.0 -0.1036641025 0.1390859791 0.3512754245 -0.4349824749 0.3517979363 -0.4349503383 -0.0918885692 0.1555817219
430297420.0 -0.1030199233 0.1404897666 0.3469585933 -0.4387221125 0.3466059317 -0.4384487309 -0.0901738 0.1564834784
435297390.0 -0.1012754884 0.1413974379 0.3417687719 -0.4420315667 0.3419874732 -0.4422352512 -0.0884235751 0.1583725885
440297360.0 -0.0998830146 0.1427009081 0.3366070621 -0.4458812401 0.336549398 -0.4459737248 -0.0866421304 0.1587914958
445297330.0 -0.0984537739 0.143708051 0.3315315965 -0.450105566 0.332008057 -0.4497751889 -0.085202157 0.1600812256
450297300.0 -0.0968536181 0.1445074873 0.3267551025 -0.4534668469 0.3270506631 -0.4535083118 -0.0833013803 0.1614419437
455297270.0 -0.0956800125 0.1457438851 0.3221949828 -0.4569246125 0.3222723735 -0.456704349 -0.0812077051 0.1625627897
460297240.0 -0.0946067473 0.1469120909 0.3170006632 -0.4599222387 0.3167077374 -0.4602047799 -0.0794985796 0.1641602141
465297210.0 -0.092657426 0.1477841604 0.3120177212 -0.463856528 0.3123863227 -0.4638991381 -0.0785442127 0.1649408379
470297180.0 -0.0915827077 0.1489262401 0.3069755618 -0.4670313224 0.3073141681 -0.4669821723 -0.0765284957 0.1658060854
475297150.0 -0.0900369156 0.1494532038 0.3014484568 -0.4699577568 0.3018407347 -0.4700162342 -0.0744374604 0.1668343326
480297120.0 -0.0882271288 0.1505164011 0.2958975027 -0.4734640428 0.296857412 -0.4731816228 -0.0726270944 0.168521379
485297090.0 -0.0868627925 0.151599172 0.2917366501 -0.4765134126 0.2915452118 -0.476854167 -0.0712090254 0.168649619
490297060.0 -0.0855460563 0.1526761639 0.286240073 -0.4798279641 0.2863120375 -0.4800159446 -0.0692398972 0.1700884754
495297030.0 -0.0842461146 0.1536885783 0.280684825 -0.4828468653 0.2808610208 -0.4829560105 -0.0673661102 0.1708960872
500297000.0 -0.0826015649 0.1544822489 0.275450997 -0.485651576 0.275589677 -0.4860619428 -0.0657881732 0.1717847412
505296970.0 -0.0811069486 0.1553249713 0.2700262005 -0.4882890532 0.2698559807 -0.4885329211 -0.064164273 0.1728750995
510296940.0 -0.0796560023 0.1564233155 0.264945574 -0.4916572838 0.2650609959 -0.4917726538 -0.0617428346 0.1738844935
515296910.0 -0.0783100649 0.1572417605 0.2593926834 -0.4941773413 0.2593965178 -0.4945145292 -0.0602366575 0.1747057351
520296880.0 -0.0766408441 0.1579812504 0.2540545938 -0.4973594127 0.2543350121 -0.4971058101 -0.0579682213 0.1754934894
525296850.0 -0.0750895709 0.1589281033 0.2486518449 -0.4998134308 0.2489312072 -0.5003105603 -0.0560417922 0.1766531051
530296820.0 -0.0735220583 0.159848993 0.2433588008 -0.5019965275 0.2434355473 -0.5028608716 -0.054733048 0.1767799128
535296790.0 -0.0721322066 0.1605265631 0.2378040594 -0.5048226542 0.2380464257 -0.5050623514 -0.0527898594 0.1776905347
540296760.0 -0.070434366 0.1612678738 0.2320634089 -0.5080118382 0.2323429517 -0.507906965 -0.0510113044 0.1789342712
545296730.0 -0.0690665247 0.1621990029 0.2268282185 -0.5099652215 0.2266114017 -0.5104123533 -0.0489455259 0.1790834702
550296700.0 -0.0674876469 0.1629062255 0.2216861103 -0.5124930448 0.2215795964 -0.5132058281 -0.0471098959 0.1805101625
555296670.0 -0.0655128094 0.1637620755 0.2157853356 -0.5152208355 0.2158009466 -0.5147372186 -0.04541023 0.1807400876
560296640.0 -0.0640446986 0.1643619989 0.209872045 -0.5171283898 0.2105338909 -0.5168935529 -0.0430284552 0.1814023826
565296610.0 -0.0628695283 0.1650352793 0.2045169928 -0.5194503174 0.2041046242 -0.519384748 -0.0413326984 0.1820213057
570296580.0 -0.0607376625 0.1659118154 0.1986997862 -0.5211360145 0.1990052068 -0.5217395899 -0.0393065784 0.1831541692
575296550.0 -0.059367564 0.1670343847 0.193361159 -0.5234387063 0.1934400371 -0.5234800112 -0.0369406365 0.1834016539
580296520.0 -0.0576208779 0.1674188998 0.1875309651 -0.5256649375 0.1871466068 -0.5259998714 -0.0354594367 0.1837218747
585296490.0 -0.0560266088 0.1677524206 0.1817987766 -0.5276174851 0.1817077717 -0.5272993973 -0.0335952245 0.183814462
590296460.0 -0.0546236736 0.1684752362 0.176112001 -0.5295776052 0.1758124222 -0.529652613 -0.0313669471 0.185075003
595296430.0 -0.0529498024 0.1691138818 0.1706237522 -0.5309813726 0.1700986347 -0.5314448526 -0.0292430656 0.18525154
600296400.0 -0.0514034193 0.1702540177 0.1646832961 -0.5331752966 0.1650086776 -0.5333637735 -0.0275124524 0.1860435393
605296370.0 -0.0495648421 0.1707758106 0.1587361295 -0.5348941325 0.1589927358 -0.5349143212 -0.025517458 0.1863289674
610296340.0 -0.0480306675 0.1711875411 0.1531237664 -0.5365279575 0.1533950595 -0.5366791736 -0.0235497799 0.187190074
615296310.0 -0.0462638596 0.1720543812 0.1469342892 -0.5378749782 0.1474160764 -0.5381766033 -0.021068466 0.1870007299
620296280.0 -0.0444950858 0.1723958983 0.1413026774 -0.5396444324 0.1414785233 -0.5397606739 -0.0192650443 0.1873824287
625296250.0 -0.0428478954 0.172979359 0.1351826605 -0.5414523646 0.1351021748 -0.5418448119 -0.0170713838 0.1878977585
630296220.0 -0.0413299491 0.1737097781 0.1291239596 -0.5426373425 0.1301743846 -0.5426761474 -0.0154776226 0.188491063
635296190.0 -0.03950309 0.1740580259 0.1236042979 -0.5436626859 0.1234558923 -0.5435879353 -0.013850376 0.1884342116
640296160.0 -0.0378556948 0.1744853572 0.118004489 -0.5447617063 0.1178807601 -0.5451332538 -0.0109077674 0.1887028708
645296130.0 -0.0359828025 0.1753853271 0.1116084831 -0.5467435051 0.1119886965 -0.5465089004 -0.0096225171 0.1888310258
650296100.0 -0.0346232957 0.1762297685 0.1063935426 -0.5473888033 0.1061811155 -0.5473406687 -0.007265644 0.1891904907
655296070.0 -0.0330197569 0.1759720319 0.100261303 -0.5485139151 0.1004432145 -0.548537683 -0.0048684757 0.1897127953
660296040.0 -0.0315070824 0.1770446374 0.0943859918 -0.5492568182 0.0944597023 -0.5491981006 -0.0032100481 0.189352123
665296010.0 -0.0294856552 0.1770708889 0.0888083242 -0.5503078898 0.0888209066 -0.5506868198 -0.0014247554 0.1899638245
670295980.0 -0.0272410136 0.1775582917 0.0822919282 -0.5510009105 0.082578652 -0.5514179732 0.0006528492 0.1899602656
675295950.0 -0.0258650396 0.1780298262 0.076422226 -0.552511932 0.0769151916 -0.5522701696 0.0029185968 0.1904927003
680295920.0 -0.0241921022 0.1785910932 0.0701847297 -0.5527196668 0.0703523803 -0.5532953236 0.0054189286 0.1903981729
685295890.0 -0.0224322624 0.178738006 0.0645471173 -0.5535387228 0.0641960719 -0.5543639041 0.0074343638 0.1906161891
690295860.0 -0.0204085982 0.179106787 0.058508217 -0.553480086 0.0580918657 -0.5541448057 0.0096815553 0.1905488289
695295830.0 -0.0184530989 0.179336929 0.0517396406 -0.5550539886 0.052059799 -0.5551589821 0.0112457899 0.1908066869
700295800.0 -0.0167709764 0.1799161696 0.046242168 -0.5552623524 0.0464055965 -0.5556646925 0.0134344633 0.1902309322
705295770.0 -0.0150799631 0.1803354988 0.0403396535 -0.5556688743 0.0403694971 -0.5558461993 0.0152347412 0.1905806752
710295740.0 -0.0135693468 0.1807495893 0.0344646037 -0.5558423103 0.0343013007 -0.5562597748 0.0167790779 0.1907229158
715295710.0 -0.0117179183 0.1808810834 0.0284515528 -0.5565011439 0.028500283 -0.5566328814 0.0194600918 0.1902457661
720295680.0 -0.0100634774 0.1809435569 0.0221008922 -0.5565352633 0.0225813183 -0.557025715 0.0218652493 0.1905805557
725295650.0 -0.0079142436 0.1814676121 0.0158652241 -0.5566654713 0.0162490406 -0.5570363656 0.0238314308 0.1905498216
730295620.0 -0.0067045702 0.1813846089 0.0103581648 -0.5569939553 0.0102217597 -0.5568951733 0.0259705596 0.1896361451
735295590.0 -0.0043123591 0.1816880847 0.0046781992 -0.5569547288 0.0046832577 -0.5574268547 0.0279508989 0.1899622795
740295560.0 -0.0025646833 0.1821602567 -0.0015662274 -0.5567285023 -0.001749779 -0.5569838886 0.0301370143 0.1894537487
745295530.0 -0.0009752232 0.1821818515 -0.007687209 -0.5569890188 -0.0074606469 -0.5572250606 0.0319608475 0.1899002591
750295500.0 0.0009549582 0.1823894184 -0.0133635749 -0.5564936058 -0.0134671143 -0.5567104447 0.0342818304 0.189057335
755295470.0 0.0031338521 0.1826046751 -0.0194268086 -0.5561772397 -0.0193152264 -0.5570183641 0.0358365454 0.1893954399
760295440.0 0.0043971811 0.1828235375 -0.0258094667 -0.5563672473 -0.0256247522 -0.5563477339 0.0377324466 0.1887735069
765295410.0 0.0062651651 0.1824739742 -0.0311456006 -0.5553091414 -0.0313530284 -0.5564421902 0.0407246672 0.1887727904
770295380.0 0.0085368337 0.1827416599 -0.0378879067 -0.5552633288 -0.0373950475 -0.5557849003 0.0427833693 0.1884436223
775295350.0 0.0098547556 0.1829618241 -0.0433238522 -0.5546676449 -0.0433339604 -0.5551730643 0.0443004623 0.1874343187
780295320.0 0.0117232633 0.1829945717 -0.0493011623 -0.5542558325 -0.0495034624 -0.554671567 0.0464496639 0.1879295525
785295290.0 0.0137133913 0.1833681928 -0.0554723404 -0.5537470861 -0.0551379633 -0.5538522877 0.0481520594 0.1874086487
790295260.0 0.0154988035 0.1829935583 -0.0616885793 -0.5533523878 -0.0610026732 -0.553471201 0.0506446647 0.1868364711
795295230.0 0.0168393806 0.1833666134 -0.066795336 -0.5523562385 -0.0669512721 -0.5526612065 0.0526475309 0.1870152813
800295200.0 0.0190939575 0.183335691 -0.0736050119 -0.5516835403 -0.073751041 -0.5522111383 0.0546509604 0.1860730515
805295170.0 0.0206309678 0.1830688136 -0.0792181392 -0.5504556009 -0.0790390696 -0.5509964474 0.0566042942 0.1855786438
810295140.0 0.022474596 0.1832375596 -0.0851173172 -0.5501527992 -0.084985574 -0.5509097109 0.0588438232 0.1857269804
815295110.0 0.0244714128 0.1830532371 -0.0912787248 -0.5487593608 -0.0914572981 -0.5490919701 0.0603804789 0.1849585814
820295080.0 0.0259966078 0.1825742219 -0.0964292093 -0.5477568982 -0.0970554298 -0.5484192168 0.062408822 0.1841663589
825295050.0 0.0281181473 0.1825714037 -0.1029394305 -0.5465905794 -0.1027654606 -0.5471000652 0.0649177926 0.1838381277
830295020.0 0.0298363072 0.1828753789 -0.1086819786 -0.545513548 -0.1093889243 -0.5459852381 0.0664306318 0.1828178191
