!Created with skrf (http://scikit-rf.org).
# Hz S RI R 50.0 
!freq ReS11 ImS11 ReS21 ImS21 ReS12 ImS12 ReS22 ImS22
300000.0 -0.0980218061 -0.0724518728 0.6237910512 0.069508447 0.6252488734 0.0735992305 -0.0979704486 -0.084138567
5299970.0 -0.1004283248 0.0134113684 0.6305984886 0.0104967192 0.6307862422 0.0107137416 -0.1021301505 0.012283892
10299940.0 -0.095286584 0.0298580183 0.6343945314 0.015428661 0.6342286677 0.0159871563 -0.0972136394 0.029218889
15299910.0 -0.0883894792 0.0434065839 0.6401919043 0.0203694943 0.6405006649 0.0209256846 -0.0900863213 0.042233414
20299880.0 -0.0794438452 0.0544921213 0.6485066093 0.0238810556 0.6488290214 0.0239564962 -0.0817840355 0.0533205566
25299850.0 -0.0698638754 0.0630391713 0.6578719943 0.0244550701 0.6581974514 0.0252001825 -0.0725249138 0.0618762553
30299820.0 -0.0594864221 0.0691329057 0.6679790308 0.0245433776 0.6673429297 0.0242164945 -0.0625700491 0.0688507051
35299790.0 -0.049511967 0.0742659065 0.6773837244 0.0216925588 0.6776385354 0.0220919336 -0.0524277841 0.073460338
40299760.0 -0.0397148761 0.0770077632 0.6869389177 0.0179534038 0.6868248019 0.0175465453 -0.0436441324 0.0771235164
45299730.0 -0.0305185707 0.0795174623 0.6959514467 0.0119127031 0.695439741 0.0119574806 -0.0340355518 0.0792409247
50299700.0 -0.0216931059 0.0796277994 0.7037018311 0.0043491281 0.7035911438 0.0048531616 -0.0256304645 0.0800459248
55299670.0 -0.0143896346 0.0800189267 0.7108221375 -0.0032003314 0.7106467439 -0.0029181586 -0.0178630362 0.0797935133
60299640.0 -0.0066367487 0.0789274036 0.7173106436 -0.0115265814 0.7175253163 -0.011392244 -0.0101159395 0.0797708528
65299610.0 2.0933e-05 0.0779723501 0.7237756054 -0.0200952262 0.7238398707 -0.0199994242 -0.0035792854 0.0785687217
70299580.0 0.0061065054 0.0758211801 0.7284154166 -0.0294161847 0.7281812243 -0.0295375163 0.0026505365 0.0770899516
75299550.0 0.0116146516 0.0742846582 0.7326134168 -0.0386151957 0.7330320731 -0.0393094859 0.0079816743 0.0758696306
80299520.0 0.0163540569 0.072161461 0.7376680446 -0.0488583677 0.7375091267 -0.0490055013 0.0132826478 0.0727465382
85299490.0 0.021071848 0.0694030289 0.740496523 -0.0586989859 0.7402342868 -0.0584473474 0.0175087889 0.0708853343
90299460.0 0.0246991139 0.0673162253 0.743250222 -0.0687995351 0.7433298376 -0.0689463701 0.022094259 0.0685674891
95299430.0 0.0281189752 0.0654408425 0.7462358221 -0.0793678092 0.7462457282 -0.078881714 0.0253480334 0.0663690557
100299400.0 0.0315715324 0.0627541235 0.7472606358 -0.0893549986 0.747126141 -0.0891959508 0.0282887867 0.0639248606
105299370.0 0.0347272541 0.0600910855 0.7491037484 -0.0990346138 0.7492919949 -0.0996997264 0.0320189617 0.061746405
110299340.0 0.0371786449 0.0577008868 0.7498065892 -0.108857489 0.7503764761 -0.1098230047 0.0347001213 0.05920963
115299310.0 0.0397135362 0.0549957336 0.7506328117 -0.1191991856 0.7506738005 -0.1189314685 0.0373940297 0.0562206686
120299280.0 0.0413553324 0.0526302608 0.7517516036 -0.1292201537 0.7520301957 -0.129535006 0.0387427796 0.054338586
125299250.0 0.0434562173 0.0502062879 0.7521182973 -0.1389916693 0.7518377459 -0.1397832611 0.0413905923 0.0514304309
130299220.0 0.0454227644 0.0479273868 0.7514078119 -0.1489680789 0.7517173988 -0.1497554023 0.043208958 0.0494231216
135299190.0 0.046935819 0.0453559576 0.7517492037 -0.1588838552 0.7508131636 -0.1592807113 0.0443393769 0.0474781636
140299160.0 0.047806497 0.0441201159 0.7507382715 -0.1686366889 0.7509889201 -0.1688377101 0.0463873454 0.0453955522
145299130.0 0.0492342951 0.0416200069 0.7501658738 -0.1785528229 0.7501868935 -0.1783348499 0.0474360826 0.0427141295
150299100.0 0.0505810841 0.0398731834 0.7489647075 -0.1882273199 0.7491194776 -0.188003169 0.0487451693 0.0409214697
155299070.0 0.0512533171 0.0381622363 0.7479003368 -0.198155463 0.7478815916 -0.1982636455 0.0495400693 0.0388157451
160299040.0 0.0525687132 0.035966441 0.7457484234 -0.2067275535 0.7465471052 -0.2075231892 0.0506034521 0.0372063856
165299010.0 0.05287966 0.0343917437 0.7451211525 -0.2170116118 0.744780073 -0.2165789933 0.0517176991 0.034817655
170298980.0 0.0531768588 0.0325588108 0.7419053785 -0.2258466618 0.7426451216 -0.2262672504 0.052689654 0.0327457959
175298950.0 0.0543664 0.0304538968 0.7414429386 -0.2353205229 0.7415552665 -0.2354840784 0.0531437622 0.031279931
180298920.0 0.0552891732 0.0291143322 0.7391153608 -0.2450067417 0.7392660504 -0.2445005053 0.0537556395 0.0300060409
185298890.0 0.0559455867 0.0273076971 0.7369552193 -0.2541026286 0.7363924399 -0.2537433954 0.0542101627 0.02769357
190298860.0 0.056244041 0.0259005554 0.7340877877 -0.2629562484 0.7347560292 -0.2629019725 0.0553235558 0.0263343446
195298830.0 0.0563481519 0.0240368418 0.7317631729 -0.2717743214 0.7316026705 -0.2722679337 0.0558987003 0.0245490435
200298800.0 0.0570360689 0.0227060511 0.7296130563 -0.2801652941 0.7287114165 -0.2807420172 0.056095666 0.0232432751
205298770.0 0.0571349541 0.0211829809 0.7267824865 -0.2896328152 0.726125927 -0.2894238172 0.0564863216 0.0209704011
210298740.0 0.0573898495 0.0196449749 0.723565623 -0.2987543328 0.7231804362 -0.2986965357 0.0568081567 0.0200488476
215298710.0 0.0578760486 0.018611709 0.7207324223 -0.3071897471 0.7207139418 -0.307128856 0.0569196094 0.0185501541
220298680.0 0.0580227775 0.0168744727 0.7170365974 -0.3159503817 0.7172414947 -0.31585808 0.0571455257 0.0172863486
225298650.0 0.0585816299 0.0161845363 0.7135992959 -0.3238706606 0.7136009326 -0.3242625262 0.0576283764 0.0154688733
230298620.0 0.0580943522 0.0148542123 0.7107741686 -0.3329898566 0.7109458192 -0.3331029445 0.0576027511 0.0143132495
235298590.0 0.0584556082 0.0130917577 0.7071666367 -0.3406825648 0.7074823398 -0.3423293165 0.0579214749 0.0125340858
240298560.0 0.0581536306 0.0119141248 0.7038497622 -0.3494381139 0.7035432335 -0.3490772228 0.0580285855 0.0119208589
245298530.0 0.0588264008 0.0112435842 0.6993327806 -0.3583582574 0.6997059957 -0.3582624898 0.05821187 0.0107040896
250298500.0 0.0582117748 0.0095155975 0.6962400298 -0.3658105504 0.6964781851 -0.3654666777 0.0585980171 0.0091222222
255298470.0 0.0581636873 0.0087875179 0.6914614804 -0.3743652604 0.692247832 -0.374752344 0.0584973514 0.0073812993
260298440.0 0.058203914 0.0075530866 0.6875955858 -0.3823350131 0.6882557642 -0.3825426674 0.0592201208 0.0068258569
265298410.0 0.0590151245 0.006982247 0.6838779101 -0.3907761876 0.6837394104 -0.391040778 0.0585050984 0.0054445315
270298380.0 0.0590232017 0.0053052032 0.6789854205 -0.3982866593 0.6796069522 -0.3985578965 0.0587418195 0.0050674574
275298350.0 0.0583988641 0.0045980393 0.6752252811 -0.4071588109 0.6757944262 -0.4068140707 0.0588632664 0.0037321417
280298320.0 0.0585516037 0.0040953273 0.6707012521 -0.4138715905 0.6710546593 -0.414607478 0.0589667712 0.002736845
285298290.0 0.0585821066 0.0028279346 0.6660679421 -0.4213758216 0.6659706531 -0.4224643357 0.0585105276 0.0015814402
290298260.0 0.0588738491 0.0016335569 0.6617462885 -0.4300982096 0.6621384245 -0.4299571313 0.0594919023 0.0006031689
295298230.0 0.058594071 0.0005524867 0.6575767998 -0.4378264438 0.6575437254 -0.4378667206 0.059200281 -0.0003647248
300298200.0 0.0591792074 -0.000252536 0.6530498498 -0.4452517461 0.6527620141 -0.4451655426 0.0588937091 -0.0013007362
305298170.0 0.058796526 -0.0014629932 0.647742808 -0.4529418202 0.6484395004 -0.4532626971 0.0592583078 -0.0022162514
310298140.0 0.0594743164 -0.0024330357 0.6432650673 -0.4606707604 0.6434480746 -0.4613502953 0.0593738442 -0.0029008354
315298110.0 0.0588029736 -0.0036742951 0.6377912081 -0.468417446 0.6386311212 -0.4686378978 0.0598383713 -0.0049592556
320298080.0 0.0584236742 -0.0044261698 0.6328212575 -0.475402248 0.6333457159 -0.4761923271 0.0590932931 -0.0061679592
325298050.0 0.0580844899 -0.0059689696 0.6280886734 -0.4835956177 0.6279784552 -0.4838740787 0.0587641916 -0.0071541553
330298020.0 0.0577608244 -0.006700627 0.6209809289 -0.4910917783 0.6217215543 -0.4908423628 0.0580873966 -0.0083520316
335297990.0 0.0574646401 -0.0077606439 0.6161754726 -0.4978505507 0.6163319815 -0.4978554501 0.0577286582 -0.0090280504
340297960.0 0.0565015994 -0.0082176963 0.6099338429 -0.5050874605 0.610495262 -0.5047227002 0.0570857428 -0.0096092417
345297930.0 0.056263206 -0.0084890007 0.6047109335 -0.5109952087 0.6043831771 -0.5111990423 0.0572595317 -0.0108848445
350297900.0 0.0565684811 -0.0095590874 0.598772216 -0.5177218239 0.5991103332 -0.5183951275 0.0566951433 -0.0109081887
355297870.0 0.0558705207 -0.0103977343 0.5930785997 -0.5250282502 0.5928800719 -0.5252983038 0.0558725381 -0.0118746508
360297840.0 0.0558081761 -0.0108460047 0.5875324204 -0.5316169816 0.5870707854 -0.5314275996 0.0561127538 -0.0122726144
365297810.0 0.0556756172 -0.0117289402 0.5808316694 -0.5380618007 0.5811881086 -0.5384368535 0.0556787901 -0.0126978828
370297780.0 0.0555902712 -0.0122935024 0.5757252578 -0.5444555732 0.5754188501 -0.5449922894 0.0558321017 -0.0132385282
375297750.0 0.0548353514 -0.0125352764 0.5698825375 -0.5507959547 0.5697030504 -0.5513354801 0.0552620161 -0.0136230536
380297720.0 0.0548857868 -0.0139031694 0.5634230264 -0.5570466284 0.5630861159 -0.5574533769 0.0551630767 -0.0145851911
385297690.0 0.0545276033 -0.0142303152 0.5568169687 -0.5629032451 0.5571715323 -0.5634916261 0.0547811231 -0.0152673151
390297660.0 0.0541417004 -0.0148991113 0.5506334592 -0.5702734304 0.5507352757 -0.5705748493 0.0549322145 -0.0159779089
395297630.0 0.0543033707 -0.0160333066 0.5451584041 -0.5752381107 0.5446692144 -0.5759519689 0.0541833284 -0.0162422378
400297600.0 0.0535158102 -0.0161030724 0.5380164913 -0.5820888663 0.5387448058 -0.5823314451 0.0531507948 -0.0172171222
405297570.0 0.0536190798 -0.0169399214 0.5315025048 -0.5882454031 0.5315179804 -0.5880468951 0.0536177904 -0.0172830379
410297540.0 0.0532359548 -0.0175233233 0.5241813355 -0.5932955227 0.5248717073 -0.5939021757 0.0533823394 -0.0183205752
415297510.0 0.053007014 -0.0173662142 0.5188539883 -0.5992427575 0.5189504366 -0.5999163248 0.0527527626 -0.0185542919
420297480.0 0.0528055484 -0.0188970343 0.5120000394 -0.6055150557 0.5122447985 -0.6059861983 0.0529069208 -0.0194792244
425297450.0 0.0530876308 -0.0196583808 0.505743188 -0.61089341 0.5057847132 -0.6110332869 0.0522133704 -0.0195072292
430297420.0 0.0522854931 -0.0198095793 0.4984791495 -0.6171945353 0.498698782 -0.6172710212 0.0517867114 -0.0206478673
435297390.0 0.0524086826 -0.0206961193 0.4917013432 -0.6223166802 0.4914085561 -0.6223678422 0.0511046338 -0.0202324281
440297360.0 0.0522922374 -0.021399243 0.4853389429 -0.6273312772 0.4845767612 -0.6279284101 0.0511943538 -0.0220078833
445297330.0 0.0521710438 -0.0221577637 0.4776778859 -0.6334660786 0.477782886 -0.6332750527 0.0507676215 -0.0221761581
450297300.0 0.0514980687 -0.0226102914 0.4709179437 -0.6384058292 0.4709220549 -0.6388958627 0.0505548454 -0.0221570926
455297270.0 0.0508880639 -0.0235900783 0.4643059043 -0.6440217153 0.4646267327 -0.6439670216 0.0504184587 -0.0229459192
460297240.0 0.0501809854 -0.023852854 0.4563533509 -0.6484550088 0.4562854131 -0.6489492394 0.049610111 -0.0228169399
465297210.0 0.0506166617 -0.0246232837 0.4504673986 -0.6537853934 0.4503739725 -0.6540501588 0.0487477085 -0.0238493031
470297180.0 0.0496692479 -0.0251912715 0.4429001458 -0.6585389299 0.4434005755 -0.6594362093 0.0480058409 -0.0244685566
475297150.0 0.0492686435 -0.0265236549 0.4351857605 -0.6632788989 0.4354887378 -0.6636278719 0.0483288498 -0.0249172808
480297120.0 0.0497198835 -0.0269472915 0.4282553161 -0.6679907867 0.4285824665 -0.6680949977 0.0475536621 -0.0246812298
485297090.0 0.0493782223 -0.0273340524 0.4209895336 -0.6729200722 0.4208122282 -0.6731561592 0.0469558782 -0.0258207421
490297060.0 0.0488943711 -0.0281726567 0.4135897509 -0.6777441158 0.4137210345 -0.6781124538 0.0470281729 -0.0259167793
495297030.0 0.0477499418 -0.0281374049 0.4056166879 -0.6821779764 0.4054666194 -0.6825049014 0.0465137863 -0.0262968774
500297000.0 0.0479349585 -0.029104359 0.398622054 -0.6863660603 0.398204194 -0.6867724655 0.045663593 -0.0271386175
505296970.0 0.0470418334 -0.0296640467 0.3903373244 -0.6908301429 0.3900128091 -0.6907684269 0.0448808466 -0.027183787
510296940.0 0.0468352125 -0.0300458993 0.3832526002 -0.6952350534 0.3838163662 -0.6951732458 0.04522832 -0.027377454
515296910.0 0.0460539196 -0.0305694914 0.3754359283 -0.6998309045 0.3754222147 -0.6994825458 0.0442692707 -0.0278780411
520296880.0 0.0458150954 -0.0314737612 0.3676175243 -0.7032606386 0.3680381076 -0.7035378599 0.0443152107 -0.0285093016
525296850.0 0.0453729079 -0.0325114373 0.3599780269 -0.7075111911 0.3598977272 -0.7078268234 0.0439635037 -0.0287184871
530296820.0 0.0450092363 -0.0324838177 0.3526257953 -0.7105312174 0.3520201982 -0.7114211863 0.0429010321 -0.0296265266
535296790.0 0.0440683664 -0.032983955 0.3442530626 -0.7144797744 0.3447430613 -0.7153666832 0.0426670362 -0.0301721631
540296760.0 0.0437364477 -0.0337684257 0.3368508525 -0.7195782717 0.336062039 -0.7197497792 0.0415077538 -0.0303599241
545296730.0 0.0432495789 -0.033562613 0.3285747696 -0.7221534018 0.3288972276 -0.7234807655 0.0412918386 -0.0311251303
550296700.0 0.042554983 -0.0345562357 0.3211959736 -0.7261821588 0.3214282291 -0.7270917921 0.0405088452 -0.0302942133
555296670.0 0.0423784993 -0.03528509 0.3129797711 -0.7301562503 0.3129153574 -0.7299909523 0.0400477872 -0.031149276
560296640.0 0.0414980897 -0.0355888267 0.3052664287 -0.7329291849 0.3051795155 -0.7329041865 0.0397247833 -0.0312971084
565296610.0 0.0404076695 -0.0360456515 0.2965485573 -0.7367307498 0.2963962589 -0.7368170335 0.0390924585 -0.0320981287
570296580.0 0.0409114733 -0.0364972033 0.2885846546 -0.7396369286 0.2891819878 -0.7396035165 0.0385953008 -0.0316522039
575296550.0 0.0401973946 -0.0361932268 0.2803446587 -0.7422134331 0.2808581773 -0.74300962 0.0382589486 -0.032757211
580296520.0 0.0394606149 -0.0373054867 0.2728427455 -0.7456767119 0.2725499483 -0.7460879794 0.0373129068 -0.0330060159
585296490.0 0.0392544733 -0.037813228 0.2650301269 -0.7489406777 0.2647168341 -0.7489343157 0.0369117223 -0.03376746
590296460.0 0.0379430809 -0.0388465739 0.2562748317 -0.7519932161 0.2558077325 -0.752163576 0.0362879641 -0.0333839139
595296430.0 0.0376119913 -0.0387197831 0.2482932077 -0.7546270307 0.2477266989 -0.7550064987 0.036200719 -0.0342699954
600296400.0 0.0370078489 -0.0387181002 0.2398012436 -0.7569116322 0.2401480942 -0.7571536449 0.035297358 -0.0342242721
605296370.0 0.0367352984 -0.0387193535 0.2316153706 -0.7601479125 0.2316239225 -0.7595530951 0.0344713259 -0.0348075614
610296340.0 0.0354716046 -0.0395578005 0.2235813301 -0.7621345546 0.2234956389 -0.7626192965 0.0341082485 -0.0340472902
615296310.0 0.0353100605 -0.0397742589 0.2145421456 -0.7643486867 0.2147199769 -0.7647265634 0.0339131484 -0.0350456571
620296280.0 0.0346009967 -0.0403186713 0.2066441833 -0.7671100472 0.2065090208 -0.7672311143 0.0332383481 -0.0356612378
625296250.0 0.0342564743 -0.0402929985 0.1981048986 -0.7691899647 0.1980124722 -0.7692882556 0.0328019921 -0.035349002
630296220.0 0.0334593117 -0.04073775 0.1891704557 -0.7716576995 0.1899727672 -0.7716049536 0.0315183504 -0.0359953318
635296190.0 0.0329548353 -0.0410588806 0.1814331104 -0.7724526138 0.1812428969 -0.7724723174 0.0312905772 -0.0365710121
640296160.0 0.0322304714 -0.041326404 0.1733672232 -0.7749181805 0.1729384772 -0.7753415872 0.0310829238 -0.0365867967
645296130.0 0.0317333909 -0.0412847258 0.1642313403 -0.7772729009 0.1647170106 -0.7768115697 0.0290380722 -0.0371337598
650296100.0 0.0308451785 -0.0410818134 0.1564632557 -0.7783747395 0.1562052177 -0.7783005644 0.0296303905 -0.0374348601
655296070.0 0.03011221 -0.0421236486 0.1474042897 -0.7805165374 0.147262004 -0.7801296956 0.0294625436 -0.0372837859
660296040.0 0.0291422821 -0.0417572692 0.139105027 -0.7814647452 0.1388531892 -0.7817596105 0.0282635933 -0.0378846656
665296010.0 0.0292316325 -0.0426439071 0.1303324684 -0.7833568527 0.1309380203 -0.7833100363 0.0273004154 -0.0374587526
670295980.0 0.0291912252 -0.0422621646 0.1221647987 -0.7841334898 0.1225964659 -0.7847176606 0.0265634735 -0.0381910808
675295950.0 0.0281536916 -0.0424360815 0.1128980611 -0.7856671896 0.1136013401 -0.7862173517 0.0266634923 -0.038239679
680295920.0 0.0272828367 -0.0425218483 0.1047280341 -0.7869653506 0.1046919532 -0.7873720765 0.0261918534 -0.0387500678
685295890.0 0.0264067288 -0.0427946317 0.0965865172 -0.7876959685 0.0959914281 -0.7885165803 0.0254148466 -0.0383506238
690295860.0 0.0263456478 -0.0430806271 0.0877821587 -0.7885855416 0.0872536945 -0.7888232318 0.0253388155 -0.0380538503
695295830.0 0.0258882027 -0.0435110598 0.0779880854 -0.7903487412 0.0782002716 -0.7905139891 0.0238575029 -0.038544001
700295800.0 0.0257074623 -0.0434662271 0.0704940574 -0.7910348313 0.0704425455 -0.7914989889 0.0235384097 -0.0395342529
705295770.0 0.0246110379 -0.0436597032 0.0614799611 -0.7914940088 0.0619534921 -0.7915182087 0.0225780207 -0.0392823757
710295740.0 0.0238285455 -0.0433136722 0.0527779292 -0.7923772763 0.0525960884 -0.7916940955 0.0213627041 -0.0392109893
715295710.0 0.0234248705 -0.0435803886 0.0442030992 -0.7925640711 0.0448870645 -0.7931456461 0.0212709335 -0.040156907
720295680.0 0.0226197842 -0.0442645599 0.0358693454 -0.7926089578 0.0361377307 -0.7932998367 0.0213242081 -0.0395319906
725295650.0 0.0221793961 -0.0439889638 0.0265481762 -0.7929564831 0.0271922958 -0.7931287989 0.020619626 -0.0395006125
730295620.0 0.0210541894 -0.0443125675 0.0180627109 -0.7936202001 0.0179594585 -0.793976312 0.0201784496 -0.0407345107
735295590.0 0.0211226911 -0.0440126691 0.0104522021 -0.7937518996 0.0102592779 -0.7938894224 0.0194488956 -0.0398559846
740295560.0 0.0203162044 -0.0441029596 0.0010269374 -0.7931170953 0.0008736395 -0.7935304527 0.0192311992 -0.040285729
745295530.0 0.0198498956 -0.0448271863 -0.0074996524 -0.79402558 -0.0071848005 -0.7940077077 0.0180442935 -0.0401373597
750295500.0 0.0190239806 -0.0444720278 -0.0154278683 -0.7933057085 -0.0161310581 -0.7933065024 0.0183061372 -0.0406112519
755295470.0 0.0188839866 -0.0442991797 -0.0245441312 -0.793194882 -0.0244755836 -0.7939704572 0.0164176442 -0.0403576004
760295440.0 0.0178993727 -0.0444505566 -0.0337271115 -0.7928908662 -0.0334955564 -0.793328754 0.0157725678 -0.0407742187
765295410.0 0.0169813444 -0.0448782549 -0.0411844886 -0.7921210568 -0.0414603561 -0.792728349 0.0165733315 -0.04010322
770295380.0 0.0167813306 -0.0448201438 -0.0505301017 -0.7921438795 -0.0505512539 -0.7925235454 0.0156718118 -0.0402846488
775295350.0 0.0160541369 -0.0448246834 -0.0589445216 -0.7910245976 -0.0586229193 -0.7917773147 0.0146588358 -0.041366802
780295320.0 0.0156926153 -0.0447039044 -0.066947772 -0.7905128059 -0.0675195667 -0.7907172112 0.0140238191 -0.0401699927
785295290.0 0.0144246998 -0.0443641565 -0.0759512259 -0.7893625602 -0.0762345149 -0.7901697761 0.0129409377 -0.0406911563
790295260.0 0.0139365468 -0.044650141 -0.0845099356 -0.78932062 -0.0846680783 -0.7893342899 0.0129183141 -0.0405725174
795295230.0 0.0135628266 -0.0446937084 -0.0926734731 -0.7875187206 -0.0929982373 -0.7879584995 0.0123418738 -0.0395846339
800295200.0 0.0130079614 -0.0444760371 -0.1020708964 -0.7869009795 -0.1021517039 -0.7870449204 0.0119396503 -0.040268591
805295170.0 0.0118962428 -0.0445493048 -0.1103757829 -0.7851874999 -0.1105724889 -0.7856042356 0.0108841897 -0.0404631513
810295140.0 0.0116462407 -0.0446333583 -0.1186630397 -0.7844213288 -0.1191212275 -0.7850796679 0.0104171036 -0.0398811044
815295110.0 0.0109052952 -0.0445258447 -0.1275784465 -0.7830464627 -0.1277190387 -0.7829247821 0.009759534 -0.0407623598
820295080.0 0.0103438452 -0.0447212011 -0.1357645633 -0.7815715551 -0.1363989922 -0.7820724776 0.00885077 -0.0400491258
825295050.0 0.0095050605 -0.0445825838 -0.1443392845 -0.7797055235 -0.1446280035 -0.7800709187 0.0090376557 -0.0397253752
830295020.0 0.0087866723 -0.0443126503 -0.1530134403 -0.7779121981 -0.1536807897 -0.7787974359 0.0080010404 -0.0402557903
