!Created with skrf (http://scikit-rf.org).
# Hz S RI R 50.0 
!freq ReS11 ImS11 ReS21 ImS21 ReS12 ImS12 ReS22 ImS22
300000.0 -0.0483196809 -0.0400212494 -0.0001694219 0.0006695679 -0.0007399124 0.0023574776 -0.7719201989 -0.1206792986
5299970.0 -0.0490022096 0.0158225711 0.0001042868 0.0001938388 7.2922e-05 -7.74256e-05 -0.7849725305 -0.0069103835
10299940.0 -0.0433552377 0.0321345371 -0.0001873968 0.0001868949 5.58016e-05 -5.73671e-05 -0.788367441 -0.0035109624
15299910.0 -0.0351083136 0.0459175627 -6.80832e-05 -0.0002984807 -5.55625e-05 2.46825e-05 -0.7938463148 -0.0016119903
20299880.0 -0.0253948694 0.0573714841 5.65913e-05 0.0001805991 0.0001235933 5.6007e-06 -0.8003744407 0.002159007
25299850.0 -0.0145790614 0.0662721143 -2.89973e-05 -0.0001591098 7.73258e-05 -0.0001789165 -0.8068118488 0.0083229592
30299820.0 -0.0036127386 0.0729218269 -0.0001414929 1.54675e-05 -5.08965e-05 -7.45166e-05 -0.8121405223 0.0162500678
35299790.0 0.0077218835 0.0775794571 -7.47952e-05 9.62793e-05 0.000181483 0.0003317135 -0.8169688459 0.0249988295
40299760.0 0.0190624623 0.0803843012 -0.0001292952 0.0001759774 -0.0001431454 -7.18291e-05 -0.8217044469 0.0341056525
45299730.0 0.0296930843 0.0816077591 -2.92501e-05 -0.0001764108 -0.0001268635 -0.0001263002 -0.8257201595 0.0438447807
50299700.0 0.0391078763 0.0816066711 -0.0002425859 -6.5148e-05 -2.52616e-05 0.0001262647 -0.8275556647 0.054021666
55299670.0 0.048235809 0.0801262859 4.80824e-05 6.11303e-05 -8.81755e-05 -6.86704e-05 -0.8295525411 0.0638194991
60299640.0 0.0568717971 0.0786198927 0.0001660843 1.98781e-05 -0.000186108 7.05554e-05 -0.8299990177 0.0741542024
65299610.0 0.064260951 0.0762504212 -5.68456e-05 0.0001275049 0.0002149113 3.99957e-05 -0.8319149969 0.0840509439
70299580.0 0.0708476337 0.0733337863 9.09595e-05 0.0002677374 7.25241e-05 9.03561e-05 -0.8313926554 0.0941242164
75299550.0 0.0775798282 0.0702331248 7.03945e-05 6.9633e-05 2.42416e-05 -5.44775e-05 -0.8323743862 0.1038601486
80299520.0 0.0829815895 0.066603922 5.6019e-05 -7.23779e-05 -6.61324e-05 -6.39739e-05 -0.831879394 0.1135640845
85299490.0 0.0875889006 0.0625666636 -0.000143608 6.69381e-05 -0.0001453581 -0.0001611 -0.8315023887 0.1236495045
90299460.0 0.0924066928 0.0589905745 -0.0002835074 1.40253e-05 2.39628e-05 -1.99806e-05 -0.8306391648 0.1328806147
95299430.0 0.0963756182 0.0548197317 2.05929e-05 5.77791e-05 -0.0001105822 -6.96993e-05 -0.8291157508 0.1429969948
100299400.0 0.0996607126 0.0512022123 -2.97096e-05 -0.0001282463 -0.0001735632 7.118e-05 -0.8281267991 0.1520396422
105299370.0 0.1030207727 0.0472411208 -6.0122e-05 9.22189e-05 9.19321e-05 8.0054e-05 -0.8264881439 0.1610097356
110299340.0 0.1058145584 0.0433301512 1.55379e-05 -1.66786e-05 -1.71879e-05 0.0001134933 -0.8255606562 0.1708730972
115299310.0 0.1086502069 0.0392912297 -9.20705e-05 7.7592e-05 0.0002525625 -0.0001258254 -0.8243232059 0.1796312299
120299280.0 0.1103007252 0.0353182296 1.2968e-06 0.0001008159 0.0002095948 -5.26072e-05 -0.8225341448 0.1888231043
125299250.0 0.1119981322 0.0315530265 0.0001063972 0.0002012576 -3.99839e-05 8.874e-06 -0.821230364 0.1977638676
130299220.0 0.1137390429 0.0278772569 -2.77157e-05 0.0002076817 -7.7644e-06 0.0001978257 -0.8191045494 0.2064891409
135299190.0 0.1150696108 0.0246259585 5.39077e-05 5.49569e-05 -0.0002640366 7.87215e-05 -0.8172325146 0.216216457
140299160.0 0.1163736314 0.0205849757 -1.02504e-05 6.7436e-05 -5.20535e-05 7.04649e-05 -0.8148288857 0.2246113928
145299130.0 0.1173803867 0.017068702 -0.0001118526 0.0001213664 0.0001162727 3.5386e-06 -0.8131489364 0.2343135671
150299100.0 0.1181733418 0.013767731 5.55567e-05 0.0003009093 -0.0002036553 -0.0001004726 -0.8113981496 0.2432181208
155299070.0 0.1190239132 0.0103367615 0.0001530256 0.000321669 0.0001552673 -1.66805e-05 -0.8080298964 0.2520782264
160299040.0 0.1193497358 0.0072089228 9.42252e-05 -9.36475e-05 5.6492e-06 0.0002006249 -0.8056815764 0.2606583073
165299010.0 0.1198160817 0.0038058322 8.60238e-05 8.39817e-05 1.18442e-05 -3.4165e-05 -0.8034171649 0.2692828776
170298980.0 0.1200529101 0.0011422708 7.3035e-05 9.4324e-06 -0.000158665 -0.0001231477 -0.8004887952 0.2779653681
175298950.0 0.1203669719 -0.0023271003 7.22758e-05 -5.68417e-05 -1.71617e-05 -2.2529e-05 -0.7976814229 0.2868162973
180298920.0 0.1204338218 -0.0049784948 -8.96621e-05 -4.31754e-05 5.07145e-05 0.0001076075 -0.7948857021 0.2953399384
185298890.0 0.1204563001 -0.0081598728 5.08358e-05 -0.0002103607 -1.55577e-05 -0.0001347544 -0.7908611933 0.3036228778
190298860.0 0.1207031397 -0.0108667682 0.0001735841 -9.3007e-06 0.000157992 6.81329e-05 -0.7888863107 0.3121331262
195298830.0 0.1201175685 -0.0138727409 -7.09631e-05 -9.64614e-05 -2.75374e-05 5.10616e-05 -0.7854221692 0.3205324643
200298800.0 0.1201345372 -0.0163722536 5.73221e-05 6.7879e-06 -0.0002299298 -1.40483e-05 -0.7821974578 0.3282533639
205298770.0 0.1197160842 -0.0192053298 0.0002487593 9.55553e-05 3.48745e-05 -0.0002147961 -0.7783903589 0.3373932789
210298740.0 0.1193399036 -0.0216086642 0.0001509322 0.0002485663 6.1797e-06 8.29236e-05 -0.7746909945 0.3458469163
215298710.0 0.1184910405 -0.0240918894 6.75007e-05 -0.0001477601 3.49114e-05 0.0002361906 -0.7714210795 0.3536107169
220298680.0 0.1181194583 -0.0269735131 -0.0001535273 -9.88909e-05 8.83988e-05 -4.30092e-05 -0.7676730528 0.3615589018
225298650.0 0.1174817594 -0.0293042239 0.0001468842 8.39241e-05 -3.70923e-05 -6.74639e-05 -0.7641241554 0.3694543467
230298620.0 0.1170513254 -0.0315419179 0.0001429359 8.58212e-05 0.0001785643 6.86615e-05 -0.7599621489 0.3779675177
235298590.0 0.1163514491 -0.0339044016 -0.0001059262 5.2916e-05 8.53932e-05 0.0002993874 -0.7554768699 0.386718938
240298560.0 0.1156428185 -0.0363299688 -1.72759e-05 -9.5168e-06 0.0001827421 0.0002198264 -0.7518840061 0.3950183512
245298530.0 0.1150873792 -0.0386060179 8.0056e-06 -2.01991e-05 2.50344e-05 -6.82636e-05 -0.7477339147 0.4019305608
250298500.0 0.114234837 -0.0407137979 2.08217e-05 9.39555e-05 4.92791e-05 -9.88314e-05 -0.7434722829 0.4101022149
255298470.0 0.113197316 -0.0431597837 1.92108e-05 4.59956e-05 4.2962e-06 0.0001005889 -0.7385469814 0.4178378638
260298440.0 0.1121658091 -0.044850681 -5.33763e-05 0.0001750488 1.79531e-05 5.44126e-05 -0.7349034091 0.4258826184
265298410.0 0.1116111955 -0.0468290432 9.15872e-05 4.45783e-05 4.35263e-05 0.0002642111 -0.7301456021 0.4336421394
270298380.0 0.1105990991 -0.0490479993 7.72011e-05 5.22253e-05 -5.31601e-05 8.92331e-05 -0.7258521248 0.4415376622
275298350.0 0.1096846485 -0.0507246699 -2.81675e-05 -0.0001187319 -0.0002090264 0.0001191936 -0.7211687982 0.4485412382
280298320.0 0.1090401412 -0.0529449109 4.95479e-05 3.93144e-05 0.0001035172 1.29202e-05 -0.7159824301 0.4560509501
285298290.0 0.1081762228 -0.0547008952 0.0001098803 0.0001400242 8.24205e-05 -3.80948e-05 -0.710660309 0.4635622172
290298260.0 0.1070699147 -0.0567693928 -1.88809e-05 3.93755e-05 -7.09308e-05 1.20985e-05 -0.7063823826 0.4711671727
295298230.0 0.1060657693 -0.0587203259 0.0001893437 9.71867e-05 0.0001249053 7.28371e-05 -0.7015510998 0.4782688526
300298200.0 0.1052745836 -0.0604793715 0.0001237222 9.75766e-05 6.90655e-05 0.0001168419 -0.6963548567 0.4856897636
305298170.0 0.1040291559 -0.0623483997 0.0003125059 0.0001923666 -1.45317e-05 -9.0121e-06 -0.6906467885 0.4935063031
310298140.0 0.1030851024 -0.0638915914 9.41643e-05 -0.0002294252 6.39113e-05 7.4493e-05 -0.686344077 0.5002288023
315298110.0 0.1019983618 -0.0659483541 8.9641e-05 0.0002383317 -2.09359e-05 6.8533e-05 -0.6807471211 0.5071263843
320298080.0 0.100855212 -0.0680914673 5.06612e-05 0.0002669891 0.0001134875 0.0003252507 -0.6753093363 0.5147283024
325298050.0 0.0996104181 -0.0694928759 0.0002804415 0.0001287967 0.0002395256 -0.0001049845 -0.669615385 0.5211046898
330298020.0 0.0981605493 -0.0718609937 -3.97303e-05 8.80443e-05 -1.0776e-06 -9.10375e-05 -0.6644915623 0.5286760186
335297990.0 0.0966723043 -0.0730075777 7.699e-05 9.7015e-06 0.0002265103 0.0003143885 -0.6594490683 0.5357953618
340297960.0 0.0949455265 -0.0745052908 -1.2131e-06 0.0001631938 -0.0002001534 0.0001842268 -0.653297787 0.5423509882
345297930.0 0.093517633 -0.0758194091 -0.0002688867 -9.06789e-05 3.38191e-05 0.0001122885 -0.6481712847 0.548748295
350297900.0 0.0920523466 -0.0771172012 0.0001742916 0.0001929202 0.0001339637 0.0002037974 -0.6421204636 0.5554660916
355297870.0 0.0909464103 -0.0786184198 0.0002221522 0.0001092309 0.0002430249 -6.33744e-05 -0.6361878206 0.5614340183
360297840.0 0.0894578103 -0.079992654 6.5566e-05 -0.0001132281 -1.59845e-05 -0.000119308 -0.6300146633 0.5692484128
365297810.0 0.0878035921 -0.0809471366 8.97508e-05 3.6395e-06 3.95924e-05 7.07354e-05 -0.6238656345 0.5751313069
370297780.0 0.0865774527 -0.0825227601 3.12654e-05 -8.36016e-05 -3.15606e-05 1.05046e-05 -0.6178895373 0.5816043075
375297750.0 0.085327822 -0.083492882 0.0002694048 0.0002567448 -3.18417e-05 -6.1455e-06 -0.6122570463 0.5870746896
380297720.0 0.0838042384 -0.0850066327 0.0002504702 -6.0879e-06 0.0001303491 -5.09578e-05 -0.6063289252 0.5939373746
385297690.0 0.0824335314 -0.086023047 1.93835e-05 -0.0001287319 -0.0001591303 3.89296e-05 -0.5998837474 0.6005914469
390297660.0 0.0808739193 -0.0870407685 0.0002770568 0.0001510001 0.0002795338 -0.000106381 -0.5937054005 0.6065675544
395297630.0 0.0795488267 -0.0885927878 0.0001934441 0.000164693 6.03859e-05 -6.57732e-05 -0.5867272447 0.612744789
400297600.0 0.0784830685 -0.0893345149 -5.01009e-05 2.10978e-05 -5.59897e-05 3.22623e-05 -0.5811716698 0.6189874719
405297570.0 0.0766013857 -0.0903391746 -0.000136089 1.83529e-05 3.89039e-05 -0.0001544709 -0.5743200673 0.6245623493
410297540.0 0.0752060347 -0.0915949111 -4.91062e-05 1.30329e-05 0.0001296952 -9.81428e-05 -0.5673675416 0.6306811379
415297510.0 0.0738247345 -0.0929695376 -4.14029e-05 0.0001340739 0.0001409272 0.0001423652 -0.5614301168 0.6360644264
420297480.0 0.0719942512 -0.0935285415 0.0001469875 0.0002141476 1.87903e-05 -7.25204e-05 -0.5544422773 0.6421159062
425297450.0 0.0707936371 -0.0946977937 0.0001869492 -0.0003340705 0.0001294068 -5.40873e-05 -0.5478402513 0.6475891013
430297420.0 0.0693568004 -0.0958820629 -4.83439e-05 9.85452e-05 8.53697e-05 4.30499e-05 -0.5413869226 0.6530607516
435297390.0 0.0676864578 -0.0966199859 6.44299e-05 -5.16365e-05 0.0001496473 -6.48984e-05 -0.5338968187 0.6586090277
440297360.0 0.0661597958 -0.0976703721 -2.95896e-05 6.3564e-05 0.0001112154 0.0002330186 -0.5278739474 0.6634512432
445297330.0 0.0647202248 -0.0986883131 0.0002741698 -0.0001976498 -0.0001659948 0.0001132867 -0.5206677478 0.668978099
450297300.0 0.063102976 -0.0993803497 -0.0001204003 0.0001768954 -6.72815e-05 -5.0494e-05 -0.5132697801 0.6741535974
455297270.0 0.0615615111 -0.1000900248 3.30076e-05 0.0001772494 0.0001616726 -1.16e-07 -0.5069353733 0.6790403879
460297240.0 0.0599848407 -0.1009502024 -4.01729e-05 -6.06952e-05 0.0001456994 0.0002226661 -0.5002025306 0.6844187973
465297210.0 0.05827806 -0.1016050523 -0.000178081 0.0001177141 -9.1822e-06 -4.03565e-05 -0.4921721206 0.6890108665
470297180.0 0.0568370229 -0.1024246476 0.0002127197 0.0002128026 9.1948e-06 -6.18547e-05 -0.48550945 0.6952079495
475297150.0 0.0552327239 -0.1034073177 0.0001669639 -2.93227e-05 0.0001283077 -0.0001104994 -0.4780926738 0.6990455308
480297120.0 0.0533962482 -0.1039562552 6.3028e-06 -0.0001420292 1.30402e-05 9.766e-07 -0.4707326118 0.7042510076
485297090.0 0.0519486843 -0.1048061522 0.0003012838 -0.0003412441 0.0001071913 6.22895e-05 -0.4641437424 0.7088112453
490297060.0 0.0503421189 -0.105059959 0.0002427107 3.5828e-05 0.0001000006 -0.0001004596 -0.4563481368 0.7130527311
495297030.0 0.0485595638 -0.1058036311 6.98075e-05 -2.88815e-05 0.0001172811 -0.000151914 -0.4497949628 0.7181018612
500297000.0 0.0472557484 -0.106319155 -1.00746e-05 8.46716e-05 0.0001091321 -1.06333e-05 -0.4414776653 0.7228362972
505296970.0 0.0458071289 -0.107077118 -6.18954e-05 7.06516e-05 -4.92728e-05 3.16261e-05 -0.4342331521 0.7269321156
510296940.0 0.0439713986 -0.1079793055 -0.000215053 0.0001252958 0.0001794543 -0.0001733827 -0.4266775332 0.7310547208
515296910.0 0.0425145608 -0.10821204 0.0001058538 0.0001003342 -9.80131e-05 -0.0001523384 -0.4191567744 0.7351372693
520296880.0 0.0408960564 -0.1087782675 0.0003011112 3.91106e-05 0.0001532616 7.16003e-05 -0.4118858084 0.7393859212
525296850.0 0.0390652634 -0.1094088129 6.0952e-05 0.0002303749 -2.482e-05 0.0001050904 -0.4046795642 0.7439171218
530296820.0 0.0373803104 -0.1097324813 0.0003688727 -5.92847e-05 0.0001368446 -4.01319e-05 -0.3967568623 0.7475730332
535296790.0 0.0357329855 -0.1099679673 -4.03559e-05 0.0001396292 0.0001960927 0.0002002942 -0.3895216407 0.7515766758
540296760.0 0.0340760955 -0.1104863087 4.97868e-05 6.54063e-05 -0.0001799653 -9.37531e-05 -0.38177339 0.7557124665
545296730.0 0.0321643039 -0.1109928543 6.6252e-05 3.02124e-05 0.0001087657 -0.0001667321 -0.374081226 0.7594547446
550296700.0 0.0310649569 -0.1113685785 -1.88666e-05 0.000159307 -4.5925e-06 -5.8957e-06 -0.3659282851 0.7626420489
555296670.0 0.0291192394 -0.1116004198 -2.92522e-05 0.0002008552 0.0001948941 4.8023e-05 -0.3581286046 0.7666246218
560296640.0 0.0277656198 -0.1117740769 0.0001500255 -6.70745e-05 0.0002608069 -5.42138e-05 -0.3503371497 0.7705397652
565296610.0 0.0257688535 -0.1121999557 0.0001104873 8.20618e-05 5.67505e-05 0.0001308191 -0.3429609398 0.7735997082
570296580.0 0.0239253604 -0.1124683066 7.73704e-05 -2.68718e-05 0.0003265287 0.0002205727 -0.3354163944 0.7771129067
575296550.0 0.0223699931 -0.1125484796 0.0001399956 0.0001316734 0.0001413576 -4.58862e-05 -0.3265097838 0.7808295082
580296520.0 0.0206736384 -0.113039017 0.0001926879 5.58929e-05 0.0002407946 0.00013313 -0.318266782 0.783823456
585296490.0 0.0187105498 -0.1134164654 -0.0001752084 9.86323e-05 0.000270464 8.05149e-05 -0.310662594 0.787072084
590296460.0 0.0178015404 -0.113379102 -1.8796e-05 -0.0002636322 0.0001839736 -0.0001779358 -0.3035458088 0.7898738883
595296430.0 0.0156843161 -0.1133905539 0.0002687434 -1.69247e-05 0.0001641838 2.20452e-05 -0.2950556143 0.7925549962
600296400.0 0.01389685 -0.1136384955 0.0002593993 9.59628e-05 0.0001227444 0.0001231803 -0.2869945237 0.795969798
605296370.0 0.0124939673 -0.1135157767 0.0002936902 -4.34252e-05 1.5948e-06 -3.11924e-05 -0.27829495 0.7985871202
610296340.0 0.0104424887 -0.113648517 0.0002001234 7.65519e-05 0.0002746987 -0.0001384617 -0.2708081726 0.8011473087
615296310.0 0.0091767521 -0.1139907344 0.0002326233 -0.000121527 0.0002429404 1.64121e-05 -0.2618854397 0.8039744714
620296280.0 0.0073979153 -0.1139773975 1.57579e-05 4.20952e-05 -9.4109e-06 6.78827e-05 -0.2547470392 0.8063616596
625296250.0 0.0055263998 -0.1140939065 0.0004633439 -0.0002666786 0.00027887 -4.9378e-06 -0.2455149614 0.8085306272
630296220.0 0.0042766903 -0.1142777563 0.0003110765 -6.98529e-05 -0.0002717852 0.0001331871 -0.238276476 0.8114023598
635296190.0 0.0018821155 -0.1137693456 8.08411e-05 -0.0001165425 0.0001309091 0.0001859121 -0.2298839512 0.8137518057
640296160.0 0.0006700037 -0.1138071112 0.0001551544 0.0001210341 0.0001069831 8.46396e-05 -0.2219168489 0.8162855082
645296130.0 -0.0010547227 -0.1135326858 0.0001132177 -0.0002125026 7.92912e-05 0.0002444158 -0.2132172511 0.8187266859
650296100.0 -0.0026492818 -0.1133694726 0.0001367736 -2.23166e-05 -5.1346e-05 8.2703e-06 -0.205187655 0.8195485452
655296070.0 -0.0045015727 -0.1134495958 0.0002326325 0.0002313887 0.000192554 0.0001847759 -0.1964371235 0.8218762535
660296040.0 -0.0061507721 -0.1133553055 0.0001293985 2.13424e-05 0.0002043444 -1.9233e-05 -0.1879059162 0.8239267861
665296010.0 -0.0074318164 -0.1132376986 0.000375509 -0.0002040336 0.0001279531 -0.0001070102 -0.1797790104 0.8257292152
670295980.0 -0.009634867 -0.1129135731 3.56908e-05 0.0001768644 0.0003972828 3.60057e-05 -0.1724263491 0.8274340621
675295950.0 -0.0111013903 -0.1123857967 0.0002955436 -1.59763e-05 0.0001293775 -0.0001243228 -0.1645046189 0.8293001008
680295920.0 -0.0127909297 -0.1122765721 0.0001420954 -5.4057e-06 0.0001947188 -0.000140931 -0.1553958204 0.8316237778
685295890.0 -0.0142622788 -0.1118865113 9.746e-07 -3.88399e-05 0.000418351 -1.97518e-05 -0.1468660826 0.8323648629
690295860.0 -0.0157881398 -0.1118853545 -7.83789e-05 0.0001018838 1.9498e-05 -0.0001216466 -0.1390267483 0.8340192318
695295830.0 -0.0178346428 -0.1115385549 0.0001286399 -0.0001250928 -3.1855e-06 -4.60717e-05 -0.1302202636 0.8349479819
700295800.0 -0.0191954714 -0.1113996316 -1.65546e-05 0.0002122056 0.0001395212 7.38875e-05 -0.1228034545 0.8363088461
705295770.0 -0.0211336465 -0.1105462088 5.17097e-05 0.0001324948 0.000412626 -2.44711e-05 -0.1138181182 0.8378304221
710295740.0 -0.0224223912 -0.1104663038 -3.65897e-05 -0.0001213184 0.0001063982 3.45568e-05 -0.1051088499 0.8384899802
715295710.0 -0.024489631 -0.1103040478 0.0001866586 4.11739e-05 0.000129127 -0.0002985573 -0.0967454977 0.8395717175
720295680.0 -0.0257636123 -0.1094003025 -2.39374e-05 -0.0002854514 0.0001480086 -4.57316e-05 -0.0883453524 0.8406668412
725295650.0 -0.0274111379 -0.1089013276 -0.0001108085 -0.0002175667 6.752e-06 -4.099e-05 -0.0808054572 0.841915696
730295620.0 -0.0290842335 -0.1084150204 -7.70443e-05 -0.0001255495 1.63903e-05 -8.3926e-06 -0.0722230402 0.8419428721
735295590.0 -0.0306312673 -0.1079491394 0.000184127 -8.86649e-05 8.29887e-05 2.21013e-05 -0.0639582451 0.8427701324
740295560.0 -0.032367286 -0.1075328741 0.0003714693 -1.37079e-05 -9.7599e-06 9.71978e-05 -0.0547536478 0.8439347624
745295530.0 -0.0341311285 -0.1071453443 0.0001362894 -0.000186718 0.000154601 -7.7986e-06 -0.0463927979 0.8433348352
750295500.0 -0.0354558212 -0.1065163844 2.8748e-06 -8.56407e-05 0.0001951887 4.7561e-06 -0.0382598184 0.84381842
755295470.0 -0.0373902322 -0.1059089112 0.0001336614 0.0001791293 0.0001019857 -0.0001352862 -0.0296112345 0.8438417601
760295440.0 -0.0389299106 -0.105230717 -6.49696e-05 0.0001282405 0.0002731761 -0.0001941507 -0.0210181811 0.8444328947
765295410.0 -0.040106351 -0.1047709596 -7.05586e-05 0.0001352626 0.0001562671 0.0001715515 -0.0125072913 0.8455340449
770295380.0 -0.0419534472 -0.1041002405 -3.44176e-05 -0.000320244 5.24039e-05 -9.26845e-05 -0.0042357594 0.8450437405
775295350.0 -0.0434841784 -0.1033567487 0.0002703613 -0.0001411017 9.13102e-05 -0.0001303027 0.0033917394 0.8445005785
780295320.0 -0.0449488488 -0.1027040187 0.0001495619 -0.0002674405 1.41802e-05 7.75837e-05 0.0120983551 0.8446104566
785295290.0 -0.0466752172 -0.1022375708 0.0002412032 -2.11804e-05 0.000210449 3.14166e-05 0.0210287234 0.8445672769
790295260.0 -0.0480556661 -0.1011633664 2.1579e-05 -7.45928e-05 0.0002731974 -0.0001086511 0.0296391563 0.8445446532
795295230.0 -0.0492789178 -0.1005338549 0.000137609 -0.0001098173 0.0001234459 -7.10014e-05 0.0380777566 0.8439573099
800295200.0 -0.0510524044 -0.0994854585 5.05496e-05 -0.0002464293 0.0002353951 -3.00722e-05 0.046818248 0.8435516911
805295170.0 -0.0523718206 -0.0989936221 -3.4912e-06 0.0001283963 5.78983e-05 9.6498e-05 0.0547734038 0.8432206739
810295140.0 -0.0538115096 -0.0983052685 0.0002362088 -0.0001713245 0.0001463848 -7.42715e-05 0.0632853633 0.8424880823
815295110.0 -0.0553863435 -0.0975878028 0.0002180637 3.32557e-05 0.0002163792 2.25414e-05 0.0718244809 0.8418600598
820295080.0 -0.0566889892 -0.0964640968 3.98712e-05 -0.0001077185 2.48321e-05 -7.03962e-05 0.080153508 0.841000485
825295050.0 -0.0580184959 -0.0957128079 0.0002558888 -4.96288e-05 5.51322e-05 0.0001326535 0.0877056735 0.8404750931
830295020.0 -0.0595491889 -0.094664787 -6.93794e-05 -5.65108e-05 0.0001211812 4.24734e-05 0.0977124565 0.8393842449
835294990.0 -0.061080536 -0.0936121705 0.0002395871 7.5598e-06 0.0001258582 -6.80705e-05 0.1049786126 0.8384574347
840294960.0 -0.0625684216 -0.0929381166 -5.76525e-05 -0.0001033634 5.60064e-05 -9.95908e-05 0.1130379517 0.8365825646
845294930.0 -0.0636722424 -0.0917241977 -4.73707e-05 -0.0003224242 8.06435e-05 -0.0001107113 0.1210683191 0.8352190124
850294900.0 -0.0649460458 -0.0906644752 8.43046e-05 -0.0001802244 7.26561e-05 6.07566e-05 0.1292952236 0.835013736
