!Created with skrf (http://scikit-rf.org).
# Hz S RI R 50.0 
!freq ReS11 ImS11 ReS21 ImS21 ReS12 ImS12 ReS22 ImS22
300000.0 -0.0483197975 -0.0584512935 -0.0021777112 -0.0008371088 -0.001437789 0.0012008728 -0.7706903663 -0.1721504926
5299970.0 -0.0490452819 0.0155904598 -0.0001834216 -0.0002028902 8.49494e-05 -7.91995e-05 -0.7843876657 -0.0091927482
10299940.0 -0.0432537972 0.0334628897 -0.0001070441 -1.68196e-05 -1.06657e-05 0.0002299789 -0.788007269 -0.0047882333
15299910.0 -0.0349847181 0.047802388 8.84562e-05 -0.0001693223 -9.8312e-05 1.1979e-05 -0.7935769555 -0.0031878267
20299880.0 -0.0246142409 0.0597073048 0.0001539824 8.5608e-05 -0.0001492584 0.0001543926 -0.8005407017 0.0016462547
25299850.0 -0.0131972795 0.0690401591 0.0001393713 0.0001985622 4.30642e-05 0.0001139963 -0.8062452019 0.0076251184
30299820.0 -0.0012572743 0.0757081336 1.16207e-05 -0.0001672674 5.07916e-05 9.11721e-05 -0.8124034734 0.0147852275
35299790.0 0.0102914846 0.0805174845 -5.37944e-05 1.98035e-05 -0.0001280443 -2.32608e-05 -0.817499295 0.0240820045
40299760.0 0.0219169758 0.0834523181 -8.72598e-05 9.81245e-05 -0.0001059459 0.0001759589 -0.8214826016 0.0329620522
45299730.0 0.0325563478 0.0847253616 1.0566e-05 0.0001544936 -9.57744e-05 -8.28193e-05 -0.8251978142 0.0423744052
50299700.0 0.0429606103 0.0844424889 -1.61796e-05 -4.41753e-05 7.38389e-05 -7.14347e-05 -0.8274876395 0.052380414
55299670.0 0.0519602442 0.0834459462 -4.95119e-05 0.0001331988 -3.40216e-05 -0.0001420531 -0.8297425303 0.063389692
60299640.0 0.0607233002 0.081275469 -7.17946e-05 0.0001457216 9.5335e-06 0.0002056347 -0.8305770395 0.0732233935
65299610.0 0.068741616 0.0789094139 3.39881e-05 2.64488e-05 -2.9026e-05 9.70506e-05 -0.8313620869 0.082519107
70299580.0 0.075674531 0.0758086284 -2.41548e-05 8.93493e-05 -2.03293e-05 -5.95199e-05 -0.8323979418 0.0927400832
75299550.0 0.0822371797 0.0720151196 1.27762e-05 -0.0001663644 8.84684e-05 -5.85004e-05 -0.8323107593 0.1024827098
80299520.0 0.0873328417 0.0688596602 0.0001127888 -4.1825e-06 3.49163e-05 -0.0001019781 -0.8316591496 0.1122361561
85299490.0 0.0928750183 0.0646884903 -6.3549e-06 2.18016e-05 -0.0002445956 3.43414e-05 -0.8316307558 0.1218187144
90299460.0 0.0973026172 0.0608940619 -2.93287e-05 1.34309e-05 2.57603e-05 -8.20914e-05 -0.8303440022 0.1311553421
95299430.0 0.1016866216 0.0565899075 8.04771e-05 -6.26774e-05 -0.0002146835 4.68297e-05 -0.8302015587 0.1416818342
100299400.0 0.1049536092 0.052897412 6.4012e-06 4.40838e-05 0.0001215528 -0.0001424784 -0.8291469501 0.14974175
105299370.0 0.1083331161 0.0488173413 -5.42679e-05 5.4785e-06 -8.78303e-05 -0.000175471 -0.8277938879 0.1593850887
110299340.0 0.1108609795 0.0447046161 0.0001286969 0.0001188983 -5.90227e-05 -5.0219e-06 -0.8270244227 0.1684491467
115299310.0 0.1135095798 0.0405227693 6.7087e-06 9.32668e-05 -0.0001945946 -0.0001336256 -0.8248291147 0.1769423614
120299280.0 0.1155910563 0.0368885104 -6.48035e-05 7.95059e-05 -0.0001240106 -3.20939e-05 -0.8235482065 0.1859969291
125299250.0 0.117361822 0.0325549879 0.0001142211 -0.0001376152 -2.04407e-05 0.0001522601 -0.8219928275 0.1957756654
130299220.0 0.1193218339 0.0292099839 -7.34584e-05 -3.3064e-06 0.0001064673 5.45546e-05 -0.8202675022 0.2038873534
135299190.0 0.1206962518 0.0250988999 -0.0001342388 4.53709e-05 -4.30632e-05 0.0001514633 -0.8178607619 0.2126211265
140299160.0 0.122152134 0.0213458152 3.54584e-05 7.04642e-05 0.0002229986 0.000100687 -0.816164379 0.2215136034
145299130.0 0.1229933231 0.0179131098 -1.12439e-05 0.0001789074 8.8347e-06 -3.93868e-05 -0.8135359464 0.2300671769
150299100.0 0.1238133888 0.0140830699 -1.74641e-05 0.0001846122 1.60131e-05 -7.97191e-05 -0.8120444662 0.2389242115
155299070.0 0.1245164177 0.0108560758 -8.24894e-05 -2.70716e-05 -2.67375e-05 1.72182e-05 -0.809475598 0.2478438713
160299040.0 0.1251187845 0.0074416704 -4.6768e-05 6.93604e-05 -0.0001666707 2.50492e-05 -0.8071017703 0.256605343
165299010.0 0.1253289899 0.0042737618 -2.69345e-05 0.0002224638 -5.65089e-05 5.52762e-05 -0.8041653865 0.2650320607
170298980.0 0.1258154779 0.000795467 0.0001671198 8.46982e-05 0.0001227965 -4.3174e-06 -0.801817643 0.2738185496
175298950.0 0.1262481673 -0.0017912165 -3.68928e-05 6.22415e-05 2.6744e-06 -4.98308e-05 -0.7991262089 0.2818290586
180298920.0 0.1262326902 -0.0050767198 0.0001188637 -0.0002452918 0.0001068966 -6.56071e-05 -0.7953259286 0.2904059161
185298890.0 0.1261664564 -0.0084664861 -9.28075e-05 0.0001736009 -8.3153e-05 8.18478e-05 -0.7931109777 0.2981247674
190298860.0 0.1260533354 -0.0112944726 5.6216e-05 1.79647e-05 -3.37314e-05 0.0002156442 -0.7897616571 0.3071942682
195298830.0 0.1262211576 -0.0141888772 -3.59955e-05 -8.132e-07 7.1087e-05 -7.06622e-05 -0.7866036392 0.3153917368
200298800.0 0.1257397834 -0.0167078487 4.33081e-05 4.1333e-05 -5.64584e-05 0.0001815482 -0.7831588255 0.3239162268
205298770.0 0.1253941122 -0.0196353908 0.0001191923 -0.0001325334 0.0001250902 -0.0001043371 -0.7799145803 0.3320095923
210298740.0 0.1251437676 -0.0223735217 0.000105835 0.0001046317 5.46501e-05 -3.79017e-05 -0.7766729366 0.3406210618
215298710.0 0.1248787113 -0.0249161128 -0.0002364989 0.0002352863 3.46805e-05 0.0001331145 -0.7734552048 0.3477299304
220298680.0 0.1243009411 -0.0276097308 7.8624e-06 7.64145e-05 0.0001225795 7.79917e-05 -0.7696682179 0.3567739778
225298650.0 0.1238044885 -0.0301111554 4.19978e-05 -9.43106e-05 8.96609e-05 4.31e-07 -0.7659236889 0.3650348985
230298620.0 0.123262843 -0.0322352057 0.0001607959 7.7134e-05 -0.0001164402 8.29863e-05 -0.7618074194 0.3724663763
235298590.0 0.1222241244 -0.0350583098 6.41123e-05 0.0001167475 5.70352e-05 9.4746e-06 -0.7577278433 0.3806788392
240298560.0 0.1214790322 -0.0372934838 -0.0001220358 9.05781e-05 -2.33649e-05 -5.2542e-06 -0.7542377788 0.3883201149
245298530.0 0.121077837 -0.0396382806 5.28766e-05 0.0001641095 -4.40461e-05 0.000104817 -0.7498327076 0.3965637778
250298500.0 0.1202267224 -0.0418057491 0.0001815525 -0.0001949978 -3.6728e-05 1.34439e-05 -0.7450485689 0.40501337
255298470.0 0.1195594679 -0.0441757762 -4.4038e-06 3.25927e-05 0.0002588536 5.5147e-06 -0.7411287669 0.4127057531
260298440.0 0.1188864654 -0.0462534656 0.0002957983 7.25109e-05 -2.9172e-05 0.0001369574 -0.7370147713 0.4198847767
265298410.0 0.1178212357 -0.0482281163 -5.54771e-05 -4.28317e-05 0.0001166873 6.2682e-05 -0.7322913734 0.427489685
270298380.0 0.1170051724 -0.0501788259 0.0001153758 -0.0001851161 -2.95783e-05 -0.0001356041 -0.72764593 0.4353565648
275298350.0 0.1161349945 -0.0522303821 2.6274e-05 -0.0001346193 1.68854e-05 0.0001695844 -0.7229002058 0.4433684895
280298320.0 0.1152896719 -0.0544314328 0.0003480541 -8.4671e-06 1.36996e-05 8.59621e-05 -0.7184263933 0.4503621448
285298290.0 0.1141017717 -0.0562753189 9.01718e-05 -1.84123e-05 0.0001731419 -0.000112364 -0.7136635899 0.4578357912
290298260.0 0.1131756335 -0.058180224 0.0001845161 0.0001265039 -0.0001074418 -1.27544e-05 -0.708992426 0.4655270408
295298230.0 0.1121725372 -0.0601428932 -3.38191e-05 1.48165e-05 -5.94701e-05 -5.21976e-05 -0.7034602688 0.4730369795
300298200.0 0.1113811784 -0.0626164787 5.29819e-05 0.0001301844 0.0001437254 7.56105e-05 -0.6986093067 0.4800944122
305298170.0 0.1107712475 -0.0640085202 -0.000114292 -4.37548e-05 6.2264e-06 -3.34623e-05 -0.6932502851 0.487696696
310298140.0 0.1092521074 -0.0664282382 0.0001242495 8.0127e-06 -1.1575e-06 0.00014249 -0.6886803889 0.4949268811
315298110.0 0.1076768813 -0.0683802082 9.07039e-05 0.000136316 0.0001568824 -0.0001153691 -0.6830718889 0.5017505285
320298080.0 0.1065755592 -0.0701511486 0.000234212 -0.0001744757 8.82146e-05 0.0002294957 -0.6779092296 0.5091074601
325298050.0 0.1048968728 -0.0717231331 1.27585e-05 -1.27319e-05 -0.0001862531 -3.56129e-05 -0.6721692293 0.5160262085
330298020.0 0.1037231094 -0.0736492906 -1.75799e-05 0.0002309704 -6.32626e-05 -2.10132e-05 -0.6666880307 0.5232369143
335297990.0 0.1021085083 -0.0748195501 -1.0783e-05 -2.98859e-05 -5.01533e-05 5.75358e-05 -0.661282844 0.5297850241
340297960.0 0.1005698061 -0.076491784 0.0001916246 0.0003283211 2.03673e-05 0.0001681983 -0.6554195785 0.537115242
345297930.0 0.0989458396 -0.0778092001 4.08408e-05 0.0001949079 -2.87532e-05 -4.44609e-05 -0.6495458615 0.5434753003
350297900.0 0.0979240726 -0.0793027738 1.12613e-05 -4.2205e-06 0.0001091765 -1.5761e-06 -0.6436608143 0.5510769992
355297870.0 0.0963443048 -0.0807476821 0.000108693 0.0001370326 0.0001565569 0.000149034 -0.6382134674 0.5575233148
360297840.0 0.0952212092 -0.0823315743 0.00021391 -0.0001355565 6.33188e-05 -1.28311e-05 -0.6321112281 0.5635143645
365297810.0 0.0938228642 -0.0836892415 0.0001269156 -3.84133e-05 0.0001019602 4.42624e-05 -0.6260541363 0.5712056068
370297780.0 0.09233504 -0.0848964886 4.77369e-05 0.0001363371 -9.00168e-05 8.0163e-05 -0.6207017766 0.5767510318
375297750.0 0.0909664615 -0.0858100294 0.0001970153 6.69592e-05 0.0002404083 0.0001639254 -0.614523446 0.5837665874
380297720.0 0.0899860308 -0.0873536727 0.0001844478 9.2022e-06 3.68347e-05 -4.427e-06 -0.6080297857 0.5901950844
385297690.0 0.0882719663 -0.088694698 -7.92295e-05 6.74752e-05 -0.00011394 0.0001706155 -0.6021176534 0.5961819901
390297660.0 0.0871175118 -0.0899497653 0.0002555481 7.08402e-05 0.0003007357 5.5523e-06 -0.595180986 0.6016941337
395297630.0 0.0855713979 -0.091258865 6.09236e-05 -8.06313e-05 6.47487e-05 -0.0001299922 -0.5890052583 0.6083812907
400297600.0 0.0837818166 -0.0919959189 9.45991e-05 -3.33777e-05 0.0001824139 8.80998e-05 -0.5828371454 0.6142141513
405297570.0 0.082592729 -0.0932511262 6.39783e-05 -2.7905e-05 0.0001453102 7.00327e-05 -0.5774958032 0.6201644951
410297540.0 0.0809723912 -0.09440627 6.93891e-05 0.0001004695 0.00014635 -4.524e-06 -0.5699385511 0.6258439165
415297510.0 0.0796405249 -0.0955394431 7.87411e-05 3.46371e-05 0.0001237743 0.000122451 -0.5634582958 0.6318160387
420297480.0 0.0780400108 -0.0967105573 9.89894e-05 4.14145e-05 0.00014523 -0.0001546383 -0.5571376626 0.6368044721
425297450.0 0.0765353507 -0.0978701596 9.41665e-05 -0.0001004748 5.29063e-05 0.000172444 -0.5500223976 0.6432831561
430297420.0 0.0749860157 -0.098924939 0.0002242709 -0.0001926258 8.44035e-05 0.0002255294 -0.5439645289 0.648864619
435297390.0 0.0734585062 -0.0996962674 0.0001884313 0.0001999716 0.0001845898 6.82126e-05 -0.5366850554 0.6537107864
440297360.0 0.0719537802 -0.1006749862 -0.0002424518 4.95982e-05 0.0001592915 -7.29994e-05 -0.5303341378 0.6590439027
445297330.0 0.0703847276 -0.101587031 -7.99617e-05 0.0003047825 0.0001106082 7.1784e-05 -0.5235309937 0.664429022
450297300.0 0.0685790461 -0.1026829327 -3.63165e-05 0.0001787127 -1.82173e-05 5.80674e-05 -0.5173318083 0.6698048103
455297270.0 0.0673286381 -0.1034037468 0.0001749218 -1.44318e-05 -3.31899e-05 6.77494e-05 -0.5098944546 0.6754654031
460297240.0 0.0655491777 -0.1039980432 7.97563e-05 0.0001287822 0.0001333859 -0.0001613938 -0.5025261775 0.6800127346
465297210.0 0.0641075007 -0.1049760406 0.0001678583 -1.2825e-06 4.75401e-05 9.93606e-05 -0.4961886734 0.6849150809
470297180.0 0.0625951372 -0.1057890839 2.22807e-05 0.0001771223 0.0001872033 -3.86743e-05 -0.4896897436 0.6897350355
475297150.0 0.0608508344 -0.1066579404 -9.5827e-06 7.3908e-05 0.0001531903 -2.2779e-06 -0.4821879599 0.6945628999
480297120.0 0.0591993762 -0.1075360221 0.0001701753 9.42548e-05 4.10209e-05 -7.27187e-05 -0.4751768612 0.700116152
485297090.0 0.0578336459 -0.1080491065 -1.80984e-05 -0.0002929208 0.0001520188 -2.94036e-05 -0.4678458466 0.704225555
490297060.0 0.0561832206 -0.1089280958 0.0001326548 0.0002012213 9.23649e-05 0.0001047759 -0.4608647278 0.7083788614
495297030.0 0.0545909815 -0.109519711 5.63806e-05 -0.0002410578 -8.31902e-05 -3.43357e-05 -0.4532569702 0.7126733827
500297000.0 0.0530690596 -0.1103275095 4.1389e-06 -1.753e-07 0.0001610615 -0.0001056137 -0.4466036739 0.7182961412
505296970.0 0.0509046725 -0.110628653 0.0001987733 3.94272e-05 0.0002942864 0.000119273 -0.4397317811 0.7218078356
510296940.0 0.0496585322 -0.1112618017 -6.39905e-05 1.07741e-05 0.0001058294 8.5728e-06 -0.432030237 0.7263604742
515296910.0 0.0477268019 -0.1120376344 0.0001080358 -0.0002589217 9.2398e-06 -0.0001131787 -0.4243607055 0.730648695
520296880.0 0.046303717 -0.1125414456 0.0002219298 9.16583e-05 5.14979e-05 9.34546e-05 -0.4173304204 0.7346538038
525296850.0 0.0447089841 -0.1129456319 0.000170368 0.0001555301 9.41785e-05 -4.95734e-05 -0.4095428099 0.7394841638
530296820.0 0.0427582559 -0.1134860062 0.0006026059 0.0001684787 0.000195986 0.0001517743 -0.4030933574 0.742538241
535296790.0 0.0413953383 -0.1138610521 -0.0001306125 -3.31884e-05 0.0001110789 6.1962e-06 -0.3956873822 0.7464331346
540296760.0 0.0394727395 -0.1148341043 0.0002547806 3.243e-05 4.18156e-05 -2.00999e-05 -0.3879795186 0.7506173135
545296730.0 0.037847551 -0.1146777259 7.21553e-05 -0.0001322606 9.85745e-05 -0.0001440271 -0.3805049019 0.7541263752
550296700.0 0.0360240885 -0.1151590904 7.74227e-05 2.78987e-05 0.000151777 -0.0001271838 -0.372651985 0.7579309064
555296670.0 0.0345860624 -0.1157169227 0.0002236694 2.81197e-05 0.0001213634 6.35408e-05 -0.365534869 0.7614757412
560296640.0 0.0326806429 -0.1160793813 0.0001427431 -5.33549e-05 0.0001113506 1.3175e-05 -0.3576446015 0.7649079627
565296610.0 0.0312185195 -0.1162378433 1.37114e-05 0.0001236743 4.6453e-06 -2.4814e-05 -0.3499025232 0.7687744741
570296580.0 0.0293751703 -0.116765883 0.0002299443 0.0001167091 0.0001365255 -9.70147e-05 -0.3429818517 0.7722184006
575296550.0 0.0279416933 -0.1171037257 0.0002305939 -0.000116503 9.8154e-06 -9.8231e-06 -0.3347058851 0.7757067828
580296520.0 0.0263777732 -0.1172176695 0.0003813014 -0.0001465795 0.0001978827 -2.96802e-05 -0.3268446794 0.7786509922
585296490.0 0.0243463085 -0.1174231985 8.15704e-05 1.49885e-05 -6.92948e-05 -6.82428e-05 -0.3192046232 0.7815111511
590296460.0 0.0226516668 -0.1176770377 -2.26747e-05 -0.0001111685 3.14284e-05 6.94382e-05 -0.3115203329 0.7847476669
595296430.0 0.0209842463 -0.1176837788 0.0003969732 -1.54402e-05 6.96104e-05 -0.000117352 -0.3033548186 0.7878129146
600296400.0 0.0192483269 -0.1179480239 0.0001310012 1.72488e-05 5.98994e-05 -0.0001496098 -0.295893148 0.7913469872
605296370.0 0.0177943841 -0.1180247793 9.82491e-05 -1.57852e-05 7.39875e-05 -0.0001140154 -0.2882056824 0.794262563
610296340.0 0.0160829513 -0.1184134576 0.0001697814 0.0001496764 0.0001833468 -4.79004e-05 -0.2802150013 0.7970638229
615296310.0 0.0143547052 -0.1183829915 0.0002746153 5.58092e-05 0.0001891724 -5.46582e-05 -0.2720653361 0.7995065246
620296280.0 0.0127520709 -0.11848892 0.0002836405 -2.83008e-05 -0.0001267237 3.30911e-05 -0.2644607106 0.8018889058
625296250.0 0.011065265 -0.1184350185 0.0001609476 -0.000169731 -2.05656e-05 -0.0001588004 -0.2564852171 0.8046972933
630296220.0 0.009120929 -0.1185725931 4.22077e-05 -0.0002994168 8.44305e-05 -0.0002555733 -0.248517748 0.8074000431
635296190.0 0.0073577848 -0.1185662164 0.0001927833 -5.30797e-05 -2.30091e-05 -0.000159843 -0.2401454871 0.8092532303
640296160.0 0.0061485681 -0.1183577129 0.0001875618 0.0001097191 0.0003645566 -5.24812e-05 -0.2320444169 0.8117060275
645296130.0 0.004150397 -0.1183943934 0.0001211353 -0.0001701774 0.0002331957 6.71557e-05 -0.2248093712 0.8137854811
650296100.0 0.0023600813 -0.1182333679 8.35351e-05 3.26682e-05 -4.53457e-05 1.80997e-05 -0.2163852321 0.8167329211
655296070.0 0.0009016027 -0.1183294996 6.99034e-05 5.57055e-05 7.28308e-05 6.66377e-05 -0.2085051758 0.8182907428
660296040.0 -0.0009388605 -0.1178850722 0.0001741859 1.40402e-05 0.0001351918 0.0001277013 -0.1998832669 0.8202155773
665296010.0 -0.0024359556 -0.1180581345 0.0002114809 -0.0001380002 0.0002512727 0.000220285 -0.1926139427 0.8222271493
670295980.0 -0.0040270675 -0.1178704782 0.0003016487 0.0001068943 0.0002217023 0.00011511 -0.1847643057 0.823854359
675295950.0 -0.0056558068 -0.1173986265 2.2723e-05 0.0001019171 0.0002444877 -4.95416e-05 -0.1763683217 0.8260912067
680295920.0 -0.0078032834 -0.1171846818 0.0001779904 -3.98723e-05 0.0002853035 -0.0002623469 -0.1675569394 0.8276162384
685295890.0 -0.009216026 -0.1171578362 0.0001099943 -0.0002211907 0.0002733131 -1.14225e-05 -0.1598249943 0.8294422292
690295860.0 -0.0106400061 -0.1168868128 3.49414e-05 1.6866e-05 5.2727e-05 0.0001634429 -0.1516218098 0.8305677034
695295830.0 -0.0125936881 -0.1166424518 6.72232e-05 0.0001762411 0.0002034397 0.0002042246 -0.1430931036 0.8325075706
700295800.0 -0.0141352665 -0.1163942521 0.0001021024 0.0002601576 -8.34756e-05 -0.0001848297 -0.1345761809 0.8327835085
705295770.0 -0.0157693228 -0.1159874782 0.0001428856 1.80148e-05 0.0001161887 -0.0001953344 -0.1274431966 0.8348626693
710295740.0 -0.0173580854 -0.1156304706 0.0001055981 -7.20088e-05 2.66664e-05 0.0001872237 -0.1190441519 0.8365012763
715295710.0 -0.0191919213 -0.1151260908 0.0002777392 0.0001214293 0.0001273782 -6.0413e-05 -0.1102907019 0.8374212622
720295680.0 -0.0206855113 -0.1147957296 0.000225068 -6.73891e-05 0.0002449853 -0.0001520192 -0.1017684025 0.8387650866
725295650.0 -0.0219606573 -0.1142486611 5.57458e-05 -4.92408e-05 0.0001344076 -6.7336e-06 -0.093947282 0.8397574554
730295620.0 -0.0241062288 -0.1141019241 0.0001095853 8.5889e-06 -5.72485e-05 -4.4735e-06 -0.0857786688 0.8404154023
735295590.0 -0.0252997686 -0.1134732893 0.0001956078 2.10849e-05 3.57638e-05 5.0856e-05 -0.0767627841 0.8408510502
740295560.0 -0.0271190927 -0.1129033927 -6.329e-06 0.0001563702 0.000101714 -1.5985e-05 -0.0690209409 0.8412670855
745295530.0 -0.0287822627 -0.112325823 0.0002747788 -2.85611e-05 0.0002449499 -7.72886e-05 -0.0604487088 0.8420681704
750295500.0 -0.030357003 -0.1119587874 5.9267e-05 -6.05667e-05 0.0001371496 -0.0001124321 -0.0521308006 0.8423840581
755295470.0 -0.0316371189 -0.111404393 7.33183e-05 -5.60023e-05 0.000247571 -3.17015e-05 -0.0447890634 0.8433848323
760295440.0 -0.0335431099 -0.1106513258 0.0001428897 -0.0002166548 0.0001394346 -4.25465e-05 -0.03598844 0.8431205947
765295410.0 -0.0351361874 -0.1103248321 -6.31077e-05 5.74839e-05 8.27005e-05 -0.0001348679 -0.0268711924 0.8439546243
770295380.0 -0.0367259288 -0.1096237927 9.14292e-05 2.15053e-05 0.0001210834 -0.00013321 -0.0186490555 0.8441603188
775295350.0 -0.0383618069 -0.1089679325 0.0002261535 -7.81219e-05 7.16393e-05 5.90911e-05 -0.0111430507 0.8440433398
780295320.0 -0.0398215373 -0.108591401 0.000182261 6.1335e-05 0.0002654872 -0.0002039028 -0.002476707 0.8442282124
785295290.0 -0.0412771266 -0.1076018938 0.0001938365 -0.0001715541 6.86574e-05 -0.0001489545 0.0049840585 0.8444662543
790295260.0 -0.0427974363 -0.107030574 0.0003358684 0.0001104601 0.0002734117 -8.67638e-05 0.0146038598 0.8442475512
795295230.0 -0.044071053 -0.1062323771 6.79022e-05 -6.3517e-05 0.0001088053 0.0001333953 0.0224642096 0.8440970669
800295200.0 -0.0454876826 -0.1052190046 0.0002185255 -7.07364e-05 0.000196217 0.0001025861 0.0306654536 0.8437316159
805295170.0 -0.0472279466 -0.1047832565 0.0002217799 -0.0001217552 0.0001134644 -4.37628e-05 0.0388059626 0.8430999374
810295140.0 -0.0487018565 -0.1039805636 0.0001651966 -2.77035e-05 0.0001538704 -8.4644e-05 0.0470526601 0.8440643857
815295110.0 -0.0500012915 -0.1030457621 0.0001052129 3.74432e-05 0.0001175568 -8.35879e-05 0.0552819916 0.8426440499
820295080.0 -0.051565668 -0.1025090979 0.0001458353 -3.77577e-05 0.0001208656 1.85757e-05 0.0636195583 0.8414335738
825295050.0 -0.053091163 -0.1015158763 0.000141497 -5.94175e-05 9.47503e-05 -6.6224e-05 0.0718363482 0.8415858327
830295020.0 -0.054428339 -0.1004868891 0.0001680392 -8.1429e-06 0.000206328 0.0001359044 0.0797951262 0.8404698288
835294990.0 -0.0560587572 -0.0997656387 5.91074e-05 -0.0002290341 0.0002046838 -2.47438e-05 0.0887157106 0.8396856392
840294960.0 -0.0574169706 -0.0991975137 0.0001226319 -2.0449e-05 3.75854e-05 0.0001006714 0.0967256996 0.838941568
845294930.0 -0.0588472823 -0.0978243611 4.09e-05 -0.0001366265 0.0003395273 3.90932e-05 0.1050077204 0.8375969266
850294900.0 -0.0599778706 -0.0969050857 0.0001485127 2.58897e-05 -1.48754e-05 6.59422e-05 0.1133424364 0.8371402529
