!Created with skrf (http://scikit-rf.org).
# Hz S RI R 50.0 
!freq ReS11 ImS11 ReS21 ImS21 ReS12 ImS12 ReS22 ImS22
300000.0 -0.2405603143 -0.0910341985 0.470518714 0.061614568 0.4699174887 0.0588552599 -0.2363384101 -0.100693072
5299970.0 -0.2450144201 0.006653802 0.4745476322 0.0047523063 0.4750900915 0.0052493993 -0.2408955804 0.0072858475
10299940.0 -0.2416452643 0.0177281683 0.4767316479 0.0061180544 0.4765599261 0.0062666567 -0.2375612437 0.0205416393
15299910.0 -0.2375125757 0.0269873911 0.4804567473 0.0072621453 0.4805249887 0.007665395 -0.2328331188 0.0299650517
20299880.0 -0.2328101525 0.0343304293 0.4847281448 0.0082430352 0.4848849826 0.008057665 -0.2276200354 0.037897707
25299850.0 -0.2277097249 0.0403242877 0.4902773495 0.0070658376 0.4900494899 0.0069163084 -0.221790728 0.0447923871
30299820.0 -0.2225239689 0.0449248304 0.4956277096 0.0049711762 0.4953248833 0.004929136 -0.2159914133 0.0501296491
35299790.0 -0.2173419826 0.0491368407 0.5008885557 0.0015228766 0.5009146184 0.0016227522 -0.2107357107 0.054480735
40299760.0 -0.2127652311 0.0524822237 0.5058406632 -0.0023803383 0.5060821917 -0.0023643959 -0.2051970611 0.0576483344
45299730.0 -0.2077414437 0.0547695389 0.5103516789 -0.0071736118 0.5105566889 -0.0067384739 -0.2001420743 0.0604808707
50299700.0 -0.2038601769 0.056710138 0.514718256 -0.0125978491 0.5148170217 -0.0120961427 -0.195558526 0.0627304508
55299670.0 -0.1999770344 0.0583395369 0.5186164162 -0.0186728574 0.5186375223 -0.0184667305 -0.1911491277 0.0643846194
60299640.0 -0.1961172284 0.0597055475 0.5217864499 -0.0249720669 0.5218863703 -0.0247685027 -0.1872961899 0.0654290409
65299610.0 -0.1927916579 0.0609132845 0.5244770842 -0.0312638408 0.5247392954 -0.0310468169 -0.1841333021 0.0664899218
70299580.0 -0.1899384474 0.0622036052 0.5271482895 -0.0379888688 0.5271969257 -0.0376883815 -0.1809766387 0.0677748445
75299550.0 -0.1870237475 0.0631960073 0.5289030962 -0.0444111598 0.5290598481 -0.0443324526 -0.1778346739 0.0681272101
80299520.0 -0.1847185569 0.063556657 0.5306676716 -0.0515692135 0.5310961642 -0.0513473969 -0.1754577811 0.0694274098
85299490.0 -0.1823727582 0.0641988114 0.5321501961 -0.0580911629 0.5322582334 -0.0579440518 -0.1729936774 0.0695347246
90299460.0 -0.1801525276 0.0647714757 0.5326369429 -0.0653936235 0.5334781702 -0.0650742081 -0.170648988 0.0703813525
95299430.0 -0.1783236905 0.0652452547 0.534485274 -0.0724933065 0.5340356873 -0.0722304063 -0.1681985106 0.0712386609
100299400.0 -0.1766032546 0.0661369967 0.5336099832 -0.0790503985 0.5342618023 -0.079258424 -0.1661557491 0.0714905603
105299370.0 -0.1748088611 0.0668586258 0.5346307095 -0.0862398425 0.5347985091 -0.0860749208 -0.1641950083 0.0722327753
110299340.0 -0.1733287097 0.0674112034 0.5351734195 -0.0928562757 0.5348364777 -0.0925905521 -0.1627375341 0.0728531873
115299310.0 -0.1718952623 0.0683670211 0.5344514211 -0.10010648 0.5346924189 -0.0996196394 -0.1610804029 0.0738465703
120299280.0 -0.1707918005 0.0684835668 0.5344080686 -0.1063479425 0.5343988495 -0.1063650598 -0.1595190826 0.0744921727
125299250.0 -0.169423104 0.0693516315 0.5341122607 -0.1130735326 0.5341474167 -0.1128857305 -0.1585580371 0.074935146
130299220.0 -0.1685258133 0.0704982271 0.5333334544 -0.1201047492 0.5336475695 -0.1197475972 -0.1569989185 0.0756785586
135299190.0 -0.1672643897 0.0712634762 0.5331519165 -0.1264506549 0.532648011 -0.1261476101 -0.1553985777 0.0767023882
140299160.0 -0.1666203288 0.0720354424 0.5321079088 -0.1334554577 0.5321323088 -0.13336312 -0.1544194935 0.0781495922
145299130.0 -0.1655165671 0.0728235126 0.5316364629 -0.1396584087 0.5309271471 -0.139211863 -0.1533197006 0.0787568416
150299100.0 -0.1644701462 0.0738691467 0.529745563 -0.1455613158 0.530017253 -0.1456479746 -0.1522363402 0.0802984239
155299070.0 -0.163897541 0.0749462983 0.5291014465 -0.1535079323 0.5284768958 -0.1523788306 -0.1509865871 0.0808578012
160299040.0 -0.1629039669 0.0758158447 0.5275480368 -0.1591577532 0.5269057598 -0.1591638659 -0.1506014713 0.0821139729
165299010.0 -0.1620038442 0.0768582399 0.525892351 -0.1658462671 0.5260087834 -0.165711843 -0.1491677471 0.0836547912
170298980.0 -0.1613112276 0.0779678623 0.5242056485 -0.1719531353 0.5245236168 -0.1715449563 -0.1480059017 0.0849229874
175298950.0 -0.1609624588 0.0788285419 0.5228819604 -0.1780169039 0.5225778943 -0.1780231756 -0.1474448786 0.0860800522
180298920.0 -0.1602600849 0.0800617347 0.5208452511 -0.1844689408 0.520866313 -0.1838074003 -0.1466378016 0.0875752612
185298890.0 -0.1587143075 0.0811255449 0.5189228309 -0.1907010129 0.518977837 -0.1904976374 -0.1453620433 0.088819024
190298860.0 -0.1584723072 0.0826467265 0.5178156653 -0.1971526044 0.5175686172 -0.1967470906 -0.1446060909 0.08980021
195298830.0 -0.1578562576 0.0831591914 0.5155069281 -0.2029801002 0.5153670719 -0.2027157821 -0.1435600367 0.0912196412
200298800.0 -0.156677153 0.0847435289 0.5133297059 -0.2090039129 0.5134134875 -0.2089301587 -0.1431747487 0.0925915969
205298770.0 -0.1560271368 0.0859977005 0.5109675189 -0.21536235 0.5110763533 -0.2148086778 -0.141939808 0.0930860364
210298740.0 -0.1557358182 0.0869204345 0.5086286184 -0.2204957135 0.5087952675 -0.2206880582 -0.1408568686 0.0955348708
215298710.0 -0.1551165943 0.0884816806 0.5064817933 -0.2270132398 0.5062702714 -0.2271218382 -0.1405128582 0.0965186791
220298680.0 -0.153951 0.0891395551 0.5030967571 -0.2323216374 0.5039413682 -0.2325206226 -0.1398099518 0.0975409683
225298650.0 -0.153269431 0.0905901452 0.5014195117 -0.2387345136 0.5014868631 -0.2387626581 -0.1388791525 0.098963155
230298620.0 -0.1526421616 0.0921975184 0.4991843809 -0.2441206452 0.4994590434 -0.2445873255 -0.1380324391 0.1003231913
235298590.0 -0.151734694 0.0937728163 0.4965132566 -0.2502407956 0.496552444 -0.2501576565 -0.1370907978 0.1019385947
240298560.0 -0.1510515427 0.095113192 0.4935952002 -0.2562860714 0.4934304883 -0.2558965056 -0.1358654662 0.1034235998
245298530.0 -0.1503296636 0.0961853021 0.4910053178 -0.2616712822 0.491059332 -0.2617770572 -0.1347364892 0.1040044457
250298500.0 -0.1494105796 0.0978420208 0.4875542988 -0.26736675 0.4874566611 -0.2669241179 -0.1342825462 0.1055605334
255298470.0 -0.1486588025 0.0986222292 0.4849480244 -0.2724500408 0.484951499 -0.2725485555 -0.132656845 0.1066159343
260298440.0 -0.1479622098 0.1000828619 0.4819266876 -0.2785256298 0.4819417579 -0.2781203498 -0.131466877 0.1082420539
265298410.0 -0.1467952103 0.1018489436 0.4789490782 -0.2840387043 0.4795726752 -0.2836132771 -0.130753747 0.1097588048
270298380.0 -0.1462455293 0.1029808393 0.4760402396 -0.2887497739 0.4761731998 -0.2888765538 -0.1295751097 0.1109869649
275298350.0 -0.1448638866 0.1042229541 0.4725579748 -0.2946201711 0.4729852796 -0.2947655708 -0.1281134156 0.11230215
280298320.0 -0.14394808 0.1056684515 0.470224712 -0.3002101391 0.4698635638 -0.2999730698 -0.1268599862 0.1137669218
285298290.0 -0.1429587313 0.1070680566 0.4667241121 -0.3052821655 0.4662308815 -0.3052960786 -0.1257205316 0.1150497835
290298260.0 -0.1418983308 0.1083169185 0.4630980907 -0.3107950611 0.4631669122 -0.3106895118 -0.1244541768 0.1163278438
295298230.0 -0.1409128085 0.1094781393 0.4599192852 -0.3155765026 0.459408371 -0.3157555291 -0.1229196157 0.1175177867
300298200.0 -0.1402339531 0.11112863 0.4568332395 -0.3208059602 0.4569279329 -0.3211581156 -0.1216853699 0.1188473385
305298170.0 -0.1389981472 0.1119796076 0.4526626379 -0.3264448919 0.4529556624 -0.3262819294 -0.1198865885 0.1200369761
310298140.0 -0.1379655957 0.113747646 0.4493224153 -0.3313540315 0.4493030276 -0.3314541128 -0.1187796182 0.121559464
315298110.0 -0.1368081558 0.1146488342 0.4456612225 -0.3366752765 0.4459187024 -0.3367232294 -0.1176251972 0.1224601601
320298080.0 -0.1356538531 0.1158228527 0.4414572774 -0.3419083152 0.442121925 -0.3415181891 -0.1164434171 0.1243617538
325298050.0 -0.1349619904 0.1172442173 0.4381713246 -0.3466845602 0.4382362929 -0.3467345708 -0.1153394525 0.12521741
330298020.0 -0.1340659308 0.1182110632 0.4338633759 -0.3515990301 0.4340896411 -0.3518401531 -0.1141631343 0.1266257461
335297990.0 -0.1331288239 0.1196491189 0.4298446934 -0.3564219402 0.4299343668 -0.3566253144 -0.1133237205 0.1285854933
340297960.0 -0.1324422613 0.1213351364 0.4258855657 -0.3615104327 0.4256270597 -0.3617469735 -0.1115148945 0.1298518644
345297930.0 -0.131452722 0.1226787789 0.421421786 -0.3663294657 0.4218596559 -0.3662515465 -0.1101738735 0.130969021
350297900.0 -0.1304695146 0.1236647112 0.4172130253 -0.3708644892 0.417351824 -0.3705539086 -0.1093665284 0.1325397787
355297870.0 -0.1293101355 0.1256520227 0.4134036713 -0.3754076088 0.4140010796 -0.3749102395 -0.1079121833 0.1338110087
360297840.0 -0.1279316953 0.1267947582 0.4094608749 -0.3799315464 0.4098982387 -0.3795088665 -0.1065957701 0.1352758539
365297810.0 -0.127177657 0.1284514023 0.4050258039 -0.3846544696 0.4049709234 -0.3841038214 -0.1049481664 0.1368593549
370297780.0 -0.125796297 0.1294933703 0.4004970687 -0.3886291755 0.4013059107 -0.3884474462 -0.1037803526 0.138430435
375297750.0 -0.1245774118 0.1309257379 0.3966950059 -0.3931658519 0.3971665864 -0.3929433328 -0.1024921392 0.1394181437
380297720.0 -0.1232631495 0.1322562447 0.3921351999 -0.3975394842 0.3924421179 -0.3968267058 -0.1011496501 0.1404010764
385297690.0 -0.1223772587 0.1335016569 0.3876904916 -0.4019026847 0.3881473136 -0.4014653723 -0.0997470204 0.1419476101
390297660.0 -0.1213652427 0.1351156911 0.3834517633 -0.4060002082 0.3834869795 -0.4058776659 -0.0984075483 0.1435866528
395297630.0 -0.1197704383 0.136588687 0.379087941 -0.4102387231 0.3788598417 -0.4101606099 -0.0961911905 0.1442694718
400297600.0 -0.1186531143 0.1377177947 0.3744724515 -0.4144685731 0.3744114278 -0.414545669 -0.0948989781 0.1457092351
405297570.0 -0.1176783448 0.1387969746 0.3701681362 -0.4182908571 0.3700776458 -0.4178167281 -0.0936365851 0.1469121274
410297540.0 -0.1160249337 0.1402841647 0.3651501591 -0.4225274292 0.3657860148 -0.4226487646 -0.0918877298 0.1480522653
415297510.0 -0.1144622359 0.1409872417 0.3602380069 -0.4264296866 0.3612670638 -0.4264214701 -0.0907704383 0.149124748
420297480.0 -0.1135855642 0.1431657162 0.35567018 -0.4310846394 0.3559882425 -0.4303973219 -0.0892168963 0.1500945547
425297450.0 -0.1120108627 0.1436169148 0.3512829163 -0.434252956 0.3515690722 -0.4342818861 -0.0878610909 0.15139821
430297420.0 -0.1106211917 0.1448485615 0.3461842679 -0.4376184105 0.3465712524 -0.4375760385 -0.0861477572 0.1523039988
435297390.0 -0.109533606 0.1463231265 0.341323413 -0.4419220349 0.3413468573 -0.4417771304 -0.083807344 0.1533691429
440297360.0 -0.107896703 0.1472981004 0.3368039414 -0.4455436819 0.3370813399 -0.4454403728 -0.0827205906 0.1545010725
445297330.0 -0.1066124959 0.1482423636 0.3319852915 -0.4493537404 0.3321741043 -0.4489405368 -0.0806222155 0.1550078397
450297300.0 -0.1051952991 0.1495958649 0.3267786055 -0.4526487508 0.3271138882 -0.4529170967 -0.0791244035 0.1560055697
455297270.0 -0.1034727024 0.1507199577 0.3221205125 -0.4562926227 0.3220823655 -0.4563395229 -0.0773105594 0.1573785093
460297240.0 -0.102363925 0.1517893175 0.3166357856 -0.459250682 0.3173247935 -0.4598082525 -0.0756984849 0.1582262678
465297210.0 -0.1008007588 0.1529923404 0.3124244278 -0.4628338493 0.3124181661 -0.463302062 -0.0735713826 0.1588799417
470297180.0 -0.0993310784 0.1541303559 0.3066704903 -0.4662847671 0.3070820354 -0.4664950749 -0.071804623 0.1602379286
475297150.0 -0.0977130395 0.1547796602 0.3017625769 -0.4691860047 0.3017286655 -0.4694233022 -0.0696688982 0.1607733579
480297120.0 -0.0965247664 0.1564641929 0.2967776608 -0.4731029362 0.2965557617 -0.4731899519 -0.0677642785 0.1620677719
485297090.0 -0.094951607 0.1575277085 0.2915817865 -0.4759115315 0.2915369476 -0.4758520583 -0.0658509705 0.1626595616
490297060.0 -0.0935817119 0.1583067457 0.286165214 -0.4797711973 0.2867539199 -0.4793512269 -0.0641108839 0.1638673591
495297030.0 -0.0919948204 0.1592687459 0.2807200279 -0.481955368 0.2816177625 -0.4819716693 -0.0626910665 0.1646193657
500297000.0 -0.0901086803 0.1601960284 0.2754681628 -0.4850419005 0.2755052264 -0.4848249379 -0.0605609319 0.1657882127
505296970.0 -0.0888611512 0.1613274788 0.2704405005 -0.4878543751 0.2703605354 -0.4878445541 -0.0590326745 0.1664489319
510296940.0 -0.0872475114 0.1623986739 0.264963949 -0.4916135556 0.2650271783 -0.4916394129 -0.0570563912 0.167527335
515296910.0 -0.0856535431 0.1635316689 0.2596691709 -0.4943945864 0.2600929778 -0.4941416431 -0.0551493536 0.1685730438
520296880.0 -0.0841862256 0.1642813785 0.2542168941 -0.4972435787 0.2542417497 -0.4969490356 -0.0533073741 0.1690415947
525296850.0 -0.0825865237 0.1648314721 0.248568411 -0.4997708028 0.2495562171 -0.4995372429 -0.051474155 0.1702640205
530296820.0 -0.0807045007 0.1662789145 0.2432455921 -0.5026387345 0.2435774616 -0.5019593932 -0.0498153251 0.1705821865
535296790.0 -0.0798050252 0.1670412158 0.2383721607 -0.5046351016 0.2380367637 -0.5039247835 -0.0478628132 0.1711196414
540296760.0 -0.0780217607 0.1681566347 0.2324002008 -0.5077895184 0.2324558538 -0.5072723242 -0.046156923 0.1723382556
545296730.0 -0.0765204682 0.1689834893 0.2266028345 -0.5093713474 0.2269224963 -0.509737538 -0.0445455373 0.1727788291
550296700.0 -0.0742099389 0.1701507495 0.2215564737 -0.5124559678 0.22162348 -0.5126367416 -0.0425162927 0.1737433106
555296670.0 -0.0730929832 0.1706911583 0.2160433778 -0.5146906457 0.2161100087 -0.5144467849 -0.040445011 0.1746904711
560296640.0 -0.0709707202 0.1717056169 0.2102203437 -0.5171243848 0.2106079784 -0.5169290035 -0.0386683573 0.1748040861
565296610.0 -0.0698859994 0.172593976 0.2045678369 -0.5192934483 0.204639615 -0.518989719 -0.0366617693 0.1750162445
570296580.0 -0.0681273912 0.1733591821 0.1988514911 -0.5216430547 0.1985311269 -0.5215308632 -0.0347422273 0.1764368392
575296550.0 -0.0665756084 0.1748252421 0.1933994699 -0.5237873514 0.1931760596 -0.523518215 -0.0325967445 0.1767837026
580296520.0 -0.0645867422 0.1750632174 0.1875829226 -0.5256701916 0.1877638238 -0.5254574615 -0.0311188388 0.1772212425
585296490.0 -0.0631412687 0.1751130445 0.1819954812 -0.5270526533 0.1821751352 -0.5274783445 -0.0290555971 0.1774824461
590296460.0 -0.061098207 0.1764967377 0.1760661255 -0.5289020807 0.1759186131 -0.5289626041 -0.0273729386 0.1780124042
595296430.0 -0.059369794 0.1771688826 0.1701319957 -0.5317552608 0.1706472047 -0.5311761145 -0.0257021893 0.1781520467
600296400.0 -0.0581561757 0.177776721 0.1647253786 -0.5328831613 0.1649438549 -0.532923642 -0.0234588118 0.1786684177
605296370.0 -0.0559879376 0.1786225827 0.1588310574 -0.5348645757 0.1593299409 -0.5345630603 -0.0212506919 0.1787864973
610296340.0 -0.0543354852 0.1791913438 0.1524770838 -0.5360296576 0.1531475993 -0.5358972758 -0.0191504697 0.1794311297
615296310.0 -0.0526453312 0.179575099 0.1470998727 -0.5375458776 0.1470550461 -0.5382107901 -0.0171791919 0.1793597608
620296280.0 -0.0510141079 0.1801857774 0.1413649104 -0.5392656153 0.1415670976 -0.5390147015 -0.0155934062 0.179792424
625296250.0 -0.0492194032 0.1805809811 0.1359189902 -0.5408070975 0.1355867366 -0.541157091 -0.0125597018 0.1801933988
630296220.0 -0.0467520381 0.1815949009 0.1292286398 -0.5422336219 0.1291518713 -0.541856359 -0.0110084477 0.1805696444
635296190.0 -0.0460681482 0.1820219914 0.1237795357 -0.5434843822 0.1240699206 -0.5436724775 -0.0089657245 0.1805247159
640296160.0 -0.0441211235 0.1826140569 0.1178556164 -0.5443941088 0.1179972032 -0.5449097189 -0.0068145953 0.1809597658
645296130.0 -0.0421270531 0.1835471378 0.1118829642 -0.5456305406 0.1123667041 -0.5461520521 -0.0046998235 0.1812406941
650296100.0 -0.040372015 0.1838798595 0.1060036481 -0.547115389 0.1061597271 -0.5469676368 -0.0026413207 0.1806972867
655296070.0 -0.0386372074 0.1841844236 0.0999759625 -0.5481651823 0.100563215 -0.5482204018 -0.0001661723 0.1812789203
660296040.0 -0.0372796707 0.1846248428 0.0942885178 -0.5487728232 0.0947105627 -0.5496223669 0.0015658224 0.181513913
665296010.0 -0.0346625051 0.1851776724 0.0877611447 -0.5501703933 0.088770656 -0.5498308858 0.0035563459 0.1823059432
670295980.0 -0.0338977 0.1857786671 0.0826061521 -0.5509304208 0.082557011 -0.5509477711 0.0053170487 0.1819801665
675295950.0 -0.0317083849 0.1864813343 0.0769115776 -0.551720711 0.0765152103 -0.5514593253 0.0071216493 0.1824046122
680295920.0 -0.0298748788 0.1865989212 0.0702240141 -0.5525248987 0.0701118266 -0.5527602412 0.009665628 0.1826917289
685295890.0 -0.027900461 0.1874962406 0.0643038118 -0.5532494088 0.0641838033 -0.5532781521 0.0115678841 0.1824938255
690295860.0 -0.0257966273 0.1875756951 0.0585359614 -0.5536010205 0.0583807446 -0.5541798122 0.0135705405 0.1832180083
695295830.0 -0.0243512345 0.1878366907 0.0530378683 -0.5543372434 0.0521131748 -0.5545929957 0.0156816125 0.1827614267
700295800.0 -0.0226198704 0.1879563577 0.0464425707 -0.5546503235 0.0462118776 -0.5547999407 0.0175125989 0.1835316549
705295770.0 -0.0209628674 0.1891098697 0.0406883232 -0.555326301 0.0407195113 -0.5553299842 0.0193857106 0.183376029
710295740.0 -0.0188019098 0.1890806303 0.0347705479 -0.5561287989 0.0347469404 -0.556212075 0.0215339576 0.1827355555
715295710.0 -0.0174163001 0.189307762 0.0292269425 -0.5559502577 0.0287535567 -0.5561403066 0.0237902451 0.1832525454
720295680.0 -0.0152121306 0.1897692787 0.022540594 -0.5564047684 0.0230566156 -0.5563759152 0.0253226126 0.1831232816
725295650.0 -0.0134249758 0.1900853226 0.0166864342 -0.556843473 0.0166709105 -0.5569524623 0.0269321441 0.1832158904
730295620.0 -0.0111913885 0.1907329763 0.0105713463 -0.5569051994 0.0109225437 -0.5568179448 0.0290854454 0.1825534001
735295590.0 -0.0096449913 0.190909259 0.0047666371 -0.5570969031 0.0044947663 -0.5570863983 0.0310090739 0.182188414
740295560.0 -0.0078377745 0.1909039941 -0.0013049574 -0.5567666873 -0.001148933 -0.556741873 0.033619869 0.1824464214
745295530.0 -0.0059913844 0.1914993363 -0.007437296 -0.5564740481 -0.0074427146 -0.5567498162 0.0353263601 0.1816036334
750295500.0 -0.0039707888 0.1915922753 -0.0133248042 -0.556037803 -0.013189633 -0.5565675627 0.0373850747 0.1816098573
755295470.0 -0.0019927271 0.1914335521 -0.0191288041 -0.5560342436 -0.0193844262 -0.5563311285 0.0395196314 0.181094341
760295440.0 -0.0004455034 0.1916294796 -0.0254033027 -0.5563436962 -0.0254199217 -0.5563987292 0.0414248938 0.1807131024
765295410.0 0.0015184673 0.1918289134 -0.031345868 -0.5556778496 -0.0312176125 -0.5558251488 0.0431729041 0.1806392845
770295380.0 0.0029316956 0.1918101784 -0.0373642002 -0.5556065441 -0.0373502085 -0.55519903 0.0453404492 0.1799936382
775295350.0 0.0048297588 0.1916611039 -0.0432707051 -0.5544962971 -0.0427633623 -0.5547499758 0.0466831674 0.1798508025
780295320.0 0.0071169813 0.1920171186 -0.0495346618 -0.5541427006 -0.048590318 -0.5542638253 0.0490523804 0.1791344538
785295290.0 0.0085017886 0.1914877642 -0.055093999 -0.5531461781 -0.0548324947 -0.5536457586 0.051346825 0.1786278803
790295260.0 0.0112677394 0.1924520577 -0.060864972 -0.5527742168 -0.0602810275 -0.5531387388 0.0533670858 0.1784405482
795295230.0 0.0126032932 0.1919946387 -0.0669642324 -0.5519350112 -0.0665483521 -0.552416197 0.0556776589 0.1778798905
800295200.0 0.0141351115 0.1920306458 -0.0738268059 -0.551069571 -0.0730041373 -0.5512940401 0.0575951109 0.177241382
805295170.0 0.0163829641 0.1919554137 -0.0792031951 -0.5503096798 -0.0787981197 -0.5508743689 0.0593413962 0.1769070667
810295140.0 0.0179274194 0.1918225446 -0.0841786096 -0.5491085805 -0.0847449307 -0.5495807686 0.061800765 0.1767157872
815295110.0 0.0199338304 0.1915029505 -0.090533055 -0.5484515004 -0.0903496012 -0.5487371069 0.0634164172 0.1759751389
820295080.0 0.021555952 0.1920007076 -0.0967058321 -0.5476351716 -0.0964030208 -0.5477804102 0.0655172521 0.1753747235
825295050.0 0.0239073064 0.1917368072 -0.1020936463 -0.5461359883 -0.102324411 -0.5463697267 0.0675661193 0.1749623221
830295020.0 0.025669491 0.1917329932 -0.1083226096 -0.544863134 -0.108239974 -0.5452334689 0.0699630184 0.1742169515
