!Created with skrf (http://scikit-rf.org).
# Hz S RI R 50.0 
!freq ReS11 ImS11 ReS21 ImS21 ReS12 ImS12 ReS22 ImS22
300000.0 -0.2438316788 -0.0818900001 0.4731214545 0.0534235749 0.4712281874 0.0513572049 -0.2410782771 -0.0876891713
5299970.0 -0.2450032474 0.0066431304 0.4747451265 0.0050110351 0.4749496643 0.0049585279 -0.2414743032 0.0075874242
10299940.0 -0.2418414472 0.0182195136 0.4769983991 0.0059775646 0.4766247289 0.0062927379 -0.2381195577 0.0207886375
15299910.0 -0.2376170862 0.0268166719 0.4807054504 0.0076898272 0.4805224934 0.0069827798 -0.2336564473 0.0301167705
20299880.0 -0.2329272166 0.0341402237 0.4853274444 0.0082653278 0.4851533065 0.0081306647 -0.2284633974 0.0379211157
25299850.0 -0.2278867252 0.0402525525 0.490312793 0.0072652832 0.490213187 0.0072061068 -0.2222803953 0.044592244
30299820.0 -0.2225760533 0.0448471302 0.4954849038 0.0049482039 0.4953367992 0.0049050846 -0.2163303586 0.0500469493
35299790.0 -0.2173992173 0.0489620681 0.5007477916 0.0012386375 0.5011988228 0.0013644333 -0.2109821764 0.0543393496
40299760.0 -0.2128836164 0.0525612426 0.5061510182 -0.0021992653 0.5060598042 -0.0021849921 -0.2054449711 0.0575053882
45299730.0 -0.2080019426 0.0548926165 0.5105889931 -0.0069473369 0.5111791324 -0.0068470409 -0.2005438436 0.0600085463
50299700.0 -0.2040717924 0.0567288769 0.5151938489 -0.0122016286 0.5151314397 -0.011935842 -0.1954780707 0.0621548078
55299670.0 -0.2000184673 0.0581000552 0.5187448418 -0.0189578528 0.5185280684 -0.0184757595 -0.1914053428 0.0639068462
60299640.0 -0.1960214356 0.0601059087 0.521866482 -0.0252173854 0.5219794701 -0.024634533 -0.1874255089 0.0649062832
65299610.0 -0.1927799542 0.0608704263 0.5246108102 -0.0314356391 0.5248891141 -0.0312907102 -0.1840035488 0.0664921808
70299580.0 -0.189846569 0.0621231484 0.5276241737 -0.0377272537 0.5275359677 -0.037465007 -0.1808109463 0.0673898831
75299550.0 -0.187089083 0.062748815 0.5292634788 -0.0443129641 0.529261044 -0.0446537778 -0.1776332184 0.0681012634
80299520.0 -0.1847993282 0.0634882128 0.5312029467 -0.0515258727 0.5312852458 -0.0514876807 -0.1751229487 0.0689557892
85299490.0 -0.1824374993 0.0641935337 0.5322708471 -0.0582170307 0.5322908652 -0.0577553828 -0.1725536356 0.0696366896
90299460.0 -0.1801142837 0.0647099635 0.533164289 -0.0650126627 0.5334635768 -0.0649009637 -0.1702205635 0.0705653302
95299430.0 -0.1780274399 0.0653398916 0.5342099615 -0.0717453164 0.5342602702 -0.0720449717 -0.1679193891 0.0711256423
100299400.0 -0.1766119861 0.066325929 0.5337870292 -0.0786418698 0.5341340854 -0.0789509134 -0.1657604471 0.0717079449
105299370.0 -0.1748504314 0.0667267654 0.5349624732 -0.0860213109 0.5348254609 -0.0856937197 -0.1638297982 0.0725907462
110299340.0 -0.1735536683 0.067335689 0.5352050797 -0.0922892833 0.5348781588 -0.0924103831 -0.1626384817 0.0732912071
115299310.0 -0.1716493223 0.0680693495 0.534618934 -0.099235954 0.5349852044 -0.0993930512 -0.161029109 0.073700506
120299280.0 -0.1708625536 0.0686150269 0.5346836904 -0.1060208897 0.5348480723 -0.106249235 -0.1596380343 0.0746869948
125299250.0 -0.1696671359 0.0690184119 0.5347068825 -0.1128487018 0.5344459533 -0.112714238 -0.1585506107 0.0752045231
130299220.0 -0.1688729238 0.0703517758 0.5337402663 -0.1199461893 0.5335515081 -0.1195226925 -0.1571950471 0.0761582624
135299190.0 -0.1676592751 0.0711304649 0.5334559984 -0.1261733711 0.5329420281 -0.1259658007 -0.1558198335 0.0770207832
140299160.0 -0.1667786883 0.0721375908 0.5323867789 -0.1332249713 0.532469195 -0.1329258603 -0.1548776052 0.0783941811
145299130.0 -0.165533899 0.0729605641 0.5312552334 -0.1393048054 0.5311374797 -0.139565607 -0.1538046776 0.0793629589
150299100.0 -0.1646084968 0.0740511777 0.5300679828 -0.1455426476 0.5303086311 -0.1457020355 -0.1528241462 0.0805596214
155299070.0 -0.1638824838 0.074597515 0.5292358158 -0.1529377876 0.5290146382 -0.1525914976 -0.1518053199 0.0815947381
160299040.0 -0.1630145578 0.0759128864 0.5276114728 -0.1589224253 0.5274642565 -0.1587938259 -0.1511911986 0.0824833678
165299010.0 -0.1625259757 0.0768205598 0.526069859 -0.1656895914 0.5261471024 -0.1653319542 -0.1497104985 0.0838704096
170298980.0 -0.1616277974 0.0778536487 0.5247781271 -0.1717532545 0.524978701 -0.1719506325 -0.1487279058 0.0848564364
175298950.0 -0.1610299348 0.0791419705 0.5233715067 -0.178127439 0.5228320352 -0.1776918822 -0.1480518085 0.0859976842
180298920.0 -0.1601491081 0.0801224696 0.5213772085 -0.184179458 0.5210987462 -0.1842074678 -0.1470620565 0.0873030702
185298890.0 -0.1589030083 0.0808394585 0.5193189746 -0.190109674 0.519086575 -0.1903988435 -0.1457967087 0.0886723643
190298860.0 -0.158540073 0.0824080076 0.5177136524 -0.1967088932 0.5176877812 -0.1966399032 -0.1454117136 0.0896247327
195298830.0 -0.1581198568 0.083300934 0.5153422433 -0.2023275714 0.5158344047 -0.2024109591 -0.1440767139 0.090925933
200298800.0 -0.1569823771 0.0847221504 0.5132855847 -0.2090355234 0.5136306149 -0.208855368 -0.1437648976 0.0920828554
205298770.0 -0.1564963241 0.0858577324 0.5110791872 -0.2150253735 0.5111758083 -0.2146799619 -0.1424062422 0.0930013552
210298740.0 -0.1556252247 0.0868681321 0.5087387248 -0.2203606845 0.5089117113 -0.2205941889 -0.1412002598 0.0949661864
215298710.0 -0.1553541249 0.0883687103 0.5071147389 -0.2266825049 0.5065595863 -0.2269066502 -0.1407139381 0.0961538813
220298680.0 -0.1540446553 0.0894564958 0.5037351708 -0.2330701312 0.504084129 -0.2325453986 -0.1399199855 0.0971136227
225298650.0 -0.15338645 0.0907960069 0.5016783397 -0.238419025 0.5020916811 -0.2383740135 -0.1388953918 0.0985089772
230298620.0 -0.152700358 0.0921653422 0.4992142539 -0.2440810722 0.4997670344 -0.2439238738 -0.1378426659 0.0997616437
235298590.0 -0.1517646544 0.093473471 0.4968294456 -0.2500007263 0.4966425628 -0.2497194128 -0.136948723 0.1013061241
240298560.0 -0.1511734219 0.0948775581 0.4940448895 -0.2558953842 0.4939787383 -0.2559073336 -0.1357928466 0.1028751473
245298530.0 -0.1503963147 0.0960452485 0.4914798509 -0.2613316968 0.4911379647 -0.2616314774 -0.1345349388 0.1037891852
250298500.0 -0.149084955 0.097416681 0.4877230698 -0.2673273852 0.4878814555 -0.2668140083 -0.1337451938 0.1054357439
255298470.0 -0.148547967 0.0984334485 0.4847409516 -0.2723799862 0.4854131361 -0.2723200642 -0.1325392672 0.1068251745
260298440.0 -0.1481590228 0.0999602961 0.482288268 -0.2784244156 0.482604994 -0.2781712818 -0.1312142261 0.1084216971
265298410.0 -0.1468451342 0.1016872988 0.4798456542 -0.2837544265 0.4796312774 -0.283313162 -0.1303310845 0.1097202905
270298380.0 -0.1458843403 0.1028560023 0.476635988 -0.2887256839 0.4765465697 -0.2888193588 -0.1293786772 0.1113444497
275298350.0 -0.1448319388 0.104367696 0.4731828294 -0.2949548463 0.4733903157 -0.2944806078 -0.1279625482 0.1125267076
280298320.0 -0.1441143049 0.1056594105 0.4698255411 -0.3001506693 0.4704141556 -0.299695628 -0.1265606764 0.1140166212
285298290.0 -0.1431860566 0.1072362286 0.4668024539 -0.3051687046 0.466770887 -0.3053717314 -0.1257246836 0.1152818997
290298260.0 -0.1419013892 0.1082758351 0.4632743047 -0.3098944784 0.4635942253 -0.3106304163 -0.1244042768 0.1170960503
295298230.0 -0.1407829379 0.1095623401 0.4603999423 -0.3159632533 0.4602596245 -0.3155220517 -0.1227820934 0.1181406199
300298200.0 -0.1402283093 0.1108530744 0.4571340725 -0.3206323467 0.4571761892 -0.3209809939 -0.1220239845 0.1195703508
305298170.0 -0.1390145411 0.1121680116 0.4529186486 -0.326354577 0.4530670478 -0.3262370225 -0.1201946551 0.1204550848
310298140.0 -0.1381135813 0.1136972714 0.4498668139 -0.3314585853 0.4500719069 -0.3312460293 -0.1192698505 0.1223317987
315298110.0 -0.1369641303 0.1147189189 0.4460823923 -0.3368854182 0.4458791391 -0.3365371978 -0.1179258416 0.1232409875
320298080.0 -0.1359762781 0.1160821764 0.4417773555 -0.3422842458 0.442612354 -0.3420745422 -0.1165222851 0.1243649193
325298050.0 -0.1352938739 0.1174268522 0.4386065933 -0.3470505878 0.4382452741 -0.3465289117 -0.1156598331 0.1257869134
330298020.0 -0.1344140437 0.1182987421 0.4340343177 -0.3519545197 0.434415353 -0.3517061168 -0.1145765377 0.127158805
335297990.0 -0.1331372671 0.1196606168 0.4301539407 -0.356703242 0.4303892254 -0.3566190351 -0.1137175366 0.1287625922
340297960.0 -0.1326858412 0.1213093172 0.4261081646 -0.3614811764 0.4262650691 -0.3613449156 -0.1120169576 0.1300023138
345297930.0 -0.1315584208 0.1230964591 0.4222118267 -0.3663138243 0.4220831105 -0.3661173011 -0.1107838681 0.1310230223
350297900.0 -0.1304746339 0.1237008831 0.4176818046 -0.3708663031 0.417691033 -0.3707359639 -0.1099758183 0.132934253
355297870.0 -0.1292904896 0.1257642303 0.4137132116 -0.37535771 0.4139245035 -0.3749564608 -0.1088681081 0.1337559712
360297840.0 -0.1282762528 0.1268181736 0.4101584175 -0.3792264174 0.4099109277 -0.3792599799 -0.1071058409 0.1354118472
365297810.0 -0.1273888565 0.1285617107 0.4055770934 -0.3842618677 0.405694108 -0.3844724166 -0.1058281846 0.1367783845
370297780.0 -0.1258941034 0.1295779392 0.4011653166 -0.3887469235 0.4017144045 -0.3883167747 -0.1041532916 0.1377693646
375297750.0 -0.1247004062 0.1308925277 0.3970762529 -0.3929675072 0.3976167579 -0.3929772591 -0.1027923158 0.1390745717
380297720.0 -0.1234100964 0.1320139328 0.3926856969 -0.3972116812 0.3929096676 -0.3968801596 -0.1015837047 0.1399933229
385297690.0 -0.1227739064 0.1335413267 0.3880260562 -0.4013512508 0.3882799005 -0.401433709 -0.0998653216 0.1418417795
390297660.0 -0.1213235578 0.1350809864 0.3841256797 -0.4060301406 0.3838496992 -0.4057037695 -0.0986113908 0.1429653004
395297630.0 -0.1198894633 0.136056626 0.379166048 -0.4097965835 0.3795999212 -0.410244107 -0.0964603441 0.1442348859
400297600.0 -0.1187149182 0.1375046284 0.3744556491 -0.4147644111 0.375112279 -0.4141414934 -0.0949736923 0.1449415777
405297570.0 -0.117457721 0.1387608028 0.3701623371 -0.4178782225 0.3703090416 -0.4180042979 -0.0937514218 0.146787807
410297540.0 -0.1159749475 0.1400208093 0.365901162 -0.4227654462 0.3661290852 -0.4226188765 -0.0922147745 0.1481373343
415297510.0 -0.1147246378 0.1411070116 0.3608415692 -0.4265627018 0.3614995036 -0.4265639977 -0.0906473358 0.1494428316
420297480.0 -0.1134583709 0.1427730534 0.3560965246 -0.4302418758 0.3564621221 -0.4305088712 -0.0890638146 0.1500319447
425297450.0 -0.1122717823 0.1434155213 0.3519871693 -0.4339127303 0.3523391846 -0.4341154424 -0.0875481614 0.1519644982
430297420.0 -0.1108836556 0.1448840693 0.3468723655 -0.4378457763 0.3469277771 -0.4376365691 -0.0859576783 0.1525323363
435297390.0 -0.1095720145 0.146163462 0.3418129011 -0.4416244881 0.3417194339 -0.4416015753 -0.0836223508 0.1537826077
440297360.0 -0.107942998 0.1474185261 0.3368015595 -0.445844447 0.3374042038 -0.4453186327 -0.0824151464 0.1541717683
445297330.0 -0.1069036117 0.1484246572 0.3325034009 -0.4491196116 0.3324820644 -0.4486333469 -0.0805162364 0.1553685346
450297300.0 -0.1053544189 0.149489902 0.3274246846 -0.4531558457 0.3275136403 -0.4530643149 -0.078859217 0.1563149282
455297270.0 -0.1035685346 0.1506790533 0.3225577148 -0.4561230708 0.3230171559 -0.456187358 -0.0774192418 0.157591813
460297240.0 -0.1024497978 0.1516325545 0.3171373125 -0.4598778838 0.3173147406 -0.4595347318 -0.0754525768 0.1590122405
465297210.0 -0.1006253522 0.1527873464 0.3123185864 -0.4631166799 0.3123615453 -0.4632399811 -0.0736634057 0.1595154401
470297180.0 -0.099485995 0.1540151648 0.3069758332 -0.466637716 0.3073858494 -0.4666673596 -0.0718752314 0.1606286399
475297150.0 -0.0979379006 0.15488398 0.3016448371 -0.4691290709 0.3021486958 -0.4694667203 -0.0699438024 0.161387563
480297120.0 -0.0964409536 0.1563475836 0.2968526057 -0.4732228287 0.2969043556 -0.4734333112 -0.0680428838 0.1626150877
485297090.0 -0.0949593514 0.1573775037 0.2921180209 -0.4760093671 0.292287834 -0.4757861168 -0.0663965724 0.1631289555
490297060.0 -0.0940172487 0.1584494663 0.2871917653 -0.4795028437 0.2868576282 -0.4792170046 -0.0647137384 0.164298065
495297030.0 -0.0919944207 0.1596605466 0.2814985445 -0.4823529692 0.2819880753 -0.4823026328 -0.0630796888 0.1652925874
500297000.0 -0.0906660634 0.1604641781 0.2757408061 -0.4851574372 0.2761034037 -0.4849544653 -0.0610713595 0.1666797533
505296970.0 -0.0887087832 0.1615400255 0.2709002357 -0.4879473546 0.2710945415 -0.4882225408 -0.0594103546 0.1671883321
510296940.0 -0.0874376694 0.1622865127 0.2657614932 -0.4912325785 0.2655125107 -0.4914106302 -0.0572373627 0.1680144974
515296910.0 -0.0857233484 0.1635948899 0.2597078685 -0.4943227177 0.260519903 -0.493774364 -0.0556333224 0.1685265728
520296880.0 -0.084192882 0.1643885777 0.2544403313 -0.496877941 0.2547417592 -0.4968081448 -0.0536479145 0.1692151028
525296850.0 -0.0825215825 0.1650406751 0.2488763105 -0.4998279495 0.24933382 -0.4995512087 -0.0520267844 0.170293193
530296820.0 -0.0807598821 0.166201288 0.2437658131 -0.5024540183 0.243832752 -0.5022410402 -0.049745168 0.1706684002
535296790.0 -0.0798095626 0.1673809032 0.2387159625 -0.5046380271 0.2386627506 -0.5040822755 -0.0484134601 0.1712229203
540296760.0 -0.077865806 0.1683696365 0.2328454219 -0.5076331664 0.2329461078 -0.5075341897 -0.0467034418 0.1724879625
545296730.0 -0.0765040908 0.1692619638 0.2273094731 -0.5098724055 0.2272865379 -0.5096431761 -0.044445506 0.1722851403
550296700.0 -0.0744403121 0.1701063828 0.2216415229 -0.5123461895 0.222018536 -0.5123001528 -0.0427297236 0.1734696295
555296670.0 -0.0730445887 0.1708860173 0.2162080199 -0.5143945405 0.2167977236 -0.5147314815 -0.040966997 0.1744969697
560296640.0 -0.0710081185 0.1718709175 0.2107646906 -0.517045318 0.210629693 -0.5168614494 -0.0383771336 0.1744977146
565296610.0 -0.0698966743 0.1726286504 0.2050436582 -0.5189821785 0.2052994445 -0.5191414957 -0.0370569903 0.1747675807
570296580.0 -0.0681358881 0.1733465406 0.1992722335 -0.5218343625 0.1992094252 -0.5213670786 -0.0350113625 0.1759310078
575296550.0 -0.0666623466 0.1744640165 0.1939174849 -0.5237188676 0.1937807127 -0.5234617868 -0.0328254087 0.1761910422
580296520.0 -0.0647509164 0.1749450409 0.1876858334 -0.5254084809 0.1881371368 -0.5254185383 -0.0308075386 0.1770571068
585296490.0 -0.0630255962 0.1754104968 0.1825582034 -0.5271339799 0.1826173301 -0.5277468339 -0.0287093436 0.1774519292
590296460.0 -0.0611351443 0.1764979891 0.176714333 -0.5288531037 0.1766002983 -0.5293765162 -0.0274458253 0.1779374581
595296430.0 -0.0594229849 0.1771850216 0.1706565522 -0.531259519 0.1705704127 -0.5315146363 -0.0252211017 0.1780992319
600296400.0 -0.0581099529 0.1778936378 0.1652813428 -0.5331139822 0.1653443696 -0.5328989693 -0.0233635244 0.1783905328
605296370.0 -0.0562680582 0.178565819 0.1591601414 -0.5348976933 0.1596399925 -0.5345272277 -0.0207293514 0.1791093269
610296340.0 -0.0545339044 0.1792842289 0.1534932318 -0.5362865106 0.153670498 -0.5362173324 -0.0191029698 0.1793394003
615296310.0 -0.0526273463 0.1797794648 0.1472985121 -0.5378212485 0.1474434879 -0.5382851798 -0.0169495432 0.179738126
620296280.0 -0.050876021 0.1802791826 0.1419307862 -0.5393639647 0.1417728189 -0.5394799717 -0.0152477371 0.1802635285
625296250.0 -0.0493377425 0.1807200316 0.1363720169 -0.5411132218 0.1360774479 -0.541191386 -0.0125529209 0.1803142753
630296220.0 -0.0467905934 0.1816772444 0.1295499345 -0.5424012475 0.1297638545 -0.5424702358 -0.0110846868 0.1811222773
635296190.0 -0.0460766717 0.182272199 0.1244191982 -0.5436072968 0.1244244349 -0.5437474157 -0.0091772725 0.1811776802
640296160.0 -0.0441128963 0.1827620997 0.1182701279 -0.5445837535 0.118464125 -0.5450286314 -0.0068707951 0.1813408896
645296130.0 -0.041989497 0.1835752182 0.11214179 -0.5459734285 0.113218288 -0.5462991547 -0.0048700003 0.1819422355
650296100.0 -0.0402584564 0.1840254791 0.106890565 -0.5472410198 0.1065573222 -0.5469153536 -0.0027015409 0.1811195352
655296070.0 -0.0387127279 0.1843282519 0.1006656528 -0.5482199474 0.1011051426 -0.5484855169 -0.000746216 0.1819754262
660296040.0 -0.0371194278 0.1847390406 0.0948120251 -0.549490228 0.0947364818 -0.5497058738 0.001575157 0.1820988561
665296010.0 -0.034814082 0.1849671081 0.088466976 -0.5505027678 0.0890313068 -0.5500681798 0.0036070829 0.1826958957
670295980.0 -0.0339879926 0.1860047558 0.0829024364 -0.5508825508 0.0831354811 -0.5510865895 0.0051145387 0.1825297449
675295950.0 -0.031712611 0.1863986682 0.0768479915 -0.551912146 0.0768340669 -0.5519388658 0.0070828325 0.1829670515
680295920.0 -0.0298735148 0.1866125613 0.070849451 -0.5526395751 0.0707954715 -0.5533199541 0.0089848126 0.1832486411
685295890.0 -0.0276824067 0.1877837388 0.0649692599 -0.5535521271 0.0647396566 -0.5534923587 0.0112413479 0.1828528414
690295860.0 -0.0258776747 0.1877342612 0.0588899867 -0.5538682312 0.0586679114 -0.5544945763 0.0133089381 0.1834629844
695295830.0 -0.0242725187 0.188317715 0.0532673753 -0.5545836994 0.0531550685 -0.5545430138 0.0150549881 0.1831604895
700295800.0 -0.0223562368 0.1882255965 0.0467660806 -0.5548779143 0.0467690679 -0.5549493275 0.0168785316 0.183467095
705295770.0 -0.0208717375 0.1892908891 0.0408974062 -0.5553666328 0.0413037013 -0.5555003046 0.0190106011 0.183277775
710295740.0 -0.0188681256 0.1892669166 0.035169195 -0.5564213396 0.0358004063 -0.5564836714 0.0212535886 0.1828721221
715295710.0 -0.0177510534 0.1894180065 0.0297395409 -0.5562887265 0.0288107419 -0.5564232651 0.0233796617 0.1826922018
720295680.0 -0.015464216 0.189694805 0.023064633 -0.5569140545 0.0235106884 -0.5567666488 0.0251544876 0.1829482933
725295650.0 -0.013336828 0.1901761117 0.0170690956 -0.5567946556 0.0174362301 -0.5569656962 0.026856556 0.1828979503
730295620.0 -0.0112690188 0.1904027364 0.011048345 -0.5565456568 0.0114252451 -0.5570221691 0.0288589944 0.1826022961
735295590.0 -0.0097707271 0.1909809287 0.0049823035 -0.5574298778 0.0050951189 -0.5569702003 0.0310644917 0.1819873437
740295560.0 -0.0080746746 0.1913526151 -0.0009242669 -0.5568570911 -0.0007310243 -0.5572302403 0.0336165593 0.1820820767
745295530.0 -0.0060955961 0.1915791461 -0.006906213 -0.5564124112 -0.0068262546 -0.5568132448 0.0353427583 0.1816348298
750295500.0 -0.0042374845 0.1913957543 -0.0124139514 -0.5562959746 -0.0125647455 -0.5567797933 0.0373328145 0.181747157
755295470.0 -0.002070478 0.1913706803 -0.0187946388 -0.5563315764 -0.0186194849 -0.556506906 0.0397267153 0.1806733767
760295440.0 -0.0008240257 0.1916441825 -0.0247771867 -0.5563539482 -0.0247962516 -0.556767483 0.0414874115 0.1809638299
765295410.0 0.0012829893 0.1919426151 -0.0309952527 -0.5558728973 -0.0312027587 -0.556404389 0.0439565527 0.1807209237
770295380.0 0.0029397456 0.191985031 -0.0368440495 -0.5554590615 -0.0368254838 -0.5554056461 0.0452963525 0.1801814146
775295350.0 0.0046492457 0.1916981813 -0.0430783575 -0.5548910683 -0.0424679758 -0.5551883041 0.0468168083 0.180240276
780295320.0 0.00677272 0.1921587767 -0.0490510593 -0.5545348427 -0.0481875595 -0.5547140218 0.0492594032 0.1793492089
785295290.0 0.0082921607 0.1917182825 -0.0548415445 -0.5534846496 -0.0548707443 -0.554196809 0.0519620953 0.1793009669
790295260.0 0.0110899546 0.192426147 -0.0602166188 -0.5531939326 -0.0600487292 -0.5532358056 0.0537027919 0.1786862432
795295230.0 0.0124491869 0.1920648456 -0.0664638345 -0.5522914239 -0.0660138164 -0.552358362 0.0557181754 0.1785916286
800295200.0 0.0141458364 0.1924035057 -0.0727553043 -0.5516383517 -0.0723887008 -0.5516969905 0.0577430152 0.1776549236
805295170.0 0.0164065604 0.192079274 -0.0787257949 -0.5508226223 -0.0780365666 -0.551261931 0.0594388907 0.1775870844
810295140.0 0.0179292293 0.1918800392 -0.0843657016 -0.5496803313 -0.0843281269 -0.5503482026 0.0618764485 0.1772433311
815295110.0 0.0201177991 0.1918414919 -0.0900055589 -0.5489667022 -0.0897560772 -0.5490196142 0.0633200969 0.1768926138
820295080.0 0.0214959999 0.1924967622 -0.096050803 -0.547904454 -0.095512247 -0.5478588975 0.0654601081 0.1762151047
825295050.0 0.0242074475 0.1920001553 -0.1017456412 -0.5466704439 -0.1017657265 -0.5470604766 0.067451793 0.1757057727
830295020.0 0.0254899456 0.1918961541 -0.1080222834 -0.5452030844 -0.1077740658 -0.5454336556 0.0698494439 0.1747262608
