!Created with skrf (http://scikit-rf.org).
# Hz S RI R 50.0 
!freq ReS11 ImS11 ReS21 ImS21 ReS12 ImS12 ReS22 ImS22
300000.0 -0.7836865074 -0.1256850865 -9.48353e-05 0.0006557489 -0.0004157163 0.0007040443 0.8594679462 -0.0027963783
5299970.0 -0.7851247055 -0.0065321476 -6.41889e-05 -2.49213e-05 -7.67521e-05 3.16048e-05 0.8593463693 -0.0100493299
10299940.0 -0.7875016037 -0.0039774041 -7.64613e-05 -3.50795e-05 4.63382e-05 1.35012e-05 0.85876636 -0.0188402307
15299910.0 -0.7935008296 -0.002277612 0.0002452744 2.48525e-05 -1.5522e-06 -5.8026e-06 0.8573415544 -0.0273110008
20299880.0 -0.8000562185 0.0019946769 -7.5512e-06 -0.0001540374 -8.4704e-06 -0.0002635053 0.856996194 -0.0355774523
25299850.0 -0.80655062 0.0076493163 -0.0001653805 0.0001406094 -0.0002138608 0.0001163142 0.856040087 -0.0434790357
30299820.0 -0.8126156507 0.0151979836 -2.23113e-05 -4.82736e-05 0.0001095246 7.86671e-05 0.8554211557 -0.052097282
35299790.0 -0.8171281585 0.0246839474 -0.0003348579 6.2936e-05 0.0001429177 0.0002043624 0.85464466 -0.0604938581
40299760.0 -0.821330665 0.0340277308 -9.57185e-05 5.377e-05 -5.00982e-05 1.8694e-05 0.8536924718 -0.0681343624
45299730.0 -0.8248651596 0.0429610438 1.07598e-05 -6.60843e-05 4.41703e-05 -0.0002164711 0.8522882235 -0.076448439
50299700.0 -0.8271961443 0.053303037 0.000188611 0.0001917092 2.43792e-05 -5.9144e-06 0.8513868272 -0.0846936892
55299670.0 -0.829684319 0.0627719163 1.311e-05 2.36721e-05 0.000176681 0.0001145632 0.8508301707 -0.0930887829
60299640.0 -0.8304173161 0.0730369895 -3.57887e-05 -6.62465e-05 0.0001056448 -6.80544e-05 0.8496588047 -0.1009729253
65299610.0 -0.8311057835 0.0833838637 4.29253e-05 -5.66853e-05 4.92456e-05 -4.33104e-05 0.8492666609 -0.1088149
70299580.0 -0.8314557468 0.0939927617 -0.0001340017 2.44266e-05 -8.72577e-05 -2.2096e-06 0.8477111254 -0.117051662
75299550.0 -0.8317762234 0.1035106289 -4.93941e-05 -3.57014e-05 9.35061e-05 -6.73615e-05 0.8460371893 -0.1259072415
80299520.0 -0.8318367828 0.1132085664 0.0001124304 -2.63071e-05 -0.0002234071 9.29961e-05 0.8450446723 -0.133702168
85299490.0 -0.8312918868 0.1221137641 8.21085e-05 1.5774e-05 -3.23079e-05 4.47883e-05 0.8439139024 -0.1418729712
90299460.0 -0.8300737626 0.13202624 0.0001865851 0.0001247453 -8.04037e-05 0.0001478769 0.8423666837 -0.1499821851
95299430.0 -0.8289555238 0.1418309603 -0.0002419755 -2.94458e-05 9.10868e-05 -0.000103024 0.8405209544 -0.158363014
100299400.0 -0.8281973701 0.1511141455 -0.0001625305 5.1294e-05 -6.26584e-05 9.29109e-05 0.8393059228 -0.1667071083
105299370.0 -0.8271180459 0.1603312702 -3.76069e-05 -7.2185e-05 -5.22678e-05 0.0002768372 0.8371150816 -0.1747559498
110299340.0 -0.8255284231 0.1696694351 3.66266e-05 3.6425e-06 0.0002407742 0.0001358704 0.8357955281 -0.182690327
115299310.0 -0.823849043 0.1784151737 -0.0001085268 -0.0001733795 5.04944e-05 0.0001498129 0.8340621658 -0.1905635751
120299280.0 -0.822079314 0.1875036796 -0.0001723792 0.0001901657 -4.49927e-05 6.06712e-05 0.8325817393 -0.1992157321
125299250.0 -0.82056995 0.1961294987 0.0001335194 1.391e-07 -0.00010672 0.0002070643 0.8307860113 -0.206810701
130299220.0 -0.8187330287 0.205599496 -6.04451e-05 -0.0001556989 3.4491e-05 0.0001789424 0.8287829536 -0.2149905109
135299190.0 -0.8170737532 0.2140219108 0.0001667547 0.0001857407 4.62206e-05 0.000208125 0.8265096739 -0.2227339403
140299160.0 -0.8145758732 0.223390844 0.0001320204 3.66718e-05 0.0001279564 0.0001958596 0.824024179 -0.2308330771
145299130.0 -0.8126472724 0.2321967243 0.0001344014 0.0001304683 -0.0001526288 -0.0001836448 0.8220194757 -0.2388470919
150299100.0 -0.810043835 0.2407255228 0.0002329566 -6.71287e-05 -4.82954e-05 -6.57268e-05 0.819409588 -0.2472296401
155299070.0 -0.8076552031 0.2496051485 0.0002122375 -3.7397e-06 -0.0001029901 -1.31852e-05 0.8171677201 -0.254944945
160299040.0 -0.8054021431 0.2578419713 -9.652e-06 9.30555e-05 0.000123389 -6.10081e-05 0.8144360968 -0.2621285459
165299010.0 -0.8026109594 0.2671190805 0.0001266841 7.63476e-05 -2.76728e-05 -0.0001953331 0.8121735178 -0.2704663961
170298980.0 -0.8004782861 0.2753966923 0.000120972 0.0002941028 -7.967e-07 -0.0001376571 0.809010998 -0.278494559
175298950.0 -0.7973414466 0.2838512068 0.0001221548 6.80593e-05 0.0001971055 1.94712e-05 0.8064123969 -0.2864110209
180298920.0 -0.7945252486 0.2931710734 -0.0002004248 0.0001625914 2.43533e-05 -0.0001130661 0.803792306 -0.2944067983
185298890.0 -0.7911397946 0.3011571559 7.0744e-05 0.0001025037 -1.9454e-06 0.0001220204 0.8007800386 -0.3019326238
190298860.0 -0.7886291306 0.3096126866 -2.71246e-05 4.5307e-06 0.0001253884 -5.97778e-05 0.7972390946 -0.308659998
195298830.0 -0.7852265471 0.3179323959 -2.40842e-05 -0.0002143706 0.0001212801 0.000127297 0.7949043609 -0.3168459077
200298800.0 -0.7812218483 0.3265489497 -0.0002246318 1.34339e-05 -0.0002054592 1.20704e-05 0.7915335877 -0.324835699
205298770.0 -0.7784157448 0.334602501 -0.000282938 -1.43712e-05 4.86412e-05 0.0002002892 0.7880179852 -0.3318378302
210298740.0 -0.7748762675 0.3426921148 1.19718e-05 -0.0001628601 4.02691e-05 -8.54082e-05 0.7843170935 -0.3394122022
215298710.0 -0.7720548386 0.3503333628 0.0001200799 -9.9813e-06 8.50257e-05 -0.0002639054 0.7812658065 -0.3471070382
220298680.0 -0.7675972056 0.3584365291 5.4591e-05 -0.0002369578 2.381e-05 -0.0001098445 0.7774701373 -0.3545195849
225298650.0 -0.7641999689 0.3665697148 -6.17132e-05 0.0001633856 -0.0001970475 0.0001198944 0.7737020763 -0.3623691165
230298620.0 -0.7601344678 0.3750586245 0.0001169835 -5.42893e-05 -0.0001312638 -3.61855e-05 0.7704019324 -0.3696955896
235298590.0 -0.756570633 0.383627889 -0.0001961896 -3.57132e-05 -7.97928e-05 3.88649e-05 0.7663553041 -0.377385424
240298560.0 -0.7520675222 0.3912209763 3.49992e-05 -0.0001478907 -2.49104e-05 9.54009e-05 0.7632322214 -0.3844004086
245298530.0 -0.7485136098 0.3987609349 -0.0001171365 0.0001121991 -0.0001769147 -3.00542e-05 0.7593723439 -0.3923070906
250298500.0 -0.7438832067 0.4068006475 -1.16154e-05 0.0002399494 1.34543e-05 0.0001757865 0.7550337932 -0.3990081668
255298470.0 -0.739568406 0.4138323032 0.000134171 0.0001123085 0.0001062907 -0.0001310815 0.7517555761 -0.4070929232
260298440.0 -0.7356508953 0.4216212448 5.99763e-05 2.68369e-05 -5.51464e-05 1.7778e-05 0.7473772135 -0.4133479466
265298410.0 -0.7313671334 0.4295681171 0.0001394736 -0.0001601055 5.12436e-05 0.0001821225 0.7435467597 -0.4211905936
270298380.0 -0.7269986301 0.4376573679 8.48157e-05 -0.0001013708 -1.77513e-05 -3.93291e-05 0.7399620931 -0.4285200261
275298350.0 -0.7219288983 0.4450100381 -0.000164417 4.56637e-05 -0.0001800139 1.08298e-05 0.735536923 -0.4355077423
280298320.0 -0.7170753922 0.4524447601 -1.30854e-05 0.0001000666 7.74111e-05 0.0001964524 0.73214926 -0.4429894867
285298290.0 -0.7125109555 0.4602032684 -0.0001061193 3.50791e-05 5.87169e-05 -7.69241e-05 0.7277476337 -0.4499971229
290298260.0 -0.7080334316 0.4676705237 -7.34386e-05 5.2092e-06 3.5306e-06 -0.0002434674 0.7240173631 -0.4569756631
295298230.0 -0.7023989628 0.4742105953 -0.0002115966 -0.0001086672 -3.69271e-05 0.000135671 0.7194339423 -0.4641067683
300298200.0 -0.6979392554 0.4813099799 7.05128e-05 6.23459e-05 -4.65239e-05 -2.29302e-05 0.7151944719 -0.4715026398
305298170.0 -0.6924568007 0.4884686435 7.22275e-05 5.04811e-05 -6.53134e-05 0.0002464807 0.7111343831 -0.4795854543
310298140.0 -0.687667306 0.4964031582 -0.000159734 0.000110417 -9.80899e-05 0.0001609269 0.7062750751 -0.4868982764
315298110.0 -0.6823133394 0.5033563901 0.0001366623 0.0001947633 2.85213e-05 -5.50527e-05 0.70077453 -0.4946502658
320298080.0 -0.6771245533 0.5101707865 -0.0001729112 -5.8746e-06 -2.1467e-05 -7.87456e-05 0.6954563612 -0.5020472371
325298050.0 -0.6715914532 0.5171565966 -2.91154e-05 -1.4048e-06 -0.0001079894 5.49658e-05 0.6906324171 -0.5089246863
330298020.0 -0.665974694 0.5241678013 0.0001370309 -0.0001915013 5.30942e-05 5.0795e-05 0.6840692007 -0.5151876101
335297990.0 -0.6609319594 0.5309453603 8.77192e-05 0.0001032243 -0.0001252668 -3.79564e-05 0.6785522806 -0.5214544699
340297960.0 -0.6556467913 0.537813167 -9.33017e-05 7.27405e-05 0.0001115035 -0.0001687978 0.6736175535 -0.527407798
345297930.0 -0.6500362202 0.5443835521 0.0002493615 5.66646e-05 0.000177851 4.9723e-06 0.6681319114 -0.5339199237
350297900.0 -0.644301062 0.5514375289 5.93091e-05 0.0001926778 7.98098e-05 0.0001500294 0.662227518 -0.539671798
355297870.0 -0.6378278143 0.5577364494 -1.55541e-05 4.84716e-05 9.70376e-05 -1.65099e-05 0.6570766472 -0.5460144635
360297840.0 -0.6325812973 0.563901321 0.0001160276 0.0001649815 2.05029e-05 -0.00013339 0.6512495179 -0.5525094245
365297810.0 -0.6273437063 0.5704423179 -5.61566e-05 -9.4738e-05 0.000164204 0.0001350393 0.646092373 -0.5593096337
370297780.0 -0.6212501262 0.5773829648 5.16731e-05 -5.09084e-05 -9.31449e-05 2.23095e-05 0.6404918477 -0.5645871932
375297750.0 -0.6146783126 0.5832937184 0.0001659155 -3.29177e-05 -2.33527e-05 0.0001501797 0.6349498516 -0.5706520238
380297720.0 -0.6087090084 0.589404202 -0.0002091715 -3.37098e-05 0.0001840982 0.00018026 0.6284857997 -0.5765263939
385297690.0 -0.603113968 0.5953129294 -0.0001495012 -0.0001755195 -0.0001077893 0.0001521096 0.6230501443 -0.5823437235
390297660.0 -0.5966596783 0.6013427227 0.0002071308 0.0002613033 9.95896e-05 0.0001596801 0.6171637754 -0.5883439475
395297630.0 -0.5901076519 0.6080228029 -0.0002037548 0.0001564226 -0.0001454042 0.0001217532 0.6111404153 -0.594156423
400297600.0 -0.5836496249 0.614160894 0.0003377048 8.21664e-05 0.0001740414 -9.5965e-05 0.605075007 -0.5996102071
405297570.0 -0.5776976547 0.6193969663 5.572e-07 6.8054e-05 -0.0001866918 2.76397e-05 0.5995521216 -0.6059122635
410297540.0 -0.5710214953 0.6254364448 0.0001091413 -4.44231e-05 0.0001181185 3.51165e-05 0.5927241526 -0.61170745
415297510.0 -0.5646970688 0.6312359101 -0.0001608638 7.10772e-05 0.0001170484 0.0002831996 0.5874065157 -0.6176282785
420297480.0 -0.5590919634 0.6370761176 -8.98843e-05 0.0003118039 -0.0001431821 -6.67488e-05 0.5818365446 -0.6232048441
425297450.0 -0.5516899901 0.6429989302 -3.20511e-05 -0.0001913246 -0.0001309416 0.0001743753 0.5749301845 -0.6288675365
430297420.0 -0.5450906087 0.6480293167 9.49406e-05 -8.49793e-05 1.15396e-05 -0.0001913673 0.568762691 -0.6345377425
435297390.0 -0.5382412261 0.6538094164 2.70571e-05 -0.000464638 0.0001466998 -9.82404e-05 0.5632074117 -0.6396795319
440297360.0 -0.5319429798 0.6590666795 -0.0001619496 -0.0001189234 -0.0001904854 5.2647e-05 0.5564849675 -0.6450760376
445297330.0 -0.5246954164 0.6643203076 9.0198e-06 -9.75223e-05 -1.067e-05 -0.0002380394 0.5503495192 -0.6508802287
450297300.0 -0.5182450808 0.6688933118 0.0001337392 0.0001260287 0.0001807594 0.0002515141 0.5438244838 -0.6556777617
455297270.0 -0.5117413646 0.6747314967 0.000226394 2.02503e-05 0.0001237294 -0.0001780952 0.5373004611 -0.6614345966
460297240.0 -0.5050099317 0.6795362088 0.000142986 -2.02672e-05 -5.7152e-05 4.21369e-05 0.5307672356 -0.6660151009
465297210.0 -0.4978379366 0.6854092491 -3.74753e-05 -0.0001381911 0.0002078266 0.0001232902 0.5240016501 -0.6718155122
470297180.0 -0.4900529471 0.6899915321 2.87587e-05 -5.79981e-05 -5.17773e-05 2.54833e-05 0.5175966569 -0.6765985027
475297150.0 -0.4833359392 0.6942068676 2.5592e-06 0.0001520438 2.06562e-05 2.73658e-05 0.5107987528 -0.6818627181
480297120.0 -0.4762676638 0.6995633814 -1.31422e-05 7.71286e-05 -0.0001172145 7.71898e-05 0.5046546781 -0.6859621913
485297090.0 -0.469162564 0.7041494077 8.28507e-05 -2.0736e-06 0.0001018311 -1.10063e-05 0.4975422032 -0.6905855341
490297060.0 -0.4622982375 0.7089574504 1.5269e-06 -0.000147734 -0.0001016511 -9.9686e-05 0.4902219755 -0.6960948038
495297030.0 -0.4549303367 0.7133871421 -1.80909e-05 0.0001693042 -0.0001719784 -0.0001543655 0.4839718921 -0.7005993352
500297000.0 -0.4471540772 0.7178371244 0.0001013114 -7.6391e-06 4.85381e-05 4.40049e-05 0.477212113 -0.7050400046
505296970.0 -0.4401586158 0.7228461309 1.82377e-05 0.0002075517 7.55082e-05 6.89887e-05 0.4699593078 -0.7097677293
510296940.0 -0.4329136429 0.726579182 7.00506e-05 -0.0001738324 0.000107109 0.0001596107 0.4627191322 -0.7143505556
515296910.0 -0.4243566705 0.7308936947 -8.78116e-05 -8.53926e-05 0.0001322918 5.51404e-05 0.4560583689 -0.7180978571
520296880.0 -0.4181721358 0.7356523408 -0.0002331979 2.28517e-05 1.8716e-05 5.47612e-05 0.4487054628 -0.7234003166
525296850.0 -0.4097958614 0.7391368698 1.56496e-05 6.91969e-05 -0.0001656133 3.82213e-05 0.4417897329 -0.7263667478
530296820.0 -0.4029114423 0.7436251365 -0.0002213351 0.0001013084 -7.7394e-06 -8.32422e-05 0.4349874873 -0.7309887956
535296790.0 -0.3953915457 0.7469723443 -0.0001473361 9.21006e-05 8.28184e-05 6.66875e-05 0.4269179081 -0.7356784988
540296760.0 -0.3881783357 0.7508407499 -0.0002401823 -0.0003144702 -5.27663e-05 2.25716e-05 0.4193499252 -0.7391268608
545296730.0 -0.3803970716 0.7552485736 5.967e-05 -4.9511e-05 -1.6659e-05 -0.0001784295 0.4127092639 -0.743198501
550296700.0 -0.373076097 0.7586569975 7.77728e-05 -0.0002953026 6.31018e-05 -5.2156e-05 0.4052043569 -0.7476542425
555296670.0 -0.3649604103 0.7618217675 9.83523e-05 6.7049e-06 0.000126989 0.0002503267 0.3978918148 -0.7506760246
560296640.0 -0.3573162569 0.7662999495 -0.0003118007 -0.0001715526 -1.64143e-05 7.06108e-05 0.3894959894 -0.7541882842
565296610.0 -0.3496735778 0.7699948619 -0.0002599699 -0.0001837099 -0.0002234554 -5.73287e-05 0.3826443592 -0.7585253938
570296580.0 -0.3422035341 0.7721247241 -0.0002897782 -0.0001328244 4.2058e-06 -0.0001339338 0.3748081248 -0.7616992272
575296550.0 -0.3341267014 0.7767320379 -0.0001065654 0.0001972105 -0.0001638533 -7.74937e-05 0.3674651496 -0.7649000239
580296520.0 -0.3261510568 0.7796129063 0.0003228352 4.89078e-05 6.47197e-05 -0.000255426 0.3598827094 -0.7688904575
585296490.0 -0.3185916998 0.7824316483 -9.29807e-05 1.84971e-05 -3.70304e-05 8.75338e-05 0.3524463256 -0.7724253924
590296460.0 -0.3103327285 0.7854782335 2.57087e-05 -3.01581e-05 0.0001078873 2.62392e-05 0.3439034695 -0.7751902973
595296430.0 -0.3022611166 0.7886023397 -5.1676e-05 8.6988e-05 0.0001429355 -2.88173e-05 0.3369298049 -0.7789859915
600296400.0 -0.2945385072 0.7923577281 -0.0001470287 0.0001622001 0.000176247 -3.22987e-05 0.3298544015 -0.7824290138
605296370.0 -0.287502129 0.7943915902 1.3545e-05 -8.08411e-05 -0.0001058939 8.54899e-05 0.3213487628 -0.7856126483
610296340.0 -0.2787633884 0.7974847984 -7.02077e-05 -2.00241e-05 5.08385e-05 -1.36766e-05 0.3138078962 -0.7885538084
615296310.0 -0.2704299638 0.7997631436 -6.78402e-05 -0.0001659757 1.04663e-05 -0.0002100038 0.3062088512 -0.7909440415
620296280.0 -0.2625708679 0.802564396 1.78726e-05 8.61095e-05 0.00025323 1.09724e-05 0.2990415414 -0.7942968041
625296250.0 -0.2547220253 0.805184041 -0.0001353592 7.49361e-05 7.30023e-05 -9.82776e-05 0.2904552989 -0.7972824074
630296220.0 -0.246319042 0.8079053013 2.39545e-05 0.0001258397 -0.0001229834 0.0001437555 0.2824899121 -0.7996759414
635296190.0 -0.2383235785 0.810150017 8.9807e-06 7.1966e-06 -3.66303e-05 -7.82108e-05 0.275187367 -0.8026675207
640296160.0 -0.2305758124 0.811926365 0.0001473459 3.11792e-05 6.11429e-05 -9.36809e-05 0.2660508546 -0.8055666246
645296130.0 -0.2229566894 0.8156072614 0.0001789789 -0.0001841639 -0.0001203071 5.01248e-05 0.258839648 -0.8076048659
650296100.0 -0.2137504768 0.8165500044 0.0001000062 -1.19574e-05 -2.68774e-05 -2.66044e-05 0.2516706441 -0.8105683756
655296070.0 -0.205843535 0.8189634617 0.0002179131 -0.0001665207 -0.000130613 4.18953e-05 0.2434935156 -0.8119270232
660296040.0 -0.1975658575 0.8208194313 1.52038e-05 3.31604e-05 -0.0001735843 4.88186e-05 0.2355035831 -0.814854647
665296010.0 -0.1896541998 0.8219145657 -0.0002054145 8.4279e-06 -0.0001656515 0.0001649994 0.2269764623 -0.8169844308
670295980.0 -0.1819454985 0.8243769601 -7.68074e-05 -0.000114145 -0.0001024734 0.0001055574 0.2186039619 -0.8191535149
675295950.0 -0.1732586468 0.8263333684 -5.9907e-05 -2.20115e-05 6.24376e-05 2.1855e-06 0.2106434551 -0.8203379263
680295920.0 -0.1644142702 0.8281088255 -0.0002202527 0.0002536438 1.9498e-06 3.8472e-06 0.2030824948 -0.8225061317
685295890.0 -0.1563729908 0.8301757399 -1.26281e-05 2.29101e-05 5.4083e-06 0.0001513075 0.1948943331 -0.8245059815
690295860.0 -0.1484179565 0.8311019259 0.000156365 5.28388e-05 -0.0001096222 -0.0001080582 0.1860061894 -0.8257170118
695295830.0 -0.140486993 0.8320825169 -7.40081e-05 0.0001226044 0.0001144726 0.0001585994 0.1783212451 -0.8273153287
700295800.0 -0.1317512331 0.8340582986 0.0001808513 -0.0001084786 7.22469e-05 -7.962e-06 0.1701115533 -0.8292874022
705295770.0 -0.1232597911 0.8356480978 -7.05569e-05 -0.0001169802 -1.31347e-05 -0.0001458189 0.1614068906 -0.8295527571
710295740.0 -0.1154237638 0.8366195639 -9.07278e-05 0.0001321995 -1.50486e-05 -3.0935e-06 0.1529906023 -0.8318584927
715295710.0 -0.1074890117 0.8366907886 0.0001159574 0.0002091066 0.0001560631 8.4565e-06 0.1450771051 -0.833052428
720295680.0 -0.0987129025 0.8386209906 -0.0002489189 5.98024e-05 0.000128044 -0.0001930204 0.1370268658 -0.8341013953
725295650.0 -0.0903597724 0.8397878771 -1.47524e-05 -2.90292e-05 0.0003544907 9.12242e-05 0.1279573762 -0.8351844498
730295620.0 -0.0820256383 0.8398928118 -6.58276e-05 0.0003073646 -7.96469e-05 -9.23825e-05 0.1194211003 -0.8365549495
735295590.0 -0.0737879256 0.8410215899 1.83608e-05 -0.0001654362 -0.0001524295 8.25578e-05 0.1115778446 -0.8381620974
740295560.0 -0.0653325844 0.8422818544 -5.246e-05 2.28899e-05 1.91431e-05 1.53089e-05 0.1033878787 -0.8382587941
745295530.0 -0.0572810062 0.8423738988 -6.66998e-05 -0.0001058839 -0.0001249288 -0.0001264121 0.0950559212 -0.8392729393
750295500.0 -0.0481381884 0.8427770701 -0.000100627 -0.0001002473 1.4668e-05 -7.47569e-05 0.086903899 -0.8399262317
755295470.0 -0.0400725905 0.8427682696 3.27366e-05 -2.42344e-05 -1.25039e-05 3.24599e-05 0.078651349 -0.8416018811
760295440.0 -0.031851562 0.8431179514 0.0001594641 -0.0001433949 0.0001076148 0.000125367 0.0703250035 -0.842168816
765295410.0 -0.0239441868 0.8437161667 -8.3137e-06 2.79658e-05 -6.07908e-05 0.000303399 0.0621263103 -0.8423238248
770295380.0 -0.0154500973 0.8444090499 0.0001648142 8.829e-07 8.90216e-05 -1.35283e-05 0.0532458024 -0.8433502005
775295350.0 -0.0074599196 0.8438845268 1.25733e-05 -6.03561e-05 4.12853e-05 1.94827e-05 0.0442444208 -0.8432748386
780295320.0 0.0009712454 0.8443201976 1.2672e-06 -0.0001850991 -0.0001482366 -1.60211e-05 0.0363574531 -0.8432779031
785295290.0 0.0095523942 0.8432912916 -6.92115e-05 -0.0001151494 5.47972e-05 -2.87492e-05 0.0288019456 -0.8438208924
790295260.0 0.0185493446 0.8436593355 -0.0001762113 5.37185e-05 0.0001624708 4.42003e-05 0.0205798636 -0.8443064578
795295230.0 0.0260558495 0.8432873349 3.5812e-05 7.38972e-05 1.61874e-05 7.08692e-05 0.0123218631 -0.8443661314
800295200.0 0.0345133139 0.8430901726 7.7555e-06 -0.0001360821 3.62113e-05 8.02147e-05 0.0034375664 -0.8439127045
805295170.0 0.0431954176 0.8425601402 -7.8894e-05 0.0001236982 -3.20876e-05 -9.23688e-05 -0.0048627748 -0.8433469546
810295140.0 0.0518296002 0.8423562965 -3.3393e-06 1.0975e-06 8.00035e-05 0.0001295193 -0.0123537614 -0.843528972
815295110.0 0.0592907222 0.8416418507 0.0001584592 -0.0001112063 -0.000129871 -2.7228e-06 -0.0216791935 -0.843465439
820295080.0 0.0677728627 0.8409571576 -5.71722e-05 -1.12207e-05 5.84063e-05 0.0001082626 -0.0297851372 -0.8431501212
825295050.0 0.0768348055 0.8399953579 -1.57378e-05 -2.03058e-05 0.0001857353 -0.0003277876 -0.0378245399 -0.8420661344
830295020.0 0.0842730461 0.8393278227 8.72003e-05 -9.86582e-05 -2.31564e-05 1.0447e-06 -0.0454235194 -0.8416237384
835294990.0 0.0927092633 0.8390248847 -0.0001333326 -0.0001837413 -0.0001556578 -7.6256e-05 -0.0548604965 -0.8413044528
840294960.0 0.099904305 0.8384373209 -6.64509e-05 0.0001970601 -8.29259e-05 6.71584e-05 -0.0631673127 -0.8403862408
845294930.0 0.1090763805 0.8370808382 -0.0001883961 -4.41672e-05 1.65099e-05 4.94116e-05 -0.071267634 -0.8393210697
850294900.0 0.1170660863 0.8361307262 -4.28618e-05 -2.47244e-05 0.0001155622 1.778e-07 -0.0798430513 -0.8379696416
