!Created with skrf (http://scikit-rf.org).
# Hz S RI R 50.0 
!freq ReS11 ImS11 ReS21 ImS21 ReS12 ImS12 ReS22 ImS22
300000.0 0.8589473603 -0.0032665991 0.0001482177 0.0003203458 0.0004201089 0.0007701934 -0.7734052637 -0.1379019178
5299970.0 0.8587320857 -0.0096716702 -0.0003337846 -0.0002942336 -8.03666e-05 2.04799e-05 -0.7842198609 -0.0073254381
10299940.0 0.8582300961 -0.0185990968 8.08523e-05 3.95306e-05 -1.93321e-05 -5.43435e-05 -0.7874990539 -0.0037014585
15299910.0 0.8568288182 -0.0267117326 0.0002073722 -0.0002254854 0.0002921505 -9.8805e-05 -0.7929342156 -0.0014150017
20299880.0 0.8560614333 -0.0353610549 -1.68205e-05 -0.0001054376 0.0001330507 9.80579e-05 -0.7994606707 0.0023534043
25299850.0 0.8557558588 -0.0437160283 -0.0002341495 -0.0001711235 0.0001603112 -2.1261e-06 -0.8061737375 0.0085872021
30299820.0 0.85497321 -0.0524943578 -0.0001842889 1.09508e-05 -4.946e-07 3.02621e-05 -0.8121461199 0.0166811328
35299790.0 0.8535742329 -0.0599826062 -7.2807e-05 -9.2324e-06 0.0001339399 -6.25448e-05 -0.8170291 0.0253726577
40299760.0 0.8531340557 -0.0689340361 1.96063e-05 -9.3098e-06 7.02842e-05 -5.21418e-05 -0.8210329929 0.0349324759
45299730.0 0.8529941916 -0.0771019821 -9.19418e-05 -0.0001900113 -6.09075e-05 -3.35055e-05 -0.8250406829 0.0439956348
50299700.0 0.8522231642 -0.0850232658 5.62087e-05 9.63534e-05 -2.70249e-05 0.0002244487 -0.8271628982 0.0543182376
55299670.0 0.851001982 -0.0939237559 -5.0286e-05 4.8477e-06 0.0001330147 1.65985e-05 -0.8294721678 0.0641374159
60299640.0 0.8494416065 -0.1008064294 -3.30852e-05 -5.50405e-05 -0.0001728895 -5.36641e-05 -0.8305542839 0.0741907993
65299610.0 0.8485709342 -0.1101452594 0.0001126886 3.58885e-05 -1.27515e-05 -3.96829e-05 -0.8316347705 0.0840670441
70299580.0 0.8474654896 -0.1186897902 0.0001470991 -4.84068e-05 -8.1301e-05 3.79484e-05 -0.8317608468 0.0941508861
75299550.0 0.8463951782 -0.1267533272 2.20316e-05 9.43051e-05 -7.67431e-05 0.0001617115 -0.8322579848 0.1044544283
80299520.0 0.8447982969 -0.1347631117 8.62501e-05 1.33385e-05 -0.0001091448 9.01489e-05 -0.831910797 0.1141595354
85299490.0 0.8435189966 -0.1426330916 9.89001e-05 0.0001526198 -6.25957e-05 5.30587e-05 -0.8312692732 0.1235583004
90299460.0 0.8418029671 -0.1508402594 0.0002625079 -6.98044e-05 0.0001673783 2.92522e-05 -0.8305896799 0.1329522207
95299430.0 0.8398361781 -0.1593954253 0.0002001549 -0.0001663482 8.7564e-06 3.43349e-05 -0.8288296043 0.1430443085
100299400.0 0.8386337114 -0.1676102303 4.04694e-05 -4.3438e-05 -7.13638e-05 -0.0001345655 -0.8286905715 0.1521046711
105299370.0 0.8373855365 -0.1757064464 -0.0001825844 -3.24918e-05 0.0001011888 3.49793e-05 -0.8270586966 0.1613201696
110299340.0 0.8351724153 -0.1836096439 0.0001149669 -3.31878e-05 4.04655e-05 2.21114e-05 -0.8253941408 0.1713469477
115299310.0 0.8329599132 -0.1923992968 0.0001153138 0.0002017575 3.75702e-05 0.0002222197 -0.8243801525 0.1797666942
120299280.0 0.8318858461 -0.2000260003 9.85357e-05 8.62286e-05 0.0001609555 1.00706e-05 -0.8222880173 0.1887835233
125299250.0 0.8292682824 -0.2085769191 2.07064e-05 6.17955e-05 0.0001271015 -0.0001144905 -0.8211959454 0.1978195735
130299220.0 0.8276733006 -0.2164623733 -7.74366e-05 3.0593e-06 7.98059e-05 9.50184e-05 -0.8183664238 0.2069633381
135299190.0 0.8255377614 -0.2240518118 0.0001930002 2.20389e-05 -3.18765e-05 4.55261e-05 -0.8167898381 0.2155902148
140299160.0 0.8232042709 -0.2323325304 0.0001776525 0.0001348327 -6.9868e-05 7.37129e-05 -0.8140924987 0.2247934699
145299130.0 0.8203870055 -0.2405793917 3.42215e-05 2.61891e-05 3.25298e-05 0.0001324702 -0.8122125147 0.2338789515
150299100.0 0.8181850653 -0.2484010042 -2.62398e-05 0.000106049 5.85238e-05 0.0001724403 -0.8101697025 0.2433417761
155299070.0 0.815153967 -0.2561584095 0.0002444149 0.0002984775 -0.0002397573 -4.75039e-05 -0.807346966 0.2521524096
160299040.0 0.8129464468 -0.2645207773 8.34053e-05 -0.0001560395 -3.60784e-05 0.0001009148 -0.8051192932 0.2603055028
165299010.0 0.8106105987 -0.2724732244 0.0001335104 6.10358e-05 -7.83449e-05 1.30666e-05 -0.8025538802 0.2693131365
170298980.0 0.8075805594 -0.2801838259 -8.95083e-05 6.33532e-05 4.61875e-05 -0.0001188632 -0.7991208226 0.2777009536
175298950.0 0.8047498603 -0.2881908694 1.5437e-06 5.0747e-06 -0.0001467916 4.46265e-05 -0.796660549 0.2869069898
180298920.0 0.8026094352 -0.2956934929 3.13502e-05 -0.0001552563 -0.0002043495 -0.0001080968 -0.7935565991 0.2950247604
185298890.0 0.7988750664 -0.3037531356 0.0002559921 0.0001391161 -5.47533e-05 -0.0001893513 -0.7900155823 0.303928796
190298860.0 0.7961761327 -0.3120166979 9.8025e-06 -1.21886e-05 3.79003e-05 -6.53837e-05 -0.7877418959 0.3121258295
195298830.0 0.7927859259 -0.3196107751 7.30826e-05 0.0001395352 -3.70009e-05 -4.97565e-05 -0.7848894621 0.3206916292
200298800.0 0.7895011646 -0.3262729546 0.0001306139 -0.0002730888 -0.000112991 -0.0001778322 -0.7813330549 0.3292989659
205298770.0 0.7862783583 -0.3344296982 7.96362e-05 1.78878e-05 -3.95973e-05 0.0001231413 -0.7775207062 0.3373885638
210298740.0 0.7829569882 -0.3418073384 9.72031e-05 0.0001331122 9.31671e-05 -0.0001440489 -0.7742468289 0.3459218791
215298710.0 0.7790187286 -0.350168832 -9.86728e-05 -3.01856e-05 1.98942e-05 -0.0001114808 -0.7711654204 0.3535915634
220298680.0 0.7759254899 -0.3573914313 2.35599e-05 -3.28938e-05 9.44815e-05 4.77799e-05 -0.7676761779 0.3621060774
225298650.0 0.7720144338 -0.365562526 1.0769e-06 -0.0001096891 -2.88182e-05 0.000209471 -0.7638196423 0.3706437042
230298620.0 0.7685735084 -0.3725991656 7.41582e-05 0.000196868 -0.0001428518 -0.0001178668 -0.7598294181 0.3785460482
235298590.0 0.7645497532 -0.3800379334 -4.1181e-05 9.03406e-05 -0.0001974393 -0.0001336348 -0.7561557893 0.3870714172
240298560.0 0.7612940522 -0.3874241972 8.30134e-05 -0.0001760546 -7.1854e-06 -5.24685e-05 -0.7518632611 0.3955713498
245298530.0 0.7574250433 -0.3950315226 -9.01843e-05 0.0001274823 0.0001722032 6.69419e-05 -0.7478713826 0.4025814157
250298500.0 0.753495613 -0.4022687448 -5.68054e-05 3.17825e-05 -9.61495e-05 -2.89842e-05 -0.7437388437 0.4105622646
255298470.0 0.749104569 -0.4100406819 -7.84675e-05 0.0001318545 -5.7637e-05 6.46326e-05 -0.738910043 0.4179637471
260298440.0 0.7450158742 -0.4171887547 -0.0002217868 -0.0002060181 -2.96491e-05 0.000135419 -0.7347878227 0.4263066883
265298410.0 0.7411997919 -0.4243271898 -7.52429e-05 6.09717e-05 5.74316e-05 0.0001480807 -0.7303601956 0.4337665568
270298380.0 0.7367034461 -0.4317046436 -0.000118048 0.0001651813 -2.2972e-06 0.0001522815 -0.7256738068 0.4408220251
275298350.0 0.7327418906 -0.4384124475 -7.34762e-05 5.86543e-05 1.83078e-05 1.21358e-05 -0.7207959518 0.4483195143
280298320.0 0.7281351978 -0.4457424423 0.0001238931 0.0002395469 -2.01861e-05 0.0001297129 -0.7158101506 0.4560770925
285298290.0 0.7247223601 -0.4527759242 -0.000139148 -3.33146e-05 -7.7814e-06 -9.5799e-05 -0.7109123791 0.4632931078
290298260.0 0.719963719 -0.4597364828 -3.1697e-05 0.0002636742 -0.0001379216 -0.0002386294 -0.7064159361 0.4707050916
295298230.0 0.7159836327 -0.46671353 -0.000124014 -0.0001226223 8.11508e-05 -4.71258e-05 -0.700913072 0.4779005972
300298200.0 0.7114498708 -0.4739383397 -6.42056e-05 5.9023e-06 3.18034e-05 1.57487e-05 -0.6961614008 0.4857661974
305298170.0 0.7073770368 -0.4809318915 6.0199e-05 -5.4375e-06 7.41075e-05 8.11748e-05 -0.690454305 0.4931122763
310298140.0 0.7023671954 -0.4888670547 6.5674e-05 7.06825e-05 -6.83947e-05 -3.14101e-05 -0.6856269763 0.4998405986
315298110.0 0.6982812699 -0.4958002302 0.0002021796 0.0001045211 7.51315e-05 1.72933e-05 -0.6797805365 0.5066679314
320298080.0 0.6933174646 -0.5032414074 -0.0002218459 0.0001226826 -0.000184814 3.61674e-05 -0.6748219573 0.5143301799
325298050.0 0.6874794463 -0.5106045287 1.61617e-05 7.2087e-06 -0.000177736 6.23097e-05 -0.6687740799 0.5213056185
330298020.0 0.6818610925 -0.5180316546 0.0001572245 -0.0002553338 -0.0001877874 4.77995e-05 -0.6639016369 0.5282530279
335297990.0 0.6758452415 -0.5248609866 -9.7103e-05 -0.0001390545 -0.0001160844 0.0001813371 -0.6582581338 0.5352629728
340297960.0 0.6702141596 -0.5317981634 -1.18398e-05 0.0001252617 0.0002221456 6.99747e-05 -0.6524922915 0.5423009697
345297930.0 0.6641027644 -0.537285192 0.0002093534 0.0002267923 -1.9943e-06 9.63657e-05 -0.647282514 0.5489683937
350297900.0 0.6587315433 -0.5438576294 -0.0001451427 0.0001316609 -8.38957e-05 8.78395e-05 -0.6414738736 0.5554333332
355297870.0 0.6534079364 -0.5502711066 -0.0001599496 2.644e-05 -3.88196e-05 -0.000231949 -0.6356384453 0.5619529355
360297840.0 0.6474386889 -0.5558633215 0.0001230091 -0.0002981127 4.80176e-05 6.55824e-05 -0.6297084799 0.568727473
365297810.0 0.6411087422 -0.5625497232 6.382e-06 1.53055e-05 0.0002193621 -2.14375e-05 -0.6229836045 0.5751727072
370297780.0 0.6359886806 -0.5683024132 0.0003784779 -0.0002141129 -0.000159309 0.0001094724 -0.6176644117 0.5813640791
375297750.0 0.6299246823 -0.5739192011 -8.63288e-05 1.42847e-05 5.85933e-05 0.0001813038 -0.6114770673 0.5873721098
380297720.0 0.6244958579 -0.5807016596 7.99062e-05 -8.03315e-05 0.0001075791 0.0003090342 -0.6056257349 0.5940481019
385297690.0 0.6184885786 -0.5863939103 -0.0002132365 -2.10497e-05 6.8481e-05 -9.8933e-06 -0.5991466498 0.6009145551
390297660.0 0.6122517297 -0.5919459583 2.98942e-05 1.42977e-05 8.50966e-05 -6.27847e-05 -0.5931690387 0.6065325132
395297630.0 0.6065735995 -0.5979244025 5.33474e-05 -0.0001323772 0.0002001725 -6.56971e-05 -0.5863203863 0.6128559091
400297600.0 0.6010527542 -0.60400796 0.0001579655 -1.82817e-05 4.9355e-06 -6.29901e-05 -0.5805255115 0.618691998
405297570.0 0.5946647552 -0.6094277221 -6.57025e-05 -6.80309e-05 -1.23037e-05 -7.91139e-05 -0.5740986261 0.6245727699
410297540.0 0.5887719539 -0.6153652289 2.13849e-05 3.28033e-05 7.78465e-05 -6.1658e-06 -0.5675429191 0.6309573518
415297510.0 0.5824965641 -0.6217631581 -9.40326e-05 -9.98633e-05 -4.30374e-05 6.93758e-05 -0.5607218422 0.6363126455
420297480.0 0.5764115004 -0.626302127 -0.0001010465 -3.39695e-05 0.0001697967 0.0001897238 -0.554446021 0.6423478949
425297450.0 0.5696322601 -0.6324807569 -5.26265e-05 0.0001354701 -0.0001135107 0.0001156403 -0.5479826047 0.6480346486
430297420.0 0.5635391577 -0.6374230701 0.0001201211 -1.93055e-05 0.0002057855 -3.67848e-05 -0.5410006937 0.6526561417
435297390.0 0.5577819585 -0.6428771539 -2.86676e-05 5.10042e-05 -8.80215e-05 -5.99442e-05 -0.5338899314 0.6586929541
440297360.0 0.5510524733 -0.6484718047 6.73184e-05 4.30427e-05 1.24997e-05 -0.0001423966 -0.5275106067 0.6634005421
445297330.0 0.5444446575 -0.6540272271 7.63285e-05 -0.0001770219 -6.61552e-05 0.0001292604 -0.5200172185 0.6682025332
450297300.0 0.5387589232 -0.6589347106 -0.000192667 0.0002179981 -0.0002418687 2.24074e-05 -0.5133054559 0.6736471536
455297270.0 0.5314837688 -0.6641304988 0.0001038253 0.0002261011 7.8807e-06 -0.0001260504 -0.5062350983 0.678292896
460297240.0 0.525178159 -0.6692033684 3.09383e-05 4.71223e-05 2.7529e-06 -3.4997e-06 -0.4994363957 0.6840916256
465297210.0 0.5175670795 -0.6749548282 6.86387e-05 5.60123e-05 6.19693e-05 8.5518e-05 -0.491891198 0.688598656
470297180.0 0.511581325 -0.679386174 7.69341e-05 -7.00273e-05 0.000156762 0.0001100298 -0.4844478413 0.6943649855
475297150.0 0.5049308492 -0.6849820413 -9.4709e-05 -0.0001364801 -0.0003353725 3.629e-05 -0.4777844587 0.6984303141
480297120.0 0.4977753817 -0.6892628349 9.84537e-05 -8.05184e-05 0.0001414372 -0.0003002747 -0.4700705991 0.7035570641
485297090.0 0.4909841626 -0.6942228105 -0.0003103891 -2.16162e-05 3.60476e-05 -2.83641e-05 -0.4630233032 0.7082899027
490297060.0 0.4839781096 -0.6991606562 -7.34382e-05 0.000118833 0.0002018828 -3.4144e-05 -0.4557933052 0.7125640972
495297030.0 0.4766967747 -0.7031810407 -3.81507e-05 1.36571e-05 -7.40795e-05 0.0001983551 -0.4488562129 0.7177997647
500297000.0 0.4695481145 -0.7085580475 -0.0001413649 4.46595e-05 8.1746e-05 5.6951e-06 -0.4404577448 0.722136651
505296970.0 0.4635833942 -0.7123135204 -3.39646e-05 0.0002338822 2.13494e-05 -4.89322e-05 -0.4333287317 0.725908603
510296940.0 0.4555368585 -0.7173376452 0.0001864914 0.0001738278 -9.18177e-05 1.12168e-05 -0.425852823 0.7305591827
515296910.0 0.4489208136 -0.721145083 7.47708e-05 -0.0002636797 -0.0001328262 -9.71984e-05 -0.4189451974 0.7347513193
520296880.0 0.4408916072 -0.7259159016 -5.12015e-05 -8.56659e-05 -0.0001632795 0.0001235985 -0.4113651397 0.7388247779
525296850.0 0.4345093092 -0.7301700333 -2.15047e-05 -2.28911e-05 2.9529e-06 -1.4851e-06 -0.4037026824 0.7437073731
530296820.0 0.4265167422 -0.7339596137 4.35525e-05 -0.0001731453 -8.36819e-05 3.78094e-05 -0.3964866219 0.7472539469
535296790.0 0.4196476903 -0.7377233692 -0.0001089217 -1.56173e-05 -0.0001263133 1.80979e-05 -0.3892646016 0.7516739498
540296760.0 0.4120654016 -0.7418711727 -4.62282e-05 3.92069e-05 0.0002042973 -3.679e-05 -0.3811331645 0.7556611016
545296730.0 0.4049661788 -0.7459337272 2.45866e-05 7.58891e-05 5.49343e-05 -7.73766e-05 -0.373916997 0.7589924638
550296700.0 0.3976879967 -0.7494525191 0.0001525984 8.90196e-05 0.0001009124 1.84053e-05 -0.3657852213 0.7628285056
555296670.0 0.3898559545 -0.7534608295 -1.36086e-05 -4.51584e-05 -2.85072e-05 -0.0001572558 -0.3584136403 0.7670542629
560296640.0 0.3820760933 -0.7571008931 0.0001276828 1.88868e-05 0.0001451503 -0.0001827327 -0.3502846135 0.7707256319
565296610.0 0.3746056358 -0.7606723134 6.247e-05 4.32618e-05 -1.7793e-06 -1.95885e-05 -0.3422423137 0.7733901807
570296580.0 0.3672790581 -0.7640073503 0.0001454973 -6.07292e-05 -3.8315e-05 0.0001347173 -0.3348504608 0.7775279715
575296550.0 0.3590995153 -0.7673547891 1.094e-07 0.0001298605 -4.61504e-05 4.10176e-05 -0.3265876271 0.7808042284
580296520.0 0.3519234264 -0.7715058872 -0.0001935894 -0.0001630106 0.0002081005 -9.10461e-05 -0.3180703302 0.7836499891
585296490.0 0.3438015158 -0.7749043202 9.0971e-06 -0.0001582854 -0.0002345368 9.66091e-05 -0.3104766232 0.787428973
590296460.0 0.3366695824 -0.7767395365 0.0002655407 -0.0001602699 -0.0001232552 2.24077e-05 -0.3032480386 0.7904129172
595296430.0 0.3287792418 -0.7811685751 -0.0001369713 -0.0002318765 -0.0001515546 0.0001027811 -0.294713282 0.7924938712
600296400.0 0.3205975276 -0.7839712574 0.0001668691 0.00012175 8.34445e-05 -9.77e-07 -0.2866879505 0.7954602115
605296370.0 0.3127249559 -0.7872521946 -9.80025e-05 7.24961e-05 0.0001144494 4.58023e-05 -0.2783133283 0.7984274246
610296340.0 0.305101467 -0.7902898796 -0.0001199133 -2.31611e-05 8.91321e-05 0.0002008621 -0.2704192215 0.8009143209
615296310.0 0.2973099949 -0.7930306452 0.0001877258 0.0002054646 -4.83912e-05 -9.65549e-05 -0.2619667083 0.803693119
620296280.0 0.2892414449 -0.7957166144 -0.0002255877 -5.01326e-05 6.37129e-05 -8.13255e-05 -0.2545156355 0.8059509502
625296250.0 0.281562119 -0.7986525041 4.70813e-05 0.0001265057 2.57894e-05 -0.0001105204 -0.2453699886 0.8081268701
630296220.0 0.2742141706 -0.8013544817 0.0001096171 -2.28873e-05 -0.0001903816 9.8543e-06 -0.2376706352 0.8104959523
635296190.0 0.2656251003 -0.8037633412 -8.70101e-05 -5.62093e-05 -3.8954e-05 4.31689e-05 -0.2294383318 0.8128820659
640296160.0 0.2575677666 -0.8062813632 -0.000138911 -2.87479e-05 4.927e-05 -5.89066e-05 -0.2207766607 0.8152846467
645296130.0 0.2497776061 -0.8086253654 -5.96304e-05 -2.53086e-05 -0.0001158071 -7.61989e-05 -0.2131716755 0.8172491597
650296100.0 0.2407219798 -0.8106561434 -6.81847e-05 7.65519e-05 -0.0001108589 5.39898e-05 -0.2048366635 0.8186957719
655296070.0 0.2326290324 -0.8132816877 3.25966e-05 0.0001249799 -4.29743e-05 -9.73122e-05 -0.1961082018 0.8208353266
660296040.0 0.2250531805 -0.815414424 0.0001387236 0.0001234128 -0.0001189353 7.29073e-05 -0.1883069477 0.823313628
665296010.0 0.217116028 -0.8174318906 -0.0002013324 7.63588e-05 -0.0001509557 0.0001855594 -0.1790748934 0.8254111694
670295980.0 0.2085065683 -0.8194619028 3.37182e-05 4.45827e-05 0.0001333306 1.18913e-05 -0.1716259662 0.8266573736
675295950.0 0.2003162629 -0.8207692852 -0.0002160798 -0.000112653 -5.8954e-06 0.0002044144 -0.1637478164 0.8287429502
680295920.0 0.192356957 -0.8225635461 3.55569e-05 -4.25316e-05 -0.0001155605 -2.58088e-05 -0.1550414359 0.8306476495
685295890.0 0.1843856303 -0.8247934304 1.64158e-05 8.0256e-06 -1.5838e-06 1.99e-07 -0.1462615696 0.8318782739
690295860.0 0.1762193526 -0.8261878666 0.000223573 0.0001925641 -3.78509e-05 -7.10896e-05 -0.138375562 0.8332457988
695295830.0 0.167884919 -0.828087006 3.501e-07 -1.81124e-05 8.8817e-05 0.0002048774 -0.1294501812 0.834320943
700295800.0 0.1598499073 -0.8293712995 8.58916e-05 0.0001132317 -3.09089e-05 0.0003093331 -0.1219626174 0.8362778478
705295770.0 0.1513148286 -0.8309845886 4.4085e-05 -0.0001178431 3.04984e-05 0.0002274795 -0.1137667644 0.8384604477
710295740.0 0.1424843134 -0.832127296 0.000224094 -0.0002064989 -1.99028e-05 1.84585e-05 -0.10480639 0.8388645346
715295710.0 0.1339956404 -0.8337315348 0.0001310147 0.0001391373 0.0001588043 -8.63719e-05 -0.0960696757 0.8393677783
720295680.0 0.1265763399 -0.8343099219 0.0001234478 0.0001181597 -3.6796e-05 -8.07219e-05 -0.0876840958 0.8404180493
725295650.0 0.1177395679 -0.8352277862 4.94898e-05 0.0001578923 -1.39246e-05 1.4188e-05 -0.0802750489 0.8417592778
730295620.0 0.109419543 -0.8364395722 -4.2446e-05 0.000151386 1.52326e-05 -0.000130115 -0.0717428771 0.8422373998
735295590.0 0.1007341507 -0.8362104822 6.95084e-05 -2.91477e-05 -0.0002073851 0.0001552171 -0.0636711795 0.8426774937
740295560.0 0.092500885 -0.8376757317 9.23259e-05 7.23473e-05 -0.000101132 7.92111e-05 -0.0536911162 0.8436893826
745295530.0 0.0840601466 -0.8383915272 4.96126e-05 -4.2587e-05 0.0001022271 6.89729e-05 -0.045749643 0.8444935774
750295500.0 0.0756733124 -0.8393870909 -6.47508e-05 -4.80819e-05 -0.0001930581 -0.0001673671 -0.0377251916 0.8441358191
755295470.0 0.06680656 -0.8396166399 -1.6964e-06 -6.98704e-05 5.882e-05 0.0001146151 -0.0292594884 0.8439404743
760295440.0 0.0585259232 -0.8405111806 -2.29799e-05 -4.65646e-05 -2.0778e-06 -6.14461e-05 -0.0206081411 0.8442270662
765295410.0 0.0506101904 -0.8407632322 6.31009e-05 -0.0001929084 -4.66155e-05 0.0001983959 -0.0127419224 0.8449258527
770295380.0 0.042049195 -0.8413935069 1.45775e-05 3.44872e-05 -0.0001339641 1.5699e-06 -0.0044967057 0.8445439724
775295350.0 0.0331260258 -0.841416627 2.67785e-05 0.0001522352 -0.0001964056 -2.5889e-06 0.0036212176 0.8440642064
780295320.0 0.0252371347 -0.8417519491 0.0001187577 0.0001020005 -6.93449e-05 -0.0001108946 0.0124310996 0.8441597676
785295290.0 0.0165395288 -0.8420989293 -0.0001349338 0.0001163813 -0.0001341372 -9.38686e-05 0.0212657469 0.8437907122
790295260.0 0.008106975 -0.8413700259 0.000163971 -2.24436e-05 -5.03611e-05 7.59541e-05 0.0301822761 0.8437939696
795295230.0 -0.0001011045 -0.8415004478 2.58646e-05 -0.0001731265 -0.0001100709 6.11506e-05 0.0383781453 0.8428782589
800295200.0 -0.0087591801 -0.8412171305 -3.70234e-05 -4.18486e-05 -0.0001159959 2.19475e-05 0.046868771 0.842700222
805295170.0 -0.0169775388 -0.8407064341 0.0001343846 -9.12427e-05 0.0001496763 -3.71825e-05 0.0543995 0.8429017986
810295140.0 -0.024789986 -0.8405803585 0.0003604326 -7.4741e-06 1.5749e-06 -2.8636e-05 0.0632885868 0.8413073326
815295110.0 -0.0337245588 -0.8403625013 5.90979e-05 -0.0001075538 -9.12866e-05 -0.0002353977 0.0716221616 0.8405118527
820295080.0 -0.0420622654 -0.8402861423 9.12033e-05 -0.0001910726 -0.0001724304 0.0001625064 0.0804210993 0.8404497174
825295050.0 -0.0498896978 -0.8392537858 0.0002162806 0.0002045833 0.0001489139 2.82337e-05 0.0884427015 0.8396676002
830295020.0 -0.058945639 -0.8387042055 -7.15189e-05 7.12274e-05 5.66148e-05 -9.24124e-05 0.0980992842 0.8385774057
835294990.0 -0.0667762299 -0.8373291572 0.0001351027 -7.15249e-05 -2.53419e-05 -5.73768e-05 0.1054451559 0.837548107
840294960.0 -0.0749355864 -0.8368302696 -9.85003e-05 6.10335e-05 -9.31715e-05 6.26094e-05 0.1137813681 0.835987824
845294930.0 -0.0838017355 -0.8361451508 -0.0001081134 -1.90411e-05 -8.04468e-05 3.31283e-05 0.1213397847 0.8353882287
850294900.0 -0.0907539132 -0.8348371192 0.0001310601 0.0001430832 2.6432e-06 7.94746e-05 0.1302404065 0.8340226456
