!Created with skrf (http://scikit-rf.org).
# Hz S RI R 50.0 
!freq ReS11 ImS11 ReS21 ImS21 ReS12 ImS12 ReS22 ImS22
300000.0 -0.2378846713 -0.1127492207 0.4674227342 0.0747216691 0.4661369739 0.0763561042 -0.2339444134 -0.1212187493
5299970.0 -0.2447344369 0.0057790267 0.473310842 0.0058968793 0.474404936 0.00555224 -0.2440273211 0.0053049678
10299940.0 -0.2418730538 0.0188369144 0.4764191853 0.0067136323 0.4758375368 0.0071065601 -0.2402573937 0.018015191
15299910.0 -0.236856044 0.0287492167 0.479653096 0.0082037243 0.4794476172 0.0082957496 -0.2363361804 0.0273986887
20299880.0 -0.2316506581 0.0363298184 0.4842597645 0.0082585973 0.4845392158 0.008465636 -0.2312743846 0.0354419367
25299850.0 -0.2257483783 0.0428483289 0.4895928281 0.0080107698 0.4897882834 0.0074947986 -0.2261010871 0.0417926496
30299820.0 -0.2202160191 0.0477275102 0.4950759387 0.0056345728 0.4955512106 0.0053392708 -0.2207582098 0.0468994483
35299790.0 -0.2144155576 0.0516385096 0.4996812122 0.0026434561 0.5007255438 0.0022567795 -0.2160515706 0.0515762693
40299760.0 -0.209267782 0.0547220435 0.5057584677 -0.0015078464 0.5057735036 -0.0017204023 -0.2107246706 0.0546022013
45299730.0 -0.2040397114 0.0571080648 0.510146243 -0.0058451255 0.5109146406 -0.0064128074 -0.2056879291 0.0576154317
50299700.0 -0.1991684982 0.0589014668 0.5145630058 -0.0119682493 0.5148481997 -0.0119176025 -0.2013016631 0.0599798169
55299670.0 -0.1949622232 0.0603403227 0.5187829599 -0.0174516448 0.5183352567 -0.0177342313 -0.1979044673 0.0618339237
60299640.0 -0.1907149985 0.0621164294 0.5217388791 -0.0240868384 0.5218229834 -0.0238955822 -0.1937485763 0.0632571435
65299610.0 -0.1869799085 0.0628944692 0.5250582541 -0.0300961207 0.5249914312 -0.0304140878 -0.1902043609 0.0644982771
70299580.0 -0.1838863623 0.0631876208 0.5272556414 -0.0369680761 0.527442158 -0.0369941554 -0.1874439159 0.066043394
75299550.0 -0.1811672925 0.0638820607 0.52884414 -0.044338736 0.5295196117 -0.0439061309 -0.1841869705 0.0669652682
80299520.0 -0.1784910202 0.0648537442 0.5311689183 -0.051002332 0.5312442413 -0.0508720887 -0.1817080748 0.0679472747
85299490.0 -0.1759997827 0.0648676793 0.5322345853 -0.0574990996 0.5323859648 -0.0574214817 -0.1794932648 0.0684901641
90299460.0 -0.173740765 0.0655568583 0.5334664707 -0.0646089019 0.533509074 -0.064308324 -0.1769614695 0.0697967334
95299430.0 -0.1713402505 0.0657400113 0.5340793526 -0.0713970242 0.5342881164 -0.0718242729 -0.175250043 0.0707291423
100299400.0 -0.169241133 0.0661147263 0.5346969212 -0.0781571103 0.5346591011 -0.0785943193 -0.1732390274 0.071501789
105299370.0 -0.1677520678 0.0665196687 0.5349542346 -0.0849447739 0.5356107535 -0.0853445133 -0.1712287043 0.0723224241
110299340.0 -0.165856557 0.0668150624 0.5347715435 -0.0917147986 0.5355993885 -0.0919239449 -0.1700274424 0.0729139499
115299310.0 -0.1648930629 0.0678081433 0.5358096203 -0.0985853182 0.5353852349 -0.0988931235 -0.1685336671 0.0742961033
120299280.0 -0.1633235393 0.0682050113 0.535213595 -0.1060428063 0.5350917267 -0.1060090002 -0.1670688323 0.0746679684
125299250.0 -0.1617747454 0.0689713593 0.5343237509 -0.1126621994 0.5347543753 -0.1125778213 -0.1655624462 0.0760308216
130299220.0 -0.1609637654 0.0690848168 0.5344098502 -0.1196433768 0.5341129786 -0.1198112788 -0.1641621609 0.0768424755
135299190.0 -0.1600186248 0.0702196456 0.5338137417 -0.1258177007 0.5338294329 -0.1262103532 -0.1629157767 0.0776338459
140299160.0 -0.1583839718 0.0710233361 0.5329815785 -0.1326556093 0.5328023394 -0.132340121 -0.1623087907 0.0787183653
145299130.0 -0.1578141723 0.0718373983 0.5318303782 -0.1389950078 0.5316953609 -0.139142827 -0.1610617234 0.0798235099
150299100.0 -0.156688445 0.0725559984 0.5307802382 -0.1456323915 0.5305680818 -0.145826943 -0.1599586015 0.0810354743
155299070.0 -0.1558063499 0.0734612384 0.5291614706 -0.1520383113 0.5293605744 -0.1525704805 -0.1587049483 0.0821395043
160299040.0 -0.1547374386 0.0746083985 0.5278655089 -0.1586305364 0.5276537727 -0.1588861743 -0.1580439075 0.0833408814
165299010.0 -0.1539389824 0.0753789803 0.5267955612 -0.1650928937 0.5263563402 -0.165027648 -0.1568960368 0.084360047
170298980.0 -0.153423257 0.0763600239 0.5250204967 -0.1719439458 0.5251980629 -0.1716844866 -0.1563478472 0.085769386
175298950.0 -0.1520573988 0.077355997 0.5234380531 -0.1776762179 0.5238150866 -0.1779634773 -0.1552211543 0.0871444551
180298920.0 -0.1514370485 0.0786345041 0.5219481424 -0.1847934069 0.5214457248 -0.184758193 -0.154085515 0.0884119552
185298890.0 -0.1510700267 0.0796298731 0.5200984015 -0.1902849021 0.5198572827 -0.1900926437 -0.153273672 0.0895063476
190298860.0 -0.1499316408 0.0809138653 0.5176613685 -0.1968080205 0.5182700367 -0.1965424381 -0.1523347717 0.0909316735
195298830.0 -0.1494926844 0.0819140267 0.5159762943 -0.2025961648 0.5159851488 -0.2024623247 -0.1513324686 0.0921819255
200298800.0 -0.148069252 0.08288986 0.5139705825 -0.2093069195 0.5139311587 -0.209000774 -0.1504412145 0.0932841686
205298770.0 -0.1478902105 0.0839625222 0.5115545967 -0.2148737969 0.5116358071 -0.2149223707 -0.1494571508 0.0948735877
210298740.0 -0.1470483311 0.0854991305 0.5095274006 -0.2206830223 0.5091975289 -0.2207517048 -0.1487345814 0.0960292594
215298710.0 -0.1460460049 0.0868048269 0.5069089061 -0.2266541462 0.5070232769 -0.226873737 -0.1474703472 0.0977938645
220298680.0 -0.1453818667 0.0880131669 0.5046176029 -0.2325554362 0.5046499282 -0.2326709722 -0.1465257535 0.0989242154
225298650.0 -0.1447305553 0.0890582101 0.5018425143 -0.2386909778 0.5023275788 -0.2382166802 -0.1458344572 0.1001089093
230298620.0 -0.1438758289 0.0906835658 0.4993292443 -0.2446731755 0.5001153207 -0.2446875623 -0.1447209811 0.101733239
235298590.0 -0.1434290455 0.0917716769 0.497504104 -0.2507291592 0.497347701 -0.25027143 -0.1436709984 0.1035048093
240298560.0 -0.1421850435 0.0933755413 0.494138664 -0.2555546565 0.4947716871 -0.255883849 -0.1428389874 0.1044373512
245298530.0 -0.1416738821 0.0942903264 0.4913972621 -0.2616084172 0.4915367349 -0.2615380653 -0.1417310985 0.1061647039
250298500.0 -0.1408509747 0.0955161006 0.4888185612 -0.2669568758 0.4888556045 -0.2674748181 -0.1406525706 0.1076896012
255298470.0 -0.139842727 0.0972230482 0.4858884953 -0.2723470042 0.4866652174 -0.2727036932 -0.1395303263 0.1089637395
260298440.0 -0.1390167894 0.0981585418 0.4828667407 -0.2777293823 0.4832035016 -0.2782765943 -0.1385176388 0.1103372216
265298410.0 -0.1384050322 0.0995212371 0.4799674972 -0.2839144784 0.4798964374 -0.2841229598 -0.1366739908 0.1118352524
270298380.0 -0.1377463554 0.1007785196 0.4766056447 -0.2890895363 0.4766301477 -0.2894058391 -0.1360216111 0.1135489759
275298350.0 -0.1369168421 0.1027241312 0.4731931563 -0.2941306683 0.4734680094 -0.2944778289 -0.1350472018 0.1150699454
280298320.0 -0.1361885164 0.1034728444 0.4704596292 -0.299096938 0.4707414629 -0.3000437953 -0.1335670907 0.1164954809
285298290.0 -0.1352087157 0.1051129376 0.467089974 -0.3052256602 0.4677790289 -0.305081675 -0.1327917761 0.1180740377
290298260.0 -0.1342167054 0.1066109884 0.464109994 -0.3104015508 0.4640550319 -0.3105391967 -0.1312726486 0.1192326835
295298230.0 -0.1334498606 0.1076418189 0.4608911732 -0.3164791459 0.4608775604 -0.3164755794 -0.1300809074 0.1204717082
300298200.0 -0.1322406225 0.1091947715 0.4575110807 -0.3213709274 0.4577299175 -0.3209738876 -0.1290124051 0.122031361
305298170.0 -0.1314362096 0.1099902846 0.4539748409 -0.3263254485 0.4541087367 -0.3265674185 -0.12708642 0.1231150633
310298140.0 -0.1302222163 0.1113524257 0.4503133215 -0.3312467913 0.4504740406 -0.3313574441 -0.1260890476 0.1244519526
315298110.0 -0.1298618295 0.1126099883 0.4469198972 -0.3370437512 0.4469691649 -0.3371194763 -0.1250889965 0.1258641064
320298080.0 -0.1287166031 0.1136183784 0.4425209691 -0.3422304907 0.4432642446 -0.3423700183 -0.1237172683 0.127080692
325298050.0 -0.1283267326 0.1146440471 0.4389235899 -0.3467156234 0.439305918 -0.3470291638 -0.1224368532 0.1281608211
330298020.0 -0.1272984154 0.1162175793 0.4349771651 -0.352278181 0.4351428543 -0.352068564 -0.1215649228 0.1296289138
335297990.0 -0.1264546264 0.1172697799 0.4311006275 -0.3569205769 0.4313758579 -0.3568986471 -0.1200356632 0.130787932
340297960.0 -0.1259221725 0.1186471984 0.4268262562 -0.3617477006 0.4268881407 -0.3616464527 -0.1186140074 0.1326130351
345297930.0 -0.1249808518 0.1198062867 0.4231227381 -0.3662595885 0.4227622194 -0.3665242591 -0.117553069 0.1339027107
350297900.0 -0.1240685907 0.1212257114 0.4190087652 -0.3704054182 0.4193933274 -0.3708096032 -0.1162514531 0.1348147455
355297870.0 -0.1230900694 0.1226145979 0.4152385522 -0.3749083325 0.4148060542 -0.3753695388 -0.1145091696 0.1366498301
360297840.0 -0.1220478914 0.1239556656 0.4103371426 -0.3802351514 0.4107395601 -0.3802873566 -0.1136574934 0.137993707
365297810.0 -0.1210573364 0.1251352233 0.4063099379 -0.3845009638 0.4065127957 -0.384742667 -0.1122980172 0.1395008964
370297780.0 -0.1198411919 0.1262761243 0.4014947816 -0.3890029495 0.4020516332 -0.3889367393 -0.1106158862 0.1404186481
375297750.0 -0.1189559182 0.127879785 0.3980309406 -0.3931145643 0.3979737298 -0.3932611199 -0.1089159883 0.1418731509
380297720.0 -0.11798877 0.1293989331 0.393929073 -0.3981323317 0.3933616316 -0.3976871929 -0.1074707151 0.1434698035
385297690.0 -0.1168891165 0.1302287489 0.3888400094 -0.4019076051 0.3891824353 -0.4024339281 -0.1059153033 0.1448452414
390297660.0 -0.1155298543 0.1313563475 0.3845573983 -0.4060987157 0.3850068976 -0.4063720662 -0.1044003888 0.1459848491
395297630.0 -0.1141923821 0.1324377615 0.3802073399 -0.4097326107 0.3800900769 -0.4104933203 -0.1029553375 0.1471894986
400297600.0 -0.113652567 0.1340615677 0.3759667085 -0.41487672 0.3760078407 -0.4147716164 -0.1010044865 0.1488500368
405297570.0 -0.112440327 0.1346547647 0.3712304971 -0.4183995649 0.3712012809 -0.4188259454 -0.0992667024 0.1500859292
410297540.0 -0.1111590334 0.1364514993 0.3669000125 -0.422624647 0.3666184524 -0.4228237027 -0.0978028703 0.1514926489
415297510.0 -0.1101098487 0.1373841422 0.3622531209 -0.4263580105 0.3623078977 -0.4269606903 -0.0958311489 0.152431151
420297480.0 -0.1085426173 0.1383618226 0.3573380788 -0.4304868693 0.3573790386 -0.4308353889 -0.0942079929 0.1538486644
425297450.0 -0.1069545009 0.1392697017 0.3524349118 -0.4343193727 0.352506663 -0.4345317408 -0.0929594666 0.1547008818
430297420.0 -0.1061462469 0.1408438318 0.3483929655 -0.4384829402 0.3481640976 -0.4379371168 -0.0908840366 0.1560402314
435297390.0 -0.1045637489 0.1417869112 0.3429082568 -0.4427518384 0.3428984976 -0.4421475252 -0.0896803711 0.1575404771
440297360.0 -0.1030142617 0.1426832584 0.3378747737 -0.4459281537 0.3378243822 -0.4460070604 -0.0876874143 0.1584510535
445297330.0 -0.101876522 0.1436111017 0.3331420364 -0.4492211589 0.3331190277 -0.4499070925 -0.0861438368 0.1598179186
450297300.0 -0.1007014642 0.144631126 0.3282604598 -0.4529851291 0.3285985159 -0.4526959843 -0.0842655546 0.1605665543
455297270.0 -0.0996308971 0.1460386662 0.3234747658 -0.4569697208 0.3234663524 -0.4567694758 -0.0820376765 0.1617316857
460297240.0 -0.0975699916 0.1471499182 0.3186528674 -0.4609354838 0.3185093291 -0.460455449 -0.0806796017 0.1627770369
465297210.0 -0.09635748 0.1480770598 0.3132354956 -0.4638263595 0.3130525732 -0.4639281219 -0.0786263762 0.1639660276
470297180.0 -0.0953282708 0.1488664842 0.3079406589 -0.4665341482 0.3082594331 -0.4670657319 -0.0767335943 0.1649081874
475297150.0 -0.0937562975 0.1502355626 0.3027607691 -0.4705389822 0.3032159785 -0.4705407175 -0.0750146033 0.165898099
480297120.0 -0.0917464572 0.1514102187 0.2977735589 -0.4737936168 0.297836348 -0.4731827379 -0.073197463 0.1667204068
485297090.0 -0.0905345311 0.1516909098 0.2927928978 -0.4769218561 0.2927679883 -0.4770689601 -0.0714594007 0.1680331971
490297060.0 -0.088689425 0.1530254752 0.2868944957 -0.4806210084 0.2872512683 -0.4802797778 -0.0695163903 0.1685760947
495297030.0 -0.0875027173 0.15380468 0.2825181763 -0.4835256772 0.2824651972 -0.4837363014 -0.0672955815 0.1696529102
500297000.0 -0.0862095261 0.1551269666 0.2768697282 -0.4861027951 0.2771095558 -0.4862980175 -0.0655307331 0.170550106
505296970.0 -0.0840343065 0.1559339355 0.2714913941 -0.4896413629 0.2716349409 -0.4887766895 -0.063767723 0.1709844929
510296940.0 -0.0826574782 0.1565962919 0.2661512574 -0.492193122 0.2664818382 -0.4926042524 -0.0613637609 0.1725434696
515296910.0 -0.0813435454 0.1579308639 0.2606600466 -0.4949916149 0.2603332132 -0.4948296076 -0.0597011323 0.1725506652
520296880.0 -0.0794605957 0.1589453578 0.2552487171 -0.4977410721 0.2550114973 -0.497786403 -0.0572461453 0.1741015973
525296850.0 -0.0780376694 0.1594376356 0.2499450243 -0.5003083559 0.2493459586 -0.5007004732 -0.0554354061 0.1746559199
530296820.0 -0.0766134322 0.1604542408 0.2443462101 -0.5034015236 0.244388577 -0.5030206261 -0.0538697444 0.1750002294
535296790.0 -0.0743929647 0.161476133 0.2388369867 -0.5056397264 0.2390855641 -0.5059593134 -0.0513607058 0.1762003201
540296760.0 -0.0729009302 0.1625732103 0.2332244779 -0.5084412354 0.2331400735 -0.508069002 -0.0494950422 0.1763811443
545296730.0 -0.0718481408 0.1635048685 0.2277453616 -0.5106170881 0.2274915589 -0.5106886758 -0.0476066253 0.1775871145
550296700.0 -0.069534815 0.1641720448 0.222110591 -0.5132527923 0.2217995264 -0.5133456331 -0.0453228489 0.1779092418
555296670.0 -0.0681161603 0.1648548071 0.2164889131 -0.5155951526 0.2165378552 -0.515399655 -0.0437144371 0.1780704903
560296640.0 -0.0659171132 0.1655192105 0.2109759448 -0.5175336483 0.2111104304 -0.5179758017 -0.0414653969 0.1793466452
565296610.0 -0.0649094454 0.166415604 0.205625704 -0.5200529539 0.2051748271 -0.519654075 -0.0392276841 0.1797443246
570296580.0 -0.0630275261 0.1676953551 0.1997928313 -0.5221105295 0.1993338575 -0.5222429175 -0.0377461196 0.1799018883
575296550.0 -0.0611069316 0.1679842652 0.1941143395 -0.5245004992 0.1938064093 -0.5244847411 -0.0353786105 0.1807082104
580296520.0 -0.0594670471 0.1690322132 0.1883279837 -0.5263604934 0.1881199217 -0.5266589565 -0.0337660879 0.1812031244
585296490.0 -0.0576686935 0.1697520774 0.1829138847 -0.5284006057 0.1824955203 -0.5282698169 -0.031166595 0.182075804
590296460.0 -0.0552713508 0.1703885775 0.1767965969 -0.5305387807 0.1769424655 -0.5304161252 -0.0296604368 0.1821963398
595296430.0 -0.054063812 0.1715124202 0.1705976989 -0.5320251095 0.1702271438 -0.5321349491 -0.0271837747 0.1824638304
600296400.0 -0.0521505826 0.1719975019 0.1646159123 -0.5339394095 0.1648819146 -0.5339433796 -0.0251918225 0.1830365814
605296370.0 -0.0507152417 0.173022781 0.1597775743 -0.5358118215 0.1590753385 -0.53597942 -0.0232601149 0.1837990795
610296340.0 -0.0486093677 0.1738866657 0.1533748187 -0.5374077502 0.1539520406 -0.5374597079 -0.0213599751 0.1842161816
615296310.0 -0.0466093315 0.174277415 0.1475743631 -0.5388801837 0.1470439163 -0.5391740795 -0.0189158244 0.1846997931
620296280.0 -0.0453467304 0.1756631942 0.1413555368 -0.5404259342 0.1414925241 -0.5404823809 -0.0175530386 0.1848980285
625296250.0 -0.0436917909 0.1757016259 0.1358657491 -0.5419684159 0.135967004 -0.5419133235 -0.0151835424 0.1849289574
630296220.0 -0.0418344691 0.1766036022 0.1297394103 -0.5435130045 0.1297271035 -0.543447215 -0.0129181094 0.1856068697
635296190.0 -0.0403068119 0.1773608032 0.1245096995 -0.5445678006 0.1239277161 -0.5440516676 -0.0109919819 0.1854019851
640296160.0 -0.0383759019 0.1776525648 0.1184066251 -0.5457705307 0.1181250728 -0.5460966578 -0.0091535197 0.1859558657
645296130.0 -0.0362492435 0.178735697 0.1120863912 -0.5473971054 0.1123550086 -0.5470007943 -0.0071448024 0.1859147377
650296100.0 -0.0349018885 0.1789422142 0.1063162379 -0.5487962071 0.1061330771 -0.548789022 -0.0042937444 0.1860241701
655296070.0 -0.0329150175 0.1797553241 0.1002249767 -0.5495474758 0.1000472362 -0.5492363383 -0.0027684349 0.1866828959
660296040.0 -0.0312221892 0.1802871673 0.094519564 -0.5504084757 0.0945127149 -0.5505931376 -0.0007999838 0.1863907487
665296010.0 -0.0295583843 0.1809289604 0.0879624093 -0.5515480363 0.0881759854 -0.5514110062 0.0013870843 0.1867212295
670295980.0 -0.0275076485 0.1814416719 0.08238964 -0.5522979543 0.0823222037 -0.5519412562 0.0031347907 0.186869396
675295950.0 -0.0260945304 0.1817825778 0.0767034597 -0.5528234224 0.0767399857 -0.5532683072 0.0051950827 0.187078693
680295920.0 -0.024120914 0.1825534346 0.070597613 -0.5535961502 0.0703673993 -0.5534440606 0.0077805237 0.1868602107
685295890.0 -0.0220670843 0.1833003216 0.0643926252 -0.5547932075 0.0645688659 -0.5546615633 0.009730035 0.1875393947
690295860.0 -0.0208825972 0.1836533073 0.0589307529 -0.5550056326 0.0581377314 -0.5551016519 0.0116284823 0.1870805654
695295830.0 -0.0187631267 0.1841638354 0.0529409395 -0.5555061091 0.052496003 -0.5557725209 0.0136014252 0.1874686276
700295800.0 -0.0168280682 0.1847822804 0.047038096 -0.5563516818 0.0465298923 -0.5560038862 0.0159398774 0.1872761984
705295770.0 -0.0158096676 0.1850473693 0.0406100005 -0.5572205271 0.0405350669 -0.5565687806 0.0178337554 0.1875977315
710295740.0 -0.0136921326 0.1850190077 0.0347332233 -0.5571816941 0.0346117416 -0.5577041224 0.0199771846 0.1872364632
715295710.0 -0.0117246672 0.185914622 0.0287473233 -0.557295092 0.0281881381 -0.5576384205 0.0222284032 0.1871045535
720295680.0 -0.0097209912 0.186020351 0.0228125635 -0.5571637768 0.0223231089 -0.55792334 0.024152602 0.187015703
725295650.0 -0.0086549524 0.1867612674 0.0170477412 -0.5577315868 0.0164741427 -0.5579029616 0.0259414721 0.1872918584
730295620.0 -0.0072410653 0.1868362546 0.0106512825 -0.557763393 0.0104349152 -0.5576684216 0.0280465405 0.1872945426
735295590.0 -0.0050066929 0.1874721335 0.0047771562 -0.5580037885 0.0041912903 -0.5579087221 0.0302072995 0.1865355893
740295560.0 -0.0032181621 0.1875365248 -0.0014545841 -0.5581413956 -0.0008701304 -0.5583376489 0.031967264 0.1868086561
745295530.0 -0.0017428659 0.1879778451 -0.0071761901 -0.5576259424 -0.0068323151 -0.557715939 0.0339580409 0.1866240566
750295500.0 -5.51678e-05 0.1880125116 -0.0128635959 -0.5578524966 -0.0136244996 -0.5575188405 0.0361052607 0.1861767795
755295470.0 0.0017238967 0.1885309872 -0.0189659415 -0.5581516853 -0.0188986713 -0.5579288746 0.0380987843 0.1864420678
760295440.0 0.0033770565 0.1889964588 -0.0258979274 -0.5573965468 -0.0252418756 -0.557205046 0.0400881694 0.1851801487
765295410.0 0.0058513709 0.1887391811 -0.0314766109 -0.5567735742 -0.0308379465 -0.5570793646 0.0424971554 0.1856327174
770295380.0 0.0069840727 0.189212764 -0.0367246264 -0.556491858 -0.0371688654 -0.5570189211 0.0440643451 0.1852540365
775295350.0 0.0087965561 0.1889554237 -0.042780024 -0.5561168481 -0.0432387181 -0.5557414168 0.0467553236 0.1848872487
780295320.0 0.0106361299 0.1894082647 -0.0488045922 -0.5551331052 -0.0491281546 -0.5554979276 0.0486404869 0.1843588465
785295290.0 0.0120953899 0.1893014587 -0.0552315611 -0.5551573567 -0.0550664647 -0.554955617 0.0501035049 0.1843595689
790295260.0 0.0140715455 0.1891762078 -0.0608356684 -0.5542705402 -0.0608429363 -0.5548015993 0.0522983634 0.1841886339
795295230.0 0.0154665996 0.1893099137 -0.0668960201 -0.553977715 -0.0671537076 -0.5540921928 0.0544252357 0.1828851961
800295200.0 0.0170764726 0.1897664011 -0.0723202059 -0.5522422402 -0.0728024001 -0.5531223616 0.0562826452 0.1826804122
805295170.0 0.0191021263 0.1898516697 -0.078787892 -0.5519315196 -0.0786291878 -0.5523057851 0.058957468 0.182615485
810295140.0 0.0210040359 0.1900518364 -0.0842856279 -0.5508519471 -0.0847464792 -0.5509979308 0.0604259454 0.1821346132
815295110.0 0.0224936717 0.1897694648 -0.0901085689 -0.5498903417 -0.090316765 -0.5502066262 0.0622326774 0.1814505539
820295080.0 0.0243503909 0.1896434724 -0.095996249 -0.5489572907 -0.0962267445 -0.5494639866 0.0637707486 0.1815428855
825295050.0 0.0258182821 0.189428548 -0.102077437 -0.5483140015 -0.1024492787 -0.5480852152 0.0665687331 0.1808847381
830295020.0 0.0278082066 0.1895050481 -0.1084376754 -0.5469984376 -0.1079558469 -0.5470214019 0.0683454259 0.1796346627
