!Created with skrf (http://scikit-rf.org).
# Hz S RI R 50.0 
!freq ReS11 ImS11 ReS21 ImS21 ReS12 ImS12 ReS22 ImS22
300000.0 -0.7671995807 -0.1839126845 -0.0012478267 -0.0001955028 -0.0005819956 0.000527303 -0.0440127007 -0.0799187814
5299970.0 -0.7861919331 -0.0100751306 -4.93819e-05 0.0001676453 -5.01702e-05 -0.0001449516 -0.0475055014 0.013581384
10299940.0 -0.7892967746 -0.0059767677 6.89502e-05 -5.77854e-05 0.0001095617 2.6026e-05 -0.0418262242 0.0316988538
15299910.0 -0.7940577196 -0.0033688634 -0.0001074485 -0.0001302513 -3.2639e-06 -7.9275e-05 -0.0339293055 0.0456277581
20299880.0 -0.8009326757 0.0002862173 -0.0001285589 0.0002381325 5.14904e-05 3.66022e-05 -0.0241094032 0.0570472982
25299850.0 -0.8075402166 0.0068383149 2.02039e-05 -5.0054e-05 2.05893e-05 -1.29406e-05 -0.0136053807 0.0661677539
30299820.0 -0.8142368315 0.0139862867 6.897e-06 -3.471e-07 -8.19402e-05 0.000104068 -0.0018642698 0.0729243622
35299790.0 -0.8186444622 0.0228796233 4.7012e-05 0.0001430224 -0.000104203 5.57218e-05 0.0093063877 0.0775045718
40299760.0 -0.8235678987 0.03180747 2.75383e-05 0.0001306185 4.87833e-05 5.34189e-05 0.0201467806 0.0802073009
45299730.0 -0.8266436795 0.0419821253 -9.7629e-06 3.40676e-05 0.0001214431 -7.13026e-05 0.0305961113 0.0813616078
50299700.0 -0.8293172227 0.052107814 -3.69208e-05 0.0001416676 0.0001616635 0.0001219624 0.040714139 0.0813884282
55299670.0 -0.8312808202 0.0619386654 -4.0137e-05 -0.0001208248 0.0001829955 8.51429e-05 0.0496257868 0.0805883816
60299640.0 -0.8322905966 0.0720388421 -0.0001068837 6.72914e-05 8.93697e-05 -0.0001751606 0.0579666897 0.0783144586
65299610.0 -0.8339197552 0.0816657207 0.0003115275 -3.03832e-05 8.47875e-05 -5.14655e-05 0.0654594285 0.0758725887
70299580.0 -0.8335421288 0.0913502813 0.0001672213 5.05619e-05 0.00011137 3.74053e-05 0.0722067195 0.0733224914
75299550.0 -0.8340248333 0.1017586997 -3.40436e-05 8.38688e-05 0.0001981681 3.65514e-05 0.0787274296 0.0698118102
80299520.0 -0.8340169432 0.1117452415 4.55238e-05 1.1935e-05 0.0002016353 -7.91055e-05 0.0843864796 0.0660928397
85299490.0 -0.8327891395 0.1209807542 -9.02091e-05 4.35356e-05 6.59283e-05 0.0001953391 0.0892040347 0.0626018838
90299460.0 -0.8322329546 0.1314528093 0.0001410101 -2.83681e-05 8.19103e-05 0.0001229657 0.0935329096 0.0590856858
95299430.0 -0.8316433117 0.1404601748 -0.0002362689 5.93192e-05 2.67482e-05 1.92532e-05 0.0977664974 0.0548201618
100299400.0 -0.8309579537 0.1498219932 0.0001751953 0.0002907921 -8.3844e-06 0.0001395473 0.1012819036 0.0512247922
105299370.0 -0.8288200926 0.1591625641 -0.0001865986 0.0001405464 0.000115637 -0.000103675 0.1042954903 0.0469774928
110299340.0 -0.8273804127 0.1685320404 -9.62244e-05 -0.0002532924 8.13163e-05 0.0002107227 0.1069032974 0.0426134037
115299310.0 -0.8261571368 0.1777701883 0.0001064855 -9.32578e-05 7.46405e-05 0.0001690375 0.1092983237 0.0391609349
120299280.0 -0.8244955884 0.1868776101 -0.0001052987 -0.000242658 2.57093e-05 2.87374e-05 0.1114106729 0.0348259043
125299250.0 -0.822574544 0.1950807988 0.0001335321 -0.0001199746 0.0002156824 -8.6588e-05 0.1131176151 0.0313054159
130299220.0 -0.8211525019 0.2052021399 8.46562e-05 -3.70894e-05 -7.61893e-05 0.0001122978 0.1150181202 0.0278160226
135299190.0 -0.8190310337 0.2136392035 -5.9184e-05 -5.62655e-05 0.0002233481 -2.87092e-05 0.116469931 0.0237059706
140299160.0 -0.8170847586 0.2231721006 0.0001038054 1.3196e-05 0.0001374724 0.0001587046 0.117445147 0.0201829313
145299130.0 -0.8150484391 0.2321645998 2.63403e-05 -2.67756e-05 7.8173e-05 -5.28869e-05 0.1185271265 0.0168747512
150299100.0 -0.8119483699 0.2405765119 -0.000111854 7.7346e-06 0.0001298556 -9.93564e-05 0.1192667333 0.013640569
155299070.0 -0.8098132495 0.2501148844 -0.0001138304 -0.0001243774 -0.0002469878 -0.000174106 0.1200752901 0.0103253908
160299040.0 -0.8073899976 0.2588106124 0.0002292676 7.1759e-05 4.21823e-05 -6.3222e-06 0.1206321341 0.0068426089
165299010.0 -0.8046547613 0.2674639376 -9.45651e-05 -6.65635e-05 0.0001769438 -7.86575e-05 0.1209333718 0.0032735078
170298980.0 -0.8015680495 0.2761001119 -0.0001198038 -0.0001288525 0.0001585489 8.48051e-05 0.1210452718 0.0004848675
175298950.0 -0.7993681009 0.2849633919 0.0001030567 -0.0001650952 2.48152e-05 3.97762e-05 0.1216873849 -0.0021796885
180298920.0 -0.7960722258 0.2936774136 0.0003511487 6.53144e-05 -0.0001144704 -4.25669e-05 0.1215559035 -0.0056142824
185298890.0 -0.7925941653 0.3022654261 -4.03421e-05 -2.81642e-05 5.30916e-05 -5.49387e-05 0.1216046351 -0.0085564876
190298860.0 -0.7898016506 0.311404448 0.0001352808 -8.30355e-05 0.0001062997 8.8983e-06 0.1217107148 -0.0117043813
195298830.0 -0.7864723309 0.3194503071 0.0003396165 6.14296e-05 9.75381e-05 -4.8281e-06 0.1211563148 -0.0142052158
200298800.0 -0.7829305611 0.3278673918 -1.11972e-05 0.0001904456 -6.80423e-05 0.0002260472 0.1211490409 -0.0169251878
205298770.0 -0.7791242984 0.3362303406 0.0001122595 -8.03234e-05 8.44257e-05 5.30155e-05 0.1207881666 -0.0197697083
210298740.0 -0.7765453964 0.3449265032 8.44308e-05 -5.67405e-05 2.77074e-05 1.30125e-05 0.1205091353 -0.0224403191
215298710.0 -0.7720830029 0.35370895 0.0002022439 2.76789e-05 2.89656e-05 0.0001421882 0.1198694447 -0.0249528791
220298680.0 -0.7683289974 0.361220404 0.0001443069 7.3395e-06 9.7588e-06 7.01841e-05 0.1192665115 -0.0271229554
225298650.0 -0.7644404435 0.3695024277 0.0001566241 -0.0001409401 5.0731e-06 0.0001432854 0.1186117222 -0.0297445266
230298620.0 -0.761146566 0.3776398795 0.0002282345 0.0001589172 -1.3622e-05 -6.32435e-05 0.1182258901 -0.0324467235
235298590.0 -0.756971267 0.3856755315 0.0002868152 -9.60782e-05 5.28924e-05 0.0001125474 0.1173945284 -0.0343925049
240298560.0 -0.7526767451 0.3938263258 1.79188e-05 0.0001064754 0.0001412701 0.0001830283 0.1170381045 -0.036577838
245298530.0 -0.7488657855 0.40176564 7.21903e-05 -0.0001423007 -7.11098e-05 9.691e-07 0.1161181477 -0.0391924251
250298500.0 -0.7445911291 0.4092194335 0.0001092276 -0.0001516741 3.32065e-05 -8.76472e-05 0.1150176927 -0.0409999088
255298470.0 -0.7407340982 0.417673345 -2.35349e-05 9.24105e-05 -1.69827e-05 -7.3112e-06 0.1144746964 -0.0433158169
260298440.0 -0.7362053138 0.4250324694 1.83692e-05 -4.9322e-05 0.000147127 4.39561e-05 0.1133998896 -0.0455789035
265298410.0 -0.7319227219 0.4325174563 9.14158e-05 0.0001743983 4.63659e-05 -5.85365e-05 0.1129282597 -0.0475264943
270298380.0 -0.7270147691 0.4406968675 5.54451e-05 0.0001068989 -3.60796e-05 0.0001142853 0.1120455546 -0.0495283856
275298350.0 -0.7228993168 0.4481744397 0.0001607045 8.05261e-05 0.000140917 0.000109187 0.1111498032 -0.051682183
280298320.0 -0.7183462758 0.4553971582 0.0001221652 1.62506e-05 -6.64905e-05 0.0001327526 0.1101304342 -0.0535252615
285298290.0 -0.7134732362 0.4631560522 -9.28433e-05 -0.0001552603 -7.49309e-05 0.0001858922 0.1090298963 -0.0552578182
290298260.0 -0.7079979269 0.471095765 0.0002611055 4.32863e-05 0.0001142405 8.93377e-05 0.107977327 -0.057020917
295298230.0 -0.7038542298 0.4784594703 0.0001805601 0.0001037988 -3.7367e-05 -0.0001670166 0.1069012768 -0.0594039205
300298200.0 -0.6995998144 0.4858262224 0.0001424215 0.0001407338 0.0001272905 -0.0001949985 0.106068417 -0.0609013869
305298170.0 -0.694460735 0.4926501238 3.49786e-05 2.70484e-05 -8.89028e-05 -8.93989e-05 0.1052245775 -0.0628340618
310298140.0 -0.6888330419 0.4995859382 -1.48111e-05 8.69943e-05 -0.0001081786 0.0002164623 0.1041735931 -0.0642945228
315298110.0 -0.6844367931 0.5069847092 -0.0001360726 -2.8997e-05 -8.50627e-05 6.61235e-05 0.1033866931 -0.0662748806
320298080.0 -0.678616101 0.5145133162 4.68736e-05 0.0001312869 7.9718e-05 -6.63626e-05 0.1017650681 -0.06829508
325298050.0 -0.6732330931 0.5205489094 0.0001703715 0.0001726995 -8.51969e-05 -6.942e-05 0.1006561799 -0.0700777811
330298020.0 -0.6683961733 0.528312074 0.0001408116 -6.70701e-05 9.34755e-05 -0.0002006853 0.0991016458 -0.0719261099
335297990.0 -0.6633520468 0.5345266412 6.41565e-05 -4.626e-05 1.4604e-06 -8.86102e-05 0.0978460859 -0.0735238001
340297960.0 -0.6578239304 0.5412825379 4.93507e-05 0.0001425468 0.000152685 -0.0001624326 0.0963310346 -0.0749930161
345297930.0 -0.6523256843 0.5481995854 0.000160312 0.0001353945 5.55295e-05 -0.0001561419 0.0948910304 -0.0766003392
350297900.0 -0.6461232984 0.555412197 0.0001765958 4.50984e-05 8.09412e-05 -1.29627e-05 0.0930911402 -0.0781435458
355297870.0 -0.6411011102 0.5615361323 5.20711e-05 5.68283e-05 6.72733e-05 2.5244e-05 0.0917513996 -0.0792625091
360297840.0 -0.6348926017 0.5682367412 0.0002526866 0.0003429349 1.9452e-06 0.0002207156 0.0905578295 -0.0807711657
365297810.0 -0.6298080078 0.5745052539 0.0001281015 0.0001394437 4.78557e-05 0.0001258936 0.0891845049 -0.0820538277
370297780.0 -0.6238639312 0.5804421304 -2.66272e-05 4.42454e-05 -8.1154e-06 -4.164e-05 0.0873508018 -0.0830492992
375297750.0 -0.6180127676 0.5873550951 -0.0002629612 3.66849e-05 -7.70226e-05 0.0002723514 0.0862476336 -0.0845801363
380297720.0 -0.6121183062 0.5937894081 0.0001594034 0.0001777903 -4.1227e-05 2.50331e-05 0.0850963419 -0.0857318955
385297690.0 -0.6057101484 0.5995795732 7.69735e-05 -0.0001747047 4.17294e-05 -7.32344e-05 0.0834109911 -0.0868459783
390297660.0 -0.598936036 0.6053832555 0.0002550684 0.0001040297 9.73629e-05 -0.0001094733 0.081941516 -0.0880353497
395297630.0 -0.592817728 0.6122389772 9.28392e-05 -4.86817e-05 -2.94708e-05 -5.14247e-05 0.080492014 -0.0892167995
400297600.0 -0.5869892585 0.6179961468 0.0002503521 0.0002199842 -3.30728e-05 0.0002485487 0.079200873 -0.0903094511
405297570.0 -0.5809040655 0.6229049893 -5.7319e-05 2.76901e-05 6.02831e-05 5.68795e-05 0.0779823518 -0.0915643932
410297540.0 -0.5736236284 0.6295390618 0.0001359948 -0.0001216816 0.0003330294 7.63415e-05 0.0758883209 -0.0924658631
415297510.0 -0.5674743757 0.6357861344 3.88332e-05 1.56916e-05 7.35008e-05 -3.62867e-05 0.0748008657 -0.0935784903
420297480.0 -0.5610346427 0.6410279921 -3.2561e-05 0.000205975 -8.4749e-06 -0.0001593295 0.0733089216 -0.0943215518
425297450.0 -0.5544580226 0.6465929217 0.000139182 -0.0002227347 0.000321244 0.0003178368 0.0715480233 -0.095780692
430297420.0 -0.54811729 0.651920237 0.0001887142 -0.0001210495 0.0001303188 2.25774e-05 0.0703835928 -0.0963678639
435297390.0 -0.5412295082 0.6580091848 -7.50071e-05 9.45788e-05 0.0001985298 -1.51058e-05 0.0685146519 -0.097460365
440297360.0 -0.5339784012 0.6627934489 0.0002467151 2.30452e-05 -6.6044e-06 -2.03497e-05 0.0672612584 -0.0981687865
445297330.0 -0.5272498008 0.6683435005 1.03549e-05 9.99962e-05 -0.0001068672 -1.14019e-05 0.0656236766 -0.099305543
450297300.0 -0.5203620466 0.6740110135 9.94531e-05 0.0001957677 0.000189513 5.26385e-05 0.0643485426 -0.1000983873
455297270.0 -0.5140302598 0.6794191035 -2.36224e-05 0.0002929821 5.63164e-05 0.000136126 0.0626229058 -0.1009995782
460297240.0 -0.506431606 0.6844533527 7.69291e-05 4.19363e-05 5.91429e-05 0.0001168879 0.0607851999 -0.101793112
465297210.0 -0.4995601464 0.6889833756 0.0001921123 8.56133e-05 0.0002379172 -8.57931e-05 0.0594134723 -0.1022637666
470297180.0 -0.4918660574 0.6943735821 -0.0001434439 9.54115e-05 0.0003992861 0.0001410278 0.0578157235 -0.1032332617
475297150.0 -0.4845568201 0.6989624962 0.000224159 0.0002059712 -0.0001089695 -9.38824e-05 0.0566303639 -0.1041333625
480297120.0 -0.4772818771 0.7043904501 1.509e-07 -7.6351e-06 7.66909e-05 2.0308e-05 0.0544904762 -0.1046039223
485297090.0 -0.4700536825 0.7085699874 7.12904e-05 -0.0002830512 0.0002253577 3.31018e-05 0.0529832497 -0.1053177266
490297060.0 -0.4622055247 0.7138966955 -0.0001082304 -0.0001086584 -0.000104761 6.993e-05 0.051358546 -0.1061845172
495297030.0 -0.4549833104 0.7182295401 6.03553e-05 -1.32332e-05 -0.0001297033 -7.9312e-06 0.0499335252 -0.1067641581
500297000.0 -0.4475256404 0.7225056982 4.72103e-05 -9.85528e-05 -1.5324e-05 0.0002066381 0.0481986621 -0.1076235179
505296970.0 -0.4392254976 0.7271647614 0.0001216784 -0.0001808275 8.19485e-05 5.12101e-05 0.0463485139 -0.108117104
510296940.0 -0.4321376254 0.7313699324 -4.84649e-05 -0.0001312694 9.46329e-05 7.5965e-05 0.0448196745 -0.1082575075
515296910.0 -0.424396215 0.735898066 9.43693e-05 -2.3452e-06 2.37341e-05 6.37999e-05 0.0433039167 -0.1093660303
520296880.0 -0.4161315411 0.7405160939 0.0002762648 -2.88759e-05 0.0001726168 1.68912e-05 0.0417577865 -0.1096102153
525296850.0 -0.4090701079 0.7440123569 -4.4277e-05 3.52301e-05 6.49766e-05 -6.63222e-05 0.0400129416 -0.1101153886
530296820.0 -0.4013330042 0.7477944292 -5.2218e-05 7.4984e-05 7.92896e-05 -1.78968e-05 0.0386056858 -0.1107325484
535296790.0 -0.3929623104 0.7520371819 0.0002444026 8.77971e-05 0.0001833386 -0.0001558645 0.0370257398 -0.1109262748
540296760.0 -0.3850896395 0.7560486025 0.000270148 8.1848e-06 -4.76421e-05 0.0001575609 0.035282236 -0.111629671
545296730.0 -0.3777025319 0.7605782177 5.37007e-05 -4.0439e-06 0.0001067862 0.0002895423 0.033744136 -0.1118516278
550296700.0 -0.3693596106 0.7640805671 0.0002205522 -1.63297e-05 0.0004159889 -1.64762e-05 0.0318246972 -0.1121453408
555296670.0 -0.3618338536 0.7679743778 0.0002685794 -5.12966e-05 0.0001673928 -5.41634e-05 0.0299235418 -0.1127798467
560296640.0 -0.3532093083 0.77095216 0.000282307 -0.0001266264 5.35699e-05 -8.7403e-06 0.028437593 -0.1128733326
565296610.0 -0.3452635709 0.7740647241 0.0001695973 0.0001558735 0.000142716 0.0001174166 0.0268053478 -0.1131080485
570296580.0 -0.337414413 0.7782551591 -3.27786e-05 -0.0001499738 0.0002130322 -6.80406e-05 0.0249050883 -0.1136753725
575296550.0 -0.3285791579 0.7813819217 5.25559e-05 0.0002615812 0.0001400742 3.26701e-05 0.0233464917 -0.1140735233
580296520.0 -0.3213850693 0.7850161355 9.25361e-05 7.72543e-05 -0.0001068449 7.02502e-05 0.0219218298 -0.114190881
585296490.0 -0.3126548729 0.7881197682 -5.44271e-05 2.16772e-05 6.11523e-05 -9.20383e-05 0.0201162964 -0.1143186138
590296460.0 -0.3040273659 0.7910423618 0.0001645233 -3.25737e-05 5.72803e-05 0.0001153464 0.0182485181 -0.114543053
595296430.0 -0.2963464583 0.7940511564 5.96728e-05 -0.0001238418 0.0001526026 0.0002708876 0.0168372462 -0.1144376017
600296400.0 -0.2882072502 0.7969134763 2.33441e-05 8.99193e-05 0.0002610555 3.69824e-05 0.0152169372 -0.1148503881
605296370.0 -0.280188606 0.7998433039 -2.37454e-05 -0.0001269001 0.0001125374 -1.516e-07 0.0135092704 -0.1147178218
610296340.0 -0.2715653758 0.8027613805 0.0002291815 -0.0003041003 0.0002604912 -0.0001832912 0.0114790351 -0.1147437166
615296310.0 -0.2632527011 0.8058651825 3.37538e-05 -0.0001726948 0.0002173035 -0.0001364042 0.0101256905 -0.1150240576
620296280.0 -0.2554341626 0.8084089821 0.0001785731 8.0116e-05 0.0001897813 0.0001978556 0.0085458062 -0.1148626657
625296250.0 -0.247632679 0.8102748049 -8.2994e-06 -0.0002309709 3.3956e-06 -0.0001615424 0.006682521 -0.1152180506
630296220.0 -0.2389751259 0.8131976912 -1.9362e-05 -0.0001140442 0.0001350069 4.12864e-05 0.0050627224 -0.1150841839
635296190.0 -0.2306390081 0.8156984414 0.00013832 -0.0002263692 0.0001227654 -0.0001245048 0.0030584115 -0.1148228224
640296160.0 -0.2214476723 0.8178496822 0.0002707098 0.0001120489 -0.0001187034 9.27887e-05 0.0016387967 -0.1149815158
645296130.0 -0.2134420887 0.8201199051 0.000104879 -0.0001276189 4.57933e-05 7.96049e-05 -0.0004798265 -0.1148404043
650296100.0 -0.2055624539 0.8219488526 -5.44596e-05 5.97356e-05 -2.1681e-05 -9.97643e-05 -0.0016832431 -0.1147854272
655296070.0 -0.1979774743 0.8244745831 -9.17589e-05 0.0001281472 0.0001706355 6.9746e-05 -0.0038632355 -0.1145843995
660296040.0 -0.1890171472 0.8263012537 0.000285775 -2.06138e-05 0.0003502733 -3.4764e-06 -0.0051728968 -0.1146423647
665296010.0 -0.1807340732 0.8280238971 7.99881e-05 0.0001927001 0.0002802045 -8.16152e-05 -0.0066089217 -0.1142076575
670295980.0 -0.1723883486 0.8300783238 0.0002429896 3.70859e-05 7.6521e-05 -0.000107404 -0.0086459649 -0.1140278929
675295950.0 -0.164200089 0.8320089153 6.37516e-05 4.37234e-05 0.0001255385 5.0873e-05 -0.0103612488 -0.1138751407
680295920.0 -0.156533934 0.8339969198 0.0001683854 1.49145e-05 0.0002535498 -0.0001852657 -0.0117108461 -0.1137934234
685295890.0 -0.1470690045 0.8353753139 0.0001384112 -4.44856e-05 0.0001966836 0.000144319 -0.0133476924 -0.1133477019
690295860.0 -0.1391926766 0.8372275218 0.0001577985 -3.92274e-05 2.99372e-05 -4.56634e-05 -0.0154744436 -0.1130700745
695295830.0 -0.1308836394 0.8388239819 0.0001318939 -9.52821e-05 0.0002049786 -0.0001864371 -0.0169031907 -0.1128054489
700295800.0 -0.1223196619 0.8398942983 0.000259733 -5.7137e-06 0.0001825828 -0.0001296165 -0.018219504 -0.1123082582
705295770.0 -0.1145605993 0.8413913635 0.0001633335 7.92003e-05 7.57121e-05 0.0001570463 -0.0200478082 -0.1119288506
710295740.0 -0.107772162 0.8419374329 0.0003317954 -3.81361e-05 -1.6063e-06 0.0002056399 -0.0216207553 -0.1117858907
715295710.0 -0.0977024097 0.8435853164 0.0003871401 6.19747e-05 0.0001183283 1.97125e-05 -0.0230686386 -0.1114847109
720295680.0 -0.0889206093 0.8445283934 0.0002167694 4.2123e-05 0.0001579364 2.1659e-06 -0.0249819307 -0.1107731875
725295650.0 -0.081189837 0.8459589084 -7.30424e-05 8.49342e-05 -3.37471e-05 -0.0001747217 -0.0264214903 -0.1102770196
730295620.0 -0.0735769104 0.847012398 -9.21169e-05 0.0001002999 -5.83327e-05 -8.59956e-05 -0.0282432381 -0.1097170239
735295590.0 -0.0654586394 0.847455358 0.0001818805 -5.75199e-05 0.0002752636 -0.0001626283 -0.029672936 -0.1094647682
740295560.0 -0.0574968412 0.8476813586 9.57855e-05 -3.2151e-05 0.0002078589 -4.39142e-05 -0.0312661075 -0.1089930268
745295530.0 -0.049021055 0.8491992792 0.0001928104 0.0001980694 0.0001577541 -0.0002392795 -0.0327153308 -0.1082047788
750295500.0 -0.0407612861 0.8494083798 4.1317e-06 0.0001192381 0.0001422377 -2.42315e-05 -0.0345766746 -0.1075921856
755295470.0 -0.0324061104 0.8497916196 0.0001294478 1.64244e-05 0.0001368736 -9.52766e-05 -0.0360355305 -0.106912076
760295440.0 -0.0237788222 0.8514182263 8.42794e-05 -8.0275e-06 8.01192e-05 0.0001906585 -0.037497327 -0.106764696
765295410.0 -0.0159793815 0.8505439533 4.73739e-05 -2.5367e-06 0.000184622 -9.88906e-05 -0.0392892625 -0.1059096116
770295380.0 -0.0083705213 0.8515934524 0.0001595349 -0.0001730255 6.51732e-05 2.44284e-05 -0.0407232636 -0.105354632
775295350.0 6.07726e-05 0.8511329868 0.0001087192 -4.094e-05 0.0001066036 -0.0001792984 -0.0420157192 -0.1047184341
780295320.0 0.0090232125 0.8517650079 -6.62893e-05 -6.77517e-05 -1.12015e-05 -5.21881e-05 -0.0437443047 -0.1038203069
785295290.0 0.0167599384 0.8510149426 0.0001740561 -0.0001188423 0.0002756929 -1.51875e-05 -0.0453846316 -0.1031608706
790295260.0 0.0251731761 0.8507320666 -6.4417e-06 2.16199e-05 0.0001356499 -0.0001801353 -0.0469100853 -0.1023492724
795295230.0 0.0328732534 0.8506466722 5.97343e-05 -0.0001382052 9.79831e-05 9.74069e-05 -0.0486199403 -0.1021981104
800295200.0 0.0412327163 0.8504921849 0.0001224631 0.0001853114 0.0003251778 -2.21371e-05 -0.049797856 -0.101264859
805295170.0 0.0488775033 0.8508725412 0.0001103399 -8.62919e-05 0.0001845606 -0.0001998281 -0.051069959 -0.1005834469
810295140.0 0.0576646053 0.8510025596 0.0003241327 -0.0001350376 0.0001142415 -0.0002623117 -0.0527199038 -0.0995739395
815295110.0 0.0651455108 0.8499208506 0.0001799643 6.91224e-05 0.00020535 -0.0002260356 -0.0546481996 -0.0987684114
820295080.0 0.0734533587 0.8491670924 0.0001833816 -8.35946e-05 0.0001677457 4.94307e-05 -0.0559165581 -0.0974225954
825295050.0 0.0815356236 0.84815103 -2.88523e-05 0.000200402 0.0001273548 -1.57622e-05 -0.0571619716 -0.0973341616
830295020.0 0.0904704721 0.8477145533 7.76432e-05 4.2508e-05 0.0001591501 -6.59229e-05 -0.0586324557 -0.0961672919
835294990.0 0.0980091217 0.8465207153 4.08068e-05 -2.90921e-05 5.05164e-05 -0.0001446835 -0.0597360358 -0.094989832
840294960.0 0.1066026296 0.8457367412 0.0001670023 8.5291e-06 0.0001803221 4.15991e-05 -0.0611454553 -0.0944669736
845294930.0 0.1146892966 0.8443829284 -2.59886e-05 -0.0001684859 0.0001254554 7.46579e-05 -0.0628034035 -0.093283277
850294900.0 0.1237941382 0.8434556111 0.0001306725 -0.0001443404 0.0001542114 -0.0001764036 -0.0642826485 -0.0922964636
