!Created with skrf (http://scikit-rf.org).
# Hz S RI R 50.0 
!freq ReS11 ImS11 ReS21 ImS21 ReS12 ImS12 ReS22 ImS22
300000.0 -0.7777718279 -0.1748179867 -0.0005293176 -0.0002983566 0.0010950579 0.0008130493 -0.0456501439 -0.0786788917
5299970.0 -0.7862911464 -0.0097107025 7.27179e-05 6.23557e-05 -0.0001352168 -7.73823e-05 -0.0488012377 0.0141391193
10299940.0 -0.7893297484 -0.0061758182 0.0001960807 0.0001545796 1.5998e-05 0.0001716374 -0.043007792 0.0321113585
15299910.0 -0.7941553922 -0.0033552614 -0.0001897776 7.2492e-06 1.20178e-05 -0.000105985 -0.0347750987 0.0465829142
20299880.0 -0.8005930008 0.0006247928 3.52395e-05 6.1469e-05 -6.8892e-06 0.000121346 -0.025246879 0.0586805507
25299850.0 -0.8075209083 0.0064636554 6.57809e-05 4.41648e-05 -1.59067e-05 -0.0001089864 -0.0145722453 0.0678715827
30299820.0 -0.8138869738 0.0141042836 0.0001192589 -9.36196e-05 5.45817e-05 -4.78494e-05 -0.0026746821 0.0746868698
35299790.0 -0.8188008067 0.0231468246 -1.73745e-05 -5.70839e-05 8.40167e-05 0.0001330722 0.0083349927 0.0794770941
40299760.0 -0.8234464076 0.0318947931 -0.0001197738 4.98895e-05 7.5242e-05 0.0001715564 0.0195745002 0.0826023656
45299730.0 -0.8262418395 0.0418235722 7.06646e-05 1.53545e-05 1.87375e-05 -0.0001763616 0.0303804566 0.0843065286
50299700.0 -0.8286751303 0.0512937685 0.0001202771 0.0001741984 0.0001207654 9.07438e-05 0.040414559 0.0845618663
55299670.0 -0.8314105823 0.0612388496 0.0001070339 0.0003297947 2.57941e-05 5.96586e-05 0.0493526861 0.083376751
60299640.0 -0.8324911074 0.0716320903 0.000157928 4.49132e-05 -2.56503e-05 -4.07672e-05 0.0581748343 0.0816816578
65299610.0 -0.8336353198 0.0823016079 9.59529e-05 1.38081e-05 -9.8641e-06 -1.9995e-06 0.0657113078 0.0795003122
70299580.0 -0.8335451051 0.0917568262 4.8492e-05 0.0001450967 0.0001875107 9.90011e-05 0.0724482009 0.0766950848
75299550.0 -0.8337302488 0.1014135782 -9.37887e-05 -0.0001264757 9.76394e-05 0.0001760717 0.0792441283 0.0736767279
80299520.0 -0.8341929439 0.1122261782 5.58859e-05 0.0002168015 0.0003528519 0.0001060651 0.084771424 0.0700323174
85299490.0 -0.8329451333 0.1212669038 4.73626e-05 4.54633e-05 8.56269e-05 6.04768e-05 0.0900058884 0.0667352706
90299460.0 -0.8324354675 0.1317937121 -0.0001299848 -0.0001198208 0.0002353023 -0.0001428621 0.0943283811 0.0627294979
95299430.0 -0.8316554059 0.1408069059 0.000124671 5.52701e-05 -5.27067e-05 0.0001587629 0.0987071535 0.059375513
100299400.0 -0.8304699037 0.1498650113 -0.0001475211 5.34368e-05 -3.6977e-06 7.47091e-05 0.102516811 0.055879883
105299370.0 -0.8287243871 0.159217439 7.7943e-05 0.0001152865 0.0001124938 -2.54289e-05 0.1058200714 0.0515236898
110299340.0 -0.8275386128 0.1685519866 1.92671e-05 0.0001636999 -5.43436e-05 0.0001581645 0.1082414217 0.0476340537
115299310.0 -0.8260589694 0.1778671854 0.0001613466 -0.0001076127 0.0003110334 7.38592e-05 0.1111991676 0.0438144552
120299280.0 -0.8246659479 0.1863428256 -8.86375e-05 0.0001572397 1.13483e-05 0.0002788643 0.1131610457 0.0398262511
125299250.0 -0.8223870602 0.1957270099 8.99308e-05 3.2069e-05 8.5812e-06 7.60185e-05 0.1155736095 0.0365881251
130299220.0 -0.8209579382 0.2049982265 -0.000176182 0.0001235113 0.000116806 0.0001618021 0.1172132415 0.0323987892
135299190.0 -0.818609978 0.2143170682 0.0001596991 -4.39533e-05 0.0002160855 2.25378e-05 0.1188615551 0.0289753297
140299160.0 -0.8171914756 0.2235545767 -0.0001980289 4.7905e-06 3.44536e-05 1.2851e-05 0.1196411688 0.0258202246
145299130.0 -0.8147073387 0.2320967553 0.0001639934 4.2537e-06 1.14218e-05 0.0001419196 0.1210963021 0.0223128768
150299100.0 -0.8119377201 0.2409280395 0.0002339851 -3.30263e-05 0.0001243586 3.83008e-05 0.1218725776 0.0189857004
155299070.0 -0.810466191 0.2502329491 0.0001633032 0.0002989857 -7.75783e-05 -4.92384e-05 0.1227878525 0.0154189694
160299040.0 -0.807768098 0.259322268 4.79445e-05 -1.22138e-05 0.0002516249 2.3794e-06 0.1233284469 0.0124755708
165299010.0 -0.804839734 0.267702471 0.0002377292 0.0001566548 0.0001384556 9.73961e-05 0.1241291116 0.0094832703
170298980.0 -0.8017015899 0.276023818 -3.24984e-05 0.0002326895 7.1349e-06 5.48908e-05 0.1242521788 0.0064962522
175298950.0 -0.7995211081 0.2845792517 -0.0001543374 0.0001219285 0.0001508402 -6.617e-07 0.124804529 0.0038353352
180298920.0 -0.7962087519 0.293254144 0.0002220951 0.0001266029 0.0001711632 -9.3056e-06 0.1247969919 0.0005594349
185298890.0 -0.7929671022 0.3020557861 0.0001538555 -5.24276e-05 -2.8474e-05 0.0001078884 0.1250703559 -0.0024960291
190298860.0 -0.7892021526 0.310991675 0.0002799889 0.0001848187 -1.72901e-05 6.3325e-05 0.1249312985 -0.0051180523
195298830.0 -0.7865239181 0.3191211598 -6.2901e-05 9.5216e-05 0.0001846504 0.0001291952 0.1248883309 -0.0076472829
200298800.0 -0.7827865216 0.3279308967 9.05799e-05 0.0002927246 -9.46635e-05 0.0002831927 0.1249249069 -0.0105945885
205298770.0 -0.7788529574 0.3365677003 0.0001516801 0.0002027624 0.0001586807 -0.0001045157 0.124645813 -0.0127364049
210298740.0 -0.7762889178 0.3445290937 6.31663e-05 0.0001197628 0.0001674285 3.74931e-05 0.1245205168 -0.0152700685
215298710.0 -0.7725895578 0.3535385978 0.000252206 0.0001401198 -6.6404e-05 0.0001972676 0.1241617641 -0.0180767234
220298680.0 -0.7689822239 0.361123658 -6.50677e-05 0.0001215329 0.0001600725 0.0001873968 0.1236444267 -0.0201281093
225298650.0 -0.7648317561 0.3692893239 -4.44786e-05 0.0001714227 8.82376e-05 0.0001539129 0.1232126474 -0.0229131317
230298620.0 -0.7613144913 0.3778400367 0.0001202618 8.13883e-05 0.0003219025 0.0001943165 0.1230469163 -0.0251652718
235298590.0 -0.7572286072 0.3856175134 0.0001646163 0.0002451122 0.0001643234 0.0001331773 0.122380443 -0.0271472181
240298560.0 -0.752648597 0.3934968551 0.0001460247 1.8907e-05 0.0002602354 0.0001729342 0.1221448379 -0.029740085
245298530.0 -0.7485496519 0.4016164189 0.000110685 0.000237777 0.0001570391 0.0001491103 0.1209856965 -0.0317994673
250298500.0 -0.7448798205 0.4092639212 0.000167 1.34055e-05 0.0002048754 -5.0045e-05 0.120584747 -0.0336189208
255298470.0 -0.7403808803 0.4175029387 1.11853e-05 -5.34687e-05 0.0001019925 8.93546e-05 0.1202796058 -0.0358270616
260298440.0 -0.7363674396 0.4249790809 9.02308e-05 -3.21712e-05 -2.434e-07 -1.87041e-05 0.1189125652 -0.0377557346
265298410.0 -0.7318493068 0.433090498 0.0004065809 0.0002340611 0.0001473557 0.0001561354 0.1187801259 -0.0399334578
270298380.0 -0.7271623128 0.4402757596 2.60931e-05 0.0003770378 0.0002181077 0.0001292699 0.1181447897 -0.0418654649
275298350.0 -0.7233116748 0.4479786809 8.51955e-05 0.0002377645 0.0001400777 -5.24418e-05 0.1175291511 -0.0438443903
280298320.0 -0.717889885 0.4555855917 7.30901e-05 0.0002678475 0.0001101212 0.0002917814 0.1162784821 -0.0457504721
285298290.0 -0.7134333088 0.4633312767 0.0002766747 0.0001534617 0.0002235728 9.0206e-05 0.1157274427 -0.0473607469
290298260.0 -0.70835446 0.4705076069 0.0001347847 -3.6763e-06 4.97575e-05 2.58268e-05 0.1146528272 -0.0492805545
295298230.0 -0.7038693864 0.4783628408 -2.55297e-05 6.16763e-05 2.23364e-05 0.0001341543 0.1139278587 -0.0510858295
300298200.0 -0.6995715383 0.4855465724 0.0002398915 0.0001632789 7.45407e-05 8.42202e-05 0.1132253358 -0.0526158232
305298170.0 -0.6946227385 0.4924851944 -3.3597e-06 0.0001991742 0.0001261634 0.0004143963 0.1122201862 -0.0545210815
310298140.0 -0.6890540185 0.4998701598 0.0001974344 -8.95117e-05 0.0001613431 9.46346e-05 0.1116064252 -0.0564104676
315298110.0 -0.6845092764 0.5074219289 0.0002632664 0.0002258162 0.0003026138 0.0002808489 0.110796586 -0.0578819582
320298080.0 -0.6787452427 0.5142635919 4.62824e-05 9.11642e-05 0.0001754352 4.06793e-05 0.1095637116 -0.0596412809
325298050.0 -0.6733701985 0.5205974515 0.0001149256 0.0001635147 0.0003529843 0.0002766603 0.1086121437 -0.0620370215
330298020.0 -0.6679704628 0.527942902 0.0002189369 0.0001443641 0.0002614649 7.88063e-05 0.1072204375 -0.0634254934
335297990.0 -0.6628417967 0.5346996521 0.0001300069 -4.49894e-05 8.57228e-05 0.0001137239 0.1062133461 -0.0652670327
340297960.0 -0.657954341 0.5413261792 0.0002564075 -0.0001644583 0.0001593018 8.54624e-05 0.1048432318 -0.0665183722
345297930.0 -0.6520807646 0.5480544498 1.9225e-06 0.0001393316 0.0001990341 0.0002763373 0.1037312393 -0.0677521125
350297900.0 -0.6462720763 0.5546134874 0.000227299 -1.65414e-05 -2.88837e-05 5.15144e-05 0.1021830759 -0.069400055
355297870.0 -0.6406407176 0.5617431112 0.0004658038 0.0001080351 9.21485e-05 0.0001771881 0.1011291989 -0.0705921694
360297840.0 -0.635037169 0.5680606098 0.0001068031 -7.66285e-05 0.0001291127 3.48827e-05 0.0998315799 -0.072087156
365297810.0 -0.6294367862 0.5751513919 0.0002097284 0.0002325638 0.0001199272 0.0003373231 0.0987506229 -0.0731183375
370297780.0 -0.6234905853 0.5802392981 0.0002146134 0.0002291159 0.0001060929 0.0001495439 0.0972438934 -0.0745291528
375297750.0 -0.6179993659 0.5869499756 0.0001665741 -4.83742e-05 1.1943e-06 0.0002669713 0.0962826045 -0.075846085
380297720.0 -0.6121145073 0.5936955492 0.0003360406 0.0001201648 0.0002955378 0.0001521047 0.0952903515 -0.0767715063
385297690.0 -0.6057596784 0.5988934744 5.5065e-06 0.0003892882 0.0003393099 1.23072e-05 0.0937870977 -0.0779990919
390297660.0 -0.5987860825 0.6051582922 0.0002476655 7.3608e-06 0.0003028449 6.60582e-05 0.0923970966 -0.0794492783
395297630.0 -0.5930292931 0.6122353947 -0.0001506612 0.0002453759 0.0003358146 0.00019783 0.0909347436 -0.0805766453
400297600.0 -0.5867822063 0.6181823511 9.43037e-05 0.0002805666 0.0001774548 0.0001852773 0.0903046007 -0.0813629394
405297570.0 -0.5806324695 0.6231912492 0.0002960005 0.0002355724 0.0001297334 0.000136936 0.0890529877 -0.0825395797
410297540.0 -0.5741441599 0.6300357323 0.0003118265 -0.000157477 0.0001053614 0.0002648227 0.0875367622 -0.0836923918
415297510.0 -0.5681487981 0.6354597443 0.0003283092 0.0002699984 0.0003212996 0.0002418591 0.0863214741 -0.0846668668
420297480.0 -0.5610108137 0.6410903777 0.0002257061 0.0002827014 0.0002767448 0.0001393949 0.0855910208 -0.0855336696
425297450.0 -0.5544940918 0.6457934625 0.0002182007 0.0001971732 0.0004295125 6.05521e-05 0.083903436 -0.0870114301
430297420.0 -0.5476082745 0.6516141 0.0001216955 3.94751e-05 0.0003502792 0.0003221363 0.0824813607 -0.087787357
435297390.0 -0.5409238579 0.6578526733 0.0002160462 0.0002810083 9.71669e-05 8.5817e-05 0.0811275539 -0.0883818345
440297360.0 -0.5343335213 0.6624942904 0.0002154795 9.19367e-05 0.0002252574 1.33e-08 0.0801255357 -0.0895966999
445297330.0 -0.5271018285 0.6683737131 0.0002039182 0.0001864556 0.0002718512 5.817e-07 0.0787821047 -0.0904938572
450297300.0 -0.5204797837 0.6733800442 0.0003743119 7.52044e-05 0.0002007954 -5.7102e-05 0.0774651714 -0.0914164643
455297270.0 -0.5134994572 0.6787316249 0.0001664525 0.0002348227 0.0003065266 3.86114e-05 0.0759874558 -0.0921397123
460297240.0 -0.5066495102 0.6841200537 0.000113089 -3.55003e-05 2.08e-05 3.59854e-05 0.0745300247 -0.0930979413
465297210.0 -0.4990213329 0.6889301784 0.0002603947 9.34578e-05 0.0003190436 3.61295e-05 0.0733966109 -0.0938679531
470297180.0 -0.491940218 0.6944559596 0.0001896118 2.2399e-05 0.0002625259 5.10098e-05 0.0718616553 -0.0946899259
475297150.0 -0.4852642978 0.6985358876 0.0002668286 3.67705e-05 7.38941e-05 0.0002912129 0.0708277394 -0.0955316149
480297120.0 -0.4766036402 0.7039647924 0.0002673894 -8.4743e-05 0.0002740907 0.0001194182 0.0691087243 -0.0962051022
485297090.0 -0.4697529768 0.7086045271 0.0002919342 0.0003078487 0.0002598689 0.0001077391 0.0678112303 -0.0970983032
490297060.0 -0.4619170634 0.7136339233 0.0004196586 -0.0001477045 0.0001249223 7.4206e-05 0.0662287042 -0.0978443255
495297030.0 -0.4547811969 0.7181539409 0.0001324281 5.1136e-05 0.0003494364 3.76223e-05 0.0653979972 -0.0985960455
500297000.0 -0.4478564821 0.721751656 0.0001650652 6.03204e-05 0.0001515891 -3.25593e-05 0.0640586823 -0.0990648422
505296970.0 -0.4396522353 0.7273776913 0.0002873506 0.0001916727 0.0003969735 0.0001139554 0.0622608707 -0.0996533023
510296940.0 -0.4321572914 0.7315885336 0.0003248573 0.0001745668 0.0002654932 -3.53854e-05 0.0613862105 -0.1003199209
515296910.0 -0.4239413258 0.7357086026 0.0001648957 -3.38204e-05 0.0002108629 0.0003004494 0.059416257 -0.1011397328
520296880.0 -0.4164728594 0.7397395235 0.000601015 0.000382307 0.0001234763 0.0002239403 0.0583691809 -0.1017113604
525296850.0 -0.4086511185 0.7439643121 0.000378882 1.28523e-05 0.0002097748 3.12637e-05 0.0565148855 -0.1021766767
530296820.0 -0.4015878029 0.748133349 0.0004356585 -3.59712e-05 0.0002596037 0.0001596985 0.0554945271 -0.1029525606
535296790.0 -0.3926730769 0.7520136438 0.0003750957 0.0001285414 0.0003932596 0.0001973334 0.0542928244 -0.1031897991
540296760.0 -0.3846453499 0.7561382056 0.0003477806 2.63198e-05 0.0002050347 0.0003135996 0.0522323412 -0.1039761269
545296730.0 -0.3777345268 0.7604424155 0.000233546 0.0001495278 0.0002692404 1.56467e-05 0.0512969834 -0.1042705248
550296700.0 -0.3692164923 0.7634998038 5.23669e-05 0.0001535192 0.0002893856 0.0001160113 0.0497992061 -0.1046430976
555296670.0 -0.361374162 0.7671342285 0.0002892107 0.0001994391 0.0003353794 3.95942e-05 0.047940902 -0.1054604448
560296640.0 -0.3530513879 0.7706572794 0.0004576261 8.5709e-06 0.0002672913 0.0001263841 0.0466721333 -0.1058700076
565296610.0 -0.3460171147 0.7744091005 0.0001783432 2.51189e-05 0.0003820155 7.6982e-05 0.0453197779 -0.1061287071
570296580.0 -0.3368888709 0.7783530211 9.66552e-05 0.0002512817 0.000256085 -7.98721e-05 0.0437117817 -0.1065506223
575296550.0 -0.3284049979 0.7811134958 0.0004062804 -7.58524e-05 0.0002490639 -1.39892e-05 0.0425217106 -0.1068721268
580296520.0 -0.3208600364 0.7843254604 0.0003585451 0.0001433277 0.0004548501 -2.75694e-05 0.0408376775 -0.1073642328
585296490.0 -0.3125568643 0.7874130259 0.0005353313 5.20887e-05 0.0004383715 0.0001240113 0.0396863789 -0.1074835214
590296460.0 -0.3037779598 0.7909750185 0.0002355538 6.08398e-05 0.0001583384 -8.49302e-05 0.0379080351 -0.1076886706
595296430.0 -0.2959325744 0.7938994365 0.0003596053 0.0001525541 0.0004787994 5.16531e-05 0.0365795176 -0.1082198129
600296400.0 -0.2880985036 0.7968032092 0.0001400833 0.0001381269 0.0002666711 0.0001695524 0.0352665501 -0.1087505819
605296370.0 -0.2802242344 0.7996228582 0.0003186067 0.0001408027 0.0003246861 9.04287e-05 0.0338912359 -0.1087366555
610296340.0 -0.2717718908 0.8027563714 0.0001237802 1.17765e-05 0.0002791606 -8.00439e-05 0.0321391647 -0.1087888015
615296310.0 -0.2631041087 0.8052720014 0.0002533432 2.7013e-05 0.0002101821 -3.724e-05 0.030815872 -0.1090475779
620296280.0 -0.2555087102 0.8082668624 0.0003971093 6.0132e-06 0.0001222914 -7.72529e-05 0.0293358035 -0.1091949826
625296250.0 -0.247958986 0.8103876781 0.0004708872 -0.0001567316 0.0004913389 0.0001094805 0.0277343173 -0.1096246243
630296220.0 -0.2388542956 0.8129565365 0.0005127905 -6.93149e-05 0.0003328656 7.93178e-05 0.0265420128 -0.1095715591
635296190.0 -0.2304810697 0.8158434138 0.0004071518 6.66387e-05 0.0003577006 -0.0001239781 0.024793434 -0.1096452389
640296160.0 -0.2221701685 0.8176234259 0.0002166774 -0.0002055332 0.0002277076 -0.0001140199 0.023440209 -0.1097497723
645296130.0 -0.213440203 0.8204936664 0.000389438 -0.0001707058 0.0003347969 -0.0001191775 0.0218588726 -0.1100663772
650296100.0 -0.2057463678 0.8219215334 0.0002547959 -9.10708e-05 0.000280193 -4.22786e-05 0.0204827096 -0.1101011179
655296070.0 -0.1978819268 0.8242580627 0.000396078 0.0001857294 0.0002390986 -0.0001719207 0.018692011 -0.1099435957
660296040.0 -0.1891603814 0.8262243873 0.00057612 0.0001138653 0.0004587517 -0.0002532254 0.0178271616 -0.1101266439
665296010.0 -0.1807035099 0.8280091739 0.0002353796 -0.0001057531 0.0003371406 6.25506e-05 0.0160302355 -0.110347409
670295980.0 -0.1726974526 0.8306864138 0.0003864729 -7.05068e-05 0.0003641773 0.000142614 0.014739225 -0.1102178074
675295950.0 -0.1639571103 0.8322299303 0.0002531918 5.06728e-05 0.0004929456 -0.0002133513 0.0130341324 -0.1101623596
680295920.0 -0.1568933486 0.8337234803 0.0006054502 -3.02461e-05 0.0004877521 0.0001470817 0.0117296514 -0.1102571793
685295890.0 -0.1480002496 0.8359596534 0.0003388817 3.19365e-05 0.0001805057 0.0002275544 0.0103343818 -0.1099187196
690295860.0 -0.1392100991 0.8364687769 0.0004342351 -8.6011e-05 0.0003304983 5.44164e-05 0.0088567845 -0.1098558915
695295830.0 -0.1303403277 0.8383889811 0.000390032 0.0002620372 0.0003729099 7.6985e-05 0.0076760319 -0.1095379276
700295800.0 -0.122629673 0.8402696828 0.0002213531 3.59008e-05 0.0004334983 2.73421e-05 0.0062682674 -0.10957298
705295770.0 -0.1147316589 0.8414914367 0.0004690937 -0.000127642 0.0002803914 6.38105e-05 0.0045278659 -0.1094825982
710295740.0 -0.1063937363 0.8419267724 0.0005533368 -0.0001735364 0.0004584316 0.000103897 0.0037293722 -0.1093219619
715295710.0 -0.0979125866 0.8432876167 0.000414392 0.000144122 0.0005711151 -0.0001967093 0.0019856863 -0.1092312676
720295680.0 -0.0887742174 0.844542248 0.0003179623 -5.85099e-05 0.0003740056 -7.34881e-05 0.000358126 -0.1091016137
725295650.0 -0.0811438476 0.8456044919 0.0004638694 -6.8309e-05 0.0005023239 -0.0001200971 -0.0009833032 -0.1084770289
730295620.0 -0.0740450286 0.8464767241 0.0004574274 -0.0003199232 0.0004395493 0.0001440076 -0.00244625 -0.1082267832
735295590.0 -0.0652861975 0.8473100662 0.0005159766 -3.3903e-06 0.0004914422 -0.0001942743 -0.0035449263 -0.1082989364
740295560.0 -0.056962377 0.8476804059 0.0004531423 6.24283e-05 0.0002921967 -0.0001566167 -0.0049916681 -0.1079925042
745295530.0 -0.0488636922 0.8488169528 0.000298918 1.77922e-05 0.0003004993 -0.0001009971 -0.0066954184 -0.1074938526
750295500.0 -0.0408100953 0.8491560554 0.0002008158 7.4552e-05 0.0004039653 -0.0002113424 -0.0079901601 -0.1074754719
755295470.0 -0.0319801966 0.8499501626 0.0003426428 -1.18094e-05 0.0003485407 -1.50173e-05 -0.0093651723 -0.1067466769
760295440.0 -0.024168743 0.850852911 0.0003559817 -7.11345e-05 0.0004972721 -0.0001134925 -0.0107192144 -0.1068203952
765295410.0 -0.016646084 0.8508370503 0.0005086719 0.0002403095 0.0006111883 2.43217e-05 -0.0122800193 -0.1064059428
770295380.0 -0.0081518037 0.8512868199 0.0004617168 -0.0001683213 0.0001845368 4.53778e-05 -0.0138256276 -0.1060647792
775295350.0 1.4044e-05 0.8509822672 0.0003881247 -0.0002229148 0.0003546157 -0.0001989501 -0.0150094959 -0.1055049213
780295320.0 0.0091447204 0.8515864053 0.0004399515 -3.1974e-06 0.0004054481 -0.0003839188 -0.0163598469 -0.105241596
785295290.0 0.0171714974 0.8507343507 0.000464559 -0.0001151951 0.0007078651 -0.0002569087 -0.0179114249 -0.1047374696
790295260.0 0.0251486174 0.850920315 0.0006689124 -0.000157478 0.0002401229 -1.5864e-06 -0.0188008012 -0.1040771202
795295230.0 0.0329207034 0.8504672392 0.0005522839 -0.0001232012 0.0003459138 -4.22526e-05 -0.0204805308 -0.104324468
800295200.0 0.0410956951 0.8507410052 0.0004398512 0.0001002921 0.000513696 -3.56039e-05 -0.021775924 -0.1035825515
805295170.0 0.049474348 0.8507286415 0.0005658025 -0.0001721293 0.0004101161 -0.0001333911 -0.0228396068 -0.1033002999
810295140.0 0.0578159502 0.8507144745 0.0001200289 -0.0001191058 0.0003296173 9.98984e-05 -0.0242798764 -0.1023096077
815295110.0 0.0649765379 0.8496396218 0.0005152591 -1.68481e-05 0.0005998688 -0.0001786662 -0.0257168829 -0.1016675382
820295080.0 0.0736215847 0.8489668051 0.0004462295 -0.0001416913 0.0004807931 3.28788e-05 -0.0272489913 -0.1010984281
825295050.0 0.082015914 0.8483147248 0.0005331738 -0.0004449418 0.0005777409 -0.0001606671 -0.0281669855 -0.1007493173
830295020.0 0.0904530002 0.8477606534 0.0003647498 -0.0001259441 0.0004041407 -9.08053e-05 -0.0298123059 -0.1001570462
835294990.0 0.0981784791 0.8465339686 0.0002270596 4.63189e-05 0.0006137141 -0.0002264933 -0.030749692 -0.0995999882
840294960.0 0.1068065505 0.845578376 0.0003654081 -0.0001817303 0.0002200901 -0.0003539191 -0.0320849466 -0.0988347457
845294930.0 0.1152734309 0.8443809187 0.000383763 -6.65355e-05 0.0003702438 -0.0001223209 -0.0334932367 -0.098267936
850294900.0 0.1238198822 0.8434792009 0.0002669092 4.62617e-05 0.000287237 -0.0001970335 -0.034679185 -0.0976254542
