!Created with skrf (http://scikit-rf.org).
# Hz S RI R 50.0 
!freq ReS11 ImS11 ReS21 ImS21 ReS12 ImS12 ReS22 ImS22
300000.0 -0.7810196471 -0.10247143 -0.0008484193 0.001444039 0.0006122314 -0.0002019459 -0.2103511874 -0.0781102522
5299970.0 -0.78499572 -0.0055676187 -8.0639e-06 -2.8864e-05 -1.06e-08 9.61387e-05 -0.2149892633 0.0084600315
10299940.0 -0.7877712036 -0.0036058177 9.53712e-05 0.000125075 5.58968e-05 7.39668e-05 -0.2113063899 0.0215998041
15299910.0 -0.7935978997 -0.0021049896 -0.0001029132 0.0001013454 -0.0001711048 -4.96754e-05 -0.2059018049 0.0310552844
20299880.0 -0.7997840871 0.0020778592 -0.0001459357 6.03641e-05 6.19249e-05 0.0001212483 -0.1998053239 0.0392432712
25299850.0 -0.8061827131 0.0077980261 -0.0001554155 -0.0001581299 -6.5415e-06 -4.36311e-05 -0.1937298835 0.0456880092
30299820.0 -0.812693765 0.0153238906 7.70085e-05 -7.75886e-05 4.15281e-05 0.0001132412 -0.1873386653 0.0505969387
35299790.0 -0.817189428 0.0244909262 -7.12627e-05 -0.0001749049 7.27512e-05 0.0001516792 -0.1809808356 0.0548155777
40299760.0 -0.821604032 0.0342346518 0.0001942157 0.0001325904 5.39909e-05 0.0001138508 -0.1746485693 0.0575174666
45299730.0 -0.8240592388 0.0432325007 1.3741e-05 4.41621e-05 -0.0001421862 -0.0001029673 -0.1692865361 0.0600177002
50299700.0 -0.826933047 0.0532856243 -0.0001681353 0.0001714015 -4.9305e-05 -8.45585e-05 -0.1640708597 0.0607090057
55299670.0 -0.8294175458 0.0630333242 -7.6536e-06 6.17954e-05 7.3252e-06 0.0002053605 -0.1595415964 0.0618545457
60299640.0 -0.8300510778 0.0737759521 -0.0002030274 -6.71007e-05 -1.134e-05 1.70355e-05 -0.1551251118 0.0623229013
65299610.0 -0.8310575241 0.0836493738 2.96434e-05 0.0001293999 -0.0001817296 -0.0001153502 -0.1515548248 0.0625458683
70299580.0 -0.831991782 0.0934610445 -7.25484e-05 5.06504e-05 0.0001156512 0.0001645792 -0.1478260685 0.0624723215
75299550.0 -0.832451366 0.1035942174 -0.000152889 -0.0001420962 2.62064e-05 -1.10519e-05 -0.144561095 0.062971972
80299520.0 -0.8321324263 0.1137275331 -6.30904e-05 0.0002595331 0.000104577 -9.9552e-05 -0.1419310547 0.062813407
85299490.0 -0.8310385827 0.1227584915 0.0001520492 -4.27644e-05 -2.64276e-05 8.38072e-05 -0.139630464 0.0625214552
90299460.0 -0.8299524618 0.1323580168 0.0002024998 0.0001474418 -0.0001244961 5.39373e-05 -0.1369919261 0.0621826286
95299430.0 -0.8288790152 0.1419816558 -8.24383e-05 -1.95152e-05 -7.34673e-05 5.57996e-05 -0.1347186149 0.0620325036
100299400.0 -0.8281204073 0.1507885698 -7.75459e-05 -0.0001538608 -0.0001248852 4.3456e-06 -0.1327896889 0.0616544591
105299370.0 -0.8266334975 0.1599786215 2.61034e-05 8.04791e-05 0.0001084587 1.91273e-05 -0.1307429113 0.0617408604
110299340.0 -0.8252908647 0.1695985486 9.4476e-06 0.0001215264 9.3751e-06 -1.5591e-06 -0.1294911038 0.0612684269
115299310.0 -0.8239377299 0.1789236364 -2.47765e-05 0.000149565 8.07763e-05 0.00010466 -0.1281742721 0.0612129461
120299280.0 -0.8223726373 0.1868120114 0.0002642116 0.0001100853 2.98821e-05 0.0002020247 -0.1268139425 0.0612027691
125299250.0 -0.8202254624 0.195692202 0.000177517 -6.3019e-06 4.92531e-05 0.000152969 -0.1256191457 0.0609981252
130299220.0 -0.819072806 0.2058387634 0.0001283992 0.0001922096 2.07059e-05 -8.65761e-05 -0.1244718529 0.0606347123
135299190.0 -0.8165864707 0.2143970491 9.16547e-05 -7.7923e-05 9.23231e-05 -1.25369e-05 -0.1232077775 0.0609415644
140299160.0 -0.8152885561 0.2232946218 1.8479e-05 9.12384e-05 2.20855e-05 -0.0001055288 -0.1222719392 0.0611665068
145299130.0 -0.8123409956 0.2328499128 4.8339e-06 7.78304e-05 0.0001384068 0.0003224993 -0.1215537117 0.0613419219
150299100.0 -0.8098752986 0.2410554235 7.17734e-05 5.50105e-05 4.40909e-05 -0.0001185698 -0.1209507476 0.0620922392
155299070.0 -0.8075282354 0.2493942121 -3.79115e-05 -6.10273e-05 1.80965e-05 -0.0003022748 -0.1200795919 0.0621681738
160299040.0 -0.8052719193 0.2581904345 3.88556e-05 0.0001082773 -3.49668e-05 -8.47081e-05 -0.119662113 0.0627895371
165299010.0 -0.8026562194 0.2670437715 -0.0001226365 1.35266e-05 -3.58137e-05 0.0001288281 -0.1188153319 0.062813807
170298980.0 -0.7998128564 0.275251127 7.25916e-05 1.24266e-05 -5.05949e-05 0.0001150255 -0.1181341882 0.0635456743
175298950.0 -0.7975993503 0.2843340727 7.68907e-05 7.37884e-05 5.40429e-05 9.99201e-05 -0.1178476147 0.0639331177
180298920.0 -0.794714229 0.2928702866 -5.7965e-06 3.91492e-05 -2.35693e-05 -7.81379e-05 -0.1170379897 0.0644969075
185298890.0 -0.7909205522 0.3006677114 0.0001034733 -1.79639e-05 0.0001113061 0.0001598036 -0.1162128012 0.0653879938
190298860.0 -0.7884853638 0.3094662565 -7.41143e-05 7.56568e-05 -9.81667e-05 -2.56542e-05 -0.1159535368 0.0656750815
195298830.0 -0.7852693636 0.3181252777 7.77549e-05 0.0001624324 2.12967e-05 0.0001553567 -0.1155252196 0.0663333675
200298800.0 -0.781597949 0.3256811736 -2.51196e-05 8.84331e-05 0.000190527 6.80818e-05 -0.1153078157 0.0666586016
205298770.0 -0.7782919722 0.3340765324 0.0001466007 0.0001336709 0.0001759574 -0.0001062997 -0.1148568099 0.0672004459
210298740.0 -0.774809699 0.3426798995 0.0001609662 5.23888e-05 -1.65945e-05 0.0001425434 -0.1143082837 0.067935228
215298710.0 -0.7718998533 0.3509622036 0.0001768357 -0.0002224987 7.77881e-05 0.0001959106 -0.1138810582 0.0685758493
220298680.0 -0.7671279137 0.3583546338 0.0001283016 8.19731e-05 0.0002938697 0.0001055103 -0.1137461023 0.0695525851
225298650.0 -0.7642595046 0.3666406346 0.0001320503 8.66748e-05 0.0002639363 0.0001172839 -0.1135149777 0.070284977
230298620.0 -0.759585109 0.3748408305 7.1726e-05 1.67815e-05 0.0001320935 6.79235e-05 -0.1128430267 0.0706225677
235298590.0 -0.7559711075 0.3834945727 8.55201e-05 0.0001065874 2.22097e-05 3.41319e-05 -0.1125875505 0.0716320046
240298560.0 -0.7527236816 0.3913262238 0.0002234232 0.0001493519 -9.8031e-06 -0.0001208344 -0.1120519012 0.0725075212
245298530.0 -0.7485635441 0.3991346394 2.93286e-05 -5.21242e-05 4.11835e-05 -2.48639e-05 -0.1117338 0.0729112789
250298500.0 -0.7439337162 0.4069365288 -5.73021e-05 0.000126193 -0.0001884693 -0.0001014452 -0.1112592579 0.0737401919
255298470.0 -0.7393853149 0.4142467879 0.000306316 1.84303e-05 3.67777e-05 -9.04259e-05 -0.1106870771 0.0743158119
260298440.0 -0.7355079666 0.4218538721 2.04365e-05 0.0001776454 0.0002773142 0.0001398839 -0.1099147136 0.0753926845
265298410.0 -0.7311872356 0.4301808858 0.0001492192 5.17225e-05 -2.20205e-05 9.71733e-05 -0.1095463418 0.0764926306
270298380.0 -0.7266337829 0.4373405255 -0.0001401786 5.5706e-05 3.09215e-05 0.0001037305 -0.1088891585 0.0770919507
275298350.0 -0.7223128156 0.4446692183 0.0002058079 7.04486e-05 4.90779e-05 -6.61499e-05 -0.1083394499 0.078050146
280298320.0 -0.7170906318 0.4522005774 -4.98489e-05 -8.13038e-05 0.0001233575 0.0003195879 -0.1075641614 0.0786705037
285298290.0 -0.7128701852 0.4604729954 3.14713e-05 4.4177e-06 0.0001786829 6.22861e-05 -0.1071361179 0.079537937
290298260.0 -0.7077107793 0.4675725086 0.00017198 0.0001777929 0.0001133209 1.55588e-05 -0.1065072562 0.0807546569
295298230.0 -0.7025139453 0.474183864 0.0001098896 3.82608e-05 0.0002483047 -9.38873e-05 -0.1057899587 0.0814282577
300298200.0 -0.697776156 0.4813182648 -9.2476e-05 0.0001334786 0.0001003566 -8.99012e-05 -0.1050712295 0.0824086333
305298170.0 -0.692662946 0.4880220494 0.0001814145 0.0002036576 6.98398e-05 0.0001132521 -0.1043180511 0.0832498584
310298140.0 -0.6869987485 0.4962320531 1.5214e-05 4.01137e-05 0.0001201232 0.0001089699 -0.1042112615 0.0839160929
315298110.0 -0.68289586 0.5033676538 1.88894e-05 0.0001806947 6.64986e-05 0.0001516143 -0.1038360519 0.0848426227
320298080.0 -0.6776491836 0.510125316 0.0001028794 2.24581e-05 9.09971e-05 0.0002182435 -0.1029154125 0.085972654
325298050.0 -0.6715230862 0.5176203737 -1.93924e-05 7.5341e-05 0.0002411104 -1.8265e-05 -0.1022115196 0.0865420568
330298020.0 -0.6661775602 0.524178281 1.30461e-05 0.0003260869 8.77821e-05 5.35526e-05 -0.1018466981 0.0880281419
335297990.0 -0.6603738968 0.531069677 0.0002437832 3.93374e-05 5.08608e-05 4.23059e-05 -0.1014479899 0.0891804977
340297960.0 -0.6556171036 0.5377223453 0.0001883058 0.0002597836 1.71492e-05 9.7749e-05 -0.1003255103 0.0901326305
345297930.0 -0.6501432386 0.5446403816 5.16146e-05 -1.89967e-05 1.68056e-05 1.542e-05 -0.1003010823 0.0909156025
350297900.0 -0.6445035158 0.5511164766 0.0001746981 2.95624e-05 0.0002696243 5.18976e-05 -0.0995365058 0.0923812335
355297870.0 -0.6382044656 0.558374037 -6.15565e-05 2.41362e-05 0.0001496784 0.0001002279 -0.0990127386 0.0932482451
360297840.0 -0.63278632 0.5638243774 0.0001744382 -1.27311e-05 0.0001308516 -0.0003135084 -0.0981896494 0.094699362
365297810.0 -0.6268162067 0.5704641682 0.0001605344 0.0001595195 5.94877e-05 9.60661e-05 -0.0973961851 0.0954776359
370297780.0 -0.6207501982 0.57667206 1.72733e-05 7.54444e-05 -0.0001291984 1.1476e-06 -0.0968638616 0.0966059095
375297750.0 -0.6146964623 0.5835959854 0.0002537399 0.0002753525 0.0002659737 0.0002991298 -0.0963183826 0.0973205362
380297720.0 -0.6084509896 0.5890316524 0.0001156155 2.15063e-05 0.0001271297 8.98913e-05 -0.0959698116 0.0984728994
385297690.0 -0.6033353221 0.5950422019 5.7723e-06 3.51313e-05 1.32851e-05 8.77508e-05 -0.0945877019 0.0993868631
390297660.0 -0.5972748303 0.6012864404 -0.0001350072 -7.48063e-05 0.0001912927 6.91949e-05 -0.0941588102 0.1008426766
395297630.0 -0.5901108159 0.6089258281 0.0001951754 0.0001882443 0.0002776314 -4.90724e-05 -0.093139083 0.1018380813
400297600.0 -0.5833187454 0.6140338734 0.0002616447 1.53723e-05 -1.05155e-05 -1.56077e-05 -0.0923074013 0.1027198018
405297570.0 -0.5778490886 0.6192769529 -6.6778e-05 0.0002142612 5.0078e-05 6.34327e-05 -0.0923859999 0.1035281917
410297540.0 -0.5712865044 0.6256210106 5.4191e-05 0.0002246986 -0.0001550957 0.0002371764 -0.0908900241 0.1045522723
415297510.0 -0.5641173831 0.6311983929 -4.47e-05 9.039e-05 0.0001106665 -0.0001342776 -0.0902029611 0.1053238667
420297480.0 -0.558943914 0.637627993 0.0002914521 0.0001799028 -1.7302e-06 0.0001599023 -0.089442831 0.1064491305
425297450.0 -0.5515459917 0.6422940631 4.5868e-05 0.0002347928 -5.89673e-05 7.18584e-05 -0.0885344033 0.1074594037
430297420.0 -0.5449956459 0.6486242066 0.0002449302 -3.55522e-05 -4.77674e-05 4.87725e-05 -0.0878260844 0.108041817
435297390.0 -0.5384932505 0.653458341 0.0004507067 0.0002267537 0.0001363635 6.91111e-05 -0.0864735218 0.1090533505
440297360.0 -0.5318548529 0.6590056306 0.0002964787 0.0002033874 0.000162645 4.98664e-05 -0.086155553 0.1100629355
445297330.0 -0.5250038237 0.6644425799 6.69772e-05 -0.0001159538 0.0001793638 -4.11584e-05 -0.0848195376 0.110690065
450297300.0 -0.5176307049 0.6692938036 0.0001470465 0.0001031079 3.88344e-05 -1.4047e-06 -0.0841196321 0.1119935906
455297270.0 -0.5114590576 0.6745328248 1.67507e-05 -2.46577e-05 -3.0821e-06 0.0001778384 -0.0831551978 0.1123241532
460297240.0 -0.5045562904 0.6795573172 7.98812e-05 0.0001378267 0.0001212372 -3.70497e-05 -0.0819437845 0.1138992665
465297210.0 -0.4976895182 0.6850707732 0.0002119559 0.0001783618 0.0002698464 2.7918e-06 -0.0807506814 0.1145073189
470297180.0 -0.49037325 0.6896904256 0.0002225416 -0.0001286472 0.0001771995 0.0002625941 -0.0798286897 0.1157690056
475297150.0 -0.4835945064 0.6944161747 6.04454e-05 0.0001328337 0.00012386 9.00195e-05 -0.0787019825 0.1162506044
480297120.0 -0.4764409347 0.6994897079 0.0001492954 -0.0001220438 6.55415e-05 2.2776e-06 -0.0774979151 0.1173086214
485297090.0 -0.4688160614 0.7039357087 1.86927e-05 0.0001148773 0.0003716009 -7.785e-06 -0.0767025028 0.1182489127
490297060.0 -0.4617354734 0.7086926994 0.0001071081 0.000171093 0.0001661377 0.0002591092 -0.0756649678 0.1190022395
495297030.0 -0.4548155001 0.713383426 0.0001030783 -4.569e-05 8.05677e-05 0.0001375943 -0.0747048054 0.1200202949
500297000.0 -0.4472613326 0.7177452751 6.32273e-05 0.0001439934 -4.69232e-05 -5.8267e-06 -0.0732052824 0.1212244908
505296970.0 -0.4396594645 0.7228016799 0.0002396267 -1.73251e-05 0.000191056 0.0001153851 -0.0726153923 0.121824392
510296940.0 -0.4327664019 0.7270484181 0.0003576914 -4.5e-08 0.0001826452 1.02824e-05 -0.0715019738 0.1225738822
515296910.0 -0.4245241142 0.7306066042 0.0001431508 0.0002817865 0.0001754273 0.0001405495 -0.0701467492 0.1237262096
520296880.0 -0.4180288359 0.735272952 0.0001744469 -1.5477e-05 0.0004279803 1.83387e-05 -0.0692644699 0.1246198823
525296850.0 -0.4098094795 0.7385797431 0.0001915717 0.0001312013 0.0003042767 -1.54e-06 -0.0681769521 0.1254379054
530296820.0 -0.4024564654 0.7430371695 0.000248373 0.0001532967 0.0001294277 7.8574e-05 -0.0668136663 0.1264622647
535296790.0 -0.3956481767 0.7472081865 0.0001745667 -1.9748e-05 -3.52168e-05 1.06407e-05 -0.0661825091 0.1272299794
540296760.0 -0.3880738746 0.7511002608 6.17875e-05 5.62736e-05 0.0002721431 0.0001621787 -0.0651610238 0.1283020548
545296730.0 -0.3806630172 0.7551518549 0.0003552809 -0.0001197586 0.0002503359 -1.92654e-05 -0.0640492341 0.1287279175
550296700.0 -0.3729856111 0.7587095964 0.0003155095 7.90412e-05 0.000376855 2.25012e-05 -0.062743585 0.1296953166
555296670.0 -0.3649909029 0.7622551574 0.0001365803 8.61129e-05 0.0001920238 0.0002013554 -0.0616834204 0.1309871648
560296640.0 -0.3572877756 0.7662537255 0.0002965309 2.65864e-05 0.0001893681 -7.26643e-05 -0.0603807574 0.1314208528
565296610.0 -0.3495142887 0.7698286246 0.0003337594 0.0001303131 0.0002694879 -0.0001242582 -0.0594047915 0.1320132815
570296580.0 -0.3416195503 0.7716866798 0.000117953 -7.10823e-05 0.0001344978 2.79196e-05 -0.0585141188 0.1330556066
575296550.0 -0.334257556 0.7763205413 0.0001965932 7.51798e-05 0.0003830227 -0.0001500936 -0.0570038973 0.1336531727
580296520.0 -0.3258543327 0.7796819202 0.0004054982 0.000278572 7.30913e-05 -0.0001273645 -0.0560555111 0.1342858455
585296490.0 -0.318601979 0.7824790192 0.0001840777 -0.0001242207 -4.5936e-06 -5.25981e-05 -0.0543998842 0.1349817693
590296460.0 -0.3103110757 0.7858693316 0.0001382749 1.58606e-05 0.0001218953 -1.67654e-05 -0.0538853654 0.1356798718
595296430.0 -0.303428902 0.7887582182 0.0004282325 -0.0001925006 0.0002893769 9.49752e-05 -0.0523907502 0.1359670232
600296400.0 -0.2951393624 0.7920312247 0.0002687022 7.68105e-05 0.0002516763 -3.70603e-05 -0.0513303484 0.1366560741
605296370.0 -0.2876098132 0.7946279994 0.0001764903 -4.63648e-05 0.0001765664 0.0001112381 -0.0498327965 0.1373793429
610296340.0 -0.2785127177 0.7976603946 0.0002081374 4.33124e-05 0.0001290724 -2.92989e-05 -0.0485010632 0.137851609
615296310.0 -0.2703211348 0.7999946216 0.0002078131 0.0002099729 0.0002200412 9.0149e-05 -0.0473476099 0.1385330887
620296280.0 -0.2624518901 0.8018893057 4.67606e-05 0.0002085542 0.0002367335 -0.0001043967 -0.0459388411 0.1394016781
625296250.0 -0.2546527217 0.8054703414 0.0002007534 -2.38845e-05 0.0001890702 -0.0001310176 -0.0443802856 0.1398991721
630296220.0 -0.2462123393 0.8081839822 0.000154894 -0.0001040322 0.0002699105 6.78631e-05 -0.0435065664 0.1406188906
635296190.0 -0.2383913435 0.8102826958 -1.27015e-05 -0.000365614 0.0003550345 -2.58663e-05 -0.0418490113 0.1409213346
640296160.0 -0.2308476706 0.8123263846 7.4915e-06 -0.0001175092 0.0001370531 -4.75039e-05 -0.0405145901 0.1415253253
645296130.0 -0.2223223256 0.815246442 0.0002181861 0.0001505263 0.0003309925 0.0002504699 -0.0394001524 0.1424739914
650296100.0 -0.2140721108 0.8168682848 0.0002696164 -9.445e-05 9.08482e-05 -2.63121e-05 -0.0379179163 0.1427424348
655296070.0 -0.2059576224 0.8190916163 0.0003404358 9.73184e-05 0.0003084572 0.0001067212 -0.0363022082 0.1435228517
660296040.0 -0.1974926679 0.8206401602 0.0002771016 3.59236e-05 0.0003425015 -1.15715e-05 -0.0348823575 0.1438570826
665296010.0 -0.1896536037 0.8221392031 0.0005139098 -6.13788e-05 0.0002768828 0.0001640228 -0.0335878708 0.1447859692
670295980.0 -0.1820312719 0.8244196231 0.0001411116 0.0001436147 0.0002874771 -0.0002304944 -0.0323402896 0.1452432859
675295950.0 -0.1731096692 0.8261377875 0.0004317827 -0.0001725971 0.000320225 -0.0001648137 -0.0311540953 0.1460396646
680295920.0 -0.1645902324 0.8281598827 0.0003390805 -9.77517e-05 0.0003940839 -8.02495e-05 -0.0296142316 0.1464917428
685295890.0 -0.1564293178 0.8298535287 0.0002982482 0.0002636118 0.0001065839 -9.2807e-05 -0.0282806822 0.1468095667
690295860.0 -0.1483283666 0.8313124632 0.000329575 -7.35009e-05 4.0543e-05 2.05213e-05 -0.0268118566 0.1477062581
695295830.0 -0.1399978729 0.831652097 0.0002398548 -0.0001757212 0.0003282158 8.27942e-05 -0.0254175913 0.1479870335
700295800.0 -0.1317658547 0.8341673886 6.45386e-05 -7.36121e-05 0.0003139091 -0.0001847502 -0.0244797302 0.1485048412
705295770.0 -0.1239341543 0.8352376007 0.0002948819 -3.37377e-05 0.0003570598 1.0875e-06 -0.0228048523 0.1493736193
710295740.0 -0.1153081139 0.8362851294 0.000194356 2.84128e-05 0.0002934457 5.48879e-05 -0.0216767452 0.1498357207
715295710.0 -0.1073340919 0.8373460396 0.0003694718 -6.7932e-06 0.0002286289 -0.00014657 -0.0202195782 0.1500048418
720295680.0 -0.0984727223 0.83836937 0.0001717402 6.2373e-06 0.0002899423 -2.68797e-05 -0.0185379838 0.1504979527
725295650.0 -0.0901693905 0.8393674343 0.0002533191 -0.0001247343 9.33622e-05 -8.82218e-05 -0.017638097 0.1508243487
730295620.0 -0.081851706 0.8405998988 0.0003607387 -8.9646e-05 0.0001249009 -2.52881e-05 -0.0164429746 0.1512068516
735295590.0 -0.0737252649 0.8409903177 0.0002535825 -0.0002094037 0.0004470408 -0.0002951007 -0.0150514076 0.1514843945
740295560.0 -0.0651892637 0.8423206384 0.0002789287 -0.0001568645 0.000245595 -4.73018e-05 -0.0132454443 0.1519792812
745295530.0 -0.0568392209 0.842601968 -6.78963e-05 -2.1397e-05 0.0002475603 1.48123e-05 -0.012106154 0.1519366457
750295500.0 -0.0486563662 0.8428903952 8.65956e-05 -0.0001492538 0.000214194 -0.0001331964 -0.0103967239 0.1526306486
755295470.0 -0.0405466482 0.8426263951 0.0005758398 -0.0001830237 0.0002925245 -0.0001799107 -0.0091666528 0.1522107446
760295440.0 -0.0317441019 0.8429752743 0.0004227501 -0.0001520793 0.0002118684 8.74246e-05 -0.0078415356 0.1527429191
765295410.0 -0.0238595546 0.8436958024 0.0001901736 4.17295e-05 0.0002374745 6.7945e-05 -0.0062463122 0.1532554622
770295380.0 -0.0152584196 0.8441848527 0.0002730699 -8.78254e-05 0.0002255702 -0.0002598314 -0.0052679518 0.1532622814
775295350.0 -0.0072598953 0.8441660515 0.000163925 -0.0001101273 0.0003887492 -0.0001821052 -0.003872807 0.153186327
780295320.0 0.0013615877 0.8440561633 0.0001458822 -0.0001127051 0.0003803897 -5.56102e-05 -0.0022352327 0.1535254092
785295290.0 0.0092187641 0.8435948863 0.0001203493 5.76311e-05 0.0002594426 -6.53257e-05 -0.0005321983 0.1538838267
790295260.0 0.0183993003 0.8436917148 0.0002411857 -0.0002666596 0.0001963224 -0.0001264083 0.0009456362 0.1539220235
795295230.0 0.0259760588 0.8433797803 0.000343991 -7.15231e-05 0.0002339976 0.0001051343 0.0025693815 0.1543543891
800295200.0 0.0341824751 0.8429995884 0.0001380175 0.0001555179 0.0004605936 0.0002494598 0.004177478 0.1545734799
805295170.0 0.0432109298 0.8427855018 0.0002667139 -0.0002310514 0.0003252233 -0.0001315878 0.0054298594 0.1544810688
810295140.0 0.051825138 0.841959693 0.0001946849 -4.98561e-05 -5.4762e-06 4.69397e-05 0.0073037068 0.1544149113
815295110.0 0.0593143775 0.8417978158 0.0005314125 -0.0003083616 6.53504e-05 3.66546e-05 0.0087894779 0.1549374007
820295080.0 0.0681226172 0.8411174255 0.0003067733 -0.0002598102 0.0002244279 0.0001108981 0.0102364663 0.1548853433
825295050.0 0.07662913 0.8401066226 0.0003688195 -0.0001106289 0.0002003745 0.0002034212 0.0115849694 0.1550903728
830295020.0 0.0847683387 0.8393932464 0.0002377896 -0.0001342917 0.0002703585 -0.000248862 0.0136642569 0.1553057508
835294990.0 0.0926462258 0.8388894669 9.38535e-05 0.0001990779 8.62746e-05 -1.63627e-05 0.0147638141 0.1553608926
840294960.0 0.1002524318 0.838172379 0.0002420243 -9.17269e-05 0.0002932817 0.0001393937 0.0163830963 0.1555424533
845294930.0 0.1086793299 0.8366768126 0.0004142373 0.0002727806 0.0001657043 1.48716e-05 0.0179129146 0.1552655783
850294900.0 0.1173692264 0.836193366 0.0002598068 -0.0002002162 -3.03861e-05 -8.20578e-05 0.0193924292 0.1554239626
