!Created with skrf (http://scikit-rf.org).
# Hz S RI R 50.0 
!freq ReS11 ImS11 ReS21 ImS21 ReS12 ImS12 ReS22 ImS22
300000.0 -0.3221097052 -0.0719625905 0.3769494823 0.0372712624 0.3729669826 0.0357293184 -0.321756304 -0.0871048457
5299970.0 -0.3265677898 0.0043586084 0.3783328121 0.0026057671 0.3787256592 0.0025388299 -0.3245285008 0.0051125749
10299940.0 -0.3243681551 0.0134217304 0.379073901 0.0020335275 0.3799674291 0.002301351 -0.3220502933 0.0159812167
15299910.0 -0.3215729767 0.0205038743 0.3820817132 0.0019724533 0.3821067032 0.0019438753 -0.3190695618 0.0239306163
20299880.0 -0.3189228624 0.0261690926 0.3847644615 0.0018248783 0.3849480133 0.0016545448 -0.3153590887 0.0298590465
25299850.0 -0.3158873763 0.0312976052 0.388362416 3.69272e-05 0.3881975314 -5.36931e-05 -0.3114377141 0.03578313
30299820.0 -0.3128019358 0.0357360865 0.3911148528 -0.0021681798 0.3915734665 -0.0022141849 -0.30767919 0.0408951112
35299790.0 -0.3099876722 0.039652524 0.3949570646 -0.0052780899 0.3949388922 -0.0052971585 -0.3041521886 0.0450619489
40299760.0 -0.3073698565 0.0431030937 0.3978273398 -0.008616142 0.3979191421 -0.008522448 -0.3006726966 0.0480742606
45299730.0 -0.3047925545 0.0462575008 0.4007514507 -0.0125153265 0.4011954882 -0.0125614747 -0.2977630478 0.0515177992
50299700.0 -0.3025599275 0.0491295313 0.4035462697 -0.0173144464 0.4036194842 -0.0166091175 -0.2943747956 0.0538819498
55299670.0 -0.3004315548 0.0518760827 0.4057717979 -0.0223606438 0.4057684777 -0.0218309604 -0.2918786336 0.0568912712
60299640.0 -0.2979199915 0.0550841023 0.4077523811 -0.0272557273 0.4075726252 -0.0267047129 -0.2890521259 0.0591480647
65299610.0 -0.2960727861 0.0574127337 0.4089472577 -0.0318904535 0.4093922409 -0.0318112281 -0.2872867181 0.0612403566
70299580.0 -0.2944477332 0.0598618462 0.4105206788 -0.036903391 0.4105770243 -0.0367447447 -0.2848585811 0.063387805
75299550.0 -0.2928511436 0.0622014168 0.4113171964 -0.0419976798 0.4114959305 -0.0422359933 -0.2831996526 0.0657321222
80299520.0 -0.291585592 0.0649703102 0.4129663942 -0.0474054235 0.412643769 -0.0471372651 -0.2813052165 0.0680281276
85299490.0 -0.2900048127 0.0667330146 0.4129388663 -0.0523011967 0.4130134094 -0.0521191061 -0.2798778438 0.0696343758
90299460.0 -0.2888600515 0.0691939366 0.4132009392 -0.0578360318 0.4135692438 -0.0575972226 -0.2781517685 0.0721106021
95299430.0 -0.2871794656 0.071382398 0.4137476676 -0.0630687087 0.4135878017 -0.0628704882 -0.2766414232 0.0744309923
100299400.0 -0.2863942665 0.0740337012 0.4133844825 -0.0682725394 0.413555549 -0.0679987257 -0.2751400181 0.0761731426
105299370.0 -0.2852371328 0.0762204701 0.41349214 -0.0734721277 0.4135905034 -0.0733448645 -0.2733094592 0.0784632724
110299340.0 -0.2839331686 0.0785860374 0.41331441 -0.0786404518 0.4132725351 -0.0783625303 -0.2729826009 0.0803736464
115299310.0 -0.2828245543 0.0810130331 0.4128821548 -0.0836097106 0.412937034 -0.0837153122 -0.2716814726 0.0827672049
120299280.0 -0.2819474874 0.0831051209 0.412423859 -0.0886134579 0.412754678 -0.0887038755 -0.2706671011 0.0847796647
125299250.0 -0.2809905018 0.0856011335 0.4121160243 -0.0939301677 0.4120936018 -0.0935112699 -0.2697192147 0.086554793
130299220.0 -0.2804880577 0.0879449189 0.4111839203 -0.0988176861 0.4112714229 -0.09884983 -0.2686331019 0.0887656352
135299190.0 -0.279315331 0.090665005 0.41061713 -0.1039716788 0.4109952045 -0.103721878 -0.2677137989 0.0912992256
140299160.0 -0.2785236201 0.0930913481 0.4099802179 -0.1090496838 0.4099326889 -0.109069055 -0.2669140893 0.0940245007
145299130.0 -0.2775165157 0.0956555553 0.4092090854 -0.1139071798 0.408927624 -0.1138258017 -0.265880777 0.0961526556
150299100.0 -0.2765391508 0.0985113162 0.4080495036 -0.1187087658 0.4080104137 -0.1183395124 -0.2647395324 0.0989581528
155299070.0 -0.2757229398 0.1006285044 0.4069171456 -0.1242003119 0.4066399133 -0.1236784976 -0.2639743676 0.101106984
160299040.0 -0.2748437184 0.1033673 0.4055825085 -0.128508367 0.4053190655 -0.1284942938 -0.2631984402 0.1032794103
165299010.0 -0.273862296 0.1058973239 0.4042101106 -0.1339175403 0.4045080112 -0.1336486497 -0.2621988066 0.1059080382
170298980.0 -0.2729272814 0.1085943896 0.4028761615 -0.138430098 0.4033974241 -0.1383170246 -0.2611138548 0.1081631505
175298950.0 -0.2721027721 0.1111919813 0.4020818271 -0.1428982176 0.401435936 -0.1428651597 -0.2601543615 0.1104683127
180298920.0 -0.2711240941 0.1140316802 0.4002049883 -0.1481211572 0.40005558 -0.1475528111 -0.2590297817 0.1130905378
185298890.0 -0.2696436008 0.116286521 0.398561311 -0.152394064 0.3984275237 -0.1523538406 -0.2579362497 0.115820314
190298860.0 -0.2688496049 0.1191102425 0.3971776911 -0.1571218792 0.3973475298 -0.1571923757 -0.2570417874 0.1181734762
195298830.0 -0.2678681071 0.1217585969 0.3951617784 -0.1620365497 0.3956983015 -0.1617402722 -0.2556239182 0.1208354454
200298800.0 -0.2666449776 0.1245901689 0.3935339172 -0.1665256699 0.3938680904 -0.1666615493 -0.2547882633 0.1231146899
205298770.0 -0.2657515202 0.1274800732 0.3917839835 -0.1711788612 0.3916271451 -0.1708353048 -0.2537409697 0.1251565887
210298740.0 -0.2643262493 0.129615596 0.3898251023 -0.1750279811 0.3899377162 -0.1753774975 -0.2520709901 0.1284676659
215298710.0 -0.2637580825 0.1326923944 0.3884647204 -0.1800681557 0.3881844371 -0.1802848406 -0.2514688019 0.1308688623
220298680.0 -0.262073253 0.1352375441 0.3854851758 -0.1842948805 0.3860196453 -0.1843166879 -0.2504472657 0.1328435618
225298650.0 -0.2612564384 0.1375152344 0.3841537288 -0.1889381408 0.3844404785 -0.1887816854 -0.2494794699 0.1355481889
230298620.0 -0.2600263252 0.1406873714 0.3825828128 -0.1931603717 0.3825160361 -0.1933233855 -0.2479818423 0.1381615102
235298590.0 -0.2583054273 0.1435282839 0.380062511 -0.1977673954 0.3801562985 -0.1973763221 -0.2463806024 0.140603257
240298560.0 -0.2569895558 0.1462113577 0.3777713729 -0.2024722964 0.3779115712 -0.2020741019 -0.2450580519 0.1438312239
245298530.0 -0.2557243439 0.1486923249 0.3758380644 -0.2063200538 0.3760129512 -0.2068064857 -0.2438578714 0.1457792758
250298500.0 -0.2542928183 0.1514935909 0.3728877812 -0.2104449646 0.3730532267 -0.2107253988 -0.2425184746 0.1482898757
255298470.0 -0.2528033255 0.1541217494 0.3704783864 -0.2146426332 0.3707390003 -0.2144814603 -0.2409517801 0.1506067884
260298440.0 -0.2515712883 0.1563601032 0.3684340335 -0.2190555364 0.3690200868 -0.2191884446 -0.2392996391 0.1535500372
265298410.0 -0.2498744064 0.1597695314 0.3661875713 -0.2235155991 0.3665327876 -0.2231288896 -0.2381882089 0.1560823185
270298380.0 -0.2484571931 0.1624123655 0.3641738057 -0.2273669854 0.3639050487 -0.2270591925 -0.236405364 0.158701521
275298350.0 -0.2467891519 0.1649202992 0.3611787534 -0.2314542497 0.3615942196 -0.2314455365 -0.2350545903 0.1613479218
280298320.0 -0.2451751673 0.1676168086 0.3589324341 -0.235763004 0.3589203409 -0.235552829 -0.2334081465 0.1637185074
285298290.0 -0.2436579643 0.1707039452 0.3563359551 -0.2398961084 0.3559482453 -0.2395126801 -0.2316236242 0.1662297392
290298260.0 -0.2422315028 0.1729301206 0.3538689511 -0.2433513584 0.3537438133 -0.2438164093 -0.2301442938 0.16927449
295298230.0 -0.2400488088 0.1754621808 0.3507047981 -0.2475431612 0.3508682886 -0.2476915043 -0.2285496856 0.1711834835
300298200.0 -0.2386501663 0.178631079 0.3482956792 -0.2517682504 0.3484172156 -0.251746192 -0.2267831669 0.1738735558
305298170.0 -0.2366392638 0.1805013303 0.3452039745 -0.2558758158 0.3452381388 -0.2557136348 -0.2246619569 0.1762307225
310298140.0 -0.2350609032 0.1835164634 0.342539814 -0.2594798618 0.3427165857 -0.2594648977 -0.2233377972 0.1786626968
315298110.0 -0.2331623461 0.1857032054 0.3399317593 -0.2631678655 0.3398238228 -0.2633877505 -0.2215347533 0.1809031692
320298080.0 -0.2312460954 0.1883908385 0.3365304866 -0.2675492786 0.336680493 -0.2675447331 -0.219983084 0.1835475873
325298050.0 -0.2293806618 0.1908687931 0.3334286307 -0.271332773 0.3336590339 -0.2711835207 -0.2183571506 0.1860402158
330298020.0 -0.2276348058 0.193191089 0.3303873531 -0.2751414479 0.3306159688 -0.2750324054 -0.2164080381 0.1883440507
335297990.0 -0.2260708648 0.1955378833 0.3275471317 -0.2787571687 0.3276101995 -0.2787721788 -0.2152380319 0.1909575013
340297960.0 -0.224690936 0.1984138785 0.3239840419 -0.282247474 0.3239578995 -0.2823085103 -0.2127506054 0.1930616459
345297930.0 -0.2222462601 0.2012468719 0.3207881351 -0.2860096486 0.321139188 -0.2857633936 -0.2112030721 0.1953281968
350297900.0 -0.2205364001 0.2032417235 0.3173858838 -0.2891748281 0.317279389 -0.2891047744 -0.2095068368 0.1980453509
355297870.0 -0.2182426669 0.2062879372 0.3142691586 -0.2929380653 0.3146691735 -0.2926191487 -0.2075131187 0.2002662896
360297840.0 -0.2160667423 0.2084648467 0.3111603662 -0.2959809851 0.3113278829 -0.295944648 -0.2053811818 0.202863388
365297810.0 -0.2142396956 0.210997009 0.3078566152 -0.2998448149 0.308103491 -0.2998244293 -0.2034372727 0.2049419267
370297780.0 -0.2119646449 0.2130729413 0.3042315626 -0.3029260366 0.3048270591 -0.3027439923 -0.2011843265 0.2074133409
375297750.0 -0.2096712694 0.2155128543 0.3011348197 -0.3061275315 0.3014666635 -0.3062334385 -0.1995096912 0.2094161886
380297720.0 -0.20760356 0.217686559 0.2978275696 -0.3097233805 0.2977224996 -0.3089857441 -0.1973438907 0.211750095
385297690.0 -0.2057462576 0.2203659845 0.2942056098 -0.3127812021 0.2942587686 -0.3128520783 -0.1949259512 0.2138380652
390297660.0 -0.203305626 0.2228649662 0.2909513701 -0.316243794 0.2908682326 -0.3157661712 -0.1931302158 0.2162100707
395297630.0 -0.2009760682 0.2254812117 0.2872576717 -0.3194188799 0.2874642037 -0.3191725195 -0.1903815626 0.218451265
400297600.0 -0.1985766467 0.2273343004 0.2834255351 -0.3227024859 0.2839944024 -0.3223795844 -0.1882601882 0.2206046575
405297570.0 -0.1966198402 0.2297502125 0.2804838352 -0.3254083394 0.2802194389 -0.3251546632 -0.1861419374 0.222541379
410297540.0 -0.1938660405 0.2318815678 0.2763826452 -0.3285299811 0.276755342 -0.3286682211 -0.1840444115 0.2251027751
415297510.0 -0.1915307315 0.2333705127 0.2728225829 -0.3315801459 0.2730197085 -0.3313686181 -0.1814405015 0.2269924387
420297480.0 -0.1895007174 0.2364112436 0.2694086035 -0.3346172481 0.2692815412 -0.334611037 -0.1791661437 0.2289515989
425297450.0 -0.1868861013 0.2381571524 0.2659015343 -0.3373758906 0.2662160651 -0.3377397349 -0.1771913174 0.2312681926
430297420.0 -0.184551104 0.2402544278 0.2621130728 -0.339954867 0.2620064614 -0.3398855183 -0.1749101923 0.2332566457
435297390.0 -0.1819549325 0.2425117752 0.2577458008 -0.3428758552 0.2579012422 -0.3432463917 -0.1717209089 0.2352747995
440297360.0 -0.1793973997 0.2446768789 0.2543092076 -0.3459557531 0.2544446362 -0.345689808 -0.1696951742 0.2369876709
445297330.0 -0.1768563571 0.2465634526 0.2507010897 -0.3484853594 0.2506552076 -0.348027606 -0.1671905697 0.2387147732
450297300.0 -0.1744946774 0.2482358689 0.2466738466 -0.351372548 0.2467882015 -0.3515767432 -0.1646162528 0.2407596977
455297270.0 -0.1716636313 0.2506493791 0.2426405113 -0.3540058229 0.2430190767 -0.3539809305 -0.1623209508 0.2427752539
460297240.0 -0.169376742 0.2522454241 0.2389049912 -0.3564982129 0.238973333 -0.3566515253 -0.1598919176 0.2448782913
465297210.0 -0.1661438486 0.2544677534 0.2349864894 -0.3591399529 0.2352753947 -0.3596088793 -0.1570383711 0.2464303312
470297180.0 -0.1635739672 0.2563852004 0.230576764 -0.3618365558 0.2311764037 -0.361769142 -0.1543193858 0.2483686933
475297150.0 -0.1610728272 0.2581270197 0.2268236551 -0.3636722134 0.226933657 -0.3636816713 -0.1515975255 0.2498385361
480297120.0 -0.158473175 0.2599983989 0.2227904413 -0.3667541674 0.223154734 -0.3668946676 -0.1490479548 0.2520955734
485297090.0 -0.1559234685 0.2617588153 0.2191903681 -0.3686301663 0.2190425591 -0.368588289 -0.1466897884 0.2536362099
490297060.0 -0.1534690265 0.263672731 0.2149209953 -0.3712861303 0.2149626941 -0.3709936945 -0.1439526772 0.2553177276
495297030.0 -0.1504335658 0.2655803412 0.2106883166 -0.3735132628 0.2112779858 -0.37344815 -0.1413800216 0.2571069571
500297000.0 -0.1475954543 0.2673815027 0.2066141755 -0.3753071732 0.2065863511 -0.3757195528 -0.1385579843 0.2593747562
505296970.0 -0.1447132853 0.2688426992 0.2023831917 -0.377773483 0.2022892526 -0.3779157541 -0.1360630148 0.2602278891
510296940.0 -0.1418460876 0.270438298 0.1985724909 -0.3802582632 0.1983678417 -0.380197781 -0.1334265029 0.2620339521
515296910.0 -0.1389076804 0.272216589 0.1941455437 -0.3823578325 0.1942134644 -0.3822247076 -0.1303740681 0.2635184786
520296880.0 -0.1363651792 0.2737916944 0.1901738959 -0.3845816181 0.1900335681 -0.3843176039 -0.1280734707 0.2650768882
525296850.0 -0.13334001 0.2749940629 0.1855378249 -0.3862716339 0.1859307627 -0.3862133592 -0.1253397497 0.2666399896
530296820.0 -0.1302233694 0.2768896107 0.1814468504 -0.3884120889 0.1814261585 -0.3881859572 -0.122298862 0.2680784859
535296790.0 -0.1277921854 0.278449072 0.1777249332 -0.39013843 0.1775364392 -0.3900578612 -0.1195298613 0.2690847109
540296760.0 -0.1245964907 0.2800328249 0.1725472558 -0.392112091 0.1730067263 -0.3922757588 -0.1168421078 0.2711340591
545296730.0 -0.1219620779 0.2812514912 0.1684562986 -0.3936773021 0.1686086732 -0.3939398826 -0.1139816677 0.2719985829
550296700.0 -0.118727464 0.2830003968 0.1641634714 -0.3955450086 0.1646864852 -0.3960238806 -0.1110798001 0.2738769171
555296670.0 -0.1160946555 0.283744031 0.1602877048 -0.397387864 0.1602440911 -0.3975851406 -0.1081784401 0.2752519121
560296640.0 -0.1126788156 0.2856584169 0.1556294923 -0.3993637843 0.1558491763 -0.3991752838 -0.1052098995 0.276290704
565296610.0 -0.1100005433 0.2867880513 0.1511093054 -0.4009310079 0.1515787824 -0.4007782909 -0.1025701842 0.2772152928
570296580.0 -0.1073884684 0.2880869309 0.1470798085 -0.4027924757 0.1469077318 -0.402469416 -0.0995193611 0.2790274632
575296550.0 -0.1039738536 0.2894818958 0.1426171244 -0.404256518 0.142643143 -0.4040576327 -0.0965335608 0.2798821514
580296520.0 -0.1011836943 0.290811543 0.1382198547 -0.4054820453 0.138254157 -0.4055522961 -0.0934325086 0.2810492344
585296490.0 -0.0979156971 0.291388978 0.1336536444 -0.4063943595 0.1340501831 -0.406692703 -0.0906599674 0.2823060921
590296460.0 -0.0948341229 0.2930010872 0.129181768 -0.4079743881 0.1294024028 -0.4081560959 -0.0878189092 0.2834812232
595296430.0 -0.0921386149 0.2941722354 0.1244639922 -0.4098590206 0.1249306322 -0.4096490888 -0.0846821641 0.2842263502
600296400.0 -0.0887028965 0.2954013834 0.1201680397 -0.4111086305 0.1203510013 -0.4105863919 -0.081996133 0.2851639524
605296370.0 -0.0858547823 0.2962437741 0.1160809338 -0.4118731121 0.1160596003 -0.4121189727 -0.0785641088 0.2864464204
610296340.0 -0.0826899651 0.297360564 0.1110820317 -0.4130953338 0.111643953 -0.4132358817 -0.0755966436 0.2874124392
615296310.0 -0.0792040766 0.2982311617 0.1067191094 -0.41408707 0.106868323 -0.4148674242 -0.0723552302 0.2882323083
620296280.0 -0.0764666839 0.2990167177 0.102070171 -0.4155013036 0.1025267984 -0.4156160856 -0.0696729013 0.2893373805
625296250.0 -0.0734915068 0.2999496414 0.097876032 -0.4169817991 0.0978367456 -0.4169002257 -0.06588072 0.29023028
630296220.0 -0.0696455034 0.3009869633 0.0927602011 -0.4177322494 0.093253748 -0.4176963764 -0.0634284457 0.2914472922
635296190.0 -0.0671514409 0.3019081471 0.0885877337 -0.4185668295 0.0887596073 -0.4185876465 -0.0602330249 0.291879124
640296160.0 -0.0635749594 0.3026689705 0.0840480088 -0.4195675611 0.0844898563 -0.4194868821 -0.0574167075 0.2931594381
645296130.0 -0.0604823638 0.3037253429 0.0792640073 -0.4202391959 0.0800221991 -0.4203240138 -0.0542953074 0.2938018022
650296100.0 -0.0575057454 0.3042738793 0.0752123938 -0.4211263066 0.0752117189 -0.4210118978 -0.0511199528 0.2936147157
655296070.0 -0.0541349389 0.3050195834 0.0704106465 -0.4215946835 0.0707218498 -0.421644117 -0.0480664641 0.2947049238
660296040.0 -0.0514226743 0.3056590709 0.0662620468 -0.4223186151 0.0661283156 -0.4223995978 -0.0449274347 0.2953914387
665296010.0 -0.0474617582 0.3061683216 0.0607008576 -0.4228317198 0.0612947911 -0.4232067753 -0.0417179407 0.2964060258
670295980.0 -0.0453161057 0.3072237971 0.0569957969 -0.4237220615 0.0568217291 -0.423759498 -0.0387180724 0.2965353332
675295950.0 -0.0414327473 0.3077393506 0.0521800192 -0.424400501 0.0521259855 -0.4238670594 -0.036080199 0.2973951699
680295920.0 -0.0381101299 0.308260906 0.0473853607 -0.4245549581 0.0474386818 -0.4252872114 -0.0323442398 0.2985814598
685295890.0 -0.0347254375 0.3090106409 0.0424903719 -0.4249856007 0.0427433671 -0.4253768049 -0.0292718553 0.2983409859
690295860.0 -0.0317528762 0.3091953504 0.038601345 -0.4251931693 0.0387579703 -0.4256066458 -0.0267387067 0.2993821836
695295830.0 -0.0288134028 0.3096083621 0.0341255515 -0.4256007885 0.0336096581 -0.4259046336 -0.0231717713 0.2994185707
700295800.0 -0.0251221262 0.3102347623 0.0286479681 -0.4261472831 0.0288221019 -0.4263826326 -0.0201753058 0.3002682231
705295770.0 -0.022221858 0.3107961301 0.0243063616 -0.4266950463 0.0249904323 -0.4267284309 -0.0171727907 0.3006122732
710295740.0 -0.018775052 0.3113332718 0.0198297648 -0.4272482459 0.0199600009 -0.4270405954 -0.0141110921 0.3003622744
715295710.0 -0.01598909 0.3113252194 0.0154518868 -0.4268156401 0.0151452764 -0.4269598325 -0.0106507894 0.3005428267
720295680.0 -0.0124382426 0.3114488305 0.0105835085 -0.4271987775 0.0109078621 -0.4268878646 -0.0073461689 0.301023081
725295650.0 -0.0093068872 0.3119421526 0.0062303595 -0.4270293731 0.006141185 -0.4273260031 -0.0048249666 0.3014963638
730295620.0 -0.0061287278 0.3123399418 0.0012124944 -0.4269458742 0.0012460036 -0.4269609661 -0.0012155787 0.3013195962
735295590.0 -0.002720673 0.3124787447 -0.0033376996 -0.4271799296 -0.0031322752 -0.42683998 0.0016473784 0.3011882679
740295560.0 0.0004811229 0.3127169188 -0.0077407425 -0.4266034005 -0.0078561474 -0.4269339264 0.0053957785 0.3020298474
745295530.0 0.0035716363 0.3127818456 -0.0126481132 -0.4263002062 -0.0125770508 -0.426747586 0.0084095553 0.3014198223
750295500.0 0.0071862986 0.3127804421 -0.0171147522 -0.4263393402 -0.0169905079 -0.4267592909 0.0115884352 0.3019040917
755295470.0 0.0102138354 0.3127253168 -0.0215838339 -0.4261947501 -0.021366631 -0.4267649354 0.0148857455 0.3015965661
760295440.0 0.0136355231 0.3127662153 -0.0260770319 -0.4260737479 -0.0263139697 -0.4262369964 0.0179422599 0.3014488716
765295410.0 0.0168625193 0.3129107314 -0.030829369 -0.4257747782 -0.0309135642 -0.4258808208 0.0210941466 0.3016437022
770295380.0 0.0198872874 0.3125709625 -0.0353145625 -0.4255741712 -0.0354538364 -0.4252789759 0.0242847455 0.3013734387
775295350.0 0.0230358334 0.3123165274 -0.0405443967 -0.4245590258 -0.0399228656 -0.4246897516 0.0270981886 0.3016332041
780295320.0 0.0265293746 0.3123262387 -0.0448007349 -0.4238943979 -0.0442112804 -0.4240053754 0.030411684 0.3012327219
785295290.0 0.0294716097 0.3116217145 -0.0491460571 -0.4232176827 -0.0490924338 -0.4237730588 0.0339938487 0.3011587603
790295260.0 0.0332597809 0.3121870557 -0.0533903694 -0.4230745574 -0.053233615 -0.4230634492 0.0373195178 0.3010396237
795295230.0 0.0363543978 0.3116573038 -0.0583252345 -0.4222246415 -0.0581327534 -0.4225771433 0.040344199 0.3008034045
800295200.0 0.0394071407 0.3116815596 -0.0634629739 -0.421893957 -0.0629924821 -0.421495631 0.0435944048 0.300640463
805295170.0 0.0431820796 0.3110474726 -0.0673841028 -0.4206385047 -0.06747421 -0.4211855815 0.0463271186 0.3004118053
810295140.0 0.0462275756 0.3106643166 -0.0718286671 -0.4197687259 -0.0721068871 -0.4203991468 0.0500922836 0.3000394773
815295110.0 0.0495440036 0.3104543056 -0.0767008638 -0.419116034 -0.0762140448 -0.4194947015 0.0529320515 0.2994997645
820295080.0 0.0522444391 0.3103360616 -0.0807241421 -0.418239615 -0.0807068232 -0.4185110305 0.0562275309 0.2994720236
825295050.0 0.0560544742 0.3097847632 -0.0852524213 -0.4175863456 -0.0853536854 -0.4173879918 0.0594003869 0.2986841864
830295020.0 0.0592712906 0.3095234486 -0.0901564184 -0.4165424558 -0.0901640552 -0.416619498 0.0631327058 0.29820431
