!Created with skrf (http://scikit-rf.org).
# Hz S RI R 50.0 
!freq ReS11 ImS11 ReS21 ImS21 ReS12 ImS12 ReS22 ImS22
300000.0 -0.2416260464 -0.0804576373 0.4734568989 0.0542136237 0.4687079457 0.0540048551 -0.2426423663 -0.0947228987
5299970.0 -0.2443706626 0.0071552411 0.4737830399 0.0048827466 0.4738150751 0.0048073777 -0.2443089618 0.0073507114
10299940.0 -0.2410294019 0.0187185865 0.4754305252 0.0060899461 0.4755323851 0.006159155 -0.2408139063 0.0200446835
15299910.0 -0.2365270804 0.0280027655 0.4792584629 0.007601397 0.4795334831 0.0079874321 -0.2364281671 0.0296176244
20299880.0 -0.2320924111 0.0355457804 0.4839306768 0.0086061703 0.4840192906 0.0082517753 -0.2311768547 0.0373639099
25299850.0 -0.2268994654 0.0421797259 0.4891078687 0.0072197487 0.4889826695 0.0074022646 -0.224798127 0.043790856
30299820.0 -0.2216803291 0.0471238459 0.4949219261 0.00524672 0.4943031656 0.0055981881 -0.2191782378 0.0490379783
35299790.0 -0.2161668137 0.0513131738 0.499770903 0.0019972636 0.5002287908 0.0021052543 -0.2136153043 0.0534222427
40299760.0 -0.2117495572 0.0548584276 0.5052394845 -0.0017630388 0.505202022 -0.0017741762 -0.2082284527 0.0561794248
45299730.0 -0.206674292 0.0576780307 0.5095378446 -0.0066507188 0.5098343994 -0.0064121903 -0.2032988749 0.0589965649
50299700.0 -0.202601368 0.0599612025 0.5143291039 -0.0122372749 0.5142504376 -0.0115861145 -0.198715231 0.0606050823
55299670.0 -0.1986360245 0.0617884765 0.5182834595 -0.0183995885 0.5178754716 -0.0178635283 -0.1944945387 0.0622337753
60299640.0 -0.1940579578 0.0637975023 0.5212059737 -0.0244539762 0.5212686345 -0.0237607361 -0.1905115288 0.0630081341
65299610.0 -0.1910017397 0.0648176334 0.5242719558 -0.0305847147 0.524513332 -0.0303177682 -0.1874185973 0.0638204884
70299580.0 -0.1880651427 0.0659232935 0.5266945614 -0.0367998336 0.5266174277 -0.0370597095 -0.1836905221 0.0646926932
75299550.0 -0.1851252851 0.0674764257 0.5283150978 -0.0442585491 0.528418283 -0.0440518806 -0.1809128947 0.0654524933
80299520.0 -0.182525676 0.068014234 0.5304335137 -0.0508002555 0.530462566 -0.0509426375 -0.1782463295 0.0659246391
85299490.0 -0.1803926971 0.0689485156 0.531763306 -0.0576407276 0.5318288642 -0.0573050252 -0.1760915883 0.0661001079
90299460.0 -0.1779261829 0.0697075628 0.5321975416 -0.0645527202 0.5328144078 -0.0646575162 -0.1735195507 0.0668731956
95299430.0 -0.1755873594 0.0703136353 0.5337650557 -0.0716567396 0.5336785194 -0.0715816894 -0.1715739945 0.0675514796
100299400.0 -0.1738808929 0.071465297 0.533551625 -0.0782332328 0.533673732 -0.0783285235 -0.1692628314 0.0672466121
105299370.0 -0.1721039802 0.0723279344 0.5342553638 -0.0858017805 0.5347768924 -0.0854939665 -0.1678282292 0.0682064702
110299340.0 -0.1703076769 0.0732361823 0.534660399 -0.0920022584 0.5345781303 -0.0919805273 -0.1662192031 0.0682770345
115299310.0 -0.1686254451 0.0739910746 0.5343489851 -0.0992688821 0.5342929363 -0.0989037177 -0.1648659696 0.0686318274
120299280.0 -0.1671986569 0.0746477894 0.5340134106 -0.1058599852 0.5344784272 -0.1059257508 -0.1633122734 0.0695435572
125299250.0 -0.1662464903 0.0756835737 0.5337912262 -0.1124982722 0.5340241508 -0.1121084528 -0.1623168053 0.0697514084
130299220.0 -0.1651373158 0.0766807319 0.5334848947 -0.1196753232 0.5332260736 -0.1193790028 -0.1609928264 0.0702298534
135299190.0 -0.1640546174 0.0781398647 0.5333673185 -0.1260928598 0.5329225459 -0.1256381266 -0.1598996681 0.0711861838
140299160.0 -0.162844854 0.0788461882 0.5321093456 -0.1328973294 0.5322179886 -0.1326522424 -0.1585590615 0.0725179644
145299130.0 -0.1614784232 0.0799533718 0.5313520179 -0.1391025139 0.5305856163 -0.1389670325 -0.1581187526 0.0728648435
150299100.0 -0.1600420258 0.0813125943 0.5297671965 -0.1456654917 0.5301454705 -0.1450670349 -0.1568338893 0.0737650862
155299070.0 -0.1594398768 0.0821933492 0.5288319007 -0.1527315045 0.5286965565 -0.15207636 -0.1559646019 0.0747265072
160299040.0 -0.1582593724 0.0835604371 0.5270632379 -0.1588216706 0.5270397522 -0.1589453887 -0.1555420515 0.0755707488
165299010.0 -0.1573268911 0.084597879 0.5256293457 -0.1656189364 0.5258896484 -0.1651513369 -0.154223201 0.0767589471
170298980.0 -0.1563450418 0.0858946327 0.5239495316 -0.171541959 0.5246163262 -0.1714383328 -0.153496847 0.0778696781
175298950.0 -0.1556381825 0.0869559196 0.5230530916 -0.1777242255 0.5226869086 -0.1776234359 -0.1529279843 0.0787469001
180298920.0 -0.1545914706 0.0882768373 0.5211484196 -0.184268231 0.5208461511 -0.1839850956 -0.1521829575 0.079658545
185298890.0 -0.1532848593 0.0894094955 0.5191186776 -0.1902110497 0.5188936592 -0.190008002 -0.1514238041 0.0810686132
190298860.0 -0.1527023825 0.091153785 0.5172828815 -0.1968415031 0.5176362602 -0.196469314 -0.1508178613 0.082054819
195298830.0 -0.1519469289 0.0923422823 0.5151251975 -0.2024317583 0.5153154162 -0.2024941643 -0.1495827588 0.0830047426
200298800.0 -0.1506278713 0.0936817815 0.5133229727 -0.2090002012 0.5134688195 -0.2087775114 -0.149140523 0.0843957269
205298770.0 -0.1497109272 0.0950140599 0.5105884112 -0.2149582091 0.5106212035 -0.2144238782 -0.1485407202 0.0846143771
210298740.0 -0.1488273825 0.0962562462 0.5088849462 -0.2204036222 0.5084759393 -0.2202769037 -0.1476174721 0.0867253299
215298710.0 -0.1484340024 0.0978981673 0.5066886407 -0.226748889 0.5062734815 -0.2267488817 -0.1473305949 0.0876407296
220298680.0 -0.1467714061 0.0988390084 0.5035583016 -0.2324741715 0.5036355006 -0.2323672824 -0.1466561304 0.088328529
225298650.0 -0.1462325445 0.100374319 0.5015016602 -0.2384891151 0.5014378788 -0.2382748135 -0.1460959398 0.0893721955
230298620.0 -0.1450858622 0.1020846776 0.4985620064 -0.2440355135 0.4993432986 -0.2441862703 -0.1456677592 0.0906941761
235298590.0 -0.1440730081 0.1037634409 0.4964224094 -0.2502645236 0.4966290105 -0.249699401 -0.1447255339 0.0922306912
240298560.0 -0.14332301 0.1051897687 0.4938800209 -0.2559869327 0.4934487883 -0.2557759611 -0.1437506747 0.093661726
245298530.0 -0.1422049528 0.106455046 0.4912105466 -0.2616717848 0.4911467732 -0.2616242775 -0.1430553113 0.0939841693
250298500.0 -0.1408681827 0.1082327557 0.4876730624 -0.2669752213 0.4875344462 -0.2668129354 -0.1426784056 0.0957928202
255298470.0 -0.1400855567 0.1092027308 0.4844566708 -0.2722958501 0.4849364884 -0.2724471801 -0.141655353 0.0968143433
260298440.0 -0.1390968806 0.1105582156 0.4818006692 -0.2780494709 0.4820928855 -0.2785018335 -0.1404443194 0.0980835907
265298410.0 -0.1373295644 0.1126600483 0.4786224105 -0.2841791303 0.479291182 -0.2834655939 -0.1396820071 0.0993519937
270298380.0 -0.1366705687 0.1136805046 0.475939465 -0.2888362652 0.4760499636 -0.2888721696 -0.1389783866 0.1007419181
275298350.0 -0.1352508762 0.1152786554 0.4728726588 -0.2945924952 0.4729359265 -0.2946772495 -0.1377889851 0.1018590898
280298320.0 -0.1339308471 0.1168616257 0.4697468323 -0.3000421988 0.4701658882 -0.2997388392 -0.1365880594 0.10309596
285298290.0 -0.1330425254 0.118592013 0.4665911993 -0.3053869195 0.4662090102 -0.3055350095 -0.1357736872 0.1044234764
290298260.0 -0.1313121809 0.1196942073 0.4629413815 -0.310112392 0.4634038096 -0.3106819781 -0.1347909168 0.1060414736
295298230.0 -0.1303754077 0.1208603532 0.4598971318 -0.3155727802 0.4597434005 -0.3157652076 -0.1335559182 0.1067544816
300298200.0 -0.1293598919 0.1224352435 0.456783249 -0.3206308972 0.4566322106 -0.3214940335 -0.1328120682 0.1080933906
305298170.0 -0.1276856703 0.1236093396 0.4524551259 -0.3265859427 0.4528317433 -0.3261683057 -0.1310884805 0.1092973306
310298140.0 -0.1266034019 0.1251843936 0.4493119829 -0.3315141424 0.4495974349 -0.331275691 -0.1303372301 0.1102383407
315298110.0 -0.1252107012 0.1263227628 0.4455209805 -0.3366002764 0.4456862128 -0.3367139265 -0.1297557112 0.1114018646
320298080.0 -0.1238532561 0.1275350205 0.4416795895 -0.3418856984 0.4417583894 -0.3419092281 -0.1285905222 0.1126404135
325298050.0 -0.1225137925 0.1289907233 0.4378801322 -0.3473970365 0.4379250922 -0.3467676236 -0.127938087 0.1138772759
330298020.0 -0.1214910762 0.1302134693 0.4335048114 -0.3518828965 0.4340621619 -0.3519687251 -0.1269787103 0.1153890423
335297990.0 -0.1200781273 0.1312925795 0.4296020457 -0.3564681384 0.4299209573 -0.3567445975 -0.126473093 0.1168342292
340297960.0 -0.1192166116 0.1330365477 0.425829131 -0.3613097241 0.4255920157 -0.3617525109 -0.1249561086 0.1180277739
345297930.0 -0.117810005 0.1347038759 0.4214315725 -0.3662142087 0.4215637441 -0.3663547671 -0.1242821643 0.1195374512
350297900.0 -0.1165282933 0.1354921249 0.4167892329 -0.3708719873 0.4174963939 -0.3703615446 -0.1236980225 0.1211313211
355297870.0 -0.1151298994 0.1377230363 0.4131649846 -0.3753947606 0.4134447658 -0.3752819471 -0.1224621024 0.1221212107
360297840.0 -0.1137322373 0.1387105438 0.4098818395 -0.3799229179 0.4100915108 -0.3799627141 -0.1214586486 0.1239639669
365297810.0 -0.1125152569 0.1403976016 0.4050543632 -0.3845836406 0.4053658268 -0.3847721723 -0.1199520686 0.1250577677
370297780.0 -0.1107364575 0.1413382825 0.4004222075 -0.388586849 0.4009574374 -0.3881439136 -0.1189876186 0.1263226069
375297750.0 -0.1090069939 0.1429944062 0.3962781154 -0.3933753454 0.3971872857 -0.3934240096 -0.1180891117 0.1275940924
380297720.0 -0.1078757352 0.1441292945 0.3920790516 -0.3977780378 0.3920995644 -0.3972275086 -0.1170615979 0.1286916479
385297690.0 -0.1065261995 0.145313217 0.3877808997 -0.4016334671 0.3877181489 -0.4016317187 -0.1157010853 0.1301185424
390297660.0 -0.1048977393 0.1472012908 0.383278957 -0.4065261049 0.3833779188 -0.4060385425 -0.1150376418 0.1313174052
395297630.0 -0.1033355239 0.1484823753 0.3791389723 -0.4104696309 0.3788897101 -0.4103984351 -0.1131767501 0.132512648
400297600.0 -0.1015971595 0.1496301517 0.3739494749 -0.4147561742 0.3745942015 -0.4145981072 -0.1121629245 0.1335640618
405297570.0 -0.1004085417 0.1509033572 0.3694091735 -0.4187136445 0.3696566479 -0.4184995421 -0.1115809248 0.1353204803
410297540.0 -0.0984862777 0.1519405519 0.3652330415 -0.422548581 0.3654734547 -0.4228345276 -0.1099702299 0.1367159442
415297510.0 -0.0966143691 0.1532056677 0.3603845568 -0.4268261297 0.3605385988 -0.4263819261 -0.1085965141 0.1373353825
420297480.0 -0.0952185411 0.1547467608 0.3557787938 -0.430548395 0.3559662461 -0.4305360112 -0.1076191872 0.1384250837
425297450.0 -0.0935231329 0.1554918213 0.3507487686 -0.4347853632 0.3512344471 -0.434436454 -0.1065836841 0.1399588112
430297420.0 -0.0917817099 0.1566207639 0.3460021218 -0.4378697018 0.3462115922 -0.4376335694 -0.1050835852 0.1405991139
435297390.0 -0.0902082747 0.1578162171 0.3411830337 -0.4420448486 0.3414441349 -0.4418832222 -0.1034009575 0.1418831542
440297360.0 -0.0882683228 0.1591256401 0.3363107332 -0.4454272555 0.3365698666 -0.4455349565 -0.1021505496 0.1429832419
445297330.0 -0.0866407033 0.1599296172 0.3321389166 -0.4492947699 0.3319738594 -0.4487285912 -0.1007387955 0.1436672865
450297300.0 -0.0847643692 0.1611347124 0.3266059044 -0.4524741965 0.326954573 -0.4528262296 -0.0994647308 0.1448771825
455297270.0 -0.0830845028 0.1622505763 0.3216636188 -0.4562387374 0.3223366524 -0.4566122347 -0.0980997101 0.1461541349
460297240.0 -0.0817453116 0.162908661 0.316850043 -0.4600474928 0.3167908212 -0.4599240457 -0.0967559365 0.1473147847
465297210.0 -0.0794670413 0.164384479 0.3116241437 -0.463160401 0.3120297178 -0.4636079769 -0.0950522376 0.1478030359
470297180.0 -0.0776461337 0.1654105119 0.3063308532 -0.4667182564 0.3064257476 -0.466546486 -0.0935311166 0.1493907762
475297150.0 -0.075901639 0.1661584093 0.3011606281 -0.469553653 0.301384395 -0.469636482 -0.0919283719 0.1500200483
480297120.0 -0.074279838 0.1674849856 0.2962274707 -0.4733607426 0.2961767826 -0.4733079155 -0.0901357589 0.1517775476
485297090.0 -0.0725352562 0.168240746 0.2910274193 -0.4760557215 0.291361521 -0.4759060989 -0.0889620639 0.1522928135
490297060.0 -0.0707643526 0.1692026549 0.2860675852 -0.4795859063 0.2862763827 -0.4793259169 -0.0876039307 0.1534397176
495297030.0 -0.0688503781 0.1700719961 0.2805379989 -0.4823845489 0.2811057255 -0.4824546689 -0.0864270278 0.1541977552
500297000.0 -0.0668589346 0.1710307054 0.2751338393 -0.4852028128 0.2749438495 -0.4851459559 -0.0847126818 0.1558783628
505296970.0 -0.0647399173 0.1717417944 0.2701805644 -0.4882822086 0.2700594675 -0.4882712313 -0.0830895973 0.1566142478
510296940.0 -0.0632347591 0.172689547 0.2649793818 -0.4912676254 0.2646279881 -0.4914216381 -0.0815668858 0.1576769633
515296910.0 -0.061128325 0.173586624 0.2594366731 -0.4943852513 0.2593898001 -0.4940838305 -0.0800546215 0.1582483825
520296880.0 -0.0593342791 0.1744543135 0.254144776 -0.4973538865 0.2537086113 -0.4967649462 -0.0784578962 0.159300107
525296850.0 -0.0571117933 0.1745839278 0.247892603 -0.4993232886 0.2490232894 -0.4993787847 -0.0772353936 0.1603882093
530296820.0 -0.0552634397 0.1758827361 0.2430236955 -0.5024241063 0.243316067 -0.5023299345 -0.0755166854 0.1615097271
535296790.0 -0.0539503331 0.1764019 0.2377447953 -0.5046097351 0.2378294487 -0.5045819427 -0.0741496238 0.1619907689
540296760.0 -0.0518707238 0.1774222036 0.2323039327 -0.5076159736 0.2320276773 -0.5075781903 -0.0729585655 0.1634115323
545296730.0 -0.0496980195 0.1782830347 0.2262713947 -0.5099491464 0.2265253396 -0.5096220793 -0.0714417476 0.1640403148
550296700.0 -0.0474404997 0.1789010027 0.2207685043 -0.5123169835 0.221121412 -0.5124888753 -0.0696753026 0.1649316101
555296670.0 -0.0457660917 0.1795068815 0.215620339 -0.5151046875 0.2158268257 -0.5144386877 -0.0681472122 0.166117388
560296640.0 -0.0436270037 0.1807173966 0.2093195542 -0.5172896062 0.2101786209 -0.5167857283 -0.0664649172 0.1664544184
565296610.0 -0.0422277979 0.1808849953 0.2041871276 -0.5192351086 0.2044790806 -0.5192093207 -0.0653095319 0.1669954872
570296580.0 -0.0401753746 0.1816079695 0.1986480582 -0.521743674 0.1980475452 -0.521343492 -0.0634342167 0.1683109509
575296550.0 -0.0379805296 0.1823696717 0.1926665257 -0.5238337692 0.192990876 -0.5237104475 -0.0617310257 0.1689840284
580296520.0 -0.0357982386 0.1828066939 0.1867926553 -0.5259196998 0.1872351041 -0.5257040526 -0.0601576123 0.169726549
585296490.0 -0.0340388027 0.1827197486 0.181683645 -0.5269632053 0.1817335086 -0.5274747775 -0.058569412 0.1704663256
590296460.0 -0.0314121555 0.183546053 0.1755677623 -0.5288141417 0.1759375469 -0.5292511852 -0.0574743744 0.1711780942
595296430.0 -0.0296166625 0.1842839499 0.1696453661 -0.531147977 0.1695771116 -0.5311901766 -0.0554822456 0.1713690803
600296400.0 -0.0280247453 0.1845470305 0.1640690857 -0.5330332574 0.164030589 -0.5328136484 -0.0538851434 0.1721653752
605296370.0 -0.0260647307 0.1850262702 0.1583527153 -0.5347939309 0.1589093945 -0.5344707836 -0.0519924908 0.172736159
610296340.0 -0.0236801902 0.1854245423 0.1521548802 -0.5361685953 0.1526160067 -0.5361423644 -0.0503468152 0.1733526553
615296310.0 -0.0214106168 0.1855253347 0.146458206 -0.5376028202 0.1468552777 -0.53844157 -0.048337172 0.1737894131
620296280.0 -0.0194298371 0.1858060473 0.1407620716 -0.5391523757 0.140762853 -0.5391490716 -0.04710275 0.1745119669
625296250.0 -0.0178605838 0.1860570833 0.1356427268 -0.5411705186 0.1348273798 -0.5411957593 -0.0447015646 0.175261907
630296220.0 -0.0146895105 0.1866232667 0.1283103907 -0.5421352825 0.1288516281 -0.542073982 -0.0433231005 0.1759066422
635296190.0 -0.013503991 0.1868393882 0.1232448379 -0.5431811223 0.1233840172 -0.5435859688 -0.0417741312 0.1762857536
640296160.0 -0.0115553203 0.1871431089 0.1175262618 -0.544825142 0.1176113264 -0.5450457583 -0.039735115 0.1769019016
645296130.0 -0.009556185 0.1874898795 0.1111654081 -0.5456486825 0.1118149659 -0.5459382685 -0.0378487038 0.1776048538
650296100.0 -0.0073052355 0.1875552678 0.1050644273 -0.5466762251 0.1058159625 -0.5471609182 -0.0360008418 0.1774586059
655296070.0 -0.0054165338 0.1878847932 0.0995069988 -0.5481802175 0.0997812985 -0.5479499115 -0.0341684362 0.1782458732
660296040.0 -0.0038156136 0.1878925198 0.093952876 -0.5493742137 0.0944037122 -0.5492544779 -0.0324514488 0.1790503603
665296010.0 -0.0010058773 0.1880379322 0.0873311592 -0.5499698925 0.0880533982 -0.5497433888 -0.0307514369 0.179695911
670295980.0 0.0004148233 0.18833944 0.0818906854 -0.550856572 0.0818806394 -0.5508881363 -0.0293836187 0.1800224051
675295950.0 0.0029298218 0.1883722048 0.075932028 -0.5514987995 0.076292573 -0.5511375397 -0.0279383012 0.1806903986
680295920.0 0.0045544632 0.1883699171 0.0699466961 -0.5523426559 0.0693420549 -0.5531482523 -0.0256308544 0.18150698
685295890.0 0.0070046461 0.189329307 0.0638725775 -0.5534003454 0.063716885 -0.5535723906 -0.0240299288 0.1814700981
690295860.0 0.0092077925 0.1891515378 0.0583763846 -0.5535139138 0.058043547 -0.5540423411 -0.022264179 0.1826582568
695295830.0 0.011160603 0.1887638499 0.0519891876 -0.5543619839 0.0520006651 -0.5543185937 -0.0208715251 0.182888439
700295800.0 0.0136900697 0.1886692643 0.0457436982 -0.5550716804 0.0455999062 -0.5548217092 -0.0190813423 0.1836943182
705295770.0 0.0152844573 0.1893879862 0.0397797182 -0.5553633261 0.0400244626 -0.555225614 -0.01702835 0.183586504
710295740.0 0.0174858213 0.1892035971 0.034147649 -0.5560364729 0.0346414664 -0.5562435653 -0.0152188648 0.1834635898
715295710.0 0.0190774414 0.1888042044 0.0283501245 -0.5561722168 0.0275867421 -0.5561241352 -0.0135898599 0.1840927018
720295680.0 0.0212360727 0.1887430626 0.0222310612 -0.5566153505 0.0220227259 -0.5565401141 -0.0113952382 0.1847821853
725295650.0 0.0235732743 0.1887848488 0.0156844851 -0.5564955033 0.0161939799 -0.556657033 -0.0103900626 0.185118389
730295620.0 0.0259438186 0.1889796923 0.0099435765 -0.5559794722 0.0102138626 -0.5567834661 -0.0089006977 0.184724973
735295590.0 0.0281023449 0.1886109606 0.0040344651 -0.5567697843 0.0041655317 -0.556782247 -0.0070939686 0.1850725062
740295560.0 0.0298606325 0.1886903459 -0.0019383077 -0.5565930254 -0.0023204186 -0.5565602536 -0.004352156 0.1855403232
745295530.0 0.0314768909 0.1882809759 -0.0080021828 -0.5559981243 -0.0080654768 -0.5565268832 -0.0031551644 0.1852153646
750295500.0 0.0338924786 0.1882598008 -0.013950046 -0.556165643 -0.0135788999 -0.5565878352 -0.0013772946 0.185624313
755295470.0 0.0360534399 0.1874616616 -0.0199939403 -0.5561952219 -0.0200113645 -0.5562613279 0.0011336746 0.1852310244
760295440.0 0.0380937123 0.1877795439 -0.0260466316 -0.5561875193 -0.0259205252 -0.5563038019 0.0023746618 0.1853557272
765295410.0 0.0399930427 0.1869083726 -0.03187059 -0.5554421171 -0.0323637355 -0.5559302624 0.0044249116 0.1859504148
770295380.0 0.0419413195 0.1867023694 -0.0384241776 -0.5549762469 -0.0380651634 -0.5550622302 0.0056940413 0.1855649937
775295350.0 0.0438874826 0.1863198701 -0.0442181762 -0.5544030488 -0.043741552 -0.5547097718 0.0070930346 0.1860589189
780295320.0 0.0462117569 0.1858582639 -0.0502021888 -0.5534400525 -0.0492190265 -0.5536722287 0.0096124493 0.1855796191
785295290.0 0.0478932877 0.1851565701 -0.0559959722 -0.5532709255 -0.0555107733 -0.5535345851 0.0116559279 0.1861319387
790295260.0 0.0507980835 0.1854353807 -0.0614321164 -0.5529655369 -0.0609482969 -0.5524045873 0.0136105236 0.1858953765
795295230.0 0.0522530261 0.1845431423 -0.0676928208 -0.5520033341 -0.0670337935 -0.552139187 0.0154096157 0.1861862334
800295200.0 0.0540032089 0.1845480984 -0.0736992606 -0.5509935799 -0.0736083389 -0.5510476116 0.0171179952 0.1859850878
805295170.0 0.0563279811 0.1837765777 -0.0796975213 -0.5504151821 -0.0796927305 -0.5505612344 0.0189707728 0.1862046341
810295140.0 0.0582541513 0.1830339375 -0.0853315815 -0.549049021 -0.0853658352 -0.5498061358 0.0210115547 0.1861886601
815295110.0 0.0602946329 0.1824271944 -0.0912047611 -0.5478128659 -0.0912449431 -0.5484551914 0.0225236454 0.1860135579
820295080.0 0.0619778895 0.182300304 -0.097120407 -0.5471172599 -0.0968806368 -0.5474517027 0.0246005642 0.1860127503
825295050.0 0.0648046117 0.1816186964 -0.1029985839 -0.5458878337 -0.1028445082 -0.5465907866 0.0268387371 0.1860835069
830295020.0 0.0663069072 0.1812881161 -0.1092104651 -0.5447686754 -0.1092007784 -0.5448873024 0.0290222439 0.1856981641
