!Created with skrf (http://scikit-rf.org).
# Hz S RI R 50.0 
!freq ReS11 ImS11 ReS21 ImS21 ReS12 ImS12 ReS22 ImS22
300000.0 -0.2341901337 -0.1116939598 0.4667387972 0.0748670578 0.4699846055 0.074699549 -0.2368097662 -0.1140529999
5299970.0 -0.2405366051 0.0072548527 0.4751359349 0.0052751836 0.4749089563 0.0057595471 -0.2444114731 0.005449546
10299940.0 -0.237195838 0.019962344 0.4772726566 0.0065707673 0.477121974 0.0064833409 -0.2417257662 0.0174148167
15299910.0 -0.2330202865 0.0298372147 0.4805957372 0.0077221373 0.4803781795 0.0078034861 -0.2370045233 0.0263505251
20299880.0 -0.2274764962 0.0380003304 0.4853164594 0.008236338 0.4852850716 0.0079737341 -0.232771888 0.0340539518
25299850.0 -0.2215788475 0.0442198664 0.4903984456 0.0071789616 0.4904660921 0.0069172049 -0.2278943675 0.039683525
30299820.0 -0.2156737116 0.0495699101 0.4963357814 0.0050644467 0.4958378114 0.0048462068 -0.222667589 0.0448994069
35299790.0 -0.2099493201 0.0538248234 0.5009225185 0.0017071027 0.5012012334 0.0018847389 -0.2171973014 0.0487353484
40299760.0 -0.2043925804 0.0569743192 0.5062051137 -0.0019746422 0.5060561185 -0.0023737696 -0.2124726999 0.0521612129
45299730.0 -0.1995594506 0.0600294266 0.5110901258 -0.0071103983 0.5109907608 -0.007076385 -0.2075268536 0.0547699221
50299700.0 -0.1947832389 0.0618022953 0.5150426617 -0.0125068084 0.5150859422 -0.012508965 -0.2035026975 0.0566832144
55299670.0 -0.1906672421 0.0640201542 0.5183051644 -0.0188939017 0.5188543642 -0.0184136465 -0.1996329941 0.0580259921
60299640.0 -0.1864621714 0.0648131018 0.521501737 -0.0249619257 0.5220117733 -0.0250157849 -0.1962063222 0.0597005175
65299610.0 -0.1829940054 0.0664085172 0.5248740291 -0.0307473799 0.5252879945 -0.031337646 -0.1928760407 0.0608667579
70299580.0 -0.1796122351 0.0670565796 0.5270660997 -0.0375281647 0.5273983917 -0.0378267159 -0.1900423017 0.0617913906
75299550.0 -0.1764369111 0.0682236916 0.529337717 -0.0445552123 0.5291342197 -0.0448596227 -0.1870424454 0.0627394799
80299520.0 -0.1740367006 0.068895946 0.5315179471 -0.0512539348 0.5312288668 -0.0514545548 -0.1846509918 0.0628415678
85299490.0 -0.171439882 0.0693771893 0.5323790358 -0.0583439922 0.5322845571 -0.0582409277 -0.1824254897 0.0634649605
90299460.0 -0.1691587394 0.0703017146 0.5331848687 -0.0649851004 0.5334641714 -0.0652402961 -0.1800480227 0.0641628463
95299430.0 -0.1671367793 0.0710067312 0.5344205086 -0.0723378248 0.5345405367 -0.0723617114 -0.1783899009 0.065437355
100299400.0 -0.1652084191 0.0716949173 0.5347366412 -0.0792292034 0.5345585021 -0.0789748708 -0.1767941681 0.065440679
105299370.0 -0.1633584519 0.0723322005 0.5349730237 -0.0858298966 0.5351201054 -0.0861828528 -0.1749839197 0.0663919258
110299340.0 -0.1618820358 0.0729333289 0.5350806498 -0.0927037533 0.5351013115 -0.0930269604 -0.1738671893 0.0671781034
115299310.0 -0.1601262505 0.0733691366 0.5348989451 -0.099324649 0.5352871931 -0.0994655033 -0.1721356559 0.0670658917
120299280.0 -0.1591048105 0.0741777647 0.5349880011 -0.1065002544 0.5349900906 -0.1065453452 -0.1712068473 0.0680402256
125299250.0 -0.1580276473 0.0750771132 0.5346459186 -0.1130061955 0.534794585 -0.1133154258 -0.1698549788 0.0683452091
130299220.0 -0.1563930736 0.0761040061 0.5337959585 -0.1194655994 0.5338085631 -0.1195791582 -0.1688094019 0.0692014989
135299190.0 -0.155246899 0.0766522731 0.5330158546 -0.1260997711 0.5329779876 -0.1263182509 -0.1682211428 0.0702592108
140299160.0 -0.1542448631 0.0782474891 0.5327493588 -0.1333775435 0.5325696582 -0.1331278353 -0.1665494875 0.0710625295
145299130.0 -0.1530902279 0.078963456 0.5316359948 -0.1397683481 0.531585892 -0.139187237 -0.1662874369 0.0716242733
150299100.0 -0.152022799 0.0797468051 0.5303173302 -0.1460585428 0.5305587359 -0.1462332249 -0.1653416156 0.0726778802
155299070.0 -0.1511531884 0.0814129698 0.5292682423 -0.1530434004 0.5290686582 -0.1530467726 -0.1644299379 0.0734564252
160299040.0 -0.1503079875 0.0822237597 0.5276933977 -0.1589971125 0.5278079179 -0.1587716165 -0.1633189233 0.0746641905
165299010.0 -0.1493687674 0.0831612709 0.5268733214 -0.1657837938 0.5265053934 -0.165577163 -0.1630471121 0.0755332056
170298980.0 -0.1483019839 0.0845620433 0.5239181067 -0.1718633367 0.5246004672 -0.1720510726 -0.1616300354 0.0763798618
175298950.0 -0.1472410864 0.085504016 0.5234895388 -0.1777858089 0.5236490392 -0.1780571018 -0.1613259397 0.0773083934
180298920.0 -0.1460512543 0.0865711486 0.5210785761 -0.1844539483 0.521598242 -0.1843540317 -0.1603167349 0.07877772
185298890.0 -0.1454200933 0.0880440173 0.5194908033 -0.1907869123 0.5192520084 -0.1905964841 -0.1595474345 0.0794689102
190298860.0 -0.1444910251 0.0892294104 0.5177507096 -0.1970002476 0.5179161944 -0.1972060843 -0.1582426443 0.0809334281
195298830.0 -0.1435596348 0.0901334082 0.5157134669 -0.2027235085 0.5157253074 -0.202992058 -0.1578290024 0.0816644107
200298800.0 -0.1425532813 0.0916830633 0.513939245 -0.2083119198 0.5137051141 -0.2089246128 -0.1570119589 0.0833297473
205298770.0 -0.1417533041 0.0930959603 0.511780064 -0.2149049965 0.5113332732 -0.215044894 -0.1562982347 0.0839896532
210298740.0 -0.1410147464 0.0942820038 0.5095265763 -0.2213398538 0.5096304347 -0.2214968531 -0.1557333095 0.0854890558
215298710.0 -0.139638661 0.095652622 0.5068130218 -0.2268051925 0.5068747956 -0.2268839883 -0.1549053151 0.0863742337
220298680.0 -0.1386727663 0.096774405 0.5043631179 -0.2331426574 0.5044363775 -0.2328974004 -0.154091503 0.0881455961
225298650.0 -0.1375413671 0.0987022247 0.5015416314 -0.2386680173 0.5015920005 -0.2383098996 -0.15344696 0.0891565575
230298620.0 -0.1367295529 0.0999689751 0.4997317181 -0.2447483246 0.4996640379 -0.2446920246 -0.1524327555 0.0902095843
235298590.0 -0.1357819572 0.1009946225 0.4971333356 -0.250006788 0.496932995 -0.2504792738 -0.1515901319 0.0912653684
240298560.0 -0.1350132696 0.1026879859 0.4944186023 -0.2558379809 0.4944440873 -0.2554401492 -0.1508660287 0.093019598
245298530.0 -0.133544068 0.1039220722 0.4909458557 -0.2616642301 0.4912275185 -0.2614981702 -0.1498550964 0.0945089605
250298500.0 -0.1329767554 0.1051170459 0.4884555218 -0.2666430269 0.4887344154 -0.2668298379 -0.1488845773 0.0955916957
255298470.0 -0.1317765217 0.1068778737 0.4852275951 -0.2729554321 0.4856880845 -0.2728018737 -0.1478452261 0.0965643286
260298440.0 -0.1308269028 0.1081996657 0.48281459 -0.2780205265 0.4826056581 -0.2784051248 -0.1470473519 0.0983363977
265298410.0 -0.1294188705 0.1096760397 0.4796156242 -0.2840559245 0.4797235914 -0.2839586873 -0.1464316787 0.0994543582
270298380.0 -0.1283532081 0.110864316 0.476163711 -0.2892198794 0.4764519923 -0.2894093949 -0.1451430091 0.1012667429
275298350.0 -0.1275005218 0.1124410691 0.4734416543 -0.2949846997 0.4736399664 -0.2949823732 -0.1444515745 0.1022382337
280298320.0 -0.1263195974 0.1139402081 0.470299301 -0.2995898238 0.4700191146 -0.3000617012 -0.1433750486 0.103793777
285298290.0 -0.1247258208 0.1154201458 0.4667695049 -0.305260484 0.4667811043 -0.3056160302 -0.1425591122 0.1049244122
290298260.0 -0.1236777102 0.1168806492 0.4638761716 -0.3107361351 0.4635026716 -0.3106903045 -0.1413293202 0.1063950059
295298230.0 -0.1225679755 0.1181630419 0.4605225648 -0.31577245 0.4600794278 -0.3159658748 -0.140092802 0.1079800753
300298200.0 -0.1208688477 0.1194391706 0.4570700516 -0.3210583783 0.4566940293 -0.321473162 -0.1391945104 0.1094595695
305298170.0 -0.1194903247 0.1205929937 0.4537745499 -0.3265129118 0.4537233951 -0.3265887345 -0.1378059419 0.1109006206
310298140.0 -0.118147918 0.1216973286 0.4502908495 -0.3316537246 0.449969981 -0.3321177349 -0.1371343054 0.1123491821
315298110.0 -0.1173621224 0.1233938082 0.4461576963 -0.3371439191 0.4465362042 -0.3371064612 -0.1354977021 0.1132486163
320298080.0 -0.1159085563 0.1242909528 0.4425653989 -0.3417931636 0.4427382378 -0.3421883943 -0.1349261334 0.1146085676
325298050.0 -0.1146194146 0.1255716328 0.438913294 -0.3476451442 0.4389678977 -0.3472872246 -0.1338859766 0.1158482737
330298020.0 -0.1134247426 0.1270279061 0.4339609008 -0.3524598939 0.4346295899 -0.3521950135 -0.1328634003 0.1170992033
335297990.0 -0.1120144328 0.1281555725 0.4302909674 -0.3570889583 0.4303287194 -0.3568973792 -0.1319994232 0.1182827104
340297960.0 -0.1114241643 0.129710352 0.4262658489 -0.362011249 0.4266400339 -0.3620862408 -0.1309217671 0.1200741008
345297930.0 -0.1102483468 0.1310441847 0.4225397088 -0.3659836211 0.4220832097 -0.3662276802 -0.1298897345 0.1210868884
350297900.0 -0.1082009178 0.1326898629 0.4182836415 -0.3708937321 0.4186443899 -0.3711072573 -0.1287766193 0.1232243593
355297870.0 -0.1072229629 0.1336138674 0.4139316643 -0.3752136581 0.4138822762 -0.3757970851 -0.1280144839 0.1243529744
360297840.0 -0.105637126 0.1353519482 0.4101858353 -0.3807454115 0.4098702552 -0.3800689046 -0.1265937459 0.1260896183
365297810.0 -0.1042465581 0.1364790707 0.4057465874 -0.3846570803 0.4057244842 -0.3847125965 -0.1255642725 0.1274659155
370297780.0 -0.1024900453 0.1374659883 0.4010139482 -0.3888350348 0.4016127633 -0.389708567 -0.124216091 0.1288203639
375297750.0 -0.1013826388 0.139478319 0.3975057979 -0.3934240302 0.3973081058 -0.3937348218 -0.1230446917 0.1304237195
380297720.0 -0.0995076152 0.1399319656 0.392769363 -0.3978365252 0.3926892766 -0.3976508542 -0.121563937 0.1316550654
385297690.0 -0.0982228045 0.141572675 0.3886050556 -0.4018799937 0.3887116159 -0.4021743962 -0.120625684 0.1331997395
390297660.0 -0.0968155045 0.142687734 0.3838626445 -0.4063912474 0.3840411266 -0.4069179178 -0.1192549911 0.1340881963
395297630.0 -0.0949873259 0.1439573462 0.379597629 -0.4101159223 0.3795664431 -0.4105871651 -0.1182412247 0.1359508216
400297600.0 -0.0935652641 0.1454104276 0.3750207829 -0.4150538853 0.3749461975 -0.4150394207 -0.1172436213 0.1369934447
405297570.0 -0.0918747351 0.1465103664 0.3706287441 -0.4186833587 0.3705471925 -0.4193835737 -0.1155143206 0.1385222122
410297540.0 -0.0899324453 0.1475310185 0.3649964096 -0.4227903145 0.3656225102 -0.422731671 -0.1144681166 0.1396966716
415297510.0 -0.0884742758 0.1489723086 0.3611511974 -0.4264393466 0.3612424827 -0.4270046384 -0.113175583 0.1414076794
420297480.0 -0.0869481831 0.1497623814 0.3563576042 -0.4308536446 0.3563380202 -0.4306455758 -0.1116258561 0.1421721146
425297450.0 -0.0848334273 0.1506119412 0.3512348363 -0.4344883294 0.3519391894 -0.4346887632 -0.1103806964 0.1440629162
430297420.0 -0.0837075741 0.152034825 0.3468679174 -0.4388686889 0.3469500074 -0.4387879904 -0.1091747606 0.1448522198
435297390.0 -0.081872913 0.1530246996 0.3420419944 -0.4419184041 0.3422124354 -0.4420469962 -0.107917774 0.1464203421
440297360.0 -0.0800374424 0.1542114681 0.3370401355 -0.4462014348 0.3367442289 -0.4456390692 -0.1063472004 0.1468521076
445297330.0 -0.0779236395 0.1550848559 0.3317322234 -0.4500343305 0.3320222983 -0.44966888 -0.1050216215 0.1486151247
450297300.0 -0.0763463754 0.1563337861 0.3271790023 -0.4535349569 0.3275708024 -0.4530493702 -0.1037502454 0.1499230973
455297270.0 -0.0747583432 0.157284914 0.3226125604 -0.4566899541 0.3224689668 -0.4565520433 -0.1019825067 0.1513172696
460297240.0 -0.0734538093 0.1581560088 0.3171185769 -0.4601025333 0.3172230067 -0.4601680317 -0.1005654781 0.1528274494
465297210.0 -0.0710923555 0.1588975812 0.3124254263 -0.4634684434 0.3125252975 -0.463492505 -0.0997118067 0.1535631199
470297180.0 -0.0695940845 0.1596909452 0.3072250646 -0.4667262005 0.3075367791 -0.4669113543 -0.0980921348 0.1547188221
475297150.0 -0.0679181679 0.1604733542 0.3018618681 -0.47003784 0.3021494273 -0.4696822241 -0.0963178927 0.1558115045
480297120.0 -0.0657867499 0.1613253508 0.2967923764 -0.4734606128 0.2972343085 -0.4733096406 -0.095022966 0.1573940046
485297090.0 -0.0641712 0.1623407912 0.2918944173 -0.4769664345 0.2920117453 -0.4765181663 -0.0936203032 0.1581359426
490297060.0 -0.0618619535 0.162867283 0.2867560676 -0.4797759484 0.2869386961 -0.4796124052 -0.0921932502 0.1593947277
495297030.0 -0.0604938365 0.1641191377 0.2812401491 -0.482845268 0.2812415323 -0.482847481 -0.0908435677 0.1599146189
500297000.0 -0.0584816291 0.1644765733 0.2759248826 -0.485636476 0.2763197805 -0.485836641 -0.0896789803 0.1611295338
505296970.0 -0.0568123483 0.1651640101 0.2707509435 -0.4883074977 0.2704804309 -0.48849807 -0.0884475413 0.1623569481
510296940.0 -0.0551155782 0.1663596455 0.2653279955 -0.4918235264 0.2657857731 -0.4919350548 -0.0863042831 0.1633759101
515296910.0 -0.0532144692 0.1671355746 0.2597715625 -0.4943468012 0.2600094743 -0.4943495392 -0.0846665955 0.1642256364
520296880.0 -0.0514870299 0.1676932416 0.254768152 -0.4973346407 0.2548564526 -0.4967261546 -0.0830933778 0.1653018643
525296850.0 -0.0495782345 0.1682734624 0.249089597 -0.4998019872 0.2495648769 -0.5000402687 -0.0813863784 0.1662628779
530296820.0 -0.0475705697 0.1687877079 0.2442566111 -0.5015904779 0.2441374361 -0.502090834 -0.0804768074 0.1668120514
535296790.0 -0.0456679346 0.1698867019 0.2381867519 -0.5045044685 0.2384745171 -0.5046269162 -0.078578005 0.1677253477
540296760.0 -0.0436758616 0.1699832774 0.2325812006 -0.5077441845 0.2322961421 -0.5078367657 -0.0772604944 0.169229358
545296730.0 -0.0419614036 0.1711351127 0.227227209 -0.5101184271 0.2271859666 -0.510458159 -0.0755479833 0.1694148176
550296700.0 -0.0401025282 0.1714261148 0.2216641987 -0.5123939208 0.2220620715 -0.5126933532 -0.0738738481 0.171269365
555296670.0 -0.0376215214 0.1718404377 0.2159877225 -0.5150625634 0.2162616557 -0.5151468421 -0.0722447823 0.1718663712
560296640.0 -0.0362122965 0.1726134507 0.2108046726 -0.5170695234 0.2107986789 -0.517115685 -0.0706630586 0.1726364218
565296610.0 -0.0346533745 0.1728951875 0.2051568132 -0.5189381073 0.2046638819 -0.5191502689 -0.0690058048 0.1734665286
570296580.0 -0.0322476123 0.1733973905 0.1990583963 -0.5211915793 0.1996553313 -0.5214734797 -0.0673014124 0.1747413315
575296550.0 -0.0305567269 0.1742060184 0.1934415028 -0.5231781523 0.1936887983 -0.5231704695 -0.0653591609 0.1752481628
580296520.0 -0.0286517333 0.1749978888 0.1881547059 -0.5257309029 0.187931972 -0.5258134382 -0.0640479389 0.1759001894
585296490.0 -0.0264467749 0.1748293848 0.1829387146 -0.5277208006 0.1825847594 -0.5274690648 -0.0628023248 0.1766626836
590296460.0 -0.0248172593 0.1749151849 0.1762880307 -0.5292930405 0.1763538299 -0.5293985779 -0.0605551646 0.1775042762
595296430.0 -0.0229020408 0.1758919748 0.1713597546 -0.5313965343 0.1708465141 -0.531503056 -0.0587413732 0.1780997205
600296400.0 -0.0208658285 0.1762725052 0.1650513059 -0.5331396303 0.1655272644 -0.5332044366 -0.0573165926 0.1788645326
605296370.0 -0.018760205 0.1768318387 0.1597263855 -0.5349436331 0.1594231144 -0.5346967395 -0.0555764897 0.1797163669
610296340.0 -0.0169247114 0.1770835595 0.1539447505 -0.5367469923 0.1536978099 -0.5365941847 -0.0538334875 0.1806622995
615296310.0 -0.014636924 0.1775444881 0.1471358397 -0.5379772759 0.1474379641 -0.5380535798 -0.0522643238 0.1809086401
620296280.0 -0.0129097812 0.1776126757 0.1422755155 -0.5396664351 0.1419218961 -0.5396853992 -0.050560275 0.181622656
625296250.0 -0.0107160665 0.1778575164 0.1358781639 -0.5413909914 0.1358493213 -0.5413211304 -0.0487431475 0.1822376727
630296220.0 -0.008806537 0.1785587721 0.1301446479 -0.5428833877 0.1304979593 -0.5424074855 -0.0474355625 0.1832947006
635296190.0 -0.0068998398 0.1785340533 0.1242289555 -0.5436448161 0.1239899037 -0.5437034455 -0.0454738232 0.1835063525
640296160.0 -0.0050321492 0.1788083237 0.1186709857 -0.5449862727 0.1186930439 -0.5451333102 -0.0432420969 0.1838599071
645296130.0 -0.0031376033 0.1792906981 0.1126365956 -0.5467637675 0.1129982559 -0.5462104289 -0.0423766991 0.1842198391
650296100.0 -0.0010701171 0.1794142101 0.1070272585 -0.5472471071 0.106872925 -0.5472699929 -0.0399676091 0.185277301
655296070.0 0.0008160596 0.1791759322 0.1003641862 -0.5480973985 0.1004296785 -0.5481082017 -0.0377353447 0.1859613535
660296040.0 0.0025775586 0.1798341446 0.0949488244 -0.5490819739 0.0950383613 -0.5493780321 -0.0365823423 0.1862425227
665296010.0 0.0051689828 0.1794843614 0.0891880788 -0.5509730484 0.0894243955 -0.5504876269 -0.034981523 0.1870283599
670295980.0 0.0072669765 0.1798684131 0.0831449474 -0.5510516783 0.0831660966 -0.551291427 -0.0334395278 0.187063214
675295950.0 0.0094672731 0.1797261461 0.0766910136 -0.5523511127 0.0774313114 -0.5527245898 -0.0314936797 0.1880668281
680295920.0 0.0109542178 0.180203663 0.0711858821 -0.5530037947 0.0708836597 -0.5532315844 -0.0292749983 0.1884832648
685295890.0 0.0129505536 0.1798939741 0.0653031223 -0.5535510597 0.0648157009 -0.5539001233 -0.0276670073 0.1886947854
690295860.0 0.0153880233 0.1801037215 0.0591924463 -0.5538469551 0.0588267811 -0.5542922146 -0.0255464239 0.1891237555
695295830.0 0.0174471072 0.1797241314 0.052290696 -0.5550450755 0.0526689438 -0.5551883121 -0.0243071179 0.1898615647
700295800.0 0.0194015553 0.1798941933 0.0467784194 -0.5555398338 0.0469305537 -0.5555469918 -0.0222397787 0.1895496013
705295770.0 0.0213919511 0.1799502767 0.040973198 -0.555568667 0.0414475158 -0.5559683539 -0.0206599185 0.1902629366
710295740.0 0.0232330393 0.1800058447 0.0353061114 -0.5562381518 0.0349297763 -0.5562259076 -0.0194735436 0.1907377394
715295710.0 0.0249959131 0.1796850782 0.0293593776 -0.556568213 0.0295674013 -0.5562561908 -0.0169581076 0.190588832
720295680.0 0.0273559634 0.1793716974 0.0227720996 -0.55639102 0.0232034627 -0.5567733509 -0.0151043028 0.1914104848
725295650.0 0.0295327303 0.1793153888 0.0164531872 -0.5565811736 0.017029496 -0.5568660708 -0.0130508676 0.191477417
730295620.0 0.031372133 0.1790796056 0.0109133307 -0.5568049536 0.0107958427 -0.5572583037 -0.0112462395 0.1913066986
735295590.0 0.0335898243 0.1790861831 0.0052937088 -0.5571306786 0.0052066042 -0.5574053476 -0.0096425544 0.1920714645
740295560.0 0.0354581266 0.178823936 -0.0012230945 -0.5564721882 -0.0009780637 -0.5567773582 -0.0076256734 0.192284064
745295530.0 0.0373344401 0.1784033826 -0.0064893345 -0.557013419 -0.0066231391 -0.5574584109 -0.005952984 0.1925034036
750295500.0 0.0395385389 0.1779541088 -0.012952535 -0.556198045 -0.0127191768 -0.5567562684 -0.0041363635 0.1921556782
755295470.0 0.0419239324 0.1778991989 -0.0188648803 -0.5566883792 -0.0187555064 -0.5569340579 -0.0023293594 0.1928036386
760295440.0 0.0435105904 0.1775745992 -0.0251771243 -0.5561689584 -0.0248328 -0.5563931896 -0.000843466 0.1930469205
765295410.0 0.0452069279 0.177095396 -0.0305238401 -0.5559531949 -0.0308510313 -0.5562943256 0.0017894599 0.1934632688
770295380.0 0.0476260272 0.1771480782 -0.0369639219 -0.5557885068 -0.0366991378 -0.5555893528 0.003469167 0.1931808305
775295350.0 0.0495253814 0.176573542 -0.0425575924 -0.5549882288 -0.0427372127 -0.5548752298 0.0051762695 0.1927564117
780295320.0 0.0516514485 0.1761268553 -0.0487334781 -0.5546405993 -0.04860648 -0.5548917941 0.0067816931 0.1936089429
785295290.0 0.0535137107 0.1760395395 -0.0543782993 -0.5534560377 -0.0547836016 -0.5541404097 0.0085344087 0.1933830694
790295260.0 0.055428686 0.1756229019 -0.0606476827 -0.5535121251 -0.0606522645 -0.5538451027 0.0108119705 0.1933483843
795295230.0 0.0573704432 0.1749865188 -0.0664574822 -0.5523454312 -0.0661027285 -0.5524252884 0.0129554612 0.1941133593
800295200.0 0.0595067257 0.1745025131 -0.0727163116 -0.5524323399 -0.072902332 -0.5520362976 0.0146330976 0.1937648632
805295170.0 0.0611270543 0.1739448292 -0.0781798181 -0.5505092194 -0.0784102115 -0.5510426498 0.0158898652 0.1935623153
810295140.0 0.0632986693 0.1735344013 -0.0844077785 -0.5502475701 -0.0842290681 -0.5508654185 0.0183809289 0.1938206239
815295110.0 0.0653308621 0.172872017 -0.0905102618 -0.5490853049 -0.0905273624 -0.5491786685 0.0199239472 0.1934040981
820295080.0 0.0672103046 0.1719779964 -0.0961261082 -0.5481116657 -0.0963936769 -0.5485515226 0.0216757445 0.1934131684
825295050.0 0.0692368383 0.1714600515 -0.1023131241 -0.5467944557 -0.1018300425 -0.5474310529 0.0240767598 0.1934961279
830295020.0 0.0708223784 0.1712666028 -0.1075381119 -0.5456870497 -0.1080920909 -0.5460994406 0.0255779157 0.1932185805
