!Created with skrf (http://scikit-rf.org).
# Hz S RI R 50.0 
!freq ReS11 ImS11 ReS21 ImS21 ReS12 ImS12 ReS22 ImS22
300000.0 -0.3205172802 -0.0779544619 0.375517688 0.0419166603 0.3726037284 0.0397776971 -0.3183148251 -0.0953273365
5299970.0 -0.3263410886 0.0040737111 0.3783417875 0.0026139284 0.3781433682 0.0025906743 -0.3239426453 0.0046973474
10299940.0 -0.3242348605 0.0133858601 0.3793043897 0.0020565768 0.3796260047 0.0021211065 -0.321618629 0.0159482423
15299910.0 -0.3213505103 0.0204330812 0.381855632 0.0019700701 0.3819783173 0.0022549863 -0.3185435389 0.0237311513
20299880.0 -0.3186486845 0.0262467159 0.3851699522 0.0020277376 0.3847003646 0.0016473615 -0.3145796432 0.0301297688
25299850.0 -0.3158273268 0.0316878914 0.388226744 0.0001780443 0.3881982489 6.5636e-06 -0.3107428589 0.0359440611
30299820.0 -0.3130055421 0.0361539743 0.3912654435 -0.002201868 0.3913744358 -0.0022582884 -0.3070949011 0.0407481664
35299790.0 -0.3100631811 0.0398343249 0.3949562093 -0.0055586015 0.3950452335 -0.0054896583 -0.3037324333 0.0452423265
40299760.0 -0.3072577971 0.0435839934 0.3979547054 -0.0084632521 0.398083219 -0.0088127461 -0.3001341637 0.0483230867
45299730.0 -0.3045524 0.0465589999 0.4004118609 -0.012836565 0.4008384879 -0.0129821703 -0.2972897046 0.0519880932
50299700.0 -0.3023349187 0.0493630399 0.4034900407 -0.0172081881 0.4033004118 -0.0171836402 -0.2942490149 0.0546248341
55299670.0 -0.3000967716 0.0522457802 0.4054145191 -0.0224416999 0.4054651131 -0.0217162231 -0.2917403571 0.0571281137
60299640.0 -0.2977527278 0.0546825337 0.4073201318 -0.0271161923 0.4077734179 -0.0269618088 -0.2889795031 0.0594394867
65299610.0 -0.2962935849 0.0576335711 0.4092343915 -0.0320526529 0.4092768318 -0.0318282649 -0.287193694 0.0617994253
70299580.0 -0.2947074508 0.0600085833 0.4102584493 -0.0369397372 0.4103267285 -0.0365632286 -0.2849066544 0.0639449839
75299550.0 -0.2927888351 0.0625433299 0.4110683505 -0.0422528675 0.4111870715 -0.0423575016 -0.2835554238 0.0657995628
80299520.0 -0.2914371338 0.0646707524 0.4122237492 -0.0474010827 0.4124206925 -0.0477362322 -0.2812549982 0.0680827741
85299490.0 -0.2902105234 0.0667751062 0.4127769642 -0.0522045924 0.4126301304 -0.0523463348 -0.2798356333 0.0697454223
90299460.0 -0.2889785838 0.0691513031 0.4129407309 -0.0577966463 0.4135224022 -0.0579773357 -0.2783955271 0.0718712713
95299430.0 -0.2875136071 0.0714283749 0.4136439141 -0.0631563046 0.4134185178 -0.0634962129 -0.2766576102 0.0744176708
100299400.0 -0.2863079454 0.0742316368 0.4131883295 -0.0684065664 0.4133104208 -0.068440462 -0.2753337468 0.0763028117
105299370.0 -0.2850539566 0.0763219822 0.4133250383 -0.0736809953 0.4131444996 -0.0738751981 -0.2734823556 0.0783807743
110299340.0 -0.2840785062 0.0789042859 0.4133972769 -0.0785806358 0.41293156 -0.0784313549 -0.2728366057 0.0803107133
115299310.0 -0.2826919123 0.0809960867 0.4128913037 -0.0841205286 0.4127822895 -0.0837570079 -0.2715956134 0.0825533845
120299280.0 -0.281962421 0.083180726 0.4121648558 -0.0888025492 0.4122551358 -0.0887983719 -0.2702657756 0.0842246335
125299250.0 -0.2811561754 0.0854798444 0.411826097 -0.0937848584 0.4120539841 -0.0936220311 -0.2694346345 0.0862840065
130299220.0 -0.2802460085 0.0881682198 0.4110144649 -0.0992153653 0.4110555319 -0.0992169701 -0.2686197493 0.0884025966
135299190.0 -0.2793324513 0.0907840885 0.4105885739 -0.1040803403 0.4103030149 -0.1039166788 -0.2672618514 0.0908900589
140299160.0 -0.2782611644 0.0933914746 0.4094537658 -0.1093921523 0.4097267604 -0.1091609983 -0.2662811014 0.09350748
145299130.0 -0.2775178096 0.095918574 0.4089307041 -0.1143340472 0.4086661612 -0.1138986712 -0.2652932247 0.0956998243
150299100.0 -0.2764093884 0.0982901874 0.4077656484 -0.1187827936 0.4077967851 -0.1186049153 -0.2643904353 0.0987416776
155299070.0 -0.275407649 0.1007120908 0.4067206471 -0.1245014288 0.4067012155 -0.1238555901 -0.263011967 0.1007668852
160299040.0 -0.2745866557 0.1033201487 0.4052090249 -0.1284413624 0.4053683675 -0.1287099169 -0.2628020823 0.1031572866
165299010.0 -0.2735778388 0.1059070029 0.4040643051 -0.133996961 0.403996262 -0.1337279163 -0.2612618027 0.1058443522
170298980.0 -0.2729460599 0.1084869631 0.402718563 -0.138279968 0.4028366042 -0.1385646263 -0.2603762495 0.1078477148
175298950.0 -0.2716993793 0.1112672036 0.401540259 -0.1431366782 0.401315748 -0.1430481169 -0.2595217 0.1107088878
180298920.0 -0.2708740692 0.1139925299 0.3999082001 -0.1477665579 0.399861941 -0.1479077548 -0.2584661677 0.1134496474
185298890.0 -0.26947239 0.1165111634 0.3983884267 -0.1529783257 0.3981700309 -0.1524747314 -0.2571439205 0.1163055029
190298860.0 -0.2687568103 0.1191266382 0.3969887626 -0.1574571 0.3973042455 -0.1571400859 -0.2565877449 0.1182484984
195298830.0 -0.2679995032 0.121821754 0.3951149423 -0.162098505 0.3952894686 -0.1616195709 -0.2551449525 0.1205784523
200298800.0 -0.2663275469 0.1247604106 0.3933523477 -0.1668092314 0.3936087591 -0.1666806029 -0.2543730865 0.1234859697
205298770.0 -0.2652383001 0.1272078971 0.3916082032 -0.1713482038 0.3919927864 -0.1710800137 -0.2533222992 0.1257454381
210298740.0 -0.2642700722 0.1298567677 0.3896275853 -0.175389969 0.3897327674 -0.1756829756 -0.2518430341 0.1287390969
215298710.0 -0.2636992815 0.1328713352 0.3881671372 -0.1804570076 0.3880606996 -0.1803623433 -0.2512313948 0.1309492301
220298680.0 -0.2618612923 0.1350683489 0.3856740389 -0.1843802209 0.3858192541 -0.1845183721 -0.2500965727 0.133447461
225298650.0 -0.2609693927 0.1378690895 0.3835813018 -0.1890260998 0.3842140469 -0.1890099619 -0.2490042501 0.1359212918
230298620.0 -0.2596678813 0.1409422019 0.3821774733 -0.1932331701 0.3821309697 -0.1935283652 -0.2477352366 0.1384230532
235298590.0 -0.258241714 0.1439000683 0.3797195398 -0.1978724887 0.3798073011 -0.1976357731 -0.2463392971 0.1410215431
240298560.0 -0.25696569 0.1463626995 0.3775534909 -0.202554211 0.3775549599 -0.2024330406 -0.2456268872 0.1440099618
245298530.0 -0.25560794 0.1491071546 0.3758082282 -0.2068068504 0.3752490248 -0.2067151153 -0.2437366934 0.1458332866
250298500.0 -0.2543720532 0.1520088577 0.3727677723 -0.210996071 0.3727679258 -0.2108636227 -0.2427132895 0.1485910767
255298470.0 -0.2528341242 0.1541326988 0.3699722203 -0.2147776323 0.3706271283 -0.2150443786 -0.2412741043 0.1509688267
260298440.0 -0.2519281156 0.1567231291 0.3682872233 -0.219366777 0.3682686964 -0.2192277411 -0.2394607057 0.1537998221
265298410.0 -0.2501570797 0.1600397995 0.3655677191 -0.2235287289 0.3661990855 -0.2235729227 -0.2382770896 0.1562318173
270298380.0 -0.2487497748 0.1624263914 0.3638607011 -0.2277047357 0.3636999358 -0.2273714906 -0.2370866975 0.1587191381
275298350.0 -0.2468909524 0.1650197049 0.3609113858 -0.2319174302 0.3613262321 -0.231673826 -0.235407968 0.1612630863
280298320.0 -0.2451201593 0.1677290472 0.3585919023 -0.2360765347 0.3583100051 -0.2357269602 -0.2333687244 0.1636565737
285298290.0 -0.2436173611 0.1706228957 0.3558708569 -0.2397103875 0.3559383909 -0.2400739455 -0.2319525572 0.1659272975
290298260.0 -0.2418692782 0.1731213525 0.3528540457 -0.2436943144 0.3532083865 -0.2438077238 -0.2304006695 0.1685066213
295298230.0 -0.2400424312 0.1756094485 0.3504571822 -0.2478152502 0.3506307632 -0.2477622954 -0.228321487 0.1708325056
300298200.0 -0.238622881 0.1782530004 0.3481062102 -0.2516727386 0.3480487674 -0.2520413365 -0.226632132 0.1737302175
305298170.0 -0.2363789574 0.1805587726 0.3446878156 -0.2559791252 0.3453477568 -0.2555021196 -0.2246298974 0.1758560941
310298140.0 -0.2348985326 0.1838075369 0.34233248 -0.2597892714 0.3423340144 -0.2597475717 -0.2232883048 0.1782232877
315298110.0 -0.2331334913 0.1860039157 0.3397246735 -0.2633400531 0.3395114034 -0.2634648388 -0.2212900477 0.1806976157
320298080.0 -0.2310828868 0.1882567049 0.3360887001 -0.267600577 0.3365062382 -0.267283512 -0.2193597788 0.1832040555
325298050.0 -0.2292366307 0.1906468634 0.3333438396 -0.2714653832 0.3333060319 -0.2713385661 -0.217913188 0.1854033177
330298020.0 -0.2276253266 0.1928787599 0.3300870427 -0.2748121812 0.3304285027 -0.274911876 -0.216200473 0.1878485851
335297990.0 -0.2254019507 0.1952663807 0.3267946971 -0.2784670275 0.326736658 -0.2788057401 -0.2147360199 0.1906526081
340297960.0 -0.2240221508 0.1982036944 0.3238282516 -0.2819407465 0.3234989648 -0.2823508712 -0.2120755704 0.1928259408
345297930.0 -0.2221234026 0.2008763703 0.3207433272 -0.286192139 0.3205413545 -0.2861005899 -0.2107342817 0.1951785799
350297900.0 -0.219975637 0.2033901227 0.3169545728 -0.2893840345 0.3170317567 -0.2895065231 -0.208627079 0.1977430256
355297870.0 -0.217924696 0.2059797836 0.3139712535 -0.2932960693 0.3142596324 -0.2927530813 -0.2070243156 0.2003045799
360297840.0 -0.2161977516 0.2083773518 0.311140899 -0.2958241373 0.311560155 -0.296160564 -0.2050181755 0.2028173212
365297810.0 -0.2141826887 0.2107714347 0.3075588602 -0.2997946834 0.3076051178 -0.2996943771 -0.2027302601 0.2049020861
370297780.0 -0.2118025871 0.2131425803 0.3040247393 -0.3030237966 0.3046531853 -0.3027784033 -0.2009270316 0.2076490283
375297750.0 -0.2095909192 0.2156575364 0.3008802368 -0.3062281759 0.3011887429 -0.3061837762 -0.1986736895 0.2092967277
380297720.0 -0.2072348586 0.2178376696 0.2972228601 -0.3096991641 0.2975454533 -0.3090954268 -0.1969404282 0.2115342936
385297690.0 -0.2055707989 0.2201237253 0.2937479924 -0.3130445123 0.2939339008 -0.3126513833 -0.194861056 0.2140669977
390297660.0 -0.2035359927 0.2225300613 0.2904804344 -0.3160306064 0.2905039101 -0.3160772944 -0.1926803158 0.2165074881
395297630.0 -0.2008126441 0.2249201488 0.2872562908 -0.3193101281 0.2870530181 -0.3195592781 -0.1903119557 0.218871326
400297600.0 -0.198574122 0.2273843882 0.2831841097 -0.3228292924 0.283533462 -0.3227652961 -0.1882854064 0.2209141101
405297570.0 -0.1963040337 0.2296058492 0.279753284 -0.3254786257 0.2799111417 -0.325253283 -0.1859742093 0.2229141532
410297540.0 -0.193913441 0.2317866616 0.2765267029 -0.328810716 0.2764656059 -0.3288303196 -0.1835206001 0.2252993821
415297510.0 -0.191269267 0.2337698127 0.2726311363 -0.3317669566 0.2727005319 -0.331807609 -0.1812627612 0.227107792
420297480.0 -0.1893283628 0.2364686797 0.2689439008 -0.3347978766 0.2689398799 -0.3348361619 -0.1790577002 0.2292782864
425297450.0 -0.1866593296 0.2381445605 0.265788107 -0.3373997649 0.2655113536 -0.3376940636 -0.1769634038 0.2314125459
430297420.0 -0.1842266244 0.2401727379 0.2617837474 -0.3399021933 0.2612820557 -0.3402659572 -0.1746160952 0.233292638
435297390.0 -0.1818495624 0.2426450664 0.2577798794 -0.3431384365 0.257257791 -0.3434500924 -0.1717387977 0.2354711284
440297360.0 -0.179097795 0.2445102364 0.2538936594 -0.3458528701 0.2540376623 -0.3461501608 -0.1697914209 0.2370541481
445297330.0 -0.1767873063 0.2463829714 0.2504082687 -0.3485768918 0.2503210773 -0.3483172036 -0.1673311127 0.2385885845
450297300.0 -0.1741615424 0.2485536175 0.2463345086 -0.3513757699 0.246228441 -0.3515888993 -0.1647658312 0.2403697146
455297270.0 -0.1718877 0.2502915991 0.2423871403 -0.3539614733 0.2425574856 -0.3541954934 -0.1625350393 0.2425991177
460297240.0 -0.1691559037 0.2523367806 0.2384549079 -0.3564739959 0.2385692896 -0.35677686 -0.159885706 0.2444828685
465297210.0 -0.1662154733 0.2543838532 0.2347298323 -0.3593233104 0.2345339746 -0.3595378583 -0.1568972846 0.2460062228
470297180.0 -0.1634248197 0.2558812288 0.2302049493 -0.3614800193 0.2306467714 -0.3617480813 -0.1541621319 0.248203885
475297150.0 -0.1610137738 0.2577085984 0.2261773179 -0.3637534884 0.2265837052 -0.3639863064 -0.1513141421 0.2493504357
480297120.0 -0.1581959104 0.2601680368 0.2225103878 -0.3667893166 0.2226269733 -0.367155897 -0.1487550489 0.2515061231
485297090.0 -0.1554969013 0.2616206359 0.2184958504 -0.3685597839 0.2185731717 -0.3687955945 -0.1461821801 0.2531246497
490297060.0 -0.1530484682 0.263430905 0.214527219 -0.3713524447 0.2146846259 -0.3712087484 -0.1437375614 0.2550061743
495297030.0 -0.1501385166 0.2653248015 0.2104825258 -0.3735912441 0.2110674971 -0.3733986587 -0.1410355997 0.2567689714
500297000.0 -0.1473274111 0.2672645204 0.2062375445 -0.3759064822 0.2057774039 -0.3756713632 -0.1380443171 0.2589347885
505296970.0 -0.1444896699 0.2686828051 0.2020827256 -0.3778955876 0.2019151785 -0.3777067675 -0.1354738675 0.2601056288
510296940.0 -0.1419639871 0.2702324467 0.1981486785 -0.3801796858 0.1980098132 -0.3801880933 -0.1323064427 0.2617900062
515296910.0 -0.138837207 0.2720998896 0.193474904 -0.3823266423 0.193592692 -0.3820412166 -0.129700654 0.2631762294
520296880.0 -0.1362873361 0.273632403 0.1896641701 -0.3846754827 0.1895109691 -0.3842438518 -0.1270432786 0.2650329846
525296850.0 -0.1327794683 0.274798002 0.1849139136 -0.3862426444 0.1856884995 -0.3865371655 -0.1248077284 0.2664907097
530296820.0 -0.1302801982 0.2767497126 0.1813139949 -0.3885161977 0.1809330634 -0.3880546178 -0.121859533 0.2678640651
535296790.0 -0.1275528223 0.2781752221 0.177106815 -0.3903952274 0.177000745 -0.3900330229 -0.1193753096 0.269329348
540296760.0 -0.1246662157 0.2798147814 0.1722544377 -0.392716195 0.172524474 -0.392271906 -0.1165187857 0.2710196603
545296730.0 -0.1217671792 0.2813150933 0.1680183408 -0.3935950469 0.1683845617 -0.3939110029 -0.1135922497 0.2720204887
550296700.0 -0.1188846857 0.2825834209 0.1640384232 -0.3960015573 0.1642908134 -0.395758511 -0.1111690916 0.2737501594
555296670.0 -0.1156142706 0.2837464254 0.1597559047 -0.3974759805 0.1597720545 -0.3974662489 -0.1081879981 0.2753431745
560296640.0 -0.1123739866 0.2857550922 0.1549976015 -0.399443269 0.1552041029 -0.39940717 -0.1049445753 0.2763845597
565296610.0 -0.1098739089 0.2866837659 0.1508477307 -0.4008575359 0.1509355499 -0.4009546434 -0.1026005661 0.2775347438
570296580.0 -0.1068464285 0.2879027068 0.1464232057 -0.4026197931 0.1460998534 -0.4024901187 -0.0992012654 0.2792659877
575296550.0 -0.1040992084 0.2893969513 0.1423708983 -0.4042315809 0.1420974068 -0.4040059147 -0.0964920416 0.2800031416
580296520.0 -0.1002974472 0.2905935589 0.1376199855 -0.4056195364 0.1377492708 -0.4053383606 -0.0934899131 0.2811928624
585296490.0 -0.0978663268 0.2913821332 0.1333874152 -0.4064022961 0.1336783208 -0.4069549834 -0.0905605398 0.2821490531
590296460.0 -0.0944005017 0.292863863 0.1289441184 -0.4080611804 0.1289364474 -0.4082143694 -0.0877200431 0.2831980766
595296430.0 -0.0916634224 0.2939292996 0.1240071784 -0.4096783036 0.1241472905 -0.4096402065 -0.0846676098 0.2842937877
600296400.0 -0.0885262181 0.2950331761 0.1196492202 -0.4109448096 0.1199361973 -0.410646143 -0.0820833755 0.2852240092
605296370.0 -0.0859543422 0.2960540249 0.1151226121 -0.4121765337 0.1155607901 -0.4122041936 -0.0785893966 0.2862000368
610296340.0 -0.0824898599 0.2970184787 0.1105275458 -0.4132207498 0.1110426473 -0.4132094947 -0.0757153714 0.28714933
615296310.0 -0.0789862708 0.2981115505 0.1062601463 -0.414373526 0.1060320091 -0.4147304034 -0.0722088555 0.287741753
620296280.0 -0.0761720066 0.298595893 0.1015626359 -0.4152722465 0.102026739 -0.4152914924 -0.0695657278 0.2887013989
625296250.0 -0.0729826297 0.2996984127 0.0977278236 -0.4169695797 0.097357638 -0.4168301693 -0.0662262642 0.2894830288
630296220.0 -0.0692038805 0.3006735656 0.0921796147 -0.4176864858 0.0923449366 -0.4174261861 -0.0634467152 0.2906973167
635296190.0 -0.0670419422 0.3014427461 0.088439416 -0.4181199823 0.0878312106 -0.4184010422 -0.0601646103 0.2912053351
640296160.0 -0.0636681576 0.3026314525 0.0836413237 -0.4192964657 0.0840677193 -0.4194641182 -0.0571432407 0.2923299012
645296130.0 -0.060452699 0.303578609 0.0790538878 -0.4200217458 0.0793114936 -0.4199584603 -0.0541500736 0.292774394
650296100.0 -0.0571397055 0.3038448062 0.0743429831 -0.4207625004 0.0744135996 -0.4210755995 -0.0507048402 0.2934265104
655296070.0 -0.0540479796 0.3050287764 0.0696345837 -0.4216864828 0.0700345725 -0.4216996196 -0.0477850029 0.2939303726
660296040.0 -0.0511614146 0.3051955513 0.0656027109 -0.4224291944 0.0653026577 -0.4225397573 -0.0441392419 0.2948693303
665296010.0 -0.0472794726 0.3057160923 0.0602421412 -0.4226126866 0.0608348263 -0.423279912 -0.041269479 0.2962199227
670295980.0 -0.045016359 0.3068532351 0.0567352281 -0.4236061803 0.0562796633 -0.4235293364 -0.0383313599 0.296301213
675295950.0 -0.0416345304 0.307345675 0.0519559575 -0.4239070366 0.0519507529 -0.4235939206 -0.0357003426 0.2968471992
680295920.0 -0.0381522827 0.307981726 0.0470885685 -0.4242554627 0.0468010631 -0.4250864583 -0.0318333476 0.2979401243
685295890.0 -0.0346487155 0.3088093767 0.0421858204 -0.425459477 0.0425124638 -0.4249639247 -0.0288588991 0.2977315186
690295860.0 -0.0314165204 0.3090427896 0.0377255394 -0.4249681566 0.0377847291 -0.4257729197 -0.0258821272 0.2990494217
695295830.0 -0.0283759743 0.3093756991 0.0334381479 -0.4256604446 0.0331598814 -0.425515013 -0.0225868088 0.2992003373
700295800.0 -0.0251004906 0.3096762049 0.0284345042 -0.4259237324 0.0286645554 -0.4256952064 -0.0201718378 0.2999210599
705295770.0 -0.0221155723 0.3103675497 0.0239565469 -0.4263446951 0.0240832531 -0.4265280669 -0.0168145195 0.3004506075
710295740.0 -0.0183907628 0.3107736615 0.0193852793 -0.4270239765 0.0197233595 -0.4267979249 -0.0132640703 0.3003729972
715295710.0 -0.0157536661 0.3108057777 0.0151740585 -0.4268172545 0.0144120806 -0.4265893958 -0.0102830005 0.300541641
720295680.0 -0.0122902936 0.311193387 0.009957875 -0.4270802414 0.0102777424 -0.4269936888 -0.0069533466 0.3013313262
725295650.0 -0.0088393312 0.3114745248 0.0054333537 -0.4268299559 0.0055005756 -0.4272981762 -0.0043261688 0.3017598641
730295620.0 -0.005700432 0.3118398816 0.0010460036 -0.4268312496 0.0009405591 -0.4269486008 -0.0009980575 0.3016875655
735295590.0 -0.0023087339 0.3120258862 -0.0039068647 -0.4270619433 -0.0036758099 -0.4268177234 0.0018933792 0.3015446435
740295560.0 0.0006016114 0.3124655922 -0.0085143607 -0.4268281464 -0.008613525 -0.4267809738 0.0054979857 0.3020476292
745295530.0 0.00396762 0.3122418053 -0.0129560814 -0.4261164895 -0.0132924686 -0.4263774037 0.0085475653 0.3014715767
750295500.0 0.0074638831 0.3123533424 -0.0177828012 -0.4261226513 -0.0175226162 -0.4261301428 0.0115334249 0.3020009291
755295470.0 0.0105923549 0.3123178529 -0.0217872158 -0.426210651 -0.0223784736 -0.4261611105 0.0149733899 0.3015027466
760295440.0 0.0137619948 0.3122370657 -0.0269094065 -0.4259432803 -0.0268487369 -0.4261072142 0.0179684659 0.301668856
765295410.0 0.0173732445 0.3123879271 -0.0316430958 -0.4253710068 -0.0317844605 -0.4253861876 0.0213643976 0.3015945208
770295380.0 0.0200825607 0.3119966558 -0.0359154451 -0.425121336 -0.0362975289 -0.4247913096 0.0241990616 0.3014312756
775295350.0 0.0231282508 0.31208004 -0.0405403277 -0.4243154973 -0.0403003205 -0.4246507654 0.0267904296 0.3013269603
780295320.0 0.0267874865 0.3119079029 -0.0450590348 -0.4238102006 -0.0448647754 -0.4239947515 0.030280105 0.3009431073
785295290.0 0.0299248903 0.3115295998 -0.0501445826 -0.4234119524 -0.0498370953 -0.423278554 0.0338379914 0.3007715385
790295260.0 0.0337001218 0.311583291 -0.0539552859 -0.4229454942 -0.053900599 -0.4227245786 0.0370609371 0.3005202531
795295230.0 0.0366320596 0.3112443363 -0.0587490276 -0.4217759901 -0.05892584 -0.4221588753 0.0405129179 0.3001318584
800295200.0 0.0397858661 0.3114087231 -0.0639241418 -0.4213833312 -0.0633843879 -0.4216612578 0.0434682219 0.3000747957
805295170.0 0.0430066651 0.3107292445 -0.0678683635 -0.4204786935 -0.068288224 -0.4210575463 0.0467297669 0.2998533218
810295140.0 0.0463129508 0.3102037573 -0.0723354691 -0.4197784419 -0.0724756173 -0.4199630216 0.0501122144 0.2993950367
815295110.0 0.0493899668 0.3096124199 -0.07698919 -0.4186953928 -0.076771998 -0.419166328 0.0529010387 0.2989732138
820295080.0 0.0526330352 0.309564294 -0.0815687962 -0.4179684906 -0.0810497931 -0.4179216525 0.0561813688 0.2983982841
825295050.0 0.0563822703 0.3089964782 -0.0859933159 -0.416954287 -0.0861794259 -0.4173320314 0.0596146625 0.2980902628
830295020.0 0.0591094487 0.3087990597 -0.0907635606 -0.4158883163 -0.090601658 -0.4162562436 0.0632312608 0.2979946768
