!Created with skrf (http://scikit-rf.org).
# Hz S RI R 50.0 
!freq ReS11 ImS11 ReS21 ImS21 ReS12 ImS12 ReS22 ImS22
300000.0 -0.2109470955 -0.0656863527 -6.29612e-05 -0.0012178634 0.0017482416 8.18022e-05 -0.77643547 -0.1372630525
5299970.0 -0.2169048366 0.0081498008 -0.0001720489 0.0001325409 1.5217e-05 7.5071e-06 -0.7842247637 -0.0077199398
10299940.0 -0.2132537818 0.0192350673 -8.28356e-05 0.0002531354 3.23368e-05 -8.8323e-05 -0.7876511549 -0.0036099705
15299910.0 -0.2085060645 0.0283636729 0.0001003512 -4.85194e-05 0.0001480555 -1.69665e-05 -0.7928948398 -0.0015429924
20299880.0 -0.2033496486 0.0358522854 -0.0001179338 0.0001125405 3.26703e-05 0.0001243164 -0.7993986358 0.0021135977
25299850.0 -0.1976960888 0.0421400241 6.45881e-05 -3.26087e-05 -0.0001340253 -0.0001151625 -0.8056512578 0.0083773859
30299820.0 -0.1920243083 0.0467959873 9.47736e-05 -3.76644e-05 -5.64694e-05 9.29369e-05 -0.812037636 0.0165308251
35299790.0 -0.1863246331 0.0505492907 -0.0001748934 -2.4496e-06 -4.21756e-05 -0.0001544947 -0.8165858271 0.0252266258
40299760.0 -0.1806663003 0.0534678399 -9.61408e-05 -5.28569e-05 4.05246e-05 -6.26679e-05 -0.8209703976 0.0342013929
45299730.0 -0.1754495685 0.0555883214 -7.46665e-05 3.36486e-05 6.74702e-05 6.99011e-05 -0.8251000871 0.0442711425
50299700.0 -0.1709569637 0.0569306573 -0.0001953739 -3.77301e-05 3.76136e-05 0.0002254429 -0.8270969753 0.0543127552
55299670.0 -0.1663913921 0.057872185 -3.41133e-05 0.000271935 2.04686e-05 5.43093e-05 -0.8295981019 0.0646061344
60299640.0 -0.1624598442 0.0588733595 6.88233e-05 8.28043e-05 9.15682e-05 -0.0001028316 -0.8301338007 0.0740252541
65299610.0 -0.1587898295 0.0593357725 -1.00617e-05 8.9731e-05 -0.0001806338 5.24337e-05 -0.8316005167 0.0841151333
70299580.0 -0.1559290442 0.0599622609 -5.30553e-05 7.45771e-05 -0.0001732025 0.0002100093 -0.8312214068 0.0943636987
75299550.0 -0.1526243527 0.0601284551 -9.95141e-05 9.0873e-06 5.61438e-05 -4.36748e-05 -0.8317327635 0.1037864307
80299520.0 -0.1498745694 0.0599862128 4.02574e-05 -0.000130562 -2.38872e-05 -0.0001064406 -0.8323176101 0.114182142
85299490.0 -0.1478707863 0.0598719405 -8.25959e-05 5.6785e-06 7.90568e-05 -7.24505e-05 -0.8313818084 0.1236222688
90299460.0 -0.1453448376 0.0599008865 4.99136e-05 -2.81901e-05 4.2825e-05 9.1746e-05 -0.8301782846 0.1336417169
95299430.0 -0.1432681062 0.0597635541 7.31836e-05 8.30229e-05 1.9354e-06 -5.9863e-06 -0.8287446629 0.1433626547
100299400.0 -0.1416538507 0.0599276592 -5.0461e-06 0.0002409153 0.0001093937 1.70288e-05 -0.8287925293 0.1523302218
105299370.0 -0.1400573257 0.0600222437 -8.59527e-05 0.00012349 6.70028e-05 7.59061e-05 -0.827135272 0.1610393394
110299340.0 -0.1387881938 0.0600355629 2.92963e-05 3.11035e-05 0.0001771313 0.0001193114 -0.8257952301 0.1706656061
115299310.0 -0.1369750909 0.0598255133 7.82156e-05 5.39392e-05 2.04149e-05 0.0001059411 -0.8238253735 0.1797227567
120299280.0 -0.1362848494 0.0597745444 6.37557e-05 4.56565e-05 -2.09172e-05 9.60175e-05 -0.8220375651 0.1888811939
125299250.0 -0.1352361194 0.059875509 -3.9017e-05 8.68956e-05 -4.3166e-05 -7.61413e-05 -0.8203327442 0.1972218923
130299220.0 -0.1340528449 0.0602908496 0.0001010394 0.0001507212 3.98532e-05 1.08015e-05 -0.8185153888 0.2065899387
135299190.0 -0.1330427284 0.0606603134 -4.65314e-05 0.0003513236 5.919e-06 0.0001066329 -0.8162977823 0.2156820443
140299160.0 -0.1323704531 0.0608210039 -2.77395e-05 4.60023e-05 -0.0001417192 0.0002646928 -0.8141391349 0.2250433916
145299130.0 -0.1313751614 0.0611720766 -0.0001266565 8.39015e-05 0.0002436184 5.64698e-05 -0.8116792951 0.2337383972
150299100.0 -0.1306391972 0.0614306616 6.59519e-05 7.28329e-05 -5.5851e-05 0.0001443363 -0.8101657742 0.243003922
155299070.0 -0.1301882128 0.0618942286 -0.0001768625 -0.0001948956 9.67488e-05 -2.36464e-05 -0.8073190006 0.2517844238
160299040.0 -0.1294612076 0.0624847977 -4.64264e-05 -2.80657e-05 6.93274e-05 0.000121341 -0.804877829 0.2610331351
165299010.0 -0.1285995243 0.062666476 -2.3374e-06 5.96442e-05 7.18381e-05 0.000163422 -0.8022331592 0.2691197427
170298980.0 -0.1283627968 0.0636068386 -8.69849e-05 0.0002948329 2.95543e-05 0.0002245843 -0.7990991163 0.277771367
175298950.0 -0.1277807616 0.0641273674 -1.29419e-05 7.50858e-05 -0.0001519013 7.82083e-05 -0.7966408276 0.2868821304
180298920.0 -0.1274844982 0.0647230771 0.0002240067 -0.0002039454 0.0001835015 1.2525e-06 -0.7938355662 0.2949081412
185298890.0 -0.1264736566 0.0651616021 0.0001269295 0.0001620529 -5.94103e-05 0.0001045064 -0.7896843721 0.304107332
190298860.0 -0.1260401733 0.0660152571 6.43357e-05 -5.71199e-05 0.0001109037 0.0002224802 -0.7880814916 0.3125713874
195298830.0 -0.1258940516 0.0667768807 -5.47221e-05 0.0003637797 7.47835e-05 0.0001025365 -0.78385048 0.3207189951
200298800.0 -0.1251992108 0.0673713758 -3.56132e-05 7.33154e-05 5.00424e-05 -9.77318e-05 -0.7813867761 0.3289765688
205298770.0 -0.1246968715 0.0681644972 -1.125e-05 -1.30495e-05 2.47006e-05 0.0002027102 -0.7776039979 0.3375534046
210298740.0 -0.1243028362 0.0687180232 0.0001938347 -4.66793e-05 0.0002366147 -4.16866e-05 -0.7743443918 0.345930181
215298710.0 -0.1240943231 0.0698307325 -1.49689e-05 0.0002058607 0.0001170298 -3.1923e-06 -0.7707360641 0.3540052976
220298680.0 -0.1235539228 0.070277213 -1.22077e-05 -2.74778e-05 0.000184095 -1.24233e-05 -0.7671274853 0.3618913064
225298650.0 -0.1234804063 0.0712340433 -2.92388e-05 0.0001062573 -0.0002075647 0.0001673211 -0.7636322419 0.3700096577
230298620.0 -0.1228281633 0.0722844758 9.03823e-05 8.025e-07 0.0001362295 7.22515e-05 -0.75991229 0.37866802
235298590.0 -0.1219990509 0.0732158547 0.0001330233 0.0002907988 -0.0001273425 0.0001893476 -0.7557248375 0.3869106788
240298560.0 -0.1216978858 0.0741516662 0.0002352371 2.20048e-05 2.71132e-05 4.39861e-05 -0.7512473834 0.3954550914
245298530.0 -0.1213704915 0.0749991726 0.0002622409 0.0001414007 0.0001874962 7.76341e-05 -0.7477525159 0.4022269837
250298500.0 -0.1207115916 0.0759723203 9.33584e-05 0.0001013085 0.0001809377 0.0001258091 -0.7436275545 0.4098075376
255298470.0 -0.1206837294 0.0765788662 -0.0001504228 0.0001905262 2.01534e-05 0.0001386721 -0.7389817075 0.4181037378
260298440.0 -0.1201399491 0.0773909992 0.0001587636 0.0001966541 -9.08568e-05 0.0001859161 -0.7347629983 0.4261151787
265298410.0 -0.1195114143 0.0789673843 6.72e-07 0.0001993745 -3.16676e-05 1.7376e-06 -0.730249697 0.433492998
270298380.0 -0.1191109993 0.0797570684 -5.08893e-05 0.0002825178 0.0001641772 0.0002326754 -0.725419166 0.4410331072
275298350.0 -0.1186808149 0.0806687291 9.20552e-05 0.0001758236 6.30182e-05 -7.56687e-05 -0.7208422532 0.4486507055
280298320.0 -0.1174313889 0.0816540328 -0.0001043511 -0.0001768572 9.867e-07 7.90838e-05 -0.715807502 0.4556423634
285298290.0 -0.1172334751 0.0829923488 0.0001123418 0.0002016285 0.0002523787 2.64678e-05 -0.7105555981 0.4632321816
290298260.0 -0.1165332091 0.0837900227 6.34203e-05 0.0003111046 0.0001742249 0.0002148883 -0.7058800208 0.4709335441
295298230.0 -0.1160695571 0.0844769267 0.0003109542 0.0002709939 0.0001292774 8.01102e-05 -0.7010311483 0.4778928348
300298200.0 -0.1151450511 0.085914296 0.0001343559 1.22993e-05 0.0002071036 0.0001509515 -0.6958084892 0.4847896478
305298170.0 -0.1145656016 0.0866992406 1.95031e-05 4.1737e-05 -0.0001177265 -5.03987e-05 -0.6902372781 0.492503051
310298140.0 -0.1141135011 0.0877922825 0.0003218022 -2.47699e-05 -6.44594e-05 0.0002981925 -0.685604322 0.499534695
315298110.0 -0.1134973975 0.0889155652 5.73211e-05 -7.82082e-05 -6.08906e-05 0.0003463748 -0.6799086701 0.5065269359
320298080.0 -0.1126834961 0.0898078226 0.0001192248 0.0001101515 2.10251e-05 7.0296e-05 -0.6741898043 0.5145486082
325298050.0 -0.1119105057 0.0907714449 0.0001328803 0.000247163 9.80321e-05 -0.0001353371 -0.6689167831 0.520661469
330298020.0 -0.1114929779 0.0916043754 4.81837e-05 0.0001569879 8.61162e-05 -4.25359e-05 -0.6636170706 0.5282352568
335297990.0 -0.1108053983 0.09255339 0.0001971922 6.87634e-05 -1.08656e-05 0.0001515646 -0.658219183 0.5349499475
340297960.0 -0.1104950103 0.0937964043 -5.87395e-05 9.56548e-05 4.78294e-05 0.0002743954 -0.6527171444 0.5420638034
345297930.0 -0.1099037042 0.0949650093 -8.6908e-06 7.50453e-05 3.37038e-05 0.0003333296 -0.646602618 0.5481916528
350297900.0 -0.1090289991 0.0962476442 3.60032e-05 0.0001684822 0.0001814336 0.0001668286 -0.6413185772 0.5553066541
355297870.0 -0.1082488935 0.0972029362 6.74607e-05 0.0001602864 9.17781e-05 3.95707e-05 -0.6353382192 0.5614775763
360297840.0 -0.1078824581 0.098219638 -0.0001034946 0.0002313144 -9.16866e-05 0.0001969911 -0.6297584054 0.5688172713
365297810.0 -0.1071423994 0.0996656047 0.0002653986 0.0001163172 0.0001537033 0.00021809 -0.623530159 0.5754302695
370297780.0 -0.1062041107 0.1005692902 0.0002668577 -1.71499e-05 0.0003226996 0.0001527647 -0.6173235778 0.5820367746
375297750.0 -0.1056453202 0.1015731734 0.0004229123 0.0002217442 0.0002975835 -6.78218e-05 -0.6114961024 0.5876515222
380297720.0 -0.1047848149 0.1025883366 0.0001575528 2.837e-06 5.77031e-05 0.0001539107 -0.6054556518 0.5939149822
385297690.0 -0.1043480349 0.1038330384 0.0002272505 7.25502e-05 5.16467e-05 7.1749e-05 -0.5989694598 0.6007964865
390297660.0 -0.1033327071 0.1049502905 0.000201223 -8.6691e-06 6.95457e-05 0.0001541826 -0.5933252605 0.6065775524
395297630.0 -0.1020805285 0.1059566959 0.0002904215 0.0001612426 0.0002298589 -3.8917e-05 -0.5865223097 0.61313377
400297600.0 -0.1014298798 0.107341193 0.0003078553 0.0001777555 -8.70507e-05 0.0002059463 -0.5804895334 0.6190678153
405297570.0 -0.101004805 0.108301659 0.0001485519 0.0001760593 6.9397e-06 0.000149345 -0.5742036705 0.6246294764
410297540.0 -0.1002560587 0.1090252833 0.0002938042 2.70591e-05 0.0002628697 0.0001697162 -0.5672565244 0.6305401593
415297510.0 -0.0988620755 0.1101997208 0.0001477871 7.02749e-05 0.0002723746 7.09791e-05 -0.5611940152 0.6362598416
420297480.0 -0.0983507358 0.1115952221 0.0002200354 0.0001656369 0.0001496194 -3.94961e-05 -0.5542374768 0.6424148546
425297450.0 -0.0970218919 0.1126333945 0.0001433294 4.92952e-05 0.0001693662 0.0002449489 -0.5476026096 0.6475738113
430297420.0 -0.0964066247 0.1134895366 0.0001867737 -0.0001871046 0.0001778849 9.94521e-05 -0.5411410427 0.6525370737
435297390.0 -0.0954422604 0.114499877 0.0001108802 8.58132e-05 0.0002934738 -1.36205e-05 -0.5341250399 0.6585939403
440297360.0 -0.0945063601 0.1155887473 0.0001643645 0.000172645 0.0001117165 0.0001727087 -0.5273080506 0.6636715084
445297330.0 -0.0934553136 0.1165658391 0.0002809317 0.0001323056 3.60594e-05 4.40897e-05 -0.5202773299 0.6685441911
450297300.0 -0.0923051457 0.117788466 7.40366e-05 3.9533e-05 0.0001727864 0.0001830638 -0.5133647667 0.673980091
455297270.0 -0.0917498203 0.1187268463 0.0001156106 2.45171e-05 0.0002947525 -0.0001410235 -0.5065378704 0.6782251836
460297240.0 -0.0907364561 0.1196854572 0.0002710112 0.0003438783 0.0001485579 7.1007e-06 -0.4995594515 0.6841447304
465297210.0 -0.0895083931 0.1206988347 0.0001983442 0.0003463067 0.0001415492 4.54729e-05 -0.4919981768 0.6889076761
470297180.0 -0.0885391522 0.1218214013 0.0002712751 9.1615e-05 0.0003248897 -6.54157e-05 -0.4847084461 0.6944359258
475297150.0 -0.087832487 0.1224001686 0.0001816754 0.0001129448 0.0001958881 -0.0001308366 -0.4774629258 0.6987119235
480297120.0 -0.0863088259 0.1236801838 0.0001381937 -1.59633e-05 0.0001766444 7.12814e-05 -0.4704858462 0.7035531873
485297090.0 -0.0852428445 0.1244892002 0.0001114746 -5.56552e-05 8.97437e-05 0.0002786578 -0.4632655962 0.7080513337
490297060.0 -0.0844212558 0.1258106677 0.0001676161 0.0001841696 0.0001691651 -0.0001028327 -0.455773823 0.7125558596
495297030.0 -0.083328137 0.126623538 7.61274e-05 6.89594e-05 0.0001865991 0.0001920222 -0.4484265391 0.717228678
500297000.0 -0.0820412076 0.1275807102 0.0002626106 -7.7096e-06 0.0001254479 8.61766e-05 -0.4408509454 0.7224014535
505296970.0 -0.080722885 0.1286330487 0.0001047015 0.0003329828 0.0001474999 0.0001418898 -0.4334284116 0.72661102
510296940.0 -0.0801302344 0.1292155722 8.63021e-05 -0.0001135922 0.0004711232 -9.7256e-06 -0.425951076 0.7310328995
515296910.0 -0.0785235942 0.1300435441 0.0002653988 -5.41731e-05 0.0002362604 9.25006e-05 -0.4185508313 0.735330281
520296880.0 -0.0777278308 0.1313311415 3.57071e-05 3.37089e-05 0.0001898024 0.0002564643 -0.411166167 0.7386221528
525296850.0 -0.0760738322 0.1320503313 0.0003382436 -2.66958e-05 0.0002810904 7.81e-06 -0.4036741713 0.7435189499
530296820.0 -0.0753097921 0.1331445883 0.0001873988 0.000168561 -8.09752e-05 2.66923e-05 -0.3964434126 0.7473661225
535296790.0 -0.0741235943 0.1338144064 0.0002887729 -0.0001106172 0.0002315038 -3.677e-07 -0.3891543268 0.7517182333
540296760.0 -0.0729091978 0.134777036 0.0003520936 -8.92588e-05 -0.0001206615 8.52673e-05 -0.3809110564 0.7556017602
545296730.0 -0.0720155752 0.1358499469 -1.7757e-06 0.0001022351 0.0003419461 3.3603e-06 -0.3735687505 0.7595587959
550296700.0 -0.0702727828 0.1363733053 0.0002565923 0.0002941982 0.0001800154 0.0001804183 -0.3655547142 0.7631224289
555296670.0 -0.069373836 0.1372232262 0.0002772559 -3.79612e-05 0.0002585646 6.40601e-05 -0.3582085306 0.767163515
560296640.0 -0.068070941 0.1382022525 -7.011e-07 4.3233e-06 0.0002386423 -0.0001618605 -0.349828847 0.7708030383
565296610.0 -0.0667649786 0.1389212325 -3.63461e-05 0.0002125244 0.0001284024 -6.35873e-05 -0.3421010273 0.7737720694
570296580.0 -0.0657775328 0.1398263021 0.0001142231 -7.86132e-05 0.0001184602 -9.15049e-05 -0.3351167191 0.7776464143
575296550.0 -0.0644278917 0.1410182619 0.0001191699 0.0002022841 0.000296912 -2.42496e-05 -0.3264706797 0.7810425582
580296520.0 -0.0627727031 0.1416156433 5.96706e-05 -4.28561e-05 0.0004961706 -0.0001168715 -0.3182516645 0.7837671991
585296490.0 -0.0621941399 0.1420555367 6.8542e-06 0.0001467574 0.0002044775 7.36623e-05 -0.3103995772 0.7870926515
590296460.0 -0.0604790323 0.1429433782 0.000155089 0.0001274227 0.0003673412 0.0001452599 -0.3030557645 0.7900745246
595296430.0 -0.0591167382 0.1437450606 0.0002665668 -6.06408e-05 0.0001271356 0.0001958841 -0.2941385647 0.7923220365
600296400.0 -0.0581875285 0.1444872355 0.000343133 -7.86565e-05 0.0001655943 -1.17761e-05 -0.2869919024 0.7950633853
605296370.0 -0.0567678582 0.1452460234 0.0002890717 4.25784e-05 0.000395724 -2.26429e-05 -0.2777805514 0.7984213767
610296340.0 -0.0557249778 0.1458144121 0.0002732417 -0.0001063323 9.17853e-05 0.0001004064 -0.2701932169 0.8009290752
615296310.0 -0.0539947956 0.1466662748 0.0002389228 6.80284e-05 0.0004509258 -0.0001625135 -0.2619331775 0.8026493369
620296280.0 -0.0531173002 0.1471685563 5.96938e-05 -0.000197618 5.36483e-05 2.74473e-05 -0.2540160679 0.8059085943
625296250.0 -0.0515184306 0.1476937819 6.36552e-05 -9.4243e-06 0.0002952514 2.44193e-05 -0.245288734 0.8076493708
630296220.0 -0.0499165145 0.1484930588 7.96973e-05 -0.0001029448 0.0002144588 -2.00226e-05 -0.2377815258 0.8108094817
635296190.0 -0.0491611812 0.1493505189 8.5946e-05 9.23542e-05 0.0003934428 0.0001311252 -0.2292183543 0.8124770153
640296160.0 -0.0474021989 0.1499442223 0.0004690011 0.0001611092 0.0003190459 0.0001897368 -0.2211252665 0.8150153746
645296130.0 -0.0461086922 0.150953028 0.0005285212 -9.14587e-05 0.0002358624 -4.9419e-05 -0.2133011682 0.8175239618
650296100.0 -0.044703774 0.1512540133 0.0002598717 0.0001360694 0.0002202605 0.0001658135 -0.2047900767 0.8185470423
655296070.0 -0.0432696573 0.1520175461 0.0001266042 6.18554e-05 0.0002856427 -0.000138981 -0.1963079662 0.8208319113
660296040.0 -0.0421214791 0.1525363535 0.0001749863 -0.0001431704 0.0002991685 -0.0001268414 -0.1872827788 0.822846343
665296010.0 -0.0403152137 0.1525252366 0.0001694698 0.0002225812 0.0001504718 -0.0002145709 -0.1789213058 0.8248334338
670295980.0 -0.0394045337 0.1536894217 0.0001563478 -0.0001115759 0.0001963283 0.0003058036 -0.1715683875 0.8267980587
675295950.0 -0.0377326546 0.1542688622 -1.3178e-06 3.20968e-05 0.0002598471 5.71037e-05 -0.1633407506 0.8283870517
680295920.0 -0.03662341 0.1549064632 0.0002449322 0.0001175582 0.0002308023 9.66534e-05 -0.1552139652 0.8306210392
685295890.0 -0.0347740298 0.1555379512 0.0004392104 5.19205e-05 0.000182599 0.0001313424 -0.1464761158 0.8315429859
690295860.0 -0.0333106934 0.1556227406 0.0003955149 -3.0721e-06 0.0002351148 -7.8902e-06 -0.1382591067 0.8335987022
695295830.0 -0.0320286316 0.1563995246 0.0002550105 6.55448e-05 0.0001207161 -0.0001230064 -0.1291017941 0.8344634563
700295800.0 -0.0305437125 0.1566719993 0.0003601066 -9.57459e-05 0.0004959783 0.0001282408 -0.1223068373 0.8358863211
705295770.0 -0.0291966596 0.1575451909 0.0001652422 9.63286e-05 0.0003942772 -8.69417e-05 -0.1133019679 0.8382223932
710295740.0 -0.0278615553 0.1579703117 0.000353267 5.10837e-05 0.0003211536 0.0002580451 -0.1047419291 0.8380534533
715295710.0 -0.0266290502 0.1581307109 0.0002672851 0.0002576956 0.0002721477 2.54471e-05 -0.0963948058 0.8393273186
720295680.0 -0.0248297393 0.1588337152 0.0001092886 0.0002074038 0.0003193064 5.15449e-05 -0.0877847744 0.8402914335
725295650.0 -0.0233132248 0.1593122938 0.0001774956 -0.0001303945 0.0001771984 -0.0001494308 -0.0793927061 0.8420606308
730295620.0 -0.0218322823 0.1598036239 0.0002533998 -0.0001325423 0.0002644963 2.97652e-05 -0.0713469445 0.8420689588
735295590.0 -0.0203394567 0.1599922169 0.0003495511 0.0001834003 0.00047899 6.63005e-05 -0.0636498138 0.8424406599
740295560.0 -0.0189237159 0.1606823239 0.0001311341 1.01441e-05 0.0002842998 -1.94344e-05 -0.0540330821 0.8436595222
745295530.0 -0.0177076606 0.1609982174 -2.74234e-05 0.0002407661 0.0005351244 -9.21552e-05 -0.0462196997 0.8435392669
750295500.0 -0.0158258566 0.1611576945 0.0002650616 0.0001531185 0.0002845762 -7.03605e-05 -0.0376898305 0.8439910721
755295470.0 -0.0147611389 0.1614398684 0.0001802625 -0.0001365447 0.0002856626 -0.0001016855 -0.0290659965 0.8434155892
760295440.0 -0.0129489845 0.1618764347 0.0003090038 0.0001146928 0.000293603 4.73507e-05 -0.0208326011 0.8442689077
765295410.0 -0.0113825061 0.1622152846 -7.29294e-05 -5.17602e-05 6.4205e-05 1.38262e-05 -0.0124358797 0.8446560504
770295380.0 -0.0101787854 0.1626625031 0.0003364977 -0.0001908645 0.0001399439 -7.73939e-05 -0.0042217842 0.8447997374
775295350.0 -0.0089175947 0.1627046432 0.0001992612 -9.65876e-05 0.0003458664 -1.05966e-05 0.0035166159 0.8435683598
780295320.0 -0.0069419951 0.1630478379 0.0004051478 -9.79798e-05 0.0002066194 0.0001043512 0.0125186816 0.8436082785
785295290.0 -0.0057086523 0.1632126366 0.0002267378 -0.0002188033 0.0002414131 9.70865e-05 0.0213170305 0.8436385135
790295260.0 -0.0040165202 0.1637537455 0.0001332441 -0.0004043884 0.0002228084 0.000195474 0.0300121594 0.8438675844
795295230.0 -0.0024344208 0.1640661634 0.0002332058 -0.000208087 0.0002523483 -0.0001523953 0.0387972856 0.842448076
800295200.0 -0.0011047378 0.1641452748 0.0003807838 -0.0001984076 0.0002406706 -0.0001885622 0.0467405718 0.8425539966
805295170.0 0.0005578544 0.1640721931 0.0003193609 -8.89695e-05 0.0004985305 -0.0002400968 0.0546979558 0.8424886511
810295140.0 0.0021324772 0.1642567351 0.0005375851 0.0001009471 0.0004922086 -4.58575e-05 0.0638036555 0.8415194645
815295110.0 0.003623893 0.1645937089 0.0004958674 -0.0003291481 7.03552e-05 7.36533e-05 0.071811547 0.8405914705
820295080.0 0.0052556287 0.1647556845 0.0002237328 0.0001506566 0.0003039047 -0.0001693565 0.0802065357 0.8404175488
825295050.0 0.0071355185 0.1647395088 0.0002972266 0.0001542972 0.0003380594 -0.000152842 0.0885800292 0.8396689872
830295020.0 0.0083387754 0.1650780514 0.0003535447 5.21914e-05 0.0002876623 0.0002112858 0.0977478147 0.8380753999
835294990.0 0.0098164699 0.1651978741 0.0002155089 -0.0001228249 0.0003727549 5.55917e-05 0.1049688008 0.8378877786
840294960.0 0.0113607452 0.1652474116 0.000176178 -0.0002342984 0.0006433711 -2.03811e-05 0.1138483312 0.8364828179
845294930.0 0.0129000647 0.1653512317 0.0002642609 -6.1363e-06 0.0003834614 -4.8402e-05 0.1211521883 0.8348185231
850294900.0 0.0145971008 0.1655921134 0.0003539882 -0.0002230535 0.0004265505 -0.000217029 0.1298682453 0.834140982
