!Created with skrf (http://scikit-rf.org).
# Hz S RI R 50.0 
!freq ReS11 ImS11 ReS21 ImS21 ReS12 ImS12 ReS22 ImS22
300000.0 -0.320346218 -0.0736688235 0.375099477 0.0375634284 0.373132728 0.0376525104 -0.3188902933 -0.0901635537
5299970.0 -0.3269760241 0.0046514797 0.3785036635 0.0026367491 0.378463037 0.0025066878 -0.3245095114 0.0052327336
10299940.0 -0.3244289683 0.0131874032 0.3793693677 0.0021554561 0.3796168571 0.0022879243 -0.3222145929 0.0158440355
15299910.0 -0.3217539011 0.0204549256 0.3822282803 0.0020947973 0.3820724156 0.0019808586 -0.3188802914 0.0237075373
20299880.0 -0.3187791573 0.0262412789 0.3848245695 0.0015544562 0.38483924 0.0014923084 -0.315409465 0.0301126584
25299850.0 -0.3158068641 0.031520156 0.3882857975 7.54885e-05 0.3882825782 0.0002007213 -0.3110212845 0.0356400974
30299820.0 -0.3129299014 0.0357796878 0.3915745881 -0.0021253926 0.3914940457 -0.0024490185 -0.3076128069 0.0408855653
35299790.0 -0.3100345446 0.039904268 0.3948809734 -0.0056355289 0.3949661753 -0.0053522007 -0.3037792955 0.0447786155
40299760.0 -0.3073748633 0.0435085698 0.3981474654 -0.0085432943 0.3981599332 -0.0085765045 -0.3006077519 0.048126036
45299730.0 -0.3046912647 0.0466614923 0.4008065145 -0.0129342674 0.4010672067 -0.0126363139 -0.2974236143 0.0515699321
50299700.0 -0.3026096997 0.0496170029 0.4036169443 -0.0172689605 0.4037535945 -0.0168968808 -0.2941345156 0.0541006517
55299670.0 -0.300174813 0.0519638363 0.4059545648 -0.0224423312 0.4053725286 -0.0218862178 -0.291810583 0.0568281364
60299640.0 -0.2980889582 0.0548925151 0.407527703 -0.0271302747 0.4076910572 -0.0267553707 -0.2890970635 0.0589962137
65299610.0 -0.2963532575 0.057269627 0.4093971238 -0.0320163321 0.4094447856 -0.0317877545 -0.2872953261 0.0614155641
70299580.0 -0.2947156407 0.0599926546 0.4104319442 -0.0371010475 0.4104383837 -0.0367694738 -0.2845572706 0.063818187
75299550.0 -0.2928233736 0.0623964794 0.4114403081 -0.0422512163 0.4113244388 -0.0421227388 -0.2831694577 0.0658425127
80299520.0 -0.2912968561 0.0647589184 0.4123949861 -0.0474114203 0.4125816166 -0.0471245157 -0.2813168945 0.0678977845
85299490.0 -0.2899255959 0.0668494201 0.4127540209 -0.0527204463 0.4130047501 -0.052328674 -0.2798209112 0.0700671826
90299460.0 -0.2888011489 0.0694643921 0.4131884831 -0.0580789478 0.4134724407 -0.0576767674 -0.2782585396 0.0720577937
95299430.0 -0.2874888215 0.0715953949 0.4137174658 -0.0629566833 0.4136441961 -0.0631315291 -0.2766002302 0.0745079118
100299400.0 -0.2863762951 0.0741679491 0.4134004997 -0.0681735651 0.4134559675 -0.0680412761 -0.2752684899 0.0761912322
105299370.0 -0.2850667278 0.0762453003 0.4132120581 -0.0736115047 0.4137122458 -0.0733463781 -0.2737145278 0.0782285955
110299340.0 -0.2841749842 0.0788836509 0.4135455364 -0.0783850563 0.4133046547 -0.0784125279 -0.2727904307 0.0804236226
115299310.0 -0.2831894082 0.0810761776 0.4134227248 -0.0838762033 0.4129745429 -0.0835595542 -0.2717893611 0.0827816622
120299280.0 -0.281863812 0.0830342143 0.4126237777 -0.0887315331 0.4127486208 -0.0887670688 -0.2705737395 0.0846907409
125299250.0 -0.2811647157 0.0854707805 0.4120415281 -0.0936224324 0.4123549512 -0.093654477 -0.2697212077 0.0868169687
130299220.0 -0.2805172118 0.0881182807 0.4114193909 -0.099181015 0.4112025624 -0.0989055648 -0.2687276363 0.089123627
135299190.0 -0.2794721595 0.0906502129 0.4108821579 -0.1040160699 0.4107008996 -0.1037434549 -0.2674210113 0.0913544578
140299160.0 -0.2783162724 0.0931286714 0.409612358 -0.1089869718 0.4096570788 -0.108888648 -0.2664470931 0.0938927109
145299130.0 -0.2775021564 0.0957600979 0.4089933519 -0.1140538608 0.4087954718 -0.1137426681 -0.2657578877 0.0961475019
150299100.0 -0.2764768629 0.0984102096 0.4077121843 -0.1185066168 0.4079132609 -0.1184469001 -0.2645520481 0.0986067121
155299070.0 -0.27568768 0.1007439625 0.406793871 -0.1242446657 0.4067634811 -0.1236651222 -0.2634642614 0.1010944979
160299040.0 -0.2747382963 0.1034167566 0.4054720612 -0.1285432018 0.4054347065 -0.1287333857 -0.2635074318 0.1032776217
165299010.0 -0.2738492773 0.1058967909 0.4044750604 -0.1335321847 0.4043765884 -0.1336122096 -0.2619162891 0.1059932572
170298980.0 -0.2729764784 0.1087129947 0.4026311625 -0.1384275346 0.4033946116 -0.1383348456 -0.2609406331 0.1081753199
175298950.0 -0.2720733782 0.111418712 0.4019627274 -0.1433474958 0.4015775954 -0.1432337749 -0.2601373854 0.1107338368
180298920.0 -0.2712258042 0.1138472275 0.4001299543 -0.1479785912 0.4000645894 -0.147783516 -0.2588729432 0.1132925027
185298890.0 -0.2697166523 0.1163229235 0.3986874739 -0.1523984772 0.3985025349 -0.1525831714 -0.2577583808 0.1158649543
190298860.0 -0.2686423403 0.1192695263 0.3971259227 -0.1570531004 0.397332563 -0.1569766805 -0.2569283112 0.1180474825
195298830.0 -0.267902004 0.1218475764 0.3953118493 -0.1619802439 0.3952562765 -0.16170271 -0.2556103055 0.1205653122
200298800.0 -0.2667440464 0.1244559849 0.3936074013 -0.1664778553 0.3936285229 -0.1664290815 -0.2548992811 0.1230766609
205298770.0 -0.2657307779 0.1269266893 0.391821512 -0.1710713836 0.3919389814 -0.1710506567 -0.2535410716 0.1251274593
210298740.0 -0.2641334596 0.129625946 0.3898035847 -0.1754638514 0.3902540576 -0.1752050456 -0.2523750403 0.1280296001
215298710.0 -0.2634900173 0.1325303232 0.3883108991 -0.1803106493 0.3878865288 -0.1801631052 -0.2516988503 0.1305072526
220298680.0 -0.262358196 0.1348017805 0.3857753845 -0.1845116902 0.3858522339 -0.1842130911 -0.2504554131 0.132758118
225298650.0 -0.2611616975 0.1378196802 0.3836484559 -0.189234654 0.3842891375 -0.1889532276 -0.2489873471 0.1355279827
230298620.0 -0.2595713525 0.1406298122 0.3821621582 -0.1930609046 0.3824762623 -0.1934228778 -0.2478044826 0.1381938889
235298590.0 -0.2583321922 0.1435507931 0.3799090417 -0.1978117835 0.3799930193 -0.1974886773 -0.2465188571 0.1408352847
240298560.0 -0.2569457556 0.1461208669 0.3775304204 -0.2019912336 0.3779644432 -0.202302628 -0.2452842788 0.1435093622
245298530.0 -0.2556779136 0.1486943957 0.3759894654 -0.2065777803 0.3759293189 -0.2062366474 -0.2436398522 0.1453669255
250298500.0 -0.2543021259 0.1515255388 0.3730390061 -0.2108111206 0.3728725329 -0.2103317735 -0.2424313277 0.1484127448
255298470.0 -0.2529423791 0.154044906 0.3707509647 -0.2145511698 0.3710115721 -0.2148183457 -0.2411838005 0.1508231898
260298440.0 -0.2514723398 0.1568769828 0.3685494793 -0.2191613512 0.3687708443 -0.2191502804 -0.2395087733 0.1538282
265298410.0 -0.2500283439 0.159821703 0.3660116627 -0.2235289062 0.3664917296 -0.2232320527 -0.2380185396 0.1561953748
270298380.0 -0.2486129987 0.162375932 0.3640183941 -0.2273861471 0.3638522753 -0.2274048245 -0.2367282541 0.1586483471
275298350.0 -0.2470491102 0.1650199056 0.361332727 -0.231704272 0.361578686 -0.2315188496 -0.234853265 0.1611978695
280298320.0 -0.2451444743 0.1676675768 0.3586184476 -0.2357236098 0.3588450945 -0.2355366062 -0.2332722046 0.1636326448
285298290.0 -0.2438442551 0.1706229355 0.3560836604 -0.2398402273 0.3560724122 -0.2395923206 -0.2317570799 0.1662428827
290298260.0 -0.2418915321 0.1730033089 0.3533129919 -0.2435992222 0.3537187197 -0.2437995557 -0.2299943198 0.1689955932
295298230.0 -0.2402306047 0.1752959753 0.3506833949 -0.2475784423 0.3508399146 -0.2474972997 -0.228529803 0.1713607303
300298200.0 -0.2385347552 0.1780263557 0.348327895 -0.251230415 0.3484410573 -0.2518806233 -0.227039219 0.1738270585
305298170.0 -0.2368101208 0.1807576618 0.3453145651 -0.255760888 0.3455841639 -0.2556099126 -0.2250218215 0.1758283748
310298140.0 -0.2349132488 0.183405229 0.3424999188 -0.2594678262 0.3427060487 -0.2593096164 -0.2236075617 0.1786299571
315298110.0 -0.2332628463 0.1858520649 0.3398489492 -0.2635551744 0.3399914673 -0.2635753254 -0.2217219943 0.1808649445
320298080.0 -0.2311614536 0.1880758737 0.3362899856 -0.2675956504 0.3367450845 -0.2673766598 -0.219980625 0.1834005627
325298050.0 -0.2294661934 0.1907802946 0.3335444728 -0.2712489435 0.3335998622 -0.271100823 -0.2182058988 0.1856747941
330298020.0 -0.2277266325 0.1931511873 0.329796154 -0.2750293409 0.3305713141 -0.2749891609 -0.2166540043 0.1881497456
335297990.0 -0.2255392922 0.1954690291 0.3274306068 -0.2784132691 0.3274839708 -0.2784838271 -0.2152352475 0.1910201563
340297960.0 -0.2243904271 0.1983689056 0.3240588449 -0.2819869624 0.3237935282 -0.282422489 -0.2126650676 0.193541565
345297930.0 -0.2221492477 0.2010450191 0.3206123816 -0.2857090931 0.3208825363 -0.2861056565 -0.2110964361 0.1953849083
350297900.0 -0.2205300438 0.203283844 0.3174490638 -0.2894394756 0.317260606 -0.2891436391 -0.2093497064 0.1979196544
355297870.0 -0.217899072 0.2059464163 0.3138937518 -0.2928678981 0.3145931213 -0.2926758839 -0.2076330523 0.2002722053
360297840.0 -0.2162825171 0.208404004 0.3114762802 -0.2961525043 0.3114621213 -0.2963589168 -0.2052333097 0.2029756203
365297810.0 -0.214159946 0.2111936547 0.3075141083 -0.2997418103 0.3080453495 -0.2996283512 -0.2032241488 0.2047143988
370297780.0 -0.2118672929 0.2131748546 0.3042274736 -0.30278109 0.3046398874 -0.3026014067 -0.2015103133 0.2069764265
375297750.0 -0.2095902267 0.2155432354 0.3012254607 -0.306335285 0.3013799932 -0.3064102672 -0.1991654813 0.2092307084
380297720.0 -0.2075253844 0.2179664532 0.2977170954 -0.3099834817 0.2978696121 -0.3091667736 -0.1973642771 0.2114633228
385297690.0 -0.205649957 0.2199997409 0.29407524 -0.3126166715 0.2941415196 -0.3129985107 -0.1946552821 0.2138077577
390297660.0 -0.2032719875 0.2229460369 0.2910273939 -0.3162662262 0.2909904146 -0.3155696177 -0.1930584746 0.2162567523
395297630.0 -0.2005792001 0.2250907559 0.287096589 -0.3194507792 0.287093423 -0.3195754504 -0.1903278774 0.2183721961
400297600.0 -0.1986714371 0.2273397327 0.2838185665 -0.322624828 0.2838587034 -0.3222551138 -0.1881399528 0.2206670701
405297570.0 -0.196301021 0.2293471044 0.2800073068 -0.3250310727 0.28046088 -0.3252810537 -0.1861553236 0.2225827264
410297540.0 -0.1940385763 0.2315399651 0.2767444193 -0.3285240465 0.2770531571 -0.3285038188 -0.1835070414 0.224759827
415297510.0 -0.1914833827 0.233618976 0.2727544414 -0.3316197953 0.2730830399 -0.3315702915 -0.1815115456 0.2270781533
420297480.0 -0.1891081505 0.2363102523 0.2690124615 -0.3346582244 0.269443699 -0.3345683088 -0.179061074 0.2288153554
425297450.0 -0.1868229116 0.2382319033 0.2659235851 -0.3374420552 0.2661464645 -0.3373169931 -0.1773439817 0.2312607641
430297420.0 -0.1842115092 0.2402735986 0.261823159 -0.3400697049 0.2619841203 -0.3399421083 -0.1746788261 0.233028304
435297390.0 -0.1818090951 0.2423919554 0.2580005741 -0.3430508712 0.2579956476 -0.3429843386 -0.1717182558 0.2351226866
440297360.0 -0.1793567795 0.2445355028 0.2540600831 -0.3458312048 0.2543929795 -0.3455710801 -0.1695760705 0.2369791415
445297330.0 -0.176726204 0.2464325599 0.2507428523 -0.3486688349 0.2508026587 -0.3481747837 -0.1672379727 0.2387791174
450297300.0 -0.1741511722 0.2483495841 0.246498571 -0.3510064607 0.2468176728 -0.3514069499 -0.1645922003 0.2407524434
455297270.0 -0.1718540332 0.2506136234 0.2424990096 -0.353943206 0.2427055373 -0.354079117 -0.1623084126 0.2428254277
460297240.0 -0.1693192868 0.2522567307 0.2389786918 -0.3565016004 0.2387676206 -0.3566553243 -0.1596706033 0.2449808162
465297210.0 -0.1663119921 0.2546965667 0.235064373 -0.3593960035 0.2349659969 -0.3593678579 -0.1571375751 0.2466280977
470297180.0 -0.163607812 0.2559615845 0.2305510869 -0.3616740875 0.2310042149 -0.3615502938 -0.1542629297 0.2485960158
475297150.0 -0.1611932255 0.2579787826 0.2268077952 -0.3637125613 0.2272278724 -0.3637373148 -0.1514511517 0.2499353499
480297120.0 -0.1583512102 0.2600169836 0.2227035767 -0.3672008777 0.2228491933 -0.367062971 -0.1492448666 0.2519087517
485297090.0 -0.1556136858 0.2620019202 0.2190264218 -0.3687096163 0.2188061756 -0.3689263338 -0.1463512659 0.2537816434
490297060.0 -0.1535483288 0.2638523091 0.2151583156 -0.3713922792 0.215163925 -0.3711633912 -0.1440881595 0.2555719246
495297030.0 -0.1504066741 0.2654924881 0.2104274068 -0.3736555823 0.2110653338 -0.3735104723 -0.1412584105 0.2573622659
500297000.0 -0.1474658436 0.267211073 0.2065480468 -0.3756058818 0.2062558767 -0.3754879759 -0.1384072113 0.2593027124
505296970.0 -0.1446108539 0.2687941282 0.202689369 -0.3779652405 0.2022972958 -0.3778405716 -0.1359665455 0.2603130824
510296940.0 -0.1416514352 0.2704801801 0.1982288544 -0.3802218091 0.1983191206 -0.380221514 -0.13302133 0.26208709
515296910.0 -0.1389060126 0.2720046873 0.1940899561 -0.3821665318 0.1941538717 -0.3821309706 -0.1302722563 0.2634724927
520296880.0 -0.1362576975 0.2739473216 0.1901859331 -0.3843925568 0.1898908638 -0.3839827513 -0.1278208538 0.2647245635
525296850.0 -0.1332053706 0.2749135686 0.1852974389 -0.3861142443 0.1860104473 -0.3863863983 -0.1251538455 0.2664037145
530296820.0 -0.130177113 0.2767212581 0.1815516616 -0.3883767842 0.1815702061 -0.3885376411 -0.1223452484 0.2679847277
535296790.0 -0.1280804796 0.2781989715 0.1773448665 -0.390197787 0.1775328251 -0.3899601033 -0.1196714915 0.2692896423
540296760.0 -0.1248413976 0.2799613498 0.1730694528 -0.3925304393 0.1731532206 -0.3922638093 -0.1169139127 0.2710474671
545296730.0 -0.1219801167 0.2812504998 0.1683598694 -0.3939106413 0.1687090966 -0.3937494027 -0.1141463204 0.2719451
550296700.0 -0.1187826466 0.2829373685 0.1642420801 -0.3960278227 0.1649609808 -0.3959714156 -0.1114903369 0.2735403157
555296670.0 -0.1160189675 0.2839946859 0.1601673317 -0.397601081 0.1601126337 -0.3971549855 -0.1083949124 0.275085642
560296640.0 -0.1123650693 0.2855770602 0.1554795541 -0.3994691477 0.1560242247 -0.3991157559 -0.1053646619 0.2761775436
565296610.0 -0.1102158074 0.286715268 0.1513683428 -0.4006509509 0.1513915746 -0.4004906908 -0.1024396684 0.2772955421
570296580.0 -0.1072591836 0.2878419811 0.1467427241 -0.4026372461 0.1469954652 -0.4024747283 -0.0998635239 0.2790081859
575296550.0 -0.103976333 0.2891397936 0.1426412632 -0.404037143 0.1422980506 -0.4040229363 -0.0961442184 0.2796519249
580296520.0 -0.1009053485 0.2905434142 0.1380323943 -0.405630386 0.1383777747 -0.4053871592 -0.0934918333 0.2810507835
585296490.0 -0.0980912379 0.2916695682 0.1337369806 -0.4067076067 0.1338179612 -0.4070075478 -0.0902367909 0.2821125821
590296460.0 -0.0948403376 0.293027348 0.1293164695 -0.4079325135 0.1296861009 -0.4083267964 -0.0880908162 0.2832200312
595296430.0 -0.091708101 0.2939943423 0.1247886108 -0.4098108168 0.1245073148 -0.4096096688 -0.084810317 0.2840391546
600296400.0 -0.0887474405 0.2953159721 0.1202406828 -0.4111273245 0.1205928015 -0.4104535423 -0.0819893886 0.2851357799
605296370.0 -0.0858931817 0.2959951025 0.1156657822 -0.4120421847 0.1161012651 -0.4118701779 -0.078477041 0.2860657134
610296340.0 -0.0825317405 0.2976024239 0.1108124066 -0.4135117472 0.1117847536 -0.4129420781 -0.0752852783 0.2872034284
615296310.0 -0.0790136935 0.2982527384 0.1063696587 -0.4141398632 0.106750626 -0.414741353 -0.0722594239 0.2882801881
620296280.0 -0.0764278588 0.2988535305 0.1022485877 -0.4153178498 0.1024056609 -0.4152370867 -0.0697787564 0.2892812655
625296250.0 -0.0730440731 0.2997202336 0.0978846658 -0.4164565169 0.0976953557 -0.4170909155 -0.0660350284 0.2902492399
630296220.0 -0.0694077748 0.301071292 0.092670647 -0.4175552553 0.0929033617 -0.4173377966 -0.0633543242 0.2911647051
635296190.0 -0.0670428192 0.3017492592 0.0886608522 -0.4182371318 0.0886138161 -0.4185564608 -0.0603922169 0.2918905439
640296160.0 -0.0638496173 0.3027876563 0.0841829961 -0.4195763651 0.0845485182 -0.4196075952 -0.0572564001 0.292849102
645296130.0 -0.0605042858 0.3038446404 0.0794311855 -0.4200551153 0.0795681094 -0.4203972498 -0.0542277676 0.2932674973
650296100.0 -0.0572109709 0.3045178047 0.0749923839 -0.4206667116 0.0751338351 -0.4211825206 -0.0507844389 0.2939757568
655296070.0 -0.0542810484 0.3049792809 0.0702984465 -0.4218107448 0.0705222436 -0.42180937 -0.0477789469 0.2948142348
660296040.0 -0.051202013 0.3054345813 0.066176258 -0.422311124 0.0659801569 -0.4224329869 -0.0445625664 0.2954120947
665296010.0 -0.0475507262 0.3059351652 0.0612132835 -0.4228395688 0.0614715238 -0.4230111688 -0.0414639432 0.2962994237
670295980.0 -0.0450710991 0.3069803666 0.0569300711 -0.4235942208 0.0568731583 -0.4235447244 -0.0391561252 0.2968829227
675295950.0 -0.0416552342 0.3075322025 0.0520028496 -0.4241732346 0.0525423672 -0.4236444913 -0.0357990028 0.2977729942
680295920.0 -0.0385334554 0.3080951169 0.0473881883 -0.4242919222 0.0471749612 -0.4254367891 -0.0324206564 0.298215552
685295890.0 -0.0348277233 0.3090113977 0.0424108751 -0.4252362144 0.0427399116 -0.425297774 -0.029331665 0.2983840456
690295860.0 -0.0318922978 0.3092641956 0.0381250336 -0.4249596034 0.0383717079 -0.4255304315 -0.0264434793 0.2991887624
695295830.0 -0.0287692686 0.3097661669 0.0338102292 -0.4256370271 0.0338455143 -0.4255898253 -0.0231053369 0.2991559881
700295800.0 -0.0253123204 0.3099895375 0.0287077204 -0.4260625052 0.0287849204 -0.4261024624 -0.0202638798 0.2999728828
705295770.0 -0.0224790356 0.310561952 0.0243046166 -0.4266035339 0.0246561244 -0.4265976286 -0.017102433 0.3002329794
710295740.0 -0.0186360484 0.3111349489 0.0195637904 -0.4271608561 0.0202243241 -0.4269646963 -0.0142460725 0.3003629547
715295710.0 -0.0157101133 0.3110337005 0.0156927775 -0.4267354362 0.0150220226 -0.4270861442 -0.0106507382 0.3007812538
720295680.0 -0.0124304116 0.3117152432 0.010395521 -0.4270355897 0.0108537194 -0.4271979315 -0.0075970569 0.3011867055
725295650.0 -0.0089903514 0.3118449988 0.0060244263 -0.4272607881 0.0059492673 -0.4271107544 -0.0042695567 0.3014515144
730295620.0 -0.005664035 0.3121796606 0.001255475 -0.4266343303 0.0012542323 -0.4269188703 -0.0014469103 0.3011893199
735295590.0 -0.0026921921 0.3122623943 -0.003385401 -0.4272340179 -0.0029699633 -0.4270867302 0.0015895431 0.3012866534
740295560.0 0.0005431694 0.3122516303 -0.008106423 -0.426732384 -0.0079212195 -0.4267935178 0.0054007773 0.3018919033
745295530.0 0.0036355262 0.3126448291 -0.0126630256 -0.4262103846 -0.0124501483 -0.4266895539 0.0084881994 0.3015993752
750295500.0 0.0072174078 0.3126942938 -0.0172573344 -0.4262040831 -0.0168716372 -0.4264576121 0.0114557607 0.3017131412
755295470.0 0.0102052445 0.3123653386 -0.0218126124 -0.4261734837 -0.0215181151 -0.4264664808 0.0149586858 0.301561164
760295440.0 0.0137031485 0.312698516 -0.0264359346 -0.4261736472 -0.0263056969 -0.4262880875 0.0179284644 0.3016337621
765295410.0 0.0168952892 0.3128083581 -0.0310029514 -0.425445018 -0.0311264021 -0.425731204 0.0212784307 0.3018139458
770295380.0 0.0200347488 0.312662788 -0.0353271041 -0.4252060046 -0.0355440555 -0.4249886564 0.0240203936 0.3013926313
775295350.0 0.0232273597 0.3123097087 -0.0406353253 -0.4243085628 -0.039908782 -0.4245918632 0.0273476076 0.3014734472
780295320.0 0.0264476405 0.3122928789 -0.0450186157 -0.4241863278 -0.0443237634 -0.4242935954 0.0304341919 0.3009950213
785295290.0 0.0294621015 0.3118868454 -0.0495218502 -0.4233998921 -0.0490621445 -0.4236910929 0.0340238983 0.3011666047
790295260.0 0.0334822942 0.312309239 -0.053767785 -0.4233605021 -0.0531046429 -0.4230537882 0.0372900735 0.3009624466
795295230.0 0.0364006067 0.3114773854 -0.0584265905 -0.4222672108 -0.0578675199 -0.422699795 0.0403379167 0.3009208907
800295200.0 0.0395969417 0.3116008368 -0.0633628372 -0.4215828784 -0.0629631594 -0.4217022433 0.043663265 0.3005417251
805295170.0 0.0428826447 0.3109242197 -0.0675120225 -0.4207978377 -0.0678508216 -0.4210590562 0.0467755156 0.3002770552
810295140.0 0.0462818719 0.3104338325 -0.0718434671 -0.4200554034 -0.0719122787 -0.42024879 0.050039531 0.2999251965
815295110.0 0.0496184163 0.309939997 -0.076820871 -0.4189810639 -0.0763349833 -0.4192741561 0.0530597455 0.2995711011
820295080.0 0.0524609366 0.3104071631 -0.0810078373 -0.4182628896 -0.0808827298 -0.4184856299 0.0562920331 0.2990849738
825295050.0 0.0563173349 0.3092746379 -0.0855659645 -0.417125017 -0.085096203 -0.4176152974 0.059267974 0.2987975364
830295020.0 0.0590697638 0.3091459248 -0.0899618835 -0.4161708183 -0.0898570905 -0.4164571968 0.0629509687 0.2984874693
