!Created with skrf (http://scikit-rf.org).
# Hz S RI R 50.0 
!freq ReS11 ImS11 ReS21 ImS21 ReS12 ImS12 ReS22 ImS22
300000.0 -0.0428917322 -0.0752189959 -0.0017391852 0.0027115519 -2.7222e-06 0.0005355697 -0.7677670065 -0.2000494866
5299970.0 -0.0460659898 0.0144474948 9.83868e-05 0.000189434 1.82829e-05 2.79356e-05 -0.7846378774 -0.0099980868
10299940.0 -0.0402323596 0.0328599815 -9.10646e-05 -1.8741e-06 -4.54242e-05 -1.41823e-05 -0.787284059 -0.0051598849
15299910.0 -0.0316805584 0.0473732478 8.18163e-05 0.0002482036 -2.89924e-05 -3.37341e-05 -0.7927064716 -0.0027988302
20299880.0 -0.021516842 0.0593326261 -0.0002680152 -7.98192e-05 0.0001114007 0.0001319827 -0.799385322 0.0017306209
25299850.0 -0.0100724818 0.0685919557 -0.0001967461 1.59906e-05 -9.4585e-06 0.0001205432 -0.8059042895 0.0078102605
30299820.0 0.0013122079 0.0758483492 5.6997e-06 7.08465e-05 8.4174e-05 -3.04823e-05 -0.811610412 0.0156843341
35299790.0 0.0131715257 0.0802946822 -2.15154e-05 -5.62442e-05 8.93989e-05 4.92339e-05 -0.8163067256 0.0246669746
40299760.0 0.0247638646 0.08319405 -0.0001452915 0.0002592912 -3.76801e-05 6.37661e-05 -0.8212282259 0.0338834121
45299730.0 0.0351438203 0.084268856 4.86189e-05 -7.36166e-05 0.0001250158 1.9436e-06 -0.8239951185 0.0436303065
50299700.0 0.045522611 0.0841684012 0.0001944388 7.8888e-06 -4.88556e-05 2.77073e-05 -0.826308399 0.0538104658
55299670.0 0.0549421981 0.083568567 -7.81264e-05 8.49101e-05 5.59411e-05 -4.46491e-05 -0.8284502438 0.0636159407
60299640.0 0.0634279473 0.0815007217 -0.0001386683 0.0001932215 -6.60273e-05 0.0001034086 -0.82949008 0.0742707428
65299610.0 0.0715559695 0.0792313432 5.06602e-05 7.2505e-05 2.7104e-05 -8.9141e-05 -0.8302212351 0.0837792849
70299580.0 0.0779930562 0.0762101177 -0.0002577786 1.47023e-05 -0.0001516556 5.07359e-05 -0.8309577425 0.0935501988
75299550.0 0.0846552974 0.0729220085 -0.0002341935 6.97401e-05 0.0001364551 9.27588e-05 -0.830559641 0.1041507071
80299520.0 0.0902455727 0.0693163089 -0.0002112261 3.44824e-05 -4.56421e-05 0.0002173775 -0.8306003949 0.1140636702
85299490.0 0.0957649166 0.0653597875 3.49301e-05 -0.0001836083 8.05513e-05 0.0001009286 -0.8299374219 0.1230894275
90299460.0 0.1008015404 0.0617683606 0.0002040488 -0.0001862121 -3.90285e-05 9.5982e-06 -0.8286201415 0.1325515343
95299430.0 0.1044527056 0.0579322376 -0.0001540858 0.0001309902 -0.0001613121 8.72965e-05 -0.8277983742 0.1423964255
100299400.0 0.1081758521 0.0542633011 6.24951e-05 8.76275e-05 3.7541e-06 2.71677e-05 -0.826703489 0.1517937691
105299370.0 0.1117114379 0.0502811068 -5.49436e-05 0.0002316375 8.82969e-05 -7.78932e-05 -0.8252908588 0.1605523481
110299340.0 0.1146564243 0.0462018111 -2.63481e-05 -0.000106285 -4.89164e-05 -4.27984e-05 -0.8245957817 0.1698265166
115299310.0 0.1169628638 0.0425562163 -9.46126e-05 5.37554e-05 -7.18817e-05 0.0001695679 -0.8231737125 0.1790941474
120299280.0 0.1193053636 0.0390578597 9.93463e-05 4.83938e-05 2.28702e-05 2.31315e-05 -0.8207709426 0.1876175264
125299250.0 0.1214784053 0.0349319161 -0.0001552172 7.53756e-05 1.55857e-05 3.08589e-05 -0.819226909 0.197003641
130299220.0 0.1230785083 0.0312911435 -6.9269e-06 0.0001916453 8.4608e-05 3.67929e-05 -0.8174012662 0.2052351913
135299190.0 0.1249483043 0.0277056973 -7.65772e-05 0.0002300689 5.60022e-05 -0.000115631 -0.8157839297 0.215186463
140299160.0 0.126024427 0.0243518912 -1.60952e-05 -0.0001150253 2.85659e-05 7.01225e-05 -0.8132785353 0.2234036158
145299130.0 0.127247302 0.0209706023 -0.0001045052 6.428e-07 -4.51201e-05 -0.0001789254 -0.8115498926 0.2325695321
150299100.0 0.1283974916 0.0175287976 0.0001640177 0.000179387 9.40962e-05 0.0001507479 -0.8093769312 0.2416246448
155299070.0 0.1294399865 0.0145562695 1.04687e-05 8.79403e-05 0.0001285237 -7.41387e-05 -0.8068110146 0.250844053
160299040.0 0.1298548467 0.0116522024 -0.0001203091 0.0001951091 3.35061e-05 0.000265234 -0.8045417811 0.2592563975
165299010.0 0.1306580903 0.008449849 0.0001457571 0.0001391201 0.0001379354 0.0001134994 -0.8013187535 0.2673903968
170298980.0 0.1309694148 0.0052738443 -0.0001571026 0.0001460634 0.0003334046 -5.8656e-06 -0.7996322611 0.2756799015
175298950.0 0.1314453996 0.0026745192 3.49876e-05 2.358e-07 0.0001195554 0.0001154396 -0.7964188636 0.2848188649
180298920.0 0.1315239906 -0.0003253751 8.30249e-05 0.0001356128 -1.82016e-05 0.0001614427 -0.7932414985 0.2930916566
185298890.0 0.1317553945 -0.0035166533 -0.0001109055 0.0001259805 0.0001355611 0.0001358686 -0.7902499239 0.301859165
190298860.0 0.1319327198 -0.0058872737 -1.33454e-05 -0.0001296504 8.214e-05 1.06229e-05 -0.7873822672 0.3101349641
195298830.0 0.1321901805 -0.0084341603 0.0002046913 0.0002685053 1.1755e-06 7.80574e-05 -0.7837681603 0.3178955103
200298800.0 0.1321879009 -0.0115939623 -0.0001001454 -0.0001257851 7.14934e-05 8.36232e-05 -0.7801553678 0.3264653844
205298770.0 0.1312562009 -0.0135317709 5.63808e-05 0.0002587302 2.72e-07 0.0001406452 -0.7770842672 0.3350320954
210298740.0 0.131825276 -0.0161519023 0.0001769947 0.0002471588 0.0001130087 -5.5696e-06 -0.7737822512 0.3434148314
215298710.0 0.1312567785 -0.0186794616 -0.0001094786 0.0002412464 1.56447e-05 7.23012e-05 -0.7703473723 0.3512573299
220298680.0 0.1313650384 -0.0208259235 0.0001447778 0.0001967003 3.87315e-05 0.0001782379 -0.7668342266 0.3596042081
225298650.0 0.1306175228 -0.0231774192 9.25733e-05 0.000127108 -3.2975e-05 -3.94798e-05 -0.7629692167 0.3678575046
230298620.0 0.1300324739 -0.0253975738 0.0001570203 0.000314015 -8.05949e-05 0.0001979259 -0.7586171897 0.3753968381
235298590.0 0.1296634727 -0.02745648 0.0002451497 2.74684e-05 0.0001314422 -0.0001382107 -0.7549920315 0.3831014967
240298560.0 0.1288671004 -0.0295058316 0.0001590924 6.9411e-05 3.84107e-05 0.0003496298 -0.7511287253 0.3906531037
245298530.0 0.1285264844 -0.0318213548 0.0002949906 8.58513e-05 9.42571e-05 -3.28898e-05 -0.7472617203 0.3995742377
250298500.0 0.1279224488 -0.0338015157 0.0001536326 9.76497e-05 0.0001684398 0.0001148527 -0.7423463758 0.4072782865
255298470.0 0.1275725287 -0.0357048549 0.0002290481 4.1891e-05 -0.0001067968 0.0002297808 -0.7389192128 0.4145563778
260298440.0 0.1267152501 -0.0379997499 -9.94685e-05 0.0001531554 9.42817e-05 0.0002276768 -0.7340182394 0.4218073354
265298410.0 0.1256753334 -0.039843753 0.0001802574 0.0001749525 0.0001795848 0.000178921 -0.7295543101 0.4303978425
270298380.0 0.1254119212 -0.0418150461 7.0361e-06 0.0001365143 -2.29837e-05 0.0001688085 -0.725185954 0.4382689168
275298350.0 0.124680146 -0.0435103358 6.42324e-05 0.0001787935 -8.69836e-05 0.0002311002 -0.7202534951 0.4452570772
280298320.0 0.1235116125 -0.0453410731 0.0001356057 7.51007e-05 0.0001684454 0.0001114944 -0.7160478736 0.4525731452
285298290.0 0.1228115445 -0.047175746 -5.44699e-05 8.59947e-05 2.45522e-05 6.93033e-05 -0.711841724 0.460291703
290298260.0 0.1221531577 -0.0490406224 4.36656e-05 4.71605e-05 0.0001034923 -8.1718e-06 -0.706357355 0.4675195618
295298230.0 0.1211991307 -0.0508221507 0.0001623105 0.0001722996 9.63867e-05 -4.688e-07 -0.7013200585 0.4753284617
300298200.0 0.1202023549 -0.0524659696 8.4792e-05 0.0001635428 -2.36096e-05 0.0002857361 -0.6964706366 0.4825567458
305298170.0 0.1193941003 -0.0545761754 0.0002127479 5.6087e-06 0.0001066482 0.0001300869 -0.6916547581 0.4894795829
310298140.0 0.1185129935 -0.0566822153 7.40193e-05 0.0001410613 9.66029e-05 -0.0001160673 -0.6858214834 0.4962906733
315298110.0 0.1175792046 -0.0583625259 0.0001289597 -2.49654e-05 0.0001452343 0.0001546036 -0.6814308009 0.5046233556
320298080.0 0.1163668986 -0.0601887184 0.0001681008 0.0001652218 0.0001698168 0.0002853815 -0.6758395221 0.5106821112
325298050.0 0.1148413627 -0.0622612373 -8.95613e-05 0.0002002982 0.0001176465 0.0003731291 -0.6703438 0.5176609357
330298020.0 0.113316606 -0.0633840668 0.0001822599 9.33397e-05 -2.83511e-05 0.0001575365 -0.6647493591 0.5246830883
335297990.0 0.1121165922 -0.0648510423 -3.12766e-05 5.697e-05 -6.65121e-05 0.0001715397 -0.6596754606 0.5313827072
340297960.0 0.1109178919 -0.0661606208 -7.8984e-06 0.0001674193 0.0002954794 8.03261e-05 -0.6539741181 0.5383002592
345297930.0 0.1098437988 -0.0676865029 3.6028e-05 0.0002283698 -6.7869e-06 0.0001275923 -0.6485581953 0.5450259969
350297900.0 0.1086732416 -0.0691299193 6.77188e-05 7.54925e-05 -3.30831e-05 3.27814e-05 -0.6429670768 0.5510723018
355297870.0 0.1074634235 -0.0704897373 0.0001368885 6.5325e-05 4.22907e-05 0.0002132837 -0.6366162313 0.5588713309
360297840.0 0.1060347745 -0.0718200152 0.0002365615 0.0001420771 0.0002981314 0.0001054826 -0.6305346667 0.5648660321
365297810.0 0.1050238139 -0.0729810501 0.0001149661 0.0003682245 0.0002122127 5.0856e-05 -0.6256757224 0.5707408663
370297780.0 0.1039915002 -0.0744264418 0.000221842 0.0001306107 0.0002122814 0.0001743799 -0.6194133348 0.5781245358
375297750.0 0.1024722856 -0.0757097444 0.000117588 0.0001106411 0.0003223707 -2.41238e-05 -0.6129786155 0.5838738691
380297720.0 0.1013020403 -0.076571952 0.0002890094 9.35239e-05 0.0002185676 0.0002379041 -0.6066498358 0.5906374374
385297690.0 0.1002472095 -0.0780048838 0.0001721134 0.0001400377 0.0001681743 0.0001144529 -0.6013482621 0.5965361253
390297660.0 0.0989602065 -0.0794703729 0.0003767707 0.0002875444 -2.7377e-06 -5.55678e-05 -0.594688189 0.602039515
395297630.0 0.0978261451 -0.0807221044 0.0001650525 -3.19407e-05 3.65008e-05 0.0002611881 -0.5882517142 0.6079019037
400297600.0 0.0962298282 -0.081793831 0.0002040999 0.0001935757 0.0004406446 0.0002726937 -0.5828607522 0.6145003999
405297570.0 0.0949031511 -0.0834343829 0.0003161958 0.0001741605 0.0001263033 0.0001172429 -0.5754174157 0.6205720217
410297540.0 0.0942389093 -0.0841741468 0.0001735317 9.67833e-05 7.87936e-05 6.7393e-05 -0.569299378 0.6258485618
415297510.0 0.092513705 -0.0853646402 1.15627e-05 -4.75235e-05 7.54863e-05 0.0002302143 -0.5631129661 0.6315703126
420297480.0 0.0914396599 -0.0868216529 0.0002442474 -3.14501e-05 0.000126823 9.92032e-05 -0.5560080517 0.6379076411
425297450.0 0.090076994 -0.0876709334 0.0001953023 0.0002515318 7.61232e-05 0.0001277591 -0.5498966984 0.6422979243
430297420.0 0.0888294034 -0.0888643012 0.0003280257 0.0001917941 0.0001791953 0.0001125514 -0.5431011246 0.6486848159
435297390.0 0.0875284872 -0.0898625552 0.0002059744 0.000320749 0.0002676057 4.47932e-05 -0.5364015937 0.6547887862
440297360.0 0.086415266 -0.0910067127 0.000120226 9.44602e-05 0.0001154567 0.0001609315 -0.5301269652 0.6599221009
445297330.0 0.0851168316 -0.0922249404 0.0001349652 -1.55963e-05 0.000198033 0.0001225193 -0.5226735601 0.664896986
450297300.0 0.0840214749 -0.0933638691 0.0001806047 6.55142e-05 0.0001933018 0.0002676108 -0.5161012491 0.669495646
455297270.0 0.0824892736 -0.0941615742 0.0001707188 2.83923e-05 0.0003027049 3.20126e-05 -0.5089893346 0.6751241312
460297240.0 0.0813914729 -0.0949167397 0.0001812487 6.95496e-05 0.0003146455 0.000120867 -0.5020314159 0.6804371199
465297210.0 0.0804475437 -0.0959826784 0.0002770997 6.50677e-05 0.0002710062 1.46623e-05 -0.4951920803 0.6860339233
470297180.0 0.0790225247 -0.0967890848 0.0001308402 0.0001550169 0.0004635065 0.0001825743 -0.487853239 0.6904040472
475297150.0 0.0771992786 -0.0975864226 0.0002116724 8.05154e-05 0.0002264838 7.19551e-05 -0.4812433191 0.695549829
480297120.0 0.0762612514 -0.0987276846 0.0002039045 3.94399e-05 0.0001000038 -3.44954e-05 -0.4747493815 0.6998899346
485297090.0 0.0745825861 -0.0993725497 0.0002254039 1.72656e-05 0.0003707519 0.000108402 -0.4672747526 0.704980092
490297060.0 0.0739599289 -0.1004890642 0.0002240858 -0.0001078944 0.0003699255 0.0001296531 -0.4594667563 0.7088175872
495297030.0 0.0723496806 -0.1012760987 0.0002703037 0.0001239716 0.0002602192 0.0001718969 -0.4521068297 0.7136308876
500297000.0 0.0710106102 -0.1019134212 6.29429e-05 0.0002501644 0.0002268996 0.0001467422 -0.4450236619 0.718474077
505296970.0 0.069897446 -0.1030729119 0.0001853507 0.0002895165 0.0002731015 1.82579e-05 -0.4372722928 0.7230818278
510296940.0 0.0685618465 -0.1032728537 0.0001321578 0.0001849934 0.0002410455 1.27264e-05 -0.4303689509 0.727666095
515296910.0 0.0669262236 -0.1041098704 0.0001038456 6.12393e-05 0.0002322803 0.0001607377 -0.4233028661 0.7306906617
520296880.0 0.0659357681 -0.1049158612 0.000177241 2.41356e-05 0.0003907906 9.0663e-05 -0.4156929215 0.7360309328
525296850.0 0.0645702168 -0.1059862985 0.0001510403 0.0001373076 0.0003295557 0.0002421328 -0.4083869566 0.7396333806
530296820.0 0.0631069045 -0.1062522891 0.0002417997 0.0001877377 0.0004323276 4.10796e-05 -0.400313856 0.7433973717
535296790.0 0.0619517624 -0.1069176016 6.34107e-05 -0.0001218003 0.0002455195 5.882e-06 -0.393104788 0.748272663
540296760.0 0.0608383846 -0.1076024406 0.0001153969 9.138e-05 0.00032606 0.0002684918 -0.3852358784 0.7514067903
545296730.0 0.0590539666 -0.1078040634 0.0001435069 0.0001636265 0.000388138 0.0001407996 -0.3773734279 0.7554015264
550296700.0 0.0580724806 -0.1080594751 0.000273263 0.0002461256 0.000367103 6.48e-08 -0.3702586808 0.7593689174
555296670.0 0.0566443164 -0.1087930116 0.0004774788 0.0001207106 0.0001415239 -1.48709e-05 -0.3623582009 0.7625794674
560296640.0 0.0554915068 -0.1092566595 0.0003018315 0.0001100199 0.0003273629 5.85137e-05 -0.3542941246 0.7665967557
565296610.0 0.0537677605 -0.1098705771 0.0002664322 7.40943e-05 0.0001730543 7.99185e-05 -0.3472615838 0.7694325703
570296580.0 0.0526292019 -0.1099696568 0.0002535908 3.40248e-05 0.0003158285 -5.85001e-05 -0.339224627 0.7731057747
575296550.0 0.0512456354 -0.1107158252 0.0004311058 4.71455e-05 0.0001944765 0.0001030067 -0.3310651973 0.7768057707
580296520.0 0.0499743086 -0.1110030002 0.0001534937 3.66185e-05 0.0003240294 8.47984e-05 -0.3237066361 0.7796263852
585296490.0 0.048476859 -0.1111447421 0.0003364953 0.0003383623 0.0002208652 7.46906e-05 -0.3153325322 0.7835046135
590296460.0 0.0473233785 -0.1112497594 0.0002906622 0.0002898535 0.000259953 -5.13398e-05 -0.3076263902 0.7861178213
595296430.0 0.0456629705 -0.1116120995 0.0003339095 0.0001651672 0.0001139778 1.76113e-05 -0.3001456404 0.789109554
600296400.0 0.0444581227 -0.1122133578 0.0003178049 -0.0001450683 0.000150593 -0.0001291539 -0.2921480545 0.791842102
605296370.0 0.0427658448 -0.1121681754 0.0004338738 0.0001356392 0.0003193564 -2.14138e-05 -0.2838147335 0.7952237821
610296340.0 0.0416831322 -0.1125005889 0.0006177205 -0.0001507877 0.0004342496 2.06749e-05 -0.2761239082 0.7975337308
615296310.0 0.0402689617 -0.1125928867 0.0002202541 -0.0001143955 0.0002277336 4.5532e-06 -0.2674660334 0.8006133211
620296280.0 0.0391371092 -0.1125261821 0.0004671484 -1.84296e-05 0.000232438 -7.864e-07 -0.260328569 0.8032704218
625296250.0 0.0371385866 -0.1129956952 0.0003480122 4.71917e-05 0.0002185944 -0.0001116527 -0.2517999216 0.8052522237
630296220.0 0.0360512139 -0.1130339845 0.0004017317 9.6092e-06 0.000379599 -0.0001105086 -0.2431393153 0.8080754958
635296190.0 0.0345214526 -0.1131096858 0.0003502186 7.67876e-05 0.0002227582 3.16874e-05 -0.2356598611 0.810306802
640296160.0 0.0330351273 -0.113309741 0.0003733578 -0.0001417825 0.0002560744 -2.11957e-05 -0.2273998298 0.8126188266
645296130.0 0.0319980396 -0.1131696447 0.0002689047 1.85397e-05 0.0002039836 -8.82497e-05 -0.219513753 0.8141606896
650296100.0 0.0303753337 -0.1133825061 0.0002034559 0.0002197815 0.0001915441 2.68478e-05 -0.2111513299 0.8168649998
655296070.0 0.0289549939 -0.1134347224 0.0003226454 5.33233e-05 0.0003987949 -2.53705e-05 -0.2037000945 0.8189529851
660296040.0 0.0273782234 -0.1132455919 0.0004606481 9.07452e-05 0.0002246672 -0.0001200596 -0.1938413285 0.8207022881
665296010.0 0.0259745938 -0.1130418405 0.0004545715 -0.0001546671 0.0003792966 -0.000172335 -0.1861653637 0.8221476722
670295980.0 0.0246182955 -0.1133459423 0.0004068695 -5.79351e-05 0.000319154 -0.0002034135 -0.1782552369 0.8247677869
675295950.0 0.0229640352 -0.1132337802 0.0001619375 5.5705e-05 0.0003005205 2.74845e-05 -0.1696137343 0.8266333934
680295920.0 0.0213585701 -0.1130035033 9.1404e-05 0.000177339 0.0002979326 0.0001165236 -0.161650464 0.8279904768
685295890.0 0.0200497934 -0.1131547918 0.0003164229 -0.0001181188 0.0003407567 -0.0001095072 -0.1533013895 0.829565886
690295860.0 0.0183189194 -0.1130451471 0.0002467361 -3.94318e-05 0.0002991926 5.44453e-05 -0.1451554986 0.8310459815
695295830.0 0.0170672494 -0.1129164654 0.0004001121 9.72576e-05 0.0004053989 -0.0001020024 -0.136775265 0.8327576461
700295800.0 0.0156270124 -0.1123163336 0.0001590787 -6.90036e-05 0.0003667236 -0.000103081 -0.1282803503 0.8335775344
705295770.0 0.0140431521 -0.1119760369 0.0002384702 -2.6275e-06 0.0004648759 -0.0001567437 -0.1202464532 0.8355141536
710295740.0 0.0127657905 -0.1119236654 0.0002344525 -0.000100511 0.0002625799 -9.34936e-05 -0.1118336012 0.8363305907
715295710.0 0.0112551811 -0.1120635834 0.0005676128 -4.92645e-05 0.0004017164 -1.1793e-06 -0.103286032 0.8366881265
720295680.0 0.009975823 -0.1120756031 0.0002185932 -2.5843e-06 0.0003286985 1.48943e-05 -0.0945425443 0.8379558273
725295650.0 0.0081691064 -0.1113540428 0.0004636053 -8.32267e-05 0.0004181653 -5.28651e-05 -0.0874516195 0.8396067488
730295620.0 0.0064862941 -0.1112987195 0.0001178611 -4.19695e-05 0.0003163283 -2.89289e-05 -0.0787844951 0.8403351797
735295590.0 0.0051471508 -0.1109290148 0.000337434 -0.000178282 0.000116054 7.92048e-05 -0.070142593 0.8404149774
740295560.0 0.0035646898 -0.1107478326 0.0003339906 -0.0001507146 0.0001174653 4.47215e-05 -0.0615803066 0.8411140991
745295530.0 0.0023297466 -0.1103557021 0.0002814757 -1.52747e-05 0.0004810809 -7.26583e-05 -0.0536316158 0.8416678996
750295500.0 0.0005993137 -0.1101023424 0.0003312404 -0.0001716366 0.0003270143 -0.0001952338 -0.0448831999 0.8421830662
755295470.0 -0.0007835071 -0.1098661599 0.0005152068 3.71e-06 0.0003821083 -4.79604e-05 -0.0368059338 0.8429010287
760295440.0 -0.0024465132 -0.1093256664 0.0001293421 0.0001011094 0.0002175845 -0.0003095684 -0.0281132711 0.8425961407
765295410.0 -0.0037516362 -0.1092464243 0.0003061004 1.47838e-05 0.0002398049 -0.0001889524 -0.0196485684 0.8433226531
770295380.0 -0.0052655273 -0.1087839715 0.0003054375 0.0001125098 0.0003190315 -0.0001092238 -0.0115551497 0.8436004067
775295350.0 -0.006647551 -0.1082112776 0.0004657402 -0.0001051401 0.0003520676 9.20012e-05 -0.003444315 0.8429852526
780295320.0 -0.0079426175 -0.1079838199 0.0003055116 -0.0002320828 0.0005783179 1.37113e-05 0.0053255382 0.8436929612
785295290.0 -0.0095553026 -0.1075442135 0.0002382157 0.0001637877 0.0003945349 -7.7122e-05 0.0135745298 0.8434112972
790295260.0 -0.0110878462 -0.1075556462 0.0002968867 -0.0001056409 0.0004544308 -0.0001048302 0.0219816247 0.8433595731
795295230.0 -0.0126061819 -0.1068891549 0.0004248473 -0.0001605118 0.0003871687 -0.0001970213 0.0301357805 0.8423268278
800295200.0 -0.0141482067 -0.1065365298 0.0002241866 -0.0002000604 0.0003697488 -0.0002585538 0.0385358396 0.8421807998
805295170.0 -0.015523904 -0.1059554721 0.0004932097 -0.0001862669 0.0002816996 -2.37003e-05 0.0470719437 0.841836903
810295140.0 -0.01676963 -0.1053560252 5.40025e-05 2.58102e-05 0.0004066227 -2.22348e-05 0.0552996223 0.8410647314
815295110.0 -0.018363836 -0.1048739971 0.0002296738 -0.0001555093 0.0002809207 -0.0001322834 0.063343015 0.8408589234
820295080.0 -0.0198032104 -0.1046759037 0.0004657627 -0.000239398 0.0003871721 -0.0001365889 0.0713840246 0.8405837124
825295050.0 -0.0213912139 -0.1043119123 0.0003263147 -7.19694e-05 0.0004862312 -0.0001816342 0.0803672856 0.8392147014
830295020.0 -0.022734088 -0.1037068873 0.0004374652 3.13024e-05 0.0002080516 -0.0001113135 0.0881194664 0.8383723183
835294990.0 -0.0239420013 -0.1032169573 0.0005307094 2.6597e-05 0.0003936234 1.83137e-05 0.0963113691 0.8376745106
840294960.0 -0.0256437038 -0.1030420639 0.0004564897 -4.44594e-05 0.0004565272 4.32081e-05 0.1053816341 0.8369129975
845294930.0 -0.0267808045 -0.1019959305 0.0003078937 -0.0003108027 0.0001976364 -0.0001155459 0.1132930569 0.8352988296
850294900.0 -0.0277432467 -0.1019576069 0.0004813987 -0.00020679 0.0002843006 -5.79826e-05 0.1210823146 0.8345204767
