!Created with skrf (http://scikit-rf.org).
# Hz S RI R 50.0 
!freq ReS11 ImS11 ReS21 ImS21 ReS12 ImS12 ReS22 ImS22
300000.0 -0.7745693567 -0.1303501587 -0.0008549275 1.29945e-05 -0.0002837791 7.26855e-05 0.8592980892 -0.0034229055
5299970.0 -0.7852164389 -0.0074879204 6.88019e-05 -4.84077e-05 5.0221e-05 0.0001743006 0.8594888546 -0.0100100061
10299940.0 -0.7874843451 -0.004678956 6.19159e-05 0.0001509302 -1.75776e-05 -6.07885e-05 0.8588470612 -0.01834036
15299910.0 -0.7936216874 -0.0024275135 -0.000106195 -6.9e-08 5.16613e-05 0.0001958734 0.8576939105 -0.0274148736
20299880.0 -0.8002648041 0.0016813553 -0.0001854396 9.93219e-05 7.0828e-05 -0.0001507373 0.8568189501 -0.0353473942
25299850.0 -0.8059458341 0.0073203064 -4.03763e-05 -6.93135e-05 4.03901e-05 -9.03524e-05 0.8563919523 -0.0434378557
30299820.0 -0.8127427971 0.0146535629 -2.48017e-05 3.7317e-05 -9.74149e-05 0.0001049202 0.8549693833 -0.0521082392
35299790.0 -0.8173684766 0.0246610326 -3.30001e-05 -6.67204e-05 -1.75292e-05 0.0001148664 0.8542872639 -0.0597476026
40299760.0 -0.8217163957 0.0336223383 3.49788e-05 -0.0001661888 -0.0001170896 0.0001113193 0.8537881569 -0.0676833206
45299730.0 -0.8243182635 0.0428391937 -0.0001557244 2.34807e-05 4.40229e-05 -3.50973e-05 0.8528767918 -0.0759382999
50299700.0 -0.8273033769 0.0528274007 -9.80086e-05 -0.0001542341 7.8231e-05 -3.51329e-05 0.8517505344 -0.0839362331
55299670.0 -0.8297302422 0.0630298857 -0.0001594119 2.31671e-05 0.0001343928 -0.0001078443 0.8509084376 -0.0928155493
60299640.0 -0.8305467656 0.0735098381 -0.0003951586 -1.47743e-05 0.0001141804 9.33113e-05 0.8498107191 -0.1008990638
65299610.0 -0.8311616398 0.0831897659 -1.53004e-05 -5.46058e-05 5.10108e-05 -0.0002532837 0.8489335451 -0.1093037739
70299580.0 -0.8313851961 0.0936591189 -6.00563e-05 0.000282235 -9.56023e-05 0.0001802898 0.8472055731 -0.1169720594
75299550.0 -0.8317786405 0.1038481941 0.0001163578 -4.3498e-05 -3.87652e-05 -1.47221e-05 0.8459425235 -0.1258180545
80299520.0 -0.8317903331 0.1135435168 -8.91306e-05 5.84484e-05 -4.9273e-06 -7.6398e-06 0.8452140675 -0.1332425655
85299490.0 -0.8308868734 0.122822634 -3.20431e-05 0.000129395 3.65184e-05 2.19873e-05 0.8436817966 -0.1422030496
90299460.0 -0.8300138726 0.1322177165 8.50521e-05 -0.0001121617 0.0001737471 -9.14697e-05 0.8420007442 -0.1495100017
95299430.0 -0.8291070258 0.1418304198 9.64538e-05 -5.81769e-05 -0.0001463392 6.35538e-05 0.8403266352 -0.1581978841
100299400.0 -0.8280884766 0.1509982948 8.19175e-05 9.3226e-06 5.5363e-06 -3.84805e-05 0.8394111127 -0.1665245056
105299370.0 -0.8275125028 0.1602835986 -0.0001304211 6.5807e-05 0.0002337324 -2.27379e-05 0.8371413741 -0.1743906392
110299340.0 -0.8253684152 0.1692342865 -0.0001691568 -0.0002171712 6.96848e-05 0.0003174416 0.8362233553 -0.181841289
115299310.0 -0.823996828 0.177940211 -0.0002059831 -0.0001370871 1.90355e-05 2.19152e-05 0.8341872918 -0.1906268946
120299280.0 -0.8218232801 0.1863709028 -3.82264e-05 -5.70734e-05 -6.2456e-05 4.58253e-05 0.8323849508 -0.1990062023
125299250.0 -0.8202337701 0.1952532709 8.84929e-05 -3.36761e-05 4.09191e-05 4.09342e-05 0.8302042563 -0.2067224179
130299220.0 -0.8189053723 0.2055152082 5.94376e-05 -9.30591e-05 1.46915e-05 0.0002678054 0.828600712 -0.2152095091
135299190.0 -0.8166420446 0.2137865661 3.45484e-05 6.66544e-05 0.0003201271 5.62219e-05 0.8264181982 -0.2229024573
140299160.0 -0.8148095198 0.2232279017 0.0001965808 4.58409e-05 -0.0001205304 3.09281e-05 0.8238157841 -0.2307529678
145299130.0 -0.8125783319 0.2317924168 -3.92035e-05 4.91932e-05 -2.23837e-05 -0.0001546773 0.8222050715 -0.2384874615
150299100.0 -0.8105993146 0.2407701342 1.95395e-05 0.0001548779 -0.0001362785 -6.40253e-05 0.8196440511 -0.2469891404
155299070.0 -0.8076236234 0.2493328195 -4.35266e-05 3.18867e-05 -7.25323e-05 8.6553e-06 0.8176202288 -0.2548939398
160299040.0 -0.8050339322 0.2579880392 7.8739e-05 1.24093e-05 0.0002082156 2.8817e-06 0.8149547382 -0.2620950477
165299010.0 -0.8028616399 0.2671289001 0.0001927801 0.0001229643 7.46524e-05 0.0001230886 0.8115780123 -0.270199326
170298980.0 -0.800160587 0.2751193678 -2.0199e-06 -2.97406e-05 1.71415e-05 0.0001329135 0.8091166281 -0.2776729729
175298950.0 -0.7972836811 0.2845900397 0.0001023911 -0.0002042026 4.07674e-05 1.95316e-05 0.807197588 -0.2855443027
180298920.0 -0.7947792463 0.2928170618 -7.01037e-05 -2.29306e-05 0.0002613296 -0.0001991301 0.8040535559 -0.2942572401
185298890.0 -0.7912605962 0.300632613 -4.60145e-05 8.67066e-05 -9.22159e-05 1.75572e-05 0.8008777019 -0.3013254385
190298860.0 -0.7884417619 0.3096852257 6.4796e-06 -6.68678e-05 9.17231e-05 3.82762e-05 0.7977329667 -0.3090467597
195298830.0 -0.7854030194 0.3175589468 6.25075e-05 0.0002060534 0.0001973206 -4.28473e-05 0.7947955336 -0.3169069333
200298800.0 -0.7813007995 0.3255649107 3.44207e-05 6.1978e-06 0.0002100512 0.0003281476 0.7913057452 -0.324155566
205298770.0 -0.7782806785 0.3340250686 0.000173311 5.03408e-05 2.55181e-05 -0.0001484005 0.7883292241 -0.3322023006
210298740.0 -0.775045981 0.3423341373 -1.43825e-05 1.10844e-05 -6.6406e-05 4.95819e-05 0.7841735821 -0.3393699107
215298710.0 -0.7717365132 0.3509040902 2.75e-05 3.2655e-05 -3.8167e-06 -0.0001070191 0.7814064581 -0.3468437885
220298680.0 -0.7676585075 0.3589114887 0.0001105018 3.15056e-05 -0.0001618168 -9.9746e-06 0.7778126893 -0.3542687474
225298650.0 -0.7644861832 0.3663594261 -6.1804e-06 -2.64705e-05 -2.719e-05 -5.71884e-05 0.7737569801 -0.3618670211
230298620.0 -0.7601061262 0.3743769659 5.49371e-05 0.000162946 9.13901e-05 -7.9609e-06 0.7707595233 -0.3693758815
235298590.0 -0.7563540699 0.383167418 -0.0001975893 0.0001779657 5.31795e-05 -0.0001545765 0.7665126005 -0.3769678583
240298560.0 -0.7523451878 0.3911890613 -9.16465e-05 -6.73304e-05 0.0003435218 7.07103e-05 0.7634296026 -0.3846337991
245298530.0 -0.7483080661 0.3987636799 -0.0001195325 -0.0002552143 -0.0001413319 -5.53272e-05 0.7592543971 -0.3918770884
250298500.0 -0.7440216672 0.4063365736 0.0002398683 1.54415e-05 2.5266e-06 -5.02931e-05 0.7555044703 -0.3991185336
255298470.0 -0.7396035761 0.4139261493 0.0001383401 -9.62136e-05 9.8354e-06 -3.44691e-05 0.751943897 -0.406963803
260298440.0 -0.7357331707 0.4214590848 9.0473e-05 -1.77953e-05 9.18178e-05 -4.43187e-05 0.7470770724 -0.4135534238
265298410.0 -0.7317613732 0.4298073282 -4.81443e-05 -0.0002136949 0.0002070024 -7.84406e-05 0.7436670375 -0.4210371977
270298380.0 -0.7271340239 0.4370244781 -8.43503e-05 7.99388e-05 -6.86205e-05 -0.0001291847 0.7401122894 -0.4280784857
275298350.0 -0.7221058768 0.4446101446 -9.32238e-05 -3.71419e-05 0.0001419674 0.0001511274 0.7357421359 -0.4351624937
280298320.0 -0.7171183946 0.452095616 0.0002761002 -0.0001462436 -7.9224e-06 1.48742e-05 0.7317409758 -0.4427504828
285298290.0 -0.7133375974 0.4602117378 -1.66646e-05 -0.0001128725 0.000118876 5.4451e-06 0.7280119253 -0.4497812164
290298260.0 -0.7077575174 0.4671492996 -6.53569e-05 7.96649e-05 -0.0001294012 1.59859e-05 0.7235901683 -0.4572806076
295298230.0 -0.7024277571 0.4737362989 0.0002277246 -4.07435e-05 -0.0001137308 9.61384e-05 0.7197602785 -0.46385858
300298200.0 -0.6984440161 0.4819272921 -0.0001820108 5.1193e-05 -3.42468e-05 8.23834e-05 0.715318907 -0.4706746785
305298170.0 -0.6923980228 0.4880684958 0.0001174645 -0.0003654838 -8.18092e-05 6.05375e-05 0.7115750407 -0.4788703605
310298140.0 -0.6874284302 0.4961257884 -3.247e-06 -0.0003001155 0.0001075571 3.59614e-05 0.7063606959 -0.4873064155
315298110.0 -0.6826429024 0.5028301402 -1.87982e-05 0.0001474961 4.81896e-05 0.0001610115 0.7012876307 -0.4936323788
320298080.0 -0.677336983 0.5100967182 -1.95478e-05 -0.000123723 0.0001973111 8.82918e-05 0.6962397481 -0.5018209215
325298050.0 -0.6718164428 0.5174536373 8.28038e-05 -2.63549e-05 0.0001007847 -2.08159e-05 0.6906710966 -0.5089078057
330298020.0 -0.666323254 0.5237411461 -9.3959e-06 0.0001295124 -5.97067e-05 6.0286e-06 0.6841343515 -0.5145932583
335297990.0 -0.6609956984 0.5307243351 0.0001976326 -1.14583e-05 -7.39042e-05 -8.27575e-05 0.678792273 -0.5211348623
340297960.0 -0.6559725642 0.537259017 2.21376e-05 -8.75402e-05 -0.0001044227 0.0001253621 0.6739283467 -0.5272617085
345297930.0 -0.6499131171 0.5438621477 4.73327e-05 0.0002123968 0.0001461171 -0.0001427662 0.6679209528 -0.5340773279
350297900.0 -0.644515207 0.5508084926 0.0001728259 -0.000186943 -3.8478e-05 -0.0001772085 0.661863327 -0.5393374095
355297870.0 -0.6385575232 0.558242517 0.0001625585 5.1904e-05 0.000153343 -0.0001356737 0.6568430649 -0.5459498724
360297840.0 -0.6325940837 0.5637887948 4.46866e-05 -2.49529e-05 6.89268e-05 -4.80975e-05 0.6516660586 -0.552334162
365297810.0 -0.6273187246 0.5705462939 -0.0001286412 -6.56834e-05 -9.83429e-05 -1.42996e-05 0.6461761394 -0.5586327506
370297780.0 -0.6208467604 0.5764941948 8.59428e-05 0.0002971692 -2.7082e-05 4.91424e-05 0.6405210743 -0.5638702221
375297750.0 -0.6144394271 0.5831220954 7.48376e-05 -8.2815e-06 0.0001476834 0.0001284468 0.6347081902 -0.5700350313
380297720.0 -0.6092896889 0.5886314911 0.0001262707 5.16678e-05 -2.99435e-05 -0.0001244144 0.6285166026 -0.5764541121
385297690.0 -0.6038484415 0.5953958319 0.0001336067 -0.0002333718 -5.5492e-06 -0.0001277465 0.6232104058 -0.5815181568
390297660.0 -0.5970119704 0.6013489407 -7.6524e-06 0.0001074205 0.0001186627 -4.08759e-05 0.6170268836 -0.5878705457
395297630.0 -0.5905759076 0.6079781232 -6.27972e-05 1.79066e-05 0.0001868325 -8.1815e-05 0.6113341208 -0.5942381188
400297600.0 -0.5839961497 0.6138125737 3.53272e-05 3.72535e-05 -4.46074e-05 -4.86805e-05 0.6052855827 -0.5989621369
405297570.0 -0.5786609311 0.619168717 -3.30849e-05 -0.0002152711 -9.197e-05 0.0002648362 0.6000471221 -0.6057157914
410297540.0 -0.571517654 0.6250631826 -9.81038e-05 -0.000213531 2.73842e-05 -8.94354e-05 0.593795065 -0.611407416
415297510.0 -0.5644819747 0.6307515592 7.76233e-05 -5.12825e-05 -8.60441e-05 0.0002424475 0.5877577692 -0.617226905
420297480.0 -0.5594518205 0.6368801764 -9.57166e-05 5.1263e-05 -0.0002098181 -0.0002318902 0.5820850212 -0.6222507675
425297450.0 -0.55191528 0.6419057837 0.0001992558 6.54048e-05 8.49595e-05 1.61562e-05 0.5757467364 -0.6282405229
430297420.0 -0.5462278805 0.6479565232 -7.10688e-05 -0.0003323223 -2.50142e-05 -1.00142e-05 0.5689738102 -0.6343966369
435297390.0 -0.5389815312 0.6529721601 7.67396e-05 0.0001972086 4.90816e-05 -0.0001559761 0.5631782472 -0.639571156
440297360.0 -0.5318285104 0.6592143731 -0.0001433445 -9.57737e-05 0.0001818361 -0.0001369464 0.5570953963 -0.6445066328
445297330.0 -0.5255099914 0.6640876444 -0.0002953231 0.0002051124 4.7797e-06 -8.2404e-06 0.5503558579 -0.6510058155
450297300.0 -0.5180209071 0.6694651473 -4.22256e-05 -0.0001465371 -1.52717e-05 0.0001200308 0.5439884342 -0.6556241165
455297270.0 -0.5112649713 0.6746850331 -0.0001292181 0.000111783 -1.58513e-05 0.0001837275 0.5374464501 -0.6607184498
460297240.0 -0.5051428585 0.67955125 -0.000162588 -6.81896e-05 -0.0001218117 0.0001303502 0.5308866528 -0.6661736303
465297210.0 -0.4979383708 0.6846578593 7.28611e-05 0.0001857089 5.49956e-05 -1.32599e-05 0.5244723294 -0.6712408959
470297180.0 -0.4908305813 0.6900766991 0.0002520831 0.0001946255 -3.63418e-05 0.0001341109 0.5182480554 -0.6763496508
475297150.0 -0.4835080175 0.6941883126 5.80203e-05 -8.95237e-05 0.0001704221 -0.0001556381 0.5109595221 -0.6814683925
480297120.0 -0.4763458714 0.6993016449 2.00979e-05 -4.44636e-05 4.66815e-05 -0.0001228687 0.5052619023 -0.6857416233
485297090.0 -0.4689143492 0.7038660322 -0.0001178411 0.0001532952 -9.2382e-05 -4.4725e-05 0.4982636168 -0.6903175779
490297060.0 -0.4624925084 0.7083851404 0.0001093369 3.25904e-05 -3.069e-05 -6.00161e-05 0.4910134845 -0.6960118556
495297030.0 -0.4553713776 0.7129951061 4.11336e-05 -9.5985e-06 4.87155e-05 -8.74262e-05 0.4843499596 -0.7000186815
500297000.0 -0.4480942659 0.7181273584 4.848e-05 9.2648e-06 -2.10359e-05 -6.20308e-05 0.47764247 -0.704515908
505296970.0 -0.4403780988 0.7223911207 -0.0001475915 -3.2333e-06 5.59521e-05 -0.0001503054 0.4704855916 -0.7092498992
510296940.0 -0.4338394718 0.7269249756 -2.83225e-05 -0.0002751135 -0.0002040827 -7.64777e-05 0.4634044442 -0.7141722757
515296910.0 -0.4249299139 0.7305151676 -5.60481e-05 2.89446e-05 2.81584e-05 0.0002011031 0.4566144621 -0.7178870497
520296880.0 -0.4184352013 0.735533196 6.82234e-05 0.0003800546 -0.0001542865 5.9189e-06 0.4489399417 -0.7228804584
525296850.0 -0.4107982196 0.7390478389 -0.0002336356 -0.0001475541 -7.27038e-05 2.17607e-05 0.4419098802 -0.7264872014
530296820.0 -0.4030067949 0.7433932935 -5.97686e-05 0.0001516103 0.0001069354 1.9559e-05 0.435084417 -0.7310236224
535296790.0 -0.3958784927 0.7468733014 0.0001290424 -2.28382e-05 -1.28451e-05 -0.0001503183 0.4273422716 -0.7351328052
540296760.0 -0.3878913893 0.75058978 -0.0003068546 -9.58741e-05 -0.0001986864 -2.53757e-05 0.4199187381 -0.7390828247
545296730.0 -0.3802381178 0.7547817528 0.0001159177 -1.50007e-05 -2.72754e-05 -9.38987e-05 0.4131233413 -0.7431554008
550296700.0 -0.3733875769 0.7584712562 5.38801e-05 -0.0001257234 1.2251e-05 4.91093e-05 0.4053908595 -0.747218413
555296670.0 -0.3655923847 0.7615479573 -3.34771e-05 1.02724e-05 -0.0001310289 -1.0929e-05 0.3978879591 -0.7500988671
560296640.0 -0.3574562485 0.7667467004 -0.0001587399 0.0001347533 -3.07048e-05 8.8985e-06 0.3902295705 -0.7539114325
565296610.0 -0.3499903344 0.7699529419 -1.36842e-05 -0.0001294754 3.46628e-05 -5.5108e-06 0.3831868394 -0.7579429001
570296580.0 -0.3427950571 0.7721413894 -4.48767e-05 0.0002236325 9.9021e-05 -3.7703e-06 0.3752187674 -0.7617449238
575296550.0 -0.3347908767 0.7764616827 -0.000177665 -0.000107404 4.17042e-05 0.0001054217 0.3674527272 -0.7650943078
580296520.0 -0.3261511928 0.7797280744 0.0002682566 2.9034e-06 0.0001239805 -9.43358e-05 0.3606284115 -0.7688939095
585296490.0 -0.319070913 0.7827385989 -7.32844e-05 -1.27848e-05 -1.02946e-05 1.59107e-05 0.3533791597 -0.7723032784
590296460.0 -0.3107798687 0.7857007003 -4.87749e-05 9.3931e-05 -0.0002760743 9.85717e-05 0.3447002263 -0.775143083
595296430.0 -0.3030964019 0.7883415146 -8.3048e-05 0.0001353897 5.6761e-05 3.774e-07 0.3372485202 -0.7789617068
600296400.0 -0.2954119647 0.7919265166 0.0001467667 -0.0001097253 2.0098e-06 -2.18345e-05 0.3299287583 -0.7828876712
605296370.0 -0.2877079676 0.7944584272 -1.1687e-05 5.58436e-05 0.000106884 -0.0002152404 0.3216930492 -0.7859004232
610296340.0 -0.2792561915 0.7970905138 -4.81949e-05 -8.51667e-05 -7.49996e-05 -0.0001940248 0.3143038583 -0.7883341369
615296310.0 -0.2707828825 0.7997375614 9.57839e-05 4.96222e-05 -9.00996e-05 -4.5198e-06 0.3068160055 -0.7911589077
620296280.0 -0.263259927 0.8018336259 9.52398e-05 0.0002667078 -0.000222165 3.04515e-05 0.2989908517 -0.7946042529
625296250.0 -0.2554025233 0.8054375746 8.87799e-05 -1.4924e-05 0.0001029262 -0.0001043106 0.2913494383 -0.7970946985
630296220.0 -0.2467040809 0.8075609491 -1.0543e-05 -0.000269736 -0.0001599394 1.19842e-05 0.2828781982 -0.7994740714
635296190.0 -0.2390887695 0.8103760048 -0.0001243189 -3.0612e-05 -9.61e-05 4.09258e-05 0.2761953017 -0.8023143997
640296160.0 -0.2313525109 0.8123235221 0.0001456708 7.4817e-05 0.0001210003 1.13886e-05 0.2670970379 -0.8051271343
645296130.0 -0.2225814554 0.8148727033 1.94132e-05 8.10265e-05 -7.45353e-05 -9.12189e-05 0.2592402374 -0.8074015396
650296100.0 -0.2146131155 0.8163546533 8.24026e-05 -6.39494e-05 0.0002011488 -5.28309e-05 0.2522065818 -0.8108677814
655296070.0 -0.2064080911 0.8186853216 7.1483e-06 7.71504e-05 0.000114832 -9.39721e-05 0.2443694751 -0.811853914
660296040.0 -0.1988523872 0.8203707706 6.44833e-05 -2.73098e-05 -2.18936e-05 -1.95527e-05 0.2366124626 -0.8142251637
665296010.0 -0.1901202273 0.8219401102 6.08244e-05 -3.6396e-05 -0.0001349182 0.0001072019 0.2279328903 -0.8165724273
670295980.0 -0.1820881288 0.8245975758 -9.91363e-05 -0.0001742914 3.58882e-05 8.20046e-05 0.2199609483 -0.8188308509
675295950.0 -0.1737648708 0.8262421312 4.67864e-05 2.2479e-06 -2.36571e-05 -0.0001502512 0.211029581 -0.8208416462
680295920.0 -0.1652352562 0.8277195192 8.84117e-05 -5.78108e-05 0.0001534976 -0.0001029956 0.2036382379 -0.8221265927
685295890.0 -0.1569342271 0.830525468 0.0003537599 -0.0001987684 0.0002904368 -4.52013e-05 0.195433862 -0.8246043312
690295860.0 -0.1487279583 0.8309035863 -0.0001216116 0.0001225068 -3.99257e-05 -6.18808e-05 0.1866959926 -0.8253548847
695295830.0 -0.1408176332 0.8321537671 -3.93602e-05 9.26041e-05 6.68685e-05 -1.2305e-05 0.1786477739 -0.8268410891
700295800.0 -0.1316943329 0.8339219577 6.38301e-05 0.0001951866 2.56608e-05 -5.74817e-05 0.1708612015 -0.829023724
705295770.0 -0.1242226264 0.8352481094 8.16247e-05 0.000125249 -0.0001295449 5.45301e-05 0.1620887112 -0.8294866036
710295740.0 -0.1157730976 0.8363885193 -2.07351e-05 -0.0002106316 0.0002556475 2.04806e-05 0.1537934655 -0.8317645928
715295710.0 -0.1070744607 0.8378269519 -4.92566e-05 -0.0001095338 6.28639e-05 2.8673e-05 0.1458958146 -0.832976549
720295680.0 -0.0995842893 0.838699655 -2.5316e-06 -0.0001462973 5.90681e-05 -0.0001831289 0.1373686264 -0.8341610007
725295650.0 -0.0908921283 0.8395352731 7.24616e-05 -8.62824e-05 -0.0001420943 0.000190968 0.1288641435 -0.8344889249
730295620.0 -0.0822590626 0.8409416056 0.0003435185 -5.465e-06 -0.0001082699 3.75135e-05 0.1203121289 -0.8367457951
735295590.0 -0.0744671002 0.8407532941 2.27075e-05 6.46024e-05 0.0002227953 6.35006e-05 0.1118988104 -0.8383555383
740295560.0 -0.0657669555 0.8418914066 0.0002112538 0.0001668396 6.32079e-05 -0.0001183644 0.1039236304 -0.8382273204
745295530.0 -0.057608356 0.8425391844 -0.0002245463 -0.0001438504 4.18455e-05 7.36546e-05 0.0956123695 -0.8390875473
750295500.0 -0.0488050915 0.8431364428 -0.0001330723 -4.85511e-05 2.82676e-05 -0.0001529106 0.0871603865 -0.8400261679
755295470.0 -0.0411187646 0.8434679094 0.0001191859 -6.15893e-05 -1.70442e-05 2.65184e-05 0.0796490496 -0.841626871
760295440.0 -0.0329383958 0.8431188937 3.40314e-05 2.55796e-05 7.22508e-05 6.6459e-05 0.0707289979 -0.841783273
765295410.0 -0.0244849299 0.844462074 -0.0001587103 -0.0001001883 -0.0001401025 -0.0002274069 0.0626602709 -0.8422351428
770295380.0 -0.0166487807 0.8443300827 -5.75401e-05 5.38989e-05 -3.46659e-05 0.0001688526 0.0534432782 -0.8433588515
775295350.0 -0.0076406183 0.8443702276 1.83975e-05 -0.0001328225 -0.0002179232 5.67344e-05 0.044903534 -0.8428486613
780295320.0 0.0009753771 0.8446151299 -0.0002828475 -9.83875e-05 0.0001066303 2.61599e-05 0.0377230159 -0.8433458185
785295290.0 0.0087816232 0.8437610635 5.93032e-05 0.0001770737 -9.51511e-05 7.22468e-05 0.0293654152 -0.8436462581
790295260.0 0.0175740624 0.8442467351 -0.0001502067 3.33603e-05 0.0001508367 -9.79673e-05 0.0215518427 -0.844127817
795295230.0 0.0251728893 0.8436564441 -4.04154e-05 -3.07246e-05 7.26668e-05 -7.92555e-05 0.012998174 -0.8440362615
800295200.0 0.0339893335 0.8435761712 3.52567e-05 -1.53847e-05 -0.0001334314 0.0002353372 0.0037543163 -0.8442303243
805295170.0 0.0425522539 0.8430409007 0.0002438216 7.49637e-05 6.94037e-05 -6.77176e-05 -0.0038350511 -0.843699188
810295140.0 0.0506479476 0.8425441812 0.000273593 -0.0001290924 0.0001176555 -7.07901e-05 -0.0116997858 -0.8442902026
815295110.0 0.0591875619 0.8413693033 -7.37734e-05 -4.04217e-05 4.10591e-05 -0.0001960819 -0.0208526017 -0.8434302028
820295080.0 0.0665894092 0.841126675 -0.0001335892 -0.0001671985 -8.29798e-05 -5.59472e-05 -0.0290089772 -0.8431893884
825295050.0 0.0765589023 0.8404813445 -5.07723e-05 -0.0002202023 1.36221e-05 -6.79729e-05 -0.0367170143 -0.8422102286
830295020.0 0.0835562094 0.8400102196 0.000179289 7.40338e-05 8.76129e-05 -0.0001634537 -0.0452135696 -0.8416642328
835294990.0 0.0917246059 0.8389012888 -0.0001431939 -8.17575e-05 -0.0002353422 -7.7033e-05 -0.0541129252 -0.8412032947
840294960.0 0.0998104075 0.8384405287 0.000100812 -7.85931e-05 -6.62805e-05 -5.31201e-05 -0.0624753572 -0.8403384663
845294930.0 0.1084556835 0.8371909287 6.16478e-05 0.0002623104 -0.0001073474 8.35029e-05 -0.0702114031 -0.8390847957
