!Created with skrf (http://scikit-rf.org).
# Hz S RI R 50.0 
!freq ReS11 ImS11 ReS21 ImS21 ReS12 ImS12 ReS22 ImS22
300000.0 -0.3224541095 -0.0954047072 0.3748921431 0.0477913563 0.3754743401 0.0517585688 -0.3184873117 -0.1074270813
5299970.0 -0.323693666 0.0052614831 0.3787456203 0.0027139684 0.3785938204 0.0028196853 -0.3262062907 0.0031111038
10299940.0 -0.3210694834 0.0156883303 0.3799282575 0.0023794703 0.3795154213 0.0023833319 -0.3241157071 0.0128842319
15299910.0 -0.3180424992 0.0237237251 0.3818605868 0.0021291404 0.3820463907 0.0021519522 -0.3212151715 0.020060694
20299880.0 -0.3142349594 0.0302362663 0.3848937062 0.0018136589 0.3851562917 0.0018522294 -0.318702771 0.0261142023
25299850.0 -0.3106278756 0.0356927202 0.3883088424 -0.0001922172 0.3884406494 3.70095e-05 -0.3156629033 0.0312536102
30299820.0 -0.3063936881 0.0407012129 0.3919394412 -0.002499084 0.3916043977 -0.0022578097 -0.3124166532 0.0357748815
35299790.0 -0.302826313 0.0448883855 0.3948810339 -0.0051708471 0.3950381239 -0.0052465109 -0.3096050643 0.0392756211
40299760.0 -0.2994421511 0.0479011992 0.3983175498 -0.0086357373 0.3983742582 -0.0089167413 -0.3069979644 0.043096928
45299730.0 -0.2964972104 0.0515790562 0.4011498929 -0.0128975922 0.4009788611 -0.0129172708 -0.3044025525 0.046287332
50299700.0 -0.2930516525 0.0540304744 0.4033812403 -0.0173786072 0.4036967994 -0.0175139556 -0.3018475979 0.0492795539
55299670.0 -0.2907436812 0.0569076892 0.4055182317 -0.022120397 0.4056577084 -0.0218808342 -0.3001695438 0.0518967435
60299640.0 -0.2882876361 0.0590514987 0.4077781426 -0.0271352339 0.407724888 -0.0267967845 -0.2980272316 0.0546784078
65299610.0 -0.285928324 0.0618071019 0.4090458754 -0.0319177847 0.4094995387 -0.0316466247 -0.2958541485 0.0570398046
70299580.0 -0.2838517563 0.0637663718 0.4102375022 -0.0368244253 0.4104701162 -0.0365484967 -0.2943230364 0.0594267848
75299550.0 -0.2818156278 0.0657960009 0.4115312778 -0.0419087537 0.4115749746 -0.0422752564 -0.2931212782 0.0620876844
80299520.0 -0.2801083611 0.0680922224 0.4129167857 -0.0472666327 0.4125119336 -0.0473692442 -0.2912179622 0.0639668556
85299490.0 -0.2783863167 0.0698836432 0.4133083427 -0.0527570241 0.4131479378 -0.0525669797 -0.2903135452 0.0664697266
90299460.0 -0.2770489529 0.0719041072 0.4132556991 -0.0577269074 0.4136332904 -0.0579849681 -0.2884537346 0.069102904
95299430.0 -0.2754412195 0.0743121595 0.413773753 -0.0633181584 0.4138103884 -0.0633043036 -0.2872273367 0.0714702086
100299400.0 -0.2743547605 0.0765221912 0.4138489693 -0.0684717646 0.4137391626 -0.0685036293 -0.2862527312 0.0732522913
105299370.0 -0.2729853516 0.0783692636 0.4134620489 -0.0732840208 0.41399324 -0.0739742885 -0.2851609203 0.0759868515
110299340.0 -0.2720224584 0.0801788806 0.4130405001 -0.0785019582 0.4132206462 -0.0790243575 -0.284054884 0.0782426989
115299310.0 -0.2708009133 0.0823481003 0.4129643433 -0.0834798333 0.4132960804 -0.083462422 -0.2831903685 0.0797615216
120299280.0 -0.2696979759 0.0846235942 0.4125432383 -0.0891326006 0.412978111 -0.0889364469 -0.2824611929 0.0826503843
125299250.0 -0.2688363225 0.0865911837 0.412272365 -0.093805962 0.4124083293 -0.0942506204 -0.2811741574 0.0847904175
130299220.0 -0.2674739046 0.0890237961 0.4115297661 -0.0986301298 0.4115106652 -0.0991584982 -0.2804336434 0.0873737995
135299190.0 -0.2665405195 0.0910068581 0.4107413777 -0.1037422354 0.4108382199 -0.1040266022 -0.2795467833 0.0894875356
140299160.0 -0.2659882413 0.0936380266 0.4097958076 -0.1092046114 0.4100142739 -0.109211181 -0.2782437046 0.092331519
145299130.0 -0.264987688 0.0960276599 0.4094683015 -0.1140710862 0.4090758661 -0.1138835837 -0.2780094725 0.0949270913
150299100.0 -0.2637013893 0.0980898234 0.4077258002 -0.1190945419 0.4085731458 -0.1190997658 -0.2769864966 0.0969841547
155299070.0 -0.2629972428 0.1009932555 0.407044707 -0.124149326 0.4070580038 -0.1239209633 -0.2761751766 0.0994630707
160299040.0 -0.2616966905 0.1029272829 0.4054782778 -0.1285866824 0.4060265158 -0.1287756108 -0.2750497018 0.1028889414
165299010.0 -0.2607941204 0.1054704749 0.4043501665 -0.1337919555 0.4044785894 -0.1340851118 -0.2741244781 0.104736311
170298980.0 -0.2602229475 0.1075450425 0.4029669706 -0.1385352676 0.4030860935 -0.1383814561 -0.2731593346 0.1072003801
175298950.0 -0.2587595615 0.1105623634 0.4019021594 -0.1431265678 0.4019972671 -0.1430957359 -0.2723736505 0.1099007185
180298920.0 -0.2577683034 0.1128241901 0.4002679911 -0.1481890171 0.40043213 -0.1479623899 -0.2708884678 0.1128474313
185298890.0 -0.2569849615 0.1149478492 0.3985890178 -0.1527943252 0.3988148546 -0.1526177507 -0.2702200793 0.1152134939
190298860.0 -0.2558084371 0.1175403428 0.3971417716 -0.1572979331 0.3973730173 -0.1574029138 -0.2687269519 0.1176166132
195298830.0 -0.2545173493 0.1200371094 0.3955322405 -0.1617682988 0.395621617 -0.1622565035 -0.2679598051 0.1202413549
200298800.0 -0.2535793896 0.1228138991 0.3940125411 -0.1662749799 0.3936996885 -0.1668005465 -0.2665952423 0.123072007
205298770.0 -0.2526730524 0.1250752006 0.3922943641 -0.1710054376 0.3923901499 -0.1711931027 -0.2656451313 0.1255327065
210298740.0 -0.2515190339 0.1276640197 0.3908008726 -0.1759807121 0.3906446554 -0.1762062927 -0.2643123725 0.1282397838
215298710.0 -0.2504249055 0.1303281328 0.3883320146 -0.1802997944 0.3885723198 -0.1799489235 -0.2636209284 0.1307729854
220298680.0 -0.2493069904 0.1327568808 0.386502549 -0.1847795927 0.3866155548 -0.1850272444 -0.2622920802 0.1337527557
225298650.0 -0.2478527013 0.1355356028 0.3842214461 -0.1890459598 0.3842391483 -0.1889426369 -0.2610608778 0.1365184484
230298620.0 -0.2468267147 0.1382240098 0.382557799 -0.1935290977 0.3825967194 -0.1935314567 -0.2596002967 0.1390101945
235298590.0 -0.2453265879 0.1407878915 0.3801625283 -0.1978260551 0.3801200553 -0.1981451956 -0.2583903817 0.1416507777
240298560.0 -0.244386242 0.1433091728 0.3780508364 -0.2020441167 0.3784121053 -0.2021461233 -0.2572744705 0.1440550604
245298530.0 -0.2426466404 0.1458401561 0.3755516229 -0.2065576488 0.3759577293 -0.2064486087 -0.2558206419 0.1469188666
250298500.0 -0.2413886384 0.1481016036 0.3734455117 -0.2103348308 0.3739042934 -0.2103551587 -0.2540303968 0.1497655247
255298470.0 -0.2401048734 0.1507125043 0.3712033728 -0.2149920542 0.3712938985 -0.2150887618 -0.2525914987 0.1525032016
260298440.0 -0.2385609925 0.1531256294 0.3691453961 -0.2192514771 0.3686247297 -0.219174906 -0.2508823563 0.1549442202
265298410.0 -0.2370985358 0.1560032896 0.3666566885 -0.2238255093 0.3664571285 -0.2235080141 -0.2499228223 0.1575950386
270298380.0 -0.2355159322 0.1587064073 0.3636123548 -0.2277097445 0.36408472 -0.2281813534 -0.2478176371 0.1605971602
275298350.0 -0.2341185752 0.1611296847 0.3614747492 -0.2321072497 0.3620010058 -0.2320129389 -0.2464443461 0.1631449231
280298320.0 -0.2328240179 0.163537277 0.3588947957 -0.2356014027 0.3585861891 -0.2359118745 -0.2444765974 0.1656740804
285298290.0 -0.2309206293 0.1663148547 0.3562529274 -0.2397927759 0.3561664572 -0.2400164285 -0.2430912233 0.1684136454
290298260.0 -0.2294805062 0.1688800919 0.3538704773 -0.2438305771 0.3535585963 -0.2440198688 -0.2413392286 0.1711790074
295298230.0 -0.2278115379 0.1713815345 0.3512358585 -0.2478888093 0.3507571058 -0.2480045692 -0.2395870213 0.17377561
300298200.0 -0.2256526681 0.173644183 0.3482724618 -0.2522449746 0.3483814371 -0.2520826833 -0.2378831008 0.176741582
305298170.0 -0.2239769965 0.1759063308 0.3456830625 -0.2560294486 0.3455239868 -0.2558232767 -0.2356956366 0.1790568112
310298140.0 -0.2219946655 0.1781999135 0.3428020576 -0.2597688006 0.3429844152 -0.2604587353 -0.2339996041 0.1822033437
315298110.0 -0.2206331274 0.180842018 0.33999577 -0.2638661638 0.340225011 -0.263742286 -0.2322462022 0.1839529557
320298080.0 -0.2187156782 0.1833162775 0.3369571895 -0.2682063597 0.3368289718 -0.2680574064 -0.2301334596 0.1869251851
325298050.0 -0.2169099755 0.1853629589 0.3342747877 -0.271731646 0.3343192326 -0.2719089334 -0.2285213261 0.1891036343
330298020.0 -0.2151692666 0.1881412074 0.3304846138 -0.2757089536 0.3307734444 -0.2755014543 -0.2264421999 0.19169415
335297990.0 -0.2132099146 0.1903590126 0.327406034 -0.2791662461 0.327708754 -0.2792323415 -0.2249198335 0.1940612535
340297960.0 -0.2119503024 0.1929760016 0.3243328433 -0.2830601378 0.3247509305 -0.2828131276 -0.2230136542 0.1968656159
345297930.0 -0.2099592485 0.19488152 0.3211855066 -0.286123136 0.3209907437 -0.2862303721 -0.2211231715 0.1994886966
350297900.0 -0.2077280764 0.1974629382 0.3178977087 -0.2896541302 0.3180724569 -0.2899546139 -0.2187536875 0.2020337265
355297870.0 -0.2060303779 0.1999371203 0.3144454329 -0.2933760166 0.3146407334 -0.2936207644 -0.2168711013 0.2047582417
360297840.0 -0.2040766329 0.2021703827 0.3115310454 -0.297002019 0.3111029439 -0.2966692957 -0.2144612574 0.2070717702
365297810.0 -0.2017338104 0.2041637496 0.3080170325 -0.2999985487 0.307741616 -0.3001685513 -0.2122656698 0.209884251
370297780.0 -0.1998190613 0.206580142 0.3044497224 -0.3031348429 0.3048305437 -0.3035767484 -0.2105798132 0.211968624
375297750.0 -0.197766564 0.2093891575 0.3016255172 -0.3074176885 0.301121475 -0.3071831043 -0.2079879413 0.2146384491
380297720.0 -0.1953000662 0.2113404588 0.2980128544 -0.3095739025 0.2979399036 -0.3099675568 -0.205558203 0.217173084
385297690.0 -0.1930281731 0.2136704775 0.294347778 -0.3132679182 0.2943546081 -0.3132749244 -0.2037235958 0.2198341758
390297660.0 -0.1910483029 0.2157554564 0.2908499128 -0.3166317543 0.2904331537 -0.3167433528 -0.2010629584 0.2215445449
395297630.0 -0.1888878936 0.2178697222 0.2875925126 -0.3194510097 0.2874715001 -0.3199780566 -0.1989051549 0.2244199403
400297600.0 -0.1865545556 0.2203543201 0.2840451815 -0.3229973009 0.2840609155 -0.3232708926 -0.1970357178 0.226299213
405297570.0 -0.1841750408 0.2224290941 0.280497506 -0.3261446679 0.2802175452 -0.3261512055 -0.1946586345 0.2288954416
410297540.0 -0.1819692837 0.224421074 0.2762019827 -0.3287201607 0.276678337 -0.328908638 -0.1922147424 0.2311609226
415297510.0 -0.1796656474 0.2267672547 0.2731005093 -0.3320079195 0.2728639488 -0.3319783449 -0.1898499924 0.2335965168
420297480.0 -0.1770579162 0.2284602667 0.2690700264 -0.3351606961 0.2691974235 -0.3349376694 -0.1870899493 0.2354759812
425297450.0 -0.1745150393 0.2304491353 0.2655693564 -0.3378486511 0.2658647671 -0.3378726826 -0.1844746209 0.2378705124
430297420.0 -0.1724547625 0.2324785512 0.2616324311 -0.3413868234 0.2619149489 -0.3409014811 -0.182288446 0.2399267603
435297390.0 -0.1697765341 0.2343248907 0.2578227012 -0.343171902 0.2580993679 -0.3436900575 -0.1795774291 0.2426562837
440297360.0 -0.1674024006 0.2363185432 0.253995468 -0.3460137068 0.2540405209 -0.3461320911 -0.1771278833 0.2440166104
445297330.0 -0.1646611192 0.2385922308 0.2497806671 -0.3493341163 0.2503146977 -0.3490746989 -0.1748803219 0.2463062208
450297300.0 -0.1621198024 0.2400726007 0.2459741434 -0.3517374975 0.2464396382 -0.3520561153 -0.1725780427 0.2487838183
455297270.0 -0.1597306026 0.2420773995 0.2426232683 -0.3543814544 0.2429358952 -0.3541025676 -0.1694864597 0.2505035002
460297240.0 -0.1574815921 0.2438121676 0.2384947243 -0.3566869058 0.2381333744 -0.3571034743 -0.1667425211 0.2529880324
465297210.0 -0.1548003222 0.245837805 0.2349274355 -0.3594863901 0.2348689453 -0.3594716133 -0.1645086369 0.2544186975
470297180.0 -0.1522584372 0.2473954542 0.2308298551 -0.361965316 0.2310507926 -0.3621697843 -0.1623074519 0.2566275621
475297150.0 -0.1498024005 0.2491874455 0.226591558 -0.3639786935 0.2267326757 -0.3643831372 -0.1594676653 0.2587210289
480297120.0 -0.1470158677 0.2507781452 0.2225563048 -0.366889748 0.2227687511 -0.3666189959 -0.1564373543 0.2607421309
485297090.0 -0.1441764873 0.2525708299 0.2188180745 -0.3692348411 0.2186934388 -0.3690823829 -0.1539015179 0.262238127
490297060.0 -0.1413625123 0.254287152 0.2145184752 -0.3716820462 0.2145407229 -0.3717536248 -0.1513769673 0.2642914738
495297030.0 -0.1391638843 0.2561162121 0.2104271792 -0.3741395361 0.2102264466 -0.3738442039 -0.1484172774 0.2655455001
500297000.0 -0.1360680929 0.2573661508 0.2062190592 -0.3763635619 0.2064552776 -0.3762298104 -0.1462427688 0.2674583164
505296970.0 -0.1337999935 0.2587415648 0.2021478538 -0.3780517591 0.2021326593 -0.378002493 -0.1436141167 0.269528063
510296940.0 -0.1310173406 0.2606683907 0.1980540708 -0.3804064974 0.1981174584 -0.3805808023 -0.14055682 0.271518057
515296910.0 -0.1282403827 0.2624772288 0.1938987686 -0.382474791 0.1939778048 -0.382556592 -0.1376462122 0.2727703953
520296880.0 -0.1253342886 0.2637947294 0.1894720008 -0.3846056283 0.1898144471 -0.3845161321 -0.134878937 0.2742988338
525296850.0 -0.122570388 0.2651011373 0.1852920682 -0.3865981799 0.1855116277 -0.3870775404 -0.1317989466 0.2761872081
530296820.0 -0.1196955415 0.2667618536 0.1815335353 -0.3881554387 0.1813022243 -0.3885212029 -0.1295563047 0.2776791712
535296790.0 -0.1169130659 0.2679058305 0.176869404 -0.3904505487 0.1769838342 -0.3905025804 -0.1265470729 0.2792218686
540296760.0 -0.1139759176 0.2691438692 0.1724646159 -0.3924320288 0.1724658915 -0.3924767396 -0.1239536639 0.2808080617
545296730.0 -0.1113896264 0.2708939974 0.1680256151 -0.3938860145 0.1687194574 -0.3942401021 -0.1211048414 0.2817336436
550296700.0 -0.1086505089 0.2721808906 0.16412157 -0.3958823523 0.164369557 -0.396148522 -0.1181347221 0.2836790078
555296670.0 -0.1052888182 0.2732891613 0.1598293243 -0.3974064151 0.159742813 -0.397489577 -0.1150518798 0.2851997199
560296640.0 -0.1025206888 0.2743471985 0.1554716313 -0.3991073016 0.1555256881 -0.3992227013 -0.1119873461 0.2864546001
565296610.0 -0.1001482624 0.2756292576 0.1511386866 -0.4007800395 0.1509601377 -0.4011452067 -0.1096495112 0.2877166532
570296580.0 -0.0970968202 0.2771258773 0.146713044 -0.4023777666 0.1469786384 -0.4026132437 -0.1064493028 0.2894692823
575296550.0 -0.0940156216 0.2781959527 0.1421371702 -0.4037348693 0.1425178821 -0.4037335391 -0.1031246674 0.2903168831
580296520.0 -0.0909128407 0.2792435147 0.1377114159 -0.4053824889 0.1377566237 -0.4055113241 -0.1003758582 0.2917142478
585296490.0 -0.0879819038 0.2799952281 0.1333690515 -0.406776523 0.1335433344 -0.4069587683 -0.0978591734 0.2924542276
590296460.0 -0.085360736 0.281357069 0.1290951253 -0.4080632154 0.1290571287 -0.4083515608 -0.0943346974 0.2939303628
595296430.0 -0.0823026114 0.2826949287 0.1249703423 -0.4099397582 0.1246258139 -0.4100820162 -0.0913850649 0.295025684
600296400.0 -0.0792888562 0.2833907705 0.1201796696 -0.4108954487 0.1205120003 -0.4111933188 -0.0882427405 0.2964884944
605296370.0 -0.0760249818 0.2847835089 0.1156218189 -0.4121616545 0.115798639 -0.4121645769 -0.0853173197 0.2974483323
610296340.0 -0.0731026404 0.2852308206 0.1113067329 -0.4132432156 0.1113433589 -0.4134551185 -0.0823380606 0.2984068893
615296310.0 -0.0701994772 0.2862403013 0.1066440293 -0.4142826315 0.1067787691 -0.4147810215 -0.0789881619 0.2994699222
620296280.0 -0.0673415064 0.2869088796 0.102286028 -0.4153570285 0.1022922929 -0.4157508692 -0.0759651656 0.3000452795
625296250.0 -0.0638487199 0.288093342 0.0970458639 -0.4166297074 0.097655467 -0.4168145595 -0.0729726367 0.3013287936
630296220.0 -0.0610274094 0.2891429022 0.0928321408 -0.4178611743 0.0936175647 -0.4177466707 -0.0702505842 0.3021932825
635296190.0 -0.0578767726 0.2893429841 0.0881622699 -0.4179093193 0.0883746323 -0.4182010528 -0.0669290754 0.3030247522
640296160.0 -0.0551032641 0.2903274676 0.0843124015 -0.4195556591 0.0838223903 -0.419635685 -0.0632042151 0.3036024466
645296130.0 -0.052212912 0.2913615282 0.0791610324 -0.4206368546 0.0795802618 -0.4202706434 -0.061222245 0.3043287783
650296100.0 -0.0487603728 0.292138241 0.0753078803 -0.4211495534 0.0752257599 -0.4209216212 -0.057506566 0.3050589696
655296070.0 -0.0458127775 0.2923804999 0.0702943513 -0.4215811388 0.0702251484 -0.4218281968 -0.0542186904 0.3058763626
660296040.0 -0.0431470558 0.2932781643 0.0656026635 -0.4221130949 0.0659594248 -0.4222875836 -0.0515002789 0.3064780733
665296010.0 -0.0396358044 0.293767881 0.0613284737 -0.4226627487 0.0616933073 -0.4230922075 -0.0483429178 0.3074633353
670295980.0 -0.0363534066 0.2944085543 0.0566289727 -0.4239303886 0.0569486762 -0.4238402839 -0.0458250479 0.3079164886
675295950.0 -0.03328462 0.2946059901 0.0520893657 -0.4242497294 0.0522947782 -0.4246716613 -0.0417612844 0.3086460089
680295920.0 -0.0302742098 0.2957821112 0.0473288125 -0.4247617155 0.0471929744 -0.4249111419 -0.0384987173 0.3090878187
685295890.0 -0.0271537688 0.2958688382 0.0430956404 -0.425573008 0.0428202388 -0.4253869735 -0.0357000655 0.3095935844
690295860.0 -0.0237080028 0.2965102129 0.0385419463 -0.4254953349 0.03791265 -0.4258271712 -0.0320675146 0.3101714365
695295830.0 -0.0204519874 0.2965572178 0.0328937989 -0.425907019 0.0334286044 -0.4261154042 -0.0289064015 0.3108562501
700295800.0 -0.0175618095 0.2970502381 0.0285605144 -0.4262581511 0.0289183843 -0.426515005 -0.0257528711 0.3107980154
705295770.0 -0.0140932622 0.2976742406 0.0242410732 -0.4267847909 0.0244885555 -0.4267854972 -0.0226740422 0.3113342277
710295740.0 -0.011213413 0.2978796447 0.0197096831 -0.4266094687 0.0197345303 -0.4265226093 -0.0197905587 0.3121238462
715295710.0 -0.0082874725 0.2979479533 0.0150576332 -0.4267688922 0.0152626054 -0.4268473578 -0.0158697517 0.3118924033
720295680.0 -0.0053850715 0.2980848658 0.0103093688 -0.4268651442 0.0105613734 -0.4274765166 -0.0124669454 0.3123878302
725295650.0 -0.0014462568 0.2982596426 0.0052325462 -0.4266357573 0.0057312577 -0.4272301114 -0.0092028083 0.3129408693
730295620.0 0.0012761879 0.2984935162 0.0009009307 -0.426853888 0.0011218565 -0.427374867 -0.0062668333 0.3125267172
735295590.0 0.0049113811 0.2985638921 -0.003481509 -0.4269018856 -0.0033078617 -0.4272203539 -0.0027382308 0.3130003292
740295560.0 0.007682147 0.2989976968 -0.0081469001 -0.4264240076 -0.0082478157 -0.4270793031 0.0005309991 0.3130844738
745295530.0 0.0110400339 0.2987943332 -0.012662115 -0.4263485157 -0.0125601619 -0.4271326708 0.0034413828 0.3133644409
750295500.0 0.0138854398 0.2986840247 -0.0170759243 -0.4261171549 -0.0174543632 -0.4262381286 0.0069666242 0.3128509749
755295470.0 0.017374049 0.2989613091 -0.0218549488 -0.4260870769 -0.0216588987 -0.4265066433 0.0099259608 0.3134363395
760295440.0 0.0205332619 0.2988542817 -0.0266016884 -0.4261638041 -0.0265651705 -0.4260014129 0.012977024 0.3132557113
765295410.0 0.0233237957 0.2986441579 -0.0309463984 -0.4253373954 -0.0310784829 -0.4258777167 0.0171388295 0.3135789101
770295380.0 0.0266800947 0.2985964429 -0.0356380013 -0.4249380674 -0.0357434469 -0.4254963093 0.0205865255 0.3132611186
775295350.0 0.0297838118 0.2987360257 -0.0402133091 -0.4245603104 -0.0403417255 -0.4248279571 0.0228706025 0.3130611561
780295320.0 0.0331145719 0.2984821987 -0.044601644 -0.4244638332 -0.0446597346 -0.4245063634 0.0262072154 0.3132889526
785295290.0 0.0362714983 0.2985438577 -0.049424576 -0.4235935443 -0.0493773567 -0.4237607371 0.0294753404 0.3130714923
790295260.0 0.0394155099 0.2983027408 -0.0543198533 -0.4237154244 -0.0538025775 -0.4234508738 0.0330209641 0.3128098983
795295230.0 0.0426225872 0.2980708865 -0.0584358853 -0.4225601215 -0.0584227775 -0.4226593942 0.0364434844 0.313103841
800295200.0 0.0460501224 0.2977407901 -0.0635903915 -0.4218427398 -0.0634643807 -0.4221298588 0.0393419766 0.3125915544
805295170.0 0.048768172 0.2971493054 -0.0676455045 -0.4207341688 -0.0676539416 -0.4208411534 0.0422083056 0.3119805895
810295140.0 0.0520004258 0.2966286114 -0.0719073681 -0.4198005612 -0.0725298902 -0.4206945613 0.0459083798 0.3122486425
815295110.0 0.0551660157 0.2962142701 -0.0766203929 -0.4189323845 -0.076825435 -0.4195071534 0.0490536998 0.3115455082
820295080.0 0.0584781613 0.295842506 -0.0812425628 -0.4185572015 -0.081202027 -0.4188209723 0.0525238018 0.3114211722
825295050.0 0.0615543449 0.2953104292 -0.0857295794 -0.4172782152 -0.0859167841 -0.4177141993 0.0558851544 0.3109490012
830295020.0 0.0644471169 0.2950642402 -0.0904685113 -0.4163804247 -0.0904482311 -0.4167294901 0.058607838 0.3101371126
