!Created with skrf (http://scikit-rf.org).
# Hz S RI R 50.0 
!freq ReS11 ImS11 ReS21 ImS21 ReS12 ImS12 ReS22 ImS22
300000.0 -0.2401495826 -0.087269231 0.471230039 0.0606659939 0.4699510914 0.0554112726 -0.2373333529 -0.0962173691
5299970.0 -0.2449360401 0.0065669256 0.4748194024 0.0049711186 0.4747915871 0.004877796 -0.241160831 0.0075576679
10299940.0 -0.2416344656 0.0179406648 0.4767484654 0.0061860438 0.4768652192 0.0061516384 -0.237815365 0.0205786686
15299910.0 -0.2374300497 0.0270340528 0.4803135905 0.0071487329 0.480502283 0.0076631792 -0.2332432796 0.0301687653
20299880.0 -0.2328601653 0.033985904 0.4850041716 0.0085287376 0.4847477726 0.0081246067 -0.2278464365 0.0379338628
25299850.0 -0.2277614026 0.0403160958 0.4900590823 0.0072106231 0.4900236019 0.0071367805 -0.2219097513 0.0443724642
30299820.0 -0.2224797858 0.0449760893 0.4953087749 0.0053608937 0.4956997339 0.0051191728 -0.2163596253 0.0501063398
35299790.0 -0.2173429807 0.0491022277 0.501179587 0.0012459369 0.5007580088 0.0014402363 -0.2105016412 0.0543870906
40299760.0 -0.2124949091 0.052607997 0.5055992277 -0.0024860848 0.5058520097 -0.002369579 -0.2054824483 0.0572632483
45299730.0 -0.2077738442 0.0550604113 0.5104306543 -0.0069167327 0.5106420948 -0.006707383 -0.2001348435 0.0603580587
50299700.0 -0.2038762421 0.0567859775 0.515144987 -0.0125449286 0.5148057983 -0.0121959795 -0.1953981873 0.0624744802
55299670.0 -0.1998680761 0.0585661385 0.5184718148 -0.0189353396 0.5185686419 -0.0186984401 -0.1912697169 0.0644199375
60299640.0 -0.1961387134 0.0601487475 0.5215553898 -0.0249592521 0.522177363 -0.0246819939 -0.1873428319 0.0651281263
65299610.0 -0.192709835 0.06123216 0.5244299371 -0.0314430877 0.5247749908 -0.0311422567 -0.1839991506 0.0665680381
70299580.0 -0.1896682709 0.0623744527 0.5269826097 -0.0377578546 0.5270981807 -0.0375016532 -0.1805197659 0.0676196113
75299550.0 -0.1870246537 0.0629324566 0.5289584507 -0.0447358643 0.5288281822 -0.0449191773 -0.1777389689 0.0682743476
80299520.0 -0.1846863969 0.0634028382 0.5311926881 -0.0513858026 0.5310569861 -0.0513619978 -0.1752352624 0.0692278065
85299490.0 -0.1823469385 0.0640406534 0.5318263214 -0.058229968 0.5321374958 -0.0578450606 -0.1727960784 0.0696544382
90299460.0 -0.1802942209 0.0650020865 0.5330426874 -0.0651890623 0.5334910263 -0.0652524715 -0.1704456983 0.070484478
95299430.0 -0.1781138574 0.0653555881 0.5339689442 -0.0722495099 0.5339985187 -0.0724754492 -0.1677740609 0.0714072968
100299400.0 -0.1767917322 0.0661651114 0.534099469 -0.0789500373 0.5339891939 -0.0791637243 -0.1656891852 0.0717544894
105299370.0 -0.1749202176 0.0668569176 0.5348545454 -0.0859824 0.5349471669 -0.085952137 -0.1640787238 0.072570786
110299340.0 -0.173111965 0.0676008323 0.5347943363 -0.0923299575 0.5347909683 -0.0925509193 -0.1629702751 0.0730132413
115299310.0 -0.1719980771 0.0682132584 0.5347187925 -0.0995254053 0.5347329515 -0.0994620118 -0.1611267151 0.0741516833
120299280.0 -0.1708493903 0.0684853255 0.5344102599 -0.1062688453 0.5343578971 -0.1063101827 -0.1594325574 0.0746411327
125299250.0 -0.169454973 0.0690288817 0.5342244674 -0.1127703993 0.5342153816 -0.1126459458 -0.1585458769 0.0751955032
130299220.0 -0.168461574 0.0703240771 0.5332101676 -0.1198214373 0.5333128959 -0.1198290442 -0.156990203 0.0758320215
135299190.0 -0.1676285096 0.0710043567 0.5328936864 -0.1264438519 0.532912196 -0.1264951213 -0.1558546438 0.0771267884
140299160.0 -0.1667284179 0.0721228195 0.5322727326 -0.1331255073 0.5321590036 -0.1332015725 -0.154406222 0.0782196506
145299130.0 -0.1654443711 0.0728674883 0.5315063854 -0.1394821292 0.5306816882 -0.1394921116 -0.1537915782 0.0790410618
150299100.0 -0.1644769629 0.0739902437 0.5298810276 -0.1460597005 0.5298492879 -0.1455685237 -0.1527641976 0.0804296715
155299070.0 -0.1641358094 0.0746740703 0.5293284516 -0.1529023902 0.5285464642 -0.1527842738 -0.1515243236 0.081292155
160299040.0 -0.1627244701 0.0760804199 0.5273114535 -0.1592524414 0.5272335648 -0.1591201451 -0.1508552828 0.0822301056
165299010.0 -0.1624386547 0.0768470626 0.5258683108 -0.1658076519 0.5261771938 -0.1654231945 -0.149498387 0.0840257011
170298980.0 -0.1616115146 0.0777459041 0.5244229115 -0.17189005 0.5245794621 -0.1718482946 -0.1484885575 0.0845637673
175298950.0 -0.160831662 0.0789135932 0.522706528 -0.1780820509 0.5223307014 -0.1779960906 -0.1477514983 0.0858639777
180298920.0 -0.1599532007 0.0800844146 0.5210623446 -0.1845537373 0.520675262 -0.1843199983 -0.1464974525 0.0873765935
185298890.0 -0.1588360992 0.0809823624 0.5191294029 -0.1905884373 0.5188711709 -0.1904321637 -0.1458053796 0.0884379035
190298860.0 -0.1583312662 0.082412384 0.5171136966 -0.1967690928 0.5176275711 -0.1963983567 -0.144905521 0.0895188891
195298830.0 -0.1576736893 0.0833233935 0.5155031285 -0.2027807598 0.5154171929 -0.2025971972 -0.1436579663 0.0908522425
200298800.0 -0.1569293191 0.0845848906 0.513307822 -0.2090065678 0.5133616695 -0.2090216216 -0.1431733926 0.0924024894
205298770.0 -0.1558775334 0.0859583324 0.5106781771 -0.2155085106 0.5108514744 -0.215001237 -0.1421957291 0.0932804694
210298740.0 -0.1552399382 0.087117596 0.5085294614 -0.2208832715 0.5085965738 -0.2204730816 -0.1407719395 0.0950862606
215298710.0 -0.1550318271 0.088322866 0.5068618652 -0.2269376596 0.5064284595 -0.2271490425 -0.1403952275 0.0963898402
220298680.0 -0.1540822417 0.0891815188 0.5035309296 -0.232684438 0.5040188882 -0.2329347903 -0.1398297453 0.0975457312
225298650.0 -0.1534896014 0.0908564607 0.5016609726 -0.2387846678 0.5015459928 -0.2386916922 -0.1386821756 0.0987875502
230298620.0 -0.1525369322 0.0922095618 0.4989884748 -0.2441527788 0.4992587553 -0.2442130155 -0.137921864 0.1000583065
235298590.0 -0.1516596217 0.0937645816 0.4963254661 -0.2502262059 0.4966537704 -0.2496217618 -0.1369027458 0.1015129997
240298560.0 -0.1512310924 0.0948903192 0.4937409159 -0.2561589878 0.4936048067 -0.2559286243 -0.135626369 0.1030499413
245298530.0 -0.1504270815 0.0962623111 0.4911335895 -0.261647387 0.4908455277 -0.2617775652 -0.1346600751 0.1040768099
250298500.0 -0.1491246855 0.0977487054 0.487458736 -0.2672491426 0.4876264376 -0.2669609639 -0.1338736005 0.1055806572
255298470.0 -0.1484559061 0.0987389231 0.4845114309 -0.2726477489 0.485050992 -0.2724544646 -0.1326401234 0.1068784813
260298440.0 -0.1479816018 0.1000564273 0.4820880672 -0.2786022325 0.4820820451 -0.2780264392 -0.1313208954 0.108377885
265298410.0 -0.1466918641 0.1017900816 0.479097822 -0.2841362339 0.4792182181 -0.2835758159 -0.1301846421 0.1099981729
270298380.0 -0.145895735 0.103008685 0.476418015 -0.288806003 0.4762379834 -0.2888059301 -0.1293645817 0.1111121468
275298350.0 -0.1450064196 0.1044130809 0.4727773046 -0.294616105 0.4730706478 -0.2945746267 -0.1279679089 0.1121681569
280298320.0 -0.1439130308 0.1057538874 0.469863122 -0.29992798 0.4700269951 -0.3000480307 -0.1269829927 0.1136403334
285298290.0 -0.1430621029 0.107199896 0.4666893941 -0.3052149436 0.4665632014 -0.3052454642 -0.1256551714 0.1151376098
290298260.0 -0.1420169632 0.1084138424 0.4630637112 -0.3101154396 0.4633367076 -0.3104575806 -0.1243960505 0.1167633017
295298230.0 -0.1408824886 0.1096151359 0.4601851982 -0.3156123788 0.4598726096 -0.3156986476 -0.122892098 0.1176459903
300298200.0 -0.1403674003 0.1110155572 0.4565611325 -0.3205245887 0.4566436987 -0.3214016125 -0.121683858 0.1193239735
305298170.0 -0.1390263765 0.1120567173 0.4524731306 -0.3266337991 0.4529493584 -0.3261757636 -0.119996692 0.1203399932
310298140.0 -0.1381500569 0.1134751945 0.4492763703 -0.3313957299 0.4494403585 -0.3313236683 -0.1190683519 0.1214352203
315298110.0 -0.1371033533 0.114508786 0.4458362181 -0.336808005 0.4458526669 -0.3369658608 -0.1177851641 0.1230362869
320298080.0 -0.1358276515 0.1158356099 0.4412178749 -0.3421745288 0.4420636771 -0.3417484012 -0.1164292686 0.1244243044
325298050.0 -0.1350724318 0.1171704816 0.4381523041 -0.3471882903 0.4383736415 -0.3468026566 -0.1155996688 0.1253530764
330298020.0 -0.1339840894 0.1181799147 0.4337587551 -0.3517978187 0.4343310206 -0.351953985 -0.114337652 0.1267773316
335297990.0 -0.1331018488 0.1194389464 0.4299754935 -0.3563743093 0.4299637819 -0.3565885142 -0.1135485508 0.1283862255
340297960.0 -0.1327857886 0.1211574854 0.4254746829 -0.3612681643 0.4257937255 -0.3615826691 -0.111598192 0.1297559988
345297930.0 -0.1314921171 0.1226792976 0.4217116059 -0.3665877719 0.4215443197 -0.3662111801 -0.1105880991 0.1307655994
350297900.0 -0.1305299643 0.1235037722 0.4174610951 -0.3706566975 0.4175251173 -0.3707252327 -0.1096172744 0.1326923993
355297870.0 -0.129075239 0.1257384961 0.4131215857 -0.3754981603 0.4136434087 -0.3752029444 -0.1080979922 0.1337421215
360297840.0 -0.1280977021 0.1267556417 0.409599546 -0.379514526 0.409858916 -0.3798517809 -0.1065949068 0.1354461209
365297810.0 -0.1271261072 0.1284296489 0.4050568654 -0.384668754 0.4057700583 -0.3845169179 -0.1054661139 0.1367888158
370297780.0 -0.1257971107 0.1294293804 0.4007389037 -0.3884918382 0.4014495545 -0.3883248596 -0.1039443438 0.138256006
375297750.0 -0.1243603919 0.1310178967 0.3966376152 -0.3933462592 0.3969616799 -0.3930749783 -0.1026623194 0.1390797046
380297720.0 -0.1232302917 0.1319996173 0.3923146306 -0.3976053951 0.3924179342 -0.3970722866 -0.101286997 0.1404863647
385297690.0 -0.1223282603 0.1336283152 0.3879039107 -0.4020220504 0.3878039129 -0.4015836986 -0.0997218507 0.141796226
390297660.0 -0.1210576735 0.1346424537 0.383608998 -0.4059489105 0.383476847 -0.4056770273 -0.0983624443 0.143100127
395297630.0 -0.1197356306 0.1362272199 0.3787696261 -0.4100289777 0.3793886171 -0.4103669856 -0.0963034623 0.1443884336
400297600.0 -0.1187063421 0.1373380956 0.3739642435 -0.4146405832 0.3745789589 -0.4145285279 -0.0952133968 0.1455402571
405297570.0 -0.11737033 0.1386931283 0.3699643122 -0.4178876842 0.3701598907 -0.4180906964 -0.0938973704 0.1465287715
410297540.0 -0.1160057269 0.1399761873 0.3653482556 -0.4225712545 0.365613436 -0.4224242444 -0.0918778303 0.1483902691
415297510.0 -0.1145097831 0.1411168853 0.360589342 -0.4263719957 0.3608469751 -0.4267121013 -0.0904297194 0.149355422
420297480.0 -0.1135512934 0.1426275791 0.356290279 -0.4302390428 0.3562118001 -0.4305000553 -0.0890555285 0.1499517537
425297450.0 -0.1119007173 0.1435597986 0.3510123124 -0.4344207696 0.3518573113 -0.4340494378 -0.0874876908 0.1514141128
430297420.0 -0.1108860679 0.1447151818 0.3469320434 -0.4377138633 0.3466926722 -0.4375757527 -0.0860306612 0.1523892034
435297390.0 -0.1094212269 0.1460379743 0.3416202036 -0.4414461693 0.3417490446 -0.4417002684 -0.0836644456 0.1536515732
440297360.0 -0.1081257311 0.1473018303 0.3368304689 -0.4453989452 0.3370009081 -0.4457879278 -0.082410135 0.1545884792
445297330.0 -0.1067551568 0.1482088871 0.332098257 -0.4492880647 0.3322203185 -0.4487688669 -0.0805199628 0.1550135816
450297300.0 -0.1049758327 0.1496050526 0.3272078612 -0.4528826892 0.3271287182 -0.4527828378 -0.0789562068 0.1560927055
455297270.0 -0.1036908835 0.1507281346 0.321661238 -0.4563500767 0.3220790546 -0.4562906841 -0.0772866235 0.1571975106
460297240.0 -0.1024068263 0.1517170204 0.3169935128 -0.4596946011 0.3171843348 -0.4596994926 -0.0755209863 0.1584295646
465297210.0 -0.1005393755 0.1530361967 0.31225748 -0.4633118297 0.3121863483 -0.4631559636 -0.073712231 0.1592832773
470297180.0 -0.0992165947 0.153791487 0.3065955731 -0.4664190424 0.3068465387 -0.4667667617 -0.0716594039 0.1602930433
475297150.0 -0.0978920824 0.1548511524 0.3014173559 -0.4693187639 0.3018250052 -0.4692847689 -0.0697177513 0.1608604909
480297120.0 -0.0963070533 0.1562625619 0.2965726944 -0.4733698639 0.2962754141 -0.4732947924 -0.0679713193 0.1620591433
485297090.0 -0.0950838994 0.1571604616 0.2916352331 -0.4756033056 0.2915412941 -0.4758140587 -0.0662730173 0.1629386327
490297060.0 -0.0939254724 0.1584377479 0.2867058907 -0.4795465281 0.2866797573 -0.4791015803 -0.0644011562 0.163854411
495297030.0 -0.0920972828 0.1593214112 0.2810031535 -0.4823364925 0.2817601053 -0.4821957724 -0.0625480842 0.1649920454
500297000.0 -0.0904554878 0.1604421129 0.2755830825 -0.4849668046 0.2755033182 -0.4847604959 -0.0610262257 0.1660187231
505296970.0 -0.0888470225 0.1610348689 0.2708644819 -0.4882484918 0.2703399638 -0.4883115671 -0.0591508399 0.1667575481
510296940.0 -0.0874904288 0.1623638813 0.2649125804 -0.4911580194 0.2652988626 -0.4916738929 -0.0571831112 0.1676531681
515296910.0 -0.0858232714 0.1633010914 0.2594770734 -0.4938268302 0.2596751556 -0.4938029407 -0.055144086 0.1684009743
520296880.0 -0.0840194951 0.1643744285 0.2545704084 -0.4971664324 0.2546899692 -0.4965954112 -0.0535034945 0.168930363
525296850.0 -0.0823614751 0.1646782806 0.2486000255 -0.4992978713 0.2494058 -0.4992945108 -0.0518480992 0.1697122022
530296820.0 -0.0807839067 0.1660415375 0.2430076701 -0.5026445675 0.2436319138 -0.5022033114 -0.0496762399 0.1705598696
535296790.0 -0.0797455831 0.1668744257 0.2381575617 -0.5047732928 0.2382500118 -0.5040992142 -0.0482511375 0.1708428833
540296760.0 -0.0781682359 0.1682512326 0.2327545004 -0.5074500415 0.2322833879 -0.5075408444 -0.0462897159 0.1724012552
545296730.0 -0.0764231895 0.1688619679 0.2268814729 -0.5094299482 0.2270150768 -0.5099002408 -0.0444398802 0.1727879973
550296700.0 -0.0744021079 0.1697744044 0.2215142972 -0.5120937941 0.2213589727 -0.5124757986 -0.0425547215 0.1735748761
555296670.0 -0.0728927435 0.1707255426 0.2156265283 -0.5143827653 0.2159245355 -0.5139886826 -0.040759518 0.1743079751
560296640.0 -0.0713711695 0.1717754726 0.2104209415 -0.5169860747 0.2103597175 -0.516861167 -0.0385949341 0.1748009311
565296610.0 -0.0695269731 0.1722316647 0.2045698842 -0.5190514944 0.2050684878 -0.5189563494 -0.0370267844 0.1749337927
570296580.0 -0.0683595309 0.1729820032 0.1990367011 -0.5219900847 0.1985461478 -0.5212245457 -0.0349891009 0.1759709906
575296550.0 -0.0666049979 0.1744063361 0.1933218995 -0.5235250016 0.1933232903 -0.5235638658 -0.0328113651 0.1762056751
580296520.0 -0.0647397246 0.1749090173 0.1875583096 -0.5260000911 0.1875486035 -0.5254938956 -0.0309810178 0.1768188146
585296490.0 -0.0629055511 0.1752910293 0.1817166052 -0.5270293961 0.1822486112 -0.5274355519 -0.0290672333 0.1773665367
590296460.0 -0.0609197263 0.1763557688 0.1765665417 -0.5289406129 0.176309443 -0.5293279531 -0.0276732422 0.1781328533
595296430.0 -0.0592548331 0.1770663488 0.1700559069 -0.5313267307 0.170360131 -0.5307844405 -0.0252152113 0.1778274014
600296400.0 -0.0579390807 0.1776843011 0.1644776398 -0.5331930669 0.1650415935 -0.5326983814 -0.023273326 0.1784851504
605296370.0 -0.0564026297 0.1783142892 0.1588519825 -0.5342828747 0.159050006 -0.5347103509 -0.0213135597 0.1789633244
610296340.0 -0.0543370334 0.1791127624 0.1529264408 -0.5359675493 0.1530103677 -0.5360156085 -0.0192931598 0.1791630675
615296310.0 -0.0525001044 0.179618447 0.1472454093 -0.5375613563 0.1471550813 -0.5383537277 -0.0168128078 0.1794845393
620296280.0 -0.0507445915 0.1799468889 0.1417616897 -0.538884815 0.1415127403 -0.5393306059 -0.015327141 0.1799785838
625296250.0 -0.0492747297 0.1804422922 0.1361256424 -0.5408358395 0.1356641539 -0.5412865321 -0.0127080887 0.1800384516
630296220.0 -0.0466883001 0.1814219694 0.1289862044 -0.5421045489 0.1293440644 -0.5419447357 -0.0112048643 0.1806179663
635296190.0 -0.0458965023 0.1819342079 0.1237325356 -0.5436764519 0.1238160467 -0.5435466285 -0.0089239088 0.1809722255
640296160.0 -0.0440619942 0.1827947366 0.1177253232 -0.5444327979 0.1182715736 -0.5449426983 -0.0068766044 0.1811288217
645296130.0 -0.0420076511 0.1833938397 0.1118960714 -0.5456794919 0.1127173627 -0.5459634441 -0.0050111429 0.1812600398
650296100.0 -0.0403818562 0.183533438 0.10595628 -0.5468435187 0.1064681487 -0.5470946725 -0.0024293485 0.1810188027
655296070.0 -0.0389053371 0.1840920394 0.1001345961 -0.5478790058 0.1005531244 -0.5479108225 -0.0005740589 0.1816574989
660296040.0 -0.0372646546 0.184545431 0.0943855514 -0.5492847364 0.0942477123 -0.5491561422 0.0016026116 0.182016731
665296010.0 -0.0346610226 0.1849558871 0.0882390242 -0.5500918284 0.0884702687 -0.549989139 0.0036262751 0.1823846276
670295980.0 -0.0337837309 0.1857118905 0.0821488987 -0.5508987277 0.0825953407 -0.5507875227 0.0048938228 0.1821998602
675295950.0 -0.0317311892 0.1863013361 0.0766547728 -0.5518568226 0.076867214 -0.5509870004 0.0070933208 0.1825439297
680295920.0 -0.0300400837 0.186329796 0.070594086 -0.5525027966 0.0698240728 -0.553141196 0.0093535454 0.1830583779
685295890.0 -0.028059691 0.1874951409 0.0646247736 -0.5532602781 0.0646965869 -0.5534907119 0.0113260953 0.1829963013
690295860.0 -0.0258755394 0.1875117743 0.058324328 -0.5536959929 0.0587006678 -0.5541368085 0.0131730055 0.1832694221
695295830.0 -0.0242120507 0.1878155056 0.0530773702 -0.5540754778 0.0522460871 -0.5545089482 0.0152236614 0.1828323244
700295800.0 -0.022577346 0.1881931952 0.0464715852 -0.5548842668 0.0464952787 -0.5546921067 0.0172950552 0.1830240866
705295770.0 -0.0209240397 0.1891579597 0.0404873197 -0.5553135007 0.0412312991 -0.5557593355 0.0192882221 0.1832456729
710295740.0 -0.0186571043 0.189124613 0.0349815555 -0.5560562728 0.0351717686 -0.5562800134 0.0214982344 0.1826537399
715295710.0 -0.0174083391 0.1893753495 0.0288025169 -0.5563097964 0.0288164337 -0.5561015721 0.0234521411 0.1827890058
720295680.0 -0.0153220153 0.1896050975 0.0224753003 -0.5567372627 0.0227458828 -0.5564635681 0.0254046149 0.1830638709
725295650.0 -0.0134496756 0.1901753883 0.0168988768 -0.5566862239 0.0167956248 -0.5566415764 0.0267710585 0.1830536374
730295620.0 -0.0111988775 0.190364637 0.0106525451 -0.5565602583 0.0108110759 -0.5565366783 0.0288970507 0.1822468242
735295590.0 -0.0095976494 0.1905292531 0.0048680036 -0.5568763413 0.004635249 -0.5567227264 0.0308267008 0.1821970656
740295560.0 -0.0081469684 0.1909824923 -0.0012177645 -0.5566139678 -0.0010674981 -0.5567941412 0.0335097988 0.1822821819
745295530.0 -0.0060796362 0.1911214684 -0.0071175769 -0.55619442 -0.007378172 -0.5566338375 0.035561681 0.1814737006
750295500.0 -0.0040488851 0.1913375286 -0.0128530518 -0.5560277533 -0.0128574341 -0.5564850564 0.0374423615 0.1814670637
755295470.0 -0.002354618 0.1911999314 -0.0189802623 -0.5561768542 -0.019216085 -0.5566063742 0.0396419543 0.1809567636
760295440.0 -0.0005703116 0.1914601298 -0.0252924009 -0.555985016 -0.0253437383 -0.5561173827 0.0414310368 0.1808960477
765295410.0 0.0013169665 0.1917835257 -0.0309431845 -0.5555765597 -0.0316873076 -0.5556963072 0.0435219949 0.1808105683
770295380.0 0.0031588316 0.1918270918 -0.0372909789 -0.5552203308 -0.0372469222 -0.5549109263 0.0452447835 0.1797316721
775295350.0 0.0047773695 0.1914938275 -0.0435335285 -0.5546321891 -0.0425285527 -0.554925059 0.0467618805 0.1800244584
780295320.0 0.0072185844 0.191695632 -0.049510146 -0.5537294679 -0.048575534 -0.5540125415 0.0490915232 0.1789901377
785295290.0 0.0084197127 0.1915077121 -0.0552754267 -0.5531194706 -0.0550490019 -0.5534418553 0.0513914397 0.1789223577
790295260.0 0.0110806417 0.1920041012 -0.060594568 -0.5528206333 -0.0599163646 -0.5530575355 0.0537816174 0.1785187038
795295230.0 0.0126033464 0.191908005 -0.0669685724 -0.5518627542 -0.0662526499 -0.5520721331 0.0554786057 0.1782134855
800295200.0 0.0142962841 0.1919598965 -0.0737222761 -0.5512205104 -0.0728132165 -0.5512317807 0.0577736719 0.1773521012
805295170.0 0.0161708254 0.1919664171 -0.0787537801 -0.5504194576 -0.0789000638 -0.5511744576 0.059616249 0.1774931298
810295140.0 0.0179314229 0.1917643762 -0.0842883844 -0.5495323093 -0.0845269871 -0.5497001348 0.0617248864 0.1769317984
815295110.0 0.0200715981 0.1913296698 -0.0908029142 -0.5480624498 -0.0903748497 -0.5487091773 0.0630279734 0.1760427077
820295080.0 0.0214732973 0.1920339976 -0.096323327 -0.5473562983 -0.0961021306 -0.5475491506 0.0657323113 0.1756670184
825295050.0 0.0239526104 0.191727547 -0.1021142611 -0.5460025839 -0.1023364693 -0.546809878 0.0676024755 0.1749067454
830295020.0 0.0255494571 0.1918105693 -0.1080344867 -0.5451676792 -0.1083064566 -0.5452989953 0.070042029 0.1746145746
