!Created with skrf (http://scikit-rf.org).
# Hz S RI R 50.0 
!freq ReS11 ImS11 ReS21 ImS21 ReS12 ImS12 ReS22 ImS22
300000.0 -0.7730525277 -0.1547907697 -2.08501e-05 0.0003541349 8.88632e-05 0.0020303159 -0.2119885086 -0.0957463378
5299970.0 -0.7852897128 -0.0076714176 -0.0001525068 6.66034e-05 6.98235e-05 0.0001620553 -0.2160107512 0.0066958135
10299940.0 -0.7874883499 -0.0043330385 -2.34609e-05 7.71418e-05 -0.0002603638 -0.000114922 -0.2131126433 0.0187676547
15299910.0 -0.7930163462 -0.0019073635 -5.5052e-05 -5.1917e-06 -1.81208e-05 0.0001316631 -0.208204104 0.0278662373
20299880.0 -0.7994786316 0.002275299 -1.56901e-05 4.91781e-05 0.0001999205 0.0001713342 -0.2031137634 0.0356168285
25299850.0 -0.8064002034 0.0080863784 1.92321e-05 -9.64926e-05 -8.25691e-05 9.44558e-05 -0.1973902848 0.0417828041
30299820.0 -0.8118719868 0.0162190202 0.0001356468 -1.84423e-05 3.50417e-05 7.65652e-05 -0.1917636681 0.0463169361
35299790.0 -0.8167579263 0.0253497502 2.7353e-06 -4.55299e-05 -0.0002316614 0.0002364613 -0.1859718077 0.0501624833
40299760.0 -0.8213156717 0.0342944165 0.0001591658 -9.35836e-05 1.12106e-05 5.51711e-05 -0.1803995083 0.0527406234
45299730.0 -0.8246597886 0.0439479717 -6.06381e-05 0.0001661615 -6.7338e-06 0.0001880768 -0.1755088879 0.055280931
50299700.0 -0.8267316053 0.0547722446 5.9753e-06 -5.74653e-05 2.49596e-05 -0.0001579005 -0.170573322 0.0565457889
55299670.0 -0.8284783048 0.0642874414 0.0001635918 1.51928e-05 5.338e-07 8.25957e-05 -0.166427514 0.0579468577
60299640.0 -0.8300385019 0.0743238551 5.37268e-05 5.28273e-05 -0.0001000393 2.48266e-05 -0.1624291132 0.0587134332
65299610.0 -0.8307347921 0.0846710734 3.57175e-05 -0.000132953 0.0002192417 8.1801e-06 -0.1586190898 0.0590710857
70299580.0 -0.8310906108 0.094655165 -8.45889e-05 -0.000182935 0.0001168045 -2.45667e-05 -0.1555570691 0.0594541947
75299550.0 -0.8312537989 0.104871815 0.0001792521 8.89761e-05 1.99666e-05 6.05584e-05 -0.1524664821 0.0596701664
80299520.0 -0.8309346068 0.1145777442 -0.0001196236 -3.70643e-05 -2.99627e-05 0.0002397978 -0.1501093109 0.0596869168
85299490.0 -0.8304583303 0.1237955734 -0.0001744569 7.013e-06 -3.32073e-05 -3.0709e-05 -0.1479259684 0.0595996362
90299460.0 -0.8294997455 0.1338950831 0.0001154724 -0.0001010623 3.55908e-05 0.0001343556 -0.1453576176 0.0596432755
95299430.0 -0.8286505768 0.1439063928 -5.22609e-05 -2.9612e-06 8.01e-06 3.03556e-05 -0.1435733117 0.059653234
100299400.0 -0.8277174666 0.1529947716 3.29459e-05 0.0002297049 -2.83803e-05 6.59938e-05 -0.1418343642 0.0594434348
105299370.0 -0.8265366902 0.162721852 3.40495e-05 -6.57635e-05 0.0001243076 0.0001116487 -0.1399728991 0.0592714411
110299340.0 -0.825709319 0.1712121039 0.0001487403 0.0002576112 -5.20312e-05 -0.0001499632 -0.1388843645 0.0599111068
115299310.0 -0.8232322679 0.180181952 0.0001964913 -3.27785e-05 -2.399e-06 -1.87812e-05 -0.1374409676 0.0592240823
120299280.0 -0.8221124972 0.1896319113 0.000172938 -0.0002247743 0.0001546253 0.0001401926 -0.1362920685 0.0595986256
125299250.0 -0.8203525673 0.1990490593 3.8561e-05 -1.21048e-05 6.21492e-05 0.000172405 -0.1350540293 0.0593040354
130299220.0 -0.8183420964 0.2070581024 0.0002688741 7.95608e-05 5.8563e-06 5.4679e-06 -0.1342904087 0.0598153762
135299190.0 -0.8162534542 0.2163606595 -2.29736e-05 -1.42776e-05 1.03736e-05 0.000143927 -0.1334973126 0.0597059466
140299160.0 -0.8147211759 0.225302972 9.98587e-05 0.0003041088 -5.40998e-05 0.0001037735 -0.132301686 0.0596989806
145299130.0 -0.8123698235 0.2344524041 -0.0002140622 0.0002717828 1.91575e-05 5.92889e-05 -0.1318835154 0.0603701049
150299100.0 -0.8097462026 0.2429063067 3.52867e-05 4.15207e-05 -2.92597e-05 7.66649e-05 -0.130878328 0.0601691623
155299070.0 -0.8079937365 0.2526203591 -0.0001234072 0.0001930673 0.0001249045 9.31698e-05 -0.1305706798 0.0609542839
160299040.0 -0.8052167988 0.2609355634 9.541e-06 5.75434e-05 0.0001229601 0.0001941792 -0.1295822746 0.0613008335
165299010.0 -0.8017432254 0.2690292205 -4.9318e-05 -0.0001247361 4.92687e-05 -0.0001847387 -0.1291768921 0.0615587273
170298980.0 -0.799533707 0.2783233909 -2.56027e-05 5.55865e-05 0.0001903119 -0.0001122162 -0.1283414505 0.0624914554
175298950.0 -0.7966754259 0.2873557688 7.95448e-05 7.99655e-05 -0.0001944523 -0.0001153027 -0.1280662402 0.062519095
180298920.0 -0.7934568254 0.2951571942 -5.71388e-05 -6.1163e-06 0.0001606722 -8.48781e-05 -0.1271397995 0.0633276508
185298890.0 -0.7909466229 0.3042738255 -0.000114291 1.76817e-05 7.88381e-05 3.18521e-05 -0.1269679905 0.0634793608
190298860.0 -0.7878201797 0.3121061023 -4.86298e-05 8.67726e-05 0.0001159624 -0.0001345113 -0.1259130429 0.0642912501
195298830.0 -0.7841489058 0.321039697 2.07397e-05 2.07857e-05 -4.48727e-05 0.0001804655 -0.1258286363 0.0646558268
200298800.0 -0.7807786419 0.329793184 -0.0001487911 -2.74351e-05 0.000129856 8.78255e-05 -0.1249518209 0.0655295354
205298770.0 -0.7772238256 0.3371112245 0.0001579734 2.62166e-05 7.00269e-05 -3.89729e-05 -0.1245307132 0.0662896761
210298740.0 -0.7734427987 0.3459221418 -0.0001391914 -0.0001271374 -5.92923e-05 3.83319e-05 -0.124286698 0.0671756588
215298710.0 -0.7702932575 0.3546002135 7.16816e-05 4.37106e-05 9.30652e-05 8.59956e-05 -0.1242580117 0.0679902948
220298680.0 -0.7670384427 0.3625484846 0.0001725927 0.0001871307 0.0001330967 0.0001639102 -0.1229451742 0.0687064629
225298650.0 -0.7627360568 0.3711445297 -1.38259e-05 -0.0001032982 -1.16708e-05 3.65617e-05 -0.1227860123 0.0695974013
230298620.0 -0.7588084085 0.3787078404 -9.8883e-05 5.1419e-06 6.77797e-05 2.37615e-05 -0.121987798 0.0705372859
235298590.0 -0.7544116021 0.3870477833 -3.41941e-05 -6.51e-07 4.63058e-05 -1.32518e-05 -0.1217785726 0.0709926796
240298560.0 -0.7506881755 0.3953374721 0.0002324547 -9.58363e-05 2.76224e-05 0.0001427417 -0.1210164258 0.0721769779
245298530.0 -0.7462608117 0.4032596739 0.0001634803 4.01903e-05 -1.45864e-05 4.9928e-05 -0.1205003157 0.0730349628
250298500.0 -0.7425179948 0.4105979637 0.0001688308 0.000128835 1.50427e-05 0.0001182095 -0.1199078785 0.0742791806
255298470.0 -0.7376976254 0.4189985135 -0.0002515268 8.96681e-05 -3.79003e-05 0.000128242 -0.1193636846 0.0746621326
260298440.0 -0.733625516 0.4255880759 1.4485e-06 0.0002792842 0.0002668123 0.0002560936 -0.1188966605 0.0758482813
265298410.0 -0.7289903134 0.4338739466 6.70815e-05 -2.07273e-05 9.06274e-05 0.0001831881 -0.1183884721 0.0767685881
270298380.0 -0.7241440165 0.4416753353 0.0001721929 0.0004282853 -0.0001218967 7.4315e-06 -0.1177490222 0.0776681309
275298350.0 -0.7190431116 0.4490622851 0.000162727 0.0001133742 0.0001460977 0.0001862516 -0.117031329 0.0788721555
280298320.0 -0.7150220543 0.4566641286 0.0001276691 0.0001324579 0.0001280627 0.0001283665 -0.1165165485 0.079739717
285298290.0 -0.7098440698 0.4649647398 1.66537e-05 2.80279e-05 4.59609e-05 -0.0001459167 -0.1158392978 0.0808290705
290298260.0 -0.7052035612 0.4719044488 0.000236053 0.0001252474 -1.17081e-05 5.21659e-05 -0.1148189926 0.0820071152
295298230.0 -0.7003058766 0.479376982 -3.86243e-05 -5.04277e-05 4.0987e-05 8.7322e-05 -0.1145924799 0.082929236
300298200.0 -0.6942692467 0.4866829008 -8.38201e-05 0.0001976332 9.32961e-05 0.0001956982 -0.1140660848 0.0842479172
305298170.0 -0.6900425098 0.4947982703 0.0001145642 -8.27839e-05 0.0001900487 0.000327374 -0.113005987 0.0852372294
310298140.0 -0.6846883434 0.500812919 -2.15236e-05 0.0002557148 0.0002145982 -0.0001224436 -0.1120638512 0.0862903639
315298110.0 -0.6791437819 0.507965604 0.0002476571 0.0002102064 -0.0002118417 -5.983e-06 -0.1112666127 0.0872863761
320298080.0 -0.6740402987 0.5155794614 0.0001549342 3.38995e-05 0.0001372574 2.44071e-05 -0.1107198444 0.0883094355
325298050.0 -0.6685613286 0.522257112 9.62915e-05 -2.87641e-05 0.0001207244 -0.0002296415 -0.11022793 0.0892220469
330298020.0 -0.6628123737 0.5290514896 0.0001669895 0.0002163618 1.24886e-05 4.68763e-05 -0.1093518887 0.0901367946
335297990.0 -0.6571240782 0.5361352348 0.0001667575 0.0001717705 0.0001063803 0.0001232153 -0.1090827053 0.0914389306
340297960.0 -0.652145068 0.5426785811 3.61823e-05 3.24382e-05 -4.65651e-05 -4.79309e-05 -0.1083034 0.0923606802
345297930.0 -0.6463087225 0.5490050122 0.0002228851 -6.9528e-05 5.28504e-05 -0.0001071895 -0.1080046392 0.0936460677
350297900.0 -0.6402641419 0.5558600952 6.40542e-05 6.26665e-05 0.0002441332 0.0001711317 -0.1069703474 0.0946427683
355297870.0 -0.6347395006 0.5629442314 -6.95014e-05 0.0002574903 9.57384e-05 -2.03113e-05 -0.1064449797 0.0958630469
360297840.0 -0.6287428194 0.5690636606 -8.3388e-06 4.86028e-05 0.0002488127 0.0001279711 -0.1056701799 0.0972484652
365297810.0 -0.6220979856 0.5759908116 6.64073e-05 -0.0001114994 -6.9858e-06 -1.5105e-06 -0.105000859 0.0982673027
370297780.0 -0.6162251441 0.5816808641 -4.22091e-05 0.00027237 0.000272356 0.0001273479 -0.1043212159 0.09957199
375297750.0 -0.6102343975 0.5878972264 0.0001785824 -1.31418e-05 7.10098e-05 0.0001512427 -0.1032605045 0.1005750889
380297720.0 -0.6038469937 0.5945380586 0.0001729623 -5.96179e-05 7.4067e-05 0.0002023798 -0.1024670127 0.1020546151
385297690.0 -0.597886177 0.6011274761 0.0003253019 -1.65427e-05 0.0001575446 -4.47481e-05 -0.1019071995 0.1035647002
390297660.0 -0.591543157 0.6075218878 0.0002956894 0.0002941043 0.000136247 0.0001549122 -0.1011202994 0.1043076199
395297630.0 -0.585763135 0.6134283892 0.0001247257 7.15691e-05 0.0001272211 -3.7151e-06 -0.1002273817 0.1054139918
400297600.0 -0.5788524172 0.6190489412 -6.84892e-05 -4.92285e-05 0.0001696855 5.9503e-06 -0.0994425846 0.1066298642
405297570.0 -0.5728503869 0.6251846728 1.5844e-05 -6.298e-07 2.07762e-05 8.19679e-05 -0.0989894477 0.1079230197
410297540.0 -0.5657183663 0.6311340904 0.0003778039 -0.0001760623 9.0208e-05 1.71573e-05 -0.0977770622 0.1091636378
415297510.0 -0.5590909261 0.6369208825 0.0003046389 4.41694e-05 0.0002224529 0.0001671965 -0.0971839686 0.1104875635
420297480.0 -0.552272293 0.6423964067 2.75776e-05 -0.000159351 4.71611e-05 0.0001973619 -0.0961404017 0.1112172104
425297450.0 -0.5455244663 0.6479603581 9.31635e-05 8.66703e-05 0.0001805467 0.0003369099 -0.0950999738 0.1125348814
430297420.0 -0.5394774725 0.6531614018 0.0001638537 -4.20797e-05 0.0001316609 0.000177006 -0.0941608615 0.113516178
435297390.0 -0.5320539413 0.6588985169 0.0002628045 -2.53345e-05 8.1037e-05 4.03195e-05 -0.0931517115 0.1144746719
440297360.0 -0.5252105845 0.6644088636 -4.02657e-05 -5.66891e-05 6.49848e-05 9.51286e-05 -0.0924754445 0.1158436571
445297330.0 -0.5188254742 0.669889354 0.0003285175 -0.0001454813 0.0001061751 -6.29682e-05 -0.0915486154 0.1168277225
450297300.0 -0.5115939683 0.6745730855 0.0001582026 -4.8543e-05 0.0002756062 -3.49254e-05 -0.0908229322 0.1178508031
455297270.0 -0.504290717 0.6803864665 2.2863e-06 9.7844e-05 0.0001256691 0.0001923984 -0.0893984541 0.1186536975
460297240.0 -0.4974378528 0.685453457 0.0002927824 2.02795e-05 0.0001839135 0.0001339775 -0.0883982106 0.1199757864
465297210.0 -0.4897290176 0.6900041076 7.47033e-05 0.0001308363 0.0002977961 4.9438e-05 -0.0876701147 0.120813103
470297180.0 -0.4829449142 0.6943759756 3.28116e-05 6.59657e-05 0.0002376249 0.0001167663 -0.0871944259 0.1221349651
475297150.0 -0.4759328562 0.7004669849 0.0002618382 0.0001705329 6.63976e-05 8.5495e-06 -0.0855097675 0.1231156334
480297120.0 -0.4686888313 0.7043590802 0.0003178291 -4.79235e-05 8.02245e-05 9.2893e-05 -0.0845390464 0.1244190527
485297090.0 -0.4607570548 0.7095299696 0.0002377469 0.0003284633 0.0001189746 9.57233e-05 -0.0836786452 0.1249789743
490297060.0 -0.4541953106 0.7140301328 0.0002716478 5.8813e-06 0.0001511761 -9.7094e-06 -0.0828663237 0.1261957698
495297030.0 -0.4472834924 0.7188908849 -2.29486e-05 -1.82372e-05 6.11197e-05 -4.74174e-05 -0.0813060989 0.1268219737
500297000.0 -0.4385011951 0.7236568914 0.0002945665 5.03543e-05 -3.12814e-05 1.87587e-05 -0.0804558738 0.1280867339
505296970.0 -0.4312152697 0.7270637248 0.0002491417 -7.78449e-05 0.0002004288 0.0001357582 -0.0796870109 0.1291283372
510296940.0 -0.4244620138 0.7317549815 0.0002041246 0.0002847247 0.0001437121 0.000123075 -0.0780850165 0.1299469265
515296910.0 -0.4169716267 0.7364644012 0.0002368332 -0.0001135374 0.0001319909 4.21843e-05 -0.0772679011 0.1308570861
520296880.0 -0.4088040465 0.7410122393 0.0001609693 0.0001353027 0.0002949469 5.1779e-05 -0.0761711119 0.1320021129
525296850.0 -0.4018175175 0.7442915117 0.0003401191 0.0001151079 0.000298688 -8.50194e-05 -0.0748567552 0.1327186616
530296820.0 -0.3938145169 0.7478542631 0.0003311372 1.92127e-05 0.0001822499 0.0001382586 -0.0742337335 0.1337298734
535296790.0 -0.3858308515 0.7521757325 0.0003229105 -3.84527e-05 0.0002320844 9.63162e-05 -0.0729675827 0.1343472392
540296760.0 -0.3780397486 0.7558590109 0.0003334562 6.80593e-05 0.000213966 -7.9117e-05 -0.0716935015 0.1355628154
545296730.0 -0.3712262933 0.7595557815 0.0002065712 9.54741e-05 0.0001483102 -4.86518e-05 -0.0707100415 0.13625832
550296700.0 -0.3630591314 0.7633468593 0.0001563572 0.0001238762 0.0003293756 -7.08238e-05 -0.0694687602 0.1371344985
555296670.0 -0.3545291957 0.7670960056 0.0002057079 3.79851e-05 0.0002552582 0.0002477516 -0.0682535218 0.1380473942
560296640.0 -0.3468416693 0.7707025659 0.0003276801 0.000167028 0.0002545592 -3.47031e-05 -0.0669457495 0.1388925467
565296610.0 -0.3399776678 0.7738228758 0.0002414769 -7.08934e-05 0.0003344177 0.0002017154 -0.0658260139 0.139720457
570296580.0 -0.3319619587 0.7773629641 0.0001956139 0.0001141428 0.000179155 9.59497e-05 -0.064472957 0.1408846534
575296550.0 -0.3233254393 0.7807319066 1.25546e-05 -1.56301e-05 0.0002755499 0.0001112045 -0.0632152565 0.1413775289
580296520.0 -0.3152091084 0.7841340396 0.000365887 0.0001496642 0.0001441778 0.0001201895 -0.0621252439 0.1422847694
585296490.0 -0.3076484216 0.7866531484 0.0003322076 -4.23521e-05 0.0003568776 3.49277e-05 -0.0611726446 0.1426968512
590296460.0 -0.2995200561 0.7897816277 0.0003416887 7.69572e-05 0.0001146052 0.0001045811 -0.0595004334 0.1435917011
595296430.0 -0.291623392 0.7930698977 0.0003508182 1.63426e-05 0.0003404456 0.0001758737 -0.0584484788 0.1441598008
600296400.0 -0.2832964787 0.7960109059 0.0003071304 -0.0001301054 0.0002282706 0.000128035 -0.0569773432 0.1454156708
605296370.0 -0.2754626059 0.7989717572 0.0003048241 0.0001256966 -8.7449e-06 2.22024e-05 -0.0558165943 0.1463499561
610296340.0 -0.2672246481 0.8014494033 7.70677e-05 4.87624e-05 0.0002200314 0.0002253602 -0.054637814 0.1468368741
615296310.0 -0.2591452086 0.8042393995 0.00014777 0.0001469284 9.26488e-05 -2.87711e-05 -0.0533663136 0.1474418388
620296280.0 -0.2506606548 0.8062138609 0.0001724473 0.000139671 0.0001428367 -6.35809e-05 -0.0522463895 0.1479541352
625296250.0 -0.2426689281 0.8089034641 0.000437553 3.82644e-05 0.0002493309 0.0001823388 -0.0507709485 0.1488450255
630296220.0 -0.2338290089 0.8117541196 0.000149832 1.51787e-05 0.0001634748 -0.0001613993 -0.0497079979 0.1498342251
635296190.0 -0.2262947834 0.8141002053 0.0003525778 -1.77476e-05 0.0001360502 0.0002030421 -0.0483524099 0.1503606665
640296160.0 -0.2182054077 0.8147953495 0.0001652211 -3.05199e-05 0.0001064683 0.0001816092 -0.046650874 0.1508887595
645296130.0 -0.2099782685 0.8179142464 0.0002383033 -3.33651e-05 0.0002378348 2.0549e-05 -0.0457292328 0.1513591773
650296100.0 -0.2015537971 0.8200872466 0.0003055698 3.39914e-05 4.90722e-05 0.0001389151 -0.0443195972 0.1522156735
655296070.0 -0.1929432555 0.8218830537 4.83536e-05 -0.0001605795 5.14278e-05 -2.63546e-05 -0.0427651144 0.153139441
660296040.0 -0.1856992218 0.8245690634 0.0002438442 6.17593e-05 4.7583e-05 2.50598e-05 -0.0416096208 0.153615684
665296010.0 -0.1771241224 0.8259629159 9.30419e-05 6.17577e-05 0.0004085265 8.57971e-05 -0.0403154107 0.1541240649
670295980.0 -0.1676310572 0.8272235381 0.0002681623 -1.1464e-05 0.0002635088 0.0001147835 -0.0387644028 0.15465031
675295950.0 -0.1597367021 0.8281625525 0.0001620596 -4.68275e-05 0.0002387337 -3.66091e-05 -0.0373132489 0.1555117323
680295920.0 -0.151542318 0.8305348601 0.0001334766 -6.28079e-05 0.0002592175 -8.36304e-05 -0.0359620852 0.155802968
685295890.0 -0.1427168448 0.831912022 0.0001967527 0.0001654835 0.0002094194 -5.49648e-05 -0.0344770655 0.1563646573
690295860.0 -0.1346696834 0.834089445 0.0004009883 4.5509e-06 0.0003900283 8.27995e-05 -0.0328397489 0.1568738271
695295830.0 -0.125951764 0.8341545257 0.0002757619 -4.24775e-05 0.0001476837 -0.0001624341 -0.0318532032 0.15767852
700295800.0 -0.117748551 0.835849689 0.0002430035 -5.47343e-05 0.0001797192 0.0001039895 -0.0304557001 0.1575365258
705295770.0 -0.1088958891 0.8371866396 9.09868e-05 -5.36015e-05 0.0002071161 0.0001391391 -0.0291713861 0.1584745778
710295740.0 -0.1009706969 0.8380062472 0.0002646481 -0.0001194584 0.0001099326 -0.0002214982 -0.0279026075 0.1591495145
715295710.0 -0.0927672504 0.8391065845 0.0001975614 2.48205e-05 0.0002690748 1.94612e-05 -0.0262337697 0.1592776747
720295680.0 -0.0840225608 0.8399316022 0.0003233288 0.0001042293 0.0004831211 5.12424e-05 -0.024522634 0.1600766051
725295650.0 -0.0750112993 0.8409300423 0.0002498445 -0.0001637097 5.65039e-05 0.0001525739 -0.02322826 0.1602205432
730295620.0 -0.0676771728 0.8412464383 0.0001607537 -0.0003203758 0.0003789893 -5.56302e-05 -0.0216159435 0.1607858193
735295590.0 -0.0581434091 0.8420145005 0.0002944479 -0.000102984 0.0003482989 -6.3595e-06 -0.0201515812 0.1609401787
740295560.0 -0.0500108814 0.8429053685 0.0004391461 8.30162e-05 0.0002160237 -0.0001667114 -0.0188460939 0.161215536
745295530.0 -0.0416974923 0.8426418109 0.0002033792 3.1635e-06 0.0003149102 6.45062e-05 -0.0175120591 0.1620297147
750295500.0 -0.0336857446 0.8432629875 0.0002218021 -7.25526e-05 0.0003986426 2.46629e-05 -0.0158076476 0.1618509392
755295470.0 -0.0244513096 0.8432502967 0.000387609 -9.23565e-05 0.0002188091 -0.0001555063 -0.0145331729 0.1627270277
760295440.0 -0.0156554615 0.8431809096 0.0001311004 5.5514e-05 0.0001736035 -8.2044e-05 -0.0132606109 0.1627591442
765295410.0 -0.0076808703 0.8431363021 0.0001590869 -6.25605e-05 0.0004797403 -0.0001189969 -0.0113747955 0.1632943313
770295380.0 0.0006781175 0.8441938429 0.0003327409 -9.94093e-05 0.0003520966 -1.07215e-05 -0.00992007 0.1635166381
775295350.0 0.008711567 0.8441532632 0.0003142244 -0.0001050386 0.0001881937 -0.00011374 -0.009083096 0.1635453002
780295320.0 0.0180966448 0.8433788292 0.000230323 -0.0001326141 0.0001598753 1.92993e-05 -0.0070495234 0.1640674122
785295290.0 0.0260432586 0.8434828351 0.0002152679 -9.29751e-05 0.0003918182 -0.0002238552 -0.0057155098 0.1643682014
790295260.0 0.0343446352 0.8430690414 0.0002820045 -0.0001215846 0.000430346 -3.33024e-05 -0.0039023742 0.1645483571
795295230.0 0.042896079 0.8433872258 0.0001181435 -0.000186588 0.0003973072 -8.8863e-05 -0.0024028428 0.1650163167
800295200.0 0.0515229137 0.8428072379 0.0002992654 -0.0001550392 0.0003279636 8.11143e-05 -0.0009146045 0.164915844
805295170.0 0.0602711801 0.841640148 0.0001868951 -3.4813e-05 0.0003630833 -5.6255e-06 0.0003020725 0.1653343574
810295140.0 0.068082676 0.8413635902 0.000554912 -3.09176e-05 0.0004222243 0.0001245207 0.0022033186 0.1656237959
815295110.0 0.0767425588 0.8403737354 0.0002782445 7.3904e-06 0.0002217595 8.04689e-05 0.00374571 0.1658411474
820295080.0 0.0851551468 0.8390108316 0.0003922353 2.8433e-06 0.0003205179 7.88977e-05 0.0049912199 0.1657512916
825295050.0 0.0937800463 0.8387723375 0.0002696892 5.4307e-06 0.0003329462 2.26456e-05 0.0066170944 0.1662262781
830295020.0 0.1021740987 0.838005154 0.0004564525 -4.70007e-05 0.0002397906 6.68511e-05 0.0078943895 0.1663302548
835294990.0 0.1103979552 0.837020151 0.0003978955 -5.57543e-05 0.0004096916 4.3218e-05 0.0097996141 0.1661942334
840294960.0 0.1184606421 0.8353105629 0.0001700605 -0.0001096776 0.0002416513 6.1765e-05 0.011315293 0.1662851941
845294930.0 0.1273234736 0.8341768931 0.0003543641 8.56064e-05 0.0001980657 4.46541e-05 0.0130305439 0.1668182966
850294900.0 0.1350486479 0.8323340021 0.0001705344 -0.0003256948 0.0002474783 -0.0001196217 0.0143336112 0.1667220544
