!Created with skrf (http://scikit-rf.org).
# Hz S RI R 50.0 
!freq ReS11 ImS11 ReS21 ImS21 ReS12 ImS12 ReS22 ImS22
300000.0 -0.3206783359 -0.0804935555 0.3763565702 0.0410731978 0.3736307268 0.0418582739 -0.3209399928 -0.0980408926
5299970.0 -0.3264731463 0.0042266214 0.3784143542 0.0024729527 0.3784093521 0.0026607267 -0.3241902809 0.0045412433
10299940.0 -0.3242003667 0.013309656 0.3796825983 0.0020356038 0.3797299809 0.0020355898 -0.3218347067 0.0160191924
15299910.0 -0.3215317018 0.0205663208 0.3819289031 0.0020651361 0.381743897 0.0022692476 -0.3184813098 0.0236810951
20299880.0 -0.3189452806 0.0259671371 0.3850769555 0.0018790318 0.3849257793 0.0018307791 -0.315067406 0.0300819407
25299850.0 -0.3155949622 0.0313006611 0.3878767892 0.0002084622 0.3881808223 0.000244837 -0.3107368286 0.0359190316
30299820.0 -0.3127467209 0.0358635633 0.3913559032 -0.0020910541 0.39147776 -0.0022432916 -0.3071151525 0.0410799375
35299790.0 -0.3099812121 0.0397288281 0.3949438831 -0.0051752362 0.3948259872 -0.0053320186 -0.3037583954 0.045027424
40299760.0 -0.3073906001 0.0436683854 0.3981936143 -0.0087450543 0.3980179781 -0.008632199 -0.3001186145 0.048359773
45299730.0 -0.3045844918 0.0464524072 0.4006086669 -0.012779759 0.4011085063 -0.0124997169 -0.2970088962 0.0517506594
50299700.0 -0.3022369972 0.0494304754 0.4034328922 -0.0172078341 0.4037080996 -0.017085106 -0.2941586394 0.054588454
55299670.0 -0.3004175586 0.0521493432 0.4059790532 -0.0222043819 0.4054717934 -0.0219741642 -0.291861616 0.0571838258
60299640.0 -0.2979590366 0.0550613637 0.407551766 -0.0270093084 0.4075370369 -0.0266102311 -0.2888979871 0.0593724299
65299610.0 -0.2963223097 0.0572953371 0.4090486307 -0.0321773372 0.4090791161 -0.0319341165 -0.2872766475 0.0616963861
70299580.0 -0.2948669403 0.0600367435 0.4107018413 -0.0371679958 0.4102889617 -0.0368609556 -0.2847217922 0.0637466685
75299550.0 -0.2930935784 0.0626611766 0.4114395138 -0.0418654535 0.4111059089 -0.0420744628 -0.2829860537 0.0657614747
80299520.0 -0.2914499723 0.0649368686 0.4123161464 -0.0477254372 0.4126017589 -0.0474774057 -0.2815716258 0.0683198973
85299490.0 -0.290382035 0.0671370111 0.4128637098 -0.0525029194 0.4129824729 -0.0524224323 -0.2803301212 0.0702126929
90299460.0 -0.2890102197 0.0695590503 0.4134898888 -0.0582381311 0.4132664657 -0.0579327437 -0.2782327515 0.0720777838
95299430.0 -0.2876978526 0.0717624961 0.4136157747 -0.0632006074 0.4136801282 -0.0632376691 -0.2767377956 0.0744275482
100299400.0 -0.2864692808 0.0742461999 0.4132932832 -0.0684618523 0.4132142777 -0.0682149261 -0.2749832228 0.0759539286
105299370.0 -0.2849277024 0.0764257009 0.4135297874 -0.0735450475 0.4137843152 -0.07339026 -0.2739360501 0.0781404239
110299340.0 -0.2838863317 0.0787943732 0.413092854 -0.0783568507 0.4132385996 -0.0784615504 -0.2727532663 0.0800764242
115299310.0 -0.2827067774 0.0810426204 0.4129211415 -0.0840198761 0.4131110026 -0.0836600788 -0.2717725233 0.0824912571
120299280.0 -0.2822260046 0.0832027283 0.4123142904 -0.088785191 0.4125201327 -0.0887878366 -0.2706863917 0.0844946105
125299250.0 -0.2810419999 0.0854675136 0.4118767189 -0.0937589939 0.412166526 -0.0937345733 -0.2694771752 0.0863465546
130299220.0 -0.2806073171 0.0881141417 0.4111696529 -0.0993527945 0.4111012862 -0.0987833275 -0.268282044 0.0883385348
135299190.0 -0.279111902 0.0907643063 0.4106958633 -0.1040635931 0.4105724009 -0.1040869559 -0.2670098303 0.0912689367
140299160.0 -0.2783374094 0.0933406333 0.409685023 -0.1092941466 0.4102198018 -0.1089449443 -0.2660847423 0.0936582694
145299130.0 -0.2774583877 0.0954676029 0.4091594354 -0.1137166643 0.4083611093 -0.1139085078 -0.2654153212 0.0959805149
150299100.0 -0.2762722015 0.0981361256 0.4076574069 -0.1188141251 0.4077718929 -0.1186934555 -0.2645799715 0.0985009934
155299070.0 -0.2756654973 0.1006414843 0.4069147656 -0.12422897 0.4066263501 -0.1236109592 -0.2631489798 0.1008069776
160299040.0 -0.2747030736 0.103663065 0.4054163754 -0.128646033 0.405134545 -0.1287493664 -0.2626828721 0.1032791213
165299010.0 -0.2737456544 0.1058509586 0.4040374835 -0.1335797298 0.4044674733 -0.1338063148 -0.2611683678 0.1057632198
170298980.0 -0.2730801715 0.1084412596 0.4030477079 -0.1383624857 0.4029930674 -0.1380698103 -0.2605982267 0.1081794609
175298950.0 -0.2719460201 0.1112589852 0.4018404668 -0.143134714 0.4012677281 -0.1427359487 -0.2597999804 0.1105356787
180298920.0 -0.2710855484 0.1137909579 0.3998381678 -0.1476900038 0.3999548595 -0.1475681972 -0.2581908604 0.1132996991
185298890.0 -0.2694975857 0.1163714641 0.3985547802 -0.1524710021 0.3983889109 -0.1523040586 -0.2572378841 0.1159580505
190298860.0 -0.2686722947 0.1194425304 0.3967254001 -0.1574110997 0.3970843006 -0.157186989 -0.2562910006 0.1183270763
195298830.0 -0.2678624927 0.1219986106 0.3951701273 -0.1620482238 0.3953328831 -0.1617358434 -0.2552154758 0.1208074994
200298800.0 -0.2664402924 0.1246301779 0.3933532949 -0.1665457391 0.3938473909 -0.1663739331 -0.2545661583 0.1234203572
205298770.0 -0.2653888891 0.127356599 0.3916299103 -0.1710951073 0.3916994629 -0.170754975 -0.2529675976 0.1254396385
210298740.0 -0.2643163609 0.1296414495 0.3898134046 -0.1752026364 0.3899512866 -0.1753102225 -0.2521644305 0.1286592287
215298710.0 -0.263479878 0.1327607844 0.3880658755 -0.1803920681 0.3880711675 -0.1803445405 -0.2512850951 0.1310930855
220298680.0 -0.262141862 0.1350612698 0.3857907735 -0.18426006 0.3862278078 -0.1845773647 -0.2503408396 0.1335207409
225298650.0 -0.2609878949 0.1379175872 0.3836081616 -0.188886862 0.3839641927 -0.1890426702 -0.2488946164 0.1359004847
230298620.0 -0.259507371 0.141056688 0.3819002448 -0.1933805455 0.3824683425 -0.1930640712 -0.2477799803 0.1381790145
235298590.0 -0.2582160361 0.143879919 0.3798400507 -0.1977221721 0.3801488382 -0.1973506726 -0.2464886922 0.1410163362
240298560.0 -0.2571810624 0.1463593118 0.3779722514 -0.2023144897 0.3775915829 -0.2021426889 -0.2453188098 0.1437938254
245298530.0 -0.2555585942 0.1489069187 0.3757555822 -0.2064960583 0.3753352317 -0.2065295233 -0.2440162972 0.1457864138
250298500.0 -0.2541878206 0.1517236025 0.3726978901 -0.2110094375 0.3727565172 -0.2105625935 -0.2428119588 0.1484621954
255298470.0 -0.2528301623 0.1540177448 0.3704307237 -0.2145138322 0.3706580258 -0.2150006415 -0.2409685242 0.1507647252
260298440.0 -0.251660078 0.1568052319 0.3683802944 -0.2195093183 0.3683366841 -0.2190133119 -0.2395086625 0.1537026237
265298410.0 -0.2501218637 0.1599845996 0.3659560048 -0.2233846494 0.366485335 -0.2234998264 -0.2384281355 0.1561954768
270298380.0 -0.2487170371 0.16255716 0.3635498986 -0.2274549182 0.3639137528 -0.2274819581 -0.2369747339 0.1585758289
275298350.0 -0.2467306376 0.1649365247 0.3609630909 -0.231424179 0.3613095615 -0.2317514433 -0.2348392376 0.1609478247
280298320.0 -0.2451225848 0.1680765051 0.3586586806 -0.2360380634 0.3585747984 -0.2357151891 -0.2333940742 0.1634826733
285298290.0 -0.2436285247 0.1706909971 0.3561452503 -0.2398872705 0.3561881164 -0.2400408681 -0.2318605055 0.1659175551
290298260.0 -0.2416379317 0.1730468281 0.353178876 -0.243593167 0.3533950219 -0.2436323671 -0.2302729189 0.1684450566
295298230.0 -0.240025216 0.175915885 0.3507886139 -0.2480065901 0.3506159263 -0.2478066146 -0.2284947112 0.170927227
300298200.0 -0.238715849 0.1783285879 0.3482626508 -0.2515073724 0.3482491036 -0.2518917648 -0.2267225896 0.1735487122
305298170.0 -0.2365786169 0.1806958148 0.3450826927 -0.2558543986 0.34507667 -0.2556382217 -0.2247741424 0.1757130949
310298140.0 -0.2350177389 0.1835980995 0.3424482686 -0.2595011425 0.3425099455 -0.2597060515 -0.2231829823 0.1784762596
315298110.0 -0.2332696089 0.1856520359 0.3394893053 -0.2634346907 0.3396094362 -0.2632684077 -0.2211630913 0.1802559149
320298080.0 -0.2312685128 0.1882711217 0.3363222483 -0.2676344231 0.3366040918 -0.2670880477 -0.219558786 0.1832294273
325298050.0 -0.2291185534 0.190792681 0.3333136101 -0.27147508 0.3334231898 -0.2712218276 -0.2178355259 0.1852629034
330298020.0 -0.2277503091 0.1932318096 0.3300974002 -0.2748719155 0.3301126122 -0.2749919713 -0.216245631 0.1877855075
335297990.0 -0.2257671434 0.1955704292 0.3272543769 -0.278646313 0.3273249912 -0.2787907412 -0.2145575466 0.1906054637
340297960.0 -0.2242033291 0.1985277623 0.3239512633 -0.2822229655 0.3237078683 -0.282274732 -0.2122543263 0.1928521323
345297930.0 -0.2223663525 0.2009108367 0.3206518453 -0.2860004106 0.3207709131 -0.2861242921 -0.2105722791 0.1949070283
350297900.0 -0.2201569693 0.2030479923 0.3169941282 -0.2892306707 0.3173844095 -0.2892105234 -0.2087531914 0.198160167
355297870.0 -0.2178609922 0.2061763739 0.3141741754 -0.2927605814 0.31464003 -0.2924565221 -0.2071098536 0.2003962532
360297840.0 -0.2160246916 0.208489527 0.3113861165 -0.2961492188 0.3114222935 -0.2962332449 -0.2050793764 0.2029181368
365297810.0 -0.2143559303 0.2109416067 0.3077815799 -0.299605102 0.3080880678 -0.2996528983 -0.2028670452 0.2049950312
370297780.0 -0.2117584099 0.2131969372 0.3042907023 -0.30283658 0.3045068772 -0.3025518095 -0.2007680439 0.2074525946
375297750.0 -0.2093791659 0.2155326369 0.3007303565 -0.3063727068 0.3015551892 -0.3065227951 -0.1990660834 0.2093872164
380297720.0 -0.2076585793 0.217867919 0.2978214167 -0.3096862899 0.2977635156 -0.3090648144 -0.1971187276 0.2116391813
385297690.0 -0.2055812376 0.2202043684 0.2943474162 -0.3127685525 0.2941523494 -0.3126669412 -0.1945367385 0.2140858324
390297660.0 -0.2033145167 0.2227866653 0.2905661478 -0.3162148075 0.2906095536 -0.3156122423 -0.1926844468 0.2166751008
395297630.0 -0.2006682874 0.2252157171 0.2871647064 -0.3193380346 0.2871105474 -0.3191223297 -0.1898547725 0.2186623766
400297600.0 -0.1985120924 0.2275208659 0.2836120775 -0.3226196479 0.2838327474 -0.3225408697 -0.188175638 0.2206203272
405297570.0 -0.1963692731 0.2295065794 0.2800060774 -0.3251783011 0.2802618074 -0.3250593454 -0.1861603924 0.2226929003
410297540.0 -0.1938853405 0.2317904747 0.2769007579 -0.328404867 0.2767929213 -0.3285235128 -0.1837567955 0.2253341588
415297510.0 -0.1912272316 0.2338092555 0.2727942776 -0.3316803343 0.2728602732 -0.3315243781 -0.1812960294 0.2272053393
420297480.0 -0.1893341154 0.2366045958 0.269106252 -0.3349239931 0.2689308796 -0.3347320748 -0.1792293927 0.2292435072
425297450.0 -0.186718743 0.238243996 0.2655110273 -0.3373625324 0.265778985 -0.3375329971 -0.1770533997 0.2312773712
430297420.0 -0.184272229 0.2403434935 0.2618044435 -0.3398432677 0.2616045888 -0.3401993498 -0.1748461859 0.2331676116
435297390.0 -0.1820527703 0.242515022 0.2576073823 -0.3432810418 0.2577874456 -0.3430818544 -0.172106755 0.2351406154
440297360.0 -0.1792931396 0.2447503858 0.2540179422 -0.3457630495 0.2542695409 -0.345644263 -0.1696385731 0.2368471639
445297330.0 -0.1766389461 0.2464469766 0.2504093183 -0.3487033588 0.2503408114 -0.3483194386 -0.1669603527 0.2384975041
450297300.0 -0.1740866997 0.2482456542 0.2466282743 -0.3514700039 0.2464213759 -0.3511806267 -0.1644927614 0.2403524264
455297270.0 -0.171508065 0.2505557424 0.2424632852 -0.3539913043 0.2426757502 -0.3539771603 -0.1621240044 0.2423488572
460297240.0 -0.1693169367 0.2525476456 0.238359871 -0.3566815521 0.2386436932 -0.35648025 -0.1597608324 0.2445160575
465297210.0 -0.1661926174 0.2546581324 0.2348403018 -0.3590895503 0.2351100117 -0.3595157891 -0.1570290476 0.2458520549
470297180.0 -0.1636685605 0.2562970261 0.2306771569 -0.361644442 0.2308683847 -0.3616797049 -0.1542903366 0.2477785718
475297150.0 -0.1608638675 0.2579523148 0.2261313092 -0.3638129504 0.2266715035 -0.3636264502 -0.1514903565 0.2493054686
480297120.0 -0.1583033459 0.2603091504 0.2228038255 -0.3666261473 0.2227205592 -0.3666598266 -0.1488637032 0.251337791
485297090.0 -0.1555821826 0.2617893448 0.2189393629 -0.3686969904 0.2186870763 -0.3688456061 -0.1461397734 0.253111528
490297060.0 -0.1533466863 0.2636788433 0.2147979272 -0.3711660823 0.2148076802 -0.3711330653 -0.1435233 0.2550659483
495297030.0 -0.1502010095 0.2654109356 0.2102391081 -0.373252367 0.2109501998 -0.3735674527 -0.1413218872 0.2567199918
500297000.0 -0.1475347733 0.2672220837 0.2067740414 -0.3754245974 0.2064912096 -0.3757583019 -0.1381659865 0.2589116215
505296970.0 -0.1446472496 0.2685999987 0.2023233879 -0.3776981225 0.2023024519 -0.3779707028 -0.1356901402 0.260342007
510296940.0 -0.1417305004 0.2704223414 0.1982398773 -0.3802626534 0.197745437 -0.3801569671 -0.1325541587 0.261800812
515296910.0 -0.1387886702 0.2719775208 0.1937580811 -0.3823709168 0.1941685441 -0.3822533983 -0.1302393017 0.2633029867
520296880.0 -0.1361409965 0.2741032773 0.1897717003 -0.3847081229 0.189766206 -0.3841349374 -0.1277397662 0.2647299356
525296850.0 -0.1330787084 0.2749586987 0.1853289414 -0.3862023697 0.1859881049 -0.3863094725 -0.1246650831 0.2665576772
530296820.0 -0.1302195477 0.2768845789 0.1812809801 -0.388592306 0.1811673324 -0.38837028 -0.1213555878 0.2680252645
535296790.0 -0.1278372281 0.2783745686 0.1773448104 -0.389712636 0.1773015073 -0.3896012247 -0.1196046357 0.2692625701
540296760.0 -0.124778477 0.2799849639 0.1726778922 -0.3922957753 0.1728047201 -0.3919991728 -0.1166782518 0.2705397282
545296730.0 -0.1218972163 0.2810607268 0.1682537889 -0.3937084046 0.1683589866 -0.3938821485 -0.113941091 0.2723344639
550296700.0 -0.1184104134 0.2831121261 0.1640714411 -0.3955885781 0.1643899918 -0.395824029 -0.1108482528 0.2739571518
555296670.0 -0.1157723841 0.2838004424 0.1599763478 -0.3975746123 0.1599536339 -0.3973386784 -0.1078384942 0.2753059413
560296640.0 -0.1125254316 0.2856098032 0.1554240143 -0.3993187534 0.1554856954 -0.3992415492 -0.1050419318 0.2762074478
565296610.0 -0.110002736 0.2871080248 0.1511478116 -0.4007811096 0.1513323673 -0.4010801626 -0.1026727133 0.2774315497
570296580.0 -0.1073712335 0.2883517349 0.146701264 -0.4026902385 0.1466208767 -0.402570457 -0.0998584706 0.2792638434
575296550.0 -0.1039747853 0.2897655503 0.1425015019 -0.4043060586 0.1423668663 -0.4039048822 -0.0961832953 0.2800796152
580296520.0 -0.1006668566 0.2906048261 0.1377608037 -0.4057338617 0.1380077219 -0.4053496788 -0.0936856944 0.2809312688
585296490.0 -0.0981727605 0.2913887703 0.1336975752 -0.406502355 0.1338503241 -0.4067257702 -0.0904943428 0.2820521664
590296460.0 -0.0946841647 0.2931452761 0.1292131986 -0.4078021855 0.1295138547 -0.4079950384 -0.0879550901 0.2833924642
595296430.0 -0.0915827321 0.2938543966 0.1245729779 -0.4096803945 0.1242869498 -0.4096684442 -0.0848578327 0.2842179498
600296400.0 -0.0890091278 0.2952744138 0.1203094077 -0.4111074923 0.1202742481 -0.410425517 -0.0819725508 0.2851511667
605296370.0 -0.0858559714 0.296400209 0.1155290617 -0.4119647723 0.1158913542 -0.4124455603 -0.0787051471 0.2862864963
610296340.0 -0.0823256445 0.2973450033 0.1105179678 -0.4132981018 0.1113882027 -0.4131962171 -0.0756970688 0.2873102994
615296310.0 -0.0789598776 0.2982111506 0.1064670992 -0.414459711 0.1065084073 -0.4144610532 -0.0724484091 0.2880460678
620296280.0 -0.0764188169 0.298887265 0.1020057271 -0.4153937974 0.1023085776 -0.4153459573 -0.0696998428 0.2889973272
625296250.0 -0.0732108182 0.2997932311 0.0978403406 -0.4165000886 0.0976545234 -0.4166878665 -0.0662604706 0.2895886805
630296220.0 -0.0693489492 0.3006498758 0.0927758486 -0.4174601046 0.0927181693 -0.4174833567 -0.0634031822 0.2908312766
635296190.0 -0.0669084264 0.3015199656 0.0887863259 -0.4179134228 0.0884268389 -0.4185688291 -0.0602486633 0.2914311644
640296160.0 -0.0638358314 0.3024217922 0.0842808898 -0.4193439723 0.084491057 -0.4192200691 -0.0569495456 0.2920656734
645296130.0 -0.0603628487 0.3037920953 0.0791260473 -0.420035541 0.0797686246 -0.4201271246 -0.0541265283 0.2931209164
650296100.0 -0.0571936035 0.3042973695 0.0746227105 -0.4207716087 0.0752498104 -0.4206475365 -0.0509550524 0.2934543329
655296070.0 -0.0543598431 0.3050851868 0.0702969424 -0.4216566948 0.0703401871 -0.4217062425 -0.0474762502 0.2943525927
660296040.0 -0.0511991549 0.3051881352 0.0658073553 -0.4221207634 0.0657737988 -0.4223000175 -0.044205313 0.2948939957
665296010.0 -0.0472454872 0.3061204619 0.0608384634 -0.4231398377 0.0611957427 -0.4228211518 -0.0410585885 0.2958748133
670295980.0 -0.0453034198 0.306869656 0.0566437396 -0.4233308765 0.0567695549 -0.423283475 -0.0386875451 0.2962357509
675295950.0 -0.041523745 0.3074383653 0.0521093603 -0.4240801751 0.0523685455 -0.423664947 -0.0355673813 0.297290269
680295920.0 -0.0383627824 0.3078817467 0.0472704617 -0.4243168404 0.0469752758 -0.4247857598 -0.0320057297 0.2977988698
685295890.0 -0.034827961 0.3090098391 0.0426025563 -0.4250801124 0.0423845568 -0.4251886208 -0.0289576316 0.2980076222
690295860.0 -0.0317898399 0.3092244747 0.0384213992 -0.424925083 0.0381003432 -0.4254689694 -0.0259018004 0.2987982842
695295830.0 -0.0285351357 0.3093079458 0.0336542581 -0.4255990053 0.033443826 -0.4257646987 -0.0225360382 0.2995012006
700295800.0 -0.0249639713 0.3097451987 0.0286065579 -0.4258847046 0.0285689446 -0.4261225372 -0.0198099105 0.3001272632
705295770.0 -0.0220218872 0.310680901 0.0240843878 -0.4262985269 0.0246458443 -0.4265645628 -0.0167360104 0.3006967124
710295740.0 -0.0185058809 0.3108259759 0.0197897637 -0.4267572656 0.0199442658 -0.4269142775 -0.0138826747 0.2999829054
715295710.0 -0.0161680039 0.3111167442 0.0154339825 -0.4266605028 0.015165298 -0.426594193 -0.0101643063 0.3006481285
720295680.0 -0.0121694329 0.3111865017 0.0102974982 -0.4270239463 0.0107695616 -0.4270680129 -0.0070172245 0.3015266133
725295650.0 -0.0092857515 0.3121391533 0.0059680112 -0.4271222212 0.0058010107 -0.4271079072 -0.0044698552 0.3018361073
730295620.0 -0.0053574448 0.3121349919 0.0010457876 -0.4266610397 0.0012598742 -0.4268320613 -0.0013363805 0.3016916778
735295590.0 -0.0027111002 0.3124459786 -0.0033666434 -0.4273708424 -0.0034706394 -0.4269315935 0.00153122 0.3016390649
740295560.0 0.0004062825 0.3125239046 -0.008024142 -0.4264227457 -0.0080537971 -0.4272353468 0.0054791033 0.3021583162
745295530.0 0.003816474 0.312745039 -0.0127070874 -0.4264206658 -0.0130811788 -0.4265410874 0.0083258548 0.3013827186
750295500.0 0.0074014558 0.3129112083 -0.0173227907 -0.4263177089 -0.0174012055 -0.4265863793 0.0115624006 0.3019102512
755295470.0 0.0104188581 0.3127857754 -0.0217024621 -0.4263057012 -0.0219062662 -0.4262638858 0.0148940686 0.3015555289
760295440.0 0.0135233178 0.3125399483 -0.0261669871 -0.4261613187 -0.0264671073 -0.4259720045 0.0177989277 0.3014442262
765295410.0 0.0170924536 0.3126959728 -0.031198224 -0.4257897996 -0.0312528089 -0.4255956753 0.0214359523 0.3015220932
770295380.0 0.020083871 0.3126406225 -0.0360073948 -0.4251601784 -0.0358386763 -0.424819316 0.0241069244 0.3013468938
775295350.0 0.023001662 0.3122142739 -0.0402525086 -0.4244210524 -0.0400477634 -0.4245870016 0.0267764483 0.3014553719
780295320.0 0.0268247233 0.3121826516 -0.0451057333 -0.4237485383 -0.0445925771 -0.4242382448 0.029911682 0.3006392481
785295290.0 0.0298254169 0.311641836 -0.0497399042 -0.423031747 -0.0494656627 -0.4235609587 0.0340060378 0.3006381366
790295260.0 0.0333614522 0.3121871049 -0.0537749846 -0.4229697396 -0.0533377356 -0.4231558265 0.0367472971 0.30065175
795295230.0 0.0364138872 0.3117637918 -0.0583841845 -0.42214885 -0.0585039643 -0.4223889381 0.0405781856 0.3005597435
800295200.0 0.0395491899 0.3115315042 -0.0636832475 -0.4216227887 -0.0631647169 -0.4215506563 0.0434459474 0.3004253814
805295170.0 0.043039271 0.3111339894 -0.0675917176 -0.4207330297 -0.0674907845 -0.4208710305 0.0465623861 0.2997904815
810295140.0 0.0461714622 0.3105015559 -0.0719019959 -0.4199068329 -0.071846707 -0.4198749944 0.0499026654 0.2993728174
815295110.0 0.0493528699 0.30993887 -0.0768908761 -0.4186152973 -0.076514228 -0.4192926686 0.0529982107 0.2990607903
820295080.0 0.0522798058 0.3099487767 -0.0812001007 -0.4177068371 -0.0807286696 -0.4181772224 0.0563867581 0.298694616
825295050.0 0.0563669164 0.3091755996 -0.0857073162 -0.4170451482 -0.0856253692 -0.4173545593 0.0594635197 0.2986040014
830295020.0 0.0592328055 0.3092033603 -0.0901744859 -0.4162323199 -0.0901224278 -0.4163616999 0.0631603463 0.2977264902
