!Created with skrf (http://scikit-rf.org).
# Hz S RI R 50.0 
!freq ReS11 ImS11 ReS21 ImS21 ReS12 ImS12 ReS22 ImS22
300000.0 -0.7738862862 -0.1472969512 9.78659e-05 0.0003751371 -0.0002959329 0.0006534482 -0.2113824959 -0.0948882636
5299970.0 -0.7849396189 -0.0070660851 0.0002059826 -4.20563e-05 2.88524e-05 -9.7566e-06 -0.2164787536 0.0066485124
10299940.0 -0.7875410609 -0.0040592974 0.0001412839 3.50807e-05 3.5092e-05 -6.45417e-05 -0.2133146666 0.0187064112
15299910.0 -0.7930437059 -0.0017298879 7.7876e-05 -3.03762e-05 0.0001735272 3.80649e-05 -0.2081199952 0.0279056617
20299880.0 -0.7997871912 0.0022761605 -1.85806e-05 3.71499e-05 -1.96211e-05 2.54543e-05 -0.2032154247 0.0355142789
25299850.0 -0.8063084143 0.0082283565 -9.94812e-05 0.000156492 6.24114e-05 -2.49781e-05 -0.1973847344 0.0414765163
30299820.0 -0.8115190092 0.016220652 0.0001774969 0.0003284271 0.0001199305 0.0001861411 -0.1918025969 0.0464418292
35299790.0 -0.8168215331 0.0252719856 -5.97476e-05 0.0001240913 -3.11118e-05 0.0001136436 -0.1860483039 0.0498718869
40299760.0 -0.8211187015 0.034579147 -0.0001645165 8.35391e-05 8.6672e-06 -0.0001431696 -0.1806914291 0.0527992206
45299730.0 -0.8251459636 0.0440233662 -0.0001688523 -0.0001613638 0.0001790033 4.37373e-05 -0.1752841477 0.055004542
50299700.0 -0.8266964324 0.0541148525 -7.99258e-05 9.67934e-05 -6.02954e-05 -1.52601e-05 -0.1700483788 0.056653584
55299670.0 -0.8286362859 0.0641805307 8.89413e-05 0.000163981 7.8132e-06 -3.15897e-05 -0.1664403885 0.0578008109
60299640.0 -0.8299160459 0.0744974037 -1.83143e-05 0.0002258277 -0.0001451929 1.7455e-06 -0.1622577127 0.0584743571
65299610.0 -0.830926614 0.0848254002 -1.92026e-05 5.11869e-05 -4.92867e-05 3.49782e-05 -0.1587243404 0.0590508336
70299580.0 -0.830864929 0.0946073033 0.0001647844 3.46407e-05 5.4577e-05 0.0001214647 -0.1553529724 0.0591110892
75299550.0 -0.831223903 0.1049880375 -2.9102e-05 8.56538e-05 2.61393e-05 -8.57737e-05 -0.1526653942 0.059593079
80299520.0 -0.8313983238 0.1143776345 -6.72343e-05 -1.67443e-05 0.0001449296 -4.8281e-06 -0.1503362328 0.059887739
85299490.0 -0.8306998562 0.1243930837 -0.0001324732 0.000241455 0.0001459991 8.0659e-05 -0.1478326205 0.0597918076
90299460.0 -0.8295612148 0.1335423379 6.10615e-05 -9.93804e-05 7.99928e-05 3.60868e-05 -0.1452368338 0.0594834138
95299430.0 -0.8286068856 0.1431361352 -0.000133909 -8.55229e-05 4.3306e-06 -3.0308e-06 -0.1434066581 0.0594952869
100299400.0 -0.8276686209 0.153162224 -8.13284e-05 -3.31315e-05 0.0001927972 4.42795e-05 -0.1420070545 0.0595890663
105299370.0 -0.8264639946 0.1621061451 3.5814e-06 0.0001965787 -0.00014355 -9.27412e-05 -0.1400055176 0.0594331182
110299340.0 -0.8251744 0.1709468847 -9.10077e-05 -0.0001554757 -5.1482e-05 0.0001283467 -0.1385528543 0.0593932771
115299310.0 -0.823381101 0.1803328172 -4.82519e-05 8.14442e-05 -9.5447e-06 0.0001022037 -0.1371000068 0.059314272
120299280.0 -0.8218413678 0.1892134693 3.12128e-05 4.32277e-05 -2.12358e-05 4.12694e-05 -0.1360678998 0.0596490971
125299250.0 -0.8201574151 0.1983008571 0.0001205625 0.0001225221 -2.1393e-06 0.0001554885 -0.1349301612 0.059289614
130299220.0 -0.8181856413 0.207551775 -0.0001738411 -0.0001515215 -8.67392e-05 0.0001079942 -0.1344223823 0.0596105561
135299190.0 -0.8165192727 0.2167700108 -0.0001683342 5.17509e-05 0.0001009703 0.0001033671 -0.1332436155 0.059729651
140299160.0 -0.814263069 0.2257122387 7.46908e-05 -4.60826e-05 -1.0625e-06 0.0001684548 -0.1325183345 0.0597703725
145299130.0 -0.8119389736 0.2338120072 1.80618e-05 0.0001229982 0.0002110065 3.11543e-05 -0.131898484 0.0603314112
150299100.0 -0.809586102 0.2431608389 9.55564e-05 0.0001610584 -1.5324e-05 7.66037e-05 -0.130828905 0.0601220896
155299070.0 -0.8076113144 0.2524373497 0.0001215193 0.0001041868 9.11557e-05 4.96455e-05 -0.1301415544 0.0608658
160299040.0 -0.8050768493 0.2610508323 0.0001839277 0.0002166669 0.0001635429 9.00299e-05 -0.1294599878 0.0612022974
165299010.0 -0.8021839317 0.2693964544 0.0001872392 4.24031e-05 4.6104e-05 0.0001104562 -0.1288091782 0.0614000148
170298980.0 -0.7996195184 0.2781989762 9.82334e-05 4.71482e-05 -4.37056e-05 0.0002824491 -0.1284049626 0.0623043349
175298950.0 -0.7971573279 0.2864707176 2.05683e-05 9.46459e-05 -3.14169e-05 -4.01137e-05 -0.1281319661 0.0627597663
180298920.0 -0.7939621703 0.2948320587 7.52308e-05 5.24514e-05 2.04471e-05 9.39716e-05 -0.126978405 0.0633287435
185298890.0 -0.7907115574 0.3043967284 9.42444e-05 -8.2697e-06 9.0003e-06 0.000162657 -0.1270323762 0.0634005634
190298860.0 -0.7880389382 0.3124569347 -0.0001343574 -0.0002738882 0.0002308161 0.0001512062 -0.125903048 0.0645503986
195298830.0 -0.7841665666 0.3207680537 7.97659e-05 -8.5733e-05 9.76775e-05 -0.0001513677 -0.1258440008 0.0649557751
200298800.0 -0.7810733793 0.3293151694 -2.49172e-05 4.50166e-05 0.0002660341 4.22687e-05 -0.1248464406 0.0657170179
205298770.0 -0.7774329361 0.3374739574 0.0002356193 0.0001869897 -2.929e-06 0.0001432409 -0.1244359168 0.0664328251
210298740.0 -0.7737565019 0.3454552857 -6.4514e-05 -0.0001390312 0.000141043 0.0003023696 -0.1241903317 0.0671389078
215298710.0 -0.7703034364 0.3545069836 0.0001655201 -0.0001963106 0.0001273717 9.42818e-05 -0.1242078753 0.0678578655
220298680.0 -0.7666129149 0.3620857642 -8.5708e-06 0.0002570742 -4.35635e-05 2.25143e-05 -0.1230766997 0.0686664403
225298650.0 -0.7629021457 0.3704948039 -0.0001121046 -3.4182e-05 1.08997e-05 8.15503e-05 -0.1229447082 0.0695499349
230298620.0 -0.7589005879 0.3784053903 8.55007e-05 -5.356e-05 8.0766e-06 0.0001133013 -0.1220684969 0.0705325094
235298590.0 -0.7547601801 0.3875978776 -2.5923e-06 0.0001226428 8.94926e-05 -2.12135e-05 -0.1216246556 0.071004936
240298560.0 -0.7506341192 0.3953705267 0.0003115471 0.0001519 0.0001178095 2.86061e-05 -0.1212624635 0.0723484835
245298530.0 -0.74634561 0.403026462 0.000117367 0.0002981807 5.82848e-05 0.0002387186 -0.1207693231 0.073122763
250298500.0 -0.7426767094 0.4106658146 9.13387e-05 0.0001487744 0.0001097648 1.30821e-05 -0.1200617092 0.0744079181
255298470.0 -0.737505293 0.4187296618 -5.31525e-05 2.6252e-05 8.00562e-05 -8.16788e-05 -0.1197926443 0.0748637031
260298440.0 -0.7337700055 0.4260417486 0.0002001516 -2.65742e-05 -4.89755e-05 9.06499e-05 -0.1189683698 0.0757657275
265298410.0 -0.7291019981 0.433982343 0.0001179718 -0.0001379747 2.40489e-05 0.0002294635 -0.1187183356 0.0767714442
270298380.0 -0.7241429172 0.4417857588 0.0001421508 6.78983e-05 0.0001870731 0.00011754 -0.1173707153 0.0776791137
275298350.0 -0.7192817106 0.4487258242 1.57357e-05 -1.82452e-05 6.06838e-05 5.03821e-05 -0.1169521087 0.0786916687
280298320.0 -0.7151921606 0.4566215503 -1.97374e-05 9.83029e-05 0.0001777492 -1.88255e-05 -0.1168025381 0.0797943249
285298290.0 -0.7099715345 0.4647115732 -4.6337e-05 0.0002448924 2.82174e-05 0.0003709553 -0.1161414943 0.0807963865
290298260.0 -0.7051521843 0.4717768334 -7.63965e-05 6.275e-07 0.0002188619 7.6987e-05 -0.1151152809 0.0820668174
295298230.0 -0.7001820912 0.4797090006 0.0001627578 0.0001465154 -8.2016e-06 3.3334e-06 -0.1147656586 0.0831497322
300298200.0 -0.6948937849 0.486849409 0.0001121796 6.24482e-05 -7.35191e-05 -6.9271e-05 -0.1141076346 0.0840445583
305298170.0 -0.6899470307 0.4942431349 5.14059e-05 -0.0001400231 0.0001055325 3.21671e-05 -0.1130392999 0.0853575105
310298140.0 -0.6848247742 0.5011198801 -6.9681e-05 0.0002310623 3.03002e-05 0.0002494047 -0.1124101119 0.0865351274
315298110.0 -0.6797063582 0.5084141708 -0.0002457869 -1.01326e-05 0.0002858534 0.0001159861 -0.1117836628 0.0871452321
320298080.0 -0.6738633608 0.515305946 2.30555e-05 9.97674e-05 -8.5814e-06 0.000131377 -0.1110340203 0.0880789746
325298050.0 -0.6683334059 0.5220836872 0.0002438194 6.53497e-05 0.0002430892 0.0001318888 -0.1105980068 0.0891592467
330298020.0 -0.6627608376 0.529413106 9.98794e-05 3.71741e-05 -4.58105e-05 6.24658e-05 -0.1096707198 0.0902170902
335297990.0 -0.6572307697 0.5361470249 0.0002147569 -3.53307e-05 -5.89006e-05 7.94543e-05 -0.1095266565 0.0912347106
340297960.0 -0.6521393447 0.5428826164 0.0002054892 0.0001039176 0.0002537763 6.33815e-05 -0.1084898398 0.0923044429
345297930.0 -0.6464099245 0.5489224093 9.75946e-05 0.0001025884 -8.48139e-05 -2.51753e-05 -0.1080079434 0.0937179635
350297900.0 -0.6397897094 0.5559637446 0.0001276986 -0.000106271 0.0002368216 0.0001138983 -0.1071168967 0.0948199003
355297870.0 -0.6344470977 0.5620715413 0.0001982091 0.0001449516 0.0002003965 0.0003358948 -0.1064043201 0.0961053398
360297840.0 -0.6283033535 0.569147854 0.0001805347 0.0001224428 3.3496e-06 8.51935e-05 -0.1059214011 0.0973124182
365297810.0 -0.62225635 0.5751147868 0.0002882267 4.83897e-05 0.0001290897 -6.36305e-05 -0.1052155068 0.0983637469
370297780.0 -0.6159733429 0.5817952116 8.02384e-05 0.0001579903 7.37684e-05 6.47529e-05 -0.1043894586 0.0990910792
375297750.0 -0.6105142911 0.5879029074 0.0002903562 8.76723e-05 9.9182e-05 0.0003290601 -0.1035600767 0.1009397258
380297720.0 -0.6039150928 0.5947078745 4.24112e-05 -4.38205e-05 -7.45627e-05 9.0802e-06 -0.1027582388 0.102168836
385297690.0 -0.5979331722 0.6009496631 0.0001004017 4.2102e-05 3.39392e-05 0.000168686 -0.1018791988 0.1034280839
390297660.0 -0.5913837942 0.607362559 0.0001375847 -1.28394e-05 3.99245e-05 0.0001461516 -0.1007370849 0.1039439274
395297630.0 -0.5852757 0.6127708146 0.0001761522 -3.77787e-05 0.0001864474 0.0001066566 -0.1004384468 0.1051027934
400297600.0 -0.5787595888 0.619303705 -1.16036e-05 -4.37082e-05 0.0003482843 0.000205292 -0.099555901 0.1063865813
405297570.0 -0.5722965224 0.6252973251 0.0001059485 0.0001038116 0.0001687717 2.3382e-05 -0.0987820195 0.107666546
410297540.0 -0.5656942857 0.6308052171 -0.0001354556 0.0003453548 0.0002468808 -4.61169e-05 -0.0977167598 0.1087843085
415297510.0 -0.5592770311 0.6360873105 0.0002556384 0.0001477078 5.1494e-05 0.0002461561 -0.0971295248 0.1103228868
420297480.0 -0.5518513148 0.6421234885 6.85285e-05 -4.314e-07 0.0001477698 4.51978e-05 -0.0961694912 0.1110904166
425297450.0 -0.5456168044 0.6480768618 0.000106709 0.0001468208 0.0001201699 0.0002460863 -0.0949241448 0.1124693886
430297420.0 -0.5395301786 0.6534033352 8.98949e-05 3.63789e-05 9.59482e-05 9.5037e-05 -0.0941670695 0.1136868527
435297390.0 -0.532042374 0.6593460552 -7.23201e-05 0.000282927 4.7086e-05 -0.0001565062 -0.0928056881 0.1148682234
440297360.0 -0.5253268584 0.6644324492 0.0002353816 0.0002051954 5.27076e-05 0.0001345525 -0.0924292525 0.1154606091
445297330.0 -0.5183585291 0.669486985 0.0002247014 0.0001448822 -0.0001401185 8.8042e-06 -0.0914023295 0.1162775241
450297300.0 -0.5111768968 0.6742784275 5.0159e-06 8.64086e-05 0.0003227972 8.1999e-06 -0.0905906634 0.1177677527
455297270.0 -0.504388748 0.6798117894 0.0002106172 0.0003144324 0.0003788661 4.76192e-05 -0.0896312993 0.1190014175
460297240.0 -0.4972977127 0.6855315685 0.0002440308 -0.0001006566 3.5241e-06 0.0001461414 -0.0880770521 0.1201343348
465297210.0 -0.4901099716 0.6910552988 0.0003521644 -2.41303e-05 0.0001233483 6.42158e-05 -0.0874605943 0.1209969234
470297180.0 -0.4831862763 0.6951096065 0.0001101241 0.0001919231 8.1821e-06 3.02418e-05 -0.0866740351 0.1220148018
475297150.0 -0.4761805287 0.7001079129 0.0001975676 -1.68629e-05 0.0002673358 0.0002812111 -0.0854370065 0.1228556093
480297120.0 -0.4694856993 0.7040393096 0.000187653 0.0001628383 0.0002713496 5.26046e-05 -0.0845545718 0.1242243318
485297090.0 -0.4607672629 0.7088709543 2.28537e-05 2.95023e-05 0.0001467463 -4.79068e-05 -0.0835527754 0.1250946424
490297060.0 -0.4539310823 0.7144895453 -0.0001517665 3.3263e-06 0.0001747843 0.0002060888 -0.0826362861 0.1260127756
495297030.0 -0.4472539023 0.7187828446 0.0002466058 6.24661e-05 0.0003042983 0.0001118621 -0.0815842594 0.1266724089
500297000.0 -0.4386427177 0.7234865552 0.0002882145 -1.82417e-05 0.0001874319 -0.000170207 -0.0805786231 0.1278283174
505296970.0 -0.4316690771 0.7268112589 0.0001406322 0.0001253474 8.3022e-05 0.0001342898 -0.0798109869 0.1289094667
510296940.0 -0.4243357257 0.7318056287 0.0003160965 6.3745e-05 0.0002251357 0.0001425903 -0.0783294209 0.1300346315
515296910.0 -0.4172769266 0.7364166029 0.0002008528 -9.6198e-06 8.87791e-05 0.0001134029 -0.0770521097 0.1311711248
520296880.0 -0.4087210831 0.7408291348 2.18344e-05 -0.0001847677 0.0002987801 6.58513e-05 -0.0759400041 0.1318496106
525296850.0 -0.4012242639 0.7442577086 0.0001361083 -4.08144e-05 0.0002183159 -0.0001728922 -0.0747684699 0.1329490415
530296820.0 -0.3938933995 0.7478936663 0.0002711553 -9.88931e-05 0.0001330842 0.0001938696 -0.0741403195 0.1337289342
535296790.0 -0.3860259977 0.7524123109 9.51508e-05 0.0003542553 0.000208989 -5.43046e-05 -0.0729008818 0.134398818
540296760.0 -0.3785014722 0.7559558872 1.02499e-05 6.75133e-05 0.0001975269 -0.0002007933 -0.0719697253 0.1356133961
545296730.0 -0.3710967835 0.7599737185 0.000180614 -0.0001854638 0.0002117574 6.63035e-05 -0.0707366153 0.1362108631
550296700.0 -0.3635966405 0.7637532642 0.000196676 -7.3802e-06 0.00026311 -0.0001153771 -0.0693961152 0.1370854789
555296670.0 -0.355274713 0.7671497988 0.0004495962 -0.0001428425 0.0002778333 2.1931e-06 -0.0684161521 0.138259263
560296640.0 -0.3472498677 0.770316176 0.00050306 -0.0001012916 0.000217001 -0.0001006955 -0.0671057474 0.1385728843
565296610.0 -0.3395883701 0.7742976444 0.0004941451 0.0003517355 0.0002559935 5.86046e-05 -0.0658912192 0.1399730861
570296580.0 -0.3319407524 0.7770926901 0.0002767972 -6.86127e-05 0.0002485976 5.13826e-05 -0.0647235987 0.1407107256
575296550.0 -0.323532156 0.7802935093 0.0004734592 -0.0001256921 4.66482e-05 0.0001627974 -0.0631866036 0.1415768956
580296520.0 -0.3152365842 0.7840129091 -8.33494e-05 0.0001039161 0.0002313044 9.29639e-05 -0.0620916158 0.1425057458
585296490.0 -0.3076786482 0.7867377104 0.0001258143 -0.0001099649 0.0003778774 0.0001307563 -0.0611165013 0.1427412888
590296460.0 -0.3001938035 0.7900842692 0.0002816357 -2.52439e-05 7.38907e-05 -6.72223e-05 -0.059728252 0.1437285354
595296430.0 -0.2914064215 0.7936488592 0.0001974701 9.94871e-05 0.0003075083 4.07128e-05 -0.0584631196 0.1442657665
600296400.0 -0.2831455982 0.7959598932 0.0002691713 -8.57569e-05 0.0002818111 9.3123e-06 -0.0576759684 0.1447831176
605296370.0 -0.2753713269 0.7991595745 0.0002307688 0.0001247426 0.0003415652 -5.46335e-05 -0.0559865178 0.1462382882
610296340.0 -0.2677768871 0.8013362816 0.0002118532 -4.86539e-05 3.40013e-05 -5.73248e-05 -0.0546981244 0.146998217
615296310.0 -0.2595707893 0.8044601659 0.0002738846 6.13156e-05 0.0001898729 5.69345e-05 -0.0534518624 0.1475091427
620296280.0 -0.2505114515 0.8057738473 -4.4869e-05 -1.90434e-05 0.0001646108 0.0001065593 -0.0521693851 0.1481641999
625296250.0 -0.2426332883 0.8089025789 0.0001971199 -7.37428e-05 0.0001641988 6.1339e-06 -0.0507292037 0.1489821809
630296220.0 -0.2343629998 0.8114267706 0.0001146971 -1.75872e-05 0.0002902538 -3.70626e-05 -0.0495697128 0.1495799343
635296190.0 -0.22641905 0.813768141 0.0003335767 -4.71043e-05 2.02539e-05 5.01935e-05 -0.0480695728 0.1501548103
640296160.0 -0.2180626578 0.8148874806 0.0003727428 7.32808e-05 0.0001830333 -5.43867e-05 -0.0466817261 0.1509688965
645296130.0 -0.2099983388 0.8181228281 0.0003004851 2.21099e-05 0.0002489774 7.4611e-06 -0.0456684774 0.1512698934
650296100.0 -0.2015425598 0.820230453 -2.66837e-05 -3.42094e-05 0.0003277035 -0.0001655288 -0.0443097648 0.1520846482
655296070.0 -0.1927213471 0.8217130617 0.0002735721 0.0001027313 0.0002214226 3.52268e-05 -0.0428428009 0.1527622155
660296040.0 -0.1853229636 0.8246199031 2.4911e-06 0.0003089834 0.000277421 -0.0001644481 -0.0417837791 0.1530179472
665296010.0 -0.1771317952 0.825721606 0.0004085386 0.0001892666 0.0002994627 -1.05249e-05 -0.0403162151 0.1542249044
670295980.0 -0.1675752867 0.8275993389 0.0002710904 -3.40276e-05 0.0001821289 -0.000122531 -0.0388861101 0.1548537692
675295950.0 -0.1598073395 0.8283070275 0.0002092441 -0.0001097612 0.0003318315 5.21711e-05 -0.0375808236 0.155084255
680295920.0 -0.151565286 0.8307934777 0.0002706526 0.0001495481 0.0001962075 8.75618e-05 -0.0360963151 0.1555810383
685295890.0 -0.142570748 0.8322710958 0.0001562196 9.5081e-06 0.0002771375 0.0001419274 -0.0345911604 0.1561919347
690295860.0 -0.1343762771 0.8338817688 0.0002922169 -8.0042e-06 0.0003667488 -3.37092e-05 -0.0330180205 0.1565122161
695295830.0 -0.1263609338 0.8341148364 0.0003649043 -0.0001680162 1.40666e-05 -0.0001873898 -0.0319947765 0.1574675186
700295800.0 -0.1176767852 0.8358310478 0.000319947 -5.04071e-05 0.0002477102 -8.41511e-05 -0.0302574988 0.1575292935
705295770.0 -0.1087291404 0.8374882909 0.0002084641 -4.18278e-05 0.0002829308 -0.0001864435 -0.0289074197 0.1585780924
710295740.0 -0.1013143185 0.8381593203 0.0002119905 0.0001467514 0.0002029153 -3.0522e-05 -0.0279104817 0.159175449
715295710.0 -0.0930385983 0.8393463495 -5.9946e-05 0.0001182256 0.0001380421 -8.25795e-05 -0.0263270249 0.1591656603
720295680.0 -0.0844285515 0.8396985918 0.0005859308 -0.0002962837 0.0003898399 1.92247e-05 -0.0243696277 0.1598540215
725295650.0 -0.0752863262 0.840539175 0.0002321087 -6.4829e-06 0.0002345996 0.0001401268 -0.0230076032 0.1599366841
730295620.0 -0.0672594914 0.8412443407 0.0004211464 -4.9765e-05 0.0003939331 -0.0001571564 -0.0215680015 0.1601819976
735295590.0 -0.0583260105 0.8418439654 7.44296e-05 -7.63338e-05 0.0002928341 0.0001280388 -0.020232634 0.1607252828
740295560.0 -0.0503648209 0.8427328054 9.78309e-05 -0.0002884158 0.000207 -0.0001433375 -0.0188614646 0.1610929316
745295530.0 -0.0411618256 0.8425864893 0.0003624425 2.7703e-05 0.000181301 -0.0001032927 -0.0172282837 0.161703586
750295500.0 -0.0340935728 0.8431265322 0.0001323295 -0.0001543116 0.0004708396 3.98849e-05 -0.016331733 0.1618310047
755295470.0 -0.024192154 0.8433556754 0.0002063392 0.0001593262 0.0004296618 5.73382e-05 -0.0146826313 0.1626840326
760295440.0 -0.016299687 0.8433384451 0.0003095658 -5.29281e-05 0.0002360053 1.92011e-05 -0.0134758657 0.1627141424
765295410.0 -0.0081971312 0.8437248516 0.0006392036 1.76423e-05 0.0002130322 -0.0001774224 -0.0111637833 0.1634123353
770295380.0 0.000731359 0.8443060799 0.0003785754 -5.93515e-05 0.0001923665 -0.0001206994 -0.0096739264 0.1632397546
775295350.0 0.008193297 0.8440174509 0.0004175837 -4.3225e-05 0.0003743225 0.0002175402 -0.00896307 0.1636524698
780295320.0 0.0176465119 0.8431108477 0.0002757955 4.44697e-05 0.0002726351 6.26447e-05 -0.0071253393 0.1640234418
785295290.0 0.0260298347 0.8441452106 0.0003673214 -1.95992e-05 0.0003599349 -2.53832e-05 -0.0054715541 0.1647440534
790295260.0 0.0339141464 0.8431269928 0.000155451 -2.40232e-05 0.0002359414 8.52706e-05 -0.0038751243 0.164400577
795295230.0 0.0426698306 0.8429861251 0.0003951482 -0.0001997708 0.0001250673 2.16932e-05 -0.0025028904 0.165264008
800295200.0 0.0513520758 0.8426608288 0.000327514 -9.01229e-05 0.000325109 -0.0002130653 -0.0009861911 0.1650247187
805295170.0 0.0598678715 0.8418355459 0.00026458 -8.26549e-05 0.0003150825 -6.7878e-05 0.0003734228 0.165256584
810295140.0 0.0681507916 0.8411977502 0.0003357127 -0.0002297741 0.0003132218 -0.0001288253 0.0020634124 0.1657915496
815295110.0 0.0767307035 0.8402705824 0.0003240175 -1.21257e-05 0.0002211984 -2.95159e-05 0.0037164757 0.1659681606
820295080.0 0.0848062765 0.8386402524 0.0004719078 2.62149e-05 0.0001715002 9.96171e-05 0.00498093 0.1659704866
825295050.0 0.0937314527 0.8385866735 0.0001914667 -4.61956e-05 0.0003975339 8.73262e-05 0.0065636548 0.1661732159
830295020.0 0.1024635385 0.837812034 0.0003262067 -0.0001175684 0.0005078169 -1.23338e-05 0.0080447815 0.166106657
835294990.0 0.1097962107 0.8370690601 0.0003362667 -0.0003856781 0.0002783833 -8.04797e-05 0.0097140227 0.1663013003
840294960.0 0.1184973318 0.835411625 0.0003281224 -0.000152476 0.0004344186 -0.0002319464 0.0112688603 0.1668687804
845294930.0 0.1271759324 0.8345822646 0.0001736804 -0.0002230998 0.0004607323 -5.06869e-05 0.0127730044 0.1665364199
850294900.0 0.1351313704 0.8327034674 7.32308e-05 -4.85803e-05 0.0003093998 6.22603e-05 0.0142962561 0.1668905634
