!Created with skrf (http://scikit-rf.org).
# Hz S RI R 50.0 
!freq ReS11 ImS11 ReS21 ImS21 ReS12 ImS12 ReS22 ImS22
300000.0 -0.0979202064 -0.0846951706 0.6246787509 0.078040805 0.6252986898 0.0832359548 -0.0973413081 -0.0915831267
5299970.0 -0.1003742079 0.012903765 0.6303584984 0.010497116 0.6302933908 0.0109508157 -0.1021392087 0.0118758382
10299940.0 -0.0954584631 0.0298241829 0.634723707 0.015353374 0.6341621241 0.0157440148 -0.0971833855 0.0288937943
15299910.0 -0.0886902396 0.0429878188 0.6400347172 0.0203063964 0.6404735066 0.0209135158 -0.0901513194 0.0422860491
20299880.0 -0.0794278982 0.0543618615 0.6489147799 0.0241954153 0.6487550926 0.0243268655 -0.0817560791 0.05324799
25299850.0 -0.0695352938 0.0628086594 0.6580068236 0.0247908772 0.658060557 0.0253883425 -0.0724807913 0.0619707672
30299820.0 -0.0595004604 0.0691609543 0.6679443485 0.0244628673 0.6674994261 0.0245570559 -0.062730656 0.0688448649
35299790.0 -0.049608638 0.0743954013 0.6776199639 0.0216364648 0.6774059835 0.0220328773 -0.0526554413 0.0731982104
40299760.0 -0.0396833986 0.0768580186 0.6865908895 0.0174831734 0.6869793772 0.0178452496 -0.0437890924 0.0771838203
45299730.0 -0.0304694879 0.0794048995 0.6954467861 0.0118987745 0.6958941379 0.0120267243 -0.0341945687 0.0789459252
50299700.0 -0.0216894846 0.0798133119 0.7033088271 0.0046640855 0.7036089997 0.0046506153 -0.0252886643 0.0800572259
55299670.0 -0.0142519462 0.0799153329 0.7100535237 -0.0031020101 0.7109526782 -0.0030230055 -0.0178013479 0.0798679551
60299640.0 -0.0067562953 0.0788830337 0.7169561147 -0.011763694 0.7175626671 -0.0111880179 -0.0105010993 0.0796432237
65299610.0 -0.0003238986 0.0781337702 0.7237520242 -0.0198323004 0.7239891356 -0.0199554762 -0.0037956015 0.0784903399
70299580.0 0.0060238689 0.0756928546 0.7283396584 -0.0291530542 0.728269719 -0.0291214948 0.0021506765 0.0770861249
75299550.0 0.011502812 0.0743668578 0.7327535647 -0.0387781915 0.7334055876 -0.0389461691 0.0078879968 0.0756375027
80299520.0 0.0161703794 0.0722564351 0.7376539394 -0.0490658511 0.7379839469 -0.0488261524 0.0132882879 0.072705388
85299490.0 0.0209216256 0.0695141951 0.7409874595 -0.0588374722 0.7405584439 -0.0590561178 0.0175143042 0.0707007352
90299460.0 0.0247491695 0.0673375243 0.7434514639 -0.0685851563 0.744050894 -0.0688673009 0.0220596184 0.0688854183
95299430.0 0.0282038764 0.0652211899 0.7461293105 -0.0795929124 0.7459734114 -0.0789042024 0.0252000337 0.0665655996
100299400.0 0.0312426311 0.062972422 0.7477865169 -0.0891514177 0.7476653593 -0.089151452 0.0286386631 0.0640118746
105299370.0 0.0349159705 0.059985027 0.7485281133 -0.0988268135 0.7492963743 -0.0993195695 0.0321158636 0.0616265807
110299340.0 0.0370690649 0.0579366138 0.7497440584 -0.1090765627 0.7505415644 -0.1095696515 0.0345938651 0.0592608924
115299310.0 0.0396131646 0.0549552091 0.7509243323 -0.1188279205 0.7512663574 -0.1191147843 0.0373566953 0.0563911361
120299280.0 0.0414124313 0.0526684445 0.7518738678 -0.1292703873 0.7517030056 -0.1296479593 0.0389784003 0.0543248556
125299250.0 0.0432164749 0.0502776866 0.7519594732 -0.1389829588 0.752550528 -0.1393814713 0.0413604755 0.0513145515
130299220.0 0.0450191998 0.0478968536 0.7516133151 -0.148547904 0.7520081111 -0.1491212098 0.043152223 0.049488015
135299190.0 0.0469208625 0.0454277557 0.7512029803 -0.1589752092 0.7510110733 -0.1587533509 0.0445112345 0.0475307954
140299160.0 0.0477272792 0.044093739 0.7507859011 -0.1688817736 0.7512759972 -0.1683298831 0.0462304541 0.0453413026
145299130.0 0.0493779657 0.0420423468 0.7506406414 -0.1789829518 0.749851946 -0.1784724558 0.047389987 0.042658893
150299100.0 0.0505166245 0.0396195579 0.7492354202 -0.1881754019 0.7488079747 -0.1879533332 0.048768492 0.0409827803
155299070.0 0.051185175 0.0379965819 0.7476032165 -0.1980662232 0.7479775977 -0.1985208683 0.049509078 0.0389062802
160299040.0 0.0522191107 0.0358423025 0.7462787652 -0.2067747009 0.7464237048 -0.2073786167 0.0508110922 0.0372787825
165299010.0 0.052924354 0.034207552 0.7450014495 -0.2169967205 0.7451774666 -0.2169356949 0.0518320574 0.0350522176
170298980.0 0.053317511 0.0326434648 0.7421804471 -0.2258934912 0.7428804957 -0.2260881393 0.0529494932 0.0328133133
175298950.0 0.0545376221 0.0306930496 0.7418362158 -0.2350917192 0.7415846139 -0.2353029774 0.0533307052 0.0313258649
180298920.0 0.0553319689 0.0292063181 0.7392606026 -0.24462701 0.7390521232 -0.2442290993 0.0536542462 0.0298711962
185298890.0 0.0557801671 0.027379594 0.7367625749 -0.2541185227 0.7367784913 -0.2535851035 0.0540920767 0.028047945
190298860.0 0.0561901065 0.0258593095 0.7344702747 -0.2629971864 0.7345889371 -0.2631965303 0.055668283 0.0263108855
195298830.0 0.0562495023 0.0238298869 0.7316071443 -0.2714374947 0.7321053971 -0.2724728177 0.0556811808 0.0239757223
200298800.0 0.057141329 0.0228244377 0.7294627131 -0.280119335 0.7289601332 -0.2805202926 0.056287089 0.0233018699
205298770.0 0.05705912 0.021431983 0.726729129 -0.2895859574 0.7269044702 -0.2896665847 0.0564347784 0.0209181453
210298740.0 0.0569927244 0.0195958194 0.7238783869 -0.2986878379 0.7239228823 -0.2982959914 0.0567959734 0.0201359142
215298710.0 0.0578382276 0.0185892139 0.7206977887 -0.3068101602 0.7208101351 -0.3070256011 0.0569208896 0.0184477016
220298680.0 0.0580010418 0.017304032 0.7172877685 -0.3159608297 0.7175276857 -0.3156465949 0.0573643384 0.017505391
225298650.0 0.0585941595 0.0160805156 0.7137883567 -0.3236149799 0.7141898242 -0.3243007151 0.0571525521 0.0157070063
230298620.0 0.0580509839 0.014798735 0.7112772546 -0.3327982024 0.7108670164 -0.3332550377 0.0576777296 0.0144638796
235298590.0 0.0585826775 0.0131577516 0.7074559905 -0.3410897259 0.7073378487 -0.3416305374 0.0582166363 0.0127364202
240298560.0 0.0582615059 0.0118479027 0.7039232792 -0.349030132 0.7043662266 -0.3489424641 0.05806858 0.0120518237
245298530.0 0.0587573485 0.0112766166 0.6992559571 -0.3575314669 0.699833408 -0.3577192809 0.0579406026 0.0107682958
250298500.0 0.0582541611 0.0098553824 0.6961539297 -0.3654417333 0.6965461744 -0.3658457146 0.0589349084 0.0091612729
255298470.0 0.0582715592 0.0088107659 0.6918762382 -0.3744853825 0.6926909943 -0.3742043123 0.0587253856 0.0078272516
260298440.0 0.0583395407 0.0078644192 0.6881603473 -0.3822065755 0.6885219614 -0.3825271018 0.0592048709 0.0072573766
265298410.0 0.0586500296 0.0071299054 0.6839341759 -0.3906187683 0.6840532183 -0.3906445137 0.0586811688 0.005632815
270298380.0 0.0593597093 0.0057339684 0.6794142662 -0.3984369849 0.6799541102 -0.3984568131 0.0589999866 0.0053157937
275298350.0 0.0581957769 0.0048339664 0.6753184541 -0.4064906865 0.6763257101 -0.406465314 0.0590836001 0.0038114212
280298320.0 0.0587869975 0.0038997171 0.6709993731 -0.4136701215 0.6710614162 -0.4143131372 0.0593542409 0.0029786384
285298290.0 0.0588191283 0.0030834694 0.6665951504 -0.4214133899 0.6664253037 -0.4219693109 0.0587633549 0.0016871309
290298260.0 0.0585979179 0.0018083787 0.6624848396 -0.4294677056 0.6623332435 -0.4296388205 0.0595030406 0.0006903903
295298230.0 0.0587924159 0.0007973331 0.6582352886 -0.4376105503 0.6575847839 -0.4376793223 0.0596390866 -0.0003120608
300298200.0 0.0591547571 -0.0001809481 0.6533437961 -0.4450834792 0.6532554874 -0.4450636905 0.0590659794 -0.0011823306
305298170.0 0.0587730407 -0.0014685679 0.6483618227 -0.4530630317 0.6489095475 -0.4527238551 0.0596302914 -0.0022357692
310298140.0 0.0594929056 -0.0024244952 0.643952431 -0.460410135 0.6436167843 -0.4607078234 0.0594118296 -0.0029051196
315298110.0 0.0588962705 -0.003342611 0.6383395656 -0.4679243864 0.6386604461 -0.468214312 0.0595309413 -0.0047050471
320298080.0 0.0584502785 -0.0043309123 0.6330592453 -0.4751149511 0.6335836138 -0.4757318991 0.0592114136 -0.0055976478
325298050.0 0.0582241069 -0.0060172191 0.6284815295 -0.4835154299 0.6284221302 -0.4838804577 0.0592007324 -0.0069611095
330298020.0 0.0578981174 -0.0064951795 0.6214825789 -0.4904274162 0.6220855674 -0.490567487 0.0584079826 -0.0083427908
335297990.0 0.0575434318 -0.0076419507 0.6163399149 -0.4979861239 0.6170629901 -0.4980198127 0.0582050648 -0.0088197514
340297960.0 0.0565613312 -0.0078797214 0.610457659 -0.5049494232 0.6107227878 -0.5043412054 0.0572710719 -0.0095763983
345297930.0 0.0561564532 -0.0085880813 0.6049415578 -0.51089654 0.6046896668 -0.5111440165 0.057625664 -0.0108047578
350297900.0 0.0564628487 -0.009461537 0.5990432359 -0.5175284304 0.5994340962 -0.5177878144 0.0568536301 -0.0107815633
355297870.0 0.0559369751 -0.010193785 0.5936365138 -0.5246499046 0.5936011246 -0.5250144223 0.0562245631 -0.0112481989
360297840.0 0.0561504176 -0.0107253936 0.5881925227 -0.5316310359 0.5874545335 -0.5311864145 0.0564852466 -0.011893871
365297810.0 0.0560545217 -0.0115915281 0.581551857 -0.5379444868 0.5817905039 -0.5376617997 0.0557426995 -0.0124678323
370297780.0 0.0558008118 -0.0121567106 0.575844624 -0.5439002815 0.5757698217 -0.5445992654 0.055970606 -0.0127399388
375297750.0 0.0551938694 -0.0122756354 0.5702408554 -0.5512427585 0.5696604301 -0.551398744 0.0557325622 -0.0137681049
380297720.0 0.0551310906 -0.0135553228 0.563628642 -0.5565514422 0.5635528114 -0.5570213163 0.0555102725 -0.0142475683
385297690.0 0.0548299938 -0.0140955828 0.557170118 -0.5630363738 0.5573143445 -0.5633468727 0.055286617 -0.0148710021
390297660.0 0.0542990888 -0.0147386773 0.551038335 -0.5695175111 0.5512055586 -0.5701431563 0.0550041798 -0.0161657657
395297630.0 0.054799652 -0.0157155734 0.5451109295 -0.5757134699 0.5449981807 -0.5755914312 0.054227694 -0.0159988607
400297600.0 0.0536458128 -0.0160241669 0.5381950779 -0.5820100404 0.5388977529 -0.5821618842 0.0533900016 -0.0170708423
405297570.0 0.0538917035 -0.0166431297 0.5320332654 -0.5878072923 0.5323004222 -0.5879119622 0.0537228817 -0.0169544882
410297540.0 0.0537735052 -0.0172942766 0.5254929866 -0.593618191 0.5253282546 -0.5939887729 0.0534301011 -0.0181287294
415297510.0 0.0534442186 -0.0172135794 0.519130749 -0.5990289759 0.5192914871 -0.5995486185 0.0529027365 -0.0180886913
420297480.0 0.0530000306 -0.0188782104 0.512125303 -0.6057459456 0.5126913945 -0.6055377123 0.0530239345 -0.0191776361
425297450.0 0.0532168225 -0.0196545062 0.5054773101 -0.6106830291 0.5059854647 -0.6110319125 0.0524456512 -0.018917846
430297420.0 0.0524665985 -0.0197085652 0.4993690678 -0.6169046326 0.499478822 -0.6172798869 0.0516234136 -0.0205119076
435297390.0 0.0525144121 -0.0206008144 0.4924549685 -0.6219737167 0.4924693541 -0.6220109199 0.0512995428 -0.0201757778
440297360.0 0.0524843313 -0.0217033519 0.4851753845 -0.627709622 0.4850285638 -0.6275352631 0.0513073654 -0.0214841455
445297330.0 0.052176974 -0.022181279 0.4782930244 -0.6334950354 0.4785050836 -0.6331200628 0.0506644272 -0.0219303851
450297300.0 0.0520162262 -0.0225180214 0.4713413456 -0.6381432509 0.4717458727 -0.6384600479 0.0504931132 -0.0219498123
455297270.0 0.0509642034 -0.0234318193 0.4648629829 -0.6432877174 0.4651734964 -0.643664701 0.0503322359 -0.0225743518
460297240.0 0.0506048985 -0.0237030109 0.4577612889 -0.6479891827 0.4568772759 -0.6487307468 0.0497537393 -0.0224783462
465297210.0 0.0504722037 -0.0247666117 0.4503330103 -0.6538299612 0.4507359101 -0.6540765446 0.0490735467 -0.0237455927
470297180.0 0.0500776616 -0.025254142 0.4428666401 -0.6584180439 0.4433631675 -0.658775336 0.0482986241 -0.0239905736
475297150.0 0.0494662139 -0.0265112068 0.4353898934 -0.6633573965 0.4362304736 -0.6627753884 0.0483573749 -0.0244463423
480297120.0 0.0498999063 -0.0267887283 0.4285685999 -0.6681391951 0.4292834797 -0.6680615026 0.0476697608 -0.0242893947
485297090.0 0.0493521589 -0.0272182243 0.4216069231 -0.6731296492 0.421338715 -0.673076603 0.0471217374 -0.025683474
490297060.0 0.0489436568 -0.0282117104 0.4139886391 -0.6776887309 0.413920434 -0.6778250463 0.0472148973 -0.0252984806
495297030.0 0.0478387066 -0.0279765947 0.4063391872 -0.6819851634 0.406312827 -0.6825556294 0.0464220068 -0.0261490715
500297000.0 0.0477959161 -0.0292022964 0.3987917159 -0.686536915 0.3990544137 -0.6869795293 0.0455638369 -0.0268515508
505296970.0 0.0470283841 -0.0297493701 0.3910182119 -0.6905242369 0.3907854883 -0.6906540741 0.045091154 -0.0270941071
510296940.0 0.0467596956 -0.0299248946 0.3835144796 -0.6952541378 0.3840027237 -0.6955496025 0.0452770067 -0.0271534475
515296910.0 0.0463805907 -0.0302706562 0.3757181614 -0.6992213919 0.3754737342 -0.6995605872 0.044059037 -0.0281002017
520296880.0 0.0458413811 -0.0313318577 0.3683397818 -0.703575717 0.368509409 -0.703484581 0.0444502535 -0.0281161401
525296850.0 0.045273268 -0.032080349 0.360893129 -0.7077886731 0.3606526078 -0.7079559497 0.0439121447 -0.0287517366
530296820.0 0.0450244376 -0.032378606 0.353092598 -0.7107035099 0.352828698 -0.7114297962 0.042849426 -0.0297781833
535296790.0 0.043987871 -0.0328685505 0.3449261225 -0.7147351028 0.3456082236 -0.7150943062 0.0429070818 -0.0301755532
540296760.0 0.0440385145 -0.0335464747 0.3373710794 -0.7194982136 0.3368705798 -0.719369684 0.0415691409 -0.0298582891
545296730.0 0.0433193601 -0.0334434986 0.32941251 -0.7224227864 0.3294253432 -0.7230618063 0.0411564236 -0.0308214588
550296700.0 0.0427177476 -0.0343566116 0.3215526309 -0.7262720358 0.3220916609 -0.7265846651 0.0405720913 -0.0304017621
555296670.0 0.0427549505 -0.0351196494 0.313505146 -0.730172022 0.3134975969 -0.7301400391 0.0399968017 -0.0310591472
560296640.0 0.0418966884 -0.0354175369 0.3060070689 -0.7327922556 0.3056486058 -0.732893789 0.0397015746 -0.0313523521
565296610.0 0.0407547335 -0.0360589358 0.2974289862 -0.7364649569 0.2971798988 -0.7368885614 0.0388360212 -0.0322985642
570296580.0 0.0412048602 -0.0365698591 0.289189177 -0.7395125435 0.2899441611 -0.7397013239 0.0386358631 -0.0313898918
575296550.0 0.0401769666 -0.0362628615 0.2812870833 -0.7421678187 0.2817373902 -0.7424801008 0.038446537 -0.0323736754
580296520.0 0.0396102294 -0.0368475725 0.2736993534 -0.7460187908 0.2732151906 -0.7460016707 0.0375022 -0.0332774173
585296490.0 0.0394837233 -0.0377177705 0.2657933059 -0.7493119408 0.2651429689 -0.7491293567 0.0368019384 -0.0336556474
590296460.0 0.038152458 -0.0384972584 0.2568212252 -0.7519438503 0.2566088705 -0.7520966797 0.0366892462 -0.0334457771
595296430.0 0.0375679583 -0.038351489 0.2490522427 -0.7544261578 0.2485017584 -0.7544310542 0.0363773383 -0.0339959799
600296400.0 0.037305572 -0.0384905283 0.2405399891 -0.7571045808 0.2408077107 -0.757443067 0.0353648378 -0.0339678426
605296370.0 0.0369130559 -0.0384824048 0.2323926492 -0.7600960683 0.2319401483 -0.7598315715 0.0349525602 -0.035081155
610296340.0 0.0360440668 -0.0394835856 0.2243050249 -0.7621201872 0.2242552764 -0.7622782987 0.0343327028 -0.0343075179
615296310.0 0.035478976 -0.0394700245 0.2150438912 -0.76391431 0.2157114517 -0.7649755409 0.033904076 -0.0350717636
620296280.0 0.0349725448 -0.0401975961 0.2074001038 -0.7668035386 0.2074886525 -0.7670298369 0.0336952431 -0.0355978211
625296250.0 0.0345515503 -0.0403691868 0.1987848402 -0.7696819065 0.1985184238 -0.7691108585 0.0328913675 -0.0356505135
630296220.0 0.0335933481 -0.0404193738 0.1901982566 -0.771827038 0.1911882523 -0.7713949359 0.0318627618 -0.0359324869
635296190.0 0.033390288 -0.0410174815 0.1821251288 -0.7727974371 0.1819805236 -0.773072302 0.0313678969 -0.0365047483
640296160.0 0.0324279641 -0.0412206249 0.1739137001 -0.774603391 0.1737921751 -0.7756417563 0.0315524809 -0.0362989322
645296130.0 0.031799382 -0.041387243 0.164976809 -0.7775112314 0.164905352 -0.7772747332 0.0297908032 -0.0375122412
650296100.0 0.0311904941 -0.0408985378 0.1570135918 -0.7782429128 0.1569445725 -0.7783659673 0.029840969 -0.0375229602
655296070.0 0.0304728859 -0.0422203452 0.1481407508 -0.7804767235 0.1481260361 -0.7802900365 0.0298797139 -0.0368656457
660296040.0 0.0289097502 -0.041872372 0.1397343695 -0.7815301435 0.1395313017 -0.7820189236 0.0285661617 -0.0380479167
665296010.0 0.0295288888 -0.0425792474 0.1318225922 -0.7830554071 0.1322393072 -0.7835046762 0.0277716944 -0.037558471
670295980.0 0.0294639577 -0.0423556654 0.122751174 -0.7849373977 0.1229289776 -0.7847351859 0.026882362 -0.0381488364
675295950.0 0.0284379751 -0.0425653861 0.1142604968 -0.7860848788 0.1144592748 -0.7864639945 0.0269365538 -0.037911173
680295920.0 0.0275188685 -0.0424201394 0.1052255227 -0.7869740133 0.10530588 -0.7873859454 0.0263995089 -0.0385732258
685295890.0 0.0266405263 -0.0426661597 0.0972983716 -0.7882181021 0.0966338254 -0.7884182522 0.025800027 -0.0383134129
690295860.0 0.0264372393 -0.0431403952 0.0884448383 -0.7887307135 0.0883561142 -0.7887366624 0.0254686832 -0.0381308558
695295830.0 0.0261913157 -0.0433109835 0.0791986487 -0.7900205268 0.0792482302 -0.7901645956 0.0241627027 -0.0388127888
700295800.0 0.0259697447 -0.0435503299 0.0710067973 -0.7910120332 0.0717581512 -0.7911712287 0.0235841935 -0.0393438846
705295770.0 0.0248170178 -0.0436242792 0.0624238235 -0.791570717 0.06264324 -0.7918341732 0.023158424 -0.0393081004
710295740.0 0.0240263903 -0.0433143558 0.0531236157 -0.7917155674 0.0537456517 -0.7917405793 0.0217753192 -0.038809549
715295710.0 0.0233903504 -0.0438752744 0.0451043581 -0.7930384482 0.0457171681 -0.7930039405 0.0219755501 -0.0399441251
720295680.0 0.0228421219 -0.0443460346 0.0366414805 -0.7931794107 0.0366856891 -0.7935718348 0.0217747292 -0.0393823182
725295650.0 0.0224417931 -0.0443269433 0.0276778057 -0.793479321 0.0282026243 -0.7938114313 0.0208047923 -0.0392063688
730295620.0 0.0213486515 -0.0445736946 0.0187965882 -0.7939045561 0.0192504944 -0.7940879379 0.0207224235 -0.040275965
735295590.0 0.0213165827 -0.0440646782 0.0110503301 -0.7939698673 0.0109600224 -0.7940232095 0.0197696265 -0.0397533254
740295560.0 0.0202561078 -0.0442362881 0.0021061922 -0.7930960536 0.001698695 -0.7939330371 0.0193638825 -0.0399575167
745295530.0 0.0197474437 -0.0448797543 -0.0066580402 -0.7938116517 -0.0065190255 -0.7944138227 0.018152519 -0.0397975896
750295500.0 0.0190838294 -0.0446768273 -0.0151431721 -0.793232682 -0.0146833392 -0.793928505 0.0183199256 -0.040528932
755295470.0 0.0190529902 -0.0445236995 -0.0236425596 -0.7937378385 -0.0237869519 -0.7940763459 0.0168248394 -0.0400066417
760295440.0 0.0178671134 -0.0443775352 -0.0326683396 -0.7931705722 -0.032669227 -0.7934713799 0.0159484605 -0.0402814384
765295410.0 0.0168696331 -0.0449450623 -0.0403021317 -0.7927454044 -0.0408745603 -0.7930337887 0.016726673 -0.0397679407
770295380.0 0.0167894759 -0.0447887747 -0.0496877767 -0.7925072262 -0.0499066678 -0.7928407518 0.0160565065 -0.0396780801
775295350.0 0.0161723099 -0.0446259621 -0.0580494836 -0.7916984259 -0.0580667037 -0.7918593118 0.0148937816 -0.0409665058
780295320.0 0.0156425115 -0.0448502305 -0.0667364145 -0.7914266529 -0.0666856273 -0.7912836533 0.0142559995 -0.0398282831
785295290.0 0.0147572313 -0.0444631614 -0.0754546594 -0.7893302867 -0.0754973566 -0.7902594381 0.0133236384 -0.0403946874
790295260.0 0.0141584511 -0.0445317306 -0.0836100369 -0.7892927688 -0.0841485623 -0.7896554257 0.0132507409 -0.0401133683
795295230.0 0.0132654718 -0.0446261169 -0.0923957363 -0.7877780545 -0.0922511418 -0.7884072758 0.0124756283 -0.0395188788
800295200.0 0.0128977888 -0.0443716884 -0.1014036397 -0.7878191972 -0.1017419047 -0.787667392 0.0119475329 -0.0399519487
805295170.0 0.0117605368 -0.0445912044 -0.1092222362 -0.7856430169 -0.1097815584 -0.7863450784 0.0108332671 -0.0401899199
810295140.0 0.0115946811 -0.0446206035 -0.118223996 -0.784879968 -0.1182389939 -0.7851874173 0.0106114237 -0.0400183901
815295110.0 0.0107718276 -0.0442793659 -0.1270295745 -0.7830699493 -0.1271444711 -0.7838271239 0.0096115982 -0.0404147526
820295080.0 0.0100162082 -0.0446764426 -0.1353630667 -0.7820392086 -0.1352948826 -0.7822363501 0.009217325 -0.0398653056
825295050.0 0.0095519974 -0.0447679549 -0.1438430293 -0.7800585701 -0.1433580182 -0.780761361 0.0092496365 -0.0394591024
830295020.0 0.0088924895 -0.0441890428 -0.1522960245 -0.7786671074 -0.1529519398 -0.7790178628 0.0081554285 -0.0397638466
