!Created with skrf (http://scikit-rf.org).
# Hz S RI R 50.0 
!freq ReS11 ImS11 ReS21 ImS21 ReS12 ImS12 ReS22 ImS22
300000.0 -0.3174187804 -0.1062432429 0.3700044475 0.0538851434 0.3748486882 0.0579055665 -0.3150126885 -0.1162369585
5299970.0 -0.323910312 0.0047544144 0.3784092692 0.0027800462 0.3784498037 0.0031236581 -0.3263017266 0.0030176723
10299940.0 -0.3210553014 0.0155615131 0.3799516451 0.0021690634 0.3798448902 0.0025634075 -0.3245500549 0.0126149625
15299910.0 -0.3182202229 0.0235111923 0.3821381541 0.0021583137 0.3818757073 0.0022338161 -0.3213933986 0.019747203
20299880.0 -0.3145064843 0.0302836541 0.3851581012 0.0016969743 0.3852197316 0.0017369957 -0.3187074473 0.0261422499
25299850.0 -0.3109313325 0.0357525049 0.3885875417 -3.33185e-05 0.3885937643 0.0001036208 -0.3159743915 0.0309801762
30299820.0 -0.3065054163 0.0401760314 0.3917951276 -0.0017830547 0.3914978787 -0.0019531606 -0.3126866798 0.0355421154
35299790.0 -0.3028351167 0.0447946552 0.3951484899 -0.0053003473 0.3952619141 -0.0051896175 -0.3098627565 0.0392761732
40299760.0 -0.2995554282 0.0481112596 0.3981512989 -0.0084901066 0.3984514961 -0.0087473586 -0.3072677509 0.0430918946
45299730.0 -0.2965444834 0.0517087371 0.4009946355 -0.0129315625 0.4012834286 -0.012976989 -0.3047226385 0.0464195954
50299700.0 -0.2933205555 0.0540666428 0.4033829822 -0.0173860819 0.4036508531 -0.0177155796 -0.3020155954 0.0492775714
55299670.0 -0.2906549808 0.0569469667 0.4052621376 -0.0221474866 0.40598385 -0.0221081828 -0.3004005546 0.0520936123
60299640.0 -0.2882567031 0.0590247307 0.407649845 -0.0268660378 0.4079429526 -0.0268289114 -0.2983724258 0.0544691349
65299610.0 -0.2862502244 0.0613926144 0.4094430584 -0.0310498528 0.4095309557 -0.0316621704 -0.2962555007 0.0570083122
70299580.0 -0.283800372 0.0634135492 0.4103235981 -0.0365267837 0.4106898848 -0.0369927647 -0.29498055 0.059543304
75299550.0 -0.2818758712 0.0657360536 0.4115835834 -0.0420279965 0.411641072 -0.0423522608 -0.2930219509 0.0619133842
80299520.0 -0.2802724047 0.0680920986 0.4129851886 -0.0474041551 0.4127426666 -0.0472300799 -0.2916936092 0.0639109663
85299490.0 -0.2787547215 0.0697700512 0.4133818968 -0.0525974489 0.4131934829 -0.0526958448 -0.2904869404 0.0662538077
90299460.0 -0.2772673446 0.0721695705 0.4138194149 -0.0579202911 0.4137844699 -0.0577658179 -0.2887293434 0.0683543725
95299430.0 -0.2756624911 0.0743624896 0.4142200179 -0.0636699996 0.4140478323 -0.0630608289 -0.2878265789 0.0712881564
100299400.0 -0.2745404823 0.0762757208 0.4138615244 -0.0681620978 0.4136912749 -0.0684774992 -0.2866654705 0.0734802446
105299370.0 -0.2730669039 0.0783878021 0.413832042 -0.0732495887 0.4139327405 -0.0736777464 -0.285204827 0.0756008284
110299340.0 -0.2720402801 0.0805543584 0.4133248785 -0.0785669758 0.4133437851 -0.078854164 -0.2844262412 0.07787903
115299310.0 -0.2707253076 0.0821791017 0.4132220361 -0.0836280532 0.4131841967 -0.0836407908 -0.2831443022 0.0799982482
120299280.0 -0.2697541516 0.0847954749 0.4131307246 -0.089308095 0.4129559402 -0.088733779 -0.282242172 0.0824356267
125299250.0 -0.2688613892 0.0866670692 0.4123492815 -0.0937403012 0.4125846938 -0.0939839763 -0.2815967738 0.0844186752
130299220.0 -0.2676214176 0.0891182577 0.4118125698 -0.0985766901 0.4115088832 -0.099101445 -0.2806725071 0.0874447212
135299190.0 -0.2666540434 0.0911913201 0.4110808754 -0.1037420367 0.4106016462 -0.1038731087 -0.2797904211 0.0897697296
140299160.0 -0.2658959602 0.0936083746 0.4101700391 -0.1091313147 0.4103493391 -0.1090665837 -0.2786760713 0.0920250107
145299130.0 -0.2647315914 0.0959492632 0.4095853315 -0.1139954967 0.4090653257 -0.113466046 -0.2779630891 0.0943304779
150299100.0 -0.2639236562 0.0982547523 0.4084164132 -0.1191582411 0.4082159561 -0.1189550936 -0.277058687 0.0967447001
155299070.0 -0.2631267553 0.1009963741 0.4074475161 -0.1241789811 0.4073604179 -0.1241544735 -0.2763757762 0.0995685937
160299040.0 -0.2620634115 0.1031583937 0.4057856044 -0.128272499 0.4060374085 -0.1286922831 -0.2750930959 0.1025416619
165299010.0 -0.2611665594 0.1053682873 0.4050878517 -0.1336930284 0.4047471528 -0.133895889 -0.2743185971 0.1045003571
170298980.0 -0.2601832987 0.1078505058 0.402881948 -0.1384501148 0.4032056666 -0.138468078 -0.2730587533 0.1073463893
175298950.0 -0.2592028351 0.1105574744 0.4023518562 -0.1429324432 0.4020782555 -0.1431872324 -0.2723715301 0.109839013
180298920.0 -0.257917481 0.1127429338 0.4003951533 -0.148106009 0.4005481675 -0.1478061022 -0.2710612123 0.1123817178
185298890.0 -0.2568139696 0.115209311 0.3986050557 -0.152801969 0.3992980808 -0.1526088203 -0.2705440941 0.1147594042
190298860.0 -0.2558791548 0.1176483884 0.3972115903 -0.1573962752 0.3974224923 -0.1572393588 -0.2688240471 0.1175084381
195298830.0 -0.2544354692 0.120007278 0.3956380245 -0.161737594 0.3956015361 -0.16193895 -0.2679689693 0.1198984441
200298800.0 -0.2536213875 0.1230919057 0.3941167554 -0.1663572297 0.3941932066 -0.1664995491 -0.2667891779 0.122849281
205298770.0 -0.2526073887 0.1251575965 0.3923139518 -0.1710140519 0.3923391833 -0.1709779654 -0.2656596085 0.1253297864
210298740.0 -0.2514345416 0.1277938346 0.3903009049 -0.1757969566 0.3904923587 -0.1760507093 -0.2644569883 0.128611145
215298710.0 -0.2503664507 0.1302520712 0.3885585453 -0.1799575668 0.3885276557 -0.1801233406 -0.2633807885 0.1309009553
220298680.0 -0.2491366775 0.1330944818 0.3863829223 -0.1849707681 0.3866816036 -0.184597761 -0.262188373 0.1336218781
225298650.0 -0.2476474605 0.1356779017 0.3844185705 -0.1892798357 0.384694842 -0.1888858471 -0.2611882021 0.1361000533
230298620.0 -0.2466691638 0.138190696 0.3827328371 -0.193433751 0.3829002472 -0.1935341574 -0.2594272282 0.1391702059
235298590.0 -0.2454607909 0.1406672932 0.3802688314 -0.19771069 0.3806091999 -0.1981939347 -0.2581554047 0.1414577552
240298560.0 -0.2443026028 0.1434130693 0.3784170188 -0.2020764677 0.3783564472 -0.2020208333 -0.2571023158 0.1444140279
245298530.0 -0.242924987 0.1458166482 0.3753245676 -0.2067347188 0.3762173262 -0.2065791995 -0.2558421503 0.1470345504
250298500.0 -0.2416626775 0.1481533798 0.374176512 -0.2107627958 0.3739730255 -0.2103427809 -0.2540831871 0.149921848
255298470.0 -0.2402569717 0.1509569329 0.3713565649 -0.2148375967 0.3715301648 -0.2149803876 -0.2526854034 0.1521880484
260298440.0 -0.2388141307 0.1532338042 0.3694099585 -0.2187089825 0.3691211706 -0.2193342074 -0.2510657803 0.1550273406
265298410.0 -0.2368906143 0.1561904351 0.3666807532 -0.223747589 0.3664511419 -0.2236813378 -0.249643926 0.1575498634
270298380.0 -0.235583985 0.1589351701 0.364285823 -0.2276109516 0.3644071702 -0.2276983411 -0.2479390939 0.160365615
275298350.0 -0.2342822481 0.1612061877 0.3619588901 -0.231888259 0.3619906845 -0.2319710115 -0.2462780522 0.1632099355
280298320.0 -0.2324727101 0.1637174648 0.3589630443 -0.2354877154 0.3587954619 -0.2359950826 -0.2448315112 0.1658725525
285298290.0 -0.2311199626 0.1665479792 0.356893006 -0.2397836046 0.3563885331 -0.24011076 -0.2430149326 0.168618645
290298260.0 -0.229289928 0.1690288171 0.3540406296 -0.2440919897 0.3537070614 -0.2441098679 -0.2413004374 0.171646329
295298230.0 -0.2276837674 0.1714288996 0.3517025385 -0.247728594 0.3509061567 -0.2477730812 -0.2394816463 0.1737941602
300298200.0 -0.2258364749 0.1736568211 0.3482779333 -0.2520731086 0.3485608798 -0.2519591728 -0.2379941743 0.1767434611
305298170.0 -0.2239580104 0.1763726499 0.3458875791 -0.2559854684 0.3457323915 -0.2558649716 -0.2355127707 0.1792251181
310298140.0 -0.2221716742 0.1785496587 0.3430639154 -0.2600210533 0.3434166401 -0.2602174847 -0.2340152556 0.1822603051
315298110.0 -0.2205158406 0.180873985 0.3401103854 -0.2638928123 0.3402579306 -0.2639542963 -0.2319353081 0.1843278779
320298080.0 -0.2188779303 0.1833331417 0.3372475459 -0.2678659471 0.3370885437 -0.2676274549 -0.2303813016 0.1869055469
325298050.0 -0.2169666422 0.1855604615 0.3342647623 -0.2715213468 0.334385966 -0.2717091755 -0.228353674 0.1894046846
330298020.0 -0.2152397606 0.1880119454 0.3306553931 -0.2753992096 0.3309401174 -0.2752830739 -0.2265913333 0.191767948
335297990.0 -0.2133112732 0.1901656519 0.3273839014 -0.2789474166 0.3277767065 -0.2790097181 -0.2248825858 0.1944799507
340297960.0 -0.212061359 0.1931420854 0.3245675543 -0.2827988975 0.3247449826 -0.2825744712 -0.2226752078 0.1971144351
345297930.0 -0.2099830373 0.1950519024 0.3212943684 -0.2856933295 0.3209412801 -0.2857507274 -0.2208999977 0.1993928204
350297900.0 -0.2078262369 0.1975976453 0.3180459908 -0.2894390596 0.3184785555 -0.2897172891 -0.2188837246 0.2021725219
355297870.0 -0.2057112772 0.2001390334 0.3144099493 -0.2930427089 0.3147677738 -0.2933844222 -0.2169804168 0.2048186293
360297840.0 -0.2034606508 0.2025566347 0.3114163992 -0.2966539377 0.3115154832 -0.29691402 -0.2146568731 0.2075286801
365297810.0 -0.201797742 0.2046309156 0.3080834176 -0.2998853312 0.3083956997 -0.3003257369 -0.2128074394 0.2099309019
370297780.0 -0.1995396566 0.2066629811 0.3046831841 -0.3032793918 0.3050175619 -0.3039016999 -0.2102354999 0.2123815843
375297750.0 -0.1974373439 0.2094444377 0.3017730485 -0.306873187 0.3014911877 -0.3069069003 -0.2082432341 0.2148759999
380297720.0 -0.1953568623 0.2114404343 0.2982576182 -0.3098588712 0.2978285584 -0.3098561075 -0.2057199655 0.2173071144
385297690.0 -0.1932231418 0.2138040188 0.2945985733 -0.3131550093 0.2946652365 -0.3132999648 -0.2035726056 0.2198569225
390297660.0 -0.1911960897 0.2159225945 0.2908669095 -0.3166166559 0.291002433 -0.316883067 -0.2014264702 0.2222072107
395297630.0 -0.1889498672 0.2181531269 0.2879527948 -0.3193440349 0.2878412975 -0.3198032806 -0.1992856935 0.2246989122
400297600.0 -0.1865236277 0.2204450031 0.2841496526 -0.3229958037 0.2846052496 -0.3230555231 -0.1972023842 0.2266641423
405297570.0 -0.1842560712 0.2225146298 0.2805674744 -0.3258705135 0.2808186291 -0.3261949386 -0.1949038498 0.2292838134
410297540.0 -0.1817497101 0.2244727238 0.2760988618 -0.3288667518 0.2767506445 -0.3288950767 -0.1922651426 0.2314172882
415297510.0 -0.1796080776 0.226751418 0.2732386511 -0.3319549448 0.2731838052 -0.3320278634 -0.189909104 0.2341798897
420297480.0 -0.1773038722 0.2281342696 0.2695660036 -0.3350240405 0.2693783023 -0.3348118146 -0.1872317926 0.236054957
425297450.0 -0.1747912384 0.230134719 0.265425174 -0.3376456093 0.2661764492 -0.337939764 -0.1849217914 0.2383435256
430297420.0 -0.1726812949 0.2326682795 0.2621116338 -0.3409846612 0.2621282106 -0.3406098553 -0.1827389365 0.2401930435
435297390.0 -0.1699220105 0.2347947362 0.2585642698 -0.343307899 0.2584323176 -0.343293437 -0.1799763344 0.2426505595
440297360.0 -0.1674670871 0.2367313092 0.2540652481 -0.3461532938 0.2541240801 -0.3462262175 -0.1777881793 0.2445208412
445297330.0 -0.1647682349 0.2385409344 0.2503135962 -0.3492920305 0.250409374 -0.3489512619 -0.1752658515 0.246879907
450297300.0 -0.1625218214 0.2403309041 0.2467878016 -0.3519663773 0.2466577359 -0.3517883141 -0.1726749191 0.2488611953
455297270.0 -0.1598813913 0.2419190789 0.2429692594 -0.3543444777 0.2430408805 -0.3545161278 -0.1700790846 0.2512380356
460297240.0 -0.15758719 0.2443019043 0.2388774933 -0.3568039209 0.2384651765 -0.3569391122 -0.1674166156 0.2530600664
465297210.0 -0.1545593501 0.2458749058 0.2349911331 -0.359766811 0.235501922 -0.3596792763 -0.1653439624 0.2544390524
470297180.0 -0.1521310537 0.2475316045 0.2313408022 -0.3617987763 0.2312407946 -0.3619965841 -0.1630005794 0.2566791925
475297150.0 -0.1496956523 0.249346875 0.2269793169 -0.3641325994 0.2274503491 -0.3640769561 -0.1596972591 0.258455702
480297120.0 -0.1470325447 0.2507087385 0.2228388692 -0.3665448711 0.2230750067 -0.3667312286 -0.1571060724 0.2611611363
485297090.0 -0.1442609722 0.252654293 0.2188334634 -0.3692711665 0.2190763689 -0.3693790902 -0.1545329751 0.2624001515
490297060.0 -0.1413617831 0.2540905603 0.2149830724 -0.3715724524 0.214765962 -0.3717659654 -0.1516927774 0.2644663244
495297030.0 -0.1390783412 0.2563865651 0.2107665261 -0.3740041073 0.2105246465 -0.3739585183 -0.1489371176 0.2659223774
500297000.0 -0.1362313266 0.2574037966 0.2061343072 -0.3762412018 0.2068886945 -0.37597584 -0.1464905078 0.2676331361
505296970.0 -0.1336230267 0.2592521096 0.201809541 -0.3780935688 0.2023235774 -0.3781383549 -0.1441381982 0.2697715236
510296940.0 -0.130742003 0.260909392 0.1985891195 -0.3806876635 0.1984439419 -0.380667264 -0.1410104221 0.2713581938
515296910.0 -0.1284047916 0.2625986757 0.1936892538 -0.3823954324 0.1941337844 -0.3825652623 -0.1382725854 0.2730839127
520296880.0 -0.1253956887 0.2636856958 0.1899752273 -0.3844167118 0.1900957381 -0.3843889814 -0.1353172382 0.2746291047
525296850.0 -0.1227319247 0.2653250411 0.1856466315 -0.3866782242 0.1859735443 -0.3868587321 -0.1325017692 0.2760695577
530296820.0 -0.1200792051 0.2668174789 0.1818095239 -0.3881817857 0.1815558846 -0.388629641 -0.1299594902 0.2777547816
535296790.0 -0.1170969818 0.2682881301 0.1770940621 -0.3900698005 0.1773778315 -0.3899958743 -0.1270425833 0.2789534039
540296760.0 -0.114109472 0.269282142 0.1727711835 -0.392271256 0.1729057066 -0.3925400759 -0.1246790575 0.2807928359
545296730.0 -0.111318712 0.2708385667 0.1685582 -0.3936447104 0.1689290983 -0.394144386 -0.1212731367 0.2818149451
550296700.0 -0.1087778851 0.272303699 0.1641326832 -0.3958916843 0.1648639935 -0.396300835 -0.1183722323 0.2835648653
555296670.0 -0.105381894 0.2732306187 0.1598919297 -0.3974610637 0.1604150612 -0.3975295737 -0.1155459593 0.2851264789
560296640.0 -0.1031160418 0.2748014552 0.1558551987 -0.3993936408 0.1559134973 -0.3989891106 -0.1124516159 0.2864378963
565296610.0 -0.1002196691 0.2760097195 0.1514547966 -0.4007358151 0.1513596902 -0.4007954195 -0.1097922811 0.2877420823
570296580.0 -0.0972381343 0.2771821724 0.146895709 -0.4023105054 0.1474760701 -0.4026876253 -0.1066100297 0.2895635232
575296550.0 -0.0941084842 0.2782379543 0.1424840823 -0.4036673595 0.1429280492 -0.4040373278 -0.1035308661 0.2902442397
580296520.0 -0.0910880848 0.2794721567 0.138521918 -0.4055438487 0.1381848102 -0.4057775483 -0.1006135128 0.2913170109
585296490.0 -0.0878761296 0.2804072602 0.1337100211 -0.4068101818 0.1338389965 -0.4064846563 -0.0976636185 0.2925551797
590296460.0 -0.0854800601 0.2813256227 0.1295451733 -0.4080053127 0.1292399116 -0.4084651061 -0.0943044308 0.2937561574
595296430.0 -0.082128016 0.2825655418 0.1246700084 -0.4095667026 0.1249389219 -0.4096086829 -0.0916160077 0.2945563143
600296400.0 -0.0793645589 0.2835915074 0.1204685037 -0.4110317898 0.1207496997 -0.4110107031 -0.0884254478 0.2966073059
605296370.0 -0.0761032361 0.2850433694 0.1158291656 -0.4126560843 0.1162100133 -0.4118523994 -0.085534806 0.2973839026
610296340.0 -0.0736230494 0.2858936103 0.1121804048 -0.413593353 0.111723059 -0.4134573701 -0.0827503333 0.2987011415
615296310.0 -0.0701091761 0.2867016637 0.1069222909 -0.4143573589 0.1070829581 -0.4145645525 -0.0793502284 0.2994482165
620296280.0 -0.0675279881 0.2872331349 0.102830994 -0.4155702057 0.1029188023 -0.415561804 -0.0764831951 0.3001900296
625296250.0 -0.0641603985 0.2881701649 0.0976289102 -0.4166833219 0.0979015909 -0.417008632 -0.0730226839 0.3013138314
630296220.0 -0.0611264616 0.2890825882 0.0932079321 -0.4177404635 0.0941282943 -0.4178854497 -0.0703469648 0.3024054361
635296190.0 -0.0581713448 0.2897664364 0.0887897019 -0.4180813846 0.0890992353 -0.4183233153 -0.0669780629 0.3030121334
640296160.0 -0.0552266126 0.2907847395 0.0847380717 -0.4194294828 0.0843995334 -0.419736265 -0.0634711465 0.3038750555
645296130.0 -0.0522811831 0.291181011 0.0801252656 -0.4203533159 0.0799483024 -0.4206320241 -0.0610970632 0.3045132186
650296100.0 -0.0489877473 0.2922984641 0.0755229066 -0.4208654132 0.0755046384 -0.4211133215 -0.0576056087 0.3056132349
655296070.0 -0.0459190646 0.2929850034 0.0710992348 -0.4218094398 0.0706469654 -0.4217170838 -0.0541675983 0.3065093684
660296040.0 -0.043058674 0.2936841533 0.0665617821 -0.4223319869 0.0664558936 -0.4223234295 -0.0515133579 0.306494874
665296010.0 -0.0397594829 0.2938316467 0.0617180772 -0.4228546913 0.0621169086 -0.4232668109 -0.0482867355 0.3077996492
670295980.0 -0.0362199281 0.2947701109 0.0569753373 -0.4240275558 0.0575741725 -0.4237013658 -0.0455072497 0.3082626814
675295950.0 -0.03307929 0.2950283159 0.0519653307 -0.4243923962 0.0526804882 -0.4244738984 -0.0416569919 0.3088388033
680295920.0 -0.0299202051 0.2956850189 0.0475625168 -0.424582562 0.0478480044 -0.4252245772 -0.0388497895 0.3096543883
685295890.0 -0.027142822 0.2961308577 0.0435118805 -0.4255106435 0.0432668177 -0.4254129326 -0.0352058714 0.3098438536
690295860.0 -0.0238512685 0.2966340199 0.0385390798 -0.4254704778 0.038382609 -0.4256030681 -0.0319487997 0.3104997792
695295830.0 -0.0207513983 0.2967578944 0.0335358867 -0.4258038022 0.0335690168 -0.4263166096 -0.0290470731 0.3113269974
700295800.0 -0.0175971947 0.2970877655 0.0289322483 -0.4263993998 0.0292846416 -0.4264975966 -0.0254854849 0.3110258755
705295770.0 -0.0143695328 0.2975794694 0.0245976651 -0.4266728596 0.0248022321 -0.4268841213 -0.0227148704 0.3120244403
710295740.0 -0.0114008131 0.298029491 0.0202547074 -0.4268723051 0.0201493229 -0.4267072191 -0.0196454722 0.3123506694
715295710.0 -0.0083835473 0.2982678489 0.0152950481 -0.4270769875 0.0157330762 -0.4269860793 -0.0164216334 0.3125836726
720295680.0 -0.0052707532 0.2981952964 0.0110852488 -0.4269498034 0.0109766109 -0.4275910495 -0.0126887862 0.312944166
725295650.0 -0.0015260647 0.2986260844 0.0057907612 -0.4268752787 0.0059829398 -0.427110408 -0.0092704338 0.313266435
730295620.0 0.0011126004 0.2987179435 0.0013573007 -0.4273067051 0.0015999555 -0.4273119752 -0.0062070805 0.3134780492
735295590.0 0.0049011712 0.2989074842 -0.0031003532 -0.4270946911 -0.0026315775 -0.4274558278 -0.0031089307 0.3134246472
740295560.0 0.0077234208 0.2992917964 -0.0078033779 -0.426450247 -0.0077301473 -0.4271615723 0.0001063129 0.3134623304
745295530.0 0.0108326748 0.2991746435 -0.0124643087 -0.4267357626 -0.0121402015 -0.4269667941 0.0034756651 0.3139203283
750295500.0 0.0140030536 0.29908909 -0.0168896173 -0.4263150325 -0.0168199666 -0.4265253362 0.0063437438 0.3135465881
755295470.0 0.0175417479 0.2992596278 -0.0218084153 -0.4261587144 -0.0212588389 -0.4265035606 0.0097122023 0.3143258051
760295440.0 0.0201211447 0.2991352681 -0.0263990884 -0.4259186824 -0.0254696944 -0.4261540343 0.0125617705 0.3138794456
765295410.0 0.0233467645 0.2986774127 -0.030393669 -0.4255404671 -0.0304056836 -0.4258989413 0.0167296295 0.3142716943
770295380.0 0.0268528049 0.2988159475 -0.0354700216 -0.4248921388 -0.0352629137 -0.4256724455 0.0199048669 0.3138739249
775295350.0 0.0298935776 0.2989973582 -0.0400053041 -0.4247637894 -0.0397787638 -0.4248090716 0.0225309562 0.3136434495
780295320.0 0.0329701456 0.2982635361 -0.0442515885 -0.4243460086 -0.0441907693 -0.4248624104 0.0258490512 0.3143336912
785295290.0 0.036055926 0.2987857375 -0.0488471801 -0.4237796785 -0.0486551678 -0.4241989217 0.0290666982 0.3137503861
790295260.0 0.0393251202 0.2983401689 -0.0535513561 -0.4235183189 -0.0536587264 -0.4236043603 0.0328279823 0.3134016728
795295230.0 0.0425269599 0.2980538964 -0.057935909 -0.4223261259 -0.0577531333 -0.4228286097 0.0358729429 0.3137554847
800295200.0 0.0456750363 0.2976826121 -0.0630711599 -0.4220397409 -0.0624552993 -0.4219946138 0.0391308106 0.3128914272
805295170.0 0.0485220911 0.2972525941 -0.067097966 -0.4207624361 -0.0671925712 -0.4210930764 0.0420981939 0.3126853367
810295140.0 0.0518251766 0.2969363847 -0.0716361666 -0.4204454135 -0.0715646161 -0.4208103853 0.0455057751 0.3128527853
815295110.0 0.0551199444 0.2965563222 -0.0762883241 -0.419541866 -0.0763300762 -0.419685903 0.0485231254 0.3121752653
820295080.0 0.0581083958 0.2957996983 -0.0806427573 -0.4186732465 -0.0808895478 -0.4192134016 0.0518384001 0.3118229094
825295050.0 0.0614107921 0.2953239954 -0.0851991955 -0.4173517106 -0.0848757664 -0.4179519595 0.0551039628 0.3116372266
830295020.0 0.064575243 0.2949147663 -0.0898027381 -0.4165963822 -0.0898464188 -0.4166739721 0.0581971217 0.3108587356
