!Created with skrf (http://scikit-rf.org).
# Hz S RI R 50.0 
!freq ReS11 ImS11 ReS21 ImS21 ReS12 ImS12 ReS22 ImS22
300000.0 -0.2334144618 -0.1318278271 0.4664329499 0.085358581 0.4678943631 0.0854244036 -0.2359607151 -0.1305522868
5299970.0 -0.2420628524 0.0053945042 0.4751973094 0.0058626464 0.4756020394 0.0058963195 -0.244665802 0.0047619831
10299940.0 -0.2387390331 0.0188087709 0.4772857215 0.0068802145 0.4771767322 0.0069935368 -0.2408013744 0.0171798514
15299910.0 -0.2338958888 0.02856936 0.4807688874 0.0081779779 0.4809451665 0.0082255292 -0.2368270011 0.0263638974
20299880.0 -0.2286448476 0.0366951932 0.4853426947 0.008281048 0.4856403874 0.0082098457 -0.2322199523 0.0342248679
25299850.0 -0.2223804878 0.0435731349 0.4904216439 0.0075625021 0.4909467791 0.0072047491 -0.22711879 0.0400211902
30299820.0 -0.2172056001 0.0488171204 0.496286113 0.0052657248 0.4963302452 0.0049559779 -0.2219823814 0.0450282179
35299790.0 -0.2115872147 0.0530478081 0.5012728975 0.0020225294 0.5015044935 0.0017102652 -0.2166698099 0.0492260004
40299760.0 -0.2063428934 0.0559354758 0.5065468682 -0.0018824999 0.5068548809 -0.0020907789 -0.2120553301 0.0521065485
45299730.0 -0.2009242417 0.0587379814 0.5110599996 -0.006758039 0.5113251262 -0.0070639463 -0.2073334226 0.0549426895
50299700.0 -0.1961940106 0.0608573389 0.5153524854 -0.0124148778 0.5155167332 -0.0126892616 -0.2026677997 0.0570466441
55299670.0 -0.1918736327 0.0625513848 0.5189783244 -0.0179708031 0.518755285 -0.0183068693 -0.1990781343 0.0586054241
60299640.0 -0.1877729096 0.0640561524 0.5225049302 -0.0246253678 0.5225078061 -0.0248300166 -0.1952342629 0.0595883205
65299610.0 -0.184241368 0.0650664866 0.5255912449 -0.030877411 0.5254439628 -0.0311070967 -0.1917253938 0.0608148767
70299580.0 -0.1807598938 0.065773358 0.5280144706 -0.0371087557 0.5277394624 -0.0375569279 -0.1892630896 0.0617743638
75299550.0 -0.1781376068 0.0666712812 0.5294016624 -0.0447118568 0.5298963705 -0.0445736817 -0.1862754971 0.0628303375
80299520.0 -0.1751267665 0.0675867457 0.5313666577 -0.0513027214 0.5318529874 -0.0514130287 -0.1835631706 0.0635303972
85299490.0 -0.1726032325 0.0685760839 0.5326937617 -0.0582934045 0.5331362343 -0.0577867092 -0.1818167997 0.0641070683
90299460.0 -0.1703833103 0.0691730236 0.5334579207 -0.0651654197 0.5336202369 -0.0648341477 -0.1793945507 0.0649351814
95299430.0 -0.1681316832 0.0695947771 0.5345787002 -0.0719300486 0.5350449684 -0.0723808528 -0.1774536903 0.065571592
100299400.0 -0.1658587214 0.0702487668 0.5350645895 -0.0786129522 0.5350615449 -0.0789539949 -0.1759170864 0.0664073522
105299370.0 -0.1641224074 0.0706062931 0.5350710325 -0.0853465618 0.535708577 -0.0859551986 -0.1737732015 0.0665917251
110299340.0 -0.1623656621 0.0714856391 0.5355506381 -0.0923713146 0.5357172883 -0.0924061408 -0.1729092916 0.0673149278
115299310.0 -0.1608900925 0.0724684015 0.5353863352 -0.0993118825 0.5356095282 -0.0991175854 -0.1715327927 0.0683298776
120299280.0 -0.159604073 0.073269504 0.5356144782 -0.1064116945 0.5352060198 -0.1065249025 -0.1699052331 0.0685325943
125299250.0 -0.1580536879 0.073775025 0.5348686926 -0.1127382075 0.5346787057 -0.1125726095 -0.1689181371 0.0699448783
130299220.0 -0.1568061348 0.0747158285 0.5346015137 -0.1199325773 0.5344927644 -0.1201544523 -0.1676399023 0.0705806383
135299190.0 -0.1556093826 0.0759239802 0.5338167987 -0.1259460485 0.5340176103 -0.1262448907 -0.1669255418 0.0712386307
140299160.0 -0.154331862 0.0769255184 0.5331238691 -0.133254244 0.5327572986 -0.1326709279 -0.1662799412 0.0718392001
145299130.0 -0.1535913356 0.0778499057 0.5322579759 -0.1393579833 0.5320049392 -0.1393638257 -0.1649824645 0.0728333659
150299100.0 -0.1521433668 0.0790203046 0.5306550736 -0.1459561328 0.5306701803 -0.1460788891 -0.1642129039 0.0741291735
155299070.0 -0.1511160426 0.0801033275 0.5292576633 -0.15253243 0.5291702759 -0.1526597907 -0.1629927504 0.0748137072
160299040.0 -0.1500478579 0.0813006903 0.5284828923 -0.158959294 0.5283828737 -0.1590470013 -0.1625424317 0.0759900662
165299010.0 -0.1490216835 0.0822178666 0.5268419578 -0.1650083321 0.5263795831 -0.1654235454 -0.1615506803 0.0763855791
170298980.0 -0.1478739066 0.0835256275 0.5248069635 -0.1717331946 0.525010147 -0.1718583045 -0.1611470593 0.0779517869
175298950.0 -0.1470638664 0.0845949479 0.5238252061 -0.1777310277 0.5237332719 -0.1783501708 -0.1603214432 0.0792570186
180298920.0 -0.146123004 0.0860287048 0.5219150447 -0.1845286839 0.5217028909 -0.1844860137 -0.159477471 0.0799234165
185298890.0 -0.1450906969 0.0871004995 0.5204447688 -0.1905201644 0.5200700103 -0.1904975346 -0.1582428799 0.0809799369
190298860.0 -0.143870627 0.0890395873 0.5178603182 -0.196683423 0.518300548 -0.1967158191 -0.1580321976 0.0824225007
195298830.0 -0.1431530948 0.0898992021 0.516339324 -0.2029970748 0.5163855804 -0.2030610196 -0.1574409756 0.0839175115
200298800.0 -0.1419851574 0.0909898911 0.5140688865 -0.2095650297 0.514264816 -0.2091042318 -0.1562868507 0.0848660171
205298770.0 -0.1415097406 0.0926580392 0.5119538696 -0.2149057602 0.5120199883 -0.214626229 -0.1554867406 0.0860535638
210298740.0 -0.1402656529 0.0939614458 0.5094940076 -0.2209885759 0.5095361722 -0.2208817143 -0.1552823888 0.0870183093
215298710.0 -0.1391510581 0.0955900814 0.5069787436 -0.2265715391 0.5071472845 -0.2268450764 -0.1541795703 0.0883407745
220298680.0 -0.1381593085 0.0969260262 0.5047746714 -0.2328452423 0.5046192721 -0.2331277108 -0.1534113117 0.0895352413
225298650.0 -0.1371952883 0.0983179682 0.5018713981 -0.2382612765 0.5025177429 -0.2382629417 -0.1526784347 0.0909035146
230298620.0 -0.1360415747 0.0999309797 0.4997308477 -0.2445899524 0.5001684507 -0.2445410799 -0.1520431233 0.0920466091
235298590.0 -0.1356310583 0.101380214 0.4972410867 -0.250617833 0.4973807143 -0.2502160733 -0.1511567851 0.0934601068
240298560.0 -0.1343070429 0.1029911709 0.4943935795 -0.2558208382 0.4946200959 -0.2558000727 -0.150546839 0.0945646708
245298530.0 -0.1334755588 0.1040261268 0.4916995909 -0.2617398015 0.491829549 -0.2619341247 -0.1495893838 0.0960326879
250298500.0 -0.1326044767 0.1053052123 0.4891982 -0.2670934313 0.4889120969 -0.2669855897 -0.1491529397 0.0975153018
255298470.0 -0.1312659497 0.1073686212 0.486309219 -0.2726056127 0.4866649799 -0.2728937212 -0.1481545142 0.0987495563
260298440.0 -0.1301103469 0.1084130197 0.4834598293 -0.2777620481 0.4835865357 -0.2776388687 -0.1475860348 0.0994847522
265298410.0 -0.1294784517 0.1099898526 0.4800586775 -0.2837933333 0.4797165541 -0.283823631 -0.1458050261 0.1010578414
270298380.0 -0.1284386413 0.1112073703 0.4769602975 -0.2889882726 0.4770153703 -0.2890196972 -0.1451300561 0.1027080174
275298350.0 -0.126980061 0.1130070835 0.4733978481 -0.2939170487 0.4737992868 -0.2944804107 -0.1446169444 0.1041196636
280298320.0 -0.1262491176 0.1143877256 0.4707458684 -0.2994868493 0.4709983272 -0.2998404842 -0.143495914 0.1055045411
285298290.0 -0.1251620133 0.1159794533 0.4674332024 -0.3048501169 0.4676364108 -0.3050287769 -0.1428504567 0.1069023942
290298260.0 -0.1237245422 0.1173430714 0.4645661829 -0.3102819548 0.4640113441 -0.310664811 -0.1414830188 0.1081689289
295298230.0 -0.1226258904 0.1184136882 0.4608194024 -0.3161736418 0.4611359364 -0.3160077154 -0.1407812336 0.1094286791
300298200.0 -0.1211344893 0.1203815204 0.4574091279 -0.321179987 0.4578867846 -0.3206918422 -0.139933176 0.1106619301
305298170.0 -0.1199470013 0.1214557685 0.4541721177 -0.3262902855 0.4545789806 -0.3265636226 -0.138722764 0.1116993044
310298140.0 -0.1185496913 0.1225054412 0.4505366966 -0.3313017994 0.4509653554 -0.3310378218 -0.1377478314 0.1129144373
315298110.0 -0.1178463068 0.1235981349 0.4471081867 -0.3373271101 0.4469813591 -0.336928797 -0.1366856223 0.114199591
320298080.0 -0.11635387 0.1251640983 0.4426514499 -0.341810679 0.4432995888 -0.3419770464 -0.1357594196 0.1152027408
325298050.0 -0.1157180578 0.1259819364 0.4393765922 -0.3467449881 0.4397668103 -0.346947158 -0.134533952 0.1165302991
330298020.0 -0.114862401 0.1280015715 0.4356826094 -0.3518075634 0.4359323772 -0.3519101376 -0.1339541799 0.1178526327
335297990.0 -0.1132346388 0.1290365904 0.4311667297 -0.3568068274 0.4318237315 -0.35678549 -0.132914533 0.119567402
340297960.0 -0.1126377717 0.1303253015 0.4269673597 -0.3618537048 0.4271739012 -0.3619352042 -0.1318915812 0.1209448895
345297930.0 -0.1111640972 0.131682845 0.4233893939 -0.366357793 0.4235298817 -0.3659947505 -0.1310406743 0.1219872572
350297900.0 -0.1100916117 0.1327701885 0.4191910227 -0.3704845648 0.4193999842 -0.3704767083 -0.1301382171 0.123230543
355297870.0 -0.1089403294 0.134474301 0.4154301913 -0.3750835891 0.4151636742 -0.3751854067 -0.1289410655 0.1250451794
360297840.0 -0.1073465637 0.1360543163 0.4109846073 -0.3801944855 0.4111554866 -0.3802585052 -0.1280341855 0.1263126917
365297810.0 -0.1064286934 0.1371329289 0.4067441195 -0.3842576067 0.4068340429 -0.384401304 -0.1270058259 0.1272757063
370297780.0 -0.104627602 0.1385134694 0.4021875399 -0.389041925 0.4026297674 -0.3887047096 -0.1256777529 0.1287864131
375297750.0 -0.1031210512 0.1402071228 0.3981939057 -0.3933712752 0.3983333579 -0.3930998162 -0.1244540664 0.1302791819
380297720.0 -0.1025408878 0.1412617928 0.3944470616 -0.3976202821 0.3937087811 -0.3975950663 -0.1232669365 0.1316849501
385297690.0 -0.1007668262 0.1422332855 0.3893019624 -0.4019264401 0.3897178691 -0.4022776784 -0.1220062552 0.1330826128
390297660.0 -0.0992725928 0.1435059032 0.3852461901 -0.4060893314 0.3852418471 -0.4064884391 -0.1206055171 0.134352801
395297630.0 -0.0973917087 0.1449031288 0.3809470889 -0.4100197309 0.3807835614 -0.4100584932 -0.1194173096 0.1352145745
400297600.0 -0.0965147074 0.1458757793 0.3766614928 -0.4143767567 0.3762023991 -0.414388451 -0.1180881298 0.1371357672
405297570.0 -0.0949696709 0.1468056454 0.3718925192 -0.4185509319 0.3715043383 -0.4183344902 -0.1168059759 0.1382087999
410297540.0 -0.0930315911 0.1482338189 0.3670558706 -0.4226633145 0.3671711021 -0.4223816674 -0.1156870685 0.1395563448
415297510.0 -0.0919635545 0.1493578952 0.362213805 -0.4261915688 0.3627326391 -0.426574459 -0.1140693994 0.1407270058
420297480.0 -0.0901924184 0.150014892 0.3575428937 -0.4302154996 0.3577202797 -0.4308992716 -0.1124408954 0.1424633203
425297450.0 -0.0881574106 0.1512796549 0.353110333 -0.4343663091 0.3527851415 -0.4345492301 -0.1115239209 0.1428807803
430297420.0 -0.08707929 0.1524696994 0.3487207878 -0.4380282429 0.3486120298 -0.4379027213 -0.1099367856 0.1443976998
435297390.0 -0.0850452982 0.1534845962 0.3429394665 -0.4425518248 0.3436376471 -0.4424307072 -0.1090923726 0.1461403788
440297360.0 -0.0836394715 0.1543122282 0.3385102513 -0.445713152 0.3386658393 -0.4458745515 -0.1077434967 0.1470247355
445297330.0 -0.0817145336 0.1550017358 0.3338578315 -0.4492781128 0.3338022563 -0.4495410586 -0.1059033369 0.148259299
450297300.0 -0.0801398067 0.1565456889 0.32874691 -0.4529428807 0.3290147704 -0.4529411668 -0.1041528583 0.149656058
455297270.0 -0.0786092623 0.1571612808 0.3241924414 -0.4562793933 0.3238761019 -0.4568903876 -0.1029349977 0.1505488107
460297240.0 -0.0768632005 0.1584490491 0.3194103863 -0.4606039715 0.3189113614 -0.4602302089 -0.1016877385 0.1514132051
465297210.0 -0.074757154 0.1591546282 0.3133530012 -0.463508146 0.3134885578 -0.4637900396 -0.0999010335 0.1532933175
470297180.0 -0.0730926587 0.1600539016 0.308750519 -0.4667448155 0.308948384 -0.4670572295 -0.0984377438 0.15411646
475297150.0 -0.071670574 0.1611134176 0.3037387653 -0.4703196309 0.3039473683 -0.4702968682 -0.0972035238 0.1547667726
480297120.0 -0.0692980073 0.1624591547 0.2984917162 -0.4738846481 0.2986655311 -0.4734734541 -0.0957345925 0.156170406
485297090.0 -0.0675141118 0.1626255789 0.2930848407 -0.4770252558 0.2934677628 -0.4767046242 -0.0942422205 0.1572746025
490297060.0 -0.0655018546 0.1640484097 0.2880154789 -0.4801577977 0.2880273294 -0.4800065676 -0.0924098429 0.1578949416
495297030.0 -0.0639771029 0.1642773002 0.2831440263 -0.4828840668 0.2828708799 -0.4833148113 -0.0905049577 0.1589507371
500297000.0 -0.0621603886 0.1653966182 0.2778687721 -0.4858247564 0.2776024037 -0.48631683 -0.0892681738 0.1602380335
505296970.0 -0.0599190134 0.1662114815 0.2722674441 -0.4893728038 0.2723563682 -0.4886500895 -0.0875914917 0.1608452561
510296940.0 -0.0582731509 0.1666617222 0.2672343654 -0.4924912903 0.2672132425 -0.4925122153 -0.0854797246 0.1622945169
515296910.0 -0.0562536165 0.1679403073 0.2608695789 -0.4948876379 0.2611731905 -0.4949540908 -0.0842619513 0.162736432
520296880.0 -0.0540580959 0.168538416 0.25562739 -0.4976558228 0.2560034686 -0.4974979114 -0.0823047599 0.164504528
525296850.0 -0.0523460611 0.1691376075 0.2503508328 -0.5000090049 0.2501824398 -0.5000251297 -0.0807672187 0.1648869148
530296820.0 -0.050670358 0.1699547559 0.2450278044 -0.5031736606 0.2451823665 -0.5027045096 -0.0792160264 0.1655182215
535296790.0 -0.0479954514 0.1706535818 0.239818193 -0.5056148886 0.239738182 -0.5057705416 -0.0772254543 0.1671554457
540296760.0 -0.0461880559 0.1716212074 0.2337113089 -0.5078734294 0.2338383206 -0.5079574707 -0.0758055001 0.1675251418
545296730.0 -0.0447574902 0.1724327879 0.2290996622 -0.5105416946 0.2283126732 -0.5103246542 -0.0739360383 0.1683803258
550296700.0 -0.0420238754 0.1727804687 0.2231240633 -0.5132942374 0.2224322161 -0.5132885548 -0.0721655588 0.1694627081
555296670.0 -0.040374629 0.1732937791 0.2174320423 -0.5158832855 0.2171816395 -0.5153603911 -0.0707507843 0.1694517702
560296640.0 -0.0379230101 0.1737191633 0.2114266796 -0.5176024152 0.211757364 -0.5177753659 -0.0689269085 0.1710746476
565296610.0 -0.0366804233 0.1747360259 0.2063407631 -0.5201257146 0.2061968232 -0.5197540078 -0.0673111577 0.1718842301
570296580.0 -0.0344885714 0.1753866135 0.2002092403 -0.5221983512 0.2003834948 -0.5222882048 -0.0657048581 0.1725985457
575296550.0 -0.0319905141 0.175726848 0.1947549146 -0.5241589199 0.1946809735 -0.5243195068 -0.0639051383 0.1732646217
580296520.0 -0.0302989316 0.1767495641 0.1894195196 -0.5261811161 0.1890143125 -0.5262376174 -0.0629576835 0.1736954526
585296490.0 -0.0279311768 0.177127206 0.1836061358 -0.5281192768 0.1830502125 -0.5283601295 -0.0602493451 0.1749799601
590296460.0 -0.0256455604 0.177518949 0.1775359091 -0.5301232849 0.1778303208 -0.5303090928 -0.0590510381 0.1754736039
595296430.0 -0.0237333014 0.1779967687 0.1711781065 -0.5322230497 0.1715171386 -0.5320567202 -0.0571359296 0.1760064197
600296400.0 -0.0214703042 0.1783380753 0.1659000115 -0.5338290316 0.1659371676 -0.5337650714 -0.0556381487 0.1766236479
605296370.0 -0.0200400692 0.1788370513 0.1608399113 -0.5351650763 0.1598560731 -0.5357777993 -0.0534866336 0.1775879429
610296340.0 -0.0172139269 0.1798920907 0.1542346191 -0.5365318329 0.1547985782 -0.5371330503 -0.0522470941 0.178142851
615296310.0 -0.0153517833 0.179860158 0.1486353248 -0.5388771483 0.1481739932 -0.5391712014 -0.0500460256 0.1789490663
620296280.0 -0.0136599937 0.1804881201 0.1425586622 -0.5402785024 0.1425928018 -0.5402286689 -0.0488071656 0.1797750596
625296250.0 -0.0116190595 0.1807344031 0.1369738447 -0.5418782923 0.1369594037 -0.5420826176 -0.0468868214 0.1801042755
630296220.0 -0.0093527164 0.1813707231 0.1307351906 -0.5436632784 0.1306646011 -0.5430991302 -0.0449116007 0.1808221112
635296190.0 -0.0075677431 0.1819284317 0.1252228674 -0.5442952146 0.1251801944 -0.5442869621 -0.0430251324 0.1810476891
640296160.0 -0.0051971944 0.181994844 0.1187721984 -0.546317989 0.1191750554 -0.5459306325 -0.0417083597 0.1814593146
645296130.0 -0.0028737036 0.1829667155 0.1128748716 -0.5472101319 0.1132765435 -0.5469912507 -0.0400615028 0.1817163036
650296100.0 -0.0012817722 0.1826096302 0.1076069667 -0.548511058 0.1068856251 -0.5485774495 -0.0372854401 0.1827868271
655296070.0 0.0008368811 0.1830063906 0.1011607349 -0.5496254475 0.1013109304 -0.5492676181 -0.0363714339 0.1832017826
660296040.0 0.0027526906 0.1831559964 0.0955811334 -0.5506346826 0.0952659246 -0.5503672163 -0.0341454804 0.1833474572
665296010.0 0.0052242532 0.1836348299 0.0888393455 -0.5512793533 0.089074092 -0.5510777059 -0.0324685514 0.1840911965
670295980.0 0.0072218908 0.1837788779 0.0831867779 -0.552185358 0.0833438129 -0.5517948265 -0.0310072397 0.1845797235
675295950.0 0.009366202 0.1839253099 0.0775316932 -0.5529499907 0.0776134496 -0.553091157 -0.0290954188 0.1850198944
680295920.0 0.0109292527 0.1841138437 0.0717978 -0.5533904443 0.0714477834 -0.5535029414 -0.0271706482 0.1852244999
685295890.0 0.0138572278 0.1845785093 0.065236753 -0.5547214055 0.065384856 -0.5545393059 -0.0250569933 0.1859661911
690295860.0 0.0148448379 0.1845803497 0.0595736376 -0.5551083314 0.0593718808 -0.5552981014 -0.02353471 0.1861341988
695295830.0 0.017294497 0.1846956409 0.0536914081 -0.555786953 0.0534856507 -0.5557381027 -0.0216444399 0.1868208833
700295800.0 0.0193818486 0.1845502417 0.0478289484 -0.5564519595 0.0476783183 -0.5561454868 -0.0198725361 0.1869956389
705295770.0 0.0211361471 0.1848037103 0.0418897074 -0.556983561 0.0416413375 -0.5566814686 -0.0181991382 0.1876383799
710295740.0 0.0228637703 0.1846561638 0.0360736487 -0.5572979985 0.0353596334 -0.5573930597 -0.0162365981 0.1878602514
715295710.0 0.0253792293 0.1850433992 0.0298509354 -0.5579365618 0.029657687 -0.5577619086 -0.0142492963 0.187906538
720295680.0 0.0274157417 0.1847547189 0.0231694341 -0.5574749412 0.023556615 -0.5580827748 -0.0126038141 0.1883045327
725295650.0 0.0290142506 0.1852763428 0.0177114373 -0.5582515148 0.0175080641 -0.5581967806 -0.0111207202 0.1891072836
730295620.0 0.0307113455 0.1847257594 0.0115982584 -0.5578687221 0.0115485454 -0.5576400363 -0.0091728095 0.189373027
735295590.0 0.0332304712 0.1848502374 0.0054808411 -0.5586591276 0.0054557017 -0.5581621999 -0.0072899689 0.1890218998
740295560.0 0.0345777765 0.1843371923 -4.337e-05 -0.5582741746 -0.0001105094 -0.5585024116 -0.0056412889 0.189624755
745295530.0 0.0368155898 0.184376384 -0.0061088634 -0.5571466233 -0.0055588178 -0.5577312837 -0.0041826627 0.1896801389
750295500.0 0.0385878753 0.1843311332 -0.0117871441 -0.5578333844 -0.0124223185 -0.5574779541 -0.0019488707 0.190239943
755295470.0 0.0405229341 0.1842640641 -0.0180490206 -0.5583147659 -0.0177100878 -0.5584021294 -5.73933e-05 0.1904219515
760295440.0 0.0424849559 0.184395443 -0.0245883352 -0.5580762379 -0.0243514913 -0.557017067 0.0019299416 0.1897496762
765295410.0 0.0445787545 0.183518517 -0.0298498547 -0.5569766734 -0.0297689391 -0.556844551 0.0037675555 0.1902963954
770295380.0 0.0465158927 0.1837825495 -0.0358288304 -0.5563812721 -0.0356226515 -0.557373695 0.0051794682 0.1904977271
775295350.0 0.0481147682 0.1830741382 -0.0417820463 -0.5564065745 -0.0418679481 -0.5563409708 0.0075154528 0.1906969807
780295320.0 0.050177142 0.1832628239 -0.0475226489 -0.5555515095 -0.0480928324 -0.5558575673 0.0094975436 0.1907811513
785295290.0 0.0522347988 0.1823885741 -0.0539640508 -0.5552000422 -0.0540140023 -0.5553265862 0.0108591334 0.1909637318
790295260.0 0.0543756024 0.1817391988 -0.0598863663 -0.5546275499 -0.0597218771 -0.5553169803 0.0127872021 0.1915595327
795295230.0 0.0558446371 0.1814589434 -0.0658937955 -0.5541691017 -0.0660979723 -0.5543171692 0.0147230185 0.1906770142
800295200.0 0.0578770597 0.1814891122 -0.071175504 -0.5528317262 -0.0717406639 -0.5534570305 0.0163000489 0.1908018579
805295170.0 0.059720618 0.1811599229 -0.0778415519 -0.5526757299 -0.0773793488 -0.552620357 0.018684036 0.1911236999
810295140.0 0.0619508579 0.1808560047 -0.0838263243 -0.5514463103 -0.0833752596 -0.5518072307 0.0203054432 0.1911155911
815295110.0 0.0633953229 0.1803810016 -0.0890426474 -0.5507633236 -0.089375912 -0.5509632595 0.0220531199 0.1913084935
820295080.0 0.0653132358 0.179676531 -0.094836801 -0.5493232068 -0.0952511601 -0.5498916267 0.0232462268 0.1914884055
825295050.0 0.066939042 0.1789967187 -0.10088826 -0.5486304338 -0.1013408507 -0.5485519287 0.0260359784 0.1912582198
830295020.0 0.0691775978 0.1787107729 -0.107010726 -0.5476448534 -0.1069011693 -0.547606468 0.0277084638 0.1910727317
