!Created with skrf (http://scikit-rf.org).
# Hz S RI R 50.0 
!freq ReS11 ImS11 ReS21 ImS21 ReS12 ImS12 ReS22 ImS22
300000.0 -0.7703634724 -0.1439324049 -0.000379637 0.0018823469 -0.001560132 0.0009649475 -0.0492386317 -0.0674751324
5299970.0 -0.7851664552 -0.0070858252 -2.65312e-05 1.35352e-05 0.000210931 6.2584e-06 -0.0497551294 0.0148280821
10299940.0 -0.7875758625 -0.0042451951 0.0001967503 7.53007e-05 -0.0001488014 -4.43001e-05 -0.0442133532 0.032004125
15299910.0 -0.7927995793 -0.001834491 -0.0001534006 9.59791e-05 -0.0001179841 -8.19056e-05 -0.0355996367 0.0466122492
20299880.0 -0.8000000606 0.0024202275 0.0001587995 -0.0001424019 -5.28703e-05 -9.68703e-05 -0.0259351718 0.0583852821
25299850.0 -0.8061074047 0.0085020714 0.000157129 1.06124e-05 -1.77016e-05 -1.7541e-05 -0.0151296363 0.0679445075
30299820.0 -0.8123317445 0.016130461 9.15372e-05 -5.54573e-05 -9.23921e-05 0.0002047309 -0.0040214498 0.0746978729
35299790.0 -0.8164905564 0.0250280382 -4.63657e-05 0.0001046227 -8.10153e-05 0.0001120722 0.0077027309 0.0792144613
40299760.0 -0.8215025445 0.034441099 2.7456e-05 -3.58032e-05 6.79718e-05 0.0001102839 0.0186576447 0.0823294838
45299730.0 -0.8249169714 0.0441627703 -0.0001290178 -0.0001247982 -1.44813e-05 -6.61886e-05 0.0293232438 0.0840755531
50299700.0 -0.8265422311 0.0537486322 1.9422e-06 -8.71787e-05 -0.0001883915 -5.98529e-05 0.0396253568 0.0842018657
55299670.0 -0.8289889481 0.0640277325 -4.70162e-05 0.0001158903 -0.0001493433 -6.62396e-05 0.0482344285 0.0835137915
60299640.0 -0.8297488888 0.0747221796 -1.22984e-05 0.0001142671 0.0001096369 5.37528e-05 0.0569667966 0.081570519
65299610.0 -0.8311098272 0.0852292156 3.40743e-05 -6.45988e-05 8.7523e-06 5.05173e-05 0.0645431534 0.0795037808
70299580.0 -0.83137525 0.0946426858 -0.0001748779 0.0001368006 -0.0001145288 0.0002078367 0.0717741643 0.0765492782
75299550.0 -0.8314063803 0.1047859495 9.22971e-05 7.72701e-05 5.02308e-05 -4.42455e-05 0.0782775484 0.0734526359
80299520.0 -0.8309893147 0.1145341212 0.0001615143 0.0001048299 0.000121258 0.0002254847 0.0834246982 0.070235574
85299490.0 -0.8310591624 0.1239526952 -4.17914e-05 3.61892e-05 -0.0002385782 0.0001451425 0.0887046608 0.0665832075
90299460.0 -0.8299704858 0.1337377642 0.0002954707 -1.52831e-05 -9.1902e-06 0.0001805227 0.0935010433 0.0626488031
95299430.0 -0.8288178363 0.1435004443 -1.32282e-05 0.0001113033 6.4474e-06 7.70802e-05 0.0977052933 0.0592634397
100299400.0 -0.8273689623 0.1530626965 -9.12604e-05 -0.0001242647 1.31787e-05 -4.99257e-05 0.1010121636 0.0553721257
105299370.0 -0.8266486252 0.162138304 -5.98804e-05 3.0557e-05 3.99305e-05 4.67883e-05 0.104625235 0.051103419
110299340.0 -0.8251257253 0.1713088667 3.80472e-05 0.0002808189 7.5159e-05 0.0001282004 0.1074416645 0.0476971535
115299310.0 -0.8236381287 0.180337377 0.0001065045 -5.15399e-05 0.0001583175 0.0001305907 0.1099328184 0.0435036148
120299280.0 -0.8217539925 0.1889796575 2.69944e-05 -7.71198e-05 -9.5836e-05 7.53789e-05 0.1123320286 0.03994303
125299250.0 -0.8197169717 0.1984715219 -3.392e-07 4.24416e-05 2.00388e-05 0.0001346505 0.1144097355 0.03588303
130299220.0 -0.8184742329 0.2074532167 -5.87549e-05 -1.47506e-05 8.7493e-05 0.0001152038 0.1158056087 0.0329039184
135299190.0 -0.816358194 0.2164621576 -0.0001747815 0.0001807476 1.27468e-05 1.30554e-05 0.1175208204 0.0288096131
140299160.0 -0.8145397361 0.2252640153 0.0001579381 0.0001197463 -0.000126893 -3.91633e-05 0.1192357389 0.0255362665
145299130.0 -0.8126016564 0.2341966601 3.50452e-05 0.0001418488 3.85035e-05 0.0001250325 0.1196077262 0.0224292377
150299100.0 -0.809869796 0.2433906404 -4.36526e-05 -6.5891e-06 -2.304e-07 8.90996e-05 0.1208659929 0.0184773219
155299070.0 -0.8077453637 0.252520945 0.0001130115 -7.25035e-05 7.23969e-05 7.29007e-05 0.1215380956 0.0157358265
160299040.0 -0.8049545399 0.2609535775 0.0001962785 3.88346e-05 0.0001830279 -9.65159e-05 0.1225540787 0.0121274099
165299010.0 -0.8022897728 0.2695854757 7.56075e-05 0.0001945401 5.875e-07 0.0001097246 0.1230727229 0.0091960653
170298980.0 -0.7993866805 0.2776378656 0.0002365052 6.84093e-05 -6.31891e-05 0.0001254635 0.1236983337 0.0061359081
175298950.0 -0.79632074 0.2869270383 0.0002425516 2.24703e-05 9.12033e-05 7.71507e-05 0.1236945227 0.0028491685
180298920.0 -0.7936556331 0.2948604914 -0.000108507 0.0001522127 0.0001180219 5.0621e-05 0.1243925471 0.0002684034
185298890.0 -0.790661503 0.304490115 3.71734e-05 6.74869e-05 -1.93179e-05 0.0001103274 0.1243820846 -0.0029000156
190298860.0 -0.7873094797 0.3120994956 3.7692e-05 0.0001190698 -0.0001076526 7.11954e-05 0.1247815159 -0.0058013812
195298830.0 -0.7839642432 0.3205354376 2.71041e-05 0.0002252707 1.15133e-05 0.000205856 0.1244312113 -0.0083285151
200298800.0 -0.7811065538 0.3291406283 1.04861e-05 4.32816e-05 0.0001566983 0.0001560718 0.1247682983 -0.0109533795
205298770.0 -0.7771019984 0.3374495618 0.0001639831 4.32835e-05 -0.0001248505 0.000111994 0.1242468461 -0.0136303703
210298740.0 -0.7735726064 0.3453583187 0.0001871025 0.0003277443 0.00024112 4.10175e-05 0.1242809635 -0.015948132
215298710.0 -0.7705122529 0.3539906033 0.0001184396 8.30768e-05 0.0001522651 6.4647e-05 0.1235655258 -0.0185846202
220298680.0 -0.7670723168 0.3624141256 1.41803e-05 0.0003302411 0.0001185224 2.39645e-05 0.1239178724 -0.0208011261
225298650.0 -0.7626437494 0.3709509564 -2.91394e-05 0.0001401398 -1.92649e-05 0.0001600133 0.1228712336 -0.0230199567
230298620.0 -0.7587489853 0.3788706087 0.0002702566 0.0001413652 4.08997e-05 0.0002719655 0.1226476107 -0.025535933
235298590.0 -0.7551835096 0.386984834 -9.89635e-05 3.54926e-05 7.80556e-05 -0.0001318277 0.1222372801 -0.0277385941
240298560.0 -0.7509377148 0.3950336147 5.56064e-05 9.83807e-05 0.0002490458 0.0001142451 0.1219719873 -0.0298873771
245298530.0 -0.7463788565 0.4028827791 -1.12826e-05 -0.0001974468 9.57875e-05 0.0001171758 0.1212365925 -0.0319026231
250298500.0 -0.7424220358 0.4104639096 -6.22399e-05 0.0001553905 5.54766e-05 0.0003362475 0.1211042355 -0.0343668899
255298470.0 -0.7376707642 0.4188206928 0.0001499333 0.0002348371 1.86633e-05 3.10371e-05 0.1200635036 -0.0366247971
260298440.0 -0.7336452927 0.4258453668 0.0003267369 0.0003642678 0.000141057 4.79177e-05 0.1195826033 -0.0383848077
265298410.0 -0.7296585188 0.4338923288 0.0001315319 0.0001515655 0.0002696119 5.02626e-05 0.1191053767 -0.0404641602
270298380.0 -0.7241194944 0.4414211574 0.0001016697 5.85819e-05 0.0001887058 -4.7083e-06 0.1181567829 -0.0426194069
275298350.0 -0.719568803 0.4492521649 4.2398e-05 0.0001158157 0.0002546021 0.0001398355 0.1177021007 -0.044185786
280298320.0 -0.7149363986 0.4568197797 0.0001054812 -2.46769e-05 -3.09402e-05 0.0002416193 0.1166745658 -0.0459807685
285298290.0 -0.7100697083 0.4643667598 0.0002649312 0.0001276767 -0.0001715777 5.52168e-05 0.1158872716 -0.0477966448
290298260.0 -0.7054291297 0.4718321391 0.0001512302 0.0003097104 0.0002025316 0.000127822 0.1157239426 -0.0497497216
295298230.0 -0.7004122002 0.4788303631 7.27848e-05 0.0003576618 0.0003215407 4.22164e-05 0.1145325496 -0.0513649255
300298200.0 -0.6947545891 0.4860831286 0.000265985 1.90647e-05 0.0001403314 0.0001868173 0.113837668 -0.0532671378
305298170.0 -0.6901119594 0.4941126524 0.0001943719 0.0002537341 9.87602e-05 9.20352e-05 0.1135697533 -0.0548444251
310298140.0 -0.684543715 0.5007950522 0.0001881451 3.20221e-05 0.0002656129 0.0001477201 0.1124612784 -0.0565659527
315298110.0 -0.6796177731 0.5074967134 0.0002201184 0.000292542 0.0001556291 0.0001907093 0.1118887185 -0.0584180476
320298080.0 -0.6743815944 0.5152083429 0.0003073092 0.0002267521 0.0001005454 7.34738e-05 0.1107307696 -0.0601983105
325298050.0 -0.6683199937 0.5221609519 0.0002303073 1.98896e-05 -3.7701e-05 0.0001701764 0.109472988 -0.062237202
330298020.0 -0.6627780541 0.5289509856 -4.49329e-05 -6.7604e-06 3.18795e-05 1.42322e-05 0.1085584534 -0.0636641987
335297990.0 -0.6568502477 0.5365396011 0.0001970836 0.0001275055 0.0003152369 0.0001229974 0.1070823182 -0.0652796492
340297960.0 -0.651477579 0.5425876984 5.73284e-05 0.0001949401 0.0001710535 0.0001657293 0.1064205077 -0.0669526142
345297930.0 -0.6459481415 0.5486886005 9.39106e-05 0.0003010027 0.0002230528 0.0001267773 0.1049289428 -0.0680109148
350297900.0 -0.6405179571 0.556039764 0.0001329523 -2.50363e-05 3.9147e-05 -1.91426e-05 0.1038851838 -0.0694456479
355297870.0 -0.6341848409 0.5628433506 0.0001870915 4.4865e-05 0.000327366 0.0001282056 0.1024711767 -0.0702494954
360297840.0 -0.6280104031 0.5692061098 0.0004626918 0.0003035684 0.000259332 0.0001550236 0.1015788573 -0.0717078437
365297810.0 -0.6218621064 0.5756162695 0.000292336 -0.0001090638 7.4038e-06 0.0002375285 0.1002361026 -0.0731241071
370297780.0 -0.616064524 0.5813922447 0.0001720131 0.0003052763 3.60924e-05 0.0002683441 0.0991235659 -0.0741099379
375297750.0 -0.6099685351 0.5878872011 0.0002995852 0.0003917258 0.0003521319 0.0001072429 0.0979581821 -0.0751963673
380297720.0 -0.6035512323 0.5943264059 0.0002027896 0.0004857088 7.65035e-05 0.0002225433 0.097269648 -0.0763038415
385297690.0 -0.5976747364 0.6008743752 0.0003689625 0.000333129 0.0001803086 0.000134501 0.0957240789 -0.0770527003
390297660.0 -0.5914202249 0.606725906 8.26201e-05 7.38802e-05 0.000450664 0.0001532603 0.0945849032 -0.0789263376
395297630.0 -0.5851080186 0.6130342646 0.0001478391 0.000394912 0.0001795878 0.0002440286 0.0933772194 -0.0797193659
400297600.0 -0.578897289 0.6189056872 0.0003210055 0.000191052 0.0001930293 0.0001241641 0.0921770189 -0.0806736371
405297570.0 -0.57311343 0.6249084466 0.0003844685 -6.79744e-05 0.0001122448 6.92824e-05 0.0910879288 -0.0816872374
410297540.0 -0.5655568878 0.6309952172 0.0003023413 4.8718e-05 0.0001221674 0.0001783061 0.0896000155 -0.0822943388
415297510.0 -0.5588018934 0.6364240797 0.0003775389 0.0001518719 0.000111425 0.0001212077 0.0882203159 -0.0834967267
420297480.0 -0.5520917094 0.6417792707 0.0002916013 -1.09179e-05 0.0002559717 0.0001491403 0.0870334621 -0.0844937423
425297450.0 -0.5453760299 0.6479564081 0.0001876316 0.0002135483 0.0001416225 0.0001508277 0.0860063238 -0.0853295154
430297420.0 -0.5393770595 0.6531355994 0.0001919885 0.0001507831 0.0001991154 0.0001203631 0.0846812385 -0.0864602737
435297390.0 -0.5319114561 0.6594680629 0.0003413598 -1.10912e-05 0.0002281745 7.79681e-05 0.0834866781 -0.0872147414
440297360.0 -0.5251713737 0.6643256707 0.0004367043 5.20852e-05 0.0003509868 -7.1531e-06 0.0817798969 -0.0883049212
445297330.0 -0.517963559 0.6694038033 5.83786e-05 0.0001301121 0.0001183012 6.09106e-05 0.0805608812 -0.0893266451
450297300.0 -0.51164317 0.674620079 7.52271e-05 1.93072e-05 0.0001632984 0.000137175 0.0789264814 -0.0895975701
455297270.0 -0.5045524594 0.6795438117 0.0003468363 0.0002274371 0.0003317641 7.11015e-05 0.0779555326 -0.0905790821
460297240.0 -0.4977542556 0.6849383732 0.0002744927 0.0002711566 0.0003304618 0.0001349838 0.0771768154 -0.0913176998
465297210.0 -0.4897924234 0.6901675938 0.0003692134 0.0001203054 0.0003743933 0.0001143945 0.0752456192 -0.0922910697
470297180.0 -0.4828890581 0.6946212916 0.0001397981 0.0002504689 0.0001555213 9.88242e-05 0.0738961082 -0.0926706189
475297150.0 -0.4757571257 0.7001946669 0.0003662267 -5.99593e-05 0.0001263769 0.0002677664 0.0726565252 -0.0935437474
480297120.0 -0.4691553156 0.7041449211 0.0005228202 0.000519855 0.0003060879 -0.0001130854 0.0709263389 -0.0942743934
485297090.0 -0.4613204063 0.709336861 0.0003762522 0.0002860472 0.0001378961 0.0002112198 0.0695278917 -0.0950455353
490297060.0 -0.4538733443 0.7145711996 0.0002750281 0.0002793771 0.0002975098 0.0003664185 0.068234344 -0.0958310073
495297030.0 -0.4471994829 0.7189483706 0.0001609363 0.0001428512 7.56681e-05 0.0001151901 0.0668560702 -0.096559802
500297000.0 -0.438704751 0.7230184188 0.0003289855 0.0001874478 0.0001791329 8.70156e-05 0.0653593021 -0.0969326786
505296970.0 -0.4316099734 0.7270720116 0.0002973927 0.000360418 0.000369768 0.0001791052 0.0639819553 -0.0975584652
510296940.0 -0.4247282604 0.7321857511 0.0002932393 0.0001414074 0.0004143344 0.0001090922 0.0628052941 -0.0982014637
515296910.0 -0.4170507539 0.7362984724 0.0003589445 0.0002980689 0.0003888876 0.00022251 0.0612651587 -0.0986806342
520296880.0 -0.4090991878 0.7406412251 0.0002137794 4.46209e-05 0.0002374185 0.0001113871 0.0596486798 -0.099550214
525296850.0 -0.4017030623 0.7442652873 0.0005415044 -0.0001203882 0.0005023271 2.99054e-05 0.0585293335 -0.1002406048
530296820.0 -0.39416917 0.7480698805 0.000327639 -0.000238333 0.0002473753 6.33192e-05 0.0567961283 -0.1004103029
535296790.0 -0.3863256073 0.7523177892 0.0004920675 2.30997e-05 0.0002876797 9.70261e-05 0.0549888982 -0.1012669202
540296760.0 -0.3784997782 0.7562649233 0.0001917209 0.0001661825 0.00036184 0.000220894 0.0537425146 -0.1012499132
545296730.0 -0.3712695037 0.7596849491 0.0002101782 0.0003027775 0.0003448604 -0.0002086058 0.0520844388 -0.1018954479
550296700.0 -0.3632923438 0.7635749632 0.0004064159 -5.6203e-06 0.0002920423 -0.0001330037 0.0510280446 -0.1023546766
555296670.0 -0.3546819074 0.7668453826 0.0001163452 7.37192e-05 0.0003287042 0.0002309793 0.0494762037 -0.1027518516
560296640.0 -0.3465809547 0.7708073524 0.0005519347 9.69786e-05 0.0003136921 0.0001117471 0.048282145 -0.1032597508
565296610.0 -0.339960469 0.7739261452 0.000262487 0.000165435 0.0002738408 0.0001145556 0.0464671709 -0.1036566659
570296580.0 -0.3320297436 0.7774161493 0.0001966031 0.0001938268 0.000186514 7.20054e-05 0.0452510801 -0.1039874658
575296550.0 -0.3239716807 0.7807067479 0.0004742293 0.0001877349 0.0003007011 0.0002364372 0.0437298591 -0.1045259766
580296520.0 -0.3157121319 0.7837365833 0.0001368604 -1.17511e-05 0.0006120956 7.95886e-05 0.0422036259 -0.1046692985
585296490.0 -0.3079194007 0.7862513534 0.0003694054 5.2737e-06 0.0003202717 0.0001989142 0.040502499 -0.1055592651
590296460.0 -0.2995760251 0.7895420901 0.0002925002 -0.0001351659 0.0002797598 7.7807e-06 0.0392186563 -0.1052297968
595296430.0 -0.2909540988 0.7930877105 0.0003375082 0.0001651393 0.0003574435 7.28416e-05 0.0375875672 -0.1058145228
600296400.0 -0.2832887264 0.7957658421 0.0004647016 -0.0001442455 0.0003732598 0.0001607103 0.0363384994 -0.106025777
605296370.0 -0.2752743606 0.798646875 0.0004007844 0.0001450722 0.0002908236 0.0002031031 0.0348462092 -0.106072696
610296340.0 -0.2677623949 0.8013935582 0.0001109166 -2.83e-08 0.0002087688 0.0001531041 0.0332329147 -0.106313364
615296310.0 -0.2589955558 0.8040790491 0.0001257638 -2.04213e-05 0.0002836007 -6.21043e-05 0.0318050758 -0.1067364853
620296280.0 -0.2508477585 0.8061505932 0.0004133906 -2.21855e-05 0.0004838385 0.0002502699 0.0301275505 -0.1072481637
625296250.0 -0.2421086825 0.8086956625 0.0002813444 3.57569e-05 0.0005432908 -2.83779e-05 0.0286873472 -0.1071262822
630296220.0 -0.2341213966 0.8118483966 0.0004849244 7.487e-07 0.0004030517 7.43579e-05 0.0274522638 -0.1070804444
635296190.0 -0.2265087819 0.8135810637 0.0004403563 0.0002025657 0.0003265267 -0.0001646795 0.0260302948 -0.1075262363
640296160.0 -0.2178954407 0.8153368143 0.0003477865 0.0002365983 0.0004258835 0.0001007564 0.0243743632 -0.1077702084
645296130.0 -0.210039989 0.8175925177 0.0002217421 -0.0001966953 0.0003256382 -6.48987e-05 0.0228348112 -0.1074961912
650296100.0 -0.2017747611 0.8195902748 0.0004407223 0.0001841985 0.0003356859 -6.25737e-05 0.0211657252 -0.1075269868
655296070.0 -0.1934288951 0.8219460022 0.0002636795 -7.56701e-05 0.0002745595 -6.31154e-05 0.019824077 -0.1076292148
660296040.0 -0.1852464834 0.8240802446 0.0004196315 0.0001491641 0.0001651592 4.26824e-05 0.0184855965 -0.1077898706
665296010.0 -0.1770977772 0.8259287525 0.0003829743 -2.8297e-06 0.000323411 -6.68639e-05 0.0169791825 -0.1078024083
670295980.0 -0.16799056 0.827339529 0.0001132185 7.74882e-05 0.0003436079 -3.36043e-05 0.0157678547 -0.107739294
675295950.0 -0.1600285216 0.8283546387 0.0005952679 -4.44703e-05 0.0004059515 -0.000191213 0.0144937146 -0.1076802054
680295920.0 -0.1519941827 0.8310819287 0.0002414291 -5.66855e-05 0.0005260759 -0.000286742 0.0128135031 -0.1076234246
685295890.0 -0.1428209654 0.8320419838 0.0004124841 0.000275704 0.0004080326 -0.0001239807 0.0114726407 -0.1076813976
690295860.0 -0.1343562005 0.833818387 0.0002144443 2.0809e-06 0.0002940962 -5.40042e-05 0.0099197288 -0.1074970725
695295830.0 -0.1262477583 0.8339700755 0.0001703867 -6.39591e-05 0.0003870529 6.6166e-05 0.0083311086 -0.1075815064
700295800.0 -0.1183396015 0.8350743286 0.0002358302 -1.8444e-05 0.0003026068 5.2521e-06 0.0069040417 -0.1074872121
705295770.0 -0.1090466853 0.8374939829 0.0003736321 -0.0001254493 0.0003826072 -0.0001317311 0.0053836719 -0.1070739268
710295740.0 -0.1010360334 0.8380015953 0.0002731973 -7.21081e-05 0.0004506629 -0.0002629773 0.003686649 -0.1068622059
715295710.0 -0.0932915176 0.8388998779 0.0004779963 -0.0001903158 0.0002626169 -0.0001430967 0.0023194638 -0.106796854
720295680.0 -0.0845197362 0.8393937583 0.0004383538 -0.0001820126 0.0003180688 0.0001687432 0.0014032402 -0.1068230169
725295650.0 -0.0752893211 0.8413316684 0.0003339862 -4.89439e-05 0.0005216693 1.64092e-05 -0.0002040184 -0.1064863687
730295620.0 -0.0677012304 0.8412766769 0.0003831453 -8.1395e-06 0.0006450082 5.29281e-05 -0.0016263738 -0.1064790269
735295590.0 -0.0579927552 0.8420044928 0.0001297979 6.03184e-05 0.0002291533 0.0001864205 -0.0028492384 -0.1058650694
740295560.0 -0.050379722 0.8421250838 0.0004678508 1.43096e-05 0.0004221525 7.48375e-05 -0.0046629428 -0.1058860425
745295530.0 -0.0418223425 0.8424089482 0.0005345858 4.68674e-05 0.0002757399 4.04053e-05 -0.0061079839 -0.1055048712
750295500.0 -0.0337843196 0.8430180785 0.0005142333 1.91026e-05 0.0005955852 -0.0001102557 -0.0072875144 -0.1052922268
755295470.0 -0.0246349628 0.8437079375 0.0003628135 8.10676e-05 0.0005050733 4.45579e-05 -0.0087951169 -0.1049013161
760295440.0 -0.0162696318 0.8435376581 0.0005291573 -0.0003776861 0.000560442 -0.0003551244 -0.0103110625 -0.1044500326
765295410.0 -0.0078015543 0.8441924022 0.0001062368 -5.04249e-05 0.0003735464 2.88932e-05 -0.0111239897 -0.1038139453
770295380.0 0.0003605064 0.8437381205 0.0004370595 -3.92595e-05 0.0004665884 -6.96754e-05 -0.0124361412 -0.1035318905
775295350.0 0.0087194556 0.8440791987 0.0003016781 -0.0001551653 0.0004244415 9.44101e-05 -0.0145037538 -0.103746664
780295320.0 0.0174316723 0.8430730031 0.0005900979 -0.0002036844 0.0006225221 -7.21572e-05 -0.0156682426 -0.1025964905
785295290.0 0.0255435091 0.843750956 0.0005538607 -0.0002986871 0.0005300144 -0.0001237109 -0.0171286336 -0.1021766572
790295260.0 0.0342707626 0.842721618 0.000356035 -2.46192e-05 0.0003073616 -7.00038e-05 -0.0181825408 -0.1022117326
795295230.0 0.0429195475 0.8431648179 0.0004835456 -0.0002121991 0.0003709175 4.15805e-05 -0.0194500157 -0.1014081872
800295200.0 0.0511669634 0.8426401325 0.0003527609 -0.0002615831 0.0004322526 -0.0001354674 -0.021008985 -0.1010331244
805295170.0 0.0592186736 0.8419562478 0.0004081517 -0.0003227339 0.0004502787 -7.25273e-05 -0.022454076 -0.1004781853
810295140.0 0.0683002086 0.8412052034 0.0004023445 -0.0001395178 0.0003550226 -0.0002313075 -0.0235178211 -0.1000052495
815295110.0 0.0767608443 0.8397947417 0.0005477165 -8.37837e-05 0.000305 -0.0002645123 -0.0248150731 -0.0993275554
820295080.0 0.0849570372 0.8390622743 0.0005029837 -0.0003811693 0.0004388212 -0.0001548786 -0.0266876145 -0.0989814998
825295050.0 0.0937699982 0.8383150533 0.0004514143 -2.7936e-05 0.0003351058 0.0001357903 -0.0273763205 -0.098319444
830295020.0 0.1022617457 0.8374770586 0.0003404975 -3.60177e-05 0.0004204544 -0.0001415054 -0.0294659088 -0.0974813066
835294990.0 0.1101223348 0.8365992233 0.0006242733 -6.23214e-05 0.0005698558 -0.0001906136 -0.0301729768 -0.0974379509
840294960.0 0.1180852138 0.8353953026 0.000299682 -9.73466e-05 0.0006101307 3.15056e-05 -0.031708062 -0.0961759508
845294930.0 0.1269838338 0.8337177099 0.0004432784 -5.5479e-06 0.000305372 -2.96463e-05 -0.032967864 -0.0956542245
