!Created with skrf (http://scikit-rf.org).
# Hz S RI R 50.0 
!freq ReS11 ImS11 ReS21 ImS21 ReS12 ImS12 ReS22 ImS22
300000.0 -0.7759871549 -0.0895637507 0.0001333509 0.0008237011 0.0009605138 -0.0001718489 -0.0451064966 -0.0601773608
5299970.0 -0.7851912961 -0.0057322199 4.7466e-06 8.02419e-05 -5.68132e-05 7.28616e-05 -0.0454588828 0.0156670359
10299940.0 -0.7877210329 -0.0036528852 0.0001029421 -3.58047e-05 -5.56406e-05 -0.0001737647 -0.0398218322 0.0339795979
15299910.0 -0.7933529577 -0.0015653045 -1.5122e-05 -1.32854e-05 3.63704e-05 -2.94792e-05 -0.0314996956 0.0481637223
20299880.0 -0.7999290279 0.0020241187 -4.001e-07 9.88353e-05 -0.0001258858 1.435e-05 -0.0212345338 0.0600131376
25299850.0 -0.8063325658 0.0079790979 -4.80765e-05 5.82262e-05 1.21919e-05 -3.94946e-05 -0.0098929226 0.0695425663
30299820.0 -0.8123173644 0.0157152035 -0.0002342932 0.0001215432 0.0002044579 0.0001366972 0.0018500377 0.0764456839
35299790.0 -0.8171186043 0.0246263243 6.3783e-05 7.55933e-05 0.0001152687 -3.3766e-06 0.0134108884 0.0815861897
40299760.0 -0.8213761594 0.0343656162 4.30853e-05 -0.0001006947 3.37395e-05 9.38063e-05 0.024657443 0.0838201972
45299730.0 -0.8246567234 0.0431331369 1.12437e-05 -9.27332e-05 -0.0001341915 0.000100425 0.0353655872 0.085828824
50299700.0 -0.8274260435 0.0531902613 -0.0001017177 -2.9489e-06 0.0001261831 0.0001958358 0.0454482671 0.0854909709
55299670.0 -0.8294019457 0.0634219781 -6.01573e-05 0.0001831614 1.3377e-06 4.66757e-05 0.0545948751 0.0843568258
60299640.0 -0.8305454165 0.0735335107 2.63737e-05 0.0002747672 -7.67257e-05 2.96606e-05 0.0631494023 0.0823848644
65299610.0 -0.8313020957 0.0834637985 0.0001608611 -3.19287e-05 0.0001447258 0.0002675402 0.0707558663 0.0800362522
70299580.0 -0.831097937 0.0939099124 -1.12703e-05 -0.0001120143 -0.0001471914 9.79431e-05 0.0774202375 0.077246239
75299550.0 -0.8317461885 0.1034680111 2.57076e-05 1.46462e-05 -2.85035e-05 0.0001974666 0.0837823199 0.0735790915
80299520.0 -0.8320002578 0.1130070308 0.0001742811 -5.26994e-05 2.02687e-05 0.0001225489 0.089562705 0.0706158827
85299490.0 -0.8309915003 0.1224934593 0.0001374509 -0.0001447804 3.23852e-05 4.49076e-05 0.0942508845 0.0665283435
90299460.0 -0.8303749094 0.1326869369 8.67651e-05 -9.668e-05 -0.00015455 0.0001823357 0.0991607025 0.0627858533
95299430.0 -0.8293687557 0.1419022482 -0.0002622451 0.0001813256 9.7277e-05 -3.8171e-06 0.1032243391 0.0592097952
100299400.0 -0.8277736261 0.1509985464 0.0002516167 -3.48639e-05 4.6882e-06 7.71406e-05 0.1069977006 0.0548515009
105299370.0 -0.8270419143 0.1604198017 0.0002998934 -0.000133333 0.000101171 -4.64522e-05 0.1104628153 0.0509841787
110299340.0 -0.8256680964 0.1698156591 -9.96778e-05 0.0002639689 4.11099e-05 0.0002303822 0.1132223863 0.0469273643
115299310.0 -0.8241537331 0.1788868388 2.52074e-05 -0.0001420436 0.0001757766 -8.56221e-05 0.1157121523 0.0435305247
120299280.0 -0.8222420403 0.1870524973 -3.3726e-06 0.0001199316 0.0001567117 6.30339e-05 0.1182071923 0.0396483988
125299250.0 -0.8205447109 0.1961415106 2.75893e-05 2.61775e-05 9.77673e-05 5.4703e-06 0.1201359227 0.0355713886
130299220.0 -0.8187905426 0.2059437125 0.0001053974 -8.53731e-05 -0.000100547 0.0001062944 0.1218622268 0.0319184174
135299190.0 -0.8169922344 0.2140772643 -3.96138e-05 0.0003189342 0.0001160352 0.0001030547 0.1235668547 0.0282746408
140299160.0 -0.814570755 0.2232873117 -1.17145e-05 0.0001208958 6.25206e-05 -0.0002180216 0.1247979681 0.0250103326
145299130.0 -0.8126196745 0.2324828219 0.000108076 0.0001415909 7.57816e-05 2.26008e-05 0.125908667 0.0215906453
150299100.0 -0.8106679984 0.2414704297 9.0873e-06 0.000285712 4.01467e-05 -2.37187e-05 0.1271098275 0.0185598079
155299070.0 -0.8077006362 0.2496517918 -6.19456e-05 7.21518e-05 0.0003436605 0.0001744009 0.1278775045 0.0151920987
160299040.0 -0.8049110188 0.258215777 0.0001693479 5.5538e-06 7.945e-07 8.03709e-05 0.1284034568 0.0122743211
165299010.0 -0.8030469545 0.2670555813 -9.8109e-06 9.27168e-05 1.6861e-06 0.0001148455 0.1291964597 0.0089856842
170298980.0 -0.7999211839 0.2757659338 0.0001897266 0.0001803116 0.0001651816 9.7837e-05 0.1294172783 0.0061932616
175298950.0 -0.7971616306 0.2844084635 0.000175393 0.0002773734 0.0001093369 0.0001472149 0.1295699932 0.0032338249
180298920.0 -0.7948137071 0.2927226922 -1.93862e-05 0.0002244965 -8.90357e-05 -8.57198e-05 0.1302008418 0.0006145722
185298890.0 -0.7912620769 0.3006980875 1.79864e-05 4.19961e-05 -0.0001466548 0.0002513384 0.1301832429 -0.002090791
190298860.0 -0.7882716483 0.309567108 0.0001038887 -3.54582e-05 0.0001668569 0.0002327432 0.1303128266 -0.004752068
195298830.0 -0.7845992824 0.3179616432 7.38032e-05 0.0002680726 6.4219e-06 0.0001278769 0.1301621987 -0.007619524
200298800.0 -0.781311785 0.3263025017 -3.06262e-05 0.000138558 0.0001058158 0.0002994255 0.1298184859 -0.0104274233
205298770.0 -0.7779502677 0.3347338109 0.0001998214 7.76158e-05 3.02384e-05 5.11855e-05 0.1300431788 -0.0131544464
210298740.0 -0.775154167 0.3423269041 -6.77931e-05 0.0002841525 4.3159e-05 4.52088e-05 0.1294651805 -0.0152548992
215298710.0 -0.7718865924 0.3510452312 9.44563e-05 0.0001270347 5.74649e-05 -2.252e-06 0.1288510867 -0.0176608281
220298680.0 -0.7673525061 0.3590204577 7.47534e-05 9.90259e-05 6.18522e-05 8.47488e-05 0.1285857119 -0.0204513428
225298650.0 -0.7641062581 0.3670054984 9.59169e-05 0.0002016984 5.61006e-05 8.62313e-05 0.1280060731 -0.0226295855
230298620.0 -0.7596798297 0.3751380021 -2.03464e-05 0.0002654947 -6.20259e-05 0.0001798771 0.1276803794 -0.0250906939
235298590.0 -0.7556675817 0.3839176246 0.0002170526 4.57152e-05 0.0001045749 9.13971e-05 0.1269738919 -0.027067273
240298560.0 -0.7524326954 0.3915495999 0.0001446327 0.0001898841 -2.26136e-05 0.0002027628 0.1261309341 -0.0296273967
245298530.0 -0.7487619727 0.3995528293 0.0001811429 0.0001107609 -9.70787e-05 0.0002235122 0.1259877172 -0.0317908481
250298500.0 -0.7442073133 0.406874924 0.0002944957 0.0001956298 0.0001991796 -0.0001194125 0.12514947 -0.0342211877
255298470.0 -0.740041761 0.4137795325 0.0001318022 0.0002239242 0.000110988 0.000113952 0.1245453151 -0.0366289035
260298440.0 -0.7353892544 0.4221489873 4.69439e-05 0.0002112027 5.38147e-05 0.0001449645 0.1241107791 -0.038331793
265298410.0 -0.7317166868 0.4296477062 0.000242035 8.38583e-05 0.0001313493 0.0003646899 0.1233471215 -0.0400243431
270298380.0 -0.7267580298 0.4377231728 -0.0001038705 0.0002069629 -2.1905e-06 8.96636e-05 0.1227041259 -0.0424629159
275298350.0 -0.7217944225 0.4451844556 4.00251e-05 -7.97016e-05 8.67054e-05 0.000215198 0.1217383189 -0.044106328
280298320.0 -0.7168391852 0.4524087313 2.07789e-05 0.000198088 -3.981e-05 -8.44028e-05 0.1216505633 -0.0460964627
285298290.0 -0.7129921692 0.4609165849 -0.0001296767 -8.06152e-05 0.0002708755 0.0001467948 0.1206002724 -0.0484793046
290298260.0 -0.7076965695 0.467626031 0.0001756653 0.0001053883 -2.94784e-05 0.0001648409 0.120060369 -0.0497465153
295298230.0 -0.702441496 0.4747410711 -7.11268e-05 0.0001658249 0.0001138401 4.98962e-05 0.1194721941 -0.051912276
300298200.0 -0.6976732758 0.4817029096 9.2497e-05 0.0002380436 2.1182e-05 6.13877e-05 0.1184785588 -0.0537176776
305298170.0 -0.6924718053 0.4887211486 0.000236453 0.0001709143 8.29951e-05 0.0001011524 0.1182050364 -0.0559092249
310298140.0 -0.6875689874 0.4961846507 1.13722e-05 0.0002160815 0.0001113428 5.6281e-06 0.1167514386 -0.0578673068
315298110.0 -0.682841949 0.5033573489 -7.62022e-05 7.8474e-06 7.9777e-05 0.0003379263 0.1160403158 -0.0594410661
320298080.0 -0.6771268339 0.5101946527 0.0001569702 4.8589e-06 8.07518e-05 0.0001335779 0.1150461856 -0.061242527
325298050.0 -0.6720189992 0.5173603281 0.000167008 -1.28055e-05 0.0002415316 9.18057e-05 0.1136386487 -0.0630676878
330298020.0 -0.6663794248 0.5241705742 1.74432e-05 0.0002097071 2.1259e-05 0.0003019395 0.1123441142 -0.0642325883
335297990.0 -0.6606168962 0.5308171008 -1.43256e-05 0.0001395948 8.7474e-06 -0.0001091257 0.1109963104 -0.0656554793
340297960.0 -0.6556716492 0.5384945826 0.0002648334 0.0002947736 0.0003289827 0.0001212003 0.1104053491 -0.0668221909
345297930.0 -0.6499756777 0.5439598357 0.0001212313 0.0002172284 0.0002770233 6.80284e-05 0.1089108339 -0.0686903681
350297900.0 -0.6445010843 0.5513155008 0.0001238205 0.0001786762 0.0001390303 0.000113667 0.1075650401 -0.0693772887
355297870.0 -0.6382304842 0.5581935376 9.545e-05 0.0001822251 0.0001172384 0.0002383017 0.1063980463 -0.0710525985
360297840.0 -0.6322106398 0.564129594 0.0003568971 0.0001712025 0.0002084376 0.0001657488 0.1055683057 -0.0721979583
365297810.0 -0.6271562801 0.5707205944 0.0001821 7.86492e-05 0.0002368545 0.0001493749 0.1042679428 -0.0736531386
370297780.0 -0.6208018978 0.5771728018 0.000184245 3.60317e-05 0.0001572642 -0.000112425 0.1031807935 -0.0747136448
375297750.0 -0.6143062265 0.5836164868 0.0001610296 0.0002712787 0.0001441658 0.0001968248 0.1017370322 -0.0762316678
380297720.0 -0.6087334832 0.5892461339 0.000332985 8.48151e-05 6.34976e-05 -3.75905e-05 0.1001565256 -0.0769502807
385297690.0 -0.6031110967 0.5953993702 0.0003381779 0.0001848932 0.0002861863 0.00022495 0.0993363474 -0.078436029
390297660.0 -0.5966170419 0.6016135958 8.28767e-05 0.0002371455 0.000123501 0.0001305496 0.0976525637 -0.0791740169
395297630.0 -0.5896905128 0.6083395552 0.0003129306 7.12623e-05 0.0001378696 9.37644e-05 0.0968441892 -0.0805684238
400297600.0 -0.5839118726 0.6142651102 5.79975e-05 0.0001071987 0.0002802861 0.0001479632 0.095493203 -0.0817784292
405297570.0 -0.5776929087 0.6199726558 0.0002730967 0.0001792284 0.0004251506 2.9768e-06 0.0940692888 -0.0829784932
410297540.0 -0.5706664358 0.6251096656 0.0001113299 0.0002051153 0.0002492336 5.96033e-05 0.0929813729 -0.0840068638
415297510.0 -0.563802659 0.6313932784 0.0003587498 0.0001422686 0.0004091558 9.41234e-05 0.0916671457 -0.0852556809
420297480.0 -0.5585282457 0.637693393 0.00023967 0.0001555152 -7.66272e-05 7.98274e-05 0.0902335524 -0.0862958026
425297450.0 -0.5516814396 0.6426740584 0.000160386 0.0003045139 0.0001437539 0.0003341046 0.089062829 -0.0876111262
430297420.0 -0.5448471378 0.6488965443 0.0003861888 0.0002542393 0.0001949437 0.0001585367 0.0872261566 -0.0889400556
435297390.0 -0.5384574426 0.653295364 -1.1457e-06 -0.0002696883 0.0002086903 0.0002361858 0.0864526958 -0.089829777
440297360.0 -0.5316082374 0.6592655758 9.4295e-06 4.40834e-05 0.000182536 0.0001943464 0.0852631017 -0.0906882014
445297330.0 -0.5242360181 0.6647654652 0.0001786234 0.0001061672 0.0003809533 4.6432e-05 0.0839562804 -0.0922386371
450297300.0 -0.5176434337 0.6692815492 0.0002666649 0.0003373396 0.0003081384 -0.0001379886 0.0824584652 -0.0928104477
455297270.0 -0.5116046364 0.6747458548 0.0003470709 0.0001461563 0.0002577365 0.0002747353 0.0813429871 -0.0939303601
460297240.0 -0.5047527224 0.6796837094 0.0002463897 1.74624e-05 0.0003067729 2.44645e-05 0.0800497846 -0.0946354022
465297210.0 -0.4975242932 0.6851410991 1.57586e-05 1.59697e-05 5.5104e-05 0.0001196215 0.0786265999 -0.0955906116
470297180.0 -0.4899669837 0.6896011513 0.0002569798 -0.0001742942 9.72201e-05 0.0003673056 0.0776926211 -0.0963316041
475297150.0 -0.4833298419 0.6944018791 -1.62285e-05 0.0001269951 0.0003470076 2.66093e-05 0.0763510856 -0.0974769312
480297120.0 -0.4760703897 0.6996022496 0.0003816336 0.0001018683 0.0001988055 0.000148702 0.0750669784 -0.098076676
485297090.0 -0.4687990121 0.7044658716 0.0003714971 4.65973e-05 0.0002647344 0.0001009965 0.073997106 -0.0989765706
490297060.0 -0.4614473164 0.7085714999 0.0001092408 -5.68951e-05 0.0002574381 3.32449e-05 0.0725432799 -0.0999011425
495297030.0 -0.4546556375 0.7133228624 0.0002519036 0.000297145 0.0002061695 0.0001071907 0.0710997822 -0.1002257023
500297000.0 -0.4474093062 0.7176909545 0.0002680697 7.0605e-05 0.0001907573 6.71194e-05 0.0699974148 -0.1008669885
505296970.0 -0.4397554293 0.7228748805 0.0001727205 5.8873e-05 0.000341088 0.0002451068 0.0683211357 -0.1015055117
510296940.0 -0.4325121014 0.726918886 0.0001155577 5.60714e-05 6.01462e-05 6.17258e-05 0.0668764465 -0.1023550898
515296910.0 -0.424398202 0.7312434056 -3.10738e-05 1.20201e-05 0.0003105443 0.0002142307 0.0656933594 -0.1028245017
520296880.0 -0.4183435004 0.7356093819 6.09226e-05 9.56124e-05 0.0003016811 -0.0001008766 0.0640420708 -0.1036274883
525296850.0 -0.409730236 0.7394815317 0.0003091074 0.000143565 -5.17758e-05 2.53447e-05 0.062722265 -0.1037545425
530296820.0 -0.4022481569 0.7429736767 0.0004513034 4.72701e-05 0.0002403698 0.0001387087 0.0613859473 -0.1045281898
535296790.0 -0.3954685271 0.7471496545 0.0003247976 8.34791e-05 0.0001256242 5.97334e-05 0.0594765821 -0.1050984025
540296760.0 -0.3879151961 0.750756654 0.000398064 2.87809e-05 0.0002470707 0.0001460376 0.0584594036 -0.1054470313
545296730.0 -0.3800283189 0.7553425381 0.0002632422 -4.19811e-05 0.0002275532 0.0002954212 0.0567895529 -0.1059794957
550296700.0 -0.3727837964 0.7592863162 0.0002950515 0.0001149213 0.0003344876 2.95413e-05 0.055333073 -0.1065813294
555296670.0 -0.3647500002 0.761818076 0.0002094833 7.88585e-05 0.0001782632 -0.000107743 0.0539298018 -0.106599458
560296640.0 -0.3573216124 0.7661998376 0.0001402002 0.0001814619 0.0001607266 -8.97434e-05 0.052388042 -0.1072570842
565296610.0 -0.34934735 0.7704103014 0.0002347215 0.0003024455 0.0003244364 -0.00016479 0.0510894959 -0.1080128089
570296580.0 -0.342120691 0.7720967269 0.0001332156 0.0001674233 0.0002536213 5.41913e-05 0.0494413588 -0.1083182329
575296550.0 -0.3338678452 0.7772407045 0.0002172131 -9.89332e-05 0.000223907 0.0002299254 0.0478875813 -0.1085998523
580296520.0 -0.3256607955 0.7801989352 0.0004272706 0.0001314476 0.0003482183 0.000120313 0.0463993939 -0.10910053
585296490.0 -0.3182766436 0.7823306408 0.0003106762 3.65356e-05 0.0003629055 6.09918e-05 0.0448156226 -0.1099070316
590296460.0 -0.3101881661 0.7857684455 0.0002278764 7.8206e-06 0.0002755309 0.0003996221 0.0434770211 -0.1099639428
595296430.0 -0.3023635871 0.7881834368 0.0002150302 -8.31148e-05 0.0004865424 -3.72327e-05 0.0418920236 -0.1105693041
600296400.0 -0.2942463295 0.7919621511 0.0001328445 0.0002919926 0.000509096 0.0001347811 0.0404719962 -0.1110739014
605296370.0 -0.2867898934 0.794521664 0.0004014557 4.13876e-05 0.0003296691 0.0001680211 0.0391630316 -0.1112842832
610296340.0 -0.2783570049 0.7975435349 0.0001121251 0.0001768237 0.0004043469 -5.51849e-05 0.037643699 -0.1115419032
615296310.0 -0.2700480046 0.8003945204 0.0003851302 -3.7683e-05 0.0004319227 8.85303e-05 0.0363144175 -0.1120510203
620296280.0 -0.2627649771 0.8023711293 0.0002119148 0.0003124377 0.0001164897 3.80417e-05 0.0349213556 -0.1124792884
625296250.0 -0.2546344963 0.8051635982 0.0002690185 4.3078e-05 0.000182658 -2.57315e-05 0.0335442757 -0.1124344482
630296220.0 -0.2456613372 0.8082880828 0.0001832583 -0.0002304309 0.000383762 0.0001568035 0.032343028 -0.1124533935
635296190.0 -0.2381302413 0.8103418062 0.0002334907 4.95831e-05 0.0004596408 -9.602e-07 0.0308777106 -0.1130027514
640296160.0 -0.2305354944 0.8122885566 0.0002024187 9.27097e-05 0.0002936564 5.86129e-05 0.0290652434 -0.1130504467
645296130.0 -0.2224256121 0.8156388166 0.0002522312 0.0002733712 0.0004595924 -8.16503e-05 0.0280936416 -0.1131890905
650296100.0 -0.2143121647 0.8165819127 0.0002507103 -8.4912e-06 0.0002516996 1.46562e-05 0.0263969383 -0.1135664815
655296070.0 -0.2054948696 0.8191978157 0.0001874851 8.82315e-05 0.000334386 -8.077e-07 0.025438513 -0.113473155
660296040.0 -0.1974298714 0.820287465 0.0004815166 -0.0001051158 0.0004103248 -0.0001392812 0.0240132245 -0.1135160886
665296010.0 -0.1889550993 0.8222865446 0.0005044409 -4.12691e-05 0.0004434085 3.6185e-06 0.0224337165 -0.1136200278
670295980.0 -0.1815967215 0.8247804912 0.0005191699 6.7614e-05 0.0003348311 -0.0001014233 0.0208013104 -0.1137472792
675295950.0 -0.1728191575 0.8260692995 0.0003885223 0.00020559 0.0003871117 0.0002245115 0.0192811283 -0.1132826159
680295920.0 -0.1645728051 0.8281945227 0.0002928433 7.4262e-06 0.0003163954 0.0001954392 0.0183936264 -0.1132744252
685295890.0 -0.1565691569 0.8302415464 0.0003974376 -7.71679e-05 0.0002890239 -1.33883e-05 0.0168053787 -0.1136001866
690295860.0 -0.148202649 0.8309599954 0.0003028675 -0.0001351644 0.0002649926 -7.73094e-05 0.0152056111 -0.1131027496
695295830.0 -0.1401172141 0.8322961083 0.0003213427 0.0003250134 0.0003228702 -9.85431e-05 0.013755134 -0.1129373706
700295800.0 -0.1311207303 0.8336281217 0.0003825966 0.0002312394 0.0002740354 2.95663e-05 0.0122730323 -0.1126499704
705295770.0 -0.1237538301 0.8351122874 0.0003075192 -0.0001010794 0.0002086592 -0.0002822017 0.0109737608 -0.1123299652
710295740.0 -0.1153231733 0.8361150205 0.000263288 3.56682e-05 0.0004778804 -0.0001297417 0.0089900036 -0.1126680653
715295710.0 -0.106763209 0.8375740416 0.0002557135 -0.0001113684 0.0006275891 -0.0001336418 0.0075921305 -0.1123321427
720295680.0 -0.0984075642 0.8386339304 0.0002887304 -5.43917e-05 0.000486587 0.0003272261 0.0063188031 -0.1124966319
725295650.0 -0.0900944673 0.8390748544 0.0001930238 -9.10787e-05 0.0004080535 -9.00646e-05 0.0046051773 -0.1118401042
730295620.0 -0.0812107572 0.8397667583 0.0003230255 1.67304e-05 0.0003734312 -4.55924e-05 0.0032489619 -0.1117753453
735295590.0 -0.0734159209 0.8412789517 0.0001829125 4.99077e-05 0.0005854603 -0.000191084 0.0015468399 -0.1118125782
740295560.0 -0.0651960884 0.8426631483 0.0005084218 0.0001127143 0.0002377283 0.0002326512 0.0006587868 -0.1112809246
745295530.0 -0.0567170075 0.8420471616 0.0003723917 0.0001101604 0.0005325452 -5.57974e-05 -0.0009645891 -0.1110355554
750295500.0 -0.0483142212 0.8427589334 0.0003535488 -6.15907e-05 0.0002334773 0.0001554742 -0.0024233989 -0.1107081557
755295470.0 -0.0397262586 0.8430865076 0.0005723913 2.93816e-05 0.0003338356 -0.0001214538 -0.0038831092 -0.1112119494
760295440.0 -0.0317513274 0.8426562049 0.0005097479 7.58493e-05 0.0002455898 -0.000164942 -0.0055011602 -0.1109927097
765295410.0 -0.0236083935 0.843769339 0.0003939939 -1.65796e-05 0.0005052928 -3.25389e-05 -0.0068798577 -0.1100808494
770295380.0 -0.0158339368 0.8445888711 0.0003236111 -0.0002441457 0.0005055394 4.11433e-05 -0.0083564321 -0.1104549406
775295350.0 -0.0066108829 0.843812783 0.0005914158 -5.69239e-05 0.0005910346 -0.0001522435 -0.010058169 -0.1098338798
780295320.0 0.0019009283 0.8436596653 0.0004924838 -0.0001220692 0.0003027234 -3.3976e-05 -0.010964592 -0.1098155436
785295290.0 0.0094724268 0.8433705679 0.0003535496 -0.0001524154 0.0005090049 -2.37806e-05 -0.0123491226 -0.1096096911
790295260.0 0.0188223761 0.8434711637 0.0005352064 -0.0001571512 0.0003677391 5.94634e-05 -0.013274055 -0.109073727
795295230.0 0.0261047118 0.843191265 0.0006046364 -0.0002022034 0.000378291 -6.12993e-05 -0.0145554014 -0.1086515605
800295200.0 0.0346229701 0.8427340295 0.0007411057 -0.0001629324 0.0002989751 -4.06114e-05 -0.0161649264 -0.1080841165
805295170.0 0.0435278044 0.8426739108 0.000380779 -7.28563e-05 0.0003300705 0.0001127508 -0.0175294382 -0.1078415448
810295140.0 0.0514857371 0.8419717658 0.0003189359 -1.43967e-05 0.0002350798 -5.62911e-05 -0.0186054981 -0.1074762359
815295110.0 0.0597733946 0.8412874647 0.0003372234 1.08489e-05 0.000248778 -8.51412e-05 -0.0202661902 -0.1068051429
820295080.0 0.0679965947 0.8408684349 0.0003209649 -0.0001467488 0.0004050416 -0.0001539913 -0.0215304348 -0.1064420303
825295050.0 0.0772541561 0.8400026139 0.0004446041 -6.38818e-05 0.0004405359 -0.0002254068 -0.0225714444 -0.1059054123
830295020.0 0.0846810325 0.8396351535 0.0003445676 0.0001950075 0.00053727 -0.0001727806 -0.0232048577 -0.1053421478
835294990.0 0.0923085753 0.8387566013 0.0003185173 -0.0002106725 0.0003630219 -0.0001795331 -0.0252028071 -0.1049313588
840294960.0 0.101736854 0.8380414453 0.0004060489 7.51761e-05 0.0004126772 -0.0001263598 -0.0262918905 -0.1038985302
845294930.0 0.1088495158 0.8369004487 0.0004163127 -0.0001217497 0.000326536 -3.73462e-05 -0.0278215006 -0.1036756601
850294900.0 0.1177197488 0.8362093009 0.0003369225 -0.0001823488 0.0005250128 -2.02893e-05 -0.0289726565 -0.1029680188
