!Created with skrf (http://scikit-rf.org).
# Hz S RI R 50.0 
!freq ReS11 ImS11 ReS21 ImS21 ReS12 ImS12 ReS22 ImS22
300000.0 -0.3208805934 -0.0747010278 0.3759767595 0.0400167085 0.3734870649 0.0379134815 -0.32357152 -0.090339314
5299970.0 -0.3265295465 0.0044469554 0.3784527276 0.0025463439 0.3784056409 0.0026033542 -0.3246229552 0.0049364772
10299940.0 -0.3241919175 0.0133233421 0.3794069509 0.0020026131 0.3794385104 0.0022999455 -0.3218843734 0.0158228438
15299910.0 -0.3214157337 0.0202941799 0.3818518413 0.0018995579 0.3820051004 0.0022143381 -0.3190069057 0.0236938243
20299880.0 -0.3188692715 0.0260909796 0.3847774035 0.0018727964 0.3848225918 0.0017630385 -0.3152040898 0.0302639473
25299850.0 -0.3159128668 0.0314360368 0.3883934893 2.63132e-05 0.388377554 -2.17428e-05 -0.3113852478 0.0358713844
30299820.0 -0.3128588761 0.0354441356 0.391489366 -0.0021214265 0.3912755162 -0.0021878371 -0.3074965347 0.0407031056
35299790.0 -0.3099727153 0.0399985716 0.3949564018 -0.005434492 0.394774976 -0.0053974003 -0.3038524712 0.0447605142
40299760.0 -0.3073562504 0.0433441601 0.3979588131 -0.008954706 0.3980545453 -0.0085041493 -0.3005004621 0.0481445941
45299730.0 -0.3046110716 0.0465392531 0.4006762132 -0.012791695 0.400739742 -0.0126739966 -0.2973282493 0.0515682938
50299700.0 -0.3023864532 0.049206093 0.4034416481 -0.0174252117 0.4034435847 -0.0168739087 -0.2944732508 0.0538289222
55299670.0 -0.3002417347 0.0520976447 0.4056969216 -0.0223091083 0.4057908096 -0.0222266921 -0.2917871285 0.0569048439
60299640.0 -0.297897253 0.0550236039 0.4076429298 -0.027232793 0.4074588666 -0.0268363061 -0.2889770408 0.0590066007
65299610.0 -0.2962958671 0.0574850853 0.4091919878 -0.0320437943 0.4093376513 -0.0319278824 -0.2873273354 0.0615907157
70299580.0 -0.2945055217 0.0599184399 0.4104572354 -0.0370101934 0.4105341093 -0.036751722 -0.2851559399 0.0634934492
75299550.0 -0.2929227511 0.0625129864 0.4111604725 -0.0422714219 0.4113221074 -0.0420745128 -0.2833935474 0.0655234847
80299520.0 -0.2914912476 0.0646718514 0.4124724992 -0.0473674523 0.4126184665 -0.0475539471 -0.281554161 0.0678958076
85299490.0 -0.2902953251 0.0667986697 0.412944395 -0.0521390609 0.4130253422 -0.0522815383 -0.2795539433 0.0700718644
90299460.0 -0.2889543391 0.0693065243 0.4128407219 -0.0579027012 0.4132597037 -0.0576621719 -0.2779581398 0.0721217709
95299430.0 -0.2874434816 0.0714072674 0.4138104977 -0.0629759096 0.413867821 -0.0631400852 -0.2765541571 0.0744179319
100299400.0 -0.2863522193 0.0740232042 0.4132126876 -0.0679751132 0.4132601126 -0.0681644436 -0.2749250797 0.0763628726
105299370.0 -0.2850699395 0.0763414425 0.4134393485 -0.0731836042 0.413560034 -0.0732512024 -0.2734974751 0.0783621335
110299340.0 -0.2839473371 0.0786107923 0.413687848 -0.0783361059 0.413065868 -0.0781920724 -0.2728277177 0.0804339596
115299310.0 -0.2827843396 0.0809410224 0.4128938738 -0.0836200891 0.41298759 -0.083502279 -0.2715603319 0.0827822638
120299280.0 -0.2817549192 0.0831371081 0.4124440467 -0.0889348417 0.412486359 -0.0888164967 -0.2705436056 0.0847742666
125299250.0 -0.2808913023 0.0852653723 0.4118309427 -0.0934807668 0.4120147846 -0.0936461059 -0.2695805698 0.0867009692
130299220.0 -0.2801357218 0.0881597207 0.411034664 -0.0990360715 0.411192049 -0.0988557009 -0.2684326793 0.0889988944
135299190.0 -0.2791317811 0.0908458181 0.4107860737 -0.1039788886 0.410746414 -0.1040161468 -0.2675950192 0.0912815299
140299160.0 -0.2781734512 0.0932655581 0.4097779728 -0.1094515134 0.4099965289 -0.1089100466 -0.26656568 0.0938480806
145299130.0 -0.2773939381 0.0956391954 0.4089809223 -0.1139428004 0.4088884719 -0.1138300718 -0.2659728443 0.0961264465
150299100.0 -0.2765806753 0.0981687926 0.4078741293 -0.1184514508 0.4080520486 -0.1187035116 -0.2648595849 0.0988917958
155299070.0 -0.2757242545 0.1006715429 0.4066593273 -0.1240734411 0.4068656538 -0.1235554615 -0.2635828045 0.1009944895
160299040.0 -0.2744336248 0.1033829119 0.4051395837 -0.1287046932 0.4055351272 -0.1286590051 -0.2631144536 0.1034248108
165299010.0 -0.2736905936 0.1060961325 0.4039661552 -0.1338107633 0.4043249298 -0.1337728773 -0.2614610979 0.1058782443
170298980.0 -0.272977171 0.1086543203 0.4025032158 -0.1386122943 0.4032280536 -0.1382529644 -0.2609386404 0.1080274233
175298950.0 -0.2722079465 0.1114419625 0.4020724767 -0.1429941258 0.4013520352 -0.1433824247 -0.259893878 0.1109629867
180298920.0 -0.2711518109 0.1140695127 0.4003831686 -0.1478237825 0.4000252153 -0.1477745627 -0.258915366 0.1132565542
185298890.0 -0.2698231291 0.1164769663 0.3985934774 -0.1526205815 0.3985484146 -0.1525469873 -0.2577364141 0.1158993661
190298860.0 -0.2688420642 0.1194770207 0.3970172045 -0.157507136 0.3967754366 -0.1572789243 -0.2566147496 0.1181025387
195298830.0 -0.2678532826 0.1216488402 0.3951820293 -0.1616111581 0.3955532114 -0.1615782521 -0.2556799143 0.1206023145
200298800.0 -0.266680926 0.1246244866 0.3935793678 -0.166665312 0.3939666171 -0.1667076063 -0.2551026147 0.123066737
205298770.0 -0.2656726424 0.1272232721 0.3915380023 -0.1712292848 0.3918765308 -0.1709225609 -0.2533496825 0.1254484759
210298740.0 -0.2643195886 0.1299488182 0.3898792492 -0.1755850052 0.3901086369 -0.175379885 -0.2521055462 0.12832833
215298710.0 -0.2634569388 0.1327245576 0.3881372293 -0.1802594585 0.3879466762 -0.1801953135 -0.251393083 0.1307043224
220298680.0 -0.262259413 0.1351868842 0.3856790759 -0.1844611817 0.3860778116 -0.1847971724 -0.2502429236 0.1333749838
225298650.0 -0.2608642972 0.1378890755 0.3839006576 -0.1889125361 0.3844203244 -0.1888396805 -0.2489557023 0.1354917122
230298620.0 -0.2596022473 0.140863657 0.382244026 -0.1932236597 0.3824924663 -0.1933888616 -0.2478408185 0.1379176274
235298590.0 -0.2585805243 0.1437996769 0.3802426427 -0.1976266817 0.3801429419 -0.1974252047 -0.2463937232 0.1407951433
240298560.0 -0.2573091469 0.1460778513 0.3780809858 -0.2020680631 0.3777718018 -0.2019852658 -0.2451994306 0.1433962784
245298530.0 -0.2559953073 0.1489441187 0.3760043914 -0.2064157777 0.3757308325 -0.2064437563 -0.2438232439 0.145930995
250298500.0 -0.254454052 0.1516963183 0.3732068411 -0.2106920054 0.3728756552 -0.2103343954 -0.2424280083 0.1483023136
255298470.0 -0.2529321073 0.1541194295 0.3705014035 -0.2145897491 0.3710855461 -0.2146439719 -0.2407001116 0.1508752461
260298440.0 -0.2518254899 0.1565466755 0.3685880043 -0.2192894327 0.3686647373 -0.2190556998 -0.2394086423 0.1536124633
265298410.0 -0.249754716 0.1596720991 0.3658006297 -0.2230694239 0.3662929933 -0.2229530385 -0.238322187 0.1561899255
270298380.0 -0.2487101117 0.1623591956 0.3637120869 -0.2275280909 0.3639330883 -0.227313127 -0.2366826811 0.1588101982
275298350.0 -0.2468868752 0.165146646 0.3612013134 -0.2313840245 0.3614689449 -0.2313613697 -0.2352573334 0.1611771413
280298320.0 -0.2452371658 0.1676792222 0.3586690785 -0.2359046351 0.3589762554 -0.2354901182 -0.2333912123 0.1636770891
285298290.0 -0.2435713548 0.1706203991 0.3563030099 -0.2396171139 0.3560037873 -0.2396903947 -0.2318629904 0.1665540204
290298260.0 -0.2419666035 0.1730900749 0.3533807224 -0.243211893 0.353541038 -0.2437579458 -0.230510083 0.1693725554
295298230.0 -0.2401275221 0.1756002991 0.351002553 -0.2476375669 0.3507870758 -0.2475348225 -0.2283883874 0.1710270008
300298200.0 -0.2384793635 0.1782463927 0.3483449973 -0.2514822601 0.3485014643 -0.2519238294 -0.2270218057 0.1738710343
305298170.0 -0.2366111442 0.1806282346 0.3451022423 -0.2557593942 0.3452268883 -0.2556088437 -0.2247778585 0.1759745511
310298140.0 -0.2352448009 0.1835752407 0.3425650105 -0.2594892044 0.342878775 -0.2596874126 -0.2234668479 0.1785373062
315298110.0 -0.2334378588 0.1857668893 0.3397464862 -0.2634594415 0.3397579722 -0.2633605544 -0.2216060714 0.1810133938
320298080.0 -0.2313349464 0.1884164421 0.3363114378 -0.2677198844 0.3367538199 -0.2671555889 -0.2197971076 0.1833829904
325298050.0 -0.2295732241 0.1908243871 0.3334452605 -0.2711439043 0.3336434517 -0.2712940559 -0.2181344373 0.1855611801
330298020.0 -0.2275239211 0.193020293 0.3301668888 -0.2750111006 0.3305769036 -0.2752154121 -0.2168057635 0.1882014437
335297990.0 -0.2257487134 0.1955991613 0.3269847734 -0.2783308045 0.3273788982 -0.2787173397 -0.2150917641 0.190834686
340297960.0 -0.2242250998 0.1983275214 0.3239681705 -0.2821208292 0.3239554179 -0.2826044182 -0.2127814186 0.1931193155
345297930.0 -0.2220812928 0.2006769885 0.3208663008 -0.2860025295 0.3208776079 -0.2857959929 -0.2111802017 0.1951947181
350297900.0 -0.2202634039 0.2031933931 0.3174006587 -0.2894936686 0.3173135266 -0.2894164808 -0.2094012083 0.1979392255
355297870.0 -0.2180023916 0.2060530753 0.3140854434 -0.2927550001 0.3145925664 -0.2927306396 -0.2077092872 0.1999854324
360297840.0 -0.2163191749 0.2082314486 0.3113056732 -0.2959741752 0.3117942509 -0.296112341 -0.2056314662 0.2025001259
365297810.0 -0.2143315275 0.2109524568 0.3078636085 -0.2994658293 0.3082746746 -0.2996805421 -0.2032757897 0.2049325529
370297780.0 -0.2117717284 0.2132122007 0.3039388847 -0.3030462596 0.3047902668 -0.3026785611 -0.201322553 0.2071233168
375297750.0 -0.2095154474 0.2157651908 0.3012250198 -0.306112206 0.3013697264 -0.3063171059 -0.199204924 0.2091451896
380297720.0 -0.2074663481 0.2176846936 0.2976430912 -0.3098907921 0.2978809483 -0.3091855227 -0.1972579886 0.2113806202
385297690.0 -0.2057563479 0.2202526802 0.2942438245 -0.3125947988 0.2941866285 -0.3126710402 -0.1949097561 0.213641186
390297660.0 -0.2031022294 0.2227919582 0.2909632391 -0.3160542985 0.290654085 -0.3157570713 -0.193116532 0.2159286456
395297630.0 -0.2008387914 0.2253225249 0.2875896207 -0.3194745998 0.2872443624 -0.3189583186 -0.1901444635 0.218178274
400297600.0 -0.1986071328 0.2274174445 0.2833824806 -0.3226016121 0.2839731392 -0.322192466 -0.1884017307 0.2203537928
405297570.0 -0.1965880457 0.2294961297 0.2803282743 -0.3252312309 0.2802792925 -0.3253864201 -0.1861831087 0.2225005586
410297540.0 -0.1940305319 0.2313311081 0.276763354 -0.3284535849 0.2770146575 -0.3287160854 -0.1836972145 0.2249193714
415297510.0 -0.1911771924 0.2335342378 0.2728012452 -0.3316862899 0.2730939123 -0.3315169325 -0.1811876874 0.2270403021
420297480.0 -0.189217516 0.236572186 0.2691491581 -0.3344230766 0.2691969152 -0.3347984324 -0.1792921686 0.2290461394
425297450.0 -0.1867128821 0.2380985209 0.2658435477 -0.337193488 0.2659818223 -0.3373583714 -0.1768858386 0.2313310159
430297420.0 -0.1843696433 0.2401689876 0.262225434 -0.3397679889 0.2618862577 -0.3397649136 -0.1744466002 0.2330536973
435297390.0 -0.1819278283 0.2424327681 0.2576034934 -0.3427184169 0.2579043473 -0.3433083112 -0.1718914757 0.2351535473
440297360.0 -0.1790630519 0.2444612442 0.2540557677 -0.3455875645 0.2544586932 -0.3458742776 -0.1697625373 0.2372125431
445297330.0 -0.1767614822 0.2464977141 0.2507461112 -0.3482333855 0.2507551031 -0.3483699354 -0.1669021262 0.2389344912
450297300.0 -0.1742725289 0.2483696018 0.2466361732 -0.3511486613 0.2467772987 -0.3515134942 -0.1645484766 0.2408150678
455297270.0 -0.1717821215 0.2503918212 0.2424371458 -0.3537677223 0.2431424302 -0.3540163101 -0.162301863 0.2426261318
460297240.0 -0.1691835475 0.2524979117 0.2383353188 -0.356811646 0.2390945837 -0.3564593396 -0.1598032619 0.2448242806
465297210.0 -0.1661551774 0.2546225902 0.2347995023 -0.3591489648 0.2349496674 -0.3593687289 -0.1568424948 0.2464206108
470297180.0 -0.1634115908 0.2562539559 0.2306950244 -0.3615675742 0.2311389551 -0.3618370343 -0.1543943035 0.2486780648
475297150.0 -0.1611629939 0.2578963434 0.2267375167 -0.3632878124 0.2271724825 -0.3640559097 -0.1516619092 0.2499747141
480297120.0 -0.1584121475 0.2603191939 0.2230051222 -0.3666590377 0.2227375955 -0.3668008464 -0.1489023839 0.2520835115
485297090.0 -0.1557191379 0.2617772702 0.2190577722 -0.3686171771 0.219040417 -0.3685166606 -0.1467207738 0.2537402362
490297060.0 -0.1532990412 0.2640052065 0.214950099 -0.3714735949 0.2149723662 -0.3711748803 -0.1440184088 0.2553255994
495297030.0 -0.1503031459 0.2652495567 0.2104976065 -0.3734803949 0.2110155195 -0.3734413397 -0.1413640087 0.2570713324
500297000.0 -0.1476069764 0.267164145 0.2067738027 -0.375531275 0.2061588241 -0.375488197 -0.1384442676 0.2592232562
505296970.0 -0.1444917706 0.2687690305 0.2021271299 -0.3778017629 0.2021149525 -0.378026243 -0.1359110656 0.2603239781
510296940.0 -0.1418854717 0.2705371771 0.1983700413 -0.3802474168 0.1983393654 -0.3801908669 -0.1331057598 0.2620919985
515296910.0 -0.1389215096 0.2722553848 0.1939861984 -0.3825102184 0.1943296048 -0.3822596456 -0.1302261213 0.263604894
520296880.0 -0.1362721596 0.2739061387 0.1900710855 -0.3845345123 0.1902633562 -0.3839046271 -0.1280028177 0.2647228501
525296850.0 -0.1328811181 0.2749748555 0.1853830384 -0.3861213454 0.1859865033 -0.3862907534 -0.1250412775 0.2667323592
530296820.0 -0.1301929078 0.2770921824 0.1813625417 -0.3886976448 0.1814758815 -0.388424057 -0.1221290506 0.2679342757
535296790.0 -0.1277231239 0.2782100299 0.1772240152 -0.3900794065 0.1773504083 -0.3899238599 -0.1198424253 0.2693304199
540296760.0 -0.1245673311 0.2798593811 0.1727801622 -0.3919762622 0.1730530699 -0.3924184874 -0.1167678887 0.270956152
545296730.0 -0.1219336664 0.2814774974 0.1685470762 -0.3938493769 0.1685371835 -0.3940048007 -0.1139566783 0.2719098404
550296700.0 -0.1186306753 0.282745122 0.1642645098 -0.3955881114 0.1646848059 -0.3958605052 -0.1115674916 0.2736244419
555296670.0 -0.1156781892 0.2836634708 0.1600511869 -0.3974006247 0.1602638313 -0.3972185762 -0.1084357549 0.2749166624
560296640.0 -0.1128533232 0.2856455499 0.1554858099 -0.399400532 0.1557752967 -0.3991788586 -0.1051089707 0.2760508424
565296610.0 -0.1100599922 0.2870206837 0.1510370784 -0.4008084369 0.1513723164 -0.4007982919 -0.1024179741 0.2769695938
570296580.0 -0.1071618173 0.2882167274 0.14674063 -0.4029521839 0.1469653114 -0.4024058462 -0.0999131108 0.278682972
575296550.0 -0.1041298652 0.2895556677 0.142705607 -0.4042444414 0.1421962442 -0.4038331898 -0.0962586851 0.2798111969
580296520.0 -0.1008325852 0.2906811727 0.1381989665 -0.4056069647 0.1382379867 -0.4053428985 -0.0935004387 0.2809532555
585296490.0 -0.0983098895 0.2914633043 0.1341237063 -0.4066958191 0.1339171212 -0.4071905132 -0.0907852871 0.2823953766
590296460.0 -0.0946944084 0.2928289476 0.1293186259 -0.4079904403 0.1295429418 -0.4081776086 -0.0881689776 0.2833714061
595296430.0 -0.091598295 0.2938329416 0.1243320265 -0.409745928 0.1245525384 -0.4096153215 -0.0846514433 0.284022484
600296400.0 -0.0890087841 0.2950176842 0.1202805816 -0.4110455111 0.1201158642 -0.4107324476 -0.081756073 0.2850295994
605296370.0 -0.0860793115 0.2959929312 0.1161275656 -0.4120416043 0.1162551924 -0.4119567016 -0.0784592049 0.2861245614
610296340.0 -0.0826810365 0.297153485 0.1111391152 -0.4130937374 0.1115636894 -0.4135045389 -0.0754411734 0.2873940841
615296310.0 -0.0790574889 0.2981696426 0.1065588109 -0.4143077916 0.1067323619 -0.4150282183 -0.072294483 0.2882384873
620296280.0 -0.0761086598 0.2987937331 0.1020358585 -0.415451328 0.1023681363 -0.4151236241 -0.0697886773 0.2895440825
625296250.0 -0.073271291 0.299746078 0.0980405285 -0.4169000342 0.0977314081 -0.4168823555 -0.0661877493 0.2901109838
630296220.0 -0.0695873528 0.3009063133 0.0928764154 -0.4175816715 0.0930076183 -0.4174254494 -0.0637325857 0.2911844701
635296190.0 -0.0671078213 0.3016877199 0.0885516333 -0.4183289719 0.0885557986 -0.418550743 -0.0602954084 0.2916715464
640296160.0 -0.0638534363 0.3025850602 0.0841194358 -0.4190551018 0.0846695786 -0.4193550155 -0.0571634266 0.2925701826
645296130.0 -0.060462889 0.3039286 0.0795598757 -0.4204711122 0.0796076524 -0.4204137082 -0.0542891833 0.293662967
650296100.0 -0.0572588004 0.3044082724 0.074920298 -0.4208791588 0.0751449822 -0.4208582267 -0.0509982066 0.2938143367
655296070.0 -0.0540910143 0.3050508519 0.0701407795 -0.421855879 0.0701918471 -0.4215535093 -0.0476170221 0.2945561315
660296040.0 -0.0510879229 0.3055904407 0.0657851012 -0.4222581666 0.0657782444 -0.42255329 -0.0446422326 0.2954318361
665296010.0 -0.0475952371 0.3058866894 0.0606726366 -0.4229760258 0.0611696336 -0.4229234813 -0.0417735371 0.2962001311
670295980.0 -0.0450461386 0.3071404263 0.0567828231 -0.4235344012 0.0565204958 -0.4237257533 -0.0389787006 0.2967871514
675295950.0 -0.0414426975 0.3076107814 0.0519650271 -0.4242847017 0.0524005239 -0.4236607997 -0.0361167744 0.297330374
680295920.0 -0.0382790199 0.3079415047 0.047264366 -0.4242837889 0.0471374788 -0.4252288539 -0.0324267768 0.2985265782
685295890.0 -0.0348567773 0.3090967593 0.0426772171 -0.4252978048 0.0427607111 -0.4251504349 -0.0293245256 0.2983813869
690295860.0 -0.0316969471 0.3091756676 0.0379424568 -0.425320147 0.0383777898 -0.4257049323 -0.0266524939 0.2989178165
695295830.0 -0.0283067114 0.3092368506 0.0335051453 -0.425538206 0.0335678905 -0.4258468535 -0.0232683517 0.2996747019
700295800.0 -0.0253028447 0.3096971001 0.0286079919 -0.4258865643 0.0286710248 -0.4258981987 -0.0204720656 0.2996727437
705295770.0 -0.0224915555 0.3103430972 0.02398056 -0.426047272 0.0247988332 -0.4266235503 -0.0173457336 0.3005219707
710295740.0 -0.0188465681 0.310628655 0.0197894203 -0.4265986439 0.0199785909 -0.4268119297 -0.0139067492 0.3003497092
715295710.0 -0.0159171218 0.3109039467 0.0154063591 -0.4268364553 0.014879562 -0.4268999867 -0.0106796207 0.3003842578
720295680.0 -0.0124856014 0.3113785666 0.0104899956 -0.4271763661 0.0109949545 -0.4269902164 -0.0076624176 0.3012314185
725295650.0 -0.0089540763 0.3117371088 0.0057174846 -0.4268875304 0.0060982636 -0.4273186912 -0.0043979577 0.3017527872
730295620.0 -0.0058037847 0.3121598162 0.001312268 -0.4268127245 0.0017106783 -0.4270487012 -0.0016283549 0.3011337474
735295590.0 -0.0028322415 0.3120132685 -0.002948456 -0.426696109 -0.003357807 -0.4269972148 0.0014836717 0.3013801183
740295560.0 0.0003977043 0.3124517316 -0.0079764626 -0.4267742424 -0.0077968098 -0.4268525792 0.005509816 0.3015610228
745295530.0 0.0035245217 0.3127893417 -0.0125333035 -0.4265799889 -0.0125489678 -0.42659143 0.008640764 0.3015156183
750295500.0 0.0073668495 0.3126412916 -0.0173461279 -0.426155995 -0.0171233721 -0.4267105911 0.0116180387 0.3017015181
755295470.0 0.010493306 0.3124795988 -0.0216814626 -0.4262322424 -0.0215191099 -0.426251067 0.0148700342 0.3011263033
760295440.0 0.0135032411 0.3125337034 -0.0261936428 -0.426091288 -0.0262561861 -0.4263845569 0.0180224458 0.3015141786
765295410.0 0.0168859626 0.3124606732 -0.0310742323 -0.425473855 -0.0310383462 -0.42593939 0.0213571493 0.3020133212
770295380.0 0.0198985113 0.3124548399 -0.0355531268 -0.4246962022 -0.0355996297 -0.4250218403 0.0241898331 0.3013677325
775295350.0 0.0230707066 0.3119588833 -0.039933891 -0.4245661268 -0.0397999915 -0.4247226306 0.0268681691 0.3017270313
780295320.0 0.0266670963 0.3124045203 -0.0448466557 -0.4240086448 -0.0444342007 -0.4240649987 0.0304377958 0.3008418066
785295290.0 0.0294070417 0.3116290196 -0.04935183 -0.4233835629 -0.049335742 -0.4239353882 0.0339383223 0.3010227842
790295260.0 0.0335027634 0.3122109425 -0.053693695 -0.4230432944 -0.0532545 -0.4228918094 0.0371841226 0.3010877438
795295230.0 0.0365122381 0.311785273 -0.0586456953 -0.4224157283 -0.0580855404 -0.4224289831 0.040477047 0.3005781103
800295200.0 0.0392810898 0.3114055824 -0.0636111723 -0.4214217816 -0.0626355616 -0.4219345906 0.0433747022 0.300426276
805295170.0 0.0431090796 0.3110986636 -0.067668215 -0.4209313758 -0.0676832337 -0.4208792802 0.0466184074 0.300290045
810295140.0 0.0464319273 0.3106306284 -0.0720730597 -0.4201699902 -0.071821602 -0.4202678025 0.0500838882 0.3001024208
815295110.0 0.0492806381 0.310073176 -0.0765966505 -0.4190314086 -0.076369067 -0.4195773138 0.0527500286 0.2991446019
820295080.0 0.0525566299 0.3101302839 -0.0808741366 -0.418300598 -0.0807272872 -0.4182732426 0.0563645663 0.2991302943
825295050.0 0.0561908443 0.3093566534 -0.0856175819 -0.4171847617 -0.0853208098 -0.4174428227 0.0591876794 0.2990431478
830295020.0 0.0592519301 0.3090939511 -0.0901686282 -0.4161681136 -0.090055574 -0.4160663535 0.0628515551 0.2985632981
