!Created with skrf (http://scikit-rf.org).
# Hz S RI R 50.0 
!freq ReS11 ImS11 ReS21 ImS21 ReS12 ImS12 ReS22 ImS22
300000.0 -0.0440189713 -0.0599402153 0.0001757844 0.0009773717 0.0003971076 0.0018818196 -0.7747088473 -0.1625675851
5299970.0 -0.0452132417 0.0156266054 -0.0002329192 4.78021e-05 0.0001162198 -0.0001086932 -0.78470461 -0.0085367973
10299940.0 -0.0391450596 0.0334263398 8.99262e-05 7.94664e-05 -7.45591e-05 -3.22617e-05 -0.7883799796 -0.0051835798
15299910.0 -0.0309542849 0.0479473575 -1.75271e-05 3.69538e-05 -8.96589e-05 3.80949e-05 -0.7939199145 -0.002832596
20299880.0 -0.020538119 0.0600817117 -0.0001316857 -5.94671e-05 5.08538e-05 -0.0001948034 -0.8005820254 0.0015880852
25299850.0 -0.0092191868 0.0693556608 0.0001647271 0.0001835269 -1.22111e-05 2.36645e-05 -0.8070451618 0.0074067768
30299820.0 0.0026580141 0.0760029238 3.70207e-05 -9.76649e-05 -0.0001653671 0.0001636379 -0.8124889924 0.0148639885
35299790.0 0.0142992745 0.0810610906 0.0001576836 0.0001942386 6.14352e-05 -4.83362e-05 -0.818177269 0.0236709169
40299760.0 0.0256389694 0.0836835046 -1.34047e-05 -1.33756e-05 0.0002309543 -4.47467e-05 -0.8219320383 0.0332885483
45299730.0 0.0363380236 0.0853648339 2.46811e-05 0.000171582 -0.0001203897 2.06966e-05 -0.8255088614 0.0422028071
50299700.0 0.0465806555 0.0851642153 3.52356e-05 0.0001828542 5.69334e-05 -0.0001009758 -0.8279855893 0.0524216905
55299670.0 0.0557706161 0.0841622127 -0.0001565199 8.97575e-05 1.46626e-05 0.0001416474 -0.8297383995 0.0632120632
60299640.0 0.0641087489 0.0822810582 -5.20962e-05 0.000191915 6.0847e-05 2.9312e-06 -0.8311921062 0.0731283255
65299610.0 0.0723038442 0.0799508467 9.63757e-05 -3.12016e-05 0.0001019756 5.74122e-05 -0.8316975665 0.0825382161
70299580.0 0.0792797247 0.0770908689 -9.52322e-05 -0.0001557513 1.614e-05 7.0775e-06 -0.8326795137 0.0927478618
75299550.0 0.0857204359 0.0735683634 -0.0002014917 -6.81503e-05 5.3404e-05 0.000219219 -0.8325626406 0.1028202652
80299520.0 0.091151312 0.0702175943 0.0002947832 0.0002150778 -0.0001053903 9.34577e-05 -0.83222904 0.1125928066
85299490.0 0.0964555634 0.0662373395 -7.62632e-05 -4.03223e-05 -1.46203e-05 6.12944e-05 -0.8318790305 0.1213202804
90299460.0 0.1006899756 0.0626321941 -2.78843e-05 4.04468e-05 2.5781e-05 0.0001611762 -0.8307575015 0.1307959593
95299430.0 0.1049433521 0.0587877849 -3.89121e-05 0.0001365926 -2.17055e-05 0.0001367268 -0.8300654712 0.1412474361
100299400.0 0.108487932 0.0553712762 -9.70705e-05 0.0001074632 -2.74009e-05 2.68385e-05 -0.8286974952 0.1494582731
105299370.0 0.1117460402 0.0510262346 0.0001061801 6.11031e-05 3.53532e-05 4.99887e-05 -0.8278466714 0.1590916001
110299340.0 0.1144135358 0.0471465864 7.54949e-05 0.0002220364 6.66732e-05 6.15272e-05 -0.8267527858 0.1681742028
115299310.0 0.1170225362 0.0431619908 0.0001805913 0.0001179351 0.0001613252 1.80699e-05 -0.8244036283 0.1767253711
120299280.0 0.1190725695 0.0396179118 2.73264e-05 3.43128e-05 0.0001129257 -5.01743e-05 -0.8233290985 0.1859847398
125299250.0 0.1211289124 0.0357467278 -7.4417e-05 -1.49269e-05 -5.18702e-05 -9.67483e-05 -0.8221485144 0.1951653359
130299220.0 0.1229572239 0.0322262983 1.5018e-05 2.05755e-05 -0.0001696259 -5.49941e-05 -0.819942208 0.2039079708
135299190.0 0.1244941402 0.0283702773 -7.55194e-05 7.46974e-05 0.0002155837 6.1247e-06 -0.8178034642 0.2128578832
140299160.0 0.1258929239 0.0250110267 0.0001514562 -3.54541e-05 -4.19768e-05 5.93943e-05 -0.8155259569 0.2212046679
145299130.0 0.1267911637 0.0214598662 0.0003840127 8.74953e-05 0.0001539757 9.3591e-05 -0.813728136 0.2300945393
150299100.0 0.1277577741 0.0180777387 1.70064e-05 0.0001096224 -0.0001279458 -5.0721e-05 -0.8117039329 0.2381003911
155299070.0 0.1284252051 0.0148747963 -5.54934e-05 0.000214257 6.00411e-05 7.94747e-05 -0.8090056609 0.2473312394
160299040.0 0.1293798457 0.0116906779 0.0001521124 1.71264e-05 7.3521e-05 0.0001780145 -0.8075794448 0.2563529516
165299010.0 0.1295397858 0.0086508584 2.9186e-05 0.0001385589 -0.0001190532 0.0002586106 -0.8043474535 0.2648858665
170298980.0 0.1299882832 0.0056527563 -1.92266e-05 0.0002222713 4.69226e-05 -6.195e-07 -0.8019592147 0.2732062847
175298950.0 0.1308713386 0.0029191532 -4.26471e-05 0.0001294491 -1.46004e-05 3.60212e-05 -0.799001981 0.281923018
180298920.0 0.1306960308 -0.0001962436 5.42339e-05 9.51582e-05 2.73242e-05 0.0002135637 -0.7956164492 0.2905738744
185298890.0 0.1308003194 -0.0030715744 -0.000107009 0.000121604 2.89157e-05 6.48971e-05 -0.7932284133 0.2979474382
190298860.0 0.1308825922 -0.0061271883 0.0001053536 -3.01477e-05 6.07992e-05 0.0002231146 -0.7899664647 0.307603254
195298830.0 0.1313302844 -0.0089644144 -5.78592e-05 0.0001574776 1.32427e-05 0.000158394 -0.7865037141 0.3154962469
200298800.0 0.1308809067 -0.0113937435 0.0002491836 0.0001105458 5.27732e-05 2.2246e-06 -0.7830945616 0.3241147535
205298770.0 0.1307536075 -0.0143289498 0.0001491137 0.000212906 0.0001623688 1.75916e-05 -0.7806067481 0.3321328737
210298740.0 0.1305248586 -0.0167176329 0.0001497779 -0.000251176 -0.0001112918 5.81193e-05 -0.7768066283 0.3404957038
215298710.0 0.1301040606 -0.0191227067 -4.0824e-05 0.0002800325 -0.0001217105 0.0001397967 -0.7731723361 0.3484404424
220298680.0 0.129769261 -0.0215360585 0.0001367253 0.0001024979 4.55869e-05 3.59646e-05 -0.7697021586 0.3569961552
225298650.0 0.1293766168 -0.023745991 0.0001586751 0.0001284479 0.0002870379 0.0001340178 -0.766044232 0.3647984979
230298620.0 0.1288328454 -0.0262883683 -0.0001366526 -0.0002695073 -0.0001060987 0.0001117601 -0.7617427293 0.3728128406
235298590.0 0.1285431112 -0.0285493979 -0.0001179549 0.0001502747 9.16021e-05 2.01112e-05 -0.758428253 0.3807219055
240298560.0 0.1278901723 -0.0307829506 1.64397e-05 0.0002513313 -0.0001023789 1.3048e-05 -0.754419549 0.3887031191
245298530.0 0.1273885895 -0.0329720146 0.0002133624 -0.0001586198 -0.0001254702 1.49693e-05 -0.7502571504 0.3967280362
250298500.0 0.1267208265 -0.0352324026 0.0002983001 0.0001315809 0.0001256925 0.0001172065 -0.7460391128 0.4048013225
255298470.0 0.1264277247 -0.0370949075 6.39624e-05 4.56324e-05 2.5475e-05 0.0001222142 -0.7419188572 0.4121868446
260298440.0 0.1255556933 -0.0389961892 7.57363e-05 0.0001448998 8.11335e-05 0.0001534297 -0.7371142367 0.4199560083
265298410.0 0.124788484 -0.0411542673 -8.87781e-05 0.0001541537 6.66368e-05 0.00021829 -0.7327760938 0.4275259355
270298380.0 0.1242056062 -0.043153388 0.0001375194 0.0003302319 3.84025e-05 0.0001521867 -0.7278155528 0.4355292464
275298350.0 0.1233390726 -0.0450107338 0.0001628045 -3.58253e-05 -0.000103179 1.11282e-05 -0.7234356338 0.4436396122
280298320.0 0.122814147 -0.0469517471 6.71091e-05 0.0002264582 0.0003091304 0.0001330417 -0.7189773677 0.4501945826
285298290.0 0.1218115538 -0.0486435793 7.00155e-05 0.0001000546 2.78895e-05 0.0001170099 -0.7132598474 0.4578434527
290298260.0 0.1211609077 -0.0506829814 0.0002164642 6.20049e-05 -3.4579e-05 9.38147e-05 -0.7094121168 0.4657873922
295298230.0 0.1204595028 -0.0524973345 -0.0001265612 5.85429e-05 -2.96678e-05 3.17975e-05 -0.7043276798 0.4731917184
300298200.0 0.1197183875 -0.0548386219 1.79533e-05 0.0001755602 0.0002384808 0.0002077977 -0.6992623925 0.4800601649
305298170.0 0.1190285496 -0.056248871 4.33875e-05 0.0003124839 -4.80868e-05 0.0002467335 -0.6939176508 0.4878548853
310298140.0 0.1179177077 -0.0584382617 0.000104788 -0.0001882367 0.0002133184 0.0003278277 -0.6893503227 0.4949747152
315298110.0 0.116565451 -0.0602490044 7.5705e-05 -8.70097e-05 0.0003357586 0.000161902 -0.6836686304 0.5019420525
320298080.0 0.1157674048 -0.0618388833 -8.49071e-05 -8.55153e-05 0.0001171326 -0.0001067927 -0.6779816282 0.5092815174
325298050.0 0.1145739102 -0.0640740458 0.000357458 -2.40055e-05 9.39533e-05 -0.0002794653 -0.6728013551 0.5160925843
330298020.0 0.1132322784 -0.0655016544 0.0002027157 6.68752e-05 0.0002146843 0.0001531759 -0.6670148823 0.5234073578
335297990.0 0.1120759425 -0.0667554394 -3.7824e-05 0.0001461537 2.38328e-05 0.0002223225 -0.6618488788 0.5297388304
340297960.0 0.1105562153 -0.0682252802 9.24817e-05 6.03449e-05 -1.92006e-05 0.0002323452 -0.6559192577 0.5371825004
345297930.0 0.1092816237 -0.0698372388 0.0004311658 9.37044e-05 0.0002353498 0.000116599 -0.6502439376 0.5441854731
350297900.0 0.1086861588 -0.0710961774 3.56123e-05 0.0001245415 0.0003908247 7.55588e-05 -0.6443483933 0.5511968768
355297870.0 0.1070828527 -0.0725733086 -7.8234e-06 0.0001746879 9.58676e-05 6.51576e-05 -0.638616181 0.5570682936
360297840.0 0.1060698432 -0.0737334395 0.0003282363 0.0001627908 4.96846e-05 0.0001953348 -0.6327667857 0.5637694312
365297810.0 0.1048609081 -0.0750647212 9.6428e-05 5.31015e-05 1.35726e-05 7.09982e-05 -0.626161065 0.5707337559
370297780.0 0.1036722721 -0.0762932815 7.5163e-06 0.0001208777 0.0001242916 0.0001450281 -0.6209225216 0.5761970907
375297750.0 0.1022890329 -0.0774128794 0.0001453376 0.000172515 0.0005095786 3.38058e-05 -0.6145384545 0.5830125728
380297720.0 0.1016485395 -0.0789827137 0.0002449635 0.0001010415 0.0003704561 -3.1397e-06 -0.6085926741 0.5898893787
385297690.0 0.1000938748 -0.0799946074 7.89903e-05 0.0002213224 0.0001881609 -6.29757e-05 -0.6019444752 0.5957852811
390297660.0 0.0990639324 -0.0812453431 9.42556e-05 0.0002132485 5.22093e-05 0.0001594757 -0.595521477 0.6018500807
395297630.0 0.0978836359 -0.0822266034 0.0003103509 4.52095e-05 9.84837e-05 0.0001174807 -0.5893320619 0.6082546124
400297600.0 0.0966663921 -0.0834288636 0.0001839908 0.0002934533 0.0001606026 0.0002055127 -0.5831883656 0.6136514572
405297570.0 0.095648752 -0.0846764853 0.0002000582 0.000293072 0.0002427594 0.0001644034 -0.5771466936 0.6197746084
410297540.0 0.0940334798 -0.0860274051 0.0001223435 0.0002926496 0.0003514879 0.0002046214 -0.5701834391 0.625576035
415297510.0 0.093178557 -0.08691545 0.0003928225 0.000229037 0.0002648423 9.26151e-05 -0.5636592669 0.6320995628
420297480.0 0.0916081447 -0.088205958 0.0002624694 0.0002203557 0.000176831 9.01054e-05 -0.5569151977 0.6370551746
425297450.0 0.0903752293 -0.0891879566 0.0003460829 0.000257962 0.0001834748 9.11356e-05 -0.5502777376 0.6432247245
430297420.0 0.0891979014 -0.0900165257 0.0002647305 0.0001448328 0.0003519822 0.0002528074 -0.5439990482 0.6487083629
435297390.0 0.0877875383 -0.0912680558 0.0002039371 0.0002145859 0.0002625385 -5.4159e-06 -0.5367724064 0.6536466293
440297360.0 0.0865545623 -0.0922794006 0.0001606953 0.0003589707 0.0001857584 -1.56838e-05 -0.5298529943 0.6589885072
445297330.0 0.0852358641 -0.0929207743 0.0003729118 0.0003192935 -7.8179e-06 0.000139293 -0.5239717433 0.6642301375
450297300.0 0.0839499282 -0.093962778 0.0001892282 6.67153e-05 0.0001653109 -2.62119e-05 -0.5173559088 0.669849565
455297270.0 0.0825128664 -0.0947676208 0.0001119946 -8.31582e-05 0.000165162 0.0001712581 -0.5098103592 0.6748373553
460297240.0 0.0811656332 -0.0955026183 0.000306586 5.65965e-05 0.000337489 0.0001568075 -0.502719897 0.6803062439
465297210.0 0.080066768 -0.0967358284 0.0005199615 -7.02327e-05 0.0002860529 0.0001530851 -0.4959676545 0.684922498
470297180.0 0.0788295277 -0.0975413072 0.0003288539 0.0002696111 0.00017331 0.000152376 -0.4897075689 0.6896851662
475297150.0 0.077022824 -0.0982576054 0.0001800003 0.0001824408 0.0002683296 0.0002607598 -0.4822048371 0.694733553
480297120.0 0.0760548333 -0.0994741646 0.0004294977 0.0001419106 2.09e-06 4.69086e-05 -0.4756322715 0.7000100801
485297090.0 0.0746108165 -0.0999600665 0.0002022309 -7.06291e-05 0.0002160194 0.0003877976 -0.4682365431 0.7037398388
490297060.0 0.0731630043 -0.1008541233 0.0001221358 0.0002913066 0.0003182963 9.80503e-05 -0.4616948188 0.7085401687
495297030.0 0.0718522857 -0.1015083713 0.0001669267 7.28921e-05 0.000381828 0.0002226719 -0.4536637296 0.712960874
500297000.0 0.0705640495 -0.1025481644 0.0002434896 4.00355e-05 0.0003381963 0.0002144107 -0.4467713161 0.7178444501
505296970.0 0.0688263055 -0.1030035736 0.0003788421 -8.58965e-05 0.0003505787 6.9606e-06 -0.4403090197 0.7220259878
510296940.0 0.0678455783 -0.1035477533 0.0002455816 -4.4143e-06 0.000473084 -8.62563e-05 -0.4324511116 0.7267453998
515296910.0 0.066116783 -0.1042903222 0.0001489992 5.45165e-05 0.000368067 0.0001509401 -0.4245095474 0.7309052348
520296880.0 0.0649179717 -0.1050169128 0.000232175 0.0001449025 0.0004792602 0.0001619328 -0.4175735813 0.7350621221
525296850.0 0.0633259515 -0.105450015 0.0001289531 -3.24913e-05 0.0002173129 0.0001068736 -0.4105089638 0.7391802873
530296820.0 0.0619033829 -0.1060932399 0.0003674117 0.0002216413 0.0003635188 0.0001927324 -0.4037103788 0.743152865
535296790.0 0.0607532965 -0.1068579664 5.78834e-05 0.0001854833 0.0001876724 0.0001826483 -0.395961878 0.7466837233
540296760.0 0.0590612689 -0.1077605708 1.02323e-05 0.0001836827 0.0004412807 0.0001559566 -0.3881176404 0.7510458935
545296730.0 0.0576702834 -0.1079435634 0.000297099 -0.0001817601 0.0003293664 6.9535e-05 -0.3809605486 0.7538474469
550296700.0 0.0561069108 -0.1083048775 0.000219411 0.0002648859 0.0003457106 -0.0001853431 -0.3732981979 0.7582182635
555296670.0 0.0550093487 -0.1087632982 0.0002691703 5.17219e-05 0.0004717816 -9.79471e-05 -0.3656721664 0.761657648
560296640.0 0.0535477753 -0.1095476013 0.0001668437 0.0001363668 1.1364e-06 0.0001920978 -0.3576343965 0.7655209116
565296610.0 0.052048271 -0.1100194941 0.0003594667 -0.0001135228 0.0001537454 -9.28477e-05 -0.3503649824 0.7692447645
570296580.0 0.0509163531 -0.110447704 0.000251168 -5.84232e-05 0.0004606005 0.000147732 -0.3433783662 0.7729494945
575296550.0 0.0493321837 -0.1108977634 0.0002891128 2.28703e-05 0.0004299665 3.18002e-05 -0.3350185348 0.7756220767
580296520.0 0.0478364234 -0.1113706521 0.0001097997 0.0001252446 0.0004637987 8.10509e-05 -0.3278676754 0.7790090415
585296490.0 0.0460140915 -0.1114255563 4.03896e-05 0.0001435468 0.0003393847 0.0001908273 -0.3197417022 0.7816248263
590296460.0 0.0447284809 -0.1118655046 0.0004392928 -0.000134151 0.000231793 -5.16686e-05 -0.3122834361 0.7847786392
595296430.0 0.043529251 -0.1123959753 0.0002509155 2.68284e-05 0.0002649384 -7.61114e-05 -0.3043759729 0.7875905724
600296400.0 0.0417854835 -0.1125498486 0.0001395022 -1.37103e-05 0.0003521813 3.69e-08 -0.2962247793 0.791492357
605296370.0 0.0403844948 -0.112848411 0.0003270992 0.0001947217 0.0001979877 -1.25187e-05 -0.2886469376 0.7941223403
610296340.0 0.0391013923 -0.1133645083 0.0002047762 2.55379e-05 0.0001224461 -4.18137e-05 -0.2806399741 0.7972286269
615296310.0 0.0375766359 -0.1131695291 6.42766e-05 -6.47769e-05 0.0002760551 -0.0001465928 -0.2730133691 0.7997126676
620296280.0 0.036280204 -0.1138337356 0.0003390939 0.0001931852 0.0003801342 3.76208e-05 -0.2654341381 0.8017713224
625296250.0 0.0346572467 -0.1139271303 0.0002570234 -1.39193e-05 0.0002990585 0.0001996716 -0.2572250479 0.8051747463
630296220.0 0.0331057505 -0.1143469283 0.0003497377 9.2875e-05 0.0003805534 -1.7019e-05 -0.2490058139 0.8073460888
635296190.0 0.0318351288 -0.114348759 0.0002772794 1.8884e-06 0.0003858857 -6.996e-05 -0.2414294481 0.8095010115
640296160.0 0.0303187275 -0.1147301248 0.000408607 -0.0001351741 0.0001769869 7.58606e-05 -0.2327387321 0.8119760996
645296130.0 0.028796351 -0.1147532089 0.0002397446 -9.7044e-06 0.0003002882 5.98438e-05 -0.2256617098 0.8141453307
650296100.0 0.0272242935 -0.1146341778 0.0003164079 5.53089e-05 0.0002392959 7.46897e-05 -0.2170549832 0.8167959271
655296070.0 0.0258471485 -0.1151302447 0.0004386553 4.64133e-05 0.0003058321 -0.0001128935 -0.2089043036 0.8179975835
660296040.0 0.0243888915 -0.1147920938 0.0003409383 -0.0001229836 0.0001954707 0.000139802 -0.2007528292 0.8200498054
665296010.0 0.0231909834 -0.1151291787 0.0001909426 -0.0002223729 0.0004044781 -3.71397e-05 -0.192734304 0.8223683682
670295980.0 0.0216399827 -0.1153483323 0.000198915 -4.83998e-05 0.0006115789 -0.0001728157 -0.1849855937 0.8244204249
675295950.0 0.0201259813 -0.1152017226 0.0002982394 -1.36238e-05 0.0001493106 -0.0001762754 -0.1765906686 0.8260794292
680295920.0 0.0181971884 -0.1151313577 0.0005674175 -0.0001377094 0.00061576 -8.8596e-05 -0.1686022392 0.8281361559
685295890.0 0.0172005468 -0.1151791324 0.0002145003 -8.31032e-05 0.0003268271 3.32967e-05 -0.1595136751 0.8293222494
690295860.0 0.01581796 -0.1151578226 0.0005898121 -0.0001986064 0.0002808897 -9.88557e-05 -0.1520108236 0.8303721943
695295830.0 0.014381458 -0.1152621449 0.0004463297 -9.72618e-05 0.000227361 8.61417e-05 -0.1437488775 0.8325383217
700295800.0 0.0129800001 -0.115228084 0.0004893588 -0.0001608387 0.0004922937 0.0002075338 -0.1353235836 0.8329716317
705295770.0 0.0116806323 -0.1150945891 0.000314559 -0.0001226091 0.0001463852 3.96626e-05 -0.1275899779 0.8354305901
710295740.0 0.00999139 -0.114982866 0.0002345834 -9.74419e-05 0.0003989494 9.22076e-05 -0.1194639847 0.8361034083
715295710.0 0.0084205509 -0.1146975328 0.0003158738 -6.34144e-05 0.0003096416 -1.99545e-05 -0.1105996657 0.837328563
720295680.0 0.0070347235 -0.1148768631 0.0004517772 -4.77959e-05 0.0003737699 -9.0099e-06 -0.1023543905 0.8384849782
725295650.0 0.0056704938 -0.1146264814 0.0002865058 -9.64035e-05 0.0002990141 -0.0001163986 -0.0939051843 0.8395098892
730295620.0 0.0043951274 -0.1145668599 0.0002786106 3.89574e-05 0.0001894768 -0.0001379274 -0.0856469697 0.8402871454
735295590.0 0.0029715302 -0.1143416335 0.0004828199 -0.0001235901 8.69314e-05 -4.34921e-05 -0.077229844 0.840857435
740295560.0 0.0014795318 -0.1137567368 0.0003544028 -8.06604e-05 0.0002314088 -0.00015282 -0.0695817517 0.8413252622
745295530.0 3.88104e-05 -0.1137553179 0.0003089633 0.0002160158 0.0002594859 -0.0001328139 -0.0611529504 0.8424801448
750295500.0 -0.0013938036 -0.1136326177 0.0001878237 0.0002871645 0.0003202729 -0.0001801087 -0.0519572058 0.8424013253
755295470.0 -0.0026865767 -0.1132045223 0.0002288524 -2.43435e-05 0.0003153231 -3.83364e-05 -0.0446553917 0.8435891905
760295440.0 -0.0043181521 -0.1130307601 0.000388441 -0.0002958332 0.0005353962 3.60572e-05 -0.0364590513 0.8435536544
765295410.0 -0.0056127684 -0.1130914484 0.0005963512 2.99039e-05 0.0003633435 -7.55377e-05 -0.0273381823 0.8447097212
770295380.0 -0.0071271486 -0.1125906161 0.00045008 -0.0002274716 0.0005297881 -0.0001675797 -0.0189389019 0.844447933
775295350.0 -0.0086442915 -0.112133553 0.0003495071 -3.78859e-05 0.0004407514 -0.0001693034 -0.0116787503 0.8438476593
780295320.0 -0.0098394799 -0.1120190784 0.0003763276 -0.0002038382 0.0003591593 -4.75787e-05 -0.0030507903 0.8447109684
785295290.0 -0.0111747265 -0.1113489492 0.000547064 -3.52256e-05 0.0002020748 -6.6061e-06 0.0048832606 0.8447338036
790295260.0 -0.0123441261 -0.1110753955 0.0005008997 3.7435e-05 0.0002920247 -7.81838e-05 0.0141223868 0.8449988356
795295230.0 -0.0139116934 -0.1103504568 0.0002974737 -0.0001086065 0.0004159492 4.28292e-05 0.0221449305 0.8445193782
800295200.0 -0.01528939 -0.1100268277 0.0003919813 1.49123e-05 0.0004367023 -0.0002466314 0.0306351708 0.844223611
805295170.0 -0.0166996896 -0.10973751 0.0003931234 -0.0003121481 0.0003441063 -0.0001178643 0.0383542704 0.843356879
810295140.0 -0.0181719525 -0.1094162821 0.0002715918 -9.58738e-05 0.0004738681 -2.00502e-05 0.0470226724 0.8443490154
815295110.0 -0.019184186 -0.1086917298 0.0003836577 -0.0002353791 0.0004607199 -0.0001192038 0.0554336091 0.8429366864
820295080.0 -0.020581018 -0.1086953915 0.0006400181 -0.000135828 0.0002122217 9.01071e-05 0.0635015963 0.8424542006
825295050.0 -0.021827643 -0.1079672762 0.0003310538 -0.0001968039 0.0003492707 -3.6297e-06 0.0716278253 0.8418422905
830295020.0 -0.0230897059 -0.1072087165 0.0002775873 -6.08617e-05 0.0005581454 -0.0002731217 0.0793399348 0.8407631943
835294990.0 -0.0247866866 -0.1066755533 0.0004613364 -0.0002219842 0.0004176871 -7.21533e-05 0.0884559503 0.8401872293
840294960.0 -0.0256962143 -0.1064902755 0.0003125061 -0.0001789122 0.0004221177 -0.0001208539 0.0961356924 0.8395865572
845294930.0 -0.0271663692 -0.1055915403 0.0003805534 -0.0001456567 0.0005046073 -0.0002650838 0.1042756702 0.8382362642
850294900.0 -0.0281718405 -0.1051075883 0.0002414534 -0.0002297865 0.0002066081 -0.0002051667 0.1123882217 0.8375172395
