!Created with skrf (http://scikit-rf.org).
# Hz S RI R 50.0 
!freq ReS11 ImS11 ReS21 ImS21 ReS12 ImS12 ReS22 ImS22
300000.0 -0.777463871 -0.099093102 0.0006382346 0.0001454127 -0.0004100866 0.0021694181 -0.2124511229 -0.0795638196
5299970.0 -0.7844261893 -0.0050673589 -0.0002174437 0.0001232328 -0.0002133544 1.05523e-05 -0.2147104681 0.0084776985
10299940.0 -0.7877967524 -0.0036216745 -0.0001495908 0.0001071635 -0.0002684949 -3.43737e-05 -0.2110837211 0.0215871304
15299910.0 -0.793046545 -0.0021010682 -4.46774e-05 0.0001252034 2.67887e-05 -1.38333e-05 -0.2061573721 0.0311273934
20299880.0 -0.8001036774 0.0025383443 0.0002298288 -0.0001540303 -3.99076e-05 7.1357e-06 -0.1998587823 0.0392643973
25299850.0 -0.8066537659 0.0080652341 0.0001359342 5.374e-06 6.02744e-05 0.0001551032 -0.1935112252 0.0454639215
30299820.0 -0.8123163048 0.0151746354 -0.0001385162 0.0001277097 0.0001761233 1.94013e-05 -0.1871735111 0.0509884387
35299790.0 -0.8172256731 0.0248961379 -2.45138e-05 4.57162e-05 -0.0001082313 -5.43558e-05 -0.1808384164 0.0550076398
40299760.0 -0.8214409764 0.0340142694 -3.1078e-06 1.44291e-05 -4.2948e-05 -2.49286e-05 -0.1749409064 0.0574806589
45299730.0 -0.8241731357 0.0431058263 0.0001835981 -1.24091e-05 -7.93347e-05 -1.0827e-05 -0.1690182024 0.0596321012
50299700.0 -0.8267490656 0.0533510129 2.61802e-05 -7.41418e-05 0.0001270158 3.97645e-05 -0.1641563091 0.0609311397
55299670.0 -0.829368011 0.0632565637 -7.91366e-05 6.85178e-05 -9.03403e-05 -6.66781e-05 -0.1593153046 0.0616648256
60299640.0 -0.8302948859 0.073471334 -6.85599e-05 0.0001158534 0.0001485003 6.62684e-05 -0.1549669631 0.062459748
65299610.0 -0.8305581982 0.0836441188 -2.80766e-05 0.0002151849 0.0001567993 4.15196e-05 -0.1513519854 0.0626046161
70299580.0 -0.8318824298 0.0936948455 -0.0002250367 9.48227e-05 4.89972e-05 4.1206e-06 -0.1475267803 0.0629455398
75299550.0 -0.8322670697 0.1036737169 -0.0001629145 2.07488e-05 9.83597e-05 -4.4762e-06 -0.1445427593 0.0628104501
80299520.0 -0.8317225729 0.1135335743 0.0001480282 3.47459e-05 -0.0001000697 4.01599e-05 -0.1421014166 0.0628026074
85299490.0 -0.8312033107 0.1229377442 -3.6209e-05 -9.97699e-05 0.0001210299 -1.60914e-05 -0.1395903966 0.0624616031
90299460.0 -0.8301756928 0.1325475425 5.25586e-05 -1.4091e-06 0.0001524765 -1.12146e-05 -0.1370802688 0.0620927228
95299430.0 -0.8294186168 0.1421280384 -0.0001487269 -4.99398e-05 -4.13697e-05 -5.8291e-06 -0.1347205825 0.0620796593
100299400.0 -0.8280444309 0.151177756 -8.34633e-05 1.27053e-05 0.0002216197 7.71673e-05 -0.1327943514 0.0617133807
105299370.0 -0.8266430282 0.1607401985 -0.0001384078 0.0002300927 -2.8086e-06 3.80905e-05 -0.1310098753 0.0615511281
110299340.0 -0.8254972343 0.1692573305 3.94131e-05 -0.0001323033 -3.71744e-05 -2.17855e-05 -0.1297594309 0.0612307588
115299310.0 -0.8241497732 0.1791663388 3.8524e-06 -8.8711e-06 0.000114916 -6.39202e-05 -0.1279091962 0.061343488
120299280.0 -0.8224037634 0.1873021564 4.76837e-05 8.81507e-05 0.0001739945 1.57035e-05 -0.1268196808 0.0613102439
125299250.0 -0.8200520751 0.1959741137 -0.0001907709 -8.49868e-05 4.14637e-05 -1.74722e-05 -0.1255360666 0.0606259173
130299220.0 -0.8182654615 0.2055104277 7.60829e-05 -1.94625e-05 7.51546e-05 2.27945e-05 -0.1244158775 0.0605926621
135299190.0 -0.8167594336 0.2145588783 5.72059e-05 0.000270629 5.96391e-05 5.47504e-05 -0.1232287615 0.06076036
140299160.0 -0.8148971662 0.2231412106 6.38395e-05 -2.95487e-05 -3.33899e-05 0.0001211432 -0.1224359708 0.0612752724
145299130.0 -0.8127428842 0.2326750956 7.78775e-05 4.12266e-05 0.0001080813 4.20749e-05 -0.1214161476 0.0612775888
150299100.0 -0.8103250057 0.2411485047 -0.0001173053 0.0001397296 6.19475e-05 9.93833e-05 -0.1209338316 0.0621534657
155299070.0 -0.8078684563 0.2498143183 0.0001591485 0.0001427249 -0.0002036459 0.000273316 -0.1200488334 0.0621423549
160299040.0 -0.805507629 0.2583362748 0.0001831334 8.96172e-05 5.64868e-05 0.0001656302 -0.119615141 0.0625848898
165299010.0 -0.8029189705 0.2668467281 -0.0001015937 0.0002666888 -0.0001773671 -1.92602e-05 -0.1186530641 0.0628960122
170298980.0 -0.7997850905 0.2754037582 6.9828e-06 6.3984e-06 9.08823e-05 9.56474e-05 -0.1181305466 0.0633894461
175298950.0 -0.7971164437 0.2842511088 3.16751e-05 -0.0001209016 -3.4101e-06 0.0002075238 -0.1178348321 0.0640798286
180298920.0 -0.7945640443 0.2927155571 5.35795e-05 6.12297e-05 1.52877e-05 -4.83658e-05 -0.1170099924 0.0647509796
185298890.0 -0.7913488625 0.3004913095 -6.43973e-05 -4.65154e-05 0.0001417376 2.72598e-05 -0.1163234049 0.064976951
190298860.0 -0.7884703638 0.3100218201 -5.853e-05 9.96137e-05 -9.19148e-05 -0.0001108526 -0.1158321747 0.0658252527
195298830.0 -0.7853017169 0.3182300504 -0.0001593197 0.0001260731 6.06183e-05 -2.77953e-05 -0.1155742311 0.0662755835
200298800.0 -0.7813068871 0.3269526768 -5.90094e-05 0.0001900851 0.0002046406 -1.59171e-05 -0.1152603453 0.0666955853
205298770.0 -0.7783329748 0.3345884305 -0.0001323251 0.0001089912 -3.94901e-05 4.796e-07 -0.114836748 0.0674378233
210298740.0 -0.7746449038 0.3431197147 8.60464e-05 4.87394e-05 -0.0001043964 0.0001229352 -0.1137782877 0.0682072929
215298710.0 -0.7717482758 0.3510591503 0.0002030567 0.0001806446 5.5719e-06 0.0001787883 -0.1140021931 0.0686556778
220298680.0 -0.7674599453 0.3587196575 5.82674e-05 2.50948e-05 9.77398e-05 0.0001069465 -0.1136859239 0.0694229783
225298650.0 -0.7645616812 0.3669553449 -5.2438e-05 -8.39127e-05 8.88591e-05 -2.66369e-05 -0.1133738056 0.0702025226
230298620.0 -0.7601641484 0.3747134992 -7.29523e-05 -2.30528e-05 0.0001162501 6.71398e-05 -0.1127677248 0.0708167478
235298590.0 -0.7564469781 0.3834303292 0.0001344741 -0.0002005463 5.62862e-05 0.0002279968 -0.1122830152 0.0719160504
240298560.0 -0.7523472555 0.3915297697 0.0001741132 0.0001481027 -0.0002148014 0.0002087199 -0.1117512404 0.0727027753
245298530.0 -0.7487936966 0.3990420014 0.0003961636 0.0001575571 0.0001302926 0.0001392641 -0.1115038848 0.0730678557
250298500.0 -0.7444169965 0.4073870556 3.45478e-05 -2.30526e-05 8.00935e-05 0.0001686922 -0.1112281236 0.0736188515
255298470.0 -0.7399866319 0.4141028583 0.0002411843 0.000159153 0.0002332891 0.0001373341 -0.1108393822 0.0746923199
260298440.0 -0.7356962546 0.4221565553 4.09395e-05 0.0001196806 6.33004e-05 2.58411e-05 -0.1102114395 0.0756818221
265298410.0 -0.7310712809 0.430324251 -0.0001083803 0.0001177382 0.0001835478 0.0001757268 -0.1097307819 0.0764983456
270298380.0 -0.7272876683 0.4378457825 8.32898e-05 -0.0001186515 0.0001121692 7.93486e-05 -0.1087791567 0.0771689129
275298350.0 -0.7221532918 0.4455242635 0.0002359491 -0.0001352502 0.0001433348 0.0001204991 -0.108423986 0.0781999178
280298320.0 -0.7169933543 0.4531705672 0.0001914351 -8.7029e-06 0.0001477565 -2.59736e-05 -0.1077140971 0.0788582498
285298290.0 -0.7125120271 0.4599253286 3.03532e-05 6.58777e-05 3.14201e-05 -5.23887e-05 -0.1072456475 0.0797878453
290298260.0 -0.7075617024 0.467542323 -1.5195e-06 3.06731e-05 0.0002092089 4.26354e-05 -0.1065903164 0.0805789672
295298230.0 -0.7025530614 0.4745748693 0.0001781691 0.0001062453 0.0001088925 9.28382e-05 -0.1060249033 0.0810086407
300298200.0 -0.6977047173 0.4819885914 0.000178841 -5.18479e-05 -4.63442e-05 0.0001481978 -0.105255201 0.0821573778
305298170.0 -0.692339139 0.4885005454 6.40368e-05 0.0001166073 2.2832e-05 9.782e-06 -0.1044106176 0.0830497289
310298140.0 -0.6873717349 0.4966988801 0.0001532179 -1.34017e-05 3.71477e-05 -8.22608e-05 -0.1042277264 0.0838604745
315298110.0 -0.6825565502 0.5033521565 1.91328e-05 0.0001216855 2.94374e-05 -3.66908e-05 -0.1032815589 0.0846966511
320298080.0 -0.6771836505 0.5105640057 -3.18098e-05 0.0001208403 0.0001395347 0.0001240921 -0.1025446777 0.0856483684
325298050.0 -0.671728121 0.517149644 0.0003687463 8.71383e-05 0.0001009867 5.6948e-06 -0.1023366401 0.0865076748
330298020.0 -0.6663326799 0.5243044308 0.0002105795 -3.15385e-05 4.95172e-05 0.0001077913 -0.1018484326 0.0875823778
335297990.0 -0.6604456025 0.5303340353 -0.0001544249 5.41378e-05 -0.0001154329 -1.22286e-05 -0.1012317266 0.0891671248
340297960.0 -0.6554732491 0.5379620126 0.0001726786 0.0001057017 0.000178421 6.78393e-05 -0.1003905725 0.0902828111
345297930.0 -0.6497962005 0.5443476447 -0.0001046335 0.0001736341 0.0001023911 7.92481e-05 -0.0999500427 0.0909519256
350297900.0 -0.6444247606 0.550835433 0.000159929 0.0002324542 0.0001218822 -0.0001867259 -0.0994927463 0.0925914344
355297870.0 -0.6378737124 0.5583511893 4.74926e-05 -0.0001675422 0.0001930057 9.462e-05 -0.0990840381 0.0931976238
360297840.0 -0.6321763506 0.5640324647 -6.03272e-05 -0.0001089909 6.21386e-05 0.0002634988 -0.0982362697 0.0947383995
365297810.0 -0.6272867641 0.5707588841 0.000167908 6.48226e-05 -2.55881e-05 0.0002453004 -0.0976629432 0.0954637247
370297780.0 -0.6204988589 0.5769851617 0.0001298491 8.24608e-05 9.08727e-05 5.70321e-05 -0.0967325201 0.0963916504
375297750.0 -0.6142206969 0.5834209706 2.83754e-05 0.0001450685 7.6702e-06 -8.68645e-05 -0.0961663755 0.0975379236
380297720.0 -0.6082660907 0.5889067956 0.0002864415 0.0002615459 0.000226537 0.0001215372 -0.0955031985 0.0987722599
385297690.0 -0.6028009719 0.5959172169 0.0002504016 0.0001986659 7.6662e-06 -1.82264e-05 -0.0946040239 0.0996231258
390297660.0 -0.596411164 0.6022058226 0.0002234424 0.0003101109 0.0002700906 5.51938e-05 -0.0941182577 0.100706026
395297630.0 -0.5898284268 0.6080553582 -1.93889e-05 0.0002666764 6.69533e-05 0.0001942203 -0.0932271717 0.1020396907
400297600.0 -0.5838917983 0.6142547211 0.0001064541 6.87467e-05 -2.02475e-05 9.66833e-05 -0.0922782526 0.102716355
405297570.0 -0.5780554775 0.619883679 -4.36569e-05 1.0614e-06 0.0001293587 -5.60515e-05 -0.0915950092 0.1037677095
410297540.0 -0.5710687056 0.6255324095 0.0001881063 5.31682e-05 6.92378e-05 0.0001570768 -0.0908851419 0.1048182827
415297510.0 -0.5644409395 0.6309295692 0.0002031271 -3.00196e-05 -2.50074e-05 0.0001653394 -0.0903458506 0.1056174559
420297480.0 -0.558172159 0.6373620593 0.0001240276 1.68909e-05 3.03312e-05 0.0001527148 -0.08937447 0.1067870089
425297450.0 -0.5513211134 0.6430194397 -7.45055e-05 0.0001367401 0.000107216 2.17389e-05 -0.0885181379 0.1076408729
430297420.0 -0.5452483217 0.6486533449 -8.0708e-06 -3.3398e-06 0.0003164771 0.0001709042 -0.0877164761 0.1080399703
435297390.0 -0.5386308186 0.6534232392 0.0001430322 0.0001253722 0.0002318392 -0.0001333022 -0.0865371083 0.1091624625
440297360.0 -0.5315700349 0.6593389075 6.30842e-05 7.4899e-06 -1.3205e-06 0.0001528017 -0.0858170812 0.110147749
445297330.0 -0.5249215644 0.6640617492 2.17664e-05 -2.12668e-05 0.0001170424 9.4939e-05 -0.0850276195 0.110736981
450297300.0 -0.517658162 0.6696260584 9.38894e-05 -8.12985e-05 5.1183e-05 -5.0711e-05 -0.0838954915 0.1119459904
455297270.0 -0.5109100012 0.6748129717 0.0002147174 0.0001133587 1.57077e-05 6.5903e-05 -0.0830229316 0.1126791386
460297240.0 -0.5047903726 0.6797294065 9.5519e-06 4.60362e-05 0.0002745216 -9.46043e-05 -0.0819050924 0.1133939653
465297210.0 -0.4973304904 0.6848819929 6.2672e-06 2.77834e-05 0.0002045243 -6.09167e-05 -0.080795533 0.1143446033
470297180.0 -0.4902751678 0.6896011241 0.0002179639 -9.09901e-05 0.0002190375 -6.58795e-05 -0.0801715715 0.11544244
475297150.0 -0.4831018477 0.6943983399 0.000179125 3.93486e-05 3.11233e-05 0.0001268262 -0.0787412349 0.1161515756
480297120.0 -0.4764171606 0.6993533856 0.0001277831 5.09567e-05 0.0001111423 -1.47062e-05 -0.0777490115 0.1172653833
485297090.0 -0.4688854643 0.7043627432 -1.12447e-05 -8.08607e-05 -6.94464e-05 0.0001372124 -0.0765683283 0.1181703917
490297060.0 -0.461782606 0.7085636675 -2.01459e-05 -3.36242e-05 0.000218696 0.0001774539 -0.0757729482 0.118886977
495297030.0 -0.4545046493 0.7131104658 0.0001481617 0.0002913867 -4.50391e-05 -5.90568e-05 -0.0746759285 0.1201416633
500297000.0 -0.4469443301 0.7185830187 0.0003653757 7.4218e-05 0.0002576037 1.84278e-05 -0.073438849 0.1213266143
505296970.0 -0.4400549197 0.7226714839 0.0001086684 0.0001056136 0.0002187586 -3.28942e-05 -0.0722523652 0.1217235245
510296940.0 -0.4324976037 0.7268486789 7.87097e-05 2.86336e-05 0.0002528689 9.50444e-05 -0.0710609711 0.1227659966
515296910.0 -0.4244619905 0.7308566129 0.0002875254 0.0001260403 0.0001426918 2.29398e-05 -0.0701976694 0.1237443481
520296880.0 -0.4176889971 0.7355859236 0.0002961186 -2.78505e-05 0.0002605536 6.13129e-05 -0.069328284 0.1247601625
525296850.0 -0.4096698495 0.7389365388 -0.0001530472 -4.18427e-05 0.0002138136 5.53403e-05 -0.0680807857 0.1258407707
530296820.0 -0.4025951612 0.7435887936 -9.7966e-05 -0.0001702021 0.0001847524 -0.0001807383 -0.0669317676 0.1265234776
535296790.0 -0.3954565231 0.7473573926 2.3303e-05 8.10957e-05 0.0002268834 -3.3151e-06 -0.066342332 0.1271903496
540296760.0 -0.3875091531 0.7511566349 0.0002327325 2.39844e-05 0.0003287967 -0.0001396632 -0.0650422403 0.1281482755
545296730.0 -0.3803196545 0.7552058706 0.0001692676 -0.0002045696 0.0002438504 1.347e-05 -0.0640551822 0.1288669935
550296700.0 -0.3724091283 0.7586237597 0.000265792 -6.1152e-05 3.34232e-05 -0.0001171778 -0.0625482851 0.129594436
555296670.0 -0.3641894497 0.762136433 0.0002318093 -0.0001062109 -1.54718e-05 0.0001323305 -0.0616473776 0.130572186
560296640.0 -0.3571946142 0.7660063424 0.0002469032 6.61831e-05 0.0001405239 0.0003157461 -0.0605840427 0.1314069821
565296610.0 -0.3489484468 0.7693097165 0.0002451733 -6.31978e-05 0.0001948186 -0.0001119538 -0.0595609943 0.1322742759
570296580.0 -0.3416899604 0.7729173784 0.000170668 8.93533e-05 0.0001984425 4.19843e-05 -0.0585143521 0.1328388298
575296550.0 -0.3340668003 0.7770258194 0.0001232853 0.0001807671 0.0002248438 7.95692e-05 -0.0569804008 0.1333976425
580296520.0 -0.3261434335 0.7796044642 0.000252813 -1.4643e-05 0.0001515565 8.42089e-05 -0.0557645001 0.1344514152
585296490.0 -0.318551534 0.7825948795 0.0001444325 -6.55238e-05 0.0003201714 0.0001156731 -0.0546216469 0.1349679256
590296460.0 -0.3101512123 0.7858429853 0.0002787813 5.09522e-05 0.0002886578 -9.6248e-06 -0.0539652832 0.1357334811
595296430.0 -0.3024854291 0.7886808729 0.0002068734 1.40748e-05 9.83476e-05 -4.10023e-05 -0.0525283944 0.1359097571
600296400.0 -0.2947188028 0.7918450692 0.0003097853 -5.78478e-05 0.0002791672 -0.0001291144 -0.0512309897 0.1366405388
605296370.0 -0.2874549175 0.7947262067 0.0001808203 5.771e-05 0.0001241822 7.87122e-05 -0.0498419129 0.1374220508
610296340.0 -0.2783842484 0.7974145597 0.000172475 0.0001316709 6.25242e-05 0.0002333747 -0.0488078626 0.1380779014
615296310.0 -0.2695870782 0.8004069222 0.0002912867 0.0001801122 9.62812e-05 5.42502e-05 -0.0472349944 0.1383769494
620296280.0 -0.2625217307 0.8024083089 0.0002415631 0.0002241766 0.0004413637 7.7732e-05 -0.0461742442 0.1391345772
625296250.0 -0.2543034209 0.8051945764 0.0001469988 0.0001423292 5.16455e-05 0.0001233112 -0.0446522026 0.1396762635
630296220.0 -0.2455273394 0.8081702189 4.8178e-06 8.28092e-05 0.0003044459 -8.75617e-05 -0.0435567793 0.1405319423
635296190.0 -0.238297664 0.8103392585 0.0002427504 -4.38941e-05 0.0002363783 2.8078e-06 -0.0419093684 0.1410724859
640296160.0 -0.2304474078 0.8121683722 2.03028e-05 9.57934e-05 0.0001148726 2.13516e-05 -0.0408007882 0.1412991418
645296130.0 -0.2223612891 0.8147424321 0.0003020253 -1.98148e-05 0.0002175873 2.55461e-05 -0.039338614 0.1422825939
650296100.0 -0.2137145009 0.8166797133 0.0001055888 0.0001882867 0.0002560207 -4.59602e-05 -0.0379648967 0.1423709422
655296070.0 -0.2056313736 0.819263873 0.0002747428 -0.0001193988 0.0002317371 -0.0001163518 -0.0363543595 0.143230422
660296040.0 -0.1975787636 0.8208376355 0.0003044914 0.000147259 0.0003265031 -3.92337e-05 -0.034803945 0.1437113149
665296010.0 -0.1889313085 0.8224134656 0.0002529492 -2.1056e-05 0.000198578 4.50686e-05 -0.0336441241 0.1447549791
670295980.0 -0.1812394276 0.8244793211 0.0002069422 0.0002085468 0.0001962143 6.4828e-06 -0.0324536792 0.14509177
675295950.0 -0.1728394156 0.8258715762 0.0001935866 4.14892e-05 0.0001899613 6.11999e-05 -0.0313321847 0.1459844763
680295920.0 -0.1644629942 0.8280278728 0.0001655555 9.8091e-06 0.0001439403 -4.15096e-05 -0.0296507623 0.1464618077
685295890.0 -0.1564544083 0.8302177142 0.0001495319 0.0002319511 0.0004595457 7.75147e-05 -0.0282274973 0.1467677949
690295860.0 -0.1486214591 0.8311411279 0.0003282065 -0.0001942649 9.61855e-05 -5.25354e-05 -0.0268550172 0.1476960723
695295830.0 -0.1397924683 0.8323616332 0.0001882898 9.18149e-05 0.0002437581 3.22694e-05 -0.0252994543 0.1479725359
700295800.0 -0.1315510177 0.8338945352 0.0002366367 -0.0001595617 0.0002459394 -2.09986e-05 -0.024321186 0.1484758042
705295770.0 -0.1236427041 0.8354903193 0.0002142347 0.000155585 0.0001119118 -3.9415e-05 -0.0229667532 0.1495396964
710295740.0 -0.1152097706 0.8361983911 0.0001694692 0.0002271688 0.0003667741 -3.82618e-05 -0.0215645821 0.1491759726
715295710.0 -0.1064135807 0.83744659 0.0001368817 -0.0001160206 8.78603e-05 4.1311e-06 -0.02020362 0.1497387184
720295680.0 -0.0984152075 0.8384137226 0.0002524101 -5.69272e-05 0.0002107473 -9.32615e-05 -0.0186951347 0.1504653385
725295650.0 -0.0902972954 0.8394868944 0.0001294993 0.0002319933 0.0003240386 -7.25692e-05 -0.0176866184 0.1512748058
730295620.0 -0.0811743506 0.8406004445 9.66491e-05 -0.0003308442 0.0001567055 -6.55791e-05 -0.0161370383 0.1511433257
735295590.0 -0.0736167369 0.8414549555 -1.75064e-05 -0.0001327176 0.0003479123 -0.0001474591 -0.0152820184 0.1513166683
740295560.0 -0.0652834802 0.8421390013 0.0002000365 -0.0002212635 0.000188682 0.0001124711 -0.0132409254 0.1520483389
745295530.0 -0.0571631627 0.8423984937 5.06632e-05 -5.84723e-05 0.0003051279 -2.73314e-05 -0.0120252539 0.1519596628
750295500.0 -0.0479205276 0.8426126101 -6.457e-07 -0.0001872152 0.0002757938 -3.17145e-05 -0.0103812845 0.1524911948
755295470.0 -0.039894925 0.842834861 0.0005476783 3.26071e-05 0.0002837061 4.46632e-05 -0.0091726674 0.1524063522
760295440.0 -0.0320989264 0.8431334147 0.0002046242 -0.0001683325 0.0001964688 -0.0001267054 -0.0078699879 0.152641089
765295410.0 -0.0234412398 0.8439746816 0.0001887309 5.55626e-05 0.0001996785 -0.0001093659 -0.0061541359 0.1532112822
770295380.0 -0.0153569723 0.844060474 0.0002838975 -3.52556e-05 0.0001650585 -0.0001834131 -0.0052652185 0.1531785602
775295350.0 -0.006606169 0.8442809753 0.0003864444 -0.0003157224 0.0002334141 -0.0001016051 -0.0038324836 0.1536382194
780295320.0 0.0020766797 0.8443694417 9.34303e-05 -5.68138e-05 0.0001823511 -0.0001661105 -0.0021601438 0.1537560886
785295290.0 0.0099916683 0.8434666896 1.9727e-06 -9.13772e-05 0.000345463 -6.75374e-05 -0.0002140923 0.1538939544
790295260.0 0.0186594535 0.8434624962 0.0003092825 -0.0001370723 4.79003e-05 -7.9604e-05 0.0011071066 0.1539583512
795295230.0 0.0269185411 0.8432926162 0.0002526929 -0.0001459467 0.0002743971 0.0001487704 0.0028171104 0.1541584825
800295200.0 0.0345373381 0.8429640049 0.0001657082 -2.7219e-06 0.0003035566 -0.0002176503 0.0040658912 0.1543178513
805295170.0 0.0434939012 0.8426970313 0.0003702788 -0.0002226538 0.0001423654 -4.30635e-05 0.0054262322 0.1545706899
810295140.0 0.0519702699 0.8423215301 0.000199799 -7.80462e-05 0.0003702636 -3.07851e-05 0.0072658955 0.1546970172
815295110.0 0.0601967203 0.8414465642 9.65564e-05 0.0001003997 0.0002359773 3.29296e-05 0.0088601864 0.1547254442
820295080.0 0.068011506 0.8409566088 0.0004408773 -0.0001699211 0.0002779134 -0.0001003031 0.0102625068 0.1548945355
825295050.0 0.0769663699 0.8404733614 0.000533497 -0.0001817345 0.0002341574 -0.0001556347 0.0119995965 0.1549767483
830295020.0 0.0842908954 0.8393612654 0.0002830315 -6.57528e-05 0.0001186119 5.97437e-05 0.0137234598 0.1550245254
835294990.0 0.0932721663 0.8389583416 0.0005228388 -0.0002270216 0.0002857611 -0.0001601858 0.0148417591 0.1555324081
840294960.0 0.1005000636 0.8377022797 0.0002499445 0.0003022039 0.0005149798 -8.41216e-05 0.0162981529 0.155087468
845294930.0 0.1092007532 0.836693749 0.0003817206 -6.1539e-05 0.0002386155 -3.20721e-05 0.0180565141 0.1555279196
850294900.0 0.1174292796 0.8357239374 0.0003071401 4.66217e-05 4.95673e-05 -6.87439e-05 0.0192385936 0.1553674866
