!Created with skrf (http://scikit-rf.org).
# Hz S RI R 50.0 
!freq ReS11 ImS11 ReS21 ImS21 ReS12 ImS12 ReS22 ImS22
300000.0 -0.776275146 -0.1891469019 -0.0030087977 0.0018165413 0.0014097202 0.0012861107 -0.0450171081 -0.082218005
5299970.0 -0.7859598001 -0.0098326202 -2.23127e-05 6.05067e-05 7.53884e-05 0.0001387987 -0.0487781591 0.0142027689
10299940.0 -0.7892718637 -0.0061674306 2.90254e-05 0.0001166372 3.10287e-05 0.0001284654 -0.0429907282 0.0322082445
15299910.0 -0.7942287765 -0.0034847738 0.0002861707 -1.95068e-05 0.0001976554 1.2924e-05 -0.0348225309 0.0467031122
20299880.0 -0.8010662307 0.000545593 5.38555e-05 0.0001437598 2.0861e-05 9.44127e-05 -0.0251578693 0.0584540675
25299850.0 -0.8074275961 0.0067085354 -0.0001521616 0.0002117174 0.0001944899 -4.92919e-05 -0.014310766 0.0678138431
30299820.0 -0.8141390058 0.0137233511 0.0001388003 -8.00366e-05 6.94921e-05 -1.16413e-05 -0.0026064647 0.0747643837
35299790.0 -0.8186918141 0.0226821833 6.62491e-05 -0.0001115058 -6.50465e-05 -0.0001439945 0.0083466119 0.0795699426
40299760.0 -0.8237741731 0.0313907883 -0.0001812867 -2.38908e-05 -5.62667e-05 -9.98686e-05 0.0195578941 0.0824790989
45299730.0 -0.8263542786 0.0420017937 -8.33297e-05 -0.0001153589 7.03535e-05 8.42725e-05 0.0303049627 0.0842146572
50299700.0 -0.8295345282 0.0519386718 -9.71422e-05 -0.0001398147 3.12016e-05 0.0002082416 0.0404374643 0.0846134156
55299670.0 -0.8316050897 0.0613797742 8.19141e-05 3.1806e-06 0.0001416008 -0.0001027582 0.0495042488 0.0833734142
60299640.0 -0.8331601939 0.0722602342 7.1424e-06 -0.0001356808 -2.02066e-05 -8.97576e-05 0.0581397705 0.081610187
65299610.0 -0.8337276437 0.0818771596 9.94324e-05 3.106e-06 0.0002013443 5.04728e-05 0.0658190521 0.0793893335
70299580.0 -0.8339247241 0.0918853124 0.0001674762 -0.0002139836 -1.35343e-05 0.0001892399 0.07243046 0.0767097956
75299550.0 -0.8339993074 0.1017081386 7.19094e-05 -0.0001828989 -6.8717e-06 0.0001907409 0.0793260218 0.0736152069
80299520.0 -0.8340549097 0.1118384261 9.96543e-05 -0.0001047968 0.0002339523 4.61004e-05 0.0853064133 0.0701040105
85299490.0 -0.8325453725 0.1209845637 8.94547e-05 0.0001144905 -3.5384e-06 2.89628e-05 0.0900703755 0.0663326777
90299460.0 -0.8322086656 0.1313069527 4.22266e-05 1.43015e-05 -3.56338e-05 8.65108e-05 0.0945972578 0.0631855672
95299430.0 -0.8319468506 0.1404179631 0.0001442918 0.0001012892 0.0001159796 7.07667e-05 0.0986747025 0.0595082591
100299400.0 -0.8308470207 0.149831107 3.2227e-06 1.33175e-05 -8.96093e-05 8.12322e-05 0.1024953079 0.0557308557
105299370.0 -0.8287659054 0.1590249908 0.0002204051 6.07157e-05 5.29611e-05 6.71476e-05 0.1059293974 0.0511491512
110299340.0 -0.8279592507 0.1680479486 6.09167e-05 -0.0001501872 3.04391e-05 0.0001305556 0.1084962025 0.0478511772
115299310.0 -0.8260917111 0.1778723314 -1.14991e-05 -2.86628e-05 -5.58721e-05 6.67683e-05 0.1112997578 0.0439726443
120299280.0 -0.8248215027 0.1867839691 -6.9249e-05 3.89335e-05 0.0002681903 0.0001875423 0.113323978 0.0398710742
125299250.0 -0.8223255675 0.195534452 8.67e-05 -5.30548e-05 1.9394e-05 0.000205917 0.1154137243 0.0364420253
130299220.0 -0.8210646603 0.2050566254 -7.04387e-05 0.0001505117 0.0001166174 0.0001723721 0.1172004066 0.032990669
135299190.0 -0.81892362 0.213895625 -0.0001826132 0.0001987879 -1.73752e-05 -0.0001288342 0.1190552354 0.0293125761
140299160.0 -0.8170859628 0.2236204393 9.75197e-05 0.0002794229 0.0001076736 0.000158037 0.1198324964 0.0259391422
145299130.0 -0.814669704 0.2318969861 0.000120241 -9.04212e-05 0.0001103387 2.04592e-05 0.1212579294 0.0224925186
150299100.0 -0.8120730535 0.2412324683 -8.60132e-05 -2.85361e-05 6.3406e-05 -3.65617e-05 0.1220113965 0.0193361636
155299070.0 -0.8095842299 0.2499133574 0.000104556 1.6285e-05 0.0001053538 -2.91035e-05 0.1229797857 0.0158247855
160299040.0 -0.8078939089 0.2590122697 0.0001098601 0.0001689252 0.0001020454 3.57789e-05 0.1233832292 0.0124936096
165299010.0 -0.8049568987 0.267551738 8.54452e-05 0.0001446401 -4.23015e-05 9.54293e-05 0.1237940751 0.0095801535
170298980.0 -0.8020340772 0.2762735479 -8.11055e-05 0.000234795 -3.02013e-05 8.8246e-06 0.1245179882 0.0068236724
175298950.0 -0.7991240035 0.284700517 -3.22981e-05 0.0001013822 0.0001880406 0.000202011 0.1248595406 0.0040477646
180298920.0 -0.7964173745 0.2938607767 0.0001686038 -6.15737e-05 0.0001890015 0.0001273795 0.1251006629 0.0007695064
185298890.0 -0.7923969458 0.3019032764 6.79546e-05 0.0001140586 0.0002184754 1.4509e-05 0.1250320395 -0.002318031
190298860.0 -0.7897682766 0.3109488927 0.0001681427 7.41374e-05 0.0001611874 0.0001264797 0.1250909507 -0.0049174196
195298830.0 -0.7865669893 0.319314665 0.0002078778 0.00030849 9.99054e-05 0.0001254888 0.1247972327 -0.0075645175
200298800.0 -0.7828332992 0.3274998465 8.48655e-05 0.0001348616 0.0001278346 0.0001172665 0.1248748324 -0.0102825415
205298770.0 -0.7794767559 0.3363192897 0.0001302966 0.0001399606 0.0002097932 -9.17948e-05 0.1247567991 -0.0127742812
210298740.0 -0.7763264427 0.3448017268 6.16943e-05 0.0001699174 0.0001304257 0.0002807499 0.1243856566 -0.0153049556
215298710.0 -0.7720982658 0.3534517357 0.0001846391 0.0003462373 0.0003529531 0.000452236 0.1243201985 -0.0180977768
220298680.0 -0.7689223449 0.3610679685 0.0001251917 0.0001920758 -2.24434e-05 9.32458e-05 0.1239912433 -0.0201401768
225298650.0 -0.7653301732 0.3698702725 0.0004121725 1.64372e-05 0.0001336417 0.0001595203 0.1233195305 -0.0225284538
230298620.0 -0.7612109522 0.3777496891 0.0001063154 1.31628e-05 0.000190162 0.0002629402 0.1231650208 -0.0249379283
235298590.0 -0.7572936403 0.3862464444 0.0001876796 0.0002274067 0.000247405 7.38329e-05 0.1227005156 -0.0269157306
240298560.0 -0.7530579879 0.3936979179 0.0002215322 0.0001564941 0.0001377098 0.000359302 0.1222249348 -0.0293669082
245298530.0 -0.7486663036 0.4015371107 0.0002769741 1.85304e-05 0.0001563993 -0.0001643048 0.1210263905 -0.0315184267
250298500.0 -0.7450240827 0.4096247322 0.0001283246 0.0002092144 0.0002374775 0.0002408086 0.1207664965 -0.0333460055
255298470.0 -0.7403334126 0.4178401848 0.0001715728 0.00017391 0.0002574717 0.0001240587 0.1201472745 -0.0358829654
260298440.0 -0.7364488893 0.4254595162 1.8453e-06 0.0001538308 0.0001098883 0.0002142168 0.1193675574 -0.0377422443
265298410.0 -0.7317687812 0.4328055861 0.0001204816 1.2188e-05 0.0003557762 0.0001252963 0.1189191386 -0.0397798719
270298380.0 -0.7270135781 0.4403722301 0.0001314006 -2.96421e-05 4.3454e-06 0.0001738752 0.1181788931 -0.0416761871
275298350.0 -0.7234584618 0.4476246057 0.0001509235 0.0001191977 0.0001005554 0.0002063532 0.1172438065 -0.0436848386
280298320.0 -0.7185662663 0.4553593422 0.0001660283 9.68001e-05 0.0002387986 0.0002715933 0.1166719345 -0.045482221
285298290.0 -0.7139048083 0.4632169714 0.0001056371 0.0002020358 -6.80079e-05 0.0001067971 0.1157849671 -0.0473590301
290298260.0 -0.7085089376 0.4708706169 0.0002140192 4.28428e-05 -8.25734e-05 0.000176407 0.1147975184 -0.0490661779
295298230.0 -0.7038779101 0.4785143237 0.0002179726 0.0001664329 0.0001957404 0.0001971538 0.1142318463 -0.0508852974
300298200.0 -0.6996236074 0.4854492849 0.000137318 0.000109244 0.0002188071 0.0001211384 0.1134703467 -0.052672233
305298170.0 -0.6947350048 0.4927874611 0.0003576298 0.0002091219 0.0001577206 0.0001447965 0.1123554519 -0.0542603927
310298140.0 -0.6889428756 0.4996959884 0.0001062517 7.94712e-05 0.0001833785 0.0002679691 0.1115165339 -0.0560090791
315298110.0 -0.6844980835 0.5068545147 0.0002093928 0.0001066945 9.09966e-05 3.88803e-05 0.1110852273 -0.0578204731
320298080.0 -0.6790500655 0.5143221779 0.000431457 0.0003014384 1.62045e-05 1.37269e-05 0.1095829952 -0.0598389487
325298050.0 -0.6734315883 0.5210624264 0.0002740558 6.23928e-05 0.0002732624 7.8824e-05 0.1089854122 -0.0616147105
330298020.0 -0.6682690109 0.5281764257 4.70431e-05 0.0003787274 0.0002374216 0.0001343858 0.1074634648 -0.0635254314
335297990.0 -0.6633205237 0.5349123901 0.0003443492 0.0002273593 0.0001575244 0.0002296411 0.1062558853 -0.0649326975
340297960.0 -0.6582204165 0.5415594184 0.0002049166 9.33225e-05 3.98137e-05 0.0001308884 0.1052128113 -0.0662425954
345297930.0 -0.6523475293 0.54805866 5.90971e-05 0.0001931862 0.0002307483 0.0001274022 0.1035915975 -0.0678084086
350297900.0 -0.6461322358 0.5551405925 0.0001689133 0.0002060581 0.0003627587 0.0001555216 0.1020869106 -0.0692172514
355297870.0 -0.6413078894 0.5614350815 0.0001398367 0.0001754676 0.0001710259 0.0001739916 0.1012204858 -0.0702949056
360297840.0 -0.6350780623 0.5679941775 0.0001698335 -2.0933e-05 0.000212543 6.07034e-05 0.0998774982 -0.0715338859
365297810.0 -0.6292918841 0.5745635716 0.0001583678 0.000235667 0.0003699339 0.0001832666 0.0988213745 -0.0730599993
370297780.0 -0.6232915963 0.5806257293 -1.42096e-05 0.0001376033 0.0002233437 0.0001935604 0.0973284634 -0.0740355604
375297750.0 -0.617555347 0.5872058608 -6.333e-05 0.0002167728 0.0002634941 3.98879e-05 0.096169717 -0.075504519
380297720.0 -0.6120111609 0.5939089128 -8.47095e-05 6.0281e-05 6.31671e-05 5.25405e-05 0.0950909907 -0.0766380258
385297690.0 -0.6063895759 0.6000515333 0.0003490453 0.00037238 0.0001242203 0.0002277296 0.0940307484 -0.0776443583
390297660.0 -0.5985481958 0.6055627284 -9.78029e-05 0.0002970466 0.0001996049 8.20884e-05 0.092482235 -0.0788890713
395297630.0 -0.5928305718 0.611771733 0.0002547314 -1.53576e-05 0.0003032015 0.0002930392 0.0912299356 -0.0805024024
400297600.0 -0.5868216153 0.6181927835 0.0001639127 0.0002302638 0.000332297 -9.41203e-05 0.0902494031 -0.0812241595
405297570.0 -0.5805868691 0.6233789359 7.8112e-05 6.46962e-05 0.0002138143 9.59587e-05 0.0890603538 -0.082484545
410297540.0 -0.5735969702 0.6300376768 0.0001553763 0.0001979009 0.0002830937 0.0001707846 0.0877489738 -0.0832470151
415297510.0 -0.5684993111 0.6356478411 0.0002957477 0.0003689023 7.68117e-05 0.0002041037 0.0861711102 -0.0843413791
420297480.0 -0.5608589206 0.6413535384 0.0003086308 9.5805e-05 2.92542e-05 0.0003371752 0.0854355507 -0.0850790415
425297450.0 -0.5548414355 0.647038048 7.51485e-05 -1.15552e-05 0.0002855074 0.0001151001 0.0837826448 -0.086648353
430297420.0 -0.5479310929 0.6520681516 9.20055e-05 -4.7445e-06 0.0003017935 -6.57373e-05 0.0826745176 -0.0877010926
435297390.0 -0.5415018454 0.6576843256 0.0003509678 0.0002131423 0.0001845134 0.0001947904 0.081040054 -0.0883911704
440297360.0 -0.5339596233 0.6626426582 0.0004742561 0.0001521228 0.0004011721 0.0002147609 0.0799029038 -0.0894350897
445297330.0 -0.5276013321 0.6680777476 0.0002238651 0.0003546899 0.0003021638 7.49559e-05 0.0787867323 -0.0901563466
450297300.0 -0.520328135 0.6738832869 0.0002947929 4.20263e-05 0.0002242444 0.0001152244 0.0775402779 -0.091156163
455297270.0 -0.5136871807 0.6785127128 0.0001154369 9.54755e-05 0.0002812487 0.0002137827 0.0759561628 -0.0919441024
460297240.0 -0.5058591315 0.6838981801 0.0002133135 4.90933e-05 0.0002871809 4.63371e-05 0.0745423277 -0.0929136464
465297210.0 -0.4990346848 0.6893679115 0.0002323975 0.0001135849 3.70592e-05 0.0001347503 0.0734793592 -0.0934571467
470297180.0 -0.492240558 0.6940038835 0.0001933842 0.000331867 0.0002977119 3.46337e-05 0.0719390277 -0.0945503083
475297150.0 -0.4849232903 0.6987656154 0.0003378845 0.0001122341 0.0001187961 0.0001060145 0.0707905678 -0.0951228571
480297120.0 -0.4769310864 0.704427894 0.000337277 0.0001197141 0.0002817953 0.0002042864 0.0689854539 -0.0959704337
485297090.0 -0.4699475635 0.7086426414 0.0003905174 4.30311e-05 0.0002132476 0.0002792771 0.0676028288 -0.0967636074
490297060.0 -0.4618530414 0.7141079406 0.0001419307 4.31731e-05 0.0001541785 0.0001870841 0.066224621 -0.0973869494
495297030.0 -0.4547104087 0.7184593852 0.0002746713 8.84833e-05 0.0001704335 3.74393e-05 0.0653611005 -0.0979521203
500297000.0 -0.4474620543 0.722334139 0.0001537092 0.0001108961 0.000125977 0.0002336342 0.0637009809 -0.0986452215
505296970.0 -0.4400424106 0.7272556694 0.0002037423 -1.42727e-05 0.0002638054 0.0001301463 0.0622475332 -0.0997736504
510296940.0 -0.4323434297 0.7313070306 0.0002514583 -6.51891e-05 0.0003198159 0.0001360807 0.0611283486 -0.0999316417
515296910.0 -0.4242606124 0.7356450468 0.0003116913 -6.17134e-05 0.0001913319 0.0001717364 0.0593426187 -0.1007618032
520296880.0 -0.4163863904 0.7398214045 0.000236985 0.0001694778 0.0002781496 0.0001002478 0.0583408887 -0.1016365709
525296850.0 -0.4088675482 0.7440688348 0.0005282482 -5.31264e-05 0.0002208179 -2.95335e-05 0.0565882754 -0.1019864485
530296820.0 -0.4014671229 0.7480437689 0.0004918873 9.16535e-05 4.51666e-05 -0.0001002411 0.055153991 -0.1024896028
535296790.0 -0.3927989124 0.7518890683 0.0002335734 9.694e-05 0.0002704744 1.17246e-05 0.0540931804 -0.1029296569
540296760.0 -0.3849744292 0.7556861242 0.0002992689 0.000180847 0.0005152516 -2.35921e-05 0.0524662568 -0.1036944689
545296730.0 -0.377793577 0.7604741429 0.0003323267 0.0002009895 0.0003883961 8.68667e-05 0.0511557497 -0.1040881072
550296700.0 -0.369665012 0.7637960751 0.0003547787 -2.19451e-05 0.0001602191 6.39852e-05 0.0494188032 -0.1045318275
555296670.0 -0.3616069769 0.767457295 0.0004715944 0.0001060997 0.0004025616 0.0001512275 0.0481036044 -0.1050331556
560296640.0 -0.352916699 0.7711606847 0.0001930759 1.86254e-05 0.0001868116 0.000126208 0.0468194927 -0.1057380944
565296610.0 -0.3458815635 0.7742838782 0.000451603 2.0824e-06 0.0004218987 0.0001014423 0.0452223394 -0.1057859558
570296580.0 -0.3369121159 0.7783233039 0.0002189439 0.0003181934 0.0003588892 -7.74261e-05 0.0436844857 -0.1062851043
575296550.0 -0.3286758805 0.7811207457 0.000257628 5.05129e-05 0.0002713948 0.000197075 0.0426676835 -0.1067385167
580296520.0 -0.3211787355 0.7851338079 0.0005098901 -2.60787e-05 0.000461691 8.42087e-05 0.0408560013 -0.1071664265
585296490.0 -0.3125576381 0.7877036156 0.0003165221 1.33854e-05 0.0002931806 0.0001588587 0.0396350131 -0.1070543384
590296460.0 -0.3040007618 0.7910718296 0.0002699923 9.31526e-05 0.0004555806 0.0001150771 0.0376481845 -0.1076958963
595296430.0 -0.2957676047 0.7937183113 0.0003374638 -0.0002154429 0.0003956391 0.000121895 0.0366606125 -0.108062997
600296400.0 -0.2885398065 0.7963912255 4.60607e-05 -5.2061e-05 0.0002584917 3.29337e-05 0.0352304785 -0.1083035109
605296370.0 -0.2797993852 0.7994051556 0.0002012525 0.0002515888 0.0003859158 8.41341e-05 0.0337536102 -0.1085588495
610296340.0 -0.2713293197 0.8025506103 0.0002415481 6.62427e-05 0.0004642493 0.0001094048 0.0320465085 -0.1088578678
615296310.0 -0.2625396104 0.805377458 0.0003810471 0.0002282513 0.0002146574 -0.0001195525 0.030996099 -0.1089245596
620296280.0 -0.2554841489 0.8087225621 0.0005720052 -1.52207e-05 0.0004816245 -0.0001082367 0.0291590378 -0.1087354438
625296250.0 -0.2469007927 0.8103986511 0.000450993 4.80865e-05 0.0003566925 -8.3098e-06 0.0275281015 -0.109226758
630296220.0 -0.2394985926 0.8129553331 0.0003566067 -7.53625e-05 0.0003846675 6.52051e-05 0.0266613545 -0.1093757867
635296190.0 -0.2300724119 0.8157790551 0.0003751977 -1.43671e-05 0.0005205826 -9.90324e-05 0.02498585 -0.1094230244
640296160.0 -0.2217431536 0.8174627051 0.0005574465 6.91781e-05 0.0004001802 -0.0001110039 0.0234268836 -0.1094390169
645296130.0 -0.2141178094 0.8203863165 0.0003015821 -4.33947e-05 0.0003350346 6.16073e-05 0.0215235915 -0.1096653795
650296100.0 -0.2056729794 0.8222766819 0.0003641896 -0.0002245775 0.0003884702 -2.02445e-05 0.0204363864 -0.1098530903
655296070.0 -0.1975010124 0.8247473525 0.0002309522 -2.7348e-05 9.33068e-05 -0.0001727746 0.0188517021 -0.1099260473
660296040.0 -0.1892502517 0.8264654731 0.0001977737 6.11822e-05 0.0003552771 4.50495e-05 0.0176737539 -0.1100837901
665296010.0 -0.1807546724 0.828680673 0.0004886683 7.47983e-05 0.00025736 5.18796e-05 0.0162325336 -0.1098401561
670295980.0 -0.1725653352 0.8305533878 0.0002140679 0.0001002293 0.000439609 -4.9871e-05 0.0148835574 -0.1098974036
675295950.0 -0.1638152465 0.8321233439 0.000123847 -5.271e-05 0.0003872093 9.78988e-05 0.0133411122 -0.1098278271
680295920.0 -0.1563242701 0.834146347 0.0004567907 0.0001085755 0.0002079415 -0.0001282094 0.0117145508 -0.1100139053
685295890.0 -0.1479608063 0.836080006 0.0002762835 8.70594e-05 0.0003959983 0.000194552 0.0104094629 -0.1098639372
690295860.0 -0.139174607 0.8372472497 0.0003880929 -2.4609e-06 0.0001899304 -0.0001497332 0.0088965921 -0.1095250092
695295830.0 -0.1307785729 0.8387208279 0.0001870366 -7.25411e-05 0.0005137483 2.70667e-05 0.0074197697 -0.1095799204
700295800.0 -0.1223219483 0.8396938389 0.0001390312 -0.00011398 0.0002267376 -0.0002978429 0.006171394 -0.1094144566
705295770.0 -0.1148139957 0.8417530037 0.0002784128 -0.000200447 0.0004902936 -3.46912e-05 0.0046777788 -0.1089955148
710295740.0 -0.1066985728 0.8425467834 0.0003756495 0.0002073063 0.0005126129 0.0001141115 0.0034179494 -0.1091678762
715295710.0 -0.0977352733 0.8436144721 0.000451543 1.06712e-05 0.0002516557 4.85751e-05 0.0018542848 -0.1088462164
720295680.0 -0.0888591803 0.8443708512 0.0004550943 -0.0001108534 0.0003657116 -4.20026e-05 0.0003690802 -0.1090789206
725295650.0 -0.081563116 0.845624386 0.0003096542 7.68731e-05 0.0003373 5.00192e-05 -0.0010818709 -0.1082604531
730295620.0 -0.0735638499 0.8467192209 0.0003786288 7.09072e-05 6.51299e-05 -0.0001791898 -0.0026261648 -0.1080667783
735295590.0 -0.0658494635 0.8474924419 0.0005834368 -0.0002524528 0.0004559854 7.2954e-05 -0.0037075154 -0.1080389818
740295560.0 -0.0572319693 0.8479223273 0.0003212155 8.16304e-05 0.0003865948 -0.0001320419 -0.0051605971 -0.1077508244
745295530.0 -0.0490009598 0.849173171 0.0004555188 -9.83393e-05 0.0004516895 -0.0001912865 -0.0068695611 -0.1075572173
750295500.0 -0.0413289837 0.8497321552 0.0003665959 -9.83031e-05 0.0006248137 9.01876e-05 -0.0080878826 -0.1071011335
755295470.0 -0.0318777734 0.8500127047 0.0002027147 8.16069e-05 0.0005007496 1.57608e-05 -0.0094542151 -0.1064271709
760295440.0 -0.0240598019 0.8514006432 0.0006543834 -6.18659e-05 0.00020398 -0.0001365974 -0.0108966927 -0.1067967967
765295410.0 -0.0159877554 0.8508828589 0.0002919503 -0.0001983172 0.0004286181 2.78854e-05 -0.0119931428 -0.1062944156
770295380.0 -0.00793991 0.8509655997 0.0004995637 0.0001385354 0.0003749191 -0.0001889968 -0.0136576981 -0.1056097869
775295350.0 -0.0001015744 0.851448387 0.0002355674 -0.0002766304 0.0004332608 -0.0001579172 -0.0147554477 -0.1054186873
780295320.0 0.0088650664 0.8511812437 0.0002654516 -4.31264e-05 0.0004598373 -2.32096e-05 -0.0161414024 -0.1050792037
785295290.0 0.0162621602 0.8512299497 0.0001336174 -0.0001679517 0.0005490841 -0.0002074262 -0.0178742178 -0.1043189856
790295260.0 0.025395037 0.8509488536 0.0003541751 3.42373e-05 0.0004068804 1.57412e-05 -0.019013187 -0.1036596758
795295230.0 0.0331761854 0.8510025263 0.0005752055 -0.0001985073 0.0004842944 -0.0001631699 -0.020497905 -0.1040346226
800295200.0 0.0408973564 0.8506705275 0.0004699702 -0.0001621351 0.000548731 8.43126e-05 -0.0216087618 -0.1032290164
805295170.0 0.049425528 0.850447927 0.0004512168 -7.81682e-05 0.0003845181 -0.0002231277 -0.0227419843 -0.1030188993
810295140.0 0.0576830264 0.8504465566 0.0002242607 2.86058e-05 0.0004530242 -0.0001193235 -0.0245593439 -0.102163905
815295110.0 0.0649799283 0.8497059324 0.0005420859 4.75433e-05 0.000424409 -0.0001648048 -0.0257714576 -0.1018483944
820295080.0 0.0734732164 0.8491689214 0.000407172 -0.0001544971 0.000302308 -1.96988e-05 -0.0272941231 -0.1008563326
825295050.0 0.0812913793 0.8483335171 0.0004422515 3.14396e-05 0.0003310393 -0.0001286128 -0.0282818208 -0.100502947
830295020.0 0.0906064925 0.8478212438 0.0005317868 -4.40974e-05 0.0006644161 -9.49236e-05 -0.0298155891 -0.1001107362
835294990.0 0.0978907167 0.8467430565 0.0006453082 -0.0002620288 0.0004300869 -0.0001010816 -0.0308587445 -0.0990706174
840294960.0 0.1066028815 0.845585996 0.000299904 -0.0002852301 0.0004282622 -0.0002733097 -0.0318846247 -0.0986694175
845294930.0 0.1147318416 0.8447214104 0.0003659586 -0.0004740627 0.0004406104 -0.0001580303 -0.0336066514 -0.0978794954
