!Created with skrf (http://scikit-rf.org).
# Hz S RI R 50.0 
!freq ReS11 ImS11 ReS21 ImS21 ReS12 ImS12 ReS22 ImS22
300000.0 -0.2416336885 -0.099664523 0.4694688149 0.0654839381 0.4702363075 0.0695342249 -0.2386967372 -0.1098116293
5299970.0 -0.2436930437 0.0069532941 0.4738738303 0.0054404676 0.4737443859 0.0058551616 -0.2443675102 0.0058967607
10299940.0 -0.2403497069 0.0197305636 0.4761169433 0.0062177673 0.4759429993 0.0066389499 -0.2411858578 0.0183457372
15299910.0 -0.2363250693 0.0294308501 0.4793691126 0.0076247736 0.4795923964 0.0081144566 -0.2366433258 0.0276507629
20299880.0 -0.2306359937 0.0373917143 0.4840804257 0.0083816859 0.4841466264 0.0085982296 -0.2321631263 0.0355504714
25299850.0 -0.2247513775 0.0436300811 0.4895280145 0.0072285819 0.4897383373 0.0075280774 -0.226947273 0.0414814094
30299820.0 -0.2191528837 0.0486587451 0.4953051002 0.0054816994 0.4945715268 0.0054208244 -0.2217595904 0.0468800243
35299790.0 -0.2132855146 0.0528751698 0.5002444779 0.0021563546 0.5005303681 0.0023204291 -0.2164496315 0.0509993515
40299760.0 -0.2077198601 0.055657226 0.5054298446 -0.0014270235 0.5054889349 -0.0016866352 -0.2117185597 0.0547449604
45299730.0 -0.2025130849 0.0585062225 0.5103841154 -0.0066806432 0.5101935688 -0.0063829537 -0.2069007195 0.0571421156
50299700.0 -0.1976295512 0.0602875983 0.5141588192 -0.0121277085 0.5145775896 -0.0123429417 -0.2023851962 0.0595547342
55299670.0 -0.193688041 0.0617779256 0.5179551909 -0.0180833411 0.5183746895 -0.017661652 -0.198643008 0.0613092941
60299640.0 -0.1893798904 0.0627358518 0.5210536175 -0.0243065704 0.5216060367 -0.0244424339 -0.1944769174 0.0630042841
65299610.0 -0.186014483 0.0638648567 0.5243158588 -0.0304856451 0.5247751879 -0.0304305274 -0.1912614483 0.0643747466
70299580.0 -0.182681171 0.0643184322 0.5267935448 -0.0370852634 0.526715536 -0.0370182908 -0.1881808399 0.0654420763
75299550.0 -0.1795321431 0.0650799647 0.5284953878 -0.0437868415 0.5287964043 -0.0440384538 -0.1853757378 0.0669553827
80299520.0 -0.1771735247 0.0658572499 0.5308835344 -0.050804385 0.530928484 -0.0508050836 -0.1826593778 0.0670549013
85299490.0 -0.1746480198 0.0659143959 0.5322890502 -0.0579229037 0.5320924074 -0.0579922681 -0.1803694253 0.0684914291
90299460.0 -0.1725679477 0.0665781681 0.5330327308 -0.0643742572 0.5331030738 -0.0645033307 -0.1776238649 0.0689206341
95299430.0 -0.1706251603 0.0673561155 0.5342125387 -0.0718945345 0.5345594674 -0.0716810974 -0.1760861041 0.0702057506
100299400.0 -0.1688015523 0.0676789216 0.5342784789 -0.078287425 0.5341966958 -0.0787895591 -0.1740538716 0.0709660972
105299370.0 -0.1670034598 0.068025879 0.5345153627 -0.0852616862 0.5347160676 -0.0854932478 -0.1721345735 0.0714329696
110299340.0 -0.1655137156 0.0681038903 0.5342866343 -0.0920113232 0.5349669883 -0.0923423681 -0.1709021033 0.0725102321
115299310.0 -0.1640439878 0.0688933221 0.5346621375 -0.0987092478 0.5347349438 -0.0988451646 -0.1687879028 0.0730385401
120299280.0 -0.1631198054 0.0692629276 0.5346903201 -0.1060751006 0.5345713161 -0.1059450871 -0.1678883886 0.074006717
125299250.0 -0.1619776528 0.0697503896 0.5343459311 -0.1127688668 0.5347487751 -0.1128884198 -0.1663201911 0.0746200536
130299220.0 -0.1604940511 0.0708219036 0.5335816804 -0.118380772 0.5336486467 -0.1195982259 -0.1651867971 0.0760976017
135299190.0 -0.1594282441 0.0708558844 0.5332091152 -0.1257218658 0.5328521526 -0.1262045412 -0.1640422975 0.0770002251
140299160.0 -0.158677658 0.0723221187 0.5325865432 -0.1325998983 0.5326083916 -0.1325539195 -0.1629678247 0.0778936931
145299130.0 -0.1576390781 0.0727945835 0.53159178 -0.1395798258 0.5315864877 -0.1390597391 -0.1622011233 0.078974833
150299100.0 -0.1566730223 0.0735566496 0.5302290634 -0.1458364439 0.530363812 -0.1457586685 -0.160784642 0.0799287317
155299070.0 -0.155815131 0.0748969199 0.5288671936 -0.1525399756 0.5290779781 -0.1527026097 -0.1601629569 0.080835059
160299040.0 -0.1548304472 0.0753781674 0.5273898962 -0.1585415706 0.5277354918 -0.158792587 -0.1588651933 0.0826101102
165299010.0 -0.1542307527 0.0759942207 0.5264754236 -0.1652727411 0.5262857671 -0.1651889202 -0.1577771794 0.08338329
170298980.0 -0.1537240471 0.0771207318 0.5238853273 -0.1716034709 0.5247966014 -0.1713876671 -0.1567015858 0.0845934624
175298950.0 -0.1525696012 0.0783728829 0.5236785251 -0.1773545301 0.5233060181 -0.1776749491 -0.1557165129 0.0854947194
180298920.0 -0.1519486484 0.07918823 0.5216496363 -0.1844463798 0.5217350135 -0.183983732 -0.155018607 0.0870293032
185298890.0 -0.1511039828 0.0803969712 0.5193362403 -0.1903617362 0.5199594085 -0.1901987585 -0.1539491201 0.0881532897
190298860.0 -0.150340127 0.0811978184 0.5175243198 -0.1965443003 0.5180002514 -0.1966222821 -0.1524471577 0.0894086573
195298830.0 -0.1494626871 0.081888088 0.5157263532 -0.202302603 0.5154129713 -0.2027847354 -0.1519223803 0.0906981203
200298800.0 -0.1489984801 0.0834853851 0.5138839065 -0.2082832431 0.5138971413 -0.2088634873 -0.1509199966 0.0924338739
205298770.0 -0.1481603635 0.0847505195 0.5119316149 -0.2148390538 0.5116316665 -0.214888477 -0.1501100114 0.0934418862
210298740.0 -0.1478658841 0.0855409113 0.5093668031 -0.2209182594 0.5095657219 -0.2209354727 -0.1490252036 0.0951084698
215298710.0 -0.146873571 0.0869900637 0.5069022941 -0.2266963295 0.5071878409 -0.2265116276 -0.1484888222 0.0962417235
220298680.0 -0.146113059 0.087904049 0.5046738826 -0.2328144529 0.5047453424 -0.2327722505 -0.1471240588 0.097771151
225298650.0 -0.1448153183 0.0894269225 0.5019356549 -0.2381250186 0.5017644507 -0.2382137752 -0.1463916753 0.0993519026
230298620.0 -0.1446491797 0.0905879019 0.4998242391 -0.244065005 0.499866846 -0.2442532334 -0.1452357215 0.1005231721
235298590.0 -0.1435714164 0.0916642653 0.4965608043 -0.2500367183 0.4969170238 -0.2505781161 -0.1442515249 0.1015419853
240298560.0 -0.1430794442 0.0928816656 0.4945460001 -0.2555225566 0.4944721376 -0.2555692196 -0.1431329749 0.1034743872
245298530.0 -0.1420513516 0.0944715018 0.4910057137 -0.2617849381 0.4914237653 -0.2614622555 -0.1419588699 0.1050321629
250298500.0 -0.1413661478 0.0954204216 0.4883982206 -0.2665848745 0.4890164764 -0.2668462083 -0.1405471405 0.1063001689
255298470.0 -0.140607359 0.0968618261 0.4859472652 -0.2729727867 0.4854844785 -0.2728232155 -0.1394733929 0.1074193092
260298440.0 -0.1395472115 0.0980238206 0.4827571217 -0.2776903378 0.482963263 -0.2784456311 -0.1382220702 0.1091490271
265298410.0 -0.1385778454 0.0994365153 0.4794659476 -0.283981019 0.4794493639 -0.2840376828 -0.1373853572 0.1104130992
270298380.0 -0.1375390948 0.1007257116 0.4761019901 -0.2894094428 0.4766538346 -0.2895530388 -0.1362329088 0.1121133346
275298350.0 -0.1370098791 0.101975544 0.4732255061 -0.2950345086 0.4735484415 -0.2948762887 -0.1347949719 0.1137529003
280298320.0 -0.136305598 0.1035999541 0.4705247589 -0.2999889101 0.4702055607 -0.3003092923 -0.1335728395 0.1152600658
285298290.0 -0.1352940747 0.1049519005 0.4670301378 -0.3047171867 0.4668274352 -0.3055178947 -0.1325775372 0.1164054
290298260.0 -0.1341656726 0.105804468 0.4634446527 -0.3104017625 0.4637912499 -0.3108975877 -0.1307668231 0.1180751947
295298230.0 -0.1333812803 0.1071974461 0.4608461741 -0.3159100022 0.4599931966 -0.3161238026 -0.1296744913 0.1193558524
300298200.0 -0.1320774894 0.1084382395 0.4566194813 -0.321198534 0.4570840853 -0.3215474917 -0.1285605604 0.1211611341
305298170.0 -0.1310024172 0.109705537 0.4534392127 -0.3265795464 0.4536479509 -0.3266881003 -0.1266552202 0.1223821152
310298140.0 -0.1297339086 0.110638627 0.4501282899 -0.3318014927 0.4501351471 -0.3320016037 -0.1255584173 0.1240384551
315298110.0 -0.1292123671 0.111897983 0.4463040905 -0.3369427339 0.4464130014 -0.3370727599 -0.1240520983 0.124703476
320298080.0 -0.1283281941 0.1131668332 0.4423275086 -0.3418689669 0.4424652634 -0.3419833981 -0.1229605668 0.1262181552
325298050.0 -0.1273185288 0.1141576543 0.4391750663 -0.3474451745 0.4390787147 -0.3474377234 -0.1214269924 0.127903483
330298020.0 -0.1263402381 0.1157049477 0.4341148531 -0.3523907853 0.4344526024 -0.3518205407 -0.1203818076 0.1286152574
335297990.0 -0.1251697403 0.1164930197 0.4304267592 -0.3574176149 0.4305164892 -0.3572471472 -0.1192503419 0.1304000103
340297960.0 -0.1246394243 0.1180802882 0.4259744934 -0.3617779954 0.426725566 -0.3614056044 -0.117797533 0.1318975762
345297930.0 -0.1237749929 0.119601939 0.4223588928 -0.366091898 0.4222814704 -0.3661812003 -0.1163292672 0.1332395436
350297900.0 -0.1223253779 0.1209464248 0.4177203398 -0.3706020691 0.4186599171 -0.3710214426 -0.1151188313 0.1350560933
355297870.0 -0.1215450312 0.1219858982 0.4139347092 -0.3753154617 0.4141586306 -0.3754727025 -0.1139250052 0.1364260159
360297840.0 -0.1202247097 0.1235745301 0.4098075246 -0.3801625144 0.4096923427 -0.3802560946 -0.1120416516 0.1378804497
365297810.0 -0.1190847126 0.1247357164 0.4053842085 -0.3848632205 0.4056387789 -0.3848989973 -0.1108743551 0.1395447156
370297780.0 -0.1178285804 0.1258349186 0.4010076085 -0.3888301482 0.4015713274 -0.3893683489 -0.1093405676 0.1410325176
375297750.0 -0.1167782554 0.1274726396 0.3975789017 -0.3936708572 0.3970894085 -0.3938686276 -0.1076563655 0.1423387826
380297720.0 -0.1153498933 0.128446249 0.3927651069 -0.3974979717 0.3928456477 -0.3979858181 -0.1060666518 0.1438208351
385297690.0 -0.1140480546 0.1299583899 0.388097732 -0.4017853345 0.38846315 -0.4021219917 -0.1046792133 0.1451650066
390297660.0 -0.1131968305 0.1312144376 0.3838943106 -0.4067770691 0.3840495631 -0.4066826002 -0.103181806 0.1462527045
395297630.0 -0.1114899224 0.1318586279 0.37951129 -0.4101201849 0.3794480921 -0.4106612184 -0.1014585381 0.147939846
400297600.0 -0.1106134133 0.1336318293 0.3749148684 -0.4148388227 0.3751313219 -0.4148756643 -0.1003649861 0.1488994263
405297570.0 -0.1091816306 0.1347732456 0.3702389215 -0.4188999844 0.3703481712 -0.4190556221 -0.0984749095 0.1508012805
410297540.0 -0.1080830933 0.1356639618 0.3655160969 -0.4225069119 0.365460768 -0.4230713617 -0.0966989277 0.1517616058
415297510.0 -0.1067982921 0.1375215306 0.3610876355 -0.4271406925 0.3612856083 -0.4268035122 -0.0953185534 0.1532655722
420297480.0 -0.1053674657 0.1379056906 0.3561577641 -0.4306020552 0.3560638425 -0.4309542814 -0.0933463681 0.1541874262
425297450.0 -0.1037844647 0.1390918318 0.3514419177 -0.4345407297 0.3520584286 -0.4345210983 -0.0916992852 0.1557564109
430297420.0 -0.1026786904 0.140616948 0.3468334999 -0.4387579492 0.3469564931 -0.4388453553 -0.0904294579 0.1566607903
435297390.0 -0.1012843404 0.1414314056 0.3417346646 -0.441875 0.3422968143 -0.4420124448 -0.0884492564 0.1583141653
440297360.0 -0.0997373834 0.1426934415 0.3367882767 -0.4455079931 0.3365330672 -0.4461152286 -0.086741672 0.1591627809
445297330.0 -0.0981328973 0.1434727373 0.3316335758 -0.4499843238 0.3321093255 -0.4496787753 -0.0851812005 0.1603456401
450297300.0 -0.0968552497 0.1446910812 0.3269385435 -0.4529201942 0.3273716486 -0.4531052052 -0.0835250314 0.161887827
455297270.0 -0.0955448966 0.146015018 0.3221004743 -0.4567787704 0.3227357895 -0.4567345291 -0.0814502934 0.1627049845
460297240.0 -0.0944606918 0.1468170402 0.3171561068 -0.4601290095 0.3168413489 -0.4599158815 -0.0794653549 0.1642460798
465297210.0 -0.0924956101 0.1477221645 0.3122004598 -0.4635203527 0.312267554 -0.463400308 -0.0783493138 0.1649702483
470297180.0 -0.0915393121 0.1488140657 0.3074600982 -0.466635122 0.3074569249 -0.4668282684 -0.076810939 0.1659264707
475297150.0 -0.0903204102 0.1495923943 0.3021215799 -0.4697806434 0.3021566035 -0.4697960641 -0.0745416831 0.1668667581
480297120.0 -0.0884043842 0.1505850527 0.2963687937 -0.4732164832 0.2973451115 -0.4727244228 -0.072892529 0.168530626
485297090.0 -0.0866423195 0.1517096632 0.2917465774 -0.476682142 0.291632596 -0.4765351497 -0.0712556529 0.1690031094
490297060.0 -0.0856525899 0.1525094487 0.2865307303 -0.4796911182 0.2866668254 -0.4798360621 -0.0692199382 0.1700251793
495297030.0 -0.0843354285 0.1538210108 0.281041859 -0.4828830864 0.2807945916 -0.4827186785 -0.0674363104 0.1705840942
500297000.0 -0.0824315775 0.1543641297 0.275465082 -0.4856216477 0.2758688214 -0.4857046626 -0.0658909347 0.171891615
505296970.0 -0.0811426852 0.1554599979 0.2702118451 -0.4883474408 0.270267921 -0.4885031584 -0.064334674 0.1729385698
510296940.0 -0.079445609 0.1562286247 0.2648156978 -0.4916947933 0.2654785016 -0.4914613324 -0.0618488656 0.1743790724
515296910.0 -0.0785128551 0.1574244667 0.2598458741 -0.4942118133 0.2601000955 -0.4945309968 -0.0601333799 0.174952405
520296880.0 -0.07655599 0.1581026292 0.2541621792 -0.4968966478 0.2547225447 -0.4966802418 -0.0583327851 0.175682004
525296850.0 -0.0752340493 0.1587072149 0.2489989986 -0.4997532771 0.2492048535 -0.5001634432 -0.0561423856 0.176438184
530296820.0 -0.0733264003 0.1599109146 0.2435127504 -0.5020360977 0.2434965361 -0.5023292174 -0.0547132287 0.1768032082
535296790.0 -0.0720428037 0.1606654139 0.2382349233 -0.5046895452 0.2385803255 -0.5045938021 -0.0525103417 0.177876803
540296760.0 -0.0705087912 0.1611266211 0.2326208342 -0.5079656272 0.2323246468 -0.5078202514 -0.0510983501 0.1788430683
545296730.0 -0.0688548328 0.1622139601 0.226852313 -0.5095539799 0.2272232931 -0.5103009388 -0.0489897183 0.1794532907
550296700.0 -0.0676393399 0.1629851447 0.2213304385 -0.5124696087 0.2218331452 -0.5124851559 -0.0473352687 0.1803325474
555296670.0 -0.0654617372 0.1636632373 0.2161384608 -0.5146488607 0.216103216 -0.5149058631 -0.0452270145 0.1810576269
560296640.0 -0.063973283 0.1643799019 0.2104171503 -0.5169365025 0.2108121697 -0.5168931814 -0.0432596909 0.181591132
565296610.0 -0.0627418082 0.1652521833 0.2047146295 -0.5192533047 0.20451087 -0.5189042098 -0.041549835 0.1821718005
570296580.0 -0.060724602 0.1660486569 0.1988292827 -0.5215657119 0.1992354142 -0.5217631559 -0.0396050222 0.183288271
575296550.0 -0.0591255311 0.1670602658 0.1933527839 -0.5233295734 0.1939821765 -0.5233078629 -0.0371145544 0.183241801
580296520.0 -0.0578339976 0.1674676001 0.1879448058 -0.5255230715 0.187980042 -0.5257990308 -0.0354467724 0.1838305915
585296490.0 -0.055853025 0.1678911582 0.1822944894 -0.5273839381 0.1822021157 -0.5274118977 -0.0335210795 0.1841325957
590296460.0 -0.0546544337 0.1683836165 0.1762731498 -0.5294437695 0.1762812942 -0.5294145174 -0.0313351023 0.1847854524
595296430.0 -0.0530343417 0.169359934 0.1709495172 -0.5313818101 0.1702128774 -0.5316300089 -0.0294967825 0.1850802264
600296400.0 -0.0513097559 0.1700636212 0.1646994264 -0.5330651617 0.1652403565 -0.5331667588 -0.0271967518 0.1861772832
605296370.0 -0.0495115951 0.1708701066 0.159179586 -0.5349219238 0.1591539781 -0.5348909583 -0.0254187199 0.1864477074
610296340.0 -0.0479141328 0.1713030832 0.1536315983 -0.5362097802 0.1535395345 -0.5370952913 -0.0233568901 0.1873389467
615296310.0 -0.0461288244 0.1720187045 0.1474978906 -0.5379824807 0.1476496495 -0.5382156219 -0.021582033 0.1873478755
620296280.0 -0.0445249685 0.1726057055 0.1415115577 -0.5395215942 0.1416967456 -0.5397225504 -0.019781564 0.1873232061
625296250.0 -0.0424934294 0.1730433008 0.1353245037 -0.5410924424 0.135734986 -0.5414959511 -0.0173426064 0.1880534553
630296220.0 -0.0414081359 0.1739171715 0.1296669535 -0.5423464719 0.1303816819 -0.5426120075 -0.0155867782 0.1885282097
635296190.0 -0.0396749179 0.1742876088 0.1240286822 -0.5433328511 0.1239349648 -0.5431453062 -0.0136033074 0.1883379908
640296160.0 -0.0377662251 0.1745007444 0.1184550348 -0.5448877601 0.118048316 -0.545053858 -0.0108887588 0.1888592061
645296130.0 -0.0360305224 0.1750737905 0.1119058197 -0.5463283872 0.1121792955 -0.5462366431 -0.0095364773 0.1886128992
650296100.0 -0.0344972625 0.1762538052 0.1069842967 -0.5471318661 0.1067189065 -0.5473100861 -0.0071553469 0.1895237789
655296070.0 -0.0328719644 0.1762087929 0.1007376335 -0.5482451762 0.1004088337 -0.5482890856 -0.0049585641 0.1898668445
660296040.0 -0.0314833987 0.1771653636 0.0947834201 -0.5490683755 0.0947882285 -0.5492640401 -0.00340719 0.1895811431
665296010.0 -0.0293186119 0.1769901725 0.0884381631 -0.550409732 0.089087181 -0.5506032877 -0.0011401191 0.1901573677
670295980.0 -0.0272910289 0.1778881782 0.0827741773 -0.5513171037 0.0832146552 -0.5514959912 0.0006704723 0.1899285719
675295950.0 -0.0255744678 0.1781275592 0.076339751 -0.5520925116 0.0772851282 -0.5525663165 0.0030453805 0.1905780739
680295920.0 -0.02418372 0.1788075948 0.0707429085 -0.5529068392 0.0707065439 -0.5529674997 0.0051365036 0.1903104403
685295890.0 -0.0223665604 0.1791511354 0.0651422074 -0.5535916951 0.0648615461 -0.5537944953 0.0072819951 0.1904938246
690295860.0 -0.0203160875 0.1792696702 0.0587393188 -0.5539315167 0.0583214334 -0.5541986682 0.0095201831 0.190553013
695295830.0 -0.0184553078 0.1794943669 0.0522342184 -0.5544960328 0.0527542152 -0.5548207653 0.0109901977 0.1907006689
700295800.0 -0.0168598711 0.1800594732 0.0463937801 -0.5554468309 0.0467062842 -0.555519974 0.0132911343 0.1901703077
705295770.0 -0.0150209822 0.1804030803 0.0408305709 -0.5557430733 0.04106505 -0.5559108526 0.0152480132 0.1907457532
710295740.0 -0.0134472589 0.1806642858 0.0346877277 -0.5558800482 0.0348417728 -0.555874654 0.0168284416 0.1907340094
715295710.0 -0.0117687316 0.1810607409 0.0286657802 -0.5562477688 0.0293098874 -0.5564184083 0.0192911895 0.1903601461
720295680.0 -0.010041951 0.1809963724 0.0224704438 -0.5561310777 0.0232516489 -0.5572655997 0.0216900167 0.1908706714
725295650.0 -0.0078578346 0.1812210457 0.0164648329 -0.5567078126 0.0169920845 -0.5565324574 0.0236861891 0.1907565037
730295620.0 -0.0065110682 0.1814634145 0.0107264958 -0.5568087224 0.0106652995 -0.5570726886 0.0259798533 0.1899463265
735295590.0 -0.0039729435 0.1817283762 0.00488662 -0.5570013862 0.005029974 -0.5572959378 0.0279895029 0.1901977493
740295560.0 -0.002833139 0.1823278568 -0.0013387367 -0.5566297192 -0.0012690168 -0.5566738849 0.0301634238 0.190040225
745295530.0 -0.0009669071 0.1819679877 -0.0074765994 -0.5569128416 -0.0067763951 -0.5575014152 0.0318959814 0.1900141458
750295500.0 0.000923422 0.1823168521 -0.0131768746 -0.5564379897 -0.0132543612 -0.5568577864 0.0342637167 0.1894161077
755295470.0 0.0029643841 0.1827827961 -0.0188796476 -0.5567610435 -0.0189060832 -0.5569882147 0.0360250339 0.1894991951
760295440.0 0.0045046648 0.1828133231 -0.025280141 -0.5563894232 -0.0249723092 -0.5563826435 0.0378394061 0.1891234623
765295410.0 0.0061424657 0.1826755162 -0.030726908 -0.5556473932 -0.0308125881 -0.5561361578 0.041131203 0.1892988386
770295380.0 0.0081202033 0.1828798137 -0.0369060281 -0.5556522749 -0.0368710409 -0.5556915056 0.0426432315 0.1888547594
775295350.0 0.0098046623 0.1830574624 -0.0429034293 -0.5546820994 -0.0427315611 -0.5550634113 0.0442626787 0.1879587655
780295320.0 0.0120464804 0.1828714917 -0.0490637604 -0.5544022563 -0.048560521 -0.5546817656 0.0463062856 0.1878845395
785295290.0 0.0134921442 0.1833263097 -0.0548293655 -0.553576337 -0.0550562849 -0.5541648871 0.0480315878 0.1876925084
790295260.0 0.0151873857 0.1830073099 -0.0609140348 -0.5533781542 -0.0612807731 -0.5538840387 0.050429156 0.1870403082
795295230.0 0.017066031 0.1833811264 -0.0664480499 -0.5520740719 -0.066730883 -0.5527506897 0.0525539159 0.1872964531
800295200.0 0.0189610602 0.1833767811 -0.073325085 -0.5521678306 -0.0732214082 -0.5522543942 0.0545210285 0.1864393641
805295170.0 0.020604151 0.1833261226 -0.0787327228 -0.5503966201 -0.07886516 -0.5508259525 0.0561099641 0.1856609618
810295140.0 0.0225020361 0.1830781861 -0.0847413598 -0.5499713905 -0.0842860444 -0.5506177287 0.0588231542 0.1858794158
815295110.0 0.0243858983 0.1831503367 -0.090881209 -0.5489501324 -0.0911554726 -0.5493090585 0.0605851266 0.1851766565
820295080.0 0.0262286995 0.1825399944 -0.0963592102 -0.5479547828 -0.0966585771 -0.5485148191 0.0624525783 0.1847473947
825295050.0 0.0280726719 0.1827030003 -0.102212962 -0.5463401021 -0.1025472885 -0.5470571074 0.0646575437 0.1843261575
830295020.0 0.0296656764 0.1829730764 -0.1082049429 -0.5458220836 -0.1085756593 -0.546189755 0.0662189425 0.1836237771
