!Created with skrf (http://scikit-rf.org).
# Hz S RI R 50.0 
!freq ReS11 ImS11 ReS21 ImS21 ReS12 ImS12 ReS22 ImS22
300000.0 -0.2413581016 -0.0749789499 0.4731021139 0.0519393103 0.46848786 0.050581071 -0.2412213988 -0.0921874828
5299970.0 -0.2441760357 0.007623776 0.4738071448 0.0049214411 0.4734517162 0.0049275482 -0.2439712998 0.0073981076
10299940.0 -0.2409559718 0.0189546898 0.4752037793 0.0057604864 0.4754906184 0.0060695372 -0.2407120025 0.0204721434
15299910.0 -0.2368029354 0.0281682037 0.4793801654 0.0072788277 0.4793480396 0.007401126 -0.2361390271 0.0299442817
20299880.0 -0.2322049326 0.0353603715 0.4839903949 0.0087056892 0.4839436449 0.0081625757 -0.2305063636 0.0375489539
25299850.0 -0.2269612119 0.0421912015 0.4890004792 0.0071578994 0.4889766427 0.0072889 -0.2250689104 0.04403163
30299820.0 -0.2214898675 0.0470672602 0.4942879781 0.0049845388 0.4940742131 0.0050300387 -0.2190224079 0.0492266409
35299790.0 -0.2164482492 0.0515410003 0.4999558426 0.0015733376 0.4999080319 0.0020016782 -0.2136261625 0.0533905275
40299760.0 -0.2111114002 0.0551373964 0.5047509971 -0.0019355367 0.5051484416 -0.0019569278 -0.2081435872 0.0563841853
45299730.0 -0.2063843903 0.0577077421 0.5097319148 -0.0066970162 0.5099031739 -0.0065284027 -0.2031332538 0.0589420486
50299700.0 -0.2022907583 0.0599138075 0.5144244904 -0.0120944173 0.5141294783 -0.0119948514 -0.1985003309 0.0607082495
55299670.0 -0.1982222301 0.0619268419 0.5181444672 -0.0185384766 0.5177305594 -0.0178686115 -0.1946242402 0.0625500393
60299640.0 -0.1943957553 0.0635538599 0.5215426028 -0.0244926611 0.5215319144 -0.0240977355 -0.1903369341 0.0633203414
65299610.0 -0.1911586155 0.0647897 0.5243575186 -0.030723617 0.5242331202 -0.0309548939 -0.1870533158 0.0644292973
70299580.0 -0.1881000046 0.0661732449 0.526692442 -0.0375011972 0.5266910548 -0.0372905894 -0.1838730492 0.0649064254
75299550.0 -0.1851271992 0.0672383715 0.5279588819 -0.0443900519 0.5284693982 -0.0443154128 -0.1812098863 0.0652163823
80299520.0 -0.1824966434 0.068335527 0.5303344304 -0.0513627659 0.5305717861 -0.0512767152 -0.1786209422 0.0661023465
85299490.0 -0.1801773913 0.068884083 0.5317272101 -0.0574077849 0.5316756883 -0.0579107665 -0.1761851826 0.0659325621
90299460.0 -0.1780974919 0.069709181 0.532647407 -0.0646977143 0.5328740527 -0.0648387287 -0.1736881963 0.0667370616
95299430.0 -0.1756843084 0.0703417322 0.5338884384 -0.0719127525 0.5334646496 -0.0718475152 -0.1713875773 0.0673947528
100299400.0 -0.1739921837 0.0716671447 0.5332706796 -0.0785581254 0.5334210359 -0.078854392 -0.169518556 0.0675768201
105299370.0 -0.1721169088 0.072402762 0.5342911661 -0.0862589065 0.5345391143 -0.0855699015 -0.1675533158 0.0678840473
110299340.0 -0.1704033444 0.0731645555 0.534366576 -0.0921806459 0.5341900916 -0.0922566458 -0.1664983307 0.0682685462
115299310.0 -0.1688168011 0.0740360645 0.5344882228 -0.0993087584 0.5342754838 -0.0994637321 -0.1648411225 0.0690114983
120299280.0 -0.1674646721 0.0747175518 0.5338957285 -0.1058580633 0.5340508639 -0.1061676261 -0.1632619218 0.0690858946
125299250.0 -0.1662458619 0.0758330795 0.5338535494 -0.1129097559 0.5338343944 -0.1126412206 -0.1622848141 0.0696009565
130299220.0 -0.1651563981 0.0768120235 0.5327640698 -0.1194303991 0.5330440342 -0.1195508531 -0.1608140072 0.070184185
135299190.0 -0.1636633513 0.0778990208 0.5326745915 -0.1264376729 0.532906544 -0.1264630655 -0.1598738308 0.0708114969
140299160.0 -0.1628718901 0.0787885717 0.531643747 -0.1331666047 0.5318111995 -0.1331583388 -0.1588406335 0.0721702456
145299130.0 -0.1611619235 0.079995033 0.5313135359 -0.139510506 0.5307940211 -0.1392985881 -0.1577438631 0.072571122
150299100.0 -0.159948336 0.0810591009 0.5297280719 -0.1457401788 0.5293897684 -0.1454694166 -0.1565794129 0.0739294094
155299070.0 -0.1591594206 0.0820719211 0.5285108936 -0.1530503401 0.5286257323 -0.1522711347 -0.1555612657 0.0745196661
160299040.0 -0.1581067762 0.0837357156 0.5271709605 -0.1590203057 0.5265532607 -0.1592392169 -0.1553796251 0.0753039901
165299010.0 -0.1573647776 0.084683357 0.5259663622 -0.1659543752 0.5260682842 -0.1654099494 -0.1540481522 0.0767971941
170298980.0 -0.1564565618 0.0856491074 0.5241416424 -0.1717283712 0.5244799427 -0.1717250009 -0.1534182383 0.0776521978
175298950.0 -0.1554180406 0.0869959495 0.5228011343 -0.1780026917 0.522319481 -0.1777480059 -0.1527542336 0.0785983118
180298920.0 -0.1546550062 0.0882158512 0.5211182389 -0.1844935776 0.5206611254 -0.1840755577 -0.151875036 0.0799225107
185298890.0 -0.1532129355 0.089382058 0.5188961898 -0.1905711509 0.5188017592 -0.1904069422 -0.1510999982 0.0809527199
190298860.0 -0.1526046586 0.090851463 0.5171947415 -0.1970112063 0.5175761468 -0.1968749771 -0.1504322314 0.0817012737
195298830.0 -0.1514346907 0.0921094069 0.5150290947 -0.2032565628 0.5152973976 -0.2027632868 -0.1497097832 0.0831058889
200298800.0 -0.1506909585 0.0934171567 0.5128258177 -0.2090522476 0.5131106919 -0.2091672984 -0.1491948077 0.0841593335
205298770.0 -0.1498272256 0.0950000889 0.5107266869 -0.2153693317 0.5106045451 -0.2151426247 -0.1482989933 0.0848004368
210298740.0 -0.1487199293 0.0960986244 0.5082959914 -0.2208228879 0.5085526718 -0.2212688225 -0.1475240395 0.0869811593
215298710.0 -0.1482849166 0.0980142691 0.5063188459 -0.2275672611 0.5063414955 -0.2275421024 -0.1471468042 0.0878383771
220298680.0 -0.147282539 0.098637081 0.5032381159 -0.2324336886 0.5035794294 -0.2327944418 -0.1468954821 0.0886518937
225298650.0 -0.1459824244 0.1002790441 0.5013313546 -0.2389310053 0.5016950655 -0.2386557638 -0.1463287492 0.089671969
230298620.0 -0.1452994622 0.1022041405 0.4990472128 -0.2441959569 0.4991348131 -0.2443349276 -0.1456121324 0.0908578772
235298590.0 -0.1442410678 0.1037413784 0.4961031062 -0.2503690915 0.4960597065 -0.2498041063 -0.1446671635 0.0921719256
240298560.0 -0.1429730876 0.10514227 0.4933652692 -0.2561261222 0.4933711638 -0.2560207317 -0.1439118454 0.09372534
245298530.0 -0.1421816424 0.1065449888 0.490665155 -0.2622536744 0.4907869102 -0.2621278609 -0.143161525 0.0944908318
250298500.0 -0.1408565249 0.1082949972 0.4874690608 -0.2674949986 0.4871319393 -0.2670608093 -0.1426891514 0.0958393398
255298470.0 -0.1400250162 0.1093253261 0.4844008357 -0.2725017551 0.4845290778 -0.2726585535 -0.1416056935 0.0970695231
260298440.0 -0.1392411222 0.1104754012 0.4816027998 -0.2791197017 0.4816537883 -0.2784868039 -0.1404778536 0.0981376335
265298410.0 -0.1375758109 0.1124530793 0.4785977352 -0.2844626565 0.4790857476 -0.2837294494 -0.1398913218 0.099368902
270298380.0 -0.1365344902 0.1139948039 0.4757292615 -0.2893853337 0.4760145018 -0.2896535807 -0.1391925085 0.1006167117
275298350.0 -0.1353794144 0.1152072152 0.4726160194 -0.2952447532 0.473033601 -0.2949045102 -0.1381341406 0.101608607
280298320.0 -0.1340051835 0.1170522452 0.4693729944 -0.3005732255 0.4696065998 -0.3003250788 -0.1369724388 0.1031284021
285298290.0 -0.1328244297 0.1184040055 0.4662285862 -0.3058438144 0.4659461512 -0.3059094109 -0.1361184558 0.1040623904
290298260.0 -0.131416739 0.1198868647 0.462654252 -0.3108347613 0.4625049794 -0.31112304 -0.1351118603 0.105870096
295298230.0 -0.1301305545 0.1208165203 0.4595537886 -0.3158748748 0.4593152849 -0.3158976911 -0.1338406856 0.1066757889
300298200.0 -0.1293088581 0.1224557452 0.4563651736 -0.3213382154 0.4558911271 -0.3214944481 -0.132729483 0.1077961207
305298170.0 -0.1276126144 0.1235525436 0.452212394 -0.3269490388 0.4522330423 -0.3267137215 -0.1313384795 0.1090178593
310298140.0 -0.1262758043 0.1252164052 0.4489347416 -0.3314104916 0.4487199877 -0.3317727957 -0.1305819337 0.1099461487
315298110.0 -0.1251486141 0.1261347974 0.4454392884 -0.3367546741 0.4455880067 -0.3371589255 -0.1297210616 0.1113643684
320298080.0 -0.1237669343 0.1274572211 0.4414663095 -0.3422587605 0.4417160488 -0.3422320558 -0.1283218073 0.1124857066
325298050.0 -0.1225505534 0.128791859 0.4376334661 -0.3472683096 0.4377676649 -0.3474167877 -0.1278513352 0.1138180639
330298020.0 -0.1212965123 0.1299043486 0.4333265378 -0.3521652178 0.4338010707 -0.3521031045 -0.1269529714 0.114899182
335297990.0 -0.1198714578 0.1313032493 0.4295604056 -0.3568024108 0.4292687681 -0.3571731156 -0.1263842702 0.1169824596
340297960.0 -0.1194724772 0.1329755579 0.425583558 -0.3617650403 0.4250757122 -0.3622457443 -0.1245345795 0.118242738
345297930.0 -0.1179261631 0.1343188355 0.4215507912 -0.3665415731 0.4210081601 -0.3666670892 -0.1240011383 0.11928
350297900.0 -0.1164929691 0.1353382007 0.4167988964 -0.371771009 0.4167770223 -0.3712843949 -0.1235156083 0.120782098
355297870.0 -0.1152682101 0.1375603906 0.412929768 -0.3756882831 0.4131411605 -0.3757748477 -0.1223375745 0.1220838141
360297840.0 -0.1137488491 0.1386614022 0.4092755859 -0.3803158228 0.4093325607 -0.379951549 -0.1212158715 0.1237133524
365297810.0 -0.112633962 0.1401700588 0.4049529588 -0.3847428602 0.4050291252 -0.385093881 -0.1201645808 0.1248231666
370297780.0 -0.1108838055 0.1413930705 0.4006816486 -0.3886760952 0.4003884224 -0.3889706233 -0.1190175824 0.1262408225
375297750.0 -0.1091664656 0.1427658644 0.3962339052 -0.3934895539 0.396835484 -0.3937579377 -0.1179314105 0.1278443647
380297720.0 -0.10785543 0.1438988225 0.3917279156 -0.3978667371 0.3914806843 -0.3973540251 -0.1168548532 0.1287267294
385297690.0 -0.106691927 0.1455218966 0.3871816664 -0.4022101121 0.3870121155 -0.4022212523 -0.1156805692 0.1304142727
390297660.0 -0.1048320295 0.1469909013 0.38315494 -0.406467239 0.3827667967 -0.4061756655 -0.1149987478 0.1315293695
395297630.0 -0.1032064682 0.1483304391 0.3783762699 -0.4107583669 0.3784100526 -0.4106760983 -0.1131334457 0.1329109494
400297600.0 -0.1016019976 0.1495401483 0.3734429929 -0.4149968892 0.3738547223 -0.4149418056 -0.112176788 0.133865741
405297570.0 -0.1001416989 0.1506698845 0.3693268298 -0.4187262778 0.369051206 -0.4185934454 -0.1112197248 0.1351510436
410297540.0 -0.097995085 0.1520935055 0.3645372038 -0.4232458388 0.364979593 -0.4228185177 -0.1099494461 0.1364391768
415297510.0 -0.0965332962 0.1528533533 0.3597543913 -0.4267871005 0.3602913508 -0.4271214875 -0.1087472219 0.1375107463
420297480.0 -0.0950598678 0.1547033354 0.355034613 -0.4306560622 0.3551727859 -0.4311190656 -0.1076930347 0.1384914089
425297450.0 -0.0935518184 0.1553947278 0.3507904829 -0.4348152855 0.3509564229 -0.4347677724 -0.1067167225 0.1400097288
430297420.0 -0.0917951364 0.1564440725 0.3456259814 -0.4378522031 0.3457071159 -0.4382752767 -0.1055692949 0.1406971878
435297390.0 -0.0903131442 0.1579441606 0.3406791845 -0.4421697809 0.3403187107 -0.442210946 -0.1031127444 0.1418579607
440297360.0 -0.0884918601 0.1589708754 0.3358218182 -0.4456222951 0.3360412544 -0.4459112451 -0.1024260582 0.1429446428
445297330.0 -0.0867510864 0.1595962266 0.3314474854 -0.4493918952 0.3311919378 -0.4492292954 -0.1010233302 0.1435757791
450297300.0 -0.0847029346 0.1611763005 0.3262417091 -0.4532074056 0.3264150447 -0.4533540747 -0.0996729167 0.1445309757
455297270.0 -0.0831174174 0.1620324771 0.3210926938 -0.4567207897 0.3211009434 -0.456609774 -0.0982850811 0.1457796607
460297240.0 -0.0815345228 0.1631888426 0.3161999799 -0.459879251 0.316214717 -0.4597435843 -0.0968628241 0.1471046151
465297210.0 -0.0794246896 0.1641578735 0.3115513959 -0.4637772892 0.3110376732 -0.4638938252 -0.0952850101 0.1478423579
470297180.0 -0.0779255446 0.1650509069 0.3059051863 -0.4668453741 0.3058608322 -0.4671042084 -0.093801722 0.149103686
475297150.0 -0.076238515 0.1657281506 0.3006912292 -0.4696403656 0.3010308858 -0.4696023623 -0.092087786 0.1495058096
480297120.0 -0.0741685652 0.167362591 0.2955457459 -0.4734373114 0.2956365299 -0.4738588262 -0.0903042362 0.1509758846
485297090.0 -0.0723686294 0.1681936107 0.2906458709 -0.4762736246 0.2910270527 -0.4761946102 -0.0887947805 0.1519743885
490297060.0 -0.0709858173 0.1686688864 0.2858277618 -0.4797790547 0.2854290258 -0.4793077343 -0.0877163977 0.1534573449
495297030.0 -0.0689084753 0.1697863046 0.2802661412 -0.4827784747 0.2805524568 -0.4825108776 -0.086131254 0.1541319747
500297000.0 -0.0668162832 0.1706877636 0.274751831 -0.4852369044 0.2744593287 -0.4850728067 -0.0845304311 0.155786149
505296970.0 -0.065004113 0.1715553514 0.2698930279 -0.48881862 0.2691383555 -0.488583155 -0.0830591207 0.1562847879
510296940.0 -0.0630567284 0.1722566814 0.2636836586 -0.4912898075 0.2640746106 -0.4917655726 -0.0814804713 0.157464899
515296910.0 -0.0612585524 0.1731911866 0.2585850586 -0.494540681 0.2588241507 -0.4941021381 -0.079834342 0.1586086248
520296880.0 -0.0594718594 0.1742054384 0.253320507 -0.4974739017 0.2532934462 -0.4969991855 -0.0783380534 0.159255716
525296850.0 -0.0572401282 0.1744420715 0.2476938488 -0.499900507 0.2484910569 -0.4996560838 -0.0771553455 0.1605426979
530296820.0 -0.0551759692 0.1755368433 0.2421612489 -0.5022956589 0.2424435711 -0.5025427512 -0.0755045507 0.1613046478
535296790.0 -0.0539892196 0.1763762499 0.2373233594 -0.5052681277 0.2371821038 -0.5045554108 -0.074295459 0.1620661736
540296760.0 -0.0519706965 0.1770745348 0.2316131613 -0.5077793785 0.2314927397 -0.5075550243 -0.0726677861 0.1634607619
545296730.0 -0.0498301886 0.1778230788 0.2260708568 -0.509670943 0.2258194978 -0.5100482715 -0.0713996571 0.1640178527
550296700.0 -0.0473744887 0.1786279139 0.220572251 -0.5124715265 0.2204960889 -0.5130559425 -0.0697739925 0.1651545193
555296670.0 -0.0458732218 0.1789668326 0.214777288 -0.5147353845 0.2148394424 -0.5145756352 -0.0681903203 0.1660346425
560296640.0 -0.0434121186 0.1801076747 0.2090159225 -0.5172073739 0.2092536511 -0.5173947369 -0.0661893141 0.1669238617
565296610.0 -0.0420589717 0.1806288619 0.2033987061 -0.5195334845 0.2037308815 -0.519343416 -0.0652488343 0.1671815411
570296580.0 -0.0400517018 0.1814678404 0.1979251378 -0.5221080996 0.1975137503 -0.5213089204 -0.0633683594 0.1686408406
575296550.0 -0.0379735323 0.1819316145 0.1923169162 -0.5237700086 0.1918654935 -0.523853146 -0.0615917516 0.1691967548
580296520.0 -0.0357552295 0.1825751512 0.1864818364 -0.5260110192 0.1864378613 -0.5257342376 -0.0601877769 0.1695419186
585296490.0 -0.0340746654 0.1826098985 0.1805841284 -0.5274753468 0.1809085051 -0.5278518764 -0.0588105026 0.1705665124
590296460.0 -0.0316026127 0.1834123796 0.1750279145 -0.5292522724 0.1751887828 -0.5292573376 -0.057979643 0.171294577
595296430.0 -0.0295466333 0.1839569586 0.168764802 -0.5316872466 0.1692941193 -0.5312338733 -0.0553721157 0.1715582697
600296400.0 -0.0279076161 0.1842328047 0.1637273898 -0.5327764054 0.1634345437 -0.5329382609 -0.0541584949 0.1722051905
605296370.0 -0.0257320622 0.1847232883 0.1575441748 -0.5344993847 0.1578297155 -0.5349310424 -0.0523306679 0.1728313179
610296340.0 -0.0236915116 0.1851865607 0.1515173472 -0.5362591872 0.151999732 -0.5363326597 -0.0501848557 0.1735426664
615296310.0 -0.0215032518 0.185589946 0.1457180659 -0.5379093361 0.1456861236 -0.538204088 -0.0485218345 0.1740620037
620296280.0 -0.0194046073 0.1855604511 0.1400351157 -0.5392155047 0.1400651147 -0.5395356756 -0.0471524507 0.1744496471
625296250.0 -0.0174202198 0.1856422782 0.1347941922 -0.5407925837 0.1343336206 -0.5412898012 -0.0451311296 0.1749053761
630296220.0 -0.0148994823 0.1862110831 0.1283091482 -0.5424722561 0.1282469501 -0.5418377698 -0.0435062007 0.1756694059
635296190.0 -0.013810935 0.186635903 0.1224837312 -0.5436481885 0.1222331637 -0.5439410237 -0.0416594019 0.1761764611
640296160.0 -0.0116741831 0.1870374782 0.1169307184 -0.544648345 0.1168255895 -0.5451532869 -0.0395766805 0.1764812604
645296130.0 -0.009344383 0.1874883235 0.1105920622 -0.5456981051 0.1111758011 -0.5459976424 -0.0381679266 0.1772469622
650296100.0 -0.0072421904 0.1872960666 0.1047507325 -0.5472226229 0.1047879704 -0.5473576157 -0.0359973754 0.1771151721
655296070.0 -0.0055255642 0.1874059594 0.0989572512 -0.5481046206 0.0990465307 -0.5484712959 -0.0342271421 0.1782351734
660296040.0 -0.0037940127 0.1874050116 0.0934104493 -0.5491277329 0.0933543951 -0.5494182638 -0.0323156434 0.1783490816
665296010.0 -0.0008253628 0.187790833 0.0869340356 -0.5505181431 0.0869094087 -0.5498222452 -0.0303194766 0.1794859915
670295980.0 0.0003386958 0.188059216 0.0812342031 -0.550662302 0.0813576952 -0.550980703 -0.0292962328 0.1796448827
675295950.0 0.0026136269 0.1881221523 0.0755209563 -0.5518045595 0.0751945365 -0.5513336177 -0.027601962 0.1801320164
680295920.0 0.0045882919 0.187992053 0.0690609129 -0.5523400602 0.0687129162 -0.5530538487 -0.0253085237 0.181587243
685295890.0 0.0070900254 0.1887131628 0.0628598582 -0.5535478222 0.0630194173 -0.5536324264 -0.0240231636 0.1818114882
690295860.0 0.009228197 0.1886279302 0.0574482583 -0.5535178472 0.0573678165 -0.5540113145 -0.0221222634 0.1822701296
695295830.0 0.0111677412 0.1886535361 0.0513351938 -0.5544336366 0.050860004 -0.554420018 -0.0200746617 0.1826487884
700295800.0 0.0133309458 0.1883160971 0.0453938812 -0.5549506417 0.0449081753 -0.5549889787 -0.0188669004 0.18313923
705295770.0 0.0153332929 0.1889356331 0.0390027589 -0.555488931 0.0394564841 -0.5554984533 -0.0169775707 0.1837805078
710295740.0 0.0174803241 0.1886442777 0.0338820979 -0.5562373171 0.0334835277 -0.5559426287 -0.0152460184 0.1834503148
715295710.0 0.0193140745 0.1882298219 0.0276158121 -0.5559430379 0.0269086007 -0.5557729386 -0.0132322419 0.1838418646
720295680.0 0.0215802879 0.1883077231 0.0212967224 -0.5562795748 0.0214101505 -0.5563897667 -0.0113587796 0.1848521738
725295650.0 0.0237917667 0.1885383486 0.0150902575 -0.5569327693 0.0156193893 -0.556608794 -0.0102707362 0.1851494796
730295620.0 0.0258628799 0.1885258702 0.0091015275 -0.5562970103 0.0091566619 -0.5566517828 -0.0083618405 0.1849517899
735295590.0 0.0277145182 0.1883361132 0.0033849508 -0.5565774552 0.0031849518 -0.556666302 -0.0067791653 0.1851770449
740295560.0 0.0299939774 0.1879887802 -0.0028512221 -0.5563284769 -0.0028275676 -0.5568293958 -0.0041975864 0.1857577244
745295530.0 0.0319110335 0.1880286885 -0.0089264372 -0.5557515421 -0.0091121195 -0.5564169989 -0.0028287556 0.1856896039
750295500.0 0.0338228518 0.1876995491 -0.0146850257 -0.5561305301 -0.0147498508 -0.5564466384 -0.0011436609 0.1860439226
755295470.0 0.0360791294 0.1872798647 -0.0206358191 -0.556278064 -0.020893139 -0.556156929 0.0010145768 0.1852673283
760295440.0 0.0380500889 0.1869003703 -0.0269039431 -0.5560196644 -0.0270500606 -0.555902223 0.0023297163 0.1857646529
765295410.0 0.0401210336 0.1866871679 -0.0327844077 -0.5555515776 -0.0330293919 -0.5558153503 0.0041757621 0.1861878618
770295380.0 0.0416881022 0.1864793818 -0.0388304193 -0.5550223651 -0.0389964665 -0.5551192272 0.0057143153 0.1854734239
775295350.0 0.0438979365 0.1855238352 -0.0449863874 -0.5543361292 -0.0443596626 -0.5546829718 0.0072863028 0.1860750465
780295320.0 0.0464083691 0.1858340972 -0.0510852112 -0.5536138129 -0.0503317595 -0.5538274176 0.0091957436 0.1853773757
785295290.0 0.0478715339 0.1846361302 -0.0567544166 -0.5532348911 -0.0565427651 -0.5533316344 0.011732593 0.1858105241
790295260.0 0.050660644 0.1849869708 -0.0617765491 -0.552591481 -0.0617957184 -0.5523129198 0.0134265354 0.1860753734
795295230.0 0.0522239581 0.1842163472 -0.0685345624 -0.5515901033 -0.0681055686 -0.5519721303 0.015428897 0.1859402433
800295200.0 0.0541935391 0.1840869198 -0.0750032652 -0.5505084338 -0.0746500138 -0.5510610802 0.0170250681 0.1856880707
805295170.0 0.0565632617 0.1835428131 -0.0806273616 -0.5500532495 -0.0808570615 -0.5504735193 0.0187423266 0.1860176822
810295140.0 0.0583222615 0.1826782859 -0.0859250868 -0.5490040321 -0.0865439464 -0.5495767694 0.0213582863 0.1858184277
815295110.0 0.0600024774 0.1819512047 -0.0920306752 -0.5475952195 -0.091932095 -0.5479613015 0.0226462492 0.1855172435
820295080.0 0.0618933221 0.1820147185 -0.0982056561 -0.5467881114 -0.0981515163 -0.5471174313 0.0245614571 0.1858991527
825295050.0 0.0644582535 0.1811575742 -0.1035275784 -0.5457475029 -0.1038569833 -0.5461350895 0.0265558922 0.1857798106
830295020.0 0.0663489961 0.1807404923 -0.1099837161 -0.5444507615 -0.1100072138 -0.5446942815 0.0289025798 0.1855689757
