!Created with skrf (http://scikit-rf.org).
# Hz S RI R 50.0 
!freq ReS11 ImS11 ReS21 ImS21 ReS12 ImS12 ReS22 ImS22
300000.0 -0.2086221338 -0.0799676547 -0.0001780937 -5.63175e-05 -0.0002148142 0.0006187408 -0.7707877421 -0.1670537493
5299970.0 -0.2142264428 0.0085887053 -0.0001153954 6.29311e-05 0.0001935521 8.75236e-05 -0.7848462968 -0.0085132998
10299940.0 -0.2101892592 0.0213308147 0.0001566801 -0.000160396 -7.15986e-05 -8.6061e-06 -0.7886401475 -0.0049982714
15299910.0 -0.2055981376 0.0310959065 -4.50625e-05 -0.0002821734 0.0001900792 -6.3186e-06 -0.7932964589 -0.0029757976
20299880.0 -0.1993979394 0.0389868468 -1.39216e-05 2.3673e-05 4.734e-07 -5.99101e-05 -0.800297007 0.0018259141
25299850.0 -0.1930262173 0.0454920186 6.87659e-05 0.0001877307 3.73373e-05 8.5216e-05 -0.8065204023 0.0068914943
30299820.0 -0.1863504575 0.0503895185 -0.0002477792 -0.0001509437 -3.25533e-05 1.08197e-05 -0.8125765914 0.014838172
35299790.0 -0.1797432608 0.0545040709 -7.21407e-05 -0.0001498447 0.0001024616 -0.0001590423 -0.8180116893 0.0241642774
40299760.0 -0.1737026814 0.0572450352 5.29619e-05 0.0001088204 -3.33538e-05 -0.0001155411 -0.8218369084 0.0334296636
45299730.0 -0.168406337 0.0594055398 0.0001021249 -0.0001940361 -7.14342e-05 -0.000271906 -0.8249121205 0.042484637
50299700.0 -0.1629251803 0.0607605332 0.0002321234 -9.90353e-05 -2.64158e-05 -4.89472e-05 -0.8273428427 0.0525504976
55299670.0 -0.158497794 0.0617213518 3.74435e-05 -4.5372e-06 1.13675e-05 2.61369e-05 -0.8297888401 0.0631625799
60299640.0 -0.1538558088 0.0622574004 5.94589e-05 7.80435e-05 -7.10102e-05 0.0001620631 -0.8311333303 0.0731953411
65299610.0 -0.1501501986 0.0628324617 -0.0001728088 -0.0001018733 0.0001169049 -0.0001054707 -0.8317341527 0.0831313794
70299580.0 -0.1462238644 0.0626834019 -0.0001827218 8.1155e-06 3.70894e-05 0.0001152476 -0.8322586814 0.0929860925
75299550.0 -0.1430458447 0.0625501094 -0.0002138979 -4.07318e-05 -7.67343e-05 -6.47927e-05 -0.8327702307 0.1027156212
80299520.0 -0.1406365783 0.0626828146 -6.12117e-05 0.0001628177 7.33815e-05 -0.0001509297 -0.8320297286 0.1126133964
85299490.0 -0.1377489466 0.0622244124 3.142e-07 4.19774e-05 -2.03883e-05 4.15209e-05 -0.8318214682 0.121554946
90299460.0 -0.1356388848 0.0622383162 -5.47341e-05 0.0001576995 -0.0001282302 2.97437e-05 -0.8309019996 0.1311413722
95299430.0 -0.1332701549 0.0619410528 -9.17847e-05 6.24287e-05 0.0001591415 1.3712e-05 -0.8300462131 0.1411861353
100299400.0 -0.1316981784 0.062027801 0.0001648858 4.77819e-05 -1.64933e-05 -4.96573e-05 -0.82876339 0.1495243738
105299370.0 -0.1297235101 0.0615716333 8.24797e-05 -0.0001302688 8.15932e-05 3.84287e-05 -0.8277573522 0.1588606748
110299340.0 -0.1282564889 0.061579194 0.0001581123 0.0001319627 -0.0002044235 -0.0001221909 -0.8268012386 0.1680595232
115299310.0 -0.1268132397 0.0610140179 -7.80283e-05 0.0001121719 0.0002138477 -7.15304e-05 -0.8244723293 0.1771549003
120299280.0 -0.1256887636 0.0612575994 -0.0001146996 -9.44533e-05 -6.7877e-06 5.0304e-05 -0.8239148715 0.185821195
125299250.0 -0.1246639514 0.0609594914 -0.0002003008 0.0001514555 -2.88146e-05 6.24627e-05 -0.8214723218 0.1953333953
130299220.0 -0.1233421549 0.0617416361 -0.0001156562 -6.52939e-05 1.21694e-05 0.0003759374 -0.820164171 0.2041998863
135299190.0 -0.1226427909 0.0612702712 8.71734e-05 7.42663e-05 0.0001449733 -8.9567e-05 -0.8181011549 0.2125773953
140299160.0 -0.1214053155 0.0613918173 0.0002139294 -1.22668e-05 0.0001813284 0.0001147625 -0.8162110938 0.2216504492
145299130.0 -0.1207784347 0.0613391956 -3.76889e-05 1.48371e-05 -2.69944e-05 -4.40745e-05 -0.8138604328 0.2300763169
150299100.0 -0.1201753714 0.061553918 -2.3468e-06 8.58425e-05 0.000175461 1.80868e-05 -0.8115592037 0.2381696794
155299070.0 -0.1194876908 0.0621738761 0.0001001694 2.17278e-05 -0.0001317357 -9.9061e-06 -0.8095816674 0.2476497166
160299040.0 -0.1185855294 0.0623042857 8.80273e-05 0.0001201016 -2.69609e-05 -9.21397e-05 -0.8075004091 0.2568026281
165299010.0 -0.1183112885 0.0627899413 -0.0002112399 1.40384e-05 -0.0001391262 4.4989e-06 -0.8041658282 0.2649506905
170298980.0 -0.1176684019 0.0629146537 8.16655e-05 6.40863e-05 0.0001523964 4.7865e-06 -0.8019670591 0.2734466068
175298950.0 -0.1169238587 0.0637450464 4.39474e-05 0.0002243863 0.0001501195 3.02486e-05 -0.7990781286 0.2820824579
180298920.0 -0.1164676958 0.0636317188 -1.31779e-05 -4.59706e-05 -6.41381e-05 2.92875e-05 -0.7958690297 0.290307372
185298890.0 -0.115875958 0.0643591376 -7.92195e-05 0.0001882703 -3.10723e-05 1.46008e-05 -0.7931063873 0.2978660559
190298860.0 -0.1153763965 0.0647881485 -3.60344e-05 -9.89311e-05 0.0001448363 6.83217e-05 -0.7896876718 0.3075235611
195298830.0 -0.1144731154 0.0652068916 3.3079e-05 -1.35774e-05 -5.2458e-06 0.0002283385 -0.7868237321 0.3156939869
200298800.0 -0.1141903168 0.0661643628 0.0001004994 0.0001052126 0.0002185961 -3.24894e-05 -0.783365537 0.3240726948
205298770.0 -0.1139379522 0.0665297472 -4.55242e-05 0.0002810212 4.65899e-05 0.0001994545 -0.7799208562 0.3321186712
210298740.0 -0.1130957271 0.0671596929 2.64501e-05 5.55636e-05 -3.6968e-06 3.18857e-05 -0.7765578669 0.3401705712
215298710.0 -0.1129975708 0.0677347664 -4.6161e-06 0.0002680988 -8.34511e-05 -5.9353e-06 -0.77339376 0.3482802978
220298680.0 -0.1124658528 0.0687144103 0.0001164545 7.06299e-05 0.0002426658 3.86896e-05 -0.7697326078 0.3567845471
225298650.0 -0.1119138904 0.0694196799 0.0001102101 9.88794e-05 8.35113e-05 0.0001156525 -0.7657544326 0.364795673
230298620.0 -0.111610347 0.0701087839 7.72165e-05 0.0001965551 -0.0001216459 1.83252e-05 -0.761972453 0.3728834016
235298590.0 -0.1112118995 0.0708018965 0.00013691 0.0001209083 -0.0001327396 0.0001300944 -0.757868092 0.3803010345
240298560.0 -0.1105069498 0.0718010944 -0.0001720243 0.0001955769 -8.00179e-05 0.0001786214 -0.7540915356 0.3887616716
245298530.0 -0.1098630936 0.0722514154 -5.83718e-05 0.0002968195 0.0001611878 0.0001171898 -0.7502901557 0.3966188921
250298500.0 -0.1099139015 0.0733708719 1.47315e-05 0.0001921433 0.0002218991 -2.999e-05 -0.7458918209 0.4049712153
255298470.0 -0.1092670892 0.0740716376 4.07356e-05 7.2827e-05 0.0002374228 1.85727e-05 -0.7415757443 0.4124772978
260298440.0 -0.1086198548 0.0747570549 -0.0001015971 1.23119e-05 0.0001097109 3.2042e-06 -0.736924217 0.4198681924
265298410.0 -0.1083961342 0.0758487816 -4.5325e-05 3.2204e-05 1.34641e-05 6.22258e-05 -0.732906118 0.4275755874
270298380.0 -0.1076764679 0.0766198151 0.0001068159 4.56062e-05 0.0001742869 0.0001489956 -0.7272875949 0.4356018765
275298350.0 -0.1070178636 0.0774474037 0.0002177495 -2.5221e-06 0.000112367 7.17021e-05 -0.7227809805 0.4430700915
280298320.0 -0.1065810574 0.0784690372 0.000213806 -4.95616e-05 2.0241e-06 5.64576e-05 -0.7188216684 0.4503867197
285298290.0 -0.1058806023 0.0795443667 -0.0001103694 5.49687e-05 -0.0001052976 -2.5338e-06 -0.7134904316 0.4578689913
290298260.0 -0.1054875918 0.0803867418 0.0001175623 0.0001226446 -4.82373e-05 0.0001984535 -0.7090689541 0.4658955084
295298230.0 -0.1047411196 0.0811150569 0.0002312968 -0.0002123511 8.57672e-05 -6.65062e-05 -0.7037749284 0.4727377866
300298200.0 -0.1039141216 0.081887679 -0.000173265 0.000277781 5.38529e-05 0.0001165546 -0.6988810854 0.4799491906
305298170.0 -0.1031969869 0.0829480152 -6.7313e-06 -0.0001171851 7.19399e-05 4.141e-07 -0.6930695379 0.4877341708
310298140.0 -0.1026990765 0.0834713483 0.000103632 4.49461e-05 0.0001072164 0.0002757872 -0.6888803802 0.4949824318
315298110.0 -0.1026795169 0.0843866297 5.21638e-05 -3.44054e-05 0.000127319 1.9685e-05 -0.6832829298 0.5022988435
320298080.0 -0.1017104427 0.0853714276 -7.52204e-05 8.5244e-05 7.49425e-05 -6.93686e-05 -0.6781951055 0.5092042388
325298050.0 -0.1011910345 0.0860787763 -2.6667e-06 0.000156055 0.0001542833 5.40967e-05 -0.6723690063 0.5161937325
330298020.0 -0.1007694047 0.0872583316 -4.7669e-06 0.0001320561 0.000142926 0.0002660278 -0.6663436463 0.5232438662
335297990.0 -0.1004073679 0.0882553861 9.01295e-05 -3.54817e-05 0.0002010325 0.0001170185 -0.6615321498 0.5300419337
340297960.0 -0.1000925385 0.0892632825 0.0001558136 -4.43625e-05 0.0002535682 7.18255e-05 -0.6555059439 0.5372631304
345297930.0 -0.0994301962 0.0902087235 -1.8449e-06 9.87927e-05 7.21053e-05 0.000147756 -0.6498346526 0.5438268394
350297900.0 -0.098451312 0.0911390572 0.0001432556 0.0001608002 -8.37211e-05 0.0002208939 -0.6440947209 0.5510547366
355297870.0 -0.0980704646 0.0920796511 6.27744e-05 2.8438e-05 0.000279391 -0.0001047848 -0.6385934419 0.5574459689
360297840.0 -0.0973388543 0.0930466616 7.56626e-05 5.85977e-05 0.0001792471 0.0002372565 -0.6321434664 0.5635960331
365297810.0 -0.0963533289 0.094286267 0.0002371085 0.0001299281 -5.00085e-05 -0.0001560812 -0.6263003652 0.5707884343
370297780.0 -0.095999135 0.0952058459 0.0001139968 0.0003690088 0.0001416199 -1.8312e-05 -0.6207130841 0.5764316068
375297750.0 -0.095077753 0.096416823 2.26248e-05 0.0001614725 0.0001909919 6.91599e-05 -0.6147554612 0.583184949
380297720.0 -0.0942480286 0.097235645 9.9138e-05 0.0002785343 -0.0001451376 7.53279e-05 -0.6082471318 0.5898554052
385297690.0 -0.0932886929 0.0982893248 2.45758e-05 -9.07257e-05 8.02808e-05 -0.0001582289 -0.6022326825 0.5960735593
390297660.0 -0.0927482505 0.099389739 -0.0001265444 7.84312e-05 0.0001490727 3.78341e-05 -0.5953187063 0.6018331163
395297630.0 -0.0917432015 0.1002313905 1.13452e-05 0.0003392474 6.43328e-05 -9.79386e-05 -0.5891214337 0.6084687416
400297600.0 -0.0908977014 0.1012699386 0.0001103768 -0.0001099548 0.0002764197 -1.469e-07 -0.5834313511 0.6137029791
405297570.0 -0.0903226793 0.1022300216 0.0002666415 9.31693e-05 0.0002339235 8.34218e-05 -0.5773075966 0.6200997324
410297540.0 -0.0895254881 0.1031729465 0.0003297089 0.000112984 0.0001638866 -4.84298e-05 -0.5700155509 0.6254781826
415297510.0 -0.0885806824 0.1041029711 0.000223356 4.41038e-05 7.54738e-05 8.5988e-05 -0.5640574336 0.6319895668
420297480.0 -0.08792511 0.1049797956 0.0003487871 7.71152e-05 -9.6335e-06 1.77382e-05 -0.5570080709 0.636268546
425297450.0 -0.0871519613 0.1061621304 0.0001890049 0.0002117109 0.0001353726 0.0001693549 -0.5503246222 0.6432793765
430297420.0 -0.0864010423 0.1070800192 5.55035e-05 8.15e-08 0.0001403124 -8.29436e-05 -0.5440810032 0.6488188802
435297390.0 -0.0850235353 0.1079153117 0.0002014264 0.0002910085 -8.2387e-06 -9.75727e-05 -0.5370401475 0.6539143993
440297360.0 -0.0841418814 0.108816082 0.0002455637 0.0001141768 0.0001550886 6.0654e-05 -0.5305001913 0.6590580041
445297330.0 -0.0834815081 0.1099446793 0.0001645529 1.61e-07 4.56072e-05 0.0001027864 -0.5237533492 0.6640270577
450297300.0 -0.0824940779 0.1106366343 7.83248e-05 0.0001759424 0.0002575831 7.01982e-05 -0.5171464509 0.6697449187
455297270.0 -0.0815130316 0.1115982651 0.0003082965 3.86269e-05 -4.7656e-05 -3.37566e-05 -0.5098822332 0.6747837604
460297240.0 -0.0806031659 0.1131173512 0.0002291456 0.0002297994 1.19115e-05 0.000150289 -0.5025192144 0.6804665156
465297210.0 -0.0793430806 0.1138382734 0.0001192849 4.4677e-05 0.0002478939 5.3875e-05 -0.4962375794 0.6848540836
470297180.0 -0.0784458244 0.1145359645 0.0001796734 0.0001743402 0.0002026125 2.82243e-05 -0.4896913636 0.6895324475
475297150.0 -0.0778382864 0.1155196472 0.0004168519 0.0001147154 0.0003278343 -0.0001210168 -0.4821132556 0.6946955198
480297120.0 -0.0766499518 0.1163154882 0.0002627171 5.30526e-05 0.0002121603 0.0001208761 -0.4751274217 0.7000726193
485297090.0 -0.0756293302 0.1174316717 0.0002961445 0.0002191438 9.36266e-05 1.85465e-05 -0.4676689895 0.7037407251
490297060.0 -0.0744219251 0.1184135837 0.0002173755 0.0001593557 2.07569e-05 -3.30388e-05 -0.4611798669 0.7084849147
495297030.0 -0.0735688288 0.1191331364 0.0002442159 -0.0001807597 0.0002631794 -7.96621e-05 -0.4531658949 0.7131025167
500297000.0 -0.0722845644 0.119686414 0.0002557574 7.88305e-05 -6.17492e-05 0.0001101507 -0.4467111219 0.7175574692
505296970.0 -0.0716759943 0.1208372376 7.52793e-05 -0.0002323556 0.0002963531 4.82282e-05 -0.4402407079 0.7216361493
510296940.0 -0.0702762332 0.1218452108 0.0002979424 9.63757e-05 0.0002056827 0.0001810622 -0.4318808053 0.7267422616
515296910.0 -0.0696129519 0.122527021 0.0001371181 0.000104658 0.0001133488 4.58383e-05 -0.4250469618 0.7308894585
520296880.0 -0.06816934 0.1234956594 0.000105189 8.769e-05 0.0001285748 -3.10517e-05 -0.4172599807 0.7349581485
525296850.0 -0.0670682605 0.1245071641 0.0001842432 0.0001516883 0.0001270736 8.73531e-05 -0.4100085498 0.739287467
530296820.0 -0.0661223407 0.1251505374 -0.0001046422 4.72202e-05 0.0001558718 -7.42507e-05 -0.403209008 0.7429610211
535296790.0 -0.0648068306 0.1258008146 9.25579e-05 0.0002100205 -4.3689e-06 -0.0001531607 -0.3957834163 0.7464164103
540296760.0 -0.0638427757 0.1264602347 -4.18571e-05 0.000183401 2.94131e-05 -8.97392e-05 -0.3879854823 0.7507357305
545296730.0 -0.0623879138 0.1274908528 0.0002649584 7.51922e-05 0.0002562168 0.0002169622 -0.380677697 0.754253764
550296700.0 -0.0617705091 0.1282124676 0.0001943159 0.0001872563 0.0002694469 8.84585e-05 -0.3732932232 0.7580092836
555296670.0 -0.0600558999 0.1288382348 0.0001352001 6.39103e-05 3.4891e-05 -7.1165e-05 -0.3654365121 0.7619239767
560296640.0 -0.0593428908 0.1296106819 0.0001112083 -0.0001327464 0.0002171727 -6.46307e-05 -0.3576705049 0.7653569053
565296610.0 -0.0580050052 0.1304553909 0.0001272092 3.14221e-05 0.000339335 -0.0002873336 -0.3505587541 0.768944739
570296580.0 -0.0565823498 0.1310134878 0.0001003914 -8.9506e-05 0.0002846986 -0.0001171473 -0.3428239298 0.7726509969
575296550.0 -0.0556800224 0.1318717181 0.0002787151 2.20489e-05 0.0002609214 -2.76146e-05 -0.3352583279 0.7755292241
580296520.0 -0.0543001836 0.1326275844 0.0001302528 3.43553e-05 0.0002840445 3.65186e-05 -0.3273075913 0.7786747473
585296490.0 -0.0531814804 0.13328998 9.49301e-05 0.0002858823 0.0001327298 -2.46984e-05 -0.3198066557 0.7818948754
590296460.0 -0.0520203 0.1340099249 -7.29889e-05 -4.42344e-05 0.0001694097 -7.66001e-05 -0.3116490397 0.7848468303
595296430.0 -0.050775992 0.1349702949 0.0004584443 4.13341e-05 0.0001329671 4.68444e-05 -0.30409958 0.7874641602
600296400.0 -0.0494275781 0.135245075 0.0003828016 0.0001669567 0.0002115213 -0.0001442089 -0.2959544388 0.79120983
605296370.0 -0.0480552373 0.1360246761 0.0003999818 9.99142e-05 -2.6225e-06 -7.28325e-05 -0.2880601479 0.7944633213
610296340.0 -0.0467958072 0.1366807507 0.0001471732 4.55078e-05 0.000181445 4.50922e-05 -0.2804425706 0.7974181845
615296310.0 -0.0457005712 0.1374201048 0.0001254984 -0.0002826367 5.54351e-05 -2.60003e-05 -0.2727348964 0.7991626548
620296280.0 -0.0441904253 0.1379469217 0.0002564854 -3.41716e-05 7.0332e-06 -0.0001268712 -0.2650556593 0.8022413019
625296250.0 -0.0430516383 0.1386797619 0.0001451541 0.0001782709 6.82334e-05 5.01686e-05 -0.2567142631 0.8043721488
630296220.0 -0.0417809894 0.1391827037 0.0002459206 -7.30569e-05 0.0001448258 -0.000101666 -0.2486386287 0.8076889594
635296190.0 -0.0405341993 0.1400783378 3.98891e-05 0.0001807616 -4.29804e-05 3.54869e-05 -0.2410261337 0.8094798729
640296160.0 -0.0392214698 0.1403670809 0.0002778159 0.0002680937 0.000185766 0.0002702059 -0.2321851762 0.8117588407
645296130.0 -0.0379433703 0.1409534521 0.0001465461 -4.05903e-05 8.25085e-05 0.0001417664 -0.2248732529 0.8140526879
650296100.0 -0.0366826248 0.1415273721 0.0003425171 -3.36323e-05 0.0003523268 -0.0002693259 -0.2165020046 0.8166098155
655296070.0 -0.0351534263 0.1419872293 7.02052e-05 9.83595e-05 0.0003047377 -2.84104e-05 -0.2086479288 0.8181669155
660296040.0 -0.0339900255 0.1428209338 0.0002866081 9.468e-07 0.0003037951 -4.20904e-05 -0.200956779 0.8204037161
665296010.0 -0.0326729755 0.1430089651 0.0001174216 -4.05615e-05 6.53214e-05 -0.0001218109 -0.1927759453 0.8225545178
670295980.0 -0.031027353 0.1435185997 -8.24966e-05 -0.0003410362 0.0003473513 0.0002136025 -0.1850361156 0.8240663198
675295950.0 -0.029786801 0.1438964696 4.72567e-05 0.0002140966 0.0001000175 3.65427e-05 -0.1767024385 0.8261631079
680295920.0 -0.0285550856 0.1449438785 7.68216e-05 -5.74619e-05 6.82307e-05 4.9584e-06 -0.1678687788 0.8273081058
685295890.0 -0.0269688502 0.1453163666 0.0002135001 0.0001324403 0.0002159699 5.09325e-05 -0.1596510601 0.8290828729
690295860.0 -0.0256162973 0.1458704872 0.0002964238 6.34977e-05 0.0002185956 -7.95654e-05 -0.1516318806 0.8304932186
695295830.0 -0.0240548034 0.146052126 0.0004095014 -6.83059e-05 0.000335478 -0.0001170826 -0.1435449064 0.8327216629
700295800.0 -0.0228294518 0.1463769324 0.0002526729 7.16474e-05 0.0002942057 -6.48619e-05 -0.1348735734 0.8333056881
705295770.0 -0.0215022439 0.1467682903 5.98152e-05 8.83808e-05 0.0003525758 2.89125e-05 -0.1277410219 0.8352956208
710295740.0 -0.0200000263 0.1473935022 0.0003147899 -0.0002062408 0.0003520991 5.55421e-05 -0.1190252486 0.8368045429
715295710.0 -0.0190818683 0.1476086653 0.000209145 2.12164e-05 0.0002612366 -4.1787e-06 -0.1110109639 0.8371193961
720295680.0 -0.0174125446 0.1481225173 5.51803e-05 -2.77073e-05 0.0002936363 -7.93012e-05 -0.1021784394 0.8385381012
725295650.0 -0.0155786104 0.1484830827 0.0005039292 0.0001048036 0.0002265049 1.72371e-05 -0.0940714281 0.839479006
730295620.0 -0.0145552427 0.1487248197 0.0003119456 0.0002017074 0.0001909815 -1.17503e-05 -0.0856380139 0.8400226887
735295590.0 -0.012890175 0.1490766948 0.0002595517 -2.52345e-05 0.0002917558 -7.07564e-05 -0.0765977722 0.8410989652
740295560.0 -0.0118343511 0.1495871843 0.0003757878 -5.9067e-06 0.0002486225 -7.02339e-05 -0.0688703935 0.8412343205
745295530.0 -0.0105209126 0.1499633623 0.0002366455 -2.29407e-05 0.0002515113 5.64721e-05 -0.0609839916 0.8421532346
750295500.0 -0.008798441 0.1500664744 0.0004029586 3.13152e-05 0.000432678 -4.60016e-05 -0.0522125812 0.8426419076
755295470.0 -0.007116995 0.150803133 0.000314322 -0.0002063129 9.07916e-05 -0.0001116388 -0.0447418199 0.8437742693
760295440.0 -0.0059779045 0.1508318119 0.0001223458 -0.0001444024 0.0005333224 -5.59068e-05 -0.0362125781 0.8436124105
765295410.0 -0.0042898446 0.1509710393 0.0001717125 -0.0003511656 0.0003520281 -1.11555e-05 -0.0270122677 0.8441214266
770295380.0 -0.0029626227 0.1514349352 0.0004663271 6.42974e-05 5.71146e-05 7.19224e-05 -0.019069643 0.8444878836
775295350.0 -0.0016206286 0.1516594551 0.0004742622 -8.54485e-05 0.0002067324 -5.35042e-05 -0.0112430977 0.8439205983
780295320.0 -3.74881e-05 0.1516025822 0.0002618637 -1.7708e-06 0.0002046977 0.000110508 -0.0026330609 0.8447142998
785295290.0 0.0014282175 0.1519243125 0.0002146386 0.0001719917 0.0002869505 -9.40597e-05 0.0050826968 0.844800214
790295260.0 0.0025695539 0.1522054875 0.0003065641 -0.0001529035 0.0002109574 3.45748e-05 0.0145110131 0.844760288
795295230.0 0.0043333124 0.1525286403 0.0001192789 4.41023e-05 -2.68049e-05 0.0001121005 0.0224749612 0.8445721148
800295200.0 0.0059864409 0.1527799749 0.0003748973 4.29198e-05 0.0002997684 -4.28778e-05 0.0305098959 0.8436595245
805295170.0 0.0071226903 0.1526053066 0.0001928767 4.0545e-06 0.0003333292 7.15407e-05 0.0388086214 0.8432830568
810295140.0 0.0086720321 0.1528810305 0.0004850339 -0.0001411086 0.000343182 -0.000200311 0.0465679058 0.8443512639
815295110.0 0.0102923083 0.1531955443 0.0001440758 -0.000202988 0.0003073895 -0.0001114139 0.0552677788 0.8429818084
820295080.0 0.0115363885 0.1529093015 0.0002072209 6.87177e-05 0.0001107989 -0.0002098338 0.0633107366 0.8417264986
825295050.0 0.0133940816 0.1532158517 0.0004092859 -4.00553e-05 0.0003321478 -5.61057e-05 0.0718274698 0.8414306685
830295020.0 0.0149008782 0.1532638981 0.0001181636 -0.0001546528 0.0002557217 6.10795e-05 0.079904099 0.8405087008
835294990.0 0.0161822823 0.1534657933 0.0003072613 -0.0001911304 0.0002611177 0.000194393 0.0877985657 0.8400433397
840294960.0 0.0178717987 0.1532715944 3.84427e-05 -0.0001824206 0.0001768498 -8.67939e-05 0.0962211592 0.8390806659
845294930.0 0.0192862269 0.1537486461 0.0002800001 -4.31188e-05 0.000422471 -0.0001236655 0.1047169587 0.8379044076
850294900.0 0.0206334184 0.153434394 0.0002404558 -4.78797e-05 0.0003301238 -0.0002071481 0.1125473201 0.8371635611
