!Created with skrf (http://scikit-rf.org).
# Hz S RI R 50.0 
!freq ReS11 ImS11 ReS21 ImS21 ReS12 ImS12 ReS22 ImS22
300000.0 -0.3191552937 -0.1286543449 0.3723505533 0.0664112855 0.3732074139 0.0659270015 -0.3180992527 -0.1307244664
5299970.0 -0.3249550923 0.0029768229 0.3784708925 0.0033135505 0.3789104307 0.0032606102 -0.3261256068 0.002300362
10299940.0 -0.3225931227 0.014247298 0.3799143105 0.0028167228 0.3799056842 0.0028994502 -0.3233787404 0.0125377362
15299910.0 -0.3189886698 0.022278261 0.3816826206 0.0028415381 0.3820998623 0.002550812 -0.3206177802 0.0198953421
20299880.0 -0.3155893814 0.0291315476 0.3850389783 0.0016289457 0.3852605014 0.0017324616 -0.3181071026 0.025946872
25299850.0 -0.3115638633 0.0348755144 0.3885598131 0.0005453449 0.3886823448 0.0002544882 -0.3146261145 0.0312445188
30299820.0 -0.3080272318 0.0394287403 0.3919606671 -0.0019814665 0.392323901 -0.002062838 -0.3121040345 0.0358494427
35299790.0 -0.3041783096 0.043520613 0.3947055198 -0.0052995446 0.395706939 -0.0049505192 -0.3093025886 0.0401074779
40299760.0 -0.3011575071 0.0466949261 0.3984237457 -0.008293935 0.3984680862 -0.0086759957 -0.3065531245 0.0433525773
45299730.0 -0.2980072737 0.0500888252 0.4012453165 -0.0122923455 0.4015230745 -0.0126803112 -0.3035081926 0.0467246419
50299700.0 -0.2948385511 0.0528369031 0.4035672716 -0.0174177882 0.4039940434 -0.0172822416 -0.301336061 0.0497311266
55299670.0 -0.2925233684 0.0551694134 0.4059445008 -0.0213066685 0.4060809415 -0.0217649502 -0.2998479325 0.0521251034
60299640.0 -0.289423253 0.0578386376 0.407930048 -0.0267166682 0.4078831434 -0.0268804065 -0.2970451239 0.0547062283
65299610.0 -0.2873788198 0.0601070821 0.4099937468 -0.0315503154 0.4098986558 -0.0317613895 -0.2952135743 0.0571215985
70299580.0 -0.2853045304 0.0620284005 0.4108497527 -0.0362530424 0.4111408092 -0.0369997808 -0.2936567522 0.0597920147
75299550.0 -0.2834543388 0.0641580107 0.4115243287 -0.0420147635 0.4120564855 -0.0421739159 -0.2919516764 0.0622997223
80299520.0 -0.2817596978 0.0665468138 0.4127811022 -0.0473315236 0.4130028324 -0.0474755913 -0.2907063037 0.0649675074
85299490.0 -0.2797544563 0.0683337623 0.4129424867 -0.0527819834 0.4136564165 -0.0524503943 -0.2891441604 0.0668953196
90299460.0 -0.2781855779 0.0706474169 0.4137133986 -0.0576701825 0.4136497229 -0.0580142326 -0.2874582141 0.0694298858
95299430.0 -0.2766368549 0.0723668828 0.4138063912 -0.062809403 0.4141850749 -0.0628458695 -0.2866233466 0.0717300261
100299400.0 -0.2755293163 0.0746626561 0.4139823082 -0.0677872939 0.4140480853 -0.0683009446 -0.2853022076 0.0741143691
105299370.0 -0.2740172539 0.0764689808 0.4138032661 -0.073180374 0.4143461521 -0.0734271236 -0.2839781306 0.0762324466
110299340.0 -0.2726728483 0.0787994154 0.4139488177 -0.0783152813 0.4139842927 -0.0783229808 -0.283320605 0.0787203394
115299310.0 -0.2716896982 0.0811877796 0.4136333152 -0.0836390884 0.4136059194 -0.0835773009 -0.2823486724 0.0811717472
120299280.0 -0.2703997648 0.083230851 0.4133327564 -0.0890551094 0.4130554616 -0.0891811598 -0.2811570891 0.0833421121
125299250.0 -0.2692107638 0.0853703388 0.4126047315 -0.0939548222 0.412677203 -0.0940765234 -0.2801884181 0.0857554942
130299220.0 -0.2682817563 0.0873662227 0.4117989969 -0.099348131 0.4118520398 -0.0994165345 -0.2790723794 0.0881787266
135299190.0 -0.2672371429 0.0898833214 0.4113375541 -0.1039679537 0.41137775 -0.1041645059 -0.2781531566 0.0905355771
140299160.0 -0.2662758698 0.0923608201 0.4105373804 -0.1094832807 0.41043854 -0.1089156714 -0.2774209352 0.0930462527
145299130.0 -0.2653532866 0.0947107758 0.4094811319 -0.1140411975 0.4095679627 -0.1139243964 -0.276272459 0.0957305249
150299100.0 -0.2641151293 0.0968705735 0.4083576104 -0.1188511145 0.4086863983 -0.1188159149 -0.2758325153 0.09850409
155299070.0 -0.2634111296 0.0993234736 0.4069415426 -0.123857774 0.4074474405 -0.1237493375 -0.2746996596 0.1010095434
160299040.0 -0.2622528762 0.1022431537 0.4061547167 -0.128827607 0.4061345592 -0.1288478816 -0.273955236 0.1033771193
165299010.0 -0.2610936895 0.1044709444 0.405151355 -0.1334404634 0.404602785 -0.1336651206 -0.2727410764 0.1058199327
170298980.0 -0.2602962728 0.1067512208 0.4033712952 -0.1385333683 0.4037411725 -0.1383224381 -0.2721247374 0.1086607569
175298950.0 -0.2588088139 0.1094807971 0.4022115947 -0.1432154292 0.402378832 -0.1435675866 -0.2709920666 0.111670156
180298920.0 -0.258085644 0.1119338548 0.4006890436 -0.1480160544 0.4007918928 -0.1483906101 -0.269850735 0.1141086152
185298890.0 -0.2570139353 0.1143643877 0.3994535295 -0.1524289371 0.3993640652 -0.1526299427 -0.2689305764 0.1165639233
190298860.0 -0.2556738681 0.1170364544 0.3971118987 -0.1573068891 0.3977783347 -0.1573223101 -0.2675279937 0.119411383
195298830.0 -0.2546634617 0.1195727685 0.3960360753 -0.1617483056 0.3960319803 -0.1618432562 -0.2667244334 0.1220841115
200298800.0 -0.2534924427 0.1222683163 0.3942300087 -0.1670995809 0.3942129471 -0.166786835 -0.2656322245 0.1243504367
205298770.0 -0.2528378115 0.1247167141 0.3922956248 -0.1711648227 0.3925105174 -0.1710635612 -0.2647610295 0.1272847005
210298740.0 -0.2514402974 0.1273543096 0.3906313488 -0.1757893991 0.3906115529 -0.17542851 -0.2636634717 0.1299129146
215298710.0 -0.2501673286 0.130089323 0.3881678448 -0.1800070252 0.3887729658 -0.1801963813 -0.2624015944 0.1323840145
220298680.0 -0.2490252438 0.1325830736 0.3864413761 -0.1846659412 0.3866693863 -0.1847180701 -0.260876879 0.1354218499
225298650.0 -0.2476629969 0.1352458084 0.3845108664 -0.1889379255 0.3848235796 -0.1889552954 -0.2599339336 0.1381310284
230298620.0 -0.246600518 0.1380680043 0.3826467482 -0.1932663074 0.3829495714 -0.1936104459 -0.2588423072 0.1406588812
235298590.0 -0.2453386582 0.1406676173 0.3806629995 -0.1981965093 0.3806604329 -0.1980805855 -0.2571599865 0.1435129488
240298560.0 -0.2440734087 0.143258349 0.3781944237 -0.2019613443 0.3783037723 -0.2022250506 -0.2561051289 0.1460595342
245298530.0 -0.2425632585 0.1455973415 0.3760645673 -0.2067098562 0.3761085459 -0.2068439496 -0.2549610354 0.148439262
250298500.0 -0.2416265382 0.1480968337 0.3739592889 -0.2102940288 0.3739284228 -0.2107851634 -0.2534287383 0.151692046
255298470.0 -0.2399540821 0.1511476244 0.3714232495 -0.2148774269 0.3720365774 -0.2154254475 -0.2518770064 0.1544038623
260298440.0 -0.2386288708 0.1536448884 0.369340356 -0.218809443 0.3695941989 -0.2188152319 -0.250868176 0.1569402559
265298410.0 -0.2375592412 0.1561533464 0.3671239504 -0.2236197502 0.366740404 -0.2236136877 -0.2488952743 0.1593485843
270298380.0 -0.2360602939 0.1586551588 0.3646327925 -0.2273787037 0.3647808424 -0.2273443536 -0.2473753365 0.1623143197
275298350.0 -0.2343436796 0.1614186577 0.3614159387 -0.2315911428 0.3618479643 -0.2317690003 -0.2455731844 0.1650628278
280298320.0 -0.2331668321 0.163757634 0.3593448875 -0.2352498744 0.359557523 -0.2359280941 -0.2441698263 0.1675184144
285298290.0 -0.2315181691 0.1668907945 0.3569438688 -0.2399903279 0.3570619102 -0.2395386317 -0.2427498593 0.170420384
290298260.0 -0.229920847 0.1696292275 0.3546121331 -0.2438565874 0.3543306994 -0.2439206732 -0.2409870183 0.1729990079
295298230.0 -0.2284710974 0.1715287809 0.3514948315 -0.2478501366 0.351619603 -0.248156426 -0.239321984 0.1755087266
300298200.0 -0.2265845304 0.1744468468 0.3487589908 -0.2515986891 0.3488086509 -0.2517835942 -0.2376881423 0.1780173746
305298170.0 -0.225235092 0.1765765059 0.3465443396 -0.2558263037 0.3464042493 -0.2557466485 -0.2356324326 0.1802996012
310298140.0 -0.223103398 0.1787527466 0.343357058 -0.2593747667 0.3434418357 -0.2593086955 -0.2338186576 0.182879873
315298110.0 -0.2218954409 0.1813401243 0.3404161807 -0.2636808942 0.3406485232 -0.2634370162 -0.2322440749 0.1851784805
320298080.0 -0.2199898166 0.1837417662 0.3370010597 -0.2673755779 0.33785471 -0.2676601698 -0.2305095817 0.1881740538
325298050.0 -0.2187114297 0.1860231336 0.3345522826 -0.2710793569 0.3348297158 -0.2716089509 -0.2281959505 0.1903203191
330298020.0 -0.2171275121 0.1885062867 0.3315112206 -0.2749106421 0.3316320119 -0.2750129642 -0.2267161237 0.1925487813
335297990.0 -0.2152037063 0.190950265 0.3281139022 -0.2786294988 0.3282488951 -0.2788679319 -0.2248532854 0.1954480693
340297960.0 -0.2136737542 0.1931273909 0.3250289596 -0.2821767468 0.3253795394 -0.2824500742 -0.2232455141 0.1978169333
345297930.0 -0.2118046693 0.1957193218 0.3219715617 -0.2860763196 0.3219354237 -0.2860106613 -0.2210793023 0.2004206144
350297900.0 -0.2101894181 0.1980191636 0.318932857 -0.2892606424 0.3193503914 -0.289309079 -0.2194232307 0.2029097712
355297870.0 -0.2081053741 0.2003382153 0.3152780648 -0.2925630837 0.3155794126 -0.2925027551 -0.2170452481 0.2055751689
360297840.0 -0.2059962134 0.2028286717 0.3117485616 -0.296411318 0.3127094536 -0.29669875 -0.2153211292 0.2080621892
365297810.0 -0.2044529498 0.2054021347 0.3087423904 -0.299657613 0.3091770205 -0.299846478 -0.2131937428 0.2099649788
370297780.0 -0.2025639569 0.2068006331 0.3049551612 -0.3028876148 0.3057613204 -0.3028344256 -0.2113910122 0.2126261705
375297750.0 -0.2004832284 0.2096604276 0.3021618849 -0.3063920129 0.3026160201 -0.3063767475 -0.2089721378 0.2147139671
380297720.0 -0.198598902 0.2119221466 0.299146586 -0.3099338771 0.2987603124 -0.3099109246 -0.2063516955 0.2175349143
385297690.0 -0.1967696415 0.2140529874 0.2954263735 -0.313162584 0.2954890749 -0.3131842453 -0.2046149111 0.2198597007
390297660.0 -0.1941935755 0.21610407 0.2918355652 -0.3160166706 0.2919807208 -0.3161082148 -0.2020463584 0.2216776841
395297630.0 -0.1919368946 0.2186063909 0.288713047 -0.3190952437 0.2883412061 -0.3190470282 -0.1996296798 0.2238669311
400297600.0 -0.1901755807 0.2207421469 0.2849478728 -0.3225261621 0.2852868989 -0.3223243813 -0.1973581426 0.2265702008
405297570.0 -0.1880253775 0.2223603161 0.2813840589 -0.3252868177 0.2815938712 -0.3259161794 -0.1948761641 0.2291899966
410297540.0 -0.1855184773 0.224818336 0.2778225915 -0.3286854855 0.2780578969 -0.3288336518 -0.192982631 0.2314293233
415297510.0 -0.183344936 0.2269306436 0.2738756544 -0.3316979937 0.2746096671 -0.3316462271 -0.1903988419 0.2335367759
420297480.0 -0.1811226575 0.2287449381 0.2703638647 -0.33468233 0.2705847497 -0.3348421892 -0.1874494345 0.2360516201
425297450.0 -0.1786119896 0.2307041461 0.2666883137 -0.3372218334 0.2668218689 -0.3375521541 -0.185292955 0.237393942
430297420.0 -0.1765633821 0.2327943318 0.2635466617 -0.3406760529 0.2633065502 -0.3401117216 -0.1829353402 0.2394815638
435297390.0 -0.173723106 0.2345863442 0.2589906402 -0.343586822 0.2593454969 -0.3432522239 -0.1807961208 0.2421003118
440297360.0 -0.1714803527 0.2366548133 0.2553026966 -0.3462072602 0.2555699613 -0.3464136951 -0.1782107123 0.2443330943
445297330.0 -0.1689986381 0.238424158 0.2515885519 -0.3487682831 0.2516883061 -0.3490890908 -0.1750289174 0.2461529077
450297300.0 -0.1667066286 0.2402688285 0.2479664658 -0.3516873468 0.2482332991 -0.3515572836 -0.1726190021 0.2482487788
455297270.0 -0.1645057218 0.2420580532 0.2441819247 -0.354455686 0.2444765333 -0.3542631258 -0.1702629816 0.2500166026
460297240.0 -0.161514305 0.2438575811 0.2405313796 -0.3572774622 0.2403492486 -0.3572122643 -0.1676118862 0.2521335282
465297210.0 -0.1590925773 0.2458012863 0.2357368822 -0.3598248661 0.2356989841 -0.3599379944 -0.164904555 0.2543741493
470297180.0 -0.1563286829 0.2474661659 0.2318357277 -0.3618454144 0.2323995573 -0.3621572878 -0.1622755203 0.2558585901
475297150.0 -0.1540527459 0.2495251334 0.2280972611 -0.3647317532 0.2282605845 -0.3647308142 -0.1593560781 0.2577349447
480297120.0 -0.1508322867 0.251259357 0.2240372319 -0.3671433641 0.2242068327 -0.366921848 -0.15677139 0.2597465382
485297090.0 -0.1486273233 0.2528791229 0.2197204414 -0.3695213544 0.2201197932 -0.3695123181 -0.1543918325 0.2614517397
490297060.0 -0.1454209501 0.2545832568 0.2156078157 -0.372089226 0.216148342 -0.3723030941 -0.1514174589 0.2633903044
495297030.0 -0.1430088555 0.255898102 0.2122611957 -0.3742318452 0.2120732728 -0.3745137702 -0.1483731448 0.2650434142
500297000.0 -0.1403860847 0.2578551549 0.2079160439 -0.3766005009 0.2078570096 -0.3767997653 -0.1458024179 0.2667417554
505296970.0 -0.1371936291 0.2595248005 0.2037152369 -0.3788641077 0.2035445133 -0.3785771126 -0.1428635006 0.268170017
510296940.0 -0.1346728827 0.2609207049 0.1994588664 -0.3812911992 0.1994357409 -0.3814877277 -0.1396514428 0.2703727869
515296910.0 -0.1318330497 0.262890457 0.1948644928 -0.3831939964 0.1948551567 -0.3826907538 -0.137313682 0.2711281556
520296880.0 -0.1288355224 0.2641863 0.190769819 -0.3850609728 0.190771242 -0.385149526 -0.1338329063 0.2731949577
525296850.0 -0.1259648867 0.2654502065 0.1866897709 -0.3870025328 0.1864584177 -0.3870174107 -0.1314190132 0.2749025247
530296820.0 -0.1235477778 0.2669674798 0.1824138253 -0.3891721097 0.1825340442 -0.389202308 -0.1285590309 0.2762751081
535296790.0 -0.1201344769 0.2685262449 0.1783139256 -0.39090189 0.1781205288 -0.3909974399 -0.1252369731 0.2778211706
540296760.0 -0.1171620695 0.2697897985 0.1736534606 -0.3930115194 0.1737538859 -0.3926653376 -0.1226334459 0.2787884329
545296730.0 -0.1146460089 0.2718146445 0.1697429094 -0.3946266231 0.1691580705 -0.3946183504 -0.1193892819 0.2808135199
550296700.0 -0.1111657259 0.2727881286 0.1650160398 -0.396676293 0.1648757286 -0.3968655718 -0.1164308414 0.2820859547
555296670.0 -0.1086359388 0.2744369639 0.1608409568 -0.3983996039 0.1606951478 -0.3980337479 -0.1135893577 0.2830296588
560296640.0 -0.1048659399 0.2755392864 0.1558705339 -0.3998552988 0.1565402848 -0.4001227285 -0.1104474317 0.2847326379
565296610.0 -0.102798267 0.2767962864 0.1523683002 -0.4018331685 0.1520959051 -0.4013858726 -0.107651658 0.285887645
570296580.0 -0.0995727494 0.2783453038 0.1474308093 -0.403462059 0.1472788404 -0.4034591642 -0.1043449583 0.2869261932
575296550.0 -0.0962580365 0.2792281524 0.1434302594 -0.4049583892 0.1434267321 -0.4048478786 -0.1016162091 0.2882418689
580296520.0 -0.0934310267 0.2804224009 0.1389701976 -0.4060717369 0.1387612763 -0.4064658952 -0.0986269646 0.2894580492
585296490.0 -0.0901745246 0.2818952063 0.1345569613 -0.4078831766 0.1339977528 -0.4078494112 -0.0953958661 0.2910119715
590296460.0 -0.0865157247 0.2831076713 0.1299096431 -0.4092935901 0.1297717355 -0.4095530447 -0.0923818883 0.292016258
595296430.0 -0.0838436594 0.2840443475 0.1251554975 -0.410348353 0.1251709153 -0.4103840499 -0.0890195557 0.2927374143
600296400.0 -0.0805730891 0.285187422 0.1205210201 -0.4114109184 0.1208382295 -0.411629105 -0.0861173541 0.2939293329
605296370.0 -0.0778483977 0.2865167607 0.1168499923 -0.4127771887 0.1159845237 -0.4129017912 -0.0828421142 0.2950116422
610296340.0 -0.0744237103 0.2876546144 0.1117925609 -0.4136028247 0.1118621579 -0.4142242526 -0.0800531709 0.2964245903
615296310.0 -0.0709700228 0.2886485977 0.107319989 -0.4157185759 0.1067153852 -0.4155418163 -0.0762190526 0.2972304476
620296280.0 -0.0683052468 0.2899567727 0.1028412564 -0.4164470036 0.1026172655 -0.4162096966 -0.0738750784 0.2982787174
625296250.0 -0.065494938 0.290435274 0.0983515891 -0.417743237 0.0981465402 -0.4175986277 -0.0707505784 0.2989710846
630296220.0 -0.0623683724 0.2913702001 0.0939112577 -0.418576061 0.0932812915 -0.418492212 -0.0673068927 0.2999160925
635296190.0 -0.0591782096 0.2926604232 0.0893517179 -0.4194172533 0.0890142427 -0.4194792166 -0.0644902061 0.3008016941
640296160.0 -0.0556718389 0.2932478595 0.0842574171 -0.4204304154 0.0842783285 -0.4204187153 -0.0613178913 0.3016397905
645296130.0 -0.0525187004 0.2943454306 0.0802490034 -0.4211470614 0.0797454274 -0.4210672772 -0.0581657638 0.3020207495
650296100.0 -0.0493868912 0.2950926289 0.0750309533 -0.422169903 0.0748078975 -0.4221718695 -0.053890868 0.3028222595
655296070.0 -0.0466174733 0.2957847806 0.0707207581 -0.4225878522 0.0704910234 -0.4225948122 -0.0516817136 0.3038706601
660296040.0 -0.0433485995 0.296377274 0.0663047502 -0.4234067906 0.0661555551 -0.4232885188 -0.0482191377 0.3041362445
665296010.0 -0.0401571576 0.2976331947 0.0608784776 -0.4239292849 0.0615109892 -0.4240095364 -0.045334781 0.3048265471
670295980.0 -0.0371749159 0.2979960594 0.0568241066 -0.4245875335 0.056521012 -0.4245242316 -0.0420421685 0.3055013947
675295950.0 -0.0339468335 0.2987046461 0.0522781462 -0.4249216483 0.0524609314 -0.4254465109 -0.0388181109 0.3062778941
680295920.0 -0.031372983 0.2994093214 0.0478633029 -0.4253357949 0.0476299814 -0.4256273734 -0.0352332526 0.3067958262
685295890.0 -0.0278380872 0.3000102884 0.0429816068 -0.4260257008 0.042829925 -0.4261353532 -0.032357322 0.3073792473
690295860.0 -0.0248091925 0.3009218966 0.0387612621 -0.4264647234 0.0379701956 -0.4266940801 -0.0289530995 0.3077507825
695295830.0 -0.0214483626 0.3010470884 0.0340481908 -0.4268344908 0.0339718301 -0.4269800392 -0.0258720492 0.3083499045
700295800.0 -0.0183482445 0.301935544 0.029723232 -0.4271761718 0.0293321806 -0.4275423172 -0.022445576 0.3086248594
705295770.0 -0.0156324443 0.3023203103 0.0249526185 -0.4275069454 0.0246745346 -0.4276684798 -0.0195041739 0.3092269669
710295740.0 -0.0126358309 0.3025186088 0.0204565346 -0.4277193562 0.0195146996 -0.4280348893 -0.0158787189 0.3095524548
715295710.0 -0.0090807224 0.3030460574 0.0154013245 -0.4279561444 0.0155133359 -0.427994034 -0.0127635618 0.3093704696
720295680.0 -0.0056868332 0.3031030339 0.0105627392 -0.4279900239 0.010458331 -0.4280895964 -0.0095396419 0.3095551822
725295650.0 -0.0030698798 0.3038558511 0.0064263918 -0.4278564773 0.0061116567 -0.4281351791 -0.006503412 0.3103099529
730295620.0 -0.000460361 0.3039249344 0.0015572219 -0.4277377588 0.001475915 -0.4279118498 -0.0034676509 0.3107234735
735295590.0 0.0031869415 0.3044783622 -0.0029138601 -0.4281595016 -0.0033392425 -0.4278783416 0.0002333149 0.3105645814
740295560.0 0.0058788303 0.3042319969 -0.0073059634 -0.4280813864 -0.0072184552 -0.4280296748 0.0033193159 0.3107207568
745295530.0 0.0089570759 0.3044820349 -0.0116936749 -0.4272339222 -0.0117059863 -0.4276084308 0.0062293364 0.3109006054
750295500.0 0.0120386904 0.3048587107 -0.0161591664 -0.4273014058 -0.0170860413 -0.4275789306 0.0097866504 0.3110249569
755295470.0 0.015428788 0.3050324671 -0.0212257657 -0.4274380982 -0.0214884186 -0.4275965404 0.0129764239 0.3110943993
760295440.0 0.0184685809 0.3053855615 -0.0264303943 -0.4268871687 -0.0262208251 -0.4266686639 0.0161583999 0.3106481801
765295410.0 0.0214318437 0.3049390738 -0.0302881428 -0.4265882541 -0.0306872707 -0.4268179739 0.0197690778 0.3110547128
770295380.0 0.0242778587 0.3054047331 -0.0349366624 -0.4261218203 -0.0351615207 -0.4263710929 0.0226976453 0.3107253981
775295350.0 0.0276106228 0.3050235115 -0.0397946672 -0.4258371974 -0.0393714926 -0.4256304625 0.0261052851 0.3105627017
780295320.0 0.0307407316 0.3053126828 -0.0440551533 -0.4253311293 -0.0441218218 -0.4252596406 0.0294379884 0.310569658
785295290.0 0.0335857683 0.3048120801 -0.0486981574 -0.4250053944 -0.0486039289 -0.4251616197 0.0323087948 0.3107531149
790295260.0 0.0366368473 0.3043344974 -0.0531574586 -0.4242287427 -0.0534880785 -0.4245040697 0.0358696887 0.3106215983
795295230.0 0.0396686545 0.3042994932 -0.057894997 -0.4238112241 -0.0579230115 -0.4237710008 0.0388148993 0.3096599977
800295200.0 0.0425878742 0.3042775295 -0.0620611352 -0.4228472032 -0.0625012289 -0.4233677539 0.0419546963 0.309969765
805295170.0 0.045711253 0.3041732936 -0.0672218784 -0.4221295157 -0.0670790895 -0.4225829207 0.0457925854 0.3093646574
810295140.0 0.0490516257 0.3041083988 -0.0717681343 -0.4217161698 -0.0715752084 -0.4214605457 0.0489877583 0.3089006982
815295110.0 0.0517655886 0.3035157446 -0.0760163756 -0.4208282098 -0.0758498142 -0.4208134835 0.0519629886 0.3086504764
820295080.0 0.054695411 0.3033115382 -0.0804892011 -0.4196894863 -0.0803787462 -0.4200790597 0.0545209312 0.3085946918
825295050.0 0.0577257172 0.3026996879 -0.0850076351 -0.4193083125 -0.085170793 -0.4190408305 0.0586942836 0.308151742
830295020.0 0.0608913739 0.302309116 -0.0896158835 -0.4179078955 -0.0896207904 -0.4183018089 0.0615252064 0.3073916971
