!Created with skrf (http://scikit-rf.org).
# Hz S RI R 50.0 
!freq ReS11 ImS11 ReS21 ImS21 ReS12 ImS12 ReS22 ImS22
300000.0 -0.2442969955 -0.0886231595 0.4737807521 0.0581176029 0.4722306403 0.0550715678 -0.239846979 -0.0951691189
5299970.0 -0.2449317794 0.006890933 0.4749454314 0.0047702345 0.4748131935 0.0048386313 -0.2409409758 0.007528279
10299940.0 -0.241716147 0.0180117854 0.4768521742 0.0059407245 0.4767024791 0.006317194 -0.2374912936 0.0206477732
15299910.0 -0.237527165 0.0268974139 0.4805960071 0.0073493007 0.4807965109 0.0071721955 -0.2331141464 0.0299513126
20299880.0 -0.232758497 0.0342074652 0.4850511666 0.0078640201 0.4850445236 0.0080065303 -0.2276522761 0.0382584694
25299850.0 -0.2278802622 0.0403032853 0.4901667066 0.0074033761 0.4897876574 0.0069471422 -0.2218168415 0.0446608668
30299820.0 -0.2227204824 0.0451715125 0.4956311314 0.0051474143 0.4954852183 0.0045426922 -0.21600875 0.050187087
35299790.0 -0.2173846502 0.0489887886 0.5009658562 0.0012049941 0.5008902089 0.0013289158 -0.2105550013 0.0546103458
40299760.0 -0.2127639188 0.0525078527 0.506067936 -0.0026510155 0.506245715 -0.0024422122 -0.2053659375 0.0577467124
45299730.0 -0.2077197739 0.0549220989 0.5103495284 -0.0068019863 0.5106050737 -0.0071127496 -0.2002161784 0.0605264889
50299700.0 -0.2038430582 0.0567971728 0.5151500005 -0.0125033097 0.5147420371 -0.012566448 -0.1954608785 0.0625289979
55299670.0 -0.1996069989 0.0585275357 0.5190939156 -0.0191225702 0.5185465498 -0.0184627908 -0.1912310034 0.0642571992
60299640.0 -0.1959981574 0.0602105707 0.5217174877 -0.0253834465 0.5220109292 -0.0248431829 -0.1871699262 0.0654708909
65299610.0 -0.1931791074 0.0609802361 0.5248013739 -0.0315132545 0.5249320498 -0.0312119584 -0.183972298 0.0665318582
70299580.0 -0.1900120478 0.0622197523 0.527284173 -0.037986192 0.5273194668 -0.0379128656 -0.1806835812 0.0677933833
75299550.0 -0.1871436583 0.0629429833 0.528666844 -0.0444673432 0.5289460229 -0.0445927659 -0.1781208314 0.068099571
80299520.0 -0.1846011345 0.0638157633 0.5307977403 -0.051618747 0.5310081879 -0.0518732872 -0.1751652529 0.0692210295
85299490.0 -0.1826322113 0.0642085749 0.5325656377 -0.0583371936 0.5321518323 -0.0581419616 -0.1728785275 0.0696507301
90299460.0 -0.1803782514 0.0651468768 0.5331095117 -0.0654165142 0.5334835148 -0.0651159608 -0.1706114783 0.0704860145
95299430.0 -0.1781818816 0.0653754981 0.5340040527 -0.0723438469 0.5339513987 -0.0722878328 -0.1682428876 0.0712373941
100299400.0 -0.1766393863 0.0663712985 0.5336192267 -0.0792670468 0.5338986488 -0.079121677 -0.1660737417 0.0714806399
105299370.0 -0.1749003096 0.0667665544 0.5342872692 -0.0861908569 0.5350209814 -0.0862477523 -0.1642326326 0.0726715084
110299340.0 -0.173281266 0.0675134444 0.5348845838 -0.0922719319 0.5348917083 -0.0925366657 -0.1628514998 0.0730513624
115299310.0 -0.1719056732 0.0681989858 0.5345693284 -0.1000155205 0.5347266738 -0.0998102863 -0.1612579182 0.0736902091
120299280.0 -0.1706426705 0.0683216442 0.534329397 -0.106403633 0.5347052574 -0.1068836614 -0.1597972728 0.0745824984
125299250.0 -0.1695420579 0.0691246778 0.5341553367 -0.1131922886 0.5343483477 -0.113002821 -0.1584582132 0.0745901375
130299220.0 -0.1685552158 0.0701391431 0.5332551336 -0.1199267039 0.5335497358 -0.120093922 -0.1571479723 0.0758552067
135299190.0 -0.1674809864 0.0708702747 0.5333769809 -0.1263209243 0.5330175113 -0.1260070424 -0.1555808358 0.0766715009
140299160.0 -0.166747902 0.0720865208 0.5322718366 -0.1332529297 0.5323026504 -0.1333821437 -0.1543084904 0.0781975644
145299130.0 -0.1655850181 0.0727933119 0.5309286851 -0.1393511924 0.5310967947 -0.1396592501 -0.153525573 0.0789478952
150299100.0 -0.1644418474 0.0739310946 0.5297882839 -0.1461618086 0.5296687397 -0.145903762 -0.1522169818 0.0802862114
155299070.0 -0.1637117302 0.0746601997 0.528575719 -0.1531282804 0.5283870235 -0.1529711445 -0.1510400274 0.0813785451
160299040.0 -0.1627406644 0.0758624668 0.5270882128 -0.1589976317 0.5269062298 -0.1593848584 -0.1505590746 0.0822853932
165299010.0 -0.1620409781 0.0770411444 0.5258268391 -0.1663824062 0.525939641 -0.1659278227 -0.1491648777 0.0836008735
170298980.0 -0.1614138878 0.0778537729 0.5241941995 -0.1724536166 0.5245428695 -0.171894688 -0.1483314331 0.0848530788
175298950.0 -0.1608755968 0.0789910936 0.523218235 -0.1779762445 0.5227551782 -0.1784018426 -0.1475880149 0.0858938826
180298920.0 -0.1601547953 0.0799408378 0.5209087869 -0.1846061243 0.520698551 -0.1841821339 -0.1465823003 0.0874872201
185298890.0 -0.1588241264 0.0808495042 0.5191379498 -0.190523693 0.5187797935 -0.1905642197 -0.1457062081 0.0887236851
190298860.0 -0.1585850353 0.0822464179 0.5174784682 -0.1972869849 0.5176127197 -0.1968250824 -0.1449455259 0.0898314218
195298830.0 -0.1576007022 0.0832305911 0.5151494934 -0.2032916933 0.5153211427 -0.203048672 -0.1435523257 0.0911952299
200298800.0 -0.1568712416 0.0846830632 0.5133255897 -0.2091938526 0.5132953415 -0.209439852 -0.143218955 0.0923351298
205298770.0 -0.1561736304 0.086023736 0.5105990237 -0.21551024 0.5107169473 -0.2153846425 -0.1419795782 0.093463823
210298740.0 -0.1552297118 0.0867063495 0.5083843077 -0.2205245414 0.508753398 -0.2210996267 -0.1408199595 0.095340711
215298710.0 -0.1550915617 0.0882773097 0.5063642461 -0.2272541614 0.5063224447 -0.2270740473 -0.1403625919 0.0965565363
220298680.0 -0.1541685499 0.0890544432 0.5036923271 -0.2330414596 0.5040002092 -0.2328189115 -0.1398079882 0.0976296322
225298650.0 -0.1534700772 0.0906551682 0.501265318 -0.2389774495 0.501647934 -0.2389809229 -0.1388490409 0.098882979
230298620.0 -0.1526439701 0.0920777721 0.4988341794 -0.2444926472 0.4992329302 -0.2445949729 -0.1380511154 0.1001937811
235298590.0 -0.1517941946 0.0936388186 0.4962959108 -0.2501657666 0.4962531096 -0.2499304724 -0.1369134048 0.1016117659
240298560.0 -0.1510737666 0.0948984573 0.493815354 -0.256140761 0.4936485161 -0.2563084175 -0.1360299314 0.1032312802
245298530.0 -0.1507213764 0.0962743799 0.491158237 -0.2621985037 0.4911184881 -0.2619393739 -0.1348478745 0.1041527107
250298500.0 -0.1491214234 0.0977076729 0.487486467 -0.267402523 0.4874437577 -0.2671679168 -0.1342974947 0.1056966713
255298470.0 -0.1487008051 0.0983657476 0.4849091135 -0.2726069162 0.4848976993 -0.2728152477 -0.1329614349 0.1068682472
260298440.0 -0.1479095766 0.1000160685 0.4820199054 -0.2789071631 0.4817599539 -0.2783643793 -0.1314786388 0.1083136348
265298410.0 -0.1467402199 0.1017377899 0.4787544838 -0.2841628797 0.478920319 -0.283723845 -0.1307027435 0.1098440073
270298380.0 -0.1462170225 0.1027721305 0.4761405402 -0.288942653 0.4763058294 -0.2893347024 -0.1297210732 0.1109868127
275298350.0 -0.1447817257 0.1041959565 0.4724575832 -0.2948225622 0.4729473194 -0.295033833 -0.1283161439 0.1123644511
280298320.0 -0.1438717842 0.1059061225 0.4695970631 -0.3000386037 0.4698092358 -0.2999760902 -0.1269888883 0.1135211937
285298290.0 -0.1430581292 0.1072289947 0.4669618257 -0.3053402532 0.4662059107 -0.3056427224 -0.1255957096 0.1149828486
290298260.0 -0.1419424652 0.108461983 0.4625653254 -0.3106997389 0.4631738648 -0.3110145334 -0.1245458184 0.1167252383
295298230.0 -0.1409457673 0.1095606466 0.459570625 -0.3158798918 0.45953284 -0.3158319684 -0.122840589 0.1177025966
300298200.0 -0.1402327111 0.1107007135 0.4565086045 -0.3209978928 0.4564422652 -0.32128098 -0.1219483327 0.1193085817
305298170.0 -0.1389028755 0.112048273 0.4525323808 -0.3266840863 0.4528001458 -0.3265720158 -0.1199205896 0.1202408539
310298140.0 -0.1381288805 0.1135719 0.4491263716 -0.3314934246 0.4494166566 -0.3315297615 -0.1190563372 0.1217337749
315298110.0 -0.137002956 0.1145651764 0.4457672177 -0.3371018453 0.4456661487 -0.3370421897 -0.117731441 0.1227767713
320298080.0 -0.1357010999 0.1157894885 0.4414413193 -0.3422730901 0.4420003529 -0.3418632998 -0.1167313968 0.1238046936
325298050.0 -0.1351424815 0.1171225718 0.4379142766 -0.3471608454 0.4380718261 -0.3468865301 -0.1154196102 0.1255760934
330298020.0 -0.1339215713 0.1179715749 0.4336826897 -0.3522433288 0.4342994727 -0.3519259571 -0.1142909346 0.1262947881
335297990.0 -0.133029497 0.1192645255 0.4299713962 -0.3566675251 0.4299548881 -0.3566816988 -0.1134326994 0.1284422206
340297960.0 -0.1322897573 0.120937847 0.4255529816 -0.3615404308 0.4254308273 -0.3620623317 -0.1114953758 0.1295216068
345297930.0 -0.1315940671 0.1227630706 0.4217892783 -0.366268167 0.421371975 -0.3664142586 -0.1105233532 0.1307290702
350297900.0 -0.1304789249 0.1237223435 0.41704945 -0.3708882769 0.4173280394 -0.370883407 -0.1096761 0.1326599368
355297870.0 -0.1290698947 0.1255909406 0.4130450338 -0.3756684987 0.4135495928 -0.3755022605 -0.1082007177 0.1338085732
360297840.0 -0.1279539521 0.1267569694 0.4096348252 -0.3799355489 0.4097298646 -0.3800604062 -0.1068134979 0.1353958066
365297810.0 -0.127294573 0.128159893 0.4049651775 -0.3850219769 0.4050935687 -0.384555027 -0.1051266208 0.1369535518
370297780.0 -0.1258629125 0.1293862235 0.4004760147 -0.3885849668 0.4010023682 -0.3885123152 -0.103805181 0.1379198794
375297750.0 -0.1245351936 0.1309264821 0.3965889892 -0.3934716276 0.3970514396 -0.3932873211 -0.102373416 0.1392989731
380297720.0 -0.1235589483 0.1320699571 0.3923161415 -0.397981004 0.3924745013 -0.3972331388 -0.1015987186 0.1408405778
385297690.0 -0.1226195585 0.1332031616 0.3876439715 -0.4018245247 0.3876248026 -0.4019393922 -0.0996602536 0.1417133458
390297660.0 -0.1210829326 0.1349299866 0.3834134912 -0.4063688642 0.3833952332 -0.4059974546 -0.0982338272 0.143309823
395297630.0 -0.1198511008 0.1359628967 0.3790974103 -0.4102907078 0.3787588115 -0.4103476391 -0.0963036459 0.1444192206
400297600.0 -0.1184835143 0.1374754448 0.3740978239 -0.4147111837 0.3743909957 -0.4147368147 -0.0952186497 0.1455810867
405297570.0 -0.117774303 0.1388418928 0.3702306978 -0.4183334554 0.369668039 -0.418353329 -0.0938179072 0.1470289669
410297540.0 -0.1159446746 0.14003588 0.3651270557 -0.422516729 0.3654901019 -0.4228461544 -0.0921612756 0.1483543875
415297510.0 -0.1145838865 0.1410783664 0.3604465054 -0.4268069635 0.3606670112 -0.426919804 -0.0906883787 0.1494095258
420297480.0 -0.1135164381 0.1428626374 0.35572522 -0.4306055948 0.3557271622 -0.4306890228 -0.0893017076 0.1502337645
425297450.0 -0.1120306985 0.1434091645 0.3513435452 -0.4345192834 0.3513312089 -0.4348258783 -0.088043957 0.1516281055
430297420.0 -0.110703392 0.1447203972 0.3465378328 -0.4377570822 0.3465080614 -0.4379172817 -0.086317096 0.1526765628
435297390.0 -0.1093955022 0.1461331609 0.3412687296 -0.4419652389 0.341154105 -0.4421499534 -0.0839768695 0.1535493584
440297360.0 -0.1080133111 0.1473791531 0.3363247305 -0.4457318555 0.3367973135 -0.445643568 -0.0826938335 0.1542087408
445297330.0 -0.1067361584 0.1482424837 0.3319479705 -0.449402479 0.3320493332 -0.4489082358 -0.0808652816 0.1552123795
450297300.0 -0.1050870563 0.1493749053 0.3271554559 -0.4529315686 0.3265455741 -0.4530069787 -0.0788557008 0.1560722153
455297270.0 -0.1036911105 0.1504512928 0.321652958 -0.4559842889 0.322049257 -0.4563415562 -0.0774718972 0.1570471768
460297240.0 -0.1023969718 0.1517028425 0.3166191548 -0.459518936 0.3167289226 -0.460000814 -0.0753671346 0.1584805117
465297210.0 -0.100603552 0.1530580484 0.3122491093 -0.4633447104 0.3113483518 -0.4637992044 -0.0736691318 0.1590280606
470297180.0 -0.0993867313 0.1541413368 0.3064726364 -0.4667913773 0.3068442487 -0.4665383598 -0.0718282059 0.1603391123
475297150.0 -0.0977765989 0.154695947 0.3010426553 -0.4692424927 0.3017330166 -0.4696368521 -0.0697170037 0.160607309
480297120.0 -0.0965200545 0.1562479418 0.296296871 -0.4736521599 0.2962060153 -0.473480012 -0.0680383509 0.161955136
485297090.0 -0.0950244636 0.157225416 0.2915735862 -0.4762088389 0.291385931 -0.476099174 -0.0660468071 0.1627316943
490297060.0 -0.0940140645 0.1583292717 0.2867115817 -0.4796560841 0.2864204444 -0.4791663779 -0.0640917047 0.1641182921
495297030.0 -0.0920504483 0.1592114641 0.28059878 -0.4825095861 0.2813096744 -0.4824361317 -0.0626225609 0.1647667283
500297000.0 -0.0905907973 0.160106748 0.275252267 -0.4850391332 0.2751069862 -0.4850871138 -0.0606193747 0.165869244
505296970.0 -0.0887274249 0.1612642555 0.2706575056 -0.4881306778 0.2701567951 -0.4885120202 -0.0594350666 0.16677266
510296940.0 -0.0871616421 0.1624314216 0.2651277832 -0.4916530394 0.2646208713 -0.4916692864 -0.0567954563 0.1676444667
515296910.0 -0.0859743974 0.1633298641 0.2595887343 -0.4943737997 0.2594469311 -0.4942004818 -0.0553072301 0.1683385949
520296880.0 -0.0845026302 0.1643885726 0.2542553896 -0.4973968082 0.2539871458 -0.4964714219 -0.053559837 0.1688227917
525296850.0 -0.0825363667 0.1648033886 0.2481766193 -0.4995136863 0.2488316205 -0.4996626713 -0.0513570852 0.1699569064
530296820.0 -0.0808856033 0.1660541377 0.2431496656 -0.5026277116 0.243130389 -0.5023732858 -0.0496449896 0.1707472499
535296790.0 -0.0797069392 0.1671662454 0.2381834367 -0.5046305954 0.2377377811 -0.5044948591 -0.0479187297 0.170991672
540296760.0 -0.078161164 0.168268025 0.2326184723 -0.5077907556 0.2321478561 -0.5077610788 -0.0462169761 0.172606647
545296730.0 -0.0763681803 0.1687785064 0.2264888014 -0.5097459738 0.2264945946 -0.5098028644 -0.0445820666 0.1729757833
550296700.0 -0.0742900781 0.1698539787 0.2207517544 -0.5124059464 0.2213153999 -0.5122942937 -0.0426698724 0.1734925433
555296670.0 -0.072984301 0.1706246031 0.2157165861 -0.5148001791 0.2155947326 -0.5146622621 -0.0405604679 0.1747683244
560296640.0 -0.0711305852 0.1716924863 0.2098188285 -0.5173978554 0.2099307067 -0.5171095079 -0.0386762602 0.174946347
565296610.0 -0.0695665898 0.1723557012 0.2043095058 -0.5193885745 0.2046299536 -0.5190083846 -0.0366700581 0.1752978244
570296580.0 -0.0683160665 0.1731571039 0.1986242064 -0.5220038434 0.1979795708 -0.5215875176 -0.0348399564 0.1765035442
575296550.0 -0.0664220618 0.1741370917 0.1931897101 -0.5238132051 0.1929917711 -0.5236397586 -0.0327181394 0.1765503027
580296520.0 -0.0645889683 0.174817 0.1874213342 -0.52569174 0.187434532 -0.5258369764 -0.0309745848 0.1769619501
585296490.0 -0.0631128041 0.1750932438 0.1818275087 -0.5271017004 0.1817998016 -0.5272426521 -0.0291858772 0.1775395293
590296460.0 -0.0611050347 0.176343017 0.1760967003 -0.5286844356 0.1761759551 -0.5292295881 -0.0277835134 0.1781049401
595296430.0 -0.0594628696 0.1771571443 0.1697978164 -0.5314885336 0.1701057357 -0.5310361868 -0.0252588941 0.1780751553
600296400.0 -0.0580727054 0.1776593265 0.1644222755 -0.5330985227 0.164489843 -0.5328298042 -0.0233335969 0.1785992818
605296370.0 -0.0561886576 0.1783450639 0.1588729127 -0.5346776686 0.158427596 -0.5346584582 -0.0210413069 0.1791140604
610296340.0 -0.054555948 0.1790050502 0.1527319809 -0.5362871841 0.1530123339 -0.5363621303 -0.0193342282 0.1790408382
615296310.0 -0.0523142032 0.1795278103 0.1468369294 -0.5377860998 0.146520668 -0.5385456439 -0.016919621 0.1795380341
620296280.0 -0.0510290956 0.1799269263 0.1413436277 -0.5392342962 0.1408146382 -0.5393060969 -0.015373525 0.1799251898
625296250.0 -0.0494303364 0.1804952674 0.1357020454 -0.5411714735 0.1353674269 -0.5412502686 -0.0124140545 0.1802994413
630296220.0 -0.0466981417 0.1815032251 0.1288671408 -0.5425184184 0.1291609925 -0.5422596472 -0.0113850601 0.1803752054
635296190.0 -0.0460058317 0.1817561605 0.1234265576 -0.5431284864 0.1233137415 -0.5440389731 -0.0089999346 0.1807767898
640296160.0 -0.0441278075 0.1826616635 0.1179867876 -0.5447859299 0.1179152199 -0.5446000852 -0.007067268 0.1806709046
645296130.0 -0.0421788422 0.183085649 0.1116539434 -0.5459567334 0.1117461485 -0.5459905184 -0.0049681633 0.1812735791
650296100.0 -0.040466427 0.1836673109 0.1057760385 -0.5469515503 0.1060498623 -0.5468861403 -0.0026874939 0.1808369793
655296070.0 -0.0388053854 0.1841603066 0.0998131778 -0.5485680934 0.0999552484 -0.5481667165 -0.0004609259 0.1815398474
660296040.0 -0.0371978973 0.1843574265 0.0941248772 -0.5493240246 0.0939627258 -0.5494310705 0.0016814323 0.1815804333
665296010.0 -0.0348887875 0.184956397 0.0880534668 -0.5501047202 0.0879840244 -0.5502229036 0.0036496748 0.1820489484
670295980.0 -0.0340784585 0.1855897697 0.0822656283 -0.5510622428 0.0820988477 -0.5514377945 0.0052150997 0.1817669543
675295950.0 -0.0315662816 0.1859750903 0.0764085475 -0.5518952234 0.0761442967 -0.551155434 0.0071223128 0.1822158403
680295920.0 -0.0299964445 0.1862500358 0.0696845542 -0.5522554191 0.0695649881 -0.5528684483 0.0095677031 0.1829416724
685295890.0 -0.0280960633 0.1873872391 0.0641298275 -0.553492157 0.0643465875 -0.5535658207 0.0115352747 0.1825633116
690295860.0 -0.0259765338 0.1873377034 0.0582498405 -0.5537698173 0.058356616 -0.5540619054 0.0134644008 0.1831275911
695295830.0 -0.0244261489 0.1878079393 0.0523954404 -0.5542765439 0.0519397366 -0.5545402726 0.015411484 0.1831061543
700295800.0 -0.0222192897 0.1876882577 0.0459281072 -0.5545169041 0.0458827748 -0.5548118438 0.0172912395 0.1832291597
705295770.0 -0.0207476514 0.1887407725 0.0401989672 -0.5551567933 0.0405657837 -0.55575078 0.0194254061 0.1834721136
710295740.0 -0.0186051742 0.1889520527 0.0341990419 -0.5560665905 0.034683296 -0.556359141 0.0213818665 0.1826033996
715295710.0 -0.0174497245 0.1892747312 0.0288515165 -0.5562663121 0.0283108966 -0.5561135309 0.0236312548 0.1828835301
720295680.0 -0.0154362866 0.1895720772 0.0224825543 -0.5568011861 0.0225016672 -0.5565405599 0.0257573151 0.1832589012
725295650.0 -0.0132302682 0.1896939283 0.0162166296 -0.5567117653 0.0165234206 -0.5569424394 0.0272154494 0.1832069148
730295620.0 -0.011446454 0.1903693599 0.0102362005 -0.5565039862 0.0104403351 -0.556707204 0.0290849778 0.1824534442
735295590.0 -0.0096237523 0.1907140861 0.0042386259 -0.5571498415 0.0040763588 -0.5568170852 0.0311400238 0.1822990458
740295560.0 -0.008101245 0.190665675 -0.0013434107 -0.5569025818 -0.0017935298 -0.5570561599 0.033904004 0.1823959569
745295530.0 -0.0059312155 0.1913546586 -0.0078701354 -0.5563466771 -0.008046052 -0.5565716903 0.0358765535 0.1816508615
750295500.0 -0.0039538083 0.191233697 -0.0135903352 -0.5562659491 -0.0135506764 -0.5568997309 0.0373427855 0.181762353
755295470.0 -0.0019489315 0.1911677877 -0.0197137815 -0.5560638192 -0.0199639128 -0.5567600274 0.0397498705 0.1809910339
760295440.0 -0.0004990963 0.1915118059 -0.0253003333 -0.5560711582 -0.025970501 -0.5564671375 0.0414452986 0.180934024
765295410.0 0.0016251716 0.1918066101 -0.0316909021 -0.5558633941 -0.0323500703 -0.5560210013 0.0436836805 0.1809103811
770295380.0 0.0031724329 0.1915999159 -0.0380834586 -0.5553356649 -0.0378506891 -0.5552958428 0.0449663649 0.1799847621
775295350.0 0.004649875 0.1913335079 -0.0437235 -0.5544095194 -0.0436094905 -0.5550007801 0.0467936965 0.1797387412
780295320.0 0.0071396068 0.1916952444 -0.0499147169 -0.5537315236 -0.0490979893 -0.5543358263 0.0489358967 0.1791218599
785295290.0 0.0083908927 0.1912812609 -0.0557066316 -0.5531155241 -0.05554985 -0.5534281625 0.0516532199 0.1787902651
790295260.0 0.0109125435 0.1920771173 -0.0610788369 -0.5527356149 -0.0611949969 -0.5528830099 0.0532688573 0.1781835567
795295230.0 0.0126752253 0.1918318115 -0.0672296795 -0.5521317554 -0.0669247787 -0.5524486651 0.0555639091 0.1780901514
800295200.0 0.0144967788 0.1921320792 -0.0737911908 -0.5512435777 -0.0735695217 -0.5512633937 0.0574274314 0.1773537901
805295170.0 0.0163825533 0.1915401323 -0.0789828559 -0.5501900982 -0.0794648727 -0.550693143 0.0593646903 0.177285403
810295140.0 0.0178472035 0.1912186354 -0.0850430536 -0.5492566591 -0.0850044435 -0.54958469 0.0618110055 0.1765836232
815295110.0 0.0201232796 0.1912597137 -0.0911289244 -0.5483497677 -0.0909421232 -0.548952845 0.0633241484 0.1762383265
820295080.0 0.0215261543 0.1918649002 -0.0970164003 -0.5477639974 -0.0964849212 -0.5474642004 0.0655247087 0.175365219
825295050.0 0.0241293168 0.1915508942 -0.1029020624 -0.5462268791 -0.1025408122 -0.5463979298 0.0675359725 0.1751175218
830295020.0 0.0253129514 0.1916778598 -0.108867746 -0.5452411203 -0.1084355911 -0.5447480986 0.0700703628 0.1744343732
