!Created with skrf (http://scikit-rf.org).
# Hz S RI R 50.0 
!freq ReS11 ImS11 ReS21 ImS21 ReS12 ImS12 ReS22 ImS22
300000.0 -0.2398178051 -0.0830758103 0.4730317041 0.0552051552 0.468125711 0.0543137468 -0.2415825276 -0.0961413334
5299970.0 -0.2445427677 0.007110104 0.4742874543 0.0046931546 0.4737421389 0.0054899511 -0.2444099945 0.0073007331
10299940.0 -0.2411096449 0.0187138622 0.4753256566 0.0059855497 0.4756111982 0.0064034795 -0.2407791355 0.0201795483
15299910.0 -0.2365670778 0.0277953967 0.4791136716 0.0079401739 0.4793204177 0.0075675895 -0.2363255477 0.0295098802
20299880.0 -0.2320645298 0.035555013 0.4839423289 0.0082920755 0.4840568089 0.0084736895 -0.2310295028 0.037399978
25299850.0 -0.226910199 0.0420359701 0.4893661434 0.007634671 0.4893239628 0.0076600011 -0.2247930295 0.0440261512
30299820.0 -0.2213403886 0.0470480409 0.494310386 0.0055514339 0.4944076976 0.0054763081 -0.2192676975 0.0491739932
35299790.0 -0.216261202 0.0514458682 0.5000198403 0.0021216915 0.5001626892 0.0021614063 -0.2134102749 0.0532859616
40299760.0 -0.2115091163 0.0550917379 0.5047408353 -0.0018941266 0.5052326652 -0.0018038519 -0.208327513 0.0559710439
45299730.0 -0.2066919951 0.0576166696 0.5095504012 -0.0065439618 0.5098416186 -0.0064289638 -0.2032802979 0.0589472767
50299700.0 -0.2025755212 0.0597500065 0.5141329449 -0.0117778856 0.5142193923 -0.0114484665 -0.1985886552 0.0606468386
55299670.0 -0.198286166 0.0618424398 0.5179022381 -0.0183821546 0.5177198299 -0.0179427065 -0.194662604 0.0621650764
60299640.0 -0.1942002894 0.0637082033 0.5211491599 -0.0244298062 0.5216114294 -0.0242148152 -0.1905934029 0.0632420649
65299610.0 -0.1910193035 0.0648720657 0.5239493834 -0.0307181868 0.5244278201 -0.0306158845 -0.1870321921 0.0640994396
70299580.0 -0.1878638768 0.0659542963 0.5270873573 -0.0369437491 0.5264928951 -0.0371828404 -0.1838156832 0.064942199
75299550.0 -0.1851171555 0.0671817735 0.5282970592 -0.0437572442 0.528449721 -0.0439767341 -0.1811492539 0.0650107007
80299520.0 -0.182510786 0.0680834862 0.5306241273 -0.0505880433 0.5306986796 -0.051027149 -0.1782265356 0.0658961833
85299490.0 -0.1801592204 0.0687387341 0.5316190986 -0.057302228 0.5316979916 -0.0572916162 -0.1759077548 0.0661631385
90299460.0 -0.1778372856 0.0697374214 0.5323243264 -0.0645019276 0.5328187872 -0.0644188314 -0.1737100942 0.0667136359
95299430.0 -0.1755624411 0.070390004 0.5340651434 -0.0712846629 0.5336042243 -0.0717081423 -0.171560158 0.0673304387
100299400.0 -0.1738145298 0.0715405184 0.5337597033 -0.0781829174 0.5342691746 -0.0782824655 -0.1695850277 0.0673492116
105299370.0 -0.1721037241 0.0723645862 0.5342497538 -0.0858959732 0.5345754344 -0.0854862898 -0.1676642679 0.068228439
110299340.0 -0.170476622 0.0733635202 0.5347581101 -0.0918069531 0.534380156 -0.0920592209 -0.1665131442 0.0683700223
115299310.0 -0.1688149691 0.0738323904 0.5343246765 -0.0993323077 0.5344616775 -0.099094397 -0.164891118 0.0689913916
120299280.0 -0.1674790249 0.0745933915 0.5342162578 -0.1054077301 0.5341634394 -0.1060674136 -0.163440687 0.0694065943
125299250.0 -0.1659439723 0.0755057829 0.5337752435 -0.1124470469 0.5340749108 -0.1125454626 -0.1625553577 0.0697928574
130299220.0 -0.1649938822 0.0767102534 0.5327434908 -0.1195466163 0.5332649352 -0.1193613585 -0.1612154756 0.070207971
135299190.0 -0.1637803115 0.0776726446 0.5331229301 -0.1259230517 0.5325694133 -0.1258292157 -0.1600325459 0.071042139
140299160.0 -0.1627597129 0.0790188955 0.5317624194 -0.1326834052 0.5320032204 -0.1328029018 -0.1589856271 0.0722673474
145299130.0 -0.1614951466 0.0799003943 0.5313320011 -0.1392711332 0.5311585964 -0.1389974509 -0.1580139915 0.0725775915
150299100.0 -0.1601708294 0.081238191 0.5297878669 -0.1453731379 0.5301718946 -0.1455866568 -0.156883281 0.0739961614
155299070.0 -0.1595497739 0.0820288416 0.5286932235 -0.1527949865 0.5288436508 -0.1525926391 -0.1557357065 0.0747870661
160299040.0 -0.1581418768 0.0835644544 0.5272928094 -0.1588692183 0.5271208835 -0.1589788636 -0.1555820132 0.0756521242
165299010.0 -0.1572784519 0.0848939192 0.5257886819 -0.1653535061 0.5257952551 -0.1653064094 -0.1544387761 0.0765967974
170298980.0 -0.1564186454 0.0855965782 0.5240071872 -0.1715461946 0.5244597193 -0.171362895 -0.1535513752 0.07770198
175298950.0 -0.1554340962 0.087123579 0.5230542505 -0.1778449655 0.5225104198 -0.1775178437 -0.1528603687 0.0784757026
180298920.0 -0.1547638657 0.0882760313 0.5207959424 -0.1841208899 0.520974261 -0.1837907861 -0.1519543551 0.0798425194
185298890.0 -0.1534096216 0.089372539 0.5190643638 -0.190349109 0.5188402707 -0.1901117814 -0.1514639196 0.0809762791
190298860.0 -0.1528166225 0.0911558132 0.5174444734 -0.1968702571 0.5174604696 -0.1965573217 -0.1506232769 0.081764121
195298830.0 -0.1515264563 0.0923859942 0.5153868398 -0.2031472693 0.5153644788 -0.2021702603 -0.1495973755 0.0827920498
200298800.0 -0.1506397666 0.0935235311 0.5130976487 -0.2087717463 0.5129835394 -0.2089087418 -0.1493805608 0.0841633206
205298770.0 -0.1499838582 0.0950580165 0.5105985287 -0.2151280918 0.5111433882 -0.2149292827 -0.1486442222 0.0848875051
210298740.0 -0.14895211 0.0962414748 0.5086543767 -0.2203687299 0.5087827569 -0.2208186274 -0.1473869988 0.0866628504
215298710.0 -0.1482508125 0.0978656099 0.5069404998 -0.2269893337 0.5062065529 -0.2272740626 -0.1473352128 0.0877632296
220298680.0 -0.1470718834 0.0987580424 0.5034655347 -0.2325060569 0.5037884328 -0.2328351447 -0.146719962 0.0887825654
225298650.0 -0.1462945959 0.1002689786 0.5012906652 -0.2385729686 0.5012712946 -0.238311997 -0.1461001979 0.0894769151
230298620.0 -0.1451150949 0.1021382207 0.4990486466 -0.2440912566 0.4994716763 -0.2444341508 -0.1454601936 0.0909708219
235298590.0 -0.1439913676 0.103753423 0.4964323469 -0.2498751556 0.4965162765 -0.249420156 -0.1445252393 0.0924508065
240298560.0 -0.1431204838 0.1051506591 0.4934074964 -0.2560692036 0.4933266561 -0.2559016859 -0.1436966189 0.0939258152
245298530.0 -0.142218191 0.1066685967 0.4912844291 -0.2616224924 0.4908557896 -0.2618341617 -0.1428920447 0.0946288525
250298500.0 -0.1408738417 0.1080595698 0.4873540674 -0.2672762641 0.4876216961 -0.2667202733 -0.142584191 0.0957163195
255298470.0 -0.1398247375 0.109081481 0.4842773762 -0.2726396339 0.4852336516 -0.2723582568 -0.1414594193 0.0967432883
260298440.0 -0.1391463761 0.1103496661 0.4819284593 -0.2786463206 0.4821688 -0.2783041659 -0.1405633536 0.0982461999
265298410.0 -0.137469231 0.1125815872 0.4787737421 -0.2839831141 0.4793389872 -0.2834821402 -0.1399892154 0.099368628
270298380.0 -0.1366056806 0.1137217377 0.4760102106 -0.2891005037 0.4763057523 -0.2889844819 -0.1388718458 0.1004942346
275298350.0 -0.1349678025 0.1152801601 0.4725684481 -0.2948778103 0.4731846819 -0.2943750581 -0.1379471696 0.102021048
280298320.0 -0.134018381 0.1168234627 0.469827081 -0.3001434946 0.4696244479 -0.299878734 -0.1368858931 0.1032555775
285298290.0 -0.1327043385 0.1182366589 0.4664316092 -0.3051572823 0.4665067453 -0.3052295541 -0.1359510957 0.1043062602
290298260.0 -0.131490385 0.1198265747 0.4627495099 -0.3105348947 0.4629878844 -0.3108014263 -0.1347358966 0.1058580715
295298230.0 -0.1301058502 0.1210122746 0.4599084987 -0.3159444245 0.459453058 -0.3155593404 -0.1334662614 0.1067557942
300298200.0 -0.1291952291 0.1224771016 0.4563187691 -0.3209777461 0.4567099981 -0.3214144933 -0.1327362311 0.1079363712
305298170.0 -0.1278506324 0.1236229058 0.4528139445 -0.3266842887 0.452820239 -0.32620752 -0.1311517392 0.1093796625
310298140.0 -0.1265234641 0.1252854464 0.4491269533 -0.3314335009 0.4495140625 -0.3313364398 -0.130461642 0.1102182262
315298110.0 -0.1251018736 0.126235492 0.445620933 -0.3365054536 0.4458357187 -0.3365269853 -0.1295790288 0.1115848651
320298080.0 -0.1237848388 0.1276220841 0.4413395054 -0.3422038317 0.4419656269 -0.3420468224 -0.1286451412 0.1127736839
325298050.0 -0.1224691168 0.1288511179 0.4379431593 -0.3471526176 0.4379794777 -0.3467192209 -0.1280008406 0.1139478013
330298020.0 -0.1213836504 0.1300732126 0.4336580373 -0.3517768094 0.4342386347 -0.3519784814 -0.1272708382 0.115030225
335297990.0 -0.1202553573 0.1313497993 0.4299535889 -0.3564335729 0.4299668186 -0.3566766679 -0.12653616 0.1169295052
340297960.0 -0.119294583 0.1331996601 0.425585862 -0.3614833912 0.4253510517 -0.361641356 -0.1249154737 0.1180732625
345297930.0 -0.1177610394 0.1349483919 0.4214817928 -0.366512548 0.4214479017 -0.3661260826 -0.124161367 0.1191253219
350297900.0 -0.116666627 0.135570477 0.4170273522 -0.371201363 0.417404906 -0.3708505208 -0.1234088546 0.1213400326
355297870.0 -0.1150473079 0.1376353302 0.4134190605 -0.3755635076 0.413419161 -0.3754941407 -0.1224917685 0.1222436398
360297840.0 -0.1137137812 0.1387190215 0.4096716211 -0.3798967441 0.4097358846 -0.3792394893 -0.1213234807 0.1235636338
365297810.0 -0.1125845045 0.1404157102 0.4048540462 -0.3845929085 0.4049956937 -0.3844188463 -0.1198394623 0.1248620769
370297780.0 -0.1106733664 0.1415736313 0.4006549345 -0.3890586741 0.4009617362 -0.3884231705 -0.1190790048 0.1264381684
375297750.0 -0.1091434637 0.1428361155 0.3965852432 -0.3932155361 0.3970250233 -0.3931137125 -0.1180091093 0.1273434522
380297720.0 -0.1076807013 0.1442583203 0.391917816 -0.3979657747 0.3924335299 -0.3969393047 -0.1174544281 0.1284600412
385297690.0 -0.1066207077 0.1456319198 0.387350356 -0.4017767866 0.3876151313 -0.401981634 -0.1157241512 0.1300407303
390297660.0 -0.1048850246 0.1471348845 0.3831569138 -0.4061345892 0.3831887074 -0.405749599 -0.1148745896 0.1312134229
395297630.0 -0.1033639466 0.14824588 0.3789480081 -0.4100940396 0.3788972023 -0.4105143785 -0.1132918856 0.1327404323
400297600.0 -0.1015548562 0.149730439 0.3740373864 -0.4144932466 0.3743855964 -0.4145806624 -0.1121855751 0.1337413565
405297570.0 -0.1004504811 0.1506800048 0.3695820214 -0.4182531796 0.3696674195 -0.4181829646 -0.111121738 0.1349351645
410297540.0 -0.098405236 0.1519358858 0.3651358244 -0.4228772517 0.3655627791 -0.422555091 -0.1100755408 0.1364752146
415297510.0 -0.0966300983 0.1529537602 0.3602318732 -0.4266936 0.3604362226 -0.4267532683 -0.1085919326 0.1374262252
420297480.0 -0.0956082133 0.1547673418 0.3560120908 -0.430909608 0.3554314579 -0.4303787962 -0.1073943737 0.1384798738
425297450.0 -0.0935112179 0.1552841174 0.3509868328 -0.4340841134 0.3515830024 -0.4344788224 -0.1065633517 0.1399636627
430297420.0 -0.091776233 0.1567305843 0.3461452577 -0.4376700026 0.3464180272 -0.4376967236 -0.1053048058 0.140563298
435297390.0 -0.090151461 0.1580708518 0.3407489024 -0.4418648707 0.3413375405 -0.4418585423 -0.103352906 0.1418012787
440297360.0 -0.0881963464 0.1588417982 0.3364291333 -0.4453368605 0.3364391712 -0.4457635707 -0.1022417923 0.1428807752
445297330.0 -0.0867534429 0.1598920086 0.3319121408 -0.4490534757 0.3317148582 -0.4486029038 -0.1007051133 0.1436589992
450297300.0 -0.0849496593 0.1609587479 0.3267517529 -0.4526712325 0.3267433799 -0.4531750398 -0.0995422599 0.1446600704
455297270.0 -0.083084548 0.1619965952 0.321774262 -0.4560915765 0.3218702235 -0.4565273791 -0.0981358712 0.1456742198
460297240.0 -0.081817571 0.1632521614 0.3166413404 -0.4597781943 0.3168868501 -0.4597122999 -0.0967754825 0.147350521
465297210.0 -0.0794337354 0.1643312849 0.3117516581 -0.463741038 0.3116614102 -0.4636954337 -0.0951229613 0.1479417919
470297180.0 -0.0775540366 0.165144334 0.3061607513 -0.4667849681 0.3065597103 -0.4665463722 -0.0937561191 0.1493130224
475297150.0 -0.0759785504 0.1658986357 0.3011835062 -0.4699015394 0.3015242452 -0.4691934878 -0.0917048476 0.1499791716
480297120.0 -0.0740257774 0.167290008 0.2958970476 -0.4732712812 0.2962284252 -0.4735701612 -0.090151643 0.1511862204
485297090.0 -0.0725023124 0.168142227 0.2911059644 -0.4760049289 0.2911567717 -0.4760894224 -0.089029441 0.1520549202
490297060.0 -0.0706097256 0.169090193 0.2861311904 -0.4796202986 0.2860711259 -0.4791926828 -0.087692416 0.1534717479
495297030.0 -0.0687464699 0.1703717819 0.2804803399 -0.4827020188 0.2809438816 -0.4822019555 -0.0863338163 0.1543810919
500297000.0 -0.0668545915 0.1707879403 0.2751018431 -0.4854570702 0.2752445645 -0.4848541101 -0.0845275604 0.1557473299
505296970.0 -0.0646404304 0.171521034 0.2697810588 -0.4880520218 0.2698705884 -0.4883329673 -0.0834319434 0.1565834495
510296940.0 -0.0631269127 0.1724147795 0.2644290945 -0.4913525935 0.2646617782 -0.4914257049 -0.0815975629 0.1575644163
515296910.0 -0.0612546107 0.1736592961 0.2592229193 -0.4943349071 0.2593291193 -0.4942919954 -0.0798444011 0.1587073233
520296880.0 -0.0593747431 0.1744325136 0.2539892731 -0.4971437072 0.2540311635 -0.4967618873 -0.0786318918 0.1593501428
525296850.0 -0.0570386903 0.1745418707 0.2480565345 -0.4996528514 0.248803652 -0.4994528179 -0.0773265456 0.160559558
530296820.0 -0.0553436038 0.1758951143 0.2429214036 -0.5023593783 0.2430272659 -0.5022384218 -0.075549938 0.1612591506
535296790.0 -0.0537397593 0.1763679038 0.2380813483 -0.5047319208 0.2374165514 -0.504656822 -0.0742178917 0.1618221024
540296760.0 -0.0518398968 0.1776623448 0.232023269 -0.5078039809 0.2320349196 -0.507414217 -0.0730659391 0.1634531176
545296730.0 -0.0499233689 0.1782788427 0.2261833805 -0.5099164783 0.2264385992 -0.5098232809 -0.0712467548 0.1639232927
550296700.0 -0.0473784742 0.1789609778 0.2205780147 -0.5121435908 0.2212174827 -0.5126891743 -0.0696729982 0.1651190468
555296670.0 -0.0458603721 0.1795081475 0.2155375417 -0.5145724689 0.2155660441 -0.5143512365 -0.0679154433 0.1661842705
560296640.0 -0.0435498347 0.1804307023 0.209776546 -0.5171393556 0.2099124969 -0.5168513268 -0.0663798348 0.1664578298
565296610.0 -0.0418636843 0.1809014321 0.2040209541 -0.5194384016 0.2043984837 -0.5192325397 -0.065033516 0.1671791721
570296580.0 -0.0399824448 0.1814812781 0.1986915278 -0.5217820785 0.1979669821 -0.5214255605 -0.0638153843 0.168460963
575296550.0 -0.0380575707 0.182413681 0.1930979776 -0.5239778825 0.1927648357 -0.523551477 -0.0614684824 0.1688942407
580296520.0 -0.0358243624 0.182632975 0.1872605228 -0.525939146 0.187176223 -0.5251036525 -0.0601529687 0.1694245206
585296490.0 -0.0340458818 0.1828982343 0.1815195742 -0.5272531029 0.1814821337 -0.5274767887 -0.0584332754 0.1703340861
590296460.0 -0.0315841267 0.1833165357 0.1756663692 -0.5290858977 0.1758883873 -0.5293405253 -0.0575416261 0.1711756185
595296430.0 -0.0296951028 0.1840414997 0.1696305658 -0.5313521303 0.1699783389 -0.5314178462 -0.0554762804 0.1714739168
600296400.0 -0.0279023152 0.1845104467 0.1641065738 -0.53308465 0.1641498435 -0.5329750117 -0.053968152 0.1721116429
605296370.0 -0.0260204785 0.1851874502 0.1586522933 -0.5345836829 0.1584522468 -0.5343355351 -0.0520891656 0.1728829387
610296340.0 -0.0236229375 0.1853297364 0.1517857941 -0.5360848143 0.1527589676 -0.5362520904 -0.0503909696 0.1732530328
615296310.0 -0.0214327423 0.1856320043 0.146117566 -0.5379429443 0.1464530964 -0.5379017748 -0.0483363093 0.1743173043
620296280.0 -0.0196740507 0.185634697 0.1407733743 -0.5392862179 0.1409449234 -0.5389678026 -0.0471527853 0.1744105593
625296250.0 -0.0176588875 0.1859474786 0.135433073 -0.541227458 0.1352172737 -0.5411929144 -0.0449157426 0.1750459961
630296220.0 -0.0148829831 0.1866545943 0.1284617407 -0.542330028 0.1289273574 -0.5424335303 -0.0433388655 0.1760295422
635296190.0 -0.0137089694 0.1866664177 0.122787366 -0.5432916963 0.1235958746 -0.5433946637 -0.0412463691 0.1762495549
640296160.0 -0.0116775784 0.1874247969 0.1171372358 -0.5447511787 0.1176490473 -0.5451620768 -0.0396774524 0.1768514225
645296130.0 -0.0094340939 0.1876528816 0.1111757496 -0.5455844405 0.111611493 -0.5460553741 -0.0380354744 0.177675985
650296100.0 -0.0073439587 0.1876902637 0.1053210531 -0.547073128 0.1057435914 -0.5470932846 -0.0359217 0.1772197166
655296070.0 -0.0055263987 0.1875452192 0.0996236234 -0.5483066279 0.0997643848 -0.5481214454 -0.0342069154 0.1780964715
660296040.0 -0.0036065283 0.1877870828 0.0936011367 -0.5491428674 0.0938637984 -0.5492204686 -0.0324530788 0.1788265597
665296010.0 -0.0008439467 0.1879730833 0.0874073286 -0.5503258075 0.0874278777 -0.5502875732 -0.0306101096 0.1799543066
670295980.0 0.0003819299 0.1882698103 0.081688902 -0.5508618056 0.0820109957 -0.5510519527 -0.0292332422 0.1799579143
675295950.0 0.0025233219 0.1884233947 0.0760813233 -0.5515970714 0.0758013124 -0.5512713447 -0.0275000162 0.1802593897
680295920.0 0.0046400279 0.1884481174 0.0695135046 -0.552460068 0.0693312571 -0.5527929678 -0.0257490251 0.1815361385
685295890.0 0.0071554579 0.1890581412 0.0637680158 -0.5531118566 0.0634962733 -0.5534415222 -0.0238714567 0.1815972135
690295860.0 0.0091326949 0.1888594151 0.0578438479 -0.5531278853 0.0579855974 -0.5543310302 -0.0224495128 0.1825150819
695295830.0 0.010953949 0.1885447668 0.0520753728 -0.5541457863 0.0515184884 -0.5541965515 -0.0205055661 0.1826543801
700295800.0 0.0132307342 0.1884852028 0.0456929742 -0.5546209921 0.0457143611 -0.5546850266 -0.0190199461 0.1834092784
705295770.0 0.0151552044 0.1892921293 0.0399681815 -0.5556093568 0.0401829676 -0.5557373389 -0.0169807366 0.1839127333
710295740.0 0.0174965984 0.1891767264 0.0342733185 -0.5562684031 0.0343304719 -0.5561514456 -0.0151057949 0.1836521517
715295710.0 0.0189698508 0.1886443726 0.0286987017 -0.5560385587 0.0279195297 -0.5560274696 -0.013509839 0.1839038652
720295680.0 0.0212774497 0.1885407479 0.0217947567 -0.5563267483 0.0222358242 -0.55626304 -0.0115422405 0.184571737
725295650.0 0.0238673978 0.188714819 0.015894943 -0.5566104436 0.0159492042 -0.5566212837 -0.0103514112 0.184986101
730295620.0 0.0259086126 0.1890249226 0.0102458152 -0.556593575 0.0101776389 -0.5567127598 -0.0087842402 0.1849940183
735295590.0 0.027709211 0.1885347976 0.0037974531 -0.5569203974 0.0039066172 -0.5564968979 -0.0067165725 0.184610369
740295560.0 0.0296450291 0.1885520175 -0.0024240051 -0.5563425305 -0.0019975108 -0.5570814503 -0.0044321508 0.1855482791
745295530.0 0.0319027988 0.1884152797 -0.0078465545 -0.5563404508 -0.0080151497 -0.5563988487 -0.0029324686 0.1853147168
750295500.0 0.0340291929 0.1881302185 -0.0143326758 -0.5562265294 -0.0140243222 -0.5564674076 -0.0013748602 0.1855149417
755295470.0 0.0361471584 0.1874977843 -0.0199268613 -0.5561012676 -0.0199096999 -0.5561248248 0.000881506 0.1851332002
760295440.0 0.0379118702 0.1873237137 -0.0260029377 -0.5560562282 -0.0261205362 -0.5565913113 0.002290248 0.1855108043
765295410.0 0.040047754 0.1872508355 -0.0323505137 -0.5554323813 -0.0323035575 -0.5556633201 0.0045896301 0.1859917228
770295380.0 0.0418362376 0.1868353115 -0.0382461861 -0.5551141629 -0.038544294 -0.5551380144 0.005797886 0.1855783693
775295350.0 0.0439615841 0.1861621293 -0.0442678103 -0.5541565248 -0.0434751201 -0.5546627545 0.0072155952 0.1858967481
780295320.0 0.0462153849 0.1860874412 -0.0499998254 -0.5537651362 -0.0493235253 -0.5537796419 0.0091821695 0.1855757872
785295290.0 0.0477965118 0.1851019455 -0.0563458634 -0.5528763517 -0.0558428385 -0.5535828102 0.0115450345 0.1858097395
790295260.0 0.0505885853 0.1853786953 -0.0615885502 -0.5527186428 -0.0610001276 -0.5527210467 0.0133521136 0.1858222166
795295230.0 0.0521630973 0.1848075308 -0.0677654913 -0.5522304735 -0.0675074052 -0.5524032827 0.0153332421 0.1862252092
800295200.0 0.0541882987 0.1846190118 -0.0745082774 -0.5509281275 -0.0737446042 -0.5512733768 0.0175165997 0.1858041007
805295170.0 0.056434022 0.1837796394 -0.0802302121 -0.5499956034 -0.0795763566 -0.5504044407 0.0188295074 0.1860693782
810295140.0 0.0580064804 0.1830329243 -0.0850871682 -0.5490137387 -0.0855411071 -0.5496477267 0.0211428949 0.1859547722
815295110.0 0.0604382211 0.1825680391 -0.0912168633 -0.5483022587 -0.0910833981 -0.5484909089 0.022716068 0.1863206975
820295080.0 0.0617292836 0.1823164749 -0.0972495564 -0.5469418195 -0.0969601787 -0.5471311722 0.024509437 0.186050494
825295050.0 0.0645854587 0.1814967546 -0.102469291 -0.5456863444 -0.1030613397 -0.5461108166 0.0266665709 0.1860073115
830295020.0 0.0663881244 0.1813538067 -0.1091949645 -0.544681697 -0.1093263108 -0.5447445143 0.0291595468 0.1859307866
