!Created with skrf (http://scikit-rf.org).
# Hz S RI R 50.0 
!freq ReS11 ImS11 ReS21 ImS21 ReS12 ImS12 ReS22 ImS22
300000.0 -0.7782737235 -0.1138831647 -0.0004604494 -2.63535e-05 0.0004599563 6.58976e-05 0.8587712232 -0.0029507724
5299970.0 -0.7856580671 -0.0065628518 0.0002392431 4.16848e-05 1.41527e-05 -9.80671e-05 0.8594673354 -0.0097657498
10299940.0 -0.7879819985 -0.0047267089 -0.0001066787 1.00242e-05 -9.09416e-05 -2.84734e-05 0.8582549422 -0.0186537402
15299910.0 -0.7931403784 -0.0023170112 -0.0001039014 5.66386e-05 0.0001561046 -2.20388e-05 0.8575086432 -0.0271978116
20299880.0 -0.8005504862 0.0013156862 -2.25856e-05 0.0001020565 0.0001715281 3.20261e-05 0.8568956218 -0.0354053543
25299850.0 -0.8067898217 0.0071295197 -2.51397e-05 -0.000332283 0.000179472 0.0001020847 0.8561963331 -0.04378118
30299820.0 -0.8123144985 0.0148304559 5.52684e-05 -0.0002496394 -0.0001693369 5.54115e-05 0.8554645222 -0.0515643992
35299790.0 -0.8172464869 0.0238344596 -4.67499e-05 0.0001156255 3.29401e-05 -8.2791e-05 0.8549296227 -0.0596429189
40299760.0 -0.8216526076 0.0334603039 -8.25232e-05 -0.0001468247 -3.63604e-05 4.94038e-05 0.853740235 -0.0681424212
45299730.0 -0.8244954178 0.0422691497 3.3669e-06 -7.16795e-05 -6.806e-07 -6.40489e-05 0.8528661178 -0.0763019959
50299700.0 -0.8269128591 0.0526743234 3.82861e-05 5.51821e-05 -3.79755e-05 -9.30534e-05 0.8521966679 -0.0839806001
55299670.0 -0.8293915465 0.0626675215 0.0002325062 4.2155e-06 2.02744e-05 0.0001352667 0.8515168404 -0.0926845657
60299640.0 -0.830414302 0.0729653873 -0.0001181157 -8.94131e-05 -0.0002220316 -2.52815e-05 0.8503051647 -0.1007818167
65299610.0 -0.8313674876 0.0828881413 7.8935e-06 6.14146e-05 -0.0001501417 -2.39625e-05 0.8497236743 -0.1091629673
70299580.0 -0.8317238146 0.0933966648 -6.03869e-05 0.0001288884 0.0001001405 0.0003320553 0.8485936052 -0.1167484335
75299550.0 -0.8318813538 0.1034401142 0.0001161024 5.27014e-05 -0.000141966 -8.87288e-05 0.8468330003 -0.1259588949
80299520.0 -0.8317357245 0.1127240124 0.0001841421 -0.0001966214 -0.0001161816 -0.0002594784 0.8462485185 -0.1336977763
85299490.0 -0.8308774785 0.1226391507 3.03822e-05 -0.000218332 5.60129e-05 -0.0001060487 0.8449724519 -0.1417467248
90299460.0 -0.8303019695 0.1318019461 0.0001895986 1.38463e-05 -2.0565e-05 0.0001024107 0.8430156375 -0.1499063953
95299430.0 -0.8289743562 0.1414760628 5.79669e-05 -0.0001748475 -0.0001520855 4.46915e-05 0.8409621693 -0.1577563472
100299400.0 -0.8280763546 0.1504126615 6.95968e-05 -9.3155e-06 3.30244e-05 -0.0002155127 0.8397972194 -0.1665657641
105299370.0 -0.8268180771 0.1602048926 -0.0001875712 2.6767e-06 -0.0002810785 -6.41912e-05 0.8383629428 -0.1746466987
110299340.0 -0.8259241589 0.1691001139 0.0001070114 2.70555e-05 0.0001025906 -0.0001460702 0.8369365187 -0.1825138442
115299310.0 -0.8240651766 0.1786324318 0.000103986 -8.89055e-05 3.4655e-05 0.0001233521 0.8350771419 -0.1905594655
120299280.0 -0.8217731222 0.1870174029 1.62278e-05 0.0001761673 -9.19901e-05 -0.0001080447 0.8329332512 -0.1990694973
125299250.0 -0.8206494877 0.1954988685 1.09253e-05 4.92435e-05 0.0001302953 9.9038e-06 0.8308793718 -0.2061487159
130299220.0 -0.818809863 0.2049879891 0.0001141771 -4.04352e-05 -2.95087e-05 -6.27806e-05 0.8289488081 -0.2146445059
135299190.0 -0.8172023638 0.2138430163 -1.20153e-05 -9.72841e-05 -5.61383e-05 -1.87049e-05 0.8271269931 -0.2225165985
140299160.0 -0.8149642905 0.223137313 0.0001573073 0.0001277121 -5.77717e-05 -2.1902e-06 0.8242189481 -0.2304511162
145299130.0 -0.8130544524 0.2325175703 3.04876e-05 -1.85297e-05 4.94973e-05 0.0001509025 0.8219248156 -0.237894298
150299100.0 -0.8103331224 0.2407597895 0.0001109216 -9.17793e-05 8.7589e-06 -0.000192671 0.8200249226 -0.2468005094
155299070.0 -0.8076225086 0.2494276834 1.95809e-05 -4.63271e-05 -0.0001013562 -0.0002227076 0.8172561638 -0.2542371058
160299040.0 -0.805096139 0.2574629431 -0.0001273536 5.35895e-05 -2.35583e-05 -7.40433e-05 0.8143572097 -0.2618183832
165299010.0 -0.8029857213 0.2667151901 -8.19614e-05 4.26329e-05 2.36519e-05 -2.80081e-05 0.8112220257 -0.2698818248
170298980.0 -0.8000602274 0.2750139775 -4.37382e-05 -7.04236e-05 -5.99198e-05 2.54165e-05 0.809211406 -0.2775935973
175298950.0 -0.7976365146 0.2842102897 6.05613e-05 4.48156e-05 -0.0001053617 6.61854e-05 0.8068367029 -0.2859283568
180298920.0 -0.7950468807 0.2922779683 0.0001018095 -9.59768e-05 7.7775e-06 -0.0001128038 0.8031572799 -0.2933879512
185298890.0 -0.7911807703 0.3008767919 7.39233e-05 7.36944e-05 -4.07066e-05 -0.0001719915 0.8005519327 -0.3014353356
190298860.0 -0.788462509 0.3093684945 4.79477e-05 0.000123446 -3.5269e-05 -4.73117e-05 0.7977864147 -0.3087344616
195298830.0 -0.7854542265 0.3178774268 0.0001606415 -9.70108e-05 -0.0001050922 1.34657e-05 0.7947478525 -0.3164767827
200298800.0 -0.7813078579 0.3257571655 -0.0001277132 0.0001380318 2.95594e-05 5.12007e-05 0.7916152239 -0.324483081
205298770.0 -0.779051175 0.3335083016 -3.21493e-05 0.0001133118 0.0001707758 -0.000144592 0.7881962026 -0.332198088
210298740.0 -0.7750630838 0.3417435902 -2.67578e-05 -7.5671e-06 -0.0002306084 -0.0001271256 0.784693631 -0.3392771525
215298710.0 -0.7722329127 0.3502456054 -0.0003148896 4.46778e-05 8.68724e-05 0.0001275123 0.7817593626 -0.3471203932
220298680.0 -0.7674756282 0.3579721677 -5.22234e-05 6.12567e-05 -9.20576e-05 -6.993e-05 0.7783468437 -0.3546852101
225298650.0 -0.7647233548 0.3656967422 -6.13496e-05 -0.0002126105 0.0001425646 0.0001015823 0.774618931 -0.3622257626
230298620.0 -0.7604821812 0.3743019403 6.6744e-06 7.81632e-05 -1.37139e-05 0.0001258787 0.7712332886 -0.3695623404
235298590.0 -0.7566552506 0.3829307729 -0.0002650865 0.0001814464 6.826e-05 6.51413e-05 0.76768514 -0.3772592452
240298560.0 -0.7526188045 0.3907670406 -0.0001768218 1.67465e-05 3.30239e-05 4.68728e-05 0.7638565854 -0.3844716064
245298530.0 -0.7488765211 0.3979310095 0.0001072085 6.28636e-05 7.07575e-05 1.00496e-05 0.7600135719 -0.3920910485
250298500.0 -0.7441174959 0.4061720041 1.46906e-05 -3.1432e-05 -1.11124e-05 0.0002040331 0.7567786768 -0.3993787249
255298470.0 -0.7398128211 0.4132258134 -0.0001462685 -0.0001369522 4.8194e-05 0.000253749 0.7526947416 -0.4068115861
260298440.0 -0.7358699588 0.4213381672 -0.0001006475 6.14858e-05 4.61189e-05 -0.0002862533 0.7484784956 -0.4134347653
265298410.0 -0.731870228 0.4294202053 0.0001395212 5.9862e-06 0.000147277 -5.20223e-05 0.7447333082 -0.4207080575
270298380.0 -0.7274728039 0.436634158 0.0002312751 6.6585e-06 -0.000140413 -0.0001248262 0.7410506895 -0.4280622965
275298350.0 -0.722265726 0.4446140341 5.61546e-05 -4.65998e-05 -6.64353e-05 -0.0001850306 0.7368322699 -0.4346426713
280298320.0 -0.71714567 0.4517734385 -0.0001233205 1.59886e-05 4.29449e-05 3.73764e-05 0.7332152344 -0.4425787388
285298290.0 -0.7136782659 0.4595572018 -0.000198905 2.55479e-05 0.0002361431 0.0001224915 0.728405184 -0.4498025277
290298260.0 -0.7081872358 0.4672198289 9.93527e-05 4.53669e-05 -0.0001277385 6.49434e-05 0.7245570789 -0.4565960369
295298230.0 -0.7032733143 0.474136103 6.883e-05 -2.2357e-05 -0.0001831593 -0.0001461308 0.7207190757 -0.4633324752
300298200.0 -0.6980336728 0.4814351476 -2.00799e-05 -5.38782e-05 4.394e-07 3.52979e-05 0.7158610738 -0.4707756497
305298170.0 -0.6926570012 0.4878928457 0.0001094771 -8.01786e-05 -0.0001483158 -3.91489e-05 0.7116917234 -0.478795736
310298140.0 -0.6882052859 0.4958925335 0.0001523097 -3.96122e-05 4.5231e-06 0.0001032315 0.7063585764 -0.4865551074
315298110.0 -0.6830877551 0.5030828147 6.14949e-05 -0.0003101279 -0.0001023911 7.8821e-05 0.7013249654 -0.4935248541
320298080.0 -0.6776694376 0.5100785123 4.64591e-05 -0.0001059753 -4.7967e-06 -0.0001063962 0.6962165773 -0.5008693453
325298050.0 -0.6721183027 0.5169472164 7.13e-06 -0.0001661587 -7.4742e-06 1.51549e-05 0.6906914008 -0.5083058557
330298020.0 -0.6664527344 0.5240455487 -3.99412e-05 0.0001260032 1.03e-05 4.67748e-05 0.6838750728 -0.514521468
335297990.0 -0.6612156621 0.5305373192 2.84947e-05 1.90437e-05 -2.77289e-05 5.65039e-05 0.6792549447 -0.5204529162
340297960.0 -0.6558425587 0.5370849935 -6.8369e-05 0.0002670814 1.37739e-05 0.0001119407 0.6742604667 -0.526975812
345297930.0 -0.6504650894 0.543767317 -6.26348e-05 -3.37928e-05 6.0899e-06 7.53976e-05 0.6682559224 -0.5339271703
350297900.0 -0.644498133 0.5507828886 5.93502e-05 -0.000127798 -0.0001581351 0.0001663549 0.662508611 -0.5390277684
355297870.0 -0.6379467869 0.5579916242 0.0001492075 -9.5722e-06 2.55702e-05 -5.28029e-05 0.6579247955 -0.5459622232
360297840.0 -0.6329336886 0.5633974176 -0.0001129308 -1.06076e-05 1.84801e-05 6.09829e-05 0.6519000518 -0.5527625624
365297810.0 -0.6279769704 0.5700767523 -1.60087e-05 -0.0001483256 -6.19922e-05 2.66714e-05 0.6464774897 -0.5584650162
370297780.0 -0.6213052999 0.5761508556 7.78464e-05 3.21655e-05 6.47782e-05 -0.0001627957 0.6408523648 -0.5642862734
375297750.0 -0.6145851764 0.5827790114 -0.0001855555 -8.40582e-05 -3.94783e-05 8.30327e-05 0.6354411791 -0.5704585174
380297720.0 -0.6089847048 0.5886612912 6.2394e-06 0.000106707 -8.82854e-05 -4.46983e-05 0.629141182 -0.5763296221
385297690.0 -0.6039500745 0.5947775702 -0.0003188393 8.41201e-05 -2.94329e-05 -8.36172e-05 0.6241112741 -0.5823567273
390297660.0 -0.5973426594 0.6010242026 0.0001362305 3.42408e-05 0.0001545197 0.0001117702 0.6176887997 -0.5885870921
395297630.0 -0.5917367735 0.6074526781 0.0001333435 -1.4414e-05 -0.0001799401 -0.0001778759 0.6122732593 -0.5944137375
400297600.0 -0.5841864659 0.6138449844 -0.0001224181 -0.0001021105 9.98894e-05 -0.0001936684 0.6064806547 -0.5996537302
405297570.0 -0.5782864643 0.6190241447 0.0001829441 -0.0002296084 0.0001520938 4.02641e-05 0.6006620709 -0.6058540711
410297540.0 -0.5718863069 0.6250658494 0.000125028 0.000120802 0.0003134449 -6.3153e-05 0.5946548776 -0.6119985178
415297510.0 -0.5649194173 0.6308426463 1.62375e-05 -0.0001713344 1.11544e-05 5.89896e-05 0.5883698739 -0.617719363
420297480.0 -0.5596578402 0.6369086392 3.87747e-05 5.37747e-05 0.0002761438 -4.21208e-05 0.5831060975 -0.6224421653
425297450.0 -0.5520436631 0.6419934309 0.0001276852 -8.68128e-05 -0.000145745 2.1824e-06 0.5766848962 -0.628551506
430297420.0 -0.5460707029 0.6476947857 4.19795e-05 0.000147446 4.331e-05 7.72275e-05 0.5700179623 -0.6342708547
435297390.0 -0.5391368905 0.6530660611 1.85937e-05 -7.09091e-05 9.03089e-05 0.0002416351 0.5636295414 -0.6400003734
440297360.0 -0.5323150188 0.6589102878 1.21738e-05 4.61295e-05 1.7818e-06 -8.18636e-05 0.5575892932 -0.6445308804
445297330.0 -0.5252903632 0.6638241221 7.6888e-05 5.5226e-05 -0.000142716 -0.0001745326 0.5516240065 -0.6509222294
450297300.0 -0.5189466905 0.6688305814 -6.6638e-06 4.66151e-05 0.0001429893 5.29402e-05 0.5445141054 -0.6552850292
455297270.0 -0.5119455606 0.6743183243 9.23048e-05 -6.13891e-05 -5.805e-05 8.98089e-05 0.5384328445 -0.6608575963
460297240.0 -0.5057647236 0.6794610098 -0.000156038 0.0001154992 -4.48566e-05 -7.42906e-05 0.5316096389 -0.6657750119
465297210.0 -0.4985178447 0.6853600511 6.96678e-05 3.13778e-05 -7.27491e-05 3.36187e-05 0.5251500647 -0.6712470913
470297180.0 -0.4907520194 0.6894646529 -0.0002102321 -6.55909e-05 -0.0001493318 -1.50813e-05 0.5186400564 -0.6758974313
475297150.0 -0.4840438983 0.6943325119 3.4145e-05 2.12605e-05 0.0001326937 -0.0001169955 0.5122161901 -0.6809744644
480297120.0 -0.4769622936 0.6996456241 -7.25494e-05 -0.0001215092 0.0001285021 -0.0001057298 0.5057606434 -0.6852956823
485297090.0 -0.469817891 0.704409971 0.0001768461 -4.9391e-05 4.72953e-05 -2.26504e-05 0.4987810838 -0.6900019692
490297060.0 -0.4626231183 0.7085740653 -0.0001313548 0.0002020611 -0.0001502646 -0.000105945 0.4917986858 -0.6957926617
495297030.0 -0.4556630144 0.7135522351 7.9051e-06 -5.0035e-06 -0.0001275932 0.0001552181 0.484499698 -0.6996338061
500297000.0 -0.448065782 0.7179049647 -4.287e-06 -9.52232e-05 0.0001000518 4.24807e-05 0.4776018772 -0.7046450241
505296970.0 -0.4403825198 0.7222944391 -0.0001309665 -5.76876e-05 0.0001337268 4.38341e-05 0.4705711973 -0.7090479208
510296940.0 -0.433817845 0.7267927021 4.23025e-05 -7.38409e-05 -8.37513e-05 -0.0002304517 0.4632367807 -0.7137128517
515296910.0 -0.425340843 0.7305357398 -0.0001099147 0.0002543961 -0.0002392791 0.0001016466 0.4566698683 -0.7176702266
520296880.0 -0.4183510685 0.7357052763 -0.000110697 0.0001896833 -7.72775e-05 -6.44466e-05 0.4492490076 -0.7225343425
525296850.0 -0.4103830292 0.7387291893 7.66258e-05 -0.0001187238 -7.43328e-05 -4.22616e-05 0.4425634101 -0.7264276501
530296820.0 -0.4033759186 0.743277763 -9.46613e-05 0.0001801295 4.17041e-05 0.000134832 0.4352421416 -0.7306298819
535296790.0 -0.3960850205 0.7464587625 -7.77045e-05 0.0002853361 8.25662e-05 -5.53784e-05 0.4280495719 -0.7356792496
540296760.0 -0.388714144 0.7505840955 -0.0001919064 1.0771e-05 0.0002294595 0.0001944389 0.4204806646 -0.7389471993
545296730.0 -0.3808486078 0.7549192573 0.0001871189 6.64915e-05 7.34612e-05 0.000230821 0.413684873 -0.7437494544
550296700.0 -0.3735436966 0.7589933615 -0.0002207226 0.0001656106 0.000161017 0.0001342498 0.4060096838 -0.7482620813
555296670.0 -0.3652348137 0.761905358 -0.0002295936 -9.80473e-05 9.90528e-05 0.0001473787 0.398879081 -0.7511994253
560296640.0 -0.3582406325 0.7665133815 -0.0001301654 0.0001221549 7.4408e-06 9.3953e-05 0.3910244376 -0.754767893
565296610.0 -0.3505623308 0.7696332778 5.41953e-05 -9.59145e-05 0.0001057574 -9.3241e-05 0.3836675276 -0.7587191015
570296580.0 -0.3428782511 0.7723645941 -0.0002503697 -1.98934e-05 -0.0002516948 -7.5387e-05 0.3760367744 -0.7622250129
575296550.0 -0.3348445505 0.7764894083 0.0002295688 0.0003147624 -9.63764e-05 -0.000127547 0.3686772587 -0.7654357079
580296520.0 -0.3269976516 0.7798607979 -0.0002741852 -2.72397e-05 -4.51873e-05 0.0001579 0.3614213248 -0.7696854049
585296490.0 -0.3190795404 0.7819425317 -0.0002798134 -0.000186123 4.80195e-05 -0.0001334444 0.3537972457 -0.7727271364
590296460.0 -0.3111603132 0.7857099166 -0.0001420985 -0.0001486003 -0.0001171756 -0.0001087674 0.3458857175 -0.7760015202
595296430.0 -0.3036773743 0.7882704988 0.0002502219 7.32389e-05 3.61761e-05 8.23931e-05 0.3382141092 -0.7790967585
600296400.0 -0.2958920842 0.7923441789 -0.0001874795 -0.0001975261 2.22411e-05 0.0001012083 0.3309658125 -0.7828849917
605296370.0 -0.2886698855 0.7945512147 8.49544e-05 -0.0002090812 -0.0001106973 -8.33729e-05 0.3231358096 -0.7860090891
610296340.0 -0.2797098654 0.7973390619 6.32376e-05 -7.57261e-05 -0.0001876729 9.99212e-05 0.315116967 -0.788184371
615296310.0 -0.2709205452 0.7999514393 4.45719e-05 0.0001725695 0.0001344528 -6.8099e-06 0.3080122252 -0.7911375075
620296280.0 -0.2635850296 0.8020320284 3.88724e-05 -0.0001200284 4.25117e-05 1.00663e-05 0.2995430903 -0.7945902094
625296250.0 -0.2551785181 0.8052478106 -3.875e-07 3.43442e-05 3.70733e-05 6.7134e-05 0.2921797828 -0.7971520533
630296220.0 -0.2467504721 0.807820137 5.56661e-05 -0.0001127675 -0.0001862015 -6.27979e-05 0.2836670139 -0.7990249897
635296190.0 -0.2396093289 0.8101883882 -2.65495e-05 6.82089e-05 -3.96778e-05 1.95515e-05 0.2763742786 -0.8024190162
640296160.0 -0.231394804 0.8126911198 -0.0001406961 -6.03306e-05 -0.0002026467 1.35075e-05 0.2678070326 -0.8047629278
645296130.0 -0.2232230053 0.8155342585 -2.78975e-05 0.0001082831 0.0001479995 -0.0002147391 0.2602564987 -0.8068117938
650296100.0 -0.2149961559 0.8170743023 -7.53849e-05 0.0002283582 -0.0002886058 6.37989e-05 0.2523519942 -0.8105946489
655296070.0 -0.2069218708 0.8192316346 3.1672e-06 -0.0001067425 0.0001392849 0.0001461703 0.2447399901 -0.8115362655
660296040.0 -0.1986247573 0.8205163256 -3.39463e-05 -3.3321e-06 -7.23142e-05 -0.0001026821 0.2359276438 -0.8145263803
665296010.0 -0.1904262233 0.8224696517 -1.06642e-05 3.24144e-05 0.0001809986 1.2417e-06 0.2278537531 -0.8162627894
670295980.0 -0.1824877546 0.8246695187 -0.0001404767 -2.29134e-05 -8.154e-05 -0.0001901014 0.2200026797 -0.8189529945
675295950.0 -0.1739357428 0.8265979862 -6.32746e-05 -4.88802e-05 4.72311e-05 0.0001350717 0.2111964919 -0.8204511803
680295920.0 -0.1653692204 0.8285380483 0.0001698746 0.0001698351 5.78011e-05 0.0001478328 0.2036045981 -0.822684288
685295890.0 -0.1573335857 0.8305040073 -0.0002067197 9.507e-06 -0.0002336245 2.23413e-05 0.1951138553 -0.8244547336
690295860.0 -0.1495979932 0.8309491564 0.000101391 0.0001669925 0.0002399608 -6.77857e-05 0.187132492 -0.8260935823
695295830.0 -0.1417020932 0.8322027874 0.0001196449 3.9829e-05 0.0001141897 3.54522e-05 0.1792741726 -0.8276466475
700295800.0 -0.1323016202 0.8340591234 -8.8548e-06 2.50444e-05 -0.000194375 9.47052e-05 0.1711968476 -0.8299187173
705295770.0 -0.1246908701 0.8350156644 7.66967e-05 0.0001291137 -6.53873e-05 -2.09736e-05 0.1624526533 -0.8299499996
710295740.0 -0.116297281 0.8366170084 5.53344e-05 0.0001042654 -7.2433e-06 -3.50063e-05 0.154039637 -0.8325272566
715295710.0 -0.1074716209 0.8373354349 -0.0002253018 0.0001457676 -9.96811e-05 -0.0002350568 0.1459608847 -0.8336601597
720295680.0 -0.1001736124 0.8384990562 -2.2478e-05 -2.6487e-06 0.000200671 7.479e-05 0.1379452204 -0.8350201193
725295650.0 -0.0913469165 0.8402756378 -6.90683e-05 -0.0001277537 0.0001437894 7.78354e-05 0.1295954821 -0.8356859602
730295620.0 -0.0828018412 0.8404758041 -7.28634e-05 0.0004044083 -1.2822e-06 -0.0001263772 0.1210493468 -0.8373941285
735295590.0 -0.0749859054 0.8413095873 -3.01767e-05 5.071e-07 7.66417e-05 1.60456e-05 0.1123422978 -0.8389519095
740295560.0 -0.0662989138 0.8425484017 -0.0001989916 -3.91791e-05 0.0001959321 -4.1236e-05 0.104625484 -0.8389581106
745295530.0 -0.0583877172 0.8425973886 0.0003867929 -0.0001141688 -1.19992e-05 -4.37465e-05 0.0964859629 -0.839456836
750295500.0 -0.0495495053 0.8430168826 0.0001488695 0.0001079161 -9.8289e-06 -1.45279e-05 0.0876348265 -0.8407740957
755295470.0 -0.0415402327 0.8432130167 -9.45646e-05 0.0001804488 0.0001454583 3.98566e-05 0.0796031318 -0.8425378556
760295440.0 -0.0333981645 0.8433544127 -8.0356e-06 3.91101e-05 8.52119e-05 4.85618e-05 0.0713259268 -0.8428049991
765295410.0 -0.0250672011 0.8440450044 0.0002229841 2.36442e-05 -9.79461e-05 -0.0001171041 0.0629680626 -0.8424921883
770295380.0 -0.016638168 0.8446966373 0.0002236322 2.42856e-05 0.0001152649 4.97332e-05 0.0547736301 -0.8433729723
775295350.0 -0.0078949526 0.8447451966 -9.32367e-05 -0.0001020562 -6.80383e-05 -6.99054e-05 0.045796606 -0.8432449131
780295320.0 -4.68749e-05 0.8442294996 7.7121e-06 -0.0001482561 -0.0002311698 -6.00002e-05 0.0384186352 -0.8440972226
785295290.0 0.0084706877 0.8433438423 -2.32844e-05 -7.13218e-05 5.03976e-05 -0.0001381441 0.0300256288 -0.8441359148
790295260.0 0.0173198774 0.8441284587 0.0001854022 6.8136e-06 0.0001234133 8.05168e-05 0.0220361556 -0.8441256607
795295230.0 0.0247862143 0.8439448748 -8.6837e-06 0.0001224128 -9.61681e-05 -3.75948e-05 0.0134345599 -0.8445368138
800295200.0 0.0335049877 0.8432189001 -0.0001874296 -0.0001106915 0.0001849389 -0.0002537254 0.0046290834 -0.8435511379
805295170.0 0.0426174939 0.8433971702 -0.0001709915 0.0002358804 4.0307e-06 -1.27902e-05 -0.0038104146 -0.8433591614
810295140.0 0.0505453789 0.8426857044 0.0001765829 9.2362e-06 -4.31606e-05 0.000119767 -0.010655454 -0.8434402762
815295110.0 0.0586959301 0.8422951638 -9.28114e-05 0.000150133 0.0001396451 -6.19269e-05 -0.0203177792 -0.8435666472
820295080.0 0.066787292 0.8418155886 0.0001167126 -0.0001265358 0.000196258 0.0001121072 -0.028278824 -0.8427187471
825295050.0 0.0759773646 0.8406577417 -8.26363e-05 1.9446e-06 -5.41742e-05 4.50654e-05 -0.0364250511 -0.8426028455
830295020.0 0.0835012877 0.8403440725 0.0001041528 0.0002127971 -7.98666e-05 5.85464e-05 -0.0446704291 -0.8415888236
835294990.0 0.0911761782 0.8393171455 5.88941e-05 -8.8801e-06 0.0002252996 -4.8644e-05 -0.0538753185 -0.8414338727
840294960.0 0.0996266404 0.8388857473 -9.89902e-05 -2.09495e-05 0.0001144372 0.0001173951 -0.0615412164 -0.8406981313
845294930.0 0.1075375137 0.8370729432 -1.13087e-05 -0.0001558108 0.0001859329 -4.60713e-05 -0.0701069854 -0.8391198215
