!Created with skrf (http://scikit-rf.org).
# Hz S RI R 50.0 
!freq ReS11 ImS11 ReS21 ImS21 ReS12 ImS12 ReS22 ImS22
300000.0 -0.2356037757 -0.1291131495 0.4693679968 0.0828082662 0.4693604954 0.0825631847 -0.2375056917 -0.1266982919
5299970.0 -0.2418495438 0.005467757 0.4752594332 0.0056613052 0.4753142323 0.0056902965 -0.2446664369 0.0049665812
10299940.0 -0.2387443982 0.0187148769 0.4774154497 0.0068774992 0.4771538243 0.0069968742 -0.2409637284 0.0174673393
15299910.0 -0.2336702503 0.0284885215 0.4803776916 0.0084014933 0.4809373646 0.0079750938 -0.2370598902 0.0264839962
20299880.0 -0.2286071896 0.0369287898 0.4853013251 0.0080656193 0.485614384 0.0080918238 -0.2322277796 0.0340137185
25299850.0 -0.2226187096 0.0436103973 0.4906002429 0.0075853081 0.4907126639 0.0074028375 -0.2270968582 0.0402014838
30299820.0 -0.2172144443 0.0486167195 0.4962764609 0.0049773804 0.4963939024 0.0049133457 -0.221902674 0.044985693
35299790.0 -0.2113183999 0.0529218882 0.5009015143 0.0018643155 0.5016790629 0.001873985 -0.2169198161 0.0492932107
40299760.0 -0.2061781222 0.0562358231 0.5068132184 -0.0021323935 0.5068731421 -0.0023338534 -0.2122397802 0.0523185468
45299730.0 -0.2012960726 0.0587971243 0.5113696502 -0.0064053016 0.511176826 -0.0070008973 -0.2071167425 0.054669838
50299700.0 -0.1960770799 0.0608779993 0.5153687879 -0.0125134802 0.5152874669 -0.012559162 -0.2026239476 0.0571583482
55299670.0 -0.1919802513 0.06249258 0.519076 -0.0178320017 0.5187206939 -0.0184239285 -0.1991817656 0.0587749215
60299640.0 -0.1878010014 0.0639960367 0.5226331803 -0.0244668715 0.5224102858 -0.0249080816 -0.1953871631 0.0597473304
65299610.0 -0.1843052419 0.0650334898 0.5256698001 -0.0309097842 0.5254199209 -0.0311393925 -0.191979886 0.061111332
70299580.0 -0.180871994 0.0658247391 0.5277344365 -0.0377204309 0.5278672962 -0.0375580877 -0.1893277864 0.0619134836
75299550.0 -0.1780575834 0.0667689376 0.5293098449 -0.0442853221 0.5296821166 -0.0444420847 -0.1863251522 0.0624177357
80299520.0 -0.1754185738 0.0676964281 0.5317167638 -0.0512572061 0.5314329393 -0.0512465476 -0.1838248619 0.0636753434
85299490.0 -0.1727351069 0.0683626134 0.5327383945 -0.0582200959 0.5328868323 -0.0579533614 -0.1818272904 0.063884589
90299460.0 -0.1703661933 0.0692124803 0.5334381185 -0.0654249774 0.5336283447 -0.0649020517 -0.1792751141 0.0648731602
95299430.0 -0.1679754164 0.0696617784 0.5344875315 -0.0720326436 0.535049762 -0.0724806384 -0.1777824368 0.0654032621
100299400.0 -0.1660726331 0.0701730102 0.5350271402 -0.0786921553 0.5349812931 -0.0788916286 -0.1759799249 0.0663631275
105299370.0 -0.1641181178 0.0709143687 0.5352296708 -0.0855733761 0.5359015513 -0.0857824666 -0.1741879216 0.0667698403
110299340.0 -0.1621804344 0.0712194022 0.5354665315 -0.0921092269 0.5358480844 -0.0923488317 -0.1728722836 0.0673281382
115299310.0 -0.1609553981 0.0724855094 0.5351241167 -0.0993054511 0.5355477694 -0.0993163576 -0.1715598017 0.0682608887
120299280.0 -0.1593205206 0.0730884485 0.5351486792 -0.1063705712 0.5350880062 -0.1065476805 -0.1703210674 0.0685824692
125299250.0 -0.1578092183 0.0740775259 0.5347978373 -0.113175135 0.5352551521 -0.1127904405 -0.1689363128 0.0697447314
130299220.0 -0.1566810683 0.0746239935 0.5346011441 -0.119741297 0.5341743973 -0.1200430343 -0.1677998137 0.0702766562
135299190.0 -0.1555817085 0.0757342124 0.5339194196 -0.126133676 0.5336791044 -0.126181758 -0.1668906231 0.071074265
140299160.0 -0.1540565265 0.0767108411 0.532879742 -0.1329063017 0.532879711 -0.1325709827 -0.1663690069 0.0717707179
145299130.0 -0.1535301181 0.0777727546 0.5322358927 -0.1389511693 0.5321865353 -0.1396066173 -0.165089322 0.072945091
150299100.0 -0.1522005195 0.0787438452 0.5306934371 -0.1457402498 0.5306956298 -0.1460674555 -0.1642235637 0.0737464356
155299070.0 -0.1508641431 0.080274628 0.5291167337 -0.1524239537 0.5296406527 -0.1526903266 -0.1634498978 0.0745823365
160299040.0 -0.1500683426 0.0811652315 0.528498295 -0.1589427136 0.5280730125 -0.1590955155 -0.1626748639 0.0759235422
165299010.0 -0.1487419003 0.0821980421 0.5269370061 -0.1651480302 0.5266358737 -0.165593924 -0.1617123135 0.0767138232
170298980.0 -0.1478698072 0.0834291885 0.5251582139 -0.1715722839 0.525270028 -0.1718166245 -0.1613265189 0.0778397548
175298950.0 -0.1467584 0.0846105071 0.523552944 -0.1781431213 0.5239913407 -0.1783450074 -0.1604720888 0.0793833207
180298920.0 -0.1460753991 0.0862352384 0.5218677952 -0.1846775352 0.5219853528 -0.1845948737 -0.1595366986 0.0800106564
185298890.0 -0.144968924 0.0871700153 0.5203296512 -0.1905682257 0.5195996592 -0.1904462079 -0.1585871212 0.0810760253
190298860.0 -0.1439013168 0.0888066875 0.5177121961 -0.1966477888 0.5181128862 -0.1966153068 -0.1580145956 0.0823123703
195298830.0 -0.1429614624 0.0899746687 0.5162569883 -0.2027083256 0.5161786632 -0.2029251704 -0.1572853778 0.0835857025
200298800.0 -0.1418072112 0.091056562 0.5140640959 -0.2094177078 0.5141876425 -0.2092829013 -0.1562484335 0.0844345582
205298770.0 -0.1413053661 0.0926731781 0.5118077316 -0.2146863736 0.5118389346 -0.2148750013 -0.1556683718 0.0859079428
210298740.0 -0.1400665794 0.0942979828 0.5097186922 -0.2209503999 0.509615007 -0.2210748896 -0.1552912598 0.0868911394
215298710.0 -0.1389869412 0.0955991695 0.5070261656 -0.2264261816 0.5069989164 -0.2267637991 -0.1544624343 0.0879988045
220298680.0 -0.1382649489 0.0970689702 0.5046031125 -0.2324401239 0.5046227342 -0.232824809 -0.1535480943 0.0893444244
225298650.0 -0.1371031693 0.0981625244 0.5018893768 -0.2382493711 0.5021829127 -0.2384035514 -0.152583346 0.0905857693
230298620.0 -0.1360685327 0.1000313049 0.4995681079 -0.2443240296 0.4998307892 -0.244771302 -0.1520644317 0.0921207877
235298590.0 -0.1354573714 0.1014979382 0.4973771304 -0.2507708459 0.4971069091 -0.2502479867 -0.1513792537 0.0932418662
240298560.0 -0.1341765871 0.1028062534 0.4946849552 -0.2555116136 0.4944181288 -0.2558856595 -0.1507170113 0.0943989355
245298530.0 -0.1333259034 0.1040496822 0.4915381825 -0.261826638 0.4917198901 -0.2615144249 -0.1499297199 0.0957588606
250298500.0 -0.1322759361 0.1054607701 0.4888874681 -0.2669947893 0.4890394221 -0.2668599044 -0.1492423925 0.0973346104
255298470.0 -0.1312991416 0.1072896402 0.4863322853 -0.2722763019 0.4864652696 -0.272826837 -0.1484885434 0.0986399074
260298440.0 -0.130264709 0.1085589099 0.483337483 -0.2776292733 0.4834207327 -0.2781383048 -0.1473013474 0.1000315857
265298410.0 -0.1293363698 0.109994151 0.4801511452 -0.2838355352 0.4800100448 -0.2841197673 -0.1459007862 0.1007719578
270298380.0 -0.1280440054 0.1114389679 0.4771531239 -0.2892879412 0.4771855628 -0.289141542 -0.1452344855 0.1027057791
275298350.0 -0.1269779662 0.1131036915 0.4735359148 -0.294315043 0.4740771853 -0.2947515706 -0.1445958284 0.1041570604
280298320.0 -0.1262607017 0.1145309829 0.4705435365 -0.3000348656 0.4710757266 -0.2999903601 -0.1434931601 0.1053414715
285298290.0 -0.1247012569 0.1159518329 0.4675041981 -0.3050120652 0.4676423207 -0.305306029 -0.1429366432 0.1069683058
290298260.0 -0.1237983542 0.117443992 0.4646299507 -0.3105864377 0.4646153369 -0.3107969053 -0.1418061341 0.108123413
295298230.0 -0.1227166989 0.1185473899 0.4611687732 -0.3159224315 0.4610270162 -0.3161319146 -0.1409381391 0.1090860191
300298200.0 -0.1212654285 0.1203673614 0.4573227376 -0.3211676334 0.4576634829 -0.321245909 -0.1397706019 0.1105929618
305298170.0 -0.1201258567 0.1214674864 0.4541788986 -0.3265121953 0.4545355664 -0.3267183065 -0.1387161805 0.1116764635
310298140.0 -0.1186640318 0.1226633365 0.4507283868 -0.3313309232 0.4509078482 -0.3309973038 -0.1377557317 0.1126791745
315298110.0 -0.1174526426 0.1237481324 0.4469757398 -0.3369105947 0.4471623133 -0.3367351826 -0.1364366227 0.1140481136
320298080.0 -0.1165689938 0.1250511011 0.4425438722 -0.3418296257 0.4433658609 -0.3421596056 -0.1357776525 0.1153101905
325298050.0 -0.1156623117 0.126131131 0.439335338 -0.3469470898 0.4398714827 -0.3471016875 -0.1344411268 0.1166007304
330298020.0 -0.114936083 0.1277524197 0.4353163692 -0.3518287128 0.4356189481 -0.3519761671 -0.1341748668 0.1177562288
335297990.0 -0.1138084421 0.1289961971 0.4313280523 -0.3564294332 0.4314761707 -0.3567013842 -0.133081157 0.1190971294
340297960.0 -0.1126550487 0.1301714114 0.4271422856 -0.3614481076 0.4274050528 -0.3616369925 -0.13205296 0.1208991535
345297930.0 -0.1112662664 0.1317129141 0.4232512292 -0.3665217315 0.4233092417 -0.3662225561 -0.1310083926 0.1215443442
350297900.0 -0.1102296546 0.1331384765 0.4194098588 -0.3701971041 0.4194168129 -0.3707555761 -0.1302171368 0.1232010111
355297870.0 -0.1089507594 0.1343673237 0.4152135867 -0.37472711 0.4151569083 -0.3750048833 -0.1287088974 0.1246302207
360297840.0 -0.107225873 0.135911401 0.4109462646 -0.3801132958 0.4113444828 -0.380182729 -0.1281429904 0.1260362898
365297810.0 -0.1065251971 0.1374343414 0.4068860303 -0.3843128374 0.4069129809 -0.3843575773 -0.1273005535 0.1273708286
370297780.0 -0.104823145 0.1385186233 0.4023663818 -0.3889015359 0.402733278 -0.3887906651 -0.1257612404 0.1287827128
375297750.0 -0.103458065 0.1397754624 0.3981218281 -0.393268568 0.3983281698 -0.3936638697 -0.1245330154 0.1301204719
380297720.0 -0.1023688382 0.141146237 0.3944201987 -0.3980881164 0.3937986554 -0.3975092916 -0.1231950516 0.1314116238
385297690.0 -0.1006762582 0.1424731482 0.3894475274 -0.4016411522 0.3898377495 -0.4022797301 -0.1222243512 0.1328969548
390297660.0 -0.0992710781 0.1434157559 0.3849569735 -0.4055518913 0.385372362 -0.4058720958 -0.1204781449 0.1338773602
395297630.0 -0.0975757498 0.1448372444 0.3807920683 -0.4101924023 0.3804634732 -0.4098451672 -0.1195567868 0.1350113418
400297600.0 -0.0964294693 0.1458039081 0.3763753424 -0.4142038519 0.3766740788 -0.4143870863 -0.1182515272 0.1366468676
405297570.0 -0.0949071289 0.1467985848 0.3717306182 -0.4182646524 0.3719381036 -0.418270127 -0.1168177759 0.1379981088
410297540.0 -0.0930936343 0.148406025 0.3671629423 -0.4229291136 0.3675078964 -0.4224465303 -0.1159118376 0.1398272956
415297510.0 -0.0920355632 0.149340866 0.3625412512 -0.4265668381 0.3629260903 -0.4265825865 -0.1144660947 0.140636236
420297480.0 -0.0903278999 0.1502517644 0.3576512589 -0.4304119428 0.3579345977 -0.430434565 -0.1128025571 0.1420337019
425297450.0 -0.0881444774 0.1515206881 0.3534178377 -0.4343001792 0.3531798475 -0.4343919004 -0.111656597 0.142774874
430297420.0 -0.0871104494 0.1526375893 0.3487110116 -0.438493351 0.3485804226 -0.4379165977 -0.1097591989 0.1443905172
435297390.0 -0.0854324026 0.1535018866 0.3434544973 -0.4425782074 0.3433880805 -0.4421161803 -0.1089847612 0.1461194262
440297360.0 -0.0832974732 0.1545126388 0.3382053533 -0.4460212174 0.3386406251 -0.4460607344 -0.107723479 0.1470793383
445297330.0 -0.0818566463 0.1552694838 0.3339619159 -0.4488357473 0.3338154405 -0.4496323121 -0.1056679883 0.1480879088
450297300.0 -0.0801138642 0.1563870033 0.3290457052 -0.4529196451 0.3293467846 -0.4529831365 -0.1045113164 0.1493563257
455297270.0 -0.0789222068 0.1573228338 0.3243200883 -0.4565583109 0.3240273766 -0.4567322786 -0.1026896561 0.1505364298
460297240.0 -0.0763854174 0.1583143178 0.3192204278 -0.4605541957 0.318935829 -0.4604648266 -0.1016877299 0.1514929745
465297210.0 -0.0750553829 0.1590981105 0.3136784562 -0.4637872956 0.3130755229 -0.4638132054 -0.0996806649 0.1530162004
470297180.0 -0.0729522424 0.1601324968 0.3086450944 -0.4668050739 0.3092254752 -0.4671574125 -0.0982145203 0.1539446523
475297150.0 -0.0717559489 0.1611773381 0.3034533221 -0.4701738833 0.3038007361 -0.4705667312 -0.0967622699 0.155228669
480297120.0 -0.0695227227 0.1624747678 0.2983964757 -0.4733947026 0.2987831017 -0.4735587492 -0.0958906446 0.1557382258
485297090.0 -0.0675897607 0.1626622565 0.2931971133 -0.4773691366 0.2936149209 -0.4766650204 -0.0941518065 0.1571450471
490297060.0 -0.0654465733 0.1639000189 0.2875524336 -0.4803010424 0.2881291927 -0.4801160178 -0.0925218421 0.1580665775
495297030.0 -0.0640909108 0.1642902639 0.2831777887 -0.4831872609 0.2829416065 -0.4831826346 -0.090695102 0.1588057424
500297000.0 -0.0623536094 0.1653825922 0.2779388343 -0.4858920996 0.2777109583 -0.4863815673 -0.0892263191 0.160221929
505296970.0 -0.0598128558 0.1660681452 0.2725187445 -0.4893999195 0.2721175173 -0.4890986804 -0.0873530748 0.1607197764
510296940.0 -0.0579326195 0.16679537 0.2668833031 -0.4923482057 0.2673307043 -0.4923767631 -0.0858182955 0.1622567548
515296910.0 -0.0564443653 0.1678652153 0.2613656342 -0.4950300525 0.2614520413 -0.4948745734 -0.0845492447 0.1624890799
520296880.0 -0.0543820233 0.1687851755 0.256041531 -0.4976815537 0.2556655869 -0.497646242 -0.0822411853 0.164339641
525296850.0 -0.0523840987 0.1693453236 0.250681808 -0.4998789467 0.2502607035 -0.5003247011 -0.0809403666 0.1652564658
530296820.0 -0.0507144247 0.1698892882 0.2449275538 -0.5029491286 0.2451397912 -0.5029032489 -0.0792766091 0.1655838598
535296790.0 -0.047871373 0.170681358 0.239467361 -0.5053383379 0.2400051837 -0.5056669949 -0.0774132394 0.1667282482
540296760.0 -0.0461014048 0.1715959327 0.2339330258 -0.508452567 0.2338425127 -0.5081851387 -0.0760302626 0.1672942704
545296730.0 -0.0447179812 0.1724439979 0.2286377968 -0.5104856101 0.2283365326 -0.5105422295 -0.0741190955 0.1683871628
550296700.0 -0.0421034938 0.1728505175 0.2227963284 -0.5132307803 0.2227155282 -0.5132423601 -0.0724216074 0.168980583
555296670.0 -0.0404785597 0.1734448843 0.217497826 -0.5156694459 0.2175387991 -0.515601159 -0.070858493 0.169683032
560296640.0 -0.0378238746 0.1739061041 0.2113790423 -0.517528037 0.2118588978 -0.5176755854 -0.0692050645 0.1710548807
565296610.0 -0.0367366442 0.1747957155 0.2066081474 -0.5204376218 0.2058684049 -0.5195952715 -0.067232573 0.1716239382
570296580.0 -0.0342161626 0.1753382197 0.2003675084 -0.52190606 0.2002980003 -0.5224305712 -0.0657114461 0.1723463518
575296550.0 -0.0317987912 0.1757119555 0.1949164411 -0.5244054594 0.1943100969 -0.5246413904 -0.0638113612 0.173297454
580296520.0 -0.0300777471 0.1767872042 0.1893599904 -0.5264337501 0.188899291 -0.5267048502 -0.0626217196 0.1737925567
585296490.0 -0.0280869855 0.1771276436 0.1834979074 -0.5282772591 0.1828717169 -0.5282125862 -0.0603417836 0.1749262192
590296460.0 -0.025304428 0.1775316039 0.1773994721 -0.5303167854 0.1776022485 -0.5305365976 -0.0591890454 0.1753921072
595296430.0 -0.0236507552 0.1780345611 0.1715082474 -0.531868512 0.1713814662 -0.5321351323 -0.0570794703 0.1757307887
600296400.0 -0.0214755452 0.1784467911 0.1658167711 -0.534017688 0.1658458005 -0.5340824245 -0.0552854267 0.1766160744
605296370.0 -0.0199090314 0.1789708442 0.160598298 -0.5354117342 0.1599142584 -0.5358137179 -0.0534615896 0.1775279726
610296340.0 -0.0173108283 0.1800399557 0.1539090484 -0.5368788956 0.1544413193 -0.5370340587 -0.0519801745 0.1782415373
615296310.0 -0.0151841607 0.1801161523 0.1485421518 -0.5391876799 0.1480573569 -0.5391788801 -0.0499530208 0.1786688498
620296280.0 -0.0136228644 0.1809152891 0.1425738599 -0.5406669915 0.142599237 -0.5403145468 -0.0485729945 0.1792935186
625296250.0 -0.011414102 0.1808203952 0.1367653906 -0.5422592472 0.1369859577 -0.5417886419 -0.0469673916 0.1798346961
630296220.0 -0.0091157647 0.181375579 0.1303251243 -0.5435977916 0.1306674514 -0.5433578793 -0.0449580352 0.1806930785
635296190.0 -0.0074786303 0.1819723022 0.1253743328 -0.5446796135 0.1247625738 -0.5443788545 -0.043294756 0.1810384509
640296160.0 -0.0051400308 0.1821922524 0.1190105199 -0.5460985781 0.1189473071 -0.5460432589 -0.0414368904 0.1815889433
645296130.0 -0.0029835908 0.1826076607 0.1132297305 -0.5469605986 0.1130950674 -0.5469627439 -0.0397697053 0.1819210897
650296100.0 -0.001032605 0.182683215 0.1071331114 -0.5485076292 0.1068254019 -0.5486025294 -0.0374137986 0.1826887774
655296070.0 0.0009008582 0.182855669 0.1012276333 -0.5495118524 0.101004665 -0.5493718684 -0.0362810684 0.1833074615
660296040.0 0.0029899145 0.1836289598 0.0955973456 -0.5504489969 0.0950451332 -0.5504094414 -0.0341983933 0.1832037237
665296010.0 0.0051190114 0.1836980986 0.0889996781 -0.5510626974 0.089029826 -0.551469551 -0.0326923819 0.1842869276
670295980.0 0.0070866052 0.1838548242 0.0833534863 -0.5523792967 0.08326385 -0.5519380443 -0.0308202234 0.1843074038
675295950.0 0.0092019098 0.1840596484 0.0777109864 -0.5530514355 0.0773952832 -0.5529781432 -0.029037157 0.1849951124
680295920.0 0.0110737675 0.1843160291 0.0714626723 -0.5537108622 0.071568366 -0.5536799373 -0.0270374391 0.1850012546
685295890.0 0.0134351729 0.1848325735 0.0652252302 -0.554910554 0.0651495558 -0.5547036127 -0.0249925087 0.185981379
690295860.0 0.0149153053 0.1843463067 0.0594827068 -0.5553627535 0.0594185632 -0.5553345817 -0.0235073806 0.1863000148
695295830.0 0.0173604976 0.1844628869 0.0542705684 -0.5560798023 0.053567965 -0.5561140155 -0.021907059 0.1866975227
700295800.0 0.0194269524 0.1848670943 0.0479521139 -0.5566229672 0.0478543362 -0.5563112644 -0.019801448 0.1870577429
705295770.0 0.0210825344 0.1847805402 0.0414955441 -0.5569810324 0.041573091 -0.5570096535 -0.0179560667 0.1875998075
710295740.0 0.0232220799 0.1848184288 0.0356715583 -0.5572304051 0.0357217652 -0.5572588443 -0.0159639925 0.1875435086
715295710.0 0.0253135858 0.185138857 0.0300390027 -0.5576638939 0.0297702144 -0.5575081448 -0.0142708889 0.1879123538
720295680.0 0.0275208423 0.1848638687 0.0234385623 -0.5577431161 0.0234178607 -0.5579143111 -0.0123697139 0.1879383919
725295650.0 0.0291716904 0.1851459447 0.0181771203 -0.5580574461 0.0176495889 -0.5582983507 -0.0110730933 0.1888424758
730295620.0 0.0307540598 0.1850665848 0.0115726319 -0.5580175754 0.0116933556 -0.5576270411 -0.0094046222 0.1892379103
735295590.0 0.0331135508 0.1848603344 0.0057085298 -0.5580735484 0.0057378004 -0.5583478256 -0.0071950226 0.1887712892
740295560.0 0.0346952988 0.1844638653 -0.0003654576 -0.5580853293 0.0003092251 -0.5586535105 -0.0055871184 0.1894160912
745295530.0 0.0367822382 0.1848863797 -0.0059831013 -0.5580554196 -0.0056469961 -0.5578243834 -0.0039829788 0.1895252986
750295500.0 0.0385226137 0.1845802651 -0.0119013196 -0.5578825342 -0.0122918892 -0.5583334632 -0.0018740016 0.1899407543
755295470.0 0.0407757604 0.1842516666 -0.0180147425 -0.5579253572 -0.0185285243 -0.558167628 4.88188e-05 0.1905967785
760295440.0 0.0425444281 0.1844044672 -0.0244155225 -0.557491386 -0.0242661461 -0.5572033802 0.0020252402 0.1895445644
765295410.0 0.0448467045 0.1836522137 -0.0302513593 -0.5571315895 -0.0301159858 -0.5572155425 0.0036077969 0.1903738821
770295380.0 0.0463394111 0.1837009129 -0.0360135576 -0.5566012305 -0.0361672646 -0.5567963827 0.0054143933 0.1904725969
775295350.0 0.0483596315 0.1833255167 -0.0421143601 -0.5565905035 -0.0419411548 -0.5562074063 0.0074123804 0.1907531832
780295320.0 0.0502900366 0.1833587242 -0.0478374815 -0.5557200945 -0.0483451186 -0.555859038 0.0097578635 0.1905241752
785295290.0 0.0523017638 0.182823927 -0.0537059552 -0.5556404256 -0.0540750406 -0.5553748899 0.0108705176 0.1911305568
790295260.0 0.0542335438 0.1819117313 -0.0598823922 -0.5547201561 -0.0598906795 -0.5551642107 0.0126185749 0.1912461495
795295230.0 0.0560419908 0.1816435296 -0.0659735012 -0.5544446371 -0.0662891991 -0.5544134983 0.0146630427 0.1905655415
800295200.0 0.0579250077 0.1814540816 -0.0711972936 -0.5530436467 -0.07156146 -0.5531297912 0.0161771479 0.1909901168
805295170.0 0.0596914166 0.1812034023 -0.0774122675 -0.5525788005 -0.0776889934 -0.5524692261 0.0190520422 0.1910754673
810295140.0 0.0618145626 0.1806939099 -0.0833596985 -0.5513334641 -0.0837154671 -0.5513875257 0.0205608865 0.1909427396
815295110.0 0.063550374 0.1802693198 -0.0894197253 -0.5510305569 -0.0893203472 -0.5507703302 0.0221390148 0.1909419758
820295080.0 0.0654570862 0.1797160158 -0.0948965604 -0.5494158202 -0.0949449479 -0.5498611529 0.0232376423 0.1914360904
825295050.0 0.0670230508 0.1790128359 -0.1011085103 -0.5488640488 -0.1011922476 -0.5488210125 0.026058416 0.1913741966
830295020.0 0.0689856216 0.1783625259 -0.1072263949 -0.5476897848 -0.1070923237 -0.5473959054 0.0276159175 0.1904902443
