!Created with skrf (http://scikit-rf.org).
# Hz S RI R 50.0 
!freq ReS11 ImS11 ReS21 ImS21 ReS12 ImS12 ReS22 ImS22
300000.0 -0.2409080498 -0.0979388427 0.4679381365 0.0665509962 0.4701590864 0.069322811 -0.2369465496 -0.1098980951
5299970.0 -0.2438717837 0.0075967345 0.4739348497 0.0050722822 0.4739944051 0.0054642869 -0.244222518 0.0061200881
10299940.0 -0.2404495254 0.0198463089 0.4761229121 0.0062389905 0.4760576752 0.0064659766 -0.2413063205 0.0183307904
15299910.0 -0.2359710735 0.0296021143 0.4792609088 0.0076583073 0.4792791726 0.0078816816 -0.2366875115 0.0275473108
20299880.0 -0.2304739064 0.0373218852 0.4840266254 0.0081619103 0.484386946 0.0083117199 -0.2321482599 0.0352525479
25299850.0 -0.2248988328 0.0436303836 0.4894739965 0.0070722451 0.4893507213 0.0072678919 -0.2270697787 0.0416612783
30299820.0 -0.2186196472 0.0485716223 0.4951872795 0.0055201944 0.4949300726 0.0055068576 -0.2218888068 0.046806643
35299790.0 -0.2128857776 0.052852261 0.500231302 0.0021419358 0.5005248525 0.0021641524 -0.2164330949 0.0508210331
40299760.0 -0.2078280999 0.0556564726 0.505500171 -0.0013481252 0.5054214511 -0.0017455115 -0.2116314381 0.0545840333
45299730.0 -0.2024483147 0.0584927726 0.5101956115 -0.0067767018 0.5102792465 -0.0065207567 -0.206621132 0.057312077
50299700.0 -0.1976590335 0.0601313477 0.5139647832 -0.0121788948 0.5144586555 -0.0121670791 -0.2021725932 0.0598146349
55299670.0 -0.1935950702 0.0619482585 0.5177232747 -0.0181247144 0.5183057313 -0.0177635791 -0.1984911864 0.0614849206
60299640.0 -0.1891948015 0.0626759698 0.5209830248 -0.0243072833 0.5212208165 -0.0243651173 -0.1946077008 0.0630318743
65299610.0 -0.1862806388 0.0639299808 0.5245573969 -0.030489219 0.5245354211 -0.0304793802 -0.1913617209 0.064390112
70299580.0 -0.1824103753 0.0642632343 0.5267264634 -0.0371173139 0.527073 -0.0371476994 -0.188253615 0.0655284748
75299550.0 -0.1796619504 0.0651878294 0.5283283871 -0.0442965355 0.5290940752 -0.044027351 -0.1853227175 0.0668754005
80299520.0 -0.1772770214 0.0656684505 0.5306676123 -0.050854469 0.5306871304 -0.0506713553 -0.1825537543 0.0670103824
85299490.0 -0.174444583 0.0662764859 0.5322881302 -0.0578698097 0.5318166996 -0.0578689152 -0.1801477577 0.0682152829
90299460.0 -0.172613045 0.0664827096 0.5330537048 -0.0643865632 0.5333698172 -0.0646661393 -0.1775648919 0.0693294717
95299430.0 -0.1706348852 0.0673446335 0.5340644793 -0.0718932998 0.5343220535 -0.0718160307 -0.1758002238 0.070255284
100299400.0 -0.1689841395 0.0675380395 0.5340915497 -0.0786650961 0.5342261941 -0.0787063198 -0.1741937224 0.0708776144
105299370.0 -0.1668967533 0.0678908696 0.5344091631 -0.0855064488 0.534678068 -0.0854079619 -0.1722216198 0.07189954
110299340.0 -0.1654616664 0.0682946908 0.5348073802 -0.0923063249 0.5348508918 -0.0925935835 -0.170816854 0.0725552233
115299310.0 -0.1639168688 0.0686524773 0.5347002108 -0.0989173492 0.5349686097 -0.0989886113 -0.1688771988 0.0729712805
120299280.0 -0.1629165182 0.0692649235 0.5346482987 -0.1061378514 0.5348196858 -0.1058652593 -0.1676929583 0.0740852278
125299250.0 -0.1617539049 0.0698417034 0.5343922872 -0.1126016084 0.5348139546 -0.1126085825 -0.1667665556 0.0747331297
130299220.0 -0.1603322225 0.0705695701 0.5336212755 -0.1190555871 0.5335921841 -0.1194686557 -0.1650351559 0.0757547863
135299190.0 -0.1596055118 0.0709317769 0.5331541464 -0.125532375 0.5327813956 -0.1261472619 -0.1644274674 0.0769425577
140299160.0 -0.1586791572 0.0720663043 0.5324170876 -0.132541383 0.5325153521 -0.1328171239 -0.162875259 0.0779782549
145299130.0 -0.1574959859 0.072914584 0.5315986052 -0.1392504477 0.5313624061 -0.1388630601 -0.1624588584 0.0789329556
150299100.0 -0.1565575751 0.0735556185 0.5300708646 -0.1458054218 0.5305724732 -0.145431675 -0.1612074926 0.0797941247
155299070.0 -0.1557506106 0.0748085259 0.5292138543 -0.1524617457 0.5291904296 -0.1527819351 -0.1600940876 0.0809924281
160299040.0 -0.1548883392 0.0753831981 0.527596093 -0.158420898 0.5278259584 -0.1586291954 -0.158896163 0.082406769
165299010.0 -0.1543556157 0.0762836994 0.5264078628 -0.1652939252 0.5261788227 -0.1650526969 -0.1575674847 0.0831760368
170298980.0 -0.1535597434 0.0769800327 0.5239812625 -0.1714060763 0.5247352859 -0.1716426309 -0.1566240465 0.084420898
175298950.0 -0.1527917413 0.0780809091 0.5233538289 -0.1775252414 0.523439097 -0.1779633619 -0.1561192838 0.0856379838
180298920.0 -0.1519838644 0.0789798758 0.5214045107 -0.184330107 0.521567007 -0.1841809035 -0.1548824289 0.0872556452
185298890.0 -0.1509123404 0.080235278 0.5193943265 -0.1906017327 0.519547755 -0.1902426255 -0.1541348362 0.0881294241
190298860.0 -0.1502909042 0.0811094667 0.5173744835 -0.1966947192 0.518024552 -0.1969087538 -0.1528676597 0.0898211307
195298830.0 -0.1495059263 0.0821074724 0.5156433519 -0.2023300906 0.5157394645 -0.2030447737 -0.1520280017 0.090524118
200298800.0 -0.1487913215 0.0835391144 0.5135963369 -0.2083946926 0.5136622403 -0.2085605263 -0.1506948378 0.0924503457
205298770.0 -0.1482649552 0.0845744987 0.5116051879 -0.2147908329 0.5118610648 -0.2146252525 -0.1500358799 0.0933416018
210298740.0 -0.147556533 0.0856851887 0.5091898897 -0.2211957714 0.5093827401 -0.2213170678 -0.1489745617 0.0950397188
215298710.0 -0.1465647156 0.0867570957 0.5068581547 -0.2269372195 0.5067355202 -0.2269845031 -0.1484132943 0.0961601176
220298680.0 -0.1459608133 0.0878371909 0.5042304716 -0.2328755216 0.50470757 -0.2329954411 -0.1471188853 0.0976892464
225298650.0 -0.1450871888 0.0892889256 0.5019319666 -0.23800569 0.5018542489 -0.2382323913 -0.1462793717 0.0989450909
230298620.0 -0.1445284092 0.0904986052 0.4994353844 -0.2444012338 0.5000537105 -0.2444418314 -0.1450882844 0.100166779
235298590.0 -0.1437856665 0.0914661598 0.4970626337 -0.2500920665 0.497056255 -0.2502882596 -0.144387217 0.1016185069
240298560.0 -0.1429415315 0.0930550836 0.4940589782 -0.2554582947 0.4942631744 -0.2555598917 -0.1431447812 0.1032631697
245298530.0 -0.1420002807 0.0941716145 0.4909134586 -0.2614906654 0.491482983 -0.261729314 -0.1421099658 0.1049417473
250298500.0 -0.1414996104 0.0953248722 0.4885180131 -0.2666925228 0.4889737466 -0.2663452583 -0.1405755182 0.106097547
255298470.0 -0.1407562014 0.0965839955 0.4853350305 -0.2727428388 0.4857052339 -0.2725548825 -0.1397634774 0.1072280521
260298440.0 -0.1395999031 0.0979110369 0.4823103738 -0.2778541509 0.4826845918 -0.2781694288 -0.1382562039 0.1091392017
265298410.0 -0.1388385138 0.0993694726 0.4795411557 -0.2841797829 0.4796473 -0.2839966234 -0.1374977551 0.1102102448
270298380.0 -0.1377112861 0.1006235265 0.4759689029 -0.2892326764 0.4767418414 -0.2896532634 -0.1361475958 0.1119331889
275298350.0 -0.1369712569 0.1018662775 0.4729664157 -0.2947913236 0.4736544811 -0.2945355979 -0.1348859229 0.1134540267
280298320.0 -0.1362231465 0.1032853696 0.4701394604 -0.299527481 0.4700657912 -0.300215138 -0.1337985254 0.114908745
285298290.0 -0.1352602838 0.1047472699 0.4670940773 -0.3053689699 0.4669556242 -0.305601137 -0.132539663 0.1163491463
290298260.0 -0.1343447732 0.1058874789 0.4634726936 -0.3107785843 0.4638312065 -0.3104319317 -0.1308108449 0.1180715188
295298230.0 -0.1332679401 0.1070764594 0.4605722894 -0.3158665499 0.4600553473 -0.3160834091 -0.1296664683 0.1192486466
300298200.0 -0.1322345724 0.1082550463 0.4564585348 -0.3208493392 0.4568263062 -0.3209769535 -0.1285201938 0.1207477954
305298170.0 -0.1311402896 0.1094728646 0.453547904 -0.3263350256 0.4533974643 -0.3266729496 -0.1268004631 0.1222620257
310298140.0 -0.1298870601 0.1106580106 0.4500130402 -0.3317270997 0.4499819632 -0.33213829 -0.1256618748 0.1239394037
315298110.0 -0.12916646 0.1121165407 0.4461150504 -0.3372109554 0.4465326601 -0.3369446123 -0.1242820916 0.124960751
320298080.0 -0.1282001094 0.113261607 0.4424463109 -0.342546238 0.4427576728 -0.3421067565 -0.1229997494 0.1260204187
325298050.0 -0.1272419182 0.114134511 0.4389155971 -0.347405922 0.4388519258 -0.3475895381 -0.1216032447 0.1276967344
330298020.0 -0.126474825 0.1155394709 0.4338995531 -0.3521641593 0.4345184403 -0.3521647499 -0.1203838338 0.1289106541
335297990.0 -0.1251502773 0.1165025919 0.4302966311 -0.3573115901 0.430443869 -0.3572774176 -0.1190607881 0.1303309379
340297960.0 -0.1248199431 0.1181132531 0.4260400853 -0.3617016124 0.4264964807 -0.3616169907 -0.117812064 0.1319007018
345297930.0 -0.123836536 0.1196343683 0.4222995615 -0.3660617731 0.4216322005 -0.3662191159 -0.1164984193 0.1332783759
350297900.0 -0.1224930743 0.1206764438 0.4177916709 -0.3704576176 0.4183025077 -0.3710257759 -0.1153092514 0.1347211157
355297870.0 -0.1214781686 0.1221598542 0.4136880395 -0.3756298387 0.414044368 -0.3754689765 -0.1139547269 0.1364596907
360297840.0 -0.1201849329 0.123248998 0.4097936462 -0.3802215897 0.4095900968 -0.380274249 -0.1123361745 0.1379904362
365297810.0 -0.1191037671 0.1246058655 0.405354204 -0.3847351614 0.405583016 -0.384982301 -0.110729867 0.1393842
370297780.0 -0.1180893194 0.1256702498 0.401346394 -0.3890590493 0.4011669036 -0.3896849143 -0.1090336351 0.1408354845
375297750.0 -0.1168370799 0.1275295837 0.3975999992 -0.3938184261 0.3968723626 -0.3936988057 -0.1078032553 0.1421517975
380297720.0 -0.1156069849 0.1282317154 0.3926497941 -0.397318056 0.3925510071 -0.3975554952 -0.1059508325 0.1437497283
385297690.0 -0.1142719091 0.1298729223 0.3877267499 -0.4018168184 0.3883288341 -0.4019483316 -0.1049745244 0.1449738733
390297660.0 -0.1133721634 0.1307871103 0.3835245846 -0.4067392923 0.3835327531 -0.4068400742 -0.103041466 0.1463338359
395297630.0 -0.111556283 0.1318889423 0.3792184213 -0.4104075086 0.3792392432 -0.4109749157 -0.1015400237 0.1482044143
400297600.0 -0.1108655049 0.133690023 0.3744721531 -0.4149412083 0.3750954126 -0.4147488784 -0.1006163485 0.148971829
405297570.0 -0.1093571068 0.1347768994 0.3700890847 -0.4190799022 0.3701933177 -0.4190545507 -0.0984353078 0.1504224358
410297540.0 -0.1077892541 0.1358636542 0.3649963807 -0.4228655507 0.3656175056 -0.4226460527 -0.096742199 0.1515662997
415297510.0 -0.1068004766 0.1373025086 0.3607768653 -0.4267401665 0.3607733417 -0.4269248259 -0.0952071964 0.1533701443
420297480.0 -0.1053156361 0.1377681331 0.3555332611 -0.4308699928 0.3560961616 -0.4306677998 -0.0933976019 0.1539583616
425297450.0 -0.1036593064 0.1389428549 0.3513203916 -0.4345311668 0.3518022696 -0.4347750601 -0.091578865 0.1557040825
430297420.0 -0.1026742284 0.1405436862 0.3465387345 -0.4386597266 0.3464208279 -0.4386626345 -0.0902266073 0.1566918871
435297390.0 -0.1011410603 0.141505151 0.3416355931 -0.442370029 0.3420791259 -0.4423285979 -0.0885199578 0.1583061955
440297360.0 -0.0998198508 0.1424860698 0.3367335359 -0.4458772611 0.336704204 -0.4457936213 -0.0866358999 0.1587953836
445297330.0 -0.0981205947 0.1438972967 0.3312987002 -0.4496270822 0.3316879539 -0.4498300963 -0.0850396726 0.1601675462
450297300.0 -0.0970023833 0.1443562374 0.3265997345 -0.453174434 0.3270743979 -0.4535127974 -0.0834226352 0.161843321
455297270.0 -0.0957041208 0.1457882489 0.3221023678 -0.456796567 0.322452653 -0.4565909986 -0.0812043642 0.1624460867
460297240.0 -0.0943339708 0.1471364245 0.3171923513 -0.4600396674 0.3163914156 -0.4600783157 -0.0793902469 0.1641908452
465297210.0 -0.092494889 0.1479912016 0.3122737327 -0.4637108335 0.3121661296 -0.4636552287 -0.078332217 0.1648571561
470297180.0 -0.0914282134 0.1489016333 0.307042169 -0.466768558 0.3074153605 -0.4670055277 -0.0768482322 0.1658136769
475297150.0 -0.0901229237 0.1496816522 0.3016445635 -0.4698238165 0.3016153949 -0.4699822064 -0.0745092465 0.1669469555
480297120.0 -0.0882417864 0.1504664549 0.2964352435 -0.4733135134 0.2971027557 -0.4735543921 -0.0731908409 0.1680756079
485297090.0 -0.0868597302 0.1514203561 0.2912612334 -0.4765231607 0.2917328094 -0.4767811715 -0.0712559808 0.1688016898
490297060.0 -0.0851988817 0.1524119587 0.2863120894 -0.4797594105 0.2865540611 -0.4798576578 -0.0693258449 0.1704277563
495297030.0 -0.0844725743 0.1535607846 0.2812977594 -0.4826501586 0.2809001666 -0.482831201 -0.0674478203 0.1708027281
500297000.0 -0.0824562058 0.1544530146 0.275598092 -0.4859684527 0.275894393 -0.4861141417 -0.065852369 0.1719470062
505296970.0 -0.0812455749 0.1554014023 0.2696093731 -0.4881242909 0.2701724693 -0.4884099158 -0.0640579245 0.1729850858
510296940.0 -0.0795310339 0.15630811 0.2652247607 -0.4915324888 0.2651030801 -0.4917749222 -0.0618444146 0.1740541252
515296910.0 -0.0782770996 0.1574132789 0.2594094273 -0.4942911395 0.2597342327 -0.4946366118 -0.0603625155 0.1745788488
520296880.0 -0.0765854011 0.158115477 0.2543447205 -0.4971543679 0.2544004188 -0.4968636307 -0.0582579742 0.1754710361
525296850.0 -0.075259035 0.1587681561 0.2489350727 -0.4995584557 0.2489435921 -0.5002943496 -0.0559806383 0.1765899498
530296820.0 -0.0735927589 0.1597595678 0.24375145 -0.5017104686 0.2433171853 -0.5024872554 -0.0547872468 0.1768901278
535296790.0 -0.0719882112 0.1605178434 0.2379860371 -0.5047582146 0.2381753717 -0.5046428784 -0.0528627125 0.1775705071
540296760.0 -0.0704532661 0.1610110374 0.2326009966 -0.5078939025 0.2321911384 -0.5079212461 -0.0511535503 0.1785219462
545296730.0 -0.0687174913 0.1622604057 0.2267907284 -0.5095953924 0.2270465887 -0.5101048806 -0.0491168393 0.1790896117
550296700.0 -0.0677052872 0.1629400515 0.2213773611 -0.5123935922 0.2218013932 -0.512677496 -0.0476035992 0.1801998194
555296670.0 -0.065545654 0.1635457697 0.2157806614 -0.514617936 0.2159451007 -0.5147605083 -0.0453964372 0.18098607
560296640.0 -0.0641811337 0.1643173124 0.2101514378 -0.5168727575 0.2105026204 -0.5169512084 -0.0430740078 0.1812321476
565296610.0 -0.0627505529 0.1652943659 0.2045040923 -0.5191895175 0.2042949894 -0.5192331538 -0.0417348096 0.1818805112
570296580.0 -0.0607656694 0.1659415855 0.1987562006 -0.5212871035 0.1995837389 -0.5216310558 -0.0393553317 0.183236435
575296550.0 -0.0591354342 0.1671979101 0.1932423674 -0.5235583238 0.1937633825 -0.5236215083 -0.0371414136 0.1834739705
580296520.0 -0.0577454218 0.1674370263 0.1877655504 -0.5255367308 0.1875792825 -0.5255286154 -0.0354295391 0.1837617464
585296490.0 -0.0560768438 0.1677552227 0.1823196885 -0.5273627494 0.1820623576 -0.5271872562 -0.0336189534 0.1841542128
590296460.0 -0.0547169642 0.1687211589 0.1761076218 -0.5293586415 0.1760402338 -0.5298636839 -0.0312102225 0.1851577288
595296430.0 -0.0527716366 0.1693816643 0.1704013063 -0.5315980319 0.1704853686 -0.5317154892 -0.0292631734 0.1854056238
600296400.0 -0.0512317753 0.1700569343 0.1647539357 -0.5329749884 0.1650129544 -0.5333201126 -0.0274907597 0.1860624786
605296370.0 -0.0493435119 0.1711397577 0.1590449944 -0.5350858523 0.1593989036 -0.5347149715 -0.0257002765 0.1862363224
610296340.0 -0.0479488012 0.1714338186 0.1536568682 -0.5362862593 0.1533645197 -0.5367280657 -0.0230591259 0.187172358
615296310.0 -0.046054299 0.1721057943 0.1469428611 -0.537844003 0.1473146722 -0.5384603294 -0.02109515 0.1872789564
620296280.0 -0.0448922213 0.1725328253 0.1418179797 -0.5394526856 0.1416002529 -0.5395871178 -0.0192311792 0.1871678435
625296250.0 -0.0428153138 0.1729902263 0.1351470228 -0.5415198462 0.1357107692 -0.5412991296 -0.0171046246 0.187981214
630296220.0 -0.0412035468 0.1739222947 0.1294997649 -0.5425872541 0.1302466758 -0.5424118789 -0.0155350171 0.1884021935
635296190.0 -0.0395132103 0.174239256 0.1238640998 -0.5433801649 0.1234776796 -0.5435693775 -0.0133850639 0.1886943373
640296160.0 -0.037954109 0.1748040602 0.1180316539 -0.5449895977 0.1180723495 -0.5450529647 -0.0109198089 0.1887450446
645296130.0 -0.036103944 0.1754812263 0.1121758307 -0.546371237 0.111946173 -0.5464287017 -0.0095680729 0.1886645653
650296100.0 -0.034801067 0.1761506162 0.1067564075 -0.547346395 0.1064180534 -0.5472232394 -0.0070931684 0.1895484495
655296070.0 -0.0328639825 0.1761828267 0.1005179897 -0.5481555738 0.1001595463 -0.548710642 -0.0048169686 0.1895240356
660296040.0 -0.0315760843 0.1770589947 0.0946290282 -0.5489836366 0.0944071187 -0.54921237 -0.0031267624 0.1893864299
665296010.0 -0.0295025925 0.1770826959 0.0889087074 -0.5504561052 0.0890412452 -0.5502619544 -0.0014458436 0.1903201108
670295980.0 -0.0273203927 0.177937756 0.0822402503 -0.5518339753 0.0830738992 -0.551279915 0.0007362253 0.1900132823
675295950.0 -0.0258593467 0.1779661523 0.0769020893 -0.5521557884 0.0769955569 -0.5521924899 0.0029701415 0.1903237597
680295920.0 -0.0239918384 0.178766941 0.0705740731 -0.5528729611 0.0705632783 -0.5532159416 0.0050495405 0.1901907117
685295890.0 -0.0223097392 0.1789820938 0.0644817039 -0.5532453471 0.0645544771 -0.5541275874 0.0072338824 0.1907274534
690295860.0 -0.0203884406 0.1793521002 0.0587849002 -0.5538187471 0.0583657578 -0.5544244877 0.0096762417 0.1908347478
695295830.0 -0.0184511885 0.1793232945 0.051850466 -0.5546963037 0.0525450139 -0.5547993958 0.011255439 0.1904836576
700295800.0 -0.0167846813 0.1797344984 0.0464201358 -0.5551652249 0.0465840979 -0.5556256277 0.013423859 0.190199006
705295770.0 -0.0152175765 0.180188918 0.0405993987 -0.5557259379 0.0405752149 -0.5559996735 0.0152019184 0.1905545609
710295740.0 -0.0133976016 0.1810404068 0.0344340201 -0.5563294916 0.0348708459 -0.5560175371 0.0168532152 0.1905631442
715295710.0 -0.011812459 0.1809533232 0.0281836097 -0.5562903441 0.0286487504 -0.5565470184 0.0193788594 0.1902741626
720295680.0 -0.0097080646 0.1809994135 0.0223777726 -0.5565959876 0.0229085209 -0.5570603315 0.0219753121 0.1902434065
725295650.0 -0.0079309151 0.1811450233 0.0160798466 -0.556619108 0.016654207 -0.556639916 0.0238565476 0.1902988963
730295620.0 -0.0064433258 0.1814647349 0.0106473712 -0.556960368 0.0105674345 -0.5568975806 0.0258100915 0.1897635013
735295590.0 -0.0040486629 0.1818520967 0.0045506753 -0.5567376481 0.0052746413 -0.5571203618 0.0279336069 0.1901645829
740295560.0 -0.0026951685 0.1820671067 -0.0012570827 -0.5561100168 -0.0015992668 -0.5568599549 0.0302562269 0.1896710285
745295530.0 -0.0007229782 0.1818388386 -0.007571087 -0.5565888385 -0.0071365393 -0.5572327342 0.0319589298 0.1898248394
750295500.0 0.0008160551 0.1820900747 -0.0130156981 -0.5564261061 -0.0134763504 -0.556483383 0.034384799 0.1891116779
755295470.0 0.0031314271 0.1825519875 -0.019298269 -0.5568784486 -0.0192245145 -0.55684837 0.0360440168 0.1893229192
760295440.0 0.0044623589 0.1827436367 -0.025557016 -0.5561774315 -0.0249467297 -0.556196027 0.0377552177 0.1889724971
765295410.0 0.0061955227 0.1826792536 -0.0309279162 -0.5556047175 -0.0314062317 -0.556295696 0.0406508971 0.1894240171
770295380.0 0.0084458238 0.1828781816 -0.0374816087 -0.5553876855 -0.0369797727 -0.555797613 0.0429336038 0.1883932529
775295350.0 0.0099868663 0.1829275919 -0.0431305023 -0.5545151966 -0.0428980994 -0.5548903576 0.0441030133 0.1876650069
780295320.0 0.0120239041 0.1829388189 -0.0493585927 -0.5545205396 -0.0488324004 -0.5549030616 0.0464865784 0.1882041718
785295290.0 0.0133002768 0.1833226509 -0.0548918185 -0.5534007979 -0.0554176708 -0.5540548188 0.0482643455 0.1874188955
790295260.0 0.0153927781 0.1832668951 -0.0608643157 -0.5536125472 -0.0612926123 -0.5535485125 0.0507358334 0.1871065544
795295230.0 0.0170378272 0.1830549712 -0.0664454071 -0.5520146074 -0.0669332701 -0.5524682307 0.0523804226 0.1873318021
800295200.0 0.0189052253 0.1833867642 -0.0732859174 -0.5519618218 -0.073243374 -0.5520370646 0.0546710345 0.1862394625
805295170.0 0.020538441 0.1832858845 -0.0790283505 -0.5505584217 -0.0788537345 -0.5510555323 0.0564656223 0.1858176802
810295140.0 0.0224887306 0.1830526781 -0.0843280217 -0.5499311289 -0.0846601432 -0.550337368 0.0588378794 0.185980965
815295110.0 0.0243774191 0.1832913069 -0.0910994158 -0.5487077749 -0.0910844323 -0.5488691531 0.0603650109 0.1847435558
820295080.0 0.0262435871 0.1828389106 -0.0966017094 -0.5478765753 -0.0966268088 -0.5483261789 0.0622599541 0.1843460626
825295050.0 0.0279802898 0.1827838839 -0.1027152715 -0.5464265426 -0.1025486854 -0.5473568505 0.064698852 0.1838143154
830295020.0 0.0299538717 0.1831317567 -0.1087184918 -0.5456603714 -0.1086670266 -0.5459185924 0.0665541518 0.1828474189
