!Created with skrf (http://scikit-rf.org).
# Hz S RI R 50.0 
!freq ReS11 ImS11 ReS21 ImS21 ReS12 ImS12 ReS22 ImS22
300000.0 -0.2411275978 -0.082705251 0.4730646099 0.0561029916 0.4699658654 0.0528932694 -0.2384601423 -0.0916033845
5299970.0 -0.2451564998 0.006487466 0.4751109319 0.0047372845 0.4746623781 0.0045670022 -0.2411864527 0.0077036366
10299940.0 -0.2417555305 0.0179801934 0.4768356784 0.0060453479 0.4771522265 0.0062293283 -0.2379438761 0.0207081162
15299910.0 -0.2375605528 0.0270411508 0.48012288 0.00735553 0.4806915903 0.0073697055 -0.2335317054 0.0303018953
20299880.0 -0.2328980054 0.034085805 0.4850682362 0.0082290321 0.4852346751 0.0079024949 -0.2281198058 0.0379528422
25299850.0 -0.2277419432 0.0402935101 0.4897373253 0.0070442957 0.4902684529 0.0069747744 -0.2220831176 0.0445737918
30299820.0 -0.2225928117 0.0451668347 0.4956556609 0.0048238809 0.4953991997 0.0049791719 -0.2162036983 0.0501321117
35299790.0 -0.2174823285 0.0492879739 0.5010112996 0.0015615223 0.5011467253 0.0015750969 -0.210728389 0.0546068606
40299760.0 -0.212688775 0.0524661013 0.5060326994 -0.0023233469 0.5060689323 -0.002280699 -0.205143962 0.0569705654
45299730.0 -0.2079774017 0.0547429988 0.5106186231 -0.0070171704 0.5110299138 -0.0068164067 -0.200669147 0.0604101011
50299700.0 -0.2038662724 0.0569478485 0.5146841483 -0.0126348574 0.5149253139 -0.0118078159 -0.1958130035 0.0620725231
55299670.0 -0.1998939556 0.058461559 0.5187085008 -0.018869237 0.5185743991 -0.0186737144 -0.191344271 0.0639241567
60299640.0 -0.1960842959 0.0598626692 0.521713391 -0.0252260803 0.5219517787 -0.0245022955 -0.1872728068 0.0650391287
65299610.0 -0.1928640573 0.060862452 0.5244708055 -0.0314404166 0.524897954 -0.0313895636 -0.1840100087 0.0666051084
70299580.0 -0.1900234872 0.0620378802 0.526857631 -0.0378309109 0.5270243416 -0.0376914868 -0.1806380505 0.0671939389
75299550.0 -0.1872307846 0.0629612959 0.5291824414 -0.0445009387 0.5289501415 -0.0443453691 -0.1775696259 0.0680163795
80299520.0 -0.1846930473 0.0635874253 0.530989872 -0.0513561543 0.5311467448 -0.0514690826 -0.1751797376 0.0688340675
85299490.0 -0.1822693895 0.0641390747 0.5318783599 -0.0582146959 0.5322781327 -0.0580692269 -0.1726520929 0.0694098475
90299460.0 -0.1804678285 0.0647730641 0.5328794124 -0.0652584567 0.5332664667 -0.065038254 -0.1704532637 0.0704122016
95299430.0 -0.1781619529 0.065297059 0.5339789347 -0.072041206 0.5341263516 -0.0721385223 -0.1677432681 0.0709022618
100299400.0 -0.176623681 0.0663061867 0.5338880152 -0.0788695141 0.5341780572 -0.0789736317 -0.1659997944 0.0715256718
105299370.0 -0.1747346198 0.0669368074 0.5344724322 -0.0861453365 0.5351648652 -0.0860471733 -0.1638468441 0.0725603992
110299340.0 -0.1733892553 0.0676360883 0.5350383912 -0.0927104422 0.534772872 -0.0923751205 -0.1628037902 0.0731876528
115299310.0 -0.1719218587 0.0680709998 0.5345194258 -0.0994106989 0.5351346907 -0.0995713955 -0.161000487 0.074001659
120299280.0 -0.170670113 0.068499641 0.5344036818 -0.1062035966 0.5345160072 -0.1061963072 -0.1595727408 0.0746781563
125299250.0 -0.1693269621 0.0691915105 0.5338417079 -0.1126514259 0.534331669 -0.1126787024 -0.1585828891 0.0751467493
130299220.0 -0.1685894855 0.0703931892 0.5333368895 -0.1200425912 0.5334854706 -0.1197877913 -0.1573510371 0.07642048
135299190.0 -0.1674510168 0.0710528855 0.5328670081 -0.1266562159 0.5331303832 -0.126144719 -0.1556318133 0.0770989608
140299160.0 -0.1668074864 0.0719382757 0.532278636 -0.1329500736 0.5323153441 -0.1333349456 -0.154637009 0.0782417384
145299130.0 -0.165642875 0.0728895866 0.5313408387 -0.1397294702 0.5310124868 -0.1394608053 -0.1539916548 0.0791805232
150299100.0 -0.1645774112 0.0738995895 0.530225353 -0.1454994114 0.5300847962 -0.1456778544 -0.1526635032 0.0805970128
155299070.0 -0.1640242965 0.074677891 0.5293527977 -0.1532440175 0.5290040562 -0.1523248483 -0.1516573575 0.0813544455
160299040.0 -0.1627999018 0.0758656588 0.5276521067 -0.159117248 0.5271166112 -0.1586429291 -0.1511414104 0.0822055635
165299010.0 -0.1623731957 0.0765699117 0.5255179335 -0.1655096142 0.5258098972 -0.1654266582 -0.149468376 0.0836980074
170298980.0 -0.1614456193 0.0779716089 0.5243705002 -0.1718225911 0.5244895102 -0.1718647977 -0.1487979285 0.0846635143
175298950.0 -0.1610312274 0.0790665867 0.5233383564 -0.1780542248 0.5225385793 -0.1778779082 -0.1479406422 0.0857980367
180298920.0 -0.1602738394 0.0801951674 0.5212347185 -0.1843010021 0.5209248074 -0.1842489401 -0.1467391665 0.0874587044
185298890.0 -0.1589745286 0.0810247254 0.5189759144 -0.1905707875 0.519381234 -0.1904762874 -0.1458237932 0.088729652
190298860.0 -0.1582936124 0.0823518415 0.5172274425 -0.1967060043 0.5174188578 -0.1968098454 -0.1449623813 0.0897926058
195298830.0 -0.1577482304 0.0832891158 0.5151022883 -0.2026810833 0.5155388424 -0.2026734703 -0.1437202985 0.0910077039
200298800.0 -0.156798858 0.0845885025 0.513126592 -0.2092201518 0.5134185627 -0.2088056636 -0.1433321307 0.0922501401
205298770.0 -0.1561534851 0.0861625752 0.5106848301 -0.2150087144 0.5111617277 -0.2145878584 -0.1420997297 0.0929634731
210298740.0 -0.1554330863 0.0867742969 0.5082820852 -0.2207393223 0.5089166641 -0.2208589624 -0.1408914751 0.0953283966
215298710.0 -0.1550292689 0.0881941869 0.5068277589 -0.226922978 0.5060904989 -0.2272794702 -0.1403654297 0.096117214
220298680.0 -0.1540803006 0.0892261538 0.5035690791 -0.2326020033 0.5038687896 -0.2325733105 -0.1394515912 0.0970897028
225298650.0 -0.1536259102 0.090564398 0.5014485061 -0.2385281978 0.5015999677 -0.2387192853 -0.1385121258 0.0989157614
230298620.0 -0.1525664232 0.0923176827 0.4993336262 -0.2444431987 0.4994312181 -0.2443683955 -0.1378425989 0.0999334191
235298590.0 -0.1516588272 0.0934843484 0.4963476436 -0.2498625781 0.4963128757 -0.2495221302 -0.1365620128 0.1014690365
240298560.0 -0.1508187825 0.0950440743 0.4936410132 -0.2562810325 0.493728546 -0.2561900818 -0.1359762392 0.1031099361
245298530.0 -0.1504222123 0.0964009503 0.4911435977 -0.2614595442 0.4910700318 -0.2616241017 -0.1346549533 0.1037973414
250298500.0 -0.1492188233 0.0978074731 0.487546676 -0.2673678626 0.4874073962 -0.266820314 -0.1337561452 0.1054722682
255298470.0 -0.148606143 0.0984730646 0.4847487511 -0.2723901783 0.4853298353 -0.2723257474 -0.1323989452 0.1068644405
260298440.0 -0.1480021055 0.1000085627 0.4819942449 -0.2784787347 0.4822510908 -0.2781494254 -0.1313255889 0.1084419776
265298410.0 -0.146751057 0.1017792939 0.4789154589 -0.2841992794 0.4795106176 -0.2837430647 -0.1303381493 0.1098947476
270298380.0 -0.1461004434 0.1030293534 0.4759820965 -0.2890131189 0.4762655395 -0.2892406741 -0.1293484705 0.1111575693
275298350.0 -0.1449917475 0.1042864544 0.4731228253 -0.2950990629 0.4731702537 -0.2944755419 -0.1280052126 0.1122796784
280298320.0 -0.143926605 0.105838082 0.4701505577 -0.3001323778 0.4698929399 -0.3000390902 -0.1266497427 0.1140465585
285298290.0 -0.1432584583 0.1072288814 0.4666645314 -0.305283713 0.4666773958 -0.3054765318 -0.1254743681 0.1152404593
290298260.0 -0.1418754769 0.1084317906 0.4630762813 -0.3104305739 0.4635904445 -0.3104461876 -0.1243093465 0.1167571634
295298230.0 -0.1407518319 0.1095729462 0.4597815249 -0.3159459682 0.4598859703 -0.3161065771 -0.1230114217 0.1179744718
300298200.0 -0.1402295198 0.1108193553 0.4568758042 -0.3209127168 0.457094589 -0.3213549798 -0.1216879197 0.1192946637
305298170.0 -0.1389705214 0.1121329071 0.452594419 -0.3267078353 0.4529676386 -0.3263323417 -0.1201550548 0.1202042519
310298140.0 -0.1381401991 0.1133293781 0.4494811788 -0.3310977694 0.4495864204 -0.3314204165 -0.1191537687 0.1220278901
315298110.0 -0.1371476139 0.1146280643 0.4457372267 -0.3368300329 0.4460573788 -0.3365813115 -0.1180537332 0.1227596154
320298080.0 -0.1361331635 0.1161675658 0.4415984488 -0.3419536339 0.441988884 -0.3418244172 -0.1165579779 0.1243091108
325298050.0 -0.1352704538 0.117275146 0.4381709525 -0.347034962 0.4382935043 -0.3465358222 -0.1156774299 0.1256014408
330298020.0 -0.1343577219 0.1182621648 0.4338876605 -0.3519767021 0.4346593963 -0.3518771751 -0.1146183901 0.1267429268
335297990.0 -0.1328595486 0.1192957264 0.4299448669 -0.3566100949 0.430073895 -0.3566037383 -0.1137960419 0.128704598
340297960.0 -0.1329062405 0.1210052443 0.4260245525 -0.3610364408 0.4260248056 -0.3617515208 -0.1119451436 0.1296732293
345297930.0 -0.1315639423 0.1227603534 0.4219226651 -0.3663180381 0.4217775814 -0.3663408112 -0.1110811399 0.1307017749
350297900.0 -0.130772695 0.1235957545 0.4174298123 -0.3707033133 0.4175107221 -0.3705751834 -0.1099100303 0.1327754118
355297870.0 -0.1293392672 0.1254380496 0.4136574481 -0.3751696991 0.4140145429 -0.3754066796 -0.1084502594 0.1339583826
360297840.0 -0.128158638 0.1267102212 0.4098234922 -0.3797468135 0.4098553217 -0.3798426309 -0.1068272808 0.1353210347
365297810.0 -0.1271822643 0.1283331433 0.405404497 -0.3844401692 0.4060455229 -0.3846287 -0.1056641886 0.1366629556
370297780.0 -0.1255719706 0.1296634669 0.4005058816 -0.3886998251 0.4014262919 -0.3886517482 -0.1038141655 0.1381807105
375297750.0 -0.1246663487 0.1306428294 0.3968218169 -0.3928520011 0.3975251782 -0.3932011335 -0.1027834652 0.1393574776
380297720.0 -0.1233926771 0.1319968671 0.3923148198 -0.3976161968 0.3927315482 -0.3969001958 -0.1016237501 0.140371242
385297690.0 -0.1223557285 0.133264457 0.3878327622 -0.4018347225 0.3879564931 -0.4014152998 -0.0996293308 0.1416299359
390297660.0 -0.1213474997 0.1349050676 0.38352364 -0.4060569089 0.3835136009 -0.4058363892 -0.0983553896 0.1428168326
395297630.0 -0.1198364119 0.1361796849 0.3792586916 -0.4105466402 0.3792517695 -0.4103112168 -0.0963951749 0.144264582
400297600.0 -0.1185806151 0.1375842697 0.3742118452 -0.4149590974 0.3748137751 -0.4142075929 -0.0952785039 0.1453524196
405297570.0 -0.1173892689 0.1386363862 0.3699574403 -0.4187002731 0.3703136227 -0.4181817218 -0.0934940005 0.146681295
410297540.0 -0.1161699336 0.1397992082 0.3654029785 -0.4228964986 0.3656232047 -0.4223299643 -0.0919500893 0.1479949513
415297510.0 -0.1145215578 0.1409575515 0.3607145755 -0.4265753236 0.3607894166 -0.4264572963 -0.0904602715 0.1491705573
420297480.0 -0.113246362 0.1427509534 0.3558689867 -0.43069407 0.3560362667 -0.4305045465 -0.0887119784 0.1499494836
425297450.0 -0.1122313539 0.1434670603 0.3514896412 -0.4340283366 0.3516964575 -0.4343074047 -0.0874480366 0.1515385256
430297420.0 -0.1110034396 0.1445683009 0.3468419196 -0.4376148474 0.3466055802 -0.4377284669 -0.0860367637 0.1526084895
435297390.0 -0.109363874 0.1459597819 0.3414905426 -0.4417696843 0.3414582904 -0.4416986322 -0.0835384025 0.1533307214
440297360.0 -0.1081037012 0.14743628 0.3368007842 -0.4454776192 0.3369992313 -0.4453615224 -0.0824348098 0.15436747
445297330.0 -0.1066283293 0.1480716868 0.3321209885 -0.4491005419 0.3322120978 -0.4484790002 -0.0805559585 0.1551634287
450297300.0 -0.1050159572 0.1492201425 0.3271785347 -0.4525987717 0.3271670004 -0.4528837435 -0.0787452616 0.1564691951
455297270.0 -0.1035949821 0.1506412197 0.3219966789 -0.456534589 0.3225403281 -0.4562085113 -0.0771645487 0.1574611258
460297240.0 -0.1023383457 0.1514883432 0.3172062074 -0.4593643854 0.3174888421 -0.4595836325 -0.0754693835 0.1587160125
465297210.0 -0.1005435233 0.1529691642 0.3123328917 -0.4629619904 0.3123070179 -0.4633232766 -0.0738463499 0.1592294022
470297180.0 -0.0993096709 0.1539061232 0.3067554312 -0.4663163052 0.3069178961 -0.4664712163 -0.0716724428 0.1605852313
475297150.0 -0.0979689434 0.1546259882 0.3018894626 -0.469271381 0.3022728565 -0.4693180235 -0.06988172 0.161069774
480297120.0 -0.0963807665 0.1564890327 0.2966884116 -0.4731188186 0.2966161912 -0.4732955744 -0.0680346976 0.1624951854
485297090.0 -0.094975518 0.1574024863 0.2919714373 -0.4759974533 0.2917938329 -0.4757368651 -0.0664735477 0.1633013499
490297060.0 -0.0940057997 0.1583540048 0.2866347949 -0.479862275 0.2867364955 -0.4790235737 -0.0644222594 0.1642159811
495297030.0 -0.0920053098 0.159329235 0.2807407581 -0.4824468506 0.2815801485 -0.4822070381 -0.0630628066 0.1650509069
500297000.0 -0.0902875406 0.1603019719 0.2754851835 -0.48506909 0.2756206303 -0.4847952752 -0.0611862266 0.1664811344
505296970.0 -0.0887513419 0.1613392247 0.2704342695 -0.4878695741 0.2706199775 -0.4880812418 -0.0592019208 0.1669150204
510296940.0 -0.0873459432 0.1624943629 0.265082337 -0.4913876454 0.2649881797 -0.4913208435 -0.0571040113 0.1676605056
515296910.0 -0.0858070752 0.1633360022 0.259798324 -0.493972007 0.2602873321 -0.4939049046 -0.0551984171 0.1684391049
520296880.0 -0.0843636925 0.164452145 0.2544623823 -0.4970503522 0.2544948883 -0.496762571 -0.053692946 0.1690527393
525296850.0 -0.0827148948 0.1649713756 0.2487278206 -0.4995539172 0.2492199965 -0.4995809744 -0.0516167114 0.1699177397
530296820.0 -0.0806381869 0.1659400596 0.2429220681 -0.5020182116 0.2434682843 -0.5022876657 -0.0498186618 0.1708783707
535296790.0 -0.0796366948 0.1671441474 0.2384984969 -0.5044425633 0.2381420704 -0.5040838582 -0.0482798876 0.170931027
540296760.0 -0.0779873889 0.168014324 0.2323610911 -0.5075978387 0.2324194024 -0.5072876171 -0.0464161432 0.1721897152
545296730.0 -0.0764555476 0.1688966384 0.2269596897 -0.5093333559 0.2269569157 -0.5094478131 -0.0446191671 0.1725487082
550296700.0 -0.0742397383 0.1699226245 0.2213612023 -0.5122485377 0.2216341172 -0.5120311124 -0.0427917061 0.1734531248
555296670.0 -0.0730048141 0.1705704038 0.2161567383 -0.5146291149 0.2159135205 -0.5144528888 -0.040669775 0.1742638256
560296640.0 -0.0708607156 0.1718621314 0.2102086416 -0.5171132839 0.2107238769 -0.5166087986 -0.0388540522 0.1745824395
565296610.0 -0.0698763076 0.1726107391 0.2042591524 -0.519049729 0.2051022923 -0.518759065 -0.0371622986 0.1747904077
570296580.0 -0.0680067415 0.1733066514 0.1988879629 -0.5217412391 0.1986938671 -0.5214062219 -0.0349838248 0.1762803156
575296550.0 -0.0667632005 0.1742041148 0.1935803472 -0.523625452 0.1934747331 -0.523308876 -0.0325558964 0.1762159632
580296520.0 -0.0646030225 0.1748387062 0.1875496331 -0.5256825545 0.1880567792 -0.5257130355 -0.0307598628 0.1766903315
585296490.0 -0.0633026004 0.1752212912 0.1820001258 -0.526852605 0.182339582 -0.5277070021 -0.0287911668 0.1774051548
590296460.0 -0.0611069992 0.1762212517 0.1766836781 -0.528890734 0.1765159396 -0.5292487355 -0.0274019578 0.1777960769
595296430.0 -0.0592125665 0.1769832492 0.1701679284 -0.5316107925 0.1704156799 -0.5310343525 -0.0251348897 0.1778256307
600296400.0 -0.0579257877 0.177619151 0.1648109895 -0.5329785026 0.1648525453 -0.5327687093 -0.0230850523 0.1784691982
605296370.0 -0.0563783547 0.1781864248 0.1591043564 -0.5344736806 0.1593249871 -0.5348047105 -0.0210622004 0.1789813036
610296340.0 -0.0546072046 0.1791131534 0.1531528178 -0.5360218987 0.1533806916 -0.5361537252 -0.0187248152 0.1793057098
615296310.0 -0.0521277209 0.1796277693 0.1471272899 -0.5374311172 0.1471959993 -0.5381368995 -0.0167775568 0.1793129222
620296280.0 -0.0507593778 0.180000716 0.1416998292 -0.539293907 0.1414873031 -0.5393882438 -0.0153762578 0.1799956115
625296250.0 -0.0494214164 0.1806294112 0.1359424875 -0.5410798473 0.1357327275 -0.5411628026 -0.0127178521 0.1802071111
630296220.0 -0.0467473548 0.1814396521 0.1292580358 -0.5420055094 0.1295661832 -0.5422537194 -0.0108431651 0.1810639642
635296190.0 -0.0459989549 0.181941698 0.1238456492 -0.5432748145 0.1239153163 -0.5435340315 -0.0088825869 0.1810908657
640296160.0 -0.0440766949 0.1828160923 0.1182564966 -0.5446951268 0.1184060585 -0.5448296444 -0.0069548133 0.1811899058
645296130.0 -0.042215175 0.1834359431 0.1119308474 -0.5460701243 0.1124984131 -0.5457943317 -0.0050312598 0.1814959489
650296100.0 -0.0403086067 0.1837893723 0.1062504347 -0.5467528871 0.1064920862 -0.547310039 -0.0025215826 0.1811781091
655296070.0 -0.0386862389 0.1842846863 0.1003192086 -0.5479914652 0.1004269872 -0.5482899684 -0.0005429148 0.1818857149
660296040.0 -0.0373022794 0.1844229331 0.0946752299 -0.5492917048 0.094273019 -0.5494169869 0.0015755578 0.1818806451
665296010.0 -0.034634607 0.1849579047 0.0877568362 -0.5501172161 0.0885578249 -0.550250193 0.0033702232 0.1822630755
670295980.0 -0.033928919 0.1858823652 0.0828170997 -0.550831439 0.0828578008 -0.551196725 0.0050171284 0.1824025997
675295950.0 -0.0316898263 0.1862930811 0.0765321751 -0.5518047223 0.0767743159 -0.5513521347 0.006901051 0.182475123
680295920.0 -0.0301385762 0.1864749985 0.0705361276 -0.5523388253 0.070375143 -0.5531212958 0.009335411 0.1832504178
685295890.0 -0.0279544502 0.1876754957 0.0644925475 -0.5534833071 0.0643220602 -0.5534640195 0.0110489525 0.1826857941
690295860.0 -0.0259138773 0.1876316796 0.0583945946 -0.5536188689 0.0587644831 -0.5542961473 0.0129795684 0.1834786392
695295830.0 -0.024401578 0.1879241906 0.0528775289 -0.5539741799 0.0523606878 -0.5545596691 0.0154030178 0.1830422128
700295800.0 -0.0223316152 0.1879922686 0.0464599559 -0.5546960505 0.0468615458 -0.5551363763 0.0170089472 0.1833621629
705295770.0 -0.0208164591 0.1889289478 0.0406751472 -0.5552642965 0.0407614064 -0.5556488489 0.0192860562 0.1832870677
710295740.0 -0.0187517288 0.1892499202 0.034847281 -0.5561972399 0.0352729962 -0.5559497677 0.0212888976 0.1826029073
715295710.0 -0.0172326026 0.1894540984 0.0291280382 -0.5561255584 0.0286769376 -0.5564167223 0.0235516942 0.1827394804
720295680.0 -0.0153224848 0.1894887266 0.0228415646 -0.5564800244 0.0227013451 -0.5564071321 0.025596924 0.1829346354
725295650.0 -0.0133032803 0.1900630516 0.0170164426 -0.5567660503 0.0170529682 -0.5568248414 0.0268939715 0.1829626728
730295620.0 -0.0113763611 0.190644196 0.0100712185 -0.5566623032 0.0107607957 -0.5570043239 0.0288226738 0.1825028744
735295590.0 -0.0095046876 0.1906820185 0.0048160234 -0.5571958686 0.0047548922 -0.5566816644 0.0308673475 0.1819414292
740295560.0 -0.0080224434 0.1909915626 -0.0010642195 -0.5567089207 -0.0011100897 -0.556829251 0.0333659573 0.1821555304
745295530.0 -0.006134747 0.1913034259 -0.0072178727 -0.5562595009 -0.0073438639 -0.5568035768 0.0356633229 0.1814746291
750295500.0 -0.0041217084 0.1912977381 -0.0133475697 -0.556037526 -0.0131322698 -0.5567121219 0.0373820616 0.1816428008
755295470.0 -0.0021717638 0.1912816421 -0.0187450672 -0.5563652938 -0.0190293509 -0.5565540072 0.0399297417 0.1809094598
760295440.0 -0.0005735275 0.1913757032 -0.0250324714 -0.5560920017 -0.025152153 -0.5561710265 0.0414250521 0.1805614808
765295410.0 0.0014699383 0.1918053574 -0.0311920701 -0.5559135405 -0.0315835037 -0.5561204306 0.0436649561 0.1807187632
770295380.0 0.0030734453 0.1916914767 -0.0373435504 -0.5551989297 -0.0371073542 -0.5555256036 0.0454899976 0.1799595106
775295350.0 0.004718247 0.1915465608 -0.0434926716 -0.5546485593 -0.0428516926 -0.5550368166 0.0465850475 0.1797945042
780295320.0 0.0069144485 0.1920473006 -0.0494445782 -0.5538254438 -0.0483785087 -0.5542126469 0.0491110501 0.1795585986
785295290.0 0.0083961918 0.1915882367 -0.0556556036 -0.5534542568 -0.0549369714 -0.5537870939 0.051771865 0.1789704206
790295260.0 0.0110408906 0.1921781832 -0.0605491612 -0.5528420869 -0.0602913019 -0.5527864767 0.053357628 0.1788181529
795295230.0 0.012566642 0.1919386139 -0.0669398483 -0.5520464168 -0.0664785323 -0.5523798151 0.0561554729 0.178552274
800295200.0 0.0141438549 0.1921081608 -0.073311836 -0.5512037734 -0.0729556987 -0.5516520873 0.0579308539 0.1777340395
805295170.0 0.0160558603 0.1919720712 -0.0785555281 -0.5506697715 -0.0786739134 -0.5508377085 0.0593747238 0.1775657396
810295140.0 0.0179310217 0.1916174978 -0.0845477882 -0.5494608431 -0.0848958111 -0.5498767199 0.0620535606 0.1771928692
815295110.0 0.0198579372 0.1915865986 -0.0905544843 -0.5483582701 -0.0903378842 -0.5489087705 0.0635499571 0.1765042963
820295080.0 0.0212626824 0.1921368746 -0.0965916874 -0.5476348143 -0.0957933466 -0.5477129777 0.0655462051 0.1759240305
825295050.0 0.0239464846 0.1919334763 -0.1022525125 -0.5464588398 -0.1020617201 -0.547007605 0.0676837349 0.1753335058
830295020.0 0.0258101036 0.1915999976 -0.1085562995 -0.5449730525 -0.1079105795 -0.5453927796 0.0700764344 0.1749380704
