!Created with skrf (http://scikit-rf.org).
# Hz S RI R 50.0 
!freq ReS11 ImS11 ReS21 ImS21 ReS12 ImS12 ReS22 ImS22
300000.0 -0.0440479344 -0.0706524154 -0.002142999 -0.0014483705 0.0003712294 0.0010902788 -0.7671167258 -0.199390341
5299970.0 -0.0460945358 0.0143096533 2.53443e-05 3.16658e-05 -6.7071e-06 0.0002622495 -0.7850974789 -0.0096570474
10299940.0 -0.040436341 0.0328135534 -2.87656e-05 4.63814e-05 9.24589e-05 -0.0001272971 -0.7875713091 -0.0053829532
15299910.0 -0.0317103564 0.0474951942 -0.0001408102 0.000115624 1.65284e-05 8.55211e-05 -0.7925430036 -0.0028320366
20299880.0 -0.0213887902 0.059410028 5.03856e-05 -0.0001796119 4.69465e-05 3.74879e-05 -0.7993846483 0.0018088515
25299850.0 -0.010127106 0.0686746784 1.97234e-05 3.4885e-05 1.13535e-05 -7.93632e-05 -0.8062232167 0.0077375092
30299820.0 0.0014809077 0.0754809475 -0.0001299935 -3.22158e-05 -0.0001308124 -0.0001092039 -0.8121393879 0.0154752297
35299790.0 0.0127779281 0.0800943966 -3.14327e-05 0.0002696797 1.8844e-05 -0.0001779115 -0.81701561 0.0246659195
40299760.0 0.0246159365 0.0831345239 -3.37687e-05 -2.78079e-05 -2.434e-05 5.73515e-05 -0.8212716189 0.0341666685
45299730.0 0.0351937042 0.0840811938 8.91525e-05 0.0001518489 0.0002594968 0.0001582168 -0.8241893796 0.0434505002
50299700.0 0.0456068129 0.084443837 2.76469e-05 9.19645e-05 -0.0002134613 6.15531e-05 -0.826606352 0.0538104958
55299670.0 0.0547100991 0.0834162205 5.4067e-05 -6.4335e-06 6.92639e-05 -4.85909e-05 -0.8289593119 0.0638386525
60299640.0 0.0635162043 0.0814480272 9.6936e-06 0.0001055593 -4.01799e-05 0.000132972 -0.8297049364 0.073828822
65299610.0 0.071384715 0.0793561658 8.7137e-05 0.0001616113 1.72395e-05 5.37856e-05 -0.8304117637 0.0838069497
70299580.0 0.078092716 0.0763041821 0.0002318177 3.6563e-06 -4.53972e-05 0.0002318146 -0.8311158591 0.0936158462
75299550.0 0.0844744826 0.0730140999 -0.0001384767 -8.4302e-05 6.29583e-05 -9.18e-06 -0.8309291489 0.104225164
80299520.0 0.0903874909 0.0694085197 0.0003128629 -0.0002062974 -4.87891e-05 4.60038e-05 -0.8309489638 0.1138239513
85299490.0 0.0956043334 0.0658336081 7.3396e-05 -0.0002369594 -1.61211e-05 -5.111e-06 -0.8299538996 0.1231249753
90299460.0 0.1005771062 0.0620194173 -8.75002e-05 9.96722e-05 1.79455e-05 -1.79238e-05 -0.8285761086 0.1328020386
95299430.0 0.1042017692 0.0580622209 5.67621e-05 0.0003355448 -7.04878e-05 0.0002140471 -0.8283168701 0.1422919416
100299400.0 0.1079199139 0.0543082607 -5.37307e-05 0.0001053904 0.0001850072 0.0001049193 -0.8270244154 0.151984235
105299370.0 0.1115884369 0.05019845 0.0001438481 0.0002532726 -4.7882e-06 0.0001026675 -0.825880468 0.1607972842
110299340.0 0.1145559698 0.0462168194 6.66688e-05 -3.43985e-05 7.28286e-05 1.19644e-05 -0.8243528996 0.1699486149
115299310.0 0.1170094715 0.0426754884 -0.000137808 -9.83437e-05 0.0001064918 -4.64387e-05 -0.8225674406 0.1790460512
120299280.0 0.1193444448 0.0389017841 -0.0001022838 0.000107016 0.0002093031 0.0001355427 -0.8211148108 0.18789914
125299250.0 0.1211975081 0.0351845297 6.34459e-05 0.0002004678 8.7764e-06 0.0001788555 -0.8193713392 0.1971738207
130299220.0 0.123044143 0.0312172686 8.49797e-05 -0.0001271757 7.7355e-05 0.0001945599 -0.8174150492 0.2055562654
135299190.0 0.1250014738 0.0278012378 9.1241e-06 -3.9083e-05 0.0002272213 -0.0001313682 -0.8155335801 0.2150607792
140299160.0 0.1260840243 0.024167975 0.000130602 0.0001298746 -4.49469e-05 -8.2126e-05 -0.8141041217 0.2231841029
145299130.0 0.1271754836 0.021167632 -0.0001931779 -0.0001023574 0.0002775734 0.0001003674 -0.8122700348 0.2323604174
150299100.0 0.1283015068 0.017707683 -6.31196e-05 0.000196364 -3.7689e-05 -6.95206e-05 -0.809442288 0.241363242
155299070.0 0.1292506192 0.0148858546 0.0002223402 -0.0001118556 0.0002013762 5.25981e-05 -0.807039861 0.250813416
160299040.0 0.1299133129 0.011479999 6.49739e-05 0.0003042608 -7.33791e-05 -0.0001876971 -0.804652818 0.2588937446
165299010.0 0.1305136557 0.0086043414 -9.18871e-05 -0.0001004403 9.45347e-05 0.000154683 -0.8013234277 0.2672524897
170298980.0 0.1308944395 0.0051759409 -3.75748e-05 0.000282828 0.0002255891 0.0001736403 -0.7994969506 0.2756839379
175298950.0 0.131369744 0.0023850115 0.0001305777 0.0001413873 -6.25672e-05 0.0001820253 -0.7965924448 0.2849044679
180298920.0 0.1315626012 -0.0001934765 0.0001481201 0.0001522514 3.2422e-06 7.26718e-05 -0.7932407654 0.2933593549
185298890.0 0.1316131801 -0.0032540352 0.0001155499 8.3156e-05 -5.8722e-06 6.28683e-05 -0.7903863019 0.3013870185
190298860.0 0.1317762619 -0.0061478888 0.0001614927 7.266e-07 -0.0001347761 3.62899e-05 -0.7872346656 0.3101368943
195298830.0 0.1320183667 -0.0083411492 0.0002948773 -1.5816e-05 0.0001310396 0.0001110839 -0.7837274643 0.3177824867
200298800.0 0.1321112291 -0.011186787 3.66066e-05 7.12103e-05 -7.19549e-05 8.87369e-05 -0.780556358 0.3270007777
205298770.0 0.1315772217 -0.0137773277 -0.0001230558 -9.97044e-05 0.0002756761 1.26491e-05 -0.7774911069 0.3348918205
210298740.0 0.1316830915 -0.0161626179 0.0001381673 6.17507e-05 0.0002600269 0.0001048973 -0.77401681 0.3433391708
215298710.0 0.1309193729 -0.0185099518 0.0001091494 -2.85869e-05 0.0003672409 0.0001286456 -0.7700653671 0.3511452183
220298680.0 0.1312193677 -0.0208991828 0.0001313576 0.0003172112 -0.0001812708 -1.63473e-05 -0.7662137937 0.3590460588
225298650.0 0.1306767605 -0.0232481246 1.22895e-05 0.0001829786 -9.45155e-05 7.07776e-05 -0.7629160605 0.3675742619
230298620.0 0.1299176088 -0.0251160325 -8.60583e-05 -0.0001078036 4.58623e-05 6.4597e-06 -0.7592806359 0.3755649622
235298590.0 0.1295841626 -0.0275540002 0.0002179762 -0.0001080776 0.0001468215 -5.86256e-05 -0.755146784 0.3832378377
240298560.0 0.1289674303 -0.0295030616 0.0001884721 0.0001485387 8.2866e-05 0.000149917 -0.7514413465 0.3909539865
245298530.0 0.1282469762 -0.0317119231 -5.17835e-05 0.0002469665 0.0002498278 7.15977e-05 -0.7469506059 0.3988905492
250298500.0 0.1278533064 -0.0338680912 8.74061e-05 0.0002244135 1.13868e-05 0.0001369449 -0.7430489167 0.4070894908
255298470.0 0.1273853693 -0.0357781514 0.0001702568 -0.0001311747 0.0001543562 0.000355866 -0.7388317656 0.4147115051
260298440.0 0.1269299833 -0.0381934414 -3.1513e-06 0.0002595767 0.0001589607 4.56196e-05 -0.7342561277 0.4219379465
265298410.0 0.1257340663 -0.0399025712 0.0001603327 0.0001830381 0.0004553303 0.0001663912 -0.7301815786 0.4298842385
270298380.0 0.1253073651 -0.0419949093 0.0002560316 6.27418e-05 0.0001219651 0.0001174629 -0.7246959138 0.4379438293
275298350.0 0.1247265319 -0.043673246 0.0001822516 0.0002014638 4.81219e-05 8.67526e-05 -0.7196562942 0.4453682019
280298320.0 0.1235588523 -0.0452528865 6.29006e-05 0.0004120936 -8.0158e-06 1.71649e-05 -0.7167066545 0.4525095954
285298290.0 0.1227859393 -0.0472022761 0.0001083669 0.0001855607 0.0001442316 0.0002716903 -0.7119777115 0.460578927
290298260.0 0.1217927941 -0.0490122998 0.0001644559 -1.68052e-05 3.56994e-05 9.30421e-05 -0.7064802016 0.4675587054
295298230.0 0.1210578691 -0.0511139954 0.000138655 0.0001167066 0.0002430398 0.0001670641 -0.7014819566 0.4751143591
300298200.0 0.1202593776 -0.0525256136 0.0001680355 0.0001376933 0.0001317261 0.0002275634 -0.6964866871 0.4818818175
305298170.0 0.1195344369 -0.0546282966 -2.87382e-05 0.0001566461 0.000211228 0.000175756 -0.6915399164 0.4888323979
310298140.0 0.1185272731 -0.056678259 7.91656e-05 6.39837e-05 0.000243719 8.42987e-05 -0.6866736281 0.4969111728
315298110.0 0.1175263703 -0.0586375073 0.0001148302 0.000179528 7.00261e-05 3.14453e-05 -0.6810746493 0.5041324533
320298080.0 0.1163670745 -0.0602868037 3.53743e-05 8.24558e-05 2.90942e-05 0.0003335238 -0.6763218333 0.5101414991
325298050.0 0.1146319911 -0.0622116461 3.52623e-05 0.0002129813 7.35688e-05 7.05752e-05 -0.6702899801 0.5175270289
330298020.0 0.1134317028 -0.0636062598 0.0001650504 0.0001793393 0.0001766597 -5.42562e-05 -0.6650251041 0.5242304817
335297990.0 0.1123331651 -0.0646493153 0.0002332105 5.4508e-05 2.85152e-05 3.3264e-05 -0.6594538789 0.531439543
340297960.0 0.1108730693 -0.0660897303 0.0002639526 0.0001774042 6.17031e-05 3.1059e-06 -0.6542655799 0.5383608458
345297930.0 0.1096558793 -0.0676523126 0.0001718666 0.0001024985 0.0001050161 8.8246e-05 -0.648930001 0.5447171394
350297900.0 0.1085543031 -0.0692606346 7.08854e-05 0.0001104822 0.000158467 0.0001642687 -0.6434911638 0.5510407675
355297870.0 0.1076056953 -0.0704990018 9.39408e-05 -2.23042e-05 0.0001000694 0.0001254381 -0.636572475 0.5586006961
360297840.0 0.1063249134 -0.0717760557 0.0002708169 0.0002341923 0.0002922342 1.31607e-05 -0.6307424874 0.5648475469
365297810.0 0.1050562323 -0.0731046931 0.0001750318 9.95109e-05 0.0001251613 0.0001814281 -0.6258004486 0.5708039877
370297780.0 0.103997719 -0.0744608211 0.0004015488 -1.24406e-05 0.0002469406 0.0002368965 -0.6192775209 0.5774802782
375297750.0 0.1027584816 -0.0754926091 0.0002304721 0.0001193477 0.0001263517 7.33805e-05 -0.6128911783 0.583618805
380297720.0 0.1014287133 -0.0765689919 8.6495e-06 9.5329e-05 0.000296659 7.4177e-06 -0.6068388082 0.5902942278
385297690.0 0.1001209957 -0.0779353526 0.000257458 0.0001159975 0.0002039427 0.0003179005 -0.6013153529 0.5965400063
390297660.0 0.0989572023 -0.0794907287 0.0001040557 -3.13381e-05 0.0001350282 8.34798e-05 -0.5942115885 0.602291298
395297630.0 0.09787061 -0.0804290133 0.0003011826 -4.24202e-05 2.8119e-05 -5.25132e-05 -0.5878879366 0.6078579979
400297600.0 0.0963243817 -0.0818436433 0.0003102448 0.0001614456 0.0001917343 0.0001458367 -0.5831140437 0.6144462982
405297570.0 0.0951944637 -0.0832606889 3.66592e-05 -4.56825e-05 0.0002691779 0.0001386456 -0.5754832328 0.620321693
410297540.0 0.0943873119 -0.084223634 0.0002636755 0.0001634533 9.41843e-05 7.49031e-05 -0.5691693196 0.6264927756
415297510.0 0.0926945081 -0.0853956556 0.0002329386 -2.347e-06 0.0001601383 8.43237e-05 -0.5628880753 0.6313657853
420297480.0 0.0914442077 -0.0869042525 0.0002000164 9.52379e-05 0.0002008453 0.0002165089 -0.5565647489 0.6381811848
425297450.0 0.0905344191 -0.0878404999 0.0002743153 2.23262e-05 0.0003387239 0.0003427853 -0.5495082198 0.6423612198
430297420.0 0.0889993496 -0.0889099514 0.0002272808 0.0001706751 -5.61158e-05 0.0001752504 -0.5426929375 0.6486346443
435297390.0 0.0877498068 -0.0899005046 0.0002117046 7.503e-05 0.0003654615 -3.32875e-05 -0.5365911321 0.6544940331
440297360.0 0.0865385074 -0.0909692094 0.0002795811 0.00021561 0.0002020697 6.94381e-05 -0.5302020935 0.6595592389
445297330.0 0.0852027291 -0.0920880746 0.0001262695 0.0001059244 0.0001740778 1.73121e-05 -0.5228859484 0.664573925
450297300.0 0.0838890211 -0.0931961062 0.0001145817 0.0001461156 0.000142762 -7.31507e-05 -0.5155408564 0.6697610256
455297270.0 0.0824693729 -0.0940461658 0.0002161694 2.32031e-05 0.0001662617 0.0001702243 -0.5091217059 0.6748519917
460297240.0 0.0814992626 -0.0948750139 0.0002080889 8.87121e-05 0.0002993468 0.0001980891 -0.5022844074 0.680387021
465297210.0 0.0800555064 -0.0957507096 0.0002736086 0.0002733624 0.0002642519 8.77665e-05 -0.4951820541 0.6857800021
470297180.0 0.0787559072 -0.0967591795 0.0004989395 0.0001884588 0.0003087421 0.0001607679 -0.4879986307 0.6902004233
475297150.0 0.0772051717 -0.0974955331 0.0003165369 0.000243696 0.0001828584 0.0001914322 -0.4811323568 0.6953176037
480297120.0 0.0762271472 -0.0986698585 7.1436e-05 7.80143e-05 0.0001944186 7.93031e-05 -0.4744876535 0.7001085722
485297090.0 0.0746767071 -0.0992488467 0.0003138904 9.2137e-05 7.37231e-05 0.0001720553 -0.4671158491 0.7047801281
490297060.0 0.0740061752 -0.1002283821 0.0003430833 4.33788e-05 0.000219935 0.0002045944 -0.4597129783 0.7092141431
495297030.0 0.0724356045 -0.1012068439 0.0001845374 3.92613e-05 0.0003080687 7.06767e-05 -0.4519976626 0.7137307936
500297000.0 0.0708559234 -0.1019213022 0.0002263749 0.0001811812 0.0001247968 -5.95235e-05 -0.4448674809 0.718798051
505296970.0 0.0696177922 -0.1029602265 0.000228399 0.0001701869 0.0003105297 0.0002599744 -0.4372973093 0.7225235286
510296940.0 0.0683790037 -0.1033845937 0.000180477 0.0001818439 2.8742e-06 -3.40491e-05 -0.4294901017 0.7273816291
515296910.0 0.067051833 -0.1040088626 0.0002546915 0.0001106169 0.0002308766 0.000177155 -0.4231729127 0.7312542042
520296880.0 0.0659930407 -0.1048775074 0.0002748978 9.61999e-05 0.0002314577 0.0001415073 -0.4151401593 0.73593367
525296850.0 0.0642540082 -0.1055643775 0.0002341633 0.0003207993 0.0003832675 9.66961e-05 -0.4082138995 0.7391122818
530296820.0 0.0627950898 -0.106063642 0.0002848052 0.0001701903 0.0002017867 0.0001425426 -0.4003165536 0.743757127
535296790.0 0.0620727546 -0.106597041 9.38387e-05 0.0001884754 0.0002862404 9.48843e-05 -0.3932169868 0.748098382
540296760.0 0.0608532298 -0.1073178315 0.0002741766 -5.50408e-05 0.0004302858 7.81218e-05 -0.3849262938 0.7513384682
545296730.0 0.0590465692 -0.1077672502 0.000161224 0.0001988592 0.0003210209 3.1838e-05 -0.3778179492 0.7554237841
550296700.0 0.0578768912 -0.1081393232 0.0003305643 -4.73261e-05 0.0001589637 0.000154059 -0.3701143355 0.75961087
555296670.0 0.056444189 -0.108789479 0.0002327044 0.0002248357 0.0003046803 2.93975e-05 -0.3627208984 0.7619049368
560296640.0 0.0555038406 -0.109464971 0.0003772107 -3.44023e-05 0.0005139257 -5.32243e-05 -0.3547432194 0.7666950254
565296610.0 0.053748432 -0.1097704843 0.0001386574 8.96513e-05 0.0001787453 8.58535e-05 -0.3465409206 0.7698030465
570296580.0 0.0524437548 -0.1099307318 0.0001697255 -2.31703e-05 0.0004471042 -5.46364e-05 -0.3387862018 0.7728331557
575296550.0 0.0511399723 -0.110743074 0.0002984253 0.000310284 0.0005201365 1.75186e-05 -0.3309116714 0.7765528939
580296520.0 0.0497243819 -0.1107363426 9.72575e-05 1.14889e-05 0.0001132744 1.09283e-05 -0.3234865171 0.7798591286
585296490.0 0.0482453866 -0.1110123024 0.0001488887 -1.47839e-05 0.0002373762 8.94401e-05 -0.3155428318 0.7834651055
590296460.0 0.0474640541 -0.1112792613 0.0001503703 0.0003694598 0.0002934453 -1.25237e-05 -0.3075524961 0.7857263272
595296430.0 0.0456942154 -0.1117699648 0.0002415408 0.0003068096 0.0001025316 0.0001147122 -0.2995276246 0.7891426444
600296400.0 0.0441092035 -0.1121117261 0.0004605456 0.000179356 0.0003354789 7.10444e-05 -0.291944947 0.7916558015
605296370.0 0.0428326377 -0.1121978619 0.0002525963 0.0001691385 0.0001854404 6.50854e-05 -0.2838245923 0.7953446036
610296340.0 0.0415037173 -0.1125847113 0.0003157308 -4.6779e-05 0.000397012 0.0001596467 -0.2757266366 0.7976108484
615296310.0 0.0402798785 -0.1128218045 0.00031922 0.0001194897 0.000323507 5.80405e-05 -0.2673382248 0.8004672502
620296280.0 0.0388113966 -0.1125363189 0.0002718528 -0.0001129004 0.0001775482 -8.71657e-05 -0.25996792 0.8032847245
625296250.0 0.0371530213 -0.1128989445 0.0003809458 0.0001050552 0.0004999028 0.0002159051 -0.251429808 0.8049883988
630296220.0 0.0359651962 -0.1129426184 0.0004580823 0.0001234915 0.0001431018 0.0002366042 -0.2434415633 0.8083007439
635296190.0 0.0345390814 -0.1130022462 0.0002752868 0.000201962 0.000307705 4.5397e-06 -0.2357523626 0.8098327131
640296160.0 0.0328836073 -0.1132948206 0.0002057588 -5.94138e-05 0.0002888072 0.0002273071 -0.2269049029 0.8122654528
645296130.0 0.0317697604 -0.1132275477 0.0002404647 0.0001695704 0.000393515 4.252e-07 -0.2194745058 0.8144701522
650296100.0 0.0302803101 -0.1132890072 0.00023645 0.0001490563 0.0002485099 -0.000105327 -0.2111061921 0.8169408404
655296070.0 0.0287663289 -0.1136563672 0.0003577594 0.0001004129 0.0002992418 -2.90169e-05 -0.2031566248 0.8191460994
660296040.0 0.0273346153 -0.113268444 0.0002841875 -0.0002067958 0.0002351267 -3.88372e-05 -0.1938814436 0.8209762737
665296010.0 0.0257922532 -0.1130560124 0.0002642934 4.71953e-05 0.0003314017 0.0001037288 -0.1865302049 0.8222589544
670295980.0 0.0243748558 -0.1131140814 0.0004338695 0.0001777423 0.0005180375 2.8298e-05 -0.1785245037 0.8244261481
675295950.0 0.0230329031 -0.1133031268 0.0003897016 -0.00013603 0.0001779776 -0.000191884 -0.1699814797 0.8259696965
680295920.0 0.0212479457 -0.1128633185 0.0002793053 2.39558e-05 0.0003951902 0.0001324439 -0.1610364006 0.8279261553
685295890.0 0.0200070362 -0.1129632726 0.0004722704 -9.77971e-05 0.0005523717 7.58573e-05 -0.1532448379 0.8294009841
690295860.0 0.0186071861 -0.112751617 0.000298508 3.26514e-05 0.0003508401 0.0002092046 -0.1450634723 0.8311148853
695295830.0 0.0168475931 -0.1131229167 0.0002960426 -0.0001241616 0.0003228673 -1.17233e-05 -0.1371633422 0.8328545384
700295800.0 0.015654733 -0.1124960545 0.000243804 7.1938e-05 0.0004829445 -3.19019e-05 -0.1286197886 0.8333923675
705295770.0 0.0140272483 -0.1126455668 0.0003183252 2.5999e-05 0.0003870205 0.0003024931 -0.1207327914 0.8351733491
710295740.0 0.0125284436 -0.1123571314 0.0005321254 4.34862e-05 0.0002810611 2.22703e-05 -0.1122881805 0.8364471579
715295710.0 0.0113847152 -0.1119769107 0.0005718243 0.000138965 0.0003262648 3.1925e-05 -0.1035846063 0.8366399913
720295680.0 0.0096671223 -0.1117485843 0.0003088503 0.000150727 0.0005358634 -0.0001046592 -0.0948295159 0.837866169
725295650.0 0.0083684636 -0.1114855894 0.0003533744 2.03451e-05 0.000301759 0.0001280609 -0.0869656461 0.8392269652
730295620.0 0.006573922 -0.1114726699 0.0004097687 -5.36623e-05 0.0003519416 -0.000147095 -0.0785087357 0.8406723646
735295590.0 0.0051534394 -0.110954428 0.0006778823 -0.0001161975 0.0002684855 0.0002270114 -0.0693357553 0.8405253017
740295560.0 0.0033929289 -0.1109378568 0.0003525081 5.11663e-05 0.0003909401 0.0001777162 -0.0614345442 0.841355334
745295530.0 0.0022699531 -0.1104235612 0.0002504257 6.72801e-05 0.0002853054 -7.94676e-05 -0.0534585574 0.8418984017
750295500.0 0.0006392248 -0.1100527472 0.0005819772 -0.0001495403 0.0002405802 0.0001134686 -0.0447986047 0.8420480814
755295470.0 -0.0008078595 -0.1100148616 0.0002422723 -0.0003079914 0.0003092682 -0.0001566963 -0.0371231452 0.8429062924
760295440.0 -0.0022308865 -0.1093459765 0.0003726657 -0.0001623232 0.0004977301 -7.71721e-05 -0.0278914413 0.8425439256
765295410.0 -0.0035986921 -0.1092407764 0.0005925821 4.076e-06 0.0006117549 5.6483e-05 -0.0197801234 0.8428878629
770295380.0 -0.0053407448 -0.1086878633 0.0003979191 -0.0002020262 0.0003332206 -2.96186e-05 -0.0116907599 0.8432348398
775295350.0 -0.0067839072 -0.1083249062 0.0001968954 0.0001047318 0.0002821982 4.34179e-05 -0.0035442464 0.8432157228
780295320.0 -0.0079359033 -0.1082393297 0.0001797996 2.55841e-05 0.0002224325 8.37784e-05 0.0054787768 0.8439535037
785295290.0 -0.0096240426 -0.1076327094 0.0003574257 -8.184e-07 0.0003405469 -1.26635e-05 0.0133837364 0.8435495383
790295260.0 -0.0109611752 -0.107558648 0.0002977603 -0.0001121171 0.0002879517 -0.0002086713 0.0218873128 0.8432616041
795295230.0 -0.0124533761 -0.106652958 5.4572e-05 -6.8634e-05 0.0005889454 -0.0001164963 0.0297680352 0.8424716615
800295200.0 -0.01397 -0.1065390431 0.0004511224 -9.90981e-05 0.0005542965 3.31799e-05 0.0381378401 0.841996297
805295170.0 -0.0155149841 -0.1060063792 0.0003511064 -0.0002377366 0.0005106976 -0.0001523421 0.0475073638 0.8420671894
810295140.0 -0.016788745 -0.1052215463 0.000341994 -0.0001683649 0.0002113016 -0.0002252474 0.0556289042 0.8413896236
815295110.0 -0.0181972202 -0.1049673755 0.0004696371 -0.0001417237 0.0003680793 -0.0001746902 0.063201451 0.8410800799
820295080.0 -0.019865757 -0.1044995468 0.0005171844 -0.0001760963 0.0003362478 -0.0002164361 0.0713954771 0.8407059746
825295050.0 -0.021576958 -0.1043708425 0.0005236321 -1.81217e-05 0.0002560609 3.0949e-06 0.0803715942 0.8392577805
830295020.0 -0.0226733332 -0.1038355903 0.0003560708 -0.0001676872 0.0003791082 -1.5668e-06 0.0881733569 0.8379717181
835294990.0 -0.0241480418 -0.1031744288 0.000467157 -0.0002610794 0.0004905184 -0.0002122213 0.0967997462 0.8380576582
840294960.0 -0.025319309 -0.1026604814 0.0003409552 -0.0001560982 0.0004128729 -0.0001179338 0.1054749118 0.8367738521
845294930.0 -0.0266198745 -0.1019740776 0.0001472863 -0.0001120349 0.0004446101 -0.0001883102 0.1137988476 0.8355337983
850294900.0 -0.0279119916 -0.1017205682 0.0001585228 -0.0001301598 0.0003944288 4.3391e-05 0.1213372529 0.8341558561
