!Created with skrf (http://scikit-rf.org).
# Hz S RI R 50.0 
!freq ReS11 ImS11 ReS21 ImS21 ReS12 ImS12 ReS22 ImS22
300000.0 -0.2335742655 -0.1200584937 0.465635803 0.0795764197 0.464781424 0.079584498 -0.2353463399 -0.12558212
5299970.0 -0.2447788658 0.0056555526 0.4734175762 0.0059037815 0.4740565845 0.0058323242 -0.2438876324 0.0051334126
10299940.0 -0.2416272301 0.0183757465 0.4762063936 0.0069052603 0.4759767179 0.0073589022 -0.2402740847 0.0180608391
15299910.0 -0.2366547792 0.0283833763 0.4792422178 0.008021091 0.4795664339 0.0083893773 -0.2360543838 0.0275524435
20299880.0 -0.2315757483 0.0364264019 0.4844236704 0.0083751711 0.4844926534 0.0086291127 -0.2312325725 0.0354176677
25299850.0 -0.2255975956 0.0428761398 0.4896998518 0.0079968356 0.4897048599 0.0076615662 -0.2262512495 0.0418219486
30299820.0 -0.2200732474 0.0476228222 0.49496768 0.0057194682 0.4951374687 0.0053303953 -0.2206539816 0.0469729289
35299790.0 -0.2143015727 0.0517270864 0.5000176131 0.002394684 0.5005490872 0.0022468984 -0.2154443627 0.0516186486
40299760.0 -0.2092785025 0.0548596881 0.5056180301 -0.0014711158 0.505809393 -0.0017107777 -0.2104829591 0.05478892
45299730.0 -0.2039755284 0.0572469279 0.5102691242 -0.0060721409 0.5107432083 -0.0066579374 -0.2057703805 0.0576939517
50299700.0 -0.1990321028 0.0590736811 0.5146833888 -0.0119188955 0.5147268006 -0.0125647402 -0.2010472742 0.0601327913
55299670.0 -0.1948417966 0.0603163374 0.5182460773 -0.0173370281 0.5184183227 -0.0181675101 -0.1975322076 0.0618970631
60299640.0 -0.1909272819 0.0619743486 0.5221184972 -0.0238155593 0.5216029049 -0.0239906254 -0.1936492359 0.0629410124
65299610.0 -0.1872389952 0.062787538 0.524685108 -0.0302082644 0.5249013721 -0.0305480974 -0.189903253 0.0646384661
70299580.0 -0.1841831315 0.0630671899 0.5277000047 -0.0365423351 0.5276363863 -0.0369776584 -0.1873448825 0.0659810631
75299550.0 -0.1811199312 0.0636562674 0.5287697938 -0.0440145645 0.5293220494 -0.0439309724 -0.1842245842 0.0668647419
80299520.0 -0.1783051702 0.0647467545 0.5310378532 -0.0508363888 0.5311138564 -0.0509425293 -0.1815741792 0.0680707249
85299490.0 -0.1757309195 0.0646478483 0.532169805 -0.0576851975 0.5323248055 -0.0573590069 -0.1791451497 0.0686625551
90299460.0 -0.1733487406 0.0654004148 0.532843141 -0.0648040146 0.5333823669 -0.0644228689 -0.176952341 0.0698038655
95299430.0 -0.1713842399 0.0657206816 0.5339552237 -0.0718091648 0.5342956444 -0.072014442 -0.1747994219 0.0705216796
100299400.0 -0.1695586381 0.0660588329 0.5346175919 -0.0781152372 0.5345481975 -0.0783734847 -0.1730342947 0.0718796242
105299370.0 -0.167501542 0.0667072551 0.5348495644 -0.0852102308 0.5353540969 -0.085333826 -0.1711506352 0.0723370625
110299340.0 -0.1657344893 0.0669995628 0.5350802821 -0.0915787646 0.5352308078 -0.0919951056 -0.1696428142 0.0732688041
115299310.0 -0.1645077514 0.0676708652 0.5352425722 -0.0988704382 0.5351289685 -0.0989365447 -0.1682212177 0.0742472618
120299280.0 -0.1631722084 0.0683793097 0.5352388062 -0.1059715419 0.5346360169 -0.1058819807 -0.1671558501 0.0746697584
125299250.0 -0.1618478177 0.0686118253 0.5345846146 -0.1125952566 0.5348479149 -0.1123023286 -0.1649975093 0.0759953423
130299220.0 -0.1607063236 0.0691071882 0.5340654709 -0.1193410987 0.5342002461 -0.1197269146 -0.1639887532 0.077190848
135299190.0 -0.1596989932 0.0701787049 0.5336047868 -0.125624545 0.5338835058 -0.1261005883 -0.1628795655 0.0779512391
140299160.0 -0.1583391055 0.070773601 0.5325879595 -0.1326925427 0.5328536487 -0.1322615264 -0.1624753764 0.078694174
145299130.0 -0.1578327064 0.0719390725 0.5318656743 -0.1390392189 0.5318412982 -0.1392488365 -0.160711186 0.0800018771
150299100.0 -0.1565802576 0.0727125185 0.5306965029 -0.1458862191 0.530703426 -0.1457238395 -0.1600008523 0.0812829967
155299070.0 -0.1555891876 0.0734894207 0.5287016652 -0.152292708 0.5293196127 -0.152440435 -0.1586687101 0.0825108093
160299040.0 -0.1548120823 0.0745480959 0.5279210828 -0.1587221963 0.5278198757 -0.1590313902 -0.1579574785 0.0834693483
165299010.0 -0.1537257562 0.0752003967 0.5266887568 -0.1647621235 0.5265759052 -0.1651393285 -0.1566652618 0.08453972
170298980.0 -0.1531195236 0.0762828247 0.5247611196 -0.1714350165 0.5251980115 -0.1717333662 -0.1560425007 0.0858989172
175298950.0 -0.1522405499 0.0773314089 0.5233881504 -0.1777005148 0.5236585561 -0.1780246277 -0.1548764917 0.0875148425
180298920.0 -0.1515425956 0.0784554335 0.521513221 -0.1843667762 0.5217224167 -0.184327876 -0.1540958007 0.0881400906
185298890.0 -0.1507187724 0.0792505528 0.5206400947 -0.1899453521 0.5198641635 -0.1902293507 -0.1526306808 0.0895289512
190298860.0 -0.1497947397 0.0808681824 0.517533713 -0.1965858946 0.518081688 -0.1967146744 -0.1521611557 0.0910050836
195298830.0 -0.1491000034 0.0818847371 0.5159044357 -0.2026165222 0.5162582076 -0.2028900324 -0.1510242334 0.0925066425
200298800.0 -0.1481009711 0.0827167377 0.5139911076 -0.2090666376 0.5140266784 -0.2087998175 -0.1502989813 0.0934988631
205298770.0 -0.1478944002 0.0839700554 0.5117112842 -0.2147599484 0.5119779684 -0.2147590971 -0.1493372155 0.0949431088
210298740.0 -0.1468745293 0.0854506635 0.5094810844 -0.2208318304 0.5092506301 -0.2207008437 -0.1485457906 0.0962436884
215298710.0 -0.1460904221 0.0866348909 0.5069496356 -0.2265179884 0.5069814978 -0.22656623 -0.1476812743 0.0977287499
220298680.0 -0.14508117 0.0878496566 0.5041885525 -0.2326089933 0.504487852 -0.2325663149 -0.1465439062 0.0989864415
225298650.0 -0.1447920949 0.0892083164 0.5019023772 -0.2383848763 0.5022805371 -0.2380208901 -0.1455491178 0.1001865999
230298620.0 -0.1436242999 0.0904574242 0.4995012249 -0.2442447258 0.5000642124 -0.2444454917 -0.1446650767 0.1016130917
235298590.0 -0.1430565086 0.0919091045 0.4971260173 -0.2506524148 0.4970310608 -0.2500812788 -0.1432585849 0.1033919183
240298560.0 -0.1422887453 0.0931717623 0.4945010914 -0.2556011072 0.4943850957 -0.2557333869 -0.1423283198 0.1045761474
245298530.0 -0.1416036558 0.0941936348 0.4914323092 -0.2614348257 0.4916001462 -0.2616460007 -0.1413560244 0.1058748026
250298500.0 -0.1411647814 0.0953680249 0.4890186861 -0.2669105471 0.4889873699 -0.266945822 -0.140606902 0.1079512628
255298470.0 -0.1397782659 0.0973453371 0.4859184158 -0.272390452 0.4864874939 -0.2728753326 -0.1392312496 0.109282102
260298440.0 -0.1389519908 0.098078892 0.4830760898 -0.277836418 0.4830558298 -0.2780458096 -0.1382348754 0.1103341645
265298410.0 -0.1385929147 0.0997321072 0.4801597835 -0.28395062 0.4798290445 -0.2838357831 -0.1368405581 0.1115253714
270298380.0 -0.1376872381 0.1007786136 0.4767476778 -0.2888560842 0.4769564805 -0.288793559 -0.1358719049 0.1133222296
275298350.0 -0.1366389118 0.1022932611 0.4730468535 -0.2943799737 0.4733570952 -0.2945264051 -0.1345423883 0.1150202408
280298320.0 -0.1360962305 0.1035407119 0.4702211842 -0.2997170078 0.4710135004 -0.2999230892 -0.133611361 0.1163919642
285298290.0 -0.135101136 0.1050023757 0.4673523735 -0.3050560004 0.4676000357 -0.3049627399 -0.1326751987 0.1179269417
290298260.0 -0.1343031018 0.1063249073 0.4643532436 -0.3104827419 0.4639754689 -0.3105996259 -0.1312005191 0.1192860993
295298230.0 -0.1332933627 0.1074556002 0.4608756209 -0.3156902306 0.4609546975 -0.3160363193 -0.129967614 0.1206216104
300298200.0 -0.1324912292 0.1091296237 0.4571619501 -0.321225548 0.4574662093 -0.3208641599 -0.1288695053 0.1220844665
305298170.0 -0.1314425666 0.1099491744 0.4538025518 -0.3263202506 0.4541574107 -0.3265784377 -0.1275691169 0.1233666467
310298140.0 -0.1301119736 0.1113432547 0.4501685532 -0.3315564918 0.4504224442 -0.3312689296 -0.1259603186 0.1247059335
315298110.0 -0.1296121702 0.1122593732 0.4468662129 -0.3365330395 0.4466436076 -0.3369442418 -0.1247271319 0.1257016553
320298080.0 -0.1287042784 0.1136611544 0.4423529931 -0.3419118456 0.4432828479 -0.3420354655 -0.1236264949 0.1268588221
325298050.0 -0.1281262927 0.1146328085 0.4391285614 -0.3466330781 0.4392508786 -0.3469092955 -0.1221064584 0.1280922916
330298020.0 -0.1277725444 0.1159767311 0.4351250833 -0.351822028 0.4353072888 -0.3518466225 -0.1214108659 0.1295626518
335297990.0 -0.126538261 0.1172916453 0.4311589407 -0.356630085 0.4313270935 -0.3566428448 -0.1198636784 0.1308327497
340297960.0 -0.1257922337 0.1185808221 0.4266029053 -0.3620704628 0.4269324538 -0.3619298644 -0.1187328614 0.1326834879
345297930.0 -0.1249119173 0.1197201251 0.4230705334 -0.3661195862 0.4230980839 -0.3663146226 -0.1171402384 0.1339412372
350297900.0 -0.1239299938 0.120987377 0.4190645327 -0.3703826179 0.4193457818 -0.37079224 -0.1161434726 0.1352691844
355297870.0 -0.1230458438 0.1226565527 0.4152693211 -0.3749864525 0.4148212683 -0.3748754312 -0.1145128303 0.1367753606
360297840.0 -0.1220766155 0.1236458088 0.4100832995 -0.3795741007 0.4107038304 -0.3803939866 -0.113362518 0.1382120728
365297810.0 -0.1213214723 0.1251016166 0.4063632836 -0.3843812269 0.4063841106 -0.3845868935 -0.112021288 0.1392333817
370297780.0 -0.1199117716 0.1266109264 0.4017304456 -0.3889223505 0.4025537173 -0.3890329809 -0.1107867167 0.1407344817
375297750.0 -0.1191375671 0.1275515558 0.398109764 -0.3932984712 0.3978676041 -0.3933749681 -0.1089876217 0.1422039494
380297720.0 -0.1179862309 0.1292859427 0.3940788857 -0.3977602952 0.3936337808 -0.3977817863 -0.1072461453 0.143698421
385297690.0 -0.1167684738 0.1301186184 0.3891325179 -0.4022327266 0.389451011 -0.4024109562 -0.1060926165 0.1450540492
390297660.0 -0.1155323273 0.1311989094 0.3847465576 -0.4056771253 0.3848700319 -0.4061148456 -0.104206288 0.1458366021
395297630.0 -0.1143850731 0.1325258771 0.3805074013 -0.4101460953 0.3805140856 -0.410331465 -0.1030718188 0.1475365082
400297600.0 -0.1134048518 0.1339129573 0.3755874249 -0.414691245 0.3762549534 -0.4147655454 -0.101175477 0.1488468092
405297570.0 -0.1122261315 0.1346960533 0.3711466932 -0.4185006183 0.3713445814 -0.418700927 -0.0992490315 0.1502866849
410297540.0 -0.1110608567 0.1362003977 0.3669458381 -0.4224025124 0.3667898421 -0.4226562717 -0.097871446 0.1512950048
415297510.0 -0.1099673823 0.1373909166 0.3622435424 -0.4264808644 0.3626141153 -0.4268423549 -0.0963341122 0.1525117636
420297480.0 -0.1088089165 0.1382614339 0.3571032903 -0.4307301653 0.3575161338 -0.4306843289 -0.09433281 0.1540499289
425297450.0 -0.1070653453 0.1393518925 0.3527638794 -0.434271928 0.3527896711 -0.4341416545 -0.0929951989 0.1544628723
430297420.0 -0.1061563809 0.1405400783 0.3483620586 -0.4383216969 0.3482418675 -0.4378645493 -0.0909085929 0.1562042572
435297390.0 -0.1045114667 0.1417254237 0.3430010952 -0.4425866257 0.3429264649 -0.4422507757 -0.0897547681 0.1577255813
440297360.0 -0.1033175863 0.1425933543 0.3378597019 -0.4459012576 0.3379687027 -0.4457504329 -0.0879179451 0.1586098199
445297330.0 -0.1021562539 0.1434594973 0.3335737312 -0.4491319678 0.3334529546 -0.4497106312 -0.0858783955 0.1596187307
450297300.0 -0.1005906201 0.144788857 0.3284655295 -0.4529106214 0.3287960771 -0.4529716408 -0.0839646739 0.1610170876
455297270.0 -0.0995845405 0.1456944068 0.3238238831 -0.4565853011 0.3234139756 -0.4568634166 -0.082227996 0.1621542662
460297240.0 -0.0976725286 0.1472061588 0.3186092949 -0.4608832523 0.3185085287 -0.4604994714 -0.0805403791 0.1628464151
465297210.0 -0.0963766507 0.1477933106 0.313293685 -0.4636137873 0.3131887806 -0.4642219459 -0.0786476376 0.1647085225
470297180.0 -0.095129968 0.1488994137 0.3083620403 -0.4668623223 0.3084290143 -0.4669888148 -0.0764096485 0.1649885391
475297150.0 -0.0939798147 0.1504337853 0.3032113972 -0.4705938102 0.3032452883 -0.4705692447 -0.0748256836 0.1659646667
480297120.0 -0.091723336 0.1514538281 0.2977220255 -0.473861588 0.2982612037 -0.473593598 -0.0733067607 0.1671105948
485297090.0 -0.0907156775 0.1517440751 0.2925659593 -0.4774559958 0.292667594 -0.4766679175 -0.0714457762 0.1679227157
490297060.0 -0.0884169592 0.1529695771 0.287017052 -0.4802542574 0.2873976651 -0.4801777265 -0.0694688769 0.1686094019
495297030.0 -0.0876701817 0.15371735 0.2827681707 -0.4835327146 0.2821244622 -0.4834938911 -0.0671492605 0.1698141218
500297000.0 -0.0861120014 0.1547865375 0.2773255144 -0.4857405524 0.276949759 -0.4866100299 -0.0655537077 0.1713499331
505296970.0 -0.084137517 0.1557250733 0.2714603875 -0.4895616671 0.2718498723 -0.4888065955 -0.0636616246 0.1709697018
510296940.0 -0.0827274477 0.1567467736 0.266485017 -0.4925017413 0.266635007 -0.492157088 -0.0613967631 0.1723712806
515296910.0 -0.0812466626 0.1578219081 0.2607590605 -0.4949790112 0.2603489909 -0.4949388344 -0.0598429096 0.1727582292
520296880.0 -0.0798525922 0.1587942422 0.2556464614 -0.4978281922 0.25542405 -0.4977615282 -0.0575621893 0.1742613346
525296850.0 -0.0780869602 0.1593886003 0.2497430907 -0.5005058957 0.2497759852 -0.5005472343 -0.0558091754 0.1745897825
530296820.0 -0.0764625078 0.1603732099 0.2442918356 -0.5030863017 0.2444688312 -0.5029976872 -0.0537378943 0.1750666691
535296790.0 -0.0742425246 0.1609973069 0.2392579481 -0.5051207262 0.2391060709 -0.5058541589 -0.0514096262 0.1760147204
540296760.0 -0.0728759148 0.1622324349 0.2334591761 -0.5083427812 0.2331354136 -0.5080562377 -0.0496417422 0.176523314
545296730.0 -0.0717373604 0.1632974709 0.2278955409 -0.5106947196 0.2275826103 -0.5106195059 -0.0475883156 0.1775579162
550296700.0 -0.0693920493 0.1640568369 0.2223365515 -0.5134247278 0.2220940058 -0.5136130156 -0.0453377384 0.1781556973
555296670.0 -0.0680036667 0.1648156551 0.2166946698 -0.5155974172 0.2165446531 -0.51548152 -0.0435907858 0.1782031135
560296640.0 -0.0659594082 0.1653799971 0.2109491359 -0.5175980619 0.2107882555 -0.5178824197 -0.0412677262 0.1794895737
565296610.0 -0.0648518514 0.1663594836 0.205782742 -0.5199506869 0.205572349 -0.5197107717 -0.0393874429 0.1802124643
570296580.0 -0.063035354 0.167413606 0.1997265802 -0.5223437452 0.1997452038 -0.522245359 -0.0373070938 0.1802847552
575296550.0 -0.0612033136 0.1678658057 0.1944393474 -0.5242190718 0.1939746583 -0.5246050199 -0.0354829374 0.1809783394
580296520.0 -0.059462791 0.1690081142 0.1883347649 -0.5261642792 0.1881794554 -0.5268246098 -0.0337393447 0.1815680343
585296490.0 -0.0574586781 0.1697371279 0.1827621832 -0.5281798119 0.1821938592 -0.5282123465 -0.0310960059 0.1823853766
590296460.0 -0.0552876744 0.1705782483 0.17682846 -0.5303983179 0.1770487158 -0.5304054493 -0.0296045767 0.1825425467
595296430.0 -0.0540749431 0.1712757888 0.1703291367 -0.5319860761 0.1702141718 -0.5320645698 -0.027074987 0.1827214244
600296400.0 -0.0521764606 0.1718055191 0.1651313616 -0.5335787215 0.1652374359 -0.5338542773 -0.0253002492 0.1834049954
605296370.0 -0.0509303369 0.1727939555 0.1600252287 -0.535605292 0.1589858379 -0.5359145612 -0.0232247435 0.1837608026
610296340.0 -0.0485061918 0.1739143083 0.1535110365 -0.5370495064 0.1538442059 -0.53702589 -0.0214385211 0.1842743712
615296310.0 -0.0466829203 0.1740253866 0.1478077728 -0.5390647811 0.1474805029 -0.5390711979 -0.0190080961 0.1845985759
620296280.0 -0.04535944 0.1752570218 0.1419490024 -0.5402842048 0.1417078947 -0.5403320528 -0.0172553701 0.1852195786
625296250.0 -0.0438401904 0.1756657721 0.1359039589 -0.5421829484 0.1359257061 -0.5420120991 -0.0154316769 0.1851313624
630296220.0 -0.0416824806 0.1765024929 0.1298556613 -0.5432175297 0.130247096 -0.5433117004 -0.0130756938 0.1856246606
635296190.0 -0.0402214846 0.1773744321 0.1245539996 -0.5447471532 0.1243790205 -0.5444803585 -0.0109777303 0.185694417
640296160.0 -0.0383619276 0.1776089345 0.1182550041 -0.546049223 0.1184045182 -0.5458524967 -0.0090786493 0.1860253038
645296130.0 -0.0359145518 0.1786302415 0.1126320315 -0.5469226191 0.1123872043 -0.5468243371 -0.0069400674 0.1858069954
650296100.0 -0.0347733575 0.1789154536 0.106693077 -0.5486354514 0.1061007248 -0.5486806886 -0.004464168 0.1865629692
655296070.0 -0.03294124 0.1795103004 0.1002282933 -0.549491618 0.1004018953 -0.5494472902 -0.0034153642 0.1869198652
660296040.0 -0.0312904162 0.1801804133 0.0944314018 -0.5505419423 0.0946112816 -0.5507253937 -0.0009106683 0.1867135265
665296010.0 -0.0291645063 0.1808148007 0.0882589093 -0.5507156694 0.0882749085 -0.5511822498 0.0014194999 0.1868955218
670295980.0 -0.0277341923 0.181212362 0.0828509161 -0.5524252211 0.0824505681 -0.5519910105 0.0030383924 0.18690115
675295950.0 -0.0258911672 0.1818262097 0.0764760121 -0.5529175805 0.0765461689 -0.5531892154 0.0052795463 0.1873256991
680295920.0 -0.0244161701 0.1825857211 0.0712019718 -0.5536620164 0.0707107845 -0.5535947298 0.0076458327 0.186979801
685295890.0 -0.0221851573 0.183222439 0.0643097594 -0.5548082712 0.0646517566 -0.5548080414 0.0094540401 0.187546215
690295860.0 -0.0208882864 0.1834556325 0.059195531 -0.5547686494 0.0580269305 -0.5551450438 0.0117520973 0.1874643109
695295830.0 -0.0188704771 0.1838951521 0.0532079089 -0.5559681483 0.052321579 -0.5559439545 0.0138051955 0.1878455002
700295800.0 -0.0169944754 0.1846130267 0.047059725 -0.5561009036 0.0468310093 -0.5559638741 0.015749625 0.1873096375
705295770.0 -0.0154219536 0.1849413651 0.0406838817 -0.5566416568 0.0405640345 -0.5566572565 0.0178784583 0.1879564981
710295740.0 -0.0135556438 0.1853078876 0.0348360951 -0.5569919367 0.034763967 -0.5574411175 0.0200219258 0.1875724128
715295710.0 -0.0117218354 0.1858742053 0.0288059174 -0.5574146429 0.028492519 -0.5574020288 0.0219420404 0.1870450128
720295680.0 -0.0097342482 0.1859535938 0.022788867 -0.5575991118 0.022461654 -0.5579985766 0.0238948466 0.1869509127
725295650.0 -0.0088509112 0.1869549414 0.0171413374 -0.5577662269 0.0169476936 -0.5579143426 0.0258401403 0.1876217086
730295620.0 -0.007387044 0.1869717659 0.0112170712 -0.5574949085 0.0107187012 -0.5575667072 0.0276479828 0.1876629205
735295590.0 -0.0048988299 0.1870104402 0.0047315967 -0.5579530385 0.0046876841 -0.557752556 0.0303029034 0.1868104961
740295560.0 -0.0034969735 0.1871595964 -0.0008201396 -0.5581435311 -0.0012701082 -0.5581913712 0.0318199634 0.1870643081
745295530.0 -0.0015428088 0.1878193272 -0.0069507275 -0.5577421927 -0.0065580208 -0.5577897863 0.0337026317 0.1865729782
750295500.0 -0.0002477989 0.1879730779 -0.0125372783 -0.5576431654 -0.0135640805 -0.5578448287 0.0360366818 0.186493012
755295470.0 0.0015887582 0.1880114058 -0.0185670645 -0.5578810072 -0.0187903538 -0.5578468265 0.0380985042 0.1866892282
760295440.0 0.0034036137 0.1891116937 -0.025396906 -0.5571560041 -0.0250946315 -0.5568066368 0.0404840716 0.1851501028
765295410.0 0.0055755491 0.1885545958 -0.0311377576 -0.5567319796 -0.0309971666 -0.5565641734 0.0424689488 0.1857480073
770295380.0 0.0067509354 0.1892691518 -0.0365749807 -0.5563310287 -0.0371642495 -0.5569944559 0.0439285549 0.1851927355
775295350.0 0.0085363463 0.1890005341 -0.0427878502 -0.556117012 -0.0428308219 -0.5558823382 0.0466152865 0.1849961544
780295320.0 0.0105601194 0.1893332253 -0.0486120631 -0.5555368734 -0.0483309231 -0.5553693068 0.0486094408 0.1844522069
785295290.0 0.0123589848 0.1891573519 -0.0548621422 -0.5548219447 -0.0548888531 -0.5550616146 0.0498789877 0.184839251
790295260.0 0.0140084651 0.18910745 -0.060621536 -0.5544773248 -0.0606496916 -0.5547775236 0.0520275184 0.184157749
795295230.0 0.0155141192 0.1890341541 -0.0664623263 -0.5537102164 -0.0665570559 -0.5536935675 0.0542385455 0.1832570367
800295200.0 0.0170580182 0.1894871609 -0.0721225238 -0.552384356 -0.0726772941 -0.5531029268 0.0560891239 0.1829748284
805295170.0 0.0188294283 0.1895019927 -0.0783626546 -0.5517938782 -0.0788055363 -0.5520239975 0.0586276575 0.1825031593
810295140.0 0.021005477 0.1899752387 -0.0846546295 -0.5512599253 -0.0844388487 -0.5512044893 0.0606628147 0.1820288035
815295110.0 0.0222906352 0.1896498812 -0.0902119986 -0.5501651288 -0.0900829768 -0.5502730019 0.0623189366 0.1818868009
820295080.0 0.0241075964 0.1894087202 -0.0957562712 -0.548941663 -0.0960310682 -0.5498301366 0.0636807276 0.1817376854
825295050.0 0.025769231 0.1895626111 -0.1020685651 -0.5485077074 -0.1018185737 -0.5479945157 0.0666852356 0.1808228224
830295020.0 0.0274449404 0.1896159357 -0.1078737232 -0.5469740612 -0.1080314778 -0.5470875159 0.0682884556 0.1799411509
