!Created with skrf (http://scikit-rf.org).
# Hz S RI R 50.0 
!freq ReS11 ImS11 ReS21 ImS21 ReS12 ImS12 ReS22 ImS22
300000.0 -0.0970886052 -0.0813290237 0.6230991161 0.0762171876 0.6249650394 0.0799303485 -0.0969842776 -0.0885343904
5299970.0 -0.1002895403 0.0129653175 0.6305287149 0.0103584512 0.6304261647 0.0110142764 -0.101875063 0.0121380411
10299940.0 -0.0954603678 0.0296089111 0.6345861113 0.0155922024 0.6340505587 0.0158887463 -0.0972139324 0.0288647296
15299910.0 -0.0883409762 0.0430990654 0.6404181996 0.020363242 0.6400292126 0.0207911902 -0.0903442517 0.0422704661
20299880.0 -0.0794682249 0.0543434341 0.6488039398 0.0243204093 0.6488848799 0.0244838178 -0.08178785 0.0535858058
25299850.0 -0.0699759471 0.0628963937 0.6576435441 0.02478979 0.657914228 0.0249856283 -0.0725289198 0.0619482265
30299820.0 -0.0596096039 0.0691967103 0.6678803078 0.0248122911 0.667129485 0.0244743801 -0.0626567231 0.0688175316
35299790.0 -0.0494328083 0.0743199375 0.6772231754 0.0214551878 0.677471466 0.0215784309 -0.0525286522 0.0735544502
40299760.0 -0.039729254 0.0771973213 0.6870568464 0.01828785 0.6867249751 0.0174388083 -0.0435890735 0.0770288033
45299730.0 -0.0305513236 0.079431033 0.695949759 0.0116848848 0.6955255288 0.0123767979 -0.0340223056 0.0791018934
50299700.0 -0.0220002273 0.0797271907 0.7034865935 0.0047025861 0.7037880083 0.0047076992 -0.0255675452 0.0802444632
55299670.0 -0.014133165 0.0799324196 0.710527888 -0.0032127707 0.7108890679 -0.0026313868 -0.0178773908 0.079930732
60299640.0 -0.0067244406 0.0786681862 0.7172368713 -0.011763617 0.7176331138 -0.0112428582 -0.0103526428 0.0798710369
65299610.0 -0.0003573222 0.0782222516 0.7238108017 -0.0197916809 0.7240684988 -0.0201034266 -0.0038307443 0.0785497562
70299580.0 0.0061127921 0.0758830567 0.7288361334 -0.0291007143 0.7286763923 -0.0293433496 0.0023439412 0.0772206444
75299550.0 0.0117996133 0.0744086352 0.733019404 -0.0392103377 0.733028356 -0.0389626658 0.0082793118 0.0756743809
80299520.0 0.0162902275 0.0719342431 0.7372981339 -0.0492103815 0.7375478853 -0.0491618692 0.0132059122 0.0728804444
85299490.0 0.0208422267 0.0694787796 0.7407614031 -0.0589873761 0.7402969485 -0.0588301308 0.017615711 0.0708631943
90299460.0 0.0244300077 0.0670386415 0.7431537924 -0.0686142812 0.7435354558 -0.0688966941 0.0222103534 0.0686133958
95299430.0 0.0282241639 0.0651914229 0.745862236 -0.0796998033 0.7459833811 -0.0791217558 0.0254188402 0.066443935
100299400.0 0.0315514917 0.0629587279 0.7474126668 -0.0891608637 0.747762555 -0.0890797851 0.0285949902 0.0638158438
105299370.0 0.0347005698 0.0600915054 0.7484782288 -0.0989238938 0.7487284294 -0.0994485561 0.0322453535 0.0618269058
110299340.0 0.0369564958 0.0577488032 0.7496286378 -0.1092243341 0.749957066 -0.1098456134 0.0348363689 0.0590094248
115299310.0 0.0399666276 0.0549046322 0.7506851668 -0.1188480077 0.7513482475 -0.1192319114 0.0371798336 0.0563504179
120299280.0 0.0413939786 0.0526685135 0.7518210407 -0.1299670751 0.7514855456 -0.1297894864 0.0389929636 0.0541799672
125299250.0 0.0433055841 0.0503287586 0.7524930241 -0.1391902589 0.7517270108 -0.1393755386 0.0415177965 0.0510050151
130299220.0 0.0449679473 0.0478985417 0.7520204457 -0.1491063658 0.7516071635 -0.1495835628 0.0433303103 0.0493910309
135299190.0 0.0468018494 0.0454832919 0.7510315461 -0.1588405629 0.7507070252 -0.1590106657 0.0445487045 0.0476136368
140299160.0 0.0479383591 0.0442577548 0.7512044802 -0.1684910974 0.7513103394 -0.1688631476 0.0464118663 0.0455844143
145299130.0 0.0490515245 0.0419885699 0.7505214535 -0.178893842 0.7500558529 -0.1783385466 0.047372395 0.0427210422
150299100.0 0.0505499191 0.0398096443 0.7489703275 -0.1881938436 0.7490834202 -0.1880253093 0.0489517774 0.0408446564
155299070.0 0.0510392905 0.0382620218 0.7476272095 -0.1983652359 0.7474571146 -0.1985095499 0.0492786922 0.0388244433
160299040.0 0.052372383 0.0360283401 0.7462782608 -0.2068496505 0.7463262556 -0.2071263515 0.0508549923 0.0372382422
165299010.0 0.0530155096 0.034177001 0.7454763432 -0.2165970436 0.7446672811 -0.2171215874 0.0516101755 0.0347591531
170298980.0 0.0534136061 0.0325760701 0.7416165592 -0.2262932298 0.742847752 -0.226463277 0.0528213397 0.032881979
175298950.0 0.0544047907 0.0305354356 0.741500912 -0.2356421304 0.7417069894 -0.235556822 0.0530321231 0.0312541337
180298920.0 0.0551762946 0.0291013985 0.7391930136 -0.2446444138 0.7389613679 -0.2444087447 0.0537222216 0.0299118913
185298890.0 0.0562664483 0.0271504801 0.7365699173 -0.2539294889 0.7369448373 -0.25364305 0.054228811 0.0278974573
190298860.0 0.0562433591 0.0258108304 0.733979559 -0.2634137543 0.7346332747 -0.263204121 0.0555519386 0.0261618892
195298830.0 0.056374233 0.0238163209 0.731804745 -0.2712217564 0.7320575753 -0.2721753144 0.0556507115 0.0241740406
200298800.0 0.0567712495 0.0226798476 0.7294572097 -0.2801981567 0.7291155211 -0.2802894473 0.0562855991 0.0232158697
205298770.0 0.0569316497 0.0216201112 0.7270263921 -0.2892257248 0.7268057104 -0.289707035 0.0565556636 0.0207864981
210298740.0 0.0569258656 0.0196228957 0.7237693989 -0.2989560371 0.7237100511 -0.2985187766 0.0569032617 0.0198786714
215298710.0 0.0576234237 0.0187775064 0.720838815 -0.3072864553 0.7206573482 -0.3071925424 0.0569758245 0.0183815437
220298680.0 0.0581412304 0.0171855613 0.7173134211 -0.3160058645 0.7173011616 -0.3159623858 0.0575307891 0.0174286626
225298650.0 0.0583368981 0.0159638369 0.7133812367 -0.3239396955 0.7140372362 -0.3243566378 0.0574089823 0.0156576399
230298620.0 0.0579959176 0.0149339937 0.7111046619 -0.3327246527 0.7109528923 -0.3329829038 0.0577926479 0.0142402144
235298590.0 0.0585494225 0.0132145668 0.7078881222 -0.3407121407 0.7075439947 -0.34182297 0.0579773723 0.0127605916
240298560.0 0.0582732469 0.0119860918 0.7042631377 -0.3494174064 0.7040580456 -0.349171064 0.0578883682 0.0118143279
245298530.0 0.0589019016 0.0111791849 0.6992763637 -0.3581589988 0.6996915202 -0.3577812707 0.058507571 0.0104759743
250298500.0 0.0582845267 0.0094954047 0.696388199 -0.3656769314 0.6963396375 -0.3657984108 0.0584907851 0.0090512799
255298470.0 0.0579978863 0.0089564917 0.6915464948 -0.3745732819 0.6922032301 -0.3743765553 0.0586475341 0.0074901397
260298440.0 0.0583300751 0.0076451391 0.6877315616 -0.3825960026 0.6886057666 -0.3827229271 0.0595266282 0.006969933
265298410.0 0.0589723159 0.0070530272 0.6841548393 -0.3908244149 0.6839440801 -0.3906476781 0.058912451 0.005307355
270298380.0 0.0593783042 0.0056368161 0.6795603406 -0.3985824086 0.679822984 -0.3983503547 0.0588902889 0.0050624565
275298350.0 0.0584992392 0.0047884212 0.6752572584 -0.4067173503 0.6759061133 -0.4065069574 0.0588924207 0.0037421465
280298320.0 0.0584915678 0.0040852896 0.670894962 -0.4140703227 0.6707989073 -0.414056541 0.0593603864 0.0028693758
285298290.0 0.0589113814 0.0030421621 0.6664690175 -0.4220261886 0.6665978251 -0.4222436422 0.0585995478 0.0016570682
290298260.0 0.0587807494 0.0016518017 0.6625208331 -0.4301007277 0.6623520748 -0.4293913226 0.059605757 0.0009434483
295298230.0 0.0585273044 0.0007353766 0.6575214862 -0.4377065229 0.6573901391 -0.4374581208 0.0594440521 -0.0004005164
300298200.0 0.0592675775 2.07887e-05 0.65310459 -0.4453690081 0.6533639991 -0.4454591125 0.058997446 -0.0013736546
305298170.0 0.058950343 -0.0013942262 0.6483434168 -0.4531281373 0.6488387948 -0.4532079813 0.0594983958 -0.0021809754
310298140.0 0.0595485462 -0.0025271476 0.643538836 -0.4605738025 0.643087221 -0.4609007954 0.0597553101 -0.002981209
315298110.0 0.0587893064 -0.0035446184 0.6383085242 -0.468296309 0.6386880449 -0.4683456383 0.0597203727 -0.0045870491
320298080.0 0.0587417927 -0.0045624718 0.6329200909 -0.4757054581 0.6330307073 -0.4756338876 0.0592432522 -0.0060472469
325298050.0 0.0581208686 -0.0057751415 0.6281338979 -0.4835970325 0.6283008054 -0.483807693 0.0591502045 -0.0070039969
330298020.0 0.0578933408 -0.0067264552 0.6215204666 -0.4903824181 0.6217857209 -0.4910204347 0.0583938216 -0.0083374405
335297990.0 0.0574547978 -0.0077786919 0.6163107423 -0.4979452709 0.6165200237 -0.4978558961 0.0577564395 -0.0090060807
340297960.0 0.056635541 -0.0080702128 0.6104837958 -0.5051085197 0.6108468527 -0.504324612 0.0570951069 -0.0095144914
345297930.0 0.0561740564 -0.0086104835 0.6050749163 -0.5107520845 0.6042126606 -0.5110645899 0.0576197763 -0.0110239662
350297900.0 0.0562458925 -0.0094621432 0.5985347482 -0.5176454437 0.5993621563 -0.5180225306 0.0568426214 -0.0107430991
355297870.0 0.0557178617 -0.0103487504 0.593124299 -0.5245143242 0.5929298124 -0.5252962788 0.0564100103 -0.0115110821
360297840.0 0.0559545224 -0.0107919247 0.5874679788 -0.5312670571 0.5872858221 -0.5316581686 0.0563660775 -0.0120714142
365297810.0 0.0557557454 -0.0115979704 0.5811014253 -0.5383292063 0.5815099303 -0.5380552464 0.0556516356 -0.0124099831
370297780.0 0.0554338566 -0.0123566983 0.5753500249 -0.5439527318 0.5756632984 -0.5444389838 0.0559863916 -0.0130285893
375297750.0 0.0550910832 -0.0124400465 0.5699255613 -0.5506748362 0.569515372 -0.5512704764 0.0557887713 -0.0139066267
380297720.0 0.0550984919 -0.0139429087 0.5636686284 -0.5570588492 0.5632954867 -0.5573154148 0.0552177743 -0.0145279394
385297690.0 0.0549267746 -0.0139894556 0.5570057493 -0.5625979019 0.5571160068 -0.563189416 0.0548107271 -0.0149373351
390297660.0 0.0543295568 -0.0148861785 0.5507505084 -0.5700105173 0.5507971798 -0.5707343909 0.0548463425 -0.0160264355
395297630.0 0.0545873549 -0.0157558673 0.5446307152 -0.5759560589 0.5450409222 -0.5758540758 0.0543584771 -0.0160354785
400297600.0 0.0537537296 -0.0160606839 0.5383470789 -0.5818391047 0.5385448304 -0.5821550335 0.0534048905 -0.016997561
405297570.0 0.0537081132 -0.0166597884 0.5322358065 -0.5875917927 0.5323129533 -0.5881715516 0.0536896594 -0.0169536126
410297540.0 0.0538082574 -0.017599237 0.5246392258 -0.5937639283 0.5252250538 -0.5940771285 0.0532787127 -0.0180520396
415297510.0 0.0532190706 -0.0175099141 0.5186245913 -0.5994977707 0.5187306229 -0.5998552263 0.0525992211 -0.0183524391
420297480.0 0.0529858033 -0.0189948204 0.5119352167 -0.6054874447 0.5123683487 -0.6057500136 0.0528489368 -0.0192969926
425297450.0 0.053296444 -0.0196691274 0.5055588789 -0.6110356681 0.506223681 -0.6112257263 0.0521771527 -0.019035918
430297420.0 0.0522475571 -0.0198019214 0.498831554 -0.6172584564 0.4990677375 -0.6169783068 0.0516988565 -0.0201431624
435297390.0 0.0522979529 -0.0207679638 0.4916823811 -0.6217313624 0.4920052922 -0.6219688156 0.0513488694 -0.0203108844
440297360.0 0.0522327814 -0.0215306836 0.4851401331 -0.6278765667 0.4848929089 -0.628047135 0.0513026407 -0.0216637886
445297330.0 0.0519244491 -0.0221564905 0.4775658578 -0.6338716824 0.4779109716 -0.6333027318 0.0507814701 -0.0219582948
450297300.0 0.0517394411 -0.0225307241 0.4711496242 -0.6381401222 0.4714164484 -0.6384804217 0.0503894034 -0.0223904768
455297270.0 0.0508809875 -0.0234214433 0.4648606185 -0.6437153309 0.4646655427 -0.6433619726 0.050392706 -0.0226208773
460297240.0 0.0504264529 -0.0236548057 0.4572471009 -0.6484404001 0.4567605861 -0.6488993426 0.0496337481 -0.0227521963
465297210.0 0.0505575491 -0.0247377861 0.4499106112 -0.6539142376 0.4504069262 -0.6539343852 0.0488570831 -0.0239110288
470297180.0 0.0496069886 -0.0253182145 0.4430479933 -0.6588531463 0.4433214694 -0.6593011807 0.0480170864 -0.0242665109
475297150.0 0.0493771501 -0.0264067402 0.4350548073 -0.663487051 0.4360832966 -0.662999265 0.0481329568 -0.0250503588
480297120.0 0.0498018549 -0.0270544436 0.4282718833 -0.6685041756 0.4289528737 -0.6681998757 0.0475553786 -0.0245950516
485297090.0 0.0491948979 -0.0271614285 0.4211286895 -0.6729814092 0.4211655211 -0.6731500626 0.0468289345 -0.025876692
490297060.0 0.0489889626 -0.0281663722 0.4140758626 -0.6777335687 0.4137050492 -0.6778646058 0.0469843175 -0.0259290891
495297030.0 0.047840431 -0.0281954234 0.4061843401 -0.6826964608 0.4059814143 -0.6824341616 0.046668037 -0.0264173835
500297000.0 0.0479490629 -0.0293321381 0.3984840834 -0.6863492803 0.3986051592 -0.6868149621 0.0456714246 -0.0269480923
505296970.0 0.0469419686 -0.0297072163 0.3906907351 -0.6906208796 0.3906051017 -0.6910431575 0.0449082144 -0.0273134158
510296940.0 0.0468510047 -0.030219704 0.3832542184 -0.6953537063 0.3834780017 -0.695617763 0.0449246358 -0.0272887386
515296910.0 0.0461434282 -0.030437772 0.3756528042 -0.6994402144 0.3753452578 -0.6996147094 0.044089063 -0.0280351185
520296880.0 0.0459136673 -0.0312381967 0.3677374753 -0.7035863419 0.3685807509 -0.7032947603 0.0444658593 -0.0284601088
525296850.0 0.0453308387 -0.0321500706 0.3603059359 -0.7079084941 0.3601786036 -0.7080073524 0.0436893754 -0.0289455678
530296820.0 0.0449981437 -0.0324332771 0.3530348829 -0.7108507205 0.352362497 -0.7118616408 0.0426877374 -0.029931845
535296790.0 0.043983193 -0.0328272757 0.3444009947 -0.7145263244 0.3449030128 -0.7155082042 0.0426057715 -0.0303086301
540296760.0 0.043875574 -0.0336199484 0.3367336642 -0.7194958752 0.3361333459 -0.719429774 0.0413399228 -0.0298573214
545296730.0 0.0433142507 -0.0334146945 0.3289276289 -0.7223282639 0.3292687859 -0.7233397978 0.0411048769 -0.0308936087
550296700.0 0.0424998372 -0.0343900683 0.3213578985 -0.726375027 0.3215620818 -0.7270215907 0.0405744203 -0.0307408546
555296670.0 0.0425217553 -0.0352089121 0.3134454385 -0.7302481762 0.3131693178 -0.7300852354 0.0400663048 -0.0311409506
560296640.0 0.0418442942 -0.0354896152 0.3055720435 -0.7334871369 0.3051982208 -0.7334246261 0.0395490735 -0.0317143436
565296610.0 0.0407122509 -0.0363023823 0.2963662621 -0.7365719009 0.2969306784 -0.7366868035 0.0387669748 -0.0323813638
570296580.0 0.0411571225 -0.036458621 0.2889182761 -0.7392892244 0.2894549821 -0.7399079462 0.038579858 -0.0316168069
575296550.0 0.0400804599 -0.0363767627 0.2806205972 -0.7422470046 0.2812692897 -0.7428367124 0.0380533616 -0.0326635456
580296520.0 0.0393602247 -0.0370848899 0.2734534376 -0.7462687384 0.2724756153 -0.7462030757 0.0374202733 -0.0334219654
585296490.0 0.0391757966 -0.0379497988 0.2651290801 -0.7489381077 0.2645613453 -0.7483983604 0.0366743843 -0.0338060146
590296460.0 0.0381185249 -0.0384776182 0.2562801059 -0.7520056448 0.2563810679 -0.7520099349 0.0365213572 -0.0332394144
595296430.0 0.0374998012 -0.038533127 0.2488595044 -0.7547514704 0.248033755 -0.7550630854 0.036327558 -0.0340802596
600296400.0 0.0371433807 -0.0389002819 0.2401567249 -0.7572754287 0.2401708332 -0.7571964683 0.0354090058 -0.0340394265
605296370.0 0.0366585565 -0.0387053 0.2319253848 -0.760149674 0.2315292304 -0.7598474124 0.0347623477 -0.0349851073
610296340.0 0.0358622916 -0.0393469499 0.224016134 -0.7627264925 0.2239380073 -0.7624462065 0.0343134345 -0.0341068363
615296310.0 0.0353261215 -0.0395671987 0.2143567538 -0.7643560495 0.2150962219 -0.7645461018 0.0339464037 -0.0351287868
620296280.0 0.0343257161 -0.0402515087 0.2069133893 -0.7671967035 0.2069713052 -0.7668418557 0.033219589 -0.0357740304
625296250.0 0.0344416959 -0.0404655411 0.1983266803 -0.7698254186 0.1986450203 -0.7691939834 0.0328973453 -0.0355578137
630296220.0 0.0336949205 -0.0405628916 0.1895297209 -0.7719866253 0.1900985031 -0.7712765841 0.0316148196 -0.0360006296
635296190.0 0.0332566515 -0.0409572105 0.1814315095 -0.7730660163 0.1811143081 -0.7729252237 0.0312740192 -0.0366413969
640296160.0 0.0323053789 -0.0412211928 0.1733328384 -0.7749880896 0.1728597538 -0.775162615 0.0317188947 -0.0365338104
645296130.0 0.0318352547 -0.041147574 0.164795268 -0.7768726986 0.1645088515 -0.7766444262 0.0297269484 -0.0373886201
650296100.0 0.0308553199 -0.0408208151 0.1564721377 -0.7782239248 0.1563117611 -0.7785420552 0.0296621161 -0.037245308
655296070.0 0.0302419669 -0.0421960707 0.1475361975 -0.780159663 0.1477590754 -0.7800662971 0.0299468801 -0.0368233212
660296040.0 0.0292270818 -0.0418525059 0.1395719498 -0.7814207654 0.1391673689 -0.7816169231 0.0282463587 -0.0382321243
665296010.0 0.0293358524 -0.0423913426 0.1309091767 -0.7834636376 0.1312570811 -0.7833465076 0.0275884786 -0.0376819447
670295980.0 0.0292988671 -0.0423192973 0.1224867529 -0.7845435727 0.1223367113 -0.7843652402 0.0268282049 -0.0383030578
675295950.0 0.0284570458 -0.0424039893 0.113321442 -0.7860983203 0.1140182385 -0.7863531611 0.0267878858 -0.0379767608
680295920.0 0.0273956863 -0.0424544682 0.1050660073 -0.7874587569 0.105042457 -0.7873514334 0.0262405725 -0.0386057114
685295890.0 0.0266937077 -0.0428645184 0.0970961659 -0.788269144 0.0964651515 -0.7886331346 0.0257550188 -0.0381839547
690295860.0 0.0262876119 -0.043216795 0.0881239928 -0.7889350665 0.0872246483 -0.7887085843 0.0255261825 -0.0381026466
695295830.0 0.0262228978 -0.0434023796 0.0786111329 -0.7903381748 0.0783847077 -0.7900776758 0.024097876 -0.038807613
700295800.0 0.0257741119 -0.0433907424 0.0706899974 -0.7909056471 0.0700825249 -0.7911300845 0.0236061381 -0.039244398
705295770.0 0.0245666158 -0.0437008289 0.061730602 -0.7912901447 0.0619131155 -0.7920051217 0.0226368483 -0.0390991688
710295740.0 0.0240305637 -0.0435448047 0.0530351236 -0.7920036306 0.0533822596 -0.7917788912 0.0217584213 -0.0392781003
715295710.0 0.0235642713 -0.0437098051 0.045030468 -0.7930301714 0.0450487323 -0.7928272568 0.0218831023 -0.0402491289
720295680.0 0.022677644 -0.0444286686 0.0362654942 -0.7931267374 0.0363596197 -0.7942035115 0.0215348713 -0.0393780949
725295650.0 0.0222587571 -0.0441036209 0.0271576938 -0.7933991178 0.0271392685 -0.7934186065 0.0209066079 -0.0397305177
730295620.0 0.0212298913 -0.0443617131 0.0184613136 -0.7938067336 0.0183867962 -0.7939563081 0.0202287861 -0.0406025793
735295590.0 0.0212157655 -0.0440494508 0.0104924149 -0.7941055492 0.0103993296 -0.7939388927 0.0194190742 -0.0397017733
740295560.0 0.0201160708 -0.044226641 0.0014587842 -0.7936581734 0.0011731655 -0.7936193138 0.0194249198 -0.0403022003
745295530.0 0.0198084292 -0.0448186064 -0.0069754742 -0.794126415 -0.0072079798 -0.7941136367 0.0179514603 -0.0399782663
750295500.0 0.0190348002 -0.0447385881 -0.0157313505 -0.7930392114 -0.0153662962 -0.794078916 0.0181935077 -0.0407045413
755295470.0 0.019031232 -0.0443957383 -0.0240811056 -0.7934804393 -0.0241104372 -0.7935861631 0.0169815574 -0.0400701073
760295440.0 0.0177433252 -0.0444025492 -0.0329476698 -0.7928468926 -0.0331628543 -0.793143053 0.0158241074 -0.0406267479
765295410.0 0.0171872112 -0.0448608912 -0.0407365789 -0.7922600727 -0.0411428546 -0.7929580939 0.0165969685 -0.0397887368
770295380.0 0.0168652513 -0.0445125391 -0.0504885475 -0.7923975359 -0.0503898072 -0.7926740733 0.0158857204 -0.0400578425
775295350.0 0.0160467051 -0.044592196 -0.0585914771 -0.7909617735 -0.0591013779 -0.7915595901 0.0146335659 -0.0411623059
780295320.0 0.0156700391 -0.0448449272 -0.0670038832 -0.7908181877 -0.06708412 -0.7912278439 0.0139945943 -0.040228319
785295290.0 0.0146510064 -0.044563054 -0.0765864796 -0.7894776836 -0.0756475219 -0.7906279305 0.0133594624 -0.0405942539
790295260.0 0.0139012079 -0.0446759175 -0.084312628 -0.7895094135 -0.0843225013 -0.7894159564 0.0130945469 -0.0404951713
795295230.0 0.0134626115 -0.0446811644 -0.0923766335 -0.7878790329 -0.0925820857 -0.7882853897 0.0124120179 -0.0398297516
800295200.0 0.0128866362 -0.044412837 -0.1022185806 -0.7869436699 -0.1020812683 -0.7874625502 0.0121611548 -0.0403887809
805295170.0 0.0117247686 -0.044616339 -0.1097727143 -0.7855125094 -0.1099801132 -0.7860222235 0.0108956159 -0.0406548689
810295140.0 0.0115972649 -0.0446964841 -0.1182367546 -0.7846503939 -0.1186527294 -0.7854617814 0.0105035974 -0.0397852121
815295110.0 0.0108302322 -0.0443775702 -0.1278038166 -0.783235519 -0.1276513639 -0.7828241001 0.0097360811 -0.040554247
820295080.0 0.010322829 -0.0449148313 -0.1352306985 -0.7821331521 -0.1356872417 -0.7822718309 0.009060786 -0.0401003115
825295050.0 0.0093261379 -0.0447480126 -0.144327722 -0.7803041761 -0.1441040814 -0.7802810048 0.0089179918 -0.0399391784
830295020.0 0.0090264431 -0.0440160876 -0.1533325994 -0.7781353743 -0.1533208604 -0.7790487042 0.007793095 -0.0401901259
