!Created with skrf (http://scikit-rf.org).
# Hz S RI R 50.0 
!freq ReS11 ImS11 ReS21 ImS21 ReS12 ImS12 ReS22 ImS22
300000.0 -0.7762079975 -0.1326248733 -0.0018154083 -0.0003436726 -0.0002305262 -4.64812e-05 -0.0474301877 -0.0681272874
5299970.0 -0.7856665251 -0.0071627046 -7.02412e-05 2.2865e-06 -9.65778e-05 6.31569e-05 -0.0493275037 0.0148492711
10299940.0 -0.7877457365 -0.0038343027 5.61151e-05 -5.42204e-05 0.000105365 -0.0001440775 -0.044130983 0.0321971442
15299910.0 -0.7933333978 -0.0016108312 1.7301e-06 -7.46164e-05 0.0001346221 1.70962e-05 -0.0353940944 0.0464410622
20299880.0 -0.7995273909 0.0021696527 5.2823e-06 -0.0002307107 4.76619e-05 -2.18501e-05 -0.0260159934 0.0581556307
25299850.0 -0.8064061732 0.0083045157 -5.37084e-05 -2.75278e-05 -7.45398e-05 0.0002285968 -0.0150026373 0.0676952548
30299820.0 -0.811815266 0.0160641394 0.0001766898 -0.0001248985 -7.52167e-05 8.1485e-06 -0.003771028 0.0744514646
35299790.0 -0.8169781739 0.0250850008 0.0002831285 -8.23297e-05 -4.59494e-05 7.45362e-05 0.0077326474 0.0794277293
40299760.0 -0.8212464148 0.0336574954 5.72768e-05 0.0001313252 -2.82983e-05 1.56588e-05 0.0186844768 0.0821759172
45299730.0 -0.8246870058 0.0441940703 5.6239e-05 3.64821e-05 -0.000133031 -9.16994e-05 0.0293425689 0.0839068155
50299700.0 -0.8270778692 0.0539230199 4.2856e-05 -1.18296e-05 6.87325e-05 -2.35903e-05 0.0395027601 0.0841726947
55299670.0 -0.8291473046 0.0642520592 0.0002044422 0.0001696371 0.0002905839 1.10265e-05 0.048371244 0.0833377064
60299640.0 -0.8300084472 0.0746494631 -0.0001339723 7.14621e-05 7.46575e-05 0.0001725706 0.0570891893 0.0814769892
65299610.0 -0.8313625461 0.0847683749 -0.0001130975 0.0003266406 0.000204812 -1.06946e-05 0.0647732051 0.0796392808
70299580.0 -0.8313524188 0.0942353506 -4.99501e-05 2.50423e-05 7.75585e-05 -0.0001238552 0.0717532756 0.076506419
75299550.0 -0.8310391437 0.1047599491 4.65308e-05 0.0001662347 -9.89817e-05 0.0001608499 0.0782586135 0.0737165433
80299520.0 -0.831772915 0.1143164939 0.0001134386 2.59517e-05 0.0001028105 0.0001259426 0.0838763599 0.0704043921
85299490.0 -0.8308938689 0.1246138205 -3.34531e-05 -8.3522e-06 8.26889e-05 0.0001241787 0.0888870579 0.0664529312
90299460.0 -0.8298208066 0.1345415528 0.0001258193 -0.0001684121 -0.0001563389 0.0001572142 0.0935861548 0.0627847728
95299430.0 -0.8286983398 0.1437322657 -0.0001275584 -7.97076e-05 -7.8374e-06 1.2615e-05 0.0976130627 0.0591299994
100299400.0 -0.8281695922 0.1528154142 -0.0001192607 -0.0001358168 0.0001316008 3.40963e-05 0.1010345495 0.0553153583
105299370.0 -0.826722862 0.1622464155 1.81151e-05 0.000179502 -1.55336e-05 6.37001e-05 0.1049515521 0.0512111976
110299340.0 -0.8253910854 0.1711881486 -0.000108134 0.0001566404 8.23332e-05 -7.48585e-05 0.1072971647 0.0477538328
115299310.0 -0.8238074073 0.1801751454 0.0001123676 -1.54313e-05 7.55189e-05 0.0002048246 0.1099249421 0.0433250222
120299280.0 -0.8217015268 0.1891206304 5.55136e-05 0.0002039135 8.66878e-05 -6.81537e-05 0.1126324381 0.0400844224
125299250.0 -0.8204547201 0.198286152 9.6461e-05 0.0001456431 0.0002910423 3.91578e-05 0.1145607317 0.0359577728
130299220.0 -0.8184381861 0.2076944797 -1.49769e-05 -0.0001056026 0.0002267697 0.0001183682 0.1159256406 0.0327047627
135299190.0 -0.8167304736 0.2165345927 0.0002002152 9.35293e-05 1.24817e-05 0.0001582145 0.1175680108 0.0289274264
140299160.0 -0.8150258152 0.2255331835 3.63651e-05 6.759e-07 0.0001492604 0.0001797572 0.1190754936 0.0252565739
145299130.0 -0.8122633298 0.234133537 -6.14861e-05 0.0001308299 5.0071e-06 -0.0001858878 0.1197510635 0.0221263372
150299100.0 -0.8104082332 0.2433062215 -0.00013315 0.00011435 0.0001632071 0.0001406222 0.1206646538 0.0183643846
155299070.0 -0.8078565776 0.252481843 0.0001115616 0.0001248003 7.09253e-05 0.0001924257 0.1218299794 0.0153018004
160299040.0 -0.8048986475 0.2614378806 0.00012341 0.0001141272 0.0001242761 1.24043e-05 0.1225298361 0.0122236043
165299010.0 -0.8019378969 0.2693407401 0.0002522263 0.000198637 -8.73485e-05 0.0001054034 0.1230917772 0.0090004766
170298980.0 -0.7997153603 0.2781198146 -0.0001462786 7.30846e-05 9.22452e-05 -0.0001538744 0.1235228972 0.0060836524
175298950.0 -0.7967108071 0.2873781436 9.98588e-05 3.34026e-05 0.0001537377 0.0001221902 0.1236823207 0.0028417761
180298920.0 -0.7931195103 0.2951025666 4.02603e-05 8.37715e-05 2.34871e-05 9.67216e-05 0.1243210299 -7.1858e-05
185298890.0 -0.7903617112 0.3042258929 7.48184e-05 -2.29825e-05 0.0001118369 0.0002572445 0.1241304537 -0.003094994
190298860.0 -0.7875689303 0.3125260965 -2.7406e-06 0.0001369799 0.0001614637 0.0001985843 0.1246539693 -0.0055066268
195298830.0 -0.78411524 0.3210123674 9.24573e-05 0.000225097 -7.57752e-05 -5.96673e-05 0.1245118499 -0.0085591891
200298800.0 -0.7808782013 0.3293423076 6.29274e-05 0.0002155718 0.0001649144 0.0004058975 0.1245706152 -0.0112068669
205298770.0 -0.7770871788 0.3372455362 2.25518e-05 -0.0001265833 5.92666e-05 -2.11618e-05 0.1240780472 -0.0136338433
210298740.0 -0.7739396332 0.3457768593 0.0002400189 1.66734e-05 2.37275e-05 0.000191657 0.1241407487 -0.0165186273
215298710.0 -0.7707038107 0.3542237443 -0.0003112123 -8.49057e-05 0.0002015912 -1.39639e-05 0.1233923751 -0.018684409
220298680.0 -0.7670062748 0.3624159289 6.5494e-06 0.0001954172 8.53744e-05 2.51961e-05 0.1236333381 -0.020949514
225298650.0 -0.7625637059 0.3703317297 4.57602e-05 7.05398e-05 0.0002776769 -5.21302e-05 0.1227711454 -0.0230065719
230298620.0 -0.7588710271 0.3788308974 0.000156045 0.0002004192 0.0001637426 4.97651e-05 0.1224907674 -0.0257882854
235298590.0 -0.7544498197 0.3875516897 0.0001574527 0.0001351191 7.04246e-05 0.0002108704 0.1221314518 -0.0283818839
240298560.0 -0.7509580759 0.3950341397 0.0001152324 -0.0001145117 0.0001813589 0.0002292752 0.1216974245 -0.0302765754
245298530.0 -0.746533742 0.4030004659 -3.3707e-06 0.0002019041 -7.56035e-05 0.000130114 0.1213722183 -0.0322667802
250298500.0 -0.7424057446 0.4112304881 0.0002303401 0.0001434164 0.000208252 6.71325e-05 0.1209269843 -0.0343147545
255298470.0 -0.738017093 0.41868512 7.15316e-05 0.000161066 0.0001935403 0.0002739456 0.1202165297 -0.0364084447
260298440.0 -0.733537479 0.4260502939 0.0001201829 0.0002762741 0.0001938084 0.0003831774 0.1193467843 -0.0388086948
265298410.0 -0.7289685613 0.4343250703 0.000170205 -7.92667e-05 0.0001283203 6.32653e-05 0.1189145608 -0.0407058892
270298380.0 -0.7246237892 0.4416859129 0.000288457 0.0001754896 3.23712e-05 5.1904e-06 0.1187498044 -0.0428307553
275298350.0 -0.7191708321 0.4491766648 0.0001808418 0.0002752349 0.0002477251 0.0001831373 0.1175210357 -0.044393131
280298320.0 -0.7155480884 0.4563155783 0.0002165817 0.0002384055 0.0002060156 0.0002653352 0.1171774215 -0.0463504452
285298290.0 -0.7100762433 0.4646334369 0.0001219217 4.8857e-06 8.7875e-05 0.0002990425 0.1159059124 -0.0481087096
290298260.0 -0.7056708037 0.471968795 -0.0001192225 0.0003904748 0.0001603368 0.0001431693 0.1156060992 -0.0500248769
295298230.0 -0.7001857402 0.4795472689 0.000306479 0.0002156688 5.50199e-05 4.01033e-05 0.1145521234 -0.0518063989
300298200.0 -0.6952542329 0.4868185722 0.0002183602 0.0001698806 6.22402e-05 5.66836e-05 0.1138667116 -0.05340262
305298170.0 -0.6902805784 0.4938367215 0.0002205792 4.26654e-05 0.0001083472 0.0001953505 0.1133389608 -0.0550246435
310298140.0 -0.6847020286 0.5010384183 -6.49041e-05 0.0001946184 0.0003990134 0.0001998222 0.1123564359 -0.0567866027
315298110.0 -0.6792028381 0.507288551 -0.0001393387 0.0001451965 8.21358e-05 0.0001357349 0.1116947913 -0.0585588115
320298080.0 -0.6735061803 0.5155956384 0.0002597184 0.0001336282 0.0001980449 0.0001404809 0.110718922 -0.0604528335
325298050.0 -0.6683608097 0.521659584 -8.76008e-05 6.25396e-05 0.0003175647 -1.52538e-05 0.1096199373 -0.0623933651
330298020.0 -0.6633517737 0.5293761903 0.0002843209 7.36154e-05 0.0002528528 -2.94799e-05 0.1086453874 -0.0637597395
335297990.0 -0.6572330272 0.5365890732 0.0002269313 0.0001080428 0.0001725326 -4.76838e-05 0.1069879065 -0.0656199111
340297960.0 -0.6520095342 0.5424657289 2.61816e-05 -6.70096e-05 0.000132159 2.2666e-05 0.1063699964 -0.066835091
345297930.0 -0.6463002783 0.5488447085 0.0001237287 0.000175564 0.0002870994 0.0002310332 0.1047480177 -0.0682631474
350297900.0 -0.6404988196 0.5557041349 9.80779e-05 0.0002216674 0.0001436365 0.00010701 0.1038976138 -0.0696459115
355297870.0 -0.6344334373 0.5626612921 4.13124e-05 -1.9558e-05 3.75965e-05 -4.9661e-06 0.1026076516 -0.0707381938
360297840.0 -0.628533006 0.5688579124 0.000211911 0.0001355081 0.0003003386 0.000274444 0.1015435882 -0.0719386847
365297810.0 -0.6221271704 0.575690054 2.95925e-05 0.0001251897 0.0001526207 0.0001907625 0.1000337923 -0.0732347698
370297780.0 -0.6162631802 0.5819194567 2.84411e-05 0.0003261988 -6.95568e-05 0.0001216735 0.0989640914 -0.0743889574
375297750.0 -0.6101964198 0.5880384538 0.0002449566 0.0001532493 0.0002405483 0.000176581 0.0980622342 -0.0754851211
380297720.0 -0.6039391861 0.5949090569 0.0001665884 -0.0001214351 0.0003264362 1.6593e-06 0.0970316847 -0.0763768588
385297690.0 -0.5978732637 0.6010787249 0.0002115844 9.7355e-05 0.0001550707 -4.18787e-05 0.0957065149 -0.0774020611
390297660.0 -0.5910437057 0.6071002433 0.0002600426 3.41373e-05 8.51919e-05 0.0001692124 0.0943856752 -0.0788053805
395297630.0 -0.5853043512 0.6135005489 0.0002022366 0.0001489617 0.000115776 0.0001770625 0.0933024456 -0.0798619709
400297600.0 -0.5788184966 0.6192553666 2.96664e-05 0.0002501486 0.0003245391 -1.45856e-05 0.0917689841 -0.0809809533
405297570.0 -0.5723752024 0.6251821524 0.0004434379 4.82252e-05 0.0002719063 9.50891e-05 0.090856856 -0.0819473581
410297540.0 -0.5656659008 0.6304112286 0.0002762913 -3.002e-06 0.0002864611 5.87835e-05 0.0894519233 -0.0827016403
415297510.0 -0.559353363 0.6362186605 4.0668e-06 4.91609e-05 0.0002856849 9.76342e-05 0.087965868 -0.0836499284
420297480.0 -0.5520435532 0.6423279454 0.0002325606 0.0002355175 0.000383055 0.0002161752 0.0868578704 -0.0849072672
425297450.0 -0.5460485996 0.6476392745 0.0001604112 0.000225823 0.000554874 0.0002623829 0.0858270176 -0.0858889054
430297420.0 -0.5395986735 0.6534156236 -3.29676e-05 9.0563e-05 0.0001450396 0.0002327343 0.0845821612 -0.0863505622
435297390.0 -0.531943462 0.6594111312 0.0003023203 -1.14083e-05 0.0002085822 -3.8166e-06 0.083466645 -0.0874140385
440297360.0 -0.5248862059 0.6648711317 0.000147752 8.51189e-05 0.0002775694 3.80684e-05 0.0817783695 -0.0883984838
445297330.0 -0.5185320427 0.669902132 0.0002208907 0.0001266049 0.0003230259 8.7314e-05 0.0806385368 -0.0892208316
450297300.0 -0.5115570136 0.674942469 8.52392e-05 1.39732e-05 0.000673638 0.0001238421 0.0789939652 -0.0900350707
455297270.0 -0.5045312706 0.6798584872 0.0002070931 0.000422166 0.0002598636 0.0001697526 0.0780373818 -0.0908058689
460297240.0 -0.497806625 0.6851239212 0.0001953398 -0.0002476653 4.88355e-05 0.0001108493 0.0769752975 -0.0915078356
465297210.0 -0.4897940935 0.690501813 0.0002763724 -5.99278e-05 0.0003432435 0.0001376616 0.0749811874 -0.0924843559
470297180.0 -0.4829542118 0.6950645092 0.000455801 0.0001405823 0.000153859 0.0001578594 0.0735137644 -0.0932665699
475297150.0 -0.4752901012 0.7000210531 0.0002206206 7.3508e-06 0.000223264 -6.50741e-05 0.0727376208 -0.0937349746
480297120.0 -0.468514481 0.7044912134 0.0001868592 2.78615e-05 0.0001443201 0.0001100892 0.0712009721 -0.0943281778
485297090.0 -0.461760038 0.709809491 0.0001393584 0.0001596358 0.0003060172 8.07435e-05 0.0693749322 -0.0953537987
490297060.0 -0.4535796248 0.7138031761 0.0004383416 -3.78436e-05 0.0002370903 0.0001330746 0.068205567 -0.095758618
495297030.0 -0.4471797328 0.7187405083 0.0003127936 0.0003591519 0.0001586009 0.000270791 0.0666865288 -0.0967315414
500297000.0 -0.4383799622 0.7235333764 0.0001494582 0.0002757146 0.0002372674 0.0002358917 0.0650857278 -0.0972910868
505296970.0 -0.4315266914 0.727292354 0.0001538748 -3.9837e-06 0.0003410679 9.93643e-05 0.0636206542 -0.0975940156
510296940.0 -0.4248113399 0.7323042012 0.0003246881 0.0001060322 0.0002191222 0.00021054 0.0624254076 -0.0980137404
515296910.0 -0.416691249 0.7363610708 0.0001967993 -0.0001873569 0.0002347603 0.0001397081 0.0612152468 -0.0987390832
520296880.0 -0.4087012103 0.7404446394 0.0003476345 6.28487e-05 0.0003118097 2.16883e-05 0.0597068145 -0.0994513054
525296850.0 -0.4015585036 0.7450386923 0.0004967871 3.5181e-06 0.0001144754 0.0002305501 0.0585880984 -0.1002335942
530296820.0 -0.3940278247 0.7482011903 0.0003668332 5.95213e-05 0.0002754341 0.0001605184 0.0565509996 -0.1004092614
535296790.0 -0.3863596776 0.7525793436 0.0005019737 0.0002472917 8.29369e-05 -4.06069e-05 0.0550846765 -0.1011051443
540296760.0 -0.378140444 0.756207402 0.0001804719 2.96722e-05 0.0004084546 0.0001543405 0.0536203115 -0.1017452376
545296730.0 -0.3714520268 0.7597503195 0.0001604497 -6.97799e-05 0.0002724554 0.0002054754 0.0523621273 -0.1021806387
550296700.0 -0.3631534349 0.7639396729 0.0001260582 -9.19353e-05 0.0002732976 0.0001022907 0.0509951692 -0.1026290888
555296670.0 -0.354995538 0.7675355905 0.0002851841 5.53103e-05 0.0003923344 -3.1368e-05 0.0491276644 -0.1029499388
560296640.0 -0.3471671609 0.7711582667 0.0001783355 2.13873e-05 0.0004081672 0.0001198997 0.0478868758 -0.1035352205
565296610.0 -0.3396167256 0.7739397504 0.0001323589 6.35768e-05 0.0001351251 1.57211e-05 0.0464058931 -0.1040581605
570296580.0 -0.3319208224 0.7775876995 0.0001672312 0.0001791044 0.0005563278 -1.30722e-05 0.0449514052 -0.1040705831
575296550.0 -0.3237550878 0.7808853852 0.0002097388 1.8631e-05 0.0003946021 0.0001442744 0.0436819079 -0.1046838194
580296520.0 -0.3152911364 0.7844372267 0.0003451695 -1.494e-05 0.0002019148 0.000134668 0.0419119571 -0.1043478772
585296490.0 -0.3073363648 0.7866293266 0.0004848411 8.33998e-05 0.00036037 0.0001831926 0.0404440532 -0.1058109454
590296460.0 -0.2995965534 0.7900322579 0.0004055297 -8.00184e-05 0.0003093897 -7.78968e-05 0.039250978 -0.105568303
595296430.0 -0.2911152229 0.793432151 0.0003302642 0.0001007513 0.0002260202 0.0001058223 0.0373134474 -0.1059502747
600296400.0 -0.2836561448 0.7954902265 0.000259508 -0.0001037072 0.0002968814 4.69273e-05 0.0360352259 -0.1060095075
605296370.0 -0.2748008936 0.7984174246 0.0002910683 1.9252e-05 0.0004044253 4.17138e-05 0.0345909893 -0.1062334969
610296340.0 -0.2674387579 0.8013593623 0.0003288391 0.0001270209 0.000457102 0.0001338042 0.0332269912 -0.1063221752
615296310.0 -0.2592540293 0.8040695269 0.0003545509 3.3874e-05 0.0004180662 3.26543e-05 0.0317458209 -0.1068168319
620296280.0 -0.2507096478 0.8064220231 0.0002654564 0.0001961169 0.0003326802 0.0001794935 0.0302380636 -0.1075047407
625296250.0 -0.242902666 0.8088104042 0.0004512615 2.59968e-05 0.0002565526 0.0001288053 0.0286562955 -0.1070608264
630296220.0 -0.2337392233 0.8116575093 0.0002005056 0.0002373125 0.0003323607 1.90125e-05 0.0273379237 -0.1071866998
635296190.0 -0.226479735 0.8138215738 0.000308165 -8.77633e-05 0.0004687971 0.0001721224 0.025844582 -0.107371294
640296160.0 -0.2180646809 0.8153675318 0.0006547541 0.0001611726 0.0003463844 -9.90965e-05 0.024287904 -0.1075244362
645296130.0 -0.2101873924 0.817509741 0.0006446829 -5.46416e-05 0.0002256443 -2.06446e-05 0.022673713 -0.1077464083
650296100.0 -0.2018424801 0.8200831355 0.0006802097 4.538e-07 0.0003348637 1.53444e-05 0.0210695133 -0.1076583202
655296070.0 -0.1928672965 0.8223020015 0.0003897364 3.18095e-05 0.0005312199 4.33586e-05 0.0196537973 -0.1076930172
660296040.0 -0.1851205454 0.8243138112 0.0004041416 0.0001230238 0.0003288033 -5.35614e-05 0.0180278082 -0.1079872493
665296010.0 -0.1767350612 0.8257952838 0.0004577227 -0.0001313812 0.0003880251 0.0001357412 0.0165353496 -0.1077558975
670295980.0 -0.1678111679 0.8273248954 9.26224e-05 -2.67932e-05 0.0004879291 -6.60708e-05 0.0155334984 -0.1074807896
675295950.0 -0.1598766105 0.8283215028 0.0004784535 -3.285e-05 0.0002182243 3.13758e-05 0.0138545087 -0.1077003659
680295920.0 -0.1517586175 0.8304213528 0.0007539393 0.0001115839 0.0005305428 -7.46036e-05 0.0124758381 -0.1079134621
685295890.0 -0.1426777146 0.8318931215 0.0003347667 1.17516e-05 0.0004256188 -7.22679e-05 0.0111667135 -0.1079575041
690295860.0 -0.1346477607 0.8336162216 0.0002047478 6.15828e-05 0.000385418 7.45853e-05 0.0099160506 -0.1077729287
695295830.0 -0.1260585843 0.8343047249 0.0002520227 7.503e-07 0.0003637986 -0.0001157065 0.0077870445 -0.1073050183
700295800.0 -0.1177284927 0.8350309608 0.0004307858 2.19672e-05 0.0004478723 -0.0001094292 0.0068469371 -0.1075150751
705295770.0 -0.1087406712 0.8375248073 5.69374e-05 5.47685e-05 0.0003077757 -3.2049e-05 0.0051603817 -0.1072162496
710295740.0 -0.1007846441 0.8383995334 0.0003709991 -0.0001386559 0.0003557686 -2.94524e-05 0.003456862 -0.1068750627
715295710.0 -0.0928172753 0.8389231468 0.0004279443 -6.34537e-05 0.0004753204 0.0001580844 0.0021231135 -0.1068707723
720295680.0 -0.0845002469 0.8399725441 0.0005587629 6.21607e-05 0.0005909211 -1.19184e-05 0.0009635393 -0.1069392319
725295650.0 -0.0744519745 0.8411629979 0.0003582126 0.0001283554 0.0004685806 -2.90446e-05 -0.0004491732 -0.1067788047
730295620.0 -0.0673784537 0.8411983925 0.0004510826 3.53996e-05 0.0003287316 -3.17435e-05 -0.0020520768 -0.1065096003
735295590.0 -0.0582259505 0.8414430075 0.0006032472 5.17699e-05 0.0003768006 -9.21105e-05 -0.0032359972 -0.1061819901
740295560.0 -0.0496314985 0.8425770992 0.0002899445 5.16707e-05 0.0003529374 -0.0002003072 -0.0049332024 -0.1060759662
745295530.0 -0.0413749571 0.8427683785 0.0005034584 -1.63336e-05 0.0002916646 -7.80058e-05 -0.0062546187 -0.1055597583
750295500.0 -0.0338255819 0.8431852148 0.0004533661 -0.000254154 0.0004203795 -0.0003189675 -0.0077113766 -0.1055585506
755295470.0 -0.0244921538 0.8436145907 0.0001835526 -4.42888e-05 0.0005644778 -9.36945e-05 -0.0091978617 -0.1049048443
760295440.0 -0.0159216314 0.8436571811 0.0004919443 -0.00014835 0.0004579211 -0.0001068677 -0.0104920124 -0.1047211372
765295410.0 -0.0079489887 0.843742889 0.0003844697 -0.0001004228 0.0005261544 -0.0002081126 -0.0115168173 -0.1041710872
770295380.0 0.0010878956 0.8441115832 0.0005541204 0.0001274536 0.0003555463 -0.0001290583 -0.0129702503 -0.1038526831
775295350.0 0.0088097432 0.8440622965 0.0001112043 0.0001435489 0.0003344293 -4.1344e-06 -0.0149090739 -0.1040064008
780295320.0 0.0182253596 0.8432869812 0.0001887742 -0.0002265603 0.0004968449 -7.10209e-05 -0.0161133401 -0.1032085603
785295290.0 0.0264431155 0.8436976738 0.0002810933 -0.0001938485 0.0004357103 0.0001465991 -0.0172331553 -0.1025399317
790295260.0 0.0342422379 0.8429368765 0.0004501541 0.0001089522 0.0005348131 -0.0001206262 -0.0185119481 -0.1023016708
795295230.0 0.0426728185 0.8434090179 0.0004251897 4.88275e-05 0.0003301122 -0.0002243114 -0.0196918725 -0.1016108669
800295200.0 0.0512016062 0.8425575492 0.0003611774 -0.000173075 0.0002255785 1.82663e-05 -0.0213431737 -0.1015023634
805295170.0 0.0600309186 0.8418686278 0.0004662125 -7.27228e-05 0.0004573636 -0.00024388 -0.022957381 -0.1007571409
810295140.0 0.0682620319 0.8415402715 0.0005229899 0.0001052238 0.0005058502 -0.0003462693 -0.0239528666 -0.1000311974
815295110.0 0.0772219132 0.8403710345 0.0003089925 -0.0002592397 0.0005041275 -0.0002599289 -0.0251637584 -0.099571126
820295080.0 0.0849693026 0.83879289 0.0003672677 -7.4321e-05 0.0003922824 -4.15658e-05 -0.0265510728 -0.0991908772
825295050.0 0.093858765 0.8385669782 0.0006152436 1.52252e-05 0.0004595995 -0.0001264182 -0.0281037301 -0.0986924237
830295020.0 0.102519103 0.837445931 0.0003183231 5.72521e-05 0.0004504658 -4.70508e-05 -0.0292648824 -0.0979782853
835294990.0 0.1102822886 0.8363697561 0.0002028177 -9.07392e-05 0.0003472713 -0.0001737862 -0.0302506921 -0.0977315497
840294960.0 0.1188125143 0.8354838886 0.0005730883 -2.743e-06 0.0006394318 0.0001722082 -0.0316096684 -0.0964842679
845294930.0 0.126753494 0.8343124556 0.0006326007 -0.0002949311 0.0003420639 -0.0002017858 -0.0329796769 -0.096154524
850294900.0 0.1353204648 0.832456249 0.0005400507 -0.000134566 0.0006489085 -3.96215e-05 -0.0345004843 -0.0951303781
