!Created with skrf (http://scikit-rf.org).
# Hz S RI R 50.0 
!freq ReS11 ImS11 ReS21 ImS21 ReS12 ImS12 ReS22 ImS22
300000.0 0.8606295441 -0.002137608 -0.0002274571 5.91664e-05 0.0001863226 0.0013910394 -0.7659375283 -0.1727700247
5299970.0 0.8595003343 -0.0106364015 -2.29898e-05 0.0001364746 2.16694e-05 -0.0001255243 -0.7851401485 -0.0083768827
10299940.0 0.858300988 -0.0195316287 0.0001649199 -4.05417e-05 -5.55222e-05 -0.0002144577 -0.7885903825 -0.0049530732
15299910.0 0.857744013 -0.0277312975 -0.0002295906 1.36552e-05 0.0001262992 1.62024e-05 -0.7936221156 -0.0030030231
20299880.0 0.8572412906 -0.035711697 -0.0001282288 -0.0001274569 -0.0001329055 -5.68758e-05 -0.8003215735 0.0017152338
25299850.0 0.8570574133 -0.0439312194 -0.0002562537 -0.0002171573 -6.92756e-05 0.000108177 -0.8069741034 0.0074284699
30299820.0 0.855648346 -0.0521217627 0.0001338546 6.90199e-05 -0.0001729879 2.0036e-05 -0.8125962278 0.0148333142
35299790.0 0.8550763687 -0.0604561222 0.0001167674 0.0001330496 -6.65244e-05 0.0001480759 -0.8180416339 0.0240932362
40299760.0 0.8542278138 -0.0683634349 -0.0001757621 1.79668e-05 -0.0001084677 -6.03107e-05 -0.8217908354 0.0331863507
45299730.0 0.8536603721 -0.076278689 5.6727e-05 0.000167085 4.52283e-05 2.02026e-05 -0.8253100959 0.0425944001
50299700.0 0.8527887607 -0.0848587232 -4.7255e-05 -9.315e-07 1.17334e-05 0.0001272473 -0.8278195348 0.0524976125
55299670.0 0.8516622728 -0.0932319421 5.56468e-05 -1.2542e-06 0.0001303773 -2.45924e-05 -0.829889232 0.0627631077
60299640.0 0.8504779362 -0.1007620741 -0.000133038 -1.31484e-05 7.54947e-05 -6.66313e-05 -0.8309619985 0.0727277229
65299610.0 0.8500622826 -0.1088689596 0.0002162466 -0.0002018738 0.0001053045 -4.85919e-05 -0.8314722451 0.0824795091
70299580.0 0.8486251597 -0.1177246305 2.63584e-05 1.06215e-05 -2.64293e-05 4.1418e-06 -0.83272838 0.092614502
75299550.0 0.8475720831 -0.1264819718 5.91222e-05 -0.0001414924 0.0001118196 0.0001249027 -0.8321693514 0.1025381918
80299520.0 0.845761165 -0.1342213438 0.0001358918 5.43935e-05 -5.05287e-05 0.0001235686 -0.8319018567 0.1125369016
85299490.0 0.8442537618 -0.1426145618 8.71184e-05 -0.0001981844 -0.0001174769 8.80376e-05 -0.8320996466 0.1217235444
90299460.0 0.8429607041 -0.1501528812 -0.0001741313 9.22e-06 -9.05325e-05 9.4358e-05 -0.8309026623 0.1308126878
95299430.0 0.8415235874 -0.1586729613 0.0001337076 0.0001409191 6.42768e-05 5.06115e-05 -0.8301934384 0.1412612017
100299400.0 0.8391855273 -0.1666659451 -0.00021718 -7.55139e-05 0.0001223561 -9.2809e-06 -0.8288917104 0.1491772328
105299370.0 0.838340833 -0.1752160822 0.0001181399 5.47502e-05 6.9936e-06 -0.0001245297 -0.8274915169 0.1587752206
110299340.0 0.8367437255 -0.1830018548 1.78678e-05 2.16121e-05 -0.0002458157 -1.32165e-05 -0.8271190694 0.1684624865
115299310.0 0.8338205742 -0.1920279712 -9.93714e-05 0.0001152575 7.74808e-05 4.39791e-05 -0.8245519015 0.1766804248
120299280.0 0.8320102686 -0.1986184712 3.84961e-05 8.95787e-05 0.0001264935 0.0001626454 -0.8234718638 0.1860685633
125299250.0 0.8301057386 -0.2077503004 -0.0001085046 -0.000130535 -1.17202e-05 0.0001107095 -0.8218144972 0.1952322764
130299220.0 0.8289361753 -0.2153829836 -0.0001162863 0.0001514024 5.26035e-05 0.0001551683 -0.8203726825 0.2041417617
135299190.0 0.8264628175 -0.2233135467 9.94525e-05 -0.0001101112 -8.69575e-05 2.58061e-05 -0.8179196981 0.2122352292
140299160.0 0.8241885271 -0.2317636254 5.37288e-05 -0.000150688 -0.0001518391 -3.56978e-05 -0.8159028077 0.2212474457
145299130.0 0.8217988404 -0.2399992193 2.40428e-05 -7.00114e-05 0.000114655 8.62946e-05 -0.8139596209 0.2297486655
150299100.0 0.8196303555 -0.2477167795 -0.0001874375 1.57322e-05 4.42733e-05 -1.44966e-05 -0.8115698374 0.2382757673
155299070.0 0.8167201337 -0.2556160391 8.71649e-05 -7.71611e-05 -8.16718e-05 0.0001289159 -0.8095277218 0.2474348063
160299040.0 0.8142387371 -0.263276997 -2.52939e-05 -0.0001295811 -6.96311e-05 -5.23953e-05 -0.8072596185 0.256585933
165299010.0 0.8119784108 -0.2711296543 -2.37172e-05 -2.4798e-05 0.0001785404 -3.0993e-06 -0.8045212105 0.2649737706
170298980.0 0.8093412135 -0.2790281976 -0.0001131552 -1.18277e-05 -8.80557e-05 -0.000152196 -0.8017407763 0.2733233434
175298950.0 0.8065667761 -0.287124585 2.67765e-05 -5.76761e-05 -1.0304e-06 -7.89794e-05 -0.7986330488 0.282184197
180298920.0 0.8032055831 -0.2949705206 5.40086e-05 -4.65245e-05 5.909e-05 -0.0001342923 -0.7952427493 0.2904209056
185298890.0 0.8005174595 -0.3029078317 -5.62515e-05 -0.0001910936 9.97742e-05 0.0001414277 -0.7929586683 0.2987689804
190298860.0 0.7974450265 -0.3107623227 0.0001636042 7.40738e-05 0.0001352396 -0.0001558052 -0.7896668621 0.307733238
195298830.0 0.7945743492 -0.3178341354 -1.94006e-05 3.259e-06 -1.06219e-05 -1.5757e-06 -0.7868003254 0.3154902143
200298800.0 0.7911739263 -0.3260023139 -7.73729e-05 5.88522e-05 -7.73506e-05 -6.82373e-05 -0.7830308425 0.3237701631
205298770.0 0.7878955252 -0.3336529978 4.17723e-05 5.98242e-05 7.50443e-05 6.517e-06 -0.780211275 0.3320114887
210298740.0 0.785139103 -0.3410162657 0.000215026 -3.52307e-05 -1.07687e-05 7.59307e-05 -0.7765153819 0.3400253015
215298710.0 0.7812961587 -0.3487266324 -0.0001280443 0.0001940458 -2.382e-07 0.0003075035 -0.7732780377 0.3487945672
220298680.0 0.7780282673 -0.3566458793 6.02626e-05 -0.0002085863 6.96722e-05 -9.61643e-05 -0.7696796667 0.3564041413
225298650.0 0.7739816631 -0.3635917028 -7.055e-07 1.54346e-05 -5.76081e-05 5.81863e-05 -0.7656601792 0.3646252141
230298620.0 0.77127468 -0.3718217053 -8.68248e-05 -4.31392e-05 0.0001978455 6.84789e-05 -0.7617295017 0.372725527
235298590.0 0.7670021466 -0.3787499444 3.68459e-05 0.0003880724 0.0001243021 0.00016473 -0.7578703108 0.3805368627
240298560.0 0.763416501 -0.3869447198 0.0001739018 8.35318e-05 1.20293e-05 -0.0001422867 -0.7543167818 0.3885458349
245298530.0 0.7598518821 -0.393746258 -8.82339e-05 8.60453e-05 6.393e-07 2.93953e-05 -0.7499705779 0.3964614729
250298500.0 0.755704455 -0.4009346341 4.13422e-05 -9.50903e-05 -6.77611e-05 8.64703e-05 -0.7457988582 0.4045438027
255298470.0 0.7514440995 -0.4080770949 -6.74054e-05 -4.49717e-05 -0.0001898196 -9.75769e-05 -0.7413948132 0.412269087
260298440.0 0.747661396 -0.4146771475 -6.77322e-05 0.0002561841 0.0001147017 -6.29453e-05 -0.7367380336 0.4198617834
265298410.0 0.7436669787 -0.4225008823 0.0001529792 0.0001451629 -0.000120258 -0.0001273096 -0.7321725305 0.4272280312
270298380.0 0.7398204511 -0.4296968915 9.81368e-05 -3.31203e-05 -2.4472e-05 -6.62678e-05 -0.727550767 0.4353102694
275298350.0 0.7357490989 -0.4368021362 -3.89905e-05 -0.0001216145 7.38436e-05 -0.0003345126 -0.7228298627 0.4430623468
280298320.0 0.7319066497 -0.4439321457 -7.37665e-05 0.0001643431 -9.50935e-05 -2.07991e-05 -0.7184632968 0.4503352915
285298290.0 0.7273646502 -0.4510428447 -0.0002197724 0.0001900833 9.65972e-05 4.53331e-05 -0.7137312417 0.4577238549
290298260.0 0.7231298732 -0.4586421037 6.27513e-05 -5.15386e-05 0.0001385753 9.4158e-06 -0.7088588261 0.4657773598
295298230.0 0.7183740946 -0.4663365067 0.0002673191 5.10716e-05 0.0002164764 2.12684e-05 -0.703909208 0.4729406745
300298200.0 0.7149100291 -0.4733073961 -4.08192e-05 -4.36773e-05 -0.0001060774 0.0001739402 -0.6986121606 0.480117914
305298170.0 0.7107104622 -0.4792997154 1.18025e-05 0.0001141251 0.0001377768 -1.83939e-05 -0.6931877389 0.487648086
310298140.0 0.7062942752 -0.4883375996 -0.0002017059 -0.0001374271 -0.000131621 -6.99608e-05 -0.689091643 0.4952888124
315298110.0 0.7004035707 -0.4952478405 7.60749e-05 6.63493e-05 0.0001184613 -4.38022e-05 -0.6830071586 0.5020655635
320298080.0 0.6948206668 -0.5025775268 0.0001338007 0.0001100818 7.22272e-05 -5.83682e-05 -0.6775642289 0.5092367337
325298050.0 0.6897876102 -0.5102908035 9.32972e-05 9.18684e-05 9.69514e-05 2.75442e-05 -0.6721853256 0.5163140271
330298020.0 0.6839102992 -0.5163713451 0.0001142858 -3.47505e-05 7.15013e-05 -0.0001067172 -0.6663582955 0.5232629157
335297990.0 0.6779328602 -0.5226815158 -0.0001076001 4.51046e-05 5.9712e-06 8.6386e-06 -0.6613790763 0.5298265264
340297960.0 0.6727981669 -0.5289022656 -9.69698e-05 -0.0001233722 0.0002190851 0.0001670948 -0.6559566326 0.5370559559
345297930.0 0.6669530851 -0.5355450131 4.67676e-05 0.000103897 4.2799e-06 1.1059e-05 -0.6499494518 0.5437762981
350297900.0 0.661298439 -0.541596093 -0.0002863995 0.0002073521 -2.95912e-05 -2.5896e-05 -0.6440860408 0.5512624373
355297870.0 0.6559755556 -0.5479868001 -7.55928e-05 0.0001266035 -1.87916e-05 -0.0001798856 -0.6387489554 0.5572238402
360297840.0 0.6506290488 -0.5544069372 9.11622e-05 3.12238e-05 4.37606e-05 0.0001100008 -0.6319544632 0.5636373925
365297810.0 0.6453553102 -0.5603671699 -1.2071e-05 -0.0001617907 -6.38948e-05 -8.01561e-05 -0.6260376721 0.5701484436
370297780.0 0.639995199 -0.5665070213 2.53728e-05 -2.0019e-05 -0.0001793143 8.2232e-05 -0.6205479764 0.5764147308
375297750.0 0.6336702916 -0.5725171759 9.34805e-05 0.0001061963 9.96918e-05 -0.0001136072 -0.6143622833 0.5832479323
380297720.0 0.6292489513 -0.5782765374 -9.69982e-05 2.30357e-05 -0.0001683016 -8.36186e-05 -0.6078979406 0.5902731751
385297690.0 0.6222736597 -0.5841526141 -0.0001324076 -0.0001854181 -7.597e-06 4.72144e-05 -0.6022161152 0.5959525402
390297660.0 0.6168481804 -0.5902612368 4.19849e-05 6.72389e-05 -2.41224e-05 -0.000140516 -0.5955001343 0.6015859309
395297630.0 0.6109729014 -0.5963312263 -3.86115e-05 -6.43869e-05 -3.38004e-05 7.30359e-05 -0.5888119039 0.6084585815
400297600.0 0.6050830851 -0.6016721021 7.0518e-06 3.97657e-05 0.0001568303 8.50597e-05 -0.5834510289 0.614015807
405297570.0 0.5996571597 -0.6078838816 0.0001675342 0.0002224309 0.0001639169 2.60733e-05 -0.577541701 0.6199430514
410297540.0 0.5930607356 -0.613738669 7.83812e-05 1.85684e-05 -0.0001426978 -8.7402e-05 -0.5702926019 0.6256218465
415297510.0 0.5875599631 -0.6192191928 -0.0001395225 -4.48351e-05 0.0001276263 -5.68173e-05 -0.5637839534 0.6320035138
420297480.0 0.5811894177 -0.6248139762 -2.99326e-05 4.24367e-05 -1.28578e-05 2.01076e-05 -0.5568915494 0.636860191
425297450.0 0.5747228102 -0.6298586673 -2.20704e-05 -0.0001105445 -0.0001275806 -4.32925e-05 -0.5500478936 0.6431150046
430297420.0 0.5686148776 -0.6360135602 0.0001582792 -1.5043e-06 6.87295e-05 0.0001651328 -0.5436440138 0.6489158805
435297390.0 0.5625216913 -0.6415500064 5.98919e-05 -5.83093e-05 5.09693e-05 0.0001279182 -0.5371504603 0.6537171401
440297360.0 0.555744663 -0.6473170512 -1.7911e-06 -6.53369e-05 4.844e-05 -8.5527e-05 -0.5300303106 0.6589931044
445297330.0 0.5495024605 -0.6518431113 4.67086e-05 1.73314e-05 -5.70051e-05 -6.28568e-05 -0.5233952346 0.664175251
450297300.0 0.5432323041 -0.6573023904 -7.06613e-05 -0.0001574314 8.22758e-05 8.41737e-05 -0.5172592313 0.6701151283
455297270.0 0.5357588323 -0.6622208192 2.05991e-05 -8.84299e-05 4.38095e-05 4.27289e-05 -0.5096624068 0.6747513579
460297240.0 0.5300357083 -0.6677594219 0.0002111196 1.39222e-05 2.45354e-05 2.84415e-05 -0.5029606638 0.6803500833
465297210.0 0.5237850067 -0.672832036 -0.0001532583 2.88306e-05 -1.47227e-05 9.42017e-05 -0.4964722558 0.6849251696
470297180.0 0.5167428447 -0.6779056747 -0.0002070033 0.0001456909 -5.02894e-05 -0.0001584213 -0.4896393503 0.6895114227
475297150.0 0.5102144057 -0.6826244902 -9.88556e-05 -0.0001200674 -6.97614e-05 -5.49406e-05 -0.4823895909 0.6948934278
480297120.0 0.5036200359 -0.6875653799 0.0001456361 0.0002135001 -9.66653e-05 8.70466e-05 -0.475474637 0.7001365314
485297090.0 0.4968688795 -0.6924959353 -0.0001257929 -2.54129e-05 4.92641e-05 -4.37857e-05 -0.468249093 0.7039627592
490297060.0 0.4898437625 -0.6969184439 1.14637e-05 7.17065e-05 -0.0001047024 1.4752e-05 -0.4609410742 0.7082637734
495297030.0 0.4822678045 -0.7021984447 6.72595e-05 -0.000110927 -4.74625e-05 0.0001160144 -0.453403049 0.7125672332
500297000.0 0.4764265874 -0.706563029 -4.53513e-05 7.28781e-05 -0.000114528 -0.0001560198 -0.4470910691 0.7176210342
505296970.0 0.4679699389 -0.7113220992 -0.0001817189 -0.0001297521 7.44303e-05 -9.51832e-05 -0.4404453049 0.7220965015
510296940.0 0.4616162222 -0.7153957805 5.54939e-05 0.0001086176 -6.82517e-05 -0.0002079796 -0.4320075757 0.7265236092
515296910.0 0.4548887841 -0.7199081567 -0.0002340725 8.08174e-05 4.38385e-05 5.12637e-05 -0.4250002345 0.7308378422
520296880.0 0.4478074384 -0.7241396837 -3.27608e-05 -5.78194e-05 -0.0001288721 0.000117809 -0.4177606211 0.7349808767
525296850.0 0.4402715377 -0.7287395225 0.0001793599 0.0002058319 -4.84105e-05 0.0001113757 -0.4098087849 0.7393837578
530296820.0 0.4326785077 -0.7325139703 -0.0002215637 0.0001035419 -9.2609e-06 -7.74733e-05 -0.4031253504 0.7427590921
535296790.0 0.4261864228 -0.7365741549 7.11776e-05 8.31195e-05 -0.0001470463 -0.0001350005 -0.3957328618 0.746522477
540296760.0 0.4191489402 -0.7414409717 0.0002246514 -0.0001222816 1.8703e-05 -0.0002400131 -0.3881988248 0.7508155189
545296730.0 0.4112604873 -0.7440373784 0.000235579 0.0001842812 2.08838e-05 -0.0001034106 -0.3805635446 0.7542949839
550296700.0 0.4039310147 -0.7486926732 -0.0001494924 6.99732e-05 4.5902e-05 -1.6555e-05 -0.37341812 0.7580954201
555296670.0 0.3960803906 -0.7527312983 -2.85681e-05 -0.000114896 4.78797e-05 -4.61351e-05 -0.3653826916 0.7615664062
560296640.0 0.3894619131 -0.7566939147 9.99573e-05 0.0001583787 2.11671e-05 9.8076e-06 -0.3580030773 0.7657135935
565296610.0 0.381537916 -0.7597595192 0.0001064268 6.01505e-05 8.60845e-05 2.5379e-06 -0.3504901535 0.7690347394
570296580.0 0.3747675192 -0.7640869871 -6.6734e-06 8.21075e-05 -1.89924e-05 -8.95837e-05 -0.3429014572 0.7722473066
575296550.0 0.3669209246 -0.7668148971 -8.91757e-05 -0.0002388141 9.1206e-05 0.0001000368 -0.334737262 0.7757213614
580296520.0 0.3598460232 -0.7701405077 4.6407e-05 0.0001733811 -0.0001621112 2.63835e-05 -0.3274265589 0.7790373802
585296490.0 0.3512021747 -0.7738786904 1.67519e-05 -5.84589e-05 -0.0002922598 -6.55119e-05 -0.3198478536 0.7816142233
590296460.0 0.3438399502 -0.7777187804 -0.0001109631 2.2106e-06 -6.95076e-05 -0.0002341898 -0.3120576433 0.7849263363
595296430.0 0.3365130426 -0.7803776918 0.0001383636 3.3592e-06 0.0001473353 -0.000196629 -0.3036688265 0.7875969556
600296400.0 0.3284202401 -0.7835305152 0.0002812583 -3.44152e-05 -0.0001663583 -0.000148561 -0.2961214774 0.7913803334
605296370.0 0.3213388978 -0.7867844425 -5.4062e-05 -0.0001391339 -2.72129e-05 -4.41288e-05 -0.2882685344 0.7943353733
610296340.0 0.312692798 -0.7900153709 8.40245e-05 -0.000166908 5.92604e-05 3.23339e-05 -0.2806184606 0.7967423891
615296310.0 0.3049943011 -0.7925864652 0.0001335576 -0.0002207476 -0.0002048303 2.35263e-05 -0.2727609844 0.7991652271
620296280.0 0.2970759417 -0.7956910044 -5.607e-06 -0.0001710752 -1.43057e-05 -0.0001225129 -0.2647557081 0.8016781666
625296250.0 0.289559029 -0.7982819352 -0.000197505 3.81536e-05 0.0001232239 0.0001088076 -0.2568254684 0.8045962122
630296220.0 0.2814999068 -0.801246847 -3.3323e-06 0.000122451 -7.46392e-05 0.0001568628 -0.2486680901 0.8071952762
635296190.0 0.2737594294 -0.8042660274 7.88306e-05 9.94287e-05 7.98514e-05 -0.0002662416 -0.2412543755 0.8091386431
640296160.0 0.2657981854 -0.8055833333 9.87659e-05 0.0001834272 -5.75945e-05 -1.28236e-05 -0.2322395229 0.8118333339
645296130.0 0.2577391794 -0.8086958123 5.31462e-05 0.0001944614 4.364e-06 6.60924e-05 -0.225410647 0.8140051185
650296100.0 0.2494800498 -0.8106126302 -0.0001021965 0.0001694485 8.32488e-05 -3.42153e-05 -0.2168928264 0.8164435168
655296070.0 0.2422582143 -0.8133912189 0.0001214547 -5.9269e-06 -5.09177e-05 0.0001620891 -0.2087949692 0.817953029
660296040.0 0.2327818835 -0.8151539827 -1.57242e-05 2.3502e-06 6.84576e-05 1.69108e-05 -0.2011167092 0.8199515694
665296010.0 0.2250701349 -0.817504016 0.0001336944 5.50088e-05 -0.0001132086 2.33455e-05 -0.1930270246 0.8223192459
670295980.0 0.2178504104 -0.8199509793 -6.54633e-05 3.81668e-05 -0.000175177 -5.45048e-05 -0.1850079574 0.8235693543
675295950.0 0.209201629 -0.8215908782 -1.09107e-05 -8.36506e-05 -6.56537e-05 9.7268e-05 -0.1764127511 0.8262302812
680295920.0 0.2003808475 -0.8237706032 -1.89035e-05 -6.21311e-05 6.09951e-05 9.96935e-05 -0.1685947142 0.8278991234
685295890.0 0.1927748593 -0.8250336495 -0.0002029344 -7.6324e-06 -6.12096e-05 -6.9489e-05 -0.1599091317 0.8291584266
690295860.0 0.1854431912 -0.8267983878 -1.72591e-05 -7.25127e-05 3.54991e-05 6.29228e-05 -0.1512552333 0.8309224891
695295830.0 0.1766012379 -0.8285882102 7.31327e-05 -0.000123004 -4.012e-05 -6.72641e-05 -0.1440048459 0.832641138
700295800.0 0.1687550073 -0.8300711653 -2.89137e-05 -9.50087e-05 0.000174686 6.18093e-05 -0.1344063245 0.833298159
705295770.0 0.160708529 -0.8326146031 9.32881e-05 4.79599e-05 -8.95593e-05 1.48637e-05 -0.1279591672 0.8352268359
710295740.0 0.1519152901 -0.8334434127 0.0001046245 0.0001726554 -0.0001176173 -5.03981e-05 -0.1193665038 0.8364706381
715295710.0 0.1436623566 -0.8338335041 4.60128e-05 9.89364e-05 -2.36036e-05 -5.07445e-05 -0.1109560838 0.8379406752
720295680.0 0.1355515349 -0.8357156591 1.32689e-05 -3.33957e-05 6.4014e-05 -1.0492e-06 -0.1025161458 0.838364504
725295650.0 0.1271149594 -0.8366738225 -6.67215e-05 0.0001540672 -4.67343e-05 0.000116375 -0.094261492 0.8398818374
730295620.0 0.1191539113 -0.8387560763 -0.0002047331 -9.0077e-05 7.25655e-05 0.0001878853 -0.0853290104 0.8404766992
735295590.0 0.1111384036 -0.8390687092 7.394e-07 -0.0001038168 -2.91476e-05 8.37119e-05 -0.0772184935 0.8411493012
740295560.0 0.1024986331 -0.8398322814 0.0002200496 6.94931e-05 -6.44544e-05 0.000127713 -0.0691475585 0.8415166281
745295530.0 0.0941190455 -0.8414425995 -6.46803e-05 -0.000181106 8.28322e-05 -6.91042e-05 -0.0607287742 0.8424853736
750295500.0 0.086197162 -0.8412899763 4.30346e-05 7.4778e-06 -3.58758e-05 0.0001123618 -0.0524726495 0.8420844335
755295470.0 0.0775884562 -0.8427504667 -7.165e-05 8.47672e-05 -5.61203e-05 9.11177e-05 -0.0446400242 0.8435252135
760295440.0 0.0692682145 -0.8426739431 0.0002006167 3.94678e-05 -2.27671e-05 0.0001682129 -0.0363185288 0.8438390056
765295410.0 0.0608100802 -0.8437676271 -1.91539e-05 0.0001576592 -9.77583e-05 9.22738e-05 -0.0271878596 0.8444086244
770295380.0 0.0520785891 -0.8440880802 0.0003524199 1.74645e-05 0.000126214 8.6192e-06 -0.0187846837 0.8441327436
775295350.0 0.0442545502 -0.8435357098 3.33806e-05 -5.37251e-05 4.071e-06 -0.0001617434 -0.011317705 0.8439765832
780295320.0 0.0355300198 -0.8448290403 1.9811e-06 -3.15829e-05 -8.05818e-05 0.0001730265 -0.0027637166 0.8451573613
785295290.0 0.0270369405 -0.8444518046 1.347e-06 -0.0001750161 -5.88279e-05 0.0002296075 0.005036898 0.8445994738
790295260.0 0.0192050525 -0.8451153167 -0.0002214948 4.04924e-05 -4.97522e-05 -8.50349e-05 0.0143422192 0.8444929645
795295230.0 0.0109090735 -0.8444027417 -5.9021e-05 0.0001869483 9.20094e-05 -7.48887e-05 0.0223024215 0.8445136573
800295200.0 0.0027131306 -0.8439279445 4.38549e-05 -0.0001407417 3.96321e-05 -4.5546e-06 0.0303084087 0.8438230932
805295170.0 -0.0059736735 -0.8445009284 7.80987e-05 0.0004916299 1.16544e-05 -0.0002695903 0.038325461 0.8433061781
810295140.0 -0.0137283618 -0.8435799541 5.75929e-05 4.18835e-05 -4.61091e-05 0.0003366066 0.046695055 0.8438949486
815295110.0 -0.0225452515 -0.8436689458 0.0001077984 -2.01053e-05 0.0001192174 4.94207e-05 0.0551852277 0.8432414361
820295080.0 -0.0311121112 -0.8428884376 7.14913e-05 0.000130413 -3.95083e-05 -8.404e-06 0.0630426526 0.8419778538
825295050.0 -0.0390188569 -0.84283263 -0.0001390529 4.49e-07 5.21137e-05 -4.66385e-05 0.0717825026 0.8419199409
830295020.0 -0.0470623818 -0.8420381091 3.85367e-05 0.0001428303 -6.43448e-05 9.31565e-05 0.0795957628 0.841008768
835294990.0 -0.0555615902 -0.8418887376 -0.0002586567 7.36615e-05 -6.32944e-05 7.92303e-05 0.0881107676 0.8396953159
840294960.0 -0.0637807947 -0.8412328038 -0.0001675488 -3.76861e-05 9.14642e-05 0.0001111978 0.0959990836 0.8393221299
845294930.0 -0.0723498143 -0.8403691947 -3.28811e-05 -9.5178e-05 8.52204e-05 -3.5911e-06 0.1046492424 0.8381856373
850294900.0 -0.0807573629 -0.839096863 -2.43248e-05 -0.0001519277 -3.7514e-06 -0.0001805196 0.112576752 0.8373014998
