!Created with skrf (http://scikit-rf.org).
# Hz S RI R 50.0 
!freq ReS11 ImS11 ReS21 ImS21 ReS12 ImS12 ReS22 ImS22
300000.0 -0.0962705863 -0.0879426902 0.6206892599 0.0835396752 0.6247611917 0.0867334802 -0.0956346756 -0.0970952237
5299970.0 -0.1004253549 0.0125784141 0.6306757376 0.01048814 0.6305147864 0.0110600646 -0.1021508672 0.0118870797
10299940.0 -0.095327044 0.0296909415 0.6344121344 0.0154196109 0.6343411316 0.0157341851 -0.0972023615 0.0288034032
15299910.0 -0.0884981723 0.0431295545 0.6401278897 0.0205966939 0.6404892016 0.0205552442 -0.089816579 0.0420807158
20299880.0 -0.0794455645 0.0540103532 0.6488449078 0.0243179281 0.6487868526 0.0242444837 -0.0814493321 0.0531486384
25299850.0 -0.0696383606 0.0626084795 0.6579211033 0.0249149265 0.6579536823 0.0253440864 -0.0723516821 0.0620358596
30299820.0 -0.0595481568 0.0691388411 0.6677835328 0.024687985 0.6674147277 0.0243681021 -0.0624861905 0.0688594521
35299790.0 -0.0492271013 0.0742657486 0.6773593987 0.0210248761 0.6774673074 0.0219410522 -0.0524842525 0.0734052461
40299760.0 -0.0397127083 0.076830309 0.6871129951 0.0179891141 0.6866485612 0.0174513087 -0.0434002232 0.0769255641
45299730.0 -0.0302419613 0.0793501631 0.695937188 0.0113782928 0.6954859852 0.0119685263 -0.0340274255 0.079141528
50299700.0 -0.021613194 0.0795902898 0.7032316743 0.0047488063 0.7033936789 0.0044149326 -0.0254290325 0.080125288
55299670.0 -0.0143206626 0.0797340276 0.710449978 -0.0030190875 0.7111341484 -0.0026740703 -0.017611338 0.0799755506
60299640.0 -0.0064029499 0.0790511188 0.7172653546 -0.0112118711 0.7175220945 -0.0113926048 -0.0103809895 0.079852814
65299610.0 -0.0001943611 0.0778723349 0.7238580652 -0.0197249825 0.7239096037 -0.0199338994 -0.0035117144 0.0785453302
70299580.0 0.0061337182 0.0758910808 0.7284098789 -0.0295579751 0.7285246948 -0.0294515521 0.0024465571 0.0772511781
75299550.0 0.0118771643 0.0741933876 0.7330538922 -0.0386348218 0.7327824475 -0.039121991 0.008483545 0.0758207848
80299520.0 0.0161842396 0.072046988 0.7375741518 -0.0491127907 0.7377609472 -0.0488009332 0.0131706565 0.073206401
85299490.0 0.0211433747 0.0694611252 0.7407417534 -0.0591079308 0.7406364705 -0.0586936303 0.0175375363 0.0711800092
90299460.0 0.0245103161 0.0673508835 0.7431201091 -0.0685359056 0.7438448211 -0.0685819345 0.022181885 0.0688366058
95299430.0 0.0283238592 0.0651362381 0.7460012025 -0.0797840309 0.7458100058 -0.0788397752 0.0253250152 0.0663555013
100299400.0 0.0313303486 0.0626533166 0.7471653485 -0.0894368316 0.747569019 -0.0892627364 0.0284038252 0.0640288945
105299370.0 0.0347742274 0.0602512834 0.7485088965 -0.0991740006 0.7487787199 -0.09928063 0.0318916 0.0617889717
110299340.0 0.0369271959 0.0577626898 0.7495991419 -0.1090137598 0.7498435597 -0.1098358157 0.0347660359 0.0594617105
115299310.0 0.0396528245 0.0548385482 0.7507985796 -0.1192576177 0.7511620308 -0.1191616887 0.0372191758 0.0563757552
120299280.0 0.0413186793 0.0526403366 0.7516098818 -0.1295117938 0.7515902469 -0.1296447691 0.0389079182 0.0542557962
125299250.0 0.0431669467 0.050237088 0.7517135496 -0.1393793132 0.7516872013 -0.1396752431 0.0412934057 0.051366609
130299220.0 0.0451173861 0.0480527042 0.751556053 -0.1490635786 0.7515535209 -0.1495356963 0.0433439887 0.049518237
135299190.0 0.046845715 0.0455159404 0.7509497794 -0.1587448705 0.7508920716 -0.1587157511 0.0442453851 0.0474488773
140299160.0 0.0475868973 0.0441690234 0.7510879319 -0.168881312 0.7509634233 -0.1684082093 0.0462164998 0.0454081397
145299130.0 0.0493028768 0.0418495035 0.7500731838 -0.1792882329 0.7502192774 -0.1785390503 0.0470734453 0.0427855133
150299100.0 0.050692923 0.0398548042 0.7491574169 -0.1881140054 0.7488723649 -0.1879183751 0.0486153195 0.0407634388
155299070.0 0.0513202692 0.0382658801 0.7477352719 -0.1983138325 0.7476869598 -0.1985733929 0.0493037201 0.0387304735
160299040.0 0.0523134097 0.0360066761 0.746229212 -0.2070219206 0.7462929596 -0.2072785513 0.0507248042 0.0372043063
165299010.0 0.053081326 0.0341724425 0.7451128809 -0.2173081322 0.7446021792 -0.2169583144 0.0517554799 0.0346819185
170298980.0 0.0535253249 0.032847556 0.7415728295 -0.2260217837 0.7428670198 -0.2261060685 0.0526883484 0.032794223
175298950.0 0.0544033897 0.03074315 0.7417260048 -0.2354192843 0.7413694741 -0.2355334439 0.0530114866 0.0309572879
180298920.0 0.0552809782 0.0294144001 0.7390466613 -0.2446068866 0.738788732 -0.2443767145 0.0534862921 0.0299364572
185298890.0 0.0560376143 0.0272985678 0.7363219714 -0.2540516112 0.7368940999 -0.253852036 0.054089401 0.0276300152
190298860.0 0.0561365205 0.0258291971 0.7341900311 -0.2634284144 0.7346975201 -0.2629671848 0.0552930906 0.0260811193
195298830.0 0.0564961206 0.0241019465 0.7318349607 -0.2714633173 0.7323202409 -0.2725829625 0.0557763596 0.0240212996
200298800.0 0.057131987 0.0226749435 0.7294580331 -0.2800405443 0.7286252596 -0.2805318352 0.0563571023 0.0232702585
205298770.0 0.0574528489 0.0215277535 0.7269659043 -0.2895110699 0.7267581741 -0.2897218447 0.0563059921 0.0206333026
210298740.0 0.057080637 0.0198434554 0.7239250089 -0.2991060771 0.7236735799 -0.2988061864 0.056913735 0.0197207679
215298710.0 0.0578896357 0.0187666581 0.7208543619 -0.306748517 0.7205265458 -0.3072915335 0.0570216291 0.0180981516
220298680.0 0.0581449992 0.0173790718 0.717284916 -0.3160660302 0.7169520863 -0.3157989619 0.0574274349 0.0172548513
225298650.0 0.0584901058 0.0160395906 0.7135088238 -0.3236864143 0.7137265583 -0.324438321 0.0576577793 0.0154318803
230298620.0 0.0584334487 0.0150005072 0.7109023906 -0.3325978427 0.7108512942 -0.3326559 0.0577495635 0.0139961377
235298590.0 0.0585462253 0.0132746073 0.70750036 -0.3409163443 0.7074396139 -0.3418583868 0.058131387 0.0124600968
240298560.0 0.0583433352 0.0121798389 0.7034796697 -0.3493352391 0.7041471825 -0.3490466313 0.058236607 0.0116750984
245298530.0 0.0590182734 0.0112668464 0.6989727528 -0.3579633578 0.69989551 -0.3582005114 0.0584034728 0.0105082774
250298500.0 0.058800953 0.0098083544 0.6957091619 -0.3657930569 0.696376709 -0.3653514863 0.0589578242 0.0087641858
255298470.0 0.058401332 0.009062562 0.6918513193 -0.3744619633 0.6922284198 -0.3742232126 0.0586198935 0.0073192642
260298440.0 0.0583022795 0.0076962184 0.6880867317 -0.3821933781 0.6884314075 -0.3825859142 0.0595195009 0.0068628427
265298410.0 0.0591126937 0.0069314073 0.6840682168 -0.3906035331 0.6838625426 -0.3908307393 0.0590027382 0.0053184604
270298380.0 0.0593174325 0.0056174873 0.6793225295 -0.3984328333 0.6798634953 -0.3984435292 0.0592437625 0.0046800232
275298350.0 0.0586024292 0.0047748816 0.6750450148 -0.4067149172 0.6758765009 -0.4064102994 0.0590609868 0.0036145104
280298320.0 0.0587540892 0.0040886816 0.670872439 -0.4139270486 0.6710467086 -0.4144045072 0.0595372011 0.0027467835
285298290.0 0.05881258 0.0029863288 0.6664422988 -0.4213689959 0.6665120544 -0.4220710072 0.0590365443 0.0014063088
290298260.0 0.058931587 0.0017463963 0.6621588289 -0.4292749431 0.6619383913 -0.4296146951 0.0600061596 0.0006026575
295298230.0 0.0586806302 0.0006746674 0.6573736512 -0.4376247774 0.6573894502 -0.4373214874 0.0596909318 -0.0003417053
300298200.0 0.059200397 -0.000181197 0.6527369372 -0.4452391405 0.6531104962 -0.4455986698 0.0594841012 -0.0014439068
305298170.0 0.0589636236 -0.0015034474 0.6480569915 -0.4527404091 0.6485413516 -0.4528947051 0.0599276115 -0.0020327102
310298140.0 0.0596189393 -0.0025551435 0.6433460731 -0.4608660417 0.6432964826 -0.4612035743 0.059949825 -0.0030977775
315298110.0 0.0589418824 -0.0035420277 0.6381684673 -0.4683340337 0.6388117443 -0.4679709102 0.0601704261 -0.0045274296
320298080.0 0.0585642314 -0.0043274575 0.6331330367 -0.4756720965 0.6335562983 -0.475534081 0.0593938699 -0.0058338383
325298050.0 0.058342004 -0.005882876 0.6282486438 -0.4838861993 0.628485696 -0.4835193495 0.0593229241 -0.0070822735
330298020.0 0.057879769 -0.0065663484 0.6216399764 -0.4909603329 0.6216644675 -0.4907234083 0.0584708384 -0.0080417637
335297990.0 0.0576882375 -0.007897985 0.6163277225 -0.4979456691 0.6161736426 -0.4978740615 0.0584507465 -0.0088852727
340297960.0 0.0567767324 -0.0082445647 0.6103856725 -0.5049357971 0.6105461442 -0.5042135591 0.0576914445 -0.0096104795
345297930.0 0.056147241 -0.0086988944 0.6048396664 -0.5109369445 0.6040917798 -0.5109025265 0.057668747 -0.0106400253
350297900.0 0.0563880192 -0.0094068935 0.5986429678 -0.5173488774 0.5991702547 -0.5182060549 0.0570751394 -0.0103695428
355297870.0 0.0558794856 -0.0102323309 0.5930740725 -0.5243092117 0.5929674246 -0.5251382455 0.0564690999 -0.0114912923
360297840.0 0.0560043512 -0.0106607248 0.5876991335 -0.5315436409 0.5873034428 -0.5314561574 0.0563446876 -0.0118822997
365297810.0 0.055901226 -0.0116907269 0.5814155066 -0.5378778176 0.5817557496 -0.5377623712 0.055888194 -0.0123982743
370297780.0 0.0557312241 -0.0124487847 0.5751103745 -0.5442668747 0.5755381459 -0.5448768284 0.056275523 -0.0129088794
375297750.0 0.0550735866 -0.0125236959 0.5701815507 -0.5508909211 0.5692509758 -0.5510645394 0.05584236 -0.0133741576
380297720.0 0.0550821196 -0.0137622459 0.5638941035 -0.5569769083 0.563556961 -0.5572221331 0.0552743431 -0.0140422524
385297690.0 0.055011479 -0.0140242564 0.5576031331 -0.5629335196 0.557301059 -0.5637296329 0.0551282808 -0.014588033
390297660.0 0.0541897057 -0.0148626085 0.5504990556 -0.569702737 0.5510037403 -0.5704245783 0.0549642 -0.0155241908
395297630.0 0.0546357263 -0.0158484142 0.5451140358 -0.5755319843 0.5448238204 -0.5755702026 0.0543639992 -0.0156497131
400297600.0 0.0537151336 -0.0159990345 0.538050548 -0.5822044253 0.5385357717 -0.5822999239 0.0533185547 -0.0166718884
405297570.0 0.0538101146 -0.0166439905 0.5318351991 -0.5879649745 0.5319968933 -0.5879453912 0.0536084868 -0.0166955981
410297540.0 0.0535556953 -0.0174173767 0.5248760825 -0.5936276562 0.525336531 -0.5942353316 0.0530829612 -0.0176258421
415297510.0 0.0534382701 -0.0172903212 0.518925197 -0.5993853021 0.5192433561 -0.5997709263 0.0521839451 -0.0178120819
420297480.0 0.0529884974 -0.0188437826 0.5120938213 -0.6059180052 0.5126489785 -0.6053581396 0.0527027241 -0.019011307
425297450.0 0.0533888935 -0.0196071165 0.5062007812 -0.6111206966 0.5061605595 -0.6109904783 0.0520605321 -0.0187673642
430297420.0 0.0525386001 -0.0196497133 0.4985727974 -0.6170018751 0.4993580468 -0.6174867284 0.0515572889 -0.020357102
435297390.0 0.0525754881 -0.0206694172 0.492174774 -0.6216622307 0.492354848 -0.621870364 0.0509608474 -0.0199062589
440297360.0 0.05202595 -0.0214208302 0.4848970693 -0.6275438308 0.484650031 -0.6278296463 0.0511473176 -0.0214291614
445297330.0 0.0524651765 -0.0219506893 0.4779725207 -0.6334422866 0.4779933215 -0.633011178 0.0505578184 -0.0219187521
450297300.0 0.0520556996 -0.0226269947 0.471134481 -0.6381593336 0.4716806313 -0.6387907294 0.0500954515 -0.0220744021
455297270.0 0.0510805542 -0.0234066323 0.4646208196 -0.6431513008 0.4649554553 -0.6435693228 0.0500463021 -0.0224025473
460297240.0 0.0506024933 -0.0239277863 0.457305008 -0.6482421701 0.4568249798 -0.6487605089 0.0494989631 -0.0226293787
465297210.0 0.0508781233 -0.0246252026 0.4497591346 -0.6535103023 0.4503450645 -0.6539675632 0.0487955936 -0.0235777282
470297180.0 0.0500777578 -0.025251177 0.4431667276 -0.6583206685 0.4430579295 -0.6590165476 0.0478221959 -0.0239660389
475297150.0 0.0494989078 -0.0262929923 0.4352201617 -0.6636270978 0.4358272608 -0.6628070502 0.0480401422 -0.0244119071
480297120.0 0.0497722826 -0.0268162235 0.4283660426 -0.667986504 0.4289929159 -0.6679837942 0.0475448397 -0.0245772059
485297090.0 0.04957322 -0.0273339549 0.4217068591 -0.6730625293 0.4211205699 -0.6730107465 0.0467317468 -0.0257704245
490297060.0 0.0490179745 -0.0282267044 0.4137898136 -0.6778598027 0.4137877658 -0.6778338873 0.0468368699 -0.025627821
495297030.0 0.0480654283 -0.0281044739 0.4062246558 -0.6817190923 0.406154165 -0.6826366649 0.0463741597 -0.026319086
500297000.0 0.0480618081 -0.0290297397 0.3981513689 -0.6862328625 0.3986748602 -0.6869736097 0.0449596501 -0.0269638893
505296970.0 0.0470761387 -0.0297764387 0.3909365939 -0.6908117981 0.3908603297 -0.6912095006 0.0445570646 -0.0274931679
510296940.0 0.0467948626 -0.0300120382 0.3834153954 -0.6951731652 0.3833822441 -0.69558554 0.044965647 -0.0272284574
515296910.0 0.0464654966 -0.03029082 0.3756116693 -0.6991597789 0.3754024408 -0.6993529485 0.0440807239 -0.0281070871
520296880.0 0.0458526938 -0.0313909157 0.367978554 -0.7035832642 0.3682957572 -0.7034150318 0.0441692464 -0.0284656984
525296850.0 0.045470083 -0.0322473327 0.3604130518 -0.7080610991 0.360642574 -0.7077880444 0.0438031491 -0.0288477444
530296820.0 0.0450959535 -0.032350462 0.3530506613 -0.7105342449 0.3522642175 -0.7113259396 0.0428489645 -0.0298877793
535296790.0 0.0442180661 -0.0331439518 0.3445106725 -0.7149188908 0.3455016932 -0.7153483881 0.0424426864 -0.0302686805
540296760.0 0.0438843867 -0.0339990869 0.337309289 -0.7187997898 0.3368988133 -0.7195932253 0.0412224679 -0.030554529
545296730.0 0.0435690914 -0.0336898339 0.3291236936 -0.7223711821 0.3289298386 -0.7231897075 0.0413150567 -0.0310228484
550296700.0 0.042537366 -0.0343150885 0.3216424029 -0.7262375835 0.3216785745 -0.7262710626 0.0405758797 -0.0307113001
555296670.0 0.0426417381 -0.0354544445 0.3137137331 -0.7301121322 0.3132066674 -0.7298318565 0.0403876475 -0.0312880152
560296640.0 0.0418138423 -0.0355071458 0.3055761485 -0.7326684909 0.305320117 -0.7332805807 0.03983614 -0.0320378919
565296610.0 0.0408058252 -0.036461169 0.2971354671 -0.7363858879 0.2968352029 -0.7365835015 0.0388836791 -0.0322982726
570296580.0 0.041118088 -0.0367486076 0.2892538273 -0.7394872509 0.2893992263 -0.7399010606 0.0388676587 -0.0320161869
575296550.0 0.040292638 -0.0362410803 0.281103843 -0.7422031498 0.2812320786 -0.7427387341 0.0382213805 -0.0326341696
580296520.0 0.0392634155 -0.0372490056 0.2733456575 -0.7455987499 0.2726059883 -0.7463394317 0.037492378 -0.0334958201
585296490.0 0.03938709 -0.0379521817 0.2654829317 -0.7487565938 0.2646876064 -0.7491087208 0.0370646254 -0.0339887943
590296460.0 0.0380713167 -0.0386391119 0.2568102206 -0.7515914471 0.2562450235 -0.7517927795 0.0368989546 -0.0336310752
595296430.0 0.0375008116 -0.0385438781 0.2487295573 -0.7542042678 0.2482691042 -0.7551947283 0.0363793418 -0.0345829572
600296400.0 0.0372335389 -0.0387413689 0.2402168367 -0.757082001 0.2404733388 -0.7573344456 0.0359197113 -0.0340647939
605296370.0 0.0367355797 -0.038868662 0.2321758634 -0.7598397123 0.2318977561 -0.7594743694 0.0352504881 -0.0348970815
610296340.0 0.0359381563 -0.039353262 0.224070092 -0.7625403997 0.2237541549 -0.7620225092 0.0345283884 -0.0342600647
615296310.0 0.0353709094 -0.0393345599 0.2151478478 -0.7647420797 0.2153859355 -0.7649354504 0.0343062984 -0.0352832289
620296280.0 0.0347117348 -0.0402523251 0.2071332006 -0.7667317795 0.2073750456 -0.7669133221 0.0335204765 -0.0357766012
625296250.0 0.0344779119 -0.040237177 0.198510169 -0.7689857663 0.1982877278 -0.7693112747 0.0333426711 -0.0357144144
630296220.0 0.0334885864 -0.0404786199 0.190003391 -0.7716132123 0.1906109019 -0.7710298374 0.0320019912 -0.0357870836
635296190.0 0.0330500784 -0.0410185146 0.1818639318 -0.7727420453 0.1815597135 -0.7725959422 0.0316309235 -0.0364292686
640296160.0 0.0321196803 -0.0411240528 0.1735268671 -0.7752064203 0.1733676151 -0.7755833002 0.0318697458 -0.0364910184
645296130.0 0.0321162366 -0.041131177 0.1647226724 -0.7771491854 0.1647809038 -0.777007549 0.0300544405 -0.0371404853
650296100.0 0.0308314308 -0.0410648088 0.1565624992 -0.7785045635 0.1564832971 -0.7784818158 0.0302096443 -0.0372738963
655296070.0 0.0304737019 -0.0421996966 0.1483583773 -0.7798996558 0.1482020681 -0.7801408106 0.0299649778 -0.0368371656
660296040.0 0.0293050504 -0.0416389374 0.1394187063 -0.7815881277 0.1394642616 -0.7815710005 0.0286041777 -0.0376443009
665296010.0 0.0292362015 -0.0423990265 0.1309866496 -0.7827924276 0.1316472841 -0.7828984527 0.0278960495 -0.0373748109
670295980.0 0.0292850505 -0.0422703381 0.1225002534 -0.7848050614 0.1227729804 -0.7846356583 0.0272059396 -0.0380422222
675295950.0 0.0283550231 -0.0424748005 0.113466904 -0.7857862564 0.1140835777 -0.786589046 0.0271940757 -0.0378241647
680295920.0 0.0273658289 -0.0424698376 0.1046767997 -0.7870449353 0.1049924042 -0.7874712007 0.0267227483 -0.0382490514
685295890.0 0.0267588165 -0.0427795914 0.0967759471 -0.7881461274 0.096032812 -0.7885760918 0.0257649457 -0.0380735123
690295860.0 0.0262414936 -0.0431691484 0.0878317516 -0.7885146061 0.0876637949 -0.788766846 0.0255701927 -0.0379352099
695295830.0 0.0264603504 -0.0435634349 0.0786115682 -0.790047277 0.0785458675 -0.7903361032 0.0243616186 -0.0380585543
700295800.0 0.025709349 -0.0434057706 0.0706497715 -0.7911822655 0.0705914321 -0.791551414 0.0237239375 -0.0392202906
705295770.0 0.024610222 -0.0435793337 0.0618070155 -0.791725246 0.0619132534 -0.7917300307 0.02290267 -0.0388714439
710295740.0 0.0239937427 -0.043364947 0.0537227002 -0.7921879002 0.0533038542 -0.792232109 0.0218937081 -0.0386755013
715295710.0 0.0236080207 -0.0435982824 0.045072795 -0.7926898501 0.0453978823 -0.7928022471 0.0216781998 -0.0399077057
720295680.0 0.0227758385 -0.0442399766 0.0360003919 -0.7927164734 0.0361038864 -0.7934756926 0.021591453 -0.039167132
725295650.0 0.022661417 -0.0442946071 0.0273067198 -0.7934649157 0.0277874445 -0.7933638586 0.0208542775 -0.0390592276
730295620.0 0.0211562251 -0.0444471068 0.0187735158 -0.7936855543 0.0189476261 -0.794075623 0.0204405124 -0.0404406391
735295590.0 0.0212842838 -0.0444505763 0.0109613824 -0.7937127487 0.0109555797 -0.7940636601 0.0195774709 -0.039180787
740295560.0 0.0202277786 -0.0443340273 0.001584994 -0.793615499 0.0015045046 -0.7938265853 0.0193467321 -0.0398194378
745295530.0 0.0198621311 -0.0448033473 -0.0068379346 -0.7940287444 -0.0068352168 -0.7944006009 0.0181590798 -0.0395853465
750295500.0 0.0194688796 -0.044737154 -0.0150780033 -0.7934302767 -0.0154110079 -0.7938664477 0.018108891 -0.0401831649
755295470.0 0.0191059915 -0.0445615392 -0.0241068878 -0.7930767771 -0.0240431989 -0.7938943492 0.0166373154 -0.0398879401
760295440.0 0.0177426221 -0.0446606703 -0.0332042995 -0.7931459286 -0.0330658387 -0.7936729969 0.0155846062 -0.0400720758
765295410.0 0.0169008658 -0.0449721009 -0.0411436517 -0.7920922873 -0.0408491419 -0.7930887395 0.0166122153 -0.0398236195
770295380.0 0.0171765373 -0.0447402852 -0.0503561153 -0.791812622 -0.0500236667 -0.7922855143 0.0159900225 -0.0397325314
775295350.0 0.0159721444 -0.0449012302 -0.0586864781 -0.7909406599 -0.0586502092 -0.7921703018 0.0145219981 -0.0411005251
780295320.0 0.0157801412 -0.0449640675 -0.0667909717 -0.7909583348 -0.0669243361 -0.7912569446 0.0142077517 -0.0397911616
785295290.0 0.014800009 -0.0443199535 -0.0758219064 -0.7892475979 -0.0756513126 -0.7898486547 0.0131194685 -0.0401192905
790295260.0 0.0142061353 -0.0445579316 -0.0841099492 -0.7892922723 -0.0842134466 -0.7897931064 0.013109312 -0.0404195588
795295230.0 0.0132600896 -0.0447556851 -0.0925289137 -0.7880454563 -0.0927060656 -0.7883708886 0.0120951523 -0.0393232873
800295200.0 0.0130956542 -0.0445259587 -0.1021753485 -0.7873054517 -0.1020153847 -0.787353575 0.0117912241 -0.0400386449
805295170.0 0.011855089 -0.0448438025 -0.1096159504 -0.7856285394 -0.1101530403 -0.7861463385 0.0109022565 -0.0406093324
810295140.0 0.0115382289 -0.0447434889 -0.1182084241 -0.7849354311 -0.1184705308 -0.7852677485 0.0104231825 -0.0398127404
815295110.0 0.0106943428 -0.0445028221 -0.1272703494 -0.7831775666 -0.1273068772 -0.7836801764 0.0098213838 -0.0403697083
820295080.0 0.0102987534 -0.0448318589 -0.1354449139 -0.7815115201 -0.1356589752 -0.7820089439 0.0088372624 -0.0401358328
825295050.0 0.0096618815 -0.0448597076 -0.1443043604 -0.7799633136 -0.1438428131 -0.7805041109 0.0091300189 -0.0399039915
830295020.0 0.008677006 -0.0443317953 -0.1526593032 -0.778630107 -0.1530467749 -0.7788386262 0.0077867042 -0.0404708724
