!Created with skrf (http://scikit-rf.org).
# Hz S RI R 50.0 
!freq ReS11 ImS11 ReS21 ImS21 ReS12 ImS12 ReS22 ImS22
300000.0 -0.7756103522 -0.1733759996 -0.0023862028 -0.0009131477 0.0014089175 0.0005611959 -0.2104068332 -0.1046655737
5299970.0 -0.7862082086 -0.0092987481 7.55317e-05 8.43907e-05 0.0001281434 -7.21174e-05 -0.2159482029 0.0064596755
10299940.0 -0.7890891199 -0.0057795323 1.89251e-05 0.000121305 8.77707e-05 -1.57484e-05 -0.2124045691 0.0189385809
15299910.0 -0.7943123183 -0.0037240196 -2.25849e-05 -0.0001161989 -7.65704e-05 -7.53263e-05 -0.2076039615 0.0280939586
20299880.0 -0.8009754163 0.0008937244 1.44442e-05 -7.86514e-05 -0.0002420922 3.1757e-05 -0.2023890191 0.0357771587
25299850.0 -0.8076869161 0.0069590859 4.1311e-05 9.02919e-05 2.4537e-05 -3.81666e-05 -0.1970451943 0.04181118
30299820.0 -0.8142404521 0.0135689935 0.0001140672 2.0399e-05 2.48316e-05 9.77038e-05 -0.1908303931 0.0467215653
35299790.0 -0.8184583031 0.0227583016 -9.50083e-05 -7.43298e-05 8.83393e-05 0.0001217171 -0.1853433568 0.0507477695
40299760.0 -0.8238080882 0.0318522435 -9.2542e-06 8.11857e-05 7.09911e-05 0.0001203387 -0.1795680651 0.0529081102
45299730.0 -0.8264922935 0.0418802953 5.01413e-05 -4.10338e-05 0.0001144266 -4.08501e-05 -0.174385552 0.0554742956
50299700.0 -0.82942556 0.0517053267 0.0002118367 -1.29861e-05 0.0001484007 -0.0002531486 -0.169643695 0.0571198231
55299670.0 -0.8311169856 0.0614951054 -0.0001704374 0.0001001612 -0.0001748456 -2.41056e-05 -0.1657704642 0.0579021772
60299640.0 -0.8323972267 0.071842632 -0.0001583914 0.0001460903 4.10603e-05 4.72083e-05 -0.1614980794 0.058779693
65299610.0 -0.8336129912 0.0816959612 3.12853e-05 -7.743e-07 -0.0002134867 6.00911e-05 -0.1578813052 0.0590754574
70299580.0 -0.8339339064 0.0915163997 4.36095e-05 0.0001145729 0.0003096876 -0.0002720672 -0.1547029019 0.0596547085
75299550.0 -0.8335838182 0.1017112834 0.0001414329 0.0001385804 -0.00030969 0.0002197434 -0.151339937 0.0599315736
80299520.0 -0.8341901014 0.1118925282 -3.94552e-05 -8.57894e-05 8.07729e-05 -0.0001249324 -0.1487678792 0.0599968647
85299490.0 -0.8324553761 0.1212995499 3.4594e-06 0.0001408811 0.0001188006 3.75726e-05 -0.1465354867 0.0599150211
90299460.0 -0.8323962145 0.1318410999 0.0001228179 -5.85777e-05 -0.0001516082 -2.74992e-05 -0.1444635017 0.059898166
95299430.0 -0.8316916543 0.1405844471 2.64662e-05 2.78108e-05 0.0002445163 -3.76109e-05 -0.1421700052 0.0597400363
100299400.0 -0.8301411207 0.1499922181 0.0001142272 1.73966e-05 -3.02849e-05 0.0001659523 -0.1403853696 0.0601001177
105299370.0 -0.8292621267 0.1592184259 -4.27501e-05 1.0899e-06 -0.0001309171 4.7495e-05 -0.1386613851 0.0596838612
110299340.0 -0.8274744394 0.1685613928 -6.0554e-05 0.0001990195 1.66707e-05 0.0001776785 -0.1375473209 0.0597664445
115299310.0 -0.8260180708 0.1772630871 -5.48974e-05 -0.0001493485 -9.47475e-05 -1.2437e-05 -0.13630493 0.0599078758
120299280.0 -0.8251383286 0.1859635069 -0.0002307613 2.4377e-05 -5.1306e-06 4.99797e-05 -0.1350736356 0.0596998546
125299250.0 -0.8224885943 0.1958742674 0.0001945573 0.0001503035 2.72053e-05 0.0001444188 -0.133810637 0.0597728056
130299220.0 -0.8211885521 0.2047583113 0.0002389709 0.0001082194 -5.31715e-05 -3.32973e-05 -0.1328920463 0.0597806107
135299190.0 -0.8185005523 0.2142234533 -5.41566e-05 -2.2576e-05 -3.39208e-05 8.24953e-05 -0.1319068738 0.0603005763
140299160.0 -0.8171592236 0.2230886169 2.983e-06 0.0001315784 1.62446e-05 0.0001229628 -0.131207439 0.0607294481
145299130.0 -0.8149093767 0.2326110283 0.0001828298 0.0001556537 -3.60519e-05 0.0002669178 -0.130426615 0.0610144079
150299100.0 -0.8118454963 0.2410555044 0.0001886411 -0.0002805043 0.000148766 1.14271e-05 -0.1298811456 0.0615420587
155299070.0 -0.8104838566 0.2500686633 0.0001147431 -4.25268e-05 0.0001282997 -0.0001118534 -0.1289577822 0.0618498215
160299040.0 -0.8071512321 0.2592947757 0.0001257352 -7.3783e-06 1.76857e-05 0.0002708204 -0.1283858959 0.062347835
165299010.0 -0.8047659374 0.2673029705 -9.523e-06 4.96007e-05 5.60441e-05 0.0002079784 -0.1278574437 0.0624891013
170298980.0 -0.8015675352 0.275853865 0.0001702553 -0.0001674426 -4.82325e-05 0.0002988193 -0.1273548309 0.0634447445
175298950.0 -0.7991471439 0.2841266411 -5.73186e-05 0.0001030562 4.1893e-05 -5.96586e-05 -0.1267286586 0.0642715014
180298920.0 -0.7961005279 0.2931535096 -8.3367e-05 0.0001714352 -0.0001030926 8.42264e-05 -0.126121824 0.0644018039
185298890.0 -0.7926634207 0.3021486705 4.203e-06 4.39329e-05 2.38669e-05 0.0001154007 -0.1254773743 0.0649039756
190298860.0 -0.7893492365 0.3113012546 -3.23061e-05 0.0002575135 0.0002579365 4.84582e-05 -0.1251395141 0.0656828166
195298830.0 -0.7864557055 0.3192381336 7.17638e-05 4.6533e-06 0.0001616175 5.46415e-05 -0.1247683367 0.0662958571
200298800.0 -0.7827991912 0.3277745849 0.0001446333 0.0002994558 0.000120646 0.0001063789 -0.1242057442 0.0670916643
205298770.0 -0.779120654 0.3364725636 6.85283e-05 0.0001030318 -8.43512e-05 4.94e-05 -0.1240325048 0.0677737968
210298740.0 -0.7760755068 0.3446516428 -0.0001587418 9.23778e-05 0.0001241674 9.13551e-05 -0.1232515548 0.0683158486
215298710.0 -0.7716122598 0.3527289989 0.0002066715 -0.0002076328 -2.37396e-05 0.0001217734 -0.122711207 0.0692203367
220298680.0 -0.7682688836 0.3601466139 0.0001853701 0.0001253 0.0001116137 -6.88468e-05 -0.12234309 0.0700731629
225298650.0 -0.7645175139 0.3695208569 -0.000126609 6.20118e-05 0.0001835474 6.4309e-06 -0.1221136764 0.0710603792
230298620.0 -0.7612160494 0.3777012052 0.0001972584 6.3858e-06 0.0001226277 0.0002627609 -0.1216105122 0.0713846016
235298590.0 -0.7573014958 0.3859186425 8.96842e-05 -1.51807e-05 0.0001827957 0.0001893031 -0.1212554084 0.0728823868
240298560.0 -0.7527315337 0.3937407403 -0.0002081859 -2.70172e-05 0.0001913337 0.0001574482 -0.1206569806 0.0735178558
245298530.0 -0.7484229295 0.4012872551 -6.58638e-05 9.9225e-06 2.70023e-05 0.0003728609 -0.1200037623 0.0743555938
250298500.0 -0.7447261758 0.409152814 0.000179448 3.15584e-05 0.0001077977 0.0002247221 -0.1196762279 0.0755562308
255298470.0 -0.7410889711 0.4174923495 5.36243e-05 0.0001782186 0.000139039 0.0001270254 -0.1190931844 0.0761210675
260298440.0 -0.7362834768 0.4248669899 0.0001458578 0.0001764288 0.0001892821 0.0001574342 -0.1187748265 0.0772632527
265298410.0 -0.7318872897 0.4326320456 0.0002015779 0.0001224498 0.0003391307 6.77201e-05 -0.1179846788 0.0782727621
270298380.0 -0.727016642 0.4409627209 6.58881e-05 0.0001133521 1.46705e-05 4.60765e-05 -0.117452516 0.0790650815
275298350.0 -0.723330613 0.4479454098 -0.0001094279 3.07562e-05 -3.82327e-05 7.6651e-05 -0.1166044575 0.0803677081
280298320.0 -0.7182539982 0.4554855901 6.35906e-05 -1.35964e-05 3.67782e-05 -0.00012782 -0.1167105859 0.0811594696
285298290.0 -0.7135748264 0.4630039202 9.65006e-05 0.0002865578 0.0002892404 4.81341e-05 -0.1160230377 0.0824039247
290298260.0 -0.708659491 0.4707134433 0.0001932138 -2.89371e-05 5.827e-05 -3.19622e-05 -0.1154468465 0.0832199254
295298230.0 -0.7040701782 0.4780121484 0.0001184216 0.0003010568 6.44304e-05 9.48205e-05 -0.1149369112 0.0843144982
300298200.0 -0.6994306638 0.4854403648 0.000229733 4.8243e-05 0.0001522658 -1.70656e-05 -0.1139897928 0.0854623529
305298170.0 -0.6946629321 0.4924055782 0.0001868309 0.0001062282 0.0001112804 5.00503e-05 -0.1133833018 0.0863968878
310298140.0 -0.6892937932 0.4995197231 0.0002074043 0.0001990897 0.0002583463 4.58997e-05 -0.1128142664 0.087330528
315298110.0 -0.6850721982 0.5071279517 1.51227e-05 -0.0002137134 -4.41908e-05 5.80588e-05 -0.1120706168 0.0883182353
320298080.0 -0.6791801375 0.5142598943 0.0003039651 0.0001829994 6.57581e-05 -5.55877e-05 -0.1116014723 0.0893890834
325298050.0 -0.6731962623 0.520994229 0.0002539812 5.1362e-05 0.000128738 0.000127318 -0.1108225927 0.0898199569
330298020.0 -0.6678740667 0.5277579186 -5.09078e-05 5.7601e-06 2.71071e-05 0.0001015675 -0.1102900185 0.0908866882
335297990.0 -0.6630489727 0.5347762424 0.0001081921 3.82706e-05 0.0002691427 0.0001507706 -0.1096767307 0.0923046697
340297960.0 -0.6580924722 0.5414680543 8.41701e-05 0.0001829098 -8.46e-07 -1.9162e-06 -0.1089728052 0.0934378594
345297930.0 -0.6520292418 0.5479641868 4.46253e-05 7.78106e-05 4.03567e-05 -0.0001099531 -0.1083879176 0.0940709066
350297900.0 -0.6467169244 0.55451974 0.0001316355 0.0001682956 0.0002901102 5.75472e-05 -0.1082682375 0.0953173509
355297870.0 -0.6408200261 0.5617273377 -3.48991e-05 0.0002476872 0.0001009899 2.49624e-05 -0.1071400798 0.0967261522
360297840.0 -0.6349816934 0.5679849809 -5.39879e-05 4.45261e-05 2.32051e-05 0.0001596045 -0.1062112813 0.097291666
365297810.0 -0.6294159788 0.5746166147 6.44708e-05 5.7984e-06 0.0002932506 0.0001928159 -0.1060068976 0.0986739572
370297780.0 -0.6233054226 0.5803779405 1.70657e-05 0.0002616616 0.0001554395 6.79278e-05 -0.1052162277 0.0997631595
375297750.0 -0.6182207789 0.5869364562 0.0001088473 3.3013e-06 3.99296e-05 -3.3581e-06 -0.104457306 0.1010192899
380297720.0 -0.6121400796 0.5936256075 2.60471e-05 -2.97596e-05 0.000158396 -5.93087e-05 -0.103551213 0.1022155462
385297690.0 -0.606189383 0.5995987122 0.000255106 2.82212e-05 8.06181e-05 -7.98017e-05 -0.1025550885 0.1032362352
390297660.0 -0.5986209366 0.6052050167 -2.68615e-05 0.0004064 0.0001181106 0.0002723063 -0.1022440028 0.1042553972
395297630.0 -0.5932630664 0.6122038162 0.0002124218 0.0001680253 0.0002278826 4.69367e-05 -0.1012008311 0.10495804
400297600.0 -0.5870060353 0.6182026625 0.0002108703 7.9434e-06 -1.23361e-05 8.32833e-05 -0.0999413448 0.1065006121
405297570.0 -0.5810926672 0.6233782026 0.0002937477 -9.224e-06 0.0002297742 3.88573e-05 -0.0991778347 0.1075003674
410297540.0 -0.5735895945 0.6296076674 0.0002207052 6.47961e-05 7.61224e-05 3.79e-08 -0.0986400037 0.1087586772
415297510.0 -0.5682528694 0.6350847471 0.0002465372 8.75954e-05 9.3545e-05 -0.000111521 -0.0975501514 0.1095547595
420297480.0 -0.561109827 0.640830038 0.0001620732 4.80526e-05 0.0001407655 -8.75258e-05 -0.0963433904 0.1108967725
425297450.0 -0.554437949 0.6464121037 0.0002440537 0.0001022125 9.01966e-05 0.0001409749 -0.0958237782 0.1112323214
430297420.0 -0.5479697224 0.6520332061 0.0003251165 0.0001703981 -4.01015e-05 1.49329e-05 -0.094650984 0.1127805403
435297390.0 -0.5412122817 0.6571578142 6.17328e-05 0.0002541892 3.54447e-05 -3.95613e-05 -0.0940734881 0.1141602013
440297360.0 -0.5340728566 0.6626621273 -2.22293e-05 4.41139e-05 0.0001988218 9.57285e-05 -0.0930892343 0.11496811
445297330.0 -0.527823746 0.6680988461 0.0001495559 4.66942e-05 0.0002224347 0.0002078511 -0.0917674876 0.1157561426
450297300.0 -0.5203185386 0.6739558267 0.0002637253 0.0001934571 0.0002876181 9.23321e-05 -0.0909927034 0.1166794263
455297270.0 -0.5136836689 0.6788627162 -8.35892e-05 -0.0002232554 0.0001018697 0.0001807116 -0.0897735313 0.117699481
460297240.0 -0.505806749 0.6837112158 0.0001937519 -0.0001264699 0.0001204956 6.94585e-05 -0.0889937933 0.1185313843
465297210.0 -0.4993820921 0.6887424225 0.0002406128 0.0001383983 0.0002151706 0.0001923872 -0.0880246708 0.1199676052
470297180.0 -0.4919846989 0.6939665752 0.00030659 7.58772e-05 0.0001786782 6.07969e-05 -0.0869448102 0.12067234
475297150.0 -0.4851278941 0.6989024753 2.1431e-05 0.0002321975 -9.39241e-05 0.0001666638 -0.0857855694 0.121782121
480297120.0 -0.4769906109 0.704393733 3.34932e-05 0.0002122156 0.0002286514 0.0001678754 -0.0851301381 0.1229673656
485297090.0 -0.469961514 0.7085826758 -1.59526e-05 -3.50066e-05 0.0001195987 -2.77219e-05 -0.0838611378 0.12379224
490297060.0 -0.4625732077 0.7136783927 5.26472e-05 3.4309e-06 6.0258e-05 0.00023314 -0.0827045715 0.1247109116
495297030.0 -0.4550825801 0.7181601251 0.0002799101 0.000264116 0.0002571679 0.000269399 -0.0817600869 0.1255992284
500297000.0 -0.4474565097 0.7223180213 1.12907e-05 3.55667e-05 0.0003144925 -0.0001003209 -0.0806276917 0.1266557156
505296970.0 -0.4395197958 0.7271861939 0.0001543426 0.0001279251 2.56351e-05 0.0001114097 -0.0794920879 0.1274012859
510296940.0 -0.4319289774 0.7313268325 -1.13656e-05 4.07483e-05 0.0002941628 5.12727e-05 -0.0781851838 0.1286836127
515296910.0 -0.424260211 0.7357901856 8.35538e-05 5.57008e-05 0.000261913 0.0002967232 -0.0774626995 0.1294012386
520296880.0 -0.4162573435 0.7401858234 0.0002521624 -9.77977e-05 -3.971e-07 -2.2191e-06 -0.0759878964 0.1304424534
525296850.0 -0.4086991374 0.7438003584 0.000257028 8.51477e-05 0.0001813019 5.38006e-05 -0.0748299008 0.13120885
530296820.0 -0.4017480036 0.7481527813 0.0003651969 0.0001754668 0.0002967575 0.0001406631 -0.0737873085 0.1316936772
535296790.0 -0.3926490379 0.7517887184 0.0001671324 0.0003184176 0.0001953357 -4.9638e-05 -0.0726304311 0.1327494353
540296760.0 -0.3849343743 0.7560148454 7.35732e-05 7.14153e-05 0.0004337224 5.91039e-05 -0.0715008335 0.1335909913
545296730.0 -0.3779250036 0.7603614119 0.0002672253 0.0001147761 0.0001917024 0.0002057999 -0.070036619 0.1345706908
550296700.0 -0.3693349062 0.7635865161 0.0001611095 -0.0001607938 0.0004269121 1.96537e-05 -0.0690536237 0.1354517399
555296670.0 -0.3613192117 0.7669904906 0.0003630382 0.0001599882 3.34094e-05 0.0002934075 -0.0679085672 0.1360743502
560296640.0 -0.3532731744 0.7711943539 0.0002309545 6.73544e-05 0.0002875963 0.0001176599 -0.0665486906 0.1371147992
565296610.0 -0.346084204 0.7745601632 0.0003375198 0.0001193145 0.0001039318 7.92976e-05 -0.0651466514 0.1380349989
570296580.0 -0.3371389837 0.7777414778 0.0002059109 -0.0001631581 0.0002810075 3.88016e-05 -0.0643204644 0.1386429685
575296550.0 -0.3286127113 0.7809045928 0.0002679472 -5.7846e-05 0.0002430316 0.0001150564 -0.0626207339 0.1394569423
580296520.0 -0.3212765713 0.7845153092 0.0002292938 0.000173892 0.0001871424 6.87616e-05 -0.0616678969 0.1401938001
585296490.0 -0.3128412095 0.7871709088 0.0003350726 0.0001561877 0.0004748706 2.67837e-05 -0.0602259471 0.1411345827
590296460.0 -0.3035263751 0.7908785472 0.0002654904 -2.5515e-05 0.0001551225 6.73857e-05 -0.0592591293 0.1417473217
595296430.0 -0.296214382 0.7939101362 0.0003033137 -1.38062e-05 -7.01858e-05 -7.28729e-05 -0.0578871036 0.1425833113
600296400.0 -0.2885783417 0.7969258981 0.0003144376 2.81308e-05 0.0003470965 0.0001355714 -0.0564083926 0.1430965075
605296370.0 -0.2798640985 0.7995882268 0.0001919877 0.0001181459 0.0003906664 -1.54684e-05 -0.0553355643 0.1442102285
610296340.0 -0.2714141304 0.8027617263 0.000336067 0.0001696488 0.0002983168 4.16482e-05 -0.0540706037 0.1447570198
615296310.0 -0.2628110206 0.8053560555 0.000471483 0.000207785 2.95507e-05 8.33975e-05 -0.0520504806 0.1452556715
620296280.0 -0.2551258766 0.8083622483 5.78588e-05 -8.9262e-06 0.0003249681 6.77149e-05 -0.0514235703 0.1464345417
625296250.0 -0.2476964232 0.8105795759 0.0003174698 0.0001457211 0.0002341123 -7.08896e-05 -0.0501435998 0.1467493238
630296220.0 -0.2385658951 0.8134351665 0.0001843488 0.0001416679 3.99806e-05 0.0002837952 -0.0482891996 0.1471552349
635296190.0 -0.2303108457 0.8156126011 0.0002815019 0.0001790639 6.00964e-05 8.7618e-05 -0.0471969472 0.1481865464
640296160.0 -0.2217522486 0.8180448077 8.89836e-05 5.40893e-05 0.0002996671 -2.9289e-05 -0.0460857959 0.1487650221
645296130.0 -0.213520562 0.8206335392 0.0002852514 -4.98632e-05 0.0002541776 7.41382e-05 -0.0446909249 0.1494875157
650296100.0 -0.2050529697 0.8217439883 0.0003179735 -0.0002120643 0.0003128223 -0.0001201906 -0.0429994564 0.1499588457
655296070.0 -0.1982395629 0.8242726972 0.0002303587 0.0001733605 0.0003904577 -0.0001333896 -0.0418481999 0.1507176523
660296040.0 -0.1897726824 0.826300099 0.0003533369 -0.0001062531 0.0002463011 5.71446e-05 -0.0401361593 0.1510242535
665296010.0 -0.1810834208 0.8287171212 0.0002938 -0.0001356093 0.0002744952 5.11864e-05 -0.0388885484 0.1518733489
670295980.0 -0.1730828978 0.8304780542 0.0002700683 2.77282e-05 0.0002988617 9.85442e-05 -0.0378257402 0.1521052861
675295950.0 -0.1642083781 0.8323467504 0.0004266991 5.88059e-05 0.0002270442 -9.81899e-05 -0.0361553131 0.1529220633
680295920.0 -0.1566322163 0.8337828465 0.0003605698 0.0001974152 0.0003406885 4.41853e-05 -0.0345000542 0.1532649572
685295890.0 -0.1475865354 0.8353609367 0.000163837 -0.0002986109 0.0004728479 -8.31944e-05 -0.0334072354 0.1540315742
690295860.0 -0.1388133205 0.8366014882 0.0003999078 0.0001330142 0.0002508148 0.0001074329 -0.0320481098 0.154705778
695295830.0 -0.1311350473 0.8382875755 0.0003127222 6.09132e-05 0.0002553805 -0.0001365129 -0.0304938695 0.1552732365
700295800.0 -0.1225049131 0.840352498 0.0002336176 -0.0003674469 0.0003002558 0.0001757578 -0.0287204685 0.1555164848
705295770.0 -0.114515007 0.8414589471 0.0004422549 9.28528e-05 0.0001211152 -5.66698e-05 -0.027403083 0.1562282018
710295740.0 -0.1068044873 0.8418728568 0.0004316708 -0.0001108827 0.0001717649 8.5668e-06 -0.0258230066 0.1565744112
715295710.0 -0.0979385855 0.8437588558 0.0002327627 5.42486e-05 0.0002377109 -2.56683e-05 -0.0245792604 0.1568262122
720295680.0 -0.0887332724 0.8444590665 0.0001103099 7.90816e-05 0.0002071376 -5.70799e-05 -0.0229492687 0.1573074701
725295650.0 -0.0816412593 0.8461242414 -2.1493e-05 6.16004e-05 0.0001723362 0.0002435548 -0.0214766106 0.1579822978
730295620.0 -0.0738761766 0.8466504693 0.0003237481 0.0001671338 0.0003703542 -0.0002328015 -0.0202504735 0.1583425279
735295590.0 -0.065598509 0.847870563 0.0004126178 -0.0001858154 0.0001741973 -6.51396e-05 -0.0186832316 0.1583766171
740295560.0 -0.0579809651 0.8480103944 0.0002389224 0.000247793 0.0003475238 -0.0001311237 -0.0170316597 0.1588219022
745295530.0 -0.0491048369 0.849195549 0.0002140923 -0.0002346661 0.0004874007 -1.15488e-05 -0.0158462904 0.1596179563
750295500.0 -0.040932187 0.8492378482 0.0002007426 0.0001510872 0.0002240996 -6.30068e-05 -0.0142412161 0.1595215143
755295470.0 -0.0323600346 0.8498188207 0.0003066985 4.53266e-05 8.52535e-05 -0.0001226515 -0.0125968504 0.1602637456
760295440.0 -0.0241063398 0.8508986827 0.0002901004 -0.0001480377 0.000451676 -7.0372e-05 -0.0112028929 0.1603028898
765295410.0 -0.0162673188 0.8504542021 0.0002129721 6.6493e-05 0.0002722335 -8.95157e-05 -0.0096293357 0.1608465248
770295380.0 -0.0087753994 0.851046207 1.89626e-05 -5.66915e-05 0.0001899898 -0.0002031142 -0.0082809854 0.160943207
775295350.0 4.07924e-05 0.8511773642 0.0002494028 -0.0002363248 0.000485027 -0.0001590046 -0.0065012607 0.1609235011
780295320.0 0.0085673141 0.8512114211 0.0002348277 -6.67498e-05 0.000400123 9.45801e-05 -0.0048477532 0.1614932864
785295290.0 0.0168521846 0.8508656212 0.0004458123 -0.0001256864 0.0003416 -1.8338e-05 -0.0039900456 0.1616272595
790295260.0 0.0251063623 0.8508953434 0.000490485 3.49457e-05 0.0002512112 -6.834e-07 -0.0021634687 0.1622539658
795295230.0 0.0331128895 0.8507107846 0.0003252436 2.42336e-05 0.0002234101 0.0001928433 -0.0006230894 0.1619046646
800295200.0 0.0411926142 0.8508245904 0.0001541437 8.84752e-05 0.0002336932 -0.0001478957 0.0010036828 0.1624412631
805295170.0 0.0487466162 0.8503564347 0.0004855523 -0.0002493876 0.0004686873 -8.02636e-05 0.0025791022 0.1623576891
810295140.0 0.0573949847 0.8507035669 0.0003500349 -6.53794e-05 0.0002630436 -0.0001794089 0.0041658201 0.1627561064
815295110.0 0.0655403285 0.8497967816 0.0002475501 -0.0002003018 0.0002803419 -0.000174611 0.0051527826 0.1628268543
820295080.0 0.0736311679 0.8491876821 0.0003572759 -0.0001452593 0.0002692346 -0.0002060588 0.0068027762 0.163500961
825295050.0 0.0820062918 0.8479302348 0.0004935168 -0.0002550646 0.0002610601 9.4191e-06 0.0089162335 0.1631824591
830295020.0 0.0904577711 0.847849229 8.95238e-05 -0.0001080609 0.0003893525 -1.71614e-05 0.0099864713 0.1633134391
835294990.0 0.0976414309 0.8468348632 0.000267955 -0.0002033666 0.0003164365 -0.0002042348 0.0118732011 0.1635574198
840294960.0 0.1070149421 0.8456417356 0.0001888513 -1.91923e-05 0.0003433309 -0.0001200831 0.0132573382 0.1633922128
845294930.0 0.11459012 0.8441469798 0.0003295367 -3.10148e-05 9.40476e-05 -0.0001324213 0.0148143198 0.1636543551
850294900.0 0.1239144943 0.843315836 0.0001996476 -0.0002044375 0.0003979095 -0.0002117947 0.0163978062 0.16372557
