!Created with skrf (http://scikit-rf.org).
# Hz S RI R 50.0 
!freq ReS11 ImS11 ReS21 ImS21 ReS12 ImS12 ReS22 ImS22
300000.0 -0.2313232228 -0.1304083684 0.4662658754 0.0861506449 0.4664566319 0.084810531 -0.2346754434 -0.1295041585
5299970.0 -0.2419543266 0.0052439482 0.4749965356 0.0058845764 0.4752592618 0.0059183168 -0.2444479122 0.004837194
10299940.0 -0.2386679797 0.0185280281 0.477313912 0.0072715699 0.4770412399 0.0071923026 -0.2408755019 0.0174409926
15299910.0 -0.2337047679 0.0286370658 0.4807077691 0.0083344653 0.4807250774 0.0081847966 -0.2371342293 0.0263943854
20299880.0 -0.2284725 0.0368157202 0.4852931313 0.0083401905 0.4855562033 0.0083402213 -0.2322635917 0.0339158155
25299850.0 -0.2225143281 0.0435144004 0.4905419404 0.0078986574 0.491109504 0.0071032777 -0.2269152542 0.0400714533
30299820.0 -0.2172373936 0.0485369042 0.4963027179 0.0050025381 0.4960362433 0.0051209097 -0.2217544817 0.0449262236
35299790.0 -0.2113949241 0.0528142986 0.500546993 0.0018473891 0.5014598318 0.0020120814 -0.216940983 0.0490452778
40299760.0 -0.2063683164 0.056245776 0.5067449038 -0.0023102318 0.5065717286 -0.0021449799 -0.2122457963 0.0523240849
45299730.0 -0.2010032049 0.0587462077 0.5111808301 -0.0068357908 0.5115379989 -0.0067568259 -0.2072414264 0.0546726873
50299700.0 -0.1960595585 0.0609199499 0.5153550767 -0.0128390121 0.5153325671 -0.0126790774 -0.2027622251 0.0568936668
55299670.0 -0.1921751142 0.0626048455 0.5191764443 -0.0180705207 0.5192589651 -0.0184896482 -0.1992876034 0.0585506808
60299640.0 -0.187785117 0.0640453121 0.5224888411 -0.0246484463 0.5223737459 -0.0247821893 -0.1951974865 0.0595479179
65299610.0 -0.1843044425 0.0651851804 0.5255463609 -0.0306940652 0.5256078538 -0.0311458881 -0.1921001515 0.0608347012
70299580.0 -0.1808191138 0.0658876177 0.5269171268 -0.037307861 0.5280642919 -0.037489264 -0.1892022415 0.0617022671
75299550.0 -0.1779900573 0.0667315805 0.5296167843 -0.04438577 0.52976427 -0.0446036185 -0.1861414557 0.062893834
80299520.0 -0.1753456933 0.0680160862 0.53130331 -0.0514527922 0.5317812285 -0.0513398714 -0.1840237795 0.0636241032
85299490.0 -0.1724969019 0.068365864 0.5325836154 -0.0584793343 0.5333999403 -0.058050626 -0.1817055389 0.0640369983
90299460.0 -0.170252967 0.0689616511 0.5335883592 -0.0649691126 0.5336766895 -0.0648847487 -0.1794553496 0.064881525
95299430.0 -0.1681576547 0.0697868349 0.5344751402 -0.0721242788 0.5344570865 -0.0724179916 -0.1774966611 0.065261706
100299400.0 -0.165992194 0.0703150855 0.5350728093 -0.078482055 0.5348243535 -0.0789898318 -0.1758815173 0.0662532272
105299370.0 -0.1642245058 0.0708333528 0.5352083485 -0.085570456 0.535993043 -0.0854482521 -0.1739528419 0.0668215065
110299340.0 -0.162423237 0.0715211746 0.5355176309 -0.0921001449 0.5361461139 -0.0924577493 -0.1729317118 0.0674476505
115299310.0 -0.1611298903 0.0724777598 0.5357346519 -0.0991914011 0.5353956865 -0.0991800177 -0.1715906557 0.0683929665
120299280.0 -0.1595955026 0.0735253741 0.5354290754 -0.106567848 0.535266492 -0.106573743 -0.1704289714 0.0685793928
125299250.0 -0.1579418524 0.0739733222 0.5350388022 -0.1128358388 0.5347196038 -0.1130633326 -0.1689684191 0.0697904926
130299220.0 -0.1565195505 0.0746401032 0.5344370506 -0.1198552878 0.534276141 -0.120210879 -0.1677007405 0.0705342102
135299190.0 -0.1555121476 0.0761316142 0.533899514 -0.1262715472 0.5339849549 -0.1264626409 -0.1668554853 0.070812354
140299160.0 -0.1542041107 0.076835902 0.5332434846 -0.1330180711 0.5330853779 -0.132738064 -0.1666713328 0.071770297
145299130.0 -0.1535838772 0.077834194 0.5320533033 -0.1393374717 0.5320582523 -0.1391418142 -0.1649658698 0.0728674673
150299100.0 -0.1522357417 0.0789448949 0.5306976786 -0.1463064917 0.5311036123 -0.1461419038 -0.1643531743 0.0740730427
155299070.0 -0.1508863652 0.0800034782 0.5290567722 -0.1525051815 0.5298381573 -0.152401072 -0.1631371396 0.0746414814
160299040.0 -0.1499957097 0.0813456054 0.5282654877 -0.1589286911 0.5280171404 -0.1591761775 -0.1625750829 0.0759219902
165299010.0 -0.1489896533 0.0822179915 0.5270821152 -0.1649586884 0.5268181212 -0.1655747994 -0.1616960277 0.0763951343
170298980.0 -0.1480786528 0.0833499276 0.5251632139 -0.1714755493 0.5249571427 -0.171683535 -0.1610824813 0.0775675286
175298950.0 -0.1468566802 0.0845112599 0.5234834008 -0.1778208685 0.5240302581 -0.1781811804 -0.1602610642 0.07928276
180298920.0 -0.1463221412 0.086057268 0.5219701693 -0.1847140029 0.5216392575 -0.1846046539 -0.159721949 0.0801143756
185298890.0 -0.145173547 0.0872380714 0.5202055616 -0.1908863196 0.5200874384 -0.1904290025 -0.1584592982 0.0810032372
190298860.0 -0.1438565051 0.0889132031 0.517958463 -0.1968282091 0.5179979562 -0.1967696343 -0.1581125659 0.0821203689
195298830.0 -0.1432012736 0.0902836251 0.5163435755 -0.2026219764 0.5161481857 -0.2028820873 -0.1572538196 0.0832942025
200298800.0 -0.1420768416 0.0913439239 0.5140710285 -0.2094989008 0.5143852015 -0.2091382194 -0.1564358885 0.0848141116
205298770.0 -0.1413207153 0.0924669709 0.5113370233 -0.214819081 0.511926819 -0.2148243781 -0.1556207609 0.0857996688
210298740.0 -0.1404389144 0.0942029882 0.509742458 -0.22100531 0.5098042805 -0.221033366 -0.1553341439 0.0868908105
215298710.0 -0.1393416436 0.095535816 0.5068551882 -0.2268572761 0.5071813654 -0.2270537172 -0.1544401703 0.0884026403
220298680.0 -0.1382545078 0.097202475 0.5045655503 -0.2331335379 0.504891202 -0.2328904008 -0.1533695834 0.0896272224
225298650.0 -0.1371492198 0.0979428715 0.5020370047 -0.2382184711 0.5022784436 -0.2381793807 -0.1529196117 0.0904928716
230298620.0 -0.136270782 0.0997961697 0.4997023019 -0.2447744508 0.5000632033 -0.2444949898 -0.1522873382 0.0918310383
235298590.0 -0.1355656725 0.1014555942 0.4971840767 -0.2504998526 0.4974343125 -0.2498877637 -0.1513274097 0.093297702
240298560.0 -0.1341803746 0.1027825555 0.4946913069 -0.2554131194 0.4945439774 -0.2553868567 -0.1507672072 0.0944344058
245298530.0 -0.133386734 0.1040951919 0.4915992133 -0.2618207924 0.4918105755 -0.2617200695 -0.1498749468 0.0959471317
250298500.0 -0.1322995322 0.1054558634 0.489058976 -0.2669896847 0.489032629 -0.2671906739 -0.1488570587 0.0973426668
255298470.0 -0.1312042074 0.1073196349 0.4861059917 -0.2725130132 0.4865278499 -0.2726934549 -0.1483326845 0.098736146
260298440.0 -0.1303069377 0.1083882474 0.4831170309 -0.2779302255 0.483449962 -0.2777804925 -0.1475174695 0.0997755377
265298410.0 -0.1292430588 0.1099921093 0.4801524302 -0.2840967669 0.4800104736 -0.2842184046 -0.146030225 0.1009968567
270298380.0 -0.128338925 0.1113667745 0.4768966304 -0.2893080139 0.4772700081 -0.2891031949 -0.1452415798 0.1023806717
275298350.0 -0.1271542113 0.1130336453 0.4732365756 -0.2942921396 0.4735528338 -0.2946729946 -0.144245573 0.1041350553
280298320.0 -0.1263776304 0.1144147019 0.4709032541 -0.2993156342 0.4709662951 -0.3002422572 -0.1434868824 0.1055238972
285298290.0 -0.1249480673 0.1161485607 0.4670547058 -0.3051913236 0.4674108436 -0.3052196828 -0.1429821462 0.1067467759
290298260.0 -0.1237058301 0.1173089585 0.46449541 -0.3105813327 0.4642949577 -0.3103406257 -0.1417219078 0.108010397
295298230.0 -0.1226150987 0.1184380164 0.4608963778 -0.3159422051 0.4607761987 -0.3159783896 -0.141082219 0.1090092355
300298200.0 -0.1212380727 0.120336583 0.4575297187 -0.3210090052 0.4576625078 -0.3209513155 -0.139736712 0.1107142175
305298170.0 -0.1200986714 0.1211408 0.454401848 -0.326377489 0.4545362965 -0.3266155074 -0.1386757521 0.1116923797
310298140.0 -0.1187208718 0.122584922 0.4505858546 -0.3314707986 0.4507144343 -0.3310843577 -0.1373569429 0.1129273269
315298110.0 -0.1176190593 0.1236795019 0.4469636159 -0.3372591439 0.4471471199 -0.3368289066 -0.1366123669 0.114092428
320298080.0 -0.1163281115 0.1251549847 0.4425567502 -0.342143899 0.4437782496 -0.3421400359 -0.1359036588 0.1153794383
325298050.0 -0.1155658575 0.1261723286 0.4395714336 -0.3468736681 0.4396399062 -0.3466697868 -0.1344118749 0.1166074362
330298020.0 -0.1147433573 0.127620248 0.4353718109 -0.3517745365 0.4358323177 -0.351985587 -0.13398446 0.1176935313
335297990.0 -0.1134475109 0.1290529524 0.4312420469 -0.3566202175 0.4313962038 -0.3568697656 -0.1328808224 0.1193596136
340297960.0 -0.1123080135 0.1304220723 0.4269207875 -0.3619206682 0.4270059067 -0.3616472441 -0.1320981258 0.1207690321
345297930.0 -0.1114455986 0.1317141395 0.4231296955 -0.3663733733 0.4230286292 -0.3662151533 -0.1310647596 0.1216945443
350297900.0 -0.1102802267 0.1327165064 0.4193880838 -0.3702579487 0.4192582478 -0.3705815361 -0.1300934634 0.1230962413
355297870.0 -0.1088210061 0.1342492251 0.4151190584 -0.374607644 0.4149941677 -0.3751930197 -0.1289907191 0.124607701
360297840.0 -0.1072320076 0.1357452199 0.4109267606 -0.3801741717 0.4111284079 -0.3800388049 -0.1279366345 0.1262820117
365297810.0 -0.1063028594 0.1369841696 0.4065516488 -0.3846630411 0.4066941761 -0.384282426 -0.1269473312 0.1272463445
370297780.0 -0.1047032165 0.138353148 0.401973786 -0.3887706336 0.4027128686 -0.3885759439 -0.125815807 0.1287716761
375297750.0 -0.1036264511 0.1395181306 0.3982190439 -0.3928798303 0.3980704673 -0.3931523426 -0.1243154259 0.1297656583
380297720.0 -0.1020245773 0.1412114004 0.393958668 -0.3980295956 0.39396115 -0.3977748284 -0.1233046941 0.1316437924
385297690.0 -0.100891504 0.1420440447 0.3895271898 -0.4017051367 0.3895505163 -0.4021853736 -0.1220527815 0.1332547087
390297660.0 -0.0990226987 0.1434493875 0.3851078592 -0.4057447843 0.3853497211 -0.4061581923 -0.1207171918 0.1339122278
395297630.0 -0.0973963037 0.1446842198 0.3807529087 -0.4098448746 0.380398884 -0.4100368013 -0.1195675097 0.135302782
400297600.0 -0.0966745101 0.1455919887 0.3762914732 -0.4144868398 0.3766318485 -0.4144209969 -0.1179175637 0.137066623
405297570.0 -0.0947642543 0.1466276188 0.3718305665 -0.4181798852 0.3718236416 -0.4186765189 -0.1169443479 0.1381216879
410297540.0 -0.0931355473 0.1482627788 0.3670620309 -0.4227400584 0.3674968746 -0.4224653254 -0.1156835417 0.1392815889
415297510.0 -0.09185554 0.1490262697 0.3623611063 -0.426788647 0.3627569401 -0.426545316 -0.113983637 0.1404021752
420297480.0 -0.0903182304 0.1498547634 0.3575698852 -0.4302214594 0.35821155 -0.4307359643 -0.1127406946 0.1421351996
425297450.0 -0.0881432374 0.151242091 0.3528883783 -0.4341369706 0.3530644871 -0.4342655707 -0.1115305798 0.1430472817
430297420.0 -0.0869091314 0.1523717565 0.3485796745 -0.4384554234 0.3486032175 -0.4377514122 -0.1099350396 0.1443775654
435297390.0 -0.0853860493 0.153394963 0.3436030899 -0.4429045915 0.3435063401 -0.4417329028 -0.1092228507 0.1456698406
440297360.0 -0.0837303877 0.1541798191 0.338738169 -0.4460274694 0.3384289844 -0.4458246966 -0.1075316655 0.1470919069
445297330.0 -0.0818879739 0.155236999 0.3336754821 -0.4493763182 0.3336244554 -0.4497102625 -0.1055823463 0.1483684075
450297300.0 -0.079978657 0.1564225611 0.3285347919 -0.4529137275 0.3291129802 -0.4528526216 -0.1045737933 0.1495135622
455297270.0 -0.0787080101 0.1573515159 0.3239799873 -0.4566682085 0.3244085825 -0.4566871386 -0.1030067369 0.1504265387
460297240.0 -0.076646365 0.1584673347 0.3191041927 -0.4609458104 0.3188979308 -0.4604252713 -0.1015745652 0.1516020914
465297210.0 -0.074612436 0.1591252091 0.3132051989 -0.4636237673 0.3135234243 -0.4638431209 -0.0995405353 0.1533421859
470297180.0 -0.0731291613 0.1600433701 0.3085542539 -0.4665964414 0.3089041945 -0.4668335436 -0.098249613 0.1537804566
475297150.0 -0.0717816539 0.1612208404 0.3034728968 -0.4699545751 0.3035750299 -0.4704990482 -0.0967715224 0.1549706574
480297120.0 -0.0692308194 0.1622716696 0.2986516457 -0.4736153856 0.2986427203 -0.473461457 -0.095364821 0.1560999586
485297090.0 -0.0674841016 0.162763441 0.2928218305 -0.4772058132 0.2934676256 -0.4766025123 -0.0942229321 0.1572903285
490297060.0 -0.0652520192 0.163677867 0.2878519018 -0.4804193629 0.2883213482 -0.480285296 -0.0926119453 0.1581233648
495297030.0 -0.0636896425 0.1642997947 0.2829513218 -0.4831601571 0.2826591737 -0.4829078678 -0.0905514575 0.158797565
500297000.0 -0.0621426825 0.1653274559 0.2778068565 -0.485599778 0.2774178854 -0.4859193699 -0.0891915826 0.1602138803
505296970.0 -0.0595598253 0.1661755668 0.2723330567 -0.4891046836 0.2723429853 -0.4889646851 -0.0875195013 0.1607303214
510296940.0 -0.0579917556 0.1667484596 0.2667312935 -0.4925614001 0.2672175142 -0.4925840428 -0.0856615224 0.1624042825
515296910.0 -0.0563168721 0.1680128545 0.2609623368 -0.4950835141 0.2610498254 -0.4949630355 -0.0843609737 0.1626402651
520296880.0 -0.0541108054 0.1687131097 0.2558375663 -0.4976741321 0.255509699 -0.4974349718 -0.0820933655 0.1642928833
525296850.0 -0.0522699247 0.1692836558 0.2504604314 -0.5003130314 0.250401037 -0.5001942455 -0.0808424306 0.1649725831
530296820.0 -0.0507522411 0.1701108033 0.2451852243 -0.5032121822 0.2450270186 -0.5026805656 -0.079005713 0.1657374243
535296790.0 -0.0480212972 0.1706670186 0.2396529459 -0.5054667399 0.2392931207 -0.5057872555 -0.0771657825 0.1668984512
540296760.0 -0.0462429134 0.1717335215 0.2337737747 -0.5083302756 0.2337995828 -0.5080747183 -0.0757002296 0.1674768552
545296730.0 -0.0446179551 0.1723939228 0.2284826901 -0.5103534777 0.2282323796 -0.5102990448 -0.0740278817 0.1684649225
550296700.0 -0.0420932125 0.1729814779 0.2228561463 -0.513202461 0.2227404616 -0.5132385403 -0.072396299 0.1690991762
555296670.0 -0.0405101264 0.1737733463 0.2173615341 -0.5159439141 0.2173184862 -0.5156376927 -0.0708147525 0.1696307715
560296640.0 -0.0378592603 0.173922203 0.2115137601 -0.5177181962 0.2118261637 -0.5177968154 -0.0693251176 0.170960815
565296610.0 -0.0366064749 0.1747099626 0.2064070145 -0.5198933954 0.2061755775 -0.5197346451 -0.0674359642 0.1719681224
570296580.0 -0.0342388044 0.1754825898 0.2004278452 -0.5220693681 0.2003983325 -0.522209948 -0.0655364651 0.172291208
575296550.0 -0.0321301857 0.1759040373 0.1947923316 -0.5244480331 0.1945008125 -0.524227393 -0.0639599091 0.1730832223
580296520.0 -0.0301271223 0.1765434583 0.1889980182 -0.5262821689 0.1886558363 -0.5267035945 -0.062447567 0.1737565705
585296490.0 -0.0280643368 0.1769986265 0.1836369389 -0.5281662558 0.1830777113 -0.5282528854 -0.060224952 0.1747507863
590296460.0 -0.0254837027 0.1776633476 0.1773395495 -0.5301619955 0.1775486035 -0.5302511546 -0.0589966073 0.1753008774
595296430.0 -0.0237147016 0.1781772509 0.1714095807 -0.5321466025 0.1713593179 -0.5324219272 -0.056999682 0.1760215907
600296400.0 -0.0214441732 0.1786313623 0.1655619065 -0.5337464234 0.1654814405 -0.5339166229 -0.055416117 0.1764427459
605296370.0 -0.0197822463 0.1790478542 0.16060469 -0.5352295994 0.1602070554 -0.5358450261 -0.0534788516 0.1774309285
610296340.0 -0.0174447676 0.1799696656 0.1546275201 -0.5368647139 0.1547979922 -0.5373869716 -0.0522439894 0.1782679009
615296310.0 -0.015291832 0.1798404813 0.1484926091 -0.5390036281 0.1482699405 -0.5391528536 -0.0499189347 0.1789807284
620296280.0 -0.0136999183 0.1808302963 0.1424199708 -0.5402413758 0.1422940891 -0.5403431978 -0.0484326148 0.1795708989
625296250.0 -0.011797404 0.1808575236 0.1366890102 -0.5417158673 0.1367498629 -0.5421953839 -0.0469262092 0.179979252
630296220.0 -0.0093652122 0.1813914504 0.1304516661 -0.543297047 0.1307703022 -0.54305314 -0.0449994586 0.1804103505
635296190.0 -0.0074535284 0.1818590422 0.1250059479 -0.5442893466 0.1248247552 -0.5443112834 -0.0430648145 0.1811053551
640296160.0 -0.0051753452 0.1819379546 0.1190278384 -0.5458822385 0.1188752093 -0.5458443494 -0.0415501537 0.1815818972
645296130.0 -0.0029465422 0.1825640691 0.1131490186 -0.5470765777 0.1130388703 -0.5470174994 -0.0399884975 0.1817659751
650296100.0 -0.0014829127 0.1824947638 0.1071877283 -0.5483443303 0.1070703644 -0.548582027 -0.0374892959 0.1823585003
655296070.0 0.0009610331 0.1827563834 0.101130725 -0.5491534981 0.1010450184 -0.5488941357 -0.0365698649 0.1832333953
660296040.0 0.0030302372 0.1830509147 0.0951110953 -0.5506125075 0.0950659245 -0.5506756608 -0.0342370571 0.1833289341
665296010.0 0.0050078508 0.183575533 0.0889799773 -0.5510560109 0.0891885751 -0.5514221245 -0.032495384 0.1842255738
670295980.0 0.0071202135 0.1837670205 0.0830689568 -0.5523361387 0.0832544314 -0.5517995425 -0.0309611133 0.1844614708
675295950.0 0.0091354248 0.1837981162 0.0773536234 -0.552915377 0.077466365 -0.5531301767 -0.0290938534 0.185233426
680295920.0 0.0109256914 0.1843157513 0.0713173983 -0.553500621 0.0714381138 -0.5537925235 -0.0269639328 0.1853245569
685295890.0 0.0130500294 0.1846806269 0.0653313029 -0.5549246592 0.0654247457 -0.5547661299 -0.0253707853 0.1860871044
690295860.0 0.0150117064 0.184580024 0.0597921168 -0.5550738427 0.059183604 -0.555159523 -0.0234462977 0.1861673835
695295830.0 0.0172459505 0.1844634393 0.0539536715 -0.5560482467 0.0533682604 -0.5553897381 -0.0218346533 0.1865730231
700295800.0 0.0194978128 0.1845671161 0.0474827949 -0.5564388667 0.0476577847 -0.5559702206 -0.0197549142 0.186842198
705295770.0 0.0209739133 0.1847813546 0.0416248555 -0.5570874691 0.0411946745 -0.5567464812 -0.0181670944 0.1875830999
710295740.0 0.0230452061 0.1846555763 0.0357202057 -0.5572749685 0.0354684102 -0.5577376498 -0.0161738507 0.1878934759
715295710.0 0.0255402123 0.1849241799 0.0297203104 -0.5574749556 0.0294822445 -0.5574319211 -0.0142828511 0.1877447194
720295680.0 0.027697821 0.1846277286 0.0231160622 -0.557329966 0.023390769 -0.5580743351 -0.0125191373 0.1880542274
725295650.0 0.0291176461 0.1849232984 0.0179249653 -0.5579163254 0.0174511254 -0.558249123 -0.0109260054 0.1888811581
730295620.0 0.0306345831 0.184809365 0.011634506 -0.5579762853 0.0117957933 -0.5578413004 -0.0092008509 0.1892007935
735295590.0 0.033085987 0.1848470699 0.0054716699 -0.5582862773 0.0053323773 -0.5581433252 -0.0070273594 0.1889182717
740295560.0 0.034888945 0.1840605822 -0.0002487133 -0.5583395414 -0.0002155172 -0.5585795908 -0.0056985101 0.1898342835
745295530.0 0.0369755103 0.1845522703 -0.0063601562 -0.5573869722 -0.0056874022 -0.55796036 -0.0041922779 0.1893392014
750295500.0 0.0385179346 0.1844601281 -0.0116896605 -0.5578983122 -0.0128609037 -0.5579672462 -0.0019454264 0.1897205579
755295470.0 0.0402871904 0.1840554119 -0.0177313884 -0.5583043618 -0.0180353448 -0.558134834 -0.0001128336 0.1906987607
760295440.0 0.042498342 0.184311256 -0.0248398395 -0.5574370228 -0.0243016737 -0.5571404526 0.0021135426 0.1897114737
765295410.0 0.044936581 0.1834321132 -0.0304116992 -0.5572963039 -0.0300019334 -0.5571495153 0.0038901762 0.1903404411
770295380.0 0.0465284549 0.1835327828 -0.0358684195 -0.556562663 -0.0361802347 -0.55692778 0.0051796166 0.1905891078
775295350.0 0.0484557224 0.1831856107 -0.0420210579 -0.5565937522 -0.0418684852 -0.5557526801 0.0074170398 0.190442436
780295320.0 0.0505461264 0.1827654876 -0.0480524147 -0.5554131888 -0.0481861936 -0.5555872973 0.0093994931 0.190864143
785295290.0 0.0521508205 0.1824390575 -0.053833523 -0.5552382485 -0.0540251207 -0.5553970197 0.0108126476 0.1909785527
790295260.0 0.0540618534 0.1817871159 -0.0599245158 -0.5543459873 -0.0597585819 -0.5551910295 0.0128091704 0.1913399847
795295230.0 0.0562203362 0.1815002618 -0.0658412401 -0.5541237409 -0.0661709227 -0.5543209819 0.0145545532 0.190708317
800295200.0 0.0577535177 0.1813442043 -0.0712701476 -0.5529646779 -0.0718534582 -0.5534431378 0.0163563627 0.191013226
805295170.0 0.0595826599 0.1810464125 -0.0777279085 -0.5523837957 -0.0778852811 -0.5526887086 0.0190085129 0.1910640864
810295140.0 0.0618654851 0.1806116517 -0.0836387151 -0.5511869546 -0.0837515197 -0.5515202768 0.0203391943 0.1909333086
815295110.0 0.0636074526 0.1802416662 -0.0895657813 -0.5506150151 -0.0892774834 -0.5507761835 0.0218014507 0.1908630975
820295080.0 0.0657411842 0.1795693506 -0.0950674935 -0.5492328378 -0.0953889736 -0.5496863209 0.0230616048 0.1915803239
825295050.0 0.0671625274 0.178951972 -0.1012622369 -0.5484997445 -0.101290509 -0.5484145399 0.0260812592 0.1912496094
830295020.0 0.069064088 0.1783366629 -0.107049462 -0.5475839501 -0.106993665 -0.547640352 0.027661888 0.1905328622
