!Created with skrf (http://scikit-rf.org).
# Hz S RI R 50.0 
!freq ReS11 ImS11 ReS21 ImS21 ReS12 ImS12 ReS22 ImS22
300000.0 -0.2346410687 -0.1166148814 0.4658381691 0.0760088975 0.4642095576 0.0789870163 -0.2344610842 -0.1213747397
5299970.0 -0.2447143388 0.0055676162 0.4733015362 0.0058030676 0.4740918188 0.0059082411 -0.2436773486 0.0048947816
10299940.0 -0.2417339569 0.0184118466 0.4761811192 0.0070189366 0.4757432367 0.0070894772 -0.2402744441 0.0180169986
15299910.0 -0.2369171361 0.0282881385 0.4793891105 0.0083901923 0.479712437 0.0083560664 -0.2361682617 0.0275145211
20299880.0 -0.2317520285 0.036137488 0.4842073789 0.0086301999 0.4842894838 0.0085835041 -0.2312677179 0.0352631127
25299850.0 -0.225537018 0.0429991618 0.4894837616 0.0078376601 0.4897031891 0.007549139 -0.2260367467 0.0418084547
30299820.0 -0.2204415918 0.0476139564 0.4951242232 0.005753563 0.4952310226 0.0053066327 -0.2210727731 0.0470225127
35299790.0 -0.2142584323 0.0517492566 0.4997404623 0.0023304792 0.5002652531 0.0024025601 -0.2158324637 0.0514661864
40299760.0 -0.2091588856 0.0546729437 0.5056980481 -0.0017742345 0.5057015472 -0.0016933484 -0.2106337086 0.0547115425
45299730.0 -0.2040750307 0.057455681 0.5105437664 -0.0063935911 0.5105555895 -0.0066054632 -0.205895116 0.0576333658
50299700.0 -0.1989576305 0.0590617195 0.5144096615 -0.012139287 0.5149219645 -0.0119866617 -0.2012225495 0.0601758251
55299670.0 -0.1948318334 0.0604631615 0.5183487858 -0.0177295582 0.5181839657 -0.0179644366 -0.197593369 0.0618644106
60299640.0 -0.190679138 0.0618596832 0.5215895031 -0.0242719058 0.5218215462 -0.0242359796 -0.1935654851 0.063173046
65299610.0 -0.1873304721 0.0627537975 0.5251083404 -0.0303513483 0.5249313174 -0.0303582026 -0.1900501468 0.0643742537
70299580.0 -0.1840257405 0.0629635524 0.5271432976 -0.0366390767 0.5273310969 -0.0370130018 -0.1872539029 0.0658756682
75299550.0 -0.1811083709 0.0639305475 0.5289983079 -0.0440207302 0.5289706675 -0.0439371976 -0.1843070819 0.0669370286
80299520.0 -0.1784220636 0.0645514313 0.5309600206 -0.0506769424 0.5315949915 -0.0508706921 -0.1818690404 0.0681147353
85299490.0 -0.1756674146 0.0648905603 0.5322202456 -0.0575765892 0.5324611828 -0.057656729 -0.1792255585 0.0686355765
90299460.0 -0.1734709467 0.0652737565 0.5333449657 -0.0647562361 0.533262712 -0.0642760607 -0.1767910047 0.0698871218
95299430.0 -0.1714026665 0.0659164262 0.5345069849 -0.0716874583 0.5345286501 -0.0716748633 -0.1749819463 0.070773018
100299400.0 -0.1693841556 0.066030178 0.5345653115 -0.0783414579 0.5347001716 -0.0785513446 -0.1733461049 0.071697471
105299370.0 -0.1674898669 0.0664730228 0.5347393146 -0.0851638793 0.5350340947 -0.0852627818 -0.1709741698 0.0721212302
110299340.0 -0.1658666509 0.0669093364 0.5351837162 -0.0918495746 0.5356136901 -0.0921709694 -0.1700348259 0.0730537933
115299310.0 -0.1645113863 0.067769022 0.5353735367 -0.098644828 0.5352484428 -0.0990784686 -0.1681851975 0.07429463
120299280.0 -0.1632889079 0.0682326077 0.5354573884 -0.1064327419 0.5350152838 -0.1058708761 -0.166941234 0.0745892248
125299250.0 -0.1618414749 0.0685554444 0.5343267289 -0.1124242931 0.5346451124 -0.1125413657 -0.1653558618 0.0761293871
130299220.0 -0.1606409395 0.0691362626 0.5342366556 -0.1197179456 0.5335963745 -0.1197139936 -0.1640427985 0.0771360637
135299190.0 -0.1597654752 0.0700539617 0.5335748162 -0.125844165 0.5335287589 -0.1260975095 -0.1627391445 0.0776794312
140299160.0 -0.1586428022 0.0709393078 0.5331761458 -0.1330551571 0.5326792661 -0.1323854753 -0.1623064174 0.0785871461
145299130.0 -0.1580936472 0.0717643598 0.5317232488 -0.1386960293 0.5316900322 -0.1388753663 -0.1610974633 0.080052519
150299100.0 -0.156761641 0.0723995199 0.530838602 -0.1456358392 0.5306501959 -0.1457220927 -0.1599749336 0.0811697723
155299070.0 -0.1557364185 0.0735985226 0.5290304471 -0.152228649 0.5297576567 -0.1523000651 -0.1586841146 0.0822456824
160299040.0 -0.1550710838 0.0745965348 0.5279629912 -0.1587049015 0.5279811765 -0.159037087 -0.157819546 0.0836497402
165299010.0 -0.1538257882 0.0755056891 0.5268240572 -0.1648807849 0.5265057735 -0.1652501287 -0.1567046596 0.0843621839
170298980.0 -0.1531060064 0.0762478297 0.5247493788 -0.1713800808 0.5250539602 -0.1715053093 -0.1559907486 0.0857828038
175298950.0 -0.1522700058 0.0772650398 0.5236308381 -0.1778157912 0.5235986913 -0.1779887556 -0.154955518 0.0873965313
180298920.0 -0.1517883016 0.0784316585 0.5215091256 -0.1842774635 0.5216482383 -0.1841369179 -0.1538970766 0.0882456859
185298890.0 -0.1511173275 0.0793530147 0.5204722028 -0.1902281202 0.5196803772 -0.1904374867 -0.152875834 0.0896269163
190298860.0 -0.1497954225 0.0808031779 0.5175106814 -0.1964608026 0.518085459 -0.1963101005 -0.15220164 0.0908737953
195298830.0 -0.1491607111 0.0819922095 0.5160132686 -0.2026334735 0.5161974729 -0.2022797009 -0.1515601992 0.0920176024
200298800.0 -0.1479985671 0.0825791764 0.513962685 -0.2091797176 0.513948082 -0.2090508511 -0.1502346321 0.0934671431
205298770.0 -0.1478406375 0.0840549879 0.5112850977 -0.2149947152 0.5121745107 -0.2145979066 -0.1491063548 0.0950578753
210298740.0 -0.1467887143 0.0853966616 0.5093532764 -0.2206882362 0.5092905668 -0.2208294203 -0.1485855507 0.0961172906
215298710.0 -0.1461538247 0.0867207809 0.5069518298 -0.2264462593 0.5071510273 -0.2268067534 -0.1477370156 0.0977180304
220298680.0 -0.1449902515 0.0879194853 0.5042396837 -0.2325996117 0.504548343 -0.2329860029 -0.1464098111 0.0986751904
225298650.0 -0.1445258812 0.0891374194 0.5015019821 -0.2386929534 0.5018309636 -0.2379304065 -0.1454397655 0.1000068011
230298620.0 -0.1438093562 0.0905021782 0.4994765464 -0.2443188831 0.4998560237 -0.2446219062 -0.1447582615 0.1016522085
235298590.0 -0.1431229521 0.0919672626 0.4971302512 -0.2504671947 0.4971604299 -0.2502184716 -0.1434773332 0.103201208
240298560.0 -0.1422804379 0.0931534372 0.4942726836 -0.255654764 0.494527706 -0.255750743 -0.1427248295 0.1045102547
245298530.0 -0.1413704181 0.0942410159 0.4913244444 -0.2616946069 0.4917798617 -0.2618273282 -0.141658207 0.1061902121
250298500.0 -0.1409202736 0.0957901252 0.4890307478 -0.2671766203 0.4890770597 -0.2669206765 -0.1408266805 0.1077158456
255298470.0 -0.139805831 0.0970996955 0.4858750241 -0.2722626929 0.4864799637 -0.2730632795 -0.1394341036 0.1091801205
260298440.0 -0.1391482513 0.0982726822 0.4831473708 -0.2776167315 0.4831350671 -0.2779001272 -0.138548904 0.1102460419
265298410.0 -0.1384788372 0.0997133221 0.4799325327 -0.2839846625 0.4798949577 -0.2839312875 -0.1366814203 0.1117539943
270298380.0 -0.1378885884 0.1007996801 0.4766654823 -0.2892704955 0.4767187581 -0.2892275738 -0.1357541962 0.1137361722
275298350.0 -0.1365312854 0.1028031745 0.4730737642 -0.2947868564 0.4738384355 -0.2944418441 -0.1350504354 0.1148371214
280298320.0 -0.1360033811 0.1037891944 0.4707240695 -0.2997484273 0.4708480446 -0.2999614751 -0.1335139055 0.1163211815
285298290.0 -0.1352687331 0.1052716042 0.4672209308 -0.305201501 0.4677992082 -0.3048660188 -0.132453288 0.1177803457
290298260.0 -0.1343632433 0.1062590527 0.4645786429 -0.3107681302 0.4640357541 -0.3107393311 -0.1311119011 0.1193646092
295298230.0 -0.1335240427 0.1074844206 0.4607914101 -0.3160215841 0.4609568169 -0.3160938298 -0.1300124477 0.1205307565
300298200.0 -0.1325473621 0.1090015054 0.4575584186 -0.3211707112 0.4573076662 -0.3211901524 -0.1284805921 0.1220524843
305298170.0 -0.1316026756 0.1099074376 0.4543436782 -0.326391957 0.4542282279 -0.3265909104 -0.1272181285 0.1231258276
310298140.0 -0.1303437239 0.1113243903 0.4503799551 -0.331230435 0.4502842836 -0.3314012129 -0.1258333906 0.1243253606
315298110.0 -0.1294495811 0.1124595957 0.4467676114 -0.3372091132 0.4465697027 -0.3369978096 -0.1249286739 0.1259955101
320298080.0 -0.1287802603 0.1138076524 0.4426952658 -0.3420468409 0.4432856562 -0.3419094178 -0.1236183369 0.1271424042
325298050.0 -0.1283697465 0.114485973 0.4391060506 -0.3470096212 0.4392085527 -0.3467841633 -0.1221585221 0.1280393447
330298020.0 -0.1276559033 0.1161127578 0.4351329529 -0.3522830475 0.4355928765 -0.3518644332 -0.1214429502 0.1296291738
335297990.0 -0.1266600016 0.1173880825 0.4314043645 -0.3568398469 0.4312629808 -0.3567951554 -0.1200483793 0.1309410473
340297960.0 -0.1257653646 0.1186271921 0.4267343939 -0.3618581562 0.426828663 -0.3619269145 -0.1186606051 0.1329388307
345297930.0 -0.1249784264 0.1199591887 0.4227305218 -0.366615001 0.4227243505 -0.3667107216 -0.1172560174 0.1336007162
350297900.0 -0.1239682411 0.1209951644 0.4188305915 -0.3707674391 0.4193782792 -0.3706310862 -0.1162958163 0.134803066
355297870.0 -0.1231856086 0.1226143758 0.4147156033 -0.3751726562 0.4149229507 -0.3751349988 -0.1143477276 0.1366823017
360297840.0 -0.1222518532 0.1239055157 0.4106916376 -0.3798802839 0.4107321555 -0.380272634 -0.1133810588 0.138071039
365297810.0 -0.1210450508 0.1252914051 0.4061821612 -0.3843582664 0.4063195025 -0.3845700281 -0.1121504649 0.1394055228
370297780.0 -0.1199068187 0.1265628647 0.4021872551 -0.3886384232 0.4024416202 -0.3889918059 -0.110282252 0.1405167414
375297750.0 -0.1190091438 0.1276703499 0.3978322086 -0.3930865181 0.3979620588 -0.3934169665 -0.1091448806 0.1421891092
380297720.0 -0.1183008888 0.1293572969 0.3939314975 -0.3981058718 0.3935377542 -0.3977503382 -0.1078102702 0.1436306537
385297690.0 -0.1170649955 0.1302078226 0.389438905 -0.40184075 0.3892646964 -0.4026593664 -0.1058276758 0.1453158253
390297660.0 -0.1156300574 0.1312738137 0.3845755704 -0.4058893185 0.385054114 -0.4063716473 -0.1042082684 0.1459392594
395297630.0 -0.1144140029 0.1325645967 0.3805624688 -0.410398887 0.3799653209 -0.410060749 -0.1029417982 0.1470331237
400297600.0 -0.1135355949 0.1336265072 0.3757360535 -0.4142422514 0.375952008 -0.4146487196 -0.1010957367 0.1487381902
405297570.0 -0.1123658923 0.1346119165 0.3714879988 -0.4182735175 0.3714897522 -0.4188814364 -0.0995620583 0.1501407136
410297540.0 -0.1109318662 0.1363516066 0.3665575478 -0.4225954853 0.366782471 -0.4227118799 -0.097952901 0.1513073542
415297510.0 -0.1100364727 0.1373621852 0.3622520918 -0.4267432619 0.3625434084 -0.4268843073 -0.0962217785 0.152484403
420297480.0 -0.1086640906 0.1382453025 0.3573851907 -0.4304978962 0.3576948493 -0.430783727 -0.094479688 0.1540097835
425297450.0 -0.1070670061 0.1395302977 0.3527237653 -0.4342792746 0.352537755 -0.4343746461 -0.0929633745 0.154714972
430297420.0 -0.1062066568 0.1408983301 0.3485725852 -0.4383590147 0.3479504882 -0.4381521095 -0.0907122357 0.1563452298
435297390.0 -0.1046195989 0.1418225372 0.3430174064 -0.4426647528 0.3435184894 -0.4418500073 -0.0899885173 0.157291111
440297360.0 -0.1032383453 0.1425605499 0.337910753 -0.4457907689 0.3378461444 -0.4460423056 -0.0879028863 0.1585212842
445297330.0 -0.102131348 0.143482235 0.3334671083 -0.4493921879 0.3330832648 -0.4499120922 -0.08578295 0.1599842048
450297300.0 -0.1007446865 0.1446170407 0.3282092308 -0.4531507021 0.3287894507 -0.4532316243 -0.0842701094 0.1611587925
455297270.0 -0.099521898 0.1459563294 0.3234062365 -0.4569294508 0.3234779973 -0.4567647498 -0.0825627756 0.1618647922
460297240.0 -0.0980025794 0.1470254554 0.3183794853 -0.4608498938 0.3183184705 -0.4606046833 -0.0806846251 0.162834351
465297210.0 -0.0965533382 0.1478086249 0.3128434672 -0.4634819109 0.313180834 -0.464109945 -0.0786532625 0.1644104255
470297180.0 -0.0949199099 0.1487643802 0.3079415801 -0.4672219293 0.308507823 -0.4667519912 -0.0767370238 0.1648742678
475297150.0 -0.0937803994 0.15003347 0.3030703133 -0.4705437619 0.3033066621 -0.4706914953 -0.0748106984 0.1661430786
480297120.0 -0.0917503382 0.1514112835 0.2978675885 -0.4737587872 0.2982035689 -0.4735814925 -0.073385276 0.1669916282
485297090.0 -0.0906799295 0.1518368825 0.2927525543 -0.4770761145 0.2925777779 -0.4764529188 -0.0712740195 0.167972666
490297060.0 -0.0886265796 0.1528210336 0.2870261163 -0.4800788961 0.2873127854 -0.4800476034 -0.0694388105 0.1688264977
495297030.0 -0.0876772396 0.1536557035 0.2825028286 -0.4832320779 0.2823358917 -0.4832553086 -0.0672880591 0.1694775572
500297000.0 -0.0861163398 0.1550878067 0.2770870057 -0.4861785607 0.2771761281 -0.4864521617 -0.0658147303 0.1706375604
505296970.0 -0.0839413922 0.1559845532 0.2717272267 -0.4893631211 0.2718805169 -0.4890395754 -0.0640624812 0.1710486902
510296940.0 -0.082912102 0.1566271545 0.2662548813 -0.4925312249 0.2664686717 -0.4927464459 -0.0613384676 0.1725295846
515296910.0 -0.08127796 0.1577688574 0.2606228945 -0.494895888 0.2602520253 -0.4950864883 -0.0596621763 0.1727698958
520296880.0 -0.0795236561 0.1587930999 0.2557425227 -0.4978458362 0.2552417859 -0.4976656213 -0.0574248342 0.1740360595
525296850.0 -0.0778394611 0.159665843 0.2496965704 -0.5005331971 0.2498099943 -0.5002197865 -0.0554556767 0.1746558694
530296820.0 -0.0766089903 0.1601959993 0.2442604478 -0.5029837223 0.244428733 -0.5030342397 -0.0537273929 0.1752192673
535296790.0 -0.0744308122 0.16152346 0.2390145292 -0.5060463924 0.2390799762 -0.5058583882 -0.0513907646 0.1762186042
540296760.0 -0.073161605 0.162421206 0.2332794349 -0.5086025144 0.233252073 -0.50806469 -0.0497155032 0.1765090026
545296730.0 -0.0720052505 0.1634002482 0.2280448191 -0.510864244 0.2274388895 -0.5106758727 -0.0473043188 0.1773866892
550296700.0 -0.0696586405 0.1639316175 0.2221882117 -0.5132625446 0.2218878822 -0.5132661631 -0.0455447962 0.1776650463
555296670.0 -0.0679367172 0.164810195 0.2162163374 -0.5160132203 0.2164553312 -0.5153315972 -0.0435609169 0.1779700018
560296640.0 -0.0660550829 0.1655621064 0.2107584659 -0.5178323593 0.2111579949 -0.5179957407 -0.0417902067 0.1795339833
565296610.0 -0.0649303689 0.1665898007 0.2056507139 -0.5198456558 0.2053982865 -0.5196818504 -0.039438538 0.179795425
570296580.0 -0.0630888027 0.1675001418 0.1995323113 -0.5223753986 0.1997418472 -0.522018564 -0.0376506168 0.1802625869
575296550.0 -0.0611065619 0.1679410019 0.1941657327 -0.5244765888 0.1942264272 -0.5244127897 -0.0357169617 0.1811167744
580296520.0 -0.0593946708 0.1689002462 0.188541646 -0.5267816991 0.1881939523 -0.526563351 -0.0335874988 0.1813532465
585296490.0 -0.0579372697 0.1698935055 0.1829938937 -0.5283611351 0.1821352507 -0.5283633625 -0.031115815 0.1822296733
590296460.0 -0.0555438466 0.1704944151 0.1770437022 -0.530607109 0.176829488 -0.5305460551 -0.0298019874 0.1824808394
595296430.0 -0.05397605 0.1712101451 0.1703767606 -0.5323287408 0.1703643495 -0.5323525566 -0.0271156098 0.1825087781
600296400.0 -0.0520387397 0.1718221035 0.164665601 -0.5334231576 0.1648225644 -0.5337914086 -0.0252473521 0.1831078019
605296370.0 -0.0508601657 0.1725459016 0.1600362909 -0.5354274569 0.1591309219 -0.5358314834 -0.023082836 0.1838724907
610296340.0 -0.0486365654 0.1736852715 0.1536472686 -0.5369440898 0.153849121 -0.536766277 -0.0214688036 0.1841135117
615296310.0 -0.0466644309 0.1741951745 0.1476422742 -0.5390621171 0.1469284256 -0.5391111958 -0.0189139193 0.1846704744
620296280.0 -0.0452996345 0.1753092486 0.1415998509 -0.5405373737 0.1416097468 -0.540569626 -0.017104546 0.185225244
625296250.0 -0.0436947473 0.1756462695 0.1359304276 -0.5423622537 0.1360139489 -0.5422216188 -0.0152200057 0.1852445664
630296220.0 -0.041913686 0.1763648927 0.129581402 -0.5434786005 0.1299479258 -0.5433506976 -0.0130278164 0.1855205565
635296190.0 -0.0403081749 0.1775650423 0.124358503 -0.5447462086 0.1241358237 -0.5442600713 -0.0110201878 0.1856473925
640296160.0 -0.0383112832 0.1775633366 0.1183404016 -0.5462868931 0.1183019197 -0.5459696079 -0.009126883 0.1858491239
645296130.0 -0.0362611509 0.1788121967 0.1121547653 -0.5473249807 0.1121826737 -0.5469584757 -0.0071847905 0.1859809834
650296100.0 -0.0346692737 0.1791005956 0.1064136416 -0.5485037263 0.1060934617 -0.5486909959 -0.0044034799 0.1864275734
655296070.0 -0.0329245701 0.1795988186 0.1002447003 -0.5494570052 0.100285084 -0.549203578 -0.0029135972 0.1866076064
660296040.0 -0.0311879598 0.1803460326 0.0944129211 -0.5506053243 0.0944021263 -0.5508100576 -0.0007463658 0.1863104198
665296010.0 -0.0295123925 0.1807387087 0.087899619 -0.5511181989 0.0885398229 -0.5513269497 0.0013823955 0.1867677318
670295980.0 -0.0276634097 0.1814388325 0.0824207336 -0.5520284793 0.0825790413 -0.5518214428 0.0031400347 0.1865150165
675295950.0 -0.0259000039 0.1818309919 0.076202573 -0.55296611 0.0766783102 -0.5531368279 0.0054045311 0.1871748981
680295920.0 -0.024474437 0.1823465244 0.0705685784 -0.5537622327 0.070418973 -0.553244212 0.0078694733 0.1867818413
685295890.0 -0.0221911793 0.1831816973 0.0644970568 -0.5546113008 0.0644989274 -0.5548701058 0.0096162316 0.1874627869
690295860.0 -0.0207087962 0.1836101733 0.0588460061 -0.5550899716 0.0582206497 -0.5551442876 0.0114677015 0.1870929407
695295830.0 -0.0187478563 0.1839419522 0.0530431277 -0.5557987216 0.0528233503 -0.5559701605 0.0136402294 0.1874715489
700295800.0 -0.0169181255 0.1844851052 0.0469726052 -0.5560837788 0.0467029234 -0.5561926874 0.0161357094 0.1871073054
705295770.0 -0.0153602849 0.1850893047 0.040658118 -0.5570698316 0.0404909376 -0.5563462195 0.0180224237 0.1876895975
710295740.0 -0.0137781587 0.1850285395 0.0351604947 -0.5568178631 0.034564165 -0.5573209345 0.0199867976 0.1873851659
715295710.0 -0.0118671923 0.1858539411 0.0288191405 -0.557832677 0.0287870455 -0.5574606287 0.0219888272 0.1870134286
720295680.0 -0.0096837379 0.1862541853 0.0225241057 -0.5577240022 0.022293197 -0.5578310889 0.02412446 0.1871492336
725295650.0 -0.0086594917 0.186811656 0.0171130249 -0.557790819 0.0165700639 -0.557829016 0.0260180585 0.1874432264
730295620.0 -0.0071259052 0.1868691875 0.010822811 -0.5575706959 0.0110234511 -0.557696594 0.0278691898 0.1875466271
735295590.0 -0.0047839137 0.1873386083 0.0044711995 -0.558268165 0.0049808179 -0.5576876138 0.0300709533 0.186468516
740295560.0 -0.0035834767 0.187338517 -0.0013828034 -0.5581004795 -0.0010789467 -0.5581735331 0.0319868486 0.1869208757
745295530.0 -0.001629675 0.1876569375 -0.0069647352 -0.5570726474 -0.0070285467 -0.55752396 0.033996436 0.1863770287
750295500.0 -2.98441e-05 0.188323727 -0.013049209 -0.5577847423 -0.0134543375 -0.5577991849 0.0359990748 0.1863524681
755295470.0 0.0018518351 0.1883108271 -0.0188790071 -0.5577794971 -0.0192238361 -0.5579957654 0.0384047026 0.186452782
760295440.0 0.0035134521 0.1890593391 -0.0254922099 -0.5575835604 -0.0255529711 -0.5572058044 0.0403475014 0.1852680853
765295410.0 0.0055504451 0.1889377773 -0.0308463333 -0.5571016836 -0.0309345909 -0.5572127799 0.0422506266 0.1853537382
770295380.0 0.0070821876 0.1891509072 -0.0369462486 -0.5562326645 -0.0370347642 -0.5572426555 0.044016485 0.1851781994
775295350.0 0.0088247629 0.1888642824 -0.0429653459 -0.5561504777 -0.0430028078 -0.5559300827 0.0463272723 0.1850400032
780295320.0 0.0103323398 0.1892859711 -0.0487008519 -0.5550825962 -0.0489197755 -0.5554717696 0.0485978014 0.1844710356
785295290.0 0.0119922685 0.189298182 -0.0550712232 -0.5546205396 -0.0547161132 -0.554967599 0.0501578648 0.1848000342
790295260.0 0.014007393 0.1891545733 -0.0605213634 -0.5545510721 -0.060832926 -0.5548736348 0.0522065447 0.1842541759
795295230.0 0.015778555 0.1893332513 -0.0668944638 -0.5537488027 -0.0670056821 -0.5542013963 0.0545612657 0.1831371592
800295200.0 0.017046936 0.1899059336 -0.0722448418 -0.5525889112 -0.0726122231 -0.5531265603 0.0560996341 0.1828740457
805295170.0 0.0187215586 0.1898299922 -0.0787013886 -0.5518637476 -0.0788229658 -0.5524552972 0.0588438765 0.1825179694
810295140.0 0.0206703269 0.1897366427 -0.0845322283 -0.5513830709 -0.084459148 -0.5511590424 0.0608221139 0.1817941354
815295110.0 0.0223289801 0.1896853655 -0.0902212312 -0.550149759 -0.0903654345 -0.5505256287 0.0622719344 0.1814398615
820295080.0 0.0242200262 0.1897443876 -0.095858161 -0.5488422641 -0.0958429853 -0.5496045506 0.0636105539 0.1812790167
825295050.0 0.0257589526 0.189567553 -0.1020208459 -0.5483324408 -0.1020592185 -0.5482968888 0.0665773398 0.180996577
830295020.0 0.0277302465 0.1896385092 -0.1079541194 -0.5469321684 -0.1082426103 -0.5470155688 0.0681803713 0.1798009126
