!Created with skrf (http://scikit-rf.org).
# Hz S RI R 50.0 
!freq ReS11 ImS11 ReS21 ImS21 ReS12 ImS12 ReS22 ImS22
300000.0 -0.0983656119 -0.0870722593 0.6240059182 0.080916518 0.6266344225 0.0856166861 -0.0972887383 -0.09506407
5299970.0 -0.1002578778 0.0127995412 0.6306714639 0.0106541392 0.630458477 0.0114679495 -0.1021225568 0.0118824612
10299940.0 -0.0953235361 0.0298070809 0.6341767487 0.0159933962 0.6344213649 0.015947608 -0.0970643731 0.0287611375
15299910.0 -0.0884495383 0.0432109927 0.6405517405 0.0204765597 0.6404172634 0.021085895 -0.0898419067 0.042324083
20299880.0 -0.0795421319 0.0542502703 0.6489741746 0.0241286642 0.6488452328 0.0243984697 -0.0815857861 0.0532230557
25299850.0 -0.0697664126 0.0626825993 0.6577672131 0.0247339469 0.6581247135 0.0250074745 -0.0723800016 0.0617864015
30299820.0 -0.059418124 0.0690955027 0.6678956146 0.0245414565 0.667294217 0.0244504656 -0.0624562134 0.0687674443
35299790.0 -0.0493964805 0.0743227506 0.6776073969 0.0215944912 0.6774624103 0.0220074914 -0.0524327074 0.0735103111
40299760.0 -0.0398312415 0.0770451163 0.686596957 0.0181260775 0.6868288929 0.0176440001 -0.043367526 0.077279445
45299730.0 -0.0302970769 0.0794652586 0.6955885539 0.0119115335 0.6959802362 0.0117854958 -0.0339330367 0.0794191519
50299700.0 -0.0217105524 0.079656023 0.7033023975 0.0047874923 0.7035993054 0.0045842024 -0.0253725553 0.0800742765
55299670.0 -0.0142176471 0.0800667471 0.7104192772 -0.0031940558 0.7112321714 -0.0025808999 -0.0176710139 0.0800703514
60299640.0 -0.0065849303 0.0789633083 0.7173555445 -0.011318336 0.7173697087 -0.0116282473 -0.0102815076 0.0797344511
65299610.0 -0.0001374118 0.0781567658 0.7236642701 -0.0198095635 0.7238102354 -0.0198345166 -0.0035058333 0.0787225473
70299580.0 0.0059732779 0.0757870088 0.7288434383 -0.0289954459 0.7285780156 -0.0292178777 0.0022914701 0.0771580684
75299550.0 0.0117506983 0.0744502974 0.7331602833 -0.0390932591 0.7332731822 -0.0394386159 0.0082561125 0.0757679129
80299520.0 0.0162715708 0.0722193787 0.7373502394 -0.0489093434 0.7377346259 -0.0488105123 0.01310357 0.0731695971
85299490.0 0.020996404 0.0697093113 0.7411174652 -0.0587298846 0.7404652867 -0.0591397698 0.017646596 0.0709424588
90299460.0 0.0245337463 0.0674129708 0.7432511683 -0.0686878172 0.7436380347 -0.0686929022 0.0221748032 0.0688541333
95299430.0 0.0281408882 0.0654587131 0.7457898162 -0.0793363025 0.7461894087 -0.0788547557 0.0251282305 0.0662358564
100299400.0 0.0312992359 0.0627492457 0.7475456567 -0.0888667847 0.7475306554 -0.0893838534 0.0282396444 0.0638757421
105299370.0 0.0346955985 0.0600842498 0.7488484386 -0.0991687855 0.7490991401 -0.0992603352 0.0318051165 0.0618360923
110299340.0 0.037048227 0.0576437564 0.7497284431 -0.1091825517 0.7501634306 -0.1096559632 0.0345948316 0.0591392062
115299310.0 0.0398240051 0.0546961422 0.7508492319 -0.1190569005 0.7513398049 -0.1189117485 0.0374441429 0.0564045711
120299280.0 0.0413274295 0.0525543211 0.7514903331 -0.1301226886 0.7515489029 -0.1299535397 0.0390597485 0.0541966939
125299250.0 0.0431703994 0.0503836057 0.7518046292 -0.1393102597 0.7519077206 -0.1395305257 0.0411008556 0.0512061965
130299220.0 0.0450908542 0.0480377159 0.7517212149 -0.1486202576 0.7518902596 -0.1494139799 0.0431321318 0.049435947
135299190.0 0.046599196 0.0456488679 0.7511448735 -0.1586401779 0.7506949621 -0.1590795636 0.0445247551 0.0475005796
140299160.0 0.0478713762 0.0442913595 0.7503864461 -0.1686142099 0.7511358126 -0.1685384557 0.0461442413 0.0453950724
145299130.0 0.0491887034 0.0417879709 0.7507033036 -0.1787142541 0.7500365468 -0.1781921472 0.0470285726 0.0427278227
150299100.0 0.0506323892 0.0397996794 0.7492272189 -0.1881367393 0.7492789308 -0.1879662548 0.0485489523 0.0407117966
155299070.0 0.0515322663 0.0381747065 0.7477085071 -0.1984412639 0.7477869455 -0.1982230393 0.0495041835 0.0386648449
160299040.0 0.0523513752 0.0359564729 0.7460377019 -0.2070014547 0.7463249054 -0.2071914825 0.0506213203 0.0371568175
165299010.0 0.0529736317 0.0341794603 0.7451421114 -0.2171957336 0.7445627153 -0.2168013179 0.0513525258 0.0348731486
170298980.0 0.0534586397 0.0326126567 0.7421717952 -0.2257617667 0.7429443801 -0.2262609189 0.0527815954 0.0329668511
175298950.0 0.0543737643 0.030726026 0.7416860141 -0.235555609 0.7416088933 -0.2353311412 0.0532260915 0.031255282
180298920.0 0.0551713308 0.0291539323 0.7391020232 -0.2447903887 0.7389162783 -0.244357823 0.0539015598 0.0298486967
185298890.0 0.0561582744 0.0272482168 0.7368478484 -0.2541710115 0.7368284503 -0.253716385 0.0541741918 0.0276882261
190298860.0 0.0562977049 0.02570573 0.7344095676 -0.2628699312 0.734832261 -0.2630423418 0.0554705244 0.0260931938
195298830.0 0.0564548262 0.0238175924 0.7316669293 -0.2713582545 0.7321010591 -0.2722606794 0.0561927149 0.0240516192
200298800.0 0.0571122992 0.0226489726 0.7293948518 -0.2805308955 0.7291919082 -0.2803018992 0.0564221199 0.0231102409
205298770.0 0.0571677982 0.0213698958 0.7262903242 -0.28952601 0.7268500136 -0.2895069815 0.056378833 0.0207156224
210298740.0 0.0572073968 0.0194760499 0.7236668367 -0.2986512368 0.7236372135 -0.2989671639 0.0564279956 0.0201109591
215298710.0 0.0579397407 0.0188647167 0.7208021391 -0.3069859903 0.7209410001 -0.3066226887 0.0569242571 0.0183865609
220298680.0 0.0582409452 0.0170742132 0.7174969888 -0.3161614631 0.7173363767 -0.3156135522 0.0574463018 0.0170856974
225298650.0 0.0584153963 0.016147542 0.7139260345 -0.3240140594 0.7139624252 -0.3242571652 0.0578147448 0.0154238817
230298620.0 0.0580685902 0.0148451369 0.7113487452 -0.3326146845 0.7110716004 -0.3329472639 0.0574857664 0.0143846518
235298590.0 0.058530103 0.0132661825 0.7077719881 -0.3410034963 0.7077302903 -0.3418637261 0.0582302763 0.0124823038
240298560.0 0.0584241758 0.0120794393 0.7038677284 -0.3494166374 0.7039819712 -0.3490626474 0.05784838 0.0118593076
245298530.0 0.0589770926 0.0111572311 0.6991426419 -0.3576906281 0.6997406458 -0.357824631 0.0581634179 0.0107216958
250298500.0 0.0585132369 0.0095510488 0.6960367294 -0.3656663806 0.6965118709 -0.3655136098 0.0586938533 0.0089517703
255298470.0 0.0581888313 0.009038791 0.691968823 -0.3745903629 0.6921812895 -0.3744415293 0.0587507673 0.0077090711
260298440.0 0.0582426775 0.0077209282 0.6880030855 -0.3822722527 0.6885208011 -0.3825439335 0.0594478332 0.0068844152
265298410.0 0.0591574994 0.0071914739 0.6839963793 -0.3911589862 0.6836762155 -0.3907991306 0.0588377294 0.0054177454
270298380.0 0.059338576 0.0057825065 0.6796185209 -0.398441238 0.6797556117 -0.3983658427 0.0589863668 0.0050872994
275298350.0 0.0584881229 0.0046209244 0.6754972209 -0.4068008239 0.6758110373 -0.4062568416 0.0589836634 0.0036093118
280298320.0 0.0587703278 0.0039548592 0.6711723128 -0.4136372018 0.6711618568 -0.4145309198 0.0592189314 0.0027500768
285298290.0 0.0589199363 0.00322849 0.6668486675 -0.4218466554 0.6664265349 -0.4223643311 0.0586893907 0.0018994336
290298260.0 0.0588352507 0.0017273478 0.6622510937 -0.4296632184 0.6621064314 -0.4297990642 0.0595072284 0.0004277398
295298230.0 0.0587818331 0.000628867 0.6575673013 -0.4373708773 0.6575959824 -0.437388973 0.0597326773 -0.0003610506
300298200.0 0.059501404 -9.11743e-05 0.6529239158 -0.445047304 0.6528136937 -0.4450354114 0.0593623033 -0.0014110201
305298170.0 0.0588754001 -0.0014768819 0.6482423182 -0.4533862921 0.6486925792 -0.4527401051 0.0596356324 -0.0023087157
310298140.0 0.0595109057 -0.0024176479 0.6433387351 -0.4606798182 0.6436379743 -0.4607092351 0.0597879952 -0.0031309138
315298110.0 0.0587858186 -0.0034412705 0.6379219598 -0.4681946396 0.6387217516 -0.468228198 0.0601991738 -0.0046218643
320298080.0 0.0585218111 -0.004250118 0.6329131282 -0.4758808819 0.6335462767 -0.47558276 0.0592264807 -0.0058432584
325298050.0 0.0582276945 -0.0057151718 0.6281931268 -0.4831095183 0.6285289578 -0.4834787247 0.0592673877 -0.0068816508
330298020.0 0.05803779 -0.0064992291 0.6217917065 -0.4907287356 0.6217469711 -0.4907710718 0.0585540343 -0.0082419025
335297990.0 0.0576779485 -0.0078552834 0.6160007188 -0.4976465805 0.6167905144 -0.4977468223 0.0582486437 -0.008989549
340297960.0 0.0565517189 -0.0081555438 0.609775313 -0.5050046517 0.6108672562 -0.5044474001 0.0573300696 -0.0093795367
345297930.0 0.0562133651 -0.008464091 0.6051135825 -0.5108107313 0.605066753 -0.5110342521 0.0575350879 -0.0107000468
350297900.0 0.056519826 -0.0093131058 0.599089294 -0.5176298414 0.5989669847 -0.5179182135 0.0569765418 -0.0108939827
355297870.0 0.0560508964 -0.0102473383 0.5929863973 -0.5244623494 0.593422959 -0.5251359735 0.0564295531 -0.0112152958
360297840.0 0.0560380274 -0.0109974907 0.5876734655 -0.5316312451 0.5871213851 -0.5310730713 0.0564330307 -0.0118847413
365297810.0 0.0558322457 -0.0114999645 0.5811019858 -0.53788026 0.5814464852 -0.5377248381 0.0558132489 -0.0123392329
370297780.0 0.0556780343 -0.0122113091 0.575675496 -0.5439235252 0.5757454702 -0.5448514253 0.0560956218 -0.0127578375
375297750.0 0.0550515538 -0.0124523353 0.5703083371 -0.5506056291 0.5698502886 -0.5514787005 0.0555160185 -0.0135912421
380297720.0 0.0551238936 -0.0139705116 0.56373243 -0.5569410398 0.5634128056 -0.5571103981 0.0552721178 -0.0144810883
385297690.0 0.0549096975 -0.0140582018 0.5574355981 -0.5628167634 0.5572857529 -0.5634589174 0.0550131109 -0.0147291486
390297660.0 0.0541255536 -0.0147874766 0.5503383134 -0.5694860914 0.5509954826 -0.5700935339 0.0548787398 -0.0156305595
395297630.0 0.0545169777 -0.0156124395 0.5450437655 -0.5755314991 0.5449219131 -0.5759747973 0.0543802787 -0.0155182878
400297600.0 0.0536105105 -0.0157235459 0.5383518758 -0.5818855073 0.5388203505 -0.5822542638 0.053401444 -0.017058001
405297570.0 0.0539460629 -0.016770232 0.5319492906 -0.5876838837 0.532235153 -0.5879165794 0.0534392026 -0.0167713158
410297540.0 0.0536980732 -0.0174042099 0.524710439 -0.593777651 0.5250931264 -0.5942059202 0.0531297332 -0.0177948053
415297510.0 0.0531642633 -0.0174437044 0.5188138241 -0.5991596623 0.5191730772 -0.5996388063 0.0527988651 -0.0180605305
420297480.0 0.053339728 -0.0187474534 0.5123478442 -0.606045995 0.5125122676 -0.6058549834 0.0528458877 -0.0188134025
425297450.0 0.053313327 -0.0197309799 0.50600493 -0.6107974211 0.5063077686 -0.6110394124 0.0522932384 -0.018868946
430297420.0 0.052427388 -0.0197680346 0.4986936333 -0.6169077573 0.4993726173 -0.6176677761 0.0515152019 -0.0202378275
435297390.0 0.0524978946 -0.0207888368 0.4920677698 -0.6219111598 0.4923817369 -0.622407691 0.0510392408 -0.0199782754
440297360.0 0.0522001669 -0.0216759912 0.484823633 -0.6275213246 0.4849625167 -0.628107548 0.0510385426 -0.0213522657
445297330.0 0.0523800638 -0.0223242536 0.4778645711 -0.6336111201 0.4782498992 -0.6329762588 0.0508167763 -0.0219760807
450297300.0 0.0519545982 -0.0226309536 0.4709265821 -0.6381511139 0.4713202932 -0.6384665555 0.0503630777 -0.02187204
455297270.0 0.0511321751 -0.0232545311 0.4644409268 -0.6435572368 0.4651210128 -0.6435570576 0.0503729583 -0.0222915536
460297240.0 0.0504994862 -0.0239219267 0.4571913588 -0.6484702152 0.4568757005 -0.6487130463 0.0495907748 -0.0225635809
465297210.0 0.0508614954 -0.0245782077 0.450353348 -0.6540010095 0.4504014104 -0.6540085032 0.0489643169 -0.0236455838
470297180.0 0.0499199076 -0.0251789779 0.4429958173 -0.6590131907 0.4433206446 -0.6587439228 0.0481211088 -0.024174871
475297150.0 0.0494876808 -0.0263108289 0.4356284107 -0.6634891124 0.4357348302 -0.6629345527 0.0482172089 -0.0247849394
480297120.0 0.0499378025 -0.0269649008 0.4285099588 -0.6677819078 0.4286760276 -0.6680565462 0.0476392489 -0.0242577215
485297090.0 0.0494601881 -0.0273804546 0.4216109415 -0.6728955499 0.421326982 -0.6728580249 0.0470366801 -0.0255522482
490297060.0 0.0489402587 -0.0281332741 0.4138665271 -0.677679832 0.4139325351 -0.6778196516 0.0469383846 -0.0256088274
495297030.0 0.047998103 -0.0280170455 0.4058481695 -0.6823768812 0.406198531 -0.6822651971 0.0464737698 -0.0264615823
500297000.0 0.0481116783 -0.0291925266 0.3984869359 -0.6866235927 0.3989244072 -0.6867214586 0.0455402867 -0.027090459
505296970.0 0.0471737994 -0.0298011063 0.3909672837 -0.6901360618 0.3908306194 -0.6912495106 0.0446262288 -0.0273036169
510296940.0 0.0470000997 -0.029894989 0.383554017 -0.6957236906 0.3832696567 -0.6954049371 0.0448953745 -0.0272077148
515296910.0 0.0460666405 -0.0304455569 0.375366115 -0.6989437308 0.3759194252 -0.6990507004 0.044039971 -0.0281395075
520296880.0 0.0458316301 -0.0314903665 0.36819487 -0.7037769301 0.3685741526 -0.703580791 0.0442214085 -0.0285923668
525296850.0 0.0452058078 -0.0323937614 0.3605425463 -0.7074161052 0.3606855125 -0.7077510058 0.0436808718 -0.0289486046
530296820.0 0.0450297606 -0.0325364836 0.3527994379 -0.7109822927 0.3524844143 -0.7115290156 0.0427137061 -0.0300690591
535296790.0 0.0440326135 -0.0331158165 0.3448120564 -0.7147200554 0.3455341437 -0.7151683605 0.0424815308 -0.0302706428
540296760.0 0.0439226518 -0.0339725264 0.3372844831 -0.7189443171 0.3365570144 -0.7196024164 0.0413496314 -0.0304723848
545296730.0 0.0434896236 -0.0337049102 0.3288321629 -0.7223960034 0.3291433556 -0.723545422 0.0412451603 -0.0310571158
550296700.0 0.0427324202 -0.0345105709 0.3215179137 -0.7260399556 0.3216903396 -0.726800052 0.0403331114 -0.0305442112
555296670.0 0.042646389 -0.0352275041 0.3135805 -0.7299229157 0.3137703888 -0.7300987119 0.0401557008 -0.0310849224
560296640.0 0.041966084 -0.0355281604 0.3054734279 -0.733015672 0.3053294138 -0.7332908475 0.0394526661 -0.0317112876
565296610.0 0.0407367913 -0.0362871603 0.2969128057 -0.7365113538 0.2970194935 -0.7367322086 0.0389070584 -0.0326511531
570296580.0 0.0410974452 -0.0366209692 0.2893297927 -0.739829171 0.2898372982 -0.740100258 0.0388349217 -0.0316856755
575296550.0 0.0402711059 -0.0362399523 0.2811832978 -0.7421572521 0.2817662158 -0.7428877037 0.0388409973 -0.0327962077
580296520.0 0.0394881183 -0.037243214 0.2733670144 -0.7456203809 0.272586697 -0.7460200924 0.0377186083 -0.0333963906
585296490.0 0.0394268866 -0.0379577869 0.2652261686 -0.7488609583 0.2649651913 -0.7485702794 0.0368453358 -0.0336840386
590296460.0 0.0380388676 -0.0386914035 0.2567425143 -0.7520414003 0.2566364557 -0.7518838094 0.0369178161 -0.0332826526
595296430.0 0.0377634444 -0.0384451407 0.2485722118 -0.7546000204 0.2483867724 -0.7549026472 0.0364878162 -0.0340979084
600296400.0 0.0371380904 -0.0385795791 0.2405419889 -0.7571115067 0.2405490343 -0.7571517672 0.0352898081 -0.0341797947
605296370.0 0.0368477452 -0.0387370808 0.2329774667 -0.7598721363 0.2317263808 -0.7596197699 0.0348179275 -0.0350680823
610296340.0 0.0357776597 -0.0395107949 0.2239318409 -0.7619953303 0.2242374265 -0.7625009729 0.0343479088 -0.034382421
615296310.0 0.0352298801 -0.039615576 0.2149629863 -0.7643610714 0.2155680176 -0.7645575103 0.0339915557 -0.0349585585
620296280.0 0.0345749466 -0.0402150592 0.2072767506 -0.7667193444 0.2070933297 -0.7669954589 0.0334823383 -0.0360095596
625296250.0 0.0343437743 -0.040407729 0.1982927799 -0.7694496004 0.1983563685 -0.7693457708 0.0330161508 -0.0355964529
630296220.0 0.0338585885 -0.0406250051 0.1900331138 -0.7717001571 0.1901273943 -0.7715896896 0.0319207107 -0.0359245505
635296190.0 0.033059716 -0.0409996795 0.1816206016 -0.7728862661 0.1814145496 -0.7726074434 0.0313973469 -0.0365030083
640296160.0 0.0321961766 -0.0412157949 0.1735879996 -0.775215791 0.1731727082 -0.775375985 0.0316472355 -0.0367477439
645296130.0 0.0319699063 -0.0412091219 0.1652757029 -0.7772166251 0.1648927524 -0.777056281 0.0298071936 -0.0374155356
650296100.0 0.0308554329 -0.0410872471 0.15695569 -0.7783184371 0.1566719474 -0.7785259176 0.029856145 -0.0372919163
655296070.0 0.0302599201 -0.0423166095 0.1477070569 -0.779913652 0.1478111451 -0.7803558429 0.0300874379 -0.0371315865
660296040.0 0.029097717 -0.0417291038 0.1394885066 -0.781338144 0.1398511131 -0.7813052904 0.028456112 -0.0379271607
665296010.0 0.0293080979 -0.0425740326 0.1313088808 -0.7834555998 0.1314195542 -0.7828582232 0.0278625735 -0.0374826739
670295980.0 0.0292868386 -0.0422669285 0.1231435763 -0.7846758867 0.1228559463 -0.7848462918 0.0271887355 -0.0383411097
675295950.0 0.0285120216 -0.0424423898 0.1139709999 -0.7858870705 0.1144193616 -0.7866030435 0.0269271301 -0.0378390824
680295920.0 0.0274853715 -0.0421146319 0.1051249449 -0.7871992933 0.1051836372 -0.7871976696 0.0266220008 -0.038388237
685295890.0 0.0267366343 -0.0427602202 0.097270075 -0.7878235619 0.0963933747 -0.7887539857 0.0257383462 -0.0379765491
690295860.0 0.0264096617 -0.043227996 0.0881316482 -0.7886013001 0.0876544459 -0.7887097708 0.0255337987 -0.0380642779
695295830.0 0.0264072804 -0.0433751781 0.0786427763 -0.7898623708 0.0788836867 -0.79056509 0.0242730769 -0.0384903066
700295800.0 0.0257466423 -0.0433434665 0.0703193451 -0.7909898068 0.0707352287 -0.7911956767 0.0237747088 -0.0393277776
705295770.0 0.0246769009 -0.0434598002 0.0623452882 -0.7918313555 0.0622954384 -0.7917894239 0.0229465719 -0.0388841825
710295740.0 0.0241287229 -0.0435609219 0.053783173 -0.7922869812 0.0530720368 -0.7922423465 0.02162989 -0.0389177942
715295710.0 0.0236621333 -0.0438414482 0.0450345934 -0.79271459 0.0454392232 -0.7928542242 0.0217058509 -0.0399211021
720295680.0 0.0225248756 -0.0442975822 0.0361535095 -0.7930720239 0.0359725609 -0.7936352829 0.02169966 -0.0391818792
725295650.0 0.0225740077 -0.044151222 0.0276440981 -0.7933083413 0.027503348 -0.7933287385 0.02106757 -0.0392689107
730295620.0 0.0212282826 -0.0446179644 0.0187728694 -0.7937732572 0.0187270824 -0.7937379395 0.0206522893 -0.0403446894
735295590.0 0.0214238606 -0.0441243126 0.0112615506 -0.7939594273 0.0108437264 -0.7940070784 0.0195518186 -0.0392233921
740295560.0 0.0201299926 -0.0444974549 0.0012290422 -0.793179414 0.002021475 -0.7936708546 0.0193574611 -0.040179202
745295530.0 0.0196958477 -0.0449694295 -0.0064709295 -0.7940943135 -0.0067163141 -0.7938293974 0.0182946848 -0.040083958
750295500.0 0.0191235144 -0.0449016517 -0.0147675643 -0.7933284478 -0.0152954769 -0.7934044246 0.0181040328 -0.04031759
755295470.0 0.0192990456 -0.0444042626 -0.0237004179 -0.7934584747 -0.0241407725 -0.7942050083 0.0168256152 -0.0401795899
760295440.0 0.0177471881 -0.0448030575 -0.0328754356 -0.7932712248 -0.0333311833 -0.793050378 0.0156514727 -0.0402501856
765295410.0 0.016955741 -0.045226257 -0.0406309066 -0.7927364081 -0.0407508429 -0.7930346933 0.0166083556 -0.0395391249
770295380.0 0.016927672 -0.0448176703 -0.0501162345 -0.7918216236 -0.0498651872 -0.7923754743 0.0159418979 -0.0400736193
775295350.0 0.016330843 -0.0447163198 -0.058698249 -0.7912955833 -0.05800493 -0.7919246792 0.0146477268 -0.0409307964
780295320.0 0.0155949842 -0.0450046477 -0.0669448983 -0.7911386204 -0.0664567468 -0.7910806726 0.0144381087 -0.0401633953
785295290.0 0.0147315561 -0.0445468293 -0.0756660098 -0.7892441106 -0.0759785122 -0.7904137178 0.0131636306 -0.0402799593
790295260.0 0.0140960767 -0.044594104 -0.0841063766 -0.7891927311 -0.0840664699 -0.7895866012 0.0130436788 -0.0402276725
795295230.0 0.0130366862 -0.0448450793 -0.0922112652 -0.7875322353 -0.0926719918 -0.7881298023 0.0122358977 -0.0394545851
800295200.0 0.0128441758 -0.0445311531 -0.101926498 -0.787339483 -0.101817268 -0.7878638872 0.0117017152 -0.0403830339
805295170.0 0.0118346558 -0.0447935885 -0.1093190734 -0.7854015561 -0.1102393783 -0.7865018243 0.0106880558 -0.0404763539
810295140.0 0.0117170417 -0.0445626435 -0.1183962143 -0.7848957349 -0.1182241864 -0.7854666737 0.0107229654 -0.040085451
815295110.0 0.0109159564 -0.0443445573 -0.1274686322 -0.7828864873 -0.1272755724 -0.7832270623 0.0097070576 -0.0402518814
820295080.0 0.0101929275 -0.0450071346 -0.1348603911 -0.7820205485 -0.1356492925 -0.7824000645 0.0088494089 -0.0400744391
825295050.0 0.0094754738 -0.0446588308 -0.1440648509 -0.7800737596 -0.1441005861 -0.7802148903 0.0087931957 -0.0397278639
830295020.0 0.008726853 -0.0443942059 -0.1527014767 -0.7789876485 -0.1532930559 -0.7788948266 0.007843613 -0.0398854415
