!Created with skrf (http://scikit-rf.org).
# Hz S RI R 50.0 
!freq ReS11 ImS11 ReS21 ImS21 ReS12 ImS12 ReS22 ImS22
300000.0 -0.048013987 -0.0409711657 -0.0011333371 0.0024628279 -0.0004937706 -0.0002227182 -0.7717354332 -0.1368667196
5299970.0 -0.048891222 0.0156995111 0.0001194565 0.0001080238 5.10091e-05 -1.26555e-05 -0.7845668228 -0.0070469716
10299940.0 -0.0431596192 0.0318534683 -5.56964e-05 -2.80165e-05 -0.0001246208 -8.06092e-05 -0.7876555383 -0.0034808286
15299910.0 -0.0352120426 0.0460774031 4.25742e-05 -4.03274e-05 0.0001411234 -0.0002409677 -0.792889288 -0.0014447706
20299880.0 -0.0252975295 0.0573248495 -0.0001110365 0.0001117457 0.0002035717 0.0001052551 -0.7997684737 0.0024912521
25299850.0 -0.0144895339 0.0667018608 0.0001064746 3.51234e-05 3.24709e-05 0.0001018452 -0.8060885074 0.0082611556
30299820.0 -0.0035287005 0.0731754569 -0.0001861299 0.000203444 -7.94771e-05 -0.000151801 -0.8121465009 0.0164187305
35299790.0 0.0077204107 0.0773850243 5.0421e-05 -4.4369e-06 2.31093e-05 -0.0001208667 -0.8169822354 0.0251883988
40299760.0 0.0192043975 0.0804317225 -3.16941e-05 0.0001830298 1.49453e-05 0.0002119856 -0.8209574832 0.0347124163
45299730.0 0.0295843515 0.0815654384 2.4084e-06 3.47477e-05 8.53833e-05 7.06686e-05 -0.8253790173 0.0444617011
50299700.0 0.03910237 0.0815494057 1.58381e-05 3.96066e-05 -7.36466e-05 9.93087e-05 -0.8272481112 0.0539833482
55299670.0 0.048320876 0.0804095159 9.41367e-05 0.0001181248 -6.09219e-05 -0.0002083877 -0.8293821434 0.0639785971
60299640.0 0.0566284399 0.0787873875 -0.000151907 6.71297e-05 -0.0001309239 2.2833e-06 -0.8303249334 0.0736717976
65299610.0 0.0643559326 0.07617063 -3.1777e-06 0.0002144026 1.47473e-05 0.0001586112 -0.8319655582 0.083808043
70299580.0 0.071118423 0.0732406236 1.503e-05 0.0001312018 -9.14528e-05 -5.18886e-05 -0.8321427843 0.0945699355
75299550.0 0.0774220602 0.0700714159 -4.83203e-05 0.0001706761 0.0001085877 7.68919e-05 -0.8325448864 0.1043427361
80299520.0 0.0828008394 0.066596963 -3.61331e-05 0.0001873592 2.92845e-05 -0.0003005472 -0.8322291878 0.1139654841
85299490.0 0.0874066868 0.0626474718 -0.0001470626 0.0001502781 4.0739e-06 0.000160317 -0.8315581843 0.1238199953
90299460.0 0.0920988643 0.0590134878 1.25187e-05 0.0001817985 -3.07152e-05 -4.78703e-05 -0.8312386546 0.1330595195
95299430.0 0.0966176985 0.0547726704 0.0001152263 7.07875e-05 2.92121e-05 -6.39696e-05 -0.8295609374 0.1428887224
100299400.0 0.0997514256 0.0511586742 5.5133e-05 -6.09201e-05 7.15255e-05 -9.16398e-05 -0.8283879225 0.1523236586
105299370.0 0.102950273 0.0472552336 0.0002485999 2.7852e-05 3.25714e-05 8.20091e-05 -0.8268178569 0.1612201591
110299340.0 0.1057678771 0.0431895686 -0.0001493278 4.63241e-05 1.1877e-05 3.9e-05 -0.8257034728 0.1709678168
115299310.0 0.1083823468 0.0391449101 -6.26788e-05 -6.69932e-05 -4.2821e-05 -2.4882e-05 -0.8238234951 0.1799282964
120299280.0 0.1102412883 0.0351717474 -3.95104e-05 0.0001516086 2.46433e-05 7.82718e-05 -0.822241115 0.188729375
125299250.0 0.111960762 0.0313213283 -3.4232e-06 3.70751e-05 -0.000110733 -8.46201e-05 -0.8211511827 0.1981975789
130299220.0 0.1136542012 0.0277595011 1.83716e-05 2.92413e-05 -3.45385e-05 3.03579e-05 -0.8189130854 0.2067526603
135299190.0 0.1151905193 0.0244069556 9.36574e-05 -3.83049e-05 8.01448e-05 5.84178e-05 -0.8168456615 0.2159430245
140299160.0 0.1162123456 0.020468951 -7.42137e-05 0.0002399048 0.0001711066 0.0002121391 -0.8146164607 0.2253331009
145299130.0 0.1175972573 0.0169573769 -7.61745e-05 -5.46307e-05 -0.0001338704 2.79488e-05 -0.8125758676 0.2341827965
150299100.0 0.1183331831 0.0138439119 0.0001446817 1.0633e-05 -7.14357e-05 0.0001366353 -0.8103921815 0.2432153995
155299070.0 0.1187536052 0.010355684 -0.0001503913 7.24654e-05 -4.02001e-05 -0.0001473123 -0.8068212081 0.252104746
160299040.0 0.1194058418 0.0070578016 2.1551e-05 0.0002201218 0.0001864697 7.2852e-05 -0.805333227 0.2610336562
165299010.0 0.1200332707 0.0036895444 4.30344e-05 -7.74893e-05 0.0001119263 -4.11208e-05 -0.8025629045 0.269689936
170298980.0 0.1198641512 0.0008631667 -7.13092e-05 -0.0001746371 0.0001477107 -0.0002168666 -0.7995884912 0.2779642766
175298950.0 0.1201738473 -0.0024819799 8.7808e-06 -2.24354e-05 0.0001110455 1.15719e-05 -0.7966740452 0.2871313431
180298920.0 0.1205094584 -0.0053419998 0.0001416982 9.49517e-05 0.00010742 4.03536e-05 -0.7939721435 0.2952137847
185298890.0 0.1203840737 -0.0084406661 -7.3158e-05 -2.2791e-06 5.82675e-05 -7.40646e-05 -0.7906753281 0.3042882906
190298860.0 0.1205234521 -0.0108658341 5.88886e-05 -4.8425e-05 0.000130507 0.000102226 -0.7878069412 0.3126693208
195298830.0 0.1200187812 -0.0139757598 1.95887e-05 4.51636e-05 -1.07217e-05 0.0001585804 -0.7845435152 0.3210979772
200298800.0 0.1200135229 -0.0163482225 8.62185e-05 0.0002158617 -3.91042e-05 0.000268506 -0.7815455127 0.3291134967
205298770.0 0.1196591776 -0.0191108659 8.31057e-05 -0.0002300137 6.97993e-05 -0.0001162602 -0.7775504543 0.338125757
210298740.0 0.1193572544 -0.02191704 -3.05256e-05 -0.0001869729 8.67739e-05 1.58513e-05 -0.7747333702 0.3456196507
215298710.0 0.1186747852 -0.0246101557 8.74166e-05 6.47883e-05 -7.91782e-05 -0.0001296092 -0.7711775457 0.3541987488
220298680.0 0.1180652306 -0.0272014379 8.33523e-05 2.1166e-05 -2.63045e-05 3.98627e-05 -0.7674667673 0.3621226735
225298650.0 0.1174675465 -0.0295718493 6.10406e-05 4.48262e-05 0.0002601788 -5.99623e-05 -0.7636919946 0.3705690469
230298620.0 0.1169040723 -0.0316393324 -4.90355e-05 4.38106e-05 -2.88931e-05 -3.77235e-05 -0.7596558014 0.3787454669
235298590.0 0.1165110357 -0.0338679272 1.3298e-06 -1.63574e-05 0.0002256881 -2.51271e-05 -0.7557114286 0.387111505
240298560.0 0.1157345695 -0.0368066144 0.0001107971 1.99389e-05 0.0001161281 1.67739e-05 -0.7517498064 0.3956717833
245298530.0 0.1148216319 -0.0386700448 -7.26593e-05 1.46927e-05 6.90274e-05 -0.0001823286 -0.7479460378 0.4022883756
250298500.0 0.1140176167 -0.040860236 7.35298e-05 0.0001362721 -3.43312e-05 -3.50148e-05 -0.7433705465 0.4102534875
255298470.0 0.1131116185 -0.0433155078 -1.74048e-05 -2.1901e-05 -0.0001278006 0.0001004593 -0.7388044545 0.418033513
260298440.0 0.1119936882 -0.0452569002 8.76751e-05 7.09255e-05 -1.01368e-05 -9.16877e-05 -0.7348186719 0.4266027433
265298410.0 0.1114860481 -0.047043884 9.5831e-05 2.41749e-05 0.000235903 -3.73532e-05 -0.7302790011 0.433602437
270298380.0 0.1106737711 -0.0492452554 0.0001582064 -6.99373e-05 7.75647e-05 2.849e-06 -0.7256066024 0.4412567121
275298350.0 0.1096522175 -0.051084137 1.21743e-05 4.21966e-05 -4.19757e-05 3.2415e-05 -0.7208824869 0.44903562
280298320.0 0.1089074006 -0.0529929248 3.84681e-05 0.0001429366 -2.02678e-05 0.0001359451 -0.7157749534 0.4565173115
285298290.0 0.1080348993 -0.0549075135 0.0002565282 3.34067e-05 0.0001354695 -9.62187e-05 -0.7109762564 0.4636598962
290298260.0 0.1069944504 -0.0569428578 -0.0001544643 0.0001337466 6.89239e-05 9.62154e-05 -0.7062508918 0.4711592373
295298230.0 0.105888385 -0.0589347284 0.0002160044 0.00013167 -0.0001719211 0.0001124195 -0.7010937081 0.4778186693
300298200.0 0.1048711101 -0.0605681481 -5.1406e-05 3.59343e-05 0.0001628905 0.0001101141 -0.6955262331 0.4858223973
305298170.0 0.1039026974 -0.0624798039 -7.68281e-05 0.0002906131 3.76134e-05 -0.0001017006 -0.6904794469 0.4934913632
310298140.0 0.1027200903 -0.0641705258 -0.0001096996 -0.0001192779 0.0001207456 0.0001523335 -0.6858181457 0.4998759033
315298110.0 0.1020367578 -0.0659965573 -0.0003715808 -1.902e-05 5.643e-05 -1.07676e-05 -0.6795685479 0.5072952429
320298080.0 0.1007020216 -0.0679997768 -0.0001176883 -0.0002696078 -2.42521e-05 1.50364e-05 -0.6748712859 0.514534478
325298050.0 0.0998395081 -0.0697002109 0.0003468284 -9.91778e-05 0.0001756874 0.0001504183 -0.6690491906 0.5214876844
330298020.0 0.0981260579 -0.0716369962 0.0002467556 9.46497e-05 0.0001113079 -2.22245e-05 -0.6637736152 0.5285113056
335297990.0 0.0965895818 -0.0733522325 0.000144533 0.0003342432 9.51951e-05 -2.24705e-05 -0.6584854248 0.5354792714
340297960.0 0.0949537754 -0.0749487374 0.0002089504 0.0002305547 -6.63796e-05 -0.0003377541 -0.652617055 0.5425452939
345297930.0 0.0933428419 -0.0761162678 2.86925e-05 0.0001646242 8.5944e-06 -0.0001493546 -0.6470143854 0.5483792535
350297900.0 0.0923206741 -0.0772442271 0.0002583493 7.24827e-05 -6.36328e-05 0.0001752409 -0.6411860615 0.5555306272
355297870.0 0.0909231988 -0.0787535134 6.87209e-05 0.0003047707 0.000118208 6.17288e-05 -0.6354609205 0.5626012577
360297840.0 0.0893462174 -0.079986546 0.0002371044 0.000178602 -2.777e-06 -0.0001270162 -0.6293673279 0.5685562107
365297810.0 0.0880315905 -0.0812025013 6.11605e-05 -2.95806e-05 5.64128e-05 7.48653e-05 -0.6229495234 0.5751437808
370297780.0 0.0867253914 -0.0824056151 0.0002583163 -5.57194e-05 0.0001482709 -9.53604e-05 -0.6174367659 0.5819519218
375297750.0 0.0850882479 -0.0838943907 3.19142e-05 -0.0001416655 -4.02827e-05 -7.71016e-05 -0.6116651836 0.5879846295
380297720.0 0.0836795564 -0.0852127288 6.17634e-05 2.04134e-05 8.26993e-05 6.08118e-05 -0.605654752 0.5948884672
385297690.0 0.081951113 -0.086168764 0.0001805337 4.0718e-05 7.67469e-05 1.24802e-05 -0.5994698625 0.6009586648
390297660.0 0.0806290978 -0.0872328284 0.0002694314 3.73728e-05 -5.31542e-05 6.017e-06 -0.5934429619 0.6064535766
395297630.0 0.0793783994 -0.0884396364 -0.0001038719 7.99923e-05 -4.75291e-05 1.98255e-05 -0.5864433494 0.6133468608
400297600.0 0.0783261304 -0.0896231577 0.0002769461 -4.35222e-05 0.0001135327 0.0002389294 -0.5805659957 0.6190656037
405297570.0 0.0764081513 -0.0905444382 7.24606e-05 -0.0001039179 -0.000269331 -1.3667e-05 -0.5738596753 0.624750938
410297540.0 0.0748437687 -0.0918854946 6.52508e-05 -2.69648e-05 0.0002584886 -7.4485e-06 -0.567380167 0.630635982
415297510.0 0.0734907385 -0.0929422204 1.61878e-05 7.66303e-05 -7.71417e-05 -7.3772e-05 -0.5610290836 0.6361894658
420297480.0 0.0719703304 -0.0936919718 6.06646e-05 -9.80432e-05 8.08482e-05 2.65755e-05 -0.5538293611 0.6429533065
425297450.0 0.0706783981 -0.0949615841 0.0001299822 -0.0002478358 0.0001879536 -9.75948e-05 -0.548193858 0.648001586
430297420.0 0.069135527 -0.0958774807 9.06564e-05 7.397e-05 0.0001492692 5.41887e-05 -0.5409782113 0.6528983614
435297390.0 0.0675556699 -0.096693056 -6.8487e-06 -8.69444e-05 5.96334e-05 0.0001239638 -0.5337927737 0.6584762434
440297360.0 0.0659267324 -0.0979563155 0.0002163896 1.91437e-05 0.0001468139 0.0001769355 -0.5272595885 0.6640917181
445297330.0 0.0644584416 -0.0986232815 3.2164e-05 0.000135728 9.48266e-05 -4.02366e-05 -0.5198206583 0.6687840304
450297300.0 0.0630523449 -0.0996115968 9.4556e-05 -1.98405e-05 0.0002009635 0.0001431601 -0.5131820853 0.6741433942
455297270.0 0.0613640718 -0.1003235972 0.0003166641 -9.66735e-05 2.029e-05 0.0002939566 -0.5064274161 0.6787885721
460297240.0 0.0596721213 -0.1012670941 0.0001724574 -0.0001672859 0.0003832566 0.0001625496 -0.4994048632 0.6838249592
465297210.0 0.0582775057 -0.1019090682 0.0001348485 -0.000155274 0.0002187992 2.4805e-05 -0.4919571662 0.6893002883
470297180.0 0.0565646671 -0.1025089898 -6.544e-05 -0.0001401765 0.0001080903 -0.0001133145 -0.4847679752 0.6948439579
475297150.0 0.0548862718 -0.1035154988 3.94143e-05 0.0001455529 0.0003221442 4.74202e-05 -0.4774047934 0.6987524827
480297120.0 0.0536292588 -0.1039861719 0.0001322424 5.14077e-05 0.0001787812 -4.8343e-05 -0.4700476844 0.7037427998
485297090.0 0.0518554221 -0.1046459942 -0.0001047455 -4.24562e-05 0.0001647831 0.0001703287 -0.4631962894 0.7085325777
490297060.0 0.049920668 -0.105081528 -1.09404e-05 -3.88305e-05 -9.09241e-05 8.16059e-05 -0.455951827 0.7124282816
495297030.0 0.0485262636 -0.1058943702 9.12915e-05 -5.81353e-05 -6.21262e-05 -1.28949e-05 -0.4485889026 0.7177664426
500297000.0 0.0468636793 -0.1064255546 -4.5153e-05 7.13358e-05 0.000100102 -8.6934e-06 -0.4407634337 0.7228779578
505296970.0 0.045543402 -0.1073118086 9.7036e-05 -0.0002479716 0.0002134942 0.0002975649 -0.4338537378 0.7268422579
510296940.0 0.0439364554 -0.1082068128 0.000172897 -0.0001028167 -9.24897e-05 9.78959e-05 -0.4261837714 0.7309163449
515296910.0 0.0422123646 -0.1081398597 0.0002254761 -3.40711e-05 -8.98847e-05 -0.0001010142 -0.4182022735 0.7353528993
520296880.0 0.0404036522 -0.1087927052 0.0002447599 0.0001665798 -1.38369e-05 -0.0001539836 -0.4112745599 0.739480737
525296850.0 0.0387685795 -0.1096479728 0.0001624225 0.0001710667 0.0001396683 7.4863e-06 -0.4041629061 0.7436029405
530296820.0 0.0372693919 -0.1097849761 -0.000104796 0.0002015047 0.0001157501 -0.0001027633 -0.3954301267 0.7476787386
535296790.0 0.0355463274 -0.1103766942 0.0001915291 0.0001236185 4.40084e-05 0.0002153664 -0.3892556549 0.7516798475
540296760.0 0.0336000616 -0.110388955 0.0002559865 -0.0002496992 0.0002697932 -0.0001666728 -0.3808275596 0.7559812364
545296730.0 0.0320618057 -0.1109723467 0.0001538055 -9.56498e-05 8.83784e-05 6.69909e-05 -0.3738981896 0.759003653
550296700.0 0.0308477175 -0.1114533869 0.0001575156 4.55114e-05 1.55517e-05 -2.023e-07 -0.3651149823 0.7633935841
555296670.0 0.0289206383 -0.1117411357 3.78746e-05 -0.0001791019 0.0002759301 1.68919e-05 -0.3580059519 0.7673354167
560296640.0 0.0272809103 -0.1120900401 0.000183518 -8.90044e-05 0.0001619267 0.0002235309 -0.3499459731 0.7706897322
565296610.0 0.0255509709 -0.1121490102 8.55912e-05 0.0002505301 0.0002709847 7.49131e-05 -0.3420052979 0.7737106791
570296580.0 0.0238118088 -0.1124405247 0.0002451449 -3.17164e-05 3.17137e-05 -6.77568e-05 -0.3343350269 0.7781085834
575296550.0 0.0222178542 -0.1126356948 0.0001004594 -4.09851e-05 0.000219934 2.48939e-05 -0.326466268 0.781089984
580296520.0 0.0205663654 -0.1132316669 7.8484e-06 -3.38354e-05 3.22476e-05 0.0001420124 -0.3176438844 0.7839089902
585296490.0 0.018585988 -0.1133991779 1.52843e-05 4.27817e-05 -0.0001096403 5.04072e-05 -0.3100634905 0.7880282587
590296460.0 0.0174412441 -0.1131097051 -1.44187e-05 3.6842e-05 3.15153e-05 -2.92893e-05 -0.3029460504 0.7901230321
595296430.0 0.0154166082 -0.1138715905 0.0001319189 3.54566e-05 0.0001266918 7.84763e-05 -0.2947509994 0.7925903303
600296400.0 0.0135910956 -0.1138373818 5.04307e-05 -0.0001348025 0.0001619363 3.78382e-05 -0.2868598103 0.7957630502
605296370.0 0.0122518568 -0.1137531747 0.0001194589 0.0001167436 9.99693e-05 -0.0001181722 -0.2782007491 0.7987019654
610296340.0 0.0102918104 -0.1140107398 -2.79138e-05 -5.99954e-05 4.0843e-06 0.0001000091 -0.2701933269 0.8009564382
615296310.0 0.0088896785 -0.1138466175 0.0002477805 0.0001353946 -5.68402e-05 3.999e-05 -0.2610047745 0.8035408524
620296280.0 0.0067443382 -0.1142112667 8.54916e-05 6.22149e-05 0.0001787062 5.8131e-06 -0.254338008 0.8061852455
625296250.0 0.0052959402 -0.1140898395 4.46329e-05 4.63139e-05 2.34445e-05 0.0002221005 -0.244859972 0.8086212123
630296220.0 0.0036530416 -0.1144480512 7.69663e-05 -0.0001487902 0.0003195928 -1.83423e-05 -0.2375765234 0.8108818451
635296190.0 0.0020912257 -0.1141408431 9.04261e-05 0.0001420854 0.0002785694 -0.0001257561 -0.2294793591 0.8126662053
640296160.0 0.0004122298 -0.114195085 0.0001653291 0.0001114449 0.0001663988 -0.0002332906 -0.2206975843 0.81541418
645296130.0 -0.0014898339 -0.1137215116 7.35381e-05 -0.0002264043 0.0001802614 3.34544e-05 -0.2130532728 0.8174869796
650296100.0 -0.0029337621 -0.1137857131 0.0001444856 9.3736e-06 8.58378e-05 -0.0001685395 -0.2045928759 0.8188752412
655296070.0 -0.0046237312 -0.1135529649 7.02105e-05 -2.78611e-05 0.0002271834 -0.0001693079 -0.1959399964 0.8209497695
660296040.0 -0.0065921237 -0.1136219836 -4.2604e-06 0.0001167145 0.0001775625 0.0001821967 -0.1877073839 0.8230885891
665296010.0 -0.0078778419 -0.1137214147 0.0003016397 5.9526e-05 0.0003043929 3.3585e-06 -0.178914684 0.8251356143
670295980.0 -0.0097848978 -0.1131340925 0.0002286986 1.58917e-05 0.0001282264 0.0001179223 -0.171304393 0.8268792954
675295950.0 -0.0114390643 -0.1128615088 0.0001528838 -7.6273e-06 0.0002723856 -0.0001874867 -0.1632733633 0.8290564359
680295920.0 -0.0133088831 -0.1126445449 0.0001945188 -0.0002084359 0.0001834031 -6.61913e-05 -0.1546726479 0.8311353403
685295890.0 -0.0141711522 -0.1122063904 0.0001141421 8.18443e-05 0.0003311534 0.0001782948 -0.1461599035 0.8313343407
690295860.0 -0.0161498539 -0.1120271855 0.0001369611 -8.59324e-05 0.000156669 1.92905e-05 -0.1381859726 0.8333460194
695295830.0 -0.0180545598 -0.1116925197 0.000250206 0.0002410225 -8.31298e-05 5.18838e-05 -0.1295813216 0.8347023404
700295800.0 -0.0196000599 -0.1115936424 0.0001876211 -0.0001054984 0.0001974652 7.6401e-06 -0.1216041323 0.8365977086
705295770.0 -0.0214119127 -0.1107759272 0.0001174056 9.02934e-05 -9.77361e-05 -8.97426e-05 -0.1135704363 0.8382399137
710295740.0 -0.0229698755 -0.1105900706 0.0003074282 -0.0002686606 0.0001359272 -0.0001652999 -0.1049573123 0.8386821752
715295710.0 -0.024664717 -0.1102537004 0.0002291055 -1.33185e-05 0.0001641596 3.7998e-06 -0.0962321019 0.8393101601
720295680.0 -0.0260781072 -0.1097974406 0.0001343305 6.2881e-05 0.0001329288 -4.58885e-05 -0.0873704078 0.8407562086
725295650.0 -0.0277780125 -0.1091120018 -6.55096e-05 8.59218e-05 7.94687e-05 -0.0002097176 -0.0794780098 0.8420162488
730295620.0 -0.0294947843 -0.1087403849 7.18199e-05 -0.0002343593 0.0001629132 -5.83974e-05 -0.0719740076 0.8424340996
735295590.0 -0.0308596685 -0.1081372094 0.0002756031 -0.0001375514 5.19753e-05 -0.0001030234 -0.0627991189 0.8428947616
740295560.0 -0.0326686239 -0.1077416708 0.0002466365 -0.0001189892 -5.734e-07 0.0001337151 -0.0537706493 0.8441269089
745295530.0 -0.0341489034 -0.1070745255 0.0001613688 -0.000148549 9.07642e-05 0.0001342604 -0.0452461645 0.8438488029
750295500.0 -0.0355504875 -0.1063626961 0.0003344894 5.97459e-05 0.0002698419 -8.98443e-05 -0.0377664882 0.8445726439
755295470.0 -0.0375604926 -0.1060842614 0.000412517 3.9142e-06 0.0002056205 -3.92e-06 -0.0290220748 0.8440844391
760295440.0 -0.0390862648 -0.1053506772 0.0003830707 6.30663e-05 5.80563e-05 0.0001818334 -0.0202127781 0.8439372222
765295410.0 -0.0403222064 -0.1047560191 0.0002657492 8.12923e-05 0.0001214546 -1.35298e-05 -0.0125812124 0.8452282297
770295380.0 -0.0421776162 -0.1039221073 0.0002249594 0.0001112469 0.0002280759 2.241e-05 -0.0039505638 0.8449159119
775295350.0 -0.0437932341 -0.1035590035 4.69911e-05 9.75809e-05 8.87926e-05 -0.0001987123 0.0038077163 0.8442305221
780295320.0 -0.045289727 -0.1025607001 0.0001274271 0.0001301472 0.0001764652 -1.91368e-05 0.013111085 0.8442014044
785295290.0 -0.0468256493 -0.1023914309 8.53522e-05 -0.0001422623 0.0002276048 0.0001047795 0.0216086426 0.844354147
790295260.0 -0.0479658806 -0.1013383973 0.0001174129 -3.567e-06 0.0002070756 4.39668e-05 0.0305441656 0.8443425512
795295230.0 -0.049728096 -0.1004085434 3.43948e-05 -1.68143e-05 0.0002884861 2.38917e-05 0.0388069162 0.8427500948
800295200.0 -0.0513943692 -0.0996387076 0.0003784534 -0.0001085488 0.0002427951 5.50637e-05 0.0473475776 0.8433184988
805295170.0 -0.0526648863 -0.0991465718 0.0002414374 7.00114e-05 0.0002353822 -8.61914e-05 0.0549650788 0.8424378798
810295140.0 -0.0541165782 -0.0982756058 -3.2284e-06 -5.04507e-05 7.02475e-05 -3.01947e-05 0.0637783661 0.8416859475
815295110.0 -0.0558025815 -0.097630627 0.0002361186 -0.0001029663 6.72799e-05 -6.27924e-05 0.0724359193 0.8408443541
820295080.0 -0.0569612026 -0.0966078899 0.000261433 -0.0001153861 0.0001677301 -5.3688e-06 0.0806173735 0.8407078118
825295050.0 -0.0583928489 -0.0959462178 0.0001456362 3.08527e-05 6.31533e-05 -0.0001362613 0.0891647751 0.8396234027
830295020.0 -0.0601028766 -0.0950408478 0.0001979891 -0.0001714971 0.0001178305 -0.0002730499 0.0980185746 0.8382652704
835294990.0 -0.0613935766 -0.0937311554 0.0001736225 0.0001312513 8.9313e-06 -9.96933e-05 0.1056094594 0.837586942
840294960.0 -0.0627387519 -0.0928752442 0.0001183163 0.0002337365 0.0001729492 1.4155e-05 0.1136585741 0.8368019092
845294930.0 -0.064027565 -0.0920220039 6.43543e-05 0.0002133592 0.0001437734 0.000176338 0.1221491794 0.8349661633
850294900.0 -0.0652531805 -0.0908029657 0.0001414734 -0.0002289615 0.000275519 -3.87584e-05 0.1300923871 0.833829941
