!Created with skrf (http://scikit-rf.org).
# Hz S RI R 50.0 
!freq ReS11 ImS11 ReS21 ImS21 ReS12 ImS12 ReS22 ImS22
300000.0 -0.239924426 -0.077471984 0.4709132655 0.0546412858 0.4675961942 0.0531942868 -0.2418291052 -0.0973773735
5299970.0 -0.2443038422 0.0071756504 0.473597329 0.0050142825 0.473620324 0.0051662797 -0.2440812889 0.0073784942
10299940.0 -0.2409573269 0.0184178747 0.4752784787 0.006296334 0.4754389111 0.0063498595 -0.240860023 0.0201230176
15299910.0 -0.2367587425 0.0281046601 0.479599741 0.0072712548 0.4792622751 0.0076399883 -0.236439049 0.0298660741
20299880.0 -0.2321357061 0.0354801988 0.4840861757 0.0086550977 0.4837014622 0.0086694832 -0.2310355034 0.0376717488
25299850.0 -0.2268072788 0.0419282708 0.4890999496 0.007440174 0.4891494011 0.0079354384 -0.2250309188 0.0438445234
30299820.0 -0.2211776284 0.0473489308 0.4943496517 0.0051934444 0.4947394307 0.0054182895 -0.2190863304 0.0492808093
35299790.0 -0.2163007173 0.0514134103 0.500172972 0.0019669026 0.5000750534 0.0020479728 -0.2136451057 0.05346005
40299760.0 -0.2114613105 0.0550918842 0.5049599591 -0.0020692075 0.505310218 -0.0018334607 -0.2083830229 0.0561465987
45299730.0 -0.2066146055 0.0575358087 0.5096553429 -0.0063148455 0.5097978823 -0.0062767293 -0.2031409886 0.0589582805
50299700.0 -0.2027000863 0.0599693451 0.5143365937 -0.0119738111 0.5145102704 -0.0114990221 -0.1987319739 0.0606145839
55299670.0 -0.198333669 0.0618720514 0.5179518693 -0.0183235258 0.5179931035 -0.0175229964 -0.1944043408 0.0622183978
60299640.0 -0.1943586983 0.0637423988 0.5215019573 -0.0243371551 0.5216986153 -0.0239291369 -0.1904613915 0.0631710748
65299610.0 -0.1910383011 0.0648703475 0.5240379424 -0.0310582046 0.5241942861 -0.030517462 -0.1874519571 0.0641730374
70299580.0 -0.1880099522 0.0660281003 0.52684043 -0.0369815522 0.5265534166 -0.0368515124 -0.1838715254 0.0649769474
75299550.0 -0.185129476 0.0673713756 0.5284814193 -0.0440407351 0.5283514765 -0.0440055584 -0.1808571532 0.0652957455
80299520.0 -0.1825743128 0.0682137629 0.5307395383 -0.0509521842 0.5309888934 -0.0509105824 -0.1786581884 0.0661331225
85299490.0 -0.1802858969 0.0688414115 0.5316923658 -0.0575773003 0.5317470046 -0.0572517979 -0.1759282257 0.0660134905
90299460.0 -0.1780625404 0.0697511376 0.5326474678 -0.0649927846 0.5331636915 -0.0646236805 -0.173945714 0.0669132264
95299430.0 -0.1757559225 0.0705602448 0.5341097272 -0.0716205306 0.5338881415 -0.0715779596 -0.1715237117 0.0672005478
100299400.0 -0.1737010958 0.0715159874 0.5336041264 -0.0784247377 0.5336048551 -0.0786063726 -0.1693034269 0.0674621522
105299370.0 -0.1720037003 0.0723929166 0.5342519714 -0.0854166158 0.5347869938 -0.0854305692 -0.1677948653 0.0679780058
110299340.0 -0.1704963626 0.073318871 0.5347527728 -0.0921593696 0.5344769847 -0.0916343745 -0.1664614385 0.0683164707
115299310.0 -0.1689130182 0.0740198759 0.53491459 -0.0993872252 0.5344421451 -0.0991225415 -0.1646428768 0.0688651697
120299280.0 -0.1672282485 0.0744519818 0.5343622478 -0.1060340305 0.5344360973 -0.1055885631 -0.163469711 0.0695800873
125299250.0 -0.1660004737 0.0753338964 0.5338550679 -0.1122909282 0.5344719903 -0.1124402774 -0.1623993226 0.0695264019
130299220.0 -0.1649989103 0.0767141353 0.5331026593 -0.1193844246 0.5330464289 -0.1192604449 -0.1611097042 0.0701940895
135299190.0 -0.1637837977 0.0778405632 0.5331523659 -0.1259909224 0.5328607403 -0.1258909874 -0.1598304709 0.0710994386
140299160.0 -0.1628191871 0.0791096904 0.531941966 -0.1326003726 0.5321055568 -0.132857622 -0.1588681858 0.0722797471
145299130.0 -0.1616852525 0.0800908883 0.5314300391 -0.1393168917 0.5310531617 -0.139052922 -0.1577900407 0.072858704
150299100.0 -0.1600995759 0.0808093323 0.5299721431 -0.1452674969 0.5299130439 -0.1449699208 -0.1570571788 0.0738895173
155299070.0 -0.1595150014 0.0822276874 0.5288274893 -0.1526421608 0.5286288258 -0.1521495913 -0.1559041678 0.0747941725
160299040.0 -0.1581737731 0.0833891161 0.5271543503 -0.158712013 0.5267619982 -0.1587210811 -0.1556024726 0.0754363772
165299010.0 -0.1572253094 0.0846582346 0.525555938 -0.1655110729 0.5260842018 -0.1654064503 -0.1541538601 0.0768132847
170298980.0 -0.1565850275 0.0858662106 0.5241138769 -0.1716121793 0.5243906506 -0.1716445037 -0.1535554172 0.0773635902
175298950.0 -0.1558000048 0.08707225 0.5234191653 -0.1777526758 0.5224847645 -0.1778141049 -0.1527051554 0.0787165681
180298920.0 -0.1547915071 0.0883098581 0.5209425517 -0.1841066792 0.5206233086 -0.1838902935 -0.1519095851 0.0797897336
185298890.0 -0.1533874603 0.0892788837 0.5191459937 -0.1902375746 0.5185045727 -0.1902694998 -0.1512527612 0.0811088881
190298860.0 -0.1528994802 0.0909858372 0.517529696 -0.1969709602 0.5175164533 -0.1965381424 -0.1507046166 0.0816257988
195298830.0 -0.1519005198 0.0920883041 0.5153117818 -0.2026627903 0.515261029 -0.2024107772 -0.1499264158 0.0831045684
200298800.0 -0.150657863 0.0938208417 0.5131664762 -0.2090687022 0.5131682115 -0.2088139561 -0.1493793119 0.0842147668
205298770.0 -0.1496538922 0.0950654064 0.5109437969 -0.2150600125 0.5107058793 -0.2148123989 -0.1484832999 0.0847993606
210298740.0 -0.1487025766 0.0961391672 0.5086359559 -0.2207106852 0.5084535836 -0.2203388637 -0.1473613183 0.086750948
215298710.0 -0.148208899 0.0978980436 0.506378398 -0.2266573615 0.5062606493 -0.2266596977 -0.1475609202 0.0875759108
220298680.0 -0.1468966133 0.0987753024 0.5032888594 -0.2327105268 0.5037875825 -0.2323963267 -0.1469014737 0.0887455935
225298650.0 -0.1461622254 0.100437289 0.5012220121 -0.2386634494 0.5015367399 -0.2384758538 -0.1464016846 0.0896933323
230298620.0 -0.1451351085 0.1023315522 0.4990215211 -0.2445003858 0.499299075 -0.2442023948 -0.1454804282 0.0909573639
235298590.0 -0.1440162481 0.1035589612 0.4959899419 -0.250004568 0.4964450152 -0.2498025517 -0.1447258588 0.0922120236
240298560.0 -0.1431382057 0.1053532533 0.4939206916 -0.2558836403 0.493233853 -0.2558613883 -0.1440930044 0.0937284697
245298530.0 -0.1421792422 0.1066292431 0.4911717577 -0.2617103968 0.4908208296 -0.2617996371 -0.1429827871 0.0943792885
250298500.0 -0.1409848477 0.1082326495 0.4876193853 -0.2675683439 0.4874360055 -0.2666471109 -0.1426012553 0.095752931
255298470.0 -0.1398848903 0.1089909063 0.484688888 -0.2722130463 0.485081033 -0.2725089424 -0.1416458748 0.0968175167
260298440.0 -0.1392870919 0.1106294664 0.4820776891 -0.2785211293 0.4821150347 -0.2778942929 -0.1405083417 0.0982273321
265298410.0 -0.1377716369 0.1125824936 0.4790907649 -0.283835997 0.4793822195 -0.2833376252 -0.1396321254 0.0992563913
270298380.0 -0.1367282237 0.1136423712 0.4759157618 -0.289112749 0.4761874424 -0.2889845974 -0.1388456111 0.1005917079
275298350.0 -0.1352508747 0.1149394355 0.4726081968 -0.2947231947 0.4731239208 -0.2947577481 -0.1378806244 0.101746668
280298320.0 -0.1339909035 0.1168647923 0.4698940136 -0.3001253298 0.4697465388 -0.2999066905 -0.1367392262 0.103150465
285298290.0 -0.1328511766 0.1182688972 0.4663413249 -0.305426772 0.4664395662 -0.30550787 -0.1358760947 0.1042924624
290298260.0 -0.1316961631 0.1197410043 0.4631906907 -0.3105448619 0.4628632189 -0.3104101674 -0.1348320093 0.1057825747
295298230.0 -0.1303137206 0.1210651766 0.4600838535 -0.3160366186 0.4599853043 -0.3158024871 -0.1334647178 0.1066068508
300298200.0 -0.1292219439 0.1225404799 0.4565012256 -0.3208298413 0.4563970936 -0.3212025356 -0.1328426106 0.1080407397
305298170.0 -0.1276852222 0.1237218499 0.4525595265 -0.3265785905 0.4528829635 -0.3260160596 -0.1313443677 0.1090555964
310298140.0 -0.1263724774 0.1252626384 0.449053643 -0.3316585128 0.4492897505 -0.3311038743 -0.130505673 0.1104090809
315298110.0 -0.125223422 0.1263513559 0.4455781915 -0.336602989 0.4458343965 -0.3367024874 -0.1297328169 0.1113256471
320298080.0 -0.1237339307 0.1276463703 0.4413320481 -0.3422460564 0.4419497893 -0.3417415399 -0.1287167883 0.1129033205
325298050.0 -0.1227465503 0.1288565084 0.4381204228 -0.3467120353 0.438042088 -0.3467371193 -0.1279321321 0.1139068414
330298020.0 -0.1211505859 0.1300121404 0.4338958065 -0.351874534 0.4339655281 -0.3515472388 -0.127147099 0.1151103821
335297990.0 -0.1200856114 0.1314647994 0.429641434 -0.3567667011 0.4296026332 -0.3569902766 -0.1265214759 0.117053791
340297960.0 -0.1192248212 0.1328539954 0.4257159434 -0.3612758165 0.4256805892 -0.3617244623 -0.1248875252 0.1183922785
345297930.0 -0.1177146239 0.1347961878 0.421403013 -0.3664940409 0.4213990067 -0.3661604052 -0.124325106 0.119023261
350297900.0 -0.1166718282 0.1356951241 0.4170237746 -0.3709189592 0.4175147144 -0.3709441542 -0.1235910943 0.1211427256
355297870.0 -0.1152310009 0.1375005961 0.413002684 -0.3756842415 0.413314766 -0.3755335891 -0.1222737069 0.1222465865
360297840.0 -0.1137450603 0.1390081268 0.4093902441 -0.379730749 0.4096073984 -0.379856723 -0.1215943155 0.1239547438
365297810.0 -0.1125515393 0.1402825248 0.4050957978 -0.3847848669 0.4052159138 -0.3844690515 -0.1203140352 0.1246908769
370297780.0 -0.1106353816 0.1414529368 0.400585746 -0.3886554625 0.4008592247 -0.388340159 -0.119064122 0.126208311
375297750.0 -0.1091101502 0.142748203 0.3965706863 -0.3929743295 0.3969379093 -0.3932452472 -0.1181613883 0.127566396
380297720.0 -0.1078270794 0.14425505 0.3923995857 -0.3977009218 0.3923800202 -0.3971252244 -0.116828349 0.1287142543
385297690.0 -0.1067152004 0.1454939462 0.3879507493 -0.4017360027 0.3873747535 -0.4013872847 -0.1155562078 0.1299690196
390297660.0 -0.1046781315 0.1470790647 0.383088885 -0.4060825579 0.3832890124 -0.406096107 -0.1147857013 0.1314753314
395297630.0 -0.1031364229 0.1483826139 0.3791780539 -0.4107001914 0.3787014505 -0.4100791033 -0.112943766 0.1325300583
400297600.0 -0.1016468764 0.149785343 0.3740821105 -0.4148975242 0.3743556484 -0.4144334193 -0.1121532941 0.1337192501
405297570.0 -0.1000571464 0.1509034272 0.3692431783 -0.4185079625 0.3700425996 -0.4182024757 -0.1113245377 0.1351100813
410297540.0 -0.0983108695 0.1520600275 0.365029957 -0.4227663115 0.3652981215 -0.4225661971 -0.1100367699 0.1363457965
415297510.0 -0.0965594343 0.153228094 0.3603025887 -0.4268385811 0.3608197839 -0.4264674974 -0.1086904707 0.1377694755
420297480.0 -0.0951232133 0.1544237926 0.3553241735 -0.4308189469 0.3557195935 -0.4306450678 -0.1072976201 0.1384218159
425297450.0 -0.0934864392 0.1553746121 0.3513833693 -0.4342027652 0.3514752132 -0.434437595 -0.106801295 0.1398087552
430297420.0 -0.0919399348 0.1565368861 0.3465380723 -0.4376463875 0.3462363037 -0.4377803874 -0.1050892453 0.1407873802
435297390.0 -0.0901687802 0.1579064817 0.3412080495 -0.4419205425 0.3412355434 -0.4418386052 -0.103297877 0.1419333562
440297360.0 -0.0883382648 0.1592031177 0.3362592929 -0.4454301083 0.3364811854 -0.445476157 -0.1023292803 0.1430891911
445297330.0 -0.0867943653 0.1598890709 0.3320703351 -0.4490774323 0.3318960688 -0.4489730536 -0.1009313242 0.1440127908
450297300.0 -0.0848611014 0.1610541185 0.3268856329 -0.452729735 0.326660118 -0.4531419022 -0.0993811333 0.1448480056
455297270.0 -0.0831285554 0.1624989172 0.3215301966 -0.4562146406 0.3214060963 -0.456907298 -0.0981719251 0.1459095176
460297240.0 -0.0817465268 0.1633413665 0.3162713762 -0.4596922787 0.3169067249 -0.4597639427 -0.0968283057 0.1473008526
465297210.0 -0.0795152219 0.1644815619 0.3119834928 -0.4633172848 0.3117514054 -0.4635620748 -0.0950226474 0.1481809808
470297180.0 -0.0776279696 0.1650480807 0.3059862486 -0.4665780158 0.3065526477 -0.4665980013 -0.0937986879 0.1492684796
475297150.0 -0.0761571683 0.1660166987 0.301471502 -0.4695822683 0.3015466193 -0.4695778103 -0.0919141526 0.1499797274
480297120.0 -0.0742559464 0.167379027 0.2962343388 -0.4729434857 0.2964550225 -0.4735780071 -0.0905836706 0.1515278663
485297090.0 -0.072380773 0.1682233496 0.2911538944 -0.4763988394 0.2913460031 -0.475704367 -0.0890730852 0.1519492473
490297060.0 -0.0708677916 0.16914487 0.2861846051 -0.4797850805 0.2866047611 -0.4793381646 -0.0872380017 0.1534012395
495297030.0 -0.0688064879 0.1701198593 0.2802460572 -0.4827583783 0.2812906302 -0.4822842561 -0.0863102472 0.1543726585
500297000.0 -0.0667280725 0.1707973406 0.2751204239 -0.4852179927 0.2754699057 -0.4850108779 -0.0845538325 0.1558366753
505296970.0 -0.0650276315 0.1719283326 0.2700346418 -0.48820445 0.2700369795 -0.4885923842 -0.0830898498 0.1565058623
510296940.0 -0.0628827437 0.1726198243 0.2646235914 -0.4915519099 0.2642874147 -0.4913237192 -0.0815035735 0.1575674567
515296910.0 -0.0612135487 0.1736907093 0.2589653569 -0.4942202853 0.2591513973 -0.4935264307 -0.0800290033 0.1584837306
520296880.0 -0.059310666 0.1743969451 0.2536823796 -0.4972027929 0.2533312832 -0.4963598504 -0.0785609151 0.1593683764
525296850.0 -0.0571889573 0.1745663466 0.24785984 -0.4997901595 0.2489745244 -0.4995271324 -0.0774633967 0.1606038436
530296820.0 -0.0553618608 0.175902699 0.2428970184 -0.5026025668 0.2433907464 -0.5023253512 -0.0757235521 0.1615667543
535296790.0 -0.0537426949 0.1766518448 0.2379250315 -0.5047576516 0.2379030457 -0.5042486751 -0.0744141381 0.1621339893
540296760.0 -0.0516049412 0.1774463271 0.2319504126 -0.5076345479 0.2319576391 -0.5075680686 -0.0728944575 0.1633483349
545296730.0 -0.0495914238 0.1781957893 0.2262000569 -0.5097757194 0.2263184614 -0.5097007525 -0.0711981189 0.1637283282
550296700.0 -0.0477763855 0.1790042229 0.2213137931 -0.5125744932 0.2210608709 -0.5125395657 -0.0697029559 0.164823957
555296670.0 -0.0456626336 0.1796410571 0.2153278152 -0.5147308676 0.2154183483 -0.5143974114 -0.0681849915 0.1658507976
560296640.0 -0.0432680904 0.1804320275 0.209713727 -0.5170416899 0.2099843529 -0.5171784651 -0.0664297439 0.1664588929
565296610.0 -0.0418958246 0.1808178447 0.2041400058 -0.5192223768 0.204306106 -0.5190906947 -0.0650407376 0.167236821
570296580.0 -0.0399617646 0.181572788 0.1985565579 -0.52140156 0.1979635586 -0.521441423 -0.0635307353 0.1684509271
575296550.0 -0.0382974632 0.1826024689 0.1929365322 -0.5241583094 0.1927391568 -0.5236889956 -0.0616339396 0.1689794089
580296520.0 -0.0359585457 0.1828241781 0.1870767936 -0.5259344073 0.1871097777 -0.5256145082 -0.0601470854 0.1695310073
585296490.0 -0.0341845151 0.182809308 0.1817046636 -0.5274651822 0.1818301792 -0.5271370074 -0.0584953059 0.1704059451
590296460.0 -0.0318077687 0.1835372691 0.1756876084 -0.5289538772 0.1758842689 -0.5290827139 -0.0573890792 0.1710888399
595296430.0 -0.0298197232 0.1841602111 0.1698890124 -0.531188972 0.1695413396 -0.5312799284 -0.0553296348 0.1714207752
600296400.0 -0.0280356553 0.1844978246 0.1638623036 -0.5333583787 0.1640741187 -0.5329925334 -0.05407262 0.1721976052
605296370.0 -0.0259963029 0.1850696647 0.1580037618 -0.5347026031 0.1587181399 -0.5343868656 -0.0521204891 0.1728914741
610296340.0 -0.02382739 0.1855587758 0.1522775086 -0.5362385402 0.152748886 -0.536562095 -0.0501972164 0.1734251166
615296310.0 -0.0213577422 0.1855936077 0.1465508636 -0.5377725283 0.1462021594 -0.5381257677 -0.0482726315 0.1739441846
620296280.0 -0.0197287424 0.1857744664 0.1405695422 -0.5392546504 0.140925073 -0.5392421824 -0.0472817193 0.1746792103
625296250.0 -0.0178696096 0.1862355342 0.1354533363 -0.5409897805 0.1350034703 -0.5413258145 -0.044681443 0.1751079682
630296220.0 -0.0147443877 0.1864262937 0.1284935767 -0.5422300463 0.129217063 -0.5420607352 -0.0435602135 0.1758990968
635296190.0 -0.0138623873 0.1867207996 0.1230754049 -0.5433854199 0.1233411486 -0.5434576703 -0.0417845787 0.1764206238
640296160.0 -0.0114985807 0.1869910127 0.1172903245 -0.5447534446 0.1178403795 -0.5444931865 -0.0398701985 0.1767431737
645296130.0 -0.0093019298 0.1877157216 0.1111195504 -0.5457659235 0.1118039771 -0.5458886839 -0.0379363753 0.1774628772
650296100.0 -0.007383882 0.187565544 0.1056151996 -0.5470050794 0.1057356636 -0.5469962094 -0.0359879311 0.1773373149
655296070.0 -0.00525205 0.1876728676 0.0996633428 -0.548650507 0.1002184523 -0.5482427523 -0.0343674901 0.1783772994
660296040.0 -0.0035104285 0.1878233654 0.0936880036 -0.5492442829 0.0938184675 -0.5491254278 -0.0323995634 0.1786871223
665296010.0 -0.0009654166 0.1878731879 0.087267145 -0.5499471038 0.0879888258 -0.549915084 -0.030641909 0.1798285674
670295980.0 0.0003825653 0.1883950766 0.0819320595 -0.5505065717 0.082019892 -0.5509068839 -0.0295013835 0.1797973341
675295950.0 0.0027580218 0.1887852877 0.0760442616 -0.5519139648 0.0760247553 -0.5512303793 -0.027714191 0.1803669781
680295920.0 0.0045564019 0.1882876831 0.0698534166 -0.5523070386 0.0695720443 -0.552715854 -0.0260233908 0.1814955725
685295890.0 0.0069726239 0.189058676 0.0638883705 -0.5531149953 0.0635685812 -0.5531088219 -0.0240873038 0.181528025
690295860.0 0.0092828618 0.1888917176 0.0576093563 -0.5535385911 0.0580546002 -0.5542714488 -0.0221373591 0.1827549176
695295830.0 0.0110895826 0.1888580978 0.0525097687 -0.5543975882 0.0515958656 -0.5544562618 -0.0205007054 0.1826355356
700295800.0 0.0134326246 0.1885372312 0.045957796 -0.55456666 0.0453407854 -0.5550258966 -0.0189117657 0.1834875417
705295770.0 0.0152618278 0.189253239 0.0393247568 -0.5553324583 0.0401383631 -0.5555362172 -0.0170903753 0.1836150335
710295740.0 0.0174853007 0.1888098922 0.0342280569 -0.5559313586 0.0342266988 -0.5561424554 -0.0152344398 0.1832921662
715295710.0 0.0193360532 0.1886327844 0.028067258 -0.5559642786 0.0281768492 -0.5561255485 -0.0134475874 0.1840270446
720295680.0 0.0213891542 0.1885816547 0.0219900431 -0.5561707117 0.0223656978 -0.5562755516 -0.0115200963 0.1845844363
725295650.0 0.0236435221 0.188812254 0.015901572 -0.5563952295 0.0163313012 -0.5566068749 -0.0100157212 0.1849384025
730295620.0 0.0258787113 0.1890603403 0.01003503 -0.5562244111 0.0102804025 -0.55689014 -0.0087611042 0.1849774963
735295590.0 0.0276139175 0.1886883738 0.0041503377 -0.557112989 0.0040217733 -0.5568645736 -0.0069522508 0.1850828909
740295560.0 0.0296179482 0.1886708262 -0.0023044508 -0.5567105351 -0.0020843265 -0.5562789823 -0.0043809171 0.1853212668
745295530.0 0.0318331133 0.188585075 -0.0080316493 -0.5562032322 -0.008214887 -0.5565938957 -0.0030141367 0.1853016837
750295500.0 0.0339626115 0.1879765821 -0.0138609807 -0.555683576 -0.0137862123 -0.5564238146 -0.0013577157 0.1855841947
755295470.0 0.0361045735 0.1877689271 -0.0195439544 -0.5562401995 -0.0199054138 -0.5561777612 0.0010788281 0.1852232861
760295440.0 0.0380845747 0.1877045331 -0.0260043129 -0.5564055168 -0.0259576414 -0.5557926976 0.0024482991 0.1853522271
765295410.0 0.0398773596 0.1872649974 -0.0321003418 -0.555570241 -0.0322189014 -0.5555729807 0.0042522782 0.1859145178
770295380.0 0.0417416402 0.1867208158 -0.0384445159 -0.555249281 -0.0377354957 -0.5550283999 0.0058628052 0.1854867284
775295350.0 0.0438760027 0.1859492761 -0.0444255448 -0.5542718576 -0.043266676 -0.5546682098 0.0074107652 0.1860139983
780295320.0 0.0462948977 0.1861189684 -0.0501881926 -0.5535728563 -0.0491633256 -0.5539967147 0.0091542151 0.1855693389
785295290.0 0.0480582082 0.1853640504 -0.0562969479 -0.5530986684 -0.0556852065 -0.5537179368 0.0116226061 0.1859747665
790295260.0 0.050555014 0.1857680262 -0.0613676279 -0.5529529711 -0.0608889439 -0.5525131667 0.0132900461 0.1858624267
795295230.0 0.0524607602 0.1848376739 -0.0676070885 -0.551770111 -0.0670903469 -0.5521255683 0.0155551031 0.1861708856
800295200.0 0.0541495174 0.1845271314 -0.074661971 -0.550961863 -0.0733647975 -0.5509462681 0.0171053317 0.185892437
805295170.0 0.0563860941 0.1835829577 -0.0796021799 -0.5502337116 -0.0796943237 -0.550562119 0.0189260655 0.1861283614
810295140.0 0.0582376978 0.1829390532 -0.0856610897 -0.5492239481 -0.0856495282 -0.5494257348 0.0211048557 0.1859464736
815295110.0 0.060087576 0.1825497349 -0.0915090314 -0.5483436306 -0.0910502666 -0.5480793758 0.0228029748 0.1860474048
820295080.0 0.0620377464 0.1824639498 -0.0966765304 -0.5470965235 -0.0968517362 -0.5472301842 0.0244583915 0.185994641
825295050.0 0.0647228943 0.1816779905 -0.1022369958 -0.5458384005 -0.1030645869 -0.5461887434 0.0268380723 0.1859196308
830295020.0 0.0663805421 0.1812893929 -0.1094299577 -0.5447731678 -0.108808456 -0.5450610375 0.029037005 0.186070338
