!Created with skrf (http://scikit-rf.org).
# Hz S RI R 50.0 
!freq ReS11 ImS11 ReS21 ImS21 ReS12 ImS12 ReS22 ImS22
300000.0 -0.2350919063 -0.1132937452 0.4654693642 0.074375266 0.4710959069 0.0750852487 -0.2377570085 -0.1137531402
5299970.0 -0.240895264 0.0068649602 0.4753146925 0.0055278135 0.4750185988 0.0058654399 -0.2449619705 0.0053303548
10299940.0 -0.2371733607 0.0199713753 0.4773246955 0.0065244844 0.477003779 0.0064228961 -0.2415767222 0.0175793284
15299910.0 -0.2331785968 0.0297498397 0.4807805819 0.0076065936 0.4804995363 0.0077801377 -0.2373787226 0.026289644
20299880.0 -0.2273945174 0.0379424096 0.4852002179 0.0077240186 0.4855097907 0.0080433229 -0.2328611738 0.0339244048
25299850.0 -0.221670318 0.0440864107 0.4903151522 0.0068825031 0.4904931703 0.0072413804 -0.2278248433 0.040009451
30299820.0 -0.2157525253 0.0494784188 0.4963948043 0.0049957223 0.4956525715 0.005047994 -0.2226519008 0.0448571075
35299790.0 -0.2098311285 0.0538922339 0.5010792418 0.0016661677 0.5017728774 0.0016550315 -0.2173922921 0.0485701533
40299760.0 -0.2044820527 0.0571158342 0.5064566155 -0.0020912094 0.506597208 -0.0022725965 -0.2128452801 0.0520918338
45299730.0 -0.1997617742 0.0599701518 0.5111488276 -0.0072247489 0.5110490148 -0.0068514247 -0.2081214081 0.0543196501
50299700.0 -0.1945531169 0.0617508823 0.5148979063 -0.0125919891 0.5150842698 -0.0127142051 -0.2036477782 0.0563617709
55299670.0 -0.1905763465 0.0637517103 0.518643658 -0.0186279171 0.5190587233 -0.0185520474 -0.2001419518 0.0581164427
60299640.0 -0.1863351878 0.0648106917 0.5217547466 -0.0247390289 0.5221020687 -0.0248649812 -0.1963231007 0.0595703823
65299610.0 -0.1829662491 0.0665286763 0.5248969422 -0.0307953455 0.5249697048 -0.0310477321 -0.1928415004 0.0602368719
70299580.0 -0.1795927229 0.0669490387 0.5272879307 -0.0375460865 0.5271442575 -0.0376582392 -0.1897575487 0.0614459023
75299550.0 -0.1765807846 0.0678334569 0.5291594298 -0.044373976 0.5292453633 -0.0444272927 -0.1873608894 0.0625117683
80299520.0 -0.174307937 0.0689655411 0.5318787974 -0.0514529548 0.5311754357 -0.0513025008 -0.184630506 0.0627068442
85299490.0 -0.1715773066 0.0693621438 0.5323105447 -0.0580808198 0.5323760811 -0.0581723671 -0.1824787666 0.0635513679
90299460.0 -0.1692738017 0.0703746956 0.5335186229 -0.0653348691 0.5335101402 -0.0652549954 -0.1801591573 0.0642438272
95299430.0 -0.1674678765 0.070999659 0.5348600191 -0.0724645039 0.5343805841 -0.0721898305 -0.1784628821 0.0649135726
100299400.0 -0.1652621193 0.0718894495 0.5345903972 -0.0790195054 0.5349636611 -0.0793279378 -0.17719716 0.0653824966
105299370.0 -0.1635056614 0.0724252751 0.5345172956 -0.0857734449 0.5348601595 -0.0859149431 -0.1748568489 0.0659859238
110299340.0 -0.1620259351 0.0730824877 0.5351463014 -0.0926075367 0.5350224172 -0.0931167831 -0.1735818532 0.0671351533
115299310.0 -0.1601965433 0.0735363571 0.5348326857 -0.0993191572 0.535177703 -0.0991744276 -0.1722500594 0.0670871493
120299280.0 -0.1589993986 0.0743744512 0.5352780191 -0.1062434427 0.5349226232 -0.1062390983 -0.1712755011 0.0680463278
125299250.0 -0.1577968176 0.075303717 0.534617735 -0.1128933726 0.5348509869 -0.1131422162 -0.1697749249 0.068304406
130299220.0 -0.1565563903 0.0761195943 0.533860081 -0.1192656013 0.5339218926 -0.1198136132 -0.1689111535 0.069279283
135299190.0 -0.1550615036 0.0766954403 0.5329162156 -0.1258014587 0.53296958 -0.1262583645 -0.1680227182 0.0699848607
140299160.0 -0.1543791924 0.0781180702 0.5325615326 -0.1329071037 0.5324957889 -0.1331133003 -0.1665264297 0.0711595178
145299130.0 -0.1531572379 0.0789505547 0.5315581612 -0.1397115958 0.5312238348 -0.1392608343 -0.1664091549 0.0717599088
150299100.0 -0.1518658937 0.0801151343 0.5302597876 -0.1464288365 0.5305677894 -0.1456750061 -0.1652780577 0.0724682172
155299070.0 -0.1511788759 0.0816217996 0.5291800386 -0.1530456723 0.5292889667 -0.1529166496 -0.1647126844 0.0734109836
160299040.0 -0.150344189 0.0820406887 0.5274133006 -0.1586832307 0.527810654 -0.1591078763 -0.1635157925 0.0748681917
165299010.0 -0.1493399022 0.0832330168 0.5264716673 -0.1653776869 0.5266368619 -0.1656707987 -0.1626309906 0.0754997063
170298980.0 -0.1484147938 0.0843518011 0.5240093485 -0.1717934111 0.524958768 -0.1717968086 -0.1617245792 0.0763081765
175298950.0 -0.1473979309 0.0855970737 0.5235585378 -0.1779694998 0.5234426762 -0.1780174498 -0.1609679754 0.0777733276
180298920.0 -0.1461225123 0.0868029439 0.5217011906 -0.1847779532 0.5214900504 -0.1839057665 -0.1599591378 0.0788455334
185298890.0 -0.1452318927 0.0879487721 0.519326141 -0.1907319519 0.5197755661 -0.1905426048 -0.159714821 0.0797011424
190298860.0 -0.1447148669 0.089262204 0.5178347823 -0.1968314397 0.5180274013 -0.1969955337 -0.1583154953 0.0809952922
195298830.0 -0.1433365688 0.0901699062 0.5155406008 -0.2025863035 0.5157862193 -0.203063898 -0.1579620746 0.0818980233
200298800.0 -0.1425707404 0.0917393084 0.5137752181 -0.2084992365 0.513872058 -0.208544097 -0.1568943114 0.0832186109
205298770.0 -0.1416715402 0.0930748459 0.5114209821 -0.2146265072 0.5120382039 -0.2149396654 -0.1564560147 0.0840225766
210298740.0 -0.140775886 0.0940171006 0.509374397 -0.220850861 0.5097384097 -0.2213766371 -0.1558607971 0.085778039
215298710.0 -0.1397244778 0.0955837662 0.506952955 -0.2267509603 0.5071490279 -0.2268823886 -0.1553645394 0.0866104176
220298680.0 -0.1387911325 0.0970231755 0.5045124726 -0.2331882627 0.5046289328 -0.2328545019 -0.1539441295 0.0881210566
225298650.0 -0.1374053689 0.0985011024 0.5015795235 -0.2383264022 0.5016915011 -0.2380280027 -0.1534758094 0.0895966983
230298620.0 -0.1370718816 0.1001289337 0.4998594545 -0.2444442614 0.4996699362 -0.2444811945 -0.152538345 0.0906255288
235298590.0 -0.1359307265 0.1010671463 0.4968024451 -0.2499036276 0.496950023 -0.2504399302 -0.1515740434 0.0916478242
240298560.0 -0.1348911956 0.1024430103 0.4940356475 -0.2555691821 0.4943485816 -0.2556128412 -0.1509573173 0.0932357421
245298530.0 -0.1337997467 0.1039874307 0.4908631976 -0.2616132343 0.4910747486 -0.2618733596 -0.1499592105 0.094716317
250298500.0 -0.1330481896 0.1052733566 0.4885000112 -0.2667533659 0.4887745674 -0.2664150884 -0.148563824 0.0956584714
255298470.0 -0.1319880756 0.1068715563 0.4857169428 -0.2728047605 0.4856218787 -0.2725139574 -0.1480820421 0.0969100182
260298440.0 -0.1308220829 0.10819213 0.4831262538 -0.2781412055 0.4826305551 -0.2780113937 -0.1470103326 0.0982790773
265298410.0 -0.12945587 0.1099385988 0.4799098309 -0.284235213 0.4797636868 -0.2838579072 -0.1463107416 0.0993817206
270298380.0 -0.1282219336 0.1109215652 0.4759324953 -0.2890440668 0.4767805543 -0.2893396731 -0.1452757092 0.10128073
275298350.0 -0.127535721 0.1123925577 0.4734066481 -0.2951768075 0.4739817947 -0.2946932038 -0.1442102207 0.1024127235
280298320.0 -0.126315613 0.1139166389 0.470388784 -0.2992981405 0.4699547038 -0.2998578238 -0.143495561 0.103850416
285298290.0 -0.1248867436 0.1154065659 0.46698055 -0.3052472324 0.4669744195 -0.3051674963 -0.1428424748 0.1051538324
290298260.0 -0.1236749873 0.116679056 0.4636944935 -0.3103989524 0.4639810437 -0.3107151769 -0.1412827457 0.1069208128
295298230.0 -0.1225668117 0.1180136541 0.460710272 -0.3158432449 0.4603123615 -0.3157711824 -0.1402721523 0.1079680536
300298200.0 -0.1206928086 0.1193267731 0.4569449035 -0.3210273967 0.4569151507 -0.3211892932 -0.1396756542 0.1092060168
305298170.0 -0.1198066924 0.1207705606 0.4537093822 -0.3266468386 0.4539515396 -0.3265685582 -0.1382615265 0.1108369154
310298140.0 -0.1180580987 0.1216747064 0.4502005658 -0.3315290861 0.4500383292 -0.3324774744 -0.1369517698 0.1124570091
315298110.0 -0.1173119931 0.1231106264 0.4460864573 -0.3369847294 0.4466679194 -0.3369562843 -0.1355197579 0.1131446287
320298080.0 -0.1157822888 0.1244079817 0.4421663042 -0.3416638942 0.4425562053 -0.3420455294 -0.1349178627 0.1145322474
325298050.0 -0.1148513884 0.125564036 0.4392821887 -0.3474225484 0.4389997655 -0.3471321411 -0.1337985716 0.1159237305
330298020.0 -0.1133653299 0.127002361 0.4343465604 -0.352123912 0.4349062202 -0.3519748584 -0.1331983276 0.1169314306
335297990.0 -0.1119995545 0.1281874932 0.4305244509 -0.3569949385 0.4308174476 -0.3568451945 -0.1321442857 0.1185905476
340297960.0 -0.1114405163 0.1296880239 0.4265290421 -0.3619589541 0.4270317007 -0.361580118 -0.1311868312 0.1200085057
345297930.0 -0.1099540028 0.131054703 0.4221592392 -0.3661133109 0.4221643643 -0.3662252967 -0.1298111461 0.1209481723
350297900.0 -0.1083246649 0.1324766702 0.4183933817 -0.3705007992 0.4186977555 -0.3707615828 -0.1288665901 0.1229667623
355297870.0 -0.107207924 0.1335862277 0.4141544447 -0.3753557782 0.4142483369 -0.3758001286 -0.1278732908 0.124369258
360297840.0 -0.1055453679 0.1352307076 0.410062519 -0.3801842645 0.4099889883 -0.3803686212 -0.1266189691 0.1258452106
365297810.0 -0.1039437827 0.1361497234 0.4054257379 -0.3845953095 0.405656972 -0.3848781371 -0.1253083956 0.1274231958
370297780.0 -0.1023268757 0.1375281676 0.4013189612 -0.3887348106 0.4016905052 -0.3891597118 -0.1242051896 0.1287136458
375297750.0 -0.1015206001 0.1392785118 0.3976938022 -0.3934079685 0.3972596582 -0.3937271345 -0.1231643736 0.1303982123
380297720.0 -0.0994853525 0.1400922129 0.3927483029 -0.3975837773 0.3928600428 -0.3979213645 -0.1216698301 0.1321000002
385297690.0 -0.0980708006 0.1415452796 0.3883785577 -0.4015077593 0.3884179735 -0.4019994022 -0.1208410162 0.1331249561
390297660.0 -0.0968102779 0.1429718382 0.383908036 -0.4064566032 0.3841167033 -0.4066704711 -0.1192485332 0.1342687836
395297630.0 -0.0947264989 0.1437832703 0.3799725485 -0.4102878355 0.3798129186 -0.4103181619 -0.118132253 0.1360736351
400297600.0 -0.093493209 0.1454114492 0.3752846884 -0.4145983458 0.3756119207 -0.414724546 -0.117403726 0.1367032209
405297570.0 -0.0916884164 0.1466414312 0.3703489116 -0.4186419653 0.370703885 -0.4189854763 -0.1159621857 0.1387273955
410297540.0 -0.0898361369 0.1477577111 0.365186791 -0.4228031255 0.3657602368 -0.4226824994 -0.114428333 0.1396491953
415297510.0 -0.0884873582 0.1488669813 0.361392585 -0.4263655219 0.3613665391 -0.4265873755 -0.1132343384 0.1413174255
420297480.0 -0.086947725 0.1497414968 0.3564245973 -0.4310630271 0.3565647212 -0.4305947354 -0.1115902777 0.1422776075
425297450.0 -0.0847248697 0.1506832927 0.3515088244 -0.4347180269 0.3520702318 -0.4345051004 -0.1104244569 0.1438140072
430297420.0 -0.0834851986 0.1520124848 0.3469141836 -0.438783991 0.3471533901 -0.4385010163 -0.1092974312 0.1450854186
435297390.0 -0.0818278368 0.1529966368 0.3423724205 -0.4419274436 0.3423552878 -0.4420497329 -0.1078491246 0.1467171574
440297360.0 -0.0799921043 0.1540261935 0.3374648858 -0.4459485337 0.3368881766 -0.4456950541 -0.1060569277 0.1470191518
445297330.0 -0.0779407908 0.1550884926 0.3318213611 -0.4498659526 0.3324015391 -0.4494482787 -0.1050632111 0.1484060246
450297300.0 -0.076391236 0.1559236862 0.3274543957 -0.4529711284 0.3274679755 -0.4532742296 -0.1038071388 0.1501985356
455297270.0 -0.0750606927 0.1571360148 0.3228419102 -0.4565341929 0.3231589602 -0.4565344119 -0.1022076525 0.1513697013
460297240.0 -0.0732097049 0.158045512 0.3174718336 -0.4599166879 0.3171479179 -0.4600412741 -0.1006645906 0.1526265571
465297210.0 -0.0710931685 0.1588887043 0.3122288369 -0.4636821711 0.3128211326 -0.4633575445 -0.0995634564 0.1534203865
470297180.0 -0.0696554645 0.1598480377 0.307547783 -0.466703388 0.3077575129 -0.467006786 -0.0983825 0.1546960385
475297150.0 -0.0680375078 0.1603573235 0.3021802761 -0.4695519073 0.3026099135 -0.4694875216 -0.0962623513 0.1557883374
480297120.0 -0.0658958006 0.161412708 0.2969438593 -0.4735802513 0.2974741555 -0.473190149 -0.0953788811 0.1571671552
485297090.0 -0.0639280353 0.1624405692 0.2917870335 -0.4765517344 0.2923334324 -0.4763598236 -0.0939197103 0.1578935348
490297060.0 -0.062332653 0.1630494202 0.2871278534 -0.4800027579 0.2869764591 -0.4799377888 -0.091908738 0.1593535602
495297030.0 -0.060822934 0.16413555 0.2814810116 -0.4827012736 0.281104656 -0.4828904134 -0.090809835 0.1602347042
500297000.0 -0.05829723 0.1645973824 0.2758359125 -0.4857961857 0.2765690242 -0.4856351663 -0.0896687301 0.1612449634
505296970.0 -0.0568800118 0.1653831161 0.2706898477 -0.4884045738 0.2707469595 -0.4882938689 -0.0881631621 0.1623698947
510296940.0 -0.0548751186 0.1664912291 0.2656111626 -0.4918396382 0.2658387927 -0.4917006304 -0.0862828299 0.1636205302
515296910.0 -0.0532420725 0.1672505003 0.2598340772 -0.494223347 0.2601757861 -0.4942184869 -0.084789243 0.1644608709
520296880.0 -0.0513291175 0.1676411196 0.2547722791 -0.4966032472 0.2549976098 -0.4969608753 -0.083269785 0.1654291058
525296850.0 -0.049558107 0.1682382977 0.2492784054 -0.4994667887 0.2499067057 -0.4996521238 -0.0812833314 0.1663714701
530296820.0 -0.0476599224 0.1690594985 0.2440055707 -0.5017736767 0.2439666182 -0.502468677 -0.0801855108 0.1671539959
535296790.0 -0.0454547962 0.1698134153 0.2381139092 -0.5049902955 0.2387877488 -0.5046250532 -0.0783834319 0.168120339
540296760.0 -0.0439176124 0.1700762154 0.233109584 -0.5078640966 0.2325984966 -0.507940154 -0.0773084092 0.1693684611
545296730.0 -0.0418521722 0.1709762479 0.2272254772 -0.5093467323 0.2275001982 -0.5103203205 -0.0756447363 0.1699023123
550296700.0 -0.0402692079 0.171584667 0.2218245047 -0.5124634788 0.2223216959 -0.5126526337 -0.0739380724 0.1711098158
555296670.0 -0.0380441542 0.1718385414 0.2166156153 -0.5150781376 0.2166967971 -0.5151625199 -0.0724388002 0.1718225653
560296640.0 -0.0360588641 0.1727191235 0.2107805256 -0.5171027613 0.2108191729 -0.5168623574 -0.0706680534 0.1729031293
565296610.0 -0.034574521 0.1730148215 0.2049625243 -0.5190368332 0.2050136732 -0.5193977018 -0.0692393846 0.1733955507
570296580.0 -0.0322824325 0.1734832098 0.1994109606 -0.5213563633 0.1998218835 -0.5216629281 -0.0672851206 0.1749795196
575296550.0 -0.0302223025 0.1744525662 0.1936639051 -0.523611618 0.194231927 -0.5235444479 -0.0656334252 0.175438084
580296520.0 -0.0284917305 0.1746093143 0.1884020724 -0.5253223393 0.188119028 -0.5255116645 -0.0640855463 0.1758579712
585296490.0 -0.0263513078 0.1750730746 0.1829116922 -0.5275852643 0.1825971105 -0.5273642017 -0.0625754148 0.1764484997
590296460.0 -0.0249037936 0.1754240184 0.1764146187 -0.5292829535 0.1763941527 -0.5296944699 -0.0607668981 0.1778349751
595296430.0 -0.0228834412 0.1760416861 0.1713403075 -0.5314306961 0.1706036903 -0.5317063334 -0.058845422 0.177969413
600296400.0 -0.0207922509 0.1763230714 0.1653105937 -0.5331024436 0.1656022054 -0.5332006602 -0.0574545114 0.179033743
605296370.0 -0.0187369182 0.1767212024 0.1594965671 -0.5347259979 0.159525114 -0.5348176884 -0.0554791816 0.1799609344
610296340.0 -0.0167317402 0.1768974901 0.1539568444 -0.5366177567 0.1540504426 -0.5370085358 -0.0536794278 0.1809112442
615296310.0 -0.0147540938 0.1774560343 0.1472960349 -0.5376535307 0.1479285873 -0.5382441443 -0.0520364782 0.1810687036
620296280.0 -0.0127962443 0.1774514272 0.1419258078 -0.5393821067 0.1426218761 -0.5398368355 -0.0509832855 0.1814974049
625296250.0 -0.0108971562 0.1778489735 0.1359118821 -0.5412879967 0.1361872809 -0.5413652479 -0.0487380632 0.1825236659
630296220.0 -0.0086635265 0.1782782268 0.1300876244 -0.5423751152 0.1307206075 -0.5425740444 -0.0471206537 0.1832230376
635296190.0 -0.0065871304 0.1785605228 0.1244086259 -0.5433701969 0.1243790697 -0.5433327846 -0.0453694293 0.1834718738
640296160.0 -0.004769663 0.1784051209 0.1186524797 -0.544660056 0.1184958318 -0.5454846132 -0.0431903163 0.1842311516
645296130.0 -0.0030500009 0.1791855214 0.1127837717 -0.5466403093 0.1128280551 -0.5461504748 -0.0423983663 0.1842581091
650296100.0 -0.001254641 0.1794089948 0.1070719445 -0.5474140473 0.106901026 -0.5471697175 -0.0400884386 0.1851126248
655296070.0 0.0009035416 0.1792593964 0.1008235857 -0.5484264595 0.1008488676 -0.5486187699 -0.0382219491 0.1859223934
660296040.0 0.0027349372 0.1798719242 0.0952776967 -0.5492641307 0.0951434909 -0.5493280224 -0.0366903533 0.1861113734
665296010.0 0.0051032039 0.1795890295 0.0893848381 -0.5505244542 0.0898580194 -0.5506038148 -0.0352166843 0.1868551299
670295980.0 0.0075788696 0.1797964599 0.0828809668 -0.5514356072 0.0835538118 -0.5508485122 -0.0336024669 0.186938456
675295950.0 0.0093512756 0.1798767611 0.0770861896 -0.5521129044 0.0777187316 -0.5523927362 -0.0311938661 0.1879080016
680295920.0 0.0112157033 0.1800912675 0.0711210994 -0.5530149282 0.0708368923 -0.5530648034 -0.0292933275 0.1882250502
685295890.0 0.0132395133 0.1800968627 0.0653993349 -0.5538218048 0.0650293736 -0.5541928611 -0.0274574902 0.188750401
690295860.0 0.0152277863 0.1796214061 0.0593183406 -0.5538652097 0.0590207258 -0.5541029733 -0.0257587584 0.189370565
695295830.0 0.0175140335 0.1795551455 0.0525557819 -0.5548405036 0.0531056586 -0.5548583656 -0.0239933172 0.1894448989
700295800.0 0.0194731765 0.1797046842 0.0474636185 -0.5553964774 0.0477106638 -0.555764212 -0.022293274 0.1894539324
705295770.0 0.0215494814 0.1798890909 0.041285906 -0.5558957386 0.0415903036 -0.5560641302 -0.0206305844 0.1903174397
710295740.0 0.0233341576 0.1799214387 0.0354035231 -0.55616419 0.0353157269 -0.5560487932 -0.0192513444 0.1909948426
715295710.0 0.0251839303 0.179780286 0.0292407367 -0.5564207182 0.0295502326 -0.5565455462 -0.0168480026 0.1906173291
720295680.0 0.0273382478 0.1794479849 0.0231283924 -0.5566349513 0.0230602244 -0.5569990354 -0.0148192318 0.1910905987
725295650.0 0.0297044178 0.1790656408 0.0170293117 -0.5564244837 0.0172779201 -0.5568413872 -0.0133157909 0.1918985544
730295620.0 0.0311687911 0.1790069086 0.0115608775 -0.557056841 0.0112303306 -0.5570014489 -0.0113832262 0.1914294028
735295590.0 0.0337804429 0.1786934002 0.0053056725 -0.557294937 0.0058671549 -0.5571392838 -0.0092788246 0.1920499378
740295560.0 0.0355789176 0.1791204574 -0.0007320051 -0.5568985134 -0.0005136921 -0.556963389 -0.007252478 0.1919431944
745295530.0 0.0373571039 0.1784321588 -0.0067446463 -0.5567969245 -0.0062532226 -0.5570938424 -0.006017616 0.1926005544
750295500.0 0.0393599704 0.1780765103 -0.0124029037 -0.5566879911 -0.0126199477 -0.5568333876 -0.0038833748 0.1922436503
755295470.0 0.0417895516 0.1781058474 -0.0185310898 -0.5566783456 -0.0183513946 -0.5573580984 -0.0025246338 0.1930359241
760295440.0 0.043331236 0.1779116747 -0.0250105142 -0.5563368948 -0.0244591129 -0.5563793119 -0.0007557974 0.1930981644
765295410.0 0.0454220762 0.1768137313 -0.0301524887 -0.5559728766 -0.0300723452 -0.5560177853 0.0019858563 0.1934825895
770295380.0 0.0475957858 0.1769440448 -0.0366860925 -0.5552089067 -0.0365898973 -0.5559019706 0.0040026867 0.1935997457
775295350.0 0.0491780913 0.1766734714 -0.0426083019 -0.5547259009 -0.0423715225 -0.5552258788 0.0050846833 0.1930658357
780295320.0 0.0516637707 0.176277743 -0.047929317 -0.5548692819 -0.048130987 -0.5548327023 0.0071918888 0.1939657449
785295290.0 0.0535887683 0.1760694327 -0.0542630448 -0.5531958688 -0.054132468 -0.5542857096 0.0083717796 0.1938348356
790295260.0 0.0551757701 0.1753560492 -0.0600987243 -0.5536261792 -0.060266982 -0.5540447 0.0111136943 0.1937429744
795295230.0 0.0571218936 0.1751343858 -0.0657156984 -0.5524962309 -0.0661973949 -0.5527392186 0.0126288602 0.1942586523
800295200.0 0.0593794177 0.174730888 -0.0728728551 -0.5521032336 -0.0724500276 -0.5525092968 0.0144288735 0.1939768393
805295170.0 0.0610911091 0.1740709369 -0.0780378734 -0.5509489242 -0.0777743621 -0.5511609545 0.016210173 0.1937451754
810295140.0 0.0630889571 0.1735425953 -0.0840323995 -0.550269361 -0.0838458461 -0.5507973224 0.0183402231 0.1943030403
815295110.0 0.0651814044 0.1729401842 -0.0903881967 -0.5491321516 -0.0900741194 -0.5492613664 0.0199235277 0.1939577273
820295080.0 0.0669417016 0.1720599788 -0.0953833539 -0.5483722337 -0.0957570558 -0.548699616 0.0218024222 0.1939731927
825295050.0 0.0690379009 0.1715404916 -0.101889348 -0.5465941135 -0.1013419192 -0.5472508561 0.0238896555 0.1940365969
830295020.0 0.0709175886 0.1712806978 -0.1077766912 -0.5460017284 -0.1079158169 -0.5461648379 0.0254716947 0.1938016444
