!Created with skrf (http://scikit-rf.org).
# Hz S RI R 50.0 
!freq ReS11 ImS11 ReS21 ImS21 ReS12 ImS12 ReS22 ImS22
300000.0 -0.3136214406 -0.1313446494 0.3726698295 0.0650933416 0.3711444747 0.0683355577 -0.3169684101 -0.1336450433
5299970.0 -0.3250883655 0.0026240321 0.3786089272 0.0030360152 0.3788479915 0.0035104805 -0.3257337336 0.002023548
10299940.0 -0.3225563265 0.0141714365 0.3800879966 0.0028543183 0.3797214137 0.0030073271 -0.322992421 0.0126043469
15299910.0 -0.3189884217 0.0221810205 0.3818994144 0.0028022831 0.3822503886 0.0026035911 -0.3204549693 0.0198556723
20299880.0 -0.3155733316 0.0289519941 0.3852033033 0.0017579104 0.3852971293 0.0019578298 -0.3176071182 0.0258544934
25299850.0 -0.3114757352 0.0348607641 0.3885020608 0.0004308185 0.3887848681 0.0002510055 -0.3149597379 0.0311917059
30299820.0 -0.3082189589 0.039467244 0.3919201026 -0.0020086751 0.3920332466 -0.0021441488 -0.3118688066 0.0356836618
35299790.0 -0.3043960125 0.0434763227 0.3948433437 -0.0050650401 0.3953027763 -0.005357492 -0.3090344072 0.0398685013
40299760.0 -0.3012430883 0.0468651678 0.398553701 -0.0084498678 0.3987083555 -0.0088276605 -0.3063606499 0.0432469916
45299730.0 -0.2979973616 0.0498803022 0.4012005997 -0.0124922296 0.4015991777 -0.0126219798 -0.3033890993 0.0468172354
50299700.0 -0.2947589873 0.0528321877 0.403674731 -0.0170965782 0.4036901294 -0.0171600462 -0.3011183715 0.0496351818
55299670.0 -0.2924039908 0.0553161308 0.4056558299 -0.021465153 0.4057122945 -0.0217812311 -0.2991418343 0.0521812544
60299640.0 -0.289610735 0.0578995731 0.407996661 -0.0270165366 0.4077735023 -0.0268559835 -0.2970751477 0.0548405282
65299610.0 -0.2873954394 0.0601739376 0.4097054787 -0.0316598539 0.4096111056 -0.0319059879 -0.2949263957 0.0576368216
70299580.0 -0.2853355681 0.0620595128 0.4107738134 -0.0364944658 0.4112062361 -0.0366962903 -0.2937822328 0.0599089636
75299550.0 -0.2834363274 0.0644254556 0.4116250556 -0.0422390381 0.4120312952 -0.0420462827 -0.2917714941 0.0626788153
80299520.0 -0.2816777794 0.0666308271 0.4129865208 -0.0475327473 0.4132085836 -0.0473109205 -0.2905261265 0.0649897804
85299490.0 -0.2797932054 0.0684233901 0.4133959414 -0.0524694754 0.4136269974 -0.0525101341 -0.2890462981 0.066793064
90299460.0 -0.2783238448 0.0707963326 0.4136138065 -0.0575764765 0.413770444 -0.0577304691 -0.2875838092 0.06946748
95299430.0 -0.2767645926 0.0723150283 0.4139850412 -0.0628539642 0.4144786054 -0.0632616727 -0.2863578727 0.0720214556
100299400.0 -0.2753523422 0.0747220976 0.4140311308 -0.0679862288 0.4140559686 -0.0682154989 -0.285372669 0.0743954244
105299370.0 -0.2738094365 0.0768199608 0.4137672214 -0.0736002702 0.4141798259 -0.0735204744 -0.283898614 0.0761892317
110299340.0 -0.2726369448 0.0786972956 0.4139618275 -0.0780849188 0.4141204304 -0.078622725 -0.2830540406 0.078704301
115299310.0 -0.2717042773 0.081162879 0.4132929313 -0.0834420291 0.4135862965 -0.0838289992 -0.2819431617 0.0814493238
120299280.0 -0.2704991458 0.0832815941 0.4133182241 -0.0890242215 0.4129347742 -0.0890225008 -0.2809479421 0.0831569601
125299250.0 -0.2692021469 0.0854780261 0.4126970337 -0.0938343352 0.4126470853 -0.0938827394 -0.2799112188 0.0859871592
130299220.0 -0.2682025235 0.0873270445 0.4118223924 -0.0989601149 0.4118371479 -0.0994922969 -0.2788715177 0.0886823189
135299190.0 -0.2673563493 0.0897588885 0.4114542872 -0.1039171894 0.4116536482 -0.104184916 -0.2780832691 0.0906501751
140299160.0 -0.2663534191 0.0924434954 0.4108121625 -0.1092395303 0.4105597879 -0.1089238191 -0.2774029962 0.0931839029
145299130.0 -0.2653151869 0.0946919344 0.409298543 -0.1137795666 0.4095645496 -0.1138526905 -0.2764838024 0.0960807027
150299100.0 -0.2641151752 0.0968013694 0.4083618747 -0.118734139 0.4084131857 -0.1191750816 -0.2757495119 0.0986132712
155299070.0 -0.2631381642 0.0995699377 0.4068266302 -0.12378403 0.4072671137 -0.123776665 -0.2744267347 0.1010758181
160299040.0 -0.262474723 0.1021901429 0.4062707843 -0.1284524688 0.4063017811 -0.1288758634 -0.2738037273 0.103539064
165299010.0 -0.2611533649 0.1043229266 0.4050557091 -0.1329306488 0.4048624621 -0.1336338197 -0.2725933083 0.1058693358
170298980.0 -0.2603347192 0.1067340529 0.4031669679 -0.1383522335 0.4036351982 -0.1386792502 -0.2717644956 0.1088384799
175298950.0 -0.2591883751 0.1091881309 0.4021154552 -0.1429387347 0.4025594459 -0.143208425 -0.2708047191 0.1117237532
180298920.0 -0.2583225829 0.1116564145 0.4007334947 -0.1475872986 0.4006229655 -0.1481632008 -0.2697690119 0.1140746489
185298890.0 -0.2570351476 0.1143647419 0.3994851519 -0.1527148652 0.3991427178 -0.1527868277 -0.2686100535 0.1165748453
190298860.0 -0.2558212869 0.1170620866 0.39711773 -0.1572157271 0.3978270124 -0.1573774851 -0.2678512224 0.1195280507
195298830.0 -0.254790092 0.119784959 0.3958589868 -0.1617985747 0.3962412391 -0.1620372157 -0.2667634673 0.1222594103
200298800.0 -0.2535580429 0.1220491417 0.3941821156 -0.1668740298 0.394324931 -0.1667729562 -0.2655963432 0.1248116183
205298770.0 -0.2529734067 0.1246051336 0.3925775764 -0.170762713 0.392383719 -0.1709174037 -0.2643534089 0.1275748986
210298740.0 -0.2514447205 0.1272799539 0.3905538911 -0.1756291973 0.3904684402 -0.1756480528 -0.2635723234 0.1298777097
215298710.0 -0.2504877237 0.1298604083 0.3884870635 -0.1798012341 0.3888694722 -0.1804415112 -0.2622132283 0.1326259609
220298680.0 -0.2489746572 0.1325633754 0.3862890393 -0.1844853714 0.3866030667 -0.184669905 -0.2608558996 0.1354617974
225298650.0 -0.2478944912 0.1354837626 0.384561618 -0.1889984499 0.3848223631 -0.188852396 -0.2597544456 0.1380069961
230298620.0 -0.2464932044 0.1380308223 0.3824190144 -0.1933845215 0.3830246154 -0.1935299066 -0.2586144746 0.1406045874
235298590.0 -0.2457486344 0.1405850949 0.380898295 -0.1981202029 0.3807909025 -0.1978860103 -0.2573621574 0.1435435821
240298560.0 -0.244006068 0.1431041821 0.3781738775 -0.2018224912 0.3782948029 -0.2023285055 -0.2559861738 0.1461110199
245298530.0 -0.2426998697 0.1456849843 0.3758310018 -0.2065488391 0.3761726505 -0.2069045533 -0.2547815736 0.1488476556
250298500.0 -0.2415008682 0.1481328578 0.3738852053 -0.210730618 0.373981906 -0.2104912217 -0.2534485253 0.1516467383
255298470.0 -0.2400959153 0.1511790091 0.3716442136 -0.2145667908 0.3721399731 -0.215180318 -0.2519733082 0.1542924405
260298440.0 -0.2387291083 0.1536066849 0.3694130858 -0.2185933167 0.3693661839 -0.219054245 -0.2506662743 0.1568865191
265298410.0 -0.2375218488 0.1561185801 0.3668990373 -0.2235140962 0.3667478137 -0.2235963025 -0.248825662 0.1596201289
270298380.0 -0.235982057 0.1586282899 0.3642792132 -0.2274837589 0.3644021297 -0.2274204232 -0.2473766752 0.1624384731
275298350.0 -0.2344123233 0.161430383 0.3614696798 -0.2315059468 0.3619612925 -0.2315973664 -0.245648815 0.1653723267
280298320.0 -0.2330699551 0.1638989183 0.359429882 -0.2350955972 0.3597815053 -0.2356010675 -0.2442299151 0.1677740603
285298290.0 -0.23161476 0.1668199646 0.3565716439 -0.2394367561 0.3568657049 -0.2397139961 -0.2426241761 0.1707435758
290298260.0 -0.2300392123 0.1694173136 0.3545937874 -0.2433895064 0.3542170455 -0.2434980926 -0.2410747741 0.1727753334
295298230.0 -0.2285335215 0.1714787361 0.3512530324 -0.2477061304 0.3515409235 -0.2481330868 -0.2390697288 0.1754441424
300298200.0 -0.2269725681 0.1742729275 0.3489598628 -0.2513984836 0.3490698535 -0.2514772389 -0.237635444 0.1783276691
305298170.0 -0.2251659347 0.1763540074 0.3462717996 -0.2555766485 0.3463925603 -0.2557124681 -0.2355876455 0.1804129812
310298140.0 -0.2233082042 0.1790296224 0.3435412945 -0.2594445707 0.3438341494 -0.2595834947 -0.2340663057 0.1832104556
315298110.0 -0.2218492666 0.1812849916 0.3406005483 -0.2636701144 0.3405742081 -0.2638298483 -0.2320172658 0.1856861551
320298080.0 -0.2200278856 0.1838689578 0.3370333612 -0.2675626986 0.3376853484 -0.2675110448 -0.2303759123 0.1879904976
325298050.0 -0.2187641846 0.1856167703 0.3342985346 -0.270938369 0.3349610271 -0.2713130955 -0.2281796088 0.1904982363
330298020.0 -0.2168707107 0.1885454401 0.3315470849 -0.2750796302 0.3315962755 -0.2751600447 -0.2267674881 0.1931436277
335297990.0 -0.2150788014 0.1909404853 0.3281634151 -0.2785395656 0.3284016512 -0.278607348 -0.2248725011 0.1955420067
340297960.0 -0.2137433075 0.1934242224 0.3250064404 -0.2824364924 0.3250919556 -0.2822987312 -0.2231418217 0.1979927454
345297930.0 -0.2121095565 0.1956577153 0.3221613938 -0.2858308102 0.3223520423 -0.2859707439 -0.2211988099 0.2004807533
350297900.0 -0.2099314716 0.1977869444 0.3189311943 -0.2893876172 0.3193380225 -0.2892010183 -0.2194630098 0.2029007176
355297870.0 -0.2082016931 0.2001385883 0.3154309478 -0.2923095702 0.3155624853 -0.2927283202 -0.2169844419 0.2057677907
360297840.0 -0.2062719759 0.2026654008 0.3117265113 -0.2962199673 0.3126873925 -0.2965933201 -0.2149571339 0.2079170204
365297810.0 -0.2046472067 0.2051891345 0.3090424457 -0.2998725479 0.3088209076 -0.2997478495 -0.2133005455 0.2102552264
370297780.0 -0.2023422849 0.2074169044 0.3049761171 -0.3032327917 0.3056734002 -0.3026508631 -0.2110444859 0.2128047938
375297750.0 -0.2003448278 0.2094753238 0.3020598854 -0.3063440137 0.3025646824 -0.3066738076 -0.2089105477 0.2151847142
380297720.0 -0.1987000674 0.2122187902 0.2990186538 -0.3101641639 0.2988638609 -0.3099599832 -0.2064462052 0.2177109111
385297690.0 -0.196624648 0.2142261655 0.2954801273 -0.3127896841 0.2957843812 -0.3133583976 -0.2044916091 0.220243046
390297660.0 -0.1942442204 0.2161098522 0.2918294898 -0.3159347457 0.2924928775 -0.316027856 -0.2022364825 0.222293736
395297630.0 -0.192187084 0.2184527941 0.2886260164 -0.3189575871 0.2883762243 -0.3194532478 -0.1999998546 0.2245301791
400297600.0 -0.1901617235 0.2207497608 0.2849725188 -0.3223457385 0.2850754082 -0.3226028224 -0.197401372 0.2270723366
405297570.0 -0.1879682359 0.2223158984 0.2816041594 -0.3251840405 0.2816701059 -0.3257519976 -0.1949741389 0.2291572716
410297540.0 -0.1854386872 0.2247878478 0.2777466625 -0.3287505319 0.278214419 -0.3287857467 -0.1928799595 0.2317275972
415297510.0 -0.1834372707 0.2269304605 0.2742487505 -0.3318350562 0.2743585498 -0.3317714069 -0.1902489765 0.2332289771
420297480.0 -0.1811639657 0.2288417868 0.2703620477 -0.3348292714 0.2706396908 -0.3349509909 -0.1875538844 0.2359115464
425297450.0 -0.178308976 0.2307325283 0.2666258946 -0.3373326886 0.2670736511 -0.3376520141 -0.1856277375 0.237569764
430297420.0 -0.1768324838 0.2327228785 0.2636268798 -0.3405042492 0.2631434762 -0.3402529901 -0.1828715111 0.2401021956
435297390.0 -0.1741197822 0.2346918836 0.2591763416 -0.3434700586 0.2594231493 -0.3435310662 -0.1809138888 0.2425672686
440297360.0 -0.1715776662 0.2364148683 0.2553664529 -0.345792006 0.2556098249 -0.3461035627 -0.177909555 0.2442372055
445297330.0 -0.1692816863 0.2382949696 0.2517001733 -0.3485170075 0.2519628099 -0.3493064763 -0.175187317 0.2464838129
450297300.0 -0.1665234765 0.2402198629 0.2479988999 -0.3516281281 0.2483478036 -0.3516237441 -0.1726763377 0.2484060149
455297270.0 -0.1645544491 0.2423318943 0.2443121482 -0.354113616 0.244167157 -0.3543419336 -0.1700221008 0.2502218417
460297240.0 -0.1611883454 0.2440799021 0.2400640655 -0.35742203 0.2402759782 -0.3571135969 -0.1675168206 0.2523025459
465297210.0 -0.1589376725 0.2456878379 0.2358406516 -0.3597199796 0.2358700898 -0.3600019289 -0.1646179537 0.2546748362
470297180.0 -0.1564235783 0.2475403427 0.2320170867 -0.3617744058 0.2323151586 -0.3621371843 -0.1623311005 0.256040922
475297150.0 -0.1540681277 0.2495882064 0.2281683999 -0.364550159 0.2285386441 -0.3644625213 -0.1594350031 0.2579954365
480297120.0 -0.1510656817 0.2513436223 0.2240421843 -0.3674504076 0.2245233544 -0.3670402688 -0.1570505813 0.2598105436
485297090.0 -0.1487224004 0.2529720819 0.2199074273 -0.3698765069 0.2201201129 -0.3692617121 -0.1542316285 0.2617754142
490297060.0 -0.1452556576 0.2544630536 0.2157238898 -0.3718723149 0.2158883021 -0.3721849755 -0.1514066805 0.2632455949
495297030.0 -0.1429561496 0.2560534708 0.2122376237 -0.3738396991 0.2117462839 -0.3743708223 -0.1481013434 0.2650375522
500297000.0 -0.1405564649 0.2579877919 0.2079914908 -0.3760226077 0.2076095268 -0.3766694883 -0.1458035361 0.2670083584
505296970.0 -0.1372431719 0.2595284353 0.2038246012 -0.3789717981 0.2037986077 -0.3785937009 -0.1428060928 0.2681836464
510296940.0 -0.1344208695 0.2610918162 0.1994938817 -0.3812634439 0.1998260246 -0.3814100649 -0.1397540774 0.2705738826
515296910.0 -0.1316976757 0.2626602293 0.1948088095 -0.3826913375 0.1949892448 -0.3828929791 -0.1373029406 0.271424771
520296880.0 -0.1287264279 0.2642638981 0.1909499357 -0.3850669407 0.1906786479 -0.3851736587 -0.1338909566 0.273696396
525296850.0 -0.1262077525 0.2656678498 0.1867262826 -0.3870514034 0.1868268824 -0.3869880234 -0.1315677618 0.2750795964
530296820.0 -0.1234985776 0.267100656 0.182459279 -0.3888399356 0.1825557267 -0.3888535988 -0.1284995272 0.2761175636
535296790.0 -0.119923195 0.2686266775 0.1783224417 -0.3908524897 0.1783065915 -0.3910057562 -0.1254544031 0.2783308612
540296760.0 -0.1172162378 0.2702716514 0.173659401 -0.3928718172 0.1734947236 -0.39278947 -0.1222771642 0.2791893623
545296730.0 -0.1146834391 0.2717426793 0.1698464897 -0.394580907 0.1697046623 -0.3945748902 -0.1195989075 0.281096987
550296700.0 -0.1111869858 0.2727626994 0.1655196606 -0.3967577304 0.1648859316 -0.3964810561 -0.1162371123 0.2822038398
555296670.0 -0.1084082883 0.2743416897 0.1605470702 -0.3986924399 0.1608462729 -0.3981445234 -0.113826388 0.283116837
560296640.0 -0.1050070886 0.2752283288 0.1561619081 -0.3996625752 0.1568338793 -0.4001479832 -0.1107604372 0.2850035564
565296610.0 -0.1026138932 0.2768754336 0.152354788 -0.4016192882 0.152123587 -0.4013194163 -0.1073604002 0.28603863
570296580.0 -0.0992886298 0.2782304015 0.1476632328 -0.4030699841 0.1476320387 -0.4032945291 -0.1048593279 0.287383091
575296550.0 -0.0960766393 0.2791814796 0.1436530353 -0.4048889854 0.143270067 -0.4047960138 -0.1013814792 0.2886364389
580296520.0 -0.0934664741 0.2806746729 0.1389424809 -0.4061909266 0.1390407358 -0.4060968732 -0.098708921 0.2896088853
585296490.0 -0.0900054932 0.2817475188 0.1344951097 -0.407594643 0.1340711876 -0.407614189 -0.0950024646 0.2912981992
590296460.0 -0.086638155 0.2829292251 0.1300832092 -0.408971489 0.1300090688 -0.4091277231 -0.0925321936 0.2921474072
595296430.0 -0.0836753462 0.2838883363 0.1253141383 -0.4103165322 0.1250456442 -0.4104245073 -0.0893341141 0.2933547019
600296400.0 -0.0809330295 0.2851826745 0.1208158764 -0.4112961557 0.1206498004 -0.4119019696 -0.0860438728 0.2943393897
605296370.0 -0.0779998177 0.2865459065 0.1167073441 -0.4130260288 0.1163849386 -0.4130521005 -0.0832169276 0.2952966608
610296340.0 -0.0744578337 0.2876338716 0.1118598338 -0.4136100016 0.11205998 -0.4143372885 -0.0801841309 0.2963996534
615296310.0 -0.0713761679 0.2885353104 0.107321391 -0.4153806655 0.1068783639 -0.415419536 -0.0765848851 0.2973666261
620296280.0 -0.0686251993 0.2897267346 0.1028804242 -0.4164559931 0.1026925592 -0.4163395792 -0.0737662294 0.2982918661
625296250.0 -0.0656349426 0.2903893068 0.0983084601 -0.4174930021 0.098363951 -0.4176891958 -0.0708025639 0.2992350689
630296220.0 -0.062253554 0.2914646063 0.0934492823 -0.4184646053 0.0934589256 -0.4188471634 -0.0673216053 0.3001301815
635296190.0 -0.0591261698 0.2925388366 0.0894357029 -0.4194251936 0.0891437 -0.4195290929 -0.0642425233 0.3009391983
640296160.0 -0.0558683295 0.2932595229 0.0844900462 -0.4204867254 0.0844069611 -0.4203559843 -0.0610709045 0.3018672518
645296130.0 -0.0524512088 0.2944655398 0.0800847719 -0.4212788151 0.0798881299 -0.4208436044 -0.0580135343 0.3020252255
650296100.0 -0.0496475454 0.2948331433 0.0755014118 -0.422240417 0.0750049864 -0.4221371648 -0.054211638 0.303244464
655296070.0 -0.0468515902 0.2956774751 0.0705600897 -0.422951912 0.0704868736 -0.4226626733 -0.051675589 0.3042142856
660296040.0 -0.0433928199 0.2961318858 0.0665402695 -0.4231378276 0.0659837108 -0.4234159273 -0.0481088029 0.3044581436
665296010.0 -0.0405411068 0.2972544295 0.0615042905 -0.4240058857 0.0613416811 -0.4239513509 -0.0450068334 0.3053330523
670295980.0 -0.0373954766 0.2979620607 0.0567984094 -0.4246249368 0.0570836127 -0.4240816908 -0.0422069401 0.3055972338
675295950.0 -0.0340984526 0.2988464303 0.0522877544 -0.4248957338 0.0522910431 -0.4254166402 -0.0387460294 0.3065934076
680295920.0 -0.0314642738 0.2995497944 0.0479831913 -0.4254549664 0.0477774174 -0.4253974484 -0.035662094 0.3067401418
685295890.0 -0.0277842108 0.2999196862 0.0434544629 -0.4261791802 0.042970758 -0.4261516226 -0.0324581893 0.307706725
690295860.0 -0.0246586478 0.3006049766 0.0382952404 -0.4265529062 0.0383083845 -0.4267016037 -0.0293786534 0.3078790375
695295830.0 -0.0216346834 0.3009034965 0.0344836841 -0.4268878222 0.0339969401 -0.4267289214 -0.0259395708 0.308573932
700295800.0 -0.0181816241 0.3016658664 0.0295809156 -0.4272441854 0.0293823695 -0.427296617 -0.022592537 0.3086051306
705295770.0 -0.0156159985 0.3022149631 0.0248981177 -0.4274821918 0.0246805223 -0.4274503556 -0.0195692883 0.3093624901
710295740.0 -0.0125857814 0.3025837553 0.0205886632 -0.4278546777 0.0197897961 -0.428165901 -0.0160133594 0.3096844609
715295710.0 -0.0092643551 0.303012281 0.0156605737 -0.4276400078 0.0155195217 -0.4279258851 -0.0127408092 0.3095295325
720295680.0 -0.0055943571 0.3031910602 0.0108887055 -0.427609392 0.0106578202 -0.4282658518 -0.0095477981 0.3099429446
725295650.0 -0.0030403128 0.3038227584 0.0064573683 -0.427917214 0.0059280787 -0.4281823811 -0.0065166891 0.3106466465
730295620.0 -0.0002768817 0.3037058746 0.0016493577 -0.4276786241 0.0017878691 -0.4276576551 -0.0032859492 0.3109636756
735295590.0 0.0030537662 0.3044482944 -0.0029135789 -0.4278656042 -0.0030448532 -0.4282018735 2.08103e-05 0.3106386876
740295560.0 0.0059880621 0.3040886937 -0.0074301266 -0.4276992734 -0.0073260218 -0.4281266963 0.0028836618 0.3109851338
745295530.0 0.0090135065 0.3048560811 -0.0121510905 -0.4272323865 -0.011342769 -0.4277770423 0.006139658 0.3110483773
750295500.0 0.0121849355 0.3046660799 -0.0165433846 -0.4275318887 -0.0170973801 -0.4277913461 0.0096859863 0.3113949975
755295470.0 0.0152377217 0.3051950492 -0.0209536747 -0.4276638464 -0.0213465123 -0.427439898 0.0131412901 0.311572698
760295440.0 0.0184790851 0.3053079254 -0.0261942453 -0.4269305397 -0.0259816807 -0.4266046703 0.0164636938 0.3106508207
765295410.0 0.0214229641 0.3048165359 -0.0302242245 -0.4265479557 -0.0302255106 -0.4264370194 0.0195773115 0.3110181483
770295380.0 0.0245353105 0.3052176073 -0.0348688367 -0.4260521935 -0.0350358056 -0.426540189 0.0225005117 0.3110681535
775295350.0 0.027342063 0.3050674582 -0.0393322394 -0.4258516409 -0.0398663434 -0.4257073906 0.0259014761 0.3111533442
780295320.0 0.0308455862 0.3052613339 -0.0441155611 -0.4251499861 -0.0441521946 -0.4252710858 0.0293181163 0.3107720136
785295290.0 0.0336093996 0.3049114248 -0.0485058153 -0.4248054863 -0.048477318 -0.4248448948 0.0321188456 0.3107158298
790295260.0 0.0367302935 0.3042951404 -0.0532452752 -0.4242968302 -0.0531527154 -0.4244189906 0.0355396272 0.3106879869
795295230.0 0.0395090862 0.3042461667 -0.0577559072 -0.4236009231 -0.0578615814 -0.4238501298 0.0389259072 0.3101250064
800295200.0 0.0427090981 0.3042801464 -0.0621440077 -0.4224197836 -0.0625184041 -0.4232440029 0.0419239103 0.3099069924
805295170.0 0.0454083836 0.3039241237 -0.0666146249 -0.4223907566 -0.0669013629 -0.422416131 0.0456026268 0.3093707838
810295140.0 0.048908195 0.3036781132 -0.0713747434 -0.4212724735 -0.0715540135 -0.4213118324 0.048896657 0.3091090255
815295110.0 0.0516666042 0.303416917 -0.075730047 -0.4203477726 -0.075611818 -0.4209897608 0.0517225187 0.3090480658
820295080.0 0.0546497756 0.3030537098 -0.0800376729 -0.4196160195 -0.0801835433 -0.4199856501 0.0543661891 0.3090752699
825295050.0 0.057509847 0.3027111426 -0.0849745789 -0.418916895 -0.0851062885 -0.4192901214 0.0584363761 0.3084292062
830295020.0 0.061003215 0.3022833039 -0.0892219616 -0.4179255883 -0.0895265898 -0.4181324842 0.0613310681 0.3075178628
