!Created with skrf (http://scikit-rf.org).
# Hz S RI R 50.0 
!freq ReS11 ImS11 ReS21 ImS21 ReS12 ImS12 ReS22 ImS22
300000.0 -0.2394104552 -0.0733899601 0.471890279 0.0498598735 0.4654111087 0.0485386512 -0.2401028298 -0.0900215108
5299970.0 -0.2440368269 0.007692222 0.4730787055 0.004544368 0.4736782705 0.0048154597 -0.244012609 0.0073049358
10299940.0 -0.2407755041 0.0190900906 0.4753409698 0.0058742761 0.4753529751 0.0061948665 -0.2407025293 0.0204825111
15299910.0 -0.2368107603 0.0282961956 0.4792045886 0.0077752333 0.4792258041 0.0074973721 -0.2362527769 0.0296593983
20299880.0 -0.2318579649 0.0356498939 0.4839959558 0.0086092568 0.4838360265 0.0082049688 -0.2308740234 0.0376350695
25299850.0 -0.2270429678 0.0420684854 0.489057244 0.0073555726 0.4893158777 0.0073328768 -0.2249769335 0.0437718495
30299820.0 -0.2215807284 0.0470342052 0.4945904368 0.0052421426 0.4943042098 0.0055936769 -0.2190625036 0.0493117173
35299790.0 -0.2163780378 0.051409366 0.4998877699 0.0017312412 0.5000106203 0.0019860653 -0.2135709367 0.0532382792
40299760.0 -0.2114170662 0.0548773212 0.505022324 -0.0017317549 0.5051325828 -0.0017832426 -0.2080726915 0.0562135951
45299730.0 -0.2067431284 0.0574776065 0.5095697755 -0.0063763142 0.5098978705 -0.0066260844 -0.2031875258 0.05893716
50299700.0 -0.2025291132 0.0598176808 0.514300958 -0.011771424 0.5141330743 -0.011435884 -0.1986439026 0.0607278093
55299670.0 -0.1984192898 0.0618179562 0.5180645611 -0.0187381567 0.5178073356 -0.0180828165 -0.1943670602 0.0623355203
60299640.0 -0.1942569606 0.063465644 0.5209619095 -0.0244789441 0.5216076109 -0.0239804443 -0.1909790045 0.0631320267
65299610.0 -0.1911999959 0.0646705622 0.5238570829 -0.0307685643 0.5243198862 -0.0305430026 -0.1872823282 0.0640673572
70299580.0 -0.1882735861 0.066083184 0.52686342 -0.0375024183 0.5264640216 -0.0372227003 -0.1839810548 0.0651582927
75299550.0 -0.1848223636 0.0673659925 0.5282002686 -0.044155107 0.5284761549 -0.0442671866 -0.1811731007 0.0654309425
80299520.0 -0.1824283525 0.0680935622 0.5303177565 -0.0510007371 0.5305733576 -0.0512492302 -0.1784469701 0.0660915237
85299490.0 -0.1801582958 0.0689714272 0.5317734837 -0.0575635377 0.5317864946 -0.0574802965 -0.1759466329 0.0660628814
90299460.0 -0.1778647523 0.0697139005 0.5324703412 -0.0650843863 0.5329547536 -0.064628578 -0.1736842319 0.0669302059
95299430.0 -0.1753495572 0.0703259716 0.5338035824 -0.071531256 0.533686066 -0.0719869311 -0.1713067727 0.0672820639
100299400.0 -0.1740370581 0.0715285605 0.533727751 -0.0784024317 0.5339000756 -0.0786206818 -0.1694815509 0.0675446224
105299370.0 -0.1721403391 0.0724584443 0.5343267156 -0.0859860841 0.5345282101 -0.0855348457 -0.1677585942 0.0677632142
110299340.0 -0.1701908514 0.0732337284 0.5347126826 -0.0921008123 0.5343684929 -0.0923748175 -0.1663004987 0.0684161642
115299310.0 -0.168764019 0.0740813037 0.5344994522 -0.0991157616 0.5342131359 -0.0992045715 -0.1649257039 0.0687328506
120299280.0 -0.1673284699 0.074597106 0.5342052975 -0.1061713938 0.5343881916 -0.105929116 -0.1632382335 0.0695119405
125299250.0 -0.1659069006 0.0753979361 0.5339239328 -0.1125764429 0.533951488 -0.1123461081 -0.162451816 0.0693469078
130299220.0 -0.1651936501 0.076955873 0.5332698344 -0.119654539 0.5332489772 -0.1197721001 -0.1611922591 0.0701817263
135299190.0 -0.1637726888 0.0779879837 0.5327366573 -0.1262734282 0.5326829354 -0.1260980281 -0.1596940812 0.0709591782
140299160.0 -0.1628331794 0.0790487035 0.532005683 -0.132695801 0.5318151125 -0.1329069559 -0.1589714955 0.0721839917
145299130.0 -0.1615975785 0.0797838998 0.5314233064 -0.1394795598 0.5307603921 -0.1393008247 -0.1580279595 0.0728167503
150299100.0 -0.1601325634 0.0812022764 0.5297238976 -0.1457295821 0.5297411643 -0.1452000208 -0.1568539275 0.0740397278
155299070.0 -0.1594289149 0.0820149233 0.5287655854 -0.1529174298 0.5282915686 -0.1523862776 -0.1558071118 0.0747182638
160299040.0 -0.158310666 0.0832472909 0.5273136515 -0.1588762342 0.5269230488 -0.1589681417 -0.1555472596 0.075519469
165299010.0 -0.1574189006 0.0847753122 0.525797086 -0.1657069418 0.5257827602 -0.1657271925 -0.154180698 0.0766567769
170298980.0 -0.1564775646 0.0857160064 0.5244261164 -0.1718183774 0.5243197802 -0.1716688336 -0.1534142606 0.0775249727
175298950.0 -0.1557198691 0.0868734692 0.5231513042 -0.1779659761 0.5224846765 -0.1779353068 -0.1529343513 0.0787329734
180298920.0 -0.1547559304 0.0879880786 0.5209408072 -0.1841962846 0.520979222 -0.1842332728 -0.1518063066 0.0796610759
185298890.0 -0.1532682263 0.0894566653 0.5190954819 -0.1905533285 0.5186966868 -0.1903142895 -0.1511547279 0.0810044695
190298860.0 -0.1527589267 0.0909890737 0.5172990564 -0.1967322704 0.5173279243 -0.1964175077 -0.1506733802 0.0818247147
195298830.0 -0.1516401503 0.0920595631 0.5152794237 -0.2028806673 0.5151547447 -0.2026824361 -0.1496098324 0.0828937275
200298800.0 -0.1505546783 0.0934992297 0.5124628103 -0.2093143878 0.5133769676 -0.2092750508 -0.1494209749 0.084133025
205298770.0 -0.1499498914 0.0950275527 0.5107994552 -0.2152123262 0.5108803263 -0.2150175847 -0.1483879858 0.0849965901
210298740.0 -0.1491222623 0.0962125117 0.5087924708 -0.2206210907 0.5087222381 -0.2205894812 -0.1476495991 0.0865636901
215298710.0 -0.1482429751 0.0977722652 0.5062625647 -0.2270931907 0.5059186941 -0.2273529832 -0.147401135 0.0876423216
220298680.0 -0.1469646163 0.0987826514 0.503281421 -0.23260413 0.5039572112 -0.2326027893 -0.1465645601 0.0884834715
225298650.0 -0.1464888209 0.1005281037 0.5011898574 -0.238647236 0.5014334102 -0.238799646 -0.1464319175 0.0896391838
230298620.0 -0.1452610775 0.1018676772 0.4988531839 -0.2444966972 0.4992157103 -0.2445416963 -0.1455637492 0.0910175005
235298590.0 -0.144055942 0.103875512 0.4962783288 -0.2501518844 0.496061319 -0.2497527393 -0.1447112339 0.0921354885
240298560.0 -0.1433024609 0.1047980153 0.4936743633 -0.2562377463 0.4933504803 -0.256459388 -0.1441937487 0.0938249734
245298530.0 -0.1425022284 0.1065198767 0.4912615974 -0.2620741504 0.4906529119 -0.2620221397 -0.1428762417 0.0944692533
250298500.0 -0.1408901541 0.1081452881 0.4875697231 -0.2676093146 0.4875281138 -0.266919337 -0.1426816353 0.0956782994
255298470.0 -0.1401484298 0.1091417881 0.4840854673 -0.2726428625 0.4846887679 -0.2728938334 -0.1413365918 0.0967068092
260298440.0 -0.1390842082 0.1106667571 0.481797714 -0.2788706685 0.4820815015 -0.2784414489 -0.1407248855 0.0982915467
265298410.0 -0.1374322377 0.1124419046 0.4787829399 -0.2841607085 0.4790540292 -0.2839013181 -0.1400143911 0.0996469357
270298380.0 -0.1368376135 0.1137745414 0.4760552594 -0.2889978787 0.4760576991 -0.289177558 -0.1390856262 0.1005393564
275298350.0 -0.135126576 0.1152749626 0.4724285245 -0.2951870618 0.4726705223 -0.2950063158 -0.1380560035 0.1020412074
280298320.0 -0.1339882208 0.1166648655 0.469243595 -0.3001987918 0.4694371397 -0.2997246969 -0.1369044053 0.1030850271
285298290.0 -0.132808046 0.1182364701 0.4664494191 -0.3053233902 0.4660550484 -0.3055320034 -0.1360182799 0.1041320438
290298260.0 -0.1314295298 0.1195769322 0.4627388472 -0.3106128096 0.4626836737 -0.3110556401 -0.1353422097 0.1057562696
295298230.0 -0.1302507375 0.1208241916 0.4594508031 -0.3158084701 0.4593603232 -0.3161475424 -0.1336179813 0.1068094292
300298200.0 -0.1292477654 0.1224691437 0.4567135415 -0.3208649744 0.4562900228 -0.321478721 -0.1330370453 0.1079946364
305298170.0 -0.1278413217 0.1234364437 0.4522757498 -0.3267984216 0.4523884889 -0.3265325828 -0.1312336502 0.1089197187
310298140.0 -0.1264921295 0.1251855151 0.4491218052 -0.3319134361 0.4491424148 -0.3315106111 -0.1305109546 0.1101803511
315298110.0 -0.1251467277 0.1260414861 0.4452823305 -0.3366220353 0.4457718948 -0.3368877262 -0.1295984964 0.1114675916
320298080.0 -0.1236711954 0.1275970086 0.441281628 -0.3424805481 0.4415328229 -0.3420381632 -0.1285963094 0.112815172
325298050.0 -0.1227210636 0.1287460339 0.4377776324 -0.347340543 0.4381043768 -0.3469404724 -0.1277936407 0.1140597764
330298020.0 -0.1213648327 0.1299472793 0.433257748 -0.3521560263 0.4337358807 -0.3522654853 -0.1269936802 0.1147897535
335297990.0 -0.1200271196 0.1310374502 0.4295479825 -0.3569818515 0.4292194104 -0.3571938921 -0.1265591179 0.1170107154
340297960.0 -0.1192828119 0.1329776288 0.4255415546 -0.3618181583 0.4250618433 -0.3619493325 -0.1248991885 0.1179786562
345297930.0 -0.1178745973 0.1345668687 0.4213848659 -0.3668220542 0.421167505 -0.3664817546 -0.12402354 0.1190804899
350297900.0 -0.1165515628 0.1356255599 0.416836055 -0.3709782251 0.4170979969 -0.3710982782 -0.1233869558 0.1209443889
355297870.0 -0.1148855902 0.1376070187 0.4130890854 -0.3759931224 0.4131812768 -0.3756099481 -0.1223999489 0.1222580135
360297840.0 -0.1136366394 0.1386024943 0.4092131911 -0.3799640619 0.40939793 -0.3799787372 -0.1214668221 0.1235333297
365297810.0 -0.1125891837 0.140419147 0.4049391441 -0.3847587026 0.4048271598 -0.3847776381 -0.1200272702 0.1248026905
370297780.0 -0.1107026923 0.1411483155 0.4004299992 -0.3888226794 0.4006664534 -0.3887382563 -0.1193597622 0.1264478959
375297750.0 -0.1090795336 0.1427523777 0.3964774961 -0.3933501193 0.3963683286 -0.3935537479 -0.1179311634 0.1272888056
380297720.0 -0.1075316483 0.1442777492 0.3917365335 -0.398433608 0.3920037755 -0.3971580785 -0.1170824706 0.1286350511
385297690.0 -0.1064708052 0.1455153379 0.3869161475 -0.4021582548 0.3873734484 -0.4018016547 -0.116107139 0.1301878089
390297660.0 -0.1049010846 0.1471733682 0.3831020067 -0.4063337799 0.3832530849 -0.4059973784 -0.1149411251 0.1314827939
395297630.0 -0.1032695212 0.1481389338 0.378802054 -0.4101937333 0.3781345901 -0.4105402456 -0.1128124028 0.1326482541
400297600.0 -0.1016737922 0.1495041946 0.3735318074 -0.4148968494 0.3741633515 -0.4147277932 -0.1122931669 0.1337690429
405297570.0 -0.1002647715 0.1508330166 0.3692966678 -0.4185515823 0.3698375456 -0.4186595484 -0.1113126914 0.1353151943
410297540.0 -0.0984393767 0.1515444806 0.3650728332 -0.4225775194 0.364981981 -0.4228326803 -0.1096365757 0.1365400552
415297510.0 -0.0967103801 0.1529450075 0.3599275434 -0.4270087633 0.3601669419 -0.4268492999 -0.1087385924 0.1376024282
420297480.0 -0.0951634933 0.1544276449 0.355296157 -0.4306158596 0.3553327725 -0.4310088945 -0.1078233996 0.1383531813
425297450.0 -0.0934694253 0.1554278491 0.3510914065 -0.4347047412 0.3512297037 -0.4348162502 -0.106700091 0.1401437346
430297420.0 -0.091647795 0.1565322343 0.3459624974 -0.438005468 0.3459456779 -0.438261199 -0.1053169679 0.1408078491
435297390.0 -0.0902684712 0.1576962058 0.3409742276 -0.4420350254 0.3406498102 -0.4420952936 -0.1029861535 0.1423236469
440297360.0 -0.0882681084 0.1591082488 0.3356011397 -0.4453091411 0.3361957088 -0.4458798282 -0.1025233827 0.1429519553
445297330.0 -0.0867338651 0.1597224326 0.3315713785 -0.4493936258 0.3314880721 -0.4489924677 -0.100800869 0.1434948223
450297300.0 -0.0848310818 0.1608184624 0.3264744941 -0.4529889453 0.3260429317 -0.4536032929 -0.0995496245 0.1449975972
455297270.0 -0.0833771366 0.1619152591 0.3217384539 -0.456420304 0.3217658032 -0.4567166998 -0.0982262633 0.1458647314
460297240.0 -0.0816877793 0.1629883071 0.3159566244 -0.4601683223 0.3165549167 -0.459910704 -0.0967206302 0.1471476093
465297210.0 -0.0794392109 0.1641955077 0.3113250957 -0.4632630206 0.3113717864 -0.4637839922 -0.0950453058 0.1479514418
470297180.0 -0.0778606679 0.1649745743 0.3060224887 -0.4664835959 0.3060628158 -0.4668906178 -0.0937883403 0.1493067161
475297150.0 -0.0759925387 0.1656694603 0.3008297792 -0.4691917089 0.3011509313 -0.4697393377 -0.0918474797 0.1496565044
480297120.0 -0.0743059223 0.1671227672 0.2959263529 -0.4736303592 0.2958483334 -0.4735004512 -0.09037369 0.1511988519
485297090.0 -0.0725060115 0.1680792298 0.2906824815 -0.4764979201 0.2908417657 -0.4764121925 -0.0891618116 0.1520833938
490297060.0 -0.0708742107 0.1689918953 0.286014624 -0.4795894334 0.2856470663 -0.4795296558 -0.0876668847 0.1532236215
495297030.0 -0.0688573467 0.1698873958 0.2803430162 -0.4824875317 0.2806333302 -0.4830725407 -0.0862427557 0.1543348865
500297000.0 -0.0669969458 0.1705863941 0.2749657609 -0.4852925767 0.2746215868 -0.4855423897 -0.0845420133 0.1558270523
505296970.0 -0.0648161178 0.1715777093 0.2697110989 -0.4883645341 0.2695830354 -0.4887112432 -0.0832513222 0.1564695124
510296940.0 -0.0629386697 0.1723755799 0.2642797969 -0.4916179142 0.2644251562 -0.4916506366 -0.0815346762 0.1576768485
515296910.0 -0.0610546116 0.1730899903 0.2586098155 -0.4942866313 0.258677949 -0.4939457814 -0.0800480329 0.1584651942
520296880.0 -0.0595075347 0.1741242176 0.2538342918 -0.4973737776 0.2534468163 -0.4970439123 -0.0786525433 0.1590361689
525296850.0 -0.0573014624 0.1744533704 0.2479583344 -0.4996601675 0.2482370601 -0.499903975 -0.0769894603 0.1604613203
530296820.0 -0.0552757097 0.1757383974 0.2425498276 -0.5028360695 0.2425342685 -0.5020881124 -0.0754913291 0.1611291058
535296790.0 -0.0536781125 0.1763250025 0.237382742 -0.5045383092 0.2374946818 -0.5048059331 -0.0743011143 0.1619629578
540296760.0 -0.0518828611 0.1770729317 0.2314498682 -0.5082285882 0.2312326217 -0.5078290723 -0.0727280922 0.1632453908
545296730.0 -0.0498724296 0.1778389234 0.2260043988 -0.5100551867 0.2262224022 -0.5101703477 -0.0712949562 0.1640986756
550296700.0 -0.047602992 0.1787923295 0.2208828355 -0.5124033398 0.2204628994 -0.5128524843 -0.0695863631 0.165181888
555296670.0 -0.0458851908 0.1791393659 0.2150334422 -0.5146142525 0.2150563024 -0.5145170482 -0.0682543226 0.1661147379
560296640.0 -0.0435076517 0.1803551828 0.2092410703 -0.5172584867 0.2096829664 -0.5171862883 -0.0667572057 0.1667670584
565296610.0 -0.0418603926 0.1807752115 0.2030603918 -0.5192394573 0.203533176 -0.5192886935 -0.0651122486 0.1671638766
570296580.0 -0.0400160206 0.1813118953 0.1983890223 -0.5218722268 0.1974522582 -0.5214222269 -0.0634977309 0.1683595906
575296550.0 -0.0381669143 0.1822062378 0.1923819143 -0.5236300352 0.19244123 -0.5236497149 -0.0619768351 0.1687846077
580296520.0 -0.0357635364 0.1825495817 0.1864911457 -0.5260800221 0.186492903 -0.5257170485 -0.0601522261 0.1698929471
585296490.0 -0.0341672956 0.1826798338 0.1812511706 -0.527235001 0.1810907512 -0.5275128556 -0.0583687342 0.1705315998
590296460.0 -0.0315153407 0.1833500442 0.1753848462 -0.5286419714 0.1752389234 -0.5291680405 -0.0575297138 0.17110339
595296430.0 -0.0297913953 0.1839753631 0.1691706264 -0.5314952475 0.1690029733 -0.5313267021 -0.0556458595 0.1714534101
600296400.0 -0.0278799676 0.1842820098 0.1634923782 -0.5332934068 0.1636979048 -0.5331008193 -0.0541126665 0.1722847867
605296370.0 -0.0258845136 0.1850949513 0.1578405516 -0.5349212572 0.1579609567 -0.5347862514 -0.0522954744 0.1729468719
610296340.0 -0.0237548107 0.1852318774 0.151869007 -0.5366020889 0.1520120328 -0.5363896331 -0.0503039807 0.1732269482
615296310.0 -0.0213630195 0.1852048165 0.1457180689 -0.5376583761 0.1461391948 -0.5383985637 -0.0484811741 0.1740803565
620296280.0 -0.019688433 0.1855534353 0.1402033012 -0.5392482025 0.1402046974 -0.5393292096 -0.0470427633 0.1745961247
625296250.0 -0.0177624331 0.1856425166 0.1348474823 -0.5411866589 0.1345494705 -0.5418029965 -0.0449202218 0.1749519239
630296220.0 -0.014901144 0.1864072475 0.1279789946 -0.5420766677 0.1284736413 -0.542085502 -0.0433399997 0.1758856086
635296190.0 -0.0137867531 0.1866379219 0.122639234 -0.5436881349 0.122750002 -0.543724407 -0.0415971268 0.1764679422
640296160.0 -0.0117712954 0.1870173961 0.1171911611 -0.5446986154 0.1173078771 -0.5447071124 -0.0397261439 0.1768536511
645296130.0 -0.0093814308 0.1875799201 0.1110340582 -0.5462014819 0.1113238791 -0.5462954254 -0.0383399026 0.1775637571
650296100.0 -0.0072647031 0.1873993529 0.1047591066 -0.5469985373 0.1049410359 -0.5472182526 -0.0358313827 0.1775641849
655296070.0 -0.0054253887 0.1876114588 0.0992756593 -0.5480886898 0.0989311867 -0.5485983642 -0.0340832291 0.1782579307
660296040.0 -0.0036052653 0.1872947164 0.0935334971 -0.5491339331 0.0932921969 -0.5493776961 -0.0326014577 0.1788203817
665296010.0 -0.000772109 0.1875799757 0.086775909 -0.5503803038 0.0871638204 -0.5503596887 -0.0306533692 0.1797519161
670295980.0 0.0001326158 0.1882956284 0.0813958821 -0.5510856142 0.0812509608 -0.551237405 -0.0293534899 0.1798702129
675295950.0 0.0026142508 0.1883272857 0.0755060118 -0.5518004485 0.0755352353 -0.5515003309 -0.0274971754 0.180167265
680295920.0 0.0046748918 0.1883660727 0.069131508 -0.5521330656 0.0689149823 -0.5530256943 -0.0253084056 0.181133981
685295890.0 0.0069939511 0.1887098342 0.0636158871 -0.5534194803 0.0630982826 -0.5534210746 -0.0236972504 0.1813441535
690295860.0 0.0093393526 0.188657992 0.0572178336 -0.5535393928 0.057298405 -0.5541410083 -0.0222997785 0.1825646492
695295830.0 0.0114243246 0.1885028544 0.0516537969 -0.5542649099 0.0511553474 -0.554329105 -0.0201738856 0.1824794918
700295800.0 0.0132324799 0.1884475554 0.0454526898 -0.5549426186 0.0448787283 -0.5548270732 -0.0188041645 0.1835732136
705295770.0 0.015135888 0.189091751 0.0395115508 -0.5553921726 0.0397399516 -0.5550869149 -0.0171366553 0.1837907752
710295740.0 0.0174884564 0.188528394 0.0332203248 -0.5563391542 0.0339008527 -0.5559839749 -0.0152446514 0.1833442972
715295710.0 0.0194457784 0.1885082947 0.0276558221 -0.556212615 0.0273788037 -0.5559912771 -0.0132318582 0.1838727969
720295680.0 0.0214006044 0.1885803399 0.0217031854 -0.5565218709 0.0216272673 -0.5562173426 -0.0113630977 0.184595602
725295650.0 0.0236742382 0.1883332203 0.0154698041 -0.5565328399 0.0155799674 -0.5567397464 -0.0104826421 0.1850875897
730295620.0 0.0260353677 0.1883647999 0.0093762766 -0.5564093028 0.0094844195 -0.5570818918 -0.0083958902 0.1849275786
735295590.0 0.0278011874 0.1883641682 0.0036190657 -0.556528403 0.0031114935 -0.5565067346 -0.0065103618 0.1850197659
740295560.0 0.0297531515 0.1881820255 -0.0026146442 -0.5562483329 -0.0025239362 -0.5568186808 -0.0042688377 0.1857421836
745295530.0 0.031822668 0.1880683373 -0.008528849 -0.5563473547 -0.0089198805 -0.5561309897 -0.0028043586 0.1851120287
750295500.0 0.0339729032 0.1876880445 -0.0145478837 -0.5564365446 -0.0146047056 -0.5562267621 -0.0010910248 0.1858214894
755295470.0 0.0360638036 0.1871434688 -0.0202404139 -0.5560498515 -0.0205064398 -0.5561030784 0.0007029813 0.1855353816
760295440.0 0.0379835347 0.1869154665 -0.0266606988 -0.5559247255 -0.0267985452 -0.5560116643 0.002386742 0.1857264092
765295410.0 0.0400703205 0.1868388986 -0.0328368206 -0.5555551086 -0.0327856462 -0.5557404222 0.0042238096 0.1861615177
770295380.0 0.0417654208 0.1864624522 -0.0383749319 -0.5550072119 -0.03881112 -0.5549587893 0.0058431722 0.1862454946
775295350.0 0.0440640625 0.1855673857 -0.0449487212 -0.5542217417 -0.0443730867 -0.5546515303 0.0073008074 0.1860421973
780295320.0 0.0462524862 0.1855815509 -0.0510502754 -0.5534357631 -0.0503054164 -0.553862661 0.0093686678 0.1857493124
785295290.0 0.0479232592 0.1849602625 -0.0566801758 -0.5530800574 -0.0567979155 -0.5534660201 0.0116524964 0.1860747634
790295260.0 0.0506079732 0.1852223609 -0.0622778647 -0.5529376213 -0.0616881534 -0.5524536648 0.0133068671 0.1861576589
795295230.0 0.0521846342 0.1844887504 -0.0686473631 -0.5515844764 -0.0680621838 -0.551965682 0.015425354 0.1860916559
800295200.0 0.0539024318 0.1842017753 -0.0749657711 -0.5507751312 -0.0745143201 -0.5513072313 0.0171414237 0.1862088505
805295170.0 0.0563575925 0.1833572198 -0.0803309971 -0.5501486472 -0.0804540986 -0.5505671508 0.0186560547 0.185988298
810295140.0 0.0581470366 0.1824139586 -0.0858847758 -0.5488312149 -0.086120804 -0.549723773 0.0210739821 0.1860567375
815295110.0 0.0602104546 0.1821131737 -0.0917653208 -0.5477240381 -0.0916076877 -0.5481854162 0.0226885474 0.1860865882
820295080.0 0.0621302449 0.182207599 -0.0978060137 -0.5472880604 -0.097791338 -0.5469352428 0.0245235539 0.18578402
825295050.0 0.0645730713 0.181370851 -0.1035555023 -0.5457588024 -0.1037968171 -0.5460905086 0.0266357183 0.1858626143
830295020.0 0.0661494949 0.1808082275 -0.1097756062 -0.5444721629 -0.1096926492 -0.5447070566 0.0291949298 0.1857073332
