!Created with skrf (http://scikit-rf.org).
# Hz S RI R 50.0 
!freq ReS11 ImS11 ReS21 ImS21 ReS12 ImS12 ReS22 ImS22
300000.0 -0.0940189011 -0.1051618837 0.62119304 0.0968479284 0.6204197878 0.0974368499 -0.092973879 -0.1094069323
5299970.0 -0.1013379071 0.0112820672 0.6301376829 0.0108795901 0.6308059879 0.0116554767 -0.1016021466 0.010801639
10299940.0 -0.0969593683 0.0286164545 0.6349225237 0.0163996986 0.6345959276 0.0162079519 -0.0963765993 0.0283650308
15299910.0 -0.0890166265 0.0424409229 0.640422906 0.0212044375 0.6406210715 0.0213643617 -0.0898139152 0.0418359425
20299880.0 -0.080348648 0.0531610362 0.6490334193 0.0243254168 0.6488216366 0.0241930594 -0.0806861058 0.0527003024
25299850.0 -0.0700856709 0.0623147198 0.6583708137 0.026171617 0.658318444 0.0254597546 -0.0714552465 0.0617359596
30299820.0 -0.0608008173 0.0689756075 0.668284176 0.0244609615 0.6678451898 0.0243489455 -0.0615454052 0.0684181136
35299790.0 -0.0503966698 0.0732868699 0.6769110583 0.0216282737 0.6775634433 0.0216395086 -0.0520513995 0.0735874347
40299760.0 -0.0411380591 0.0765357621 0.6869505874 0.0176287573 0.6868869977 0.0177067256 -0.0427009702 0.076824894
45299730.0 -0.0318216615 0.0784582786 0.6955940548 0.0124644094 0.6958235031 0.011987669 -0.0328074876 0.0792645373
50299700.0 -0.022728938 0.0790301145 0.7033878067 0.0052278351 0.7038780352 0.0049691988 -0.0242406837 0.0804105307
55299670.0 -0.0151593262 0.0789488319 0.7113860845 -0.0021878986 0.7104665412 -0.0024670122 -0.0170775728 0.0805038258
60299640.0 -0.0077927312 0.0786365059 0.7181604468 -0.0108454024 0.7179064395 -0.0114489306 -0.0092112355 0.0795262187
65299610.0 -0.0011407071 0.0773485946 0.7244726989 -0.0201866789 0.7242703608 -0.019894415 -0.0022211424 0.0786946822
70299580.0 0.0054127563 0.0750587916 0.7294301968 -0.0286778988 0.7290604781 -0.0289900378 0.0031148627 0.0772239089
75299550.0 0.0107016885 0.0731654753 0.7331902013 -0.0393900454 0.7335141843 -0.0388321291 0.0090559243 0.0755621144
80299520.0 0.0155219017 0.0713815381 0.7376855418 -0.0483865343 0.7374873549 -0.0490269657 0.0140993806 0.0733797157
85299490.0 0.020230092 0.0690450176 0.7408822085 -0.0587215444 0.7411692779 -0.0582870678 0.0183532591 0.070918654
90299460.0 0.0240968359 0.0664914888 0.7434080893 -0.0688227238 0.7432973487 -0.0680304237 0.022648434 0.0693199666
95299430.0 0.0278153886 0.0641474659 0.7460152834 -0.0787133612 0.7460936874 -0.0790069184 0.025990203 0.0666986519
100299400.0 0.0316312841 0.0615529247 0.7481270675 -0.0891319227 0.7475259339 -0.0886080147 0.0293521769 0.0647373929
105299370.0 0.0343301984 0.0593488844 0.7490573466 -0.0989138043 0.7495269231 -0.0988082927 0.0328698834 0.0616059277
110299340.0 0.0372860874 0.0562857238 0.750484832 -0.108727822 0.7508519796 -0.1086200488 0.0350693581 0.0596242071
115299310.0 0.03976487 0.0543208261 0.7511206959 -0.1190504148 0.7512332465 -0.1187992755 0.037622057 0.0576256791
120299280.0 0.04192455 0.0520870275 0.7520407614 -0.1297328155 0.7519346813 -0.1293982288 0.0398419812 0.0547810278
125299250.0 0.0439813249 0.0495992105 0.7520359378 -0.1391509797 0.7519536425 -0.1384957337 0.0422461173 0.0528265496
130299220.0 0.0457830406 0.0471068282 0.7523874085 -0.1492222829 0.7519520708 -0.1494374966 0.0440664054 0.0508285372
135299190.0 0.0469796934 0.0452137703 0.7518690432 -0.1584402848 0.7517166977 -0.1586583257 0.0455656174 0.0483108459
140299160.0 0.0489013225 0.0431828814 0.7516723074 -0.1686298992 0.7511225834 -0.1681806391 0.0465179712 0.0455523041
145299130.0 0.0493712491 0.041018178 0.7501291469 -0.1781167592 0.7503856009 -0.1780126773 0.0482857533 0.0436456662
150299100.0 0.0507558101 0.0391559858 0.7493973205 -0.1883782349 0.7492751787 -0.1878237346 0.0495598136 0.0421459212
155299070.0 0.0525358852 0.0370955887 0.7479388725 -0.1973900042 0.7481800945 -0.1976025144 0.0507448268 0.0398037212
160299040.0 0.0534055244 0.0352499283 0.7466838738 -0.2072306457 0.7464279381 -0.2073023647 0.0513137073 0.0383901373
165299010.0 0.0545396433 0.0336449328 0.7457097229 -0.2164320896 0.7447699338 -0.2169131975 0.0524265572 0.0357718849
170298980.0 0.0550369145 0.0318735674 0.7431688253 -0.2260670624 0.7434254373 -0.2260229061 0.0528569034 0.0339975369
175298950.0 0.0558887144 0.0303467159 0.7419046775 -0.2350179729 0.7418242184 -0.2359920428 0.0538693739 0.0326305819
180298920.0 0.0563503784 0.0287184239 0.7392281466 -0.2445800951 0.7391608488 -0.2444474368 0.0542231039 0.0309618483
185298890.0 0.0568335693 0.0269354973 0.7376542544 -0.2533487101 0.7372807526 -0.2535011369 0.0554509865 0.0292290343
190298860.0 0.0578040902 0.025632681 0.7342154202 -0.2625389043 0.7350179 -0.2625062355 0.0554970516 0.0276208919
195298830.0 0.0576726855 0.0238627366 0.7321211822 -0.2710896035 0.7326791779 -0.2717544859 0.0558775095 0.0263363441
200298800.0 0.0586166616 0.0223549472 0.7299971137 -0.2809644778 0.7298845364 -0.2809760335 0.0565345244 0.0243342121
205298770.0 0.0583430579 0.0207284492 0.7266929662 -0.2894843876 0.7271292897 -0.2890641891 0.0568869104 0.0229061124
210298740.0 0.0590275035 0.0196936011 0.7244467871 -0.2979448018 0.723572273 -0.2983127238 0.0565858822 0.0211168362
215298710.0 0.0595411978 0.0183398295 0.7205804378 -0.3066408985 0.7208352355 -0.3071303308 0.0575701686 0.019887288
220298680.0 0.0596076834 0.0175431237 0.7173560177 -0.3155098077 0.7174279879 -0.3156335202 0.0575573517 0.0181613157
225298650.0 0.0598988671 0.0159698579 0.7140539135 -0.3243342871 0.7144397716 -0.3239304632 0.05769771 0.0164368128
230298620.0 0.0604614779 0.0149748353 0.7110689019 -0.3329418249 0.7113035581 -0.3331207495 0.057640693 0.0156024722
235298590.0 0.0597347414 0.0137827938 0.7080962888 -0.341714178 0.7077677936 -0.3411858544 0.0577154651 0.0145022265
240298560.0 0.0604771211 0.0127525598 0.7040630352 -0.3496201483 0.7040692656 -0.349501689 0.0581152439 0.0130796031
245298530.0 0.0602765959 0.0109640886 0.7003950871 -0.358084009 0.7004594175 -0.3581508734 0.0578820553 0.0120973095
250298500.0 0.0600509504 0.0100758724 0.6966110467 -0.3661941308 0.6967154304 -0.3656105855 0.0578687632 0.0108043139
255298470.0 0.0602405295 0.0096139067 0.6930716459 -0.3739781647 0.6934935299 -0.3744211079 0.0582407035 0.010027633
260298440.0 0.0604420841 0.0080909912 0.6891725783 -0.3819425807 0.6888754918 -0.3818908803 0.0576514795 0.0080874997
265298410.0 0.0599722053 0.0073634454 0.6843588773 -0.390878104 0.6840944284 -0.3908507397 0.0588953286 0.0067494979
270298380.0 0.0599192409 0.0060779034 0.6802405628 -0.3983548892 0.6806983057 -0.398075539 0.0583022645 0.0061541822
275298350.0 0.0605759139 0.0055099551 0.6755742977 -0.4062559611 0.6756062253 -0.4060216406 0.0580527814 0.0050411876
280298320.0 0.0599395503 0.0043492092 0.6720077244 -0.4134447589 0.6721742714 -0.4142661336 0.058508411 0.0040025946
285298290.0 0.0599353659 0.0034216417 0.6673432995 -0.4219612423 0.6673019872 -0.4212663249 0.0578237386 0.0029487694
290298260.0 0.0599244662 0.0025218281 0.6635960254 -0.4297278205 0.6630220565 -0.4295286794 0.0581910922 0.0018105167
295298230.0 0.0601586634 0.0011448474 0.6584273558 -0.4380215784 0.6580364338 -0.4378900791 0.0582917403 0.0002977358
300298200.0 0.0601054732 0.0007361356 0.6539170305 -0.4453867416 0.6536187915 -0.4449338376 0.057709419 -0.0005169008
305298170.0 0.0604961264 -0.0009837667 0.6494299789 -0.4536681383 0.6490786576 -0.4532952068 0.0578991889 -0.0021426831
310298140.0 0.0605082426 -0.001762802 0.6442068085 -0.460043229 0.6440562395 -0.4601070942 0.0580533337 -0.0035705378
315298110.0 0.0598172766 -0.0032027307 0.6394125798 -0.4686274505 0.6388517484 -0.4683726984 0.0576962941 -0.0045278631
320298080.0 0.0595625157 -0.0039162615 0.633071148 -0.4754182108 0.6343150696 -0.4762532003 0.0572806453 -0.0056063484
325298050.0 0.0588469341 -0.0055321864 0.6286036752 -0.4831421556 0.6290173401 -0.483320221 0.0569554663 -0.0063737006
330298020.0 0.0573788614 -0.0059890521 0.6224282454 -0.4902849772 0.6233303933 -0.4907469193 0.0561002013 -0.0077540159
335297990.0 0.0574370766 -0.0068096786 0.6171367935 -0.4977047328 0.617071626 -0.4975729557 0.0558707013 -0.0087493091
340297960.0 0.0570017175 -0.0078431775 0.6111980414 -0.5052243467 0.6109156818 -0.5047330297 0.0553305369 -0.0091411749
345297930.0 0.0563638922 -0.0083339346 0.6056841902 -0.5121129606 0.6057077208 -0.5120063494 0.055288664 -0.010075578
350297900.0 0.0559827452 -0.0091092174 0.5999912223 -0.5174871927 0.6004740527 -0.5178641959 0.0547121903 -0.0110870733
355297870.0 0.0555834755 -0.0098030105 0.5943238283 -0.5242256357 0.5941320436 -0.5243702713 0.0545661817 -0.0117338646
360297840.0 0.0553089297 -0.0102965948 0.5883844163 -0.5311377839 0.5883552565 -0.5319642793 0.0535411994 -0.0120278755
365297810.0 0.0543898894 -0.0111133029 0.5823744828 -0.5381285386 0.581818452 -0.5379942795 0.0528662879 -0.0131293869
370297780.0 0.0548476955 -0.0114613549 0.5758254263 -0.5444984716 0.5765271828 -0.5443895766 0.052758466 -0.0139054026
375297750.0 0.0542741419 -0.012189518 0.5708099883 -0.5507420707 0.5704878874 -0.5512683409 0.0530133555 -0.0144472762
380297720.0 0.0535606613 -0.0127658003 0.5646321651 -0.5577963431 0.5644606951 -0.5574699044 0.0521903051 -0.0149148614
385297690.0 0.0532119835 -0.0135592215 0.5582487559 -0.5636327773 0.558263871 -0.5641465267 0.0520726925 -0.0153623699
390297660.0 0.0530318297 -0.014318001 0.551903057 -0.5693694035 0.5523142423 -0.5698233989 0.0521469553 -0.0164569763
395297630.0 0.0530609178 -0.0148405014 0.5455934588 -0.5752884572 0.5459325626 -0.5755609191 0.0511950544 -0.0171445848
400297600.0 0.0519303951 -0.015898492 0.5395645594 -0.5820529153 0.5399246699 -0.5820802009 0.0514526851 -0.0170353812
405297570.0 0.0519726604 -0.0167975302 0.5332841653 -0.5873195488 0.5335416013 -0.5878393029 0.0510447685 -0.0179102372
410297540.0 0.0514882177 -0.0164691781 0.5264386626 -0.5935398417 0.5266740904 -0.5936158244 0.0506980562 -0.0186794767
415297510.0 0.0510552438 -0.0173715516 0.5203107644 -0.5993175397 0.5207065778 -0.5998049229 0.0504487237 -0.0190825314
420297480.0 0.0505726044 -0.0182494956 0.5137633623 -0.6055106917 0.5140129556 -0.6055827812 0.0503185134 -0.0193181969
425297450.0 0.0509764556 -0.0190101667 0.5067226942 -0.6110845324 0.5066923993 -0.6110984035 0.049973286 -0.0206216376
430297420.0 0.0498217567 -0.0195556659 0.5003748123 -0.6168188451 0.5003581148 -0.6162839594 0.0498505695 -0.0206354223
435297390.0 0.0499533283 -0.0202769215 0.4931635578 -0.6229234796 0.4932746594 -0.6222896819 0.0488521404 -0.0212131097
440297360.0 0.0497232058 -0.0210449476 0.4859812856 -0.6278041087 0.4859643033 -0.6281653684 0.0489192555 -0.0215486122
445297330.0 0.0492081318 -0.0219663493 0.4802933472 -0.6322217602 0.4793483165 -0.6332518028 0.0484663236 -0.0219536469
450297300.0 0.0487859379 -0.0219362616 0.4723387863 -0.6381917066 0.4726173139 -0.6379177192 0.0480464153 -0.0224901509
455297270.0 0.0479618002 -0.022834157 0.4661644106 -0.6433068574 0.4658979543 -0.6432430279 0.047710672 -0.0231556736
460297240.0 0.048003597 -0.0231422984 0.4586631951 -0.6494449586 0.4585619749 -0.6489072754 0.0474536961 -0.0240097976
465297210.0 0.0476358572 -0.0240285221 0.4508282227 -0.6540422351 0.4508206415 -0.6541223272 0.0476657769 -0.0237383994
470297180.0 0.0471796203 -0.0249330292 0.4441942696 -0.6586395844 0.4449209118 -0.6583818254 0.0471558358 -0.0250690989
475297150.0 0.0465611534 -0.0249624587 0.4369533105 -0.6628784111 0.4370817023 -0.6640506885 0.0466208023 -0.0253422719
480297120.0 0.0466920704 -0.0248956188 0.4297755806 -0.6683071124 0.4294905385 -0.6684154405 0.046015017 -0.0261147392
485297090.0 0.0462909655 -0.0267675232 0.4216424815 -0.6735140523 0.4221942023 -0.6731530914 0.0459663815 -0.0261815138
490297060.0 0.0461825821 -0.0264273016 0.4144694678 -0.677549743 0.4149911605 -0.6779855346 0.0452688833 -0.027007551
495297030.0 0.0453084835 -0.0277850323 0.4077165174 -0.6825752071 0.4077041225 -0.6825434379 0.0455390966 -0.027510889
500297000.0 0.0447188382 -0.0277418556 0.4000855355 -0.6864034135 0.4002054585 -0.6869666441 0.044877885 -0.0276677165
505296970.0 0.0449850619 -0.0280897256 0.3924134844 -0.6911761474 0.3925224522 -0.690994174 0.044390128 -0.0289970519
510296940.0 0.0444147072 -0.0289945961 0.384741306 -0.6968490799 0.3855223758 -0.6963848388 0.0444838265 -0.0286797767
515296910.0 0.0438167978 -0.0290625686 0.3768836056 -0.6992865938 0.3768689808 -0.7001352905 0.0438104803 -0.0301363263
520296880.0 0.0434400021 -0.0295666779 0.3690598305 -0.7036972078 0.3691374447 -0.7036447954 0.0439289758 -0.0295218962
525296850.0 0.0432051219 -0.0303610366 0.3619219609 -0.7074960627 0.3612889801 -0.7076191939 0.0436450245 -0.0300585497
530296820.0 0.0425822056 -0.0311254318 0.3537304966 -0.7123130157 0.3542433361 -0.7114557383 0.0431902398 -0.0312187544
535296790.0 0.0427896716 -0.0314911475 0.3464212431 -0.7152957734 0.3464200712 -0.7156874442 0.0430717695 -0.0310405174
540296760.0 0.0420946003 -0.031263892 0.3377752164 -0.7193267936 0.3382495321 -0.7193201493 0.0421654466 -0.0323230897
545296730.0 0.0409185505 -0.0319300304 0.3305498616 -0.7232992017 0.3303160164 -0.7230043325 0.0417940216 -0.0324773922
550296700.0 0.0417397052 -0.0323879733 0.3222403474 -0.7266014649 0.3221278995 -0.7269977725 0.0415616633 -0.0327198871
555296670.0 0.0405967107 -0.0328351388 0.3142760296 -0.7306154866 0.3144221872 -0.7303742952 0.0409282284 -0.0340370124
560296640.0 0.0410887066 -0.0331602186 0.3057753851 -0.7334147793 0.3065178981 -0.7334518042 0.0405218433 -0.0336568667
565296610.0 0.039772782 -0.0335709647 0.2986319369 -0.7373167667 0.2990404852 -0.7362796915 0.0400151681 -0.0340513834
570296580.0 0.0395333349 -0.0336744246 0.2902859464 -0.739882386 0.2909171487 -0.7406701947 0.0397130223 -0.0347668545
575296550.0 0.0391256524 -0.0343835555 0.2828049553 -0.743564035 0.2824828105 -0.743403109 0.0391464711 -0.034804425
580296520.0 0.0389181054 -0.0341925931 0.2739363574 -0.7461248685 0.273848445 -0.7468592775 0.0384200655 -0.0356840363
585296490.0 0.0381958912 -0.0345414278 0.2661263066 -0.7494191062 0.2658480153 -0.7492969915 0.0387128894 -0.0355829262
590296460.0 0.0385777351 -0.0350277604 0.2577271131 -0.7519953156 0.2575119721 -0.7525576569 0.0375910655 -0.0359207372
595296430.0 0.0377722554 -0.0353816289 0.2489070165 -0.7551580923 0.2491065493 -0.7552370891 0.0374443231 -0.0370535096
600296400.0 0.0376729283 -0.0357264276 0.2406479895 -0.7572481302 0.2411379206 -0.7576415675 0.0367704527 -0.0373721681
605296370.0 0.0364843552 -0.0362016151 0.2334900492 -0.7601917285 0.2327055169 -0.7603504712 0.0361169343 -0.0373690952
610296340.0 0.0365318997 -0.035455801 0.224819585 -0.7618110563 0.2243724556 -0.7622310372 0.0355115424 -0.0374923682
615296310.0 0.0362689292 -0.036414117 0.2161838107 -0.7654437326 0.2159261866 -0.7655610806 0.0353910784 -0.0377895394
620296280.0 0.0351522493 -0.0359861733 0.2072052725 -0.7679401518 0.2076911132 -0.7675433704 0.0340078117 -0.0381458258
625296250.0 0.034791822 -0.0368116795 0.1988206776 -0.7700214369 0.1995383875 -0.7701182012 0.0335401442 -0.0384607375
630296220.0 0.0342319196 -0.036908628 0.1904546046 -0.7722589685 0.190738889 -0.7719128827 0.0333556025 -0.0389388671
635296190.0 0.033365545 -0.0369231226 0.1822383758 -0.7735096242 0.1825636755 -0.7739090018 0.0328433789 -0.0392158523
640296160.0 0.0329722448 -0.0369612982 0.173490517 -0.7759848863 0.1736521153 -0.7756853446 0.031784889 -0.0395581026
645296130.0 0.0330322325 -0.0367462668 0.1651887209 -0.777625455 0.1657466938 -0.7777050312 0.0314124305 -0.0402748506
650296100.0 0.0321240437 -0.0372131907 0.1570065896 -0.7798941295 0.1567084917 -0.7798505131 0.0322350536 -0.0404774045
655296070.0 0.0316655827 -0.0377245072 0.1479690445 -0.7816817595 0.1481501605 -0.7809393685 0.0301448045 -0.0404686161
660296040.0 0.0312762623 -0.0374525718 0.1400525726 -0.7828993377 0.1399338802 -0.7830094961 0.0299393365 -0.041138101
665296010.0 0.0308042274 -0.0376540511 0.1305622309 -0.7839412723 0.1313482539 -0.7843272042 0.0293476246 -0.0408490538
670295980.0 0.0302162512 -0.0376792563 0.1221929359 -0.7853833796 0.1224486597 -0.7852671367 0.028332756 -0.0412937077
675295950.0 0.0293177704 -0.0381478988 0.1139193826 -0.7867758689 0.1143448483 -0.7868580232 0.0277391126 -0.0414739826
680295920.0 0.0290169522 -0.0380453727 0.1054939988 -0.7879797863 0.1059716724 -0.7875153077 0.0275775477 -0.0419426944
685295890.0 0.0285425971 -0.0379201648 0.0966466073 -0.7893151904 0.0968657819 -0.7892438361 0.0272109362 -0.0415407101
690295860.0 0.0274773822 -0.0380461721 0.0884334737 -0.7903520863 0.0880763011 -0.7901021305 0.0260408565 -0.0421877553
695295830.0 0.0273765606 -0.0384998274 0.0803716776 -0.7914022519 0.0797186279 -0.7907357577 0.0258374631 -0.0419067247
700295800.0 0.0267702164 -0.0383949336 0.0717875448 -0.7919111414 0.0716036479 -0.79159493 0.0247814744 -0.0421230561
705295770.0 0.0258394625 -0.0383748423 0.0626598794 -0.7935141147 0.0628708313 -0.7922052495 0.0244210632 -0.0423111355
710295740.0 0.0256301638 -0.0385863628 0.0540711035 -0.7932531708 0.0544368618 -0.7929484601 0.0240295278 -0.041988824
715295710.0 0.0248618876 -0.0381937578 0.0452597778 -0.7942114562 0.0455280038 -0.7938928045 0.0231525759 -0.0428153558
720295680.0 0.0246722591 -0.0384323331 0.0369547939 -0.7933947599 0.0369312436 -0.7944483038 0.0225154077 -0.0426916351
725295650.0 0.0234955938 -0.0382563794 0.0283875061 -0.7945618674 0.0280363173 -0.7942853082 0.0214808844 -0.0423535903
730295620.0 0.0225273765 -0.0389175242 0.0188987295 -0.7942617964 0.019466022 -0.7941072578 0.0210446175 -0.0421645259
735295590.0 0.0225557932 -0.0385553309 0.0110072107 -0.7950378937 0.0107433585 -0.7944167422 0.0200051365 -0.042768938
740295560.0 0.0216848616 -0.0386912367 0.0024344629 -0.7951074336 0.0028093334 -0.7947688741 0.0190991096 -0.0426458187
745295530.0 0.0208658071 -0.03849018 -0.0061343206 -0.7938608691 -0.0055866422 -0.7949104932 0.0181403498 -0.0430078866
750295500.0 0.0200659259 -0.0381995986 -0.0146743383 -0.79474781 -0.0152260466 -0.7944845962 0.0177010036 -0.0426113761
755295470.0 0.0193203253 -0.038602819 -0.0227680097 -0.7952581751 -0.0236004688 -0.7949155278 0.0173275452 -0.0421158063
760295440.0 0.0190291329 -0.0381389817 -0.0328097755 -0.7940460724 -0.0319195691 -0.7934423421 0.0168249445 -0.0436742385
765295410.0 0.0188814577 -0.0385272059 -0.0406962549 -0.793546705 -0.04009608 -0.7933710863 0.0163536878 -0.0429323813
770295380.0 0.01796529 -0.0382600925 -0.0486905687 -0.7923102463 -0.0492318754 -0.7932456514 0.0151342205 -0.0426727195
775295350.0 0.0173389219 -0.0385899524 -0.0579211814 -0.7927597462 -0.0573591131 -0.7919225902 0.0151765981 -0.042683459
780295320.0 0.016181409 -0.0380827677 -0.0667202703 -0.7913191921 -0.0658374918 -0.7914436186 0.0144771454 -0.0431526913
785295290.0 0.015584878 -0.0383077078 -0.0746565213 -0.7909680481 -0.0749453653 -0.7909903258 0.01277643 -0.0422470006
790295260.0 0.0156672278 -0.0385997082 -0.083037316 -0.790263142 -0.0835161813 -0.7905127802 0.0123964401 -0.0420169334
795295230.0 0.0145371502 -0.0385280495 -0.0925760279 -0.7895128373 -0.0921296376 -0.7899076488 0.0120428601 -0.0430328489
800295200.0 0.0135523577 -0.0379095514 -0.1003914582 -0.7874193505 -0.1007806723 -0.7878244687 0.0112813473 -0.0422785343
805295170.0 0.0131025752 -0.03834446 -0.1090053006 -0.7868794579 -0.1089856471 -0.7872093241 0.0112323895 -0.0419773988
810295140.0 0.01288139 -0.0380015473 -0.1181188053 -0.7852943137 -0.1177817205 -0.7857338419 0.0102440565 -0.0419987836
815295110.0 0.0118368747 -0.0381380217 -0.1259859188 -0.7848282792 -0.125674003 -0.7845708071 0.0091880515 -0.0421587967
820295080.0 0.0115711079 -0.0379928737 -0.1340635018 -0.7827230805 -0.1340552493 -0.7832428064 0.0080373477 -0.0411839447
825295050.0 0.0105836113 -0.0378728553 -0.1429111527 -0.7817208554 -0.1428422398 -0.7807781216 0.0087774732 -0.040962006
830295020.0 0.0098691901 -0.0377513013 -0.1515154199 -0.7795237075 -0.1515285925 -0.7800252994 0.007598443 -0.0417638362
