!Created with skrf (http://scikit-rf.org).
# Hz S RI R 50.0 
!freq ReS11 ImS11 ReS21 ImS21 ReS12 ImS12 ReS22 ImS22
300000.0 -0.3193784245 -0.1051589813 0.3726260425 0.0534079243 0.37508031 0.0571683302 -0.3173847795 -0.1133686347
5299970.0 -0.323851686 0.0048070229 0.378931711 0.0025227482 0.3782965022 0.0031351313 -0.3260549438 0.0026419582
10299940.0 -0.3209621605 0.0155671487 0.3800935823 0.0022104113 0.3796698221 0.0023997211 -0.3244769703 0.0126207776
15299910.0 -0.3182422572 0.0234238214 0.382168979 0.0021546298 0.3820116424 0.0024420625 -0.3214121878 0.0196346756
20299880.0 -0.3144469821 0.0301659818 0.384885606 0.0019308583 0.3852060933 0.0017192089 -0.3188391602 0.0257335284
25299850.0 -0.3107058855 0.0357121324 0.3886243091 0.0001075992 0.3883971599 -5.88076e-05 -0.3156776458 0.0308349856
30299820.0 -0.3066106456 0.0403493101 0.3921395265 -0.0021240038 0.3915237831 -0.0022256277 -0.3130457654 0.0355027953
35299790.0 -0.3030583606 0.0447318581 0.3954116515 -0.0054347075 0.3953728747 -0.0054907091 -0.3100023535 0.039438566
40299760.0 -0.2996072703 0.0484582607 0.3985252528 -0.0087641517 0.398505479 -0.0089564511 -0.3073435987 0.043321371
45299730.0 -0.29620639 0.0517136345 0.4013188353 -0.0130758032 0.4012001398 -0.0126484562 -0.3049029917 0.0461524663
50299700.0 -0.2932094977 0.0542505312 0.4033608482 -0.0175400968 0.4039374123 -0.0174467473 -0.3021724169 0.049091489
55299670.0 -0.2907475341 0.0570323512 0.4055427191 -0.0220618308 0.4059180637 -0.0218031805 -0.3005222731 0.0517261129
60299640.0 -0.2880571196 0.0591788834 0.407476876 -0.0270400922 0.4075368184 -0.0270045387 -0.2982764157 0.0544447076
65299610.0 -0.2860983669 0.0614527405 0.4092557614 -0.031404682 0.4096282905 -0.0317598461 -0.2965364943 0.0570972143
70299580.0 -0.2838727828 0.0635182216 0.4106706895 -0.0366766618 0.4103067102 -0.0369167773 -0.2946248748 0.0591153581
75299550.0 -0.2819855484 0.0657576803 0.4115676344 -0.0420045279 0.4115091583 -0.0422035978 -0.292982379 0.0618745639
80299520.0 -0.2803136731 0.0682317752 0.4124905406 -0.0473846448 0.4129073419 -0.0471279262 -0.2918245916 0.0638525226
85299490.0 -0.2784501326 0.0698462145 0.4132982113 -0.0526558085 0.412873116 -0.0530237233 -0.29022783 0.066325943
90299460.0 -0.2770303027 0.0722812992 0.4134612623 -0.0576479975 0.4139157608 -0.0581249265 -0.2887471728 0.0688036636
95299430.0 -0.2755144692 0.0743900006 0.4143318781 -0.0633408185 0.4140174293 -0.0630891637 -0.2876124457 0.0713910776
100299400.0 -0.274411538 0.0765140721 0.4137568935 -0.0682332996 0.4136966814 -0.0684673204 -0.2864685862 0.0731156958
105299370.0 -0.273235347 0.0785333715 0.4133448405 -0.0734100865 0.4139080918 -0.073496418 -0.2852441333 0.0753926899
110299340.0 -0.272028726 0.0805230894 0.4134046989 -0.0784124173 0.4133950099 -0.0786960893 -0.2845018195 0.0776527205
115299310.0 -0.2707619367 0.082337597 0.4130167016 -0.0835796301 0.4135044497 -0.0837251197 -0.2830812166 0.0802401613
120299280.0 -0.2698680857 0.0844746963 0.4128845539 -0.0888777464 0.4129936137 -0.0892273672 -0.2821529407 0.082659284
125299250.0 -0.2689353024 0.0869765271 0.412439831 -0.0939649971 0.4124443604 -0.0940683474 -0.2812376247 0.0846080181
130299220.0 -0.2676796593 0.0892005227 0.4115971729 -0.0986266545 0.4115496487 -0.099244211 -0.2808405024 0.0872321135
135299190.0 -0.2665593981 0.0909758545 0.4106970949 -0.1034953421 0.4107246896 -0.1040696471 -0.2796693859 0.0895279747
140299160.0 -0.2658816687 0.0936756204 0.410371922 -0.1089067192 0.4104828394 -0.1091612677 -0.2784183546 0.092037916
145299130.0 -0.2646596426 0.0957276812 0.4094454603 -0.1141842197 0.4090774879 -0.1136421829 -0.2775804882 0.0942956672
150299100.0 -0.2638926203 0.0980640568 0.4081480786 -0.1186572391 0.4083855408 -0.1191001677 -0.2769349697 0.0967586775
155299070.0 -0.2628003047 0.1010091453 0.4072968417 -0.1242599886 0.4069679956 -0.1239433025 -0.2760803421 0.0994870503
160299040.0 -0.2617592702 0.103108993 0.4059129911 -0.1283085913 0.4059408116 -0.128790742 -0.2749844857 0.1023062709
165299010.0 -0.26093224 0.105535048 0.4048719398 -0.1337047856 0.4048941471 -0.1338437923 -0.2741624 0.1043883786
170298980.0 -0.2604199726 0.1077120222 0.4030238489 -0.1383456189 0.4031609123 -0.1383977515 -0.2730651998 0.107440694
175298950.0 -0.2591775019 0.1107322021 0.4022321173 -0.1432508502 0.4020547042 -0.1431883707 -0.2721712648 0.1097895155
180298920.0 -0.2578027243 0.1126971236 0.4003568323 -0.1481432902 0.4007580409 -0.1479730564 -0.271017987 0.1125958972
185298890.0 -0.2568763298 0.1151756177 0.3986736715 -0.1528727717 0.3987817193 -0.1526690325 -0.2703063963 0.1147940874
190298860.0 -0.2558413422 0.117556837 0.3972002408 -0.1573628299 0.3975066161 -0.1576081379 -0.2688156861 0.1175626392
195298830.0 -0.2545742356 0.1201159902 0.3958890051 -0.1617572517 0.3958308989 -0.1620389512 -0.267990495 0.1199977757
200298800.0 -0.2536569414 0.1226874471 0.394087491 -0.166230495 0.3942277536 -0.1663969154 -0.2667050051 0.1230051673
205298770.0 -0.2526086562 0.1251105079 0.3926049068 -0.1710590405 0.392596173 -0.1711105999 -0.2656083686 0.1251811399
210298740.0 -0.2514200144 0.1275740259 0.3907021603 -0.1759213695 0.3906441401 -0.1757950524 -0.264500141 0.1282705533
215298710.0 -0.2503193647 0.1303896722 0.3885701651 -0.1800550257 0.3886925278 -0.1800504113 -0.2637604894 0.1309145923
220298680.0 -0.2491911659 0.1327931131 0.3865403401 -0.1849268291 0.3868931139 -0.1848181594 -0.261830979 0.1337182262
225298650.0 -0.2475993792 0.1355066491 0.3841254281 -0.1889647188 0.3844667076 -0.1889690434 -0.2610898394 0.1365841127
230298620.0 -0.2468534056 0.1382036188 0.3827117053 -0.193690337 0.3828762106 -0.1935573804 -0.2596948589 0.1387433447
235298590.0 -0.2453509612 0.1405321072 0.3803258186 -0.1979248201 0.3804263133 -0.198179989 -0.2584823549 0.1415761999
240298560.0 -0.2440840357 0.1432654139 0.3780925777 -0.2017978648 0.3785115901 -0.2019032002 -0.2571669792 0.1444830327
245298530.0 -0.2427420054 0.145632677 0.3754888165 -0.2066869135 0.3763061687 -0.2064697253 -0.2558811273 0.1470879933
250298500.0 -0.2415507123 0.1483282846 0.373679757 -0.2105317693 0.3739734267 -0.2102656089 -0.2543286932 0.149756429
255298470.0 -0.2400860356 0.1510681503 0.3712460198 -0.215209085 0.3717058983 -0.2148189772 -0.2527073473 0.1524018496
260298440.0 -0.2386067882 0.1533727595 0.3692669656 -0.2189566459 0.3690540306 -0.2192099969 -0.2509505587 0.1551946444
265298410.0 -0.2370302083 0.1560433637 0.366605124 -0.2236048491 0.3665292025 -0.2233706443 -0.2496852074 0.1577427007
270298380.0 -0.2352614979 0.1586750927 0.3637915574 -0.2276721686 0.3642470408 -0.2277115924 -0.2480469633 0.1605503763
275298350.0 -0.234312902 0.1613797901 0.3618558122 -0.2319575116 0.3619352987 -0.232096628 -0.2465411107 0.1633041417
280298320.0 -0.2326388201 0.1638195341 0.3590203456 -0.235422711 0.3590027665 -0.2358099845 -0.2448672543 0.1660350925
285298290.0 -0.2307809196 0.1663770216 0.3567290596 -0.2398563984 0.3566685186 -0.2400146085 -0.2431283487 0.1684397945
290298260.0 -0.2292992928 0.1688118501 0.3540374941 -0.2438634737 0.3540456003 -0.2440853039 -0.2413474391 0.1712870226
295298230.0 -0.2278059917 0.1712340101 0.3511311446 -0.2479016062 0.3509570434 -0.2482030209 -0.2394543482 0.17395631
300298200.0 -0.2256295781 0.1736782913 0.3483726403 -0.2518291634 0.3485159639 -0.2520221827 -0.2377760027 0.1766598989
305298170.0 -0.223946043 0.1760025492 0.345875236 -0.2560390838 0.3461226148 -0.2560176336 -0.2355525741 0.1794718792
310298140.0 -0.2220080667 0.1783833351 0.3428955522 -0.2597442208 0.3432809338 -0.259977314 -0.2342145996 0.1821531254
315298110.0 -0.2205917662 0.1809375027 0.3399958417 -0.2639954102 0.3403551984 -0.2639366715 -0.2320818723 0.1845306428
320298080.0 -0.218773086 0.1835167967 0.3372637972 -0.267809515 0.3371995446 -0.2677385392 -0.2303901592 0.1871309448
325298050.0 -0.2170903984 0.1851681423 0.3343383358 -0.2717155987 0.3341800235 -0.2716942966 -0.2284301371 0.1896752341
330298020.0 -0.2153034015 0.1880735256 0.3306248526 -0.2754770243 0.3308201642 -0.2751424482 -0.2268999824 0.1918738145
335297990.0 -0.2133651639 0.1903165658 0.3277117109 -0.2792317156 0.3280431463 -0.2789909305 -0.2247584663 0.1942965752
340297960.0 -0.2116695015 0.1928126419 0.3244887176 -0.2827221293 0.3247092192 -0.2825526156 -0.2226403698 0.1969103696
345297930.0 -0.2099514198 0.1952991405 0.3211493955 -0.2858518723 0.3211294028 -0.2859885029 -0.2207822303 0.1997248868
350297900.0 -0.2075434529 0.1976257944 0.3179942597 -0.2894475943 0.3181525601 -0.2898948909 -0.2190043379 0.2025650492
355297870.0 -0.2059852191 0.2000435227 0.3147817103 -0.2929885682 0.3148776046 -0.293212781 -0.2168519723 0.2048550797
360297840.0 -0.2036729973 0.2024238604 0.3115977349 -0.2967601639 0.3116107338 -0.2965625443 -0.2147827458 0.2073317878
365297810.0 -0.2014903723 0.2046332634 0.307652695 -0.3000619616 0.3082408343 -0.3002564519 -0.2125432686 0.210002929
370297780.0 -0.1996590286 0.206439892 0.3045139055 -0.3031369457 0.3049838716 -0.3037091204 -0.2104649324 0.2123713681
375297750.0 -0.197410594 0.2093869297 0.301926637 -0.306977384 0.3015254346 -0.3068927652 -0.2080899428 0.214843439
380297720.0 -0.195273449 0.2113850304 0.2980859386 -0.3098991014 0.2981597087 -0.3099222082 -0.205915307 0.2175730518
385297690.0 -0.192928086 0.2138648869 0.2944226341 -0.3130682273 0.2945529599 -0.313102272 -0.204039943 0.2198101612
390297660.0 -0.1911998231 0.2157435359 0.2912872702 -0.3165765865 0.2909247052 -0.3166456709 -0.20155942 0.2218078479
395297630.0 -0.1887826293 0.2179728953 0.2877614046 -0.3195573035 0.2874132967 -0.3197263851 -0.1990480789 0.2247458777
400297600.0 -0.1864392229 0.220456552 0.2837985095 -0.3229395085 0.2842778987 -0.3228522196 -0.197388065 0.2265580497
405297570.0 -0.1842670333 0.222259113 0.2805840994 -0.3259670407 0.2806711166 -0.3260088074 -0.1947914716 0.2294909062
410297540.0 -0.1817970927 0.2242835597 0.2763398754 -0.3288501935 0.2763112539 -0.3289542745 -0.1921295455 0.2314596956
415297510.0 -0.1794473504 0.2267321562 0.2728507321 -0.3316289994 0.2729809044 -0.3319855954 -0.1900170187 0.234079182
420297480.0 -0.1770557925 0.2284277176 0.2693119238 -0.3351469798 0.2692767126 -0.3348648945 -0.1874582161 0.2359226866
425297450.0 -0.1744527441 0.2304630852 0.2657514356 -0.337633447 0.2659920404 -0.3376137549 -0.1851099849 0.2383621389
430297420.0 -0.1724827105 0.2326743815 0.2620109321 -0.3409942649 0.2624586669 -0.3405305509 -0.1831349281 0.2402860385
435297390.0 -0.1696979957 0.2345376463 0.2581520329 -0.3435606653 0.2584374295 -0.3435162052 -0.1801912083 0.2427194414
440297360.0 -0.1674379358 0.2365144173 0.2540961856 -0.3463655504 0.2539081101 -0.3462366449 -0.1777484269 0.2445334921
445297330.0 -0.1647664175 0.2384435753 0.2499277131 -0.3492805421 0.2504751648 -0.3491333693 -0.175152912 0.2465557388
450297300.0 -0.1625747463 0.2403837787 0.2466330994 -0.3517795645 0.2467185538 -0.3518486204 -0.1726875776 0.2486992076
455297270.0 -0.1599721777 0.2422086798 0.2426945558 -0.3544331352 0.2432760504 -0.3542889689 -0.1699382154 0.2504538538
460297240.0 -0.1576257996 0.2439953669 0.2386831271 -0.3567540412 0.2385622381 -0.3570229941 -0.1672339112 0.2532383303
465297210.0 -0.1545806826 0.2457584667 0.2349871482 -0.3597572795 0.2352796214 -0.3596910391 -0.1651023835 0.254679113
470297180.0 -0.152281218 0.247526329 0.2309237763 -0.3617305727 0.2312827747 -0.3622796151 -0.1627753464 0.2569203788
475297150.0 -0.1497528785 0.2495804993 0.2269595766 -0.3640454624 0.2272084748 -0.3641660436 -0.1598967052 0.2584311833
480297120.0 -0.1469423779 0.2508033964 0.222469581 -0.366808606 0.2232803849 -0.3667344386 -0.1571493236 0.2608781741
485297090.0 -0.1439596748 0.2526673351 0.2189990275 -0.3693708653 0.2191469856 -0.3690898104 -0.1546271113 0.26258776
490297060.0 -0.1415901631 0.2542747165 0.2149087009 -0.3713428216 0.2148123544 -0.3716511754 -0.1519391711 0.2643902175
495297030.0 -0.1393318962 0.2561528273 0.2109722389 -0.3739845867 0.210579149 -0.3737569942 -0.1490218692 0.2658777942
500297000.0 -0.1363607357 0.2575907737 0.2067281392 -0.3759942825 0.2068636623 -0.3761051046 -0.1464644538 0.2677175613
505296970.0 -0.133734612 0.2590898989 0.2025429629 -0.3778713996 0.2021788412 -0.3781712969 -0.1442202681 0.2695671379
510296940.0 -0.1309510286 0.2609536163 0.1984158935 -0.3805933852 0.1981246096 -0.3807739912 -0.1405935441 0.2716473405
515296910.0 -0.128177309 0.2624581994 0.1936604571 -0.3823965258 0.1943456802 -0.3825636509 -0.1381783085 0.2728917821
520296880.0 -0.1253742668 0.2635241711 0.1901447244 -0.3843502304 0.1899928688 -0.3844182945 -0.1353229934 0.2745745903
525296850.0 -0.1228213899 0.2651043991 0.1856562515 -0.3863194312 0.1858876377 -0.3865537231 -0.132216586 0.2761419718
530296820.0 -0.1199153756 0.2664775203 0.1815966881 -0.3877775699 0.1810936278 -0.3882673409 -0.1300656515 0.2773504322
535296790.0 -0.116782838 0.2682912276 0.1771274376 -0.3900649586 0.1774594228 -0.3903013846 -0.1269414896 0.2788770371
540296760.0 -0.1142136127 0.2691567509 0.1729769045 -0.3920778479 0.1727474765 -0.3923869788 -0.1242475788 0.2808310132
545296730.0 -0.1114035684 0.2706840409 0.1687521732 -0.3937697108 0.1687855179 -0.3942179506 -0.1213688543 0.2820234888
550296700.0 -0.1087792361 0.2719056126 0.1644089996 -0.3959981355 0.1649982779 -0.395985574 -0.118421948 0.2835670702
555296670.0 -0.1053849338 0.2733924625 0.1596670254 -0.3977165081 0.1601426333 -0.3978075863 -0.1154038125 0.2854545438
560296640.0 -0.1029490571 0.2744260589 0.1559096106 -0.3993261998 0.1559742532 -0.3992990161 -0.1124208584 0.2863614596
565296610.0 -0.1004845606 0.2756900057 0.1515784675 -0.4004998302 0.1515193522 -0.4007689131 -0.1100958486 0.2875611735
570296580.0 -0.0969443946 0.2769608307 0.1469675115 -0.402143989 0.1473129884 -0.4028075515 -0.1068314611 0.2893756513
575296550.0 -0.0942075748 0.2784145086 0.1428250079 -0.4036254218 0.1427042822 -0.4037737902 -0.1034813011 0.290311299
580296520.0 -0.0912984747 0.2795523873 0.1385422386 -0.4056831459 0.1383486632 -0.4056093344 -0.1005417773 0.2916977051
585296490.0 -0.0881510057 0.2803768746 0.1341454748 -0.4069989166 0.1339997316 -0.4068285718 -0.0980622783 0.2924574452
590296460.0 -0.0854586919 0.2814235497 0.1292024403 -0.4078421936 0.1292935779 -0.4081834888 -0.0946450613 0.2940145341
595296430.0 -0.0821155527 0.2827536823 0.1251218938 -0.4098409909 0.1249871703 -0.4099576681 -0.0914713034 0.294802484
600296400.0 -0.0793547991 0.2834132315 0.1205164808 -0.4107594372 0.1206607699 -0.410978904 -0.0887974648 0.2962772484
605296370.0 -0.076146535 0.2848323925 0.1160569592 -0.4123654412 0.1159848522 -0.4122660684 -0.0854467718 0.2973127746
610296340.0 -0.0733218135 0.2854790189 0.1118075246 -0.4130312214 0.1115413929 -0.4137441075 -0.0822223214 0.2985364255
615296310.0 -0.0701005204 0.2866672558 0.1067696878 -0.4145769203 0.1070641839 -0.4145097991 -0.0796041661 0.2992946553
620296280.0 -0.0670744336 0.2870326657 0.1026834742 -0.4152090887 0.1023753191 -0.4158241378 -0.0766159645 0.3000084066
625296250.0 -0.0639889022 0.2882914167 0.0974085039 -0.4166986301 0.0978578604 -0.4170064339 -0.0731743446 0.3016171232
630296220.0 -0.0609587348 0.2894850779 0.0933865083 -0.4179223643 0.0936602898 -0.4178998094 -0.0701842546 0.3024035905
635296190.0 -0.0580194308 0.2900440778 0.0886122288 -0.4182702159 0.0888845049 -0.4181304186 -0.067223963 0.3027801467
640296160.0 -0.055025224 0.2902114406 0.0844727969 -0.4193875179 0.0842883297 -0.4195178802 -0.0637326677 0.3036796139
645296130.0 -0.0518683213 0.2914674222 0.0795900549 -0.4204510819 0.0796706749 -0.4204454054 -0.0609761008 0.3043712487
650296100.0 -0.0491103705 0.292080214 0.0756407318 -0.4209055603 0.0754738181 -0.4209826082 -0.0578519015 0.3055055597
655296070.0 -0.045901799 0.2925149774 0.0709422387 -0.4219140209 0.0707987877 -0.4219008589 -0.0543508097 0.3062952972
660296040.0 -0.0431671886 0.2935701499 0.0663594692 -0.4223037429 0.0663642233 -0.4224149688 -0.0513013552 0.3066412973
665296010.0 -0.0394449358 0.2938834851 0.061429957 -0.4233397866 0.0621278875 -0.423192776 -0.048366267 0.3076548769
670295980.0 -0.0361898727 0.2945263077 0.0567634144 -0.4240675349 0.0573416423 -0.4237035221 -0.0453551744 0.3079622483
675295950.0 -0.0332478681 0.2948884645 0.05241074 -0.4246211087 0.0529021645 -0.4247363064 -0.0419725987 0.3088218081
680295920.0 -0.0303853201 0.2957720017 0.0478821749 -0.4248249069 0.0476450353 -0.4248665086 -0.0385532644 0.3093248677
685295890.0 -0.0273311407 0.2961330603 0.0432431024 -0.4252159511 0.043136386 -0.4254672391 -0.0353069104 0.3095692871
690295860.0 -0.0234979362 0.2963915811 0.0384414943 -0.4256019339 0.0382070525 -0.4254784662 -0.0320302638 0.3103350881
695295830.0 -0.0206287272 0.2967408105 0.0334090309 -0.4258819129 0.033923327 -0.4261478274 -0.0289586395 0.3109119116
700295800.0 -0.0178643626 0.2971568728 0.0291466466 -0.4263034257 0.0294075092 -0.4267436222 -0.0257371459 0.3111709513
705295770.0 -0.0143267082 0.2976109853 0.0247016137 -0.426608869 0.0248996652 -0.4266541476 -0.0225624409 0.311707028
710295740.0 -0.0114524346 0.2979375496 0.0200820949 -0.4267694301 0.0199326013 -0.4268907484 -0.0200383889 0.3125980909
715295710.0 -0.0080769969 0.2982878128 0.01504856 -0.4269457667 0.0158773314 -0.4268817543 -0.0163498497 0.3121292693
720295680.0 -0.0049365905 0.298144207 0.010720324 -0.4270432495 0.0106998839 -0.4277010061 -0.012665836 0.3128520656
725295650.0 -0.0018006367 0.2987494796 0.0058723925 -0.4269133385 0.0063349762 -0.4271717764 -0.0095771853 0.3134273591
730295620.0 0.0009948972 0.2985354727 0.0017446692 -0.4270834488 0.0016516153 -0.4272590281 -0.0064489072 0.3132459279
735295590.0 0.0046607156 0.2986061307 -0.0028775821 -0.4271998684 -0.0027540236 -0.4272580208 -0.00286766 0.3134191763
740295560.0 0.0075782294 0.2991004165 -0.0078049191 -0.4266617809 -0.0076305592 -0.426839381 0.0001886607 0.3136971424
745295530.0 0.0105198052 0.2986703607 -0.0122879425 -0.4268376786 -0.0118407311 -0.4271209835 0.0031834739 0.313911305
750295500.0 0.0140027265 0.2989970613 -0.0169929455 -0.4263455078 -0.0168546188 -0.4264953307 0.0069249762 0.31335935
755295470.0 0.0176878429 0.2989891225 -0.0215725861 -0.4263443592 -0.021315753 -0.4266781179 0.0096769524 0.3141628982
760295440.0 0.0203447256 0.2989382062 -0.0262142558 -0.4258734517 -0.0258336445 -0.426407747 0.0126074294 0.3141014186
765295410.0 0.0234103515 0.2987202943 -0.0302653778 -0.4255209403 -0.0304856949 -0.4259406324 0.0168510689 0.3143049574
770295380.0 0.0265928212 0.2987820216 -0.0351363245 -0.4248420589 -0.0353319028 -0.4255526848 0.0201037622 0.3139329435
775295350.0 0.0298833178 0.298714601 -0.0399500849 -0.424684388 -0.0396627279 -0.4247570807 0.0227173535 0.3137006574
780295320.0 0.033013447 0.2983379342 -0.0443148345 -0.4244401728 -0.0443788183 -0.4249177884 0.0260387521 0.3142567517
785295290.0 0.0362738221 0.2985865845 -0.0490088551 -0.4235471795 -0.0493015786 -0.4239665068 0.0292532129 0.3136346397
790295260.0 0.0393283823 0.2981456979 -0.0533770858 -0.4232754009 -0.0536650496 -0.4234791094 0.0329288665 0.3135690908
795295230.0 0.0424144773 0.2978742437 -0.0579051603 -0.4221301728 -0.0576886215 -0.422861807 0.0359541666 0.3139900151
800295200.0 0.0458060925 0.2977125372 -0.0629480758 -0.4222233402 -0.0628780947 -0.4222884243 0.0390992641 0.3131979259
805295170.0 0.0486246459 0.2970474814 -0.0669605563 -0.420718087 -0.0670009687 -0.4212630462 0.0418607889 0.3128214392
810295140.0 0.0521096149 0.2966807383 -0.0719959569 -0.420203675 -0.0715516609 -0.4208144581 0.0455616567 0.312878321
815295110.0 0.0553178218 0.2964436838 -0.0763555368 -0.4194700739 -0.0763805967 -0.4193430731 0.0486062385 0.3127424824
820295080.0 0.0582682566 0.2955565418 -0.0809306494 -0.4186550654 -0.0806727825 -0.4190371967 0.0520173727 0.3119666996
825295050.0 0.0617299721 0.295494272 -0.0853712773 -0.4173940161 -0.0852246206 -0.4179492469 0.0551452276 0.3114721133
830295020.0 0.0645569741 0.2950437456 -0.089776118 -0.4164716933 -0.0901631157 -0.4169923432 0.0582305398 0.3111062388
