!Created with skrf (http://scikit-rf.org).
# Hz S RI R 50.0 
!freq ReS11 ImS11 ReS21 ImS21 ReS12 ImS12 ReS22 ImS22
300000.0 -0.237525449 -0.1115696435 0.4669904429 0.0730640914 0.4709152374 0.0744475401 -0.2364501266 -0.1130381198
5299970.0 -0.2407324801 0.0071462128 0.4751545642 0.0053536228 0.4750665583 0.0054374307 -0.244698195 0.0052996091
10299940.0 -0.2371321823 0.0199417431 0.477280117 0.0061431036 0.4769874155 0.0063815811 -0.2416356061 0.0177928416
15299910.0 -0.2329081488 0.0298059873 0.4804840273 0.0076089874 0.4805587149 0.0078151075 -0.2373851679 0.0264400968
20299880.0 -0.2273695312 0.037757312 0.4856415156 0.0079156184 0.4854183239 0.0080669635 -0.2329775037 0.0340359605
25299850.0 -0.2217095022 0.044287143 0.4905131652 0.0068492772 0.4907329823 0.0068959804 -0.2279331862 0.03998857
30299820.0 -0.2156483511 0.0494234674 0.4964053581 0.004807984 0.4958285695 0.0048104493 -0.2225755803 0.0449030761
35299790.0 -0.2101226319 0.0542109717 0.5015070303 0.0016787052 0.5014037606 0.001800814 -0.21733354 0.0487168617
40299760.0 -0.2045929318 0.0570092049 0.5063366975 -0.0019833198 0.5063703178 -0.0023540696 -0.2126241972 0.0521807962
45299730.0 -0.1994544018 0.060235635 0.5109932189 -0.0073521717 0.5108132549 -0.0070383416 -0.2079031305 0.0545843353
50299700.0 -0.1948651697 0.0620349789 0.5150006556 -0.0128853769 0.5154469527 -0.0127581178 -0.203599473 0.0564150224
55299670.0 -0.1905246741 0.0637171012 0.518383494 -0.0187388544 0.518917374 -0.0185698063 -0.1999399318 0.058156264
60299640.0 -0.1863623911 0.0649137066 0.521921453 -0.0247836033 0.5217624007 -0.0249324362 -0.1960149912 0.0594897808
65299610.0 -0.1831181794 0.0666200932 0.5253162919 -0.0308359442 0.5249685373 -0.0310180646 -0.1930629255 0.060709366
70299580.0 -0.1794749521 0.066906286 0.5272810275 -0.0377359458 0.5275724335 -0.0375079448 -0.1898676198 0.0619992526
75299550.0 -0.1763453033 0.0680983602 0.5292092224 -0.0447643448 0.5293159877 -0.044521254 -0.1874460996 0.0627093778
80299520.0 -0.1739908343 0.0690661654 0.531624976 -0.0517258712 0.5311111237 -0.0511427533 -0.1848604877 0.0626211571
85299490.0 -0.1714794891 0.0693800661 0.5324474052 -0.0585690997 0.5324488138 -0.05834214 -0.1826331537 0.0636433769
90299460.0 -0.1693707126 0.0701521363 0.5335623203 -0.0650189071 0.5334523614 -0.0651416449 -0.1799501199 0.064362112
95299430.0 -0.1671745636 0.0711528741 0.5343363018 -0.0727704602 0.5345404684 -0.072131066 -0.1785098372 0.0650427606
100299400.0 -0.1654949725 0.071943667 0.5345952277 -0.0790956052 0.534643525 -0.0791585648 -0.1770637319 0.0655340634
105299370.0 -0.1634214282 0.0722539385 0.5348097591 -0.0855949057 0.5349688294 -0.0859081989 -0.1750193688 0.0661832812
110299340.0 -0.1619357692 0.0729712558 0.5350027834 -0.0923559081 0.5349591625 -0.0932012014 -0.1735826216 0.0670173422
115299310.0 -0.1602684802 0.0734180113 0.5347975907 -0.0993593326 0.5353725276 -0.0992699226 -0.1721731368 0.0670965055
120299280.0 -0.1588946194 0.0745044924 0.5350451604 -0.1065246523 0.5350974436 -0.1064168992 -0.1712541758 0.0679712512
125299250.0 -0.1578443228 0.0749836072 0.5344301176 -0.1129409898 0.5345862611 -0.1133075377 -0.1698171013 0.068429326
130299220.0 -0.1564392629 0.0760576012 0.5337859728 -0.1192497934 0.5340118047 -0.1200677254 -0.1689465744 0.0696747218
135299190.0 -0.1553192754 0.0768673699 0.5330881604 -0.1256515697 0.5331790679 -0.1264916171 -0.167989491 0.0703112474
140299160.0 -0.1543427905 0.078033808 0.5324646316 -0.1329946987 0.5326458414 -0.1334010593 -0.1667628218 0.0712604483
145299130.0 -0.1529999093 0.0790224961 0.5318689289 -0.1399435365 0.5316065659 -0.1392865532 -0.1661731789 0.0718759208
150299100.0 -0.1519449333 0.0796583118 0.530209899 -0.146176767 0.5306346231 -0.1458717781 -0.1651100947 0.0726355728
155299070.0 -0.1513246944 0.0813386259 0.5293000754 -0.1529478376 0.5291495795 -0.1529839676 -0.1645617405 0.0735655848
160299040.0 -0.1498746171 0.0820291904 0.5277481018 -0.1587479572 0.5276537655 -0.1589776332 -0.1632996818 0.074592899
165299010.0 -0.1491560702 0.0831317523 0.5268071311 -0.1655173966 0.5266073253 -0.1654840787 -0.1626387176 0.0752003362
170298980.0 -0.1483226625 0.0845239684 0.5237470577 -0.1718678296 0.5246063578 -0.1720274343 -0.1617057932 0.0765624586
175298950.0 -0.1473282273 0.0857249417 0.523734816 -0.1782703138 0.523812864 -0.1781601272 -0.1612950151 0.0774570423
180298920.0 -0.1462845223 0.086706655 0.5217931467 -0.1844744855 0.5214913176 -0.1843582862 -0.1600978912 0.078812129
185298890.0 -0.1452027664 0.0879074496 0.5191887565 -0.1908897792 0.5196912641 -0.1904511204 -0.1598042027 0.0794518212
190298860.0 -0.1443792233 0.0892292298 0.51783748 -0.1968293748 0.5176826527 -0.1967329737 -0.1584024201 0.0805204188
195298830.0 -0.143340922 0.0902742475 0.5158265319 -0.2027776047 0.5156620297 -0.2030930738 -0.1577888541 0.0817483468
200298800.0 -0.1424168126 0.0915300614 0.513752339 -0.2084945744 0.5137346964 -0.2089799878 -0.1568199781 0.0834517819
205298770.0 -0.1417889211 0.0930634732 0.5117924568 -0.2147741789 0.511648969 -0.2150871545 -0.1565628358 0.0841422387
210298740.0 -0.1409734077 0.0941211822 0.5093612215 -0.2212179569 0.5095799351 -0.2213697252 -0.1556507659 0.0854238324
215298710.0 -0.139668269 0.095539612 0.5070153024 -0.2271402206 0.5070156298 -0.2269241629 -0.1552819335 0.086581563
220298680.0 -0.1389009536 0.0969296642 0.504632448 -0.2328714541 0.5046582502 -0.2327780428 -0.1538693242 0.0879876781
225298650.0 -0.1374971834 0.0985090973 0.501656244 -0.2385907177 0.501765192 -0.238335971 -0.1533710267 0.0894086377
230298620.0 -0.136873528 0.0999286915 0.4996146103 -0.2444228577 0.499695483 -0.2444144826 -0.1524907195 0.0903003812
235298590.0 -0.1359189042 0.1010147841 0.4968892583 -0.2499268894 0.4970275086 -0.2504627051 -0.1517470226 0.0915696647
240298560.0 -0.1348747393 0.1026271152 0.4942109275 -0.2559069263 0.4942021776 -0.2555539564 -0.1510667135 0.0933124375
245298530.0 -0.1335888884 0.1038632377 0.49079864 -0.2614505177 0.4912338425 -0.2616006771 -0.1499250947 0.0942462024
250298500.0 -0.1329205931 0.1053106875 0.488867766 -0.2669404516 0.4889954405 -0.2665815931 -0.14895112 0.0955148773
255298470.0 -0.1319629695 0.106923319 0.4858698702 -0.2727953069 0.4855695211 -0.2724721086 -0.1481076247 0.0966926728
260298440.0 -0.1307301378 0.1080927193 0.4829790595 -0.2783644348 0.4827406099 -0.2783651679 -0.1470015904 0.0983077572
265298410.0 -0.1294928914 0.1097586421 0.4798509482 -0.2843288295 0.4796308237 -0.2838043698 -0.1465125594 0.0994148653
270298380.0 -0.1281702211 0.1109724187 0.4763551188 -0.2886642537 0.4767635032 -0.2893579088 -0.1453540619 0.1010235428
275298350.0 -0.1276734461 0.112352421 0.4735309033 -0.2950475664 0.4739165011 -0.2949425145 -0.1444308183 0.1024756112
280298320.0 -0.1262169199 0.1141280354 0.4701564462 -0.2997240614 0.4700276685 -0.300255375 -0.1434886773 0.1037728909
285298290.0 -0.1250466968 0.1156335084 0.4674299272 -0.305303498 0.4667997559 -0.3055847485 -0.1426805263 0.105077084
290298260.0 -0.1235933574 0.1166800406 0.463930959 -0.3104909332 0.4636441315 -0.3108272331 -0.1412263246 0.1064733716
295298230.0 -0.1225480943 0.1181781392 0.4604115309 -0.315764915 0.4602304365 -0.3160437528 -0.1403087104 0.1079695961
300298200.0 -0.120798255 0.1193707179 0.4566515838 -0.3210183587 0.4571649076 -0.3212957802 -0.139462417 0.1091656554
305298170.0 -0.1197319443 0.1205766193 0.4534280187 -0.3267022495 0.4537631155 -0.3265594069 -0.1380866768 0.1109748337
310298140.0 -0.1181615553 0.1216174986 0.4498145524 -0.3316711535 0.4500185967 -0.3321580028 -0.1368450088 0.1124985636
315298110.0 -0.1172100535 0.1231169874 0.4459845866 -0.3368110275 0.4461966186 -0.3369844696 -0.1356600415 0.113520765
320298080.0 -0.1159129618 0.1245287794 0.4427868162 -0.3420926952 0.4428777807 -0.3420300878 -0.1349672125 0.1143364391
325298050.0 -0.1146511031 0.1254079709 0.4391996491 -0.3475406853 0.4388194938 -0.3473274687 -0.1337392436 0.1157517929
330298020.0 -0.1133219908 0.1269957338 0.4340394866 -0.3518049132 0.4345005043 -0.3524341109 -0.1329708815 0.1169693251
335297990.0 -0.1119320952 0.1280246252 0.4305553825 -0.357237155 0.4305811823 -0.3567725856 -0.1321959191 0.118518188
340297960.0 -0.1112727932 0.1297725692 0.4264932705 -0.362119863 0.4265222852 -0.3618052199 -0.1309906273 0.1200130887
345297930.0 -0.1099125936 0.1313070754 0.4227439472 -0.3659995578 0.422449273 -0.366514208 -0.130000021 0.1214785155
350297900.0 -0.1084812328 0.1325401913 0.4180291406 -0.3705384839 0.4188202449 -0.3711458881 -0.1288961614 0.1231134343
355297870.0 -0.1072394434 0.1337068077 0.4140595664 -0.3752343314 0.4144482461 -0.3754212049 -0.1279872535 0.1242478877
360297840.0 -0.1056620084 0.1350034156 0.410247761 -0.3802811394 0.409770354 -0.3801353447 -0.1266539358 0.1257765103
365297810.0 -0.103964382 0.1360296163 0.4056019128 -0.3843109761 0.405718284 -0.3851730246 -0.1257813936 0.1275220849
370297780.0 -0.1026247792 0.137415787 0.4014939932 -0.3888351824 0.4016528784 -0.3893879171 -0.1244523497 0.1288049203
375297750.0 -0.1011897106 0.1392261129 0.3976211169 -0.3933543746 0.3973574625 -0.3936238228 -0.1231209913 0.1303828023
380297720.0 -0.0993574909 0.1400878388 0.3928689166 -0.3977098181 0.392870573 -0.3975428061 -0.1216589874 0.1315262156
385297690.0 -0.0979342518 0.1416831165 0.3885725401 -0.4017600783 0.3883675506 -0.402079291 -0.120373864 0.1333734581
390297660.0 -0.0966177799 0.142915324 0.3837908042 -0.4060759337 0.3838923767 -0.407019503 -0.1189779558 0.1343243915
395297630.0 -0.094786452 0.1437728719 0.3794982887 -0.4103981467 0.3798399784 -0.410457684 -0.1182908318 0.1359168424
400297600.0 -0.0934455244 0.1455145919 0.3746722801 -0.4144957631 0.3755484168 -0.4147516609 -0.1175046558 0.1367106289
405297570.0 -0.0916150844 0.1466271973 0.3704952407 -0.4186485503 0.3705341106 -0.419207327 -0.115921707 0.1386327703
410297540.0 -0.0899669363 0.1475925963 0.3653428157 -0.4227951639 0.3656903223 -0.4226689254 -0.1145721954 0.1396043239
415297510.0 -0.0885342916 0.1489887932 0.3611557 -0.4264662062 0.3611021215 -0.426698626 -0.1132196355 0.1413531286
420297480.0 -0.0865401828 0.149645375 0.3562479215 -0.4309066064 0.3563229527 -0.4305366583 -0.1117959079 0.1420627591
425297450.0 -0.0849353627 0.1506561163 0.3515865446 -0.4348115208 0.3524036753 -0.4345944268 -0.1103290746 0.143904561
430297420.0 -0.0838015834 0.1520821692 0.347059769 -0.4387278149 0.3470072001 -0.438472433 -0.1092557587 0.1447269601
435297390.0 -0.0816143642 0.1529205488 0.3421976829 -0.4417395843 0.3422825748 -0.4419411629 -0.1075818521 0.1465067871
440297360.0 -0.0797867616 0.1540957902 0.336995955 -0.4456010225 0.3370105219 -0.445838975 -0.1064821743 0.1473060818
445297330.0 -0.0781392936 0.1551222031 0.332038095 -0.4497450243 0.3320543859 -0.4493704141 -0.104729336 0.1484336346
450297300.0 -0.076225071 0.1562136763 0.3273110335 -0.4532653968 0.3277707342 -0.4530744529 -0.1039357759 0.1500191768
455297270.0 -0.074765289 0.1571983887 0.3228003787 -0.4568113729 0.322708591 -0.4566345742 -0.1020653205 0.1511955068
460297240.0 -0.0732096428 0.1579132246 0.3172181803 -0.4596311881 0.3170267774 -0.4603993129 -0.1004528945 0.1526648524
465297210.0 -0.0711500444 0.158895265 0.312673699 -0.4631266107 0.3126589016 -0.463673831 -0.0997181239 0.1533075626
470297180.0 -0.0693296741 0.1597974926 0.3073553196 -0.4668832115 0.3074160084 -0.4668382845 -0.0984362989 0.1547353816
475297150.0 -0.0679290126 0.1604263829 0.3018955465 -0.4696574803 0.3024146711 -0.4696864834 -0.0966175121 0.1557251123
480297120.0 -0.0658368353 0.161157404 0.2969826793 -0.4732912527 0.2975114752 -0.4731747206 -0.095354903 0.1575000117
485297090.0 -0.0639708316 0.162120515 0.2921179791 -0.4764602665 0.2922810545 -0.4766403764 -0.0939129967 0.1579975205
490297060.0 -0.0621302439 0.162987174 0.2866277756 -0.4795594212 0.2866467481 -0.4796557501 -0.0921473984 0.1593159481
495297030.0 -0.0604533025 0.1642496088 0.2812742135 -0.4824123829 0.2813567134 -0.483052189 -0.0904935139 0.1600667631
500297000.0 -0.0586078598 0.1648614911 0.2758485267 -0.4860033726 0.276366864 -0.4858469782 -0.0898048738 0.1612082276
505296970.0 -0.0568388131 0.165473126 0.2702655926 -0.4887324199 0.2708580726 -0.4884171247 -0.0882171677 0.1623797152
510296940.0 -0.0549832961 0.166360943 0.2655052514 -0.4917112955 0.2656606273 -0.4915713605 -0.0862198881 0.1636360011
515296910.0 -0.0534284299 0.1671704093 0.2601558974 -0.4941871439 0.2601408266 -0.4944284286 -0.0849688376 0.1643247951
520296880.0 -0.0511593889 0.1676899406 0.2545677729 -0.4972667143 0.2547909515 -0.497038926 -0.0830181942 0.1654138695
525296850.0 -0.0495598759 0.1683356627 0.2494332682 -0.4996560765 0.2496009295 -0.500251321 -0.0813912816 0.1665247645
530296820.0 -0.0474252348 0.1690660008 0.2440480376 -0.5018140305 0.2437775631 -0.5023533442 -0.080195691 0.166992319
535296790.0 -0.0456254135 0.1696491584 0.2382610393 -0.5050436909 0.2384517657 -0.5046186653 -0.0784289483 0.1679509027
540296760.0 -0.04376553 0.1700922409 0.233101986 -0.5077472324 0.2325121059 -0.5078426964 -0.0774665237 0.1694171075
545296730.0 -0.0419573112 0.170950907 0.2271285674 -0.5098356263 0.2276432334 -0.5102302126 -0.0755719042 0.1696256914
550296700.0 -0.0401593065 0.17165808 0.2220293825 -0.512518715 0.2223379201 -0.5122736835 -0.0737838237 0.171337117
555296670.0 -0.0380447471 0.1720757281 0.2162781673 -0.5148704301 0.216605267 -0.5147366866 -0.0724266378 0.172044273
560296640.0 -0.0359844762 0.1723945318 0.2107136115 -0.5168829063 0.2105706308 -0.5169724558 -0.0705349062 0.1728576563
565296610.0 -0.034552168 0.1731628825 0.205166181 -0.5191783112 0.2050590254 -0.519326973 -0.0693658888 0.1734422654
570296580.0 -0.032224376 0.1736262648 0.1996085553 -0.5216805575 0.1998482407 -0.5214823931 -0.0673123306 0.1748149027
575296550.0 -0.0303360362 0.1740086768 0.1937052354 -0.5230030948 0.1939921594 -0.5232770103 -0.0656083286 0.1754429872
580296520.0 -0.0284813731 0.174604948 0.1882447551 -0.5254286351 0.1881023591 -0.5256978623 -0.0640271359 0.1757016516
585296490.0 -0.0264084557 0.1747133729 0.1826952862 -0.5273899068 0.1822935469 -0.5276442566 -0.0626686284 0.1764561752
590296460.0 -0.0248300661 0.1751687691 0.1767614505 -0.5292237481 0.1765379597 -0.5298682769 -0.0604946927 0.177649235
595296430.0 -0.0228253528 0.1759873535 0.1710047984 -0.5315333937 0.1708526419 -0.5314172129 -0.0588432785 0.1780800174
600296400.0 -0.0209608742 0.1761865991 0.1656772017 -0.5327514134 0.1653686682 -0.5329214616 -0.057402861 0.1791029254
605296370.0 -0.0188880164 0.1770917174 0.1596014212 -0.535389426 0.1593054917 -0.534480021 -0.0557239564 0.179542966
610296340.0 -0.0169044449 0.1771074773 0.1542849139 -0.5365160421 0.1539524155 -0.5369394584 -0.0537899477 0.1809019826
615296310.0 -0.0146743984 0.1775566675 0.1473483598 -0.5381266322 0.1479557826 -0.5383676776 -0.0522266556 0.1810561596
620296280.0 -0.0129226491 0.1775562282 0.142165082 -0.5395962823 0.1418065911 -0.5397039384 -0.0508185403 0.1814707079
625296250.0 -0.0108044133 0.1780504338 0.1360304494 -0.5409709221 0.1361419387 -0.5411108867 -0.0487225342 0.1826557046
630296220.0 -0.0087312227 0.1784191663 0.1301375732 -0.542369132 0.1308671496 -0.5427076631 -0.0472986813 0.1830672132
635296190.0 -0.0069037078 0.1784558699 0.1243523272 -0.5436353441 0.1244770046 -0.5434208255 -0.0454545506 0.1835183762
640296160.0 -0.0048796459 0.1784975333 0.118816464 -0.54485187 0.1185069029 -0.5452498903 -0.0434085496 0.1842547277
645296130.0 -0.0030768068 0.1791875931 0.1125345937 -0.5464860605 0.1130943069 -0.5463647683 -0.042248207 0.1843842532
650296100.0 -0.0009764443 0.1795016288 0.1071193356 -0.5473985559 0.1069493277 -0.5470662359 -0.0404263317 0.1854580669
655296070.0 0.0010302431 0.1792964525 0.1009270974 -0.5482763655 0.1008320004 -0.5484848796 -0.0380943986 0.1860426416
660296040.0 0.0027487478 0.1796440377 0.0952153335 -0.5493320614 0.095269121 -0.5491642646 -0.0365192217 0.1861913465
665296010.0 0.0048719077 0.1794579479 0.0894306674 -0.5505085142 0.0894761643 -0.550306026 -0.035171469 0.186884787
670295980.0 0.007491065 0.179694779 0.0828666793 -0.5512750657 0.0835798882 -0.5515629476 -0.0334222992 0.1875220179
675295950.0 0.0093132476 0.1798429105 0.076893148 -0.5522797731 0.0775730054 -0.5526856551 -0.0315108424 0.1879374668
680295920.0 0.010989731 0.1802222972 0.0709548715 -0.5531958684 0.0712019128 -0.5528604831 -0.0292017895 0.1881940637
685295890.0 0.0128664634 0.1798211359 0.0655939179 -0.5532353908 0.065289133 -0.5540371271 -0.0279040293 0.1889320549
690295860.0 0.015324512 0.1799811752 0.0596511883 -0.5542873967 0.0590264429 -0.5543606928 -0.0257601236 0.1892611591
695295830.0 0.0174108503 0.1796924735 0.0525437593 -0.5548796323 0.0531035328 -0.5550491401 -0.0241640725 0.1897292319
700295800.0 0.0196409622 0.1799173862 0.046584777 -0.5556079746 0.0474049148 -0.5555529563 -0.0223342863 0.1896914117
705295770.0 0.0214932928 0.1800748435 0.0412699567 -0.5558185177 0.0416416291 -0.5557565661 -0.0207549619 0.1902147296
710295740.0 0.0234948869 0.179930283 0.0350966053 -0.5559592427 0.0353022896 -0.5562655639 -0.0193657264 0.1908172183
715295710.0 0.0251549587 0.1797264356 0.029071064 -0.5566242728 0.0294624212 -0.5567817402 -0.0170935519 0.190711341
720295680.0 0.0272483469 0.1790884849 0.0230960718 -0.5562606915 0.0235410628 -0.5570444012 -0.014936074 0.1913427539
725295650.0 0.0295125612 0.1793842001 0.0167634429 -0.5570377138 0.017313985 -0.5569413238 -0.0133865617 0.1915216971
730295620.0 0.0312946764 0.1790028785 0.0110149669 -0.5568963813 0.0113325159 -0.5573199418 -0.011241916 0.1913715229
735295590.0 0.0338759719 0.1791382763 0.0052838668 -0.5573325697 0.0053675716 -0.5570534266 -0.0092186097 0.1921077726
740295560.0 0.0354031669 0.1790318551 -0.0010131698 -0.5565856564 -0.0010307212 -0.5569329762 -0.007430057 0.1922464509
745295530.0 0.0375672074 0.1782470519 -0.0065987837 -0.5570745971 -0.0065988982 -0.5569881898 -0.0058297334 0.192554217
750295500.0 0.0394048707 0.178165718 -0.0126963688 -0.5565002649 -0.0127238377 -0.5567957284 -0.0039773043 0.1921673154
755295470.0 0.0418612603 0.1779004267 -0.0184818607 -0.5566308683 -0.0186705437 -0.5567657047 -0.0024423108 0.1927471542
760295440.0 0.0435313548 0.177696478 -0.0247244363 -0.5562871268 -0.0247113536 -0.5564728913 -0.0008954672 0.1927208893
765295410.0 0.045233446 0.1771469559 -0.0301193572 -0.555822639 -0.0304761409 -0.5563367308 0.0018148108 0.193459901
770295380.0 0.0476584962 0.1771717771 -0.03657133 -0.5555411487 -0.0365772034 -0.5562158298 0.0035953296 0.193679521
775295350.0 0.0495465322 0.1767301274 -0.0426912889 -0.5550001576 -0.0426807979 -0.5553257897 0.0048410594 0.1930406545
780295320.0 0.0515152246 0.1760146164 -0.0485742791 -0.5546822087 -0.0482619477 -0.5550957272 0.0070315064 0.1934009357
785295290.0 0.0533373535 0.1760532932 -0.0543587949 -0.5536890011 -0.0543573162 -0.5541700241 0.0086080457 0.1935890677
790295260.0 0.0554016864 0.1753923652 -0.060524232 -0.5533011087 -0.060211941 -0.5540510286 0.0107738263 0.1934858883
795295230.0 0.0573997971 0.1750264986 -0.0661911203 -0.5526043346 -0.0660077107 -0.5527749531 0.0125453743 0.1943527622
800295200.0 0.0593333675 0.174604301 -0.072546003 -0.5520749855 -0.0731646683 -0.5522263066 0.0147802494 0.1937661013
805295170.0 0.061067258 0.173881912 -0.0783146389 -0.5508553076 -0.0782508673 -0.5509987515 0.016001353 0.1935980215
810295140.0 0.0633291198 0.1735671398 -0.0841149389 -0.5503309672 -0.0840109329 -0.5507427566 0.0184496951 0.1942963582
815295110.0 0.0649940847 0.1727582277 -0.0899118511 -0.5490744642 -0.0903432665 -0.5489748966 0.0199178306 0.1935352732
820295080.0 0.0671032007 0.1719245194 -0.0958311737 -0.548094846 -0.0959921345 -0.5487197599 0.0217975565 0.1939046873
825295050.0 0.0691369414 0.1716464081 -0.1018148543 -0.5468774667 -0.1017241218 -0.5474797855 0.0241572409 0.1936116939
830295020.0 0.0710350938 0.1713816658 -0.1077878585 -0.5460328572 -0.1079321909 -0.545946359 0.025507287 0.1933366655
