!Created with skrf (http://scikit-rf.org).
# Hz S RI R 50.0 
!freq ReS11 ImS11 ReS21 ImS21 ReS12 ImS12 ReS22 ImS22
300000.0 -0.780171448 -0.1301522621 -0.000343045 7.93665e-05 0.0006011549 -3.64646e-05 0.8592396111 -0.0026956218
5299970.0 -0.7857536785 -0.0069879932 -0.0001404689 -2.2964e-06 -0.0002080832 -8.85126e-05 0.8597241624 -0.0096895848
10299940.0 -0.7877454209 -0.0041520188 -6.33617e-05 0.0001449012 2.70046e-05 -4.74402e-05 0.8584145098 -0.0187301924
15299910.0 -0.7933991506 -0.0026156776 -0.0001179087 -7.72291e-05 -5.41137e-05 -4.70139e-05 0.8577125619 -0.0268867805
20299880.0 -0.7997970429 0.0018121855 -0.0001007576 0.0001081086 6.11788e-05 -8.23653e-05 0.8571367901 -0.0356378685
25299850.0 -0.8064997595 0.0077632008 9.62207e-05 -1.72768e-05 9.75867e-05 0.0002531961 0.8559004865 -0.0434667916
30299820.0 -0.8123063243 0.0148893962 0.0001607213 -0.0001864021 -0.0002716065 1.1371e-05 0.8551948433 -0.0521179312
35299790.0 -0.8171895734 0.0242608249 -0.0001079844 9.957e-07 1.29247e-05 -3.3565e-06 0.8545826719 -0.0597937531
40299760.0 -0.8207676207 0.0335860115 0.0001420267 5.87269e-05 -3.13369e-05 4.57023e-05 0.8530801404 -0.0680626621
45299730.0 -0.8243940754 0.0427626575 -5.92604e-05 1.54901e-05 0.0001153182 6.91479e-05 0.8522132165 -0.0760587346
50299700.0 -0.8272304038 0.0528995699 8.34828e-05 5.08732e-05 7.19253e-05 -0.0001880519 0.8519353645 -0.0838485159
55299670.0 -0.8293774383 0.0629383407 -5.18322e-05 -6.00448e-05 6.16178e-05 0.000256302 0.8507598701 -0.0930150085
60299640.0 -0.8300553401 0.0732778968 -0.0001013778 0.000115411 -0.000121992 0.0002101649 0.8496783098 -0.1008428015
65299610.0 -0.8313489398 0.0828541629 -4.50932e-05 -8.78401e-05 2.88201e-05 5.89347e-05 0.8491296015 -0.1089594539
70299580.0 -0.8317957489 0.093300614 0.0001460761 1.23341e-05 -4.90242e-05 0.0001425254 0.8477403648 -0.1173791453
75299550.0 -0.8318027842 0.1040739229 5.89948e-05 4.25971e-05 -4.98507e-05 -0.0001392594 0.846289743 -0.1254336301
80299520.0 -0.8319093823 0.1133887532 8.67892e-05 0.0001449328 -0.0001336948 1.11075e-05 0.8451326586 -0.1336780294
85299490.0 -0.8303899385 0.122458712 8.06364e-05 -0.0002633881 3.08168e-05 -0.000100181 0.8442336268 -0.142055728
90299460.0 -0.8298234918 0.1320196631 -0.0001510434 -3.45872e-05 0.0001219379 9.2106e-06 0.8424512136 -0.1499341814
95299430.0 -0.8293177725 0.1417713396 -0.000245884 1.89807e-05 0.0001457231 1.78649e-05 0.8401213383 -0.1581478378
100299400.0 -0.8280900073 0.1507287807 -1.42101e-05 0.0001604398 -5.28819e-05 -3.85841e-05 0.8391898894 -0.1666373411
105299370.0 -0.8269512807 0.160530797 0.0001970207 0.0001480439 9.45118e-05 -5.87525e-05 0.8372569389 -0.1745320976
110299340.0 -0.8256430027 0.1696689492 5.4682e-06 -0.0001515742 -4.27551e-05 -8.90665e-05 0.8362092344 -0.1824487842
115299310.0 -0.8237089675 0.178595674 -0.0001418057 -1.84867e-05 0.0002511617 -7.72341e-05 0.8345995434 -0.1905401508
120299280.0 -0.821971307 0.1868384718 3.01182e-05 -0.0001155181 -9.17608e-05 0.0001315153 0.8324027157 -0.1988966378
125299250.0 -0.8202717284 0.1956676426 -8.42018e-05 7.63483e-05 -5.30431e-05 7.04786e-05 0.830580833 -0.2066817121
130299220.0 -0.8186046536 0.2051643341 3.11649e-05 5.42043e-05 -5.71341e-05 1.37164e-05 0.8284622304 -0.2152552041
135299190.0 -0.8170260137 0.214094415 6.71912e-05 0.0002011682 5.2439e-06 3.3031e-05 0.8266757094 -0.2228396429
140299160.0 -0.814808971 0.2232535776 -9.51062e-05 6.83294e-05 0.0001383522 -2.75129e-05 0.8241232365 -0.2307676284
145299130.0 -0.8127072735 0.2320598209 -6.73688e-05 1.38832e-05 -0.0002140201 5.0188e-05 0.8220347238 -0.2389996649
150299100.0 -0.8098862181 0.2410170901 -4.6421e-05 -9.53059e-05 0.0001074889 -8.45831e-05 0.8195163635 -0.2465900784
155299070.0 -0.8077755468 0.2490178954 8.23784e-05 -3.78235e-05 -0.0002016616 1.10652e-05 0.8176680637 -0.2545522613
160299040.0 -0.8053238354 0.2578892399 -5.53123e-05 -6.82489e-05 -0.0001190278 2.96966e-05 0.8144805155 -0.2621962671
165299010.0 -0.8031751524 0.2668633031 9.51398e-05 9.82687e-05 -1.11281e-05 3.10683e-05 0.8119308223 -0.2703566452
170298980.0 -0.8002105175 0.2755802359 0.0001812111 -8.07797e-05 -1.31941e-05 -0.0001052065 0.8090564923 -0.2784845464
175298950.0 -0.7970253031 0.2841703647 5.18402e-05 0.0001336761 -0.0001841624 0.0001036474 0.8067892232 -0.2856660448
180298920.0 -0.7949024177 0.2927125769 5.27923e-05 2.73017e-05 5.32315e-05 -1.77021e-05 0.8038507175 -0.2939626573
185298890.0 -0.790766519 0.3005574935 -0.0001334749 -5.26239e-05 -0.0001786489 7.57263e-05 0.8007978902 -0.3019787861
190298860.0 -0.7887414158 0.309396236 0.000215573 2.9463e-06 8.02116e-05 -8.62256e-05 0.797064569 -0.3090938843
195298830.0 -0.7852255777 0.3178387007 -0.0001639588 -0.0001006605 7.80566e-05 3.2882e-06 0.7948031435 -0.3167460242
200298800.0 -0.7810938255 0.3257474223 9.1229e-06 -0.0001007048 8.51507e-05 8.95928e-05 0.7914737937 -0.324582085
205298770.0 -0.7776079304 0.3343179985 3.02666e-05 5.3193e-06 4.14514e-05 0.0002134236 0.7878778371 -0.3321511205
210298740.0 -0.7752382648 0.3425137182 -7.38661e-05 -0.0001072672 0.0001696931 0.0001350736 0.7842710888 -0.339658327
215298710.0 -0.7713693864 0.3510155603 -4.82327e-05 -0.0001211252 2.75765e-05 -3.7295e-06 0.7817351673 -0.3472083634
220298680.0 -0.7675073226 0.3586033893 0.0001762383 0.0001756266 1.58697e-05 -9.14688e-05 0.7772864331 -0.3544231541
225298650.0 -0.764230789 0.366327444 -5.47851e-05 -0.0001114329 2.19337e-05 3.53384e-05 0.7737150415 -0.361977668
230298620.0 -0.7602145861 0.3743725126 7.97964e-05 -0.0001099953 3.0321e-06 2.71708e-05 0.770874474 -0.3693491346
235298590.0 -0.7565462128 0.3828271547 4.55246e-05 -0.0001763312 1.42554e-05 0.0002689721 0.7668585116 -0.3770673773
240298560.0 -0.7519702736 0.3910727673 2.0615e-05 -5.41574e-05 3.24909e-05 -1.07813e-05 0.7633993531 -0.3848300627
245298530.0 -0.7485776463 0.3985489476 0.0001857875 -9.74906e-05 -5.26726e-05 0.0001080949 0.7593947997 -0.3920216472
250298500.0 -0.7438353872 0.4066366912 -8.93252e-05 0.0001412892 9.90624e-05 6.31841e-05 0.7554471409 -0.3993955904
255298470.0 -0.7395869882 0.4138922434 0.000110446 -0.0001041816 1.44342e-05 -5.67578e-05 0.751606131 -0.4069150695
260298440.0 -0.7354140699 0.421266233 -0.0002450033 -9.48007e-05 -5.16959e-05 0.000106364 0.7477618056 -0.41346895
265298410.0 -0.7315230244 0.4297991898 -3.8653e-06 -7.66655e-05 2.753e-05 -7.77434e-05 0.7437105914 -0.421236448
270298380.0 -0.7267816268 0.4373338453 -3.33016e-05 4.21891e-05 0.0001150467 -0.0001231914 0.7397372064 -0.4278011002
275298350.0 -0.7226192599 0.4445117661 -0.0003219705 -0.0001671948 0.0001552915 0.0001562878 0.7358344398 -0.4355489488
280298320.0 -0.7167405382 0.452519754 -5.80812e-05 7.59327e-05 0.0001150027 0.0001767772 0.7317992458 -0.4430655144
285298290.0 -0.71283273 0.4596331406 2.09725e-05 -8.24953e-05 4.35778e-05 0.0001927657 0.7277557863 -0.4497811963
290298260.0 -0.7077959476 0.4674224371 4.78394e-05 -0.0001937271 6.76156e-05 7.97595e-05 0.7235615811 -0.4569049028
295298230.0 -0.7027423562 0.4745920149 -9.91808e-05 -9.08024e-05 0.0002184256 -3.3491e-06 0.7197368554 -0.4641333021
300298200.0 -0.6980255946 0.4814482682 -6.7348e-06 -0.0002793971 -5.16311e-05 0.0001178899 0.7155371181 -0.4709451185
305298170.0 -0.6929616658 0.4883645485 -6.81009e-05 6.31334e-05 -9.05226e-05 0.0001139263 0.7112522206 -0.4788549755
310298140.0 -0.687249147 0.4962441828 -2.9575e-06 -0.0001298974 0.0001473254 -0.0001881457 0.7060869612 -0.486773025
315298110.0 -0.6828252457 0.503119464 0.0002226398 -7.3338e-06 3.05894e-05 -0.0003129658 0.7011239463 -0.4944747129
320298080.0 -0.6774076856 0.5100490354 -3.07956e-05 1.68761e-05 -0.0001398189 -0.000139444 0.6957966085 -0.5015534084
325298050.0 -0.6716138536 0.5173551216 -0.0001281455 3.89585e-05 -6.62199e-05 -6.35982e-05 0.6906178841 -0.5080149896
330298020.0 -0.6664185124 0.5242375189 -8.96163e-05 -0.000298235 -0.0001649183 8.9063e-06 0.6837240005 -0.5155247409
335297990.0 -0.6608812318 0.5310536037 9.29958e-05 -0.0001016873 -2.33275e-05 -0.0001245798 0.679217183 -0.5208914502
340297960.0 -0.6557508121 0.537523519 0.000151472 6.69299e-05 0.0001429598 -5.16e-07 0.6736840713 -0.5271413618
345297930.0 -0.6499705293 0.5445736306 6.9741e-06 0.0001073397 0.0001668263 5.4672e-06 0.6677005087 -0.534127391
350297900.0 -0.6446973406 0.550843019 0.0001471 -0.0001494235 -8.73076e-05 2.30135e-05 0.66205078 -0.5393188556
355297870.0 -0.6385388353 0.5579285232 -9.85628e-05 2.46369e-05 0.0001715073 8.9511e-05 0.6567288745 -0.5462798017
360297840.0 -0.6326394236 0.563213955 0.0001429108 0.0001326946 0.0001042377 -1.6331e-05 0.6515675087 -0.552667662
365297810.0 -0.6273452074 0.5701334846 -5.4072e-05 -1.04724e-05 9.91384e-05 2.71628e-05 0.6457477419 -0.5585989297
370297780.0 -0.6213337966 0.576950263 0.0002526365 5.01967e-05 7.55229e-05 1.97289e-05 0.6405743191 -0.5639438792
375297750.0 -0.614146812 0.5827614389 -6.65985e-05 -2.15358e-05 -7.5868e-05 -9.10646e-05 0.6347953436 -0.5704543324
380297720.0 -0.6087330198 0.5885718818 0.0001032883 0.0002251848 3.76373e-05 -0.0002978803 0.6284016475 -0.576484909
385297690.0 -0.6033393289 0.5949617552 9.0052e-06 -8.5145e-06 4.99761e-05 -4.33472e-05 0.623050109 -0.5823138242
390297660.0 -0.5970415062 0.6010490123 4.60404e-05 0.0002354181 2.70107e-05 1.05694e-05 0.6168979043 -0.5883510664
395297630.0 -0.5902452559 0.6079961682 -0.0002447839 -1.15664e-05 7.58979e-05 -0.0001557011 0.6115137686 -0.5942087869
400297600.0 -0.5842436071 0.6140196158 -0.0001910243 -1.49449e-05 -0.0001068709 -5.5571e-05 0.6054125504 -0.5999150947
405297570.0 -0.577750578 0.6187236456 -0.000229378 0.0002014708 -9.0986e-05 -7.20475e-05 0.5994422116 -0.6058377514
410297540.0 -0.5711836207 0.6256928404 -0.0001733494 4.88121e-05 8.1834e-06 7.69341e-05 0.5934227758 -0.6114524703
415297510.0 -0.5641640101 0.6305199392 -0.0001869542 -9.33952e-05 3.83873e-05 7.73164e-05 0.5877620448 -0.6173716622
420297480.0 -0.559140188 0.6371205891 -2.75288e-05 -0.000150181 6.34154e-05 2.45947e-05 0.582041326 -0.6224881107
425297450.0 -0.5518240401 0.642430505 5.42302e-05 -6.03624e-05 -0.0001953251 8.50177e-05 0.5758151996 -0.6283181697
430297420.0 -0.5455347834 0.648161706 -4.43042e-05 -8.69802e-05 7.556e-06 -0.0001569575 0.5691270886 -0.6343683222
435297390.0 -0.5385504371 0.6530390688 0.000136971 4.92855e-05 -0.0001784867 -8.8106e-05 0.5632132379 -0.6398317744
440297360.0 -0.5318046567 0.6589797784 4.3631e-06 0.0001653698 9.76536e-05 0.0001134003 0.5565074532 -0.6451286217
445297330.0 -0.5249992686 0.6641614941 -3.11031e-05 1.81918e-05 -0.0002254233 -5.223e-06 0.5512575348 -0.6509866752
450297300.0 -0.5180833799 0.6686010934 1.21977e-05 -0.0001582824 -0.0001349982 -9.0841e-05 0.5440730393 -0.6557123095
455297270.0 -0.5117272285 0.6744873138 2.5598e-05 9.05949e-05 1.97641e-05 -8.85e-07 0.5378053984 -0.660744842
460297240.0 -0.5050141602 0.6795493463 -0.000321119 -0.0002159937 0.0001499598 -1.8557e-06 0.5306932027 -0.666337623
465297210.0 -0.4980835863 0.6848801644 -2.27588e-05 -6.89459e-05 -0.0001334064 3.48147e-05 0.5243551968 -0.6711544271
470297180.0 -0.4900906757 0.6896521734 0.0001110585 -0.0001373639 1.97598e-05 0.0001572399 0.5173912861 -0.6760375535
475297150.0 -0.4838500255 0.6940320731 -7.14765e-05 -0.0001464305 -0.0001347665 -7.56475e-05 0.5112526128 -0.6814646268
480297120.0 -0.4765930464 0.6990123198 -1.77147e-05 1.42824e-05 -5.10959e-05 -8.06668e-05 0.5049415666 -0.6857539585
485297090.0 -0.4692243101 0.7037871372 0.0001745612 -3.17374e-05 -7.74711e-05 0.000132279 0.4985890871 -0.6907957772
490297060.0 -0.4624779717 0.7086503925 -3.51138e-05 -3.3227e-05 8.67413e-05 -4.00758e-05 0.490675599 -0.6959159805
495297030.0 -0.4549717374 0.7130773982 3.37138e-05 -9.63574e-05 -9.75979e-05 -0.000161732 0.484383007 -0.7003065712
500297000.0 -0.4477895242 0.7179267663 8.65002e-05 -9.44125e-05 7.15557e-05 0.0001263217 0.4773700284 -0.7052036246
505296970.0 -0.4400396268 0.7224384254 -0.0001612029 0.0001739144 9.35085e-05 -0.0001237397 0.4700449789 -0.7095397979
510296940.0 -0.4330142765 0.7267164541 0.0002601324 4.50495e-05 -1.88539e-05 -6.65832e-05 0.4625576941 -0.7139685065
515296910.0 -0.4250005598 0.7305009073 -7.82917e-05 -3.43702e-05 -3.20106e-05 2.76199e-05 0.4563933954 -0.7178846609
520296880.0 -0.4184498323 0.7353950981 7.83743e-05 -4.47851e-05 5.67397e-05 2.79064e-05 0.4486810665 -0.7230667588
525296850.0 -0.4097648575 0.738563671 -0.0002533361 -1.0237e-06 0.0001031315 -5.54643e-05 0.4417815258 -0.7260493102
530296820.0 -0.4028731034 0.7431814927 -3.9947e-06 0.0001188635 8.9707e-06 6.27587e-05 0.4348850258 -0.7306353746
535296790.0 -0.3955964772 0.7470051246 0.0001410276 0.0001512364 7.65871e-05 -7.53901e-05 0.4271447983 -0.7353893111
540296760.0 -0.388931235 0.7506134845 -3.53794e-05 -0.0001986913 -2.64166e-05 8.90958e-05 0.4200069363 -0.738585367
545296730.0 -0.3806233741 0.755045605 -5.81159e-05 0.0001594863 -9.681e-05 -0.000137134 0.4128317541 -0.7433579212
550296700.0 -0.3731118608 0.7588122906 0.0001441877 -3.81519e-05 -4.23782e-05 3.69195e-05 0.4055823131 -0.7474234581
555296670.0 -0.3650124236 0.7620714424 -0.0002353753 -5.93673e-05 0.0001054275 -2.76997e-05 0.3977903973 -0.7507171476
560296640.0 -0.3572906551 0.7662065526 -3.28759e-05 -3.63215e-05 -2.23529e-05 9.46128e-05 0.390230704 -0.7539271328
565296610.0 -0.350265469 0.7695473331 -0.0001489031 0.0001561865 -0.0001068683 0.0001125654 0.3828081666 -0.7581672637
570296580.0 -0.3424156467 0.7719306117 -0.0002283011 4.43561e-05 0.0001583493 -8.66303e-05 0.3751781211 -0.7617629383
575296550.0 -0.3345746133 0.7768177545 0.0001076109 -0.0002767561 -1.24065e-05 -6.10111e-05 0.3669020241 -0.7649384362
580296520.0 -0.3260286904 0.7796455226 1.2551e-06 -0.0002712798 -5.62188e-05 3.88623e-05 0.3602561552 -0.7689634584
585296490.0 -0.3185942595 0.7822019938 3.30901e-05 0.0001952112 -4.53125e-05 -6.6941e-06 0.3531573105 -0.7724143203
590296460.0 -0.3106414553 0.7855869319 -0.0001371526 -8.86412e-05 0.0001219483 3.2434e-05 0.3445547247 -0.7752372166
595296430.0 -0.3024772511 0.7882354772 0.0001823541 0.0002054164 -0.0001385738 1.19644e-05 0.3369564985 -0.7790204755
600296400.0 -0.2950328243 0.7919290126 0.0003888662 -7.6193e-06 -7.64492e-05 -3.81511e-05 0.3301958164 -0.7825470106
605296370.0 -0.2876015174 0.794142441 -4.0141e-06 2.46205e-05 3.90429e-05 -0.0001715079 0.321853405 -0.7852467744
610296340.0 -0.2789451212 0.7974598939 -5.34e-05 0.0001514419 0.000128499 -5.03442e-05 0.3142340157 -0.7877200024
615296310.0 -0.2699469806 0.8002612078 0.0001000164 -0.0001163777 -0.0001306704 0.0001440473 0.3062983292 -0.7913185036
620296280.0 -0.2628474289 0.8019227216 9.94241e-05 0.0001619037 0.0002303048 -8.8361e-06 0.2990342221 -0.7942977474
625296250.0 -0.2548606359 0.8050024135 -4.98167e-05 -1.00604e-05 -1.18141e-05 -0.0001198104 0.2908367611 -0.7967272451
630296220.0 -0.2464198355 0.807786564 -0.0002242071 1.78743e-05 -3.32317e-05 -0.0002490554 0.2824830098 -0.7994459548
635296190.0 -0.2383631724 0.8101591228 7.50355e-05 -0.0001390321 -3.9307e-05 6.97861e-05 0.2756341281 -0.8023948184
640296160.0 -0.2312360843 0.8122763136 0.0002120123 3.61462e-05 0.000119563 -0.0001296987 0.2667908422 -0.8048520223
645296130.0 -0.2227493262 0.8152883968 -0.0002065073 -4.1794e-05 6.04204e-05 -0.0001377842 0.259266123 -0.807412239
650296100.0 -0.2145122173 0.8165499459 -1.75883e-05 -4.21777e-05 0.000189913 -0.0001046494 0.2520202978 -0.8106863133
655296070.0 -0.2063205665 0.8194371464 0.0001462617 -8.65925e-05 -2.77462e-05 1.56872e-05 0.2438255574 -0.8120572046
660296040.0 -0.1982266449 0.820717374 8.42722e-05 0.0001519543 4.52443e-05 6.10535e-05 0.2363445174 -0.8147730613
665296010.0 -0.1896624182 0.8223435986 3.87846e-05 -3.41058e-05 5.67114e-05 3.64921e-05 0.2270755037 -0.8167800025
670295980.0 -0.1820606713 0.8241155274 2.92771e-05 7.80666e-05 -5.7142e-05 -5.85903e-05 0.2189964161 -0.8187510309
675295950.0 -0.1735291641 0.8260590128 -9.30209e-05 1.89821e-05 -0.0001991672 -9.9742e-06 0.2109045977 -0.8200832277
680295920.0 -0.164934096 0.8281317387 1.2175e-06 8.7524e-06 6.8734e-05 -9.08199e-05 0.2033656757 -0.8220695167
685295890.0 -0.1564917557 0.8300649836 -2.84153e-05 -0.0001241947 -1.14665e-05 -5.59991e-05 0.1952045883 -0.824051506
690295860.0 -0.1484845365 0.8306073523 -5.71703e-05 -0.0001101223 -0.0001483 4.18468e-05 0.186269182 -0.8254657844
695295830.0 -0.1408371535 0.831809469 0.0001303104 -0.0002061609 8.77329e-05 -0.0003234597 0.1782669493 -0.8267806116
700295800.0 -0.131584982 0.8337831179 -0.0001311927 -9.15585e-05 0.0001522435 -7.98121e-05 0.1702884791 -0.8288327088
705295770.0 -0.1243656674 0.8355951259 4.8242e-05 4.02039e-05 -1.33997e-05 6.49785e-05 0.1614795308 -0.8294193948
710295740.0 -0.1159822087 0.8361351715 0.000134491 8.89147e-05 -2.49798e-05 8.69653e-05 0.15353972 -0.8315334501
715295710.0 -0.1076040349 0.8371556771 -0.0002173211 7.348e-07 6.21381e-05 -9.65521e-05 0.1453183262 -0.8329683538
720295680.0 -0.0990012664 0.8381705104 7.00701e-05 -4.83728e-05 0.0001606926 0.0001419186 0.137171305 -0.83440925
725295650.0 -0.0910793548 0.8395439946 1.77838e-05 -2.92813e-05 0.0001617688 -9.5621e-06 0.1288738521 -0.8349109329
730295620.0 -0.0818395585 0.8406219517 -4.41499e-05 -1.15644e-05 -5.42135e-05 0.0003142655 0.119511153 -0.8364142683
735295590.0 -0.074160948 0.8408207017 -0.0003400606 4.44853e-05 -2.43157e-05 -8.9703e-05 0.1116996742 -0.8383351719
740295560.0 -0.0659585889 0.8419676911 0.0002425782 2.87098e-05 -2.15263e-05 3.65149e-05 0.1033945939 -0.8380199857
745295530.0 -0.0577790572 0.8420071839 -2.95899e-05 -0.0003102914 4.9139e-06 0.0002583477 0.0959433015 -0.8390308317
750295500.0 -0.0489633938 0.8427913952 -0.0002994351 6.746e-06 -0.0002591681 1.75719e-05 0.0868836048 -0.8397329286
755295470.0 -0.0409281469 0.8428436995 4.69418e-05 -6.08737e-05 4.07276e-05 -3.14317e-05 0.0790494907 -0.8414122676
760295440.0 -0.0328894775 0.8433409427 2.68831e-05 -8.70712e-05 -4.734e-05 5.66177e-05 0.0706285093 -0.8420332813
765295410.0 -0.0240257776 0.8438264143 0.000111196 -0.0001225327 -0.0001896065 -0.000141891 0.0627087768 -0.841568222
770295380.0 -0.0161354729 0.8441623214 0.0002408271 6.16681e-05 0.0002197995 0.0001227901 0.0533058385 -0.8430182809
775295350.0 -0.0076267559 0.8440833767 -6.34545e-05 0.0002453628 -8.96746e-05 -1.7441e-05 0.0445792032 -0.8431089979
780295320.0 0.0007577456 0.8440248272 -0.000112596 -6.16623e-05 2.83864e-05 0.0002270761 0.0370800918 -0.8433537766
785295290.0 0.0090437648 0.8432707659 7.1928e-06 -8.88775e-05 0.0002958737 -0.0001848853 0.0291609679 -0.8435950197
790295260.0 0.0179007591 0.8442286861 -8.2219e-06 -0.0002002855 -7.53451e-05 -7.63972e-05 0.0214055771 -0.8438968722
795295230.0 0.0257811659 0.8434309057 -5.69414e-05 -6.28292e-05 -0.0001165327 0.0001064464 0.0126058852 -0.8441164584
800295200.0 0.0342596191 0.8430358681 -0.0002215296 -8.21069e-05 -7.00477e-05 -0.0002073753 0.003873184 -0.8434833174
805295170.0 0.0424831821 0.8431409911 6.93492e-05 -6.34898e-05 5.22124e-05 -1.25805e-05 -0.0043643466 -0.8433685069
810295140.0 0.0511828012 0.8417687955 0.0001397237 0.0001123113 0.0001192209 -3.28787e-05 -0.0123882008 -0.8437308526
815295110.0 0.0590301914 0.8416954918 2.99616e-05 0.0001044005 4.5202e-05 1.54733e-05 -0.0212868816 -0.8427911469
820295080.0 0.067385445 0.8411967066 -5.83987e-05 5.28349e-05 -6.67903e-05 -0.0002074824 -0.0297323006 -0.842792782
825295050.0 0.0763426211 0.8401588525 3.4409e-06 9.49515e-05 3.85528e-05 -1.53051e-05 -0.036843755 -0.8425057444
830295020.0 0.0840381445 0.8397225382 0.0001411297 -1.61247e-05 0.0001828773 -3.80455e-05 -0.0452666266 -0.8418581295
835294990.0 0.0921741197 0.8388778059 4.43548e-05 8.15094e-05 0.0001200432 -0.0003224212 -0.0540001153 -0.8412356662
840294960.0 0.1002634045 0.8381379488 0.0002719825 -0.0001300361 0.0001494451 0.0002012886 -0.0623608104 -0.8403337413
845294930.0 0.1082602812 0.8370269791 -1.964e-05 -8.22698e-05 8.14069e-05 0.0001305964 -0.0705460505 -0.8391070195
850294900.0 0.116916189 0.836305686 3.30465e-05 -0.0001153018 -0.0001253536 -0.0002385828 -0.0795717494 -0.8384518947
