!Created with skrf (http://scikit-rf.org).
# Hz S RI R 50.0 
!freq ReS11 ImS11 ReS21 ImS21 ReS12 ImS12 ReS22 ImS22
300000.0 -0.2113838125 -0.0824734321 -0.0001513013 0.0021329775 -8.00365e-05 0.0014968724 -0.7705996269 -0.1697362012
5299970.0 -0.2145759222 0.0085936117 -0.0001351989 -8.71618e-05 0.0001769619 7.45942e-05 -0.7846502131 -0.0091598018
10299940.0 -0.2104154151 0.0211375338 -9.62368e-05 -4.29936e-05 -0.0001006081 -8.54515e-05 -0.7886461427 -0.0050095142
15299910.0 -0.2057221784 0.0308645865 -1.90799e-05 -3.7688e-05 7.53259e-05 -0.0001355622 -0.7937574994 -0.0027925831
20299880.0 -0.1994034774 0.039092085 -0.0001907107 -0.0001549311 -0.0001652262 0.0001179808 -0.8001556015 0.0015174044
25299850.0 -0.192873866 0.0455700531 -8.2929e-05 -3.80955e-05 -0.0001811393 2.76864e-05 -0.8069240199 0.0073406536
30299820.0 -0.1863578533 0.0503040997 -0.0001198642 0.0001432439 6.81911e-05 -0.0001502879 -0.8127046158 0.0146358252
35299790.0 -0.1798075567 0.0543332101 9.99971e-05 -0.0001286781 -0.0001818618 -7.76456e-05 -0.8177433952 0.0239055306
40299760.0 -0.1737635149 0.0570720871 -0.0002262132 -0.0002007546 1.38346e-05 -3.812e-07 -0.8215331681 0.0332244945
45299730.0 -0.1686106422 0.0593335964 2.09923e-05 5.85674e-05 -0.0001599698 -2.56806e-05 -0.8254236859 0.0420651399
50299700.0 -0.1629680777 0.060738564 0.0001702382 0.0001084579 2.05322e-05 -0.0001559263 -0.8278041533 0.0523559673
55299670.0 -0.1583270748 0.0616860765 0.0001319379 -4.79644e-05 -3.02521e-05 6.97663e-05 -0.8295894727 0.063011874
60299640.0 -0.1539715872 0.062214074 4.20747e-05 9.04922e-05 -0.0001160065 3.94266e-05 -0.8311799633 0.0726713073
65299610.0 -0.1501342387 0.0627447007 -8.91845e-05 0.0002260186 3.1918e-05 -2.676e-06 -0.8313645469 0.0827891775
70299580.0 -0.1464655366 0.062870223 -0.0002030468 0.0001357907 5.08572e-05 3.66655e-05 -0.8323792709 0.0922704172
75299550.0 -0.143272244 0.0625423355 -6.28819e-05 0.0001425268 -5.46776e-05 -0.0001599312 -0.8329620542 0.1023550365
80299520.0 -0.1404023802 0.0627690948 -0.0002418584 -7.42109e-05 -6.29738e-05 -6.40472e-05 -0.8323940783 0.1119443738
85299490.0 -0.1378044051 0.0623872199 3.14783e-05 3.30859e-05 3.95161e-05 -3.50838e-05 -0.8318157309 0.1216952682
90299460.0 -0.1353847338 0.0622396689 0.000266938 -1.21305e-05 0.0002277305 1.01286e-05 -0.8308818021 0.1309696927
95299430.0 -0.1333343859 0.0622932354 -0.0002181651 -5.4679e-06 0.0001816002 -7.69874e-05 -0.8298949529 0.1411395365
100299400.0 -0.1315216384 0.0617566656 -0.0001204417 -1.02498e-05 -9.78084e-05 7.72635e-05 -0.8292001071 0.1496698751
105299370.0 -0.1296987178 0.0616757952 -0.0001650293 6.99924e-05 0.0001124784 6.30323e-05 -0.8277766628 0.1587796399
110299340.0 -0.1283827952 0.0614040052 0.0001210637 7.26911e-05 -0.0001439752 -5.40831e-05 -0.8271588723 0.1682641501
115299310.0 -0.1268777146 0.0609094723 0.0001813775 4.17658e-05 -4.50753e-05 0.0001539149 -0.8250812115 0.177251162
120299280.0 -0.125532833 0.0609879291 -7.70359e-05 -0.000112001 -2.59214e-05 7.48107e-05 -0.8241297627 0.1861302168
125299250.0 -0.124882064 0.0609516076 -3.14865e-05 6.01769e-05 0.0001698482 -0.0001096551 -0.8218895287 0.1954081072
130299220.0 -0.123113887 0.0614041337 -0.0001738448 -1.6727e-05 4.0968e-05 -1.4282e-05 -0.8201575222 0.2038830335
135299190.0 -0.1223484345 0.0610614799 8.1347e-05 0.0001529282 -0.0002080156 7.25197e-05 -0.8182998096 0.2123405118
140299160.0 -0.1215921696 0.0613923087 -9.15152e-05 0.0001319614 -3.97967e-05 2.72986e-05 -0.8161680378 0.2214132836
145299130.0 -0.1206492275 0.0615291167 2.22867e-05 -5.4082e-05 0.000160544 0.000297269 -0.8141580676 0.2297662871
150299100.0 -0.1198831998 0.0614817781 6.44112e-05 0.0001327817 -0.0001197456 0.0002177599 -0.8116796939 0.238698815
155299070.0 -0.1193356607 0.0620068351 -4.05721e-05 0.0001835008 4.50931e-05 -0.0001164156 -0.8093312775 0.2476328966
160299040.0 -0.1184271701 0.0621956077 -0.0001524894 0.0001429856 0.000180867 -8.68503e-05 -0.8070897802 0.2566484641
165299010.0 -0.1184323827 0.0624876987 -4.39898e-05 0.0001122647 0.0002291713 0.0001536973 -0.8043212212 0.2649873567
170298980.0 -0.1176287903 0.0628075565 -0.0001105895 0.0001056748 -0.0001055938 7.96337e-05 -0.802146084 0.2733637755
175298950.0 -0.1169067477 0.0636546575 0.0001984466 9.51053e-05 4.56431e-05 0.0001138657 -0.7991722245 0.281683598
180298920.0 -0.1163251587 0.0634082574 2.80283e-05 4.26347e-05 -8.33705e-05 3.6129e-06 -0.7959892895 0.2903156234
185298890.0 -0.1159659953 0.0642647628 0.0001643621 0.0003447827 9.85858e-05 2.72054e-05 -0.7928804714 0.2985522095
190298860.0 -0.1152726479 0.0649314454 -1.54274e-05 1.98817e-05 -2.61463e-05 0.0002186415 -0.7897444356 0.3069861297
195298830.0 -0.114343362 0.0651064138 -2.02609e-05 4.73499e-05 -5.66474e-05 0.0001959349 -0.7870780297 0.3153493806
200298800.0 -0.1142684171 0.0661724133 0.0001165071 -6.14932e-05 4.37296e-05 5.8104e-06 -0.7833696701 0.3242922462
205298770.0 -0.1138552347 0.0666219765 8.21841e-05 0.000137929 -0.0001764704 0.0002521237 -0.7799188637 0.3320134807
210298740.0 -0.1132593937 0.0672089907 0.0001025068 0.0001045904 2.02917e-05 0.0001093675 -0.7772737837 0.339971214
215298710.0 -0.1130943591 0.067951142 -0.0003111755 -8.40998e-05 2.64928e-05 -2.84347e-05 -0.7734312674 0.3480547098
220298680.0 -0.1125319658 0.06841162 3.90023e-05 0.0001242152 7.98733e-05 0.000177966 -0.7695399399 0.3568730903
225298650.0 -0.1120353487 0.0692879139 0.00032691 0.000106913 4.0478e-06 6.997e-06 -0.7664015489 0.3648901736
230298620.0 -0.1114781934 0.069988389 0.0001656582 8.08481e-05 4.26864e-05 0.0001342857 -0.761271603 0.3727705054
235298590.0 -0.1113883333 0.0708634575 0.0002267962 0.0001128594 0.0001835976 4.97934e-05 -0.7577158699 0.3808547274
240298560.0 -0.1106841457 0.0718289797 2.85815e-05 -0.0001346948 0.0001633655 -8.2074e-06 -0.7540016614 0.3883282446
245298530.0 -0.1100680768 0.0725401093 3.11565e-05 -0.0001268377 0.0001118378 7.4227e-05 -0.7502550781 0.3966780162
250298500.0 -0.1099016495 0.0732696764 0.0002139209 3.26972e-05 -5.64262e-05 0.0003628084 -0.7457129999 0.4049363442
255298470.0 -0.1091058223 0.0740125846 0.0002708851 0.0004066896 0.0001449739 3.6857e-05 -0.7411698011 0.4124876197
260298440.0 -0.1085414106 0.0750191287 3.46021e-05 0.0001081383 -2.65866e-05 3.43071e-05 -0.7367000967 0.4198415382
265298410.0 -0.108088372 0.0759378235 0.0002240418 0.0002549306 1.79517e-05 -0.0002614797 -0.7325498514 0.4278176354
270298380.0 -0.1075629231 0.0770527974 -8.42271e-05 4.25712e-05 -1.61958e-05 -0.0001068198 -0.7276569279 0.4353067642
275298350.0 -0.106775661 0.0776334828 9.65472e-05 -0.0001786605 0.000113009 7.51088e-05 -0.722887171 0.4434642374
280298320.0 -0.1065947351 0.0784144821 6.443e-06 0.0001299327 -7.93451e-05 -0.00010636 -0.7184738658 0.4504533489
285298290.0 -0.1059392158 0.0795203769 0.0002416208 0.0002818039 0.0001345478 9.25699e-05 -0.7137274947 0.4579279557
290298260.0 -0.1053451206 0.0803569892 8.19148e-05 -1.51151e-05 0.0001586602 0.0001406704 -0.7085872936 0.4653235466
295298230.0 -0.1047440927 0.0813301752 -0.0001270546 3.48934e-05 4.62461e-05 4.59269e-05 -0.7037250948 0.4726557426
300298200.0 -0.1040077566 0.0820482835 0.0001598239 -2.68703e-05 5.91058e-05 0.0002488008 -0.6990630621 0.4802016269
305298170.0 -0.1035198064 0.0830529639 0.0001141837 0.0001392836 0.0001242863 0.0001965979 -0.6931055995 0.4879598603
310298140.0 -0.1028868639 0.0836242787 0.0001203814 -3.25478e-05 7.90116e-05 6.17028e-05 -0.6888717808 0.4952013455
315298110.0 -0.1024552742 0.0843438305 0.0001424933 1.9575e-05 0.0002678803 -0.000109815 -0.6836915695 0.5021292491
320298080.0 -0.1018255841 0.0855271646 6.30431e-05 0.0001760775 0.0001801892 -4.12727e-05 -0.6782389364 0.5093930844
325298050.0 -0.1014419338 0.0859488583 0.0001669244 1.28249e-05 -5.19374e-05 -0.0001189684 -0.672364786 0.5159943213
330298020.0 -0.100902348 0.087358985 0.0001498181 0.0001921213 0.0004155867 0.000103598 -0.6667000224 0.5231897711
335297990.0 -0.1002341815 0.0883648825 0.0002708465 0.0001342698 0.0002973806 -5.17741e-05 -0.6615283275 0.5303491436
340297960.0 -0.0999166361 0.0892555981 0.000153751 0.000162512 -1.40229e-05 -5.0919e-05 -0.6555873079 0.5371657873
345297930.0 -0.0994382762 0.0902765957 0.0003055604 6.67338e-05 5.05917e-05 0.0001298169 -0.6496821991 0.5442687297
350297900.0 -0.0985836799 0.0912534272 0.0002037059 0.0002085317 0.0001062999 4.18155e-05 -0.6441571765 0.5513106973
355297870.0 -0.0983278989 0.0921488441 2.489e-07 -3.02298e-05 9.65373e-05 -7.87545e-05 -0.6384532226 0.5575340422
360297840.0 -0.0971904851 0.0931976013 0.0002088963 4.64213e-05 1.29752e-05 0.0001857861 -0.6325217935 0.5634107147
365297810.0 -0.0964949649 0.094082842 0.0001053427 0.0001511438 -6.55834e-05 0.000252196 -0.6263119469 0.5706815453
370297780.0 -0.095746763 0.0950603278 -2.01402e-05 5.88181e-05 -1.93814e-05 0.0001122765 -0.621031067 0.576693585
375297750.0 -0.0950985989 0.0965357997 9.24701e-05 0.0002737215 1.90788e-05 -0.0002033317 -0.6146106074 0.5832597284
380297720.0 -0.0941001133 0.0972412132 0.0001228815 0.0001067109 0.0002518523 3.94371e-05 -0.608412171 0.5901914584
385297690.0 -0.0935590801 0.0982947221 0.0002496502 4.48475e-05 0.0001917718 5.87742e-05 -0.602243396 0.5957464842
390297660.0 -0.092727648 0.0992817706 0.0002472964 0.0001862075 0.0001845721 0.0001455246 -0.5956853225 0.6015599861
395297630.0 -0.0921525499 0.1002597114 2.86055e-05 -0.0001320612 -0.000140547 0.0002358815 -0.5894711284 0.6081950004
400297600.0 -0.0912045031 0.1012651767 0.0002226392 -4.79077e-05 0.0001180494 -0.0001915049 -0.5829976595 0.6140623472
405297570.0 -0.0904670849 0.1022809884 0.0003346306 0.0001565652 7.40352e-05 0.0001879601 -0.577498444 0.6198374833
410297540.0 -0.0896022054 0.1034255084 2.66519e-05 6.54614e-05 9.42758e-05 0.0001231071 -0.570051726 0.6255558104
415297510.0 -0.0884935303 0.104302313 0.0001183997 0.0001670465 0.0001628363 -8.11657e-05 -0.5639701071 0.6318289769
420297480.0 -0.0877563771 0.1050324461 -2.31849e-05 -4.93421e-05 0.0001217229 0.000122945 -0.5573367517 0.6368384747
425297450.0 -0.0870423915 0.1061960791 0.0003219709 -0.0001166366 2.82494e-05 0.0001341861 -0.5503129335 0.6431359632
430297420.0 -0.0861223736 0.1074583167 0.0001139667 0.0001564588 0.0001060296 0.0002790309 -0.5443312176 0.648460512
435297390.0 -0.0848327365 0.1081017457 0.0001325184 0.0001941103 0.0002305787 0.0001260836 -0.5371452713 0.6536551691
440297360.0 -0.0841966866 0.1089542842 0.0001851758 -0.0001557204 0.0003059156 0.0001027659 -0.5303814701 0.6588833317
445297330.0 -0.0834012124 0.1100609619 0.0002304116 0.0001502375 0.0001431095 7.76905e-05 -0.5234428696 0.6642075916
450297300.0 -0.0823038164 0.1106464514 0.0001247288 7.54679e-05 4.37659e-05 7.02671e-05 -0.5170786019 0.6700037171
455297270.0 -0.08139731 0.1119718899 0.0001100482 7.42061e-05 9.76578e-05 2.73688e-05 -0.5103544316 0.6752594684
460297240.0 -0.0806217468 0.1128342165 -0.0001150564 0.0002357898 0.0001586521 0.0002591656 -0.5025212347 0.6798556772
465297210.0 -0.0792413416 0.1137500896 0.0001006278 -5.2347e-06 0.0002512622 0.0001671998 -0.4966399576 0.6850883122
470297180.0 -0.0785273132 0.1146823032 6.62419e-05 0.0001771772 0.0001460388 0.0001267749 -0.4895261061 0.6897890551
475297150.0 -0.0774964846 0.1156938376 1.82187e-05 0.0002477772 0.0002223293 8.05697e-05 -0.4823004579 0.6945001181
480297120.0 -0.0765348434 0.1163210427 7.2647e-05 0.0002377107 0.0001496375 6.88189e-05 -0.4757269053 0.6999346146
485297090.0 -0.0756033875 0.117547022 0.0002504465 -1.5857e-05 6.58308e-05 8.82727e-05 -0.4684318871 0.7041474228
490297060.0 -0.074525698 0.1181996873 0.0003133835 -0.000149294 6.87858e-05 -4.24087e-05 -0.4611315418 0.708220394
495297030.0 -0.0736591691 0.1192041569 0.0001245417 0.0001846276 0.0001409221 5.54989e-05 -0.4538558312 0.7128547615
500297000.0 -0.0722970223 0.1199511247 0.0002124718 0.0002372334 0.0001635164 2.08512e-05 -0.4469667544 0.7177854954
505296970.0 -0.0716362572 0.120700183 0.0001467606 7.44241e-05 5.40641e-05 5.76003e-05 -0.4402032901 0.7217136964
510296940.0 -0.0700361749 0.1216151734 -7.00337e-05 0.0003783166 0.0002461778 4.11078e-05 -0.4327066067 0.7262776854
515296910.0 -0.0692495661 0.1228021456 0.0002914781 0.0001188486 0.0003375354 7.48364e-05 -0.4254331539 0.7305784518
520296880.0 -0.0681500059 0.1234033232 0.0001465281 0.0001757462 0.0001218779 2.268e-05 -0.417573525 0.7346437669
525296850.0 -0.0669566169 0.1243553339 0.0002291079 0.0001615924 0.0001107454 -4.58194e-05 -0.4095900901 0.7389654977
530296820.0 -0.0661277477 0.1249697839 0.0002260216 0.0002214167 0.0001348914 -2.96875e-05 -0.4031245576 0.7426805395
535296790.0 -0.0647999014 0.1259607516 0.0001530193 0.000140595 0.0002440665 7.13587e-05 -0.3958168268 0.7463633133
540296760.0 -0.0639416051 0.1265252853 0.000285143 0.0001578918 0.0002758918 0.0001573193 -0.3881028889 0.7506424265
545296730.0 -0.0626657046 0.1273797906 7.5777e-05 -3.60554e-05 0.0002816996 0.0002345186 -0.3811944041 0.7537050533
550296700.0 -0.0617714394 0.1283052338 -1.86496e-05 0.0001148871 0.0004384657 -0.0002091684 -0.3733327759 0.7582683546
555296670.0 -0.0601180121 0.1291805468 0.0001681611 8.14648e-05 0.000139587 0.000193486 -0.3657297034 0.761515362
560296640.0 -0.0591354597 0.1296350467 7.6609e-05 0.0001234194 0.0002173699 -1.24042e-05 -0.3581434332 0.7657398114
565296610.0 -0.0577707061 0.1305775099 0.0002705479 0.000276254 0.0001835711 1.94177e-05 -0.350353987 0.7686643487
570296580.0 -0.0568487938 0.1312935928 0.0004625281 0.0001993112 0.0002557879 -6.03446e-05 -0.3432032912 0.772274367
575296550.0 -0.055519265 0.1319723206 0.0001372982 0.0001392168 0.0001181435 -0.0001600958 -0.3349625575 0.7755413581
580296520.0 -0.0542731806 0.132575339 5.6856e-05 -7.52448e-05 0.0001706509 -5.284e-06 -0.3271871971 0.7790429432
585296490.0 -0.0531434892 0.1334081099 9.15687e-05 -2.6027e-06 4.02531e-05 1.99265e-05 -0.3195691638 0.7817718479
590296460.0 -0.0519906421 0.1338356126 0.0001245072 0.0001111155 0.0002498789 -0.0001158846 -0.3119702687 0.7850763467
595296430.0 -0.0505470132 0.1348093103 0.0001422794 6.61521e-05 0.0001789541 8.74604e-05 -0.3038081968 0.7873465675
600296400.0 -0.0493678666 0.1355989492 7.78626e-05 5.48236e-05 0.0001793011 -6.61992e-05 -0.2961927994 0.7911134872
605296370.0 -0.04810509 0.136409797 0.0004226128 -0.0001459381 -3.16966e-05 -4.4107e-05 -0.2887598089 0.7941330874
610296340.0 -0.0469394647 0.136585519 0.0003394579 0.0001827873 0.0004421679 8.87746e-05 -0.2804889142 0.7971024238
615296310.0 -0.0454643194 0.1375541995 0.0003936295 -0.0001131899 0.0001799283 8.39214e-05 -0.2725093593 0.799193596
620296280.0 -0.0443758571 0.1379103765 0.0003866068 4.41181e-05 0.0002963101 -9.20474e-05 -0.2648444239 0.8016136838
625296250.0 -0.0431166879 0.1386956844 0.0002987351 -3.88863e-05 0.0001080881 0.0001138886 -0.2566292557 0.8046398985
630296220.0 -0.0416019266 0.139344178 0.0004328349 0.000205101 0.0001819072 1.61611e-05 -0.2483323146 0.807135995
635296190.0 -0.0404921923 0.1399507375 0.0001595275 0.0001159941 0.0004062963 -3.73102e-05 -0.2411556077 0.8091971191
640296160.0 -0.0388327635 0.1402972926 0.0002206169 1.6972e-05 0.0001556397 -0.0001413397 -0.2321394444 0.8115295038
645296130.0 -0.0383385659 0.1410834657 0.0003607534 -3.86796e-05 0.0003425566 2.77574e-05 -0.224964063 0.8140995383
650296100.0 -0.0366331439 0.1418279051 0.0004667676 -0.0001169092 0.0002286514 -1.73598e-05 -0.2161392401 0.8171832545
655296070.0 -0.0352434048 0.1420880666 -5.27968e-05 0.0001757639 0.0001882868 2.48167e-05 -0.2085676601 0.8182500092
660296040.0 -0.0341385317 0.1428616895 0.00015645 7.20912e-05 -2.56648e-05 -3.82403e-05 -0.2003591248 0.8202412414
665296010.0 -0.0326134743 0.143227097 9.68783e-05 -8.41066e-05 6.06104e-05 6.11129e-05 -0.1930311078 0.8224144786
670295980.0 -0.0312767406 0.1437024076 0.0001414154 -6.03857e-05 0.0002326945 -0.0002060213 -0.1848937575 0.8238505581
675295950.0 -0.0301075908 0.1441201694 1.79039e-05 -5.88121e-05 0.0002066598 -3.87475e-05 -0.1761852432 0.8266461698
680295920.0 -0.0281631957 0.1449731162 0.00026314 0.0001214768 0.0001781481 2.94905e-05 -0.1680431347 0.8280413582
685295890.0 -0.0270466122 0.1452992122 8.51862e-05 -0.0001761052 0.0003028483 -3.60144e-05 -0.159645551 0.8299991648
690295860.0 -0.02554724 0.1457311096 0.0002140576 -0.0001026119 0.0001694083 -6.82537e-05 -0.1515647136 0.8307268627
695295830.0 -0.0241908776 0.1458657964 -4.4152e-06 -5.13224e-05 0.0002498998 7.61368e-05 -0.1437652336 0.8328968461
700295800.0 -0.0229923049 0.146558372 0.0001026697 -0.0001498092 0.0002460434 9.27613e-05 -0.1350579999 0.8335473544
705295770.0 -0.0214387312 0.1470929679 0.0002907569 0.0001898315 0.0003367241 -1.92126e-05 -0.1274619567 0.8353647445
710295740.0 -0.0202335174 0.1475354964 0.0002183193 -1.2888e-06 0.0005094909 -5.94239e-05 -0.1188680608 0.8367714382
715295710.0 -0.0187581671 0.1478988485 0.0002194204 -2.89234e-05 0.0001388694 2.7443e-06 -0.110617884 0.8375636602
720295680.0 -0.0175378252 0.1482645213 0.0001597268 4.07119e-05 0.0001769739 0.0001218235 -0.1022125159 0.8389440618
725295650.0 -0.0158305851 0.1486255068 0.0003264634 -6.70068e-05 0.000214735 -1.07807e-05 -0.0940168201 0.8399884521
730295620.0 -0.0146857622 0.1487582449 9.85854e-05 -0.0003167926 0.0001602819 0.0001299263 -0.085524523 0.8406029055
735295590.0 -0.0129328098 0.1493239224 0.0001675238 -0.000104131 0.0003604375 0.0001562071 -0.0772221201 0.8406182244
740295560.0 -0.0116062058 0.1498463241 0.0001537544 -0.0003614098 0.000223952 9.19731e-05 -0.0695748307 0.8416472017
745295530.0 -0.0102507882 0.1500098781 0.0003651832 0.0002613794 0.00029488 5.04415e-05 -0.0613208928 0.8426140986
750295500.0 -0.0088433679 0.1502307045 3.23958e-05 -4.4163e-06 0.0001830388 4.46475e-05 -0.0524028195 0.8430338317
755295470.0 -0.0070547913 0.1505347364 0.0002208301 -9.03816e-05 0.0001128489 -0.0001030259 -0.04481541 0.843510992
760295440.0 -0.0058067227 0.1507537429 0.0002042978 -0.0001500518 0.0004584671 -0.0001207767 -0.0365787157 0.8438140221
765295410.0 -0.0046277605 0.1508115061 3.23016e-05 0.0001532158 0.0002745374 4.05359e-05 -0.0273786953 0.8445829298
770295380.0 -0.0029858967 0.151562191 0.0001019208 0.0001049669 0.0002820473 9.56687e-05 -0.0194122096 0.8446527496
775295350.0 -0.0018141318 0.1517340785 0.0001531907 -2.95616e-05 0.0001491756 -0.0001849296 -0.0118267302 0.8442889012
780295320.0 3.32958e-05 0.1515965063 0.0003839425 -4.70088e-05 0.0003090936 -9.8082e-06 -0.0031406991 0.8448355026
785295290.0 0.0014148663 0.1523113331 0.0003457862 0.0001386364 0.000394761 -0.0001441698 0.0046959887 0.8447800084
790295260.0 0.0027584109 0.1522217306 0.0002270451 7.19083e-05 0.000219618 1.17993e-05 0.0141862075 0.8444055965
795295230.0 0.0045298992 0.1525288421 0.0002441917 -1.58922e-05 0.0004159288 -1.65529e-05 0.0222751866 0.8447728309
800295200.0 0.0057322295 0.1527973916 2.59805e-05 -2.19617e-05 0.0004538267 -0.0001748353 0.0299828691 0.8438848096
805295170.0 0.007247942 0.1528635084 0.0003473733 -5.05571e-05 0.0002879377 6.83973e-05 0.0382081733 0.8434290323
810295140.0 0.008692449 0.1527508306 0.0005085996 -3.10884e-05 0.0002359639 -9.30856e-05 0.0466896688 0.8442787459
815295110.0 0.0102457444 0.1529339995 0.0004475816 -0.0004154109 0.0002090927 0.0001702751 0.0548037681 0.8431220838
820295080.0 0.0116119593 0.1528272252 0.0002616963 -6.3166e-05 0.00028654 -0.0001645084 0.0627469095 0.8422233912
825295050.0 0.0132919081 0.1532613474 0.0003141439 -0.0001147244 0.0002457206 -5.14304e-05 0.0715362982 0.8420188679
830295020.0 0.0148851872 0.153297573 0.0002604866 -0.0001986253 0.0004038963 0.0002111842 0.0790339025 0.8408881355
835294990.0 0.0162445357 0.1534799531 0.0002865023 -3.23354e-05 -2.12688e-05 0.0001947682 0.0876224655 0.8399929563
840294960.0 0.0176536754 0.1532486416 0.0001701019 -0.0002912481 0.0005103667 -0.0001167699 0.0958838501 0.8394480532
845294930.0 0.0190912148 0.1535677412 0.00041197 0.0001955761 0.0002421844 -4.60941e-05 0.1046102182 0.8377950727
850294900.0 0.0208881141 0.1533806121 0.000305329 0.000110962 0.000274248 -0.0001383637 0.112665847 0.8373573808
