!Created with skrf (http://scikit-rf.org).
# Hz S RI R 50.0 
!freq ReS11 ImS11 ReS21 ImS21 ReS12 ImS12 ReS22 ImS22
300000.0 -0.2115862674 -0.0931104579 -0.0009510598 0.000353925 0.0008298355 0.0011164133 -0.7647418276 -0.1825526874
5299970.0 -0.2155165277 0.0074504003 -7.27818e-05 -0.0001002606 3.64121e-05 -6.02144e-05 -0.784938385 -0.0091395021
10299940.0 -0.2119647057 0.0204839411 -2.39418e-05 -0.0001331209 0.0001544762 1.12318e-05 -0.7878830693 -0.0053687239
15299910.0 -0.2063353772 0.0299471581 5.5623e-06 -0.0001607306 -6.8002e-05 -3.79137e-05 -0.7929396721 -0.0022384155
20299880.0 -0.2005525396 0.0381358307 5.91368e-05 0.0001475724 -3.669e-06 -6.37377e-05 -0.7997113085 0.0019272677
25299850.0 -0.1942389716 0.0448661528 -5.97586e-05 -0.0001758499 -1.14723e-05 -4.32788e-05 -0.806665226 0.0083792393
30299820.0 -0.1877682984 0.0496386724 -9.1506e-06 -0.0001809906 -4.25835e-05 0.0001160186 -0.8120709411 0.0155958119
35299790.0 -0.1813426697 0.0533261534 -5.92429e-05 0.0002350586 -5.82218e-05 7.49187e-05 -0.8172759816 0.0248599919
40299760.0 -0.1754293275 0.056188383 -5.18356e-05 0.0001095738 -5.3942e-06 0.0001835929 -0.8215818674 0.0340031679
45299730.0 -0.1699048467 0.0581965763 6.76083e-05 -2.32393e-05 -1.0923e-05 -0.0001411098 -0.8243309771 0.0436889309
50299700.0 -0.1644000691 0.0594724504 3.81367e-05 -9.09155e-05 -4.1611e-05 -6.46069e-05 -0.826625328 0.0540564081
55299670.0 -0.1598050288 0.0606341156 -4.92316e-05 0.0002194286 -1.42415e-05 0.000169188 -0.8291039364 0.0638823074
60299640.0 -0.1552038557 0.0609943994 0.0001118783 0.0001620564 0.0001799658 -4.08483e-05 -0.8299487221 0.0737915446
65299610.0 -0.1510456963 0.0614226366 -0.0001959617 -0.0001464017 0.0001020915 9.44878e-05 -0.8303344915 0.0838528619
70299580.0 -0.148039783 0.0614338212 6.2854e-06 0.0002043707 9.9132e-06 1.74415e-05 -0.8314793429 0.0938271662
75299550.0 -0.144705357 0.0615871445 -0.00014881 2.93255e-05 0.0001265486 3.51586e-05 -0.8312320991 0.1037243922
80299520.0 -0.1417696015 0.0612813231 7.65302e-05 0.0002014969 6.47201e-05 -1.56172e-05 -0.8314130516 0.1141657466
85299490.0 -0.1389123304 0.0609839307 0.0002173789 0.000172747 -9.97317e-05 6.9314e-06 -0.8303534688 0.1231113108
90299460.0 -0.1363654724 0.0608307973 0.000107922 -3.95153e-05 8.97158e-05 -3.16261e-05 -0.8291736756 0.1333182417
95299430.0 -0.1343722987 0.0605006501 5.13506e-05 0.0001784828 6.22573e-05 0.000120854 -0.8285372978 0.1425992563
100299400.0 -0.1323887763 0.0603364178 5.37001e-05 7.15897e-05 6.10469e-05 0.0001867654 -0.8267738916 0.1514117179
105299370.0 -0.130257887 0.0603095486 -0.0002742441 0.0001232453 8.46659e-05 1.15566e-05 -0.8262000665 0.16075213
110299340.0 -0.1287081887 0.0600350393 0.0001922596 9.72421e-05 -4.02443e-05 -0.0001555261 -0.8247332775 0.1696578026
115299310.0 -0.1272483679 0.060145234 0.0001199368 -4.31058e-05 6.21496e-05 -0.0001170042 -0.8234934211 0.1791002322
120299280.0 -0.1259311556 0.0599901455 6.51571e-05 -5.50576e-05 0.0001682136 7.09397e-05 -0.8210344218 0.1878552462
125299250.0 -0.1249094627 0.0598642158 -8.35114e-05 7.64532e-05 -7.59486e-05 -0.0001189529 -0.8201932391 0.1972094646
130299220.0 -0.1237840399 0.0598310887 7.38398e-05 8.31144e-05 -4.8818e-05 5.7476e-05 -0.8181623682 0.2055065963
135299190.0 -0.1226961394 0.0598679951 0.0001646596 0.000214728 1.79707e-05 9.92686e-05 -0.8163384378 0.214892895
140299160.0 -0.1219559278 0.060396421 -6.10816e-05 0.000185331 -0.0001325414 -5.99751e-05 -0.8138014115 0.2232906739
145299130.0 -0.1208815843 0.0606837962 0.0001859989 0.0001642849 4.29271e-05 -2.98834e-05 -0.8122424293 0.2328906004
150299100.0 -0.1203418375 0.0604189027 5.73699e-05 -1.67783e-05 0.0002467863 0.0001404443 -0.8100323111 0.2413830554
155299070.0 -0.1192339397 0.0611543724 -1.9374e-06 0.0001461823 0.0001566267 0.0001332896 -0.8073669803 0.2506686011
160299040.0 -0.118790923 0.0614030473 6.80787e-05 0.0001159685 2.86049e-05 0.0001674852 -0.8041827735 0.2592634288
165299010.0 -0.1180875505 0.0617550111 0.0001058525 0.0001753407 4.14692e-05 2.35784e-05 -0.8022832245 0.2677828885
170298980.0 -0.1172605134 0.0623743009 8.52201e-05 -3.50379e-05 -7.07557e-05 3.02599e-05 -0.7998685787 0.2753566062
175298950.0 -0.1169559553 0.0625029468 2.63898e-05 0.0001108416 2.74131e-05 0.0002443665 -0.7964154227 0.2848672012
180298920.0 -0.1163780448 0.063096233 -6.97042e-05 0.0001568572 3.79658e-05 -1.54281e-05 -0.7937152827 0.2935912329
185298890.0 -0.1159802953 0.0635143421 -6.24444e-05 0.0001315442 -1.1346e-05 -8.87028e-05 -0.7907330137 0.3016240256
190298860.0 -0.1150925332 0.0644870992 -7.73742e-05 -1.02805e-05 5.32596e-05 0.0001622756 -0.7875635524 0.3101293923
195298830.0 -0.114436004 0.0651525906 9.10807e-05 0.0001236518 0.0001535986 4.96791e-05 -0.7843128509 0.3182112859
200298800.0 -0.113679145 0.0655923298 2.0471e-05 -0.0002175458 9.46729e-05 0.0001135145 -0.7810892297 0.3267151489
205298770.0 -0.1137651403 0.066356348 0.000192431 0.0001367927 -0.0003309089 7.58135e-05 -0.7780332554 0.3350898049
210298740.0 -0.1131820981 0.0673343793 8.4605e-05 -0.000111678 -0.0001173136 0.0001062275 -0.7744068923 0.3429666628
215298710.0 -0.1128478362 0.0679570834 6.27942e-05 0.0002732844 -5.24484e-05 3.10549e-05 -0.7708069018 0.3511626506
220298680.0 -0.1120415636 0.0684573704 -0.000123317 7.56684e-05 3.03031e-05 7.65841e-05 -0.7666986499 0.3592770097
225298650.0 -0.111482114 0.0695647257 -4.61755e-05 -1.38855e-05 7.5442e-06 0.000152007 -0.7634363593 0.3674736688
230298620.0 -0.1113804924 0.0703933522 2.81964e-05 -3.34322e-05 -5.53898e-05 0.0002315003 -0.7589792772 0.3756889978
235298590.0 -0.1110009576 0.0712651834 0.0002221059 7.89411e-05 0.0002661715 0.0002201631 -0.7549829536 0.3836284996
240298560.0 -0.110469668 0.0721937451 0.0001235711 0.0002473561 0.0001304676 0.0001024639 -0.7516403104 0.3905025718
245298530.0 -0.1098644101 0.0727499532 0.0001273292 -2.83285e-05 0.0001039243 0.0002486607 -0.7473807312 0.399074544
250298500.0 -0.1094929376 0.0736089877 0.0002030843 -3.60214e-05 0.000203481 -9.22862e-05 -0.7428804794 0.406752637
255298470.0 -0.1090590967 0.0746989017 7.22823e-05 -3.86014e-05 0.0001482083 -3.86842e-05 -0.7393676843 0.4142992951
260298440.0 -0.1084257338 0.0755762341 0.0001767794 0.0001757706 2.2475e-05 -1.93636e-05 -0.7342285406 0.4218276078
265298410.0 -0.1081609186 0.0765111577 0.0002256474 -1.92181e-05 6.9312e-06 -5.45107e-05 -0.7301829556 0.4298725158
270298380.0 -0.1075937113 0.0774325056 0.0002472277 -4.33582e-05 0.0001611975 0.0003234549 -0.7252746609 0.4383135014
275298350.0 -0.1070550439 0.0785819672 8.72122e-05 -4.95337e-05 6.95996e-05 5.941e-05 -0.7206493815 0.4453966345
280298320.0 -0.1065995409 0.0794690456 -7.42421e-05 -8.332e-06 0.000226401 4.3429e-06 -0.7164970458 0.452905685
285298290.0 -0.1060544122 0.0805150892 1.61656e-05 0.0001365653 8.39656e-05 0.0002070805 -0.711919662 0.4606394349
290298260.0 -0.1056057172 0.0814046143 0.0001330939 9.82737e-05 -2.07103e-05 0.0001177537 -0.7063394418 0.4677865482
295298230.0 -0.1051546361 0.0820318888 9.39579e-05 2.77176e-05 0.0001921402 -4.0074e-06 -0.7012471942 0.475122115
300298200.0 -0.1048515546 0.0832800449 7.1702e-06 -0.0002012465 -3.41965e-05 0.0003136555 -0.6968603563 0.4823032252
305298170.0 -0.1043114254 0.0840487556 0.000162288 0.0001498722 0.0001893215 -0.0001890389 -0.6915425167 0.4894568927
310298140.0 -0.1035970885 0.0845213818 0.0001892056 0.0001180268 6.17619e-05 0.0003138879 -0.6865765839 0.4966207046
315298110.0 -0.1033598564 0.0855574213 -4.5671e-06 -6.01519e-05 -1.4914e-06 0.0002003353 -0.681265182 0.5037540507
320298080.0 -0.1026941149 0.086585756 8.29476e-05 9.02096e-05 0.0002259846 7.79318e-05 -0.6764685326 0.5108789647
325298050.0 -0.102509287 0.0870656151 0.0002689096 -0.000175192 0.000103766 -0.0001585001 -0.6703522606 0.5181381753
330298020.0 -0.1018340399 0.0885744653 7.81556e-05 0.0001432133 4.68887e-05 0.0002713732 -0.6652815899 0.5244859773
335297990.0 -0.10151688 0.0894412189 0.0002219376 -0.0001731552 0.0003050535 -8.06074e-05 -0.6594289391 0.5314716976
340297960.0 -0.1011147451 0.0905519009 9.23362e-05 0.0001011148 0.0001789661 -0.0001201186 -0.6541945299 0.5381450944
345297930.0 -0.1003399832 0.0915082817 0.0002496959 4.49974e-05 -4.92952e-05 5.50487e-05 -0.6487249684 0.5447674872
350297900.0 -0.1000180682 0.0925335301 9.59914e-05 0.000114412 0.0001683137 0.0001335914 -0.6430521311 0.5506588179
355297870.0 -0.0993530295 0.0934263169 -7.05811e-05 1.2935e-06 -0.0001404176 0.0002245235 -0.6370529386 0.5590118401
360297840.0 -0.0987634373 0.0946417026 9.49584e-05 -9.34174e-05 3.68483e-05 0.0003336958 -0.6307079751 0.5648767801
365297810.0 -0.0980886679 0.095718191 0.0002754317 0.0001593396 0.0002225678 -4.56355e-05 -0.6259308812 0.570722999
370297780.0 -0.0976799176 0.0963801313 0.0001618399 -1.88518e-05 2.01581e-05 -0.0001152285 -0.6197206866 0.5776332372
375297750.0 -0.096699672 0.0975689231 6.91378e-05 -8.3184e-06 0.0003174406 4.78241e-05 -0.6136965002 0.5840456613
380297720.0 -0.0963190746 0.098807286 4.80309e-05 4.50852e-05 0.0001179499 -8.27254e-05 -0.6067757892 0.590270451
385297690.0 -0.0954280936 0.0993757268 -1.88743e-05 8.48437e-05 3.5058e-05 0.0002037032 -0.6011134617 0.5965017944
390297660.0 -0.0942829287 0.1003114097 0.0002240941 -3.44135e-05 9.56505e-05 0.0001640126 -0.5950294885 0.602034098
395297630.0 -0.0937318099 0.1014448908 0.0001868412 0.0001088593 0.0003066941 0.0001323059 -0.5883986547 0.6080100048
400297600.0 -0.093426833 0.1021891905 3.7678e-06 8.07365e-05 0.000110506 7.04854e-05 -0.5824922306 0.6137971525
405297570.0 -0.092506583 0.1031909642 3.7355e-06 8.61186e-05 0.0001808375 8.18506e-05 -0.5753211262 0.6197396288
410297540.0 -0.0914079735 0.1042273641 0.0001847177 -4.55004e-05 0.0001571454 -0.0001119546 -0.569483556 0.625938629
415297510.0 -0.0911016556 0.1051463102 5.06721e-05 0.0001046136 0.0001301017 0.0001759334 -0.5632298748 0.6314673038
420297480.0 -0.0898222475 0.1058757671 5.45223e-05 8.88702e-05 0.0001360269 2.44118e-05 -0.556139449 0.6381811094
425297450.0 -0.0890309893 0.1068511621 7.87274e-05 -0.0001039707 0.0001723223 3.21998e-05 -0.5496642195 0.6423064949
430297420.0 -0.0882330887 0.1075154407 0.0003158275 0.0002310399 0.0002086245 -5.74405e-05 -0.5431744124 0.6487834282
435297390.0 -0.0875168576 0.1086133855 0.0001449057 -7.02814e-05 5.37923e-05 -8.70985e-05 -0.5368906921 0.6544065845
440297360.0 -0.0864982807 0.1095714501 3.93428e-05 9.47955e-05 0.0002855456 -1.36578e-05 -0.5302395215 0.6593849355
445297330.0 -0.0855725914 0.1103995294 0.0001243858 0.0002115807 0.000252053 -2.28329e-05 -0.5227908422 0.6652389208
450297300.0 -0.0846823886 0.1111636611 0.0001012047 5.55907e-05 2.74799e-05 0.0001542464 -0.5155593888 0.6696886627
455297270.0 -0.0838476048 0.1122221529 0.0002106112 0.0001475926 8.16857e-05 4.52505e-05 -0.5092682409 0.6755280991
460297240.0 -0.0826001522 0.1129107198 0.0001661461 -1.51085e-05 0.0001176177 -0.0002353083 -0.5026826096 0.6799691827
465297210.0 -0.0817817707 0.1139488312 7.46387e-05 6.27318e-05 7.03386e-05 7.8882e-06 -0.4950896805 0.6851659309
470297180.0 -0.0806385255 0.1148829823 0.0001956509 0.0001492447 0.0001346009 1.22777e-05 -0.4883031639 0.690191387
475297150.0 -0.0798219079 0.1158547208 -2.33531e-05 0.0001788303 9.40197e-05 -0.0001198524 -0.4813006484 0.6950940791
480297120.0 -0.0786153716 0.1165019983 4.792e-07 0.0001400304 0.0001747701 0.0001792881 -0.4742768532 0.7002059749
485297090.0 -0.0775044481 0.1174506252 0.0002039574 0.0001108367 0.0004179958 0.0001731428 -0.4667423599 0.7045350854
490297060.0 -0.0758737289 0.1183383803 0.0002691438 5.85801e-05 0.0002719419 9.09057e-05 -0.4593407534 0.7088584407
495297030.0 -0.0754353917 0.1191612193 0.0001159614 -3.54976e-05 9.90025e-05 0.0003258789 -0.4523588822 0.7133402329
500297000.0 -0.07412785 0.1200418893 -6.64283e-05 2.71443e-05 0.0003089228 8.75525e-05 -0.4451937695 0.7183143817
505296970.0 -0.0727513472 0.1209209943 -4.55614e-05 -2.6207e-06 0.0001724496 -0.0001262527 -0.4371690914 0.7227142319
510296940.0 -0.071818299 0.121581713 0.0001462387 0.0001385834 0.0001645164 -1.96187e-05 -0.4300084602 0.7274707644
515296910.0 -0.0707749927 0.1226766263 0.0001987412 8.62716e-05 8.66968e-05 1.24251e-05 -0.4231870038 0.7310527997
520296880.0 -0.0690546479 0.1231642829 0.0001545967 5.26094e-05 0.0001504782 4.69891e-05 -0.4153361128 0.7359235363
525296850.0 -0.0682318782 0.1238733746 0.0001574992 0.0001265572 9.44256e-05 0.0001684242 -0.408091787 0.7396282904
530296820.0 -0.0672666827 0.1250394455 0.000343376 3.19029e-05 0.0002387133 -2.2039e-06 -0.4005331054 0.7434224787
535296790.0 -0.0653798583 0.1257594695 0.0001161252 0.000138463 0.0002407127 -0.0001740029 -0.3929043635 0.7480150196
540296760.0 -0.0646869634 0.1265844169 0.0002946582 -6.78332e-05 0.00028621 7.01432e-05 -0.3850442431 0.7513747754
545296730.0 -0.0635811005 0.1277690008 0.0002164294 0.0002005441 0.0001701712 9.22841e-05 -0.3778490102 0.7553628998
550296700.0 -0.062048822 0.128449036 0.0003701584 0.0002111513 0.0002505316 0.0001300566 -0.3696634357 0.7596352993
555296670.0 -0.0610020117 0.1292103417 7.47201e-05 0.0001654517 0.0001943975 -0.0001833369 -0.362531346 0.7619878931
560296640.0 -0.0595813324 0.1296449983 0.0002622241 -0.0001124443 0.0002471127 0.0001314048 -0.354617882 0.7665861154
565296610.0 -0.0584766058 0.1307126213 0.0001765853 0.0002618135 0.0001484244 0.0001606369 -0.3463415452 0.7701633966
570296580.0 -0.0572481492 0.1318184615 0.0001133399 -5.65481e-05 0.0002886899 8.49479e-05 -0.3391607522 0.7730329338
575296550.0 -0.0557244818 0.1322063391 0.0002436729 -0.0001620258 1.51433e-05 -5.6841e-06 -0.3308602606 0.7761058575
580296520.0 -0.0546038511 0.1333390513 -4.18905e-05 6.59593e-05 0.0001438132 -0.0001203954 -0.3235967154 0.7797307079
585296490.0 -0.0531335212 0.1339034126 0.000142206 7.63345e-05 0.0002309602 -7.44626e-05 -0.3151848794 0.7830646844
590296460.0 -0.0515137843 0.1348030775 0.0003667581 9.05195e-05 5.01595e-05 -1.80297e-05 -0.3077048412 0.7859258475
595296430.0 -0.0503195554 0.1354107853 4.7558e-05 6.09964e-05 6.8991e-05 0.0001657817 -0.2997297461 0.7890116098
600296400.0 -0.0490569274 0.1361538764 -5.01459e-05 3.47459e-05 0.0001513823 0.0001202359 -0.2918231791 0.79127224
605296370.0 -0.0481906539 0.1371295918 0.0001458653 9.42746e-05 0.0002309838 0.0001959254 -0.2838994974 0.795134575
610296340.0 -0.0464311249 0.1377725559 0.000148525 -5.5799e-06 0.0003265912 2.09044e-05 -0.2763711158 0.7975917702
615296310.0 -0.0448550824 0.1384936771 0.0001265315 -2.66862e-05 0.0001938953 -3.74772e-05 -0.267294127 0.800523095
620296280.0 -0.0439583109 0.1394722879 0.0001796334 0.0001335245 0.0001384309 -8.48935e-05 -0.2602285584 0.8031323996
625296250.0 -0.0428333968 0.139961575 0.0001966745 1.83217e-05 2.49383e-05 6.09225e-05 -0.2517263998 0.8051242753
630296220.0 -0.041159892 0.1408195663 0.0002693109 0.0001518948 0.0002738195 -4.09572e-05 -0.2435592528 0.8079690275
635296190.0 -0.0397504693 0.1415720581 0.0001643671 8.54811e-05 0.0001829967 5.46006e-05 -0.2357588958 0.8099340159
640296160.0 -0.0385136402 0.1421356247 0.0001101666 0.0001290924 0.0002125694 5.4277e-06 -0.227089302 0.8124069332
645296130.0 -0.0369184311 0.1429900665 6.82184e-05 5.7797e-06 0.0002448761 1.1506e-06 -0.219338986 0.8144903732
650296100.0 -0.0356833732 0.1434285523 9.17153e-05 0.0001407493 0.000358908 7.9241e-06 -0.210770825 0.816691981
655296070.0 -0.0343536907 0.1441920854 -4.39624e-05 0.0001399876 0.0001452109 0.0001766722 -0.2031675083 0.8188857717
660296040.0 -0.0332470405 0.1448498981 0.0001299848 -7.60863e-05 0.0002161513 0.0001953557 -0.1941355461 0.8205808697
665296010.0 -0.0316143393 0.1456968184 -6.51919e-05 0.0001115403 7.26784e-05 0.0001909331 -0.1860916629 0.8225792288
670295980.0 -0.0306396596 0.1461774928 -1.32198e-05 -6.34755e-05 0.0002022807 0.0001111439 -0.1783369816 0.8242630591
675295950.0 -0.0290587319 0.1469202055 0.0002266108 5.92253e-05 0.0001660763 -0.0001625931 -0.1695079948 0.8260831445
680295920.0 -0.0278373669 0.1476407301 0.0002997541 0.0001413471 0.0002607624 4.08821e-05 -0.1613569575 0.8277465508
685295890.0 -0.0261855682 0.1480988339 0.0004840696 4.68532e-05 0.0001648417 0.0001164814 -0.1531564079 0.8295040202
690295860.0 -0.0250796917 0.1486583613 0.0002371371 -0.0002254638 0.0002369235 -2.86166e-05 -0.144782253 0.8311705751
695295830.0 -0.0237022861 0.1490354862 8.433e-06 9.51942e-05 0.0002180576 3.01836e-05 -0.1365905487 0.8326738516
700295800.0 -0.0222081544 0.1501221457 0.0002246629 -0.0001008846 0.0001437662 0.0001150684 -0.128194747 0.8332721657
705295770.0 -0.0211657704 0.1504519157 0.0003314331 3.28728e-05 0.0001976122 2.92018e-05 -0.1202555889 0.8355457899
710295740.0 -0.0198522781 0.1509006982 0.0002508873 5.3836e-06 9.79952e-05 0.0001425844 -0.1114403082 0.8360809603
715295710.0 -0.0180538088 0.1513485406 3.80141e-05 4.77404e-05 0.0001713358 2.72359e-05 -0.1031746193 0.8365674932
720295680.0 -0.0168488672 0.1518262144 0.0002021284 -0.0001808476 3.17846e-05 -0.0001125661 -0.0945063848 0.8377673962
725295650.0 -0.0157268646 0.1525173512 0.000106856 -6.52353e-05 0.0002523941 5.59359e-05 -0.0869117896 0.8398120713
730295620.0 -0.0146465887 0.1527902911 0.0003382311 0.0001675515 0.0002721129 0.000117137 -0.0784587774 0.8402715219
735295590.0 -0.0129289022 0.1535346009 0.0003253397 -1.57803e-05 0.0001971638 2.54018e-05 -0.0697680078 0.8404656235
740295560.0 -0.0119961329 0.1538660714 0.0004107711 -4.46946e-05 0.0002193129 -1.35857e-05 -0.0613737756 0.8415576992
745295530.0 -0.0103036435 0.154199199 0.0002907244 -8.58984e-05 0.0002614068 -0.0001602403 -0.0531361014 0.8416065966
750295500.0 -0.0093221559 0.154660769 0.0003928727 -6.13089e-05 0.0004015878 3.97631e-05 -0.0444330101 0.8424326258
755295470.0 -0.0077067392 0.1549015186 -1.55506e-05 -0.0001000935 0.0002908169 -9.12805e-05 -0.0366874077 0.8428928585
760295440.0 -0.0064088042 0.1555157039 0.000369142 1.62665e-05 9.63684e-05 -0.0001272868 -0.0276462104 0.8430504171
765295410.0 -0.0050220607 0.1555947216 0.0002951921 -0.0001733174 0.0002227259 3.2439e-05 -0.0194647984 0.84326206
770295380.0 -0.0036672438 0.1558900881 0.0003561154 9.78248e-05 1.52014e-05 -0.0002208951 -0.0111543551 0.8431155874
775295350.0 -0.002500354 0.1566473389 0.0004968631 0.000196864 0.0001442218 9.447e-06 -0.0029047307 0.8436145352
780295320.0 -0.0010362616 0.156668339 0.0004115587 -0.000202497 0.000312287 -9.82382e-05 0.0056211729 0.8440421351
785295290.0 0.0002444493 0.1567729826 0.0002598437 -0.0002477211 0.0003635883 -1.5966e-06 0.0134956769 0.8438047322
790295260.0 0.0016353051 0.1570342236 0.0002945698 -0.0002307155 0.0004450639 5.7937e-06 0.0222226971 0.8432089937
795295230.0 0.0027134296 0.1574726219 0.0001530814 0.0001724541 -1.5758e-05 2.83343e-05 0.0302490322 0.8424088625
800295200.0 0.0043553751 0.1575396886 0.0002019468 0.0001669222 0.0003321213 9.18621e-05 0.0385683515 0.8422834176
805295170.0 0.0058118143 0.1581608369 0.0003017954 2.30565e-05 0.0003078544 -8.20962e-05 0.0477618341 0.8416078888
810295140.0 0.0070895979 0.1583420455 0.0003071421 -8.08265e-05 0.0002150946 -0.0002408542 0.0559946192 0.8410464882
815295110.0 0.0081355328 0.1584610998 0.0003509062 -0.0001129768 0.0003244966 -0.0002125563 0.0637904791 0.8411139009
820295080.0 0.0097508176 0.1582810183 0.0002945852 -0.0001495144 0.0004500325 7.2908e-06 0.0718424525 0.8403961117
825295050.0 0.0109132029 0.1585493891 0.0001591997 -0.0002420474 0.0002919425 -2.38631e-05 0.0805151323 0.8395667213
830295020.0 0.0124724928 0.1588140835 0.0002647302 -0.0001776476 0.0001547274 -1.44829e-05 0.0885202557 0.8380371731
835294990.0 0.0137907027 0.1587381582 0.0004753862 1.9309e-05 0.0003668 7.58128e-05 0.0970995949 0.8379850529
840294960.0 0.0152983178 0.158632185 3.35189e-05 8.597e-05 0.0001977811 -8.19516e-05 0.1060493526 0.8366202646
845294930.0 0.0164031371 0.1588569779 0.0003049884 -0.0001895369 0.0004637906 -0.0001959824 0.1140309865 0.8352304131
850294900.0 0.0184224163 0.1586330457 0.0001412965 1.58129e-05 0.0002713746 3.06967e-05 0.1219258296 0.8349461534
