!Created with skrf (http://scikit-rf.org).
# Hz S RI R 50.0 
!freq ReS11 ImS11 ReS21 ImS21 ReS12 ImS12 ReS22 ImS22
300000.0 -0.0444094686 -0.0735070909 -0.0012395618 0.0001190363 -7.02765e-05 0.001488727 -0.7632877247 -0.2039048002
5299970.0 -0.0500389481 0.0143507332 6.29081e-05 0.0002275006 0.0001436655 0.0001072824 -0.7846932039 -0.0101895325
10299940.0 -0.0445970721 0.0327570322 -0.0001240545 0.0002048368 -0.000151659 0.000289396 -0.7875665461 -0.0056246295
15299910.0 -0.0357279484 0.0473737794 0.0001235311 -1.65609e-05 -8.71759e-05 -3.36564e-05 -0.7927710538 -0.00261542
20299880.0 -0.0255594252 0.0592565705 -2.06062e-05 -4.30162e-05 -0.0001673593 6.17959e-05 -0.7994151803 0.0015441113
25299850.0 -0.0141257742 0.0686230513 -0.0001239898 -6.34681e-05 0.0002268523 3.44992e-05 -0.8056876236 0.008301193
30299820.0 -0.0024338357 0.0752609957 8.54614e-05 2.95571e-05 7.39675e-05 1.32306e-05 -0.8120297651 0.0156357328
35299790.0 0.0092493613 0.0798549437 1.3344e-05 -6.2567e-05 -0.0002020557 -9.72061e-05 -0.8166940316 0.0246471195
40299760.0 0.0207650021 0.0826701557 5.32704e-05 5.71044e-05 -3.14514e-05 3.29273e-05 -0.8212751555 0.0335131155
45299730.0 0.0310106056 0.0836007882 -0.0001919935 -3.54001e-05 -7.00716e-05 0.0001785056 -0.8240551269 0.0436660257
50299700.0 0.0415988132 0.0836395079 1.80664e-05 0.0003922889 6.8698e-05 -4.1169e-05 -0.8257116535 0.0539007176
55299670.0 0.0510102514 0.0827363081 -9.22176e-05 -3.56352e-05 8.44993e-05 -6.23661e-05 -0.8285154716 0.063613061
60299640.0 0.0594863647 0.0806000705 -5.56985e-05 7.10906e-05 -0.0001584677 3.75188e-05 -0.8291770116 0.0736952771
65299610.0 0.0677483013 0.0783470383 -5.01982e-05 0.0002934024 -9.21517e-05 -2.87055e-05 -0.8298169592 0.0839717357
70299580.0 0.0744701331 0.0750188019 -0.0001913212 0.0002168606 -2.96877e-05 0.0001228903 -0.8309102756 0.0934825812
75299550.0 0.0809768202 0.0715078821 0.0001329922 8.05612e-05 1.57785e-05 -4.37991e-05 -0.8303926247 0.1041633471
80299520.0 0.0867984555 0.0679800014 -2.68588e-05 0.0001967678 -0.0001104247 -3.19229e-05 -0.8305513573 0.1136358071
85299490.0 0.0920483239 0.0638771015 6.57588e-05 3.46448e-05 0.00018571 8.09609e-05 -0.8297678802 0.1233668104
90299460.0 0.0968028581 0.0600632156 0.0002088823 -5.35588e-05 2.41186e-05 -1.87005e-05 -0.8283744925 0.1328473169
95299430.0 0.1008599986 0.0561667775 0.0001043405 5.70579e-05 4.23954e-05 -1.106e-06 -0.8275937396 0.1427151042
100299400.0 0.1045658123 0.0519237277 -2.2453e-05 8.93928e-05 -2.51653e-05 -6.47575e-05 -0.8268332635 0.1516117545
105299370.0 0.1079282609 0.0479457784 9.37188e-05 -6.01185e-05 9.94255e-05 8.9648e-05 -0.8256297811 0.1607905112
110299340.0 0.1109210366 0.0438978306 -6.05997e-05 -0.0001374757 -1.39233e-05 8.1323e-06 -0.8238455188 0.1696109134
115299310.0 0.1132120881 0.040203265 -6.73179e-05 -0.000245256 -3.78225e-05 6.78994e-05 -0.8229932388 0.1793847594
120299280.0 0.1158096133 0.0360016048 -2.80985e-05 0.0001689945 -0.0001036115 0.0001335774 -0.820984059 0.1884916235
125299250.0 0.1175877098 0.0321235131 -6.48777e-05 0.000147945 -1.79561e-05 -7.82093e-05 -0.8191485212 0.1969782902
130299220.0 0.1193800877 0.0280318456 3.48251e-05 -5.64002e-05 0.000199668 0.0001212098 -0.8174214982 0.2056159749
135299190.0 0.1210956688 0.0244505004 8.4787e-06 -4.54675e-05 -7.02556e-05 2.00174e-05 -0.8158278455 0.2152090902
140299160.0 0.1222045629 0.0209442283 -0.0001233324 6.1102e-05 0.0001492204 -0.0001349354 -0.8137862812 0.223248513
145299130.0 0.1234242599 0.0174342285 -3.12205e-05 7.35036e-05 6.9997e-06 -5.25723e-05 -0.8119212686 0.2322000789
150299100.0 0.1242519755 0.013804878 -0.0001234634 9.41055e-05 0.0002285677 8.73862e-05 -0.8093757137 0.2415498073
155299070.0 0.125019012 0.0106819622 0.0001757292 -6.31788e-05 2.88075e-05 -2.54406e-05 -0.8067088214 0.2503188805
160299040.0 0.1255725087 0.0073220479 -1.34509e-05 4.83845e-05 -0.0001357692 0.000168627 -0.8044963498 0.2587610229
165299010.0 0.1261581499 0.00409254 0.0001018355 -7.2956e-05 -3.70717e-05 1.74153e-05 -0.8015483226 0.2673064564
170298980.0 0.1264732926 0.000747047 6.9536e-06 0.0001250575 3.64586e-05 -6.10077e-05 -0.799512687 0.2756784962
175298950.0 0.126791397 -0.0024256314 -7.36861e-05 -8.71441e-05 -0.0001517365 -2.34706e-05 -0.7962437147 0.2850332275
180298920.0 0.126854412 -0.0052127178 0.000174067 -5.39102e-05 -7.7695e-06 8.92548e-05 -0.792983875 0.2934884308
185298890.0 0.1269695191 -0.0084009302 -3.29039e-05 0.0001352383 1.28114e-05 0.0002147093 -0.7902619519 0.3018073634
190298860.0 0.1269867344 -0.0112264379 0.0001403863 0.0002167202 -5.7239e-06 -0.000115399 -0.7874085799 0.3098150583
195298830.0 0.1269928247 -0.0135702476 0.0002671828 9.33585e-05 0.0001095907 -5.63432e-05 -0.7837117867 0.318335577
200298800.0 0.1270531105 -0.0165734797 0.0002266949 -0.0001178076 -4.65201e-05 0.0002345612 -0.7810540934 0.3264167439
205298770.0 0.1262610096 -0.0192998474 7.02529e-05 4.44145e-05 -4.9309e-06 0.0001075026 -0.7774121325 0.3353755755
210298740.0 0.1262249249 -0.0216967658 0.0003118576 0.000144952 7.965e-05 7.41013e-05 -0.7738583403 0.3433994119
215298710.0 0.1255015958 -0.0243433427 5.22727e-05 0.0001265448 -0.0002385051 0.0001140507 -0.7702843799 0.3517648162
220298680.0 0.1255513162 -0.0268478408 -0.0001141822 -5.36415e-05 5.19279e-05 -3.87954e-05 -0.7663695985 0.3595419264
225298650.0 0.1250098499 -0.0293714855 -5.53329e-05 0.0001976537 0.000153342 7.9928e-06 -0.76298102 0.3679368558
230298620.0 0.1241398752 -0.0313879893 0.0001587702 0.0001704001 9.59081e-05 5.34031e-05 -0.7588229883 0.3753273458
235298590.0 0.1233380124 -0.0338136282 -5.14143e-05 0.0001664205 -9.37557e-05 0.0002506408 -0.7546780382 0.3831351101
240298560.0 0.1227917381 -0.0361374092 1.7674e-06 0.0001557898 0.0001143904 2.16756e-05 -0.7508983409 0.3908586654
245298530.0 0.1220019591 -0.0387562233 0.0001322412 -2.10264e-05 -2.97757e-05 -0.0001051488 -0.7473004257 0.3992170969
250298500.0 0.1213003494 -0.0407754195 -1.44717e-05 0.0001828483 -7.89679e-05 0.000220258 -0.7424063702 0.4071607851
255298470.0 0.1206909181 -0.0425559125 5.6464e-06 0.0001830824 -4.95986e-05 -5.39046e-05 -0.7387801922 0.4147257228
260298440.0 0.1199329014 -0.0449007114 -3.62124e-05 5.4551e-05 -9.9764e-06 -8.863e-07 -0.7338640798 0.4222865901
265298410.0 0.1187360645 -0.0471301008 -9.4707e-06 -7.18711e-05 -3.82961e-05 1.3624e-06 -0.7297864032 0.4303344536
270298380.0 0.1180629486 -0.0491300101 0.0002220038 -2.97895e-05 7.04866e-05 0.0001235502 -0.7248712519 0.4383921136
275298350.0 0.116747756 -0.0506042127 0.0003214106 0.0001031903 -2.0599e-06 7.62171e-05 -0.7204533878 0.4452271321
280298320.0 0.116150333 -0.0527380757 0.0001331308 6.551e-06 0.0001356669 -1.04881e-05 -0.7161518016 0.4530347407
285298290.0 0.1150354159 -0.0545600266 8.0283e-05 -5.10817e-05 -0.0001092987 9.44853e-05 -0.7116407717 0.4604170489
290298260.0 0.1139250298 -0.0565214455 0.000220524 6.86505e-05 0.0001411477 7.90559e-05 -0.7063237047 0.4673185266
295298230.0 0.1128835468 -0.0585429009 0.0001644821 9.22951e-05 3.63274e-05 -5.69076e-05 -0.7011926203 0.4753402265
300298200.0 0.1119817851 -0.0602151602 0.0001124665 0.0001581671 3.68773e-05 0.0001063923 -0.6962988356 0.4823597568
305298170.0 0.1109071282 -0.0622304715 5.52709e-05 8.99146e-05 -5.61053e-05 -7.71665e-05 -0.6909507637 0.4894873436
310298140.0 0.1097324869 -0.0643966097 0.0001720856 0.0003282172 -0.0001524621 -4.7952e-06 -0.6865227773 0.4974524037
315298110.0 0.1085625326 -0.0664516786 3.85305e-05 -9.12817e-05 3.98045e-05 5.80683e-05 -0.6810114124 0.5039299794
320298080.0 0.1069533466 -0.0683882516 7.59287e-05 -3.32685e-05 -0.000103579 -6.71306e-05 -0.6759198904 0.5107621205
325298050.0 0.1054709384 -0.0701648477 -8.38536e-05 -4.89609e-05 0.0001217499 -1.77072e-05 -0.6701740242 0.5180407157
330298020.0 0.1038171855 -0.0716088218 0.0001495255 -0.000267119 0.0001684922 9.41412e-05 -0.6644441703 0.5245595577
335297990.0 0.102555388 -0.0727792725 0.0001703145 -8.0872e-05 0.0001189595 -2.24474e-05 -0.6591196344 0.5317332864
340297960.0 0.1009303777 -0.0744109811 -5.75812e-05 5.2928e-05 5.24336e-05 3.86505e-05 -0.6541321957 0.5383801976
345297930.0 0.0995412045 -0.0758506759 0.0001629085 0.0001296924 -0.000261708 0.0002448271 -0.6484710656 0.544578484
350297900.0 0.0982071136 -0.0775535925 0.0002042714 0.0001324462 9.8174e-05 0.0002759537 -0.6427002485 0.5511091057
355297870.0 0.0970826069 -0.0789490124 0.0001020704 -4.83925e-05 -9.88366e-05 -2.57965e-05 -0.6369753431 0.5590099478
360297840.0 0.0952498489 -0.0801268495 0.0001012741 -0.0002500587 -5.57825e-05 6.12256e-05 -0.6307979933 0.5654918534
365297810.0 0.0938663061 -0.0815246235 0.0002009956 -5.23536e-05 6.72735e-05 0.0001278975 -0.6257713566 0.5707489801
370297780.0 0.0926544113 -0.082900075 0.0001224273 -0.0001138737 0.0001762014 -3.25182e-05 -0.6190281305 0.577902214
375297750.0 0.0911202509 -0.0839984962 0.0001519378 0.0002186632 0.0001862092 -0.0001987419 -0.6135690873 0.5839242919
380297720.0 0.0896103775 -0.0852007063 0.0001011704 2.363e-06 -2.15116e-05 0.0001430328 -0.6066677342 0.5906743099
385297690.0 0.0883598881 -0.0865266366 0.0001977697 3.74431e-05 0.0003708638 7.35376e-05 -0.6016322075 0.5966784692
390297660.0 0.0868587709 -0.088257495 0.000234736 0.0001672448 -0.0001079762 -0.0001020338 -0.5945617707 0.6020374594
395297630.0 0.0855029049 -0.0892998825 -3.01062e-05 -0.0001145509 -8.26465e-05 -0.0001188565 -0.5880934104 0.6076215625
400297600.0 0.0837972488 -0.0904202118 -0.0001368164 5.37154e-05 6.69547e-05 -0.000146589 -0.5826730727 0.6144505599
405297570.0 0.0822234158 -0.0918677937 0.0002550111 0.0001415674 5.41482e-05 -2.05e-08 -0.5752968687 0.6206164798
410297540.0 0.0813494155 -0.0928273717 3.01395e-05 0.0001550803 7.54033e-05 -2.51833e-05 -0.5694386305 0.6262617043
415297510.0 0.0791200431 -0.0940705487 9.69004e-05 -0.0001426576 0.0002883662 -0.0001067108 -0.5626108108 0.6321213883
420297480.0 0.0779375247 -0.0954739161 0.0001681275 0.0002138578 0.0001661338 1.29964e-05 -0.5559447461 0.6381159541
425297450.0 0.0766367805 -0.0964991413 2.84234e-05 2.86654e-05 0.0003331598 0.0001971301 -0.5493115904 0.6428519026
430297420.0 0.0747749971 -0.0974950745 0.0002754277 -2.30732e-05 1.10493e-05 -9.2556e-05 -0.5424320766 0.6486394749
435297390.0 0.0730862212 -0.0986129415 0.0001350373 0.0001211596 0.0001063612 8.72638e-05 -0.5362898312 0.6545506832
440297360.0 0.0716516216 -0.0995769954 -1.12011e-05 -0.0002178965 1.17999e-05 0.0001362927 -0.530344674 0.6596150988
445297330.0 0.070422535 -0.1004660906 0.0001650815 4.43323e-05 -3.734e-07 4.09295e-05 -0.5227786523 0.6654932225
450297300.0 0.0689719257 -0.1015449438 -0.0001041799 -2.51382e-05 0.0001492312 -6.09709e-05 -0.5158016349 0.669733815
455297270.0 0.0671332657 -0.1026100861 0.0003503559 6.73384e-05 0.0001060843 -4.48311e-05 -0.5086457269 0.6757693325
460297240.0 0.0656455122 -0.103407437 0.0003370055 0.0001246819 0.0002177387 6.37332e-05 -0.5022149977 0.6798558457
465297210.0 0.0645686069 -0.1043202895 0.0001234251 2.51294e-05 -4.74954e-05 0.0001422901 -0.4950184986 0.6861179104
470297180.0 0.0626497905 -0.1053438932 -0.00015178 -1.56352e-05 0.0001671149 -8.22973e-05 -0.4880715517 0.6901809988
475297150.0 0.0608835562 -0.1058965785 -8.5131e-06 1.9001e-06 0.0002689705 -5.61851e-05 -0.4813095366 0.6958122167
480297120.0 0.0597738204 -0.1069443536 0.0001399688 0.0002123362 0.000230865 9.30203e-05 -0.474071103 0.700227865
485297090.0 0.0581036532 -0.1075457587 0.0001582906 2.71886e-05 0.0001073174 0.000142798 -0.4671159233 0.7049733059
490297060.0 0.0568177564 -0.1085000841 0.0002140269 -2.5641e-06 0.0001371165 0.0001735108 -0.4593502022 0.7093147869
495297030.0 0.0552358924 -0.1093903478 3.43161e-05 5.70845e-05 3.06312e-05 0.0001261214 -0.452144752 0.7141076449
500297000.0 0.0534296231 -0.1097926776 0.0001401193 8.75116e-05 8.20286e-05 9.54784e-05 -0.4451243734 0.7184607596
505296970.0 0.0519392838 -0.1108366926 9.00022e-05 -4.41336e-05 0.0001296209 0.0001224753 -0.4373440739 0.722966893
510296940.0 0.0505258029 -0.1112471522 5.7694e-05 -0.0002417039 5.24142e-05 3.07184e-05 -0.4301773943 0.7275409789
515296910.0 0.0486777402 -0.1117001328 0.0002502904 9.2232e-06 0.0001321226 1.21975e-05 -0.4228019467 0.7308502378
520296880.0 0.0473147929 -0.1123359435 2.5195e-05 6.66994e-05 0.0001910694 8.1635e-06 -0.4153606545 0.7358376646
525296850.0 0.0455217133 -0.1130886253 0.0001201623 0.0001181179 0.0003310276 -5.46056e-05 -0.4083255176 0.7396186251
530296820.0 0.0438072643 -0.1135282026 6.78749e-05 0.0001799497 -6.47861e-05 5.03349e-05 -0.4003910506 0.7438877785
535296790.0 0.0427110747 -0.1139542892 -4.12322e-05 -0.0001140242 0.0001533893 6.70163e-05 -0.3934477818 0.7483907881
540296760.0 0.0412732501 -0.1146969906 5.63883e-05 9.39405e-05 0.0002022707 -0.0001967989 -0.3848824444 0.7515890847
545296730.0 0.0390483511 -0.1147502043 -0.000122075 9.05155e-05 9.20025e-05 0.0001807838 -0.3777160739 0.7558218375
550296700.0 0.0379027406 -0.1150856232 3.79106e-05 8.3296e-05 0.0001356825 4.8254e-06 -0.3702268801 0.7592179913
555296670.0 0.0362912769 -0.1155994457 -8.1304e-06 0.0002559949 8.72703e-05 3.25754e-05 -0.3623311967 0.7626162001
560296640.0 0.0348048184 -0.1161179669 0.0001057216 -2.82092e-05 0.0001261611 9.47689e-05 -0.3547186525 0.766623806
565296610.0 0.0329037547 -0.1163889149 -3.36378e-05 5.7705e-05 0.0002460079 -0.0001563667 -0.3466045305 0.7698466604
570296580.0 0.0313134134 -0.1166002323 0.0002988632 -5.85997e-05 7.38977e-05 -7.64101e-05 -0.3389335561 0.7734159216
575296550.0 0.0300071869 -0.1170133393 0.0001615269 2.25838e-05 0.0002220654 0.0001050305 -0.3309304272 0.7765596458
580296520.0 0.0281042265 -0.117049626 -0.0001041768 -0.0001056867 1.25273e-05 -6.17711e-05 -0.3238206023 0.7798833089
585296490.0 0.0267058848 -0.1169269091 4.05249e-05 -0.0001023023 0.0002462068 1.26044e-05 -0.3157867668 0.7833990524
590296460.0 0.0252223899 -0.1174591639 0.000100515 -6.49121e-05 0.0001831603 -1.7482e-06 -0.3075949249 0.7859736859
595296430.0 0.0235616412 -0.1174930884 0.0001542394 -8.0786e-05 2.44337e-05 7.31448e-05 -0.2999918241 0.7892783648
600296400.0 0.0218482426 -0.1175979339 0.0003147549 5.26519e-05 0.0003695762 0.0001708244 -0.2917081559 0.7918686201
605296370.0 0.0200719282 -0.1173497881 0.000198486 -0.0001736655 0.0002388903 -6.69117e-05 -0.2838652601 0.795608535
610296340.0 0.0187440363 -0.1175441575 -1.16368e-05 0.0002601863 0.000198178 7.74744e-05 -0.2759438898 0.7979499206
615296310.0 0.0172166311 -0.1177884475 0.0001690077 7.39143e-05 0.0001319051 4.12015e-05 -0.2675196958 0.8006110808
620296280.0 0.0153084326 -0.117348498 4.46121e-05 9.10477e-05 0.0001377872 -0.0001086861 -0.2596657948 0.8031863869
625296250.0 0.0136672037 -0.1176874568 0.0002064545 0.0001280524 0.0001560931 -9.07814e-05 -0.2512259014 0.8054327837
630296220.0 0.0119438929 -0.1174002964 0.0003221733 8.62066e-05 0.0001280717 0.0001361142 -0.2432793288 0.8080658585
635296190.0 0.0101422486 -0.1169895466 2.16489e-05 0.0001121721 0.0003220544 -3.83459e-05 -0.2352731847 0.8099361346
640296160.0 0.0087012294 -0.1173819157 0.0001215 -6.78156e-05 3.96506e-05 -8.06415e-05 -0.2272169493 0.8126836547
645296130.0 0.007423228 -0.1171926354 0.000222521 0.000211996 0.0001081588 0.0001637193 -0.2195537489 0.8145645571
650296100.0 0.0056105197 -0.1170120314 -1.52355e-05 0.000116641 -7.68336e-05 -7.46076e-05 -0.2109673296 0.8167796334
655296070.0 0.003790581 -0.1167574355 0.0001609071 -0.0001508057 -2.3675e-06 0.0001824645 -0.203226719 0.8188637246
660296040.0 0.0020696187 -0.1164598401 0.0001800129 3.4922e-05 0.000193284 -5.95186e-05 -0.1945408798 0.8211932326
665296010.0 0.0003156583 -0.1161466977 0.0001147887 1.62492e-05 4.59793e-05 -0.0001312482 -0.186256939 0.8222353712
670295980.0 -0.0014252756 -0.1158002973 0.0002825146 -0.0001085792 0.0002350348 0.0001331629 -0.1783116867 0.8243314053
675295950.0 -0.0030005895 -0.115672679 -1.82697e-05 0.0001871024 0.0003136033 2.12505e-05 -0.169924358 0.8267799875
680295920.0 -0.0047506516 -0.115359689 0.0001261375 0.00028786 0.0001907593 0.0001726723 -0.1617522803 0.8282604011
685295890.0 -0.0065405209 -0.1148475333 0.0001057831 3.91899e-05 -3.95035e-05 0.0001254466 -0.1529874163 0.8297744504
690295860.0 -0.0078792316 -0.1147986109 -0.0002012295 1.0413e-06 0.0001802641 0.0001026176 -0.1448559174 0.8312574324
695295830.0 -0.0097674982 -0.1145033603 0.0002721866 0.0001464875 4.4944e-05 0.0001317162 -0.136936527 0.8330926524
700295800.0 -0.0115738147 -0.1137469344 0.0002338779 -1.85623e-05 0.0001731671 -4.80157e-05 -0.1287035838 0.8336708679
705295770.0 -0.0130621283 -0.1134052463 0.0002770354 -3.21553e-05 8.05318e-05 -0.0001406807 -0.1206383915 0.8352863678
710295740.0 -0.014704227 -0.1126824723 0.0001083465 -6.55389e-05 2.36964e-05 -0.0001364124 -0.1114183717 0.835962966
715295710.0 -0.0160697132 -0.1126672767 0.0001675406 -1.06721e-05 9.43158e-05 -8.35851e-05 -0.1028526398 0.8366258182
720295680.0 -0.0180291214 -0.1120404956 0.0002770396 -8.26759e-05 0.0001886476 5.81344e-05 -0.094492132 0.8380467695
725295650.0 -0.019624192 -0.1114504 0.0002536608 0.0001217962 0.0001219111 9.03334e-05 -0.0872662187 0.8393801899
730295620.0 -0.0217697583 -0.1110629098 0.0001333114 -4.34611e-05 0.0003015193 0.0001185476 -0.0788296814 0.84042422
735295590.0 -0.0232440064 -0.1104258354 8.76594e-05 -6.80011e-05 0.0002518561 2.37102e-05 -0.0693490713 0.840176571
740295560.0 -0.0251407005 -0.110084829 -2.99733e-05 -5.52802e-05 0.0002386659 2.76544e-05 -0.0616294232 0.8415499067
745295530.0 -0.0266540811 -0.1094783292 0.0001737156 0.0003036723 7.89792e-05 -0.000223149 -0.0533860435 0.8417018956
750295500.0 -0.0282520385 -0.1088072698 9.9359e-05 -0.0001001747 -4.198e-05 -2.77908e-05 -0.0449003822 0.8422832343
755295470.0 -0.0302315518 -0.108074873 0.0001299963 -0.0001922252 8.68148e-05 -9.30214e-05 -0.0369535772 0.8430492374
760295440.0 -0.0317690131 -0.1075026101 0.0001012617 3.23374e-05 0.0001112838 -4.5133e-06 -0.0281057391 0.8425910338
765295410.0 -0.0330574588 -0.1070667072 0.0005237173 -1.35532e-05 0.0002273325 -2.56275e-05 -0.0194903482 0.8432193368
770295380.0 -0.0347242136 -0.1058692071 0.0001212743 4.25688e-05 0.0001719738 2.4835e-06 -0.0113297972 0.8435180278
775295350.0 -0.0365738821 -0.1055766031 0.0002123456 -8.94248e-05 0.0001814875 -0.000120521 -0.0033857649 0.8431340138
780295320.0 -0.0382049386 -0.1047776693 0.0003213658 -0.0001618453 0.00025874 -0.00014027 0.0048511419 0.8432658283
785295290.0 -0.0397539794 -0.1042774355 5.29156e-05 -0.0001755847 0.0001050142 6.43767e-05 0.0135654703 0.8434827487
790295260.0 -0.04153251 -0.1034638101 0.0004254559 -7.14266e-05 8.92507e-05 -0.0001579711 0.0216637961 0.8433246887
795295230.0 -0.0428596224 -0.1028551219 0.0003270864 0.0003527996 0.0001281969 -8.93043e-05 0.0300434738 0.8427261137
800295200.0 -0.0444839378 -0.1021074146 9.90648e-05 -0.0001449654 7.70621e-05 -8.31671e-05 0.0382390074 0.8420375276
805295170.0 -0.0460796108 -0.101367555 -4.1866e-06 4.0383e-06 0.0001443116 -9.02005e-05 0.0475724745 0.8418935955
810295140.0 -0.0476247046 -0.100258592 3.08026e-05 0.0001592665 0.0001718436 0.0001900957 0.0560396137 0.8413988074
815295110.0 -0.0494552756 -0.0994020524 0.0001695223 -1.61629e-05 9.24253e-05 -4.63275e-05 0.0631142501 0.8406336054
820295080.0 -0.0510535248 -0.0987489021 0.000117152 -0.0001932153 0.0002403088 -0.0001837088 0.0712284052 0.8404334757
825295050.0 -0.0530761424 -0.098070565 -1.05909e-05 -0.0001552409 -3.16472e-05 0.000111376 0.0800403463 0.839178556
830295020.0 -0.0541326676 -0.0972102367 0.0001965428 -9.7788e-05 0.0003624816 -3.0624e-05 0.0883067557 0.8379055097
835294990.0 -0.055597652 -0.0964953529 6.4195e-05 -0.0001546985 0.0002121151 3.1332e-05 0.0967724474 0.837874189
840294960.0 -0.0570983807 -0.0955379281 0.0001930963 5.34114e-05 0.0003768044 -3.6603e-06 0.1058550489 0.8365339554
845294930.0 -0.0586627034 -0.0943352065 0.0001995564 -0.0001592599 7.32578e-05 9.45892e-05 0.1133879017 0.8355157317
850294900.0 -0.0598291383 -0.0938271805 -0.0001600894 6.23166e-05 0.0001429522 0.0001370678 0.1210564964 0.8347725352
