!Created with skrf (http://scikit-rf.org).
# Hz S RI R 50.0 
!freq ReS11 ImS11 ReS21 ImS21 ReS12 ImS12 ReS22 ImS22
300000.0 -0.7748140654 -0.0989829671 -0.0004009827 -0.0003536432 -9.58352e-05 0.0011162514 -0.2116950747 -0.0817204836
5299970.0 -0.7848936548 -0.0055011811 -4.2153e-05 -0.0001764021 -0.0003600038 0.0001566195 -0.2149060823 0.0084617655
10299940.0 -0.7878037734 -0.0040607947 -0.000184528 -9.43087e-05 -0.0001546499 5.65759e-05 -0.2112040778 0.0213543561
15299910.0 -0.7935652006 -0.0018510578 7.43457e-05 -0.0002443846 9.35024e-05 -0.0001478462 -0.205865486 0.0312346358
20299880.0 -0.7996928623 0.0019354404 0.0002105872 -0.0001530095 0.0001303732 -2.59269e-05 -0.1999526615 0.0392474388
25299850.0 -0.806409328 0.0073932076 -5.69662e-05 1.06139e-05 -1.20342e-05 9.0705e-06 -0.1934011341 0.0457693907
30299820.0 -0.8121337995 0.0153664222 1.2799e-05 5.96119e-05 3.65032e-05 0.0001197571 -0.1869695164 0.0508749806
35299790.0 -0.8175504769 0.0241478566 8.97161e-05 6.838e-05 1.56401e-05 7.90538e-05 -0.1811823258 0.0549163387
40299760.0 -0.8209813975 0.0334539892 -0.0001533123 4.2411e-06 4.80912e-05 -7.84828e-05 -0.1747959534 0.0574079836
45299730.0 -0.8246568762 0.0431656231 2.77958e-05 3.22071e-05 3.37488e-05 0.0001716572 -0.1691586559 0.0599683364
50299700.0 -0.8271684546 0.0531957647 -0.0001353107 -3.84626e-05 0.0001580981 -1.54316e-05 -0.1638767721 0.0610871414
55299670.0 -0.8296378805 0.0629184424 0.0002131866 -1.3071e-06 0.000217504 7.84977e-05 -0.1594718043 0.0620632625
60299640.0 -0.8304487546 0.0740470973 -0.0002357906 7.69075e-05 1.86746e-05 6.23025e-05 -0.1550735157 0.0624531328
65299610.0 -0.8313080034 0.0835446255 0.0001098982 -5.7327e-06 1.67396e-05 0.0001257559 -0.1512362898 0.062454159
70299580.0 -0.8315199669 0.0932869071 2.45147e-05 -4.93616e-05 0.000107448 0.0001397778 -0.1480357515 0.0631977045
75299550.0 -0.8320797117 0.1038094231 8.82123e-05 -0.0001439003 5.06024e-05 0.00016968 -0.1448781194 0.0625551219
80299520.0 -0.8321297369 0.1136530517 9.65657e-05 -4.17058e-05 0.0001166619 0.0001741804 -0.1418580073 0.062700349
85299490.0 -0.8312250133 0.1229012426 -0.0001189509 3.02975e-05 -0.0001259762 3.64219e-05 -0.1395795271 0.0624138567
90299460.0 -0.8303278995 0.1322429808 -8.57129e-05 3.5018e-05 0.0001693449 3.10191e-05 -0.1369324368 0.0624002974
95299430.0 -0.8286797767 0.1417489848 -8.7368e-05 3.92464e-05 -0.0001826826 8.88097e-05 -0.1350107441 0.0620358914
100299400.0 -0.827884158 0.151063651 6.39569e-05 0.0002193679 -4.86728e-05 1.30089e-05 -0.132736808 0.0615788661
105299370.0 -0.8271432422 0.1604914826 5.3911e-06 -3.88833e-05 7.87656e-05 0.0001364707 -0.1308135026 0.0614184267
110299340.0 -0.8253703004 0.1700821423 0.000179869 6.19962e-05 0.0001792119 0.0001116066 -0.1295188342 0.0613831286
115299310.0 -0.8238755592 0.1786838107 7.84882e-05 0.000207099 0.0003218269 0.0001842726 -0.128179796 0.060957033
120299280.0 -0.8218636606 0.1873497134 5.12359e-05 -4.66606e-05 2.14152e-05 0.0001595018 -0.1267815445 0.0611601545
125299250.0 -0.8203446353 0.1962845009 -1.27909e-05 -1.22872e-05 -0.0001242608 -3.97506e-05 -0.1255812808 0.0605828295
130299220.0 -0.8186047805 0.2056756372 0.0002525926 0.0002823665 0.0001318969 1.88793e-05 -0.124206371 0.060627328
135299190.0 -0.8163458085 0.2140356075 6.9178e-05 0.0001725876 -0.0001479466 0.0004645295 -0.1232184314 0.0607990767
140299160.0 -0.814560338 0.2230851097 0.0001791356 1.27979e-05 8.71101e-05 -7.28651e-05 -0.1222969833 0.0610502776
145299130.0 -0.8125168145 0.232525558 2.92002e-05 -7.57266e-05 -8.09271e-05 -2.66078e-05 -0.1214857184 0.0612261114
150299100.0 -0.8101777928 0.2413389164 7.27814e-05 7.7387e-05 4.90199e-05 6.29708e-05 -0.1208400602 0.0619653229
155299070.0 -0.8075467028 0.2492198923 4.89466e-05 0.0001210004 1.91802e-05 -2.30189e-05 -0.1196914107 0.0620985759
160299040.0 -0.8051117699 0.2581613691 -0.0001053542 0.0001769165 0.0001063642 6.01259e-05 -0.119705408 0.0625412785
165299010.0 -0.8030323925 0.2673092059 3.4685e-06 6.91819e-05 3.30694e-05 -1.5958e-06 -0.1183797167 0.0629594044
170298980.0 -0.8000900682 0.2754773146 -1.41084e-05 0.000137573 -0.0001345149 -4.8526e-05 -0.1180701005 0.0633691274
175298950.0 -0.7972691381 0.2841763866 0.0001501943 8.42512e-05 0.0001600175 -3.68981e-05 -0.1178257561 0.0636166984
180298920.0 -0.794355079 0.2930583579 -0.0001185765 4.0765e-05 7.66425e-05 8.12055e-05 -0.1170946304 0.0647523189
185298890.0 -0.7908907763 0.3009159103 0.0001615875 8.3576e-06 5.65848e-05 6.64588e-05 -0.1163087343 0.065086261
190298860.0 -0.7881208859 0.3094936721 0.000230507 0.0002241957 0.000158091 -4.6988e-06 -0.1157053967 0.0658919623
195298830.0 -0.7851923767 0.3180898219 6.6776e-05 0.0002003024 -6.22065e-05 -1.75441e-05 -0.1154202852 0.0662867642
200298800.0 -0.7815689958 0.3261756336 9.84382e-05 0.0002952052 0.0001971468 5.77936e-05 -0.1152876658 0.066860186
205298770.0 -0.7784257593 0.3340900932 -7.57424e-05 0.0002114401 -1.5615e-06 -6.67915e-05 -0.1146823512 0.0673305661
210298740.0 -0.7745934056 0.3422953614 -1.52045e-05 2.9334e-05 0.000203579 -1.8359e-06 -0.1142036813 0.0679957928
215298710.0 -0.7715106176 0.3507373077 9.46526e-05 -1.32589e-05 -3.66387e-05 -0.0001432084 -0.1138096129 0.0687813058
220298680.0 -0.7676116493 0.3591892774 0.0001389985 7.38836e-05 -3.87409e-05 -0.0001114955 -0.1139315038 0.0693134848
225298650.0 -0.7640494418 0.3665988439 -5.79218e-05 0.0001685195 3.74522e-05 4.71362e-05 -0.1135855464 0.0700322785
230298620.0 -0.7604835459 0.3744756019 -3.40513e-05 -1.56406e-05 3.91918e-05 6.45778e-05 -0.1128160617 0.070932053
235298590.0 -0.7570096392 0.3827912112 4.93882e-05 6.0577e-05 7.25894e-05 8.84197e-05 -0.1123974624 0.0718721716
240298560.0 -0.7524568591 0.3908206534 0.000251741 6.07663e-05 3.4654e-05 0.00019479 -0.1120864517 0.0723333152
245298530.0 -0.7489073938 0.3994867304 -0.0001229165 -0.0002184548 -0.0001733922 -0.0001904969 -0.1115108927 0.0728393939
250298500.0 -0.7440240978 0.4063314176 9.32471e-05 0.0001431684 4.53091e-05 5.22698e-05 -0.1111092389 0.0736491875
255298470.0 -0.7393116911 0.4138399243 8.08248e-05 0.0002407209 1.20064e-05 -4.37873e-05 -0.1105255768 0.0746245116
260298440.0 -0.7352716056 0.4220111395 0.0001804717 -0.0001141907 0.0001845263 0.0001576529 -0.110080421 0.0753642269
265298410.0 -0.730981562 0.4300391453 -0.0001107049 -0.0001186548 7.73948e-05 0.0001779662 -0.1094796002 0.0763788353
270298380.0 -0.7271285067 0.4375005805 4.77894e-05 0.0001871457 5.92738e-05 0.0002897543 -0.1091914563 0.0770936408
275298350.0 -0.7223994067 0.4448395875 1.5041e-06 0.0001368497 0.0001606925 -2.10218e-05 -0.1083615096 0.0779866226
280298320.0 -0.7172323718 0.4523223206 2.25805e-05 7.6263e-05 -4.38618e-05 1.0868e-06 -0.1076949801 0.0785048297
285298290.0 -0.7125470584 0.4600798139 0.0001316561 3.41637e-05 -2.55317e-05 -7.37271e-05 -0.1071899788 0.0796987128
290298260.0 -0.7078434481 0.4676850296 4.3704e-06 1.72202e-05 3.01328e-05 1.75033e-05 -0.1066970558 0.0809061184
295298230.0 -0.7026792837 0.4748060686 6.9205e-05 -2.83519e-05 0.0001431545 0.0002054925 -0.1059397441 0.0814172339
300298200.0 -0.6973561597 0.4814856722 6.31983e-05 9.71704e-05 3.77676e-05 0.0002590484 -0.1052804974 0.0824170612
305298170.0 -0.6928155975 0.4880706474 0.0001123739 0.0001243773 8.15806e-05 0.0001229157 -0.1040622933 0.0829084895
310298140.0 -0.6876535264 0.4961436184 -0.0001234296 0.0001146686 0.0001489142 5.36334e-05 -0.1042335309 0.0839782518
315298110.0 -0.6825267488 0.5035432348 0.0001531437 7.01145e-05 0.0002513823 1.65088e-05 -0.103501507 0.0850043311
320298080.0 -0.6774252875 0.5097211635 4.76453e-05 0.0003072977 0.0001638159 -5.02123e-05 -0.1026737246 0.0857258404
325298050.0 -0.6718259482 0.5176569162 0.000191658 0.0001705177 0.0001213581 0.0002061351 -0.1024481982 0.0867994997
330298020.0 -0.6661658049 0.5239794246 0.0001478761 0.0001415439 -9.40576e-05 -9.10609e-05 -0.1016970354 0.087745966
335297990.0 -0.6609114781 0.5305199074 1.5611e-05 -9.73298e-05 -7.63035e-05 6.61387e-05 -0.1012583381 0.089265544
340297960.0 -0.6560098061 0.537565033 -1.26341e-05 0.0002164715 -9.5561e-06 4.22742e-05 -0.1001876732 0.0900281773
345297930.0 -0.6500091197 0.5442756661 3.55878e-05 0.0002408707 0.0001021184 0.0002092973 -0.099873557 0.0911522034
350297900.0 -0.6446186311 0.5509928315 0.000245828 0.0001708897 0.0001132905 0.0001149986 -0.0995457909 0.092823096
355297870.0 -0.6382392694 0.5577641856 8.01844e-05 0.0002359865 -2.33266e-05 6.77875e-05 -0.0988830531 0.0935288326
360297840.0 -0.6320522751 0.5638794098 0.0001047473 0.0001322551 0.0001023151 1.00831e-05 -0.0982214375 0.0944693063
365297810.0 -0.6271617661 0.5706127714 4.11425e-05 0.0003183811 0.0002063889 -4.65721e-05 -0.0975245531 0.0954778963
370297780.0 -0.6211576185 0.5770205733 0.0001269037 0.0003776634 -6.94578e-05 1.22118e-05 -0.0966585729 0.096651803
375297750.0 -0.6145436061 0.5836283039 0.0001970311 -3.17299e-05 9.77938e-05 0.000147884 -0.0960928211 0.0974334082
380297720.0 -0.6085102483 0.5892239816 8.06483e-05 9.975e-05 -5.11997e-05 0.0001699892 -0.0956560212 0.0986613689
385297690.0 -0.603426444 0.5955307089 0.0001755916 0.0002182838 3.75956e-05 -7.95076e-05 -0.0948689031 0.0995471663
390297660.0 -0.5966185057 0.6013427008 2.91174e-05 0.0004117511 0.0001108249 -0.0001017271 -0.0943877749 0.1008730564
395297630.0 -0.590312583 0.6081409329 0.0001805224 1.61712e-05 4.87345e-05 0.0001616009 -0.0932532505 0.1018192111
400297600.0 -0.5841106527 0.6144379114 0.0003249948 8.16201e-05 7.08104e-05 5.67747e-05 -0.0924986672 0.1027302389
405297570.0 -0.5780359842 0.6196876599 -0.0001134148 0.000169256 3.4319e-05 -2.53678e-05 -0.091693284 0.1034382325
410297540.0 -0.5708894563 0.6255473985 0.0003946592 0.0003239173 0.0003462933 2.76883e-05 -0.090983185 0.1047027436
415297510.0 -0.5643299191 0.6307858013 0.00022779 0.000210274 0.0002261509 0.0002402429 -0.0901598036 0.1053740679
420297480.0 -0.5592819013 0.6371334191 0.0001162921 -6.6574e-06 0.0002056181 -2.95e-08 -0.0897908998 0.1063998788
425297450.0 -0.5518343936 0.6427716261 9.37049e-05 0.0001795866 0.0001740633 0.0004348486 -0.0883324026 0.107291159
430297420.0 -0.5453414745 0.6481604822 0.0001492686 8.0568e-05 -5.7414e-06 7.19408e-05 -0.0879086836 0.1082176462
435297390.0 -0.5383593492 0.6535988829 0.0003070549 -3.28621e-05 0.0001731305 0.0001250033 -0.0867199955 0.1091419287
440297360.0 -0.5318170991 0.6588456513 0.0001473274 6.83424e-05 0.0001119385 2.284e-07 -0.0858692904 0.1101669646
445297330.0 -0.5248964206 0.6641463041 0.0001723971 8.9067e-06 5.4375e-05 0.0001335729 -0.0848682278 0.1102336609
450297300.0 -0.5179690652 0.6694719432 0.0001748646 2.71643e-05 0.0002595735 -5.4715e-06 -0.0841249937 0.1118749534
455297270.0 -0.5114455246 0.6746048684 0.0002049156 1.3678e-05 0.0002109678 -5.0801e-06 -0.0832285963 0.1127172291
460297240.0 -0.5049270441 0.6792972268 -2.80619e-05 7.56146e-05 0.0002101837 9.5179e-05 -0.0820919956 0.113648493
465297210.0 -0.4978291877 0.6853457312 -0.0001641652 0.000247144 0.0001002754 -0.0001495289 -0.0808265835 0.1144438714
470297180.0 -0.4899676896 0.6899085754 3.2843e-06 0.0002739119 0.0001743846 8.23999e-05 -0.0797571746 0.1155835754
475297150.0 -0.4834030733 0.6945647365 0.0004368828 0.0002310989 0.0001634237 0.000185586 -0.0787708532 0.1162702775
480297120.0 -0.4766128608 0.6993437511 0.0002053993 -2.3765e-05 0.000165956 -0.000152718 -0.0776032899 0.1170355224
485297090.0 -0.4688245832 0.7042037001 3.107e-06 7.68181e-05 0.0002386093 -6.16641e-05 -0.0764873989 0.1180766042
490297060.0 -0.4620927077 0.7085433507 0.0001272326 0.0001267089 0.0001403758 1.46556e-05 -0.075467102 0.1186746908
495297030.0 -0.4546225919 0.7131703945 0.000105338 0.0002225753 0.0002577077 -0.0001238818 -0.0748119805 0.1202001255
500297000.0 -0.4475979343 0.718162557 0.0002396218 6.43592e-05 2.48284e-05 1.6106e-06 -0.0733418718 0.121214438
505296970.0 -0.4403105954 0.7224934437 2.17543e-05 -0.0001710835 0.0002471055 -3.38771e-05 -0.0724544707 0.1217306959
510296940.0 -0.4333246538 0.7267174698 0.0001497635 -3.43753e-05 0.0001782774 0.0001468027 -0.0713320067 0.1229775421
515296910.0 -0.4245132002 0.730692501 0.0002841516 -3.11636e-05 6.60612e-05 1.0648e-06 -0.0700147429 0.1239835939
520296880.0 -0.4178660711 0.7351594413 -8.32978e-05 0.0001141393 9.81067e-05 0.0001148303 -0.0694367961 0.1245489849
525296850.0 -0.4096136053 0.7391863394 0.0003384411 -0.0001229501 0.0004416645 -5.95991e-05 -0.0681365637 0.1257537464
530296820.0 -0.4025776322 0.743451156 0.0001679062 -6.58969e-05 0.0001481133 -8.75528e-05 -0.0668591687 0.1265118523
535296790.0 -0.3960194277 0.7467389012 0.0001885119 -8.44199e-05 0.0002150816 4.29841e-05 -0.0664788139 0.127068597
540296760.0 -0.3877226451 0.7504983989 0.00023126 8.25364e-05 0.0003211389 1.83466e-05 -0.0649129568 0.1281495898
545296730.0 -0.3804781367 0.7552855196 4.95628e-05 9.78848e-05 0.0002282288 0.0002382169 -0.0640116532 0.1285811298
550296700.0 -0.3729189182 0.7586666786 0.0001234466 0.000327977 0.0002670815 -4.60006e-05 -0.0627359664 0.1298214529
555296670.0 -0.3650563485 0.7617963542 -5.0648e-06 -4.69805e-05 7.1293e-06 3.70572e-05 -0.0615728694 0.1309403199
560296640.0 -0.3575167183 0.7664116388 0.0002029491 6.62266e-05 0.0003444869 0.0001095837 -0.0603650989 0.1314493622
565296610.0 -0.3496068111 0.769506198 1.03762e-05 0.000256397 0.0002004707 6.17699e-05 -0.0592584869 0.1320647523
570296580.0 -0.3422355282 0.7723299366 0.0001410918 8.42328e-05 0.0002506117 -1.60688e-05 -0.0584886248 0.132939909
575296550.0 -0.3341804677 0.7767782202 0.0004471384 -9.8761e-06 0.0001281535 0.0001027372 -0.0570558539 0.1335083835
580296520.0 -0.3260327823 0.7795804129 0.000145998 6.23463e-05 0.0001734601 0.0001818784 -0.0560709202 0.1342377138
585296490.0 -0.3181926978 0.7824893868 0.0003912466 3.26366e-05 0.0002837975 0.0001321328 -0.0544691456 0.1348190864
590296460.0 -0.3103949328 0.7858134361 0.0001666164 6.20116e-05 0.0001738715 -3.606e-06 -0.0537807346 0.1357018204
595296430.0 -0.3023263859 0.7882620239 -5.9735e-05 -4.833e-06 0.0001495149 7.10374e-05 -0.0524242347 0.1361023787
600296400.0 -0.2946350213 0.7918877341 0.0003170182 -5.7121e-05 0.0004253401 -0.0001007358 -0.0511043596 0.136755533
605296370.0 -0.2874812206 0.7947484947 0.0003530882 2.34405e-05 0.0001400806 -0.0001378461 -0.049919427 0.1375320608
610296340.0 -0.2784532557 0.7978720437 9.3668e-05 0.0002065198 0.0001550941 8.90146e-05 -0.0487188304 0.1384414971
615296310.0 -0.2702921315 0.8000346743 0.0003061616 4.70305e-05 0.0002367839 -1.46265e-05 -0.0469761161 0.1385764908
620296280.0 -0.262418278 0.802281052 0.0002489824 -4.29532e-05 0.000151694 -0.0001326813 -0.0461290378 0.1393295785
625296250.0 -0.2547374935 0.8051616456 0.0001194459 9.85348e-05 0.0002092138 0.000234262 -0.0446025673 0.139806679
630296220.0 -0.2462025824 0.8079167254 0.0001269461 -7.68534e-05 0.0001530739 0.0002059897 -0.0431781021 0.1402532625
635296190.0 -0.2383059305 0.8102581924 0.0003272331 3.80715e-05 6.00946e-05 0.0001561815 -0.0419630524 0.1407824619
640296160.0 -0.2307356727 0.8122780343 0.000461463 0.0001552311 0.0001777357 8.31047e-05 -0.0406674252 0.1414358673
645296130.0 -0.2227089814 0.8151623715 0.000264616 8.37828e-05 7.62343e-05 0.0001406956 -0.0393903102 0.1423341292
650296100.0 -0.2142016018 0.8164211621 0.000522244 3.86986e-05 0.0002144313 1.23143e-05 -0.0379215553 0.1423758323
655296070.0 -0.2058915033 0.8192404045 0.0001901579 3.88779e-05 5.10491e-05 -0.000142909 -0.0363808424 0.143439845
660296040.0 -0.1976451789 0.8206727712 0.000187275 -0.0001553938 0.0001950937 -2.82629e-05 -0.0352120955 0.1440327332
665296010.0 -0.1892458813 0.8225008385 0.0001989865 -5.92405e-05 0.0001958089 0.0001633752 -0.0335660125 0.1447930922
670295980.0 -0.1817029471 0.8247137299 0.0002048544 -3.11673e-05 4.42182e-05 4.27517e-05 -0.0324020796 0.1449821009
675295950.0 -0.173132271 0.826155894 0.0001816676 -0.0001360227 0.0002266208 9.72259e-05 -0.0310876898 0.145763599
680295920.0 -0.1643832832 0.8276874756 0.0005471802 0.0001679109 0.0001395772 -0.0002325645 -0.0294682566 0.1466039437
685295890.0 -0.1564663282 0.8305522691 0.0001557648 -3.96231e-05 0.0001723885 -0.0001329021 -0.0283738546 0.1471007461
690295860.0 -0.1481743439 0.8308518753 0.0001571922 -0.0001500658 0.0001173762 4.98957e-05 -0.0269525663 0.1476450771
695295830.0 -0.1404093062 0.8321935838 0.0001575279 0.000314052 0.0003052378 0.0001167151 -0.0251305918 0.1481723658
700295800.0 -0.1312607233 0.8338176551 0.0003105646 1.51161e-05 0.0002408418 -0.0001280445 -0.0243123334 0.1486615437
705295770.0 -0.1234267669 0.8353347994 -3.78845e-05 2.9248e-06 0.0004025506 -0.0001204671 -0.0227352239 0.1493476054
710295740.0 -0.1153213541 0.8359839652 0.0003470032 3.65033e-05 0.0002842871 -1.41551e-05 -0.0217259408 0.1493563447
715295710.0 -0.1067553793 0.8373280674 7.734e-06 -5.63442e-05 0.000256119 -3.90082e-05 -0.0198779173 0.1499385173
720295680.0 -0.0987368813 0.838383613 0.0001888372 0.00014626 0.0002117408 -0.0001152933 -0.0184007573 0.1503971836
725295650.0 -0.0907121971 0.8390614795 0.0002886977 -0.0001499903 0.0002627516 -0.0001164396 -0.0178839155 0.1511204541
730295620.0 -0.0819158102 0.840293614 0.0005076241 -3.61961e-05 0.0001982227 -0.000281651 -0.0163149971 0.151014117
735295590.0 -0.0741377933 0.8413754616 -5.00497e-05 0.0001427233 0.0002506373 -3.11131e-05 -0.0150141345 0.1511864086
740295560.0 -0.0654230996 0.8421920012 0.0001261956 -4.07792e-05 -0.0001025359 8.07823e-05 -0.0131493444 0.1520055282
745295530.0 -0.057021015 0.8422476107 0.0001656303 5.21519e-05 0.0002537094 -0.0002077235 -0.0121767155 0.1519984738
750295500.0 -0.0480756799 0.8426602266 -0.0001786178 6.98774e-05 0.0002095139 -0.0001082851 -0.0106716693 0.152237632
755295470.0 -0.0400525743 0.8428585359 0.0003994995 0.0001317618 0.0003124965 -0.0001500276 -0.0090601425 0.1523794756
760295440.0 -0.0323937433 0.8434763123 0.0002830251 9.47845e-05 0.0003460144 0.0001715689 -0.0079115493 0.1529617931
765295410.0 -0.023439576 0.8436799873 8.9727e-05 -0.0001500735 0.000366943 0.0001045139 -0.0063369964 0.1534196246
770295380.0 -0.0153807985 0.8440545955 0.0002219031 -9.3952e-05 0.0004264608 4.4768e-06 -0.0052364539 0.1533571353
775295350.0 -0.0072118185 0.8440157216 5.81042e-05 0.000164984 0.0002378075 -9.27224e-05 -0.0039079482 0.1535538583
780295320.0 0.0014740906 0.8439381825 0.0002244572 2.18468e-05 0.0001924038 -6.33599e-05 -0.002126306 0.1537460671
785295290.0 0.0089861822 0.8435194696 0.0004182658 6.9408e-05 0.0003075715 9.09031e-05 -0.0003290629 0.1538720919
790295260.0 0.0182366127 0.8434563059 0.0001878792 -4.12458e-05 0.0002564772 -0.0001166589 0.0010977797 0.1540501544
795295230.0 0.0261656674 0.8436147113 0.0002421406 -7.27509e-05 0.0004059764 -3.69807e-05 0.0025793232 0.1539528814
800295200.0 0.034516807 0.8425602645 7.1949e-05 1.15747e-05 0.0003608305 0.0001040408 0.0039142355 0.1545130482
805295170.0 0.0432893073 0.8431333134 0.0004375626 7.9944e-05 0.0003600302 6.39159e-05 0.0055226538 0.1542484477
810295140.0 0.0513781261 0.8423549534 0.0001013357 -0.00012973 0.000375555 5.10725e-05 0.0071901125 0.1546980437
815295110.0 0.0599836296 0.8421624751 0.0002906351 -0.0001313522 0.0002996248 -0.0004004649 0.0089258427 0.1547350308
820295080.0 0.0673664751 0.8409670591 0.0001514338 2.31844e-05 0.0002942024 -0.0001017751 0.0103959511 0.155059711
825295050.0 0.076763474 0.840428886 0.0003636309 -0.0001658946 0.0001639402 -0.0002324428 0.0118703051 0.1551548073
830295020.0 0.0839338044 0.8396546782 0.0002955406 -0.0002001248 0.0001414319 -0.0001482498 0.0139052221 0.154989873
835294990.0 0.0925823938 0.8388114246 0.0001981174 -0.0003490006 7.43504e-05 2.84436e-05 0.0149208928 0.1555106005
840294960.0 0.1008309478 0.838227605 0.0002926397 0.0001113773 -1.9937e-06 -0.0002952138 0.0165541175 0.1555402042
845294930.0 0.1089466368 0.8368212642 9.07115e-05 0.0001414619 0.0005204579 -0.000215955 0.0177234585 0.1556122592
850294900.0 0.1173100279 0.8359011474 0.0004043963 7.664e-06 0.0002846408 4.2311e-05 0.0191808353 0.1557615094
