!Created with skrf (http://scikit-rf.org).
# Hz S RI R 50.0 
!freq ReS11 ImS11 ReS21 ImS21 ReS12 ImS12 ReS22 ImS22
300000.0 -0.2436054889 -0.0919751355 0.474045832 0.0608804389 0.4695314559 0.0579540288 -0.2378593822 -0.1002272007
5299970.0 -0.2448247046 0.0064578872 0.4749782181 0.0050503398 0.475123426 0.0052131703 -0.2408410807 0.0073501806
10299940.0 -0.2417032196 0.0178661343 0.4766326996 0.0056322813 0.4768676851 0.0061902332 -0.2376561428 0.0205476574
15299910.0 -0.2374510451 0.0268277356 0.4803686969 0.0076357193 0.4803566209 0.0075448976 -0.233134354 0.0301460952
20299880.0 -0.2327507204 0.0338879676 0.4849518935 0.0084222768 0.4849423107 0.0083245047 -0.2276876763 0.038129309
25299850.0 -0.2276675399 0.0404241831 0.490290064 0.0069690704 0.4901341892 0.0072428311 -0.2215774414 0.0448792616
30299820.0 -0.2223372113 0.0451034555 0.4956036654 0.0046774005 0.4956393107 0.0050110803 -0.2160969448 0.050323039
35299790.0 -0.2173464074 0.04916355 0.5008048611 0.0017450926 0.5010378386 0.0015608524 -0.2106400964 0.0544710472
40299760.0 -0.2125414196 0.0525537942 0.5058454263 -0.0025820708 0.5061054079 -0.0022249145 -0.2050982669 0.0570720467
45299730.0 -0.2079136212 0.0549791162 0.5103378396 -0.0073800691 0.510434166 -0.0068872532 -0.2003723914 0.0605575311
50299700.0 -0.2037791753 0.0568867303 0.5152067913 -0.0123481777 0.515159289 -0.0119923287 -0.1958888672 0.0623384109
55299670.0 -0.2000113554 0.0583463362 0.5186507877 -0.0191054831 0.5184198097 -0.0182320034 -0.1912627526 0.064182976
60299640.0 -0.1960063181 0.0598755278 0.5216925258 -0.0248097117 0.5220196555 -0.0246819689 -0.1877271459 0.0653836597
65299610.0 -0.1930176021 0.0611501981 0.524927428 -0.0314265131 0.5251367648 -0.0310630931 -0.1842691699 0.0664735582
70299580.0 -0.1899855015 0.0623138202 0.5269243736 -0.0378634585 0.5271801515 -0.0376284526 -0.1808469434 0.0677485498
75299550.0 -0.1872821049 0.0627337535 0.5286426906 -0.0444529265 0.529026589 -0.0446866896 -0.1780578841 0.0683098422
80299520.0 -0.1846915796 0.0638237123 0.5308675614 -0.0516549277 0.5310372133 -0.0513467125 -0.1752062527 0.0688856294
85299490.0 -0.1824169969 0.0638800581 0.5319825937 -0.0581883499 0.5321527907 -0.0580480579 -0.1731402831 0.0697319544
90299460.0 -0.1803377709 0.0648592121 0.5329216874 -0.065547178 0.5334506885 -0.065418616 -0.1702295106 0.070391134
95299430.0 -0.1781266975 0.0654713733 0.5342056546 -0.0722188779 0.5341182631 -0.0721419619 -0.1680627488 0.0713078357
100299400.0 -0.1766254701 0.0662884134 0.5342578622 -0.0787325435 0.5339876408 -0.0786971394 -0.1656123858 0.0715916578
105299370.0 -0.1749324468 0.0668208935 0.5344048598 -0.0858911519 0.5348359544 -0.086361521 -0.1640854882 0.0725532126
110299340.0 -0.1732767537 0.0675171935 0.5349669125 -0.0925911084 0.5346780675 -0.0924352626 -0.1628381036 0.0730315446
115299310.0 -0.171879813 0.0682177471 0.5349751327 -0.0996229242 0.5344209098 -0.0994502078 -0.1610213273 0.0739305063
120299280.0 -0.1708027781 0.0686048457 0.5343813306 -0.1064281131 0.534508764 -0.1063592455 -0.1594484919 0.0744292747
125299250.0 -0.1694431024 0.0692740679 0.534151596 -0.1133923799 0.5343381627 -0.1126373528 -0.1583487044 0.0749570567
130299220.0 -0.1686758047 0.0702479045 0.5336618285 -0.1200110988 0.5336354517 -0.119869447 -0.1569491734 0.0758952356
135299190.0 -0.1675867276 0.0711535278 0.5331944938 -0.1264276764 0.5329018983 -0.1262523899 -0.1557054729 0.0770098772
140299160.0 -0.1665999235 0.072004508 0.5319772783 -0.133063272 0.5320661131 -0.1329835586 -0.1546577174 0.0780761855
145299130.0 -0.1653138413 0.0727785958 0.5313351025 -0.1394582495 0.531139408 -0.1393721965 -0.1535042224 0.0789470028
150299100.0 -0.164342024 0.073838066 0.5300587363 -0.1455958627 0.5298801722 -0.1455480594 -0.1522808847 0.0802138558
155299070.0 -0.1637574009 0.0745950022 0.5288028542 -0.1525691227 0.5284180721 -0.152821616 -0.1510387755 0.0812913843
160299040.0 -0.1627052196 0.0757950048 0.5274158923 -0.1588498676 0.5270619245 -0.1592749163 -0.1506620676 0.0821392158
165299010.0 -0.1621885542 0.0770014815 0.5261640631 -0.166038811 0.5258650915 -0.1654040665 -0.1491699052 0.0837782038
170298980.0 -0.1612478886 0.0777158704 0.5239952592 -0.1717821646 0.5247316109 -0.1717731775 -0.1482936184 0.0847100059
175298950.0 -0.1605621112 0.0790670615 0.5234581463 -0.1778564239 0.5224346772 -0.1779244114 -0.1475735442 0.0860631477
180298920.0 -0.1601081252 0.0800760738 0.5212951108 -0.1845531061 0.521154281 -0.1844141645 -0.1465785137 0.0876422446
185298890.0 -0.1588834442 0.0809589714 0.5191610008 -0.1902916724 0.5193153237 -0.1899490314 -0.1456001112 0.0887500633
190298860.0 -0.158579163 0.08238452 0.5175732574 -0.1969447809 0.5175714586 -0.1965918609 -0.144933678 0.0897533949
195298830.0 -0.1575807622 0.0831742339 0.5153232865 -0.2029891841 0.5151822506 -0.2028652471 -0.1436157305 0.0912236342
200298800.0 -0.1566702225 0.0845985379 0.5129000707 -0.2091448189 0.5134620677 -0.2091147983 -0.1432065927 0.0927802174
205298770.0 -0.1562466297 0.0858904283 0.5108907748 -0.2153892281 0.5108918804 -0.2147422574 -0.1420656205 0.0931876095
210298740.0 -0.1555752604 0.0869845845 0.5086924727 -0.2205076026 0.5087936839 -0.2206629314 -0.1411442712 0.0953657163
215298710.0 -0.1551030753 0.0884620226 0.5064551016 -0.2268743542 0.5063219978 -0.2270370991 -0.1402364545 0.0964202263
220298680.0 -0.1538786968 0.0892430232 0.5035390289 -0.2330305095 0.5037766549 -0.2325940364 -0.1398104778 0.0976764318
225298650.0 -0.1533689476 0.0908886466 0.5013430518 -0.2386258756 0.5017852245 -0.2384744479 -0.1392964888 0.0988318681
230298620.0 -0.1525335905 0.0922294522 0.4990402588 -0.243955988 0.4994132101 -0.2442885486 -0.1381363745 0.1002156639
235298590.0 -0.1518386557 0.0937761272 0.496816795 -0.2500200882 0.4964817854 -0.249791236 -0.1368894031 0.1014361143
240298560.0 -0.151121328 0.0950493359 0.49365248 -0.2561557041 0.4938444622 -0.2559237991 -0.1360649317 0.1032569226
245298530.0 -0.1502545101 0.0963871835 0.4909540951 -0.2616613756 0.4907447245 -0.2617350112 -0.1346001935 0.1038530828
250298500.0 -0.1493480476 0.0977359751 0.4874718553 -0.2669509979 0.4877333602 -0.2668043556 -0.1341452736 0.105680217
255298470.0 -0.1486749621 0.0988953293 0.4847649815 -0.2724792093 0.4850511588 -0.2724162426 -0.1327168664 0.1064455202
260298440.0 -0.1481040475 0.1000380441 0.4822356193 -0.2785466788 0.4821813056 -0.2782247355 -0.1311924696 0.1083970021
265298410.0 -0.1468041363 0.1020348527 0.4791850235 -0.2843008347 0.4792671023 -0.2835281039 -0.1306057569 0.109728448
270298380.0 -0.1459650908 0.1029496325 0.4760502963 -0.2888871665 0.4767187303 -0.2891374825 -0.1295593037 0.1110068024
275298350.0 -0.144997316 0.1044236702 0.4728382833 -0.2948722668 0.4733544167 -0.2945826937 -0.1283763129 0.1118048862
280298320.0 -0.1436712354 0.1058303138 0.4697841215 -0.300094834 0.4698384839 -0.2997259033 -0.1269156424 0.113696938
285298290.0 -0.1429591259 0.1071341259 0.466770675 -0.305317874 0.4663117203 -0.3056663405 -0.1255621159 0.1150584922
290298260.0 -0.1419295946 0.1084728186 0.4630569177 -0.3101729414 0.4632055167 -0.310763456 -0.124432936 0.1167900264
295298230.0 -0.1408448338 0.1097147561 0.4597552602 -0.3159130594 0.4598472548 -0.3160687898 -0.1227195038 0.1176564515
300298200.0 -0.1402651055 0.1109852402 0.4571187384 -0.3208664471 0.4565040926 -0.3211132464 -0.1217340683 0.1191377186
305298170.0 -0.1388783909 0.1120436809 0.4529094529 -0.3268005007 0.4529183079 -0.3265118769 -0.1199890042 0.1203077294
310298140.0 -0.1377972137 0.1134551282 0.4490357922 -0.3314597396 0.4496893225 -0.3312195801 -0.1189524159 0.1216429315
315298110.0 -0.1369685021 0.1145497767 0.4458094632 -0.3366214921 0.4460239179 -0.3367591556 -0.1174842167 0.122714149
320298080.0 -0.1359232566 0.1160328985 0.4412843589 -0.3419519176 0.4421512337 -0.3417644236 -0.1163953077 0.1241604772
325298050.0 -0.1350555103 0.117240976 0.4381192265 -0.3469878256 0.437977129 -0.3468837949 -0.1154101798 0.1252275368
330298020.0 -0.1341151328 0.118258078 0.4337958581 -0.3519740341 0.4343499088 -0.3520620882 -0.1141593232 0.1268383416
335297990.0 -0.1330247255 0.1194250087 0.4300002704 -0.3563936254 0.4301709129 -0.3572491634 -0.1133903106 0.128617223
340297960.0 -0.1324513198 0.1212083133 0.4258801863 -0.3614731234 0.4257593482 -0.3616339902 -0.1115586465 0.1297903568
345297930.0 -0.1313629637 0.122966463 0.421788946 -0.3669112951 0.4216027481 -0.3660977353 -0.110455701 0.1309038258
350297900.0 -0.1304714552 0.1235280392 0.4170222018 -0.3709326417 0.4176842683 -0.3704216999 -0.1095964351 0.1327503753
355297870.0 -0.1292281505 0.1256626244 0.4131616338 -0.375228296 0.413512637 -0.3749800326 -0.1080192895 0.1337728366
360297840.0 -0.1281368078 0.1266343127 0.4095633698 -0.3795039583 0.40978591 -0.3797460854 -0.1067075482 0.1354158101
365297810.0 -0.1271496963 0.1283783948 0.4050363474 -0.3843903179 0.4056558808 -0.3844134949 -0.1050053151 0.1367185146
370297780.0 -0.1257234413 0.129227637 0.4005636353 -0.3886750906 0.4013034825 -0.3881867425 -0.1037921028 0.1379380006
375297750.0 -0.1245402689 0.1307766972 0.3967468818 -0.3930871237 0.3972981136 -0.3929780152 -0.1024264097 0.139267791
380297720.0 -0.1233884247 0.1321793722 0.3924827982 -0.3978105027 0.3930558395 -0.3968680446 -0.1016109499 0.1405561614
385297690.0 -0.1225662759 0.1335318319 0.3878020048 -0.4014973375 0.3879651731 -0.4015721614 -0.0995996645 0.141789015
390297660.0 -0.1211886345 0.1349165691 0.3837479529 -0.406187697 0.3834772878 -0.4056165359 -0.0986015558 0.14305309
395297630.0 -0.1199261237 0.1365607858 0.3791960885 -0.4100950443 0.3792238061 -0.4102538591 -0.0962336177 0.1445433983
400297600.0 -0.118759147 0.1377539843 0.3743685265 -0.4144560413 0.3747593513 -0.4142244724 -0.0951213701 0.1458355694
405297570.0 -0.1178257094 0.1387293128 0.3699477883 -0.41815408 0.3702408167 -0.4180384869 -0.0939565265 0.1467936545
410297540.0 -0.1159008702 0.1401554079 0.3657393691 -0.4223871731 0.3655239662 -0.4222786306 -0.0921955934 0.148217505
415297510.0 -0.1145289023 0.1413297261 0.3605459194 -0.4271281137 0.3610709769 -0.4262934175 -0.0904691184 0.1491683657
420297480.0 -0.1133842594 0.1428612526 0.3554679093 -0.4306504622 0.3560211002 -0.4302984258 -0.0892041005 0.1501354008
425297450.0 -0.1116088994 0.1438027001 0.3514001424 -0.4342323793 0.3519022876 -0.4342562264 -0.0877829192 0.151661386
430297420.0 -0.1108398709 0.1447633234 0.3463784931 -0.4378333468 0.3468419603 -0.4379041789 -0.0859430439 0.1524434783
435297390.0 -0.1092981644 0.1461161806 0.3413983635 -0.4414457572 0.3414031782 -0.4414384396 -0.0837562962 0.1532637359
440297360.0 -0.1080236927 0.1476616795 0.3369943278 -0.4455085644 0.3366386771 -0.4455365257 -0.0823969629 0.1544794575
445297330.0 -0.1066912948 0.148177618 0.3322721537 -0.4491168088 0.3321870479 -0.4487033026 -0.0804552219 0.154719474
450297300.0 -0.1048771684 0.1495074918 0.3269783651 -0.4525916309 0.3271712099 -0.452694296 -0.0787657167 0.1562916732
455297270.0 -0.1036189447 0.1506046613 0.3218653092 -0.4562969778 0.322459031 -0.4563875313 -0.0774217979 0.1572766379
460297240.0 -0.1025635378 0.151900259 0.3165649367 -0.4595877866 0.3172316679 -0.4596690091 -0.0754941608 0.158379581
465297210.0 -0.1006124215 0.1529543602 0.3124961578 -0.463040611 0.3120882658 -0.4633085535 -0.0733061342 0.1590499585
470297180.0 -0.0993438863 0.1538145097 0.3068160997 -0.4666790484 0.3070620965 -0.4666105768 -0.071806595 0.1602319945
475297150.0 -0.0980000651 0.1547054127 0.3015035129 -0.469309007 0.3017602108 -0.4694716624 -0.0696230803 0.1606672369
480297120.0 -0.0964209243 0.156340556 0.2967608401 -0.4729856687 0.2965653629 -0.4732711264 -0.0679080352 0.1620987158
485297090.0 -0.0950258769 0.1574803993 0.2916596353 -0.4759420844 0.2915601178 -0.4759748149 -0.0658691679 0.1627798737
490297060.0 -0.0936884504 0.1583514356 0.286840917 -0.4796015749 0.2864079056 -0.4787752542 -0.0644469993 0.1641141311
495297030.0 -0.0920529838 0.1593474615 0.2809599973 -0.4820413106 0.2814830082 -0.4822948213 -0.0626609349 0.1645964202
500297000.0 -0.0903683419 0.1601997704 0.2759128806 -0.4850294078 0.2753106616 -0.4852593511 -0.0606182929 0.1659360471
505296970.0 -0.088657656 0.1614482685 0.2706125891 -0.488198008 0.2703595342 -0.4881819989 -0.0591343973 0.1667999288
510296940.0 -0.0872773768 0.1625452848 0.265660862 -0.4913138008 0.2649386424 -0.491375529 -0.0566676463 0.1674355276
515296910.0 -0.0856844388 0.1635164585 0.259322575 -0.4943094526 0.2595169887 -0.4938906799 -0.0546460643 0.1684930705
520296880.0 -0.084437429 0.1644305475 0.2544658004 -0.497121716 0.2543485804 -0.4965613937 -0.0535163946 0.1690375701
525296850.0 -0.0823270258 0.1647737816 0.2487267728 -0.4995272551 0.2492911533 -0.499512348 -0.0515872322 0.1698990422
530296820.0 -0.0808454005 0.1662138272 0.2434340593 -0.5024523544 0.2435951775 -0.5022755482 -0.049636522 0.170864316
535296790.0 -0.0797635804 0.1668882153 0.2388121463 -0.5044988249 0.2383469313 -0.5042260174 -0.0480567348 0.1709037425
540296760.0 -0.0780632444 0.168325851 0.2325131446 -0.5074731471 0.2324573943 -0.5076004519 -0.0462790346 0.1727526831
545296730.0 -0.0763253381 0.1689822414 0.2266719225 -0.5097495202 0.2269947465 -0.5097010605 -0.044277442 0.1728383726
550296700.0 -0.0743501912 0.1701768013 0.2212971528 -0.5120872995 0.2216651818 -0.5125274922 -0.0423229147 0.1737863379
555296670.0 -0.0731535056 0.1706072816 0.2161039385 -0.5149493828 0.2162242237 -0.5146722081 -0.040595615 0.1746056692
560296640.0 -0.0710136307 0.1720557656 0.2102278318 -0.5172827036 0.2106123387 -0.5168137084 -0.0383481838 0.1746851451
565296610.0 -0.0694968162 0.1724521321 0.2043186433 -0.5190655582 0.2048771305 -0.5193409824 -0.0368474417 0.1751575645
570296580.0 -0.0681035153 0.1733019194 0.1991910953 -0.5217085467 0.1988346175 -0.521013377 -0.0350491202 0.1760198055
575296550.0 -0.0665259404 0.1745654992 0.1935064501 -0.5238529456 0.1936441224 -0.5235171315 -0.0329765604 0.1765247345
580296520.0 -0.0648844894 0.1751354951 0.1874948392 -0.5257742461 0.1878198194 -0.5253262432 -0.0308537382 0.1768283549
585296490.0 -0.0629345591 0.1752344783 0.182038004 -0.5271666157 0.1820934863 -0.5272162775 -0.0289694091 0.1774693464
590296460.0 -0.0609837533 0.1764333764 0.1761619252 -0.5290157774 0.1767132886 -0.5292490404 -0.0277053836 0.1778370553
595296430.0 -0.0592743177 0.1774590266 0.1699410254 -0.5313660886 0.1705359619 -0.5311554506 -0.0252783865 0.1781557392
600296400.0 -0.0580919332 0.177992609 0.1648805727 -0.5332170818 0.1648004871 -0.5327047131 -0.0235303651 0.1786777647
605296370.0 -0.0563714982 0.1785392067 0.158961213 -0.5343352918 0.159099777 -0.5345838966 -0.0210911012 0.1786458267
610296340.0 -0.0542435156 0.1792855514 0.1524087248 -0.5363962251 0.1532701725 -0.5363641917 -0.0190748423 0.1792600337
615296310.0 -0.0523249036 0.1795554248 0.1470752791 -0.5372355775 0.1470231109 -0.5385196822 -0.0171594737 0.1797204157
620296280.0 -0.0509723099 0.1799485809 0.1414420829 -0.5391583254 0.1412830833 -0.5391142984 -0.01523861 0.1798483417
625296250.0 -0.0492049301 0.1805769774 0.1362298654 -0.5410233493 0.1352980626 -0.5412361023 -0.0128996159 0.1801889918
630296220.0 -0.0466317714 0.1815232618 0.1293259111 -0.5422432326 0.1293386884 -0.5424684556 -0.0110591364 0.1805390503
635296190.0 -0.0460348547 0.1818716526 0.1236856156 -0.5431816926 0.123978395 -0.5436565338 -0.0089260883 0.1806931588
640296160.0 -0.0441107418 0.1828012883 0.1176525639 -0.5443966291 0.1185026139 -0.5446985938 -0.0070098319 0.1808817687
645296130.0 -0.0421838524 0.1835551404 0.1117761983 -0.5458782363 0.1124852416 -0.5457069975 -0.0047801942 0.1814974714
650296100.0 -0.0404132252 0.1837825446 0.1062775337 -0.5468206218 0.1061616338 -0.5469444268 -0.0023233522 0.180811527
655296070.0 -0.0388210546 0.1844782812 0.1001995871 -0.5481948209 0.100788282 -0.5481064009 -0.0006359659 0.1815881888
660296040.0 -0.0371538027 0.1845408469 0.0942949385 -0.5489132568 0.0945594403 -0.5494133772 0.0016182044 0.1813442823
665296010.0 -0.0347484911 0.1851183587 0.0882695683 -0.5501572029 0.088616679 -0.5501174926 0.0036393729 0.1820953823
670295980.0 -0.0337327126 0.1857198379 0.0824832593 -0.5508735464 0.0827601763 -0.5510082919 0.00509669 0.1818301114
675295950.0 -0.0317458047 0.1863103959 0.0765024238 -0.5516269769 0.0768115596 -0.5513620422 0.0069634364 0.1823698514
680295920.0 -0.0299466681 0.1864858572 0.0702391367 -0.552305932 0.0703293656 -0.5528527944 0.0094767632 0.1828666963
685295890.0 -0.0279912215 0.1873497633 0.0649558434 -0.5532623894 0.0643555539 -0.5533711046 0.0114461283 0.1825077438
690295860.0 -0.0257787938 0.1874279174 0.0588736677 -0.5535270812 0.0585691224 -0.5543959155 0.013375227 0.1829264901
695295830.0 -0.0242515418 0.1878898054 0.0530424984 -0.5542711241 0.0523925721 -0.5546905168 0.0156041065 0.1831061412
700295800.0 -0.0223413447 0.1880844293 0.0465300246 -0.5545780195 0.046550389 -0.5548163156 0.0171436313 0.1833565603
705295770.0 -0.0207760536 0.1891777871 0.0402299553 -0.5552927812 0.0410285776 -0.555622379 0.0193719486 0.1837171679
710295740.0 -0.0183959485 0.1891389563 0.0346829231 -0.556609078 0.0352238453 -0.5561286925 0.0212589375 0.1827609461
715295710.0 -0.0174014428 0.1894641373 0.0292271035 -0.5562809904 0.0286500622 -0.5562139436 0.0236741245 0.1826716813
720295680.0 -0.0150979775 0.1898613497 0.0225458401 -0.5569321811 0.0231834034 -0.556779942 0.025379739 0.1833016888
725295650.0 -0.0132515571 0.1900733043 0.0166885605 -0.5567478676 0.0169672155 -0.5571595183 0.0270742404 0.1832486453
730295620.0 -0.011274585 0.1907721205 0.0105756607 -0.5566705285 0.0108494999 -0.5567301312 0.0291983831 0.1825715246
735295590.0 -0.0097122815 0.1906704419 0.004819699 -0.5569716637 0.0049210374 -0.556892926 0.0309005277 0.1821519868
740295560.0 -0.0079519681 0.1910360886 -0.0014357299 -0.5571784345 -0.0013807265 -0.5567577051 0.0338255176 0.1824537913
745295530.0 -0.0060290413 0.1912979912 -0.0075868904 -0.5562605319 -0.0074712463 -0.5564210876 0.0352661407 0.181522417
750295500.0 -0.0038640006 0.1911268311 -0.0130070884 -0.556150654 -0.0130507425 -0.5565499633 0.0373620916 0.1817907211
755295470.0 -0.0018808704 0.1913810299 -0.0189741828 -0.5562235063 -0.0194113567 -0.556352201 0.0394879198 0.1808557992
760295440.0 -0.0003951783 0.1918026218 -0.0253231096 -0.556252584 -0.0252038637 -0.5565530805 0.041204909 0.1807476681
765295410.0 0.0014166342 0.1918747734 -0.0314940084 -0.5555933864 -0.0314491704 -0.5558786943 0.0433438733 0.1806881058
770295380.0 0.0029776161 0.1918005106 -0.0374324085 -0.5554635607 -0.0370659778 -0.5552993427 0.045144136 0.1799617552
775295350.0 0.0047571793 0.1915529985 -0.0435102264 -0.5545561319 -0.0428730185 -0.55503211 0.0466550033 0.1797149814
780295320.0 0.0068733318 0.1921011675 -0.0493797206 -0.5539370614 -0.0486696887 -0.5542333294 0.0491464498 0.1791828678
785295290.0 0.0084880327 0.1916378469 -0.0555024721 -0.5531162525 -0.0547582725 -0.5537106335 0.0517384788 0.1787076454
790295260.0 0.0109381406 0.1923677742 -0.0606294146 -0.5532011384 -0.0600632254 -0.5528910872 0.0535236738 0.1785291161
795295230.0 0.0124619553 0.1918450305 -0.0668685167 -0.5521305319 -0.0666456679 -0.5523432782 0.0555866978 0.1781869598
800295200.0 0.0143143898 0.192241177 -0.0734505965 -0.5512996417 -0.0730221779 -0.5512438436 0.0575883329 0.1774480766
805295170.0 0.0163970047 0.191916628 -0.0791245846 -0.5502570516 -0.0790480784 -0.5510496115 0.0595159386 0.1770951212
810295140.0 0.0179140692 0.1915615231 -0.0845063926 -0.5493167846 -0.0845709387 -0.5498216957 0.061884374 0.1766619652
815295110.0 0.0199764699 0.1914760982 -0.0905287548 -0.5479095642 -0.0901479896 -0.5487339157 0.0634992766 0.1759176539
820295080.0 0.0212671855 0.1920481493 -0.0961665807 -0.5473275719 -0.0963130371 -0.5475533053 0.0656379111 0.1754712623
825295050.0 0.024245281 0.192115194 -0.1021206535 -0.5463687135 -0.1024026229 -0.5464561402 0.067531749 0.1749956912
830295020.0 0.0254916434 0.191703398 -0.1083277188 -0.545017354 -0.1084728241 -0.5453270503 0.0701614713 0.1743786979
