!Created with skrf (http://scikit-rf.org).
# Hz S RI R 50.0 
!freq ReS11 ImS11 ReS21 ImS21 ReS12 ImS12 ReS22 ImS22
300000.0 -0.0486240592 -0.0483113345 -0.0007105148 0.0003508047 0.0009678131 -0.0009682379 -0.7756127301 -0.1399065664
5299970.0 -0.0488303773 0.0153734905 0.0001871154 0.0001898867 -4.38016e-05 -0.0001606327 -0.784905494 -0.0076585801
10299940.0 -0.0432135776 0.0319197617 -0.0003109284 -1.2778e-05 8.64501e-05 2.43012e-05 -0.7880579016 -0.0035440234
15299910.0 -0.0351628479 0.0460343027 -9.23269e-05 -0.0001381171 -0.0001501964 9.29997e-05 -0.7932115695 -0.0013064072
20299880.0 -0.0252759619 0.0571860561 7.3173e-05 -0.0003597851 -8.56175e-05 -9.69298e-05 -0.7999131305 0.0023289603
25299850.0 -0.014442752 0.0666320014 -0.0001618989 7.33416e-05 -0.0001024487 0.0001547613 -0.8061909977 0.0080816571
30299820.0 -0.0035030161 0.0731027633 -5.06709e-05 0.0001219706 0.0002137542 -3.38076e-05 -0.8126491286 0.0160550296
35299790.0 0.0079933848 0.0775286465 0.0001714461 0.0001691195 7.57113e-05 -0.0001778421 -0.8173514456 0.025414828
40299760.0 0.0188775535 0.0803519703 3.33755e-05 7.13874e-05 -6.97031e-05 -4.4157e-06 -0.8209946435 0.0342131452
45299730.0 0.0297352425 0.0816025074 0.000114183 -1.00747e-05 -2.52145e-05 -0.0001142041 -0.8254331236 0.0440676657
50299700.0 0.0391985838 0.0818539276 0.0001241916 0.0002559545 -7.9047e-06 -0.0003419633 -0.8273992282 0.05413883
55299670.0 0.0481247661 0.0805085144 7.54712e-05 8.75821e-05 0.0001278785 -7.89317e-05 -0.8296633801 0.0647852776
60299640.0 0.0565369458 0.0786312763 -2.51474e-05 4.56753e-05 -1.12627e-05 3.75707e-05 -0.83074068 0.0740882617
65299610.0 0.0643379557 0.0762247596 6.72307e-05 -9.25009e-05 3.42852e-05 5.03062e-05 -0.8316285227 0.0838813232
70299580.0 0.071112102 0.0733899495 -2.78756e-05 9.62143e-05 -5.93556e-05 8.5953e-05 -0.8316931906 0.0938662846
75299550.0 0.0776844724 0.0699015602 0.0001473867 3.91987e-05 0.0002097385 -2.08541e-05 -0.8320395545 0.1043054056
80299520.0 0.082886231 0.0668090405 7.6177e-05 7.0052e-05 -9.5728e-06 2.58462e-05 -0.8317259958 0.1137454708
85299490.0 0.0876586245 0.0628205899 0.0001126465 -0.0002068946 -9.3248e-06 0.0002901044 -0.8314149477 0.1233317723
90299460.0 0.0923519584 0.0590026016 -0.0001136648 0.000166647 8.6576e-06 3.21327e-05 -0.8304659035 0.1329077609
95299430.0 0.0965074722 0.0549489012 4.17235e-05 0.0002601629 -1.41968e-05 9.59621e-05 -0.8293717981 0.1428562338
100299400.0 0.0997492385 0.0513013917 0.0002176348 -3.33346e-05 -0.0001276754 7.91054e-05 -0.8284553231 0.1518067306
105299370.0 0.1029078706 0.0473769968 4.72692e-05 -6.2048e-05 0.0002010766 -0.0001105124 -0.8271910018 0.1608417303
110299340.0 0.1056382745 0.0433995109 9.70697e-05 -8.5274e-05 -1.30107e-05 -5.0033e-06 -0.8257318733 0.1707371646
115299310.0 0.1082515704 0.0393513858 -8.30764e-05 -0.0001227653 0.0001508307 4.97643e-05 -0.8239954107 0.1798427252
120299280.0 0.1104048999 0.0351301741 6.86313e-05 -3.90596e-05 -2.58752e-05 3.9922e-06 -0.8225850939 0.1890230964
125299250.0 0.1121705847 0.0314629506 0.0001625412 9.33425e-05 -5.51333e-05 0.000127421 -0.8207471655 0.1974815624
130299220.0 0.1136239911 0.0278445559 -3.52399e-05 -5.28878e-05 5.35916e-05 -0.0001108946 -0.8188643939 0.2064427593
135299190.0 0.1153525121 0.0243978069 0.0001161004 0.0001220084 0.0001670064 -9.98752e-05 -0.8167310828 0.216036839
140299160.0 0.1162999579 0.0207108693 6.26157e-05 0.0001809909 -5.14778e-05 8.83618e-05 -0.8142107121 0.2250188975
145299130.0 0.1175257752 0.0170200475 0.0001503973 -0.0001543224 8.3022e-06 -3.32638e-05 -0.8121804953 0.2343549506
150299100.0 0.1185808518 0.0136215224 5.53275e-05 -8.6438e-06 -9.77776e-05 0.0002316979 -0.8106993892 0.2430853555
155299070.0 0.1188915591 0.0103719732 9.57326e-05 4.9048e-05 0.0002615154 1.35438e-05 -0.807583246 0.2513594863
160299040.0 0.1194535154 0.0073786464 0.0001161584 0.0002151109 4.11409e-05 1.40368e-05 -0.805000758 0.2607529426
165299010.0 0.1198323159 0.0039129438 0.0001105908 0.0001070686 -5.3987e-06 1.14846e-05 -0.8027803594 0.2695342745
170298980.0 0.1199848447 0.001193273 6.4274e-05 0.0001975314 2.11745e-05 0.0003193677 -0.7994984651 0.2783855583
175298950.0 0.1202644694 -0.0019821112 -0.000209132 -0.0001418688 4.15266e-05 0.0001353414 -0.7971812479 0.2866305001
180298920.0 0.1203831694 -0.0049803323 -7.0717e-05 0.0001859568 -6.23633e-05 0.000221378 -0.793747354 0.2952135857
185298890.0 0.120496725 -0.008445661 8.32006e-05 -4.71628e-05 7.73558e-05 -4.443e-06 -0.790421004 0.303766601
190298860.0 0.1205968566 -0.0108621967 0.000128617 2.21046e-05 6.52156e-05 0.0001208771 -0.788080515 0.3121784667
195298830.0 0.1202357719 -0.0138313437 0.0001950245 1.51768e-05 6.69105e-05 5.69883e-05 -0.7848041242 0.3202216972
200298800.0 0.1202178877 -0.0162697246 4.25313e-05 -2.82706e-05 4.8322e-05 2.06544e-05 -0.7813692748 0.3292784192
205298770.0 0.1196946068 -0.0188399869 -1.61301e-05 0.0002048847 -7.3282e-06 2.48158e-05 -0.7779892761 0.3374004706
210298740.0 0.1193440621 -0.0218191219 0.0001455774 -8.31809e-05 -1.66981e-05 -1.9836e-05 -0.774476718 0.3458227062
215298710.0 0.1186678044 -0.0240997279 0.0001719931 8.79776e-05 5.74064e-05 -1.10454e-05 -0.7712654297 0.3533263934
220298680.0 0.1183113547 -0.0270035167 -0.0001714417 2.28139e-05 0.0001308184 -0.0001218538 -0.7674132436 0.3618705697
225298650.0 0.1176266365 -0.0292361509 -0.0001861564 -7.1968e-05 -0.0001543117 7.11682e-05 -0.7638762221 0.3699360507
230298620.0 0.1169064394 -0.0311933271 1.33962e-05 -0.0001067731 0.0001583023 -9.36787e-05 -0.7598388477 0.3783945751
235298590.0 0.1165379983 -0.0337790524 9.23167e-05 -9.347e-07 -9.9839e-05 0.0002246878 -0.7555875323 0.3865480153
240298560.0 0.1156825215 -0.0361812 0.0002741243 2.04444e-05 -1.44415e-05 0.0001428164 -0.7519517227 0.3953871693
245298530.0 0.1147934719 -0.0385490862 2.43132e-05 1.32658e-05 3.34609e-05 -0.0002406278 -0.7481612346 0.4019828148
250298500.0 0.1143547763 -0.0406754113 2.42215e-05 -0.0001607738 -7.01146e-05 5.93e-05 -0.7437975678 0.4095163596
255298470.0 0.1131550376 -0.0430982128 0.0001070285 0.0001320889 7.45749e-05 -3.62448e-05 -0.7384791236 0.4174360055
260298440.0 0.1122458625 -0.0449710453 -1.56176e-05 0.0001087455 -2.21697e-05 -5.02158e-05 -0.7347983101 0.4257308265
265298410.0 0.1117576951 -0.0468331915 -2.55926e-05 -0.0001834843 0.0001007282 6.04165e-05 -0.7304979726 0.4333286939
270298380.0 0.1106466131 -0.048742048 -4.26794e-05 2.9232e-05 5.02494e-05 -4.91761e-05 -0.7257093895 0.4408816421
275298350.0 0.1097242017 -0.0509021153 4.70901e-05 3.77916e-05 0.0001276657 -0.0001100272 -0.7204058758 0.4484500476
280298320.0 0.1090825225 -0.0528831522 -1.57206e-05 1.30551e-05 -5.19458e-05 4.34822e-05 -0.716189563 0.4559893091
285298290.0 0.1081012821 -0.0544202287 0.0001931319 0.0002105465 4.61368e-05 0.0002292152 -0.7104684109 0.4634617729
290298260.0 0.1070213982 -0.0568430925 0.000178694 5.36229e-05 -3.54279e-05 3.25197e-05 -0.706159053 0.4709145298
295298230.0 0.1060668778 -0.0587447757 1.14301e-05 -5.30407e-05 -4.79088e-05 0.0001574051 -0.7013981942 0.4779253239
300298200.0 0.1051859979 -0.0604112181 9.88084e-05 9.70952e-05 2.87082e-05 0.0002797987 -0.696077242 0.4853003235
305298170.0 0.1039075235 -0.0621107529 1.9839e-06 -0.0002071073 -6.25036e-05 -1.1891e-06 -0.6904678256 0.4925761453
310298140.0 0.1030106652 -0.0640401166 0.0001782329 2.33408e-05 0.0003091703 4.55437e-05 -0.6860555038 0.4995095025
315298110.0 0.1021341592 -0.0661937027 -1.88614e-05 3.11418e-05 -6.59136e-05 -2.3122e-06 -0.6803836761 0.5063807681
320298080.0 0.1007424236 -0.0678769355 -0.0001629631 8.27794e-05 -9.82883e-05 4.66928e-05 -0.675409431 0.5145121632
325298050.0 0.0997380379 -0.0695335216 1.12591e-05 7.43123e-05 2.67477e-05 -0.0001070759 -0.6692797435 0.5207892042
330298020.0 0.0982710035 -0.0715813491 0.0001120321 -3.1025e-06 -3.24509e-05 0.0004384443 -0.6637238713 0.5281981675
335297990.0 0.0966613969 -0.0728370392 4.3171e-06 8.32466e-05 2.07529e-05 0.0002083601 -0.6587486885 0.5356389872
340297960.0 0.0948414313 -0.0747180141 -5.88288e-05 3.79389e-05 0.0001536665 -7.56787e-05 -0.6527159353 0.5425968671
345297930.0 0.0935828828 -0.0756330735 0.0001070036 0.0003180896 5.69768e-05 0.0001223669 -0.6471999161 0.5483332783
350297900.0 0.0924016532 -0.0772853279 -1.12129e-05 5.30681e-05 0.0001229628 0.0002642985 -0.6415395963 0.5556075893
355297870.0 0.0910620862 -0.0783535429 2.52506e-05 0.000138987 0.0001580945 0.0001315344 -0.6356605422 0.5618127646
360297840.0 0.0894015827 -0.0798297571 7.62728e-05 -0.0001335316 -1.64541e-05 -8.83809e-05 -0.6298169431 0.5687988175
365297810.0 0.088023621 -0.0809346652 0.0001010933 0.0002338624 -7.4976e-06 0.0001814442 -0.6232946845 0.5748915485
370297780.0 0.086783789 -0.0824802746 8.27947e-05 0.0001477917 0.0003737948 0.0001801926 -0.6175849984 0.5817655108
375297750.0 0.0854148607 -0.0833897969 0.0001450942 1.48422e-05 0.0001930839 8.47992e-05 -0.6119337833 0.5876811607
380297720.0 0.0839050829 -0.085014936 -4.93777e-05 0.0001221036 0.0001944563 1.638e-05 -0.6056794628 0.5937016985
385297690.0 0.0823608583 -0.0858306675 4.09562e-05 -0.0001707871 -0.0001198742 -6.24169e-05 -0.5997223108 0.6006172735
390297660.0 0.080787842 -0.0871269175 0.0003264117 -5.61102e-05 0.0001833376 2.00062e-05 -0.5936222811 0.6066844365
395297630.0 0.0796157776 -0.0885235986 0.0002649728 0.0001951759 -0.000236023 -1.82459e-05 -0.5863783214 0.61306462
400297600.0 0.0786080535 -0.0893195673 -2.02238e-05 3.00498e-05 0.0001244667 0.0001898915 -0.5809954303 0.6183848698
405297570.0 0.0765653652 -0.0903091726 0.0001058012 9.634e-05 3.15432e-05 8.97314e-05 -0.5744454843 0.6245349236
410297540.0 0.0749318245 -0.0913964217 1.18214e-05 0.0001635169 9.01336e-05 -3.01582e-05 -0.5675609892 0.6303447979
415297510.0 0.0739427533 -0.0929397453 -3.30003e-05 6.20773e-05 0.0002009649 9.37438e-05 -0.5614012867 0.6359678331
420297480.0 0.0721813998 -0.0934313402 -8.24223e-05 -9.2448e-05 9.0735e-05 -2.33798e-05 -0.5546634563 0.6418085467
425297450.0 0.0709283625 -0.0946395038 0.0002651522 -6.04851e-05 5.80016e-05 -0.0001534242 -0.5481017955 0.6478565855
430297420.0 0.069423182 -0.0955580951 0.0002431037 -8.2483e-06 0.0001894442 0.0002077018 -0.5415106885 0.6528381585
435297390.0 0.0676455003 -0.096276147 0.0002523732 -9.703e-06 0.0001539287 6.97015e-05 -0.5341806107 0.6582466311
440297360.0 0.0658522305 -0.0975008008 9.28414e-05 9.5578e-06 1.88541e-05 3.43202e-05 -0.5275257866 0.6635211456
445297330.0 0.0645961721 -0.0984905821 -0.0001088301 4.63e-05 5.12288e-05 4.1086e-05 -0.5207266453 0.6684210729
450297300.0 0.0632035321 -0.0990716802 -7.811e-05 -0.0001226266 8.11381e-05 7.34802e-05 -0.5136175544 0.6742126185
455297270.0 0.0614917707 -0.1001968818 0.0001776318 -3.86966e-05 0.0001756322 0.000157524 -0.5067184363 0.6783340622
460297240.0 0.0599024915 -0.1006835578 6.66668e-05 0.0001327816 0.0001767661 -3.73383e-05 -0.5000762939 0.6839059798
465297210.0 0.0585147872 -0.1016466808 0.0001922376 0.0002301724 2.6436e-06 9.35585e-05 -0.4925312374 0.6888133216
470297180.0 0.0568303154 -0.1023347369 2.5668e-06 0.0001661151 0.0001788565 0.0002014074 -0.4849470108 0.6940802131
475297150.0 0.0552116226 -0.1032363941 -3.63518e-05 0.000323236 9.8376e-06 6.34265e-05 -0.4773419316 0.6983960508
480297120.0 0.053672274 -0.1037856832 8.34382e-05 2.87032e-05 1.47345e-05 1.46938e-05 -0.4707277103 0.7034711806
485297090.0 0.052063133 -0.1046457504 -0.0001299505 0.0001170862 7.3888e-06 1.97246e-05 -0.4633922268 0.7081868281
490297060.0 0.0503188938 -0.1049298482 9.01509e-05 0.0002260076 1.11983e-05 6.03448e-05 -0.4558970408 0.7124792479
495297030.0 0.0488663689 -0.1058144385 0.000275972 5.68229e-05 -7.60075e-05 0.0002348149 -0.4489900844 0.7179450549
500297000.0 0.0472998342 -0.1063893319 0.0001631822 0.0001062403 6.17987e-05 0.0001971458 -0.4409457444 0.7227637253
505296970.0 0.0457862419 -0.1071346141 0.0001781629 6.27748e-05 0.0001146464 4.7218e-05 -0.4338949517 0.7266095812
510296940.0 0.0442429898 -0.1075781409 0.0001577127 0.0001972249 8.41479e-05 0.0002976451 -0.4264328604 0.7307338681
515296910.0 0.0426730421 -0.1082460684 9.19487e-05 1.27397e-05 7.43414e-05 -1.2444e-06 -0.4191085679 0.7350890114
520296880.0 0.0406946155 -0.1086954443 0.0001690486 -0.0001000059 3.35881e-05 0.0001377278 -0.4118043143 0.7391582023
525296850.0 0.0390798811 -0.1096180164 0.0002152165 0.0001784767 3.23629e-05 -7.25176e-05 -0.4041170808 0.7436880908
530296820.0 0.0375687228 -0.1096142762 -4.59673e-05 -5.39951e-05 0.0002022915 5.71001e-05 -0.3965358112 0.7474242789
535296790.0 0.0358885931 -0.1100162553 -4.97521e-05 0.0001658792 9.44209e-05 2.14355e-05 -0.3895259171 0.7516082686
540296760.0 0.0342386564 -0.1101448133 0.0001452751 3.14072e-05 0.000168685 -8.8713e-05 -0.3812269117 0.7556977462
545296730.0 0.0322569531 -0.1108113487 0.0002162826 5.53844e-05 0.0001061285 -8.01778e-05 -0.3737929734 0.7592164885
550296700.0 0.0312862907 -0.1111440159 3.00306e-05 6.11574e-05 9.19955e-05 -0.0001397926 -0.3659913982 0.7629962628
555296670.0 0.0293318114 -0.1112538307 0.0001883117 7.3312e-06 0.0001344287 4.17783e-05 -0.3583479505 0.766688131
560296640.0 0.0278468434 -0.1117192275 0.0002142133 0.000113011 8.62687e-05 -6.3694e-06 -0.3501508807 0.7704663624
565296610.0 0.0260264515 -0.1121301256 0.0004195986 0.0001408287 0.0002780669 -3.02222e-05 -0.3429030138 0.7736744612
570296580.0 0.0240860715 -0.1121834952 0.0001167352 -8.92043e-05 6.58594e-05 0.0002576657 -0.3351105133 0.7774903155
575296550.0 0.0224368755 -0.1126142937 0.0001633292 1.22902e-05 -0.0002593467 -5.5591e-06 -0.3269238779 0.7806674547
580296520.0 0.0209904422 -0.1129999522 0.0002369847 6.68194e-05 0.0001120587 5.62849e-05 -0.3178443564 0.7841179744
585296490.0 0.0189821644 -0.1130287545 0.0001154514 8.19593e-05 -3.156e-05 3.56987e-05 -0.3109710091 0.787173914
590296460.0 0.0177295702 -0.1130939148 7.15543e-05 0.0001103937 0.0002351768 1.07839e-05 -0.303040913 0.790630498
595296430.0 0.0158953293 -0.1132860455 0.000117433 1.66808e-05 0.0003013639 7.64041e-05 -0.2951787284 0.7927823313
600296400.0 0.0138626274 -0.113501756 0.0002570953 0.0001629859 5.0386e-05 -6.84357e-05 -0.2867272976 0.7957990838
605296370.0 0.0123300169 -0.1133753485 -9.48363e-05 -0.000108761 5.56462e-05 -0.0001038216 -0.2780883594 0.7985080314
610296340.0 0.01036154 -0.1137004765 0.0002481744 -7.118e-07 2.53162e-05 0.000118203 -0.2707475965 0.801250298
615296310.0 0.0091839772 -0.1138626304 1.97025e-05 -0.0002243964 -5.85232e-05 5.86262e-05 -0.2624881388 0.8034354375
620296280.0 0.0073224338 -0.1136965473 2.72824e-05 0.0001132994 0.0001661614 3.93654e-05 -0.2543851735 0.8062864507
625296250.0 0.0057509234 -0.114134563 0.000209995 6.24377e-05 4.12788e-05 -0.0002189667 -0.2456289775 0.8081526008
630296220.0 0.0043026709 -0.1142131701 0.0003940919 -8.6033e-05 5.9963e-06 -0.0001346533 -0.2376443936 0.8109943311
635296190.0 0.002306639 -0.1136332297 0.0004447351 -8.25353e-05 5.0653e-05 1.35977e-05 -0.2297520065 0.8128955426
640296160.0 0.0007257368 -0.1138757397 0.0003073337 6.1417e-06 0.0001863393 -7.46468e-05 -0.2211277234 0.8155857587
645296130.0 -0.0007917647 -0.1134055177 0.0003376856 -9.9547e-05 -3.44464e-05 -4.73334e-05 -0.2134706662 0.8176408372
650296100.0 -0.0028568726 -0.1134660642 9.56494e-05 -6.14916e-05 0.0001823818 0.0001273602 -0.2052922792 0.8189604661
655296070.0 -0.0045792926 -0.1133059919 0.0002560795 -6.06546e-05 9.82649e-05 0.0003056413 -0.1968852935 0.8209616856
660296040.0 -0.0063221061 -0.1133416064 0.000178394 1.17182e-05 0.0002104654 8.92018e-05 -0.1876448254 0.8234035549
665296010.0 -0.0076530119 -0.1136529262 0.0001885216 4.9596e-06 0.000208445 8.0027e-05 -0.1796972867 0.8254361151
670295980.0 -0.0094836402 -0.1128698172 2.25186e-05 7.662e-05 0.0002386949 0.000102486 -0.1720187284 0.8267938929
675295950.0 -0.0109071081 -0.1125878925 -5.64001e-05 -0.0001294525 5.30461e-05 0.0001432462 -0.1640121466 0.8288675113
680295920.0 -0.01271668 -0.1121488948 0.0001433084 8.22913e-05 4.27508e-05 -0.0001843333 -0.1552452049 0.8310732223
685295890.0 -0.0140785885 -0.1120919602 0.0002800527 -2.93847e-05 9.82925e-05 5.25469e-05 -0.1466053088 0.8314918317
690295860.0 -0.0159069941 -0.1117629761 6.14126e-05 7.01288e-05 0.0001329952 -4.09965e-05 -0.1389337103 0.8335444253
695295830.0 -0.0175246826 -0.1113866329 0.0002474961 0.0002024481 -8.35866e-05 8.25051e-05 -0.1293887511 0.8351216954
700295800.0 -0.0191707967 -0.11133907 0.0002097593 8.4217e-06 7.63334e-05 2.78755e-05 -0.1227914471 0.836154838
705295770.0 -0.0208754905 -0.1104827952 9.66111e-05 -4.92089e-05 0.0002223623 4.08055e-05 -0.1137667669 0.8380515823
710295740.0 -0.0226222163 -0.1102821816 0.0002121554 0.0001223267 1.57648e-05 -6.71508e-05 -0.1055730819 0.8386563867
715295710.0 -0.0243125839 -0.1100152878 4.34573e-05 0.0001943534 0.0001330879 9.30772e-05 -0.0966962077 0.8398212683
720295680.0 -0.0257763313 -0.1094871048 7.4956e-05 -0.0001799448 0.0001758717 -9.11787e-05 -0.0882173814 0.8411925811
725295650.0 -0.02738485 -0.1088685194 0.0001428861 5.53734e-05 0.0001733748 -1.9284e-06 -0.0805265148 0.8417002334
730295620.0 -0.0288441832 -0.108396684 0.0002537465 -4.5318e-06 0.0001748912 -9.34639e-05 -0.07249533 0.8422762217
735295590.0 -0.0305643621 -0.1080272614 0.0002615766 0.0001712413 0.0002163398 1.0324e-06 -0.0637198514 0.8426439183
740295560.0 -0.0324400967 -0.1074206392 0.0002758719 1.12631e-05 0.0002103456 9.07386e-05 -0.0543470701 0.843664933
745295530.0 -0.0338452701 -0.1068888516 2.16911e-05 -2.19209e-05 4.89072e-05 0.0001163264 -0.0461822629 0.8435576407
750295500.0 -0.0353764372 -0.1063519182 0.0001608073 3.63733e-05 0.0003250101 7.55799e-05 -0.0382996525 0.8442363434
755295470.0 -0.0369043696 -0.105662993 0.0003818875 1.72312e-05 4.61197e-05 -3.03145e-05 -0.0295498857 0.8440156926
760295440.0 -0.0388110035 -0.1050929361 0.0001741556 -0.0001107881 0.0001396736 0.0001214662 -0.0209247165 0.8444269858
765295410.0 -0.040234653 -0.1043567192 4.83482e-05 0.0003173945 6.34861e-05 -0.0001241283 -0.012838583 0.8445741364
770295380.0 -0.0417618712 -0.1037989082 0.000208715 -0.0001831294 0.0002105802 -4.0481e-06 -0.0043054164 0.8448515392
775295350.0 -0.0436959023 -0.1034698887 0.0001111926 -2.3538e-06 0.0002417895 -1.02197e-05 0.0032225774 0.84439201
780295320.0 -0.0448855906 -0.1027174199 1.373e-06 0.0001535773 9.19896e-05 -5.78623e-05 0.011909562 0.8442963749
785295290.0 -0.046485119 -0.1019316187 -0.0001794285 0.000144666 4.94471e-05 4.08062e-05 0.0207332243 0.8439432756
790295260.0 -0.0476310933 -0.1009437371 6.33493e-05 -7.11967e-05 9.98789e-05 -0.0001837675 0.0300320675 0.8441041979
795295230.0 -0.0492951976 -0.1000784347 0.0001568139 -0.0001978141 0.0001905661 0.0001071443 0.0385027077 0.8429678654
800295200.0 -0.0508286734 -0.0995296762 0.0001858564 3.2323e-05 0.0003217553 -0.0001977007 0.0466124291 0.8430936058
805295170.0 -0.052191573 -0.0989488895 0.000142208 -0.0001271519 5.88672e-05 -0.0002377397 0.0542165632 0.8424397021
810295140.0 -0.0536314949 -0.0981391146 2.38729e-05 0.0001555522 0.000352594 -2.40666e-05 0.0632245947 0.8416811367
815295110.0 -0.0552566325 -0.097717594 0.0001001043 0.0001198933 0.0002100694 -8.68597e-05 0.0719366723 0.8410851676
820295080.0 -0.0566176844 -0.0963014365 5.9481e-06 -9.03827e-05 0.0001809192 -0.0001925308 0.0800377457 0.840406274
825295050.0 -0.0577651097 -0.0954125422 0.0001937206 7.80032e-05 0.0002477602 -0.0001063504 0.0878615234 0.8400937962
830295020.0 -0.0595405302 -0.0945688596 0.0003302572 -5.96054e-05 0.000152036 6.41043e-05 0.0972834156 0.8391462259
835294990.0 -0.0607911325 -0.093342196 0.0002038808 -0.0002496918 -5.11074e-05 0.0001432778 0.1051061621 0.8380680825
840294960.0 -0.0625052858 -0.0926883918 0.0002119199 -7.5536e-06 0.0002321571 -0.0001744766 0.1136229592 0.8368387196
845294930.0 -0.0637385281 -0.091610056 0.0001927243 -0.0001275127 0.0002040048 -6.25398e-05 0.1211232029 0.8350313575
850294900.0 -0.064877952 -0.0907081633 0.0002389748 3.05844e-05 -1.23289e-05 -7.48781e-05 0.1295721073 0.8344860665
