!Created with skrf (http://scikit-rf.org).
# Hz S RI R 50.0 
!freq ReS11 ImS11 ReS21 ImS21 ReS12 ImS12 ReS22 ImS22
300000.0 -0.2416277715 -0.0933467396 0.4729841374 0.0620356513 0.4719079451 0.0583987435 -0.2408088788 -0.1011124046
5299970.0 -0.2453625414 0.0063847626 0.4749349757 0.0051156148 0.4748572613 0.0049560664 -0.2408154478 0.0074008649
10299940.0 -0.2415994299 0.0179825074 0.476637056 0.0057909012 0.4768952442 0.0061255539 -0.2373696533 0.0204612939
15299910.0 -0.2372805438 0.0268970771 0.4800001242 0.0071560781 0.4806533727 0.0075995859 -0.2330214979 0.0300096295
20299880.0 -0.2327372712 0.0337624671 0.4850842885 0.0082785303 0.4848116719 0.0082380377 -0.2275739968 0.0381939488
25299850.0 -0.2276461483 0.0402688518 0.4903126187 0.0068734091 0.4898833791 0.0069804057 -0.221748698 0.0446982359
30299820.0 -0.2226758194 0.0451094456 0.4957241373 0.0047296129 0.4953905768 0.0048426058 -0.2159226695 0.0504350037
35299790.0 -0.2173112584 0.0489999501 0.500948806 0.0015823636 0.5009118817 0.0017318949 -0.2104759044 0.0544571118
40299760.0 -0.2124033998 0.0522473973 0.5054411178 -0.0025229944 0.5057991361 -0.0022993212 -0.2048445289 0.057781588
45299730.0 -0.2081737354 0.0546010957 0.5106128101 -0.0066827946 0.5105047154 -0.0071975626 -0.2001300016 0.0607489598
50299700.0 -0.2038657101 0.056879607 0.5151788876 -0.0126746987 0.5148775372 -0.0124525259 -0.1952611998 0.0626089074
55299670.0 -0.1996767068 0.0582368807 0.5183175676 -0.0189671412 0.5184335834 -0.0187425821 -0.1914647711 0.0645837474
60299640.0 -0.1960489885 0.0598672266 0.5217719411 -0.0250137751 0.5219626705 -0.0244667876 -0.1875939681 0.0655054647
65299610.0 -0.1928058026 0.0609089812 0.5244261296 -0.0313101913 0.5249465224 -0.0313421365 -0.1841438354 0.0667816946
70299580.0 -0.189848873 0.0620688146 0.5272146909 -0.0379537865 0.5272939681 -0.0378498825 -0.1811206421 0.06753538
75299550.0 -0.1872461352 0.0630435912 0.5290160381 -0.0447614728 0.5286809739 -0.044672699 -0.178049692 0.0681913514
80299520.0 -0.1848234543 0.0637809067 0.5312268185 -0.0515336128 0.5308563132 -0.0517695208 -0.1752548174 0.0692865858
85299490.0 -0.1825418779 0.0641825022 0.5321841315 -0.0582929691 0.5323583925 -0.0582433018 -0.1731799889 0.069659615
90299460.0 -0.1803781964 0.0648334043 0.5331535117 -0.0652130869 0.5333952058 -0.0652837155 -0.1706218978 0.0704574816
95299430.0 -0.1781331721 0.0654974984 0.5338750499 -0.0726179213 0.5342507814 -0.0723045507 -0.1682712313 0.0712346051
100299400.0 -0.1768140106 0.066329972 0.5340037081 -0.0788604551 0.5340207529 -0.0792571207 -0.1660346023 0.0714907239
105299370.0 -0.1750506657 0.0668281301 0.534523004 -0.0861563662 0.5348595357 -0.0862735946 -0.1641970206 0.0726421464
110299340.0 -0.1732403842 0.0674803891 0.5349489765 -0.0927800077 0.5348492561 -0.0927484537 -0.1629678751 0.0726705217
115299310.0 -0.1719321661 0.0682330664 0.5349516087 -0.0996996919 0.5347277666 -0.0997550585 -0.161351215 0.0734562169
120299280.0 -0.1706816038 0.0684501092 0.5342325458 -0.1064440081 0.534547442 -0.106511473 -0.1595473767 0.0743536654
125299250.0 -0.1695342809 0.0690046213 0.5340980601 -0.1129303327 0.5340552221 -0.1126705083 -0.1584965198 0.0744963699
130299220.0 -0.1685742082 0.0702086639 0.5332622559 -0.1196580807 0.5333382372 -0.1198402669 -0.1569496226 0.0755993521
135299190.0 -0.1674192957 0.0712541016 0.5329084365 -0.1264933201 0.5327501845 -0.1264468448 -0.1556701421 0.0767114041
140299160.0 -0.1666533444 0.072139601 0.5318344291 -0.1330891061 0.5319961408 -0.133179854 -0.1544666711 0.0778157716
145299130.0 -0.1656677116 0.072930254 0.5312567595 -0.1398415595 0.5307040028 -0.1397803217 -0.1532011572 0.078670586
150299100.0 -0.1643466711 0.0738219968 0.5294806584 -0.1459380095 0.5300098556 -0.145823803 -0.1524312712 0.0801670313
155299070.0 -0.1640564867 0.0747483903 0.5292509376 -0.1530587486 0.5285484977 -0.1528309648 -0.1509617184 0.0808449993
160299040.0 -0.1629381991 0.0759733775 0.5276086819 -0.1592625118 0.5270711145 -0.1592969137 -0.1506328125 0.081956722
165299010.0 -0.1620695566 0.0769933218 0.5259229262 -0.1659336809 0.5260268335 -0.1658335944 -0.1491986678 0.0834420146
170298980.0 -0.161516009 0.077902495 0.5243195419 -0.1722272245 0.5245704715 -0.1715283327 -0.1481282194 0.0846406013
175298950.0 -0.1606357711 0.0789864574 0.5231147174 -0.1783059964 0.5225034231 -0.1780074152 -0.1474798495 0.0857828995
180298920.0 -0.1601256379 0.0800472577 0.5209740776 -0.184461677 0.5206946618 -0.184229374 -0.1464040152 0.0873248698
185298890.0 -0.1587696209 0.0810549661 0.5189692485 -0.1907992971 0.5186175309 -0.1904982171 -0.1454137082 0.0887101944
190298860.0 -0.1586591871 0.0821589954 0.517176307 -0.1969894514 0.5175182851 -0.19679169 -0.1444122106 0.0896660057
195298830.0 -0.1577253328 0.0830901604 0.5152212868 -0.2029099896 0.5154840867 -0.2028060267 -0.1434477368 0.0915739876
200298800.0 -0.1567015809 0.0846696212 0.5128959257 -0.2092562283 0.5129526239 -0.2093829536 -0.1430495023 0.0924258903
205298770.0 -0.1561099785 0.085959132 0.5105903056 -0.2154979699 0.5106188484 -0.2149050192 -0.1418417659 0.0933225325
210298740.0 -0.1555560426 0.0869396975 0.5084890173 -0.2209412229 0.508581669 -0.220884091 -0.1405401294 0.095406249
215298710.0 -0.1548599619 0.0885724114 0.5063006262 -0.2270809081 0.5061659999 -0.22724785 -0.1403595364 0.0966342218
220298680.0 -0.1539452535 0.0893984864 0.5033634523 -0.2326038633 0.5036254806 -0.2331031663 -0.1396114568 0.0977275301
225298650.0 -0.1534411806 0.0906818314 0.5013293246 -0.2383584137 0.5014886272 -0.2385956301 -0.138713187 0.0988385069
230298620.0 -0.1522804734 0.0923350549 0.4987124533 -0.2445709362 0.4992741625 -0.2443763989 -0.1377209258 0.1003332364
235298590.0 -0.1517356163 0.0936955214 0.495953093 -0.2500457084 0.4962649133 -0.2497759552 -0.1368881304 0.1017356629
240298560.0 -0.1512004549 0.0950814046 0.4936940567 -0.256440872 0.4936227634 -0.2561265258 -0.1360805753 0.10329846
245298530.0 -0.1505222359 0.0963641432 0.4914540055 -0.2620207366 0.4906371109 -0.2617614692 -0.1346943169 0.1038835784
250298500.0 -0.1493423558 0.0975265198 0.4873746428 -0.2674479257 0.487286475 -0.2670821266 -0.134363048 0.1057073853
255298470.0 -0.1485623594 0.0988324543 0.484618214 -0.2722706946 0.4847892925 -0.27264595 -0.1329025698 0.1068565652
260298440.0 -0.1481439245 0.099973895 0.4819541236 -0.2787350772 0.4820015238 -0.2782830384 -0.1312369594 0.1082374436
265298410.0 -0.1466775225 0.1017596252 0.4790251131 -0.2838303173 0.4791545843 -0.2839137928 -0.1308461288 0.109688918
270298380.0 -0.1458453804 0.1030286238 0.4760107189 -0.2891368816 0.4760714117 -0.2893512854 -0.1295972414 0.1109036388
275298350.0 -0.1449239431 0.1042317737 0.4729226726 -0.2951193661 0.4728034492 -0.2948719455 -0.1282591698 0.1122114819
280298320.0 -0.1439419483 0.105644895 0.4696096275 -0.3003531965 0.4699165103 -0.2997196477 -0.1269169204 0.1134802164
285298290.0 -0.1429711661 0.1070567786 0.4664761069 -0.3055034989 0.4659377798 -0.3056400069 -0.1256863223 0.1148580329
290298260.0 -0.1420707927 0.1085652273 0.4628042483 -0.3109089314 0.4632175278 -0.310528865 -0.1244214827 0.1161793283
295298230.0 -0.1408531654 0.1097739546 0.4595340143 -0.3161193658 0.4596968495 -0.3159822522 -0.1225398201 0.1173789333
300298200.0 -0.1401228585 0.1110040694 0.456451372 -0.3207410564 0.4563553705 -0.3214699918 -0.1217232802 0.1191260073
305298170.0 -0.138981993 0.1121216079 0.4521880867 -0.326916702 0.4529365796 -0.3262615683 -0.1196415173 0.1201046021
310298140.0 -0.1380340681 0.113724192 0.4493947628 -0.3316206194 0.4491870089 -0.3314461837 -0.1190233339 0.1211729325
315298110.0 -0.1370323554 0.1146447803 0.4456322978 -0.3366612035 0.4456669436 -0.3366377373 -0.1174188129 0.1224844243
320298080.0 -0.1356703132 0.1158727832 0.441486437 -0.3423712455 0.4419785937 -0.3417718381 -0.1161014026 0.123937548
325298050.0 -0.1347965478 0.1173303563 0.4376641272 -0.3473157143 0.4381156137 -0.3468708222 -0.115531731 0.1251802986
330298020.0 -0.1338157017 0.1182513898 0.4334084463 -0.3518696598 0.43385989 -0.3521962839 -0.1142475082 0.1265316539
335297990.0 -0.1330937002 0.1194191427 0.4298586927 -0.3561759202 0.4297160295 -0.3568879192 -0.1130603735 0.1283741738
340297960.0 -0.1326066114 0.1209397849 0.4258943085 -0.3614167462 0.425407039 -0.3617114024 -0.1114174223 0.1295394379
345297930.0 -0.1313083335 0.1226221921 0.421209273 -0.3663459377 0.4212671083 -0.3663543222 -0.1102257536 0.1306506707
350297900.0 -0.1303557616 0.1234713735 0.416860024 -0.3709828007 0.417198047 -0.3706639142 -0.1093588846 0.1327520129
355297870.0 -0.1294224977 0.1255020009 0.4133073882 -0.3755807297 0.4136767011 -0.3749829217 -0.1082336698 0.1335588348
360297840.0 -0.1282266476 0.1265805582 0.4097357055 -0.3793903791 0.4098540585 -0.3800672242 -0.1065766564 0.1356684025
365297810.0 -0.1274188011 0.1283756428 0.4049542212 -0.3844835391 0.405394795 -0.3847115131 -0.1050815146 0.1366595422
370297780.0 -0.1257553879 0.1293273539 0.4003994958 -0.3886719198 0.4007983748 -0.3885454945 -0.1037025547 0.1383514123
375297750.0 -0.1244066307 0.1308720146 0.3964778417 -0.3934120054 0.3967627851 -0.3932273444 -0.101975043 0.1392314649
380297720.0 -0.1233601694 0.1321445055 0.3918679952 -0.3978539202 0.3922676163 -0.3971898532 -0.1009964164 0.1407604537
385297690.0 -0.1226930935 0.1333301593 0.3876905464 -0.4019514645 0.3872246481 -0.4015473985 -0.0994748805 0.1419523082
390297660.0 -0.1211920061 0.1349219038 0.3833200178 -0.4061382137 0.3830677821 -0.4057831014 -0.0983165146 0.1432123149
395297630.0 -0.1198615681 0.1366232649 0.3790906472 -0.4104786786 0.3789445803 -0.4102055038 -0.0962991118 0.1445961312
400297600.0 -0.1186354418 0.137513601 0.3739683716 -0.414634302 0.3741596709 -0.4144005831 -0.0952069611 0.1455369894
405297570.0 -0.1175192258 0.138916023 0.3696444051 -0.418692618 0.3697822477 -0.4180792463 -0.0938643393 0.1468053019
410297540.0 -0.1159220565 0.1399188155 0.3655520524 -0.4224394458 0.3654203811 -0.4227963532 -0.0921725014 0.1485020834
415297510.0 -0.1144136645 0.1414217284 0.3603311434 -0.427135997 0.3607628619 -0.4265912438 -0.0907022335 0.1493938117
420297480.0 -0.1132740213 0.1428500291 0.35539258 -0.4305751642 0.3557885074 -0.4305694454 -0.0892014721 0.150161213
425297450.0 -0.111932832 0.1433703023 0.3512628722 -0.4338739808 0.3515585342 -0.4342953949 -0.0876372264 0.1514329176
430297420.0 -0.1108290223 0.1447931815 0.346416237 -0.4378320773 0.3462765226 -0.4378719084 -0.0860471546 0.152256473
435297390.0 -0.1093552502 0.1461902458 0.3410023788 -0.441972804 0.3412022499 -0.4420940881 -0.0837498405 0.1534131677
440297360.0 -0.1078400657 0.1472691084 0.3361962755 -0.4453645575 0.3362754159 -0.4454491873 -0.0825348091 0.1542381112
445297330.0 -0.106564067 0.1481441704 0.3317655294 -0.4494077102 0.3318756084 -0.4487727444 -0.0806360385 0.1551143859
450297300.0 -0.105267458 0.1494427855 0.3268894386 -0.4528698942 0.3268425102 -0.4531092963 -0.0792259855 0.1560058094
455297270.0 -0.1038828809 0.1505113716 0.3215352049 -0.4560718163 0.3219131571 -0.456112239 -0.0771593896 0.1571991801
460297240.0 -0.1024600004 0.1516534149 0.3167505271 -0.45966871 0.3166925419 -0.4597424575 -0.0754293323 0.1582645449
465297210.0 -0.1006693466 0.1529496928 0.3116999594 -0.4632396102 0.3116337543 -0.4634103187 -0.0736181338 0.1587215853
470297180.0 -0.0992118757 0.153918769 0.3064237562 -0.4665251361 0.3065293148 -0.4665050727 -0.071857288 0.16013672
475297150.0 -0.0979200969 0.1547490171 0.3015490629 -0.4694307823 0.3014928298 -0.4692456121 -0.0696243789 0.1604970906
480297120.0 -0.0962258056 0.1561962342 0.2964611725 -0.4731014308 0.2960172797 -0.4732658355 -0.0678199456 0.1618549189
485297090.0 -0.0948539718 0.1571281225 0.29156952 -0.4758664205 0.2917369702 -0.4760712063 -0.0663357973 0.1624734587
490297060.0 -0.0936219488 0.1583160284 0.2861824915 -0.4798184938 0.2862980536 -0.4792314794 -0.0643751791 0.1637111896
495297030.0 -0.0919777575 0.1594247916 0.2807558838 -0.4825097127 0.2810960745 -0.482107778 -0.0627611018 0.1646604976
500297000.0 -0.0904164904 0.1601922469 0.2756297539 -0.4848112094 0.2750780172 -0.484783366 -0.0605193395 0.1660224975
505296970.0 -0.088674654 0.1611686604 0.2700097208 -0.4879151169 0.2700741066 -0.4884764251 -0.0589182759 0.1667454511
510296940.0 -0.0871414274 0.1622173489 0.2647701079 -0.4915018334 0.2648643825 -0.4914744532 -0.0566374212 0.167410322
515296910.0 -0.0858018099 0.1634445469 0.2589866826 -0.4942608909 0.259527279 -0.4939719035 -0.0549782672 0.1681998605
520296880.0 -0.084489517 0.1642228906 0.254382245 -0.4973136979 0.2541039949 -0.4964583282 -0.0532072139 0.169134784
525296850.0 -0.0824338645 0.1647937997 0.2480003539 -0.4995234898 0.2488021543 -0.4996295417 -0.0514042166 0.1698381988
530296820.0 -0.080931871 0.1661229043 0.2432467903 -0.5023611325 0.2433975086 -0.5025071186 -0.0493925242 0.1710004408
535296790.0 -0.0794588139 0.1669791249 0.2378078971 -0.5044861093 0.2379679288 -0.5046017406 -0.0476880236 0.1712541605
540296760.0 -0.0779638138 0.1680089848 0.2320464869 -0.5075614127 0.2322621977 -0.5071390504 -0.0461060403 0.1724777208
545296730.0 -0.0763779638 0.1689634617 0.2262541836 -0.5098524706 0.2266029485 -0.5097091855 -0.0444042254 0.1728356136
550296700.0 -0.0741524484 0.1697864689 0.2209832517 -0.5120286353 0.2212289674 -0.5124583918 -0.0424228541 0.1739523088
555296670.0 -0.0731551751 0.1705676715 0.215588761 -0.5143498517 0.2158706088 -0.5146437189 -0.0404262011 0.1743882978
560296640.0 -0.0708894617 0.1719179644 0.2098229357 -0.5168684198 0.2100183566 -0.5170800662 -0.0384120875 0.174722719
565296610.0 -0.0697239362 0.1725548041 0.2045440275 -0.519357277 0.2043959639 -0.518935389 -0.0369355552 0.1750779078
570296580.0 -0.0680514567 0.1730546774 0.1986232475 -0.5217774079 0.1984622092 -0.5213808155 -0.0351115488 0.1763684325
575296550.0 -0.0666857031 0.1743898416 0.1931481263 -0.5237748942 0.1926568488 -0.5232741018 -0.0329361972 0.1764223378
580296520.0 -0.0644798514 0.175107193 0.1872253961 -0.5258780512 0.1876223436 -0.5254951475 -0.0310607715 0.1772256579
585296490.0 -0.0629341076 0.1753534284 0.1819204637 -0.5272891915 0.1817879738 -0.5273212377 -0.0289622723 0.1776205526
590296460.0 -0.0610042678 0.1764365602 0.1758118249 -0.5288662819 0.1760170203 -0.5289861713 -0.0277070958 0.1778125285
595296430.0 -0.0591427069 0.1771487797 0.1695069963 -0.5314570239 0.1700266505 -0.5309811616 -0.025280559 0.1778972875
600296400.0 -0.058093382 0.1775424873 0.16428029 -0.5329127197 0.1643590804 -0.5324718869 -0.0234520698 0.1783935748
605296370.0 -0.0562513951 0.1783123225 0.1590073828 -0.5345599142 0.1588373019 -0.5346834717 -0.0216013039 0.1787377955
610296340.0 -0.054485182 0.1789431276 0.1525298664 -0.536182221 0.1529482145 -0.5358555222 -0.019228963 0.1791370254
615296310.0 -0.0522680003 0.1792916154 0.146964085 -0.5374996887 0.1468330127 -0.5379501859 -0.01708217 0.1792026594
620296280.0 -0.0508760677 0.1798217051 0.1410739828 -0.5390210436 0.1408842464 -0.538939122 -0.0157733454 0.1796387985
625296250.0 -0.0493080469 0.1802787912 0.1357183962 -0.5408591614 0.1352582105 -0.5410864637 -0.0128058019 0.1798226362
630296220.0 -0.0464939185 0.181268743 0.1287468631 -0.5422810721 0.128938793 -0.5423702839 -0.0109402473 0.1804498525
635296190.0 -0.0460365448 0.1817845789 0.1235358948 -0.5434768332 0.1232444593 -0.5438091314 -0.0091280396 0.1805474885
640296160.0 -0.043872443 0.1823077709 0.1178344523 -0.5447940482 0.1177844296 -0.5445068041 -0.0069329538 0.1807729877
645296130.0 -0.0421062845 0.1834382106 0.1114183362 -0.5455590292 0.1120370193 -0.5460650752 -0.0049440431 0.181269345
650296100.0 -0.0400901676 0.1835324548 0.1057365407 -0.5471364938 0.1058436312 -0.5472343715 -0.0023646554 0.1807161517
655296070.0 -0.0386135734 0.1840347463 0.0997000603 -0.5483143693 0.1001052875 -0.5482408872 -0.000156785 0.1813284116
660296040.0 -0.0372312046 0.184458617 0.0942354383 -0.5492984895 0.0939531111 -0.5495183352 0.0018244295 0.181424537
665296010.0 -0.0346815065 0.1847320617 0.0877680723 -0.550079785 0.0880044909 -0.5499999054 0.0036280854 0.1820130378
670295980.0 -0.0340893722 0.1854362681 0.0818304187 -0.5510246706 0.0821236313 -0.5509608749 0.0055197405 0.181935907
675295950.0 -0.0317277745 0.1862414668 0.07641349 -0.5517532758 0.0766307221 -0.5515436155 0.0072600165 0.1822391044
680295920.0 -0.0297632409 0.1865676489 0.0697174059 -0.5523002884 0.0696136056 -0.5527789884 0.0095804012 0.1825691336
685295890.0 -0.0278967636 0.1874347943 0.0642638718 -0.5536070355 0.0639667553 -0.5534111395 0.0118203696 0.1824563755
690295860.0 -0.0258090412 0.187341364 0.0580807503 -0.5535398422 0.0579311673 -0.5541456102 0.0135754917 0.1832166391
695295830.0 -0.0242366675 0.1875839264 0.052471308 -0.5540311806 0.0524126651 -0.5542857135 0.015446275 0.1829456425
700295800.0 -0.0223778259 0.187951146 0.0464319174 -0.5549920282 0.0459158103 -0.554463177 0.0175688033 0.1832394966
705295770.0 -0.0208910708 0.188891349 0.0401182112 -0.5552801494 0.0403932514 -0.5555777444 0.0195908823 0.1832355398
710295740.0 -0.018756069 0.1890757751 0.0346609705 -0.5558346839 0.0346894282 -0.5562840736 0.021573873 0.1827427296
715295710.0 -0.0174169099 0.189146705 0.0286190096 -0.556286862 0.0279730815 -0.5556916569 0.0238462281 0.1827501793
720295680.0 -0.0151655843 0.189658321 0.0225103163 -0.5564917215 0.0226637879 -0.5563194853 0.025316136 0.1831072244
725295650.0 -0.0133087412 0.1898275477 0.0165130646 -0.5568689824 0.0162531544 -0.556363716 0.0272869638 0.1831431687
730295620.0 -0.011167943 0.1904732746 0.0102575806 -0.5564308359 0.010506336 -0.5566483713 0.0290094287 0.1822999245
735295590.0 -0.0094767105 0.1903785672 0.004573055 -0.556625194 0.004342185 -0.55674702 0.0310751273 0.1824070197
740295560.0 -0.0079336591 0.1906936609 -0.0013333801 -0.5563268376 -0.0019550765 -0.556932642 0.0334636781 0.1824821154
745295530.0 -0.0060408753 0.1910051422 -0.0077259079 -0.556238949 -0.0079217902 -0.5569790997 0.0354337545 0.1818859322
750295500.0 -0.0038220882 0.1913848244 -0.0137301171 -0.556286307 -0.0134441581 -0.5563352235 0.0372936634 0.1816090054
755295470.0 -0.0019771955 0.1909983651 -0.0192599637 -0.5562264124 -0.0196538765 -0.5561528716 0.0396808694 0.1810243333
760295440.0 -0.0005135211 0.1914806082 -0.0255040361 -0.5560860702 -0.0254714799 -0.5561231648 0.0412964205 0.1807627654
765295410.0 0.0015679353 0.1917644822 -0.0315979956 -0.5556446681 -0.0320364976 -0.5558005621 0.0433847203 0.1805567283
770295380.0 0.003023889 0.1915553512 -0.0378274148 -0.5554730587 -0.037570766 -0.5548604761 0.0454417326 0.1799846762
775295350.0 0.0050021548 0.1915418725 -0.0437349519 -0.55449137 -0.0433529217 -0.554390526 0.0465147245 0.179900956
780295320.0 0.0072244572 0.1918520904 -0.0498746384 -0.5539731326 -0.0488048349 -0.5539664367 0.0489633195 0.1787179385
785295290.0 0.0085990111 0.1912868744 -0.055842672 -0.5530141349 -0.0554590594 -0.5536323975 0.0513207346 0.1786899528
790295260.0 0.0112738187 0.1920096231 -0.0614747107 -0.5529030413 -0.0601650618 -0.5527526142 0.0533865963 0.1779289724
795295230.0 0.0124691581 0.1918885071 -0.0670149584 -0.5517310079 -0.0668365325 -0.5524391858 0.0552895321 0.1779131496
800295200.0 0.0143122985 0.1921170327 -0.0741213876 -0.5511903823 -0.0732181082 -0.5511766083 0.0575344404 0.1771255846
805295170.0 0.0164290273 0.1917480831 -0.0794121765 -0.5500557992 -0.0791249825 -0.5507579131 0.0593293812 0.176824069
810295140.0 0.0180045187 0.1913714093 -0.0849432156 -0.5489682777 -0.0852097249 -0.5497691372 0.0618780228 0.1763468486
815295110.0 0.0201463134 0.1912842052 -0.0909153431 -0.5479282393 -0.0906631224 -0.5482019727 0.0633371201 0.1759688628
820295080.0 0.0214303608 0.1918947536 -0.0970279566 -0.5472151904 -0.0964635223 -0.5473757209 0.0656217477 0.1753850485
825295050.0 0.0239768815 0.1915797759 -0.1025654865 -0.5462887805 -0.1031694508 -0.5463234895 0.0677412679 0.1746280049
830295020.0 0.025476089 0.1915967269 -0.1084751051 -0.5449551358 -0.1087155291 -0.5447748559 0.0701696788 0.1743504805
