!Created with skrf (http://scikit-rf.org).
# Hz S RI R 50.0 
!freq ReS11 ImS11 ReS21 ImS21 ReS12 ImS12 ReS22 ImS22
300000.0 -0.0955280715 -0.0933651222 0.6238650037 0.0879850236 0.6225252957 0.0896271158 -0.0978729548 -0.1021645349
5299970.0 -0.1014224563 0.0118712198 0.6301046028 0.0109288712 0.6308759852 0.0112796571 -0.1016046966 0.0113840171
10299940.0 -0.0969000488 0.0289016057 0.6347231187 0.015867329 0.6342569641 0.0165669077 -0.0965652411 0.0286309947
15299910.0 -0.0891732546 0.0424382571 0.640765207 0.0211375802 0.6407394914 0.0209363387 -0.0901327649 0.0417271942
20299880.0 -0.0805807713 0.053780519 0.6485633442 0.0243207324 0.6489584447 0.0245089431 -0.0810227038 0.0530018335
25299850.0 -0.0704298432 0.0624149125 0.6582352661 0.0257426264 0.6584506824 0.0257435363 -0.0718724935 0.0618485512
30299820.0 -0.0610113362 0.0687286536 0.668177194 0.0248159113 0.668131981 0.0241137546 -0.0619049842 0.0681473867
35299790.0 -0.0506216182 0.073573823 0.6771724059 0.0222164548 0.6777123274 0.0214877242 -0.0524054511 0.0735704118
40299760.0 -0.0413260785 0.0764248746 0.686931955 0.0176022144 0.6870759861 0.017608985 -0.042668702 0.0770133313
45299730.0 -0.0320091954 0.0783815805 0.6959507377 0.0123618543 0.6962910907 0.0120914309 -0.0332700247 0.0790001386
50299700.0 -0.0229718303 0.0793045573 0.7039338232 0.0048794098 0.7040513276 0.0049750218 -0.0246117578 0.0804502261
55299670.0 -0.0153086821 0.0787381298 0.711077126 -0.0021992078 0.7111426646 -0.0023429681 -0.0173257096 0.0805442385
60299640.0 -0.0077480331 0.078716098 0.7181030781 -0.0108035337 0.7179838703 -0.011205488 -0.0097983119 0.0794459755
65299610.0 -0.0012197329 0.077272794 0.7244266949 -0.0195867572 0.7245878536 -0.0201294428 -0.0026995766 0.0784407075
70299580.0 0.005084957 0.0751726993 0.7292339881 -0.0286561849 0.7296589958 -0.0290484181 0.0028275655 0.077169444
75299550.0 0.0105261971 0.0734913989 0.7336251668 -0.039076613 0.7335750928 -0.0392384549 0.0087849447 0.0751436269
80299520.0 0.0153775207 0.0713924029 0.7376304611 -0.0488143811 0.7378583792 -0.0488160195 0.0135155825 0.0734386302
85299490.0 0.0200282779 0.0691444859 0.7412099074 -0.0586681758 0.7412068526 -0.0585332474 0.0180480623 0.0708552699
90299460.0 0.0239781657 0.0667037796 0.7431503297 -0.0685163391 0.7434613393 -0.0684992965 0.0223739182 0.0692802416
95299430.0 0.0280179794 0.0641018929 0.7454969217 -0.0789710186 0.7466014426 -0.0789357513 0.0258309165 0.0666882092
100299400.0 0.031185486 0.0616435583 0.7479071904 -0.0884437424 0.7480789043 -0.0890088194 0.0291508719 0.0645760041
105299370.0 0.0342152536 0.0592342355 0.7491077778 -0.0990373734 0.7496681519 -0.09906123 0.032659473 0.061651488
110299340.0 0.0371377357 0.0565013079 0.7502492504 -0.1086669684 0.7511367226 -0.1087378478 0.0350158101 0.0595224507
115299310.0 0.0393757892 0.0542795839 0.7512082494 -0.118574348 0.7514856523 -0.1186665091 0.0376118185 0.0574789254
120299280.0 0.0415134885 0.0521253752 0.7521081138 -0.1295067094 0.7514662235 -0.1296195553 0.0395389606 0.0543648059
125299250.0 0.0436141248 0.0498220651 0.7518799447 -0.1392017774 0.7523234885 -0.1384379353 0.0417987395 0.0527552482
130299220.0 0.0456042998 0.046990199 0.7519440603 -0.1491190041 0.7521817014 -0.14941997 0.0437616667 0.0506737786
135299190.0 0.0468570031 0.0454683218 0.7522202513 -0.1585872877 0.7521670366 -0.1587986989 0.0455594896 0.0480404512
140299160.0 0.0488223684 0.0431999326 0.7517583165 -0.1685840225 0.7510804602 -0.1679990423 0.0462648596 0.0454169007
145299130.0 0.0493707 0.0412201629 0.7504434229 -0.1779308337 0.7506457022 -0.1782526599 0.0479391383 0.0438881475
150299100.0 0.0508013646 0.0393495398 0.7492480346 -0.1877302336 0.7491685844 -0.1876042292 0.0490193882 0.0419847809
155299070.0 0.0525916208 0.0373874678 0.7473166848 -0.1975464684 0.7484009292 -0.1979236918 0.0506229475 0.0392661586
160299040.0 0.0531064667 0.0355806727 0.7469467818 -0.2071218092 0.7468433862 -0.2066170412 0.0507698506 0.0380348587
165299010.0 0.0543944095 0.0333211239 0.7455119286 -0.2164767969 0.74467681 -0.2164356792 0.0522076953 0.0358235525
170298980.0 0.054619012 0.03196179 0.743335853 -0.2258586521 0.7432462866 -0.2260432513 0.052568044 0.033885348
175298950.0 0.0559614289 0.0303170086 0.7415365599 -0.2355438976 0.7416053889 -0.2357927886 0.0534460859 0.0324614214
180298920.0 0.056186702 0.0288698396 0.7396472221 -0.2446945363 0.7394151286 -0.2448558487 0.0540173015 0.0308652603
185298890.0 0.0567262262 0.0272266224 0.737979032 -0.2535392753 0.7369808343 -0.253430391 0.0550337586 0.028899368
190298860.0 0.0577379952 0.0257496487 0.7344595868 -0.2626782736 0.7348060986 -0.262503213 0.0550052962 0.0274290788
195298830.0 0.0575135619 0.0241864092 0.7326049676 -0.2712299474 0.7323960952 -0.2713326895 0.0553861091 0.0258238706
200298800.0 0.0584779065 0.0224340511 0.730089513 -0.2811029389 0.7296293838 -0.2813820127 0.0562260009 0.0235952997
205298770.0 0.0580986204 0.0209533501 0.7269253284 -0.2895727922 0.7273103465 -0.2894049369 0.0568980226 0.0225578649
210298740.0 0.058749952 0.0200718471 0.7241447869 -0.2981745997 0.7234404357 -0.2986287821 0.0563386548 0.0206253767
215298710.0 0.0592062361 0.0186421595 0.7207697667 -0.3066453511 0.7205910504 -0.3071653293 0.0570295618 0.0194717803
220298680.0 0.0595277558 0.0176784017 0.7170713326 -0.3158244597 0.7172199539 -0.3161507553 0.0571116077 0.0179657757
225298650.0 0.0595413195 0.0161492678 0.7138248734 -0.3245374174 0.71413268 -0.3243481367 0.0574166687 0.0164930477
230298620.0 0.059977898 0.0152978664 0.7114370596 -0.3328952691 0.7114426917 -0.3330673662 0.0573234502 0.0152537012
235298590.0 0.0595720126 0.0136818911 0.7076797579 -0.3417906543 0.7077373476 -0.3413012019 0.0576763368 0.0140561065
240298560.0 0.060141746 0.0130281648 0.7042967754 -0.3492941802 0.7038958202 -0.3496477562 0.0578139785 0.0126991348
245298530.0 0.0601415332 0.0111209207 0.7003949738 -0.3583651816 0.7004124477 -0.3580432476 0.0574063055 0.0118040872
250298500.0 0.0601211398 0.0102548759 0.6972129554 -0.3663825818 0.6964433523 -0.3661831944 0.0575110285 0.0104073168
255298470.0 0.0605288005 0.0095710081 0.6927103576 -0.373743021 0.6932019978 -0.3746668952 0.0578823031 0.0097099228
260298440.0 0.0606192036 0.0083132916 0.6890903142 -0.3817509322 0.688830988 -0.382602482 0.0575120339 0.0076229142
265298410.0 0.0598920812 0.0075862379 0.6847280487 -0.3907164947 0.684044161 -0.3906390557 0.0586717865 0.0066559936
270298380.0 0.0598823639 0.0061656244 0.6804949935 -0.398403929 0.6804541475 -0.3983671553 0.0580979104 0.0058261636
275298350.0 0.0603277909 0.0058589261 0.6754747886 -0.4066107104 0.6755401375 -0.4063428174 0.057725768 0.0047076035
280298320.0 0.0596802466 0.0045145003 0.6717396074 -0.4139446319 0.6721524278 -0.4144854729 0.0583431339 0.0036781436
285298290.0 0.0598131926 0.0035426234 0.6669952704 -0.4220494962 0.6674066708 -0.4217432391 0.0577825856 0.0025801315
290298260.0 0.059922488 0.0027580017 0.6634904881 -0.429742512 0.66320289 -0.4296294799 0.0580979398 0.0015724766
295298230.0 0.0598869229 0.0014596463 0.6581478675 -0.4380229849 0.6582915489 -0.4375156468 0.0577001026 0.0003801637
300298200.0 0.0601437081 0.0007858105 0.6537601583 -0.4452083877 0.6536156971 -0.445036699 0.0577272447 -0.0008656432
305298170.0 0.0600179123 -0.0008645605 0.648905376 -0.4536903555 0.6491110652 -0.4534027195 0.0576078168 -0.0022619882
310298140.0 0.060057652 -0.0016057984 0.6441515046 -0.4602246244 0.6443968935 -0.4603351197 0.0579942197 -0.0037308869
315298110.0 0.0597391556 -0.0028952817 0.6389362885 -0.4688461611 0.6392979603 -0.4684185181 0.0574877005 -0.0045545461
320298080.0 0.0594505744 -0.003802984 0.6330828444 -0.4758917041 0.6341741056 -0.4762222616 0.0571750045 -0.005680099
325298050.0 0.0584658232 -0.0052729245 0.628057072 -0.4826965817 0.6288994011 -0.4833511858 0.0567592629 -0.0069590361
330298020.0 0.057356573 -0.0058523965 0.6228779717 -0.4909854217 0.6233947005 -0.491002569 0.0559359695 -0.0078469497
335297990.0 0.0575103044 -0.0066646194 0.616956896 -0.4970452261 0.6176265871 -0.4973922958 0.0553897819 -0.0087432881
340297960.0 0.0570508596 -0.0075508679 0.611076359 -0.5047535791 0.6110186273 -0.5047758392 0.055008535 -0.0091917553
345297930.0 0.0562884636 -0.0083093244 0.6056004215 -0.5119703293 0.6057025477 -0.5117686018 0.0552933793 -0.0104874509
350297900.0 0.055681777 -0.0090136406 0.600226727 -0.5177737548 0.6001480194 -0.5184112466 0.0543746298 -0.0114401517
355297870.0 0.0554850852 -0.0096521465 0.5943184265 -0.52438604 0.5941348293 -0.5246460235 0.0545119908 -0.0123635136
360297840.0 0.0555007775 -0.0102813307 0.5881741648 -0.5315528486 0.5882862111 -0.5318119962 0.0534191931 -0.012456608
365297810.0 0.0547547175 -0.0109534157 0.5823295012 -0.5379597774 0.5823177568 -0.5379668235 0.0527713943 -0.0133711656
370297780.0 0.0545534202 -0.0113204134 0.5763687061 -0.5445391125 0.5766473319 -0.5448643619 0.052789873 -0.013824671
375297750.0 0.054258309 -0.012153181 0.5701265217 -0.550928252 0.5704646323 -0.5510253306 0.0528156359 -0.0148065541
380297720.0 0.0533979089 -0.0125905846 0.5646653234 -0.5577850489 0.5638561663 -0.5576683876 0.0522254465 -0.0149327969
385297690.0 0.0530889686 -0.0136729893 0.55788726 -0.5634327676 0.5581650097 -0.5643119572 0.05216821 -0.0158345648
390297660.0 0.0528047046 -0.0143594846 0.5522559968 -0.5693397926 0.5521298545 -0.5701976523 0.0521828976 -0.0167616143
395297630.0 0.0527540437 -0.0149292751 0.5459634948 -0.5751800309 0.5456948811 -0.5755694962 0.051331913 -0.0173946134
400297600.0 0.0519908397 -0.0156564065 0.5394359363 -0.5820109902 0.5393954396 -0.582082704 0.0514753907 -0.0176580688
405297570.0 0.0521186586 -0.0165966045 0.5330639358 -0.5880187765 0.5330947463 -0.5877516593 0.050774536 -0.0179954736
410297540.0 0.0513499038 -0.0164494954 0.526789333 -0.5937356988 0.5267536655 -0.5939930591 0.0505327641 -0.0189575855
415297510.0 0.050761046 -0.0173493888 0.5197900982 -0.5994040551 0.5206944096 -0.5998664923 0.0503735207 -0.01951149
420297480.0 0.0504318042 -0.0185774823 0.5129747881 -0.6053043087 0.5137683575 -0.6055720595 0.0502813524 -0.0195298869
425297450.0 0.0508975145 -0.0186759356 0.5071749324 -0.6106355666 0.5067499223 -0.6113307073 0.0498113832 -0.020817701
430297420.0 0.0499103251 -0.0194759512 0.5009325623 -0.6168393998 0.500372977 -0.6161692964 0.0499664318 -0.0213149672
435297390.0 0.04978532 -0.0202019393 0.4931810234 -0.6230976559 0.4930741711 -0.622438789 0.0487470935 -0.0213505888
440297360.0 0.0494527064 -0.0208758222 0.4860304138 -0.6280071249 0.4862595259 -0.6279028443 0.0485933625 -0.0221982844
445297330.0 0.049342931 -0.02182148 0.4794235054 -0.6326771114 0.4794103847 -0.6332873362 0.0484422182 -0.0223458764
450297300.0 0.0488095111 -0.0221771261 0.4728837486 -0.6377125358 0.472886175 -0.6379020913 0.0479932332 -0.0230113531
455297270.0 0.0478024513 -0.0228720137 0.4658292193 -0.6436748036 0.4657084999 -0.6437046065 0.0477670324 -0.0235501525
460297240.0 0.0480931761 -0.0230092611 0.4587201887 -0.6491384231 0.458775392 -0.6486770282 0.0472985993 -0.0243782536
465297210.0 0.0477496816 -0.0239540946 0.4509661842 -0.6537839117 0.4508864798 -0.6539552438 0.047148834 -0.0242238495
470297180.0 0.0472666821 -0.0247952586 0.4439269992 -0.6586626776 0.4448146941 -0.6589246335 0.0470850472 -0.02544784
475297150.0 0.0464174548 -0.0248221745 0.436508469 -0.6634162693 0.4373235451 -0.6638072496 0.0465108962 -0.025651886
480297120.0 0.046662994 -0.0250499643 0.4293005728 -0.6684133737 0.4295158414 -0.6685540362 0.0459486245 -0.0264158433
485297090.0 0.0459637524 -0.0266258924 0.4218198703 -0.6731508967 0.4218228139 -0.6732159697 0.0457614409 -0.0267130454
490297060.0 0.0462373053 -0.0264197075 0.4143699285 -0.6781109241 0.4150580441 -0.6779090401 0.0450303055 -0.027476439
495297030.0 0.0449971218 -0.0275205491 0.4075411316 -0.6823935783 0.40714569 -0.6826710342 0.0452138102 -0.0279016672
500297000.0 0.0448229694 -0.027540894 0.3997874273 -0.6864705533 0.3999343129 -0.6870987283 0.0447806513 -0.0280782412
505296970.0 0.0449721169 -0.0282930038 0.3923018429 -0.691411755 0.3923348636 -0.691330572 0.0444162839 -0.0293962261
510296940.0 0.0443112052 -0.0290589495 0.3845501521 -0.6967280841 0.3849847027 -0.696470223 0.0444844106 -0.0290100301
515296910.0 0.0437438901 -0.0293174655 0.3763745347 -0.6997369166 0.3765925279 -0.6998990247 0.0435614002 -0.0304864233
520296880.0 0.0435354467 -0.0293835116 0.3691510945 -0.7034561386 0.3690997444 -0.7036202621 0.0438442137 -0.0300480226
525296850.0 0.0432398648 -0.0300102259 0.3619175431 -0.7075501707 0.3611402966 -0.7080077157 0.0436315729 -0.0307425254
530296820.0 0.0425408089 -0.030784817 0.3536272577 -0.7122580501 0.3539099789 -0.711621309 0.043031353 -0.0318072736
535296790.0 0.0426871365 -0.0310410433 0.3459359992 -0.7153791765 0.3463562192 -0.7158472418 0.0429918647 -0.0314706269
540296760.0 0.0419868478 -0.0309986583 0.337822003 -0.7192996363 0.3378919053 -0.71928688 0.0422356566 -0.0325481069
545296730.0 0.0408113389 -0.0317127764 0.3300807034 -0.7230276496 0.3303624387 -0.7227069766 0.0419218986 -0.0327765961
550296700.0 0.0415355242 -0.0323060036 0.3224415826 -0.726826992 0.3221638168 -0.7271957169 0.0415080473 -0.0336071888
555296670.0 0.0405537868 -0.0324921234 0.3141147922 -0.7307530266 0.3143311813 -0.7302505018 0.0409720977 -0.0344307273
560296640.0 0.0408916853 -0.0329510324 0.3061735392 -0.7336864008 0.3069287758 -0.733498501 0.0401298455 -0.0339849955
565296610.0 0.0397302762 -0.0333796127 0.2983312581 -0.7374195552 0.2987503327 -0.7368183975 0.0402576419 -0.0342217559
570296580.0 0.0393121084 -0.0333092579 0.2901563525 -0.7399010848 0.2900732583 -0.7408089628 0.0396431156 -0.0351412221
575296550.0 0.0390381287 -0.0341726205 0.2821332422 -0.7432166138 0.2821925473 -0.7434884773 0.0391511007 -0.0353872269
580296520.0 0.0385627998 -0.0341392915 0.2739784628 -0.7466908706 0.2739694762 -0.7467481586 0.0381995866 -0.0358509548
585296490.0 0.0382316099 -0.0343436431 0.2662452096 -0.749209936 0.2653764003 -0.7495212208 0.0385989782 -0.0359424852
590296460.0 0.038530222 -0.0350296959 0.2577018001 -0.7522991019 0.257716759 -0.7526080574 0.03759976 -0.0362232974
595296430.0 0.0376125006 -0.0352481456 0.2486246252 -0.7550995958 0.2491271834 -0.7550868643 0.0371402883 -0.0373059055
600296400.0 0.0374704279 -0.0352809629 0.2408919161 -0.7575697647 0.240836426 -0.7576212505 0.0368435527 -0.0374239193
605296370.0 0.0361881655 -0.035768022 0.2329859974 -0.7601010178 0.2322112834 -0.7604316098 0.0361991304 -0.0377662899
610296340.0 0.0362222898 -0.0355363021 0.2244137466 -0.7619158459 0.2247008388 -0.762477629 0.0355860672 -0.0379820809
615296310.0 0.0360568864 -0.0361722671 0.216094216 -0.7656269762 0.2156425042 -0.765141231 0.0354459887 -0.0381397493
620296280.0 0.0347759288 -0.0358209904 0.2068083432 -0.7676481758 0.2076830727 -0.7669216454 0.0342847123 -0.0384865424
625296250.0 0.0343469621 -0.036599669 0.1991228806 -0.7700366985 0.1996223477 -0.7701772366 0.0333443111 -0.039110657
630296220.0 0.0341200217 -0.0365106878 0.190167948 -0.7722624014 0.1907349336 -0.7717593394 0.0335792669 -0.0392312413
635296190.0 0.0332216386 -0.0366636413 0.1820942347 -0.7735727777 0.1824859777 -0.7738243325 0.0329974347 -0.039644415
640296160.0 0.0326390304 -0.0369789509 0.1735575038 -0.7766457982 0.1732093938 -0.7762600141 0.0317230679 -0.0399867878
645296130.0 0.0326589809 -0.0366490431 0.1651548743 -0.7777650415 0.1652963064 -0.7777293681 0.0312585172 -0.0407645209
650296100.0 0.0320942357 -0.0371603785 0.1568103933 -0.779708465 0.1569020974 -0.7796943345 0.0321343534 -0.0405364039
655296070.0 0.0314800572 -0.0372932793 0.1479542117 -0.7815014431 0.1482865707 -0.7810479783 0.0301205444 -0.0404753965
660296040.0 0.0312261058 -0.037152499 0.1402419459 -0.7830718756 0.1398755622 -0.7830449905 0.0298567556 -0.0413955615
665296010.0 0.0305389786 -0.0375359191 0.1304585668 -0.783647528 0.1305764056 -0.7840179844 0.029398173 -0.0412125849
670295980.0 0.0301316342 -0.037742813 0.122607173 -0.7858574257 0.1223467082 -0.7847247336 0.0283203945 -0.0418329859
675295950.0 0.0291815198 -0.0379720677 0.1139388683 -0.7864176214 0.1141226047 -0.7868760496 0.0277780082 -0.0414967489
680295920.0 0.0288479083 -0.0379088702 0.1053548787 -0.7879294103 0.1058090646 -0.7876500053 0.0281102287 -0.0420598008
685295890.0 0.0283061432 -0.0376748767 0.0962516781 -0.7892960097 0.0969704298 -0.7889832218 0.0270318934 -0.0418499827
690295860.0 0.0273603741 -0.0377188093 0.088229358 -0.7900093434 0.0877250268 -0.7902084549 0.0262917841 -0.0423611101
695295830.0 0.0271826263 -0.0384311604 0.0794802238 -0.7911725083 0.079644371 -0.7910088542 0.0256472015 -0.0421863687
700295800.0 0.026683097 -0.0381760835 0.0718231757 -0.7919808457 0.0713464884 -0.7915173118 0.0250700846 -0.0422229585
705295770.0 0.0256648602 -0.0381069356 0.0624542098 -0.7929940952 0.0624137242 -0.7922462839 0.0242900895 -0.0422544591
710295740.0 0.0255161427 -0.0386796822 0.0540845687 -0.792818785 0.0539034772 -0.7933009823 0.0238373142 -0.0423729134
715295710.0 0.0246172772 -0.0380343502 0.0451343937 -0.7941127263 0.0454785051 -0.7938893628 0.023122413 -0.0429863176
720295680.0 0.0248202054 -0.0381304367 0.0368845004 -0.7939544608 0.0364037683 -0.7945686701 0.0222759767 -0.0430890133
725295650.0 0.0230823564 -0.0379830778 0.0282254896 -0.7944079987 0.027841991 -0.7947262627 0.0215334806 -0.0426111375
730295620.0 0.0220410353 -0.0384922365 0.0189750263 -0.7942333206 0.0191655078 -0.7938066769 0.0208248479 -0.0423323439
735295590.0 0.022342132 -0.0382803324 0.0107071659 -0.7950078587 0.0108684484 -0.7950372451 0.0201872239 -0.0433301435
740295560.0 0.021745613 -0.038752349 0.0015218704 -0.7952184267 0.0023537542 -0.7947517767 0.0189152342 -0.0425339184
745295530.0 0.02073364 -0.0382102144 -0.0065690542 -0.7942774618 -0.0062578655 -0.7943114948 0.0180567311 -0.0430948108
750295500.0 0.0201277941 -0.0381086036 -0.0148634051 -0.7944454861 -0.0153933271 -0.7944378118 0.0177291316 -0.0429831572
755295470.0 0.0193716478 -0.0383302997 -0.0230098966 -0.7947816988 -0.0235443271 -0.7948600484 0.0174775041 -0.0421822873
760295440.0 0.0187557842 -0.0376015916 -0.0330876419 -0.7939494537 -0.0323926193 -0.7935923466 0.0170732929 -0.0437652739
765295410.0 0.0187813789 -0.0383480008 -0.0411187837 -0.7935494316 -0.0405824429 -0.793619837 0.0162355628 -0.0432252622
770295380.0 0.0180611966 -0.0379278559 -0.0494763668 -0.7925265261 -0.0491137532 -0.7936913402 0.0152655921 -0.043047069
775295350.0 0.017159398 -0.0382552785 -0.0580007291 -0.7927728435 -0.0576741887 -0.7920074083 0.0155349259 -0.0427307843
780295320.0 0.0164902572 -0.0378086716 -0.0666549627 -0.7913557332 -0.0664910534 -0.7916029609 0.0145708994 -0.0429979561
785295290.0 0.0158860607 -0.0380692374 -0.0752739531 -0.791044299 -0.0750463293 -0.7909857273 0.0129217398 -0.0423214539
790295260.0 0.0156294478 -0.0382641988 -0.0833280006 -0.7897778675 -0.0837016293 -0.7906920949 0.0126975594 -0.042055038
795295230.0 0.0148839482 -0.0382406712 -0.0922875171 -0.7894523325 -0.0925923003 -0.7896057584 0.0121458652 -0.0434760121
800295200.0 0.0134504516 -0.037706982 -0.1000687619 -0.7881882174 -0.1007842447 -0.7883725891 0.0111780013 -0.0424416548
805295170.0 0.0129354508 -0.0380992057 -0.1092671191 -0.7872333276 -0.1091028915 -0.7870894135 0.0115947113 -0.0423071894
810295140.0 0.013050697 -0.0375568829 -0.1176323405 -0.7853790895 -0.118118677 -0.7856931839 0.0106085755 -0.0423806432
815295110.0 0.0119639534 -0.0373521292 -0.1264849616 -0.7841137815 -0.1261300507 -0.7845639641 0.0095656278 -0.042461942
820295080.0 0.0113100365 -0.0375565988 -0.1341271798 -0.7824671726 -0.1345003838 -0.7832695428 0.008188172 -0.0413951244
825295050.0 0.0104455121 -0.0374168161 -0.1432623136 -0.7814630798 -0.1428497177 -0.7812897578 0.0087088406 -0.0413463194
830295020.0 0.009926469 -0.0373043908 -0.1512706184 -0.7795700871 -0.1516157459 -0.7802351391 0.0077577686 -0.0419026837
