!Created with skrf (http://scikit-rf.org).
# Hz S RI R 50.0 
!freq ReS11 ImS11 ReS21 ImS21 ReS12 ImS12 ReS22 ImS22
300000.0 -0.1009644775 -0.0633496714 0.630613062 0.060789666 0.6235703084 0.0616139736 -0.0998305062 -0.0719868666
5299970.0 -0.1021812493 0.0135538979 0.630665233 0.0097285871 0.6305519501 0.0099661748 -0.1012412267 0.0133639068
10299940.0 -0.0972796493 0.0296172228 0.6343585101 0.0155505041 0.6341008914 0.0155078256 -0.0960545908 0.0303982429
15299910.0 -0.0901691347 0.0425906809 0.6402141926 0.0203889629 0.6405208395 0.0205984436 -0.0888887995 0.0435053229
20299880.0 -0.081792641 0.0530913088 0.6487361426 0.0245812273 0.6488674798 0.0240858501 -0.079874104 0.0546057855
25299850.0 -0.0723855651 0.062446122 0.6578556654 0.025195801 0.6579616231 0.0258815249 -0.069988812 0.0632526626
30299820.0 -0.0624481108 0.0689470147 0.6673205367 0.0245646203 0.6675868868 0.0246425493 -0.0599376595 0.0698683216
35299790.0 -0.052596978 0.0737004967 0.6771908181 0.0214648569 0.6772227546 0.0216287905 -0.0501935356 0.0746350942
40299760.0 -0.0435681722 0.0773313106 0.6861263302 0.0173827787 0.6867696788 0.0177292154 -0.0407009966 0.0775260906
45299730.0 -0.0341721348 0.0793007668 0.6950767233 0.0119655865 0.695507808 0.0120737021 -0.0313451441 0.0795288042
50299700.0 -0.02537536 0.080198608 0.7033717802 0.0047850041 0.7037929551 0.0053103264 -0.0227126698 0.0802774848
55299670.0 -0.0176521921 0.080477724 0.7107744142 -0.0036043668 0.7107081895 -0.0026571093 -0.0147057199 0.080430675
60299640.0 -0.009896294 0.0800221821 0.7173126899 -0.0113631509 0.7176802332 -0.0109826726 -0.0077330565 0.0795607651
65299610.0 -0.0036391554 0.0788427067 0.7228309051 -0.0200225273 0.7239184522 -0.0199064083 -0.0012397223 0.0786794842
70299580.0 0.002600341 0.0775794685 0.7287957001 -0.0292461597 0.7285895072 -0.0289394395 0.0050064563 0.0768568336
75299550.0 0.0082034827 0.0758879991 0.7329244705 -0.0389528605 0.7328591736 -0.0389011559 0.0103501773 0.0748588293
80299520.0 0.0130459919 0.0735860239 0.7368392514 -0.0486537758 0.7375726785 -0.0488777758 0.0149662601 0.0726527781
85299490.0 0.0176872561 0.071478734 0.7399752737 -0.0582412003 0.7409023812 -0.0579163457 0.0192795704 0.0700206711
90299460.0 0.021792252 0.0690564234 0.7433105362 -0.0690631724 0.7433261442 -0.0687319761 0.0238385594 0.0681107978
95299430.0 0.0259442002 0.066419063 0.7459848247 -0.0790327133 0.7457882194 -0.0788893552 0.0275043975 0.0654672178
100299400.0 0.0288969315 0.0647615547 0.7471115816 -0.0886230484 0.7475954767 -0.088918824 0.0309941886 0.0628137604
105299370.0 0.0321466044 0.0617507731 0.7484122634 -0.0993258282 0.7490655369 -0.0991598682 0.0341597991 0.0606397385
110299340.0 0.0349454185 0.0596193757 0.7496853183 -0.1090340979 0.7500678784 -0.1089836602 0.0362702431 0.0580010758
115299310.0 0.0373507193 0.0572395439 0.7508185202 -0.1193221428 0.7508959605 -0.1190643823 0.0389838814 0.0558040137
120299280.0 0.0398298324 0.0546310439 0.7512663989 -0.1292114991 0.7518169885 -0.1294772116 0.041323223 0.0534575423
125299250.0 0.0417714739 0.0522869571 0.7516511326 -0.1392590163 0.7520177855 -0.1385527329 0.0427350735 0.0506159301
130299220.0 0.0435784697 0.0503643749 0.7512457878 -0.1494398097 0.7515098219 -0.148707316 0.0448078562 0.0486313743
135299190.0 0.0452460477 0.0481330327 0.7512183091 -0.1587168002 0.7514948023 -0.1582336933 0.0468006878 0.0463110702
140299160.0 0.0465294016 0.0465354342 0.7509921362 -0.1688365267 0.7509552598 -0.1690093235 0.0478107336 0.0446304733
145299130.0 0.0480890693 0.0437411661 0.7498786957 -0.1784990884 0.7497830085 -0.1777875167 0.0493673772 0.04257961
150299100.0 0.0496585864 0.0423029626 0.7486163251 -0.1874350982 0.7490662146 -0.1877400849 0.0507159693 0.040374684
155299070.0 0.0500806086 0.0398796722 0.7482814 -0.1982440644 0.7478905876 -0.1973650756 0.0515838224 0.0386840151
160299040.0 0.0515487787 0.0381970423 0.7465267082 -0.2072952961 0.7458728274 -0.2073547102 0.0519534548 0.0365364627
165299010.0 0.0523350027 0.0365800223 0.7446248876 -0.2171363945 0.7451076444 -0.2170563466 0.0534500288 0.035275582
170298980.0 0.0531555188 0.0342562267 0.7431501187 -0.2261903345 0.7434990955 -0.2263450173 0.0538146371 0.0332203127
175298950.0 0.0534552349 0.032322646 0.7413405406 -0.2354396529 0.741094114 -0.235395661 0.0546697522 0.0314152179
180298920.0 0.0542023826 0.0308069805 0.7391485909 -0.2445279066 0.7388598992 -0.244262121 0.0550658006 0.029895629
185298890.0 0.0554161729 0.028935302 0.7366234761 -0.2536599619 0.7368540662 -0.2536894891 0.0556301423 0.0284718029
190298860.0 0.0553311726 0.0274714508 0.7341636552 -0.2629408679 0.734427321 -0.262912297 0.0562400718 0.0264301975
195298830.0 0.0560397347 0.0254550977 0.7320368986 -0.272056906 0.7323274635 -0.2716593522 0.0570555792 0.0247966917
200298800.0 0.0564662072 0.0242913204 0.7287677171 -0.2810498154 0.7291869694 -0.2813847677 0.0568119709 0.0235320516
205298770.0 0.0567778654 0.0230254092 0.7257957821 -0.2900721827 0.7264099885 -0.289639115 0.0572861461 0.0212415155
210298740.0 0.0573445248 0.0210693958 0.7228657593 -0.2983039211 0.7233273389 -0.2979017475 0.0579067191 0.0209981085
215298710.0 0.0567525048 0.0199175389 0.7203702461 -0.3073195865 0.7203753518 -0.3076499975 0.0577236944 0.019756165
220298680.0 0.0576671488 0.0177465577 0.7165128107 -0.3152533357 0.7169228331 -0.315577997 0.0577346136 0.0176403778
225298650.0 0.057743238 0.0167953743 0.7138780132 -0.3245960457 0.7139232133 -0.3239951125 0.0576501221 0.0160963804
230298620.0 0.0579397573 0.0158266799 0.7108548335 -0.3322602189 0.7108731806 -0.3333302393 0.0575252378 0.0152537946
235298590.0 0.0579947206 0.0145394219 0.7072109869 -0.3414870361 0.7071274587 -0.3406828173 0.0577198571 0.013755402
240298560.0 0.0580791944 0.0135708879 0.703638588 -0.3501038566 0.7036474079 -0.3496950165 0.0578326207 0.0127624911
245298530.0 0.0581892494 0.0117783899 0.7000729843 -0.3581992072 0.7002553928 -0.3585957032 0.0586207798 0.0109783822
250298500.0 0.0585242101 0.0108045977 0.6954096909 -0.3661918686 0.6951809633 -0.3659291139 0.0581591384 0.0103372647
255298470.0 0.0583469288 0.00935643 0.6912127266 -0.3740416359 0.6917251559 -0.3741822593 0.0584986025 0.0091766824
260298440.0 0.0580313819 0.0080576177 0.6877914777 -0.3829242785 0.6880479616 -0.3821320737 0.0588690169 0.0081754241
265298410.0 0.058899597 0.0076423195 0.6839137126 -0.3910322057 0.6842690846 -0.3900681093 0.0584585117 0.0068431344
270298380.0 0.058394931 0.0061967354 0.6799662708 -0.3983467327 0.6795501328 -0.3985974859 0.0581985065 0.0060082114
275298350.0 0.058952405 0.0052250963 0.6756864997 -0.4068261568 0.6755920587 -0.4066144023 0.0586015877 0.0044000199
280298320.0 0.0586128043 0.004349268 0.671422867 -0.4140000406 0.6712146298 -0.4140830268 0.058813663 0.0035063536
285298290.0 0.0586376603 0.0031004466 0.6673118384 -0.4223643926 0.6665948367 -0.4224796333 0.0587689693 0.0023944979
290298260.0 0.058838625 0.0022849269 0.66163132 -0.4294518238 0.6620922081 -0.4299927293 0.0585510415 0.0022447788
295298230.0 0.0588805002 0.0010060659 0.6578401348 -0.4375084979 0.6577175192 -0.4373345828 0.0593124095 0.0006986527
300298200.0 0.0585815873 -0.0002226233 0.6532764861 -0.4450339921 0.653160541 -0.4454589955 0.0588555272 -0.0003982806
305298170.0 0.0589150289 -0.0011453812 0.6478833136 -0.4534165002 0.6481143791 -0.4531407719 0.0594020467 -0.0018773864
310298140.0 0.0582861298 -0.0022138383 0.6433583651 -0.4608466862 0.6437843624 -0.4605278745 0.0594025269 -0.0028334105
315298110.0 0.0585597397 -0.0040301652 0.6380783209 -0.4680306801 0.6383327389 -0.4683550852 0.0587863708 -0.0040677702
320298080.0 0.0583382456 -0.0048861092 0.6326345705 -0.4762517434 0.6330204214 -0.4757196015 0.0585042106 -0.00501147
325298050.0 0.0574033567 -0.0059549897 0.6272596297 -0.4831157775 0.6274390964 -0.4834720414 0.0577111501 -0.0061850935
330298020.0 0.0572545091 -0.0072967323 0.6212344664 -0.4907992037 0.6220543553 -0.4911065773 0.0572152605 -0.0076673229
335297990.0 0.0569912762 -0.0084228294 0.6156642035 -0.4974655605 0.6161653629 -0.4978920252 0.0566139217 -0.0076813687
340297960.0 0.0560924466 -0.0088709052 0.6103182259 -0.5043812381 0.610234282 -0.5050596055 0.0566941308 -0.0083329311
345297930.0 0.0558140379 -0.0090200004 0.6045479421 -0.5119565329 0.6044463574 -0.5118706298 0.0561296063 -0.0093794688
350297900.0 0.0551859654 -0.0105228589 0.5978279545 -0.5186838575 0.5983816464 -0.5183643548 0.0554575769 -0.0098616187
355297870.0 0.0551249301 -0.0102770813 0.5930147658 -0.5248060368 0.5927451345 -0.5248819465 0.0551095156 -0.0105722274
360297840.0 0.0547569125 -0.0114471488 0.5875347049 -0.5312851779 0.5880208468 -0.5314052588 0.0547124145 -0.0114954546
365297810.0 0.0541212068 -0.0119405336 0.5811563273 -0.538546686 0.5814303098 -0.5384582402 0.0544939156 -0.0120676886
370297780.0 0.0542668546 -0.0129168149 0.5744127111 -0.5442841057 0.5753759019 -0.5443779718 0.0542209399 -0.0123924415
375297750.0 0.0538935897 -0.0136817835 0.5689924308 -0.5509164398 0.5697459755 -0.5511355285 0.0541061036 -0.0130198471
380297720.0 0.0536025345 -0.0140870758 0.5631226409 -0.5571918259 0.5632494246 -0.5569252382 0.0534516064 -0.0139460782
385297690.0 0.0528603298 -0.0150893004 0.5564122198 -0.5640830144 0.5565014817 -0.5634675968 0.0534660297 -0.0140772437
390297660.0 0.0526937882 -0.0154391006 0.5506799693 -0.5700916761 0.550541874 -0.5694428845 0.0529296881 -0.0151230816
395297630.0 0.0524118492 -0.0159905698 0.5439979754 -0.5761278324 0.5446578316 -0.5763602482 0.0532197161 -0.0158807668
400297600.0 0.0519943171 -0.0165732242 0.537392591 -0.5827386849 0.5380767625 -0.5820532481 0.0524221056 -0.0162082928
405297570.0 0.0513830784 -0.0175885426 0.531483026 -0.5875766864 0.5315155014 -0.5878202911 0.0518005805 -0.0171073387
410297540.0 0.0516072761 -0.0181919581 0.5251625127 -0.593649375 0.5255160659 -0.5942731591 0.0514311317 -0.0171654418
415297510.0 0.0512975637 -0.0188415303 0.518138586 -0.6001975357 0.5188105324 -0.600130102 0.0515199238 -0.0177691006
420297480.0 0.0509282818 -0.0191005807 0.5113713785 -0.6058643441 0.5116333048 -0.6059982346 0.0506527755 -0.0194655845
425297450.0 0.0504352353 -0.0205172731 0.5054741981 -0.6115212691 0.5051118463 -0.6106245577 0.0498021506 -0.0189987127
430297420.0 0.0497368595 -0.0209253695 0.498278974 -0.6161675182 0.4986460441 -0.6166832981 0.0497160571 -0.0201420287
435297390.0 0.0494929314 -0.0211578605 0.4908706435 -0.6222213227 0.4909901666 -0.622170866 0.0504781836 -0.0206841953
440297360.0 0.0495887936 -0.0215477286 0.4845001472 -0.6274608453 0.4843945886 -0.6277574072 0.0494288201 -0.0213070682
445297330.0 0.0487172741 -0.0227003231 0.478201059 -0.6332577862 0.4781822871 -0.6327041507 0.0492269762 -0.021972257
450297300.0 0.0488589566 -0.0231567615 0.4711487708 -0.6386448471 0.4709284099 -0.6386529964 0.0484495591 -0.0227412622
455297270.0 0.0481566632 -0.0238214064 0.4636089238 -0.643640699 0.4639262364 -0.643891572 0.0480776924 -0.0231124465
460297240.0 0.0476131344 -0.0242478403 0.4562425327 -0.6480862212 0.4568067189 -0.6486311498 0.0480159966 -0.0233586297
465297210.0 0.0476547749 -0.0248150164 0.4499672882 -0.6536209053 0.4490228804 -0.6543052045 0.0476745614 -0.0244206419
470297180.0 0.0470431433 -0.0254045172 0.4417808488 -0.6586232287 0.4420495696 -0.6588600945 0.0472947399 -0.0245655606
475297150.0 0.0468237169 -0.0263406312 0.4348834601 -0.6628751401 0.4348437275 -0.6633536384 0.0472186226 -0.0258038527
480297120.0 0.0461625209 -0.0259037216 0.4272740497 -0.6684409728 0.4277946932 -0.668710373 0.0468623025 -0.0256858749
485297090.0 0.0454529535 -0.0265240917 0.4202869199 -0.6726867053 0.4205930978 -0.6724339041 0.0463704976 -0.0267851516
490297060.0 0.0448660583 -0.0277852572 0.412990197 -0.6780850474 0.4136537667 -0.6769495933 0.046075588 -0.0261985031
495297030.0 0.0448127472 -0.027950556 0.4056233609 -0.6819623872 0.4061058319 -0.6819389773 0.0450240487 -0.0272520651
500297000.0 0.0442205488 -0.0285169316 0.3979204845 -0.6863125998 0.397436974 -0.6857757854 0.0450639709 -0.027032021
505296970.0 0.0441421714 -0.0289711585 0.3901428589 -0.690902289 0.3899286429 -0.6910214216 0.0443206587 -0.0276797231
510296940.0 0.043169328 -0.0293041167 0.3829136713 -0.6952042953 0.3823063461 -0.695831326 0.0442820998 -0.0282764947
515296910.0 0.0427036355 -0.0295722999 0.3749618709 -0.6995968535 0.3755657822 -0.6987115024 0.0437395316 -0.028471414
520296880.0 0.0423434254 -0.030437765 0.3672717391 -0.7039731 0.3678115221 -0.7032300201 0.0431901425 -0.0294503517
525296850.0 0.0421840485 -0.0312759417 0.3596899028 -0.7072153146 0.3599190185 -0.7075820071 0.042554414 -0.0298307138
530296820.0 0.0414201009 -0.0310749342 0.3516243336 -0.7114520882 0.3517978558 -0.7116424326 0.0425379841 -0.0300497132
535296790.0 0.0404900279 -0.0317076208 0.3444088077 -0.7152197815 0.3444845196 -0.714571478 0.0418841903 -0.0310378184
540296760.0 0.0403554449 -0.0318875666 0.3361103011 -0.7190565639 0.3363902012 -0.7188228703 0.0408452223 -0.0306247119
545296730.0 0.0396657229 -0.0324184708 0.327727891 -0.7222947143 0.3280718414 -0.7227651533 0.0404525147 -0.0314888157
550296700.0 0.0400886958 -0.0328626556 0.3198887027 -0.7257869747 0.3206391895 -0.7262230575 0.0395877503 -0.0315427035
555296670.0 0.0389325673 -0.0331423983 0.3131028901 -0.7299393323 0.3129276302 -0.7298224814 0.0396641494 -0.0319243444
560296640.0 0.0388367977 -0.0329828138 0.3047006161 -0.7335646471 0.3042040741 -0.7333743051 0.0390080617 -0.0325099243
565296610.0 0.0374896213 -0.0338489547 0.296423802 -0.7364235756 0.2961894938 -0.7362783202 0.0380968184 -0.0333825227
570296580.0 0.0372853063 -0.0338952466 0.2885405547 -0.7402330392 0.2883511277 -0.7394397808 0.0379740975 -0.032789672
575296550.0 0.0364453661 -0.0345006674 0.280098335 -0.7430900908 0.280570544 -0.7427382026 0.0376418791 -0.0335845427
580296520.0 0.0361709929 -0.0345973706 0.2717086737 -0.7460919767 0.272379227 -0.7460753625 0.0372219566 -0.0341435106
585296490.0 0.0354421609 -0.035556906 0.2640045449 -0.7482204908 0.2644984795 -0.7486839089 0.0363341144 -0.0343530551
590296460.0 0.0353782681 -0.0354377414 0.2559077932 -0.7506551556 0.255754908 -0.7512255099 0.0348715406 -0.0346200142
595296430.0 0.034978409 -0.0356446465 0.2471170131 -0.7543188261 0.2473474431 -0.7543000263 0.0351821151 -0.0351446796
600296400.0 0.033978577 -0.0362647039 0.2396734321 -0.7564708773 0.239709168 -0.7568166238 0.0346575361 -0.0353074785
605296370.0 0.0336634183 -0.0365597378 0.2307415846 -0.759341515 0.2310590618 -0.7595800341 0.0339593519 -0.0356903477
610296340.0 0.0330991689 -0.0368640542 0.2220032652 -0.7622649092 0.2229433466 -0.7619039758 0.0340027714 -0.0362184228
615296310.0 0.0326976236 -0.0374899335 0.213704529 -0.7642518885 0.2140381137 -0.7646735627 0.033291092 -0.0362376593
620296280.0 0.0322505657 -0.0378266191 0.206536857 -0.7664578771 0.2061673703 -0.7663308262 0.0323055385 -0.0366861139
625296250.0 0.0311239931 -0.0385765997 0.1982539818 -0.7688530036 0.1980738148 -0.7694081706 0.0326982795 -0.0369406468
630296220.0 0.031811374 -0.0380993714 0.1886889517 -0.7713087077 0.1886626539 -0.7706180408 0.0314832906 -0.036803284
635296190.0 0.0295191548 -0.0389551606 0.1808842615 -0.7727013527 0.1810818057 -0.7728705647 0.0314914528 -0.0372710839
640296160.0 0.0294554902 -0.0385483887 0.172817335 -0.774765544 0.1727505384 -0.7744276638 0.0304933659 -0.0375434536
645296130.0 0.029091647 -0.0386811378 0.1634542788 -0.7763628285 0.1643948372 -0.7764396588 0.0301732208 -0.0374672753
650296100.0 0.0288864436 -0.0394067774 0.1553585427 -0.7779821802 0.1557208985 -0.7788460555 0.0302497783 -0.0389791072
655296070.0 0.0276387004 -0.0398738559 0.1468452959 -0.7799198889 0.1471991498 -0.7801383174 0.0295181123 -0.0381764939
660296040.0 0.0267403994 -0.0405281096 0.13848435 -0.7817283601 0.1389496277 -0.781992949 0.0290643059 -0.0384473469
665296010.0 0.0271575567 -0.0402672462 0.129407186 -0.7827417941 0.1299618354 -0.783157917 0.0282104726 -0.0384627564
670295980.0 0.0248550671 -0.0401174903 0.12148336 -0.7842656364 0.1209600766 -0.7838945256 0.0271351458 -0.0387240357
675295950.0 0.0252448787 -0.0403051629 0.112834585 -0.7852160228 0.1130375069 -0.7852104522 0.0265462847 -0.0389797335
680295920.0 0.0241004517 -0.0408034079 0.103337399 -0.786717526 0.1032738098 -0.7872794081 0.0264602248 -0.0384583837
685295890.0 0.0239292736 -0.0401929282 0.0954224533 -0.7873701375 0.0954869019 -0.7880343001 0.0253866606 -0.0387767047
690295860.0 0.024010209 -0.0406062068 0.0869496776 -0.7884391411 0.0870243535 -0.7889148483 0.0245029326 -0.0384542521
695295830.0 0.0231947417 -0.0413392396 0.0791313737 -0.7902403803 0.0782976376 -0.7894846397 0.0239113437 -0.0389336971
700295800.0 0.0224196809 -0.0418334623 0.0694712862 -0.7904572244 0.0695560443 -0.7898144192 0.0237674745 -0.0387026827
705295770.0 0.0213768953 -0.0406017478 0.0609176943 -0.7911423769 0.0616762205 -0.790501496 0.0227723891 -0.0389682355
710295740.0 0.0213076667 -0.0413056162 0.0525641079 -0.7922221329 0.0532292071 -0.7924453937 0.0226759754 -0.0398562488
715295710.0 0.0199490177 -0.0415797596 0.0444329716 -0.7927945467 0.0436358309 -0.7921061335 0.0225130995 -0.039797707
720295680.0 0.0199005955 -0.0415144063 0.0356232245 -0.7928664667 0.0359420607 -0.7924237833 0.0215791288 -0.0391912516
725295650.0 0.0193237238 -0.0416434661 0.0265266546 -0.7930237625 0.0268260594 -0.7935210607 0.020358864 -0.0393190801
730295620.0 0.0188093571 -0.0411975071 0.0180642555 -0.7927353586 0.0178256469 -0.7929352007 0.0197171727 -0.0402676785
735295590.0 0.017896601 -0.0411817073 0.0098460131 -0.7937808289 0.0089248467 -0.7934224466 0.0190351311 -0.0404137331
740295560.0 0.0170927432 -0.0417895987 0.0005583943 -0.7932297074 0.0007226522 -0.7934046476 0.0189375693 -0.0399241932
745295530.0 0.0164994052 -0.0415846655 -0.0080155715 -0.7928763066 -0.007964553 -0.79308112 0.0183878773 -0.0405120611
750295500.0 0.0163222774 -0.0419360502 -0.0162740937 -0.7927401256 -0.0161743353 -0.793337249 0.0174968281 -0.0404596628
755295470.0 0.0157781048 -0.0419674941 -0.0248400668 -0.7922870231 -0.0253662464 -0.7936635467 0.0176109595 -0.0406749457
760295440.0 0.0149134334 -0.0418002242 -0.0338377964 -0.7929052321 -0.0336488963 -0.7932185128 0.0165708023 -0.0404752923
765295410.0 0.0142510556 -0.0419697511 -0.0425050568 -0.7920286391 -0.0428708686 -0.792588634 0.0161379084 -0.0409598565
770295380.0 0.0133494838 -0.0421598352 -0.0513323731 -0.7915019954 -0.0515388825 -0.7916783337 0.0151318595 -0.0409385891
775295350.0 0.0130018468 -0.0425420855 -0.0602364232 -0.7904785049 -0.0591102992 -0.7911369775 0.0140959896 -0.0403321918
780295320.0 0.0125335631 -0.0421881937 -0.0679954449 -0.7901312437 -0.067771312 -0.7903518768 0.0138208171 -0.0413529393
785295290.0 0.0115332375 -0.0427742526 -0.0771312971 -0.7891149689 -0.0763088928 -0.7889342773 0.0142738122 -0.0403390503
790295260.0 0.0116219348 -0.0415745573 -0.0844206277 -0.7882922696 -0.0844823663 -0.7884795981 0.0131239772 -0.0408771447
795295230.0 0.0108222136 -0.0424740809 -0.0938869527 -0.7878719593 -0.0932918956 -0.7878861945 0.0127690727 -0.0403547045
800295200.0 0.0096474446 -0.0418764948 -0.1032272522 -0.7862293851 -0.1021669513 -0.786307938 0.0119831907 -0.0406775098
805295170.0 0.0092276777 -0.042162452 -0.1111984774 -0.7851472734 -0.1107564785 -0.785547332 0.0114217419 -0.040404602
810295140.0 0.008402872 -0.0426505665 -0.1189784308 -0.7837147001 -0.1196006077 -0.784088276 0.0114987085 -0.0399453215
815295110.0 0.0082349056 -0.042561593 -0.1277556331 -0.7823158817 -0.1277919898 -0.7824789584 0.0099486325 -0.0400650973
820295080.0 0.0070029296 -0.0416727871 -0.1369873115 -0.7806559832 -0.1359880116 -0.7811447654 0.0097215166 -0.0403975497
825295050.0 0.0074052446 -0.0419505335 -0.1443588111 -0.7790569091 -0.1446544878 -0.7797094421 0.0094329422 -0.040295952
830295020.0 0.0062805427 -0.0417557314 -0.1539756102 -0.7774497121 -0.1529747535 -0.7773810913 0.0093289911 -0.0397012068
