!Created with skrf (http://scikit-rf.org).
# Hz S RI R 50.0 
!freq ReS11 ImS11 ReS21 ImS21 ReS12 ImS12 ReS22 ImS22
300000.0 -0.2343427535 -0.120243521 0.4660380361 0.0807040342 0.4650024342 0.0797699488 -0.2348678438 -0.1268316402
5299970.0 -0.2450973732 0.0049868116 0.4738656436 0.0061339721 0.4740730301 0.0055705916 -0.2438592717 0.0049183148
10299940.0 -0.2418863763 0.0186017303 0.4763691722 0.0070287687 0.4760212909 0.0068955714 -0.2404619417 0.0181139802
15299910.0 -0.2367578697 0.0281410903 0.4795402975 0.0087875299 0.4800733524 0.0081714386 -0.2364062621 0.0273087688
20299880.0 -0.2316819753 0.036325131 0.4840771894 0.0083423924 0.4843712024 0.008704728 -0.2313578033 0.0352549711
25299850.0 -0.2256996335 0.0428022296 0.4897620396 0.0078093516 0.4896437959 0.0078008447 -0.2262450765 0.0418989301
30299820.0 -0.2203438852 0.047540719 0.4952854016 0.0057178001 0.4952067434 0.0056885094 -0.2209646531 0.0470918845
35299790.0 -0.2143207131 0.0516770885 0.5000959118 0.0025638889 0.5002892607 0.0023203275 -0.2157497906 0.051483918
40299760.0 -0.2089721566 0.0547297976 0.5051140785 -0.0010993048 0.5059660576 -0.0016756841 -0.2108395421 0.0548944439
45299730.0 -0.2040401133 0.0568928647 0.510215391 -0.0058986291 0.5108263323 -0.0061469969 -0.2060871125 0.0576790915
50299700.0 -0.1990970511 0.0588432579 0.514406999 -0.0118224852 0.5147236868 -0.0118700196 -0.2014623798 0.0600648863
55299670.0 -0.1949389359 0.0606336085 0.5181447719 -0.0174894639 0.5183732074 -0.0180439191 -0.1977000822 0.0619200529
60299640.0 -0.1909722987 0.0619692738 0.5218429272 -0.0241462506 0.5219711094 -0.0242321561 -0.1936901541 0.0633065104
65299610.0 -0.1873942442 0.0626832857 0.5248776569 -0.030105782 0.5249544787 -0.0302148076 -0.1900026225 0.0648080869
70299580.0 -0.1839102799 0.0631261162 0.5271045306 -0.0366516136 0.5272795084 -0.0370851851 -0.1872424997 0.0659595924
75299550.0 -0.1811173269 0.0639361607 0.5291532774 -0.0438609168 0.5290286252 -0.0435389998 -0.1841478083 0.0669971455
80299520.0 -0.1783256227 0.0644570929 0.5307556471 -0.0505914322 0.5314581015 -0.0507850387 -0.1817654686 0.0680837238
85299490.0 -0.1756798788 0.0648361217 0.5324335664 -0.0577530934 0.5326177628 -0.0574267918 -0.1795845603 0.0686306285
90299460.0 -0.1737232629 0.0655812108 0.533200672 -0.0644431062 0.5332536327 -0.0644345624 -0.1767308721 0.0697593904
95299430.0 -0.1712649201 0.0658051698 0.5341820112 -0.0712894463 0.5347125234 -0.0719221798 -0.1750144508 0.0707982819
100299400.0 -0.1694999576 0.0659320475 0.534599596 -0.0780813984 0.5347863953 -0.0783173012 -0.1730951297 0.071902212
105299370.0 -0.1674691491 0.0663724339 0.5347849418 -0.0849641503 0.5355012233 -0.0854248338 -0.170943644 0.0723530218
110299340.0 -0.1660906291 0.0668111228 0.5349349162 -0.0914004644 0.5355675888 -0.0918680248 -0.170037975 0.0732225301
115299310.0 -0.1646692605 0.0677489585 0.5352276581 -0.0987501176 0.5354108697 -0.0987853194 -0.1682995273 0.0746101677
120299280.0 -0.1628666169 0.0681814513 0.5347695935 -0.106103131 0.535009425 -0.1060424053 -0.1668152511 0.0749386564
125299250.0 -0.1618676641 0.0686862672 0.5346057672 -0.1123867872 0.535002415 -0.1122630242 -0.1651790139 0.0760584483
130299220.0 -0.1606789855 0.0690831765 0.5341786491 -0.1190822082 0.5342573442 -0.1198159939 -0.164485554 0.0767467911
135299190.0 -0.1597341263 0.0703043103 0.5339522905 -0.1256428673 0.5337920454 -0.1261364626 -0.1630593547 0.0778958755
140299160.0 -0.1587142986 0.0707942537 0.5328435767 -0.1328242877 0.5326223106 -0.1322422729 -0.1623832527 0.0788429903
145299130.0 -0.1577458358 0.0714940137 0.5316148058 -0.1390034846 0.5320322064 -0.1391137236 -0.1612679301 0.0799820008
150299100.0 -0.1566882929 0.0725326547 0.5306567265 -0.1457052469 0.5307188704 -0.1457910017 -0.159864188 0.0815073813
155299070.0 -0.155616026 0.073514879 0.5288902677 -0.1522468274 0.5295936293 -0.1523226288 -0.1590696799 0.0824022933
160299040.0 -0.1546692524 0.0744747447 0.5282859537 -0.1586551814 0.5282817596 -0.1588625738 -0.1579184705 0.0836020392
165299010.0 -0.1539079086 0.0752639293 0.5266344974 -0.1648283394 0.52636127 -0.1651136602 -0.1568822351 0.084504458
170298980.0 -0.1531588463 0.0763412207 0.524572592 -0.1713350227 0.5251417557 -0.1716674574 -0.156458825 0.0858474208
175298950.0 -0.1522808196 0.0772456722 0.5237231833 -0.1774817117 0.5239826353 -0.1782765809 -0.154975964 0.0874442128
180298920.0 -0.151409406 0.0785468016 0.5217267736 -0.1839976338 0.5216562353 -0.1842526399 -0.1541399692 0.0885881104
185298890.0 -0.1508863764 0.0795889241 0.5202124486 -0.1902675819 0.5201134183 -0.1902008001 -0.1529070597 0.0898138425
190298860.0 -0.1497581721 0.0808695571 0.5176219178 -0.1963099868 0.5181904081 -0.1960701631 -0.1523081748 0.0909159216
195298830.0 -0.1492156697 0.0819472213 0.516114313 -0.2026288021 0.516270792 -0.2028814205 -0.1515278651 0.0922911048
200298800.0 -0.1481318468 0.082729303 0.5136143612 -0.208903656 0.5140048798 -0.2090657643 -0.1503352601 0.0937422913
205298770.0 -0.1480722331 0.0840529465 0.5117412301 -0.2146096179 0.5117131186 -0.2144588975 -0.1492112437 0.0949698404
210298740.0 -0.1470560886 0.0853182336 0.5096349661 -0.2206222314 0.5095324735 -0.2206679016 -0.148596427 0.0962769791
215298710.0 -0.1462111428 0.0867868852 0.5070569803 -0.2262069788 0.5072634558 -0.2269044689 -0.1474611986 0.0978069163
220298680.0 -0.1452491286 0.0879360346 0.5042714119 -0.2327373212 0.5043713047 -0.2326927931 -0.1463556437 0.0990085182
225298650.0 -0.1447597274 0.0890690834 0.5018018542 -0.2383068395 0.5024070907 -0.2381828265 -0.145507348 0.100432587
230298620.0 -0.1436398619 0.0907169968 0.5000563656 -0.2441668108 0.5002894024 -0.2446172439 -0.1445410615 0.1018602155
235298590.0 -0.1431346033 0.0919193315 0.4970476846 -0.2503551563 0.4974236593 -0.2501850144 -0.1435182396 0.1034726503
240298560.0 -0.1421024752 0.0931933552 0.4942942385 -0.2554207985 0.4945958979 -0.2557989535 -0.1427895521 0.1046435251
245298530.0 -0.1415014586 0.0943251168 0.4916732661 -0.2618046217 0.4918809515 -0.2617494004 -0.1416202211 0.1061391718
250298500.0 -0.1408972599 0.0955346781 0.4892663853 -0.2670925032 0.4888595639 -0.266654133 -0.1409274531 0.1080671784
255298470.0 -0.1397966245 0.0973265435 0.4860263154 -0.2722800408 0.486649897 -0.2728678554 -0.1393843582 0.10949686
260298440.0 -0.1391244577 0.0981410317 0.4832199328 -0.2775400961 0.4833863002 -0.2776279961 -0.1384729362 0.1102266612
265298410.0 -0.1384400532 0.0998165019 0.4798786824 -0.2837094095 0.480032928 -0.2836386812 -0.1368540595 0.1117411597
270298380.0 -0.1377281526 0.1008373101 0.4767998023 -0.2892005416 0.4770537521 -0.2890495862 -0.1361290303 0.1133473613
275298350.0 -0.1366996664 0.1026427129 0.4735082478 -0.2941174396 0.4734365615 -0.2943362617 -0.1346850939 0.115040687
280298320.0 -0.135924051 0.10350361 0.4706008249 -0.2994627977 0.471036109 -0.299897958 -0.133614908 0.1165033894
285298290.0 -0.1352295206 0.1051470068 0.4671185481 -0.3050053396 0.4676193921 -0.3049934705 -0.1325637682 0.1178733017
290298260.0 -0.1343141521 0.1066422503 0.4646968315 -0.3101138081 0.4643335592 -0.3105729649 -0.1312764475 0.1193555843
295298230.0 -0.1333645427 0.1073859668 0.4607565048 -0.3159391116 0.4612413129 -0.3163388454 -0.1300222599 0.1209513902
300298200.0 -0.1325110371 0.1093865029 0.4571746857 -0.3210576044 0.4574083319 -0.3207886343 -0.1288159298 0.1219593491
305298170.0 -0.1314691148 0.1100044399 0.4541442541 -0.3265222594 0.4542271838 -0.326534077 -0.1275386516 0.1228811763
310298140.0 -0.1302423572 0.1111875787 0.4504498818 -0.3312987299 0.4504474836 -0.3311167953 -0.1257465036 0.1244527587
315298110.0 -0.1294070473 0.1121482777 0.4470885042 -0.3368421773 0.4472307417 -0.337087986 -0.124653596 0.1259321347
320298080.0 -0.1285938555 0.1136868246 0.4426025278 -0.3419904457 0.4435644712 -0.3423079776 -0.1235830922 0.1270909549
325298050.0 -0.1279970766 0.1143812065 0.4393168608 -0.34675518 0.4397242936 -0.3467520003 -0.1222279527 0.1283164078
330298020.0 -0.1278772864 0.1161589563 0.4353231663 -0.3516981518 0.4356317888 -0.3518017029 -0.1211910679 0.1297516526
335297990.0 -0.1264661201 0.1174408571 0.4309500649 -0.3565456962 0.431391041 -0.3566457471 -0.1198115426 0.1312066269
340297960.0 -0.1256939719 0.1187023833 0.426857033 -0.3615699011 0.4271732807 -0.3617765685 -0.1188074005 0.132614994
345297930.0 -0.1249656846 0.1198912859 0.4231956388 -0.3666444711 0.4227804047 -0.3661286922 -0.1172482638 0.1337642509
350297900.0 -0.124220876 0.1212056541 0.4193162884 -0.3706449262 0.4194234923 -0.3707717661 -0.1161388422 0.1349300781
355297870.0 -0.1231983481 0.1224806116 0.4153243567 -0.3751300446 0.4150017859 -0.3749405831 -0.1146196814 0.1365759636
360297840.0 -0.1219764728 0.1237654776 0.410655914 -0.3799800786 0.4108974228 -0.3803288098 -0.1132016003 0.1380919506
365297810.0 -0.1212472846 0.1252289211 0.406176359 -0.3840723407 0.4064822143 -0.3843570959 -0.1122023011 0.1396930008
370297780.0 -0.1200878782 0.1265106213 0.4017087508 -0.3889557576 0.4025640934 -0.3886638905 -0.1107453798 0.1408110206
375297750.0 -0.1189779165 0.127680801 0.397971151 -0.3933971036 0.3981340901 -0.3929752702 -0.1089348884 0.1421747501
380297720.0 -0.1180697466 0.1292652767 0.3939528238 -0.3977249391 0.3937402644 -0.3978541783 -0.1075596013 0.14365912
385297690.0 -0.117032872 0.130218309 0.3892382639 -0.4017962964 0.3894364632 -0.4022350049 -0.1059742814 0.145143644
390297660.0 -0.1156268848 0.1310722594 0.3846726971 -0.4060859665 0.3852987865 -0.406104674 -0.1044769441 0.1461849606
395297630.0 -0.1141883052 0.1327262608 0.3802500955 -0.4102751874 0.3806578553 -0.4102180809 -0.1030314426 0.1473180035
400297600.0 -0.1135739163 0.1338054585 0.3758951283 -0.4141802902 0.3763574643 -0.4146771774 -0.1010213476 0.1490298821
405297570.0 -0.1123458896 0.1347521847 0.3717084398 -0.4177344218 0.3717336416 -0.4186903775 -0.0996186833 0.1503857591
410297540.0 -0.1108629111 0.1362858064 0.3667912784 -0.4225999983 0.3671194536 -0.4227781901 -0.0979838342 0.1515546643
415297510.0 -0.1100145451 0.1371779176 0.3619776592 -0.4264234167 0.3625915465 -0.4266573147 -0.0962669654 0.1527438013
420297480.0 -0.108918486 0.1383865113 0.3573166438 -0.4304641215 0.3581187775 -0.4305687789 -0.0944991442 0.1541565699
425297450.0 -0.1070590695 0.1395502876 0.3530614827 -0.4345522866 0.3525869049 -0.4345608447 -0.0928590397 0.1547913218
430297420.0 -0.1064221592 0.1406534667 0.3485781913 -0.4381848725 0.3482542415 -0.4380701861 -0.0907210101 0.1562476457
435297390.0 -0.1046133298 0.1414196765 0.3429554004 -0.4424230926 0.3433596037 -0.4420811148 -0.0896699635 0.1577164862
440297360.0 -0.103240477 0.1427343663 0.3384336026 -0.4461846468 0.3385569594 -0.4458816766 -0.0879792195 0.1585957404
445297330.0 -0.1017917769 0.1434697447 0.3338098946 -0.4487780273 0.3337697936 -0.4498457668 -0.0861151933 0.1601599977
450297300.0 -0.1007592264 0.1448003813 0.3287456546 -0.4528200985 0.328694043 -0.4528232288 -0.0841084052 0.1608507383
455297270.0 -0.0995430972 0.145742397 0.3235937022 -0.4563755714 0.3241206379 -0.4567244935 -0.0823675895 0.1620123787
460297240.0 -0.0976045909 0.1470170301 0.3188592873 -0.4606723656 0.3186327493 -0.4604712195 -0.0807085598 0.1626326787
465297210.0 -0.0966240857 0.1476026943 0.3129921186 -0.4634779883 0.3131480431 -0.4635283773 -0.0786363853 0.1645017891
470297180.0 -0.0952146772 0.1487610692 0.3081450301 -0.4665972344 0.3086652149 -0.4669829876 -0.0765448402 0.1651207921
475297150.0 -0.0938807063 0.1499485304 0.303425515 -0.470286095 0.3036203136 -0.4701346539 -0.0749680367 0.1662559948
480297120.0 -0.0919697353 0.1514192056 0.2980854148 -0.4740661257 0.298438725 -0.473239136 -0.073417518 0.1671208412
485297090.0 -0.0904018503 0.1518837337 0.2930358563 -0.4769752569 0.2929203712 -0.4767607075 -0.0713243378 0.1681094849
490297060.0 -0.088550775 0.1531910215 0.2874335715 -0.480321993 0.2878918649 -0.4803040787 -0.0698206243 0.1688130671
495297030.0 -0.0876451458 0.1535720503 0.2823570647 -0.4831330161 0.2825834082 -0.4834257208 -0.0675135942 0.1697542752
500297000.0 -0.0862261082 0.154884369 0.2776032191 -0.486082301 0.2770679989 -0.4863000195 -0.065321448 0.1707222364
505296970.0 -0.084059737 0.1558535453 0.272080012 -0.4896008348 0.2722734601 -0.4889576263 -0.0640008291 0.1710741447
510296940.0 -0.0827840715 0.1565456605 0.2667126143 -0.4924761002 0.2667294901 -0.4923672881 -0.061365272 0.172359963
515296910.0 -0.0812349914 0.1579902611 0.2608382816 -0.4951288234 0.2608171391 -0.4947946387 -0.0596912196 0.1727714863
520296880.0 -0.079534552 0.1587115434 0.2558062367 -0.4978444344 0.2555796436 -0.4978848074 -0.0574948119 0.1741818279
525296850.0 -0.0780065663 0.1593713554 0.2502238188 -0.5002566461 0.249659989 -0.5006614182 -0.0556566461 0.1749441216
530296820.0 -0.076586947 0.1602603733 0.244399187 -0.5032138084 0.2447361146 -0.5032292376 -0.0535246143 0.1752570055
535296790.0 -0.0744391164 0.1612412959 0.2393436047 -0.5054844654 0.2395065842 -0.5057414084 -0.0515874734 0.176299359
540296760.0 -0.0728990026 0.1623544805 0.2332351986 -0.5083396818 0.2332878263 -0.5081686528 -0.0496544901 0.17683161
545296730.0 -0.0718358746 0.1630924161 0.2279862867 -0.5106712515 0.2278698111 -0.5104561815 -0.04750756 0.177708539
550296700.0 -0.0694554002 0.1639673157 0.2222050089 -0.5128043227 0.2222769138 -0.5134394814 -0.0454742158 0.1781805859
555296670.0 -0.0682077659 0.1646989209 0.2169183101 -0.5159827851 0.2167178918 -0.5152681212 -0.0436882291 0.1783385448
560296640.0 -0.0658252623 0.16561887 0.210899333 -0.5174951715 0.2116344142 -0.5177563702 -0.0419169307 0.1794697059
565296610.0 -0.0648578946 0.1664309113 0.2057334819 -0.5201585533 0.2057580777 -0.5197317456 -0.0393907589 0.1802796391
570296580.0 -0.0630136675 0.1674362773 0.1996454706 -0.5223504373 0.2000141839 -0.5225526609 -0.037585524 0.1804620739
575296550.0 -0.0611057817 0.1679744671 0.194574936 -0.5246325178 0.1942348844 -0.5243097953 -0.0354518734 0.1811668183
580296520.0 -0.0597301344 0.1691552101 0.1886894184 -0.5264005348 0.1884983232 -0.5264524391 -0.0336028151 0.1816431185
585296490.0 -0.0576203885 0.1696797475 0.1832145357 -0.5281441896 0.1826028364 -0.5283982554 -0.0313115348 0.1823268649
590296460.0 -0.0552464739 0.1704725145 0.1770257461 -0.5304591128 0.1770812023 -0.5305341407 -0.0298317961 0.1827732766
595296430.0 -0.0538617652 0.1711668758 0.1707647386 -0.5319972816 0.1707647942 -0.5324295598 -0.0275208259 0.1830742078
600296400.0 -0.0519923261 0.1720352586 0.1652419573 -0.5337476288 0.1652009352 -0.5339909859 -0.0252209708 0.1834554733
605296370.0 -0.0507017051 0.1725802931 0.1599802454 -0.5355124874 0.1592992442 -0.5357069935 -0.0232880673 0.1839678878
610296340.0 -0.0485646532 0.1736579648 0.1536748037 -0.536715347 0.1540624144 -0.5372127026 -0.0212650331 0.1844982574
615296310.0 -0.0466601203 0.1742131695 0.1479236314 -0.5389078077 0.147584934 -0.5392869078 -0.0187778837 0.1849031585
620296280.0 -0.0453697918 0.1752217475 0.1422987634 -0.5404260157 0.1417111389 -0.5403931444 -0.017239445 0.1853375099
625296250.0 -0.0438239224 0.1755918541 0.1361087742 -0.5420564672 0.136397255 -0.5421970546 -0.0154308679 0.1854407688
630296220.0 -0.0419650554 0.1765206652 0.1302176653 -0.5434843334 0.1299090981 -0.5432696388 -0.0129798475 0.1856305759
635296190.0 -0.0402338706 0.1774603811 0.1246524268 -0.5447649351 0.1241642929 -0.5446040864 -0.0108535055 0.1859753287
640296160.0 -0.038287167 0.177561702 0.1183753938 -0.5461310345 0.1184970515 -0.5461201828 -0.0090478819 0.1863193886
645296130.0 -0.0361431816 0.1788375384 0.1124822591 -0.5471980364 0.112483358 -0.5470765788 -0.0070199326 0.186230826
650296100.0 -0.0347659278 0.178815277 0.1068313045 -0.5481110601 0.1064711786 -0.5485479097 -0.0041312151 0.18654469
655296070.0 -0.0330051736 0.1794197374 0.1006756707 -0.5492205109 0.1007016423 -0.5494626975 -0.0030151711 0.187016403
660296040.0 -0.0310284632 0.1803462545 0.0948475702 -0.5508743059 0.094625666 -0.550479971 -0.0007796038 0.1866681473
665296010.0 -0.0295052976 0.1808100211 0.0882368903 -0.5512400583 0.0884205401 -0.5513763153 0.0016841558 0.1871375737
670295980.0 -0.0277184984 0.181629711 0.0826012248 -0.5524456323 0.0824434051 -0.5519333339 0.0032975121 0.1869481111
675295950.0 -0.0258184117 0.1817892986 0.0766947579 -0.5526814064 0.0768504944 -0.5530699071 0.0054894042 0.1874974305
680295920.0 -0.0244460822 0.1824894108 0.0706834999 -0.5535144249 0.070895685 -0.5535632662 0.0078890665 0.1872121265
685295890.0 -0.0225787488 0.1830705943 0.0650037341 -0.554468612 0.0648842322 -0.5547403363 0.009667664 0.1877500405
690295860.0 -0.0206223404 0.1836538572 0.0588730818 -0.5552061633 0.0588689328 -0.5555412655 0.0117025602 0.1878417065
695295830.0 -0.0187469042 0.1837927795 0.0533870728 -0.5556923751 0.0529185775 -0.555978919 0.013727667 0.1880014604
700295800.0 -0.0171517896 0.184831352 0.0472668125 -0.5563597298 0.0468079301 -0.5561807168 0.0159074248 0.1875875311
705295770.0 -0.0156787994 0.1851150706 0.0410448162 -0.5570551271 0.0410399204 -0.5567135911 0.0178476621 0.1880238004
710295740.0 -0.0137260063 0.1850314068 0.0353181101 -0.5570037667 0.0348080223 -0.5578396826 0.0199781571 0.1879402635
715295710.0 -0.0117509453 0.1858350995 0.0290375233 -0.5576629217 0.0291069964 -0.5572415035 0.0219524938 0.187286159
720295680.0 -0.0099787061 0.1860983394 0.0228353112 -0.5576806811 0.0230531955 -0.5577556906 0.024098035 0.187195068
725295650.0 -0.0086131699 0.1864673227 0.0172298803 -0.5579542025 0.0171392582 -0.5579277506 0.0259868623 0.1876173418
730295620.0 -0.0073742643 0.1866716429 0.0113230714 -0.5573759759 0.0112254207 -0.5577517807 0.0280656942 0.1878077111
735295590.0 -0.004948384 0.1874511853 0.0051969181 -0.5582417116 0.0045773441 -0.5579626967 0.0304193163 0.1871451339
740295560.0 -0.0034198008 0.1871672841 -0.0010217722 -0.5578125614 -0.0008802699 -0.558340813 0.031887475 0.1869329438
745295530.0 -0.0019007776 0.1877776204 -0.0064453632 -0.5572608375 -0.005964488 -0.5580556749 0.0337451563 0.1869838186
750295500.0 -0.0001476353 0.1882694119 -0.0124995718 -0.5575349506 -0.0131035833 -0.5579674233 0.0360186857 0.1866398174
755295470.0 0.0015947758 0.1883795536 -0.0185356281 -0.558090609 -0.0187039166 -0.5579801243 0.0383151379 0.1868719413
760295440.0 0.0034596459 0.1887472419 -0.0252974482 -0.5572226005 -0.0249701608 -0.5570548535 0.0404777857 0.1855618964
765295410.0 0.0053827597 0.1884702741 -0.0305942524 -0.5568497514 -0.0308370327 -0.5570575809 0.0426410078 0.1857889469
770295380.0 0.0069801621 0.1888632342 -0.036443067 -0.5558154171 -0.0368203388 -0.5569637759 0.0439275858 0.1855276548
775295350.0 0.0084642504 0.1888479824 -0.0422986034 -0.5560603061 -0.0427743881 -0.5560225777 0.0467420918 0.1855037928
780295320.0 0.0103922043 0.1894491176 -0.0484124545 -0.5554075835 -0.0485046259 -0.5555500891 0.0488462221 0.1848541465
785295290.0 0.0120715618 0.18916711 -0.0541148207 -0.5548175129 -0.0547814425 -0.5553503815 0.050089902 0.1847086673
790295260.0 0.0138761685 0.1890664788 -0.0605408413 -0.5545398007 -0.0603012477 -0.5548167655 0.0522997196 0.1848642268
795295230.0 0.0154079636 0.1892128904 -0.0663617079 -0.5542162141 -0.066617328 -0.5538807778 0.0544226076 0.1833489931
800295200.0 0.0170459403 0.1895601313 -0.0717941873 -0.5527258825 -0.0722011339 -0.5532289589 0.056215243 0.1832762222
805295170.0 0.0189699953 0.189657083 -0.0780120928 -0.5521450205 -0.0778792781 -0.5523779072 0.0591099409 0.182909747
810295140.0 0.0207362855 0.1898140179 -0.0840753887 -0.5506654325 -0.0846776881 -0.5513068788 0.0605809956 0.1823047881
815295110.0 0.0222047883 0.1898923873 -0.0899927165 -0.5502925322 -0.0896821003 -0.5504251105 0.0624238154 0.1817344878
820295080.0 0.0240445579 0.1896749852 -0.0953550035 -0.5488370437 -0.0954100541 -0.5495808086 0.0639129088 0.1816638537
825295050.0 0.0257938385 0.1894656574 -0.1015369626 -0.5481263245 -0.1020247454 -0.5483756097 0.0668519556 0.1812250969
830295020.0 0.027499343 0.1894751462 -0.1077761172 -0.5470386563 -0.1078077722 -0.5471332811 0.0684579976 0.1800821959
