!Created with skrf (http://scikit-rf.org).
# Hz S RI R 50.0 
!freq ReS11 ImS11 ReS21 ImS21 ReS12 ImS12 ReS22 ImS22
300000.0 -0.32049124 -0.1058397891 0.3720293137 0.0523278843 0.3757756615 0.0552205069 -0.3190366825 -0.1145810861
5299970.0 -0.3240057525 0.0048866646 0.379097429 0.0028501012 0.3785915986 0.0028579793 -0.3261936751 0.0028376693
10299940.0 -0.3213324392 0.0156065622 0.3801132764 0.0021928438 0.3796470225 0.0024783617 -0.3242202086 0.012650312
15299910.0 -0.3183019987 0.023576829 0.382046335 0.0021311753 0.3817937825 0.0022704544 -0.3214469716 0.0196419616
20299880.0 -0.3145860484 0.0302424267 0.3850201708 0.0014022646 0.3852181226 0.0016862125 -0.3187632452 0.026050983
25299850.0 -0.3106360121 0.0359181018 0.3887534112 2.90709e-05 0.3885119358 0.0002554525 -0.3156224528 0.0310309382
30299820.0 -0.306616352 0.0405916122 0.3917852012 -0.0023239423 0.3915262948 -0.0023008584 -0.312693189 0.0356734682
35299790.0 -0.302949254 0.0446893228 0.3952167546 -0.0054987502 0.395160727 -0.0050833864 -0.3097458222 0.0394013237
40299760.0 -0.299587859 0.0478916198 0.3984411237 -0.008647567 0.3984859054 -0.0088038586 -0.3072997407 0.0432255081
45299730.0 -0.2963730002 0.0516370574 0.4012834517 -0.0130755973 0.4012941148 -0.0125778112 -0.3048801866 0.0461908356
50299700.0 -0.2933087191 0.0542159777 0.403498344 -0.0172791231 0.4037143981 -0.0173216172 -0.3021810748 0.0490715267
55299670.0 -0.2906926652 0.0569339194 0.4052700408 -0.0221346116 0.4056309403 -0.0220768303 -0.3003700172 0.0520803706
60299640.0 -0.2880545032 0.0589553463 0.407356446 -0.0269897119 0.4077681171 -0.0268085796 -0.2977880331 0.0544256868
65299610.0 -0.2860675641 0.0614160541 0.4094424326 -0.031516631 0.4093926536 -0.0314365414 -0.2962033484 0.0571531029
70299580.0 -0.2838992997 0.0635364195 0.4105681265 -0.0370534204 0.4105518605 -0.0369528862 -0.2946119381 0.0596284864
75299550.0 -0.2819989622 0.0659190482 0.411540184 -0.0422622021 0.4113322016 -0.0424241283 -0.2931030664 0.0619225423
80299520.0 -0.2802845671 0.0681593941 0.4127098762 -0.0473468567 0.4123789965 -0.0472283648 -0.291505901 0.0639960373
85299490.0 -0.2784289303 0.0697915399 0.4130111091 -0.0525482707 0.4132023074 -0.0525302193 -0.2903719192 0.0662017639
90299460.0 -0.2767102489 0.072080522 0.4135499766 -0.0578422086 0.4137092595 -0.0580772991 -0.2887876723 0.0688158132
95299430.0 -0.2756508278 0.0743302581 0.4140913603 -0.0635745678 0.4140847371 -0.0630578074 -0.2876047644 0.0711613136
100299400.0 -0.2744293143 0.0763716127 0.4138173278 -0.0683428031 0.413679375 -0.0683740136 -0.2867253859 0.0733756414
105299370.0 -0.2730279788 0.0785165769 0.4134704191 -0.0732430802 0.413847584 -0.0736926207 -0.2850791707 0.0755715187
110299340.0 -0.2719018886 0.0803884004 0.4131272372 -0.0782403524 0.4135762735 -0.0787741195 -0.2845819547 0.0782968777
115299310.0 -0.2707179197 0.0824896054 0.4130022715 -0.0835667661 0.4132236508 -0.0835006635 -0.2833103096 0.079876434
120299280.0 -0.2698100046 0.0845949175 0.412946843 -0.0887698822 0.4128541207 -0.0888375844 -0.2823963918 0.0823353398
125299250.0 -0.2689098273 0.0867450789 0.4123296253 -0.0939334842 0.4123592335 -0.0941703975 -0.2812643229 0.0849844145
130299220.0 -0.267769062 0.0889683181 0.4117836668 -0.0985948137 0.4113715932 -0.0989522373 -0.2804492746 0.0870545622
135299190.0 -0.2665851939 0.0911985764 0.4108134149 -0.1037541518 0.4106202809 -0.103937915 -0.2797783828 0.0894324349
140299160.0 -0.2657497787 0.0937405378 0.4100175795 -0.1090495897 0.4102467445 -0.1092722164 -0.2783531027 0.0919478727
145299130.0 -0.2647375369 0.0958381402 0.4096301492 -0.1139019107 0.4092238884 -0.1138920724 -0.2780223808 0.0946715755
150299100.0 -0.2637793686 0.0980757009 0.4080111372 -0.118947421 0.4082414913 -0.1189567369 -0.2770287755 0.0966172022
155299070.0 -0.2629026539 0.100874208 0.4071044675 -0.1241234831 0.4069582365 -0.1239126635 -0.2763483072 0.0995617319
160299040.0 -0.2619046928 0.1030259174 0.4058881722 -0.1285904804 0.4060499007 -0.1287114693 -0.2749978496 0.1023389566
165299010.0 -0.2609729333 0.1054535377 0.4045782887 -0.1335233056 0.4049750563 -0.1337349029 -0.2744901534 0.1050480492
170298980.0 -0.2600190971 0.1077247678 0.402677395 -0.1383138155 0.4032093185 -0.1384143446 -0.2732038322 0.1069492171
175298950.0 -0.2589799735 0.1102014637 0.402200404 -0.1427915692 0.4021587189 -0.1433568445 -0.272441347 0.1098949213
180298920.0 -0.2577780129 0.1126293031 0.400230877 -0.1480842076 0.4007027621 -0.1478082832 -0.2712735107 0.1125592202
185298890.0 -0.2570775767 0.1152215374 0.3988784311 -0.15273133 0.3989230699 -0.1525630466 -0.2703765288 0.1148344744
190298860.0 -0.2557161132 0.1176754088 0.3972205266 -0.1571901255 0.3976730565 -0.1573990202 -0.268814434 0.1176238232
195298830.0 -0.2543577554 0.1199131537 0.3953208469 -0.161756688 0.3957730715 -0.1622237353 -0.2679102106 0.1201545042
200298800.0 -0.2536570148 0.1227061932 0.3939790835 -0.1663662327 0.3938687589 -0.1664764372 -0.2666270561 0.1230891317
205298770.0 -0.2526350456 0.1252308163 0.3923176274 -0.1710521778 0.3923527453 -0.1712025698 -0.2655872242 0.125447496
210298740.0 -0.2513448891 0.1279820156 0.3902232922 -0.1758083245 0.3906162709 -0.175844439 -0.2645224806 0.1282620939
215298710.0 -0.2501402377 0.1303058638 0.3886089405 -0.1800286776 0.388686683 -0.1798979975 -0.2637982684 0.1309870436
220298680.0 -0.2494469638 0.1328700797 0.3866696368 -0.1845956242 0.3865476438 -0.1847938146 -0.2621787088 0.1338026754
225298650.0 -0.2477522594 0.135240055 0.3843053329 -0.1889484392 0.3845554843 -0.1888009291 -0.2611057189 0.1363151276
230298620.0 -0.2466807867 0.1379678355 0.3824922035 -0.1933835257 0.38277081 -0.1937678278 -0.2596068167 0.1390409653
235298590.0 -0.2453947172 0.1405805802 0.3805129859 -0.1979493291 0.3806580065 -0.1983002937 -0.2585068695 0.1415053676
240298560.0 -0.2441758975 0.1435137179 0.3783927153 -0.2018546569 0.378306066 -0.2020858484 -0.2571833675 0.1440406363
245298530.0 -0.2426639622 0.145829424 0.3755199517 -0.2066202452 0.3759681386 -0.2065801251 -0.2555682335 0.1470752978
250298500.0 -0.2413172299 0.1483038801 0.373800823 -0.2107055873 0.3740623718 -0.2104145126 -0.2540919191 0.1498319026
255298470.0 -0.2401885995 0.151022571 0.3713238607 -0.2151837231 0.3715181498 -0.2150125609 -0.2527573036 0.1524517212
260298440.0 -0.2386640248 0.153221517 0.3692804939 -0.2191263575 0.3688374974 -0.2193602424 -0.2509220717 0.1550095278
265298410.0 -0.2371183175 0.1561144565 0.3667405165 -0.2238127465 0.3665746145 -0.2235055886 -0.2496859351 0.1576492098
270298380.0 -0.2356027103 0.1586518418 0.3637924527 -0.2275243812 0.3644989472 -0.2279206707 -0.2478732464 0.1606106406
275298350.0 -0.2342297863 0.1610826963 0.361426368 -0.2320224301 0.3617315022 -0.2318307554 -0.2463418098 0.1630780356
280298320.0 -0.232647175 0.1638532539 0.3591922953 -0.2356597726 0.359056758 -0.2359520108 -0.2447270653 0.1656708315
285298290.0 -0.2309172835 0.1663875839 0.3561333991 -0.2398690411 0.3565328166 -0.2400416013 -0.2431880322 0.1686220313
290298260.0 -0.2292235495 0.1690314787 0.3538587125 -0.243972276 0.3540254715 -0.2441044968 -0.2414583455 0.1715867445
295298230.0 -0.227602778 0.1714073556 0.3513959281 -0.2480300186 0.3509888542 -0.2478567851 -0.2395035568 0.173866659
300298200.0 -0.2256002453 0.1737888217 0.3483113268 -0.2518182178 0.3484861321 -0.2518834251 -0.237895677 0.1765315658
305298170.0 -0.2237578449 0.1763076465 0.3456398325 -0.255986888 0.3459101587 -0.2562676435 -0.2357940048 0.1795654979
310298140.0 -0.2223099525 0.1782808245 0.3428893006 -0.2598229202 0.3430396459 -0.2603100516 -0.2339033785 0.1821489587
315298110.0 -0.2206795184 0.1808395856 0.3399452978 -0.2635996803 0.3401363181 -0.2639389705 -0.2321845514 0.1843311296
320298080.0 -0.2186974041 0.183404342 0.3369193613 -0.267786989 0.3372199686 -0.2677590244 -0.2301065172 0.1868105757
325298050.0 -0.2171333793 0.1853877893 0.3340217344 -0.2713053427 0.3342476975 -0.2716718064 -0.2283287562 0.1890134775
330298020.0 -0.2151753453 0.1880438356 0.3305516151 -0.2752854967 0.330790587 -0.2753020699 -0.2264829715 0.1916495643
335297990.0 -0.2131313476 0.1903368355 0.327563517 -0.2789616974 0.3279131335 -0.2790574054 -0.2247763827 0.1944467356
340297960.0 -0.2121934143 0.1927814325 0.3246245547 -0.2826596265 0.3247328512 -0.2827404629 -0.2225729166 0.197283584
345297930.0 -0.2101405285 0.1951404541 0.3213878929 -0.2859581883 0.3211123773 -0.2858651546 -0.220956332 0.199300302
350297900.0 -0.2076560438 0.1977822095 0.3176987781 -0.2896491708 0.3182151465 -0.2899909007 -0.2186532669 0.2020812292
355297870.0 -0.2059576314 0.1996957264 0.3144659672 -0.2932074107 0.3147053793 -0.2933616077 -0.2169095785 0.2048787857
360297840.0 -0.2035282789 0.202381591 0.3115154336 -0.2965982395 0.3114439059 -0.2965825386 -0.2144194572 0.2073411887
365297810.0 -0.20187909 0.2046494307 0.3080276056 -0.3000114168 0.3079101588 -0.300141277 -0.212562119 0.2100328457
370297780.0 -0.1996128407 0.2064069716 0.3041909929 -0.3033000401 0.3049876085 -0.3036793648 -0.2105134889 0.2122300316
375297750.0 -0.1975109298 0.209317251 0.3016454702 -0.3068805878 0.3013900041 -0.3069354016 -0.2083513068 0.214829738
380297720.0 -0.1954366436 0.2111859584 0.2982027262 -0.3096666572 0.2980565394 -0.3099855978 -0.2060956674 0.2172585941
385297690.0 -0.1929683463 0.2135298069 0.294099577 -0.3131343085 0.2944634774 -0.3131773719 -0.2038743965 0.219771374
390297660.0 -0.1911243276 0.2156345359 0.2908958213 -0.3164003474 0.2912155406 -0.3164225932 -0.2015659057 0.2218419321
395297630.0 -0.1887980401 0.2179239179 0.2878981344 -0.3193037474 0.2873759141 -0.3196105082 -0.1993002151 0.2241773453
400297600.0 -0.1866427634 0.2202132426 0.2840473715 -0.3228663323 0.2843054358 -0.3228154075 -0.1972079704 0.2265542724
405297570.0 -0.1842628464 0.2225646243 0.2805054783 -0.3259027811 0.2804028593 -0.3262546985 -0.1947480756 0.2291801293
410297540.0 -0.1817075952 0.2243902126 0.2766260423 -0.3287707132 0.2766104713 -0.3287760562 -0.1922753117 0.2311601905
415297510.0 -0.1797334089 0.2267954317 0.2731543406 -0.3320304831 0.273230979 -0.3318523274 -0.190125676 0.2338755034
420297480.0 -0.1770610215 0.22843722 0.2691763069 -0.3351161108 0.2694222205 -0.3347015221 -0.1875325814 0.2358471774
425297450.0 -0.1746963782 0.2305622957 0.2656385718 -0.3380332111 0.2659565145 -0.338113405 -0.1849229772 0.2381731679
430297420.0 -0.1725508283 0.2326066674 0.2620288904 -0.3410329538 0.2622132783 -0.3408420369 -0.1824792482 0.2403437729
435297390.0 -0.1697827112 0.2346169471 0.2582454053 -0.3434470249 0.2581902923 -0.3433316345 -0.1798858493 0.2425681718
440297360.0 -0.1673992866 0.2365230434 0.2542374101 -0.3462630624 0.2539448874 -0.3463850193 -0.1776926121 0.2442750396
445297330.0 -0.1647308551 0.2382945373 0.2499836537 -0.3494024606 0.250281714 -0.3488148109 -0.1752059132 0.2463635326
450297300.0 -0.1624323686 0.2402245544 0.2464201945 -0.3517415407 0.2468826614 -0.3517349366 -0.1726982737 0.2488162007
455297270.0 -0.1597959005 0.2422738206 0.2427281871 -0.3542697439 0.2425784918 -0.3541983943 -0.1695254839 0.25067959
460297240.0 -0.1575900408 0.24418749 0.2389213018 -0.3566688689 0.2386525457 -0.3568531904 -0.1672363323 0.2531450205
465297210.0 -0.1545359893 0.2458592259 0.2346914265 -0.3595759241 0.2349930713 -0.3593503768 -0.165117902 0.2545068766
470297180.0 -0.1522456607 0.2474882954 0.230998508 -0.3618911514 0.2313321447 -0.3619267504 -0.1625338293 0.2566766471
475297150.0 -0.1498056254 0.2494635079 0.2265797895 -0.3644148699 0.2269403069 -0.3639720013 -0.1594356349 0.2584020907
480297120.0 -0.1468782237 0.2508701079 0.222939997 -0.3667336703 0.2229766363 -0.3666032403 -0.1570861024 0.2610088294
485297090.0 -0.1440955991 0.2526156807 0.2186172274 -0.3692477027 0.2187960689 -0.3690983614 -0.1544072375 0.2622721698
490297060.0 -0.1415209805 0.25435605 0.2148696642 -0.3715131837 0.2148002364 -0.3714900283 -0.1516608377 0.2639702022
495297030.0 -0.1391260641 0.2560122139 0.2106617152 -0.3737918567 0.2108258483 -0.3739258324 -0.1492253221 0.2659588331
500297000.0 -0.136169503 0.2576640094 0.2064224926 -0.3761271011 0.2065521787 -0.3759386212 -0.1464996741 0.2677794062
505296970.0 -0.1337587858 0.2589731693 0.2019415664 -0.378167333 0.2026839205 -0.3779958149 -0.1442647532 0.2695252142
510296940.0 -0.1308514371 0.2608430016 0.1981525396 -0.380726183 0.1981704226 -0.3806079689 -0.1407089007 0.2714887456
515296910.0 -0.1285854816 0.2624048381 0.1940972185 -0.3825495476 0.1942586606 -0.3825227788 -0.1382178686 0.2729547167
520296880.0 -0.1254460223 0.2638279405 0.1897093331 -0.3845276452 0.1900149481 -0.3844920002 -0.1349785834 0.2743703099
525296850.0 -0.1227529142 0.2654212601 0.1861263245 -0.3864690706 0.1856453687 -0.3868510572 -0.1321254767 0.2760211611
530296820.0 -0.1197239483 0.26677426 0.1816715599 -0.387964439 0.1814299485 -0.3881541071 -0.1299039112 0.2773237778
535296790.0 -0.1170437697 0.2681766151 0.1771135945 -0.3896602566 0.1771088072 -0.3901071477 -0.1266678151 0.2788180289
540296760.0 -0.1143075156 0.2691473515 0.1726815318 -0.3922647753 0.1726725666 -0.3924027757 -0.1243957323 0.2807660015
545296730.0 -0.1114129528 0.2709452732 0.168509422 -0.3940281953 0.1685700233 -0.3943361825 -0.1212120134 0.2819979323
550296700.0 -0.1088531995 0.2723172932 0.1645765283 -0.3960636215 0.1645809871 -0.3960611832 -0.1185575489 0.2837671754
555296670.0 -0.1052874252 0.273427416 0.1600391247 -0.3981167948 0.1601561029 -0.3975819425 -0.1157041667 0.2851306165
560296640.0 -0.1024977092 0.2746169355 0.1557995244 -0.3990155377 0.1554370275 -0.3990862039 -0.1122569347 0.2861334875
565296610.0 -0.100208633 0.2758196448 0.1513618755 -0.4006414598 0.151264918 -0.400984628 -0.1096344818 0.2877795227
570296580.0 -0.0967240795 0.2769945728 0.146705129 -0.4021142276 0.1468092136 -0.4022807877 -0.1065955805 0.2892460938
575296550.0 -0.0941735459 0.2782696505 0.142827399 -0.403967447 0.1427749044 -0.403887563 -0.1034902196 0.2903620193
580296520.0 -0.0912502824 0.2794795696 0.1384200613 -0.4056906277 0.1380633309 -0.4053587685 -0.1005893369 0.2914493066
585296490.0 -0.0879891992 0.2802748097 0.1336688239 -0.4068351645 0.1336651395 -0.4069729951 -0.0979018376 0.2922668761
590296460.0 -0.085453338 0.2813464118 0.1291162978 -0.4082636217 0.129249167 -0.4084997588 -0.0946124138 0.29375807
595296430.0 -0.0819682155 0.2825991502 0.1245575175 -0.4096027161 0.1245892637 -0.4097827663 -0.0914944545 0.2945036136
600296400.0 -0.0794438424 0.2836467659 0.1203658025 -0.4108206089 0.1207441417 -0.4111423404 -0.0884280166 0.2963777383
605296370.0 -0.0759731341 0.2847092598 0.1157009506 -0.4122270367 0.1160482954 -0.4119850959 -0.0855601846 0.297372379
610296340.0 -0.0733796875 0.2854099815 0.1117991103 -0.4132996517 0.1115210365 -0.4134805795 -0.0822750672 0.2984140214
615296310.0 -0.0701757897 0.2864207678 0.1068688396 -0.4141356343 0.1068288611 -0.4146672211 -0.0794085359 0.299182045
620296280.0 -0.0672497167 0.2871316191 0.1024882707 -0.41558134 0.1024435451 -0.4157061144 -0.0765825571 0.2999197552
625296250.0 -0.0641582587 0.2882262683 0.0975080863 -0.4169545913 0.0978221682 -0.4169187449 -0.0730328678 0.3012135345
630296220.0 -0.0608094957 0.2895256974 0.0930600066 -0.4178894584 0.0939171458 -0.41786873 -0.0700812359 0.3023544579
635296190.0 -0.0581494838 0.2898050112 0.0887298532 -0.4182672859 0.0886551466 -0.4180630313 -0.0670261126 0.3026758991
640296160.0 -0.0551147989 0.2901789653 0.0846109605 -0.4193634994 0.084271376 -0.4194359705 -0.0634743936 0.3035039814
645296130.0 -0.0519939505 0.291412923 0.079517807 -0.4202301803 0.0798193354 -0.4202447922 -0.0609297288 0.3042686603
650296100.0 -0.0489830627 0.2923787061 0.0755193976 -0.4212417756 0.0754238299 -0.4208402238 -0.0575641483 0.3054613568
655296070.0 -0.0458178029 0.2924189998 0.0706397272 -0.4215777406 0.0705633984 -0.4221073263 -0.0541683919 0.3062319542
660296040.0 -0.0430273812 0.2936488008 0.066496066 -0.4223632159 0.0662797658 -0.4222549333 -0.0513405922 0.3065514653
665296010.0 -0.0396464223 0.2938654653 0.0616298452 -0.4233652517 0.061973453 -0.4230741453 -0.0482094865 0.3076971556
670295980.0 -0.0362101586 0.2943502406 0.0568913714 -0.4236053926 0.0573566943 -0.4238652009 -0.0453853209 0.3080263624
675295950.0 -0.0333865927 0.2949158962 0.0523936478 -0.4242671142 0.0524496031 -0.424536922 -0.0417191758 0.3086778296
680295920.0 -0.0305351825 0.2958458967 0.0474557809 -0.4250159728 0.0478280596 -0.4250556967 -0.0389106348 0.3092061997
685295890.0 -0.0273099266 0.2959904038 0.0433879439 -0.4253333803 0.0430360641 -0.4253938124 -0.0353440451 0.3099476463
690295860.0 -0.0236209068 0.2964779665 0.0383392852 -0.4255203982 0.0384611694 -0.42559123 -0.032193619 0.3101868872
695295830.0 -0.0206336691 0.2967301496 0.0333836603 -0.4260318253 0.033631573 -0.4260121164 -0.0289006854 0.311180437
700295800.0 -0.0170516563 0.2969273197 0.028718811 -0.4260325402 0.0293187964 -0.4266635918 -0.0255554746 0.3106540193
705295770.0 -0.0143838148 0.2976228842 0.0243850009 -0.4266262462 0.0245951362 -0.426787171 -0.0225914672 0.3118365924
710295740.0 -0.0114375713 0.2980447051 0.0197549277 -0.4266212223 0.0200589302 -0.4268145891 -0.0196420142 0.3122746846
715295710.0 -0.008471949 0.2984608108 0.015377851 -0.4273643107 0.015522296 -0.4270233334 -0.0161404876 0.3124629836
720295680.0 -0.0050079981 0.2981535254 0.0104733647 -0.4265894962 0.0106487784 -0.4276917206 -0.012797133 0.312869085
725295650.0 -0.0015639632 0.2983852165 0.0056508607 -0.426640496 0.0061403499 -0.4272542907 -0.0096390335 0.3130191254
730295620.0 0.0011723365 0.2986651041 0.0011367175 -0.4269578515 0.0013449433 -0.4271319103 -0.0062510632 0.3129500246
735295590.0 0.0048340837 0.2986217368 -0.0030006806 -0.4269802414 -0.003100633 -0.427141641 -0.0026691102 0.3133203255
740295560.0 0.0076627812 0.29913876 -0.0078955996 -0.4266840962 -0.0077385424 -0.426936395 7.31472e-05 0.3134325478
745295530.0 0.0111280696 0.2988398833 -0.0124098851 -0.4266366784 -0.0123496838 -0.4270448278 0.0035094074 0.3138744385
750295500.0 0.0138766001 0.2989434512 -0.0169099086 -0.4265318913 -0.016901234 -0.4266985423 0.0066316794 0.3134857992
755295470.0 0.0177624621 0.299228451 -0.021580875 -0.4264644637 -0.0212598433 -0.4263547399 0.0098915069 0.3139782448
760295440.0 0.0204267884 0.2989682326 -0.0264541209 -0.4261462738 -0.0262970603 -0.4258085975 0.0128169776 0.3139237531
765295410.0 0.0232395551 0.2987551885 -0.030220056 -0.4255432663 -0.0304812861 -0.4257045262 0.0167161093 0.3141576533
770295380.0 0.0269161321 0.2986239023 -0.0355122932 -0.4251162055 -0.03537415 -0.4254903431 0.0202180851 0.3138045264
775295350.0 0.0299263061 0.298753251 -0.0400344313 -0.4245319338 -0.0399484566 -0.4245974591 0.0226481855 0.3137287311
780295320.0 0.0333709244 0.2982885566 -0.044470581 -0.4240976329 -0.0443544286 -0.4244267041 0.025912923 0.3137223824
785295290.0 0.0363517381 0.2981772469 -0.0488745305 -0.4232672422 -0.0488797528 -0.4235674145 0.0293797251 0.3133187182
790295260.0 0.0394024864 0.2979776302 -0.0538020309 -0.4232766192 -0.0536651003 -0.4233273098 0.0328219692 0.3134915246
795295230.0 0.0425227138 0.2978111767 -0.0582910627 -0.4223228353 -0.0580254565 -0.4225722487 0.0361263032 0.313712974
800295200.0 0.0457245266 0.2976470938 -0.0629703324 -0.4219006801 -0.0630159227 -0.4220116049 0.0391381722 0.3128716447
805295170.0 0.048817479 0.2972451788 -0.0672352217 -0.4205594808 -0.0672437221 -0.4208833921 0.0421039371 0.3125005893
810295140.0 0.05192063 0.2968287966 -0.0714872167 -0.4205657319 -0.0717774192 -0.4207566819 0.045545888 0.3127698247
815295110.0 0.0551363396 0.2963433129 -0.0764136834 -0.4192767226 -0.076603124 -0.4194450603 0.0486163128 0.3120229019
820295080.0 0.058252022 0.2956249108 -0.080727172 -0.4183991512 -0.080685539 -0.4187233967 0.0521533069 0.3116806294
825295050.0 0.0615865818 0.2955290807 -0.0853291038 -0.4175163179 -0.0854572921 -0.4176586191 0.0554404494 0.3116064208
830295020.0 0.0646857866 0.2952321742 -0.0900393975 -0.4167999372 -0.0900292156 -0.4166775732 0.0582053419 0.3111059678
