!Created with skrf (http://scikit-rf.org).
# Hz S RI R 50.0 
!freq ReS11 ImS11 ReS21 ImS21 ReS12 ImS12 ReS22 ImS22
300000.0 -0.0473578083 -0.0601248941 -0.0014572805 0.001010066 0.0009033504 0.0008418523 -0.765957492 -0.1700122353
5299970.0 -0.0490432963 0.0155397542 0.0001703723 -9.5974e-05 -0.0002272004 0.0001047761 -0.7846375321 -0.0088496004
10299940.0 -0.0432550783 0.0333175753 -0.0001279005 0.0003266528 2.83485e-05 -3.72319e-05 -0.7879026277 -0.0050654064
15299910.0 -0.0350683658 0.0476946352 0.0001376369 6.92882e-05 -0.0001907472 9.77725e-05 -0.7934454072 -0.0028395923
20299880.0 -0.0245930542 0.0599128931 -5.59644e-05 8.94044e-05 -0.000123033 -0.000150845 -0.8004244481 0.0015295005
25299850.0 -0.0133458756 0.0690431817 -1.7199e-06 1.2537e-06 -5.75555e-05 0.0001600616 -0.8062727909 0.0073093223
30299820.0 -0.0013545455 0.0758365773 1.85617e-05 0.00014416 1.66808e-05 0.0001144079 -0.8124731166 0.0145484719
35299790.0 0.0104659536 0.0807084907 4.20668e-05 -0.000154889 -1.73824e-05 -0.0001056056 -0.8175331637 0.0239242713
40299760.0 0.0217861763 0.0830904242 -9.61349e-05 -0.0002239839 -0.0002648099 -7.6744e-05 -0.8216501558 0.0331272501
45299730.0 0.0325868648 0.0848663057 0.0001045309 3.31805e-05 5.51812e-05 5.42565e-05 -0.8253385257 0.0423345989
50299700.0 0.043211675 0.08456011 0.0001587058 -5.53e-06 -7.08839e-05 7.5496e-05 -0.8277318962 0.0525497412
55299670.0 0.0517753666 0.0835012555 -0.0001495555 -1.10262e-05 -5.08714e-05 -4.79037e-05 -0.8295909912 0.063257432
60299640.0 0.060630117 0.0813638938 -2.7515e-05 -0.0001035199 -0.0001277264 -4.58354e-05 -0.8307962169 0.0729922937
65299610.0 0.0684208499 0.0789196909 -0.0001686739 8.8743e-06 0.0002387112 -1.05523e-05 -0.8312766159 0.0830890029
70299580.0 0.0759083381 0.0758466047 0.0001805604 -0.0001920547 -6.04221e-05 6.1896e-06 -0.8321380975 0.0930714378
75299550.0 0.0820216864 0.0723139709 9.97775e-05 -3.91353e-05 -4.14225e-05 0.0001009008 -0.8325298833 0.1024569885
80299520.0 0.0877686546 0.0689836677 -4.20701e-05 -1.79596e-05 -4.59481e-05 -0.0002287233 -0.8316645323 0.1125346547
85299490.0 0.0927340642 0.0644532058 -9.6596e-06 7.73057e-05 0.0001260581 3.51876e-05 -0.8316868058 0.1218620247
90299460.0 0.0972451422 0.061075746 9.22163e-05 -0.0001415009 -2.8972e-06 -2.52728e-05 -0.8308760724 0.1314354133
95299430.0 0.101418751 0.0568139626 -5.09881e-05 4.00764e-05 8.65526e-05 -6.69292e-05 -0.8298334035 0.1417461681
100299400.0 0.1046702031 0.0532067518 -0.0001369989 -5.168e-07 3.55319e-05 1.51444e-05 -0.8287820218 0.1497124217
105299370.0 0.1084969408 0.0486283533 8.85331e-05 -8.88471e-05 -6.77831e-05 -2.2727e-06 -0.8280215629 0.1587600968
110299340.0 0.1108413393 0.0445870511 -2.51477e-05 2.42797e-05 -2.55489e-05 2.67283e-05 -0.8270291257 0.1678853022
115299310.0 0.1135626755 0.0402971438 -0.0001148661 -0.0001569749 -2.7439e-06 -9.77541e-05 -0.8246198982 0.1769767013
120299280.0 0.1157243496 0.0367542814 8.5821e-06 0.0001463584 0.0001420871 0.0001265826 -0.8235308513 0.1862156317
125299250.0 0.1175742306 0.03251531 -0.000124849 -0.000173742 6.90793e-05 -3.22521e-05 -0.8220188121 0.1956820132
130299220.0 0.119392583 0.0289237987 -8.36373e-05 2.39242e-05 2.36739e-05 -2.2361e-05 -0.8197270985 0.2038786221
135299190.0 0.1205980069 0.025062677 -4.50175e-05 0.0001698067 -8.04167e-05 4.68362e-05 -0.8185350069 0.2130340553
140299160.0 0.1221792683 0.0215639327 -0.0001050571 -0.0001177554 5.49313e-05 7.03304e-05 -0.815973559 0.2213790177
145299130.0 0.1230132816 0.0178758322 -6.01862e-05 -4.79126e-05 0.0001690646 0.0001467843 -0.8138764997 0.2299746439
150299100.0 0.123729087 0.0142635829 -0.0001468965 9.66652e-05 6.24224e-05 0.0001600792 -0.811796591 0.2382697611
155299070.0 0.1247787566 0.0110985143 -9.5061e-05 -0.0002101709 1.076e-05 9.10241e-05 -0.8099369316 0.247902101
160299040.0 0.1251103527 0.0075205208 0.0002017412 8.90267e-05 0.0002200547 0.0003076296 -0.80734156 0.2565239935
165299010.0 0.1252984209 0.0042554288 -7.2663e-06 4.49332e-05 0.0002059111 0.0001953242 -0.8040695824 0.2648295508
170298980.0 0.1258704248 0.0009143756 -0.0002578997 -1.72155e-05 7.35836e-05 8.54318e-05 -0.8024543244 0.2733302926
175298950.0 0.1262550588 -0.0017638042 0.0001325614 3.87223e-05 0.0001064315 3.46445e-05 -0.7990796559 0.2823967437
180298920.0 0.1262660143 -0.0050189262 -8.05091e-05 -8.03201e-05 3.07452e-05 0.0001513896 -0.795844395 0.2902991269
185298890.0 0.1261299398 -0.0082349992 6.25782e-05 -3.49245e-05 -0.0001490658 2.1347e-05 -0.7929393067 0.2985459456
190298860.0 0.1261174678 -0.0111851287 -6.4602e-06 -0.0001388816 0.0001592593 -1.07947e-05 -0.789749223 0.3076641908
195298830.0 0.1262811866 -0.0141232268 -4.32861e-05 1.012e-07 2.11491e-05 7.61971e-05 -0.7871159819 0.3154933921
200298800.0 0.1255671712 -0.0167966926 -5.217e-06 -4.01921e-05 5.07628e-05 -2.957e-07 -0.7833597097 0.3239384662
205298770.0 0.1254156417 -0.0195931649 9.19825e-05 4.08583e-05 -8.8742e-06 0.0002510852 -0.7800805224 0.3319442256
210298740.0 0.1253500934 -0.0219597532 6.92078e-05 -8.79136e-05 -8.14411e-05 5.17754e-05 -0.7768447932 0.3408235171
215298710.0 0.124393148 -0.0249880481 4.03375e-05 0.0001118213 -6.71472e-05 0.0001153863 -0.7733472136 0.3483395684
220298680.0 0.1241682989 -0.0274164732 0.0001713284 0.00028648 0.0001264423 5.65282e-05 -0.7698597023 0.3573255042
225298650.0 0.1238446987 -0.0302605524 0.0002233342 8.58902e-05 -0.0001423758 7.1639e-05 -0.766019375 0.3645802803
230298620.0 0.123204351 -0.0323852562 7.84841e-05 0.0002093654 7.7614e-06 2.25713e-05 -0.7614863791 0.3728726564
235298590.0 0.1222336772 -0.0351395941 8.57873e-05 -1.24377e-05 0.0001051198 0.0001421997 -0.7576414777 0.3807638702
240298560.0 0.1217566741 -0.0371378213 -0.0001842535 -0.0001592861 0.000103524 5.36487e-05 -0.753970957 0.3882739429
245298530.0 0.121208248 -0.0394494318 -2.60233e-05 -1.38255e-05 -9.405e-05 5.29636e-05 -0.7499359517 0.3965439418
250298500.0 0.1202934038 -0.0416185861 0.0002680027 0.0001257744 5.17875e-05 8.69407e-05 -0.7459099696 0.4042744062
255298470.0 0.1195157535 -0.0440619561 0.0001288549 4.30269e-05 4.97595e-05 0.0002439243 -0.7412633674 0.4121046594
260298440.0 0.118965353 -0.0459884132 0.0001109113 7.02389e-05 0.0001240038 3.28428e-05 -0.7366072117 0.4197735997
265298410.0 0.1176318153 -0.0481923904 -0.0002203228 6.59318e-05 1.74632e-05 0.0003161019 -0.7323490982 0.4272152238
270298380.0 0.1170119806 -0.0503099679 8.93797e-05 0.0002812643 -2.636e-06 0.0001585457 -0.7272357964 0.4350104915
275298350.0 0.1159737798 -0.0523190533 0.0001231352 0.0001852008 0.000176283 -8.6593e-06 -0.7227101104 0.4427316237
280298320.0 0.1152524684 -0.0540371705 3.34678e-05 0.0001299912 0.0001679073 7.87626e-05 -0.718479185 0.4505157714
285298290.0 0.1141340778 -0.0559939437 3.2143e-06 -7.60661e-05 -0.0001783781 -3.53406e-05 -0.7132557287 0.4577711753
290298260.0 0.1133523885 -0.0581101795 -7.27315e-05 3.23953e-05 9.22658e-05 1.8286e-05 -0.7088501059 0.4656005541
295298230.0 0.1123960205 -0.0601968131 0.0002538781 -0.0001136847 -4.84526e-05 0.0001043498 -0.7032855119 0.4728009904
300298200.0 0.1114170374 -0.0625307756 0.0001827974 1.36195e-05 -6.53623e-05 -8.097e-07 -0.6989190832 0.4800596178
305298170.0 0.1106196023 -0.0640681149 5.03616e-05 -2.58691e-05 0.0002502998 6.15958e-05 -0.6935913868 0.4873162511
310298140.0 0.109361298 -0.0663609702 0.0002270193 0.000193678 2.9755e-06 7.7847e-05 -0.6889531412 0.4951265726
315298110.0 0.1078422796 -0.0682284285 4.58381e-05 0.0001912816 0.0001183658 -0.0001146856 -0.6832225882 0.5018716129
320298080.0 0.106590217 -0.0699689751 -3.837e-06 5.11783e-05 -7.0648e-06 0.0002303883 -0.6775231314 0.5093107036
325298050.0 0.1050944297 -0.0719298878 5.1112e-05 0.0001473355 0.0002269944 5.47742e-05 -0.6717665648 0.5160476065
330298020.0 0.103472624 -0.073557187 -1.70556e-05 -1.26093e-05 0.0002537654 5.80093e-05 -0.6663002253 0.5231682257
335297990.0 0.1019931746 -0.0750233872 7.7199e-06 0.0002039359 -7.71358e-05 0.0001942275 -0.6609880165 0.5298603701
340297960.0 0.1006794869 -0.0764796494 5.70789e-05 -3.8229e-05 0.0001643896 -8.82191e-05 -0.6554435431 0.5373006044
345297930.0 0.09907784 -0.0777866435 8.46324e-05 9.8699e-05 3.84285e-05 6.61899e-05 -0.6499009198 0.5438567616
350297900.0 0.0982180459 -0.079250991 0.0001893386 -2.3966e-06 0.0001705948 8.02289e-05 -0.6437987597 0.5512115912
355297870.0 0.0961675974 -0.0807658639 5.57471e-05 -2.70043e-05 -2.74671e-05 -0.0003656305 -0.6383038739 0.5574795511
360297840.0 0.0951422745 -0.0821964952 -9.71424e-05 -0.0001237049 -6.20172e-05 -0.0001292149 -0.6323403337 0.5633176751
365297810.0 0.0935851148 -0.0836673688 -4.37558e-05 -5.71706e-05 -7.03018e-05 -0.0001866147 -0.6261038038 0.5707229529
370297780.0 0.0924829797 -0.0846873669 9.59015e-05 0.0002178255 7.51782e-05 0.0001665609 -0.6206432373 0.5765091675
375297750.0 0.0908506165 -0.0857664567 4.32102e-05 -1.45644e-05 1.4464e-05 -1.41521e-05 -0.6143892241 0.583391485
380297720.0 0.0897784068 -0.087354229 0.0001246535 0.0001434973 8.72277e-05 -6.89542e-05 -0.6078889686 0.5908054018
385297690.0 0.088144041 -0.0887672053 -2.16951e-05 3.91219e-05 0.0001083112 -2.48083e-05 -0.6022173266 0.5962803089
390297660.0 0.086762965 -0.0898099105 0.0001571657 6.76325e-05 3.48786e-05 4.57788e-05 -0.595028494 0.6021104217
395297630.0 0.085343798 -0.0911507664 -3.13381e-05 0.000147177 0.000144877 -3.16288e-05 -0.5891816857 0.6083226195
400297600.0 0.0836740922 -0.0919391722 -5.27772e-05 9.2251e-05 9.0974e-05 -0.000177303 -0.5832759785 0.6137846041
405297570.0 0.0825361401 -0.0933606274 0.0001168214 4.69469e-05 0.0001459799 3.8241e-05 -0.5768096513 0.6197078988
410297540.0 0.0811112736 -0.0944693566 -1.07578e-05 0.0001212459 0.0002778827 0.0001081436 -0.5704073355 0.6255588664
415297510.0 0.0796536762 -0.0956535851 0.0001373524 -0.0002601794 0.0003761501 -0.0001131507 -0.5639827118 0.6320073472
420297480.0 0.0779043489 -0.0965141564 2.66259e-05 0.0001743806 0.0001189648 0.0001198998 -0.5572785793 0.6369906581
425297450.0 0.0766117323 -0.097637847 -9.96961e-05 -2.58638e-05 0.0002675773 -0.0001517212 -0.5501900301 0.6433381744
430297420.0 0.0747997675 -0.0986511714 -2.16199e-05 2.99139e-05 0.00032625 2.13394e-05 -0.5440947661 0.6485915744
435297390.0 0.0734050265 -0.0999059152 0.0001663204 3.34088e-05 -0.0001800799 8.73622e-05 -0.536823609 0.6538112999
440297360.0 0.0720412538 -0.1006015975 8.60291e-05 0.0001247506 -4.10205e-05 -9.58662e-05 -0.5303977258 0.6587362728
445297330.0 0.0703103685 -0.101404954 7.11653e-05 2.88959e-05 0.0001487752 -2.3647e-06 -0.5233419948 0.6640910369
450297300.0 0.0688233295 -0.1025521362 5.31466e-05 0.0001502707 -5.8763e-06 8.4895e-06 -0.5169200899 0.6699651008
455297270.0 0.0672457195 -0.1033540316 1.82927e-05 -0.0001855997 0.0002519302 -0.0001199426 -0.509825297 0.6751002915
460297240.0 0.0655480957 -0.1039853251 7.70961e-05 4.6122e-05 -7.5215e-05 7.78125e-05 -0.5025934738 0.6805845066
465297210.0 0.0644614822 -0.1048714687 0.000207083 -3.02102e-05 0.0001060227 -2.61293e-05 -0.4960390274 0.6847459597
470297180.0 0.0625649249 -0.1058194287 0.0002961837 8.0206e-05 -4.94169e-05 -0.0001471346 -0.489393859 0.6898249371
475297150.0 0.0608749023 -0.1065193348 9.90476e-05 0.0001585355 0.0001277781 0.0001001959 -0.4819994064 0.6943509664
480297120.0 0.0594312777 -0.1074828432 0.0001649592 0.0001122564 6.88288e-05 -3.12885e-05 -0.4752828083 0.700088205
485297090.0 0.0578112289 -0.1078879178 9.32668e-05 -9.10401e-05 6.94888e-05 0.0001245594 -0.4678284066 0.7039096817
490297060.0 0.0561904896 -0.1088794045 2.5136e-06 2.90363e-05 0.0002449396 -2.89455e-05 -0.4613573731 0.7084737027
495297030.0 0.0545682257 -0.109322839 0.00019232 1.81341e-05 0.0001952559 4.34872e-05 -0.4535640593 0.7131990796
500297000.0 0.0529574279 -0.1103982778 -3.50194e-05 -0.0001230613 2.9214e-05 -1.4721e-06 -0.4468757053 0.7175698307
505296970.0 0.0510372049 -0.1106020806 -2.99232e-05 0.000390178 0.0001644377 8.73389e-05 -0.4401144988 0.7216814639
510296940.0 0.04960488 -0.1110613081 0.0001281331 -0.0001750435 0.0001149545 -0.0001607482 -0.4319134729 0.7263710307
515296910.0 0.0479344944 -0.1116939648 0.000203538 0.0002239225 1.90561e-05 -5.35523e-05 -0.4248543857 0.730720513
520296880.0 0.0462325437 -0.1126587042 0.0002202982 2.05928e-05 6.22824e-05 -8.97148e-05 -0.4175250489 0.7340964917
525296850.0 0.0448215565 -0.1129664982 0.0003102142 0.0001070256 9.63906e-05 2.10336e-05 -0.4099973846 0.7396467327
530296820.0 0.0429500678 -0.1132573875 9.1963e-06 -0.0002760125 -9.028e-07 -7.2873e-06 -0.4032112898 0.7426402513
535296790.0 0.0415969536 -0.1139218788 7.70126e-05 -4.33688e-05 0.0002395172 6.141e-06 -0.395716987 0.746078948
540296760.0 0.039584428 -0.114636645 -3.6788e-06 0.0001041944 -1.06702e-05 5.4248e-06 -0.3880655882 0.750634573
545296730.0 0.0380136955 -0.1146730862 0.000269969 9.33815e-05 0.0001774815 8.17081e-05 -0.3807819573 0.7540289235
550296700.0 0.0363263457 -0.1149151071 0.0001290876 0.0001635032 0.0001283019 0.0001262695 -0.3733753796 0.7578449236
555296670.0 0.0348677759 -0.1155662557 0.0001238728 -4.79989e-05 0.0001012295 0.0001253702 -0.365427873 0.7617124803
560296640.0 0.0330155503 -0.1160725299 7.0434e-05 -6.31697e-05 0.0001829647 0.0001044519 -0.3577455737 0.7654946432
565296610.0 0.0310397942 -0.1163411939 0.0001458183 0.0001732158 6.50931e-05 -3.42096e-05 -0.3503137577 0.7685999265
570296580.0 0.0296046217 -0.1168075201 0.0002085944 0.0001501108 8.52624e-05 -0.0001845003 -0.3430770499 0.7724552623
575296550.0 0.0282094816 -0.1168384515 -0.0001012322 -4.919e-06 -9.45502e-05 3.1901e-05 -0.3348777419 0.7757278335
580296520.0 0.0263681637 -0.1171168584 0.0001144096 -0.0001182855 8.49076e-05 -0.0001038126 -0.3271178274 0.7787245061
585296490.0 0.0242360382 -0.1172652905 0.0002372907 3.27764e-05 2.65841e-05 -0.0002503452 -0.3194377605 0.7817891874
590296460.0 0.0227435116 -0.1176014837 -3.13902e-05 -9.11668e-05 6.75824e-05 -9.3069e-06 -0.3117345763 0.7846609933
595296430.0 0.021065642 -0.1177301859 -1.93888e-05 0.0001043777 -2.50949e-05 1.20073e-05 -0.3039153994 0.7871466569
600296400.0 0.0192813365 -0.117993259 -5.09998e-05 -4.9105e-05 5.41879e-05 -0.0001970729 -0.2956281679 0.7910421098
605296370.0 0.0177647263 -0.1180707247 -1.67721e-05 0.0001581329 7.42904e-05 -0.0001737834 -0.2882033647 0.7943943754
610296340.0 0.016281613 -0.1182937737 0.0001926378 -0.0001397452 -2.3321e-06 -0.0002507727 -0.2802383636 0.7966085559
615296310.0 0.0145102719 -0.1180541686 -4.6718e-06 7.13322e-05 0.0002248206 0.0002298644 -0.272717315 0.7998694944
620296280.0 0.0125905712 -0.1184553207 3.074e-06 0.0001860265 0.0001472592 0.0001268355 -0.2645512775 0.8016659423
625296250.0 0.0109943316 -0.1182960886 0.0001042856 -2.68584e-05 0.0001809686 -3.25209e-05 -0.2570179228 0.8046773124
630296220.0 0.009219363 -0.1183635895 0.000166782 -0.0001629364 6.804e-05 -4.9457e-06 -0.2488190669 0.8075155519
635296190.0 0.0073970222 -0.1184966382 3.76124e-05 7.50866e-05 0.0001960876 -1.77682e-05 -0.2409813545 0.8098472599
640296160.0 0.0059923771 -0.1182760026 0.0003038858 -0.00014904 0.0001843298 4.68612e-05 -0.2323978732 0.8115816709
645296130.0 0.0040176703 -0.1182998074 0.0001637325 -4.10035e-05 0.0001613785 -7.72116e-05 -0.2250703128 0.8137520788
650296100.0 0.0024861078 -0.1180378009 0.0001015423 1.6302e-05 0.000153743 -0.0001747899 -0.2171413567 0.8163484912
655296070.0 0.0009346958 -0.1184248431 6.71149e-05 2.45752e-05 0.0002697714 -5.55348e-05 -0.2083767161 0.8182370201
660296040.0 -0.0010143488 -0.1176761507 0.0001905238 7.33567e-05 -0.0001096756 -5.43512e-05 -0.2006114562 0.820041598
665296010.0 -0.0024301015 -0.1176721158 0.0001064037 0.0002436126 1.38956e-05 7.60133e-05 -0.1928763911 0.8224428873
670295980.0 -0.0040690931 -0.1178938739 0.0002602753 -1.00824e-05 0.0002319065 7.36592e-05 -0.1854166561 0.8241574728
675295950.0 -0.005855291 -0.1175353845 7.9041e-05 -7.36969e-05 0.0001128527 -3.478e-05 -0.1765969874 0.8258639008
680295920.0 -0.0075157715 -0.1170882136 0.0002258302 8.63125e-05 7.76651e-05 8.67178e-05 -0.1681980483 0.8280762643
685295890.0 -0.0089582162 -0.1168320918 9.9916e-06 -5.83384e-05 0.0002594797 -0.0001609634 -0.1601214301 0.8291465316
690295860.0 -0.0105598952 -0.1167649079 0.0002472748 -9.24162e-05 0.0003504601 -0.000218721 -0.1520078243 0.8307350392
695295830.0 -0.0122974085 -0.1166626821 -4.03433e-05 -0.0001219548 0.0001379451 9.28254e-05 -0.1439200447 0.8324281641
700295800.0 -0.0140337036 -0.1160467084 0.0001901856 -9.54684e-05 9.49372e-05 -0.0001745476 -0.1346686284 0.8333199656
705295770.0 -0.015967674 -0.1158737635 0.0001326795 -8.10296e-05 0.000110555 0.0001853371 -0.1273499475 0.8353576693
710295740.0 -0.0172472978 -0.1155587275 0.0001233164 -0.0001618938 0.0001513521 8.078e-07 -0.119154133 0.8363814566
715295710.0 -0.0191737277 -0.1149861549 -3.79487e-05 -5.45055e-05 0.0002373318 3.54049e-05 -0.1111110417 0.837320134
720295680.0 -0.020728453 -0.1149047404 0.0003184497 -0.000100414 -3.09802e-05 -9.8327e-05 -0.1024763267 0.8387189106
725295650.0 -0.0220984555 -0.1143883875 0.0002698639 -7.86988e-05 0.0003360146 -4.01103e-05 -0.0942247684 0.8397672162
730295620.0 -0.0241013961 -0.1140859173 -5.95696e-05 -2.9162e-05 0.0001243354 0.0001401326 -0.0855911077 0.8402393078
735295590.0 -0.025321794 -0.1136503037 0.0001089674 -7.47724e-05 4.53566e-05 -9.10791e-05 -0.0767358587 0.841054816
740295560.0 -0.0270281612 -0.112928729 4.96792e-05 0.0002612764 0.0001692079 0.0001259834 -0.0692551029 0.84147359
745295530.0 -0.0287956526 -0.1123714942 9.59224e-05 2.99698e-05 0.0003579011 -4.23886e-05 -0.0610152145 0.8421319444
750295500.0 -0.0303512001 -0.1120574109 0.0001392571 0.0002260498 0.0002119574 -8.41114e-05 -0.0523486252 0.8424393055
755295470.0 -0.0317837987 -0.1112009129 0.0001807826 -0.0002530444 -2.10449e-05 -0.0001079692 -0.0445979393 0.8436033854
760295440.0 -0.0334553956 -0.1106110105 0.0001269471 -6.1481e-05 0.0002855432 -4.96226e-05 -0.0361993831 0.8438464637
765295410.0 -0.0349858522 -0.1104689214 0.0002326788 -0.0002756106 -2.5717e-06 -0.0001277059 -0.0276734861 0.8441819273
770295380.0 -0.0366679019 -0.109415384 0.0001468843 -2.71725e-05 3.47545e-05 -4.70818e-05 -0.0190632422 0.8438567938
775295350.0 -0.0383380616 -0.1088707868 -8.08314e-05 -0.0001745745 0.000146503 -2.62528e-05 -0.0115363435 0.8438642125
780295320.0 -0.039738838 -0.1083504184 -9.90073e-05 -0.0001198714 9.35898e-05 -0.0001129946 -0.0027780541 0.8445277947
785295290.0 -0.041161367 -0.1075507462 0.0001980434 -4.92724e-05 0.0003206206 -5.49529e-05 0.0048237234 0.8442232529
790295260.0 -0.0426254303 -0.1070144672 6.96047e-05 4.15284e-05 0.0003071044 1.32972e-05 0.0140868382 0.8446653191
795295230.0 -0.0442289239 -0.1060573613 8.76271e-05 -4.05794e-05 0.0001615943 0.000120217 0.0224987644 0.8445660224
800295200.0 -0.0455734063 -0.1052405817 0.0002354514 -9.2266e-05 0.0002461557 -2.2713e-05 0.0304739228 0.8436046968
805295170.0 -0.0472311228 -0.1047525985 0.0001226698 -0.0001651303 0.0001061707 3.46763e-05 0.0385100081 0.843113043
810295140.0 -0.0486142685 -0.1039530343 0.0001252284 7.67312e-05 -2.30739e-05 -8.42202e-05 0.046693694 0.8440174238
815295110.0 -0.0502143476 -0.1029947601 1.85693e-05 -0.0001295645 4.84308e-05 -8.46918e-05 0.0550710764 0.8429215048
820295080.0 -0.0515211446 -0.1025327125 0.0004526651 -0.0001747869 0.0004449071 -5.51647e-05 0.0633274553 0.8416459764
825295050.0 -0.0530375393 -0.1012174656 0.0002287723 -0.000291399 0.0004507136 -2.4565e-06 0.0714533145 0.8417374538
830295020.0 -0.0544105145 -0.1004718032 7.76254e-05 2.87508e-05 4.153e-07 8.74096e-05 0.079354755 0.8405198728
835294990.0 -0.0559536742 -0.0995659365 0.000122608 -0.0001181503 5.26394e-05 -9.42327e-05 0.0881463605 0.8395974054
840294960.0 -0.0571941914 -0.0989792179 0.0002524716 -0.0003155929 4.27522e-05 -0.0001048767 0.0960306645 0.8388590384
845294930.0 -0.0588655006 -0.0979554577 0.0001604572 2.51103e-05 0.0001150487 -0.0001862368 0.1039817053 0.837989613
850294900.0 -0.0600829724 -0.0969896923 0.000266887 3.6629e-05 1.52537e-05 -0.0001693838 0.1123618692 0.8369539965
