!Created with skrf (http://scikit-rf.org).
# Hz S RI R 50.0 
!freq ReS11 ImS11 ReS21 ImS21 ReS12 ImS12 ReS22 ImS22
300000.0 -0.7725546755 -0.1468085327 -0.0011338222 0.0012145118 -0.0001110078 -0.0003765224 -0.211297293 -0.0923262757
5299970.0 -0.7850678956 -0.0068822983 -6.38469e-05 -0.0002361391 -4.39757e-05 0.0001337434 -0.2165394142 0.0067504826
10299940.0 -0.787768018 -0.0037629683 -9.53894e-05 3.82109e-05 -0.0001361563 0.0001257672 -0.2133643238 0.0186931493
15299910.0 -0.7929628987 -0.0012617596 9.44891e-05 5.99924e-05 6.94218e-05 -9.84828e-05 -0.2083834079 0.0279102677
20299880.0 -0.7994009791 0.0022967972 -0.0002315637 -9.0764e-05 -2.94697e-05 1.71831e-05 -0.2031814967 0.0356320799
25299850.0 -0.8059186616 0.0084501247 -0.0001259462 -0.0001641085 3.2846e-06 2.58663e-05 -0.1977255701 0.0416168961
30299820.0 -0.812167669 0.0162232449 0.0001066741 -4.63799e-05 -0.0001115438 3.5555e-05 -0.1919391648 0.0462598082
35299790.0 -0.8172095645 0.0252054 -0.0001474422 0.0003034864 -5.47645e-05 -9.97504e-05 -0.1860391172 0.0500551521
40299760.0 -0.8213142781 0.0340025531 4.51554e-05 0.0001766572 7.0285e-05 1.20991e-05 -0.1805413733 0.0531047632
45299730.0 -0.824528924 0.0440129211 0.0002269316 -8.2663e-05 -0.0001845134 0.0001530281 -0.1754161334 0.0550930653
50299700.0 -0.8270225618 0.0537272544 0.0001136747 -0.0002199399 2.26175e-05 7.517e-07 -0.1704504103 0.0565165905
55299670.0 -0.8286046237 0.0645102638 3.69981e-05 3.60349e-05 0.0001246794 4.92995e-05 -0.1666416345 0.0575549687
60299640.0 -0.8297551789 0.0743020355 9.1095e-06 -0.000162062 -3.6542e-06 -4.18964e-05 -0.1623464446 0.0584740174
65299610.0 -0.8313951821 0.0845660314 0.0001927526 -6.79746e-05 0.0001213055 0.0002153884 -0.1587368363 0.0589798521
70299580.0 -0.8310614449 0.0944739765 -9.0456e-06 0.00014758 8.86258e-05 0.0003717583 -0.1555834812 0.0593329273
75299550.0 -0.8311149644 0.1048222285 2.37575e-05 6.43687e-05 0.0001258729 0.0001271361 -0.1525687397 0.0594270158
80299520.0 -0.8311849813 0.1146176436 -0.0001222257 -9.8139e-06 -6.56245e-05 5.57985e-05 -0.1500976734 0.0595959546
85299490.0 -0.8307146031 0.1241295816 -0.0001099824 2.28583e-05 -4.65988e-05 -0.0001622714 -0.1478898183 0.05934908
90299460.0 -0.8297080616 0.1337745704 -0.0001115828 -6.74365e-05 -2.12973e-05 -3.735e-05 -0.1454131127 0.0594713446
95299430.0 -0.8285012894 0.1438591663 2.36455e-05 0.0001027186 -2.60559e-05 -0.0001549857 -0.1434829581 0.0593246014
100299400.0 -0.8279251283 0.1525483078 -4.54515e-05 -2.7008e-05 -2.5981e-06 1.24414e-05 -0.1419121051 0.0595552403
105299370.0 -0.8265309388 0.1612692759 -1.71094e-05 0.0001199808 0.0001535042 -8.91907e-05 -0.1397712825 0.0591923748
110299340.0 -0.8251078732 0.1708259649 -1.30344e-05 -5.33028e-05 5.91401e-05 0.0001860034 -0.1390719936 0.0594601343
115299310.0 -0.8238902143 0.1804033924 0.0001114911 0.0001090473 -2.4204e-05 -2.37549e-05 -0.1370320115 0.0590679534
120299280.0 -0.8218611127 0.1893474965 -0.0001585959 7.23918e-05 0.0001517546 0.0001977296 -0.1359817347 0.0595325819
125299250.0 -0.8201136214 0.1980897149 1.34926e-05 -7.95031e-05 0.0001139774 8.2329e-06 -0.1349930136 0.0589786867
130299220.0 -0.8183153239 0.2074867911 3.84731e-05 -6.07092e-05 -3.96587e-05 2.25274e-05 -0.1342482376 0.059766452
135299190.0 -0.8163705668 0.2165653469 9.59567e-05 9.9325e-05 -8.8584e-05 0.000126159 -0.1333514258 0.0596725093
140299160.0 -0.8143120333 0.2257146257 -3.19506e-05 0.0001303747 7.32931e-05 -5.9434e-05 -0.1320523245 0.0596757297
145299130.0 -0.8125749217 0.2342609722 0.0001207753 3.75686e-05 0.0002547122 1.116e-05 -0.1318036361 0.0602160847
150299100.0 -0.8097641975 0.2432674711 1.3965e-05 0.0001351465 -8.51996e-05 -9.82427e-05 -0.1310912802 0.060317287
155299070.0 -0.8075015932 0.2521551734 0.0001453703 6.41119e-05 1.23199e-05 0.0001863006 -0.1303022405 0.0610062623
160299040.0 -0.8046127105 0.2613487233 -1.6908e-05 -1.3436e-05 3.81816e-05 0.000156648 -0.1297152628 0.0615256803
165299010.0 -0.8023154717 0.2691147025 6.21054e-05 -3.41533e-05 2.76454e-05 0.0001616544 -0.1289608567 0.0616120828
170298980.0 -0.7996632306 0.2777740445 7.14933e-05 0.0001632657 -0.0002592696 0.0001533953 -0.1287028633 0.0624666902
175298950.0 -0.7967330054 0.286575519 0.0001096444 0.000185511 -0.0001327077 4.0042e-06 -0.12775889 0.0624739977
180298920.0 -0.7938471107 0.2949932447 4.91909e-05 5.91706e-05 4.98205e-05 6.69384e-05 -0.1268206741 0.0632422749
185298890.0 -0.7906509246 0.3044115123 2.90838e-05 0.0001779033 -6.75073e-05 3.382e-06 -0.1268746301 0.0636894665
190298860.0 -0.787606436 0.3126484219 -1.98543e-05 -0.0001088775 0.0001392785 8.57959e-05 -0.1258753033 0.0642426457
195298830.0 -0.7834332866 0.3208980443 -5.9424e-06 -6.63768e-05 7.06441e-05 0.0002491274 -0.1256805482 0.0650054279
200298800.0 -0.7807732157 0.3291282302 -4.18421e-05 0.0001722209 -5.19075e-05 -9.2871e-06 -0.1250137428 0.0655681019
205298770.0 -0.7774180451 0.3376354714 5.98252e-05 5.35679e-05 -3.9212e-06 0.0002966014 -0.1246375782 0.0664306773
210298740.0 -0.7735016138 0.3454508554 6.61024e-05 0.0002358529 7.9544e-06 0.0001024754 -0.1239907013 0.0673809025
215298710.0 -0.7710118025 0.3542557873 0.0001954894 0.000145782 -5.49201e-05 3.95243e-05 -0.1243346997 0.0678740344
220298680.0 -0.7668232234 0.3624053799 0.0001587586 0.0002416794 6.16319e-05 8.30014e-05 -0.1229714827 0.0687341314
225298650.0 -0.762519044 0.3707843133 0.0001511831 0.0001848956 0.0001704822 0.0003510093 -0.1229621812 0.0696243667
230298620.0 -0.7589471142 0.3787254311 -1.582e-07 1.03343e-05 -3.7894e-06 6.51814e-05 -0.1222036282 0.0704583853
235298590.0 -0.754571325 0.387202316 1.20966e-05 -1.76546e-05 0.0001172991 9.63108e-05 -0.1216450019 0.0710865632
240298560.0 -0.7508177089 0.3953011719 9.95502e-05 8.9114e-05 0.0001783424 4.15841e-05 -0.1212196064 0.0723061702
245298530.0 -0.7465354637 0.4028051242 0.0001343224 2.46668e-05 0.0002794206 0.0001179798 -0.1208429775 0.0731907571
250298500.0 -0.7426689878 0.4104881479 0.0001578579 0.000280798 3.88277e-05 2.88787e-05 -0.1199737022 0.0743634445
255298470.0 -0.7376137389 0.4185563232 7.59107e-05 -9.56145e-05 0.0001105254 0.0002774854 -0.1198103537 0.0752537887
260298440.0 -0.7338649447 0.4257097516 0.0001278696 0.0001478202 3.39143e-05 2.72125e-05 -0.1190966482 0.0760081167
265298410.0 -0.7291866726 0.4339207245 0.0001967197 -4.23775e-05 -1.31619e-05 0.0002634896 -0.1185963573 0.0769611687
270298380.0 -0.7240917888 0.4414162297 3.935e-05 0.0003516733 -1.12629e-05 0.0001253454 -0.1176172671 0.0778222887
275298350.0 -0.7192730141 0.4491892439 0.0001531047 0.0002477016 0.0001861917 0.0001833412 -0.1170026945 0.0791177452
280298320.0 -0.7151882651 0.4567338485 0.0001226797 0.0001262735 0.0002996193 6.14949e-05 -0.116706137 0.0800264877
285298290.0 -0.7102502346 0.4642689157 0.0001439386 8.04262e-05 0.0002676356 -7.8688e-05 -0.1162352014 0.0807429268
290298260.0 -0.7048642512 0.4719092777 0.0002013766 0.0001858438 0.0002524708 -4.26664e-05 -0.1152746412 0.0821747192
295298230.0 -0.7004698789 0.4790990691 0.0001162458 0.0002512759 0.0001829819 0.0001490095 -0.1147951342 0.082990277
300298200.0 -0.6945445414 0.4866422705 4.44448e-05 0.0001073659 0.0001587876 4.53661e-05 -0.1140083731 0.083996705
305298170.0 -0.6900645474 0.4941619429 6.08842e-05 -2.96011e-05 0.0001386268 0.0002868831 -0.1131513766 0.0851115872
310298140.0 -0.684828334 0.5007475907 0.0001007153 5.81124e-05 0.000228221 0.0001421103 -0.1124607747 0.0865924103
315298110.0 -0.6795452421 0.5077410882 -1.80035e-05 0.0003452985 0.0001444876 9.28256e-05 -0.1116691316 0.0873292668
320298080.0 -0.6739286522 0.515797593 0.0001650388 0.00020522 0.0001659706 -0.0002042832 -0.1109567305 0.0883153763
325298050.0 -0.6682324929 0.5217799513 0.0004960624 0.0001699296 3.89959e-05 -0.0001120506 -0.1104604637 0.0891110633
330298020.0 -0.6629489505 0.5289847647 -2.50583e-05 0.0002416739 0.0001888255 0.0001589935 -0.1098477114 0.0898794437
335297990.0 -0.656970189 0.5361643291 3.4403e-06 3.21796e-05 0.000214382 0.0002030537 -0.1095072682 0.0912094822
340297960.0 -0.6524099765 0.5425405976 0.0002032669 2.93344e-05 6.4225e-06 8.25925e-05 -0.1084435354 0.0922845151
345297930.0 -0.6466305548 0.5485780395 0.0001125951 0.0001569227 0.0001250312 -7.63765e-05 -0.107770646 0.0936575488
350297900.0 -0.6403952231 0.5557633967 7.85321e-05 0.0001233821 -3.4472e-05 4.21138e-05 -0.1070972276 0.0947019044
355297870.0 -0.6347145803 0.5626616189 8.97758e-05 0.0001628259 0.0001853732 4.26184e-05 -0.1066234502 0.095694586
360297840.0 -0.6284482971 0.5688559398 0.000131963 6.89704e-05 3.77933e-05 0.0001353377 -0.1058817036 0.0972014331
365297810.0 -0.6222675087 0.5758882785 5.54592e-05 0.0001173148 0.0002042256 0.0001531876 -0.1047332052 0.0983244522
370297780.0 -0.6162859756 0.5813364291 0.0002790742 0.0001102678 0.0001458031 -8.52322e-05 -0.1044746799 0.0993983254
375297750.0 -0.6095459797 0.5880715986 0.0002851661 0.0001033495 0.0003296865 0.0001845474 -0.1033737247 0.1005566385
380297720.0 -0.603662178 0.5946170137 0.0001847489 9.25813e-05 0.0001963667 0.0002063508 -0.1027494019 0.1019181712
385297690.0 -0.5981056414 0.6006396671 0.000193651 -4.11986e-05 0.0001303602 1.984e-07 -0.1018381467 0.1033835272
390297660.0 -0.5914762891 0.6071614006 -7.03478e-05 -2.7721e-06 0.0002828915 0.0001448961 -0.1010507602 0.1040199889
395297630.0 -0.5851275658 0.6136693718 0.0001848414 -2.7882e-05 4.12388e-05 7.90351e-05 -0.1001271935 0.1052358123
400297600.0 -0.5787428296 0.6192252801 0.0001734153 3.8912e-05 0.0001525133 0.0002643929 -0.0994674416 0.1061475301
405297570.0 -0.5728279331 0.6249941584 0.0002637414 -3.95464e-05 0.0001559735 0.0001328424 -0.0989583199 0.1077290778
410297540.0 -0.5656696049 0.6311730438 7.92211e-05 1.50849e-05 0.0001261417 0.0001504888 -0.097924929 0.1089486679
415297510.0 -0.5588868801 0.6366030533 0.0001117179 -4.85186e-05 0.0002985153 2.74819e-05 -0.0971447856 0.1103597076
420297480.0 -0.5520286425 0.6423270536 0.0003071821 0.0003289872 4.72123e-05 0.0002255664 -0.0959551493 0.1111342605
425297450.0 -0.5457185981 0.6478244692 0.0002993359 6.75927e-05 0.0002760034 -8.87169e-05 -0.0948120958 0.1121870831
430297420.0 -0.5396951974 0.6532856825 0.0001948758 0.000215269 0.0002019743 6.63551e-05 -0.0945030546 0.113662715
435297390.0 -0.5323577437 0.6594339963 2.27495e-05 -0.0001078936 0.0002058191 0.0001794892 -0.0928684685 0.1143991097
440297360.0 -0.5252284652 0.6641176571 0.0002142228 0.000172024 0.0001238872 0.0001077557 -0.0923120726 0.1155622986
445297330.0 -0.5186535948 0.6698870508 0.0002493698 -3.60242e-05 -8.7292e-06 5.38659e-05 -0.0911014392 0.1165136885
450297300.0 -0.5111712618 0.6747601122 0.0002583669 0.0002190645 0.0001090973 5.21872e-05 -0.0907162935 0.1180170758
455297270.0 -0.5044188785 0.6802616331 0.0003877675 0.0001100159 0.0001116338 -6.22694e-05 -0.0894691002 0.118909528
460297240.0 -0.4977158891 0.6850337271 0.0002105329 0.0002614835 0.0001489807 -2.0905e-06 -0.0881038518 0.1200440384
465297210.0 -0.4900761262 0.6904264873 6.69626e-05 5.22134e-05 0.0002210133 0.0001938541 -0.0876675296 0.121044657
470297180.0 -0.4830644927 0.694499548 2.91875e-05 0.0001758236 0.000263927 2.40775e-05 -0.0868405339 0.1221717758
475297150.0 -0.4760850817 0.7002011835 8.98225e-05 0.0002227479 0.00015396 0.0001019369 -0.0853690314 0.1234551522
480297120.0 -0.4686167622 0.7044454509 4.757e-05 0.0001929146 0.0003043213 -5.08152e-05 -0.0844188328 0.1243096639
485297090.0 -0.4611509923 0.7092309615 0.0002104198 0.0001438732 0.0002897659 2.41296e-05 -0.0835604707 0.1249567478
490297060.0 -0.4539113454 0.7141831936 0.0001610822 9.59674e-05 -2.76365e-05 0.0001869265 -0.082557419 0.1261000332
495297030.0 -0.4471909029 0.7189850795 9.55883e-05 7.8766e-06 0.0001980098 0.0001466836 -0.081578749 0.1269555369
500297000.0 -0.4385232196 0.7230588117 0.0001469465 9.30251e-05 8.46915e-05 0.0001223192 -0.0808412918 0.1278990298
505296970.0 -0.4317387356 0.7270310866 0.0004316826 1.55426e-05 0.0001474245 4.29284e-05 -0.079408611 0.1292821856
510296940.0 -0.4248024154 0.7319481862 0.0003332607 7.22326e-05 0.0001964731 -3.1813e-05 -0.078460189 0.1300075287
515296910.0 -0.4174982754 0.7363489767 0.0001776352 8.12313e-05 8.01999e-05 0.0001077144 -0.0771852117 0.1311746405
520296880.0 -0.4089829452 0.7409445362 0.0003306119 3.44532e-05 0.0001423928 0.0001637223 -0.0761751949 0.1319141736
525296850.0 -0.4018596814 0.7447143003 0.00014849 0.0001227928 0.0001462588 -6.0786e-05 -0.0747431619 0.1329278098
530296820.0 -0.393880285 0.7480088906 0.0002434736 -8.51546e-05 0.0003279932 2.42207e-05 -0.0741602789 0.1339192466
535296790.0 -0.386393734 0.752224025 0.0001948548 -3.49671e-05 0.0002894485 4.0312e-06 -0.0730401287 0.1346104884
540296760.0 -0.3778771679 0.7561501026 0.0002300158 9.23146e-05 0.0002697817 0.0003145827 -0.071833626 0.1354219369
545296730.0 -0.3712623186 0.7600764446 0.0002499733 1.88755e-05 0.0002931133 -0.000121255 -0.0709552292 0.1363597362
550296700.0 -0.3631197908 0.7637518199 0.000421499 -5.30364e-05 0.0002689142 0.0002363494 -0.0693640183 0.1372840684
555296670.0 -0.3549252703 0.7671570847 0.0003400775 1.07296e-05 0.0002271379 6.89555e-05 -0.0683693791 0.1383709606
560296640.0 -0.3475076399 0.7705961815 5.29122e-05 0.0002775182 0.0001923226 -2.21292e-05 -0.0670911216 0.1389104996
565296610.0 -0.3393718371 0.7740146075 0.000388534 -0.0001014671 0.0001488007 0.0001662089 -0.0661165238 0.1399583837
570296580.0 -0.3320573342 0.7776262591 -9.86895e-05 4.01476e-05 0.0002183551 6.61867e-05 -0.0648270826 0.140696602
575296550.0 -0.3240238027 0.7803389947 0.0001118932 0.0001497565 -2.21806e-05 0.0002301514 -0.0637638733 0.14161177
580296520.0 -0.315507589 0.7842803915 0.0003459892 -0.0001633454 0.0003770994 0.0001126459 -0.062284588 0.1425645437
585296490.0 -0.3072954754 0.7864412376 0.0003284305 0.0003148831 0.0002239187 0.0001104024 -0.0611554966 0.1429238356
590296460.0 -0.3000385408 0.7898722073 0.0002759104 -2.23121e-05 5.62373e-05 -8.69631e-05 -0.0597667573 0.1437591974
595296430.0 -0.2914608977 0.793599245 4.50166e-05 -0.0001244008 0.0003473782 8.77807e-05 -0.0586094594 0.1444741518
600296400.0 -0.283690172 0.7959129506 3.41443e-05 0.0001048676 0.0003718039 0.0001065724 -0.0571698304 0.1453426228
605296370.0 -0.2756264416 0.7987344044 0.0001455923 -6.79807e-05 0.0001535041 -2.43506e-05 -0.0560357823 0.1461316744
610296340.0 -0.2676427449 0.8010808922 0.0002130524 6.96923e-05 0.0001358036 0.0002014415 -0.0548198396 0.1469299692
615296310.0 -0.2592131208 0.8045133887 0.0003485553 -1.20744e-05 0.0001414811 -0.0001872223 -0.0537223461 0.1476700959
620296280.0 -0.2510651546 0.8060361683 0.0004431661 2.94762e-05 0.0001227729 0.0001955613 -0.0523846113 0.1478608267
625296250.0 -0.2425906248 0.8092360539 0.0005241611 -2.52565e-05 0.0002240356 0.0001597835 -0.0507463694 0.148939874
630296220.0 -0.2345583887 0.8118602977 0.0002838703 0.0002511312 7.06042e-05 6.30665e-05 -0.0498232539 0.1496451897
635296190.0 -0.2267118275 0.814050473 -7.5587e-06 4.87868e-05 0.0001287534 4.57528e-05 -0.0483589043 0.1502092064
640296160.0 -0.2181351848 0.8148621588 0.0003274673 4.51865e-05 0.0003208187 -0.0001031771 -0.0466862246 0.1506885481
645296130.0 -0.2096926286 0.8181037512 0.000238615 9.7796e-05 0.0002515218 6.78119e-05 -0.0459412318 0.1510962956
650296100.0 -0.2019847967 0.8201242289 0.0003248797 -0.0001743135 0.0002206495 -6.9523e-06 -0.0443891357 0.1521308809
655296070.0 -0.1929536147 0.8217978622 0.0005829827 -5.68938e-05 0.0002346962 -0.0001393455 -0.043001094 0.1528115332
660296040.0 -0.1852591903 0.8239860886 0.0002499579 4.63953e-05 0.0001991946 -9.76623e-05 -0.0417592198 0.1531658217
665296010.0 -0.176861495 0.8254308208 0.0002119299 9.49683e-05 0.0002807501 -0.0001143086 -0.0402285858 0.1540672659
670295980.0 -0.1681538663 0.8271903798 0.0001021118 -6.74319e-05 0.000254845 5.07343e-05 -0.0390357848 0.1546202247
675295950.0 -0.1603202796 0.8289225877 -0.0002033917 0.0001300158 0.0001010758 9.18899e-05 -0.0373685272 0.1549225699
680295920.0 -0.1516880594 0.8308230728 0.0002306693 4.3432e-05 8.0381e-05 5.37135e-05 -0.0360349109 0.1556021783
685295890.0 -0.1436510972 0.8318476384 0.0003604623 -0.000120934 9.79948e-05 1.65877e-05 -0.0345456957 0.1560832886
690295860.0 -0.1346295448 0.8336383555 0.0003113557 -6.17386e-05 0.0001900885 -0.0001192666 -0.0331180696 0.1566320498
695295830.0 -0.1263425266 0.8343158274 0.0004124738 0.0001286868 0.0002278979 -1.52884e-05 -0.0318825103 0.1574252089
700295800.0 -0.1178060085 0.8357769165 0.0004339409 -7.62299e-05 0.0003384535 2.5501e-05 -0.0300275792 0.1576095127
705295770.0 -0.1089151352 0.8371990521 0.0003387721 -0.0001048641 0.0002556925 6.02907e-05 -0.0291151857 0.1582541167
710295740.0 -0.1011023313 0.8380086668 7.57679e-05 9.67717e-05 0.0001737547 3.2502e-06 -0.0281663566 0.1589667533
715295710.0 -0.0934431347 0.8393557521 -5.22162e-05 -0.0002075642 0.0003384934 0.0001005916 -0.0261204906 0.1592030035
720295680.0 -0.0848591717 0.8397043469 5.60572e-05 0.0001253236 0.0003219068 0.0001413716 -0.024649155 0.1594438064
725295650.0 -0.0753743153 0.8406450819 0.0002846861 -2.41979e-05 0.0002398685 0.0001139288 -0.0232636994 0.160254335
730295620.0 -0.067363653 0.8408767039 0.0003446938 -4.38818e-05 0.0002207099 -9.6174e-05 -0.0216559055 0.1606019347
735295590.0 -0.058116948 0.8420571671 0.0002990654 0.0001664183 0.0002365254 -0.0002715476 -0.0199028271 0.1610466149
740295560.0 -0.0499204073 0.8432094738 0.0002164016 -0.0001695006 0.0001868596 -0.000162128 -0.0189189021 0.1610836718
745295530.0 -0.0416316469 0.8428333097 6.31486e-05 8.546e-06 0.0003559937 7.64546e-05 -0.0175555392 0.1617707202
750295500.0 -0.0333394026 0.8429515829 0.0002505617 5.049e-07 0.0003470549 -9.84224e-05 -0.0159727472 0.1617871673
755295470.0 -0.0247072797 0.8435881247 0.0003950856 0.0002823574 0.0001438174 9.0867e-06 -0.0145881334 0.1626946348
760295440.0 -0.0163972464 0.843619818 0.0004726755 0.0001644726 0.0003121588 -1.32331e-05 -0.013304964 0.16286147
765295410.0 -0.0078817423 0.8434771072 0.000153092 1.192e-06 0.0003201696 -0.0001144566 -0.011058659 0.1632018163
770295380.0 0.0004774479 0.8445885187 0.0002276915 -4.79386e-05 0.0001898502 -0.0002282888 -0.0097733589 0.1633712362
775295350.0 0.0090331567 0.8440395839 0.0003131015 9.1361e-06 0.000142938 -9.23213e-05 -0.0087016954 0.1634731284
780295320.0 0.0171524761 0.8430737238 0.0003419902 -5.68306e-05 0.000320501 8.4138e-06 -0.0072060274 0.1641753048
785295290.0 0.0261141083 0.8434359634 0.0001618038 -0.0002808489 0.000221486 -6.40006e-05 -0.0057796778 0.1644430953
790295260.0 0.0344258481 0.8429046384 0.0002121519 -0.0001115931 0.000551163 9.47762e-05 -0.0037012182 0.1646233826
795295230.0 0.0426706555 0.84310996 0.0002694425 -0.0001192005 0.000249848 9.65767e-05 -0.0024575369 0.1650645491
800295200.0 0.0512980535 0.8426435174 0.0003374698 -0.0002932685 0.000348468 -8.72851e-05 -0.0010108949 0.1650491561
805295170.0 0.0597914724 0.8419658556 0.0003264053 1.54202e-05 0.0002783351 -0.0001304388 0.0004052917 0.1654424329
810295140.0 0.068847194 0.8413971289 0.0001592178 0.0002518015 8.63389e-05 -0.0001126303 0.0023784323 0.1656933874
815295110.0 0.0767545932 0.8397637958 0.0002730553 -0.0001607498 0.0002935279 -0.0002318857 0.0038726457 0.1662870714
820295080.0 0.0852210218 0.8391919896 0.0003133126 -0.0001293958 0.0003232807 -9.05374e-05 0.0051133258 0.1658192199
825295050.0 0.0939036191 0.8384035938 0.0002527112 -0.0002772367 0.0002331585 0.0001472427 0.0067662482 0.1662741411
830295020.0 0.1018357838 0.8376865315 0.000323125 -0.0001348261 0.0003582655 4.53032e-05 0.007995073 0.1666658415
835294990.0 0.10953987 0.8369314594 0.0002995753 -2.36705e-05 0.0003012346 5.40618e-05 0.0100561011 0.1662594478
840294960.0 0.118144092 0.8351225933 0.0003165947 -0.0001810945 0.0002120184 8.87748e-05 0.0112206474 0.1668309498
845294930.0 0.1268605812 0.8346170039 0.0002920879 -7.57694e-05 0.0002206302 5.12434e-05 0.0126585753 0.1670263114
850294900.0 0.1353384938 0.8325108669 0.0003307447 -2.18962e-05 0.000244907 -2.3727e-06 0.0144123759 0.1667988503
