!Created with skrf (http://scikit-rf.org).
# Hz S RI R 50.0 
!freq ReS11 ImS11 ReS21 ImS21 ReS12 ImS12 ReS22 ImS22
300000.0 -0.0965302353 -0.0821086874 0.6225459502 0.0777948706 0.6246778624 0.0829536278 -0.0966647593 -0.0930662868
5299970.0 -0.1001759734 0.0129540751 0.6301022895 0.0103251967 0.630597097 0.0111569759 -0.1020885595 0.0118347201
10299940.0 -0.0953889555 0.0300577023 0.634306837 0.0153353022 0.6340838947 0.0160078073 -0.0973799103 0.0291615472
15299910.0 -0.0882586612 0.0429937478 0.6402098324 0.0209328338 0.6402119172 0.0213517545 -0.0902480317 0.0420462213
20299880.0 -0.0795152595 0.0543035296 0.6484679797 0.0241750259 0.6490845757 0.0242845608 -0.0818273034 0.0533479296
25299850.0 -0.0696115749 0.0627982056 0.6581012169 0.0245478854 0.6579817484 0.0250895781 -0.0725529484 0.0622755467
30299820.0 -0.0595539224 0.0692333154 0.6678959551 0.0244466932 0.6675952565 0.0244844504 -0.0625320049 0.068912986
35299790.0 -0.04945472 0.0742236841 0.6772233134 0.0217315219 0.6773168877 0.0217054929 -0.0526719635 0.0732618082
40299760.0 -0.03969519 0.0769397414 0.6865634932 0.0179578502 0.6863365466 0.0177717374 -0.0436806614 0.0769776637
45299730.0 -0.030409008 0.0795882985 0.6957653107 0.0119218498 0.6957549385 0.0119471817 -0.0341260882 0.079139717
50299700.0 -0.0216727733 0.0796617947 0.7031102736 0.0048569935 0.7036235297 0.0047410622 -0.0255165523 0.0799761993
55299670.0 -0.0140578658 0.0801504811 0.7101841008 -0.0033617985 0.7111671694 -0.0029387197 -0.017812453 0.0798789808
60299640.0 -0.0066473628 0.0788458795 0.7172300448 -0.0114677236 0.71757175 -0.0113372511 -0.0102332618 0.0796947399
65299610.0 -0.0004363542 0.0777745858 0.7236222039 -0.0192191226 0.723777051 -0.0199142585 -0.0037747382 0.07822017
70299580.0 0.0061265894 0.075739632 0.7286928403 -0.0292729737 0.728488249 -0.0290717815 0.0023725719 0.0770002569
75299550.0 0.0114971668 0.0741602344 0.732761908 -0.0388376898 0.7332096156 -0.0388205913 0.0081784401 0.0755060224
80299520.0 0.0163767312 0.0720165139 0.7376446404 -0.0494330981 0.7376028447 -0.048712282 0.0131549801 0.0726728431
85299490.0 0.0209627938 0.0694834699 0.7405081795 -0.0589388986 0.740447135 -0.0588236082 0.017505914 0.071143687
90299460.0 0.0246780987 0.0673606394 0.7432136413 -0.0688012246 0.7435424981 -0.0686704177 0.0224007365 0.0687559229
95299430.0 0.0281730009 0.0653385825 0.7464250894 -0.0792710399 0.7461671573 -0.0791299861 0.025646503 0.0663688379
100299400.0 0.0313062762 0.0627155491 0.7471569851 -0.0893683345 0.7474737301 -0.0892962391 0.0285000806 0.0637748059
105299370.0 0.0347189534 0.0601883518 0.7489110988 -0.0988484722 0.748934409 -0.0992889773 0.0322583933 0.0616224544
110299340.0 0.0370244332 0.05761495 0.7497024597 -0.1087399141 0.7505797827 -0.1097505194 0.0347974286 0.0592570982
115299310.0 0.0397690912 0.0548606474 0.7509408115 -0.119029444 0.7510715786 -0.1191981409 0.0372124079 0.056340032
120299280.0 0.0412523894 0.0526105016 0.751764629 -0.1291077747 0.7514118033 -0.129458577 0.0387130878 0.0543681789
125299250.0 0.0432391605 0.0503445049 0.7518932678 -0.1389992033 0.7517112043 -0.1392573781 0.0413558832 0.0511282684
130299220.0 0.0450434061 0.0479130867 0.7516220031 -0.1486336675 0.7516750659 -0.149441472 0.0433611599 0.0493463807
135299190.0 0.0467408886 0.0455579874 0.7514820075 -0.1585325249 0.7512496458 -0.1589327637 0.0447092055 0.0475253549
140299160.0 0.0477305469 0.0443183421 0.7506344852 -0.1689045339 0.7508729469 -0.1689338081 0.0465593658 0.0455107929
145299130.0 0.049342604 0.0418286173 0.7505550653 -0.1784259911 0.750165863 -0.1786061475 0.0472471515 0.0426438355
150299100.0 0.0505152569 0.0400118112 0.7493130386 -0.1882000513 0.7489868822 -0.1879133817 0.0486429721 0.0406156311
155299070.0 0.0512221524 0.0382788921 0.7481355959 -0.1982234046 0.7477457422 -0.1980850989 0.04966794 0.0386169164
160299040.0 0.0524400395 0.0358854113 0.7460678755 -0.206774738 0.746456039 -0.2073122078 0.0508905446 0.0371313348
165299010.0 0.0529556644 0.0341897784 0.7455169595 -0.2169157284 0.7447423364 -0.2168156676 0.0517373974 0.0348973912
170298980.0 0.0533653756 0.0327760837 0.742606354 -0.2257346432 0.7427637073 -0.2259460544 0.0527633474 0.0328650952
175298950.0 0.0542906498 0.0305583103 0.7416971937 -0.2349382174 0.7413375528 -0.235243579 0.0533602471 0.0311177297
180298920.0 0.0552730634 0.0294049919 0.7391129635 -0.2446410596 0.7392830141 -0.2444734481 0.0536284858 0.0298576192
185298890.0 0.0560301466 0.0272741277 0.736740716 -0.2539582287 0.7369886095 -0.253370739 0.0542297293 0.0274635084
190298860.0 0.0561561309 0.0259745823 0.7342426541 -0.263391104 0.7345423513 -0.2625881687 0.0553588688 0.025997668
195298830.0 0.05650086 0.0239841945 0.7321397243 -0.271192744 0.7322808414 -0.2720272193 0.055929823 0.0242682157
200298800.0 0.0569806469 0.0227589245 0.7294373494 -0.2798696792 0.7290587237 -0.2802078467 0.0562455543 0.0233484094
205298770.0 0.0570929653 0.0214041472 0.7268622515 -0.2896645866 0.7268156451 -0.28944336 0.0565031776 0.0207305124
210298740.0 0.0573161341 0.0197292895 0.7237397143 -0.2988705827 0.7236202367 -0.2984345681 0.0566915427 0.0197004043
215298710.0 0.0578603354 0.0187662273 0.7211330569 -0.3074075537 0.7201158786 -0.3068072106 0.056961824 0.01857297
220298680.0 0.0582601043 0.0171728997 0.717658828 -0.3160965171 0.7179123944 -0.3161622796 0.0576648741 0.0172135609
225298650.0 0.0583316799 0.0160048355 0.7136477218 -0.3235871761 0.713989109 -0.3237346101 0.0577394986 0.015934327
230298620.0 0.0581642487 0.0151038572 0.7110064381 -0.3330185918 0.7112827098 -0.3329737921 0.0578572872 0.0144240549
235298590.0 0.0586876556 0.013254876 0.707511644 -0.34129789 0.7073521281 -0.3414291968 0.0579593711 0.01304923
240298560.0 0.0582298718 0.0122742777 0.7042804875 -0.3495290177 0.7039352392 -0.3492108392 0.0584288646 0.0119233073
245298530.0 0.0589238506 0.0111377203 0.699691791 -0.3574102586 0.7002082591 -0.357966298 0.0584893667 0.0104990344
250298500.0 0.0583397345 0.0097509321 0.6963729678 -0.3650958993 0.6964156228 -0.3655868763 0.0588281267 0.0091086502
255298470.0 0.0580505909 0.0090057268 0.6916427635 -0.3745565358 0.6918018132 -0.3745537627 0.058649038 0.007659363
260298440.0 0.0583138622 0.0078999403 0.6875940171 -0.3821488338 0.6884468656 -0.3823136396 0.0594848575 0.0069977386
265298410.0 0.0591151999 0.0069089174 0.684233267 -0.390974904 0.6840515581 -0.3904045422 0.0590075699 0.0054332555
270298380.0 0.0593043756 0.0056484798 0.6795478943 -0.3985641194 0.6801896989 -0.3980950476 0.0590856361 0.0053955391
275298350.0 0.0584605544 0.0049051423 0.6755908838 -0.406805764 0.6761612155 -0.4064694876 0.0589703988 0.0038074353
280298320.0 0.0588237491 0.0040500182 0.6712121718 -0.4137368902 0.6707486527 -0.4142097001 0.0592090722 0.0030302074
285298290.0 0.0589006481 0.0031380992 0.6667316727 -0.4219499765 0.666470492 -0.4216314958 0.0588361595 0.0020650346
290298260.0 0.0587259833 0.0018929778 0.6620525881 -0.4298322931 0.6624072058 -0.4296852193 0.0594267726 0.0007632445
295298230.0 0.0587693606 0.0008271564 0.6579811119 -0.4375342619 0.6576586068 -0.4374096704 0.0596033937 -0.000455184
300298200.0 0.0592944436 -7.03815e-05 0.6530849044 -0.4450943463 0.6532936071 -0.4456417236 0.0593510184 -0.0012286422
305298170.0 0.0589969191 -0.0015396747 0.6484844482 -0.4534855416 0.6486544411 -0.4527812939 0.0596963272 -0.0020446203
310298140.0 0.0596006809 -0.0023913167 0.6437857414 -0.4605194881 0.6437438948 -0.460932635 0.0595468094 -0.0027531577
315298110.0 0.0588335685 -0.0035240543 0.6380572235 -0.4680534563 0.6388180048 -0.4682055844 0.0597336622 -0.0044109656
320298080.0 0.0585672838 -0.0042773224 0.6334059263 -0.4754842995 0.6337037501 -0.475877376 0.0596296143 -0.0058666426
325298050.0 0.0583042454 -0.0058821927 0.6286416491 -0.4832837853 0.6282766477 -0.4834691666 0.0589016442 -0.0068808957
330298020.0 0.0580214193 -0.0068511067 0.6214083837 -0.4904737184 0.6219082007 -0.4905806776 0.0583872891 -0.0080273754
335297990.0 0.0575002779 -0.0077367327 0.6161835037 -0.4977782696 0.6165878957 -0.4977450114 0.0582462016 -0.0089236514
340297960.0 0.0566556365 -0.0079419827 0.6107624643 -0.5045252925 0.6105631699 -0.5044894115 0.0574240536 -0.0093473649
345297930.0 0.0562407027 -0.0086810425 0.6049350819 -0.5109021968 0.6046650178 -0.5110938373 0.0576279353 -0.0107378852
350297900.0 0.0566431878 -0.0094197713 0.5991728473 -0.5177408321 0.5992313988 -0.5178242133 0.0566206899 -0.0106444524
355297870.0 0.0560082915 -0.010069303 0.5930270294 -0.524368718 0.5932518606 -0.5248949849 0.0563704864 -0.0112668275
360297840.0 0.0559341644 -0.0106759653 0.5876892211 -0.5309867109 0.5874437118 -0.5313606935 0.0565649287 -0.0118990288
365297810.0 0.055736184 -0.011489759 0.5815550084 -0.5379162282 0.5815054635 -0.5377560171 0.0561410164 -0.0123749173
370297780.0 0.0555005279 -0.0123716477 0.5760066349 -0.5441767072 0.575541426 -0.5448606935 0.0559771011 -0.012934357
375297750.0 0.0550261472 -0.0123441167 0.5702069307 -0.5508914543 0.5693341613 -0.5510333842 0.0557038939 -0.0138358721
380297720.0 0.0550456327 -0.013801074 0.5635837805 -0.5571585035 0.5635128644 -0.5568878433 0.0552927205 -0.0142237348
385297690.0 0.0548036447 -0.0141852252 0.5575016944 -0.5630167806 0.5569287463 -0.5639856387 0.0549508462 -0.014873583
390297660.0 0.0543024036 -0.0150698853 0.5507823968 -0.5700146667 0.5512000886 -0.5703733357 0.0548357764 -0.0157555157
395297630.0 0.0546578385 -0.0158520592 0.5452852857 -0.5751485804 0.5451224226 -0.5756286491 0.054134954 -0.0157802692
400297600.0 0.0537983019 -0.0159720026 0.5382287424 -0.5817255547 0.53841702 -0.582243941 0.0534230617 -0.0169168135
405297570.0 0.0538823353 -0.0165106692 0.5324876925 -0.5878572961 0.5321961299 -0.5879650204 0.0535297632 -0.0168090574
410297540.0 0.0539038549 -0.0174809383 0.5251331964 -0.5936677097 0.5256034203 -0.5937664283 0.0531509563 -0.0177301503
415297510.0 0.0533143461 -0.0172938224 0.5187845267 -0.5995043764 0.5195092462 -0.5994277339 0.0527503465 -0.0182022624
420297480.0 0.0529705251 -0.0188897115 0.5124736102 -0.6056896076 0.5126176919 -0.6055504017 0.0530127233 -0.0192890634
425297450.0 0.0531807541 -0.0195611595 0.5057244574 -0.6103146314 0.5058379746 -0.6108490914 0.0521270059 -0.0189836245
430297420.0 0.0525761387 -0.0198179938 0.4991833791 -0.616991226 0.4994072078 -0.6169219992 0.0516339589 -0.0202127527
435297390.0 0.0525160675 -0.020593396 0.4927202309 -0.6219592852 0.4922155024 -0.6219529567 0.0510505382 -0.0199007116
440297360.0 0.0523035719 -0.0215290917 0.4850836908 -0.6277544184 0.484653711 -0.6279978221 0.0509706782 -0.0214902929
445297330.0 0.0524288459 -0.0221381528 0.4780788824 -0.6339848203 0.477996579 -0.6332344874 0.0505256662 -0.0216509207
450297300.0 0.0516203156 -0.0226022824 0.4713490626 -0.6380695726 0.4715296532 -0.6388698348 0.0503987002 -0.022125539
455297270.0 0.0511011259 -0.0232234536 0.4643182985 -0.6435714944 0.465148503 -0.6437175751 0.0503734855 -0.0226365968
460297240.0 0.0504159427 -0.0238566127 0.4571328862 -0.6480535613 0.4569980384 -0.6488236621 0.0495800254 -0.0226317546
465297210.0 0.0507898747 -0.0249042164 0.4506873829 -0.6540095129 0.4509576007 -0.6538432714 0.0487944565 -0.024034102
470297180.0 0.049859052 -0.0250572699 0.4433837192 -0.6583837465 0.4436047696 -0.6589030295 0.0480490973 -0.0243876848
475297150.0 0.0492957693 -0.0263567048 0.4356386259 -0.6629910602 0.4359808728 -0.6632184828 0.0480826903 -0.0245960788
480297120.0 0.0496540279 -0.0270398053 0.4286480869 -0.6681107981 0.429055768 -0.6682583274 0.0474424955 -0.0246029156
485297090.0 0.0493064483 -0.0272596029 0.4216780355 -0.6732394385 0.4214844569 -0.6737746354 0.0467333231 -0.0258525302
490297060.0 0.0486720247 -0.0281300979 0.4141693742 -0.6773829958 0.4143851446 -0.6776520754 0.0467773941 -0.0255076386
495297030.0 0.047872872 -0.028169254 0.4064492742 -0.6819078716 0.4060389865 -0.6823341229 0.0467188874 -0.0264161567
500297000.0 0.0480005386 -0.02915631 0.3990594413 -0.6868755501 0.3993383937 -0.6868264351 0.0457704006 -0.0269732336
505296970.0 0.0471275919 -0.0297382157 0.3911058525 -0.6910155403 0.3905912719 -0.6908406624 0.0449604459 -0.0270235844
510296940.0 0.0466797413 -0.0300449619 0.3836096032 -0.6956315504 0.3837297128 -0.695246459 0.0450372537 -0.0272095184
515296910.0 0.0461086979 -0.0304659219 0.3756440364 -0.6995104421 0.3761410974 -0.6996548907 0.0440365992 -0.0281405523
520296880.0 0.0457415179 -0.0314560105 0.3685068915 -0.7038153479 0.3689173298 -0.7035283209 0.0443435649 -0.0284814203
525296850.0 0.045227269 -0.0321866002 0.3601179611 -0.7073522254 0.3605782972 -0.7076360842 0.0439674956 -0.0287419057
530296820.0 0.0449247901 -0.0324385753 0.3531900492 -0.7106825284 0.352776712 -0.711594749 0.0428880793 -0.0299269272
535296790.0 0.0442770687 -0.03282094 0.3446316702 -0.7147771969 0.3453925071 -0.7155759083 0.0427864191 -0.0302704592
540296760.0 0.0438386431 -0.033864299 0.3373535285 -0.7191678885 0.3371695227 -0.7193668117 0.0416123165 -0.0302002768
545296730.0 0.0435561909 -0.0334575079 0.3294554465 -0.7223785809 0.329601794 -0.7233169283 0.0413710376 -0.0311566187
550296700.0 0.0425814509 -0.0344682826 0.3214257329 -0.7265310367 0.3221395726 -0.7268366304 0.0404638118 -0.0305406824
555296670.0 0.042517353 -0.0353758943 0.3137920264 -0.7301933468 0.3135576134 -0.7298754518 0.0400247191 -0.0309167351
560296640.0 0.041636624 -0.0354569884 0.3057189103 -0.7333663218 0.3057723377 -0.7332180304 0.0397737091 -0.0316144179
565296610.0 0.0406921257 -0.0361878285 0.2969822306 -0.7367714954 0.297096074 -0.7366859953 0.038981829 -0.0324075365
570296580.0 0.041025576 -0.0366215716 0.2894810839 -0.7396839837 0.2897080817 -0.7398341323 0.0387822984 -0.0317800282
575296550.0 0.0401809167 -0.0362377608 0.2810900921 -0.7423426171 0.2820502847 -0.7423705224 0.0383512483 -0.032610563
580296520.0 0.0396493013 -0.037132501 0.2734484756 -0.7462421892 0.272814736 -0.7463570976 0.0376537525 -0.0333142225
585296490.0 0.0393202753 -0.0378722151 0.2651025345 -0.7491514777 0.2651388604 -0.7486724121 0.037019854 -0.0338149211
590296460.0 0.0381508027 -0.0385265476 0.2566421163 -0.7519690173 0.2566397923 -0.7521952405 0.0367828995 -0.0334826006
595296430.0 0.0375491223 -0.0383318828 0.2490612288 -0.7542540953 0.2482820095 -0.7550965853 0.0364627967 -0.0339883143
600296400.0 0.0373338594 -0.0385894737 0.2406053901 -0.7573040705 0.2408502351 -0.757435008 0.0354159726 -0.034313795
605296370.0 0.0368880574 -0.0386962547 0.2324537088 -0.7595973898 0.2320824976 -0.7598269774 0.0350728773 -0.0351252501
610296340.0 0.0357536161 -0.0394771176 0.224440945 -0.7619756292 0.2238828148 -0.7622321071 0.0343841493 -0.0342724299
615296310.0 0.0353860901 -0.0395200564 0.2153055397 -0.7647634431 0.2151397747 -0.7646241011 0.0342105668 -0.0352248012
620296280.0 0.0346819141 -0.0401883025 0.2071682117 -0.7664518706 0.2072599869 -0.7671020565 0.0335804231 -0.0362690343
625296250.0 0.0347047302 -0.0403182392 0.1985366272 -0.7695252355 0.198807918 -0.7694284029 0.0329953335 -0.0356645503
630296220.0 0.0336859654 -0.0405517192 0.1903722994 -0.7714572577 0.1908180722 -0.7713873193 0.0318408966 -0.0358173531
635296190.0 0.0332183822 -0.0409614162 0.18168789 -0.7728632109 0.1813285013 -0.772966903 0.0315645204 -0.0367254933
640296160.0 0.0324319129 -0.0410076296 0.1736096767 -0.7748895008 0.17375579 -0.7753223563 0.0317903351 -0.0366502305
645296130.0 0.0321859434 -0.0412245981 0.1648331474 -0.7767323145 0.1651414623 -0.7770825585 0.029791924 -0.0373141367
650296100.0 0.0312018464 -0.0409264688 0.1570391882 -0.7782834111 0.1569891468 -0.778583284 0.0299082635 -0.0374696814
655296070.0 0.0302824412 -0.0418425062 0.1481082435 -0.7802682721 0.1479637403 -0.7802348265 0.0298156769 -0.0369333725
660296040.0 0.0292808745 -0.0415950893 0.1390598182 -0.7816760335 0.139646726 -0.7814689632 0.0285005758 -0.0382198746
665296010.0 0.029471468 -0.0424644175 0.131093159 -0.7829971731 0.1314868318 -0.7834485208 0.0277058134 -0.0373981446
670295980.0 0.0291352739 -0.0422277389 0.1227006108 -0.7848513246 0.1227085776 -0.785104655 0.0270482312 -0.0378664738
675295950.0 0.0285453637 -0.0425627245 0.1135527473 -0.7861740183 0.1139906208 -0.7862879976 0.0269953474 -0.0378864507
680295920.0 0.0274777514 -0.0425225613 0.1052226169 -0.7872411476 0.1053521828 -0.7873167647 0.0264725095 -0.038584686
685295890.0 0.0268105048 -0.0426704209 0.0973509243 -0.7884221285 0.0966622328 -0.7883447526 0.0258360128 -0.03824672
690295860.0 0.026640518 -0.0432818137 0.0884453694 -0.7888301247 0.0883240763 -0.7887347537 0.0255979374 -0.0380113188
695295830.0 0.0264930267 -0.0437082345 0.0792014337 -0.7901490257 0.0791368502 -0.7907354787 0.0243022392 -0.0387245625
700295800.0 0.0258125316 -0.0434259872 0.070747577 -0.7910373974 0.0708970019 -0.7912179742 0.0239376043 -0.0394455086
705295770.0 0.0248175391 -0.0436748367 0.0622792066 -0.791643839 0.0630033826 -0.7918204757 0.0230833556 -0.0391462593
710295740.0 0.0241246912 -0.0433791667 0.0532873952 -0.7921301679 0.0539014579 -0.7925150597 0.0215154199 -0.038993919
715295710.0 0.0235371452 -0.0437552602 0.0451052611 -0.793001677 0.0454252761 -0.793036227 0.0221481781 -0.0399374975
720295680.0 0.0227810759 -0.0443623834 0.0364155712 -0.7933594331 0.0365732113 -0.7936134341 0.0218764958 -0.0393860297
725295650.0 0.0224900917 -0.0440927972 0.0274638243 -0.7930300529 0.0277090654 -0.7936815865 0.0209061347 -0.0393749112
730295620.0 0.0212346814 -0.0446805504 0.0190650167 -0.7933821024 0.0193314146 -0.7939558091 0.0208157082 -0.0405243188
735295590.0 0.0215299955 -0.044373129 0.010501926 -0.7938199524 0.0106556368 -0.794277984 0.0196253763 -0.0395753712
740295560.0 0.0203349795 -0.0443432496 0.0019037244 -0.7936362743 0.0020886885 -0.7942144747 0.019591749 -0.0399000153
745295530.0 0.0199364446 -0.0449675868 -0.0063885575 -0.794345198 -0.0058239638 -0.7945412954 0.0180818257 -0.0399025911
750295500.0 0.019221637 -0.0445147118 -0.0155309724 -0.793309393 -0.0151269685 -0.7932292005 0.0184019153 -0.0406248841
755295470.0 0.0189604582 -0.0446025086 -0.0240589708 -0.7933484218 -0.0236385052 -0.7942107466 0.0168322231 -0.040261717
760295440.0 0.0178934969 -0.0444880535 -0.0325962909 -0.7930702263 -0.0327895011 -0.7934426988 0.0160890585 -0.0405459731
765295410.0 0.0170123282 -0.0452687538 -0.0401981363 -0.7930322009 -0.040626514 -0.7927792566 0.0170313531 -0.0397626193
770295380.0 0.0168125575 -0.0447787956 -0.0498367101 -0.7919411325 -0.0496080455 -0.7925913499 0.0159546436 -0.0399214142
775295350.0 0.016042897 -0.0446241057 -0.0581527466 -0.7913098278 -0.0584140801 -0.7922683181 0.0147113362 -0.0411161462
780295320.0 0.0155613195 -0.0448314101 -0.0666862496 -0.7911716424 -0.0662451097 -0.7908234788 0.0144673731 -0.0398598221
785295290.0 0.0146419193 -0.0444879284 -0.0761977618 -0.7896035165 -0.0761160503 -0.7903294494 0.0129100392 -0.0402815902
790295260.0 0.0140637713 -0.0445209724 -0.0844887841 -0.7897496483 -0.0840680253 -0.7896813151 0.0133083475 -0.0402680118
795295230.0 0.0132851131 -0.0446733108 -0.0923158843 -0.7877480838 -0.0921111307 -0.7884417088 0.0123804085 -0.0395776458
800295200.0 0.01297794 -0.0442610486 -0.1015277506 -0.7875327957 -0.1019488608 -0.7874180486 0.0117491058 -0.0399874288
805295170.0 0.0118709691 -0.0447529083 -0.1094940644 -0.7857159688 -0.1097392786 -0.7858438546 0.0109892931 -0.0401337901
810295140.0 0.0114771172 -0.0449190639 -0.1177764821 -0.7845296562 -0.1182165673 -0.7855857342 0.0107836441 -0.0397082725
815295110.0 0.0110217939 -0.0445289445 -0.1270481851 -0.7833083621 -0.1274723281 -0.7833731775 0.0097715841 -0.0402240357
820295080.0 0.0101445643 -0.0449432776 -0.1353083769 -0.7820113204 -0.1351953047 -0.7822555071 0.0091572845 -0.0397957473
825295050.0 0.0094737746 -0.0448633848 -0.1437842577 -0.780621935 -0.1438959228 -0.780389327 0.009126815 -0.0396906384
830295020.0 0.0089418584 -0.0442224693 -0.152297301 -0.7789379959 -0.1530102752 -0.7789632595 0.0079867338 -0.039892174
