!Created with skrf (http://scikit-rf.org).
# Hz S RI R 50.0 
!freq ReS11 ImS11 ReS21 ImS21 ReS12 ImS12 ReS22 ImS22
300000.0 -0.7790498521 -0.0880167985 -0.0017235901 -6.76364e-05 7.0963e-05 0.0007354216 -0.0445024197 -0.0607099404
5299970.0 -0.7845917469 -0.0051401561 0.0002069203 -0.0001363577 0.0001638602 -0.0001494746 -0.0453621253 0.0157066737
10299940.0 -0.787840005 -0.0034947579 -9.71558e-05 9.74724e-05 -5.26855e-05 -0.0001649816 -0.039904888 0.0338131289
15299910.0 -0.7932938509 -0.0017486267 -0.0001086013 3.80772e-05 0.0001299767 -0.0001122161 -0.0313532314 0.04833213
20299880.0 -0.7999479853 0.0021956285 -7.2268e-05 0.0001339457 7.5057e-05 6.80062e-05 -0.0210201175 0.0603356531
25299850.0 -0.8064071103 0.0079570497 -0.0001139603 -9.9689e-05 -0.0001817321 0.000109597 -0.0098881964 0.0695309739
30299820.0 -0.812664022 0.0155213514 -0.0002186867 4.11069e-05 3.56482e-05 -0.000136035 0.0018880329 0.076336645
35299790.0 -0.8171306829 0.024805155 0.000131003 0.000203202 -3.14423e-05 0.0001697851 0.0132196949 0.0812652929
40299760.0 -0.8211050245 0.0339014069 9.20598e-05 -0.0002270797 8.85252e-05 -3.523e-05 0.0244975794 0.083997743
45299730.0 -0.824686219 0.0426984243 -7.84664e-05 -0.000216997 0.0001497903 -6.88826e-05 0.0352451591 0.085370613
50299700.0 -0.8271375925 0.0532383984 4.93812e-05 9.09417e-05 2.93275e-05 -0.0002053895 0.0452086387 0.0854179396
55299670.0 -0.8290288741 0.0632172367 -1.52691e-05 6.37896e-05 0.0001094776 6.73279e-05 0.0544822476 0.0843646887
60299640.0 -0.8301628854 0.0737867538 4.41461e-05 -0.0001881225 -9.67102e-05 -0.000147472 0.0632380843 0.0824246037
65299610.0 -0.83115092 0.0834920458 -0.0002733233 -5.67685e-05 -5.47635e-05 0.0001224484 0.0707752281 0.0801147761
70299580.0 -0.8313741484 0.0936766794 -9.41571e-05 -3.83101e-05 -5.94479e-05 0.0001461314 0.0775148198 0.0771046423
75299550.0 -0.8319088103 0.1033778786 -1.5421e-06 -2.30754e-05 -9.2145e-06 9.98213e-05 0.0839739878 0.0737425772
80299520.0 -0.8319473727 0.1133910869 -0.0001195013 0.0001544027 4.53078e-05 -2.11057e-05 0.089682622 0.070720885
85299490.0 -0.8309558437 0.122838928 6.3478e-05 0.0002322289 -4.32006e-05 2.0837e-06 0.0944871777 0.0666001827
90299460.0 -0.8299929352 0.1322799765 -9.80538e-05 0.000404674 -5.88429e-05 -0.0001322297 0.0990835981 0.0628628255
95299430.0 -0.8285964356 0.1421404893 0.0002331255 8.1125e-05 0.0001994688 7.91881e-05 0.1030920736 0.0589029893
100299400.0 -0.8282185075 0.1514300597 0.0001980511 9.23372e-05 5.50306e-05 -3.74491e-05 0.1071176079 0.0549665564
105299370.0 -0.8271996981 0.1604910018 7.74337e-05 0.000246622 9.94e-05 1.83132e-05 0.1107009726 0.0510155544
110299340.0 -0.8254393398 0.169053227 0.0002432292 -8.38716e-05 0.00026307 0.000211585 0.1130991676 0.0471982026
115299310.0 -0.8239671215 0.1790739661 2.8968e-06 -5.63235e-05 5.7024e-06 0.0001861729 0.1158440937 0.0432725418
120299280.0 -0.8216458598 0.1869212436 3.10297e-05 -2.15862e-05 9.19924e-05 -4.42283e-05 0.1181227356 0.039530887
125299250.0 -0.8197748504 0.1962925146 -4.79447e-05 -5.35653e-05 -2.86829e-05 0.0002290554 0.1201810945 0.0354838146
130299220.0 -0.8188053103 0.2059306464 -0.0001550124 5.29397e-05 -2.928e-07 0.0001607446 0.121956705 0.0319688297
135299190.0 -0.8169566077 0.2143619675 -6.77081e-05 0.0001982465 0.0002119471 0.0002428559 0.1235920752 0.0285576935
140299160.0 -0.8144273766 0.2229238319 1.44256e-05 0.0001423703 -6.4139e-06 3.82136e-05 0.1250551739 0.0250453046
145299130.0 -0.8125183988 0.2322951848 0.0001241881 9.3475e-06 -3.05303e-05 4.02988e-05 0.1258872401 0.0216989796
150299100.0 -0.8100968152 0.2412852426 1.90292e-05 8.489e-05 5.03732e-05 -7.39008e-05 0.127089512 0.0188251878
155299070.0 -0.8076530554 0.2494962633 -4.5313e-06 0.000215153 1.92962e-05 0.0002914781 0.1283574213 0.015086803
160299040.0 -0.8053285249 0.257718247 4.57957e-05 8.17163e-05 0.0001627341 -6.71937e-05 0.1286012909 0.012500521
165299010.0 -0.8028668286 0.2667428792 0.0001055852 0.0001426378 2.71755e-05 0.0001750061 0.1289884285 0.0092566047
170298980.0 -0.8002743547 0.2757894553 0.0001537078 9.67076e-05 4.9008e-05 2.80997e-05 0.1295931454 0.0062347732
175298950.0 -0.796772896 0.2844218042 -9.69111e-05 2.23775e-05 4.73283e-05 -4.79325e-05 0.1299878125 0.0031990537
180298920.0 -0.7948071458 0.2934668433 -2.08717e-05 0.0001390051 -3.03201e-05 -0.0001537213 0.1301912178 0.0004157941
185298890.0 -0.7912275238 0.3012974566 0.0001005475 6.99189e-05 0.0001781135 -3.1109e-06 0.1301204479 -0.0024380182
190298860.0 -0.7884916528 0.3099231607 0.0002238579 0.0002459163 0.0001108256 -1.91e-06 0.130439415 -0.0050048302
195298830.0 -0.7855274117 0.3178929652 9.16571e-05 0.0001045445 0.0001815778 0.0002319293 0.130256362 -0.0073664588
200298800.0 -0.7811910582 0.3260845859 0.0003815178 0.0001677147 6.33839e-05 8.58038e-05 0.1300493509 -0.0102518641
205298770.0 -0.7783004106 0.3344513907 -0.0001346774 -2.33672e-05 -0.0001117763 0.0001497295 0.1298315771 -0.0129381265
210298740.0 -0.7745529508 0.3426934609 7.13109e-05 1.9318e-05 3.34863e-05 -0.000112793 0.1296778428 -0.0153083954
215298710.0 -0.7717174473 0.3505893389 -0.0001594746 1.00684e-05 6.30019e-05 -6.83796e-05 0.1291092069 -0.0178812396
220298680.0 -0.7675857816 0.3590233226 -0.0001753549 0.0001878759 0.0001122148 1.15388e-05 0.1283338936 -0.0201646549
225298650.0 -0.7643382349 0.3671711723 -1.24144e-05 8.59964e-05 -0.0002163771 0.0002720317 0.1280153617 -0.0226885307
230298620.0 -0.760109696 0.374807491 -6.11785e-05 8.42078e-05 0.0001056916 -0.0001130721 0.127386113 -0.025052928
235298590.0 -0.7560071277 0.3834261525 4.92928e-05 -0.00012221 9.18278e-05 -4.72151e-05 0.1269518068 -0.0274629621
240298560.0 -0.752528413 0.3914633058 -7.07187e-05 0.0001892362 -0.0001373483 0.0003129769 0.1266073806 -0.0293205133
245298530.0 -0.7485820681 0.3983578455 -0.0001456669 -4.68327e-05 1.69868e-05 5.70146e-05 0.125910656 -0.0319346228
250298500.0 -0.7439198818 0.4070737371 6.53055e-05 0.0001549247 -0.0001212206 4.77083e-05 0.1250202055 -0.0341495484
255298470.0 -0.7395476652 0.4142209798 3.16147e-05 0.0004697999 -0.0001529325 7.86307e-05 0.1245457173 -0.0365919558
260298440.0 -0.735454057 0.4218357855 4.84212e-05 0.0004816387 0.0002137042 0.0001492964 0.1242241063 -0.0382894718
265298410.0 -0.7309727902 0.4300755953 -8.30929e-05 -3.42762e-05 9.06302e-05 -6.87356e-05 0.1234929539 -0.0400913407
270298380.0 -0.7268280262 0.4374490509 1.80286e-05 0.0001997783 0.0002006216 9.53984e-05 0.1225441972 -0.0423208078
275298350.0 -0.7220438061 0.4447409237 7.936e-07 0.0001824121 0.0001045337 0.0003019272 0.122085963 -0.0443563828
280298320.0 -0.7168204222 0.4527951053 0.0002205745 4.81153e-05 2.62027e-05 0.0002609124 0.1215095631 -0.0464139867
285298290.0 -0.7126253022 0.4606591969 9.33106e-05 0.000150789 0.0001312762 1.65695e-05 0.1207121648 -0.0482541383
290298260.0 -0.7079200894 0.4677175691 0.0001211309 8.00189e-05 8.83615e-05 -7.3098e-05 0.1200878395 -0.0502243471
295298230.0 -0.7024956751 0.4744030064 5.7587e-06 0.0001141796 0.000154058 0.0001670888 0.1193922754 -0.0520303808
300298200.0 -0.6980519715 0.4820331495 1.86966e-05 -8.7625e-06 0.0001875178 2.57578e-05 0.1184952393 -0.0536740786
305298170.0 -0.6922905142 0.4882888482 0.0001918945 0.0001418688 1.8494e-05 4.0858e-06 0.1182904664 -0.0559076433
310298140.0 -0.6871104713 0.4960979124 0.0001709932 0.0001095652 0.000299715 0.0001259765 0.1166018304 -0.0575933855
315298110.0 -0.6824824088 0.5032065834 0.0001993712 -6.74136e-05 0.0002396549 0.0002043781 0.1156804228 -0.0595978722
320298080.0 -0.6769215433 0.5101363384 0.0001465754 0.0001761855 6.37528e-05 3.28317e-05 0.1151175572 -0.0615400887
325298050.0 -0.6718830541 0.5175964216 0.0002506451 2.75399e-05 0.0002199116 -2.16619e-05 0.1135561175 -0.063162685
330298020.0 -0.6661167883 0.5240985313 0.0002427322 -4.81037e-05 2.06314e-05 1.75114e-05 0.1123564346 -0.0645125849
335297990.0 -0.6605782022 0.531137612 0.0002541258 7.24148e-05 0.0001489489 5.98199e-05 0.1110996597 -0.0656719661
340297960.0 -0.6555923137 0.537714331 0.0002253521 0.0002086605 0.0001244618 -6.33382e-05 0.1103609075 -0.0668617155
345297930.0 -0.6498793753 0.5444674749 0.0002109892 -7.96228e-05 0.0002748506 -2.87154e-05 0.1086354828 -0.0685675784
350297900.0 -0.6439834094 0.5515851159 0.0001924014 0.0002031583 3.33381e-05 0.0003737608 0.1076470442 -0.0693988525
355297870.0 -0.6376829808 0.5582012304 2.973e-07 0.0001982063 0.0002045153 -1.1452e-06 0.1063976205 -0.0707455802
360297840.0 -0.6323636818 0.5641272285 -1.496e-07 0.0002174621 0.0001789975 0.0001103988 0.1053445714 -0.0723563319
365297810.0 -0.6274700716 0.5707988661 -0.0001930381 1.60775e-05 -2.20019e-05 -4.66353e-05 0.104093456 -0.0734874384
370297780.0 -0.620579689 0.5769508492 0.0003049563 0.000180181 0.0001371196 -5.64025e-05 0.1031188763 -0.0745583296
375297750.0 -0.6144493356 0.5831467324 -0.0001201292 -6.39114e-05 0.00025974 0.0001637791 0.1017135665 -0.0762639551
380297720.0 -0.6087317326 0.5894162606 -1.28557e-05 0.0001308207 5.42405e-05 -6.88697e-05 0.1000065732 -0.077000208
385297690.0 -0.6026177939 0.5949921281 0.0003905575 0.0002187066 -5.9523e-06 0.0001662713 0.0991979833 -0.0784347538
390297660.0 -0.5967809751 0.6013871766 -5.26419e-05 8.43288e-05 0.0001970315 0.0001002327 0.0977255037 -0.0796142376
395297630.0 -0.5900296928 0.6081563549 9.89087e-05 0.0001246231 5.35865e-05 0.0002433455 0.0968108254 -0.0806618306
400297600.0 -0.5840559984 0.6143671438 0.0003851501 0.0003127448 3.64052e-05 0.0002253263 0.0955603132 -0.081755659
405297570.0 -0.5773145257 0.6196073233 9.25498e-05 0.0002532903 0.0003177246 2.39764e-05 0.0936649797 -0.0831753489
410297540.0 -0.5709992102 0.6258890838 0.0002263273 6.57422e-05 0.0002612387 -4.20037e-05 0.0926724748 -0.0840627041
415297510.0 -0.564278899 0.6309986196 1.65619e-05 0.000128573 1.285e-07 1.6465e-05 0.0916061852 -0.0855444478
420297480.0 -0.559150377 0.6373938957 0.0002986867 7.76531e-05 0.0003086728 8.58896e-05 0.090042601 -0.0863864968
425297450.0 -0.5514766212 0.6426655156 0.0002556551 0.0001468061 0.0002630518 0.0001942047 0.0889895164 -0.0875267154
430297420.0 -0.5452864329 0.6485173952 0.0001616799 0.0002378299 0.0002041184 2.01289e-05 0.0874709661 -0.088772388
435297390.0 -0.5384956444 0.6534647704 0.0002969121 -9.94412e-05 0.0003690398 0.0001328096 0.0863945479 -0.0900371918
440297360.0 -0.5314780306 0.6594082089 0.0001833407 0.0002907927 0.0002387143 0.0001725885 0.0853553999 -0.090541384
445297330.0 -0.5246490896 0.6645546968 0.0001911725 -4.6453e-05 0.0002231519 0.0001158535 0.0838029751 -0.0921932684
450297300.0 -0.5176636936 0.6692516883 0.0002859057 -2.24057e-05 9.81338e-05 9.35759e-05 0.0825504302 -0.0926704584
455297270.0 -0.5112393071 0.6746273978 0.0003562477 0.0002335876 4.93973e-05 -0.0001335555 0.081304557 -0.0937190423
460297240.0 -0.504637509 0.6798344243 0.0001390729 0.0001352867 -4.6435e-06 8.22011e-05 0.0800459001 -0.0944276838
465297210.0 -0.4977411674 0.6852925583 0.0001487656 -0.0001617221 0.0001489828 0.0002570073 0.0788731733 -0.0955827144
470297180.0 -0.489583093 0.6902594124 0.0002406692 6.72612e-05 0.0001416569 0.0001291406 0.0774095497 -0.0962266876
475297150.0 -0.4831818113 0.694310841 0.0003846811 0.0001142976 0.0001600596 0.0001035181 0.0764671895 -0.097645577
480297120.0 -0.4759753247 0.699554295 0.0002624276 0.0001989479 0.0002001766 0.0002146481 0.0753102238 -0.0981244852
485297090.0 -0.4688119832 0.7042338058 0.000249949 0.0002191579 0.0001134583 -5.4971e-06 0.0737745454 -0.0988376028
490297060.0 -0.4621702581 0.7087955054 0.0004814485 0.0001779601 0.0003981731 8.48005e-05 0.0721837641 -0.0997256552
495297030.0 -0.45453677 0.712925962 0.0003763992 8.12464e-05 0.0002228917 0.0001490433 0.0711340518 -0.1001788118
500297000.0 -0.4474609752 0.717759127 0.0003040793 0.000188807 0.000395543 4.291e-05 0.0696633884 -0.1006442496
505296970.0 -0.4398800931 0.7230648337 0.000367201 3.54046e-05 0.0001584584 -3.6322e-06 0.0684443883 -0.1017341511
510296940.0 -0.4326521597 0.7265462561 0.0002400957 6.60237e-05 0.0001915333 0.0001981759 0.0670405862 -0.1022844133
515296910.0 -0.42429501 0.7303733555 0.0002752482 0.0001196195 9.37469e-05 -2.79808e-05 0.0657833761 -0.1027918545
520296880.0 -0.4180295274 0.7354525175 0.0001447772 5.53998e-05 0.0001579743 -0.0001685129 0.0641512569 -0.1034175567
525296850.0 -0.4097539928 0.7394941113 0.0002506931 0.0002370396 0.000213491 0.0002668075 0.0627744139 -0.1037673741
530296820.0 -0.4024680938 0.7436083423 0.0004732351 9.73842e-05 0.0001447657 0.0002836716 0.0613928759 -0.1040142573
535296790.0 -0.3952419978 0.7474556475 0.0001614264 -1.20564e-05 0.0001054429 8.9023e-05 0.0596203204 -0.1051304945
540296760.0 -0.3880921855 0.7510194153 0.0001240933 3.67328e-05 0.0004037461 0.0001250548 0.0583044722 -0.1053695604
545296730.0 -0.3803224618 0.755116976 0.0002767798 -9.2321e-05 0.0003916791 0.0002747987 0.0567377329 -0.1061076786
550296700.0 -0.3730067212 0.7591632686 0.0001707035 0.000100965 0.0001810067 -0.0001526374 0.0553899635 -0.1064868982
555296670.0 -0.3650300786 0.7614717918 0.0002044246 -7.49813e-05 0.0002769749 0.0001782464 0.053770357 -0.1068821656
560296640.0 -0.3572234288 0.7662382017 0.0001503523 -0.0001498794 0.0001189514 7.31094e-05 0.052459979 -0.1074805392
565296610.0 -0.3490257121 0.7697791969 0.0003109712 0.0002676517 0.00044276 0.0002815525 0.0510950579 -0.1080721531
570296580.0 -0.3420348535 0.7724190699 0.0003418381 -5.00268e-05 0.0001685869 -2.70693e-05 0.0494128054 -0.1084716678
575296550.0 -0.3341273379 0.7768009672 0.0002511677 0.0004217259 0.0001695649 0.0001053036 0.0478579964 -0.1085459579
580296520.0 -0.3255019981 0.7795224482 0.0003244092 -2.69669e-05 0.0006076915 -0.0001180878 0.0466354961 -0.109437881
585296490.0 -0.3181560346 0.7826904731 0.0002373239 0.0002652174 0.0005851296 0.0001308069 0.0451929481 -0.1096402767
590296460.0 -0.3102357299 0.7857912375 0.0003626442 0.0002085927 0.000287634 0.0001527851 0.0432604039 -0.1099367465
595296430.0 -0.3021857783 0.788470083 1.41701e-05 0.0001040728 0.0002213329 -7.54039e-05 0.0418170002 -0.1106193289
600296400.0 -0.2940457385 0.7918660357 0.0002789859 -0.0001061841 0.0003938392 9.79209e-05 0.0406293178 -0.1108352111
605296370.0 -0.2869177086 0.7947541917 0.0003252378 0.0001911043 0.0002528887 3.94565e-05 0.039436975 -0.1113453829
610296340.0 -0.2785191146 0.7974920414 0.0003263441 -0.0001778022 0.0004229846 -3.45925e-05 0.0376602977 -0.1115157555
615296310.0 -0.2700535593 0.8000712657 0.0007155389 0.0001104797 0.0006125474 9.46709e-05 0.0364132076 -0.1120940295
620296280.0 -0.2621806451 0.8022534898 0.0004740511 0.0001612819 0.0002968407 -6.15204e-05 0.0348442925 -0.1123221592
625296250.0 -0.2544295243 0.805202093 0.0002645217 -3.17604e-05 0.0002335127 -8.54924e-05 0.0338156704 -0.1125695494
630296220.0 -0.2458408147 0.8072282617 5.24637e-05 1.40626e-05 0.0003729774 -8.29986e-05 0.0322796947 -0.1124339507
635296190.0 -0.2386534031 0.8102392228 0.0004422297 -4.57635e-05 0.0001948537 -0.000217163 0.0307524131 -0.1128509645
640296160.0 -0.2305502041 0.8123150302 0.000379052 -0.0001085136 0.0003976549 0.0001003647 0.029123546 -0.1132807685
645296130.0 -0.2221581827 0.8153699791 0.0004036348 0.0001009339 0.0002570422 7.34543e-05 0.0279853105 -0.1131305605
650296100.0 -0.2139402518 0.8171510799 0.0002689949 -0.0002280548 0.0002120435 -2.61874e-05 0.0266669223 -0.1134967449
655296070.0 -0.2054035034 0.8189081571 0.0002388622 -0.0001821807 0.0005913184 -0.0001301583 0.0255181923 -0.1133077402
660296040.0 -0.1974107899 0.8208197776 0.0002648304 -8.30656e-05 0.0001657588 -0.0001756695 0.0238824288 -0.1138619777
665296010.0 -0.189191553 0.8220833426 0.0005319829 -8.80843e-05 0.0003440432 7.00311e-05 0.0223126915 -0.1135820139
670295980.0 -0.1815198065 0.8242328944 0.0001743016 0.000211224 0.0004396788 0.0001247716 0.0208404277 -0.1134541261
675295950.0 -0.1730870359 0.8259413376 0.0003438591 -5.43115e-05 0.000450046 2.15229e-05 0.0195455317 -0.1132025228
680295920.0 -0.164360567 0.8281948441 0.0003989566 -0.0004623818 0.0002678597 1.7845e-05 0.0179365326 -0.1133830648
685295890.0 -0.1563591509 0.83047076 0.0001923104 1.30663e-05 0.0004518882 -0.0001446929 0.0167773884 -0.1129497611
690295860.0 -0.1483373258 0.8308540708 0.0005792397 -9.84448e-05 0.0002876918 0.0001473269 0.0154855062 -0.1128363545
695295830.0 -0.1403268481 0.8321141599 0.0001495199 -0.0002588746 0.0003923907 -6.3425e-06 0.0138194894 -0.1130228293
700295800.0 -0.1313960712 0.8338256178 0.0001794218 -5.252e-05 0.0002259099 -8.98176e-05 0.0122236744 -0.1128692228
705295770.0 -0.1241949167 0.8347248482 0.0003935455 -7.88853e-05 0.0005089791 4.45841e-05 0.0107376834 -0.1120358929
710295740.0 -0.1152904324 0.8367062834 0.0002784245 -8.85402e-05 0.0001384361 -7.15132e-05 0.0092285862 -0.1127150891
715295710.0 -0.1069274667 0.8374300994 0.0004762638 2.28748e-05 0.0004419769 2.87845e-05 0.0077871439 -0.1126339831
720295680.0 -0.0986133161 0.8382431572 0.0001444957 -0.0001210035 0.000477415 -9.85715e-05 0.0064381536 -0.1122685019
725295650.0 -0.0901029336 0.8395851376 0.0002430701 -0.0001908576 0.0006381839 -0.0001739724 0.004645413 -0.1118595837
730295620.0 -0.0814227193 0.8408689815 0.0003254651 -0.000191436 0.0004061826 0.0001116446 0.0032258626 -0.1118512883
735295590.0 -0.0738610638 0.8410679916 0.0005049023 -7.23421e-05 0.0005154152 -0.0001231879 0.0014464991 -0.1117882331
740295560.0 -0.0650957609 0.8420463441 0.0002371826 0.0001212905 0.0003365056 4.07503e-05 0.0003202486 -0.1115496689
745295530.0 -0.0568955232 0.8423655943 0.0006943619 -0.0002304289 0.0003005984 -1.8316e-06 -0.0010969307 -0.1114780306
750295500.0 -0.0481583997 0.8425590818 0.0005102813 0.0001834695 0.0005106472 -5.18196e-05 -0.0022929057 -0.1107774515
755295470.0 -0.0398693176 0.8430442571 0.0002406879 8.79494e-05 0.0004733166 2.10653e-05 -0.0039419065 -0.1114006329
760295440.0 -0.0318416994 0.8430419859 0.0003523925 -0.0002178801 0.0004922736 3.18791e-05 -0.0055807469 -0.1109407876
765295410.0 -0.0234413188 0.8437299961 0.0003871005 -5.17536e-05 0.0005116529 0.0003002632 -0.0069600509 -0.1104913668
770295380.0 -0.0152578873 0.8439161087 0.0002656288 0.0002491455 0.0005101894 5.11373e-05 -0.0082406412 -0.1102089415
775295350.0 -0.0066721457 0.8440393834 0.0004896727 -0.0001343961 0.0003443782 2.77981e-05 -0.0100937124 -0.1098391258
780295320.0 0.0016457687 0.8441249579 0.0002735084 -0.0002758461 0.0003609807 3.32269e-05 -0.0110579786 -0.1095417133
785295290.0 0.0097113241 0.8431130742 0.0003485241 7.50345e-05 0.000235124 -0.0004102276 -0.0121908936 -0.1094025529
790295260.0 0.0184067485 0.8434911079 0.0005403495 0.0001318699 0.0004133402 -6.71128e-05 -0.0134570267 -0.1092308601
795295230.0 0.0265949601 0.8431167572 0.0003839392 2.05672e-05 0.0003877484 -0.0001017208 -0.0149769409 -0.1087715339
800295200.0 0.0347488822 0.842707707 0.0004417995 0.0001116468 0.0004152591 -8.46896e-05 -0.0161914913 -0.1083627608
805295170.0 0.0435223067 0.8428815393 0.0003658428 -9.60226e-05 0.0004639549 -0.0002216467 -0.0176729303 -0.1075892961
810295140.0 0.0519166564 0.8423971224 0.0004412872 -0.0001240958 0.0003753325 -0.0002367524 -0.0186209356 -0.107533049
815295110.0 0.0597044278 0.8413710065 0.0003255777 -0.0002160246 0.0003051824 -0.0001536575 -0.0200004164 -0.1069408404
820295080.0 0.0680130733 0.8410699045 0.0003696794 9.18928e-05 0.0001601156 -0.0001746946 -0.021219594 -0.1065333885
825295050.0 0.0773714385 0.8402178008 0.0003080446 -0.0001949927 0.0003962221 -0.0001407637 -0.0223748851 -0.1059396552
830295020.0 0.084806689 0.8395320181 0.0003239499 -2.71396e-05 0.0002584479 -0.0001506015 -0.0236287241 -0.1052248276
835294990.0 0.0929305425 0.8382584632 0.0003820491 -0.0001279421 0.0004601791 -2.8192e-05 -0.0250308087 -0.1047525766
840294960.0 0.1012575417 0.8382099369 0.0003539654 -0.0002482866 0.0004269608 -9.4148e-05 -0.0263684344 -0.1041824109
845294930.0 0.1090545726 0.8368293909 0.0005112195 -0.0003893133 0.0003061121 -0.0001545424 -0.0277941589 -0.1038046155
