!Created with skrf (http://scikit-rf.org).
# Hz S RI R 50.0 
!freq ReS11 ImS11 ReS21 ImS21 ReS12 ImS12 ReS22 ImS22
300000.0 -0.2399136616 -0.0733988593 0.47195506 0.0492585114 0.4658792387 0.0483832512 -0.2389337967 -0.0854576998
5299970.0 -0.2444748017 0.007495096 0.4735060812 0.004691081 0.4735282597 0.0050059099 -0.2444138617 0.007721797
10299940.0 -0.2411874591 0.0188683077 0.4754701237 0.0061250988 0.4757085834 0.0063486361 -0.2414414586 0.0205717041
15299910.0 -0.2369778559 0.0280379646 0.4795475655 0.0077507402 0.4795557761 0.007598173 -0.2369397663 0.0297653675
20299880.0 -0.2322984732 0.0355856473 0.4839325767 0.0085585905 0.4839756076 0.0082961636 -0.2311076138 0.0372363705
25299850.0 -0.2271547619 0.0419010814 0.4892089969 0.0072961438 0.4889170031 0.007574395 -0.225146761 0.0437081074
30299820.0 -0.2217307474 0.0469975671 0.4946867668 0.0055482361 0.4945578508 0.0056482253 -0.2193311186 0.0491386647
35299790.0 -0.2165168027 0.0516279357 0.500027671 0.0018468884 0.5000552881 0.0020949324 -0.2135783123 0.0528380026
40299760.0 -0.2113303533 0.0549981863 0.5051446208 -0.0018492764 0.5052207716 -0.0016675335 -0.2084707944 0.0559857654
45299730.0 -0.2066288769 0.0576022376 0.5098402742 -0.0062531165 0.5101129071 -0.0064670275 -0.2034109662 0.0583952597
50299700.0 -0.2023267833 0.0600012894 0.5144831192 -0.011922516 0.5141827891 -0.0117777394 -0.1987006908 0.0604219624
55299670.0 -0.1983032694 0.0619632341 0.5182179846 -0.0182098705 0.5177549414 -0.0179004508 -0.1942833754 0.0619160952
60299640.0 -0.1942886336 0.0634593546 0.5214965883 -0.0241411088 0.5214360091 -0.0237057992 -0.1902780889 0.062682974
65299610.0 -0.191108915 0.06471478 0.5241215393 -0.0305916534 0.5244144363 -0.0304407932 -0.1871302769 0.0638943885
70299580.0 -0.187816553 0.0661696417 0.5266535678 -0.0372101948 0.526303098 -0.0371170493 -0.1836721676 0.0647899573
75299550.0 -0.1850702365 0.0671169037 0.528236999 -0.0439607875 0.5283926093 -0.0439524045 -0.1807822813 0.065146322
80299520.0 -0.1825429796 0.0681825145 0.530714426 -0.050613985 0.5306383936 -0.0511284302 -0.1782650403 0.0660890237
85299490.0 -0.1801179412 0.068786935 0.5314513494 -0.0572404843 0.5318330853 -0.0574280288 -0.1759785484 0.066139521
90299460.0 -0.177796385 0.0698166084 0.5325810172 -0.0648161452 0.53315401 -0.0642561697 -0.1736727811 0.0668839201
95299430.0 -0.1755352938 0.0705743262 0.5337731525 -0.0715349607 0.5338573194 -0.07155456 -0.171369136 0.0673674828
100299400.0 -0.1737223569 0.0716133244 0.533689508 -0.0785543184 0.5338786622 -0.0787216408 -0.1692160438 0.0674364398
105299370.0 -0.1720291225 0.0722750203 0.5345260021 -0.0857764599 0.5347668651 -0.0852624954 -0.1673765423 0.0679817109
110299340.0 -0.1704379218 0.0731179178 0.5347104974 -0.0919302312 0.5347474575 -0.0920006433 -0.1662730031 0.0684553767
115299310.0 -0.1688196202 0.0739157856 0.5348121635 -0.0991999715 0.5348422718 -0.0990766581 -0.1648743435 0.069250451
120299280.0 -0.1673007269 0.0746731611 0.5343679314 -0.1057081037 0.5342355524 -0.1056608562 -0.163281936 0.0696740618
125299250.0 -0.1659565194 0.075588039 0.5341709109 -0.1120817358 0.53431391 -0.1121904014 -0.1625077493 0.0699496562
130299220.0 -0.1651340084 0.0764758695 0.5335909312 -0.1191961718 0.5334472787 -0.1191168009 -0.1612536224 0.0706906118
135299190.0 -0.1637608112 0.0777832771 0.5333725758 -0.1260184479 0.5329284989 -0.125508399 -0.160178397 0.0713790225
140299160.0 -0.1628463747 0.0789437723 0.5321970884 -0.1328965369 0.5322226859 -0.1320999772 -0.1590628928 0.0725778762
145299130.0 -0.1616626649 0.0799811103 0.5314882247 -0.1394101236 0.5308573441 -0.1389634768 -0.1581717476 0.0730046766
150299100.0 -0.1603657129 0.08122102 0.5301503798 -0.1456815382 0.5302456542 -0.1450922242 -0.1572696054 0.074074623
155299070.0 -0.1595934426 0.081953101 0.5290708314 -0.1527426602 0.5285938777 -0.1521375128 -0.1563664941 0.0751179224
160299040.0 -0.1584302158 0.0835289386 0.5271265077 -0.159071872 0.5270863941 -0.1584476884 -0.1559230238 0.07569591
165299010.0 -0.1574508282 0.0848912267 0.5259645163 -0.16550002 0.5263829105 -0.1650381347 -0.1544951475 0.0768922737
170298980.0 -0.1565801308 0.0859563297 0.5242583031 -0.1716437759 0.5247358987 -0.1713029979 -0.1537992875 0.0777409509
175298950.0 -0.155658694 0.0870319283 0.523358136 -0.1778194659 0.5226061138 -0.1777696705 -0.1532347584 0.0788372383
180298920.0 -0.1547659347 0.0883099684 0.5208565459 -0.1838078419 0.5210417262 -0.1838103343 -0.1523662724 0.0796857812
185298890.0 -0.1536310656 0.0895309197 0.5195132431 -0.190132963 0.5189765598 -0.1902101481 -0.1516414613 0.0808464115
190298860.0 -0.1525850954 0.0910243576 0.5171162243 -0.1968256307 0.5177051874 -0.1960918652 -0.1509538987 0.0816673516
195298830.0 -0.1517050297 0.0919706841 0.515055374 -0.2022676485 0.5155255034 -0.2027596736 -0.1500812819 0.0827283131
200298800.0 -0.1508270956 0.0934625577 0.5130847579 -0.2086986974 0.5134034893 -0.2087635314 -0.1495699295 0.084011603
205298770.0 -0.1498347974 0.0950523561 0.5107962908 -0.2148742668 0.510743051 -0.2147518096 -0.1486646523 0.0845691374
210298740.0 -0.1489589124 0.0964605298 0.5088437819 -0.2207022944 0.5086094404 -0.2203510646 -0.1477074543 0.0863153225
215298710.0 -0.1482516286 0.0977575277 0.5063570321 -0.2269500322 0.506457908 -0.2267459869 -0.1474989479 0.0872251374
220298680.0 -0.1470025162 0.0988956773 0.5035850111 -0.232647408 0.5037434234 -0.2325401506 -0.1470033429 0.0882788737
225298650.0 -0.1462568893 0.1002932635 0.5016038054 -0.2383024624 0.5017850393 -0.2383503072 -0.1464799581 0.0893815499
230298620.0 -0.1451408972 0.1020071221 0.4989658099 -0.2440832887 0.4993764134 -0.2442289041 -0.1452372297 0.0902707668
235298590.0 -0.1440115971 0.1038506078 0.4963654047 -0.2500313488 0.4963922397 -0.2497022781 -0.1444103708 0.0921697006
240298560.0 -0.1432272138 0.1050340246 0.49396877 -0.2560973992 0.4936560933 -0.2558732735 -0.1437394134 0.0932086109
245298530.0 -0.1421963142 0.1065044987 0.4910762172 -0.2617302287 0.4910374653 -0.2618611662 -0.1431749175 0.094142368
250298500.0 -0.1408010224 0.107992349 0.4874516261 -0.266875048 0.4876787952 -0.2666275833 -0.1421894155 0.0957137522
255298470.0 -0.1400750274 0.1089966862 0.4845774155 -0.2724397131 0.4851566367 -0.2725509829 -0.1411465923 0.0970323213
260298440.0 -0.1391813826 0.1105246754 0.4823531559 -0.278631345 0.4823521796 -0.2780675921 -0.1403562786 0.0980957859
265298410.0 -0.1373859143 0.112302259 0.4786916403 -0.2837695202 0.479274713 -0.283508435 -0.1395144491 0.0998056652
270298380.0 -0.1366277634 0.1135727607 0.4760216631 -0.2887473669 0.4764364483 -0.2891055204 -0.1389439295 0.1007707071
275298350.0 -0.1351221532 0.1151023431 0.4732547177 -0.2943797171 0.4729865599 -0.2946910724 -0.1375723309 0.102056498
280298320.0 -0.1339699197 0.1169141078 0.4701232491 -0.3002408473 0.4700227154 -0.2996686885 -0.1367798278 0.103143187
285298290.0 -0.1327755301 0.1181042868 0.4665462651 -0.3050322851 0.4664487038 -0.3052500244 -0.135822728 0.1047091045
290298260.0 -0.1316572527 0.1196828604 0.4635014074 -0.3105217124 0.4630271292 -0.3106075933 -0.1348840605 0.1060682877
295298230.0 -0.1300371884 0.1208734697 0.4598165336 -0.3158461694 0.459885949 -0.3153788482 -0.1336536583 0.1071493755
300298200.0 -0.1293477989 0.1224284463 0.4565548859 -0.3210426591 0.4566760816 -0.3212255383 -0.1331563714 0.1084370573
305298170.0 -0.1276296151 0.1238114112 0.4527839708 -0.3266270676 0.4530871547 -0.3262141977 -0.1315770087 0.1093275484
310298140.0 -0.1265376388 0.1252575655 0.4495895664 -0.331555825 0.449730036 -0.3315458391 -0.1306755079 0.110663928
315298110.0 -0.1251398137 0.1262591677 0.4457188282 -0.3368035027 0.4460779561 -0.3367421101 -0.1298881953 0.1118600661
320298080.0 -0.1238315622 0.1276079728 0.4415483477 -0.3418923929 0.4420410157 -0.3418931581 -0.1289114874 0.1131821756
325298050.0 -0.1225687964 0.1289863731 0.4379284584 -0.3470338364 0.4383047978 -0.3467921003 -0.1282485513 0.1139630478
330298020.0 -0.1215331897 0.1299936152 0.4338178078 -0.3515660584 0.4343297479 -0.3517129551 -0.1276690929 0.1152323467
335297990.0 -0.1202178164 0.1314650161 0.4299779591 -0.3566256555 0.4298810967 -0.3567580214 -0.1268264753 0.1171269901
340297960.0 -0.1192978294 0.1331348737 0.4258752019 -0.3615249453 0.4256399668 -0.3616702553 -0.1252937754 0.1183673098
345297930.0 -0.1180299256 0.1349698361 0.4218277901 -0.3667910332 0.4215566891 -0.366274009 -0.1247667833 0.119289049
350297900.0 -0.116489371 0.1357644986 0.4169838356 -0.3710053706 0.4173385983 -0.3711111351 -0.1237100633 0.1212381344
355297870.0 -0.1150403717 0.1379096592 0.4134010379 -0.3755399624 0.4136433982 -0.3752328604 -0.1227404387 0.1220223822
360297840.0 -0.1138891856 0.1388469037 0.4099851185 -0.3802412206 0.4100837138 -0.3798490215 -0.1215686122 0.1236739204
365297810.0 -0.1126772533 0.1403388292 0.4053902559 -0.3846916018 0.4054665806 -0.3844764264 -0.1205398286 0.1246683034
370297780.0 -0.1104722884 0.1415338489 0.4000828414 -0.3885963439 0.4014784819 -0.3885305497 -0.1196072501 0.1261523061
375297750.0 -0.1091388086 0.1427001546 0.3965080775 -0.3928938067 0.3970227878 -0.3931953286 -0.1181244908 0.1270975213
380297720.0 -0.1078554714 0.1443130852 0.3921486441 -0.3975136752 0.3923286993 -0.396899818 -0.1173149754 0.1281577011
385297690.0 -0.106748524 0.1457096987 0.3877228906 -0.4019968315 0.3875925172 -0.4016128583 -0.1158150121 0.129771617
390297660.0 -0.1049710902 0.1472779331 0.3835386051 -0.4065250278 0.3833829482 -0.4056133766 -0.1149100668 0.130708003
395297630.0 -0.1031240405 0.1483050283 0.3790299139 -0.4105681168 0.3789165072 -0.4105084308 -0.1130888308 0.1324001733
400297600.0 -0.1014358624 0.1494623875 0.3741590633 -0.4146028145 0.3745531126 -0.4146602522 -0.1122061939 0.1335783281
405297570.0 -0.1005407162 0.150739963 0.369785105 -0.4183334242 0.3701295635 -0.4184596727 -0.1110954137 0.1347230834
410297540.0 -0.0985773981 0.1519923794 0.3652430513 -0.4226418442 0.3656719223 -0.4225507907 -0.1097650283 0.1361850245
415297510.0 -0.0965350846 0.1529009989 0.3604016301 -0.426748701 0.3610869724 -0.4265265927 -0.1085633994 0.1373236541
420297480.0 -0.0950728123 0.1544131445 0.3559557701 -0.4304616864 0.3560944613 -0.4305356458 -0.107594348 0.1380807828
425297450.0 -0.093388081 0.1553474694 0.3510461577 -0.434288419 0.3515062975 -0.4346266178 -0.1064695418 0.1400254847
430297420.0 -0.0920726027 0.1564373822 0.3459954659 -0.4377834626 0.3463543579 -0.4376025191 -0.1049064368 0.1408111812
435297390.0 -0.0903364052 0.1578762117 0.3409189131 -0.4420994948 0.341259396 -0.4421915834 -0.103076687 0.1420194
440297360.0 -0.0882997514 0.1590569817 0.336453493 -0.4454968219 0.3368057944 -0.4453164384 -0.1020252056 0.1428071152
445297330.0 -0.0868731606 0.159713609 0.3322811554 -0.4491292136 0.3320312763 -0.4486686278 -0.1005589489 0.1436846993
450297300.0 -0.0849779289 0.1610596535 0.3270235742 -0.4529956133 0.326750483 -0.4531087598 -0.0991524047 0.1451865265
455297270.0 -0.0832284442 0.1622921339 0.3214536102 -0.4563886951 0.3221401226 -0.4562851383 -0.0980459247 0.1463013739
460297240.0 -0.0818480986 0.1631694919 0.3165869344 -0.4599339852 0.3173327337 -0.45970322 -0.0967144271 0.1475002644
465297210.0 -0.0795390708 0.164386109 0.3118796063 -0.4635492721 0.3123082376 -0.4637888637 -0.0951020443 0.1483188489
470297180.0 -0.0777527216 0.1650007813 0.3065578311 -0.4664723214 0.3071482132 -0.4667190632 -0.0938800117 0.1496091286
475297150.0 -0.0761382624 0.1661696274 0.3014876532 -0.4696125153 0.3018053331 -0.4694362879 -0.0921303019 0.1500754498
480297120.0 -0.0739837587 0.1674084945 0.2963250731 -0.473272397 0.2963999876 -0.4734265825 -0.0904741434 0.1516370524
485297090.0 -0.0724258138 0.1683579225 0.2913835697 -0.4766683144 0.2916828762 -0.4761340581 -0.0893325451 0.1523709983
490297060.0 -0.0708579558 0.169265588 0.2862090768 -0.47951377 0.2864466424 -0.4793146133 -0.0878579866 0.153703283
495297030.0 -0.0688436952 0.1701938786 0.2810642045 -0.4824040305 0.2810524007 -0.482262796 -0.0863049716 0.1545582908
500297000.0 -0.0668038138 0.1709111886 0.2754256067 -0.4853290727 0.2755916856 -0.4850817504 -0.0847088234 0.156538989
505296970.0 -0.0647740807 0.1716943934 0.270424875 -0.4883188639 0.2704125086 -0.4885572735 -0.0834220162 0.1567264437
510296940.0 -0.0631701495 0.1726986209 0.2649869918 -0.4912096643 0.2649433044 -0.4912804248 -0.0820831399 0.1577823022
515296910.0 -0.0611114509 0.1737382275 0.2593191823 -0.4945096822 0.2593753699 -0.4939807345 -0.0804250062 0.1587775911
520296880.0 -0.0593460541 0.1744601279 0.2542042722 -0.4972592442 0.2540736401 -0.4969822443 -0.0788957051 0.1594970176
525296850.0 -0.0571807281 0.1745512898 0.2483001069 -0.4996696715 0.2488251887 -0.4997631144 -0.0775128011 0.1602467923
530296820.0 -0.0553650606 0.1759480616 0.2431607794 -0.5024195967 0.2434515041 -0.5025519519 -0.0758663825 0.1614333594
535296790.0 -0.0538702995 0.1765321229 0.2377235353 -0.504654199 0.2380136086 -0.5045471875 -0.0744178398 0.1618601661
540296760.0 -0.0520389181 0.1775399188 0.2323389916 -0.5074075393 0.2320493648 -0.507788512 -0.0731482493 0.1632753321
545296730.0 -0.0498415798 0.1778841963 0.226291126 -0.5096729203 0.2264452704 -0.509707051 -0.0714181383 0.1635746703
550296700.0 -0.0475086716 0.1789042936 0.2209437334 -0.5123875068 0.2212862895 -0.5123946698 -0.0700221623 0.1646752398
555296670.0 -0.0460472202 0.1792675159 0.2158445733 -0.5145680699 0.2157498355 -0.5143426902 -0.0683591062 0.1657237792
560296640.0 -0.0433554771 0.1803922744 0.209821905 -0.5172420909 0.2100268731 -0.5171473755 -0.0665618333 0.1666138779
565296610.0 -0.0420698623 0.1809081665 0.2038845719 -0.519404515 0.2045966834 -0.5188624392 -0.065193259 0.1666522393
570296580.0 -0.0401041642 0.1813276469 0.1986810035 -0.5218127193 0.1982926032 -0.5213768838 -0.063241135 0.1682056248
575296550.0 -0.0381634255 0.182048552 0.1930286463 -0.523946642 0.1930389429 -0.5236447392 -0.0617521697 0.1687640659
580296520.0 -0.0359865032 0.1825563784 0.1874586195 -0.5261601741 0.1872463664 -0.5255678002 -0.0598670913 0.1694050003
585296490.0 -0.0339674309 0.1827511373 0.1817313525 -0.5272855875 0.1820062692 -0.5274595607 -0.0585082459 0.1703017293
590296460.0 -0.0316047792 0.1833750821 0.1759277203 -0.5287153297 0.1760264512 -0.529211289 -0.0571192511 0.1707856065
595296430.0 -0.0299274029 0.1839677143 0.1698232983 -0.5311268198 0.1699822237 -0.5313402386 -0.0552082812 0.1713833158
600296400.0 -0.0280952824 0.1844221303 0.1645775032 -0.5330880858 0.1645078048 -0.5328753027 -0.0537966027 0.1719117176
605296370.0 -0.0260671873 0.1849132976 0.1584629808 -0.5345728417 0.1589023651 -0.5345879432 -0.0516616719 0.1730290654
610296340.0 -0.0235886387 0.185264021 0.1525098746 -0.5360750811 0.1528775989 -0.5363983327 -0.0502257681 0.1737334898
615296310.0 -0.0216495318 0.1855883123 0.1466650264 -0.5378316971 0.1469979834 -0.5382974858 -0.0482268531 0.1740888447
620296280.0 -0.0195390132 0.1858119708 0.1412485371 -0.539324593 0.1410711735 -0.5391580892 -0.0468292521 0.174992244
625296250.0 -0.0178085502 0.1859398884 0.1355258609 -0.5409782028 0.1354389204 -0.5413027148 -0.0445880516 0.175378302
630296220.0 -0.0149278665 0.1866543823 0.1289359679 -0.5424955649 0.1290707871 -0.5422334804 -0.0433950232 0.1763021602
635296190.0 -0.0138753692 0.18699107 0.1232459851 -0.5437617308 0.1233445374 -0.5436462473 -0.0414890544 0.1765548626
640296160.0 -0.0116056304 0.1873422574 0.1175658304 -0.5445491206 0.1178329873 -0.5450686264 -0.039933502 0.1772354748
645296130.0 -0.0095024489 0.1877200867 0.1113444732 -0.5461460753 0.1118793555 -0.5461913013 -0.0379518744 0.1780154711
650296100.0 -0.0075147301 0.1877312966 0.1058128515 -0.5470953555 0.1058807697 -0.5475393771 -0.0360118004 0.1777764257
655296070.0 -0.00544265 0.1879871925 0.0998281869 -0.5484179623 0.1003128316 -0.5484774449 -0.0344541416 0.1786628533
660296040.0 -0.0035338098 0.1877504223 0.0939457975 -0.5492117207 0.0940085692 -0.5494638526 -0.0325062329 0.1792608705
665296010.0 -0.0008839433 0.1877847572 0.0874410647 -0.549949948 0.0881063272 -0.5502238342 -0.030975437 0.1801335646
670295980.0 0.0004329397 0.1884730534 0.0820096522 -0.5509221158 0.0822005331 -0.5507548529 -0.0297133437 0.1803528993
675295950.0 0.0029948683 0.1886153712 0.0759095206 -0.5519509362 0.0762555764 -0.5514523625 -0.0279209909 0.1805218667
680295920.0 0.0047102688 0.1885788001 0.0699174819 -0.5524102667 0.069872666 -0.5530196303 -0.0262693457 0.1817222632
685295890.0 0.006855174 0.1891738279 0.063771622 -0.5532594472 0.064030223 -0.5532560173 -0.0244799857 0.1815778439
690295860.0 0.0092818609 0.1888605216 0.0578383497 -0.5537088785 0.058260221 -0.5544047699 -0.0227909468 0.1827821934
695295830.0 0.0109267318 0.1888489622 0.0525794335 -0.5541697723 0.0519536284 -0.5544482879 -0.020534283 0.1826995644
700295800.0 0.0132278407 0.1885663144 0.0458739155 -0.554792223 0.0460638459 -0.5546049029 -0.0194161884 0.1832767857
705295770.0 0.015048515 0.189045921 0.0399014927 -0.5551691893 0.0402128308 -0.5556476191 -0.0173093144 0.1836503351
710295740.0 0.0175312826 0.1891099295 0.0339897146 -0.5563878631 0.0342506138 -0.5559831602 -0.0153356254 0.1832070839
715295710.0 0.0191145598 0.1885899322 0.0291114144 -0.5558136303 0.0280322803 -0.5561710705 -0.0133419119 0.1837507337
720295680.0 0.021276462 0.1886319651 0.0219976536 -0.5565529607 0.0224261398 -0.5565419532 -0.0119546157 0.1844859653
725295650.0 0.0235171039 0.1886665045 0.0157637861 -0.556520305 0.0165023708 -0.556869868 -0.0103976 0.1847960417
730295620.0 0.0256589785 0.1887874344 0.0097087532 -0.556553425 0.0102807252 -0.5568171073 -0.008792361 0.184529692
735295590.0 0.0276874962 0.1885413621 0.004287743 -0.5569333942 0.0038227532 -0.556827312 -0.0070440015 0.1848485033
740295560.0 0.0294595699 0.1882263401 -0.0017309009 -0.5568440111 -0.0018498159 -0.5567358868 -0.0044013769 0.1854308586
745295530.0 0.0316895078 0.1881656101 -0.008078247 -0.5563315088 -0.0079085901 -0.5564784785 -0.0028594728 0.184897545
750295500.0 0.0341507918 0.188210115 -0.0140862759 -0.5565593725 -0.0135594278 -0.556898483 -0.001196801 0.1855101663
755295470.0 0.036141656 0.187651937 -0.0200355267 -0.5565751003 -0.0195067162 -0.5565019142 0.0009586032 0.1852046452
760295440.0 0.0378357587 0.1874439439 -0.0259309092 -0.5560538902 -0.0256065368 -0.5563604569 0.0025872664 0.1853585626
765295410.0 0.0399244394 0.1874502041 -0.0317845418 -0.5559628794 -0.0322314978 -0.5562055615 0.0046485408 0.1860159586
770295380.0 0.0418525206 0.1866146351 -0.0381431879 -0.5552594137 -0.0378836919 -0.5555509524 0.0058971394 0.1856854061
775295350.0 0.043907516 0.1862315967 -0.0438011898 -0.5542477078 -0.0431259817 -0.554797563 0.0073503377 0.1860601685
780295320.0 0.0460685282 0.1861253805 -0.0499681044 -0.5539613592 -0.0491194339 -0.5541566523 0.0092914721 0.1858893698
785295290.0 0.0478515458 0.1853038028 -0.0557439361 -0.5528391949 -0.0556814708 -0.5537365556 0.0119365579 0.186571071
790295260.0 0.0507032033 0.1855215842 -0.0613772862 -0.5528935506 -0.0606310864 -0.5527945961 0.0133214402 0.1864556094
795295230.0 0.0522696145 0.1847269681 -0.0678664451 -0.5521777944 -0.0672688908 -0.5524367067 0.0156267291 0.1866049155
800295200.0 0.0540907517 0.1845512396 -0.0738795157 -0.5510006269 -0.0732410606 -0.5510842197 0.0174222765 0.1863141353
805295170.0 0.0562460244 0.1839743547 -0.0798193062 -0.550623018 -0.0793908593 -0.550866741 0.0189428222 0.1864244472
810295140.0 0.0581219479 0.1830725619 -0.0852518816 -0.549105312 -0.0852635483 -0.549754572 0.0211506956 0.1863791345
815295110.0 0.0601624237 0.182551208 -0.0916721494 -0.5482754244 -0.0905899885 -0.548778835 0.0227022151 0.1863694603
820295080.0 0.0621157453 0.1827281947 -0.0969707067 -0.547349649 -0.0969561436 -0.5474915683 0.0246983762 0.1862800191
825295050.0 0.0648184839 0.1817254205 -0.1026799171 -0.5459409246 -0.102629174 -0.5463660775 0.0266622104 0.1863222999
830295020.0 0.0663014409 0.18148532 -0.1092764613 -0.5452331918 -0.1089168523 -0.5452558116 0.0288564817 0.1863103133
