!Created with skrf (http://scikit-rf.org).
# Hz S RI R 50.0 
!freq ReS11 ImS11 ReS21 ImS21 ReS12 ImS12 ReS22 ImS22
300000.0 -0.0996514169 -0.0632179476 0.6302156285 0.0587824057 0.6240646772 0.059870851 -0.1013494134 -0.0688573136
5299970.0 -0.1022945086 0.0133274122 0.6307406676 0.0101359785 0.6305868629 0.0102172832 -0.1010177427 0.0135049542
10299940.0 -0.0974364406 0.0295804379 0.6341304801 0.0154046493 0.6342334605 0.0156713518 -0.0961346309 0.0304198915
15299910.0 -0.0904030014 0.0427059214 0.6406824603 0.0201676947 0.6411404737 0.0205065736 -0.089084519 0.0435075298
20299880.0 -0.0819485162 0.0530202226 0.6488225053 0.0243198098 0.6484867256 0.0243816268 -0.0802223478 0.0546157567
25299850.0 -0.072311642 0.0620985231 0.6572554309 0.0253372701 0.6578449791 0.0253863597 -0.0698906518 0.0631731435
30299820.0 -0.0623169537 0.0690330455 0.6672809321 0.0245597976 0.6676114732 0.0246036536 -0.0602445319 0.0700131958
35299790.0 -0.0526281444 0.0738233701 0.6770891189 0.0216096101 0.6774516886 0.021443762 -0.0500915685 0.07490133
40299760.0 -0.0435098468 0.0771652524 0.6863703256 0.0174915179 0.686466783 0.0175959597 -0.0405711036 0.0774467586
45299730.0 -0.033987843 0.079439463 0.6948273783 0.0122272193 0.6958327966 0.0124611647 -0.0314287525 0.0797591873
50299700.0 -0.0256653181 0.0804480661 0.7041813484 0.0053833552 0.7036982502 0.0055714184 -0.0227352994 0.0805192647
55299670.0 -0.0175900017 0.0804498814 0.7110800355 -0.0032541307 0.7110791424 -0.0027609212 -0.0145870584 0.0806317497
60299640.0 -0.0099522875 0.0800113997 0.7174331444 -0.0115910194 0.7177445026 -0.0111110525 -0.0078025846 0.0794564813
65299610.0 -0.0038012056 0.0788503162 0.7232767359 -0.0198704462 0.7236236962 -0.0196314241 -0.0009555315 0.0785552395
70299580.0 0.0028501112 0.077770174 0.7287943212 -0.0294645777 0.7287938068 -0.0290477734 0.0049642715 0.0765299269
75299550.0 0.0083152691 0.0758548978 0.732781117 -0.0384867499 0.7325462153 -0.0385361455 0.0101765823 0.0747661599
80299520.0 0.0132133949 0.0735883451 0.7371227564 -0.0488813183 0.7375080021 -0.0489043968 0.0152574125 0.0727309069
85299490.0 0.0178508101 0.0715020189 0.7404277903 -0.057722129 0.7403938351 -0.0580767828 0.0195819939 0.0700833613
90299460.0 0.0218785361 0.068998651 0.7425715974 -0.0688348892 0.743591335 -0.0683909864 0.0236513244 0.0679906112
95299430.0 0.0260573009 0.0665649525 0.7453481599 -0.0786432395 0.7457801052 -0.0791637109 0.027827962 0.0655843588
100299400.0 0.02912622 0.0646899257 0.7466839661 -0.088607884 0.7476704869 -0.0891847074 0.0311975275 0.0628351721
105299370.0 0.0324933824 0.0621132967 0.7485651388 -0.0991505843 0.7492226595 -0.0985621685 0.0344456258 0.0609344298
110299340.0 0.0349717964 0.0597178991 0.7500801363 -0.1089792894 0.7500855011 -0.1084191363 0.0361519449 0.0581158358
115299310.0 0.0375007536 0.057382554 0.7508805565 -0.1193507593 0.7508569194 -0.1187856868 0.0390549232 0.0556978583
120299280.0 0.0399302214 0.0546785765 0.7510515593 -0.1292281188 0.7512997756 -0.1293800212 0.0413579582 0.0533691085
125299250.0 0.0419752396 0.052039474 0.7520347599 -0.1389838183 0.7519668143 -0.1389061869 0.0430306094 0.0505014225
130299220.0 0.0434206884 0.0502709973 0.7514882508 -0.1491607609 0.7517450519 -0.1490885802 0.0450212681 0.0484309204
135299190.0 0.0451472886 0.0482065894 0.7511998369 -0.1586742602 0.7512437337 -0.1583747985 0.0464561248 0.0466071734
140299160.0 0.0466422556 0.0462993008 0.7507149647 -0.1688614171 0.7512202394 -0.1685249034 0.0478814062 0.0446692458
145299130.0 0.0480034747 0.043730191 0.7501154975 -0.1782693734 0.7498582834 -0.1778763817 0.0492201885 0.0424178448
150299100.0 0.0494471188 0.0421648101 0.7485463622 -0.1867827832 0.7490231183 -0.1876916189 0.0507607184 0.0405447636
155299070.0 0.0501690925 0.0396979682 0.7482020167 -0.1983733643 0.7474898322 -0.1976361431 0.0515554494 0.0385775061
160299040.0 0.0518129066 0.038245126 0.746533843 -0.2070721113 0.7455590155 -0.2073037479 0.0515917908 0.0363694048
165299010.0 0.0523760407 0.0364565359 0.7446903038 -0.2170257427 0.7446571751 -0.2168792749 0.0533476438 0.0353312479
170298980.0 0.0529943561 0.0342439124 0.7425499545 -0.2264162686 0.7431395076 -0.2258087453 0.0538790357 0.0334956729
175298950.0 0.0535188939 0.0324660523 0.7413023783 -0.2353038511 0.7411040701 -0.2352102297 0.0544092546 0.031359737
180298920.0 0.0542421778 0.0307823844 0.73899491 -0.244641774 0.7390747983 -0.2436509931 0.055250766 0.0298610252
185298890.0 0.055395682 0.0290528581 0.7365759428 -0.2538491971 0.7366552119 -0.2535524354 0.0554151793 0.028512807
190298860.0 0.0553336736 0.0275545675 0.7344162574 -0.2633283181 0.7347444191 -0.2627062723 0.0559278632 0.0261234245
195298830.0 0.0559112549 0.0252644163 0.731921675 -0.2718181138 0.7323616882 -0.2716425261 0.0570079297 0.0248275082
200298800.0 0.0563688234 0.0243886988 0.7291945316 -0.2811206143 0.729321809 -0.280612747 0.0566814309 0.0238280994
205298770.0 0.0567050469 0.0228949471 0.7259745175 -0.289894119 0.7261311991 -0.2894424161 0.0573359868 0.0211943812
210298740.0 0.0571497076 0.021011855 0.7234274205 -0.2980532997 0.7236879539 -0.2979944336 0.0581339272 0.0213686941
215298710.0 0.0567013597 0.019855123 0.7203425591 -0.307116496 0.720427294 -0.306770863 0.0576841888 0.0195349065
220298680.0 0.0575258509 0.0179075183 0.7170764201 -0.3154235146 0.7169714516 -0.3150255158 0.0574270666 0.0177820201
225298650.0 0.0579127303 0.0167871692 0.7138019149 -0.3250764838 0.7144378344 -0.3242697081 0.0575011813 0.0163517085
230298620.0 0.0579706292 0.0157880246 0.710456985 -0.3323961942 0.7114411086 -0.3328327398 0.0576045256 0.015047842
235298590.0 0.0578278227 0.0148374578 0.7070404049 -0.3413066734 0.70742479 -0.3404052533 0.0578786091 0.0135488266
240298560.0 0.0582639784 0.0135106156 0.7040376335 -0.3500833466 0.7038759625 -0.3494730299 0.0576540918 0.0129747073
245298530.0 0.0580266478 0.0120105415 0.7002356889 -0.3581696481 0.6998410994 -0.3579148677 0.0586391481 0.0108573744
250298500.0 0.058601715 0.0109467372 0.6953934533 -0.3665275989 0.6951763699 -0.3655685021 0.0584531717 0.0104432898
255298470.0 0.0584167678 0.0092057502 0.6915653004 -0.3740200521 0.6918943446 -0.3739076917 0.0584740637 0.0094185862
260298440.0 0.0580764701 0.0081035648 0.6877618382 -0.3829001435 0.6877191319 -0.3819183416 0.0589129996 0.0077483109
265298410.0 0.0589045295 0.0076116421 0.683827289 -0.3910462812 0.6841162412 -0.3900400977 0.0584676711 0.0071592101
270298380.0 0.0586164381 0.0062241449 0.680199165 -0.3981452989 0.6800705834 -0.3981561234 0.0582391649 0.0061413053
275298350.0 0.0588953863 0.0053664355 0.6754855074 -0.4067321264 0.6759158539 -0.406357085 0.0588292496 0.0044704224
280298320.0 0.0587349223 0.0043859789 0.6713784481 -0.4140899548 0.6712481536 -0.4145052457 0.058740961 0.0035987237
285298290.0 0.0587319925 0.0030646892 0.6667518269 -0.4221211428 0.6665052872 -0.4220658406 0.0586930188 0.00254805
290298260.0 0.0592152909 0.0022928207 0.6621968722 -0.4292365104 0.6624701177 -0.4299219448 0.0588276881 0.0022127607
295298230.0 0.0590458965 0.0011196881 0.6581898375 -0.4374032761 0.6577479024 -0.4375041921 0.0593737477 0.0008769309
300298200.0 0.0583673682 -0.0002207698 0.6532256881 -0.4450458771 0.6531019809 -0.4454842135 0.0589860151 -0.0003098788
305298170.0 0.0588860031 -0.0015004271 0.6475471244 -0.4530654793 0.6485172488 -0.4524338581 0.0593532122 -0.0017616147
310298140.0 0.0585220946 -0.0023264732 0.6435796726 -0.460718888 0.643751067 -0.4605342958 0.0592480932 -0.0026365844
315298110.0 0.058172442 -0.0038345125 0.6383142313 -0.4684336634 0.63820761 -0.4686089171 0.0587433022 -0.0041369246
320298080.0 0.0584881132 -0.0046965322 0.6322208673 -0.4764256239 0.633024069 -0.4761134183 0.0586292719 -0.0051942888
325298050.0 0.057925351 -0.0059626892 0.627387612 -0.4838271276 0.6277166469 -0.4831878143 0.0578252684 -0.0060363613
330298020.0 0.0573312348 -0.0071453346 0.6214168745 -0.4906163775 0.6219540004 -0.4907366163 0.0570964142 -0.0073534724
335297990.0 0.0570041902 -0.0084666654 0.6163781715 -0.4977351756 0.6156214584 -0.4976772411 0.056406593 -0.007553469
340297960.0 0.0561966113 -0.008856295 0.6100656107 -0.5045417881 0.6096127653 -0.5046538231 0.0568961853 -0.0084088788
345297930.0 0.0558429161 -0.0089250064 0.6045050609 -0.5120378614 0.6045057617 -0.5122116279 0.05644176 -0.0096638064
350297900.0 0.0553377973 -0.0106107089 0.5979072896 -0.5185572559 0.5983280082 -0.5182161173 0.0551613238 -0.0095688132
355297870.0 0.0547702903 -0.0104558381 0.5924547151 -0.524900014 0.5931300563 -0.5247223498 0.0551743824 -0.0102551273
360297840.0 0.0547895421 -0.0112543925 0.5878058752 -0.5313851928 0.5881344309 -0.5312378178 0.054688246 -0.0109295932
365297810.0 0.0541139139 -0.0117529051 0.5811908621 -0.5380477366 0.5817002633 -0.5382539441 0.054674693 -0.0115179927
370297780.0 0.0542449211 -0.0130685996 0.5744822042 -0.5447621057 0.5752565173 -0.544106946 0.0541480068 -0.0122468783
375297750.0 0.0540039347 -0.0134823734 0.569093761 -0.5508787913 0.5700130531 -0.5511693622 0.0541315918 -0.0133398798
380297720.0 0.0536162029 -0.0142665527 0.5631979483 -0.5572684493 0.5632109336 -0.5565217528 0.0531351711 -0.0142295957
385297690.0 0.0529472585 -0.015117871 0.5563905261 -0.5636730259 0.5567617359 -0.5631178524 0.0532018349 -0.0143522648
390297660.0 0.0529224634 -0.0153265475 0.5506571992 -0.5701888372 0.5504377867 -0.5692530292 0.0526793728 -0.0152467711
395297630.0 0.0524415258 -0.0161020792 0.5441217251 -0.5757683536 0.5447450107 -0.5759740259 0.053186209 -0.01610476
400297600.0 0.0517787374 -0.016714011 0.5373611983 -0.5828277055 0.538183159 -0.58202658 0.0525476155 -0.0161289641
405297570.0 0.0512770443 -0.0176090967 0.5313545198 -0.5876982822 0.5315920113 -0.5879813861 0.0518162063 -0.0171725073
410297540.0 0.0515371024 -0.0182452872 0.5249082365 -0.5938703722 0.5256573343 -0.5941380399 0.0514448062 -0.0171444133
415297510.0 0.051306311 -0.0187122598 0.5183590724 -0.5998318919 0.5191352181 -0.5995459693 0.0513818795 -0.0182193022
420297480.0 0.0508174074 -0.0193825361 0.511741002 -0.6062530074 0.5116890241 -0.6059075081 0.0507474912 -0.0190242652
425297450.0 0.0502336068 -0.0205029094 0.5056591253 -0.6116349953 0.5055741352 -0.6111362305 0.0499167033 -0.0189789703
430297420.0 0.0498839668 -0.0209020921 0.4981452651 -0.6158717596 0.4983531064 -0.6166788076 0.0496281825 -0.0200542129
435297390.0 0.0495340181 -0.0213827119 0.4914859902 -0.6221961864 0.4915307321 -0.6222595173 0.0504400408 -0.0204145131
440297360.0 0.0495274702 -0.0217210473 0.4844647681 -0.627359931 0.4844892775 -0.6275099895 0.0492759631 -0.0215145527
445297330.0 0.0486200261 -0.0229129696 0.4779320885 -0.6327374704 0.478244946 -0.632037704 0.0493747363 -0.0222314058
450297300.0 0.0487340409 -0.0231215705 0.4708552015 -0.6383833716 0.4707818083 -0.6387040003 0.0487082069 -0.0229113281
455297270.0 0.0480867499 -0.0236616582 0.4635825201 -0.6436281718 0.4641737144 -0.6433681329 0.048617258 -0.0229920478
460297240.0 0.0476182119 -0.0240985855 0.4566042153 -0.6486703755 0.4568311781 -0.6485581516 0.0478320751 -0.0235288336
465297210.0 0.0474694414 -0.0248817433 0.4499281649 -0.6534259074 0.4497907142 -0.6541344969 0.0479049969 -0.0243420067
470297180.0 0.046998318 -0.0254590233 0.4419347202 -0.6586192427 0.4425523891 -0.6585607854 0.0470820628 -0.0245290711
475297150.0 0.0468380465 -0.0262721294 0.4348775683 -0.6629194946 0.4353058558 -0.663290407 0.0472099799 -0.0256142432
480297120.0 0.046142462 -0.0260323685 0.4275264502 -0.668370454 0.427851602 -0.6684979013 0.0468141565 -0.0253842574
485297090.0 0.0455312229 -0.0268115592 0.4201288983 -0.6727141575 0.4207812521 -0.6725429699 0.0462487547 -0.0262799417
490297060.0 0.0447304016 -0.0275652539 0.4132871526 -0.6780305468 0.4135787511 -0.6768986168 0.0458540003 -0.0260761737
495297030.0 0.0445827832 -0.0277624248 0.4055236802 -0.6819675221 0.4062540257 -0.6819547283 0.0450336086 -0.027229784
500297000.0 0.0441961602 -0.0286740899 0.3975507074 -0.6860542015 0.3974382193 -0.6859812032 0.0446015032 -0.0274083813
505296970.0 0.0439919091 -0.0289208947 0.3902524711 -0.6906177675 0.3902792834 -0.6908517882 0.0443419042 -0.0277251779
510296940.0 0.0433249513 -0.0291885664 0.3827564879 -0.6954093487 0.383268171 -0.6950519948 0.0441585595 -0.0279798824
515296910.0 0.0428264648 -0.0295665852 0.3747176138 -0.6997333642 0.3752146948 -0.6989616982 0.043725157 -0.0285054261
520296880.0 0.0422772496 -0.0303272769 0.3678104093 -0.7041303961 0.3675801223 -0.7028217964 0.042850679 -0.0293803231
525296850.0 0.042234733 -0.0313540223 0.3595596051 -0.7070378341 0.3600521635 -0.7070135026 0.0424832195 -0.0299892087
530296820.0 0.041612094 -0.0311640903 0.3514944836 -0.711323837 0.3523045336 -0.7112859528 0.0422389268 -0.0299892937
535296790.0 0.0406671751 -0.0318295699 0.3443607005 -0.7154556114 0.344882532 -0.7147336598 0.0418833726 -0.0311180347
540296760.0 0.0403804978 -0.0317833657 0.3367638575 -0.7190406266 0.3361857893 -0.7191285475 0.0407198833 -0.0306960567
545296730.0 0.0398129067 -0.0325360261 0.3281169966 -0.7224471265 0.3284231565 -0.7225732779 0.0403285047 -0.0315371566
550296700.0 0.0400365643 -0.0327812715 0.3196933953 -0.7260709849 0.3206173297 -0.726514179 0.0398345239 -0.0319011341
555296670.0 0.0389106935 -0.0332967239 0.3127914323 -0.7298896889 0.3128098363 -0.7296636342 0.0397205606 -0.0319054691
560296640.0 0.038637273 -0.0329769938 0.3044144723 -0.7329202697 0.3043670512 -0.733328508 0.0390731393 -0.0328375068
565296610.0 0.0375913097 -0.0339915335 0.2962067678 -0.7367529919 0.2969159047 -0.7363103573 0.0380528756 -0.0334405111
570296580.0 0.0371111085 -0.0339566955 0.2882555796 -0.7399847777 0.2878778433 -0.7395495957 0.0377946751 -0.032866835
575296550.0 0.0363345063 -0.0342167087 0.2805924717 -0.7428717196 0.2805676561 -0.7429799267 0.0380242064 -0.0339969242
580296520.0 0.0361088939 -0.034718264 0.2721019654 -0.746040855 0.2724683343 -0.7457852929 0.0369658866 -0.0341751599
585296490.0 0.0355487634 -0.0358237974 0.2640141972 -0.7485597533 0.2644287075 -0.7488836174 0.0363506347 -0.0342966217
590296460.0 0.0353811802 -0.0354698417 0.256107763 -0.7508437755 0.2560199725 -0.7514911438 0.0351489834 -0.0345751312
595296430.0 0.0351729646 -0.0357075308 0.2471798698 -0.7547656916 0.2470121313 -0.7542993604 0.0353981777 -0.0355686121
600296400.0 0.0340181506 -0.0363325548 0.2391462907 -0.7571896093 0.2396366288 -0.756438466 0.0342873723 -0.0355755007
605296370.0 0.0334454087 -0.0365912889 0.2309294843 -0.7591184067 0.2313611039 -0.759141899 0.0341634098 -0.0357286929
610296340.0 0.0332755267 -0.0370157467 0.2226147545 -0.7618087902 0.2230340211 -0.7618949839 0.0340364778 -0.0361634186
615296310.0 0.032736856 -0.0374837605 0.2140444369 -0.7637609319 0.2141631062 -0.7647173717 0.033598074 -0.0361410967
620296280.0 0.0319715657 -0.0377659509 0.2063210871 -0.7663628495 0.205846444 -0.7661107782 0.0323939478 -0.0367830255
625296250.0 0.0312560442 -0.03840548 0.1988556207 -0.7693572687 0.1979188421 -0.7687934588 0.0326481693 -0.0367273864
630296220.0 0.0318121817 -0.0379731697 0.1885968441 -0.7707435813 0.1889150548 -0.7705103278 0.0315839893 -0.036801866
635296190.0 0.0295475582 -0.0387166967 0.1806590264 -0.772951609 0.181279159 -0.7728200306 0.0315031424 -0.037321801
640296160.0 0.0295921529 -0.0386724111 0.1723260719 -0.7740742363 0.1728799069 -0.7743191043 0.0306526122 -0.0375399753
645296130.0 0.0292745866 -0.0388511962 0.1634764626 -0.7758289243 0.1642352745 -0.7763549393 0.0300675346 -0.037670078
650296100.0 0.0287696997 -0.0390730266 0.1558599439 -0.778004626 0.1558814235 -0.7783091539 0.0302690129 -0.0387317591
655296070.0 0.027679405 -0.0398176958 0.1470247708 -0.7800596612 0.1477228279 -0.7799424727 0.0294951536 -0.0382503628
660296040.0 0.0268582306 -0.0402912825 0.1384946066 -0.7819420653 0.1385743069 -0.7818418698 0.0290849908 -0.0386477152
665296010.0 0.0271372439 -0.0401421055 0.1294077785 -0.7829504942 0.129910285 -0.7825418252 0.0282929662 -0.0381288686
670295980.0 0.0251899277 -0.0402800899 0.1219327294 -0.7842732779 0.1211552711 -0.7846803462 0.0272005301 -0.0390151143
675295950.0 0.025340447 -0.0398031607 0.1134628319 -0.7851262537 0.1131114112 -0.7848463927 0.0264862505 -0.0389014361
680295920.0 0.0242765534 -0.040796365 0.1037545575 -0.7862628113 0.1036370714 -0.7869906776 0.0263486034 -0.0382666043
685295890.0 0.0241439515 -0.0403958634 0.0952726225 -0.7877083036 0.0955801252 -0.7878706984 0.0253944488 -0.0390217239
690295860.0 0.0236241529 -0.040791284 0.0867512114 -0.7877896543 0.0870959705 -0.7891303687 0.0248977281 -0.0384874717
695295830.0 0.0230503808 -0.0410693934 0.0791703231 -0.7894870777 0.0783317425 -0.7893113742 0.0241011435 -0.0390295022
700295800.0 0.0225152759 -0.0416969465 0.0698468972 -0.7899947548 0.0697889483 -0.7897800339 0.0236006275 -0.0385954367
705295770.0 0.0214892918 -0.0406006432 0.0610982799 -0.790623139 0.0615829083 -0.7911221596 0.0229822285 -0.0391492195
710295740.0 0.0213048305 -0.0413938471 0.0529696052 -0.7922153163 0.0529988368 -0.7923522103 0.0225063158 -0.0399841466
715295710.0 0.0200225501 -0.0417960027 0.0445110283 -0.7923179802 0.0439160213 -0.792510457 0.0223074611 -0.0398228354
720295680.0 0.019907529 -0.0416932201 0.0352342138 -0.792828698 0.0359516599 -0.7924903671 0.0213927392 -0.0393299618
725295650.0 0.0193318484 -0.0417950365 0.026671753 -0.792823599 0.0270274627 -0.793135805 0.0203180145 -0.0394559911
730295620.0 0.0190950925 -0.0412482391 0.0184787966 -0.792886327 0.0181713735 -0.793443873 0.019404764 -0.0401602685
735295590.0 0.017974133 -0.0416007976 0.0096426611 -0.7934737251 0.0095737798 -0.79355508 0.0191693661 -0.0402440978
740295560.0 0.0170437522 -0.0415471242 0.001245093 -0.7931190855 0.0007827957 -0.7935066624 0.0191591059 -0.0401118019
745295530.0 0.016832904 -0.0415992286 -0.0073855498 -0.792755729 -0.0075408665 -0.7932338293 0.0186100578 -0.0405828961
750295500.0 0.0163428265 -0.042054209 -0.0165744418 -0.7921469873 -0.0158545079 -0.7932625221 0.0176506273 -0.0405027346
755295470.0 0.0157868979 -0.042161827 -0.0246824193 -0.7930511764 -0.0241130215 -0.7928600323 0.0175566208 -0.0411199562
760295440.0 0.014876781 -0.0419554647 -0.0339559151 -0.7930488485 -0.0329265524 -0.7930068586 0.0168941192 -0.0406709741
765295410.0 0.0141811169 -0.041978404 -0.0421702265 -0.7922037525 -0.042772631 -0.7923793497 0.0164633617 -0.0404761727
770295380.0 0.0133456862 -0.0422095793 -0.0510764232 -0.7917040273 -0.0506508301 -0.7912824945 0.0156231841 -0.040784855
775295350.0 0.012738566 -0.042772389 -0.0594234116 -0.7906202761 -0.0588801798 -0.7908044832 0.0139159454 -0.0401844956
780295320.0 0.0126145227 -0.0421547379 -0.0684341799 -0.7898237867 -0.0673484101 -0.7899411642 0.0138243894 -0.0413968838
785295290.0 0.0114407421 -0.0426314073 -0.0768219531 -0.788800399 -0.0760403713 -0.7891043569 0.0143115891 -0.0407311008
790295260.0 0.0116088607 -0.0416755881 -0.0844179491 -0.7885003367 -0.084035939 -0.788281719 0.0133966093 -0.0407300281
795295230.0 0.0108198991 -0.0426034084 -0.093453813 -0.7876603367 -0.0929292322 -0.7877380988 0.0128898713 -0.0402435707
800295200.0 0.009743083 -0.0418042255 -0.1031068416 -0.7862874169 -0.101881602 -0.7866498227 0.0120706117 -0.0406202778
805295170.0 0.0095125698 -0.0422578634 -0.1103578595 -0.7848946806 -0.1108916946 -0.7853944597 0.0113277457 -0.0402444276
810295140.0 0.0083532976 -0.0425296603 -0.1192355243 -0.7832371634 -0.1190092582 -0.7842099778 0.0111947742 -0.040085255
815295110.0 0.0082143412 -0.0425561403 -0.128388836 -0.7821024874 -0.1277187651 -0.7825730169 0.0100655116 -0.0400702289
820295080.0 0.0068967333 -0.0415632896 -0.1367032156 -0.78086556 -0.1356535507 -0.7811663144 0.0096853695 -0.0401419929
825295050.0 0.0071893466 -0.0418498599 -0.1442725661 -0.7789488868 -0.1442004585 -0.7797196283 0.0092702962 -0.0397759097
830295020.0 0.0062694295 -0.0416928731 -0.1535004313 -0.7774449665 -0.1529306451 -0.7776931895 0.00945129 -0.0396945063
