!Created with skrf (http://scikit-rf.org).
# Hz S RI R 50.0 
!freq ReS11 ImS11 ReS21 ImS21 ReS12 ImS12 ReS22 ImS22
300000.0 -0.2392832357 -0.0726779906 0.4718811253 0.0502158171 0.4667246988 0.0482023958 -0.2408810151 -0.0870466721
5299970.0 -0.244489316 0.0074679154 0.4737038644 0.0045754302 0.4736632165 0.0047424649 -0.2447233923 0.0075200153
10299940.0 -0.2411260938 0.0187744022 0.4752156057 0.0061439151 0.4758324388 0.0063052345 -0.2413710652 0.0202811266
15299910.0 -0.2369951454 0.027941729 0.4796430569 0.0075900625 0.4795451593 0.0076415546 -0.2366508889 0.029690459
20299880.0 -0.2320458185 0.0355121476 0.4839590804 0.0087176221 0.4836491925 0.008311282 -0.231351367 0.0373177215
25299850.0 -0.2270502064 0.0419445593 0.4892966663 0.0075417972 0.4893033603 0.0077513188 -0.2253601564 0.044021056
30299820.0 -0.2214920669 0.0470499586 0.4944825271 0.005493193 0.4946102483 0.0052591235 -0.2192926472 0.0489379204
35299790.0 -0.216514577 0.0514529293 0.5000259908 0.0020636499 0.5000307705 0.0020406421 -0.2138373251 0.0530813391
40299760.0 -0.2116434925 0.0548052019 0.5052332981 -0.0017670996 0.5052147253 -0.0013647069 -0.2087063228 0.0558414402
45299730.0 -0.2067561802 0.0575218738 0.5098218697 -0.0065929271 0.5097165736 -0.0062590557 -0.2034135963 0.0584172432
50299700.0 -0.2024872601 0.0598544468 0.5142611723 -0.0120343844 0.5140870133 -0.0115540561 -0.1985958151 0.0602488329
55299670.0 -0.1983813605 0.0616276603 0.5178921544 -0.0182823274 0.5176787789 -0.0177285518 -0.1946242194 0.0617966384
60299640.0 -0.1943596515 0.0634328969 0.5210161873 -0.0241451396 0.5214837909 -0.0238633367 -0.1903914545 0.0629121843
65299610.0 -0.1911043323 0.0646705093 0.5242729398 -0.030630438 0.523993488 -0.0304172836 -0.1869982775 0.0635207172
70299580.0 -0.1877953334 0.0661459418 0.5266895293 -0.037400133 0.5265602772 -0.0369230659 -0.1836990062 0.0647589527
75299550.0 -0.1850711093 0.0670154074 0.5286498051 -0.0435965967 0.5286635238 -0.0439322137 -0.1809563262 0.0652356006
80299520.0 -0.1825184002 0.0680204126 0.5305842915 -0.0509155962 0.5309757553 -0.0508553605 -0.1782863679 0.0660176053
85299490.0 -0.1800979299 0.0689199625 0.5319231398 -0.0576317792 0.5318700544 -0.057499516 -0.17591109 0.0661130877
90299460.0 -0.1779668422 0.0695128134 0.5326866842 -0.0646382787 0.5333003671 -0.0645299459 -0.1734358438 0.0667785598
95299430.0 -0.1758462447 0.0703324804 0.5339293277 -0.0714228568 0.5339110396 -0.0716133579 -0.1714037161 0.0672698397
100299400.0 -0.1739309935 0.0714268224 0.5339051914 -0.0784198897 0.5339606998 -0.0784314477 -0.1694435543 0.0675162062
105299370.0 -0.1717709784 0.0723906701 0.5344935558 -0.0859257571 0.5347755834 -0.0854621824 -0.167554082 0.0681689729
110299340.0 -0.1704280652 0.0733936874 0.5347120897 -0.0924547637 0.5345563167 -0.0920741527 -0.1664861618 0.0683487441
115299310.0 -0.1689025505 0.0740027007 0.5348621344 -0.0990264417 0.5350502927 -0.0991640832 -0.1649252583 0.0690413239
120299280.0 -0.1674134108 0.0745491235 0.534548991 -0.10583137 0.5344639764 -0.1056339002 -0.1635552777 0.0697724348
125299250.0 -0.1660210602 0.0755067357 0.5341389593 -0.112217764 0.5342126784 -0.1120180607 -0.1625628892 0.0698382076
130299220.0 -0.1651029412 0.0769127532 0.53339345 -0.1193548519 0.5333762144 -0.1191099378 -0.1610355022 0.0706760868
135299190.0 -0.1637911905 0.0778694362 0.5329831344 -0.1257535865 0.5329959601 -0.1257551015 -0.1600341688 0.0713922217
140299160.0 -0.1627761039 0.0788848555 0.5322285604 -0.1324309638 0.5321856035 -0.1325614781 -0.1591652264 0.0722423065
145299130.0 -0.1615024062 0.0799735847 0.5313341385 -0.1392978065 0.5310099434 -0.1390441552 -0.1583689774 0.0730667112
150299100.0 -0.1601523492 0.0809988464 0.5300407835 -0.1451648335 0.5301616294 -0.1452067193 -0.1574183107 0.0741083374
155299070.0 -0.1595648614 0.0821097455 0.5291857333 -0.1528238286 0.528834815 -0.1521670611 -0.1562178052 0.074851999
160299040.0 -0.158464056 0.0834931394 0.5273830045 -0.1586480795 0.5271137899 -0.1586360827 -0.1557383665 0.0758797395
165299010.0 -0.1574606636 0.084575121 0.5258983744 -0.1654332717 0.5263356321 -0.1652520197 -0.1545242912 0.0768988118
170298980.0 -0.1567638218 0.0859703416 0.5245088679 -0.1716461411 0.5247906912 -0.1715882054 -0.1541723645 0.0777498879
175298950.0 -0.1556997802 0.087090636 0.5231915342 -0.1776434968 0.5225173105 -0.1778940901 -0.153295315 0.0785129834
180298920.0 -0.1546163042 0.0883277131 0.5208048675 -0.1841281859 0.5210225007 -0.1838021826 -0.1524783476 0.0797941174
185298890.0 -0.1534018602 0.0895590365 0.519416697 -0.1902430319 0.5190247091 -0.1900564092 -0.1519051613 0.0812522044
190298860.0 -0.1528676691 0.090847727 0.5176224122 -0.1966988762 0.5175517782 -0.1964305755 -0.1510593995 0.081827982
195298830.0 -0.1519956834 0.0921070264 0.515235609 -0.2025170607 0.5158264534 -0.202753077 -0.1499967129 0.0828933284
200298800.0 -0.1505442916 0.0936417665 0.5127622361 -0.2087534953 0.5134437985 -0.2088875527 -0.1495839374 0.0839164418
205298770.0 -0.1501113647 0.0950546842 0.5108977381 -0.2153473455 0.5109755395 -0.2144809476 -0.1487025851 0.0844022685
210298740.0 -0.1489413511 0.0962018112 0.5086920151 -0.2210425053 0.5084863233 -0.2203966076 -0.148045598 0.0865080018
215298710.0 -0.1482214485 0.098014148 0.5064365771 -0.226976049 0.5061915703 -0.2269382534 -0.1473277299 0.0874595097
220298680.0 -0.1470377779 0.0987181744 0.5033217221 -0.2323069009 0.5038923013 -0.2326002134 -0.1468266994 0.0883027592
225298650.0 -0.1462051258 0.1001805449 0.5014879889 -0.2384793201 0.5019094187 -0.2383039361 -0.1462465854 0.089670421
230298620.0 -0.1448164206 0.1019652134 0.4990804914 -0.2438716778 0.4993684392 -0.2441217481 -0.1454163711 0.0905074366
235298590.0 -0.1440024082 0.1033524395 0.4963564614 -0.2503012295 0.4965940401 -0.2496508415 -0.1446114323 0.0919342832
240298560.0 -0.1432372479 0.1049463087 0.4940624366 -0.2561010299 0.4935365772 -0.255799771 -0.1438490444 0.0935111288
245298530.0 -0.1422776268 0.1063961053 0.4912770252 -0.2618359702 0.4912592341 -0.2614999245 -0.1428682034 0.0940373329
250298500.0 -0.1408235586 0.1079745615 0.4875186436 -0.2673092409 0.4875428722 -0.266781224 -0.1423741557 0.0957460448
255298470.0 -0.1397925243 0.1091215968 0.4848518431 -0.2723705716 0.4852576669 -0.2726830895 -0.1415076192 0.0968470212
260298440.0 -0.1393628139 0.1106711422 0.4821270529 -0.2786212915 0.4819969409 -0.2778583724 -0.1399409996 0.0983895363
265298410.0 -0.1376738934 0.1123445299 0.479060063 -0.2837814038 0.4792847846 -0.2832835563 -0.1396941122 0.0996411205
270298380.0 -0.136386313 0.1138784881 0.4760947106 -0.2890898691 0.4764412439 -0.2891687536 -0.1390002474 0.1006180424
275298350.0 -0.1353099026 0.1152313519 0.4727960331 -0.2946370435 0.4732255448 -0.2943932969 -0.137810332 0.1021103005
280298320.0 -0.1338583297 0.1168189554 0.4698363439 -0.3000861058 0.4702322589 -0.2998651782 -0.1367139411 0.1033694352
285298290.0 -0.133064622 0.118304756 0.4662740984 -0.3055884023 0.4664625796 -0.3054528487 -0.1358932019 0.1042767648
290298260.0 -0.1315665902 0.1196722813 0.4631407376 -0.3106249111 0.4634100576 -0.3105939405 -0.1350412935 0.1061153828
295298230.0 -0.1302145223 0.1209311948 0.4600168951 -0.3158835225 0.4599726863 -0.3160798845 -0.1337552093 0.106997092
300298200.0 -0.1291304945 0.1224898854 0.4569798321 -0.3211685622 0.4566348768 -0.3211155763 -0.1331194805 0.1082483591
305298170.0 -0.1278858383 0.1237374748 0.4523424292 -0.3268874353 0.4529589427 -0.3260152105 -0.1314979974 0.109415885
310298140.0 -0.1266162905 0.1250656329 0.4493776822 -0.3314231595 0.4496416714 -0.3314393148 -0.1307527211 0.1106276772
315298110.0 -0.125279234 0.1261857332 0.4460996433 -0.3364741486 0.4460852288 -0.3366654444 -0.1297675151 0.111839395
320298080.0 -0.1238467332 0.1276107597 0.4412550361 -0.342240439 0.4420538664 -0.342073642 -0.1287280677 0.1128549565
325298050.0 -0.1228505389 0.1288912705 0.4381263007 -0.3466662274 0.4381440695 -0.347120396 -0.1280201579 0.1142337935
330298020.0 -0.1215770946 0.1302568927 0.433860917 -0.3523274446 0.4343098733 -0.3522437892 -0.1273523029 0.1154091325
335297990.0 -0.1200499179 0.1312800238 0.4298030572 -0.3565733327 0.429600569 -0.3567599625 -0.1267938923 0.1173049548
340297960.0 -0.1194335512 0.1330982028 0.4258607495 -0.361564849 0.4255360538 -0.3618535007 -0.1253256928 0.1182248864
345297930.0 -0.1178832101 0.134546627 0.4216200794 -0.3664471933 0.4216780572 -0.366117189 -0.1247668316 0.11940909
350297900.0 -0.1168223165 0.13583524 0.4173627668 -0.3711452882 0.4176842775 -0.3704748353 -0.1240042943 0.1211048308
355297870.0 -0.1149647521 0.1376597766 0.4129828819 -0.3755880982 0.4135761468 -0.3750879843 -0.1227612741 0.1222949647
360297840.0 -0.1137592231 0.1388608316 0.4098875583 -0.3797454085 0.4096666133 -0.3797320077 -0.1216548244 0.1233373901
365297810.0 -0.1126865569 0.1404641103 0.4050625043 -0.3848046187 0.4052482879 -0.3845417154 -0.1205664513 0.1247856852
370297780.0 -0.1107218419 0.1414398923 0.4006569134 -0.3888839592 0.4012449173 -0.3884033371 -0.1193686137 0.1262363417
375297750.0 -0.1092459258 0.1430056709 0.3965253363 -0.3930995683 0.396981514 -0.3934535339 -0.1182009166 0.1273862894
380297720.0 -0.1077904558 0.1445542202 0.392164799 -0.3977557903 0.3924819092 -0.3970402343 -0.1174028263 0.1285708084
385297690.0 -0.106528767 0.1454383342 0.3877539427 -0.4018765937 0.3878107522 -0.4018651615 -0.1157347134 0.130074385
390297660.0 -0.105120817 0.1472442356 0.3833563057 -0.4064169877 0.3832740495 -0.4058418628 -0.1145875029 0.130998686
395297630.0 -0.103082074 0.1485059538 0.3789264032 -0.410850821 0.3794431938 -0.4105922628 -0.1133264088 0.1325623438
400297600.0 -0.1019055048 0.1497211921 0.3740316354 -0.4150441279 0.3742667934 -0.4144917644 -0.1122643566 0.1337994322
405297570.0 -0.100500352 0.1507487982 0.3697235744 -0.4185210443 0.3695216499 -0.4183609338 -0.1112934671 0.1350844146
410297540.0 -0.0985134353 0.1517801315 0.3654463351 -0.4224608871 0.3656562899 -0.4229379542 -0.1101361089 0.136712593
415297510.0 -0.09670978 0.1529079648 0.3603097364 -0.4267826739 0.3610856889 -0.426995861 -0.1087349494 0.1374889905
420297480.0 -0.0951691735 0.1546637295 0.3555121858 -0.4307320403 0.3560257543 -0.4306692849 -0.107766157 0.1383200088
425297450.0 -0.0935968511 0.1553699787 0.3513377304 -0.434528547 0.351597046 -0.4346996741 -0.106135429 0.1401525335
430297420.0 -0.0917955893 0.1566565355 0.3462906498 -0.4378297346 0.3463813888 -0.4379046902 -0.1051224849 0.1408570864
435297390.0 -0.09022113 0.1577166037 0.3412057159 -0.441680565 0.3411420801 -0.4417864676 -0.10316054 0.1418774439
440297360.0 -0.0882250691 0.1591814054 0.3364498218 -0.4452384197 0.3372285781 -0.4455333588 -0.1024053565 0.1427998729
445297330.0 -0.0869391809 0.1598242015 0.3324945601 -0.449213109 0.3321858244 -0.4488296795 -0.1006917788 0.1438020567
450297300.0 -0.084976966 0.1611045239 0.3266663635 -0.4526347759 0.3265933261 -0.4531296447 -0.0994358387 0.1452537294
455297270.0 -0.083395632 0.1623147406 0.321505274 -0.4561169074 0.3219100823 -0.4568909835 -0.0981999488 0.1460729967
460297240.0 -0.0816937642 0.1630505193 0.3170120491 -0.4600786021 0.3167552097 -0.4597608771 -0.0967053086 0.1476351164
465297210.0 -0.0794054653 0.164609884 0.3121409654 -0.4635417796 0.3117853905 -0.4636068428 -0.0949201344 0.1482243772
470297180.0 -0.0778540886 0.165214108 0.3061865705 -0.4665384472 0.3067214618 -0.466890716 -0.0936520917 0.1498232748
475297150.0 -0.0760989463 0.1660777369 0.3012984799 -0.4694609306 0.3016086127 -0.4697268212 -0.0918891919 0.1503436887
480297120.0 -0.0743835171 0.1674763679 0.2964827491 -0.4732212422 0.2961676138 -0.4734859376 -0.0905821543 0.1517099397
485297090.0 -0.0724818541 0.1683599808 0.2910946477 -0.4763491724 0.2917714501 -0.4761081129 -0.0891324288 0.1525751451
490297060.0 -0.0709271242 0.1692054652 0.2861422826 -0.479699556 0.2863236302 -0.4791586376 -0.0878372108 0.1538648149
495297030.0 -0.0689816963 0.1703110864 0.2806054484 -0.4827861165 0.2811382118 -0.4823271931 -0.0864793335 0.1545706746
500297000.0 -0.0670126277 0.1707446235 0.2753871975 -0.4851957882 0.2752760161 -0.485079606 -0.0847251423 0.1560741656
505296970.0 -0.0649491615 0.1717765442 0.2700870834 -0.4883608658 0.2699515237 -0.4887102437 -0.0834033466 0.1568666395
510296940.0 -0.0630312621 0.1727810394 0.2645164005 -0.4917004665 0.2647173208 -0.4914021405 -0.0816295915 0.1577693253
515296910.0 -0.060991702 0.1737055335 0.259181916 -0.4946008043 0.2595313417 -0.4940396438 -0.0804716804 0.1588152507
520296880.0 -0.0593602924 0.1745184142 0.2539258988 -0.4976110598 0.2542202109 -0.4969430795 -0.0790745111 0.1595067735
525296850.0 -0.0572809384 0.174604683 0.2485034601 -0.4995834578 0.2487526236 -0.4995907145 -0.0773798246 0.1606172556
530296820.0 -0.0554402517 0.1757045348 0.2429435864 -0.5024016162 0.2432663539 -0.502460769 -0.076024577 0.1615315198
535296790.0 -0.0538708072 0.1765149904 0.2376257839 -0.5048307121 0.237615853 -0.504387493 -0.0746349818 0.1617123878
540296760.0 -0.0518075782 0.1773867719 0.2320831711 -0.5077883946 0.232099958 -0.5074432833 -0.0732569389 0.1631168892
545296730.0 -0.0498483306 0.1783434666 0.226450716 -0.5100768197 0.2264485954 -0.5101102199 -0.07136689 0.1638726628
550296700.0 -0.0473254393 0.1791202799 0.2206031107 -0.5122670136 0.2209803888 -0.5123291722 -0.0700334665 0.1646202079
555296670.0 -0.0458303488 0.1792483814 0.2155240084 -0.5145825252 0.215622677 -0.5145574225 -0.0681738066 0.1656184351
560296640.0 -0.0434198984 0.1803984635 0.209936291 -0.5170949406 0.2097947517 -0.5172747616 -0.0667423367 0.1664969106
565296610.0 -0.0419444702 0.1807302017 0.2041391703 -0.5191950928 0.2045443348 -0.5190815839 -0.0653530013 0.1668891682
570296580.0 -0.0403086589 0.1813772201 0.1985580076 -0.5218964501 0.1983615111 -0.5214643305 -0.0636122621 0.1683537609
575296550.0 -0.0380975602 0.1819435819 0.193388087 -0.5236818065 0.1926014202 -0.5235428455 -0.0615883269 0.1690073694
580296520.0 -0.0358450553 0.1825670111 0.1876341495 -0.5254785715 0.1875463833 -0.5256154401 -0.0598589309 0.1694976336
585296490.0 -0.0340353912 0.1825772883 0.1815585937 -0.5269774245 0.1814982291 -0.5275049323 -0.057998135 0.1703845492
590296460.0 -0.0318298313 0.1835583741 0.1756384192 -0.529210357 0.1760765614 -0.5292385987 -0.0573304323 0.1708910426
595296430.0 -0.0297821918 0.1841607081 0.1695618436 -0.5314843353 0.1699584006 -0.5307747894 -0.0553017035 0.1713468812
600296400.0 -0.0280241365 0.1845491187 0.1646292331 -0.5333752596 0.1644683581 -0.5328082113 -0.0537114274 0.1722733758
605296370.0 -0.0259811491 0.1850268999 0.1584379453 -0.535114359 0.1586356291 -0.5347701562 -0.0518302932 0.1729384268
610296340.0 -0.0239418377 0.1850928227 0.1525627251 -0.5363626006 0.1530868863 -0.5362110129 -0.0503686775 0.173428728
615296310.0 -0.021437627 0.1855005767 0.1467045674 -0.5377843651 0.1467581501 -0.5384178202 -0.0483793847 0.1742934145
620296280.0 -0.0197943019 0.1857196963 0.1408742105 -0.5393616513 0.1409783549 -0.5390141648 -0.0470042893 0.1746357349
625296250.0 -0.0179502459 0.1859719935 0.1356425865 -0.5410389369 0.1350443606 -0.5411260709 -0.0447860741 0.1754710564
630296220.0 -0.0148738534 0.1865263939 0.1287424567 -0.5424181737 0.1291116714 -0.5421947677 -0.0434001361 0.1763264761
635296190.0 -0.0137320627 0.1869658255 0.1234286997 -0.5439375286 0.1234394692 -0.5437694047 -0.041664753 0.1765700113
640296160.0 -0.0114417357 0.1874456323 0.1174742254 -0.5450225599 0.1178501517 -0.5448207336 -0.0397535257 0.1771696201
645296130.0 -0.0093874227 0.1877496693 0.1111853752 -0.5461275304 0.1117314392 -0.5460123674 -0.0382691023 0.1779964081
650296100.0 -0.0073428849 0.1877920576 0.1058251727 -0.5471243045 0.1060184562 -0.5469331626 -0.0361720248 0.1777925926
655296070.0 -0.0054191544 0.1880076388 0.0998334536 -0.5483571759 0.0997381486 -0.5485868464 -0.034286902 0.1786946689
660296040.0 -0.0035810127 0.1877939143 0.0939564473 -0.5493418035 0.0940009731 -0.5492872316 -0.0325855233 0.1789437126
665296010.0 -0.0009134374 0.1879747492 0.0873937696 -0.5501322095 0.0877523565 -0.5500946356 -0.0307706689 0.1798839578
670295980.0 6.63829e-05 0.1883314917 0.0820325393 -0.5508368828 0.081826413 -0.5511754374 -0.0298622928 0.1803297487
675295950.0 0.0025588089 0.1886167869 0.0763253076 -0.5517772456 0.07608454 -0.5514868534 -0.0278494227 0.1810207534
680295920.0 0.0044010288 0.1888538026 0.070072826 -0.5529903998 0.0695892624 -0.5532173674 -0.0259654652 0.1815693874
685295890.0 0.0068430733 0.1893909452 0.0639108981 -0.5532830417 0.0636405968 -0.5532930973 -0.0242275582 0.1815709283
690295860.0 0.0092404705 0.1888659539 0.0579545632 -0.5533363743 0.0583921219 -0.5540879969 -0.0222914926 0.1825096089
695295830.0 0.010871061 0.1888515807 0.0522595132 -0.5542350491 0.0517213028 -0.5545375091 -0.0205782178 0.1825297164
700295800.0 0.0132415045 0.1887242538 0.0461970145 -0.5548558044 0.0459299287 -0.5546838652 -0.0192082344 0.183408596
705295770.0 0.0151082831 0.1893782336 0.0399293981 -0.5554149719 0.0404238729 -0.5555242428 -0.0174417558 0.1838359522
710295740.0 0.0174107857 0.1891379275 0.0342878793 -0.5565000348 0.0344194893 -0.5560378298 -0.0154176179 0.1834081114
715295710.0 0.0190146622 0.1887570995 0.0284954918 -0.5562802702 0.0276663291 -0.5561412324 -0.0137553521 0.1838365452
720295680.0 0.0213374372 0.1885202982 0.022252516 -0.5564997957 0.0224063839 -0.5565172116 -0.0114158938 0.1843113593
725295650.0 0.0233926393 0.1884871008 0.0160905804 -0.5568068149 0.0161839954 -0.5567115014 -0.0105117691 0.1846623127
730295620.0 0.025870862 0.1887353878 0.0098588961 -0.5562807638 0.0103017847 -0.5566702484 -0.0086303595 0.1848290825
735295590.0 0.0277122482 0.1885770252 0.0043451718 -0.5572808784 0.0041627394 -0.5568988731 -0.0071494614 0.1846710842
740295560.0 0.0296978519 0.188140989 -0.0018880679 -0.5563060408 -0.0014138852 -0.5571043471 -0.0046173423 0.1853328328
745295530.0 0.0315292322 0.1884019622 -0.0079966258 -0.5565347629 -0.0081995315 -0.556783404 -0.0029725332 0.1849235066
750295500.0 0.0339667333 0.1880558855 -0.0134912219 -0.5566885373 -0.0138254436 -0.5567336903 -0.0008062384 0.1854948476
755295470.0 0.0359596919 0.1878328509 -0.0197724089 -0.5563680247 -0.0194755884 -0.5565073175 0.0010680716 0.1853776824
760295440.0 0.0379173641 0.187562342 -0.0258137468 -0.5565227738 -0.0261072465 -0.5563386727 0.0024133907 0.1855395883
765295410.0 0.0398082234 0.187250165 -0.0316997434 -0.5557310002 -0.0321980145 -0.5558984129 0.0045042659 0.1859413182
770295380.0 0.0418868493 0.186617737 -0.0376385073 -0.5551991375 -0.0381626283 -0.5549558918 0.0061538337 0.1860232593
775295350.0 0.0437762851 0.1860438583 -0.0441014623 -0.5542537327 -0.043324188 -0.5547478075 0.0074638748 0.1861230705
780295320.0 0.0459856982 0.1861927208 -0.0501216335 -0.5539317307 -0.0495627968 -0.5540983208 0.0093489332 0.1859843321
785295290.0 0.0477493612 0.1852910892 -0.0560527045 -0.5531853208 -0.0556118524 -0.5533065086 0.0118014577 0.1859065446
790295260.0 0.0507467468 0.1854098052 -0.0613517471 -0.5528027612 -0.0612513363 -0.5527537399 0.0133984129 0.1861571553
795295230.0 0.0524187659 0.1845995906 -0.0678408123 -0.5518338036 -0.0673304793 -0.5523187919 0.0157192933 0.1865616876
800295200.0 0.0540762368 0.1845189513 -0.0743192467 -0.5510551704 -0.0735052304 -0.5514190883 0.0173307669 0.1863409367
805295170.0 0.0566563444 0.183745299 -0.0793234545 -0.5501870833 -0.0797980116 -0.5507438974 0.0193275482 0.1864367804
810295140.0 0.0582364097 0.1829959461 -0.0856661439 -0.5493272877 -0.085521733 -0.5498066802 0.0212336719 0.1863741964
815295110.0 0.060371617 0.182403702 -0.0915865137 -0.5477080846 -0.0910673916 -0.5488621532 0.022867749 0.1864819586
820295080.0 0.0619404735 0.1826222179 -0.0975349768 -0.5473507393 -0.096506306 -0.547478138 0.0246375413 0.1861785617
825295050.0 0.0647089572 0.1818294837 -0.102735639 -0.5463162614 -0.1032339378 -0.5463247311 0.0266814517 0.1863565886
830295020.0 0.0662430803 0.1812102933 -0.109206085 -0.5450178942 -0.1089255949 -0.545113089 0.0287282624 0.1863566135
