!Created with skrf (http://scikit-rf.org).
# Hz S RI R 50.0 
!freq ReS11 ImS11 ReS21 ImS21 ReS12 ImS12 ReS22 ImS22
300000.0 -0.2425238565 -0.0911004692 0.4737053432 0.0607261765 0.469838981 0.0582682365 -0.2374858307 -0.098489013
5299970.0 -0.2450788736 0.0062885053 0.4749080092 0.005142606 0.474682965 0.0050894418 -0.2408634094 0.0074188245
10299940.0 -0.2418737504 0.0179700254 0.4770728935 0.005920445 0.47693307 0.0063431319 -0.2374885074 0.0207816487
15299910.0 -0.2373314982 0.0268891603 0.4804388362 0.0074432962 0.4803571578 0.0072346059 -0.2326665942 0.0300585571
20299880.0 -0.2326896484 0.0339769056 0.4850702131 0.0080507465 0.4849759841 0.0077163622 -0.2276009683 0.0378432294
25299850.0 -0.227744405 0.0402366995 0.4901201166 0.0072178897 0.4902589084 0.007116927 -0.2217858736 0.0447659437
30299820.0 -0.2224461984 0.0450139728 0.4956493126 0.0049343287 0.4957668617 0.0048108966 -0.2162829556 0.0501505956
35299790.0 -0.2174910064 0.0491318294 0.5010364895 0.0012509961 0.5010342726 0.0013956319 -0.21057094 0.0546232905
40299760.0 -0.2126007401 0.052378521 0.5059218407 -0.00250294 0.5061235043 -0.0023494657 -0.2052662638 0.0574571497
45299730.0 -0.2079266959 0.0546348243 0.5102913456 -0.0070745633 0.5108674357 -0.0072211904 -0.2002757054 0.0609145847
50299700.0 -0.2037388943 0.0569500557 0.51492722 -0.0128785256 0.515064332 -0.012236614 -0.1956871785 0.0628463904
55299670.0 -0.1999810557 0.0584353249 0.5187763786 -0.0189321461 0.5185760495 -0.01865425 -0.1911102815 0.0643209281
60299640.0 -0.1959858794 0.0600665662 0.522029329 -0.0252286257 0.5222428546 -0.0247711383 -0.1875234399 0.0653694695
65299610.0 -0.1929972428 0.0611176184 0.5246843043 -0.0309727162 0.5245843232 -0.0310408002 -0.1841767061 0.0665967628
70299580.0 -0.1900362914 0.0622130805 0.5272681903 -0.0378036253 0.526878388 -0.0376000949 -0.1809644975 0.0675557941
75299550.0 -0.1871031061 0.0629572734 0.5286969532 -0.0449341696 0.5289745967 -0.0446590141 -0.1778977315 0.068328052
80299520.0 -0.1847275005 0.0638504122 0.5309312958 -0.0516313323 0.5311225191 -0.0514860706 -0.1750940248 0.0691986112
85299490.0 -0.1828007546 0.0643224713 0.5323231246 -0.058007779 0.5322155956 -0.05801333 -0.1729199872 0.0697268557
90299460.0 -0.1805159031 0.064877375 0.532672215 -0.0654580076 0.5335911415 -0.0654169335 -0.1703441777 0.0706426265
95299430.0 -0.1781844072 0.0652684003 0.5338800226 -0.0721223472 0.5340429538 -0.0724816193 -0.1681182893 0.0712849596
100299400.0 -0.1765847587 0.066111435 0.534279613 -0.0789111113 0.5339970462 -0.0790770088 -0.1659158919 0.0715357081
105299370.0 -0.1748836388 0.0667535333 0.534391691 -0.085776829 0.5350964045 -0.0860158838 -0.1641018207 0.0724402475
110299340.0 -0.173458273 0.0674370018 0.5350430229 -0.0925462521 0.5347548581 -0.0926071364 -0.16294367 0.0731552377
115299310.0 -0.1717341097 0.0681811604 0.5343800213 -0.0993706775 0.5347461234 -0.099669321 -0.1609891082 0.0737972121
120299280.0 -0.1707531767 0.0683924162 0.5344548139 -0.1061124865 0.5344618997 -0.1067223779 -0.1596388374 0.0743811983
125299250.0 -0.1695841552 0.0690047657 0.5342371694 -0.1126324448 0.5342802707 -0.1126787295 -0.1585636797 0.0749636991
130299220.0 -0.1686996565 0.0704220961 0.5331649136 -0.1200216213 0.5333220416 -0.1197000773 -0.156906333 0.076066889
135299190.0 -0.16734728 0.0713386072 0.5332449203 -0.1266056284 0.5327605699 -0.1259814987 -0.1555301058 0.0766691713
140299160.0 -0.1665654167 0.0720307959 0.5319480597 -0.133258528 0.5323503919 -0.1332231397 -0.1545055968 0.0780712693
145299130.0 -0.1656365363 0.0728623317 0.5314698985 -0.1397699325 0.5311756258 -0.1396100023 -0.1533465094 0.0788031349
150299100.0 -0.1642499382 0.0740693345 0.5299371982 -0.1457605195 0.5299484738 -0.1459594461 -0.1521287397 0.0801962841
155299070.0 -0.163754196 0.0747824679 0.5287382335 -0.1531072597 0.5285859095 -0.1527389515 -0.1511076788 0.0812601745
160299040.0 -0.1628839217 0.0758252816 0.5272468035 -0.1591389818 0.5269248476 -0.1593510756 -0.1505272426 0.0821651107
165299010.0 -0.1622320693 0.0769048003 0.526134773 -0.1658614197 0.5259253496 -0.1656148778 -0.149427097 0.083682088
170298980.0 -0.1613477371 0.0775940171 0.5243151659 -0.1719989956 0.5244645952 -0.1718348488 -0.1483236825 0.0845402923
175298950.0 -0.1608339245 0.0788272707 0.5229949813 -0.1781164992 0.5227166451 -0.1780729614 -0.1476131172 0.0861372868
180298920.0 -0.1600732068 0.0800797434 0.5210943126 -0.1843810926 0.5212213568 -0.1840370235 -0.1463728963 0.0874475005
185298890.0 -0.1583967606 0.080867627 0.5188473279 -0.1904816465 0.5189033841 -0.1903790669 -0.1453307054 0.0888382116
190298860.0 -0.1583373006 0.0825435866 0.5172405293 -0.1970198256 0.5175253064 -0.1964381672 -0.1446790559 0.0898875015
195298830.0 -0.1579257718 0.0834145116 0.5154466083 -0.2029024176 0.5154215096 -0.202775082 -0.1435638465 0.0913067498
200298800.0 -0.1568855478 0.0848397341 0.512955417 -0.2091538565 0.5133374193 -0.2088600862 -0.1432911183 0.0924675255
205298770.0 -0.1561832276 0.0858554655 0.5105344473 -0.215303027 0.5107466794 -0.2147341419 -0.1418520495 0.093297476
210298740.0 -0.155445388 0.0869362196 0.5085121753 -0.2207877313 0.5086875915 -0.220451328 -0.1409945772 0.0954761658
215298710.0 -0.1549848205 0.088351759 0.5062990727 -0.2269135696 0.506174971 -0.2271542399 -0.1404991564 0.0964821032
220298680.0 -0.1540492744 0.0892931546 0.5036373322 -0.2325634825 0.5037892282 -0.2328019183 -0.1393588554 0.0974995507
225298650.0 -0.1533749911 0.0906669143 0.5011688764 -0.2384782236 0.501483602 -0.2387558603 -0.1385008406 0.0988075046
230298620.0 -0.1525015274 0.0922964234 0.4992619162 -0.2443029146 0.4990899169 -0.2444492593 -0.137710657 0.1001485145
235298590.0 -0.1517797103 0.0938876174 0.4961260155 -0.2501788072 0.496347337 -0.2498946583 -0.1368929515 0.1018090164
240298560.0 -0.1509546602 0.0950160472 0.4935401397 -0.2560404799 0.4938086582 -0.2562104754 -0.1362856726 0.1031350859
245298530.0 -0.1503016683 0.0963774384 0.4912238719 -0.2617871153 0.490863082 -0.2615746134 -0.1348103998 0.1038736705
250298500.0 -0.1494107093 0.0976300846 0.4876627546 -0.267159921 0.4875144703 -0.2668844827 -0.134113346 0.105641608
255298470.0 -0.1484622517 0.0987777546 0.4846821476 -0.2725959716 0.4848763087 -0.2724633523 -0.1327105256 0.1067107593
260298440.0 -0.1479506905 0.1001295433 0.4817909577 -0.2788507351 0.4820399554 -0.2783327673 -0.1315622554 0.108417721
265298410.0 -0.1467239979 0.101744653 0.4788672493 -0.2840692477 0.4792327663 -0.2837474351 -0.1304193251 0.1096918129
270298380.0 -0.1459949655 0.1029582934 0.4761261309 -0.2890370932 0.4762596153 -0.2890389625 -0.1295441619 0.1112026505
275298350.0 -0.1446866424 0.1041132243 0.472871598 -0.2947088181 0.4732005403 -0.2946265702 -0.128079253 0.1121410972
280298320.0 -0.1438046085 0.1058052802 0.4696426354 -0.3000430506 0.4698049458 -0.299729825 -0.1268016353 0.1136901131
285298290.0 -0.1428786738 0.1071824281 0.466254199 -0.3052093799 0.4667975528 -0.3053883574 -0.1257552544 0.1151629138
290298260.0 -0.1418583472 0.1085361893 0.4629865106 -0.310445159 0.4630864012 -0.3106740526 -0.124356326 0.1167755754
295298230.0 -0.1408771314 0.1094715492 0.4599439354 -0.3160005476 0.4599457831 -0.3160852932 -0.1227228911 0.1175962471
300298200.0 -0.1402519781 0.1109576494 0.4571002607 -0.3208023338 0.4567237178 -0.3211406568 -0.1217736866 0.1189218089
305298170.0 -0.138984273 0.1123214982 0.4523082108 -0.3267055391 0.4529276613 -0.3260643844 -0.1200413922 0.1201770503
310298140.0 -0.1382356559 0.113463129 0.4490177592 -0.3314549078 0.4493671649 -0.3312309987 -0.1186627969 0.1214157942
315298110.0 -0.1370241508 0.1146039635 0.4456026407 -0.3366876245 0.4460288338 -0.3364893499 -0.1174745487 0.1224489244
320298080.0 -0.1358841814 0.1160321882 0.4419634321 -0.3422292146 0.442070332 -0.3418664802 -0.1163333758 0.1242220671
325298050.0 -0.1349719286 0.1170791201 0.4378401119 -0.3474322305 0.4383204893 -0.3467119515 -0.1154588611 0.1253782465
330298020.0 -0.1343725553 0.1182552818 0.434095182 -0.3520956808 0.4342139078 -0.3517582705 -0.1143843047 0.1265538493
335297990.0 -0.1332622012 0.119455999 0.4300228411 -0.3565105852 0.4294965003 -0.35676632 -0.1133726421 0.1282662907
340297960.0 -0.1326326149 0.1211412088 0.4257698784 -0.3613314042 0.4257088533 -0.3614072788 -0.1116513555 0.1294565765
345297930.0 -0.1315434409 0.1226700256 0.4215890449 -0.3663503528 0.4214113988 -0.3660814397 -0.1105600368 0.1306724994
350297900.0 -0.1304231697 0.123680901 0.4170985058 -0.3707797398 0.4177154016 -0.3704892833 -0.1094695667 0.1326468402
355297870.0 -0.1291858759 0.125514829 0.4133997565 -0.3752468377 0.4137052942 -0.3749176222 -0.1083413271 0.1338469259
360297840.0 -0.1281180888 0.1268625357 0.4094877172 -0.3794693663 0.4100686722 -0.3796229481 -0.1066946767 0.1354448361
365297810.0 -0.1273711485 0.1281713695 0.4052990318 -0.3843597287 0.4052505299 -0.3844017556 -0.1052538106 0.1366743124
370297780.0 -0.125873281 0.129297765 0.4003505967 -0.3881709688 0.4011972114 -0.3882524656 -0.1039040445 0.1383774804
375297750.0 -0.1244289258 0.1309563561 0.3964523921 -0.3931208023 0.3971284635 -0.3933559884 -0.1022405586 0.139464643
380297720.0 -0.123420407 0.1322712163 0.3922390992 -0.3979040562 0.3925814827 -0.3970508111 -0.1012224134 0.1408735414
385297690.0 -0.1223866506 0.1334269949 0.3875682433 -0.4016700118 0.3878235119 -0.401784979 -0.0996247048 0.1419724682
390297660.0 -0.1211521928 0.1348873615 0.383566939 -0.4063015217 0.3835988874 -0.4057707751 -0.0986075382 0.1432688941
395297630.0 -0.1199958286 0.1362057513 0.379070252 -0.4101138965 0.3787656432 -0.4102670279 -0.0962566909 0.1443215592
400297600.0 -0.1187876491 0.1378744391 0.3740425879 -0.4148404144 0.3742104499 -0.414479111 -0.0950930484 0.1456928467
405297570.0 -0.1175755618 0.1390551764 0.3696596642 -0.4181920989 0.3698468788 -0.4180667751 -0.0935420669 0.1468922102
410297540.0 -0.1160282795 0.1400431181 0.3653397167 -0.4223965491 0.365895055 -0.4226195681 -0.0923337086 0.1481760702
415297510.0 -0.1144072175 0.141114309 0.3602732298 -0.4268991976 0.3609108888 -0.4267574817 -0.0906081583 0.1489558348
420297480.0 -0.1132903621 0.1427598618 0.3555831594 -0.430699988 0.3561539173 -0.430593249 -0.0892959891 0.1500797794
425297450.0 -0.1121467738 0.1434806299 0.3513779776 -0.4341269607 0.3518507194 -0.4341313888 -0.0877996162 0.1516460912
430297420.0 -0.1107230341 0.1449070198 0.3463557629 -0.4378515685 0.346507437 -0.4376318489 -0.0861797091 0.1522587793
435297390.0 -0.1093142353 0.1461899279 0.3412040433 -0.4416052898 0.3409068702 -0.4417492757 -0.0834920121 0.153463093
440297360.0 -0.1078813721 0.1474989308 0.3367742739 -0.4458858864 0.3366628894 -0.4454723469 -0.0823186173 0.154463104
445297330.0 -0.1066458811 0.1482183831 0.3322281477 -0.4490739796 0.332154175 -0.4488517335 -0.0808573879 0.1548555193
450297300.0 -0.1050295408 0.1492497524 0.3271964122 -0.4523566105 0.3267731425 -0.4528441471 -0.0789419924 0.1559985287
455297270.0 -0.1037503262 0.1506406541 0.3218926679 -0.4560733028 0.3223401023 -0.4562957072 -0.0774281787 0.1571612841
460297240.0 -0.1023087765 0.1518694107 0.3166268261 -0.4595108172 0.3171243251 -0.459475184 -0.0755001806 0.1583844759
465297210.0 -0.1006555486 0.1529237093 0.312190203 -0.4632127503 0.3119502849 -0.4633218863 -0.073594672 0.159047084
470297180.0 -0.0993242072 0.1537845843 0.3065701976 -0.4664786617 0.3069155204 -0.4662721225 -0.071838708 0.1604803752
475297150.0 -0.0979231226 0.1546524377 0.3017613088 -0.4693021349 0.3018363744 -0.4693459485 -0.0698374727 0.1609215006
480297120.0 -0.0963803582 0.1561750009 0.2965546743 -0.4732511888 0.2961104937 -0.4732887917 -0.0679537947 0.1620259349
485297090.0 -0.094921992 0.1572997881 0.2913016051 -0.4757126134 0.2917575448 -0.475908675 -0.0662008905 0.1627014598
490297060.0 -0.0938279528 0.1580620604 0.2863726346 -0.4793765633 0.2863167405 -0.4789697301 -0.0642206307 0.1639133335
495297030.0 -0.0921937456 0.1592391749 0.2807561 -0.4822204358 0.2814029848 -0.4820441702 -0.0628046137 0.1645756006
500297000.0 -0.0903159608 0.1603613618 0.2757531055 -0.4849874749 0.2751860115 -0.4848511427 -0.0607513052 0.1660631152
505296970.0 -0.0887511368 0.1611457171 0.2701356568 -0.487982831 0.270098157 -0.4884796174 -0.0589135177 0.1667521676
510296940.0 -0.0871878026 0.1623187005 0.2651344414 -0.4909214496 0.2649359171 -0.4914365894 -0.0571788634 0.1673792253
515296910.0 -0.085625749 0.1634035546 0.2592609426 -0.4940253935 0.2597949067 -0.4942451557 -0.0548218362 0.1683533611
520296880.0 -0.0843145067 0.1644897118 0.2541467683 -0.4970465204 0.2543730093 -0.4966252225 -0.0532516737 0.1685497325
525296850.0 -0.0824199313 0.1648804606 0.248483065 -0.4994151683 0.2489883081 -0.4993351294 -0.0516179816 0.1697733574
530296820.0 -0.080768205 0.1659997864 0.2431172961 -0.5023596725 0.2435952659 -0.5021799113 -0.0495420833 0.170843183
535296790.0 -0.0797216812 0.1671126222 0.2380385565 -0.5044894978 0.2379548473 -0.5043314573 -0.0478016221 0.1713076072
540296760.0 -0.0779151447 0.1681308847 0.2322557412 -0.5076266008 0.2322046756 -0.5077211862 -0.0461019904 0.1724799067
545296730.0 -0.0764357616 0.169006831 0.2266850919 -0.5094945156 0.2270534568 -0.5097238089 -0.0445936482 0.1728370651
550296700.0 -0.0743165303 0.1700047673 0.2213603018 -0.5122016953 0.2214946014 -0.5126431851 -0.0426992247 0.1739473258
555296670.0 -0.0727939796 0.170893097 0.2158179444 -0.5144324592 0.2157401743 -0.514335207 -0.0404910858 0.1744438782
560296640.0 -0.0709631326 0.171827753 0.2102920896 -0.517401184 0.210040258 -0.516879492 -0.0385267899 0.1748482065
565296610.0 -0.0697723187 0.1723012841 0.2042958404 -0.5191882272 0.2045162382 -0.5188320734 -0.0366975436 0.1748478774
570296580.0 -0.0681763322 0.1732498205 0.1991611968 -0.5217187251 0.1983093336 -0.5211979622 -0.0350081594 0.1762760075
575296550.0 -0.0664514665 0.1744096451 0.1934498011 -0.5235088458 0.1930479353 -0.523530987 -0.0328951603 0.1762889239
580296520.0 -0.0645858157 0.1746708557 0.1875312017 -0.5258328115 0.1875546654 -0.5258487558 -0.0309465732 0.1770913484
585296490.0 -0.0632254011 0.1751878103 0.1819788187 -0.5269924416 0.1821133059 -0.527607999 -0.0290471736 0.1775129369
590296460.0 -0.0610297093 0.176475602 0.1761566406 -0.5288008153 0.1762554796 -0.5289730928 -0.0276995821 0.1780389956
595296430.0 -0.0594140819 0.1771571295 0.1698537161 -0.5313450305 0.1703856221 -0.5310356765 -0.025213273 0.177766187
600296400.0 -0.0579643451 0.1777873097 0.1645520132 -0.5328571756 0.1646955179 -0.532493862 -0.0234880454 0.1785853013
605296370.0 -0.0564315794 0.1782744994 0.1591335793 -0.5344052854 0.1590218194 -0.5343501668 -0.0214264804 0.1788903115
610296340.0 -0.054260983 0.1789316664 0.1524945918 -0.5361677954 0.1534108986 -0.536195685 -0.0191740903 0.179068368
615296310.0 -0.0523473805 0.1795712704 0.1470755436 -0.5375542815 0.1471412215 -0.5381544522 -0.0169024805 0.1794708695
620296280.0 -0.0507364189 0.1799961969 0.1411440211 -0.5391076529 0.1417676328 -0.5390776639 -0.0153418079 0.1797924744
625296250.0 -0.0493666987 0.1804774802 0.136218144 -0.5409253557 0.1355913625 -0.5410433565 -0.0127621563 0.180062588
630296220.0 -0.0467281112 0.1815435797 0.1292189212 -0.5422897113 0.1293316272 -0.5422875791 -0.011295429 0.1805729171
635296190.0 -0.0459984892 0.1820494356 0.1238353632 -0.543326169 0.1238864141 -0.543592196 -0.0089232407 0.1806832775
640296160.0 -0.0438874969 0.1826383903 0.1176116916 -0.5445665917 0.1180156108 -0.5447934922 -0.0068176288 0.1809252829
645296130.0 -0.0422184677 0.1834798211 0.1119314813 -0.5457159452 0.1122043015 -0.546014318 -0.0047025681 0.1812932292
650296100.0 -0.0402283235 0.1836004383 0.106134929 -0.5469382752 0.1061080239 -0.5470377352 -0.0023581899 0.181146932
655296070.0 -0.0385995149 0.183981492 0.0999309051 -0.5480543232 0.1003724994 -0.5483088928 -0.0003965866 0.1814097782
660296040.0 -0.0372456492 0.1842872793 0.0942884476 -0.5492637521 0.0945972418 -0.549345692 0.0016045593 0.1812393956
665296010.0 -0.0348717195 0.1852058568 0.0878141727 -0.5498113753 0.0883602453 -0.5498359145 0.0034436107 0.182240217
670295980.0 -0.033946885 0.185655159 0.0823631785 -0.5511186131 0.0823631849 -0.5509371671 0.005151397 0.1818470847
675295950.0 -0.0317738931 0.1863493523 0.0762452616 -0.5520198225 0.0763847193 -0.551331182 0.0071945926 0.1821178278
680295920.0 -0.0297526937 0.1863357317 0.0703751748 -0.5526104324 0.0699466443 -0.5527057231 0.0094671272 0.1830726302
685295890.0 -0.0277960765 0.1873699412 0.0645168613 -0.5533174351 0.0641150936 -0.5535772213 0.01176022 0.1825229508
690295860.0 -0.0261285099 0.1876725035 0.0585625136 -0.553299069 0.0583429772 -0.5542530384 0.0135679661 0.1832820766
695295830.0 -0.0243082803 0.1876726394 0.052795879 -0.5539466493 0.052128975 -0.5542008314 0.0155967018 0.1825971694
700295800.0 -0.0225312695 0.1880797062 0.0464344503 -0.5548151137 0.0461925375 -0.5548471486 0.0173385893 0.1833945129
705295770.0 -0.0209434238 0.1891220866 0.0406559262 -0.5551118809 0.0406461062 -0.5553570859 0.0194445859 0.1835072452
710295740.0 -0.0186957747 0.1889879261 0.0349753273 -0.5559639614 0.0346590303 -0.556170527 0.0214543508 0.1828967198
715295710.0 -0.0171806306 0.1892119658 0.0291395489 -0.556047743 0.0286341893 -0.5562401372 0.0232797335 0.1827921523
720295680.0 -0.0151022316 0.1897161439 0.0228393605 -0.5565598425 0.022619402 -0.5563031555 0.0256109194 0.1833069828
725295650.0 -0.0130995413 0.1901022944 0.0164529015 -0.5568061988 0.0164981715 -0.5570164285 0.0272148048 0.183152634
730295620.0 -0.0111824194 0.1905323257 0.0104418641 -0.5562264418 0.0107964636 -0.5565990009 0.0290041285 0.1825050105
735295590.0 -0.0095988567 0.1907456846 0.0047127607 -0.5571662918 0.0047129593 -0.5568226595 0.0310396829 0.182351433
740295560.0 -0.007900078 0.1909545475 -0.0013364802 -0.5563061653 -0.0016882142 -0.5566059186 0.0336354813 0.1822560944
745295530.0 -0.0059701594 0.191322694 -0.0073938018 -0.5563511466 -0.0076672226 -0.5565333778 0.035266184 0.1817893588
750295500.0 -0.0037584456 0.1913190079 -0.0133749419 -0.5559433118 -0.0128009035 -0.5568911171 0.0371003698 0.1814538666
755295470.0 -0.0020259981 0.1913106715 -0.019123259 -0.5561333474 -0.0192607269 -0.5564907238 0.0394951447 0.1809325331
760295440.0 -0.0003888754 0.191533449 -0.0252053506 -0.5561998148 -0.0253894811 -0.556366746 0.0412907322 0.1808787154
765295410.0 0.0016365639 0.1915520002 -0.0316018354 -0.5556366001 -0.0315622035 -0.5559838498 0.0433414374 0.1805005266
770295380.0 0.0029982756 0.1916909505 -0.037465805 -0.5548362929 -0.0370418932 -0.5551136624 0.0449942455 0.180086545
775295350.0 0.0047041457 0.1914988589 -0.0434428954 -0.5546394835 -0.0427511363 -0.5548252504 0.0467361905 0.1796676154
780295320.0 0.0071137796 0.191883968 -0.0494195006 -0.5540025319 -0.0488199321 -0.554157538 0.0488317084 0.1790787327
785295290.0 0.0083885496 0.1913598107 -0.0554608546 -0.5530777173 -0.0547322372 -0.5535668893 0.0514433791 0.1787617137
790295260.0 0.0109143097 0.1921515293 -0.0609564694 -0.5525650141 -0.0600718006 -0.5527845414 0.0533459041 0.1782661173
795295230.0 0.0125293141 0.192113358 -0.0672260078 -0.5519660586 -0.0666144233 -0.5523666529 0.0557382673 0.1779397485
800295200.0 0.0141743379 0.1920441644 -0.0735722175 -0.5510645762 -0.0729572724 -0.5510813631 0.0573506086 0.1773377618
805295170.0 0.0160533201 0.1918905918 -0.0789117111 -0.5503763575 -0.0789399833 -0.550782013 0.059327446 0.1769915155
810295140.0 0.0179065211 0.1917730736 -0.0844452904 -0.5494331544 -0.0848958924 -0.5498754916 0.0617763325 0.1765008712
815295110.0 0.0200349894 0.1915423809 -0.0910579408 -0.5483267688 -0.0907542121 -0.5484361346 0.0634792077 0.1759371282
820295080.0 0.0214898644 0.1922168213 -0.0963524374 -0.5472871551 -0.0962102309 -0.5472206892 0.0654604945 0.1753991545
825295050.0 0.0240008916 0.1917118717 -0.1019979018 -0.5464445831 -0.1020897877 -0.5463698905 0.0677004317 0.1747007295
830295020.0 0.0256546337 0.1918532579 -0.1083072206 -0.5453933201 -0.1082555476 -0.5451726122 0.0702386841 0.174217014
