!Created with skrf (http://scikit-rf.org).
# Hz S RI R 50.0 
!freq ReS11 ImS11 ReS21 ImS21 ReS12 ImS12 ReS22 ImS22
300000.0 -0.2378287466 -0.1090852825 0.4677306006 0.0724445074 0.4715160743 0.0747944015 -0.2385212048 -0.1160521693
5299970.0 -0.2410096883 0.0069763966 0.4753670939 0.0052022364 0.4748715987 0.0055886352 -0.2446057111 0.0052501336
10299940.0 -0.2372712317 0.0199046467 0.4774116029 0.0062669743 0.4769746622 0.0065229003 -0.2418548146 0.0174615796
15299910.0 -0.2328206869 0.0299827306 0.4807036782 0.0073615419 0.4806886334 0.0078884241 -0.2374712367 0.0264234873
20299880.0 -0.2273927954 0.037791169 0.4852120915 0.0079890604 0.485575369 0.0079072993 -0.2330203954 0.0339345867
25299850.0 -0.2216284886 0.0443295454 0.4906191568 0.0067511805 0.4905587725 0.0071373842 -0.2278185244 0.0398725478
30299820.0 -0.2157640689 0.0495223311 0.4962207357 0.0051362541 0.4955414112 0.0049079206 -0.2228155785 0.0446535658
35299790.0 -0.2100458582 0.0540462406 0.5012771277 0.0020010246 0.5013057441 0.0013007912 -0.2170789908 0.04871092
40299760.0 -0.2045925908 0.057098504 0.5061892438 -0.0019361908 0.5057357937 -0.0023940454 -0.2124630192 0.0520361968
45299730.0 -0.1993519495 0.060094289 0.5111302357 -0.0073411569 0.5109916238 -0.0069685163 -0.2079425993 0.0543807064
50299700.0 -0.1945564369 0.061954432 0.5148865889 -0.0125511237 0.5151120897 -0.0127005477 -0.2035642828 0.0566108231
55299670.0 -0.190552122 0.0638317458 0.5183329944 -0.0183856218 0.5186597422 -0.0186385433 -0.1997383036 0.0579898576
60299640.0 -0.1863104511 0.0649983614 0.5215832335 -0.0249898974 0.5220051449 -0.024767388 -0.1961626307 0.0596123704
65299610.0 -0.1830225948 0.0665436262 0.5250250074 -0.0308774755 0.5254869581 -0.0310229779 -0.1928688241 0.0606541944
70299580.0 -0.1796501006 0.0668232828 0.5272264675 -0.0375831215 0.5272525896 -0.0380583838 -0.1899618282 0.0616037386
75299550.0 -0.1766221033 0.0678625454 0.5291723042 -0.0442441761 0.5291664827 -0.0447838261 -0.1871728968 0.0624454541
80299520.0 -0.1741270396 0.0688634578 0.5314821818 -0.0513470994 0.5314084152 -0.0512930803 -0.184991086 0.0627070757
85299490.0 -0.1714062122 0.0694199406 0.5326331922 -0.0586136491 0.5325475921 -0.0584726926 -0.1826368098 0.0636036651
90299460.0 -0.1691870992 0.0701993642 0.5330870144 -0.0654728919 0.5336729758 -0.0652553897 -0.1803376127 0.0644190468
95299430.0 -0.1668459344 0.0711738128 0.5343135808 -0.0726424098 0.5344755025 -0.0720913711 -0.1786016224 0.0648538476
100299400.0 -0.1650036929 0.0717067504 0.5345078296 -0.0794670134 0.5347749831 -0.0794894748 -0.1769316118 0.0655078975
105299370.0 -0.1632473249 0.0725367555 0.5343122821 -0.0855367187 0.5349569788 -0.0860521505 -0.1752339534 0.0661540405
110299340.0 -0.1618052782 0.0730376312 0.5348188178 -0.0923358949 0.5350886195 -0.0932754687 -0.1737098514 0.0670000669
115299310.0 -0.1601662902 0.0735748769 0.5348356529 -0.0992513283 0.5355400979 -0.0993391964 -0.1721757537 0.0670172631
120299280.0 -0.1590335679 0.0745124013 0.5352548857 -0.1062227222 0.5346963901 -0.1064043597 -0.1709598329 0.0680153822
125299250.0 -0.1578817065 0.0752779182 0.5344318813 -0.1129190114 0.5346170651 -0.1129660658 -0.1697089046 0.0682838911
130299220.0 -0.1563387379 0.0760650741 0.5339124961 -0.1194948813 0.5340008459 -0.1196486713 -0.1686696034 0.0692088628
135299190.0 -0.1551956233 0.076557141 0.5331939475 -0.1261108896 0.5329961178 -0.1265109838 -0.1679994706 0.0699935846
140299160.0 -0.1543277338 0.0782292136 0.5324926585 -0.1333824307 0.5325597749 -0.1331983811 -0.1668297736 0.070957625
145299130.0 -0.1532458112 0.0788963526 0.5315740375 -0.1396126208 0.5314366263 -0.1393231346 -0.1659889677 0.0717443682
150299100.0 -0.1522096092 0.0797862703 0.5306038702 -0.1460179734 0.5305347352 -0.1461185036 -0.1651083602 0.0725280496
155299070.0 -0.1512686787 0.0813002041 0.5292135595 -0.1528495091 0.5291810131 -0.1531989002 -0.1645254992 0.0734407752
160299040.0 -0.1499922411 0.0819251741 0.5273044841 -0.1587347231 0.5277481596 -0.1591288317 -0.1633533143 0.0749089006
165299010.0 -0.1492958545 0.0832582438 0.5267418554 -0.1654146268 0.5265763515 -0.1654678084 -0.1628205181 0.0753742918
170298980.0 -0.1483572908 0.0844183532 0.5240088358 -0.171767337 0.524532337 -0.172005196 -0.1617013919 0.0766843294
175298950.0 -0.1474047946 0.0856407413 0.5237588078 -0.1778296172 0.5235200664 -0.1781700946 -0.1613773659 0.0776937207
180298920.0 -0.1461858147 0.0866476182 0.5213290318 -0.1843923838 0.5214848621 -0.1844511686 -0.1602428434 0.0787812618
185298890.0 -0.1452646284 0.0876164675 0.5193011666 -0.1904555648 0.5195569252 -0.190768299 -0.1598365582 0.0795906054
190298860.0 -0.1442915845 0.0892345048 0.5175583998 -0.1971508209 0.5175788972 -0.1966304529 -0.1583298775 0.0806778642
195298830.0 -0.1435155339 0.0902669288 0.5155923821 -0.2025768472 0.5154748865 -0.2027194932 -0.158049922 0.0816087222
200298800.0 -0.1425594174 0.0917905815 0.5139671988 -0.2085721582 0.5135273643 -0.2087679439 -0.1569239434 0.0831417013
205298770.0 -0.1416075932 0.0929525242 0.5117530397 -0.2148648036 0.5117648534 -0.214911786 -0.1565143308 0.0840040192
210298740.0 -0.1406497066 0.0942612229 0.5091329346 -0.2212438591 0.5097013791 -0.221333195 -0.1557740182 0.0853608066
215298710.0 -0.139592831 0.0954680072 0.5072279721 -0.2268038142 0.5068473829 -0.2264346142 -0.1551092829 0.0864434152
220298680.0 -0.1386914908 0.0969445141 0.5042126512 -0.2329225341 0.5047284778 -0.2327976906 -0.1542116815 0.0879031929
225298650.0 -0.1372670885 0.0983654793 0.5012923543 -0.2382499529 0.5019268628 -0.2385728193 -0.1533662346 0.0895119747
230298620.0 -0.1366798307 0.0998192258 0.4995094267 -0.2447438657 0.4999233013 -0.2444496286 -0.1524734848 0.0903985985
235298590.0 -0.1357339098 0.1007105627 0.4966783402 -0.2497756022 0.4970415849 -0.2504434201 -0.1518113643 0.0916353922
240298560.0 -0.1352822801 0.102383359 0.4944992379 -0.2554712663 0.4941069406 -0.2555086202 -0.1510431508 0.0930616795
245298530.0 -0.1335963048 0.1039918646 0.4911892883 -0.261788288 0.4914694875 -0.2617630956 -0.1500132829 0.094456827
250298500.0 -0.1331996275 0.1048526598 0.4886947367 -0.2664912795 0.4886783691 -0.2668149969 -0.1489426492 0.0960272971
255298470.0 -0.1322146859 0.1067268095 0.4855621717 -0.2728474909 0.4858371624 -0.2730240294 -0.1481121738 0.096686216
260298440.0 -0.1306650878 0.1082933965 0.4829779326 -0.278156114 0.4824844015 -0.2783895169 -0.1470640497 0.0985822874
265298410.0 -0.1295505228 0.1096882354 0.4798326186 -0.2840892723 0.4795151051 -0.2837919077 -0.1464978644 0.0991937151
270298380.0 -0.1281858384 0.1110445616 0.4759274685 -0.2889487775 0.4766253427 -0.2894656656 -0.1453475787 0.1010420432
275298350.0 -0.1274786998 0.1123484857 0.47360295 -0.2947954332 0.4736460374 -0.2948854533 -0.1443833037 0.1023075443
280298320.0 -0.1263378579 0.1139692628 0.4700163868 -0.2995789072 0.4700686857 -0.3000860972 -0.1434015163 0.103931747
285298290.0 -0.1249313882 0.1153664013 0.4671572239 -0.3050924879 0.4668748404 -0.3055254677 -0.1428418294 0.1051749954
290298260.0 -0.1239058711 0.1166631239 0.4640766163 -0.3105363113 0.4638614563 -0.3106760281 -0.1409626164 0.106820468
295298230.0 -0.1225778578 0.1180242033 0.4605903167 -0.3158052176 0.4600885262 -0.3160093303 -0.1403728523 0.1079052982
300298200.0 -0.1208998375 0.1194151625 0.4567293001 -0.3213612541 0.4569446497 -0.3214304648 -0.1394207963 0.109427441
305298170.0 -0.1196798994 0.1206621158 0.453615119 -0.3266598642 0.4537885748 -0.3265621013 -0.1382247438 0.1109773176
310298140.0 -0.1180957786 0.1219157396 0.4500042233 -0.3321729157 0.4500925664 -0.3319434236 -0.1369890252 0.1124769669
315298110.0 -0.1173082608 0.1232452424 0.4463193061 -0.3369768247 0.4465948987 -0.337246878 -0.1355326619 0.1134944292
320298080.0 -0.1158064785 0.1246332567 0.4426866391 -0.3422169499 0.4427499629 -0.3420335742 -0.1346234383 0.1146381961
325298050.0 -0.1146229329 0.1255119121 0.4391552003 -0.3471524222 0.4389052858 -0.347434707 -0.1337050509 0.1160943537
330298020.0 -0.1134278269 0.1269185256 0.4341210662 -0.352043212 0.4344142151 -0.3521232805 -0.1331291165 0.1168499037
335297990.0 -0.1120529259 0.1281345507 0.4302274854 -0.3568338877 0.4308728547 -0.3572785865 -0.1319995364 0.1187208513
340297960.0 -0.1115036066 0.1298762692 0.4266214861 -0.3620635954 0.426565286 -0.3616030975 -0.1312467111 0.1200940372
345297930.0 -0.1099908509 0.1310108088 0.4224625913 -0.3658243324 0.422220461 -0.3662751 -0.1298466065 0.1211393492
350297900.0 -0.1082490986 0.1325776871 0.4178192837 -0.3707377344 0.4184211497 -0.3710657604 -0.1288688302 0.1228638783
355297870.0 -0.1069687656 0.1337511604 0.4141815558 -0.3755089419 0.4140924743 -0.3757458475 -0.1280122001 0.1245690633
360297840.0 -0.105583086 0.1350525847 0.4101181856 -0.3803470084 0.4099695276 -0.3799468965 -0.1264909985 0.1258484335
365297810.0 -0.1041337007 0.136339266 0.4054578394 -0.3844345033 0.405411057 -0.3847111944 -0.1254886589 0.1272349676
370297780.0 -0.1026486546 0.1376277965 0.4014025895 -0.3890171272 0.4015802174 -0.3892059809 -0.1246048405 0.128818402
375297750.0 -0.101141709 0.139144749 0.3976888432 -0.3935355652 0.397430431 -0.3938098858 -0.1229223351 0.1302992197
380297720.0 -0.0994295625 0.140211633 0.3927045645 -0.3977667389 0.3928050481 -0.3975719809 -0.1218423249 0.1317147828
385297690.0 -0.0980598347 0.1416767853 0.3882914276 -0.4016493221 0.3883886088 -0.4021018177 -0.1207060207 0.1332603821
390297660.0 -0.0966205953 0.1427999498 0.383957423 -0.4060526182 0.3840376341 -0.4069520713 -0.1189695912 0.1342203124
395297630.0 -0.0949087816 0.143811082 0.3798125852 -0.410215662 0.3794828839 -0.4105169347 -0.1179895388 0.1359560686
400297600.0 -0.0934774286 0.1453887823 0.3750967189 -0.4146344727 0.375500235 -0.4145613487 -0.1172528439 0.1366791126
405297570.0 -0.0916402851 0.1464382442 0.3704731027 -0.4188650626 0.3703671779 -0.4190096949 -0.1154301552 0.1386568817
410297540.0 -0.090081815 0.1475860573 0.3655038852 -0.4226781942 0.3655462882 -0.4225032384 -0.1141661227 0.1394995799
415297510.0 -0.088714782 0.1490342042 0.3610213533 -0.4264999453 0.3611128465 -0.4268208859 -0.1131262336 0.1413272766
420297480.0 -0.0868727552 0.1497024452 0.3562731618 -0.4308051996 0.3564551719 -0.4305420367 -0.1116075288 0.1423737153
425297450.0 -0.0849239851 0.1506715581 0.3515477648 -0.4343072247 0.3522991359 -0.4349129965 -0.1103988911 0.1437709033
430297420.0 -0.0837833845 0.1521124479 0.3472210468 -0.4384368222 0.3468804988 -0.4383750008 -0.1089951782 0.1450098601
435297390.0 -0.0816311158 0.1530008105 0.3424346387 -0.4421255052 0.3422585368 -0.4421369441 -0.1077679795 0.146461735
440297360.0 -0.0798523193 0.1539301503 0.3373111404 -0.4459001049 0.3367529556 -0.4456120585 -0.1063347288 0.1470859172
445297330.0 -0.0779566898 0.15491417 0.3318350546 -0.4501926916 0.3324046915 -0.4497369345 -0.1049462386 0.148529955
450297300.0 -0.0763732134 0.1561203234 0.3271969961 -0.4532690365 0.3274482654 -0.4531751203 -0.1035810811 0.1497989249
455297270.0 -0.0747700854 0.1570919721 0.3226615977 -0.4568617636 0.3229482538 -0.456811144 -0.1019963484 0.1511947448
460297240.0 -0.0733689717 0.1579990285 0.3173290934 -0.4597390828 0.3172360415 -0.4600302148 -0.1005021191 0.152871387
465297210.0 -0.0709444895 0.1589871 0.3123541961 -0.4635391201 0.312969657 -0.4637788493 -0.0998386471 0.1533449398
470297180.0 -0.0697165356 0.1600685426 0.3073660041 -0.4667077964 0.3075312604 -0.4668171033 -0.098416771 0.1546482487
475297150.0 -0.0678960015 0.1604086945 0.3025616579 -0.4700216053 0.3023405292 -0.4696843515 -0.0962775481 0.1560985021
480297120.0 -0.0659903342 0.1614628201 0.2971254901 -0.4731903902 0.2970907308 -0.4732006122 -0.0951028581 0.1575776451
485297090.0 -0.0638410852 0.1623866012 0.2918501908 -0.4762970141 0.2920091338 -0.4766895477 -0.0939005853 0.1581269357
490297060.0 -0.062173256 0.162991087 0.2868705271 -0.479317769 0.2867844436 -0.4795542158 -0.0920805883 0.1593108462
495297030.0 -0.0603914332 0.1643645413 0.281335759 -0.4829620254 0.281097305 -0.4828339363 -0.0904527789 0.1602015424
500297000.0 -0.0585085812 0.1645599952 0.2759811282 -0.4856769809 0.2763727762 -0.4857689053 -0.0895484455 0.1613949926
505296970.0 -0.056947431 0.1654612165 0.2704443149 -0.4881674115 0.2704905779 -0.4886006391 -0.0882132984 0.1624648644
510296940.0 -0.0550735954 0.1664339504 0.2653698465 -0.4915115064 0.265548675 -0.4918175471 -0.0860572016 0.1636322139
515296910.0 -0.0536025437 0.1673337453 0.2604166878 -0.4943035387 0.260264929 -0.4944652507 -0.0850015904 0.1644507538
520296880.0 -0.0513411368 0.1676663172 0.2544691062 -0.4968311378 0.2549737664 -0.4969509229 -0.0830997483 0.1655928987
525296850.0 -0.0494452815 0.168308631 0.2492975824 -0.4995236806 0.2495477521 -0.5003854854 -0.0814856444 0.1663970614
530296820.0 -0.0475963219 0.1689920942 0.244268514 -0.5021582973 0.24402992 -0.502265793 -0.0803571004 0.1673335255
535296790.0 -0.0458025387 0.1699344135 0.2383332376 -0.5049176476 0.2386181086 -0.5048016374 -0.0787200965 0.1680315924
540296760.0 -0.0437375161 0.1700370957 0.2328639172 -0.5075499769 0.2324873831 -0.5078505573 -0.0772900813 0.1691300267
545296730.0 -0.0418157986 0.1711069978 0.2274092006 -0.509697093 0.2275363312 -0.5101025281 -0.0755902931 0.1697556604
550296700.0 -0.0402954922 0.1716749416 0.22192055 -0.5123559406 0.2221445762 -0.5125441895 -0.0739340216 0.1710930879
555296670.0 -0.0380182681 0.1719350137 0.2162442051 -0.5148073255 0.21623253 -0.514905479 -0.0726194617 0.1719277961
560296640.0 -0.0360582079 0.1724837089 0.2108162276 -0.5167799999 0.2109634014 -0.5166883433 -0.0707438951 0.1730026391
565296610.0 -0.0343990545 0.1731747703 0.2047905336 -0.5193203073 0.2050280359 -0.5193354967 -0.0691821754 0.1737229725
570296580.0 -0.0321874998 0.1733950525 0.199192156 -0.5212081379 0.1998346535 -0.5212857781 -0.0672400603 0.1747063699
575296550.0 -0.0302576833 0.1743584609 0.1937483604 -0.5231370216 0.1940172245 -0.5231014677 -0.0658482897 0.1751688195
580296520.0 -0.0287257534 0.1749250187 0.1882600964 -0.5257295424 0.1879639365 -0.5254449107 -0.0639256615 0.1761353576
585296490.0 -0.0262201141 0.1746253651 0.1825176038 -0.5275234044 0.1825215899 -0.5274822664 -0.0628567838 0.1766652323
590296460.0 -0.02499442 0.1751795329 0.1766565715 -0.5292397088 0.1767051652 -0.5294159577 -0.0606140853 0.1777125967
595296430.0 -0.0227349024 0.1759406345 0.170885039 -0.531021131 0.1708741677 -0.5315823144 -0.0588698387 0.1779593874
600296400.0 -0.0206842555 0.1762443226 0.1652956402 -0.533125667 0.1654923257 -0.5331588819 -0.0572317404 0.1791978537
605296370.0 -0.018621895 0.1768699425 0.1595809416 -0.5347687633 0.1595927576 -0.534628024 -0.0555974945 0.1797381193
610296340.0 -0.0168331605 0.1770400948 0.1538785499 -0.5364056223 0.1542032248 -0.5367958162 -0.0539209926 0.1807081463
615296310.0 -0.0149481558 0.1775509295 0.1478924281 -0.5374597172 0.1478973484 -0.5380146672 -0.0523205057 0.1809948079
620296280.0 -0.0129398922 0.1776714753 0.1424060665 -0.5393953913 0.1422064341 -0.5394188982 -0.0506192839 0.1812749997
625296250.0 -0.0108603413 0.1776555845 0.1356787381 -0.5411789706 0.1359648921 -0.541201763 -0.0487425226 0.1822488834
630296220.0 -0.00873549 0.1782240957 0.1299099565 -0.5424693808 0.1308429587 -0.5426034262 -0.0475328642 0.183152249
635296190.0 -0.0069048388 0.1785339802 0.1243993224 -0.5434123716 0.1240139431 -0.5435701501 -0.045302105 0.1833360351
640296160.0 -0.0049020088 0.1786118227 0.1186317043 -0.5446441805 0.1185407247 -0.5448870868 -0.0435396511 0.1839383142
645296130.0 -0.0029340747 0.1790563304 0.1125226421 -0.5464208512 0.1132642444 -0.546357063 -0.0427669592 0.1845173746
650296100.0 -0.0011190343 0.1793792529 0.1072066198 -0.5470216756 0.106925539 -0.5471951282 -0.0401380996 0.185379639
655296070.0 0.0009760739 0.1790381453 0.1008282741 -0.5486582168 0.1007503488 -0.5479894857 -0.0382963965 0.1859949929
660296040.0 0.0027200966 0.1796449092 0.095027601 -0.5491466355 0.0955359008 -0.5491161347 -0.0366256575 0.1861685081
665296010.0 0.0051531248 0.179520667 0.0894084047 -0.5503032413 0.0897736986 -0.5503899632 -0.0351886562 0.1869183346
670295980.0 0.0074474004 0.1798307558 0.0831709496 -0.5518431318 0.0837145107 -0.5514682979 -0.0334348695 0.1870960312
675295950.0 0.0091574909 0.1797965424 0.0770012516 -0.5519555971 0.0773677291 -0.5525021929 -0.0311141073 0.1876176092
680295920.0 0.0110451816 0.179975318 0.0710834139 -0.5530508929 0.0708778242 -0.5530118281 -0.0295573751 0.1881447381
685295890.0 0.013019599 0.1797532617 0.0654706939 -0.5534850866 0.0651446238 -0.5540223259 -0.0277360003 0.1887942074
690295860.0 0.0152517832 0.1800864835 0.0594889699 -0.5539835167 0.0593445217 -0.5542272088 -0.0258424463 0.1892902608
695295830.0 0.0174373441 0.17985205 0.0526738435 -0.5550183657 0.0530339234 -0.5555545934 -0.0242831898 0.1898176677
700295800.0 0.0197261415 0.1795172681 0.0472011638 -0.5553319488 0.047027308 -0.5559102052 -0.0221595016 0.1898296233
705295770.0 0.0217137465 0.179879219 0.0410407649 -0.5557061963 0.0415852836 -0.5561159502 -0.02072348 0.1903739292
710295740.0 0.0233920384 0.1798115763 0.0352496908 -0.5559200205 0.0352958039 -0.5561316898 -0.0195128529 0.1906610894
715295710.0 0.0252568647 0.1799081497 0.0292736473 -0.5567742783 0.0295703955 -0.5565013774 -0.0169144595 0.1907131603
720295680.0 0.0271168439 0.1794429317 0.023170631 -0.5566639423 0.0234278682 -0.5571273765 -0.0147672565 0.1912809805
725295650.0 0.0294766806 0.1794056465 0.0170299046 -0.5568668903 0.0172665698 -0.557247787 -0.0132854876 0.1916781429
730295620.0 0.0311465957 0.1789003227 0.011073364 -0.5570341164 0.0112715548 -0.5569519372 -0.011357408 0.191289853
735295590.0 0.0336719009 0.1788599858 0.0053769636 -0.5571285226 0.0058407401 -0.5571387401 -0.0092756921 0.192177465
740295560.0 0.0353830604 0.1788150805 -0.0007671329 -0.5568868795 -0.0008357319 -0.5570668866 -0.0073809285 0.1920697474
745295530.0 0.0375421012 0.1784767566 -0.0068239979 -0.5569941969 -0.006450072 -0.5571520079 -0.0058301746 0.1924161096
750295500.0 0.0393719207 0.1779672928 -0.0125337281 -0.5565746305 -0.0123351718 -0.5569518625 -0.0037711226 0.1924179743
755295470.0 0.0418030922 0.1779622489 -0.0186271661 -0.5565137389 -0.0183730576 -0.5569541669 -0.0024658474 0.1929630878
760295440.0 0.043619096 0.1777472106 -0.0247605032 -0.5564699358 -0.0247272349 -0.5563930876 -0.0007182986 0.1930201028
765295410.0 0.045314762 0.1769854198 -0.030137344 -0.5556951497 -0.0304406733 -0.5560764657 0.002128801 0.1936597923
770295380.0 0.0476347746 0.1770797964 -0.0365800717 -0.5555124698 -0.0363803412 -0.5558875081 0.0036238718 0.1931500956
775295350.0 0.0494214903 0.1769391703 -0.042307788 -0.555167713 -0.0425901592 -0.5554666449 0.0049776349 0.1929017279
780295320.0 0.0515844033 0.1759293426 -0.0484177665 -0.5548139912 -0.0484557971 -0.5549927596 0.0071378882 0.1936562141
785295290.0 0.0534956767 0.1759247585 -0.0545136977 -0.5533928879 -0.0544682596 -0.5543426353 0.0083274087 0.1938535263
790295260.0 0.0553944776 0.1752677005 -0.0603820072 -0.5535170291 -0.060586906 -0.5540154455 0.0108568518 0.1935114783
795295230.0 0.0571793957 0.1750202267 -0.0657670331 -0.5524892208 -0.0661807842 -0.5527793 0.0127318933 0.1941383036
800295200.0 0.0594820155 0.1745817214 -0.0725804417 -0.5521409856 -0.0726381794 -0.5523363506 0.0147255171 0.1936552617
805295170.0 0.061173108 0.1742337947 -0.0784653413 -0.5508961403 -0.0780609724 -0.5510287003 0.0160200619 0.1934561581
810295140.0 0.0630396989 0.1733725637 -0.0836021465 -0.5500303849 -0.0842114563 -0.5507478037 0.0184239325 0.1940399684
815295110.0 0.0653511374 0.1729754216 -0.0902110052 -0.5490329507 -0.0905442959 -0.5493515997 0.0199031665 0.1935767909
820295080.0 0.066826154 0.1719431276 -0.0954192103 -0.5481952314 -0.0959591425 -0.5484601636 0.0215404822 0.1937255871
825295050.0 0.0689953517 0.1714071009 -0.1021597034 -0.5465251221 -0.1018775548 -0.5473730854 0.0239193205 0.1939658974
830295020.0 0.0710606638 0.1713265858 -0.1080244448 -0.5456094409 -0.107846022 -0.546101934 0.0255085742 0.1935198498
