!Created with skrf (http://scikit-rf.org).
# Hz S RI R 50.0 
!freq ReS11 ImS11 ReS21 ImS21 ReS12 ImS12 ReS22 ImS22
300000.0 -0.1014355964 -0.0654156392 0.63163389 0.0600348051 0.6256888169 0.0615693188 -0.103748321 -0.0732468608
5299970.0 -0.1020390961 0.0130904421 0.6303532142 0.0101314384 0.6308081903 0.0103909772 -0.1006971693 0.013140391
10299940.0 -0.0972875281 0.0293111106 0.6338091182 0.0153429882 0.634215368 0.0156602801 -0.0959096315 0.0304403755
15299910.0 -0.0899698601 0.0425955717 0.6405155263 0.0205717645 0.6406317042 0.0202104526 -0.0883858665 0.043547037
20299880.0 -0.081502939 0.0532886355 0.6483174671 0.0240578549 0.648536406 0.0238115634 -0.0798509874 0.0545130425
25299850.0 -0.0723293297 0.0624158149 0.6578207257 0.0248656099 0.6575939684 0.0253749214 -0.0698256022 0.0633501688
30299820.0 -0.0622470753 0.0689738952 0.6676776861 0.0244836842 0.6673350918 0.0244622531 -0.059954077 0.0701282401
35299790.0 -0.0523438306 0.0736424977 0.6770985095 0.0210257867 0.6770555903 0.0219664891 -0.0499118523 0.0749175939
40299760.0 -0.0431482706 0.0770974249 0.686304636 0.0171007644 0.6865580799 0.0177530945 -0.0401759446 0.0775560547
45299730.0 -0.0340072906 0.0793373712 0.6949789497 0.0119235686 0.6952963968 0.011776755 -0.0313605708 0.0798345998
50299700.0 -0.0254618516 0.0801066633 0.7035509642 0.0046660809 0.7034286338 0.0058829689 -0.0227386517 0.0803605322
55299670.0 -0.0176364828 0.0803669891 0.71096006 -0.0035200509 0.7107289484 -0.002838026 -0.0147337522 0.0806459236
60299640.0 -0.0098617094 0.0802504509 0.7176476864 -0.0112268458 0.717532874 -0.0107771619 -0.0077175026 0.0794944273
65299610.0 -0.0038226201 0.0787769301 0.723152697 -0.0199552409 0.7235954621 -0.0197751869 -0.0011272015 0.0784530133
70299580.0 0.002637421 0.0776230403 0.7286686122 -0.0290196759 0.7283316738 -0.0294005644 0.0046911331 0.0770544511
75299550.0 0.0082960999 0.0757608929 0.7331272278 -0.0389791221 0.7324505716 -0.0388623057 0.0101705718 0.0745669277
80299520.0 0.01300053 0.0733964723 0.7369248311 -0.0494453316 0.7373593711 -0.0490887035 0.0150422019 0.0727920239
85299490.0 0.017570769 0.0713873712 0.7406768472 -0.0581771963 0.7402408722 -0.0583848516 0.0192707498 0.069800525
90299460.0 0.0217807619 0.0691822343 0.7426125105 -0.0689141467 0.7433002034 -0.0685545463 0.0235719867 0.0677141772
95299430.0 0.0257120782 0.066743589 0.745450963 -0.0788375837 0.7456093245 -0.0791636976 0.0274180878 0.065480625
100299400.0 0.0289016495 0.0647567228 0.7465102469 -0.0891013078 0.7466551198 -0.089198839 0.0311364018 0.0625017538
105299370.0 0.0321755819 0.0619904435 0.7483327062 -0.0994990878 0.7494267861 -0.0994418041 0.0342356899 0.0606698714
110299340.0 0.0350284327 0.059630535 0.7499786517 -0.1092921209 0.7495884206 -0.1086591886 0.0362104178 0.0577329668
115299310.0 0.0374325157 0.0574015306 0.7505009301 -0.1193491871 0.7509128027 -0.1194847519 0.0392066414 0.0554509638
120299280.0 0.039949535 0.0545248686 0.7508625382 -0.1293507633 0.7514268411 -0.1294030569 0.0412730431 0.0531321425
125299250.0 0.0418754032 0.0521651422 0.751733982 -0.1392492295 0.7518562484 -0.1389834948 0.042811262 0.0503796751
130299220.0 0.0436579776 0.0504413149 0.7512966455 -0.1495436324 0.7513759895 -0.1492437244 0.0449365206 0.0481485078
135299190.0 0.0453949708 0.0482840555 0.7517364886 -0.1591221166 0.7512050161 -0.1585571844 0.0465928737 0.0459903932
140299160.0 0.0464968222 0.0461317684 0.7508341879 -0.1685719248 0.7507201529 -0.168998848 0.047960948 0.0443842991
145299130.0 0.048321372 0.0439304128 0.7501388381 -0.1784669381 0.7497189654 -0.1781937904 0.0493418457 0.0418287719
150299100.0 0.0496137128 0.0420121357 0.7485293847 -0.1879790911 0.7487414798 -0.1873674385 0.050709559 0.0402393834
155299070.0 0.0503718107 0.0396429994 0.7476892971 -0.1982812784 0.748099423 -0.1980105218 0.0518453423 0.038421613
160299040.0 0.0518851195 0.0381771988 0.7461643869 -0.2071414741 0.7455275619 -0.2075691472 0.0522271299 0.0362822503
165299010.0 0.0524731448 0.0361676425 0.7443284918 -0.2170460411 0.7446790218 -0.2171158138 0.0534459221 0.0350462078
170298980.0 0.0533864419 0.0339874291 0.7425716401 -0.2258701498 0.7428622713 -0.2262650451 0.0539773211 0.0330064417
175298950.0 0.0538572893 0.0319801995 0.7412042321 -0.2352568559 0.7405929482 -0.2356146876 0.0547515585 0.0312947835
180298920.0 0.0542037711 0.030367321 0.7387165664 -0.2447892981 0.7388549813 -0.244234936 0.0554268235 0.0299257741
185298890.0 0.0554231471 0.0287853546 0.7365236205 -0.2541881707 0.7363103049 -0.2538036973 0.0557541154 0.0285784026
190298860.0 0.0553824102 0.0273324051 0.7341908186 -0.2632501637 0.734467539 -0.2629078263 0.0561630531 0.0261668486
195298830.0 0.055967594 0.0252722097 0.7318625306 -0.272008259 0.7317237448 -0.2714970701 0.0572751787 0.0253072239
200298800.0 0.0564775919 0.0242198933 0.7289902901 -0.2814069523 0.7288776044 -0.2813656557 0.0567861477 0.0234241076
205298770.0 0.0568746494 0.0227171957 0.7262122329 -0.2901062569 0.7262069916 -0.2897465982 0.0574452859 0.0213551279
210298740.0 0.0573248378 0.0206434235 0.7230325807 -0.2983844776 0.7230697918 -0.2979530156 0.0580191395 0.0212260196
215298710.0 0.0568595687 0.0195972871 0.7200306658 -0.3077600024 0.7199723435 -0.3073675145 0.0578670569 0.0197412261
220298680.0 0.057455665 0.0178102103 0.7165856858 -0.3158324457 0.7168283863 -0.3162218294 0.0576905733 0.0179885629
225298650.0 0.0576298035 0.0164813125 0.7138438186 -0.324891341 0.7137271722 -0.3245664397 0.0573057614 0.0166884992
230298620.0 0.057908479 0.0155887174 0.7108051035 -0.3324256118 0.710583218 -0.3329566548 0.0574461647 0.0151213286
235298590.0 0.0578839689 0.0145259029 0.706858965 -0.3418639018 0.7066600963 -0.3412356573 0.0576801943 0.0137733061
240298560.0 0.0580325549 0.0133773356 0.7036561281 -0.3497869469 0.7033393304 -0.3502503406 0.0575668341 0.0132412014
245298530.0 0.0578949441 0.0118662606 0.7000673923 -0.3583040338 0.6995466148 -0.3584737283 0.0583656923 0.0107822392
250298500.0 0.0585484495 0.0109459913 0.6948966508 -0.3663220253 0.694859503 -0.3659447107 0.0580300859 0.0102186886
255298470.0 0.0582889788 0.009271349 0.6911276143 -0.3744048533 0.6917691996 -0.3742700582 0.0583599449 0.0092867375
260298440.0 0.0579463948 0.0080709656 0.6877244888 -0.3831286607 0.6876442049 -0.3821926348 0.0586948878 0.0081209406
265298410.0 0.0587388065 0.007667267 0.6832326316 -0.3914510591 0.6840219587 -0.3909954631 0.0581527193 0.0066942998
270298380.0 0.0583175746 0.006206358 0.6798611353 -0.3980977427 0.6791759016 -0.3984888045 0.0580277128 0.0059534447
275298350.0 0.0588280444 0.0050995746 0.6752739039 -0.4069277229 0.6754768777 -0.4069600107 0.0583092269 0.0043485934
280298320.0 0.0586961652 0.0044603152 0.671048719 -0.4145934609 0.6706682774 -0.4143147515 0.0586080023 0.0033698497
285298290.0 0.0586060495 0.0031174632 0.666912544 -0.4222548002 0.666133241 -0.4224888281 0.0585229834 0.00233912
290298260.0 0.0589914198 0.0020816824 0.6620936863 -0.429557957 0.6618269795 -0.4302726335 0.0583765806 0.0015564187
295298230.0 0.0589501272 0.0010188536 0.6575405663 -0.4378248165 0.6573290689 -0.4376363117 0.0593419085 0.0003518612
300298200.0 0.0584165532 -0.0001352001 0.6529833626 -0.4449351837 0.6528300462 -0.4457511336 0.0587637147 -0.0008567245
305298170.0 0.058669685 -0.0012521926 0.6475116795 -0.4538303744 0.6478729255 -0.4533324751 0.059454618 -0.0019985458
310298140.0 0.0585660767 -0.0023654344 0.6428011861 -0.4607683589 0.6433728478 -0.4605765131 0.0593706536 -0.0033920856
315298110.0 0.0582306987 -0.0041554533 0.6385274218 -0.4688075445 0.638236582 -0.4686153268 0.0588752457 -0.0044775976
320298080.0 0.0586517802 -0.0049608841 0.6324027243 -0.476405462 0.6324265525 -0.4757881203 0.0586134648 -0.005271062
325298050.0 0.0579196677 -0.0064959105 0.6271220047 -0.4840260042 0.6268755605 -0.4834583004 0.0579081734 -0.0064125596
330298020.0 0.0575341338 -0.0072009362 0.6212282183 -0.4906016919 0.6215627376 -0.4907831619 0.0575132625 -0.0076271478
335297990.0 0.0568814297 -0.008537808 0.6158471936 -0.4976012633 0.6156017072 -0.4978391867 0.0567516973 -0.0078247383
340297960.0 0.0561179007 -0.0090742403 0.6099327208 -0.5049888926 0.6093500304 -0.5045989103 0.0572793527 -0.0083592791
345297930.0 0.0558747465 -0.0093267114 0.6043106059 -0.5121138421 0.6035323495 -0.5122800428 0.0562016283 -0.0100967816
350297900.0 0.0551287718 -0.0108347849 0.5976889551 -0.5190955508 0.5977143326 -0.5185718268 0.0556380527 -0.009783712
355297870.0 0.0546706617 -0.0106835263 0.591978089 -0.5248430615 0.5927001869 -0.5247247915 0.0553344169 -0.0110033956
360297840.0 0.0545020642 -0.011648281 0.5871582076 -0.5317516208 0.5871531887 -0.5321214053 0.0550890885 -0.0111826192
365297810.0 0.0538066113 -0.011838802 0.5808019833 -0.5390583206 0.5813288712 -0.5382712931 0.0547488158 -0.0119772621
370297780.0 0.0544148205 -0.0132925833 0.574604703 -0.5445876513 0.5750974047 -0.5446079592 0.0540005036 -0.0122318145
375297750.0 0.0537348376 -0.0138202063 0.568718561 -0.5514416784 0.5693735822 -0.5511168148 0.0542943372 -0.0128173359
380297720.0 0.0537550747 -0.0142483657 0.5625034471 -0.5580404523 0.5629945231 -0.5567465927 0.0534328361 -0.0139098714
385297690.0 0.0526240317 -0.0153510234 0.556339758 -0.5639820194 0.5561472195 -0.5635951707 0.0532621948 -0.014336094
390297660.0 0.0528197704 -0.0154049668 0.5501588723 -0.5700400832 0.5496975849 -0.5696593227 0.0526510809 -0.0153179481
395297630.0 0.052358544 -0.0160262197 0.5439871747 -0.5761972528 0.5442494378 -0.5763089344 0.0532958579 -0.0154925356
400297600.0 0.0517359866 -0.0168631311 0.537242248 -0.5825659129 0.5376781281 -0.5822813974 0.0521909503 -0.0162665968
405297570.0 0.0512854815 -0.0175360341 0.5308727296 -0.5883406378 0.5312899778 -0.5880075918 0.0514530408 -0.0168559128
410297540.0 0.051277206 -0.0182317754 0.5248104083 -0.5943725374 0.5248499272 -0.5941202872 0.0513913557 -0.0171607008
415297510.0 0.051088002 -0.018745911 0.5176264766 -0.599940948 0.5182511163 -0.600157149 0.0512280478 -0.0176506009
420297480.0 0.0509005306 -0.019193935 0.5110759784 -0.6057397839 0.5116124305 -0.6060127842 0.0505951135 -0.019189768
425297450.0 0.0501512407 -0.0205160766 0.5044951004 -0.6118428093 0.5049506581 -0.6113506537 0.0496073645 -0.0191175565
430297420.0 0.04978504 -0.020909035 0.4982213166 -0.6164414997 0.4977680761 -0.6165781833 0.0494191263 -0.0203132741
435297390.0 0.0493972336 -0.0213636452 0.4908474466 -0.6223222941 0.4906419704 -0.6222995898 0.0502981691 -0.0207185965
440297360.0 0.0493406524 -0.0215931252 0.4844086116 -0.6276041507 0.4843914087 -0.6275512668 0.0486146604 -0.0215154033
445297330.0 0.0484713722 -0.022824003 0.4777497546 -0.6332397208 0.4778791889 -0.6326391939 0.0490255709 -0.0224201137
450297300.0 0.0487290706 -0.0233685803 0.4707564131 -0.6380370877 0.4703687728 -0.6385817909 0.0484070516 -0.0229314743
455297270.0 0.0483264661 -0.0237577984 0.4628772186 -0.6439813267 0.4638298657 -0.6437321694 0.0481671263 -0.0235709589
460297240.0 0.0476554967 -0.0243094358 0.456127691 -0.6488242427 0.4560015574 -0.6489540708 0.0478990105 -0.0239980389
465297210.0 0.0476617504 -0.0251411884 0.4489469579 -0.6537210597 0.4493872301 -0.6544536622 0.0474313675 -0.0247842604
470297180.0 0.0469336227 -0.0257317947 0.4416320569 -0.6584933674 0.4414359212 -0.6589097108 0.0466614543 -0.0251825905
475297150.0 0.0466297368 -0.0264810675 0.4343142116 -0.662951329 0.4345312324 -0.663230287 0.0470587232 -0.0258093824
480297120.0 0.0461643263 -0.0259733538 0.4272242536 -0.6690651366 0.4271424729 -0.66917197 0.0467633761 -0.0261231581
485297090.0 0.0454744462 -0.0270435404 0.419956941 -0.6730717297 0.41995742 -0.6729667663 0.0464186088 -0.0268994936
490297060.0 0.0446484189 -0.0279047795 0.4131648578 -0.6781217265 0.4129278979 -0.6770616041 0.0459916425 -0.0267151273
495297030.0 0.0445452169 -0.0280803833 0.4047460679 -0.6820052913 0.4055086237 -0.6824066225 0.0450281974 -0.0278971643
500297000.0 0.0441586853 -0.028937679 0.3976595344 -0.6863286575 0.3969414218 -0.6862023389 0.0451138798 -0.0273295837
505296970.0 0.0439966467 -0.0294863406 0.3900808099 -0.6903287316 0.3893694423 -0.6904707476 0.0442371787 -0.0281549617
510296940.0 0.0433063985 -0.0295119295 0.3822970771 -0.6951837679 0.382287934 -0.6955702906 0.0444748222 -0.0283328019
515296910.0 0.0426450696 -0.0297435 0.3741933922 -0.699539702 0.374261442 -0.6993696769 0.0438754228 -0.0288605817
520296880.0 0.041978599 -0.0305828235 0.3670141806 -0.7043141897 0.3669039302 -0.7031199822 0.0430008609 -0.0295127698
525296850.0 0.0416834149 -0.0316759384 0.3585349343 -0.7073974008 0.3593797407 -0.7073098932 0.042563288 -0.0297218527
530296820.0 0.0412910844 -0.031306645 0.3514403348 -0.7113041296 0.3513730962 -0.7114054221 0.0423031731 -0.0300195242
535296790.0 0.0404306386 -0.0319305118 0.3442688727 -0.7153585346 0.3441592867 -0.7148755806 0.0418435724 -0.0312400618
540296760.0 0.0400111329 -0.0318390143 0.3354759401 -0.7194196954 0.3355856964 -0.719184633 0.0408791561 -0.0304443419
545296730.0 0.0397086105 -0.0328622275 0.3275180167 -0.7227135921 0.3277853092 -0.722508325 0.040462652 -0.031230826
550296700.0 0.039615345 -0.032625357 0.3199483824 -0.7263592403 0.3198799002 -0.7264650414 0.0397482796 -0.0315290067
555296670.0 0.0385370809 -0.0331269509 0.312121266 -0.7295468017 0.3123064163 -0.7290438599 0.0394595353 -0.0318542329
560296640.0 0.0386001166 -0.0331877825 0.3038736753 -0.73337921 0.3039357205 -0.7327105898 0.0389528285 -0.0323496057
565296610.0 0.0374430409 -0.0339420739 0.2956093329 -0.736114294 0.2957918131 -0.7366274013 0.0379304207 -0.0331234447
570296580.0 0.0371908049 -0.0340749368 0.2885520694 -0.7402461665 0.2875914854 -0.7394588985 0.0375818244 -0.0327163859
575296550.0 0.0363447085 -0.0343453593 0.2799758504 -0.742852478 0.279902431 -0.7427352676 0.0372648548 -0.0336624856
580296520.0 0.0360427644 -0.0347777047 0.2714650325 -0.7460080235 0.2719501941 -0.745792963 0.0365136168 -0.0339572033
585296490.0 0.0355387738 -0.0357762515 0.2640636741 -0.7483672977 0.2640414671 -0.748558407 0.0361083052 -0.0341493384
590296460.0 0.0353661023 -0.0355070022 0.2554468369 -0.7506284141 0.2552016531 -0.7512943752 0.0348168587 -0.0347528293
595296430.0 0.0347211998 -0.0358364481 0.2465950936 -0.7545360326 0.2468012833 -0.7537137997 0.0350724101 -0.0351402616
600296400.0 0.0339628013 -0.0365464615 0.2390424313 -0.7569793449 0.2386294754 -0.7569212244 0.0341767727 -0.0355174987
605296370.0 0.0334660686 -0.0367708566 0.2307677106 -0.7591075268 0.2307119719 -0.7593805085 0.0336068264 -0.035972147
610296340.0 0.0328524823 -0.0371429949 0.2218120749 -0.7617114601 0.2223877944 -0.7618617523 0.0334915801 -0.0362545328
615296310.0 0.0326743512 -0.0378403754 0.2139441176 -0.7640272901 0.2135261753 -0.7646359888 0.033211405 -0.0364174285
620296280.0 0.032098332 -0.0380605033 0.2056703403 -0.7661463973 0.2053831755 -0.7658522013 0.0320741854 -0.0369845249
625296250.0 0.0310354036 -0.0389878745 0.1977531715 -0.7695312775 0.1971953303 -0.7694000333 0.0326543731 -0.0370856904
630296220.0 0.0318467966 -0.0382451217 0.1882037841 -0.7705261561 0.1877308687 -0.7702712367 0.0314407789 -0.0369694557
635296190.0 0.0295723058 -0.0389786369 0.1800214944 -0.7725572541 0.1802930648 -0.7731401597 0.0313857086 -0.0378218242
640296160.0 0.0291490085 -0.0388791471 0.1717767858 -0.7740191182 0.1720310654 -0.7750586725 0.0305561238 -0.0376622803
645296130.0 0.0291531213 -0.0391245271 0.1632055032 -0.7763600456 0.1636725918 -0.7765453013 0.0301052523 -0.0378700601
650296100.0 0.028778809 -0.0394203544 0.1544914497 -0.7784422839 0.15492646 -0.7787298957 0.0299523828 -0.039098268
655296070.0 0.0274868625 -0.0401775352 0.1464612218 -0.7797788716 0.1462589576 -0.7798906404 0.0292685576 -0.0386200205
660296040.0 0.026558458 -0.0407206699 0.1384502581 -0.781744002 0.1383077024 -0.781672755 0.0290168282 -0.0387677436
665296010.0 0.0267248915 -0.0405064982 0.1290607751 -0.7824629779 0.1296883189 -0.7825647932 0.0283780512 -0.0386788222
670295980.0 0.0249132054 -0.0404481722 0.1204644302 -0.7842332732 0.1208001261 -0.7840043869 0.0271375968 -0.0391034008
675295950.0 0.0249287435 -0.040511339 0.1126076587 -0.7848117281 0.1122766793 -0.7847686703 0.0264455279 -0.0392377009
680295920.0 0.0241715331 -0.041017166 0.1034648074 -0.7858405225 0.1032843328 -0.7869988886 0.0261151327 -0.0383240397
685295890.0 0.0239664035 -0.0404855021 0.0949101046 -0.787965946 0.0947183994 -0.7873031296 0.0254042113 -0.0391657232
690295860.0 0.023349248 -0.0409077178 0.0862061406 -0.7875929789 0.085898157 -0.7884956642 0.0249704628 -0.0382992198
695295830.0 0.0227656316 -0.0414298411 0.0785545299 -0.7896252495 0.0775164496 -0.7890261749 0.0242431425 -0.0389650117
700295800.0 0.0221994916 -0.0420073419 0.0691854853 -0.7903193576 0.0684593261 -0.7896306921 0.0237387806 -0.0386448232
705295770.0 0.0212876587 -0.0409090131 0.0604428874 -0.790668092 0.06048205 -0.7906287974 0.0227003983 -0.0390067696
710295740.0 0.0210596103 -0.0415121084 0.0520741339 -0.7923100834 0.0527708249 -0.791738528 0.0227228124 -0.0396490186
715295710.0 0.0196395971 -0.0415561087 0.0438378126 -0.7922436348 0.0433859502 -0.7919478407 0.0220269095 -0.039524316
720295680.0 0.0195038399 -0.0418874033 0.0348512796 -0.7928620152 0.0352081028 -0.7924930833 0.0211248829 -0.0390969122
725295650.0 0.0191973914 -0.0417107317 0.0258671794 -0.7928009881 0.0262584825 -0.7931377438 0.0201023649 -0.0390131451
730295620.0 0.018754538 -0.0414238254 0.0178745981 -0.7924327072 0.0172853019 -0.7929714595 0.0194681108 -0.04011395
735295590.0 0.0179291717 -0.0415166174 0.0092873399 -0.7932145009 0.0090318335 -0.7932838525 0.0188241032 -0.0399881089
740295560.0 0.0170583328 -0.041784454 0.0005027567 -0.7929853195 0.0003726528 -0.7931861381 0.0189342031 -0.0396055708
745295530.0 0.0163337434 -0.0417471006 -0.0082866568 -0.7928571298 -0.0086116024 -0.793311606 0.0183277651 -0.040644653
750295500.0 0.0162130212 -0.041778322 -0.0168437204 -0.7925290864 -0.016969831 -0.7929019994 0.0175789706 -0.0400977717
755295470.0 0.0154187855 -0.0421516643 -0.0253068797 -0.7925938091 -0.0250168904 -0.7928579143 0.0175363184 -0.0406355619
760295440.0 0.0148741319 -0.041951425 -0.0339793725 -0.7925769275 -0.0342597643 -0.7927997398 0.0165330607 -0.0403597571
765295410.0 0.0140499521 -0.0420214188 -0.0430465128 -0.7917214465 -0.0434068052 -0.7921670681 0.0159569036 -0.0404931203
770295380.0 0.013215983 -0.0425882979 -0.0518981133 -0.7912492031 -0.0514360839 -0.7909226658 0.0152361654 -0.0410186138
775295350.0 0.0127398441 -0.0429535965 -0.0602451914 -0.790296226 -0.0598926847 -0.7909053542 0.01370443 -0.0404355177
780295320.0 0.0123176142 -0.0424463816 -0.0681949405 -0.7893666693 -0.067649927 -0.7901519723 0.0136967354 -0.0411474729
785295290.0 0.0111992099 -0.042881186 -0.077830686 -0.7883183625 -0.0767907626 -0.7893590561 0.0138758474 -0.0408116965
790295260.0 0.0114881267 -0.041796561 -0.0853704268 -0.7883574742 -0.0847507301 -0.7880119835 0.0128313716 -0.0410067051
795295230.0 0.010588076 -0.0425291131 -0.0943213368 -0.7873622558 -0.0939025385 -0.7873659238 0.0124460118 -0.0404088108
800295200.0 0.0092796555 -0.0419614538 -0.1038975684 -0.7859081625 -0.102986738 -0.7858779779 0.0117096912 -0.0408497566
805295170.0 0.0090521466 -0.0422407565 -0.1115306833 -0.7849728329 -0.1115439277 -0.7852838252 0.0110987348 -0.0407558506
810295140.0 0.0079539512 -0.0428007386 -0.1201022495 -0.7837779154 -0.1199305031 -0.783372783 0.011268451 -0.040258433
815295110.0 0.0082050764 -0.0428264742 -0.1281492282 -0.7821982506 -0.1282816579 -0.7818037082 0.0098847633 -0.0403353558
820295080.0 0.0066974379 -0.0415920406 -0.1369201644 -0.7798544992 -0.136427876 -0.7806863444 0.009233974 -0.0407395737
825295050.0 0.0070420513 -0.0419246395 -0.1448509819 -0.7787025337 -0.1452554347 -0.7790912889 0.0093349609 -0.0400628429
830295020.0 0.005916355 -0.0418935153 -0.1539620879 -0.7770967231 -0.1537539483 -0.7772011681 0.0096994784 -0.039894968
