!Created with skrf (http://scikit-rf.org).
# Hz S RI R 50.0 
!freq ReS11 ImS11 ReS21 ImS21 ReS12 ImS12 ReS22 ImS22
300000.0 -0.2398912389 -0.1019147872 0.4689059156 0.0672211923 0.4695271288 0.0707928253 -0.2397085476 -0.1120921754
5299970.0 -0.2438263627 0.0071777265 0.4739459858 0.0052026534 0.4737596205 0.0058939836 -0.2441706447 0.0060990284
10299940.0 -0.2403010617 0.0197351319 0.4757590206 0.0062511181 0.4759060408 0.0065772876 -0.2411742176 0.0183670367
15299910.0 -0.2360572823 0.0295046428 0.4795107439 0.0076449436 0.4792322814 0.0078748115 -0.2364701199 0.0274751835
20299880.0 -0.2302738711 0.0372351925 0.483865568 0.0083017855 0.4847282671 0.0082314003 -0.2320016617 0.0354119589
25299850.0 -0.2247521669 0.0436455332 0.4896635117 0.0070960466 0.4897455637 0.0072106689 -0.2270105439 0.0418284583
30299820.0 -0.2187212639 0.0484270387 0.4948840925 0.0054987538 0.4947381089 0.0053030442 -0.2215892056 0.0468587516
35299790.0 -0.2131252881 0.0528210037 0.5003699228 0.0022501672 0.5003969883 0.0021513917 -0.2162459081 0.0510572176
40299760.0 -0.2076001898 0.055666878 0.5056454733 -0.0013376306 0.5050963951 -0.0017191697 -0.2114459851 0.0545324552
45299730.0 -0.2025795886 0.0584318244 0.5101992433 -0.0067242415 0.510463944 -0.0065286962 -0.2065366334 0.0572802833
50299700.0 -0.1974546311 0.0599957472 0.5141766176 -0.0120347359 0.5141574904 -0.0122926108 -0.2019058703 0.0594718885
55299670.0 -0.1938035547 0.0618396675 0.5176505904 -0.01791637 0.5181686637 -0.0180027839 -0.1985942409 0.0615918128
60299640.0 -0.1895484202 0.0625707123 0.5211594337 -0.0242917358 0.5213818953 -0.0243350072 -0.1943906233 0.0632348783
65299610.0 -0.1861257717 0.0639303061 0.5245232696 -0.0302439056 0.5246640251 -0.0303953129 -0.1910452112 0.0644400777
70299580.0 -0.1827608377 0.064230014 0.5267216439 -0.0371034471 0.5270102162 -0.0371978668 -0.1880662796 0.0657307567
75299550.0 -0.1799500003 0.0651661755 0.5287856144 -0.0438059332 0.5285558585 -0.0441496723 -0.1850719725 0.0668816984
80299520.0 -0.1775259115 0.0658988596 0.5312641079 -0.0508586785 0.5307597593 -0.0506770054 -0.1825074758 0.0673267027
85299490.0 -0.1747017763 0.0659435872 0.5322556835 -0.0578159561 0.532025475 -0.0577666856 -0.1803165097 0.0683949763
90299460.0 -0.1725217844 0.066538112 0.5327660591 -0.0642492292 0.533225715 -0.0647043552 -0.1776042023 0.0693559449
95299430.0 -0.1707123406 0.0670450017 0.5340441155 -0.072012535 0.5341389835 -0.0714064743 -0.1759228053 0.0702603274
100299400.0 -0.1689612482 0.0677545502 0.5344666042 -0.0788682304 0.5343045847 -0.0785386372 -0.1743120945 0.0709488377
105299370.0 -0.1669258971 0.0680418171 0.5343583625 -0.0849891208 0.5346635005 -0.0856939592 -0.171956958 0.071878318
110299340.0 -0.1654210547 0.0684323787 0.5346856622 -0.0918158059 0.5350664986 -0.0923837501 -0.1705424301 0.0725935804
115299310.0 -0.1641742002 0.0687387216 0.534369966 -0.0988518408 0.5352245716 -0.0991805218 -0.1691064486 0.0731413912
120299280.0 -0.1628697576 0.0693834518 0.5348435989 -0.1056690442 0.5349602213 -0.1062354148 -0.1680105368 0.0741750885
125299250.0 -0.1618639455 0.0701137155 0.5344564302 -0.1125919848 0.5347094924 -0.1128099067 -0.166610154 0.0746758349
130299220.0 -0.1604783314 0.070653245 0.5338090161 -0.119170475 0.5337527444 -0.1194973655 -0.1652023477 0.0760989338
135299190.0 -0.1593137731 0.0711337774 0.5331234927 -0.1260464885 0.5330591328 -0.1261338798 -0.1643887881 0.0771141706
140299160.0 -0.1585844323 0.0722645245 0.532488133 -0.1328179382 0.5325380399 -0.1330524452 -0.1626958987 0.0780744138
145299130.0 -0.1575366932 0.0727348758 0.5314874991 -0.1394128369 0.5312475149 -0.1390171102 -0.1622337842 0.0788752248
150299100.0 -0.1564818773 0.0737480802 0.5301338285 -0.1459137077 0.5305342554 -0.1460177268 -0.1611515654 0.0800390744
155299070.0 -0.15589543 0.0747345331 0.5288025217 -0.1526286169 0.5289287739 -0.1528886192 -0.1602640342 0.0813500402
160299040.0 -0.1548605646 0.0753499988 0.5276269771 -0.1582175789 0.5280233308 -0.1588993641 -0.1591065893 0.0825382703
165299010.0 -0.154262479 0.076195253 0.5264362072 -0.165279757 0.5265110646 -0.1652730987 -0.1582397182 0.0831182219
170298980.0 -0.153668059 0.0771461683 0.5240736029 -0.1714970457 0.5246094164 -0.1717413109 -0.1569007998 0.0843558841
175298950.0 -0.1525512313 0.0782081358 0.523620018 -0.1776090644 0.523278233 -0.1779232248 -0.1559822311 0.0855299033
180298920.0 -0.1516700768 0.0791721393 0.5211110357 -0.1843715994 0.5214143884 -0.184013863 -0.1548292342 0.0869101001
185298890.0 -0.1510150248 0.080465501 0.5192325212 -0.1908992563 0.5195219605 -0.1903734201 -0.1541582434 0.0880352684
190298860.0 -0.1502777449 0.0814597226 0.517631661 -0.1967056965 0.5178362463 -0.1965071689 -0.1525900593 0.0893252904
195298830.0 -0.1496335601 0.082178206 0.5154086271 -0.2027015122 0.5157519547 -0.2029279109 -0.1518836419 0.0906616129
200298800.0 -0.1489024311 0.0834636775 0.5136258129 -0.2084702493 0.5138999897 -0.2086953354 -0.1510184924 0.0922935219
205298770.0 -0.1481693292 0.0846556088 0.5116756596 -0.2146934816 0.5115774461 -0.2150729483 -0.150253719 0.0931885476
210298740.0 -0.1475442425 0.0854286462 0.5095121 -0.2211880071 0.5096707439 -0.2209970463 -0.1490480112 0.0946482947
215298710.0 -0.146653542 0.0869561543 0.5067676925 -0.2267671697 0.507243333 -0.2265841544 -0.1484148127 0.095916952
220298680.0 -0.1460815586 0.0879454255 0.5046081074 -0.2326895002 0.5043072246 -0.2326220078 -0.1470740866 0.0976604276
225298650.0 -0.1446929027 0.0893582144 0.5014412071 -0.2381399607 0.5015875894 -0.2382713148 -0.1462915564 0.0989643099
230298620.0 -0.1444271299 0.0906702799 0.4997464561 -0.2442985162 0.4998255493 -0.2445087294 -0.1449525343 0.1002726309
235298590.0 -0.1436547699 0.0914518206 0.4969640223 -0.2497874997 0.4972481316 -0.2502240437 -0.1440625785 0.101438891
240298560.0 -0.1429561199 0.0928872969 0.4942408657 -0.2556027867 0.4946111293 -0.2555145926 -0.1429675526 0.1034257061
245298530.0 -0.1420048154 0.0942166678 0.4908222743 -0.2613781393 0.4912279083 -0.2614901458 -0.1421213362 0.1045700364
250298500.0 -0.1415007558 0.0954101116 0.4887333301 -0.2670276256 0.4892109017 -0.2663751362 -0.1405188479 0.1057826386
255298470.0 -0.1407020733 0.0968012726 0.4851135242 -0.2728351376 0.485701769 -0.2725289658 -0.1394790975 0.1070468721
260298440.0 -0.1396356434 0.0978415673 0.482672635 -0.2779569477 0.482816612 -0.2784442476 -0.1381839947 0.1091149491
265298410.0 -0.1385397618 0.0996436102 0.4797286818 -0.2839681926 0.4793505242 -0.2838562563 -0.1374214365 0.1101406877
270298380.0 -0.1376150538 0.1007086546 0.4759833273 -0.2892047912 0.4766141574 -0.2895406497 -0.1359946141 0.1119570445
275298350.0 -0.1368102767 0.1019856532 0.4731215454 -0.2949514502 0.4735278921 -0.2948908622 -0.1345550615 0.1133660307
280298320.0 -0.1362243715 0.1034399967 0.4698597076 -0.299401235 0.4698905922 -0.3003587599 -0.1333085492 0.114927459
285298290.0 -0.1352427623 0.1046761825 0.4667699884 -0.3049905083 0.4668185246 -0.3057490846 -0.1324874995 0.1164405219
290298260.0 -0.1342998966 0.1062299563 0.4638623378 -0.310602621 0.4638372656 -0.3106799563 -0.1308123202 0.1178576948
295298230.0 -0.1334803239 0.107120241 0.4603736969 -0.315921411 0.4600363894 -0.3162652751 -0.1296511612 0.1193316379
300298200.0 -0.1320724319 0.1084697232 0.4569595583 -0.3210701023 0.4569492004 -0.3213356356 -0.1282777545 0.1207507039
305298170.0 -0.130847411 0.1095990477 0.4536511863 -0.3266949129 0.453424164 -0.3268316334 -0.126589675 0.122576134
310298140.0 -0.1300129326 0.1106069217 0.4501920413 -0.3319460005 0.4499260584 -0.3319360868 -0.1256859666 0.1240259913
315298110.0 -0.1290748527 0.1119982755 0.4456851541 -0.3370097183 0.446377449 -0.3370858183 -0.123949088 0.1252145302
320298080.0 -0.1280659349 0.1133004062 0.442448834 -0.3421250919 0.4426000468 -0.3419858217 -0.1226852056 0.1263198325
325298050.0 -0.1272725128 0.1142971095 0.4390625007 -0.3472642852 0.4389171531 -0.3474097723 -0.1215564539 0.127663412
330298020.0 -0.1265045102 0.1154994356 0.4338713852 -0.3521898848 0.4343161955 -0.352274607 -0.1202110109 0.1287230695
335297990.0 -0.1251924223 0.1166429956 0.4303210439 -0.3572153965 0.4305851473 -0.3574453469 -0.1191935108 0.1303138978
340297960.0 -0.1248850775 0.1181389737 0.4262810043 -0.3618473751 0.4266352428 -0.3619308027 -0.11793389 0.1317908836
345297930.0 -0.1234612856 0.1196941716 0.4220451121 -0.3659826715 0.4217324795 -0.3661597331 -0.1163193495 0.1330727611
350297900.0 -0.1222400208 0.1208676596 0.4177908866 -0.3703547196 0.4184848684 -0.3713456969 -0.1151956168 0.1350502635
355297870.0 -0.1215588116 0.1221005931 0.41396425 -0.3757805699 0.4141720724 -0.3755929765 -0.1138818553 0.1364335603
360297840.0 -0.1200889656 0.1234796872 0.4096613536 -0.3800767674 0.4096591038 -0.3801509675 -0.1120886288 0.1378501425
365297810.0 -0.119066954 0.1243367164 0.4054288702 -0.3845781128 0.4053219727 -0.3843447606 -0.1105522916 0.1395166248
370297780.0 -0.1179654903 0.12599713 0.4012971989 -0.3890856436 0.4013865142 -0.3893493048 -0.1092276022 0.1408989652
375297750.0 -0.1169589498 0.1275039539 0.3974823784 -0.3936771321 0.3970920933 -0.3940992037 -0.1074920569 0.1424101123
380297720.0 -0.1153065034 0.1282973708 0.3927337028 -0.3977165988 0.3927981495 -0.3976807243 -0.1059232682 0.1438679426
385297690.0 -0.1142181244 0.1298128019 0.3879106368 -0.4017617931 0.3881359302 -0.4021952428 -0.104629698 0.1453171947
390297660.0 -0.1130885634 0.1312269254 0.3835406782 -0.406897165 0.3838727351 -0.4068025245 -0.1030852367 0.1463680961
395297630.0 -0.1115683321 0.1323289498 0.3796721265 -0.4103832817 0.3791470286 -0.4105402588 -0.1012141597 0.1479329091
400297600.0 -0.1109152089 0.1334770872 0.3751621087 -0.4148205807 0.3751930473 -0.4147740513 -0.1004415034 0.1489398537
405297570.0 -0.1093703095 0.1348958232 0.3700658989 -0.4191898658 0.3702743256 -0.4190686911 -0.0984524363 0.1506006906
410297540.0 -0.1076996598 0.1358103305 0.3645858825 -0.4228470844 0.3652932701 -0.4229661335 -0.096706343 0.1518357507
415297510.0 -0.1064654092 0.1374422073 0.3607133007 -0.4266632525 0.3610460888 -0.4269013812 -0.0952715937 0.1536989032
420297480.0 -0.105304441 0.1379781232 0.3559405842 -0.4308548362 0.3562564431 -0.4310008488 -0.0937156253 0.1541547646
425297450.0 -0.103824752 0.1394343262 0.3514333061 -0.4346985495 0.3518258301 -0.4344688906 -0.0917051365 0.1556220193
430297420.0 -0.1028173469 0.140810704 0.3468457427 -0.4390058005 0.3468057287 -0.4386898148 -0.0904465885 0.1567931892
435297390.0 -0.1011495057 0.1416403209 0.3419287122 -0.4423869176 0.3424236996 -0.4420818257 -0.0886738155 0.158290057
440297360.0 -0.0996113784 0.1425707621 0.336522475 -0.4459482179 0.3366668601 -0.4458525332 -0.0869614977 0.1589601353
445297330.0 -0.0986382862 0.1437298389 0.33208632 -0.4495441009 0.3318397818 -0.4498460469 -0.084989521 0.1603496918
450297300.0 -0.0969067274 0.1446414352 0.3268122821 -0.4532148469 0.3274750604 -0.4534799843 -0.0834643255 0.1616042843
455297270.0 -0.0956035028 0.1458291415 0.3224456852 -0.4563833283 0.3224026503 -0.4566432393 -0.0816718145 0.1627492151
460297240.0 -0.0943544068 0.1469853714 0.3168832884 -0.4600725857 0.316694559 -0.4599507559 -0.0794140375 0.1643092891
465297210.0 -0.092809227 0.1476933964 0.3124345323 -0.4634620977 0.3124291303 -0.4637109451 -0.0784262227 0.164901866
470297180.0 -0.0915059461 0.1489679516 0.307092905 -0.466877973 0.3072420029 -0.4671790609 -0.0770014814 0.1660069907
475297150.0 -0.0902798903 0.1497732733 0.3019098552 -0.4698676397 0.302243779 -0.4698242379 -0.0745510502 0.1671326893
480297120.0 -0.0883233359 0.1506449116 0.2966627411 -0.4734734975 0.2970943745 -0.4732645673 -0.0732262893 0.1684294672
485297090.0 -0.0867116958 0.1517018727 0.2916013985 -0.4764112999 0.2913407763 -0.4768230352 -0.0714170046 0.1688438066
490297060.0 -0.0852897308 0.1524039837 0.2860473926 -0.4794103165 0.2864627053 -0.4795353861 -0.0691772555 0.1703035443
495297030.0 -0.0842523281 0.1539131243 0.2809221403 -0.4828334843 0.281194312 -0.4828825109 -0.0675621292 0.1706004703
500297000.0 -0.0823689068 0.1544753753 0.2760540827 -0.4858613612 0.2760568648 -0.4859254225 -0.0660199578 0.1720257007
505296970.0 -0.0810483029 0.1553280573 0.270013828 -0.4883326103 0.2703517036 -0.4885540968 -0.0641752554 0.1730024264
510296940.0 -0.0794087346 0.1564048745 0.2647185424 -0.4919018022 0.2654607726 -0.4915686145 -0.062128918 0.1741194791
515296910.0 -0.0783262472 0.1574479865 0.2592507598 -0.4941500834 0.26004097 -0.4946310021 -0.0602922572 0.1746374875
520296880.0 -0.0764322418 0.1580920461 0.2538752847 -0.4971786212 0.2543963977 -0.4973560648 -0.0581541607 0.1756536257
525296850.0 -0.0752359312 0.1589018752 0.248998536 -0.4997903387 0.249135095 -0.5000611437 -0.0560956331 0.1763733353
530296820.0 -0.0736139873 0.1595545183 0.2436391048 -0.5014837564 0.2438278578 -0.5022375005 -0.0547396049 0.1767137303
535296790.0 -0.0720638939 0.1606924237 0.2375616721 -0.5049989873 0.2379756185 -0.5047711717 -0.0529057689 0.1776395762
540296760.0 -0.0704295279 0.1610216193 0.2324964096 -0.5078876662 0.2322280755 -0.5076387926 -0.0510494009 0.1786904762
545296730.0 -0.0688127271 0.1625400164 0.2267668761 -0.510055734 0.2268313626 -0.5102178202 -0.0492097667 0.1789613733
550296700.0 -0.0674176563 0.162770512 0.2215817746 -0.5120542804 0.2221269749 -0.5126070657 -0.047162229 0.1802742891
555296670.0 -0.0655024057 0.1635904536 0.2158828795 -0.5149133669 0.2161659469 -0.5146886024 -0.0454413414 0.1808074067
560296640.0 -0.06424706 0.1643954341 0.2106661535 -0.5169633227 0.2107759045 -0.5169898451 -0.0431767512 0.1812465511
565296610.0 -0.0628463762 0.1652701305 0.2045343133 -0.519324381 0.2042998875 -0.5193386981 -0.0413690294 0.1818408284
570296580.0 -0.0606633608 0.1658849663 0.1984772641 -0.5214780259 0.1989517144 -0.5216117482 -0.0392610615 0.1832892579
575296550.0 -0.0592925856 0.1670638203 0.1931843842 -0.5233538591 0.1935527171 -0.5233318357 -0.0370044131 0.1835070711
580296520.0 -0.0577650105 0.167410374 0.1879036142 -0.5255595737 0.1873002401 -0.5258976415 -0.0352978588 0.1836114536
585296490.0 -0.056142753 0.1678520542 0.1824874589 -0.5272612834 0.1818061447 -0.5273974637 -0.0337173257 0.1841980414
590296460.0 -0.0548443808 0.1684826989 0.1760797981 -0.5296187695 0.1758662712 -0.5291806194 -0.0311182422 0.1848804027
595296430.0 -0.0530707225 0.1696051007 0.1707655813 -0.5314935107 0.1703362736 -0.5314493694 -0.0294401603 0.185104349
600296400.0 -0.0510465424 0.1703630759 0.1646409643 -0.5328914457 0.1650783521 -0.533082469 -0.0274572067 0.186284056
605296370.0 -0.0495603198 0.170807007 0.1589276791 -0.5352230998 0.1591481876 -0.5348064209 -0.0251767 0.186367795
610296340.0 -0.0480626474 0.1712238657 0.1535057989 -0.5361091414 0.1534049188 -0.5366633108 -0.0231870287 0.1871324286
615296310.0 -0.0462304598 0.1719822347 0.1470151798 -0.5379008745 0.1474319451 -0.5380252335 -0.0212628156 0.1871957448
620296280.0 -0.0446570584 0.17240633 0.1417757492 -0.5393761668 0.1415316487 -0.5396043496 -0.0192458192 0.1873100827
625296250.0 -0.0428208105 0.1730347992 0.1351339404 -0.5413728162 0.1351546498 -0.5413383666 -0.0169708943 0.187827057
630296220.0 -0.0409763218 0.1738148871 0.1296437238 -0.5426695067 0.1300933156 -0.5428523101 -0.0155624142 0.1883454393
635296190.0 -0.0393984919 0.1741763721 0.123682654 -0.5436042312 0.1238717473 -0.54337554 -0.0134740657 0.188440993
640296160.0 -0.0376771357 0.1746248266 0.1182318147 -0.5449999388 0.1183755272 -0.5451388812 -0.0111662893 0.1890193142
645296130.0 -0.0358791595 0.1754693915 0.1122533025 -0.5465576521 0.1121721649 -0.5462729484 -0.0094307918 0.1886489305
650296100.0 -0.034529441 0.1762917609 0.1068319128 -0.547062143 0.1064531205 -0.5471956498 -0.0072894058 0.1895158103
655296070.0 -0.032893016 0.1758800246 0.1000838085 -0.5484003566 0.100119641 -0.5486642786 -0.0046957116 0.189722413
660296040.0 -0.0315836744 0.1771046784 0.0947626681 -0.5491096699 0.0944594193 -0.5492700841 -0.0031199692 0.1894718763
665296010.0 -0.0292713815 0.176937422 0.0887807597 -0.5502239462 0.0891583748 -0.5504404241 -0.0012521468 0.1901042742
670295980.0 -0.0270678489 0.1778360692 0.0826942318 -0.5512054255 0.082647844 -0.5513795436 0.0005200451 0.1901273504
675295950.0 -0.0256435975 0.178378095 0.0767328836 -0.5520596012 0.0768133235 -0.5524636535 0.0033754183 0.19031815
680295920.0 -0.0242627069 0.1787803753 0.0709207495 -0.552991712 0.0703440518 -0.5528661367 0.0054135546 0.1904639838
685295890.0 -0.0223023575 0.1792751093 0.0646592422 -0.5537242451 0.0646273349 -0.5538943633 0.0072184212 0.1907645178
690295860.0 -0.0204516652 0.1793230818 0.0587625277 -0.5538321376 0.0582880634 -0.5540417333 0.0094291273 0.1908295492
695295830.0 -0.0185680663 0.1794656819 0.052290279 -0.5545521895 0.0520686992 -0.5551902912 0.0112206754 0.191152107
700295800.0 -0.0166416219 0.1799254483 0.0465067745 -0.5555414776 0.0463055713 -0.5555070986 0.0135303294 0.1902965858
705295770.0 -0.0147982049 0.1802976818 0.0402640105 -0.5551480202 0.0409487455 -0.5559095147 0.0149967473 0.1905080979
710295740.0 -0.013478019 0.18091798 0.0348564477 -0.5558550989 0.0346007966 -0.5561346893 0.0168706463 0.1908896192
715295710.0 -0.0115654899 0.1807168084 0.0285107749 -0.5562329653 0.0289611353 -0.5565776509 0.0193971153 0.1905550697
720295680.0 -0.0097113416 0.1811006959 0.0221835992 -0.5564720455 0.0230525869 -0.5569060304 0.0217284297 0.1905089415
725295650.0 -0.0079080444 0.1815172149 0.0158452547 -0.556648682 0.0163723934 -0.5567873272 0.0237712306 0.1905208776
730295620.0 -0.0065526257 0.1815434663 0.0105689563 -0.5569162188 0.0105902662 -0.5568931425 0.0258959026 0.1902135617
735295590.0 -0.0041677243 0.1818450766 0.0049989137 -0.5570467062 0.0049984235 -0.5573450614 0.0280094893 0.1903847273
740295560.0 -0.0028140194 0.1821477907 -0.0016080463 -0.5567003134 -0.0014952579 -0.5568881125 0.0300356397 0.1900604187
745295530.0 -0.000969776 0.1821599324 -0.0075498018 -0.5568187603 -0.0071983222 -0.5573349066 0.0318722122 0.1900237064
750295500.0 0.0007806283 0.1825124014 -0.0132934987 -0.5565242548 -0.0137188991 -0.5569122277 0.0339763511 0.1892196583
755295470.0 0.0032917226 0.1825939182 -0.0197015956 -0.55627651 -0.0192558642 -0.556686558 0.0357902194 0.1893085161
760295440.0 0.0045335247 0.1827274985 -0.0256030866 -0.556313061 -0.0252843871 -0.5564017124 0.0376372589 0.1888150469
765295410.0 0.0060716599 0.1827481906 -0.0310574585 -0.555838058 -0.0315743475 -0.5560342245 0.040620824 0.1890935448
770295380.0 0.0081462135 0.1831261378 -0.0372783309 -0.5551906207 -0.0374023329 -0.5557336707 0.0428482225 0.1889193733
775295350.0 0.0099754328 0.1831062718 -0.0431724342 -0.5548446327 -0.043051677 -0.5553470786 0.0438457116 0.1878937758
780295320.0 0.0119298315 0.1828519262 -0.0494594214 -0.5545600522 -0.0490685812 -0.5546480629 0.0464220633 0.188198084
785295290.0 0.0135702457 0.183501803 -0.0549201172 -0.5534282193 -0.0549153408 -0.5542295264 0.0478814111 0.1876640849
790295260.0 0.0152170595 0.1833071482 -0.0610689254 -0.5532510328 -0.0609506075 -0.5536903145 0.0507147339 0.1870949411
795295230.0 0.0170230381 0.183223001 -0.0666016035 -0.5523148876 -0.0667833683 -0.552781874 0.0527114474 0.1872174023
800295200.0 0.0192942517 0.1832250204 -0.0732613176 -0.551857078 -0.0731281494 -0.5522447286 0.0547105247 0.1862584542
805295170.0 0.0207970438 0.1831643032 -0.0790956081 -0.5505444355 -0.0791234494 -0.5509909054 0.0559989532 0.1856321912
810295140.0 0.0226507452 0.1834256567 -0.0846179877 -0.5498411077 -0.0846749833 -0.5503327627 0.0586968334 0.1856352051
815295110.0 0.0246051793 0.1833973411 -0.0910111235 -0.548840087 -0.0908204892 -0.5489289056 0.060306622 0.1849613969
820295080.0 0.0262700762 0.1827902876 -0.0964917365 -0.5478384498 -0.0967620912 -0.5481721543 0.0624243241 0.1843835135
825295050.0 0.0279736743 0.1827450186 -0.1025411469 -0.5460493098 -0.1026654994 -0.546894786 0.0646946147 0.1841976079
830295020.0 0.0296097843 0.18281672 -0.1083480875 -0.545453036 -0.1088094997 -0.5457583875 0.0662867739 0.1833295869
