!Created with skrf (http://scikit-rf.org).
# Hz S RI R 50.0 
!freq ReS11 ImS11 ReS21 ImS21 ReS12 ImS12 ReS22 ImS22
300000.0 -0.100757492 -0.0657538039 0.6310964921 0.0631279426 0.6247535891 0.0647246939 -0.1003632735 -0.0768556017
5299970.0 -0.1021227868 0.013366306 0.6305403489 0.0093629401 0.6300696954 0.0099157989 -0.1008293525 0.0134140232
10299940.0 -0.0972568541 0.0293244716 0.6341390434 0.0149645151 0.6342780046 0.0156572707 -0.0957291281 0.0302696752
15299910.0 -0.0899883654 0.042536068 0.6400192102 0.0204271325 0.6408056773 0.0205453756 -0.0887455284 0.0435324592
20299880.0 -0.0815766945 0.05309378 0.6481349628 0.0240611623 0.648042453 0.0241386981 -0.0798332228 0.0546194272
25299850.0 -0.0721047567 0.0622304275 0.6581543333 0.0249168242 0.6576485378 0.024893431 -0.0696373688 0.06325891
30299820.0 -0.062169849 0.0686428049 0.6668794389 0.0237531614 0.6673921987 0.0244041484 -0.0597601512 0.070273161
35299790.0 -0.0524163756 0.0735020342 0.6772985498 0.0211977719 0.6768212314 0.0214009075 -0.0498637437 0.0749561659
40299760.0 -0.0432398466 0.0772195328 0.6862362636 0.0173955386 0.6863543269 0.0171431252 -0.0404237456 0.0772240237
45299730.0 -0.0339054709 0.0791936737 0.6950817896 0.0115448237 0.6953407285 0.0115490824 -0.0311455136 0.0797559961
50299700.0 -0.0256411641 0.0798894874 0.7036339117 0.0045746174 0.703484435 0.0053734648 -0.0226733587 0.0806495653
55299670.0 -0.017661334 0.0802679836 0.7108893004 -0.0033350423 0.7104321141 -0.0027659836 -0.0149261742 0.0806083992
60299640.0 -0.0099168103 0.0800645975 0.7171292674 -0.0116670983 0.7179632242 -0.011208088 -0.007889104 0.0794844939
65299610.0 -0.0037481538 0.0785976074 0.7229402124 -0.0205653612 0.7233130378 -0.0204117067 -0.0012859923 0.0788629016
70299580.0 0.0025265398 0.077419658 0.7286685674 -0.0298083877 0.7282390698 -0.0294424954 0.0047159482 0.0767019968
75299550.0 0.0081525184 0.0754796391 0.7326083384 -0.0390131653 0.7327951549 -0.0391978426 0.0100912541 0.0748114691
80299520.0 0.012920767 0.0734694003 0.7369594554 -0.0487603971 0.7371582286 -0.049580386 0.0150307519 0.0726627727
85299490.0 0.0177858716 0.0713257782 0.7400193588 -0.0581770777 0.7405132477 -0.0583108148 0.019029537 0.0699378918
90299460.0 0.0217310808 0.069142008 0.7423985656 -0.0694471406 0.7433863876 -0.0686966808 0.0234494284 0.0677474676
95299430.0 0.0257805519 0.0666650514 0.7458445173 -0.0786289389 0.745477514 -0.0794477636 0.0273208411 0.0656291753
100299400.0 0.0287810853 0.0645684726 0.7464355692 -0.0891448921 0.7467894434 -0.0893673772 0.0310543288 0.0624698271
105299370.0 0.0321742493 0.0621370407 0.7485010535 -0.0995735948 0.7490085899 -0.0993613115 0.0339270094 0.0606151873
110299340.0 0.034940792 0.0594598218 0.7497529108 -0.1091051377 0.7497160331 -0.1092594987 0.0360667885 0.0576480388
115299310.0 0.0374311815 0.0574836655 0.750961157 -0.1196015974 0.7508393281 -0.1195652184 0.0389027189 0.0553050432
120299280.0 0.0396353241 0.0548289728 0.7506457839 -0.129636459 0.751636487 -0.1297201763 0.0413623784 0.0528698581
125299250.0 0.0419485927 0.0522024832 0.7514108879 -0.1391944188 0.7513735332 -0.138791833 0.0428416967 0.0503634057
130299220.0 0.0435172674 0.0503414689 0.7514382608 -0.1492822452 0.7513584032 -0.1494623067 0.044810883 0.0480508475
135299190.0 0.0452148616 0.0483164263 0.7511131523 -0.1589262571 0.751065831 -0.1586042046 0.0466762427 0.0460236319
140299160.0 0.0466649685 0.0462090815 0.7508698169 -0.1689136588 0.7505504986 -0.169003246 0.0479937618 0.044238986
145299130.0 0.0482752274 0.0438347286 0.7500618066 -0.1790155831 0.7496843899 -0.1785027693 0.0491033015 0.042075187
150299100.0 0.0495782886 0.0418123728 0.7483727147 -0.1873969922 0.7487890363 -0.1880455135 0.0510426303 0.0399729103
155299070.0 0.0503974594 0.0395611835 0.7477722273 -0.1985584846 0.7472971057 -0.1982418567 0.0517669752 0.0385053926
160299040.0 0.0517318679 0.0380316268 0.7460093917 -0.2070593133 0.7458044705 -0.2077133226 0.0521196175 0.0361545155
165299010.0 0.0524039497 0.0361910931 0.7444352692 -0.2173287928 0.7446615567 -0.217389597 0.0536667622 0.0348426013
170298980.0 0.0535279134 0.0340046823 0.742684756 -0.2265643046 0.7426738394 -0.2262012649 0.0543011694 0.0328801322
175298950.0 0.053838434 0.0322765881 0.741354556 -0.2355400081 0.7403363708 -0.2357763994 0.0546716204 0.031287907
180298920.0 0.0546501435 0.0304220995 0.7391448437 -0.2448140026 0.7387668687 -0.2446171752 0.0556105202 0.0297109483
185298890.0 0.0556676131 0.0287093247 0.7363245598 -0.253750774 0.7361057239 -0.2541458253 0.0559155686 0.0282729214
190298860.0 0.0555090083 0.0272615801 0.7344887751 -0.2634163162 0.7343407478 -0.2632718097 0.0564967945 0.0264987368
195298830.0 0.0561539583 0.0250057879 0.731363071 -0.272241149 0.7319077098 -0.2717888257 0.0571827478 0.0251653996
200298800.0 0.0564171379 0.0240144792 0.7286643833 -0.2814466119 0.7289710765 -0.2814730306 0.0568396405 0.0237109758
205298770.0 0.0567946037 0.0226126645 0.7259511662 -0.2908156988 0.7258054792 -0.2900274652 0.0573591708 0.0212580958
210298740.0 0.0569547588 0.0207849611 0.7226749783 -0.2984584396 0.7227025027 -0.2984320329 0.0576277328 0.0213663617
215298710.0 0.0567976885 0.0196431826 0.7204471784 -0.3075829388 0.7200575273 -0.3080134124 0.0578332625 0.019884666
220298680.0 0.0574097761 0.0175152397 0.7158427335 -0.3159266722 0.7165532367 -0.3159299747 0.0576605248 0.017851913
225298650.0 0.0576836935 0.0164966253 0.7135079417 -0.325164479 0.7142235237 -0.3253229868 0.0575210843 0.0165937153
230298620.0 0.057812147 0.0154962438 0.7099224643 -0.3334146817 0.7108240885 -0.3334788865 0.0576349525 0.0150177593
235298590.0 0.0577249435 0.0144720612 0.7063839352 -0.3419965842 0.7064923057 -0.3411560791 0.0575944635 0.0139537125
240298560.0 0.057876137 0.0133250056 0.7038171039 -0.3503022192 0.70297819 -0.3503641017 0.0575701959 0.012861651
245298530.0 0.0578371656 0.0119542144 0.699935064 -0.3583702346 0.6994832912 -0.3587849417 0.0581037035 0.0109930399
250298500.0 0.0584759032 0.01099645 0.694948239 -0.3667170786 0.6948014035 -0.3660738427 0.0577661024 0.0102368751
255298470.0 0.058204696 0.0093647972 0.6909789223 -0.3743935422 0.6915428715 -0.3742808163 0.0580505313 0.0088738956
260298440.0 0.0577767858 0.0082501957 0.6874933275 -0.3833530919 0.6876276737 -0.3827784561 0.0582037207 0.0078878276
265298410.0 0.0589121218 0.0076377697 0.6829711119 -0.3914237179 0.6837452868 -0.3908373024 0.0580566429 0.0067108107
270298380.0 0.0584494963 0.0060321468 0.6797686343 -0.3986400051 0.6797781318 -0.3986033551 0.0578810555 0.0057139798
275298350.0 0.0587620807 0.0049581941 0.6749511556 -0.4070938851 0.6752420715 -0.4072999318 0.0581924823 0.0043455256
280298320.0 0.0585301188 0.004185889 0.6713007685 -0.4148695158 0.67078824 -0.4146505811 0.0588559693 0.0030889085
285298290.0 0.0584794542 0.0030070324 0.6665595071 -0.4228644496 0.6658240655 -0.4226940184 0.058351635 0.0024050436
290298260.0 0.0591277072 0.0019154693 0.6616513095 -0.4301092004 0.6616178566 -0.4304433694 0.0585572723 0.0016515742
295298230.0 0.0590115749 0.0007448754 0.6578274951 -0.4376326022 0.6574157038 -0.4379533235 0.0595125192 1.24058e-05
300298200.0 0.0582330662 -0.0005116352 0.6523013239 -0.4452925427 0.6525705369 -0.4459947458 0.0584324329 -0.0009801224
305298170.0 0.0586589661 -0.0014238678 0.6474333393 -0.4536324409 0.6475224052 -0.4535511901 0.0592877779 -0.0022411153
310298140.0 0.0584326977 -0.0026416765 0.6427220732 -0.4608488626 0.6429830573 -0.4612137258 0.0590107723 -0.003095757
315298110.0 0.0583288847 -0.004227169 0.6376236228 -0.468688666 0.6380171679 -0.4687339461 0.0588964367 -0.0045832212
320298080.0 0.0585579922 -0.0049736886 0.6322276 -0.4770319965 0.6324287091 -0.4761517388 0.0586741069 -0.0053615658
325298050.0 0.0578347246 -0.006366208 0.6270719968 -0.4840533373 0.6267462871 -0.4840196756 0.0579019519 -0.006544217
330298020.0 0.0576353857 -0.0075637743 0.6213636547 -0.4911699268 0.6214018284 -0.490974507 0.0575005814 -0.0075184883
335297990.0 0.0570864801 -0.00864354 0.6156215887 -0.4977205989 0.6151140845 -0.4986785144 0.0566366916 -0.0080895779
340297960.0 0.0560736327 -0.0092805164 0.6097490665 -0.5054640309 0.6091284904 -0.505173192 0.0568106057 -0.0089721678
345297930.0 0.0556942362 -0.0092988069 0.6041812235 -0.5120046248 0.6038361655 -0.5122786675 0.0562820409 -0.0097643002
350297900.0 0.0551168307 -0.0111469893 0.5972647674 -0.5194325809 0.5976539498 -0.5189463475 0.0555345132 -0.0100099518
355297870.0 0.0547912129 -0.0106819393 0.5919074222 -0.5253872622 0.5922355848 -0.5254341222 0.0550881268 -0.0109426142
360297840.0 0.0544835097 -0.0117160057 0.5869337459 -0.5316072133 0.5868888609 -0.5319551747 0.05477353 -0.0111250142
365297810.0 0.0541498752 -0.0122231107 0.5801708255 -0.5387844333 0.5807820616 -0.5388169054 0.0545933384 -0.0117526455
370297780.0 0.0543137673 -0.0132451117 0.5743854155 -0.5448194099 0.5745861556 -0.5443230354 0.0543231033 -0.0125853429
375297750.0 0.053847793 -0.0139837502 0.5682454793 -0.5513278732 0.5696288291 -0.5513605715 0.0541727722 -0.0130731038
380297720.0 0.0532635998 -0.0140896243 0.5620585986 -0.5577685116 0.5626260032 -0.5568532395 0.0533335052 -0.0141624401
385297690.0 0.0528762756 -0.0152909304 0.5560172482 -0.5642103782 0.5557474242 -0.5641188353 0.0533926307 -0.0141360302
390297660.0 0.0527545654 -0.0153899977 0.5499192171 -0.5698935171 0.5497442257 -0.5702035082 0.0525834994 -0.0151083236
395297630.0 0.0520331721 -0.0162569055 0.5439603434 -0.5763348525 0.544309368 -0.5765174448 0.0531091976 -0.0157405737
400297600.0 0.051672922 -0.0170249789 0.5367500553 -0.5830054238 0.5373528422 -0.5825583154 0.0522181592 -0.0158733297
405297570.0 0.0512440266 -0.0175968542 0.5307440948 -0.5880215034 0.5312380981 -0.5879993965 0.0513788571 -0.0168328081
410297540.0 0.0513629837 -0.0182590766 0.5249218139 -0.5947012518 0.5250603776 -0.5942854888 0.051407034 -0.0170600787
415297510.0 0.0512054096 -0.0187101186 0.5177603354 -0.6001011568 0.5184288477 -0.6004046234 0.0509978903 -0.0177644372
420297480.0 0.0507658002 -0.0193600813 0.5112289208 -0.6055950729 0.5108053782 -0.6062019642 0.0503584698 -0.018875714
425297450.0 0.0501433151 -0.0206561751 0.5048627597 -0.6117685696 0.5045619964 -0.6115680918 0.0492166484 -0.0188876868
430297420.0 0.0497502427 -0.0210123028 0.4973644219 -0.6167324765 0.4971930559 -0.6164444271 0.0493962843 -0.0200438841
435297390.0 0.0491899813 -0.0214549474 0.490409034 -0.6224703705 0.4902391218 -0.6226617305 0.0497176812 -0.0204038538
440297360.0 0.0493697872 -0.0218067326 0.4839580577 -0.6279873301 0.4839593073 -0.6281290937 0.048724702 -0.0214499108
445297330.0 0.0487685067 -0.0230245188 0.4776094832 -0.6331370806 0.4773843816 -0.6326666619 0.0489200292 -0.0223865434
450297300.0 0.0487074232 -0.0232797599 0.4705657531 -0.638371169 0.4699991218 -0.6389379632 0.04812164 -0.0230187896
455297270.0 0.0481124795 -0.0238781582 0.4632352266 -0.6435931998 0.463471552 -0.6439054535 0.0480012321 -0.0234449493
460297240.0 0.0476228059 -0.024613685 0.4558444504 -0.6489117558 0.456030454 -0.6490888251 0.0475428501 -0.0237686951
465297210.0 0.047458315 -0.024964752 0.4490209738 -0.6541611695 0.4486107798 -0.6543318861 0.0472627405 -0.0249244496
470297180.0 0.0468594934 -0.0257172307 0.4414376819 -0.6585948349 0.4416715988 -0.6592190542 0.0470247797 -0.0251789305
475297150.0 0.046656972 -0.0265072372 0.4342326907 -0.6630705261 0.4342250986 -0.6634565789 0.0469297399 -0.0261713929
480297120.0 0.0458761005 -0.026465152 0.4268811753 -0.6687567163 0.4265262522 -0.6689180859 0.0464703197 -0.0259456815
485297090.0 0.0455536703 -0.0271683176 0.4201205057 -0.6728610003 0.4195351791 -0.6731518848 0.0462982864 -0.0272517955
490297060.0 0.0445314755 -0.028032376 0.4123297949 -0.6784130943 0.4129000495 -0.6777076572 0.0460652306 -0.0268046082
495297030.0 0.0444603342 -0.0280961277 0.4046728914 -0.6821206547 0.4054555345 -0.6826587699 0.0454198218 -0.0279623065
500297000.0 0.0441492529 -0.0291807034 0.3969777004 -0.6865111517 0.3966009397 -0.6864442082 0.0447538013 -0.0275386701
505296970.0 0.0436435451 -0.0296139795 0.3893292334 -0.6906605006 0.3892100271 -0.6908926242 0.0444146826 -0.0282353876
510296940.0 0.0432151337 -0.0296047856 0.3819048002 -0.6953259955 0.3813235544 -0.6955726595 0.0442744078 -0.0286276875
515296910.0 0.042227771 -0.0299538308 0.3742598008 -0.6996126333 0.3740038995 -0.6989495097 0.0436127866 -0.0289106919
520296880.0 0.0419159793 -0.0307684893 0.3665333662 -0.7041332814 0.3665832851 -0.7034494525 0.0430791221 -0.0297706277
525296850.0 0.0418629858 -0.0316918818 0.3592786114 -0.7074522743 0.3591534777 -0.7078397187 0.0422997126 -0.0299878064
530296820.0 0.041192624 -0.0315920869 0.3508322012 -0.7115843824 0.3511638065 -0.7116161239 0.0425535759 -0.0298672032
535296790.0 0.0402606133 -0.0318179586 0.3434544837 -0.7152051071 0.3434175798 -0.7148412989 0.0417452398 -0.0309484631
540296760.0 0.0398610951 -0.0320621066 0.3355599944 -0.7193111267 0.3350917145 -0.7193332734 0.0407580974 -0.0305832712
545296730.0 0.0394093936 -0.0327977522 0.3270982161 -0.722306132 0.3274550158 -0.7225989622 0.0403937193 -0.0313189594
550296700.0 0.0394787101 -0.0328522703 0.3191079617 -0.7264679672 0.3194833387 -0.7265246925 0.0396913925 -0.0312205291
555296670.0 0.0384987615 -0.0334145417 0.3121075323 -0.7294757306 0.3122491269 -0.7297446219 0.0394690702 -0.0316729621
560296640.0 0.0382891711 -0.0332797964 0.3036537337 -0.7332446013 0.3036282034 -0.7329954131 0.0386938209 -0.0324378907
565296610.0 0.0373671818 -0.0342902233 0.2951898346 -0.7363430974 0.2955776842 -0.7363215406 0.0380414866 -0.0329997428
570296580.0 0.0369668807 -0.0341551708 0.2874878136 -0.7404419148 0.2873174252 -0.7391894945 0.0375040646 -0.032608352
575296550.0 0.0362364256 -0.034235828 0.2793189045 -0.7431669522 0.2793701875 -0.7429184234 0.03754666 -0.0335222022
580296520.0 0.0359622586 -0.0347570198 0.2712215567 -0.7462425213 0.2715116855 -0.7460283742 0.0361225673 -0.0341256947
585296490.0 0.0354582056 -0.035979332 0.2633733723 -0.7482029358 0.2636237927 -0.748854672 0.0359882662 -0.0340221758
590296460.0 0.0352540479 -0.0358877849 0.2547624642 -0.751118458 0.2548160643 -0.7514346491 0.0344442084 -0.0346729457
595296430.0 0.0347620268 -0.0357571761 0.246144524 -0.7545658521 0.2465622818 -0.7542200022 0.0347702982 -0.0352430613
600296400.0 0.0337530825 -0.0366342534 0.2384382002 -0.7571850299 0.2385093342 -0.7565544627 0.0338842387 -0.0353406598
605296370.0 0.0334742012 -0.0366208766 0.2298651889 -0.7589946059 0.2304440623 -0.7590936774 0.0336709712 -0.0355733609
610296340.0 0.0329308212 -0.0371704305 0.2215075735 -0.7618117863 0.2221279925 -0.7619570156 0.03342612 -0.0362068083
615296310.0 0.0326851398 -0.0376785002 0.213613367 -0.7639716647 0.2132064396 -0.7641405352 0.0328341779 -0.0361364119
620296280.0 0.0319256975 -0.0381458856 0.2051012784 -0.7666331234 0.2052742632 -0.7659696636 0.0319073963 -0.0368057731
625296250.0 0.0308074349 -0.0387808853 0.1970188186 -0.7689109413 0.197214953 -0.7692255675 0.0325615425 -0.0370586402
630296220.0 0.0315579631 -0.0384388276 0.1881963072 -0.7708887261 0.187907308 -0.7705602446 0.0312571586 -0.0372254048
635296190.0 0.0294051914 -0.0393185856 0.1799991648 -0.7729889629 0.1796335412 -0.7730825404 0.0308259214 -0.0374769422
640296160.0 0.0291169103 -0.0390765808 0.1713776284 -0.7746307695 0.1715565507 -0.7750238627 0.0301277878 -0.0382207984
645296130.0 0.0290458463 -0.0392886533 0.1630038833 -0.7761257509 0.1633469185 -0.7765275298 0.0299035422 -0.0381285695
650296100.0 0.0284319082 -0.0393902265 0.1543460913 -0.7783679751 0.1545493135 -0.7782654147 0.0298191776 -0.0391552501
655296070.0 0.0271657557 -0.0403588811 0.1459850222 -0.7797866042 0.1460444143 -0.7802945203 0.0291362947 -0.0388989687
660296040.0 0.0262506625 -0.0407638866 0.1373372134 -0.781612538 0.1378421864 -0.7816583479 0.0288229575 -0.0390063852
665296010.0 0.0266645645 -0.040628231 0.1287312243 -0.7827661373 0.1290766267 -0.7827018104 0.028313181 -0.0385995917
670295980.0 0.0246493373 -0.0404862603 0.1205758453 -0.7840495491 0.1205932182 -0.7842083448 0.0271638929 -0.0391831056
675295950.0 0.0246466306 -0.0403799682 0.1119351406 -0.7849471438 0.1119328045 -0.7846985134 0.0265905817 -0.0393716586
680295920.0 0.023588242 -0.0411725544 0.1029092748 -0.7861323796 0.1027107542 -0.7868928804 0.0263120297 -0.0386634134
685295890.0 0.0235236826 -0.0405844878 0.094535738 -0.7875059802 0.0941961435 -0.7874655439 0.0255615213 -0.039246359
690295860.0 0.0235639296 -0.0411358222 0.0859647478 -0.787846604 0.0856016449 -0.7891830101 0.0248507992 -0.0384500197
695295830.0 0.0227092463 -0.0412888278 0.0777830871 -0.7894502903 0.0771592413 -0.7891642434 0.024413088 -0.0389174104
700295800.0 0.0221128051 -0.0417016497 0.0690376213 -0.7901493323 0.0686120369 -0.7894191855 0.0233485444 -0.0385426257
705295770.0 0.0211429982 -0.0408881555 0.0598674431 -0.7909395038 0.0603716581 -0.7911679836 0.0229263015 -0.0389771682
710295740.0 0.02081928 -0.0414824874 0.0517292452 -0.7922531827 0.0521336829 -0.7919743219 0.0226683179 -0.039709699
715295710.0 0.0196257192 -0.0416587467 0.0434638129 -0.7919998134 0.0426948911 -0.7919915364 0.0223517924 -0.0394211074
720295680.0 0.0194813422 -0.0416882026 0.0345332348 -0.7927635079 0.0344175016 -0.7924171466 0.0212747894 -0.0389226623
725295650.0 0.0189482176 -0.0416748943 0.0253672033 -0.7929816446 0.0260902852 -0.7932952819 0.0199956411 -0.0391375084
730295620.0 0.0186489864 -0.0413593944 0.0167638195 -0.7926122474 0.01690466 -0.7934957583 0.0195043778 -0.0395824251
735295590.0 0.0177679507 -0.0416036279 0.0083368244 -0.7936313947 0.0082352754 -0.7932815007 0.0186601256 -0.0399684823
740295560.0 0.0170093226 -0.0417449753 -4.65705e-05 -0.7932428219 2.92384e-05 -0.7929785738 0.0188794036 -0.0391713509
745295530.0 0.0164760263 -0.0415704382 -0.0088768666 -0.7922718523 -0.0090744339 -0.793139193 0.0179915566 -0.0402381272
750295500.0 0.016030072 -0.0420871886 -0.0171812801 -0.7922637798 -0.0175300706 -0.7930236505 0.0170839217 -0.0400655303
755295470.0 0.0153923894 -0.0421955851 -0.0257124137 -0.7930071636 -0.0259244734 -0.7924102754 0.0174752415 -0.0406963372
760295440.0 0.0144488056 -0.0420284849 -0.0347234464 -0.7925325498 -0.0344744967 -0.7927440453 0.016349027 -0.0405938828
765295410.0 0.0139960582 -0.0421430698 -0.0434904876 -0.791941569 -0.0437384403 -0.7920691205 0.0158434318 -0.0401324365
770295380.0 0.0129063713 -0.0424327199 -0.0518218562 -0.7912947467 -0.0521534187 -0.7911570809 0.0150260944 -0.0404439606
775295350.0 0.0127873325 -0.0426682279 -0.0604456339 -0.7900290209 -0.060267675 -0.790860289 0.0135947409 -0.0403164859
780295320.0 0.0121679416 -0.0423303956 -0.0693060767 -0.7897540898 -0.0685430633 -0.7899531382 0.0133613607 -0.0413147066
785295290.0 0.0110511169 -0.0431147599 -0.0778823231 -0.7882287665 -0.0774159208 -0.7894394108 0.0137648705 -0.0406275044
790295260.0 0.0114878907 -0.0420720343 -0.0853430662 -0.7886951292 -0.085338331 -0.7880849734 0.012478073 -0.0408521283
795295230.0 0.0103759395 -0.0426383242 -0.0945914825 -0.7872976217 -0.0937301109 -0.7875357061 0.0121658219 -0.0402078464
800295200.0 0.0093759423 -0.0421068136 -0.1039193643 -0.7861099727 -0.1031616006 -0.7861341486 0.0116047252 -0.0409290333
805295170.0 0.0086273569 -0.0425376987 -0.1121599799 -0.7841921377 -0.1119786187 -0.78525974 0.0108948516 -0.040497388
810295140.0 0.0078898064 -0.0430486147 -0.1201941426 -0.7834476943 -0.1203036212 -0.7835860351 0.0109168888 -0.0403116475
815295110.0 0.0076004851 -0.0428430087 -0.1288362284 -0.7819476666 -0.1286891174 -0.7816735071 0.0098231367 -0.0404711431
820295080.0 0.0066274104 -0.0421390663 -0.1372569137 -0.7804536588 -0.1371300616 -0.7804993269 0.0090652405 -0.0401965061
825295050.0 0.0065887074 -0.0420588379 -0.1450731073 -0.7788590974 -0.1457662162 -0.7794025037 0.0093942498 -0.0403402617
830295020.0 0.0056800322 -0.0419089334 -0.1544367924 -0.7773870766 -0.1538364347 -0.7769552798 0.0093168315 -0.039834813
