!Created with skrf (http://scikit-rf.org).
# Hz S RI R 50.0 
!freq ReS11 ImS11 ReS21 ImS21 ReS12 ImS12 ReS22 ImS22
300000.0 -0.0462106844 -0.0668117456 -0.0018989037 -0.0003646873 0.0004432046 0.0022498252 -0.7643012618 -0.176950261
5299970.0 -0.0500591505 0.014541581 0.000220434 -0.0003031753 -0.0002157565 8.76784e-05 -0.7848019226 -0.0092048711
10299940.0 -0.0442980383 0.03287375 -0.0001795186 -0.0001520315 -0.0001505788 -0.0001327572 -0.7875636931 -0.0051566891
15299910.0 -0.0358342332 0.0472893254 -0.000122033 -0.0002460325 -3.88459e-05 5.02685e-05 -0.7927564506 -0.0024417163
20299880.0 -0.0257096265 0.0593662092 0.0001905829 8.53011e-05 0.0001650844 -3.56954e-05 -0.7997022816 0.0018002277
25299850.0 -0.0142786881 0.0685645665 0.0002290886 3.3944e-06 -3.50135e-05 6.88257e-05 -0.8063339713 0.0080552979
30299820.0 -0.0025887426 0.0754046386 -3.92807e-05 -1.27839e-05 0.0001197194 -8.97709e-05 -0.8122986235 0.015790996
35299790.0 0.0092261388 0.0797712582 -5.97718e-05 -0.0001511626 -3.78609e-05 0.0001652276 -0.8174082096 0.0246662949
40299760.0 0.0207391094 0.0829199413 0.0001001534 -2.75673e-05 -5.2291e-05 -0.0001915569 -0.8213876177 0.0339811476
45299730.0 0.0313657094 0.0835745922 -6.54133e-05 4.34036e-05 -0.0001366139 -6.04467e-05 -0.8244070067 0.0435858654
50299700.0 0.0417266572 0.083689423 4.96322e-05 6.79935e-05 -0.0001160019 -5.85928e-05 -0.8264895624 0.0537683304
55299670.0 0.050968087 0.0825611466 1.56214e-05 0.0003441626 -0.000130405 2.9396e-06 -0.8288815867 0.0636656159
60299640.0 0.0597616649 0.0806096242 9.02572e-05 0.0001372138 6.555e-05 -0.0001756258 -0.8297230065 0.0737796602
65299610.0 0.0676571854 0.0781919132 -1.73463e-05 0.000190502 7.52029e-05 5.66642e-05 -0.8304701594 0.0842079596
70299580.0 0.074373799 0.0748931144 0.0001709085 -9.33648e-05 1.3713e-05 -4.26137e-05 -0.830985689 0.0937546998
75299550.0 0.080900569 0.0716176851 -0.0001342668 -5.42251e-05 -8.82872e-05 0.0002514085 -0.8311676585 0.1042440751
80299520.0 0.0865279495 0.0679523807 0.0001124181 0.0002393241 6.20841e-05 1.56867e-05 -0.8308479751 0.1136992675
85299490.0 0.0920489288 0.0640038942 -9.66188e-05 8.007e-06 4.05165e-05 0.0002172229 -0.8301314296 0.1231791508
90299460.0 0.0968667431 0.0598742381 -2.01528e-05 0.0001332742 5.5896e-05 -0.0001509452 -0.8291541719 0.1324412206
95299430.0 0.1009202335 0.0562578865 7.69594e-05 2.68217e-05 9.53973e-05 0.0001257116 -0.8284132708 0.1426746642
100299400.0 0.1046989015 0.0520449827 4.61622e-05 -4.20137e-05 -3.55452e-05 0.0001986596 -0.8272292461 0.1515825053
105299370.0 0.1078709793 0.0478338337 -5.44502e-05 3.76868e-05 1.94102e-05 -5.92421e-05 -0.8259536135 0.1605107001
110299340.0 0.1110850316 0.0438441684 -0.0001781348 -4.21149e-05 -2.55052e-05 -5.09238e-05 -0.8244984538 0.169532918
115299310.0 0.1132194441 0.0400833087 1.1247e-06 1.07601e-05 -0.0002270528 -2.40381e-05 -0.8230692491 0.1794295238
120299280.0 0.1158780279 0.0360534946 4.14939e-05 0.0002835784 0.0001856516 8.7957e-06 -0.8210325795 0.1878814821
125299250.0 0.1176133614 0.0319901995 5.53862e-05 -0.0001092639 0.0001326675 0.0002883621 -0.8193992347 0.1971632868
130299220.0 0.1191632161 0.0280206555 -0.0001966367 2.00771e-05 -2.16552e-05 4.13358e-05 -0.8176571706 0.2058642237
135299190.0 0.1210347047 0.0243130884 -0.0001084546 -5.17554e-05 -2.92448e-05 0.000105681 -0.81587057 0.215257171
140299160.0 0.1220691066 0.0208406011 -7.49438e-05 6.0674e-06 -1.55146e-05 -2.34553e-05 -0.8136783573 0.2228252834
145299130.0 0.1234392203 0.0174146569 0.0002528839 -6.93713e-05 9.66495e-05 -3.25118e-05 -0.8120680146 0.2328156531
150299100.0 0.124339746 0.013975466 0.0001615031 0.0001757968 1.72826e-05 0.0001934812 -0.8097042903 0.2417664451
155299070.0 0.1249841011 0.0108085694 6.17391e-05 3.4154e-06 -2.77406e-05 -0.0002766918 -0.8075884941 0.2505494734
160299040.0 0.1254892606 0.0074161035 0.0001712833 -1.5855e-06 -1.68807e-05 9.75513e-05 -0.8045118364 0.2587799848
165299010.0 0.1261812256 0.0042847639 0.000144158 6.86605e-05 6.0591e-05 9.21932e-05 -0.8015922935 0.2675187498
170298980.0 0.1266237914 0.0005631905 1.59167e-05 5.79591e-05 1.91193e-05 0.0001029504 -0.799737953 0.2755755439
175298950.0 0.1267683412 -0.002038249 -5.09768e-05 7.60296e-05 0.0001535104 -0.000187193 -0.796153303 0.284810441
180298920.0 0.1270531715 -0.0052310869 0.0001296037 0.0001823794 -9.88672e-05 -5.10986e-05 -0.7935652659 0.2936741441
185298890.0 0.1270294444 -0.0083611744 0.0003288556 -0.0001571126 0.000290842 6.28503e-05 -0.7902803066 0.3018228999
190298860.0 0.1270053149 -0.0110413274 -6.56693e-05 0.0001526392 3.94916e-05 0.0001353258 -0.7872383149 0.3099815446
195298830.0 0.1268143242 -0.0135189619 4.26303e-05 -2.1292e-05 2.20912e-05 -8.81473e-05 -0.7841097952 0.3182960843
200298800.0 0.126864788 -0.0168657942 -4.19753e-05 3.74921e-05 0.0001788427 2.44819e-05 -0.7805442344 0.3268632254
205298770.0 0.1262039038 -0.0193698327 2.3505e-05 -0.0001616513 -7.24624e-05 5.59349e-05 -0.7773466266 0.3355281953
210298740.0 0.1263549376 -0.0218195065 -0.0001541745 1.58921e-05 -7.42753e-05 2.99238e-05 -0.774470357 0.343120803
215298710.0 0.1254884825 -0.0243487538 0.000202064 -9.5432e-05 6.72836e-05 1.42378e-05 -0.7705967852 0.3513350388
220298680.0 0.1254435248 -0.0270220159 1.08186e-05 -0.000107904 0.0001112209 -0.0001800563 -0.7663394821 0.359140687
225298650.0 0.1248202049 -0.0293495751 1.5065e-06 -6.51502e-05 2.23365e-05 -3.81566e-05 -0.7630071039 0.3673695378
230298620.0 0.1240028294 -0.0315011125 0.0001733498 0.000122262 0.0001296839 7.09042e-05 -0.7592548057 0.3756521838
235298590.0 0.1234298519 -0.0339658242 5.86634e-05 2.68814e-05 7.97504e-05 0.0001456981 -0.7550462119 0.3838810432
240298560.0 0.1226069902 -0.036138025 0.0001811797 0.0001553366 0.0001402569 -7.74532e-05 -0.7514115123 0.3909118295
245298530.0 0.1219891769 -0.0385658356 -1.56766e-05 0.0002061303 -1.23358e-05 9.38632e-05 -0.7476297834 0.3988512765
250298500.0 0.1212715276 -0.0406028397 -4.85107e-05 0.0001884985 -4.7427e-06 -5.79936e-05 -0.7428453129 0.4072248092
255298470.0 0.1203145507 -0.0423807111 -8.10654e-05 5.9239e-05 7.31706e-05 -1.3358e-05 -0.7387995387 0.4143214566
260298440.0 0.1198130299 -0.0451559891 -4.7925e-05 0.0001359848 -4.77247e-05 3.10382e-05 -0.7337256752 0.4216943667
265298410.0 0.11864899 -0.0470856784 -4.14973e-05 0.0001592302 9.29692e-05 -2.40942e-05 -0.7295507321 0.4300941929
270298380.0 0.117833072 -0.0489349589 0.0001270807 -0.0001505921 0.0001066964 8.76719e-05 -0.7245613546 0.4379205506
275298350.0 0.1167329928 -0.0505837085 0.0001056696 0.0001004607 -0.0001613201 0.0001286874 -0.7206463434 0.4452808091
280298320.0 0.1158233732 -0.052636127 -4.6514e-06 7.74054e-05 0.0001600051 -4.89753e-05 -0.7159875924 0.4527856793
285298290.0 0.1150150113 -0.0545695826 -3.32479e-05 8.16644e-05 -0.0001669844 7.85413e-05 -0.7117712183 0.4604569705
290298260.0 0.1139680361 -0.0565409049 0.0002003817 0.0001324664 -1.48433e-05 -3.01046e-05 -0.706408873 0.4678964883
295298230.0 0.1127093468 -0.0584172345 -0.0001780563 5.9909e-06 0.000126466 2.12766e-05 -0.701611682 0.4747489375
300298200.0 0.1119493064 -0.0604189167 0.0001138455 -0.0001918646 -8.71562e-05 8.41552e-05 -0.6963466324 0.4822954321
305298170.0 0.1108237002 -0.0621682053 5.98583e-05 -0.0002052061 -1.82018e-05 -5.65471e-05 -0.6914021048 0.4893953099
310298140.0 0.1097997338 -0.064542522 0.0001381384 0.0001557733 -4.08161e-05 -6.20899e-05 -0.686297778 0.4965416319
315298110.0 0.108492963 -0.0664143751 -1.5764e-06 -4.16976e-05 0.000269507 -2.0638e-05 -0.6811595789 0.5037223872
320298080.0 0.1068433856 -0.0682544691 0.0001455076 6.43994e-05 0.0002410901 0.000236739 -0.6759221296 0.5105074051
325298050.0 0.1052214768 -0.0703922511 0.0001539278 1.75243e-05 8.77167e-05 0.0002151317 -0.6703747401 0.5177537285
330298020.0 0.1036182148 -0.0715515848 0.000195914 -3.67818e-05 0.0001186933 0.0001398931 -0.6653098557 0.5242660937
335297990.0 0.1023278884 -0.0731405971 3.77175e-05 -9.5698e-05 0.0001027433 4.2775e-05 -0.6594369883 0.5320570924
340297960.0 0.1008455846 -0.074598723 -1.10819e-05 0.0001071845 -6.81381e-05 -7.47991e-05 -0.6544416412 0.5383298478
345297930.0 0.0993780054 -0.0758091244 0.0002471306 7.15399e-05 0.0001844598 1.96164e-05 -0.6485537243 0.5447026813
350297900.0 0.0980042677 -0.0776085643 2.48498e-05 2.63289e-05 -0.0001402162 6.1306e-05 -0.6433099119 0.5510289702
355297870.0 0.0967511492 -0.0790952956 -0.0001369048 0.0001121283 0.0001079384 -0.0001421833 -0.6370229005 0.5587018997
360297840.0 0.0952661997 -0.0801520509 -5.31741e-05 3.0749e-05 1.96311e-05 1.61157e-05 -0.6302755203 0.5647357375
365297810.0 0.0940583729 -0.0813968219 0.00015635 -7.33071e-05 -7.85587e-05 8.6759e-06 -0.6260073299 0.5707892425
370297780.0 0.0925883761 -0.0830992395 -1.77273e-05 -2.01928e-05 0.0001065034 0.000177949 -0.6196889223 0.5779033434
375297750.0 0.091012157 -0.084490696 0.0002301662 -4.58049e-05 -4.00114e-05 3.11677e-05 -0.6129747269 0.5840467724
380297720.0 0.0896117002 -0.085206815 0.0001019933 8.45209e-05 6.37086e-05 -3.09454e-05 -0.6072437072 0.5905822876
385297690.0 0.0882436807 -0.086681791 8.15195e-05 0.0001006394 0.0001810478 3.729e-06 -0.6009823589 0.596568646
390297660.0 0.0867731389 -0.0883848351 0.0003103881 1.78207e-05 0.0001223825 0.0002206024 -0.5941271434 0.602053967
395297630.0 0.0855068416 -0.0894116972 0.0001229765 0.0002468048 0.0002017456 1.45229e-05 -0.5880785597 0.6072375922
400297600.0 0.0835436661 -0.0904757063 0.0001499213 5.522e-06 0.0002555971 2.53334e-05 -0.5829030903 0.6141508846
405297570.0 0.0820497786 -0.0920074155 2.73215e-05 0.0001408361 0.0002116529 -3.23398e-05 -0.575265021 0.6199879231
410297540.0 0.0811536854 -0.0927550138 0.0001911223 -2.38971e-05 -1.99309e-05 0.0002161545 -0.5693799839 0.6268288208
415297510.0 0.0790903599 -0.0937795625 0.0001581648 -2.30653e-05 9.07944e-05 -0.000233475 -0.5629697084 0.6311503688
420297480.0 0.0779496089 -0.0952424298 0.0001625061 -5.60693e-05 7.45354e-05 9.09348e-05 -0.5558688618 0.6380655884
425297450.0 0.0767355055 -0.0964843091 0.000280467 0.0002497981 0.0001466185 0.0001208363 -0.5492324062 0.6426528279
430297420.0 0.0748342529 -0.0975757053 4.4186e-06 0.0001605577 7.424e-07 -3.88424e-05 -0.542839079 0.6488212371
435297390.0 0.0733221184 -0.0985041173 5.94732e-05 -1.19155e-05 0.0001514112 0.0001132117 -0.5367559401 0.6545147841
440297360.0 0.0715690991 -0.0994954317 3.21509e-05 0.0001022994 0.0002097003 2.56789e-05 -0.5300166245 0.6596111409
445297330.0 0.0703174326 -0.1007536737 0.0001676538 -1.16506e-05 5.32404e-05 4.86589e-05 -0.5226708807 0.6649522792
450297300.0 0.0687301076 -0.1016956789 -4.2317e-06 5.2286e-06 0.0001928281 7.33875e-05 -0.5159593091 0.6698423394
455297270.0 0.0670391159 -0.1026097864 7.18792e-05 -0.0001348423 1.07297e-05 -7.53574e-05 -0.5088224536 0.6747937873
460297240.0 0.0659059372 -0.1034769393 8.13296e-05 0.0001280112 6.71469e-05 -6.38138e-05 -0.5022594991 0.679969993
465297210.0 0.0644108528 -0.1043834865 0.0002047637 0.0002045749 0.0001659089 8.96128e-05 -0.4949706005 0.6859626015
470297180.0 0.062510608 -0.1050889837 0.0001605415 9.37451e-05 0.0001471168 6.44306e-05 -0.4875931535 0.6903440688
475297150.0 0.0608354123 -0.105974523 0.0001978044 0.0001304806 0.0002123336 0.0002247095 -0.4811726969 0.6951722092
480297120.0 0.0596887623 -0.1069896321 0.0001728238 -6.16096e-05 0.0001500458 0.0001332428 -0.4742259919 0.6995731076
485297090.0 0.057899262 -0.1076143879 5.45311e-05 -1.06594e-05 -1.4069e-06 9.06037e-05 -0.4672518317 0.7049964573
490297060.0 0.0570877844 -0.108394449 8.20997e-05 0.0001711736 8.84097e-05 3.94176e-05 -0.4594795952 0.7090702844
495297030.0 0.0550677037 -0.1093334586 -5.40082e-05 4.2631e-05 0.0001445242 -1.14138e-05 -0.4524124496 0.7136852466
500297000.0 0.0533759227 -0.1097354521 0.0003308235 -8.8701e-06 0.0001773928 7.1462e-05 -0.4451522818 0.7187306664
505296970.0 0.0520439403 -0.1107132799 0.0001133696 -9.04777e-05 1.5698e-05 6.43857e-05 -0.4378143306 0.7227180143
510296940.0 0.050584956 -0.1113027674 0.0001526232 -9.02805e-05 0.0002142797 -0.0002904316 -0.4303880837 0.7274901243
515296910.0 0.0486495904 -0.111880017 0.0001518571 0.0001337231 0.0001351598 7.75191e-05 -0.4227493102 0.7310620783
520296880.0 0.0472601142 -0.1123935274 0.0003268029 -0.0001044432 -9.454e-07 -0.0001713979 -0.4148331194 0.735934364
525296850.0 0.0456286652 -0.1133150156 0.0001518601 -1.48202e-05 8.3587e-06 6.57852e-05 -0.4080924121 0.7391849715
530296820.0 0.0440115539 -0.1135824988 6.99407e-05 0.0001229167 0.0001459007 -8.91733e-05 -0.4001040139 0.743320617
535296790.0 0.0428516264 -0.1140131571 -0.0001480151 0.0002125779 0.0001768318 6.12265e-05 -0.3929986996 0.7478069116
540296760.0 0.0412268451 -0.1144725959 2.19324e-05 -0.0001036224 0.0001248124 -1.997e-07 -0.3847496767 0.7512580022
545296730.0 0.0393991143 -0.1147692553 0.0002085652 0.000170491 0.0001586547 -3.34645e-05 -0.3775737932 0.7552666592
550296700.0 0.0379546315 -0.1152062499 0.0002047585 0.0001835777 9.67273e-05 4.61839e-05 -0.3697489478 0.7591198429
555296670.0 0.0362740642 -0.1153530977 3.97227e-05 -0.0001564647 6.33442e-05 -0.0002543794 -0.3621721085 0.762214201
560296640.0 0.0346767672 -0.1158623609 0.000190843 2.35878e-05 9.99152e-05 4.57589e-05 -0.3540614465 0.7668058039
565296610.0 0.0329313183 -0.1162154143 0.0001593492 -8.46719e-05 8.41576e-05 0.0001799262 -0.3466473759 0.7698616845
570296580.0 0.0314593194 -0.1164452682 0.0001504523 0.0001347476 0.0001856587 0.0001334089 -0.3385902201 0.77278045
575296550.0 0.0297733837 -0.1168283676 5.8053e-06 -7.0017e-06 1.74291e-05 0.0001613975 -0.331010133 0.7762338214
580296520.0 0.028331132 -0.116789801 -7.9105e-06 -9.73059e-05 2.28809e-05 0.0001569079 -0.3234402302 0.7796389811
585296490.0 0.0267680158 -0.1170226207 0.0002249794 -3.7026e-06 6.35783e-05 -6.39665e-05 -0.3153818098 0.7834290704
590296460.0 0.0251222404 -0.1170559522 5.61748e-05 3.76485e-05 0.0003053067 1.45539e-05 -0.3078936334 0.7859796615
595296430.0 0.0232034044 -0.1174687249 0.0002776111 -5.48101e-05 0.0001345641 -2.95479e-05 -0.2998482401 0.7894813568
600296400.0 0.0216267063 -0.1176600354 0.0001276244 -6.03844e-05 0.0001316451 -4.17092e-05 -0.2918533603 0.7917171214
605296370.0 0.0199235039 -0.1174126223 -2.27465e-05 -0.0001337436 0.0001402904 7.11054e-05 -0.2833599398 0.794952635
610296340.0 0.0185680543 -0.1177477567 0.0001054537 -6.09427e-05 9.9776e-05 -7.34979e-05 -0.2759260325 0.7973214599
615296310.0 0.016933385 -0.1177117619 9.04165e-05 0.0001130075 5.69757e-05 -0.0001304991 -0.2674146302 0.8005524034
620296280.0 0.015054074 -0.1173379998 0.0003755919 -7.2609e-05 0.0001444145 6.47997e-05 -0.2595366462 0.8032712406
625296250.0 0.0135518852 -0.117678443 0.0002740793 0.0001554075 0.0001981565 0.0001371295 -0.2513253783 0.8049389685
630296220.0 0.0119769326 -0.1172689464 -1.33791e-05 4.39504e-05 0.0003075144 0.0001063655 -0.2437249418 0.8079185344
635296190.0 0.0102139822 -0.1173471122 0.0002609276 -8.5366e-06 9.95514e-05 7.2331e-05 -0.2352848127 0.8100357466
640296160.0 0.0084987291 -0.1171907697 0.0002684374 2.86114e-05 0.000241792 1.99543e-05 -0.2271645147 0.8128942564
645296130.0 0.0073399972 -0.1170596511 0.0001241399 -8.20041e-05 6.59042e-05 -8.19208e-05 -0.2192956637 0.8145405371
650296100.0 0.0054033771 -0.1170064318 0.0001173848 0.0001436236 2.81587e-05 0.0001207849 -0.2101672355 0.8169120472
655296070.0 0.0036866394 -0.1165621558 0.0002946272 9.88257e-05 0.0002337937 -2.47064e-05 -0.2027434309 0.8187991146
660296040.0 0.0017810712 -0.1163340427 0.0001076261 2.4198e-05 -7.97801e-05 7.06498e-05 -0.1937887623 0.8209641444
665296010.0 0.0004042893 -0.1159379341 8.76073e-05 -9.31229e-05 0.0001579788 4.26476e-05 -0.1864502713 0.8223994066
670295980.0 -0.0016244119 -0.1157895209 3.45285e-05 -1.09504e-05 0.0002935839 -0.0001515965 -0.1777298541 0.8241442376
675295950.0 -0.0031598023 -0.1155377095 0.0001049645 -0.0001668982 0.0001498902 2.53135e-05 -0.1693970543 0.8261408115
680295920.0 -0.0050212798 -0.1150545477 0.0001474094 5.11386e-05 0.0001653151 7.91216e-05 -0.1611550396 0.8277195206
685295890.0 -0.0065011959 -0.1149385157 6.03111e-05 -0.0001233989 0.000195508 0.0001580749 -0.1526046324 0.8296480566
690295860.0 -0.0080729334 -0.114602887 8.4334e-05 -0.0001309074 0.0004158338 4.90564e-05 -0.1449319552 0.8309480721
695295830.0 -0.0101644848 -0.114251204 5.33813e-05 -0.0001165236 5.14179e-05 -7.66681e-05 -0.1365071877 0.8325983003
700295800.0 -0.0116035335 -0.1137946978 0.0002097723 -0.000118872 -0.0001029342 -0.0001137203 -0.1282118253 0.8334598845
705295770.0 -0.0131949787 -0.1134251813 0.0001449302 -0.0002584992 0.0001720073 9.89592e-05 -0.1198560363 0.8351533634
710295740.0 -0.0147271783 -0.1130957827 0.0001848683 0.0002616396 0.0003432913 3.5129e-05 -0.11129974 0.8362601542
715295710.0 -0.0165316693 -0.1124987721 0.0001242732 4.16276e-05 2.9507e-06 7.5613e-05 -0.1030359703 0.8368909249
720295680.0 -0.0179174313 -0.1118416519 0.0001961566 0.0001289463 0.0001850474 1.53925e-05 -0.0943262006 0.8376776759
725295650.0 -0.0198689625 -0.1113495742 0.0002094094 -0.0001103004 0.000300104 -0.000237415 -0.0867804488 0.839226787
730295620.0 -0.0217595962 -0.1110569798 9.15956e-05 -0.0003015644 0.0001933339 -3.29977e-05 -0.0784828441 0.8401052947
735295590.0 -0.0233525971 -0.1101967171 0.0001668214 1.51215e-05 0.0002440727 6.71469e-05 -0.0695211423 0.8406779117
740295560.0 -0.0251768471 -0.1099231417 0.0002358189 -6.7624e-06 0.0003190909 -4.48907e-05 -0.0609874418 0.8413732581
745295530.0 -0.0264215132 -0.1094781344 0.0002275688 -0.0001250233 0.0001383267 -2.0826e-06 -0.053105903 0.8412122141
750295500.0 -0.0285086496 -0.1084486734 0.0001628997 -7.66266e-05 -5.4901e-06 5.64397e-05 -0.0442147615 0.8422699601
755295470.0 -0.029906246 -0.1079453964 0.0002604558 0.0001893894 0.0003382001 3.28698e-05 -0.0367121565 0.842818236
760295440.0 -0.0315732741 -0.1075875902 3.57557e-05 -0.000166023 0.0001345083 5.02665e-05 -0.0277225666 0.8422966228
765295410.0 -0.0330571225 -0.1070032604 -2.39304e-05 -6.23623e-05 9.50491e-05 -6.67237e-05 -0.0192466317 0.8431420527
770295380.0 -0.0347823249 -0.1057112611 1.41239e-05 -8.24554e-05 2.84452e-05 -3.33727e-05 -0.0112095234 0.8431764383
775295350.0 -0.0365381787 -0.1053161158 -0.0001115927 0.0001029499 -4.24212e-05 -1.56834e-05 -0.002938913 0.8431179402
780295320.0 -0.0380231859 -0.1047749 0.0001047622 8.46257e-05 8.27371e-05 -8.2262e-06 0.0057961019 0.8432935216
785295290.0 -0.0398264557 -0.1038426878 0.0001231491 -5.05305e-05 2.79521e-05 -0.0001110046 0.0138131909 0.8434188126
790295260.0 -0.0413831916 -0.103443743 0.0002466606 0.0001648868 0.0001862954 0.0001272009 0.0224638589 0.843319648
795295230.0 -0.0431303595 -0.1027620539 6.52728e-05 0.0001946417 0.0003042034 -9.78693e-05 0.0303433842 0.842277534
800295200.0 -0.0445481243 -0.1020152771 0.0001766207 9.80772e-05 0.0001927669 -5.7041e-06 0.0388361656 0.8419794154
805295170.0 -0.0464304847 -0.1011519937 1.80232e-05 7.7113e-06 0.0001212428 5.2108e-06 0.0477803113 0.8418317897
810295140.0 -0.047832085 -0.1002789826 0.0002483684 -4.81992e-05 -1.34349e-05 -0.0002107626 0.0560478581 0.8411552185
815295110.0 -0.0493843654 -0.0995877672 0.0002940569 -0.000112242 0.0002918345 -2.10745e-05 0.0633376491 0.8409395135
820295080.0 -0.0510941106 -0.0987078022 9.69334e-05 -3.81874e-05 0.0003148277 1.42381e-05 0.0714356884 0.8401393398
825295050.0 -0.0529749149 -0.0980274994 9.63051e-05 -2.32207e-05 0.0002763199 -0.0001822984 0.0803178627 0.839407841
830295020.0 -0.0539427867 -0.0972397802 0.0003390075 -0.000301852 5.0278e-05 4.03048e-05 0.0884552424 0.8380376698
835294990.0 -0.0556206694 -0.0963276136 0.0003442717 0.000171808 0.0001599446 1.907e-05 0.0972437006 0.8378871175
840294960.0 -0.0569710543 -0.0954970042 0.0003433048 -0.0001705017 0.0003508343 -7.83364e-05 0.1059146166 0.8363103197
845294930.0 -0.0586879261 -0.094611115 0.0003061403 -0.0001236171 0.0001884412 3.80767e-05 0.1138084342 0.8357585446
850294900.0 -0.0598556918 -0.0937769926 0.000156054 -5.18917e-05 0.0002508982 0.0001031255 0.1217864268 0.8346319722
