!Created with skrf (http://scikit-rf.org).
# Hz S RI R 50.0 
!freq ReS11 ImS11 ReS21 ImS21 ReS12 ImS12 ReS22 ImS22
300000.0 -0.3195451321 -0.1012038585 0.3729482115 0.0506883282 0.3752943589 0.0550631511 -0.3179099704 -0.1143265049
5299970.0 -0.3240904939 0.0048927065 0.3789192764 0.0028201159 0.3784095453 0.0030854444 -0.3264574 0.003212942
10299940.0 -0.3208639519 0.0157716534 0.3796990556 0.0023009504 0.3797325925 0.0024102031 -0.3242775426 0.0127128512
15299910.0 -0.3180617252 0.0235641922 0.3817524968 0.0020993683 0.3820831402 0.0023406341 -0.3215576116 0.0199836839
20299880.0 -0.3147369234 0.0302270281 0.385029252 0.0016467268 0.3852697279 0.0017107036 -0.3190950695 0.0262541582
25299850.0 -0.3105322716 0.0357289716 0.3881579744 -0.0003086271 0.3885304002 1.30788e-05 -0.3158838213 0.0311894462
30299820.0 -0.3066993005 0.0404413798 0.3918203982 -0.0019882846 0.3915942073 -0.0023628572 -0.3128322385 0.0354075741
35299790.0 -0.3028833712 0.0446771321 0.3951416807 -0.0052692123 0.3953184555 -0.0053779992 -0.3099740329 0.0394559181
40299760.0 -0.2995250399 0.0480443106 0.3981068446 -0.0083570196 0.3981709535 -0.0089276477 -0.3073217872 0.0430767071
45299730.0 -0.2965667914 0.0514460816 0.4014070344 -0.0130112599 0.4014113402 -0.0128476021 -0.3048867518 0.0462572554
50299700.0 -0.2931314598 0.0541185395 0.4031793195 -0.0170089997 0.4035880863 -0.0172273156 -0.3023939087 0.0491536312
55299670.0 -0.2908842049 0.0567028567 0.4055191557 -0.0220419884 0.4060494631 -0.0220968994 -0.3004115459 0.0520259311
60299640.0 -0.2880364834 0.0591634631 0.4073365761 -0.0271342288 0.4076452905 -0.026892942 -0.2982036318 0.0543993764
65299610.0 -0.2861951705 0.0615558743 0.4094306101 -0.0313562376 0.4095513213 -0.031692577 -0.2965848931 0.0570436066
70299580.0 -0.2839508606 0.0633744761 0.4103100332 -0.0368436449 0.4107273621 -0.0370634968 -0.2947544131 0.0594049052
75299550.0 -0.2818358525 0.0656722338 0.4116137681 -0.0419322932 0.4117314142 -0.0421007196 -0.2929552105 0.0620270858
80299520.0 -0.2802537646 0.0681998641 0.4126735606 -0.0473971222 0.4125291778 -0.0474547398 -0.2917674828 0.0638483781
85299490.0 -0.2785923479 0.0698790547 0.4135331283 -0.052765951 0.4132371517 -0.0526435419 -0.2905297631 0.0663452949
90299460.0 -0.2771215545 0.0721485803 0.4135565001 -0.0576262695 0.4140200676 -0.0580372117 -0.2888407413 0.0686957281
95299430.0 -0.275728691 0.0744462944 0.4139747452 -0.0635770012 0.4138047772 -0.0631342791 -0.287286679 0.0711192639
100299400.0 -0.2744748081 0.0763833682 0.4139006543 -0.0682002625 0.4137416991 -0.0684127153 -0.2867991077 0.0730238141
105299370.0 -0.2731053518 0.0784922489 0.4135316441 -0.0733667601 0.4135909167 -0.0737582858 -0.2852836436 0.075551949
110299340.0 -0.2720761672 0.0804210909 0.413404421 -0.0783567104 0.4134508939 -0.0787507564 -0.2844579238 0.0778770874
115299310.0 -0.2708528436 0.0824837678 0.4131726072 -0.0835273004 0.4135093858 -0.0835720667 -0.2835114923 0.0800986327
120299280.0 -0.2698165944 0.0847129813 0.4129524507 -0.088722448 0.413237229 -0.0890801489 -0.2821384596 0.0823668541
125299250.0 -0.2692839745 0.0868128233 0.4123452609 -0.093817747 0.4125039265 -0.0941121889 -0.2812277839 0.0846189151
130299220.0 -0.2677647797 0.0892309574 0.4117033869 -0.0987385524 0.411722759 -0.0990737028 -0.2806377651 0.0872187323
135299190.0 -0.2666418586 0.0910910422 0.4108970594 -0.1035877587 0.4110119439 -0.103964945 -0.2797808427 0.0895896401
140299160.0 -0.2658057465 0.0935906758 0.4101763067 -0.1089093529 0.4104171341 -0.1089549848 -0.2787513517 0.0917762412
145299130.0 -0.2647289821 0.0957422062 0.4091898293 -0.1140203989 0.4095101316 -0.1138533814 -0.2781882282 0.0946255797
150299100.0 -0.2638009691 0.0980127234 0.4081806548 -0.1188972658 0.4081151025 -0.1190996092 -0.2771301315 0.0968728003
155299070.0 -0.2629130998 0.1008144762 0.4068476589 -0.1241446305 0.4072196788 -0.1239075602 -0.2762058486 0.0996406107
160299040.0 -0.2619175429 0.1028963103 0.4055838425 -0.1283889555 0.4061291757 -0.1285530583 -0.2748790303 0.102161938
165299010.0 -0.2610251237 0.1054026853 0.4048182136 -0.1338029421 0.4049148407 -0.1337335127 -0.2742077306 0.1045968427
170298980.0 -0.2600895896 0.1080581079 0.4029294441 -0.1385502962 0.403190689 -0.1385956028 -0.2730720013 0.1073453004
175298950.0 -0.25901906 0.1107984007 0.4021815317 -0.1432555773 0.4019770561 -0.1432046871 -0.2721298767 0.1098410347
180298920.0 -0.2580070288 0.1127388435 0.400658862 -0.1481213722 0.4008859609 -0.1479214214 -0.2709308014 0.1124426188
185298890.0 -0.2569355186 0.1153001012 0.3989998118 -0.1528301028 0.399229347 -0.152418181 -0.2704584589 0.1148053552
190298860.0 -0.2560776553 0.1176987483 0.3975391906 -0.1575246325 0.3975714947 -0.1574978565 -0.2689738695 0.1175945305
195298830.0 -0.2546756651 0.1200731565 0.3959923509 -0.1617975246 0.3958047156 -0.16187403 -0.2680069426 0.1202151347
200298800.0 -0.2536534693 0.1227811727 0.3940552354 -0.1660416037 0.3940266727 -0.1662821755 -0.26652909 0.1231036135
205298770.0 -0.2527348115 0.1254596739 0.3923387609 -0.1710330669 0.3923522802 -0.1709073216 -0.2659067787 0.1254102741
210298740.0 -0.2513599493 0.1276337622 0.3905346506 -0.175695728 0.3904380417 -0.1760616419 -0.2647226818 0.1283383815
215298710.0 -0.2504514133 0.1302754038 0.3887274594 -0.1799819267 0.3889353924 -0.1799281701 -0.2638734197 0.1310330085
220298680.0 -0.2492306766 0.1328515747 0.3865442669 -0.1845681364 0.386742134 -0.1849778018 -0.2624820594 0.1340272481
225298650.0 -0.2478106649 0.1353967633 0.3846925355 -0.1888971936 0.3845360867 -0.1888804288 -0.2614583412 0.1364747531
230298620.0 -0.2467379071 0.1383679828 0.3829057137 -0.1935340104 0.3827803439 -0.1934953668 -0.2595532836 0.1388030714
235298590.0 -0.2455501593 0.1407974243 0.3805203865 -0.1976199005 0.3804753156 -0.1980957492 -0.2585186027 0.14164773
240298560.0 -0.244297536 0.1435645906 0.3783551495 -0.2020083897 0.3787343105 -0.2019648427 -0.2571024823 0.1446513497
245298530.0 -0.2428666524 0.1460650663 0.3756881769 -0.2067418959 0.3760624004 -0.2066857026 -0.2557275279 0.1470740044
250298500.0 -0.2414202477 0.1479306875 0.3735339763 -0.2102629941 0.3740630327 -0.2102180951 -0.2540437966 0.1497110041
255298470.0 -0.2400843806 0.1510450571 0.371376653 -0.2154142998 0.3714512521 -0.2148987789 -0.2529269371 0.1525455205
260298440.0 -0.2387303869 0.1533031518 0.3693277301 -0.2188342595 0.3693496463 -0.2193040491 -0.2512628141 0.1553847463
265298410.0 -0.2371272563 0.1562982667 0.3664965231 -0.2233049445 0.3663762883 -0.2235904517 -0.2498618384 0.1579414388
270298380.0 -0.2356282725 0.1585417431 0.3637473569 -0.2274482607 0.3640796569 -0.2279830002 -0.2479349984 0.1603452767
275298350.0 -0.234357329 0.1609514916 0.3615556204 -0.2316206058 0.3620073748 -0.2319726931 -0.2464725524 0.1631582897
280298320.0 -0.2326424707 0.163673027 0.3592821353 -0.2354962877 0.358985634 -0.2356982912 -0.2448798333 0.1658860628
285298290.0 -0.2308097315 0.1665932735 0.356399277 -0.2396453696 0.3564996719 -0.2399810603 -0.2433634821 0.1687492655
290298260.0 -0.2293706831 0.1690219637 0.3540221284 -0.2440242698 0.3539446814 -0.2442937089 -0.2412767517 0.1712645311
295298230.0 -0.22777498 0.1712400221 0.3513988254 -0.2475430057 0.3510415302 -0.2479202078 -0.2398691254 0.1736201174
300298200.0 -0.2254251137 0.1737071878 0.3483120491 -0.2519896037 0.3488106363 -0.2520128006 -0.2381937468 0.1764825721
305298170.0 -0.2242615514 0.176357185 0.3460864132 -0.2559356791 0.3459618844 -0.2560126648 -0.2358754382 0.1795177649
310298140.0 -0.2220673723 0.1782843584 0.3430009243 -0.2598417145 0.3432083601 -0.2601435655 -0.2342282967 0.1821157292
315298110.0 -0.2205096756 0.180935538 0.3401538809 -0.2637497293 0.3402365775 -0.2641023536 -0.2320227674 0.1841863229
320298080.0 -0.2187810265 0.1833818315 0.3372518027 -0.2678401818 0.3374282596 -0.267749962 -0.2304143037 0.1868062974
325298050.0 -0.2170404727 0.1854183851 0.3344053062 -0.2715679317 0.3342503066 -0.2716915868 -0.228523559 0.1896094777
330298020.0 -0.2152153884 0.1879208408 0.3305772553 -0.2752692453 0.3308258427 -0.2754493963 -0.226726044 0.192094497
335297990.0 -0.2134115141 0.190353021 0.3273109453 -0.279309805 0.32771636 -0.2790256048 -0.2251863479 0.1941770253
340297960.0 -0.2121468854 0.1929337631 0.3242407466 -0.2828284724 0.3248171274 -0.2827700014 -0.2228408765 0.1970778399
345297930.0 -0.209984576 0.1953054477 0.3213977151 -0.2859652426 0.3211046125 -0.2858741966 -0.2208057601 0.19917995
350297900.0 -0.2076994882 0.1975384715 0.317950041 -0.2892969881 0.3184448077 -0.2899171459 -0.2192076452 0.2022895246
355297870.0 -0.2062446697 0.1998525741 0.3146407727 -0.2930203087 0.3148244456 -0.2933112765 -0.2171684669 0.2046779216
360297840.0 -0.2037756643 0.2024015777 0.3114929187 -0.2966458427 0.3116548464 -0.29668679 -0.2147977545 0.2073757915
365297810.0 -0.2016290865 0.2046038306 0.3078982478 -0.3003208785 0.308183539 -0.3000196112 -0.2131539884 0.2098387611
370297780.0 -0.1994896855 0.2066036494 0.3047997961 -0.3030572771 0.3048331137 -0.3036876118 -0.2108852471 0.2123400714
375297750.0 -0.1976104621 0.2092681341 0.3015986553 -0.3069292881 0.3013394443 -0.3070841583 -0.2082310851 0.2151203081
380297720.0 -0.1955744418 0.2115680693 0.2982325656 -0.3101225989 0.2981464315 -0.310228057 -0.2059477944 0.2173377174
385297690.0 -0.1932860308 0.2135573111 0.2945938419 -0.3129178032 0.2943076522 -0.313285389 -0.2034295225 0.2198998022
390297660.0 -0.1911706383 0.2158414345 0.2908439312 -0.3164368627 0.2907122899 -0.3168796557 -0.2012849844 0.2218890377
395297630.0 -0.188648981 0.2180975235 0.287864343 -0.3194327883 0.2877612592 -0.3198457004 -0.1993698885 0.224561487
400297600.0 -0.1865969283 0.2202592729 0.2841084376 -0.3227667166 0.2844207002 -0.3229688048 -0.1971791927 0.2263566045
405297570.0 -0.1842480869 0.222626558 0.2806824205 -0.3258893746 0.2806084829 -0.3260033989 -0.1949782009 0.228926659
410297540.0 -0.181828151 0.2245253146 0.2764556056 -0.3288176689 0.2765767106 -0.3289794367 -0.1920115629 0.2312341775
415297510.0 -0.179503015 0.2267303777 0.2730410039 -0.3320569278 0.2734784033 -0.331860574 -0.1902973662 0.2337881139
420297480.0 -0.1769986225 0.2284189546 0.2692957414 -0.3349412015 0.2695000948 -0.3347493125 -0.1874710549 0.2357356458
425297450.0 -0.1747525489 0.2303351624 0.2654566794 -0.3377203554 0.266175361 -0.3378377257 -0.1850687948 0.2381503605
430297420.0 -0.1727227557 0.2327615563 0.261846034 -0.3407808174 0.2619534811 -0.3409155565 -0.1827424573 0.2405751232
435297390.0 -0.1698889526 0.2346516795 0.2584284569 -0.3434445224 0.2583032366 -0.3433469421 -0.1799240748 0.2427388929
440297360.0 -0.1673407364 0.2363728766 0.2541632629 -0.3462330363 0.2540111276 -0.3464232594 -0.1774704044 0.244499477
445297330.0 -0.1647271254 0.2384955395 0.2502101299 -0.3494305091 0.2502348657 -0.3491791344 -0.1748873394 0.2465444326
450297300.0 -0.1623277956 0.2401380507 0.2464025829 -0.3517117165 0.2467121652 -0.3518854248 -0.1728355697 0.2488316992
455297270.0 -0.1599458501 0.2422094923 0.2430457359 -0.3543809483 0.243320648 -0.354572435 -0.1700021083 0.2507277596
460297240.0 -0.1576424125 0.2440834854 0.2386628978 -0.3569652307 0.2387374365 -0.3570565277 -0.167067355 0.2528795382
465297210.0 -0.1544931104 0.2458563902 0.2351293029 -0.3595779299 0.2350743382 -0.3594907982 -0.1652558725 0.2546535791
470297180.0 -0.1520094639 0.2476577497 0.2308110442 -0.3620816294 0.2315016515 -0.3620557107 -0.1626981089 0.256690066
475297150.0 -0.1498666658 0.2491533974 0.2270651457 -0.3641025571 0.2272322657 -0.3642551651 -0.1599459769 0.2590040765
480297120.0 -0.1472729344 0.25093345 0.2226592239 -0.3669457096 0.2231381158 -0.3666626629 -0.1573043379 0.2609637164
485297090.0 -0.1441000957 0.2528862031 0.218859094 -0.3693294716 0.219028768 -0.369102377 -0.1546216717 0.2623847962
490297060.0 -0.1415658165 0.2541877417 0.2146982742 -0.3715983358 0.2148613509 -0.3715331048 -0.1516555431 0.2643168877
495297030.0 -0.139421934 0.2564453831 0.2109977738 -0.37412511 0.2103881924 -0.373700098 -0.1489285991 0.2656611017
500297000.0 -0.1362071576 0.2575923194 0.2064374019 -0.3759193509 0.2069453876 -0.3763911104 -0.1466397964 0.2679729359
505296970.0 -0.1336093466 0.2589859974 0.2023419825 -0.3778805212 0.2024906597 -0.3781475026 -0.144081365 0.269759739
510296940.0 -0.131075729 0.2607592462 0.1985634111 -0.3805064111 0.1984395696 -0.3805910406 -0.1406404714 0.2716299185
515296910.0 -0.1283945438 0.2624507011 0.193927451 -0.3820483913 0.1941235832 -0.3825225761 -0.1380946804 0.2730929007
520296880.0 -0.1254367705 0.2640749231 0.190065894 -0.3846286914 0.189849543 -0.3846567022 -0.1351247229 0.2746389718
525296850.0 -0.1225226008 0.2652719043 0.1859505 -0.3864617634 0.1858484858 -0.386874897 -0.1323168306 0.2763378105
530296820.0 -0.1199881101 0.266503195 0.1818746051 -0.3879698509 0.181476043 -0.3883997828 -0.1299111421 0.2773952874
535296790.0 -0.1172507221 0.2680311855 0.1771632375 -0.3902581822 0.177471138 -0.3900737225 -0.1271524953 0.279023096
540296760.0 -0.1144456877 0.2691434368 0.1729819197 -0.3923478669 0.1728886325 -0.3924066809 -0.1243361457 0.2809542848
545296730.0 -0.1115723589 0.2709274075 0.1686484758 -0.3941362072 0.1688408121 -0.3943290648 -0.1214917072 0.2821577953
550296700.0 -0.1085976225 0.2721294732 0.1646079654 -0.3956682071 0.1648429297 -0.3960132032 -0.1186433447 0.2835610771
555296670.0 -0.1053716376 0.2733696677 0.1601117232 -0.3978434377 0.160259991 -0.3975786974 -0.1156742177 0.2854935172
560296640.0 -0.1028471526 0.2743413377 0.1558038342 -0.3990822101 0.156020959 -0.3991897276 -0.112395773 0.2863446339
565296610.0 -0.099807072 0.2759805401 0.1511330496 -0.4010548241 0.1512717846 -0.4006543086 -0.1094175411 0.2877589531
570296580.0 -0.0969681818 0.2768422581 0.1467065025 -0.4021770153 0.1473171325 -0.4029227067 -0.1066983496 0.2894118709
575296550.0 -0.0938047601 0.2784141699 0.1424022307 -0.4037022711 0.1431264527 -0.4039454067 -0.1035206073 0.2903209477
580296520.0 -0.0912606283 0.2793672493 0.1385516524 -0.4052917193 0.1384579487 -0.4056306372 -0.1007040037 0.2915763853
585296490.0 -0.0880438724 0.2803776811 0.1340198395 -0.406708363 0.1340017662 -0.4069242109 -0.0978632857 0.2927649332
590296460.0 -0.0853665878 0.2813396589 0.1290839943 -0.4081721284 0.1294411128 -0.4084397985 -0.09484844 0.2938942161
595296430.0 -0.0821566561 0.2825872009 0.125147686 -0.4095746104 0.1248857822 -0.4097960095 -0.0917240259 0.294756239
600296400.0 -0.0793371722 0.2835459033 0.1205760594 -0.4106662457 0.1207807987 -0.4111562471 -0.0886758725 0.2961578599
605296370.0 -0.0763335412 0.2847285362 0.1161258728 -0.4124851384 0.1163484557 -0.4120714287 -0.0858466284 0.297430506
610296340.0 -0.0734089401 0.2853793876 0.1120607704 -0.4135567562 0.1119539732 -0.4135729387 -0.0824811686 0.298551574
615296310.0 -0.0701524677 0.2869009317 0.1069062758 -0.4142822375 0.1067650687 -0.4148343996 -0.0793201849 0.2990648908
620296280.0 -0.0672923177 0.2873017516 0.1026102897 -0.4155245283 0.1025410749 -0.4156311773 -0.0766980281 0.3000927672
625296250.0 -0.0642529794 0.2883270897 0.0977021514 -0.4168776172 0.0975884612 -0.4167597756 -0.0729921576 0.3015168803
630296220.0 -0.0609751965 0.2890857913 0.0931023281 -0.417685157 0.0939448141 -0.4176871671 -0.070295141 0.3021470743
635296190.0 -0.057922433 0.2901070704 0.0887072609 -0.41815808 0.0885476933 -0.4182511635 -0.0672280006 0.3028293039
640296160.0 -0.0549821921 0.2903625694 0.0846564292 -0.4194168223 0.084200751 -0.4195191885 -0.0638680007 0.3037650756
645296130.0 -0.0522262305 0.2916549218 0.0798025356 -0.4206218732 0.0799361556 -0.4207156954 -0.0611672416 0.3044369231
650296100.0 -0.049222556 0.292051601 0.0757187305 -0.4208874967 0.0754528016 -0.4210198634 -0.0576763702 0.3051911251
655296070.0 -0.045845626 0.2924394764 0.0708597766 -0.421955483 0.0707328539 -0.4220386002 -0.054410005 0.3062293099
660296040.0 -0.0431674733 0.2936567502 0.0663241492 -0.4222897915 0.0661818295 -0.4223615126 -0.0515913223 0.3066037931
665296010.0 -0.0395699021 0.2938877087 0.0620358409 -0.4230705519 0.0619818657 -0.4233245641 -0.0483322099 0.3076119781
670295980.0 -0.0362795601 0.2944200001 0.0567922721 -0.4238388683 0.0574778562 -0.4238600719 -0.0453123856 0.3080873418
675295950.0 -0.0330507043 0.2950168525 0.0523604309 -0.4244571302 0.052776126 -0.4249494165 -0.0418661273 0.3087765842
680295920.0 -0.0303935444 0.2957654713 0.0477999403 -0.4247647732 0.0475787601 -0.424804244 -0.0384667032 0.3091955443
685295890.0 -0.0272411149 0.2959270577 0.0435063518 -0.4252301361 0.0432392937 -0.4255445338 -0.0355396262 0.3100038307
690295860.0 -0.0239408231 0.296315077 0.0384316783 -0.4253438477 0.0384385703 -0.425572463 -0.0322686397 0.3104952928
695295830.0 -0.0206384738 0.2968479495 0.0331110757 -0.4259112965 0.0337528717 -0.426247912 -0.0291317066 0.3109091191
700295800.0 -0.0175194403 0.2972818622 0.0289716288 -0.4266373173 0.0295089451 -0.4264508436 -0.0257075217 0.310846574
705295770.0 -0.0141315634 0.2979368906 0.0245578309 -0.4266586295 0.0251234275 -0.4265889991 -0.0228381788 0.311681535
710295740.0 -0.0113652598 0.2979071622 0.020243229 -0.4265772421 0.0201426409 -0.4267377415 -0.019749922 0.312100975
715295710.0 -0.0083177951 0.2983147555 0.0154810679 -0.4270138132 0.0158650408 -0.4269058274 -0.0165185919 0.3123426248
720295680.0 -0.0053522668 0.2980574817 0.0109678741 -0.4268986956 0.0110325617 -0.4274190967 -0.0125557129 0.3129202087
725295650.0 -0.0017479808 0.2986242947 0.0056546615 -0.4269543863 0.0062064181 -0.4274291963 -0.0095691498 0.3128948724
730295620.0 0.0010383281 0.2986268332 0.0012965791 -0.4272267271 0.0012454489 -0.427221474 -0.0061490065 0.3132180528
735295590.0 0.0048224526 0.2988011626 -0.0031778933 -0.4270592223 -0.0027741043 -0.4270862344 -0.0029664029 0.3132404558
740295560.0 0.007506779 0.2991074431 -0.0076048824 -0.4265689844 -0.007964489 -0.4269938334 0.0001748958 0.3134452608
745295530.0 0.010726201 0.2987117693 -0.0124241593 -0.4267692866 -0.0118989223 -0.4270940333 0.0032854289 0.3138486134
750295500.0 0.0138454024 0.2989910454 -0.0169591978 -0.4264054106 -0.0169603111 -0.4265284374 0.0068201036 0.3136084949
755295470.0 0.0176652436 0.2989699952 -0.0216711716 -0.42639903 -0.0211929888 -0.4266328088 0.0096295807 0.3141816133
760295440.0 0.020403347 0.2989813693 -0.0264287239 -0.4257191989 -0.0262046793 -0.42635962 0.0127954805 0.3139755064
765295410.0 0.023302826 0.2988442356 -0.0306118683 -0.4257493653 -0.0302652385 -0.4261362409 0.0167700711 0.314147874
770295380.0 0.0268464698 0.2989054436 -0.0350106397 -0.4251916821 -0.0354610568 -0.4257148185 0.0201573546 0.3139116614
775295350.0 0.0299447006 0.2987748871 -0.039858656 -0.4244205277 -0.0398754423 -0.425066497 0.0226407493 0.3135009043
780295320.0 0.0333401559 0.2985048929 -0.0445010221 -0.4239114732 -0.0440513794 -0.4246584924 0.0258694634 0.3140378415
785295290.0 0.0362865658 0.2985626055 -0.0488240921 -0.4233895319 -0.048950535 -0.4242608809 0.0289599186 0.3137248215
790295260.0 0.0393774598 0.2983279266 -0.0534632793 -0.4238968405 -0.0534511691 -0.4234838916 0.0327742814 0.313461463
795295230.0 0.0423517233 0.2981540507 -0.0576264374 -0.4223869591 -0.0581787075 -0.4225289656 0.0358315816 0.3137289313
800295200.0 0.0458397612 0.2978021172 -0.0629020934 -0.4220977487 -0.0631265511 -0.4219990977 0.039185526 0.3132745358
805295170.0 0.0488102991 0.297444827 -0.0669868996 -0.4209133334 -0.0673637585 -0.4209983882 0.0422647396 0.3127569472
810295140.0 0.052011019 0.2968465815 -0.0717831822 -0.4199787281 -0.0715435682 -0.4209664943 0.0455963694 0.3130453299
815295110.0 0.0550712792 0.2964810314 -0.0766816448 -0.4192790034 -0.0762454216 -0.419434142 0.0486460526 0.3121322914
820295080.0 0.0584920381 0.2957121521 -0.0807387196 -0.4187933936 -0.0807245855 -0.4188081688 0.0517995366 0.3119036232
825295050.0 0.0616597698 0.2955242397 -0.0853016267 -0.4172585744 -0.0853728821 -0.4177029958 0.0552820811 0.3117444656
830295020.0 0.0644952131 0.2952413303 -0.0899034354 -0.4165696947 -0.0901062198 -0.416906043 0.0584001785 0.3110486436
