!Created with skrf (http://scikit-rf.org).
# Hz S RI R 50.0 
!freq ReS11 ImS11 ReS21 ImS21 ReS12 ImS12 ReS22 ImS22
300000.0 -0.3208883344 -0.07379689 0.3766507868 0.0398226266 0.3737730566 0.0372441857 -0.3239011636 -0.0919201026
5299970.0 -0.3267472443 0.0045882602 0.378326654 0.0023821082 0.3787238254 0.0024806588 -0.3245147336 0.0050895568
10299940.0 -0.3242350729 0.0135323324 0.3793717783 0.00205683 0.3798026564 0.0024984913 -0.321986044 0.0159042696
15299910.0 -0.3216642952 0.0204745099 0.3819298183 0.0020557048 0.381991354 0.0019845832 -0.3187351456 0.0235959655
20299880.0 -0.3189559176 0.0262701026 0.3849231098 0.0017619042 0.3849174357 0.0015603314 -0.3152505467 0.0303200732
25299850.0 -0.3159571173 0.0317997976 0.3881342756 -0.0001262078 0.3882003841 0.0004285415 -0.3111578561 0.0358013846
30299820.0 -0.3129489302 0.0359746693 0.3914115003 -0.0024479465 0.3914089246 -0.0022957442 -0.3073730645 0.0406732134
35299790.0 -0.3099945154 0.0398118393 0.3947801188 -0.0057559311 0.3948872037 -0.0052182962 -0.3038725197 0.0450797942
40299760.0 -0.3071314155 0.0435267441 0.3979462207 -0.008658581 0.3980322475 -0.0090220431 -0.3003920777 0.048314165
45299730.0 -0.3047533802 0.046408718 0.4006805537 -0.0126606587 0.4009111947 -0.0125287845 -0.2973839452 0.051447587
50299700.0 -0.3024146991 0.049472716 0.4034752313 -0.0171988659 0.4035614544 -0.0172056859 -0.2942925853 0.0543049548
55299670.0 -0.3005480533 0.0520046535 0.4055800904 -0.0223637237 0.4056239897 -0.0222729853 -0.2916994182 0.0570799715
60299640.0 -0.2980525558 0.055227052 0.4075755262 -0.0270769572 0.4078797332 -0.0268667221 -0.2891033225 0.0591208143
65299610.0 -0.2962121135 0.0572893189 0.408692494 -0.0321509741 0.409386723 -0.031880687 -0.2875322621 0.0615784986
70299580.0 -0.2947964503 0.0597443236 0.4105642643 -0.0369592856 0.4103155724 -0.0368003194 -0.2846513597 0.0639110998
75299550.0 -0.2926796283 0.0624387919 0.4110678713 -0.04215948 0.4114702762 -0.0421840473 -0.2831569504 0.0656482384
80299520.0 -0.2917821843 0.0648378655 0.4125324877 -0.0474506172 0.412759867 -0.0476123001 -0.281609509 0.0682164043
85299490.0 -0.2900975567 0.0668766912 0.4127065879 -0.0523029718 0.4127863751 -0.0521142161 -0.2799283463 0.0696020716
90299460.0 -0.2886452383 0.0689911347 0.4132055958 -0.0580025595 0.4133091701 -0.05792225 -0.2782445701 0.0721468742
95299430.0 -0.2872502184 0.0714613093 0.4137307397 -0.0630905651 0.4134569531 -0.0631517935 -0.276591631 0.0744583781
100299400.0 -0.2862848597 0.074023954 0.4129957771 -0.06821458 0.4132542478 -0.068187397 -0.2752355017 0.0758960009
105299370.0 -0.2853025504 0.0764360568 0.4134466783 -0.0737997573 0.4135961606 -0.0737186629 -0.2735720038 0.0785085163
110299340.0 -0.2841847885 0.0789208245 0.4135501215 -0.0783822064 0.4132828927 -0.0784317613 -0.2728083225 0.0805692908
115299310.0 -0.2830119481 0.0807615175 0.4128974452 -0.0838652388 0.4129068418 -0.0837171238 -0.2716575437 0.0826941189
120299280.0 -0.2820400556 0.0828902242 0.4124640267 -0.0889862354 0.4125033449 -0.0889417825 -0.2704332847 0.0850076397
125299250.0 -0.281139404 0.0855760823 0.41170366 -0.093695478 0.4119860309 -0.0939523762 -0.2696833598 0.0867857977
130299220.0 -0.2804089662 0.0880092439 0.4111752449 -0.0990872168 0.4113865313 -0.0989841539 -0.268464059 0.0888411186
135299190.0 -0.2792400106 0.0908827463 0.4108662562 -0.104048991 0.4105003014 -0.1040408228 -0.2676166223 0.0912408514
140299160.0 -0.2784740266 0.0932422016 0.4099860341 -0.1093451843 0.4100431079 -0.1092953924 -0.2664868531 0.0939276265
145299130.0 -0.2775412334 0.0957959493 0.4091083716 -0.113940643 0.4086523211 -0.1140903254 -0.2656178682 0.0962065761
150299100.0 -0.2763578076 0.0980964819 0.4079139548 -0.1186179499 0.4081015317 -0.118559356 -0.2646738996 0.0986230455
155299070.0 -0.2758523235 0.1007378822 0.4071285215 -0.1241995445 0.4065947841 -0.1237024603 -0.2635634695 0.1010364812
160299040.0 -0.2746018553 0.1033780953 0.4053390911 -0.1285435236 0.4054613379 -0.1287443129 -0.2630307022 0.103367027
165299010.0 -0.2738160059 0.1060761461 0.4042398533 -0.1342330892 0.4045253937 -0.1338093095 -0.2615699448 0.1062169626
170298980.0 -0.2729692849 0.1086272484 0.4027290711 -0.1384478534 0.4031371906 -0.1383120301 -0.2606978359 0.1085144495
175298950.0 -0.2722278152 0.1112051298 0.4017834811 -0.1428612417 0.4014724296 -0.1431608118 -0.2600486215 0.1106966678
180298920.0 -0.2711147048 0.1141061063 0.4001794357 -0.1478681212 0.4000291506 -0.1474638809 -0.2588112469 0.1131248939
185298890.0 -0.2695356988 0.1161927661 0.3983334891 -0.1525191441 0.3983055224 -0.1525890087 -0.2574653551 0.1156264943
190298860.0 -0.2690629687 0.1194448104 0.3973962559 -0.1575204784 0.397432845 -0.1573752074 -0.2566242138 0.1183381662
195298830.0 -0.2677643894 0.121809282 0.3953444631 -0.161946849 0.3956110712 -0.1619957855 -0.2554796266 0.1207048342
200298800.0 -0.2667218232 0.1246639961 0.3933861728 -0.1666737776 0.393670929 -0.16655084 -0.2548542085 0.1229057049
205298770.0 -0.2655206445 0.127226788 0.3917530475 -0.1712444411 0.3917350316 -0.1710370511 -0.2535291747 0.1252756666
210298740.0 -0.2642016534 0.1295178781 0.3896806943 -0.1751858273 0.389722669 -0.1753613042 -0.2519153781 0.1284857612
215298710.0 -0.2635820042 0.1326455075 0.3883544773 -0.1802450237 0.3879042781 -0.1802556028 -0.2513027065 0.1309627173
220298680.0 -0.2618026954 0.135192868 0.3855336987 -0.1846578441 0.3860669255 -0.1845742068 -0.2503806195 0.1334448819
225298650.0 -0.2610305988 0.1377991518 0.3837392636 -0.1891558868 0.3842455356 -0.1890092476 -0.2490394707 0.1352502675
230298620.0 -0.2595840153 0.140766138 0.3819760525 -0.1931801007 0.3821960451 -0.1934711483 -0.2478478547 0.1380549363
235298590.0 -0.2581065232 0.1435100428 0.3799537468 -0.1977667 0.3800851151 -0.1973433879 -0.2466440206 0.1411430647
240298560.0 -0.2570978543 0.1464238427 0.3776835606 -0.2026255745 0.3777488662 -0.2021905512 -0.2453158773 0.1437052268
245298530.0 -0.2560012468 0.1490031376 0.3758209644 -0.2063849166 0.3758332924 -0.2065175506 -0.2439368412 0.1456968248
250298500.0 -0.2542645875 0.1518428185 0.3727715693 -0.2110423919 0.3727757755 -0.2104311042 -0.2428281286 0.1484576468
255298470.0 -0.2530021537 0.1541209503 0.3708318598 -0.2145838036 0.3709324678 -0.2149495517 -0.2411379141 0.1511367437
260298440.0 -0.2516192095 0.1566583352 0.3681936719 -0.2191712096 0.3684370458 -0.2194048232 -0.2396211218 0.1537026639
265298410.0 -0.2498977352 0.159719669 0.3659797924 -0.2235874987 0.3664043857 -0.2231604197 -0.2381137276 0.1562111288
270298380.0 -0.2485093606 0.1623447429 0.3638122018 -0.2272323446 0.363848831 -0.2275017226 -0.2366131746 0.1585034005
275298350.0 -0.2466558707 0.1649070463 0.3610405677 -0.2317786148 0.3615675491 -0.2318420079 -0.235094279 0.1610377088
280298320.0 -0.2451188965 0.1674537288 0.3589686173 -0.2356362115 0.3585831072 -0.2358932293 -0.2334397396 0.1639689154
285298290.0 -0.2437833517 0.1707548434 0.3560559393 -0.2393771244 0.3559626343 -0.2396701792 -0.2318628499 0.1660066615
290298260.0 -0.2418638368 0.1733994434 0.3535686233 -0.243275298 0.3535545746 -0.2436028836 -0.2303346989 0.1689994571
295298230.0 -0.2402082467 0.1755744547 0.3508548062 -0.2476102119 0.3509608504 -0.2477843198 -0.228629407 0.1710004881
300298200.0 -0.2385610191 0.1783259468 0.3482319353 -0.2511339199 0.3483246234 -0.2516566596 -0.2266776334 0.173541363
305298170.0 -0.2366436353 0.1805955457 0.3451886865 -0.2560378846 0.3453202794 -0.2556312499 -0.2244632856 0.1761056655
310298140.0 -0.2351396729 0.1834635168 0.3423409926 -0.2598018795 0.3423556162 -0.2596132347 -0.2233193965 0.1786719361
315298110.0 -0.2331934899 0.1855891293 0.3398138151 -0.2631660255 0.3396655748 -0.2633402675 -0.2214938018 0.1807246099
320298080.0 -0.2312255834 0.1881715312 0.3361371162 -0.2676780378 0.3364803024 -0.2673352638 -0.2198922144 0.1833582905
325298050.0 -0.2294843957 0.1908548878 0.333375354 -0.2714427118 0.3333483467 -0.2712494567 -0.2183637073 0.1855777815
330298020.0 -0.2276592394 0.1933474374 0.3303561742 -0.2749615937 0.3304078924 -0.2751325015 -0.2166435364 0.1880625767
335297990.0 -0.225665503 0.1955279686 0.3273525142 -0.2786499062 0.3270063886 -0.2785302175 -0.2151310718 0.1908283133
340297960.0 -0.224087229 0.1983930057 0.3236350749 -0.2822878974 0.3238559581 -0.2822946115 -0.2125488865 0.1929670145
345297930.0 -0.2221743051 0.2010825013 0.3207434563 -0.2856987181 0.3207679747 -0.2858228264 -0.2110428576 0.1948891367
350297900.0 -0.2205565892 0.2031432075 0.317374205 -0.2894866945 0.317377319 -0.2892743269 -0.2091700548 0.1978612809
355297870.0 -0.2181864835 0.2065039306 0.3139658289 -0.2928215126 0.3143472065 -0.2927274631 -0.2075049932 0.2001147408
360297840.0 -0.2158378271 0.2085640299 0.3114434034 -0.2964742057 0.3113244516 -0.2962522493 -0.2051447795 0.202890601
365297810.0 -0.2141460448 0.2112341911 0.3077405052 -0.2997191529 0.3079694942 -0.2997843189 -0.2031115163 0.2047117146
370297780.0 -0.2118200161 0.2132779276 0.3041875181 -0.3028952163 0.3044220485 -0.3025901812 -0.2009493114 0.2071535625
375297750.0 -0.2096615001 0.2157037475 0.301335877 -0.306106759 0.3011330075 -0.3064119595 -0.1988273375 0.2093057072
380297720.0 -0.2075733077 0.2179884665 0.2977672264 -0.3096276411 0.297793539 -0.308993154 -0.1973452546 0.2114353349
385297690.0 -0.2055516179 0.2203556588 0.2942191364 -0.3127168301 0.2938940293 -0.3127428105 -0.1947652439 0.2137102252
390297660.0 -0.2032959694 0.2225410129 0.2905862593 -0.3158877632 0.2906221477 -0.3159510624 -0.1927197734 0.216263149
395297630.0 -0.2007548798 0.2251551916 0.2874281438 -0.3192768004 0.2874312075 -0.3194618838 -0.1900863765 0.2185203376
400297600.0 -0.1985353975 0.2274922165 0.2834868921 -0.3229482069 0.2838231465 -0.3226782975 -0.1883243999 0.2205565899
405297570.0 -0.1963832283 0.2294794378 0.2801493448 -0.3256231064 0.2800795204 -0.3255143083 -0.1863773718 0.2225135482
410297540.0 -0.1938457961 0.2318930707 0.2765814249 -0.3283706165 0.2770687998 -0.3286580471 -0.1838768738 0.2252104163
415297510.0 -0.1911451213 0.2338304707 0.2725383943 -0.331714124 0.2728725393 -0.3317724557 -0.1811651736 0.2273377164
420297480.0 -0.1892152381 0.2363277431 0.2689471226 -0.3346516462 0.2688120954 -0.3347154947 -0.1790447132 0.2293338191
425297450.0 -0.1866726945 0.2380882088 0.2656759139 -0.3371583461 0.2659384199 -0.3377170093 -0.1771971738 0.2316585396
430297420.0 -0.1841824053 0.2402393747 0.2619450547 -0.3400365084 0.2617778184 -0.3399904837 -0.1746649438 0.2330291579
435297390.0 -0.1818830813 0.24242024 0.2577263867 -0.3428934241 0.2576583268 -0.3433700384 -0.1716910103 0.2353567369
440297360.0 -0.1791221586 0.2445157912 0.2542407197 -0.3458388994 0.2543027078 -0.3457735132 -0.169567261 0.2370304669
445297330.0 -0.1765761981 0.2464706975 0.2503051884 -0.3487120634 0.2503253361 -0.3482202114 -0.1669046868 0.2385564615
450297300.0 -0.1741669652 0.2482609859 0.2465184165 -0.3512805307 0.2465499797 -0.3513779443 -0.1645226258 0.2407114812
455297270.0 -0.1716257915 0.2505835719 0.2426992956 -0.3541342188 0.2425925853 -0.3539884329 -0.1621873303 0.2424397806
460297240.0 -0.1693894635 0.2522608226 0.2387230787 -0.3563233278 0.23882126 -0.3567191688 -0.159844497 0.2448177811
465297210.0 -0.1663278598 0.2544135802 0.2350229358 -0.358998924 0.2349195093 -0.3593408729 -0.1570421075 0.2461734929
470297180.0 -0.1634819626 0.2561601677 0.2302679753 -0.3615692666 0.230734963 -0.3618183336 -0.1543221647 0.2485712062
475297150.0 -0.1610192646 0.2578300754 0.2265776732 -0.3635706739 0.2269171926 -0.3638618371 -0.1516785718 0.250161682
480297120.0 -0.1583196546 0.2601096114 0.2228242804 -0.3666525129 0.2228001466 -0.3670173601 -0.1486271363 0.2517452993
485297090.0 -0.1556818506 0.2618917256 0.2187273765 -0.3686709163 0.2188052732 -0.368860371 -0.1466315711 0.253246061
490297060.0 -0.1530388256 0.2637542895 0.214659664 -0.371455616 0.2146764225 -0.371146789 -0.1439103286 0.2553590263
495297030.0 -0.15044425 0.2653007646 0.2104977508 -0.3735154001 0.2108726526 -0.3736748996 -0.141215274 0.257133454
500297000.0 -0.1474297661 0.2670947945 0.2063459856 -0.3753136778 0.2062422304 -0.3753598041 -0.1385695144 0.2589403953
505296970.0 -0.1445948271 0.2686409689 0.2022749859 -0.3778204266 0.2023645149 -0.3778572406 -0.1363584061 0.2604284138
510296940.0 -0.1420588718 0.27073987 0.1984992557 -0.3804303578 0.1979833181 -0.3805971365 -0.1327982631 0.2619037766
515296910.0 -0.1385654935 0.2721169936 0.1936233543 -0.3825128622 0.19409271 -0.382363905 -0.1302979991 0.2635972299
520296880.0 -0.1362602482 0.2739181942 0.1897441663 -0.3845008478 0.1897439063 -0.3840016815 -0.1279471016 0.2649303203
525296850.0 -0.1330740836 0.2749631326 0.1856197456 -0.3864555519 0.1860090903 -0.3862044985 -0.1248429994 0.266424217
530296820.0 -0.130121588 0.2769676112 0.1810291215 -0.3883632604 0.1810076547 -0.3884682014 -0.1219071929 0.2680080142
535296790.0 -0.1276174211 0.2783654598 0.1770047773 -0.3901544201 0.1772291369 -0.3898170269 -0.1198750751 0.2690382167
540296760.0 -0.1246094328 0.2798559654 0.1726670878 -0.3923817857 0.1727741175 -0.3921718015 -0.1169115979 0.2708696632
545296730.0 -0.1219521664 0.2811105356 0.1681902059 -0.3938652817 0.1684100125 -0.3941388694 -0.1138553907 0.2721264946
550296700.0 -0.1185968003 0.2828503536 0.1640132141 -0.3958456762 0.1642884976 -0.39585569 -0.1111075943 0.2734163337
555296670.0 -0.1159594589 0.283940602 0.159944139 -0.3977449584 0.1600264322 -0.3975424498 -0.1078944691 0.2750531025
560296640.0 -0.112665067 0.2856443679 0.1554002382 -0.3992394748 0.155584173 -0.3990909231 -0.105073381 0.2763309908
565296610.0 -0.1099888127 0.2871156685 0.150910789 -0.4006275895 0.151259787 -0.4006547282 -0.1026460784 0.2774504371
570296580.0 -0.107436114 0.2877433514 0.1469385113 -0.4027766311 0.146502262 -0.4025204452 -0.0996035584 0.2790329367
575296550.0 -0.104112397 0.2894872074 0.1425282057 -0.4040208891 0.142383032 -0.4039611999 -0.0964674771 0.2797798956
580296520.0 -0.1008347381 0.2905707414 0.1380860336 -0.4058519058 0.1381033832 -0.4054699621 -0.0934903883 0.2808044693
585296490.0 -0.098089809 0.291388034 0.1336747595 -0.4065229749 0.1337484512 -0.4069767401 -0.0905059287 0.2818542566
590296460.0 -0.0947567333 0.2927784532 0.1292850614 -0.4079206504 0.1291443348 -0.4081368012 -0.0881557823 0.2835149037
595296430.0 -0.0915194209 0.2939902181 0.1244574417 -0.4098144206 0.1245201629 -0.4096341542 -0.0849356121 0.2838886697
600296400.0 -0.0887237577 0.2952202742 0.1200282886 -0.4109667392 0.1203512798 -0.4106440409 -0.0818270013 0.2852334207
605296370.0 -0.0857378343 0.2962685581 0.1155403864 -0.4120061083 0.115913969 -0.4122699846 -0.0785580839 0.2864475811
610296340.0 -0.0825626737 0.2970563586 0.1108497497 -0.4132887139 0.1112519954 -0.4134245578 -0.0756250661 0.2873072632
615296310.0 -0.079143878 0.2979856562 0.1065596523 -0.4143467735 0.1065737101 -0.414809364 -0.0725235992 0.288237135
620296280.0 -0.0762355953 0.2990692931 0.102448427 -0.4155079221 0.1019762744 -0.4155450218 -0.0695871866 0.2894668202
625296250.0 -0.0730912581 0.3000460556 0.0977721627 -0.4166319814 0.0976022989 -0.4169136948 -0.0662118067 0.2898692544
630296220.0 -0.0690453968 0.3008189328 0.0925280138 -0.4176315151 0.0928407759 -0.4175584668 -0.0633229999 0.2911673105
635296190.0 -0.067073521 0.3015132547 0.0883245609 -0.4181378231 0.08841315 -0.4183359154 -0.0601104387 0.2917646966
640296160.0 -0.0636782232 0.3027916454 0.0837492261 -0.419169996 0.0842595708 -0.4194608985 -0.0570055608 0.292642442
645296130.0 -0.0604661528 0.3037996392 0.0793255906 -0.4203722159 0.0795273915 -0.4201431286 -0.0541525184 0.2935065445
650296100.0 -0.0571332825 0.3043295695 0.0748650564 -0.4213007536 0.0746027347 -0.420839431 -0.0506688971 0.2935363208
655296070.0 -0.054210814 0.3050353517 0.0703396425 -0.4214015063 0.0707535009 -0.4215383478 -0.0477963816 0.2944203241
660296040.0 -0.0513412646 0.3057850323 0.0659485365 -0.4224355757 0.0659465082 -0.4227084995 -0.044251985 0.2953319688
665296010.0 -0.0473376276 0.306047043 0.0605711326 -0.4230967271 0.0610323388 -0.4230347873 -0.0414974019 0.2961739637
670295980.0 -0.0450127805 0.3067309297 0.056600953 -0.4234939826 0.0567259289 -0.4238811587 -0.0387207387 0.2967404012
675295950.0 -0.0413893396 0.3073248106 0.051626907 -0.4240151585 0.0517820827 -0.4237252621 -0.0358602333 0.2971211028
680295920.0 -0.0380738593 0.3082283155 0.0470969222 -0.424425902 0.0469820189 -0.4253261779 -0.0323207583 0.2982940962
685295890.0 -0.0346904768 0.3090117024 0.0426583796 -0.4253621524 0.0426551623 -0.4250424723 -0.0292888442 0.2983700081
690295860.0 -0.0313819364 0.3091879856 0.0378628273 -0.4253730203 0.0381005171 -0.4257649371 -0.0261066488 0.2991212466
695295830.0 -0.0283797979 0.309471019 0.0334069906 -0.4254722137 0.0330666593 -0.4258472222 -0.0229489778 0.2991734958
700295800.0 -0.0250043837 0.3099643739 0.0287399927 -0.4258344368 0.0285999047 -0.4261189825 -0.0200053596 0.3002331468
705295770.0 -0.0222984601 0.3107916511 0.0241215298 -0.4261162962 0.0242140917 -0.4267519962 -0.0169765167 0.3006227453
710295740.0 -0.0186825555 0.3108865933 0.0193896365 -0.4268620128 0.0199041893 -0.4266253149 -0.0135958733 0.3004098206
715295710.0 -0.015644422 0.3109550693 0.0150414465 -0.4270678843 0.0150497855 -0.4268383649 -0.0105809217 0.3008378521
720295680.0 -0.0122774779 0.3116172784 0.0102132437 -0.4271823845 0.0106008836 -0.4272470261 -0.0071988366 0.301319052
725295650.0 -0.0090506421 0.3114920316 0.0055220293 -0.4268557675 0.0057645053 -0.4271774514 -0.0045003425 0.3015546039
730295620.0 -0.0058435501 0.312332934 0.0011338844 -0.4269197082 0.0012923222 -0.4270830822 -0.0013964146 0.3012733368
735295590.0 -0.0024869203 0.3121323622 -0.0033384494 -0.4272228772 -0.0036172314 -0.4267493323 0.0016585723 0.3015279553
740295560.0 0.0007573779 0.3127610595 -0.0083266702 -0.4270035579 -0.0081088322 -0.4269685289 0.0056903251 0.3017109223
745295530.0 0.0040336015 0.3128421027 -0.0129243536 -0.4265589047 -0.0128328187 -0.4261847249 0.0087865781 0.3015332615
750295500.0 0.0074133742 0.3126336247 -0.0171036978 -0.4257273671 -0.0169623742 -0.4263321041 0.011541809 0.3017455855
755295470.0 0.0107249227 0.3124537349 -0.0217358761 -0.4259779039 -0.0217841565 -0.4261939064 0.0148409921 0.3013579172
760295440.0 0.0136096591 0.3127167738 -0.0264966562 -0.4263617409 -0.0265433865 -0.4261810818 0.0180449218 0.3012534773
765295410.0 0.0170907274 0.312465613 -0.0312910066 -0.4254957004 -0.0315425777 -0.4259268946 0.0214209191 0.301787797
770295380.0 0.0199072568 0.3126067 -0.035567133 -0.425245063 -0.0357188475 -0.4251658027 0.024290778 0.3012605346
775295350.0 0.0231223893 0.3121576553 -0.0406476532 -0.4243724249 -0.040123928 -0.4245868286 0.0270572745 0.3012332867
780295320.0 0.0265239281 0.312008529 -0.044998387 -0.4237597167 -0.0445832796 -0.4241138259 0.0304226535 0.3007545642
785295290.0 0.0296848598 0.3118634768 -0.0497554008 -0.4231464051 -0.0491515036 -0.4238053029 0.0339727906 0.3006815195
790295260.0 0.0335358314 0.3117176143 -0.0541846886 -0.422896371 -0.0536105167 -0.4228458818 0.0369938694 0.3008874435
795295230.0 0.0364114005 0.311318462 -0.0587869731 -0.4221828094 -0.0584709322 -0.4225232914 0.0405186109 0.3005332461
800295200.0 0.0396148662 0.3114028029 -0.0636292275 -0.4213945505 -0.0631481565 -0.4216654351 0.0436254018 0.3000361498
805295170.0 0.0431910767 0.3109080855 -0.0677171132 -0.4209446505 -0.0681471825 -0.4211284426 0.0466215818 0.3001257652
810295140.0 0.0461903097 0.3103593769 -0.0720558294 -0.419877739 -0.0721343273 -0.4199596428 0.0501535944 0.2995329759
815295110.0 0.0496701733 0.3100338949 -0.0770602855 -0.4187859722 -0.0767865792 -0.4193000694 0.0529691417 0.2994418587
820295080.0 0.052678223 0.3101418018 -0.081056622 -0.4180047777 -0.0807455199 -0.418303658 0.0561556914 0.2989564473
825295050.0 0.0563564269 0.3092546177 -0.0854931304 -0.4172723033 -0.0857753853 -0.4172988718 0.0592603737 0.2985224748
830295020.0 0.0592554893 0.3088996872 -0.0903408643 -0.4160518448 -0.0901705696 -0.4162436137 0.0630586854 0.2980335315
