!Created with skrf (http://scikit-rf.org).
# Hz S RI R 50.0 
!freq ReS11 ImS11 ReS21 ImS21 ReS12 ImS12 ReS22 ImS22
300000.0 -0.3207746025 -0.077511744 0.3757899523 0.0420327153 0.3726858428 0.0404639815 -0.3200640568 -0.0980666826
5299970.0 -0.3265497746 0.0045642867 0.3779259566 0.0023031125 0.3783622912 0.0025193306 -0.3241001838 0.0047568619
10299940.0 -0.3241815576 0.0134343727 0.379512376 0.0022735629 0.3795341119 0.00207857 -0.3216101076 0.0160584482
15299910.0 -0.3215008924 0.0205849307 0.3818780152 0.0017792451 0.3819626306 0.0022957757 -0.3182529545 0.023738872
20299880.0 -0.318865227 0.0261028295 0.3848346203 0.0019725657 0.3847922638 0.0017218366 -0.3148087012 0.0302836535
25299850.0 -0.3158844887 0.0314553284 0.3881499948 0.0003083266 0.3881354428 0.0001576215 -0.3107497195 0.0359165376
30299820.0 -0.3129429662 0.0359131132 0.3915826262 -0.0021445677 0.3912825897 -0.0021496445 -0.3070130545 0.0407154842
35299790.0 -0.3099718957 0.0400121945 0.3948003326 -0.0054981929 0.3946700381 -0.0056910749 -0.3035605647 0.0451615638
40299760.0 -0.3070498072 0.0436758491 0.398116459 -0.0088576776 0.3981016232 -0.0086455335 -0.300333192 0.0484455392
45299730.0 -0.3045412175 0.0465389906 0.4006475908 -0.0126301625 0.4008046396 -0.0126789994 -0.2973361811 0.0517948022
50299700.0 -0.3024079803 0.0495556531 0.4036156155 -0.0171712597 0.4034529056 -0.0173122865 -0.2941434203 0.0543594314
55299670.0 -0.3004309572 0.0521794438 0.4059846746 -0.0223718777 0.4056376039 -0.0222127876 -0.2918048973 0.0572852246
60299640.0 -0.2977841546 0.0551128106 0.4072487648 -0.0269385096 0.4077844109 -0.0269153052 -0.2891231811 0.0597722591
65299610.0 -0.2962061176 0.0574395959 0.4090745286 -0.0319380253 0.4089679765 -0.0320293691 -0.2872125234 0.0615669505
70299580.0 -0.2946607599 0.0600641774 0.410322348 -0.0369568947 0.4102753881 -0.037165029 -0.2849671454 0.0640115558
75299550.0 -0.293004483 0.062572439 0.4112228541 -0.0423541252 0.41144973 -0.0424322899 -0.2833246456 0.0655683373
80299520.0 -0.2914526647 0.0647091552 0.412079319 -0.0475861666 0.4124543267 -0.0476064748 -0.2815018238 0.0681430546
85299490.0 -0.2900191024 0.0669365242 0.4127626934 -0.0525735033 0.412944007 -0.0525085679 -0.28005837 0.0697175037
90299460.0 -0.2887554566 0.0692721326 0.4128173245 -0.0579652923 0.4136966479 -0.0579373124 -0.2786306444 0.0719931837
95299430.0 -0.2872669903 0.071700728 0.413559617 -0.0632576539 0.4136636542 -0.0629927953 -0.2766407751 0.0741003246
100299400.0 -0.2865147839 0.0740200242 0.4131589412 -0.0680817204 0.4132619618 -0.0684295143 -0.2753383056 0.0760305944
105299370.0 -0.2849518393 0.0763509402 0.4131658896 -0.0738106291 0.4134728304 -0.0735575743 -0.273752031 0.0782392611
110299340.0 -0.2839673686 0.0788962328 0.4133932256 -0.0785549813 0.4129553199 -0.0784468806 -0.2729470057 0.0802446071
115299310.0 -0.2827973793 0.081041594 0.4129453805 -0.0838916626 0.4125575364 -0.0838999599 -0.2714388877 0.0823552575
120299280.0 -0.2819048757 0.0831619955 0.4125126259 -0.0888046945 0.412438639 -0.0890172059 -0.2704008212 0.0843988514
125299250.0 -0.2810430639 0.0854385125 0.4118829102 -0.0941820022 0.4121347099 -0.093899173 -0.2693624894 0.0866277951
130299220.0 -0.2802631213 0.0884595545 0.411079223 -0.0993903297 0.4108926334 -0.0992057939 -0.2683883591 0.0886484171
135299190.0 -0.2795211007 0.0906166469 0.4108700346 -0.1040084556 0.4104679263 -0.1040016153 -0.2672435904 0.0911858493
140299160.0 -0.2784471335 0.0931059768 0.40974594 -0.1091872636 0.4098033995 -0.1093953115 -0.2662115733 0.0936200708
145299130.0 -0.2774752889 0.0955882737 0.4084983631 -0.1141097911 0.408815087 -0.1140084411 -0.2651309306 0.0955965927
150299100.0 -0.2763064984 0.0983055419 0.4074099988 -0.1186690168 0.4076523884 -0.1185309248 -0.2643230265 0.0983783953
155299070.0 -0.2755916243 0.1007092737 0.4067458575 -0.1242401498 0.4063747841 -0.1239751803 -0.2632546003 0.1008162607
160299040.0 -0.274686591 0.1033709783 0.405200414 -0.1287748963 0.405247118 -0.1288990626 -0.2626005637 0.1032963497
165299010.0 -0.2738024006 0.106079465 0.4041478357 -0.1337549559 0.4044985441 -0.133749138 -0.2613540895 0.1059897868
170298980.0 -0.2728078584 0.1087066695 0.4025380435 -0.138518708 0.4029332748 -0.138495082 -0.2601100368 0.1083116833
175298950.0 -0.2717774448 0.110995055 0.4019269343 -0.1429578955 0.4014052275 -0.1430409423 -0.2596889709 0.1107921266
180298920.0 -0.2708080699 0.1141734622 0.399832388 -0.1481151693 0.3996864298 -0.1475791794 -0.2582412116 0.1132433585
185298890.0 -0.2695474748 0.1167794524 0.3985935691 -0.1528023529 0.3984890371 -0.1523997666 -0.2571290535 0.1157893066
190298860.0 -0.2688352891 0.1192640102 0.3968854057 -0.1573120229 0.3972666587 -0.1573078215 -0.2565676941 0.1183382608
195298830.0 -0.2677913286 0.1217871221 0.3953661801 -0.161938203 0.3950424909 -0.1618808587 -0.2550934884 0.1207621429
200298800.0 -0.2662461813 0.1244703522 0.3931840959 -0.1667527758 0.3935711214 -0.1668869485 -0.2543472999 0.1234703593
205298770.0 -0.2652361448 0.1272624328 0.3915091263 -0.1714292334 0.3918246313 -0.1709374048 -0.2533629609 0.1255258581
210298740.0 -0.2644302389 0.130131043 0.3898752221 -0.1757301479 0.3897934816 -0.175633866 -0.2518876712 0.1285129865
215298710.0 -0.2636736265 0.1325140412 0.3880011469 -0.1802706981 0.3880086463 -0.1803980316 -0.2513364776 0.1311437557
220298680.0 -0.262158528 0.1351883497 0.3858336968 -0.1847218807 0.3857998958 -0.1844786626 -0.2502430133 0.1331119672
225298650.0 -0.2610909301 0.1377915094 0.3839938678 -0.1893757672 0.3843605449 -0.1890267045 -0.2493581325 0.1359042397
230298620.0 -0.2597110173 0.1409665703 0.3819279663 -0.193512122 0.3823715884 -0.1933708804 -0.2477619633 0.1381407408
235298590.0 -0.2581982454 0.1434083971 0.3799205413 -0.1978402616 0.3800273154 -0.1978707354 -0.2465467671 0.1410779506
240298560.0 -0.2569582477 0.1464017096 0.3779291199 -0.2023821337 0.3775868617 -0.2025126826 -0.2452798177 0.1440243076
245298530.0 -0.2558859365 0.1488818597 0.3755172981 -0.2066036275 0.3751393165 -0.2065575118 -0.243382342 0.14587024
250298500.0 -0.2539313141 0.1517666755 0.3727232032 -0.2109253893 0.3726673921 -0.2106081092 -0.2427003385 0.1483979081
255298470.0 -0.252956501 0.1541177095 0.3704309676 -0.215061553 0.3708809702 -0.2148739092 -0.2412135603 0.1506121692
260298440.0 -0.2516941618 0.1570979004 0.3680920005 -0.2196641419 0.3686046824 -0.219192054 -0.2395390436 0.1536562248
265298410.0 -0.2496734213 0.1600631964 0.365501738 -0.223494374 0.3659711757 -0.2233746075 -0.2382054189 0.1564317693
270298380.0 -0.2486658011 0.1625018967 0.3634557224 -0.2274872567 0.3637481058 -0.227584656 -0.2368467974 0.1587479906
275298350.0 -0.2467881191 0.1653986486 0.3606997876 -0.2319683497 0.3612802823 -0.2316731606 -0.235220831 0.1611810997
280298320.0 -0.2450633185 0.1679497592 0.3586553671 -0.235952782 0.3583344081 -0.2358373162 -0.2332546515 0.1636662542
285298290.0 -0.2434316109 0.1708791938 0.3559845908 -0.2399379986 0.3559065738 -0.2398372754 -0.2321405487 0.1659452496
290298260.0 -0.2415568592 0.1732130983 0.3530239333 -0.2433630321 0.3531121487 -0.2440080671 -0.2300020873 0.1688469369
295298230.0 -0.2400935571 0.1755152863 0.3506196341 -0.2479573004 0.3502394083 -0.2477752908 -0.2282178138 0.1708783011
300298200.0 -0.2386776997 0.1783098571 0.3480359566 -0.2516463062 0.3481064925 -0.251838601 -0.226822262 0.1732756445
305298170.0 -0.2368109602 0.1807497231 0.3448756542 -0.2559872364 0.3450575916 -0.2556879905 -0.224540408 0.1756666922
310298140.0 -0.2349652359 0.1836126331 0.342430497 -0.2600617813 0.3422707689 -0.2597103699 -0.2233199694 0.178306358
315298110.0 -0.2330483597 0.1857818524 0.3399857557 -0.2636771831 0.3392329103 -0.2636896928 -0.2211767631 0.1804924503
320298080.0 -0.2308585683 0.1881305676 0.3356689612 -0.2677355499 0.336398978 -0.2673924816 -0.2193381134 0.1829421369
325298050.0 -0.2293576857 0.1905613584 0.3330346789 -0.271229363 0.333358453 -0.271165297 -0.2178918784 0.1852076933
330298020.0 -0.2276068534 0.1928721369 0.3300225826 -0.2750392284 0.3304148016 -0.275185266 -0.2159770429 0.1879729108
335297990.0 -0.2254814988 0.1955346966 0.3267369703 -0.2787804374 0.3271517203 -0.2786200783 -0.2147984218 0.1905527998
340297960.0 -0.2238598484 0.1984830161 0.3236088926 -0.2823283327 0.3235412885 -0.2824847824 -0.2121319347 0.1927330653
345297930.0 -0.2221881818 0.2008463471 0.3206923399 -0.285885596 0.3204742221 -0.286107028 -0.2105366223 0.1949508669
350297900.0 -0.2200711317 0.2031046128 0.317044374 -0.2894558415 0.3174209716 -0.2893522941 -0.2092338984 0.197817857
355297870.0 -0.217691904 0.2060840617 0.3140093555 -0.293061598 0.3144090748 -0.2928548647 -0.2069680682 0.2001505714
360297840.0 -0.216199375 0.2080716247 0.3110034345 -0.2958818673 0.3113638375 -0.2960847815 -0.2047093636 0.2028107646
365297810.0 -0.2141330483 0.2111502839 0.307847573 -0.2998420424 0.3077958918 -0.2999731744 -0.2026525275 0.2047906473
370297780.0 -0.2115280585 0.2129659381 0.3040881396 -0.3031384908 0.3045964282 -0.3028592857 -0.2009055361 0.2074359645
375297750.0 -0.2092846839 0.2154432765 0.3006570797 -0.3066212778 0.300940121 -0.3067379466 -0.1987354298 0.2093162713
380297720.0 -0.2075245296 0.2181012673 0.2975256306 -0.3096684011 0.2974433314 -0.3094721139 -0.1967948444 0.211678137
385297690.0 -0.2054634059 0.2199295078 0.2940808425 -0.3128762384 0.2939599074 -0.3127861678 -0.1946980029 0.2139913355
390297660.0 -0.2031065689 0.2226316042 0.2902802518 -0.3161131549 0.2904286243 -0.3159532768 -0.1926218446 0.2161317502
395297630.0 -0.200810836 0.2252838135 0.2872647483 -0.3194036716 0.2869205493 -0.3194201584 -0.1900500434 0.2183941007
400297600.0 -0.1982904736 0.2272789332 0.2832673619 -0.3224973638 0.2837524017 -0.3226197817 -0.1880577733 0.221047079
405297570.0 -0.1965605417 0.2291737202 0.2801435448 -0.3252595275 0.2799483556 -0.3251178175 -0.1861655947 0.2232048563
410297540.0 -0.1938535543 0.231591835 0.2763698894 -0.3285154325 0.2767776198 -0.3287501026 -0.1838209788 0.2252870663
415297510.0 -0.1910905456 0.2339932695 0.272509958 -0.3319136011 0.272971855 -0.3317886581 -0.1815002285 0.2271658595
420297480.0 -0.1891917978 0.2364208761 0.2689754973 -0.3346981565 0.2686372915 -0.3348303546 -0.1791593877 0.2291044247
425297450.0 -0.1866524638 0.2379892766 0.2652792596 -0.3371602628 0.2657100839 -0.3378810784 -0.177227542 0.2314017725
430297420.0 -0.1842964703 0.2400826041 0.2618108709 -0.339862618 0.2615242904 -0.3402219011 -0.1747941249 0.2330422753
435297390.0 -0.1816378169 0.2424125268 0.2577817623 -0.3433935173 0.2578064125 -0.3432462009 -0.1718939461 0.2351287062
440297360.0 -0.1792226846 0.2446378212 0.2540738304 -0.3457785135 0.2540385839 -0.3459395914 -0.1696268928 0.2371229713
445297330.0 -0.1765156424 0.2466456934 0.2501787066 -0.3485973035 0.2502168382 -0.3485314321 -0.1671990663 0.2385688024
450297300.0 -0.17399525 0.2484015992 0.2461564483 -0.3513038124 0.246349153 -0.3515507632 -0.1649334536 0.24055715
455297270.0 -0.1715727663 0.250367076 0.2422042319 -0.3537648535 0.2426163617 -0.3538186272 -0.1622368981 0.2422893646
460297240.0 -0.1690449962 0.2524853628 0.238299334 -0.3568232277 0.2386767602 -0.3566481015 -0.1596297779 0.2444044896
465297210.0 -0.1661186312 0.2545109049 0.2345588091 -0.3590627925 0.2343525929 -0.3594776195 -0.1570167136 0.2460585328
470297180.0 -0.1634678666 0.2563063705 0.2302145078 -0.3615440871 0.2306639219 -0.3619725858 -0.1543136281 0.2482681777
475297150.0 -0.160926811 0.2578478531 0.2264760934 -0.3637404204 0.226709717 -0.3638437076 -0.1514566273 0.2492948933
480297120.0 -0.1581182833 0.259856625 0.2224909467 -0.3666722701 0.2220649438 -0.3670159764 -0.1488335921 0.2512526475
485297090.0 -0.1553914515 0.2617526258 0.2184573508 -0.368883732 0.2187362787 -0.3687026872 -0.1463674039 0.2531572629
490297060.0 -0.1531826829 0.2636446925 0.2144426475 -0.3714959144 0.2147128506 -0.3713786326 -0.1435245159 0.2550553437
495297030.0 -0.1503655371 0.2654138556 0.2104884934 -0.3735091745 0.210539401 -0.3734374008 -0.1411236121 0.2567320306
500297000.0 -0.1472477677 0.2667344777 0.2063290826 -0.3751467313 0.2060773291 -0.3756108257 -0.137913769 0.2586925825
505296970.0 -0.1444998195 0.2687348333 0.2024009582 -0.3778938613 0.2018456254 -0.3779614357 -0.135524796 0.2599176128
510296940.0 -0.1417724831 0.2703489684 0.1978799819 -0.3802806772 0.1977359348 -0.380202495 -0.1325423062 0.2615351107
515296910.0 -0.1387426919 0.2717693702 0.1935190045 -0.3820901847 0.1939432771 -0.3823377858 -0.1297943909 0.2635721782
520296880.0 -0.1360123267 0.273609276 0.189533535 -0.3845667749 0.1895992562 -0.3841600599 -0.1273660139 0.2648115305
525296850.0 -0.132986855 0.2745415714 0.1849815218 -0.3859224212 0.1850485644 -0.3862552023 -0.1244171164 0.2662640843
530296820.0 -0.1299769548 0.2768557842 0.1809231276 -0.3884350039 0.1810157208 -0.3884234395 -0.121805856 0.2681558767
535296790.0 -0.1276941601 0.2780176137 0.1774021009 -0.3900563522 0.1770885243 -0.3900591363 -0.1193074782 0.2691437238
540296760.0 -0.1246548173 0.2798346294 0.1724217694 -0.3924750051 0.1725985328 -0.3923255019 -0.1164821341 0.2708885973
545296730.0 -0.1217120377 0.2811663032 0.1682139089 -0.3938441627 0.168195431 -0.3940722543 -0.113618349 0.2723045689
550296700.0 -0.1183795457 0.2826217982 0.1638583689 -0.3956987503 0.1641899225 -0.3957616662 -0.1108756899 0.2737664692
555296670.0 -0.1159017975 0.2837565014 0.1599317331 -0.3977133906 0.1597565987 -0.3972322011 -0.10809653 0.275035397
560296640.0 -0.1124913953 0.2855398443 0.1551743188 -0.3991102861 0.1554085324 -0.3993185008 -0.1048205345 0.276279962
565296610.0 -0.1097902796 0.2867888684 0.1505755727 -0.4009036954 0.1509388277 -0.400850733 -0.1023627004 0.2775755253
570296580.0 -0.1070094227 0.2880493542 0.1463157181 -0.4028285167 0.1461541711 -0.4023337936 -0.0992265274 0.2791604155
575296550.0 -0.1039297014 0.2894611965 0.1423738955 -0.4040476383 0.1420216953 -0.4042877962 -0.0964847257 0.2802248084
580296520.0 -0.1006189039 0.2905957136 0.1380312247 -0.4055877735 0.1375324198 -0.4054520919 -0.0935055705 0.2813954065
585296490.0 -0.0980048797 0.291461354 0.1333341911 -0.40669154 0.1333336462 -0.4068912004 -0.0905334959 0.2823396377
590296460.0 -0.0947273735 0.2931001953 0.1288357393 -0.4079233292 0.1290111662 -0.4080134553 -0.087874054 0.2834998332
595296430.0 -0.0915106402 0.2940280062 0.1241675524 -0.4099820236 0.1241691335 -0.409704017 -0.084897258 0.2840231948
600296400.0 -0.0885778654 0.2950642623 0.1197959796 -0.4110282324 0.1198964318 -0.4106950021 -0.0822492713 0.2851876501
605296370.0 -0.0856695741 0.2963363587 0.1155602308 -0.4121955733 0.1154112208 -0.4122850509 -0.0784120094 0.2863425142
610296340.0 -0.0825271713 0.2970693451 0.1105901733 -0.4133290405 0.1109250254 -0.4132903384 -0.0754259155 0.2870295854
615296310.0 -0.0789361669 0.2978452626 0.106120005 -0.4139854811 0.1058458096 -0.4147966917 -0.0724365635 0.2878104808
620296280.0 -0.0761150338 0.2987578482 0.1021442553 -0.4153814756 0.1018623602 -0.415466423 -0.0696570395 0.2891108983
625296250.0 -0.072897493 0.2995535561 0.097710497 -0.4165258291 0.097200282 -0.4168671892 -0.0660801924 0.2895631709
630296220.0 -0.0692064498 0.3007792525 0.0920217458 -0.4177136718 0.0926760542 -0.417594198 -0.0635185204 0.2906940121
635296190.0 -0.0668301192 0.301621562 0.0884023354 -0.4179066062 0.0879111682 -0.4184585786 -0.0600071449 0.2913131597
640296160.0 -0.0635365321 0.3024351328 0.0838390462 -0.4191255724 0.0839035393 -0.4195707007 -0.0571186469 0.2922283426
645296130.0 -0.0601734683 0.3035359403 0.0789575615 -0.4199646479 0.0791969681 -0.4203178639 -0.05392738 0.2932261122
650296100.0 -0.0570654029 0.3039636418 0.0742627476 -0.4208233006 0.0742660841 -0.420848455 -0.050618706 0.2930571985
655296070.0 -0.054126681 0.3045841946 0.0699946883 -0.4215403168 0.0699417977 -0.4220596838 -0.0475201187 0.2942088001
660296040.0 -0.0510793576 0.3053632341 0.0652577929 -0.4221602667 0.0652369948 -0.4225978649 -0.0441965621 0.2949513305
665296010.0 -0.0475030945 0.3058390741 0.0606477542 -0.4229228365 0.0608563316 -0.4229794173 -0.0411494508 0.2957813858
670295980.0 -0.0449210621 0.3070057478 0.0561989913 -0.4234008601 0.0561976951 -0.4236194405 -0.0385709019 0.2960645783
675295950.0 -0.0414138176 0.3073099256 0.0515643855 -0.4241415848 0.0518470486 -0.423928607 -0.035373074 0.2970304267
680295920.0 -0.0380920825 0.3080535537 0.046621398 -0.424426709 0.0468881521 -0.4250516835 -0.0321265965 0.2978881026
685295890.0 -0.0347191573 0.3088148298 0.0424791854 -0.425148705 0.0424085276 -0.4250519964 -0.029022751 0.2981051159
690295860.0 -0.0315235911 0.3088871319 0.0378256819 -0.4251740654 0.0375193003 -0.4255348759 -0.0256870353 0.2989694318
695295830.0 -0.028481917 0.3092339023 0.0334650967 -0.4256215878 0.0329573707 -0.4255734855 -0.0225662533 0.299119095
700295800.0 -0.0250084925 0.3096781818 0.0285237523 -0.425966456 0.0283878478 -0.4258726394 -0.0201869815 0.2999277141
705295770.0 -0.0220195886 0.3104782922 0.0235438702 -0.4264761263 0.0242531071 -0.4265825412 -0.0166485504 0.3003129153
710295740.0 -0.0186560909 0.3108033838 0.0194702953 -0.4269267332 0.0195376984 -0.427058912 -0.0132918702 0.2999724141
715295710.0 -0.0158971044 0.3108371808 0.0153596173 -0.4265364869 0.0148698146 -0.4267813782 -0.0103340706 0.3006540195
720295680.0 -0.0124869628 0.3112452615 0.0101543185 -0.427013968 0.0101768153 -0.4273610537 -0.0067649788 0.3016586261
725295650.0 -0.008827346 0.3114818971 0.0053534263 -0.4267769443 0.0054588001 -0.4269365519 -0.0043700694 0.3013910098
730295620.0 -0.0053916149 0.3120631174 0.0005792428 -0.4267323818 0.0009133808 -0.427202921 -0.0015614085 0.3018179191
735295590.0 -0.0025650104 0.3120152791 -0.0035648497 -0.4270895874 -0.0037764214 -0.4269566929 0.0018036867 0.3014492142
740295560.0 0.0006807581 0.3122667222 -0.0084059271 -0.4265962347 -0.0084482971 -0.4268679957 0.0054936467 0.3017377994
745295530.0 0.0039488454 0.3123752857 -0.0133034173 -0.4259836914 -0.0135602857 -0.426492297 0.0089263843 0.3014358378
750295500.0 0.0073889884 0.3123607607 -0.0176215759 -0.4262231883 -0.0175675908 -0.4266026752 0.0114564831 0.3017276905
755295470.0 0.0109330048 0.3120705296 -0.0223398523 -0.4259623421 -0.0224729403 -0.4262530011 0.0147919953 0.3014859162
760295440.0 0.0137453814 0.3122420635 -0.0268863004 -0.4260259956 -0.0270410245 -0.4261591599 0.017722533 0.3012033831
765295410.0 0.0172459683 0.312731277 -0.0316850198 -0.425544058 -0.031821217 -0.4257397637 0.0211778867 0.3015806355
770295380.0 0.0200798466 0.3122446092 -0.036287498 -0.4248999633 -0.0359292221 -0.4247194511 0.024199522 0.3010933881
775295350.0 0.0234426916 0.311834084 -0.0407812025 -0.4243981063 -0.0401714325 -0.4246881368 0.0267902106 0.3012432288
780295320.0 0.0268965423 0.3119192504 -0.045618197 -0.4235786921 -0.0444245249 -0.4239992189 0.0301321973 0.300843818
785295290.0 0.0298386755 0.3113698439 -0.0499131082 -0.4233191308 -0.0498662092 -0.4236843571 0.0339678136 0.3007940711
790295260.0 0.033632323 0.3120270887 -0.0543424606 -0.4227604928 -0.053818689 -0.4226197311 0.0370387456 0.3006553106
795295230.0 0.0364631082 0.3114731888 -0.0586943139 -0.421887078 -0.0586271154 -0.42216848 0.04020555 0.3003176252
800295200.0 0.0398380898 0.3112314834 -0.0639670994 -0.4212106517 -0.0636857802 -0.4214064889 0.0437572277 0.2999607264
805295170.0 0.0428543703 0.3107805635 -0.0677191717 -0.4206732352 -0.0680479922 -0.4210611514 0.0464820982 0.2997041405
810295140.0 0.0462179604 0.3103284952 -0.0721818911 -0.4195027731 -0.0725803397 -0.4201450839 0.0500572914 0.2994516112
815295110.0 0.0495941075 0.3095588745 -0.0771684993 -0.418481258 -0.0771382227 -0.4191892929 0.0532868108 0.2989185417
820295080.0 0.0524457155 0.3095784426 -0.081637225 -0.4180414726 -0.0812205736 -0.4183014893 0.0562025572 0.2985951147
825295050.0 0.0565291706 0.3090166875 -0.0856476395 -0.4173293799 -0.0860697146 -0.4174025072 0.0595749624 0.2981959984
830295020.0 0.0594533835 0.3086333546 -0.0909354321 -0.4157394094 -0.090612253 -0.4163139626 0.0633248151 0.2975374566
