!Created with skrf (http://scikit-rf.org).
# Hz S RI R 50.0 
!freq ReS11 ImS11 ReS21 ImS21 ReS12 ImS12 ReS22 ImS22
300000.0 -0.2385972461 -0.0986612543 0.4661558598 0.0654403954 0.4692171865 0.0694981527 -0.2379230857 -0.1094650356
5299970.0 -0.2436055324 0.0072262694 0.4739489189 0.0053349015 0.4739246482 0.0056704634 -0.2441242218 0.0058280243
10299940.0 -0.240155729 0.0196465134 0.4760879985 0.006825017 0.475603917 0.0067273263 -0.241256619 0.0181660527
15299910.0 -0.2359524568 0.0294515224 0.4793729281 0.0079883553 0.4793583699 0.0082385476 -0.2368318191 0.0274961933
20299880.0 -0.2305614356 0.0373412023 0.4839987816 0.0083522335 0.4841917564 0.0081299512 -0.2322862137 0.0354244714
25299850.0 -0.2248580217 0.0433824865 0.489350025 0.0074707475 0.4895420258 0.0074611972 -0.227028938 0.041657119
30299820.0 -0.2187134175 0.0483552096 0.4949497038 0.0057085969 0.4950785253 0.0053872548 -0.2216799679 0.0470459109
35299790.0 -0.2128958148 0.0529306425 0.500444782 0.0020705433 0.500378786 0.0021684744 -0.2163163404 0.0510921416
40299760.0 -0.207382973 0.0554606312 0.5053170398 -0.0017927982 0.5055237429 -0.001784139 -0.2112915051 0.0545790195
45299730.0 -0.2024245187 0.0584794836 0.5098745081 -0.0069084967 0.5102486005 -0.0065788613 -0.2065270235 0.0573544224
50299700.0 -0.1977016806 0.0604653645 0.5143445794 -0.0122752931 0.5146597895 -0.0124486087 -0.2022068591 0.0595896784
55299670.0 -0.1936111506 0.0618799996 0.5176649426 -0.0180372708 0.518576105 -0.0180500851 -0.198391349 0.0613570964
60299640.0 -0.1893972973 0.0625981258 0.5212237074 -0.0244424051 0.5216346741 -0.024159248 -0.1948179357 0.0630657441
65299610.0 -0.18626683 0.0640018866 0.5247571319 -0.0302974054 0.5244312502 -0.0303460908 -0.1912170381 0.0641086549
70299580.0 -0.1826180142 0.0641923785 0.5267188205 -0.037231979 0.5267968756 -0.037263873 -0.1878218262 0.0657837076
75299550.0 -0.1796187714 0.0649887026 0.5285358331 -0.0437980745 0.5287355903 -0.0442718399 -0.1850343728 0.0666769872
80299520.0 -0.1774512149 0.0657202149 0.5310655656 -0.0509252422 0.530825856 -0.0506729746 -0.1825856289 0.0673713844
85299490.0 -0.1748182388 0.0660406333 0.5320832452 -0.0577186706 0.5319747513 -0.0577544526 -0.180464815 0.0679600044
90299460.0 -0.1725246338 0.0665946593 0.5331150581 -0.0644382739 0.5332765075 -0.0645648258 -0.1777163698 0.0692152355
95299430.0 -0.1706143132 0.0671480935 0.5339287357 -0.0718444746 0.5343396698 -0.0716961837 -0.1760746131 0.0701180409
100299400.0 -0.1688599507 0.0677679874 0.5342307236 -0.0783930261 0.5345359715 -0.0788296521 -0.1744783406 0.070675582
105299370.0 -0.1667897678 0.0678912448 0.5345842691 -0.0849928961 0.5347477373 -0.0857636484 -0.172229586 0.0717981614
110299340.0 -0.16573329 0.0685420509 0.5346544831 -0.0918033078 0.5346831069 -0.092628414 -0.1705956365 0.0728057903
115299310.0 -0.1639569175 0.0686712205 0.5347714188 -0.0988653743 0.5350873553 -0.0988320787 -0.1691551212 0.0732188485
120299280.0 -0.1628738077 0.069325373 0.5346742072 -0.1062018719 0.5346020854 -0.1061247389 -0.1679128414 0.0740379329
125299250.0 -0.1617953622 0.0697860535 0.5341822411 -0.1123324508 0.5347057579 -0.112698282 -0.1664552569 0.0747439259
130299220.0 -0.1606362374 0.0704594995 0.5336602742 -0.1188872331 0.533806016 -0.1195032998 -0.1650151379 0.0758756765
135299190.0 -0.1592814756 0.0710413278 0.5330781919 -0.1258153321 0.5327989128 -0.1259397434 -0.1641296806 0.076683161
140299160.0 -0.1586321483 0.0721135278 0.5323176146 -0.1325933311 0.5323367818 -0.1329117641 -0.1629066659 0.0777375446
145299130.0 -0.1573914453 0.0727956075 0.5314294575 -0.1394814854 0.5311697979 -0.139042132 -0.1622461516 0.0788491126
150299100.0 -0.156536672 0.0734020965 0.5302205301 -0.145969853 0.5304215734 -0.1457485662 -0.1608840623 0.0799129119
155299070.0 -0.1558908695 0.0748080446 0.5291716822 -0.1527329038 0.5288793319 -0.1526523969 -0.1600022211 0.0811059325
160299040.0 -0.1549245475 0.075207081 0.5270727194 -0.1585170382 0.5281115505 -0.15899901 -0.1591343617 0.0825465134
165299010.0 -0.1543647007 0.0763382974 0.5262652533 -0.1652544355 0.526334276 -0.1653899784 -0.1578815736 0.0833671384
170298980.0 -0.1535342513 0.0772981094 0.5240755669 -0.1715722128 0.5248213442 -0.1719149028 -0.1569281737 0.0847870182
175298950.0 -0.1524758298 0.0783059117 0.5236202538 -0.1774837768 0.5235195948 -0.1777869292 -0.1560144877 0.0857314269
180298920.0 -0.1519233363 0.0789911243 0.5215296761 -0.1843521841 0.5214079437 -0.1839335785 -0.1549457583 0.0869602927
185298890.0 -0.1509874573 0.0801399423 0.5192117045 -0.190530969 0.519405973 -0.1903206312 -0.1539526537 0.0882036843
190298860.0 -0.1500405433 0.0813314804 0.5172429253 -0.1963916679 0.5178089131 -0.196370258 -0.1526027805 0.0892085139
195298830.0 -0.1495119706 0.0819479275 0.5156416405 -0.2021795932 0.5156824029 -0.2028552514 -0.1520112389 0.0904939543
200298800.0 -0.1486986994 0.0835533279 0.5137205663 -0.2082326025 0.5132290308 -0.2086536945 -0.1509408626 0.0924411357
205298770.0 -0.1482915515 0.0846108284 0.5117529443 -0.2151249173 0.5112851361 -0.2151307708 -0.1499492424 0.0933074309
210298740.0 -0.1474542944 0.0855293114 0.5087705406 -0.2206520713 0.5096366748 -0.2212439197 -0.1491891973 0.0948315157
215298710.0 -0.14673927 0.0868371452 0.5069629437 -0.2267387645 0.5069293693 -0.2265291621 -0.1483556861 0.0961065049
220298680.0 -0.1459171964 0.0879394765 0.5042799855 -0.2327374058 0.5040671765 -0.2327295249 -0.1471451 0.0979246291
225298650.0 -0.1450709476 0.0892801777 0.5017266759 -0.2380664651 0.5014381249 -0.2383036336 -0.1461822161 0.0991046688
230298620.0 -0.1443570504 0.0905964284 0.499609866 -0.2444927785 0.4996490437 -0.2445575449 -0.1450319918 0.1004203175
235298590.0 -0.1436726173 0.0913892707 0.4970427186 -0.2497729278 0.4966890304 -0.2504963648 -0.1440265919 0.101522517
240298560.0 -0.1430871059 0.0928150394 0.4944501962 -0.255385737 0.4943555019 -0.2554615447 -0.1433169812 0.1034268923
245298530.0 -0.1417195514 0.0942817709 0.4907137304 -0.2620069051 0.490996179 -0.261787319 -0.1417342375 0.1048231737
250298500.0 -0.1413989811 0.09529945 0.4883713713 -0.2668676941 0.4888868997 -0.2668584538 -0.1407017759 0.1058368872
255298470.0 -0.1406456595 0.0968007557 0.4854667369 -0.272725184 0.4855396906 -0.2727491465 -0.1396976249 0.1071989519
260298440.0 -0.13983291 0.0980655471 0.4828485971 -0.2781279417 0.4828633913 -0.2781364272 -0.1381888639 0.1090220272
265298410.0 -0.1388224239 0.0996262048 0.4797213078 -0.2844021441 0.4796266623 -0.2840663379 -0.1373274666 0.1101651207
270298380.0 -0.137760728 0.1005496339 0.4759194861 -0.2892948504 0.4766481189 -0.2896096471 -0.1360408696 0.1119632176
275298350.0 -0.1372737958 0.1019143487 0.4730878643 -0.2949110884 0.4734931112 -0.2949265948 -0.1349198818 0.113135196
280298320.0 -0.1362534882 0.1031473401 0.4699380758 -0.2992772247 0.470015984 -0.3002709408 -0.1334552659 0.1150084391
285298290.0 -0.1352174774 0.1047653433 0.4666917576 -0.3053969374 0.4666529759 -0.3054240653 -0.1326082352 0.1163388528
290298260.0 -0.1342790843 0.1059859353 0.4639361326 -0.3107575405 0.4634695902 -0.3106236765 -0.1310699825 0.1178286663
295298230.0 -0.1331970044 0.107385457 0.4605880256 -0.3163775976 0.4599375688 -0.3161521113 -0.1297081244 0.1193531113
300298200.0 -0.1321642405 0.1085455625 0.4564489933 -0.3212170795 0.4568563854 -0.3211507134 -0.1284284929 0.1208597019
305298170.0 -0.1308853401 0.1097161279 0.4535468723 -0.3264488215 0.4535317529 -0.3267381446 -0.1267239619 0.1222004986
310298140.0 -0.1297695536 0.1106611586 0.4494392555 -0.3318419033 0.4500016878 -0.3320743987 -0.1252804718 0.1240606986
315298110.0 -0.1295271332 0.1117279951 0.4458627341 -0.3367291684 0.4462421071 -0.3371331326 -0.1238458332 0.1248271944
320298080.0 -0.1280023282 0.1132406565 0.4422959209 -0.3424062542 0.4426440297 -0.3419511447 -0.1227227432 0.1263369002
325298050.0 -0.12742541 0.1142507585 0.4388627221 -0.347462809 0.4391099518 -0.3476879606 -0.1213592517 0.1277068986
330298020.0 -0.1264931337 0.1154395034 0.4340298777 -0.3521900368 0.4344280505 -0.3521842848 -0.1205678393 0.1288363733
335297990.0 -0.1254595486 0.1165407213 0.4302637679 -0.3569477307 0.4304444947 -0.3573895396 -0.1192214708 0.1301886381
340297960.0 -0.1248482366 0.1180761418 0.4259780951 -0.3617629813 0.4263475765 -0.361522989 -0.1179227562 0.1315462409
345297930.0 -0.1239220363 0.119326705 0.4220514229 -0.3662083034 0.4219453305 -0.365891021 -0.1162517334 0.1325647912
350297900.0 -0.1222920809 0.1208444733 0.4178097856 -0.3711541237 0.4181088601 -0.370935372 -0.1149613089 0.1346919132
355297870.0 -0.1217667426 0.1221012692 0.4138966709 -0.3757809962 0.4138499831 -0.3758353068 -0.1138017578 0.1362047769
360297840.0 -0.1201985119 0.123232445 0.4099294771 -0.3804068289 0.4097155392 -0.3803806306 -0.1122837806 0.137684753
365297810.0 -0.1190719243 0.1245029177 0.4054034491 -0.3848581267 0.4055371724 -0.3848151061 -0.1107939405 0.1396164089
370297780.0 -0.1178065099 0.1258610225 0.4009262973 -0.38900783 0.4013078603 -0.3893497281 -0.1091112975 0.1408816136
375297750.0 -0.1166874229 0.1276317661 0.3974035554 -0.3938263379 0.396970209 -0.3938382424 -0.1073989819 0.1422664284
380297720.0 -0.115250467 0.1282590333 0.3926512958 -0.3977405179 0.3925413277 -0.3979112774 -0.1061446477 0.1440048205
385297690.0 -0.1141849893 0.1299679159 0.3879618019 -0.4016771738 0.3881583849 -0.4022710547 -0.1045011057 0.1451012106
390297660.0 -0.1132696412 0.1308211962 0.3834317598 -0.4063515918 0.3835649841 -0.406909637 -0.1027960143 0.1460423693
395297630.0 -0.1117445121 0.1322140714 0.379480768 -0.4105302425 0.379174117 -0.4106055845 -0.1012655457 0.1480501478
400297600.0 -0.1107481187 0.1335936228 0.3743312037 -0.4150942938 0.3750787616 -0.4149311459 -0.1005047911 0.1487541372
405297570.0 -0.1095819278 0.1347252344 0.3702778058 -0.4188490035 0.3703006959 -0.4189656952 -0.0983973307 0.1505501054
410297540.0 -0.1078987439 0.135659022 0.3648944665 -0.4228624991 0.3654489913 -0.4228195987 -0.0968002724 0.1515605933
415297510.0 -0.1068450262 0.1373031015 0.3609799939 -0.4268540303 0.3609742229 -0.4270865596 -0.0951089552 0.1535417445
420297480.0 -0.1051921467 0.1379283059 0.355895216 -0.4308401648 0.3560449296 -0.4305769267 -0.0934620901 0.1541701012
425297450.0 -0.1039567403 0.1390066318 0.3512740654 -0.4346070293 0.3515929144 -0.4349215168 -0.0918008499 0.1560037946
430297420.0 -0.1029339059 0.1407420458 0.3465868293 -0.4390521967 0.3466964969 -0.4386396547 -0.0904853339 0.1566258161
435297390.0 -0.1011959937 0.1413648289 0.342042487 -0.4418988436 0.3419241269 -0.4425036606 -0.0884157877 0.1583501916
440297360.0 -0.0996289524 0.1426342121 0.3367004696 -0.4456298667 0.3363494477 -0.4462010161 -0.0871934033 0.1592415877
445297330.0 -0.0982269053 0.1436962612 0.3315102605 -0.4499132926 0.3318946593 -0.4495956856 -0.0851576291 0.1602891873
450297300.0 -0.0969489047 0.1446054549 0.3271648032 -0.4529194219 0.3271461103 -0.4532258012 -0.0833219285 0.1614844473
455297270.0 -0.0957521054 0.145739363 0.32232776 -0.4567811256 0.3225142841 -0.45650125 -0.0813452684 0.1626089495
460297240.0 -0.0944698212 0.1467165501 0.3170215568 -0.4598130103 0.3165129323 -0.4604369967 -0.0795833122 0.164199548
465297210.0 -0.0927572418 0.1477561561 0.312128321 -0.4635830147 0.3122410143 -0.463560407 -0.0782243481 0.1647564407
470297180.0 -0.0914102062 0.1487883311 0.3071355377 -0.4666195818 0.3074101072 -0.4670638381 -0.0771238949 0.1659969154
475297150.0 -0.0900288843 0.1497095327 0.3017243658 -0.4697538027 0.3019067577 -0.4699212394 -0.0746961419 0.1669167158
480297120.0 -0.0880693164 0.1505906984 0.2965201491 -0.4730888193 0.2968555137 -0.4732078205 -0.0730020644 0.1681386697
485297090.0 -0.0867558188 0.1514031891 0.2913458495 -0.4764755134 0.2917597874 -0.4764663914 -0.0712154821 0.1687884329
490297060.0 -0.0854237903 0.1524543945 0.2861115685 -0.4796912113 0.2863334641 -0.4800352619 -0.069323652 0.1702517014
495297030.0 -0.0840996844 0.1537609609 0.2809594067 -0.4832204787 0.2807874884 -0.4827887971 -0.0675117126 0.1704756253
500297000.0 -0.0823306749 0.1544163062 0.2753149276 -0.4861031046 0.2758859081 -0.4852580924 -0.0657579426 0.1719672878
505296970.0 -0.081225595 0.1553720736 0.270291328 -0.4884520994 0.2700553677 -0.4883803428 -0.0644482851 0.1730765673
510296940.0 -0.079610866 0.156524559 0.2651654057 -0.4922249347 0.2651060061 -0.4919269082 -0.0618118757 0.1738163985
515296910.0 -0.0781686472 0.1575512653 0.2596241867 -0.4942461574 0.2598515245 -0.4945802342 -0.0604941273 0.1745446983
520296880.0 -0.0765997218 0.1581958375 0.2539306145 -0.4972892288 0.2543393211 -0.4973176849 -0.058477709 0.1756200315
525296850.0 -0.0751515575 0.1589167825 0.2487003464 -0.4997476527 0.2488813713 -0.5002807598 -0.0560459555 0.1764028538
530296820.0 -0.0732033435 0.1596705585 0.2432871941 -0.5018560015 0.2433361918 -0.5025577134 -0.0547784543 0.1768530106
535296790.0 -0.0722716562 0.1604502652 0.2378987589 -0.5048276508 0.23814807 -0.5051208731 -0.0527453816 0.1776666835
540296760.0 -0.0703338957 0.1613041868 0.2322141542 -0.5080483312 0.2319083317 -0.5076241535 -0.0511414841 0.1785892215
545296730.0 -0.0691814451 0.1622850604 0.2268129737 -0.5097510735 0.2263848948 -0.5103391412 -0.0492989475 0.1792800805
550296700.0 -0.0676674417 0.1630108478 0.2218130152 -0.5125384369 0.2217419199 -0.5128767999 -0.0472730401 0.1801498692
555296670.0 -0.0656325848 0.1635311184 0.2155946454 -0.5148206168 0.215871491 -0.5150501121 -0.045381774 0.1808162004
560296640.0 -0.0638851877 0.1644591147 0.2100106084 -0.5170537797 0.2102784136 -0.5171102473 -0.0434945227 0.1816534438
565296610.0 -0.0628806596 0.1649524306 0.2045282589 -0.5191783659 0.204367444 -0.519326387 -0.0415215259 0.1818280234
570296580.0 -0.0606167256 0.1658797051 0.1987029557 -0.5214089199 0.1991106028 -0.5214666995 -0.0392660294 0.1830226394
575296550.0 -0.0592579085 0.1669299298 0.1931191989 -0.5230365464 0.1934336234 -0.5235497813 -0.0368235111 0.1832652624
580296520.0 -0.0576673975 0.1674224811 0.1877404179 -0.5257092134 0.1878888893 -0.525566759 -0.0355473963 0.1837638118
585296490.0 -0.0560208623 0.1677202085 0.1818525872 -0.5273843468 0.1819713463 -0.5273498143 -0.0336609466 0.1839808513
590296460.0 -0.0547004237 0.1684691184 0.1763603575 -0.529427153 0.1759865359 -0.5296382858 -0.0310902079 0.184961564
595296430.0 -0.0528165357 0.1693708749 0.170846123 -0.5311839217 0.1704805137 -0.531521774 -0.0293337586 0.1853974685
600296400.0 -0.0514250729 0.1700108569 0.1647377578 -0.5331254291 0.164950617 -0.5331631661 -0.0272678036 0.1861521873
605296370.0 -0.0494651664 0.1708561355 0.1588928572 -0.5352435557 0.1589063438 -0.5347515001 -0.0253488652 0.1862436442
610296340.0 -0.0480573998 0.1712070889 0.1534300037 -0.5365643829 0.1531978277 -0.536673851 -0.0234269217 0.187010192
615296310.0 -0.0464280049 0.1722616583 0.147276347 -0.538100974 0.1469746086 -0.5382274929 -0.0213565138 0.1870395668
620296280.0 -0.0447229783 0.1722794785 0.1418226386 -0.5391383709 0.1413881959 -0.5396047138 -0.0192935708 0.1873205674
625296250.0 -0.0427057452 0.1729457059 0.1354721744 -0.5410104342 0.1354915434 -0.5412239339 -0.0172724938 0.1880542205
630296220.0 -0.041314982 0.1738579165 0.1295499524 -0.5426348659 0.1301362097 -0.5426913493 -0.0153056133 0.1882459563
635296190.0 -0.0393609234 0.1742595924 0.1234234089 -0.5432609886 0.1234521662 -0.5434246154 -0.0133756053 0.1885343326
640296160.0 -0.0379232755 0.1746105622 0.1183790376 -0.5448924847 0.1180142204 -0.5452663919 -0.0110008911 0.1888293907
645296130.0 -0.0361866607 0.1754021602 0.1120396897 -0.5467497968 0.1120811734 -0.5460427191 -0.0092291912 0.1885134706
650296100.0 -0.0345141215 0.1762052224 0.1066760185 -0.5473663727 0.1065436175 -0.5471309153 -0.0073781218 0.18942592
655296070.0 -0.0327577763 0.1762394674 0.0999972917 -0.5482905313 0.1003082532 -0.5487743301 -0.0047035962 0.1897384994
660296040.0 -0.0313399536 0.1770000449 0.0941192136 -0.5490911918 0.0946313151 -0.5495869009 -0.0032035626 0.1898325932
665296010.0 -0.0291986408 0.1770298229 0.088294551 -0.5502396193 0.0891994504 -0.5504672087 -0.0012573868 0.1900038381
670295980.0 -0.0272674245 0.1775864886 0.0823859283 -0.5512012684 0.0829490528 -0.5512449941 0.0008110434 0.1899316934
675295950.0 -0.0256054466 0.1780201521 0.0761810068 -0.5519318465 0.0765335112 -0.552487506 0.0030429394 0.1903908944
680295920.0 -0.0240573785 0.178787754 0.0702943893 -0.5530452448 0.0707160689 -0.5530288276 0.0055321826 0.1901046942
685295890.0 -0.0224982335 0.1789789643 0.0647752887 -0.5533466496 0.064409452 -0.5538657842 0.0073541627 0.1905551897
690295860.0 -0.0203409359 0.1792791757 0.0583898916 -0.5539266073 0.0583643122 -0.5539940017 0.0097486585 0.1904759032
695295830.0 -0.0183777171 0.1795213835 0.0519064482 -0.5548513283 0.0525397964 -0.5550415692 0.0110619609 0.1907408862
700295800.0 -0.0166768584 0.1802076637 0.0462354555 -0.5556844305 0.0468905037 -0.5552100876 0.0135109975 0.1901292643
705295770.0 -0.0151417884 0.1804354402 0.0405195159 -0.5556452449 0.0403400955 -0.5557060168 0.0154193466 0.1904040785
710295740.0 -0.0132740194 0.180764715 0.0346925175 -0.5563677312 0.0344345397 -0.5558627966 0.0170553851 0.1907185103
715295710.0 -0.01161813 0.1809849957 0.0286176611 -0.5561505063 0.0288760442 -0.5562173994 0.0194361978 0.1902210514
720295680.0 -0.0098845523 0.1808378393 0.0227036309 -0.5561890806 0.0226593487 -0.5570474625 0.0218844843 0.1904976793
725295650.0 -0.0077170565 0.1813767783 0.0161509894 -0.556669404 0.0165471241 -0.5568684145 0.0239799647 0.1903576649
730295620.0 -0.0066649592 0.1813507201 0.01058744 -0.5565924656 0.010461734 -0.5569536298 0.0259743589 0.1896463288
735295590.0 -0.0042232173 0.1816441877 0.0048953575 -0.5571063653 0.0048168587 -0.5567364771 0.0281024623 0.1899518185
740295560.0 -0.0026009156 0.1822899758 -0.0017247757 -0.556536349 -0.0015113278 -0.556838919 0.0302254023 0.1897968571
745295530.0 -0.0007797662 0.1821113761 -0.0075338736 -0.5566395926 -0.0073473534 -0.5570953944 0.0318881808 0.1898716102
750295500.0 0.000699039 0.1822106533 -0.0131447946 -0.5564458822 -0.0135541982 -0.5569138525 0.0342916212 0.1892628511
755295470.0 0.0029623966 0.1825736236 -0.0194245691 -0.5562903016 -0.0191406291 -0.5565682638 0.0357224963 0.1894513796
760295440.0 0.0044846309 0.1826989445 -0.0255832911 -0.5560969274 -0.025176168 -0.5565886247 0.037666511 0.1889253258
765295410.0 0.006134091 0.1824814968 -0.0307694026 -0.5555699237 -0.0311099226 -0.5563079522 0.0404838274 0.1887807051
770295380.0 0.0082679097 0.1829365997 -0.0373465634 -0.5552811512 -0.0373976807 -0.5556992762 0.0426959373 0.1886032583
775295350.0 0.0098365964 0.1828799021 -0.0430547087 -0.5548430833 -0.0432834116 -0.554971861 0.0441213321 0.1875767787
780295320.0 0.0119993224 0.18302462 -0.0490802001 -0.5541318312 -0.0489970915 -0.5548500917 0.0462254478 0.1880353353
785295290.0 0.0136191949 0.1833095759 -0.0553545053 -0.5532283895 -0.055248834 -0.5539594871 0.0480182315 0.1873936095
790295260.0 0.0153731047 0.183071188 -0.0612451705 -0.5530039495 -0.0610582567 -0.5531848191 0.0506986824 0.1868516064
795295230.0 0.0170910385 0.1832277744 -0.0668481566 -0.5522115731 -0.0669006468 -0.5529275528 0.0525301703 0.1870533866
800295200.0 0.0190202463 0.1835518227 -0.0731869097 -0.5517268846 -0.073326791 -0.5521003599 0.054515716 0.1862705279
805295170.0 0.020641302 0.1829992462 -0.0789588755 -0.5504419971 -0.0788127418 -0.5509584793 0.0564440505 0.1857828109
810295140.0 0.0226620321 0.1829093488 -0.0847800199 -0.5499937575 -0.0847462304 -0.5507269562 0.0587241147 0.1858151892
815295110.0 0.0244069776 0.1831262253 -0.0912918435 -0.5485579773 -0.0909246043 -0.5491666894 0.0601228474 0.1846424686
820295080.0 0.0263824413 0.1825761432 -0.0970752511 -0.5478364366 -0.096979109 -0.5481680469 0.0625226869 0.1844186497
825295050.0 0.0281150417 0.1828493805 -0.1027775762 -0.54627538 -0.1023814381 -0.5469844533 0.0646904381 0.1839096239
830295020.0 0.0298903918 0.1828367147 -0.1085693924 -0.5455422098 -0.1089273588 -0.545820436 0.0663375247 0.1832070951
