!Created with skrf (http://scikit-rf.org).
# Hz S RI R 50.0 
!freq ReS11 ImS11 ReS21 ImS21 ReS12 ImS12 ReS22 ImS22
300000.0 -0.7769433634 -0.1113371352 -0.0015040333 0.0015948987 0.000571838 0.0004591461 -0.0496266976 -0.0628384298
5299970.0 -0.7854763722 -0.0062067723 8.06842e-05 0.0001027062 -0.0001089654 7.55057e-05 -0.0500859839 0.0154111348
10299940.0 -0.787770262 -0.0043589769 0.0001816651 -7.378e-06 0.0001572878 -3.46817e-05 -0.0442067412 0.0336766021
15299910.0 -0.7934591442 -0.0020095185 -0.0001303883 0.000177819 0.0001945463 0.0001609828 -0.0355558539 0.0482805004
20299880.0 -0.7999151848 0.0021952722 0.0001911365 -0.0001352083 -2.18664e-05 4.85222e-05 -0.0256271321 0.059722617
25299850.0 -0.8063526333 0.0077652124 -0.0001245136 0.0002033196 0.0001288476 -3.59987e-05 -0.0140449829 0.0692996327
30299820.0 -0.8123799101 0.015607509 -9.21059e-05 0.0001012515 7.18689e-05 -0.0001611618 -0.0023178916 0.0760076065
35299790.0 -0.8169271963 0.0246702913 0.0001522714 -0.0003201303 -0.0002271076 3.13664e-05 0.0091813541 0.080847601
40299760.0 -0.8212084261 0.0336659128 0.0002786296 -8.24663e-05 -0.0001451722 1.70836e-05 0.0207725192 0.0834095764
45299730.0 -0.8248890137 0.0429656199 -0.0001286569 -3.3238e-06 -2.08132e-05 0.0001500082 0.0312537604 0.0851072784
50299700.0 -0.8272166486 0.0528166753 -0.00013847 2.13922e-05 0.000163036 -0.0001136267 0.0415593699 0.084558362
55299670.0 -0.8294001988 0.0630048586 8.88342e-05 7.9113e-06 -4.39062e-05 -0.0001641452 0.0508206709 0.0836672508
60299640.0 -0.8305356617 0.0736161491 0.0001678552 0.0001515043 -4.30679e-05 -8.67131e-05 0.0592948808 0.0815353196
65299610.0 -0.8314490183 0.0834397217 -0.0001176861 -1.74257e-05 0.0001393838 0.0002188876 0.0669298347 0.0790164221
70299580.0 -0.832141601 0.0931437598 0.0001379896 0.000172572 9.97044e-05 -3.85115e-05 0.0740259019 0.0760015187
75299550.0 -0.8317736543 0.1038859089 -1.19626e-05 -2.1619e-05 0.0001037919 7.16694e-05 0.080399962 0.0721562695
80299520.0 -0.8321238776 0.1132105847 0.0001940524 -0.0001377439 2.73956e-05 -0.0001434832 0.0860705756 0.0689929337
85299490.0 -0.8311128729 0.1223593069 -0.0001124582 0.0001106518 -3.8258e-05 3.51476e-05 0.0911663281 0.0649511814
90299460.0 -0.8302243958 0.1323086874 -1.85141e-05 3.73699e-05 5.70306e-05 -5.08108e-05 0.095628086 0.0609525352
95299430.0 -0.8293050853 0.1417116599 9.3169e-06 0.0001057673 -4.71134e-05 2.58269e-05 0.0997456466 0.056949956
100299400.0 -0.8279694374 0.1505010221 6.75083e-05 2.63475e-05 4.6957e-06 -0.0001782384 0.1037910572 0.0527749788
105299370.0 -0.8274276482 0.1603513012 8.35952e-05 -3.7258e-06 -9.8065e-05 -5.85082e-05 0.1069732204 0.0487261896
110299340.0 -0.8257654167 0.1690179252 -4.516e-05 -9.11594e-05 -4.93986e-05 0.0001627208 0.1096749388 0.0448954055
115299310.0 -0.8241266122 0.1782740435 4.32308e-05 4.78254e-05 4.43262e-05 5.19566e-05 0.1125488277 0.0405954981
120299280.0 -0.8220170441 0.1868168293 9.85847e-05 0.0001699881 0.0001564246 -0.0001036164 0.1143960666 0.0368558458
125299250.0 -0.8203642893 0.1959179545 -2.04439e-05 0.0001077225 6.15187e-05 4.1916e-05 0.1166081243 0.0326101545
130299220.0 -0.8188700693 0.2055045161 -1.51862e-05 2.9725e-06 0.0002019131 0.0001040275 0.1181846146 0.0286773212
135299190.0 -0.8170018984 0.2139045091 -9.15044e-05 0.0001171393 5.53912e-05 -8.83606e-05 0.1198859357 0.0251483718
140299160.0 -0.8149264393 0.2228606122 1.0055e-06 0.0001277471 0.0001084998 -0.0001156609 0.1209710688 0.0217407677
145299130.0 -0.8129569374 0.2323140707 -2.36216e-05 -7.42969e-05 5.30112e-05 0.000117929 0.1218278458 0.0180247934
150299100.0 -0.8104482034 0.2406894436 -2.29882e-05 3.69917e-05 -4.34331e-05 0.0002012496 0.1228314289 0.0148470545
155299070.0 -0.80787044 0.2489515945 0.0001840953 1.80963e-05 -4.7867e-06 -6.68573e-05 0.1237690057 0.0114187865
160299040.0 -0.8054742341 0.2580584583 1.80646e-05 -3.3658e-05 5.66393e-05 -6.2185e-06 0.1242000471 0.008249231
165299010.0 -0.8030995329 0.2668090653 1.8803e-05 0.0001034583 9.86192e-05 0.0001127407 0.1248804965 0.0049678473
170298980.0 -0.8000202019 0.2751798133 5.13929e-05 0.0001270062 9.70399e-05 -8.5281e-06 0.1251990043 0.0018918767
175298950.0 -0.7972785687 0.284201152 -0.0001485482 4.57343e-05 -8.63163e-05 -0.0001395512 0.1252438376 -0.0013697148
180298920.0 -0.7947694448 0.2929199832 -1.0779e-05 0.0002147282 1.08377e-05 -9.5326e-05 0.1254015311 -0.0041567311
185298890.0 -0.7916066884 0.300366627 6.2235e-05 0.0001259807 -2.74017e-05 -9.08633e-05 0.1253141759 -0.0073965523
190298860.0 -0.7882022074 0.3096488671 -7.07899e-05 -8.45496e-05 6.09684e-05 -1.43601e-05 0.1254121041 -0.0099868047
195298830.0 -0.7853001996 0.3175521652 0.0002878042 0.0002805372 -8.22509e-05 -0.0002079802 0.1253702307 -0.0127327409
200298800.0 -0.7816978146 0.3257842555 -9.01803e-05 0.0001704867 -6.45607e-05 0.0001336915 0.1245797625 -0.0155347255
205298770.0 -0.7783588269 0.3341390418 4.30476e-05 0.0001783857 4.22861e-05 -0.0001459462 0.1244735133 -0.018470778
210298740.0 -0.7745732901 0.3424728265 -0.0001118315 6.421e-06 -2.17361e-05 0.0001351704 0.1241398059 -0.0207673808
215298710.0 -0.7711341445 0.3506129859 2.17727e-05 2.12042e-05 -8.63761e-05 0.0001429819 0.1235297777 -0.0234957553
220298680.0 -0.7677197587 0.3589499835 -0.0001322451 0.0001450285 0.0001652678 -5.2703e-06 0.1228398873 -0.0264388977
225298650.0 -0.7642974011 0.3665877698 0.0003570084 0.00027779 3.9676e-06 1.616e-06 0.1222482162 -0.0285979531
230298620.0 -0.7602882378 0.3750239571 -0.0001698747 0.0001825047 -3.55919e-05 6.07942e-05 0.1218136705 -0.0313606084
235298590.0 -0.7562065595 0.3833864715 -1.96663e-05 0.0001416243 0.0002071215 2.3078e-06 0.1210824012 -0.0337454772
240298560.0 -0.752623113 0.391280263 -9.54869e-05 8.51863e-05 -6.2632e-05 0.0001689664 0.1202723651 -0.0361301696
245298530.0 -0.7491440218 0.398705098 0.000232934 7.73774e-05 -0.0001853037 5.41755e-05 0.1198252778 -0.0383380646
250298500.0 -0.7443824313 0.4062226505 9.33049e-05 -4.52438e-05 7.09701e-05 -0.0004067749 0.1186055586 -0.0407292757
255298470.0 -0.7399195925 0.4141251254 0.0002057628 -1.05819e-05 8.7696e-06 0.0002340968 0.1177593821 -0.0430785079
260298440.0 -0.7357856168 0.4211675692 -0.0001038837 9.8114e-06 0.0001209704 -7.0628e-06 0.1174219566 -0.0453208401
265298410.0 -0.7312946754 0.429520988 9.7447e-05 -3.83595e-05 3.7567e-05 0.000326424 0.116236978 -0.0471426785
270298380.0 -0.7271965242 0.4369283455 0.0001628624 3.23796e-05 -0.0002062773 0.0002894959 0.115681662 -0.0492495024
275298350.0 -0.7222718017 0.4443764782 0.000109644 8.58017e-05 0.0002007067 -0.000106431 0.1149926481 -0.0510756226
280298320.0 -0.7170857598 0.4522502957 0.0001252236 0.0001365359 0.0001028052 -7.2555e-06 0.1141385734 -0.0533555134
285298290.0 -0.7130021217 0.4597915381 0.0001409058 0.0001690533 -5.26301e-05 -9.90367e-05 0.1131759912 -0.0557705277
290298260.0 -0.7077719189 0.4675427474 -7.8141e-06 0.0001904564 1.8918e-06 4.45931e-05 0.1121409975 -0.0573079772
295298230.0 -0.7031459177 0.4742419598 -2.581e-07 -8.93691e-05 -2.95053e-05 0.0001013494 0.1113882467 -0.0595498292
300298200.0 -0.698078463 0.4813152707 8.27309e-05 -2.20902e-05 0.0001952302 0.0003443072 0.1100615405 -0.0609905422
305298170.0 -0.692707165 0.4879701837 0.0001464855 8.76396e-05 9.94647e-05 -2.47138e-05 0.1096490327 -0.0637738755
310298140.0 -0.6877155385 0.4958437214 0.0002555031 0.0001255224 2.08583e-05 0.0002647156 0.1082160602 -0.065251631
315298110.0 -0.6824812136 0.5033163156 -1.02576e-05 0.000195104 0.0001085836 -1.81501e-05 0.1072363949 -0.0671985016
320298080.0 -0.6774044663 0.5103964054 -6.09489e-05 -1.07353e-05 7.69507e-05 0.0001105662 0.1061377963 -0.0691879216
325298050.0 -0.6720493212 0.517090444 9.30429e-05 -5.75178e-05 3.55049e-05 0.0001380344 0.1044257397 -0.0711977506
330298020.0 -0.6663432574 0.5239938953 5.37146e-05 9.2879e-05 -2.8799e-05 -3.95e-08 0.1026464804 -0.072227994
335297990.0 -0.6609428386 0.5303623845 7.85785e-05 0.0001537582 -0.0001021509 0.0001292288 0.1012903516 -0.073465314
340297960.0 -0.6563667329 0.537710399 7.443e-07 0.0002794915 8.92228e-05 0.000155932 0.1004052975 -0.0751650647
345297930.0 -0.6503076272 0.5437355199 7.2769e-06 0.0002059431 5.0142e-06 5.49812e-05 0.0985191253 -0.0768380865
350297900.0 -0.6446606709 0.5507812501 8.9066e-05 0.0001527628 7.51627e-05 6.03772e-05 0.0973965404 -0.0774677278
355297870.0 -0.6381127502 0.5578912737 0.0001030016 0.0002106948 -3.02182e-05 -9.38014e-05 0.0957247352 -0.0790697965
360297840.0 -0.6323627072 0.5635824309 5.12908e-05 -9.11162e-05 0.0001286164 0.0002430499 0.0945853648 -0.0803873074
365297810.0 -0.6272717861 0.5701056382 0.0002157597 8.3601e-06 0.0002351289 4.95266e-05 0.0931074935 -0.081780172
370297780.0 -0.6213374886 0.5765529881 0.0002317526 -8.5892e-06 -0.0001233946 0.0001368912 0.0917109148 -0.0828065176
375297750.0 -0.6148707254 0.5833650386 0.0001859566 0.0001460517 0.000118009 5.44921e-05 0.0901452112 -0.0847323332
380297720.0 -0.6088616892 0.5895016662 8.77768e-05 0.0001043027 6.8752e-06 -9.2672e-05 0.088465875 -0.0857060457
385297690.0 -0.6032822717 0.5952149451 0.0001840947 0.0001306392 5.73615e-05 -5.8445e-05 0.0872558523 -0.0871666095
390297660.0 -0.5968515 0.6013168545 7.69099e-05 0.000368114 0.0001458467 0.0001557496 0.0855651413 -0.0877678238
395297630.0 -0.590693482 0.6078723675 5.13478e-05 0.0001509711 7.9416e-06 -5.90362e-05 0.0846372678 -0.0891431728
400297600.0 -0.5842070584 0.6134260677 -4.46509e-05 7.11088e-05 7.6608e-06 -6.27523e-05 0.0831952288 -0.0903077299
405297570.0 -0.5783006535 0.6194888368 0.0003858666 -7.19051e-05 0.0001078131 0.0001966849 0.0811039165 -0.0916102879
410297540.0 -0.5709952844 0.625257698 0.0003049237 8.02155e-05 0.0002626933 -7.8448e-05 0.0800301763 -0.0926619722
415297510.0 -0.564921794 0.6309718234 0.0001349397 -1.2128e-05 0.0001224726 3.69991e-05 0.0782369828 -0.0938919085
420297480.0 -0.5597056837 0.6365296357 -4.08937e-05 7.33476e-05 0.000166086 0.0001110937 0.0770445217 -0.0949759016
425297450.0 -0.5515380144 0.6426746346 0.0001745652 0.0002619976 0.0001526423 -0.0001091287 0.0752986284 -0.0959479703
430297420.0 -0.5458962707 0.6481800695 6.13961e-05 3.21878e-05 0.0002738528 -5.2364e-05 0.0735497742 -0.0972890272
435297390.0 -0.5391838189 0.6531719236 0.0001778059 -0.0001156136 0.0001658142 0.0002612573 0.072136328 -0.0981716551
440297360.0 -0.5319674259 0.6590658362 9.3472e-06 0.0001445977 8.12644e-05 0.0001190657 0.0708780448 -0.0991251131
445297330.0 -0.5254059986 0.6642062936 -0.0001914112 0.0001940662 0.0002108107 4.5443e-06 0.0690726517 -0.1004472699
450297300.0 -0.5182565966 0.6688342073 -0.0001695684 -4.97216e-05 0.0001947347 -0.0001093401 0.0680061857 -0.1008404228
455297270.0 -0.511772242 0.6742864825 -0.0001785136 7.06846e-05 4.24663e-05 -0.0002249179 0.0661258148 -0.1021939364
460297240.0 -0.5052226496 0.6795467124 3.63895e-05 2.51694e-05 0.0001265406 -7.3807e-06 0.0648027977 -0.1024972475
465297210.0 -0.4983645851 0.6851163895 9.0888e-05 0.0001737884 0.0004069863 -0.0001444034 0.063211381 -0.1035868082
470297180.0 -0.4908430028 0.6896994561 3.1982e-06 0.000301935 0.0002350891 -4.10576e-05 0.0617169796 -0.1042107529
475297150.0 -0.4834266458 0.6943188144 0.0001591652 0.0002859514 1.43172e-05 5.59295e-05 0.0604719817 -0.1053626681
480297120.0 -0.4767840051 0.6992753535 0.0003696049 0.0001183621 0.0001006749 0.0002783965 0.0587593546 -0.1058252929
485297090.0 -0.4690154898 0.7042128103 -3.75023e-05 -2.55661e-05 0.000241943 0.0001536232 0.0570820097 -0.1067427551
490297060.0 -0.4629004136 0.7083971588 -8.28697e-05 0.0002093462 0.0002411361 -0.0002263937 0.055573447 -0.1074735788
495297030.0 -0.4550426223 0.7128345658 0.0001828618 -2.8468e-05 6.87478e-05 -0.0002343021 0.0539360474 -0.1079656611
500297000.0 -0.4479782469 0.7179685498 6.12377e-05 0.0002738718 9.77578e-05 -1.36125e-05 0.0521264176 -0.108285641
505296970.0 -0.4405748112 0.7222552487 0.0001786661 3.70075e-05 -7.4317e-05 0.0001674662 0.0503283268 -0.1089554215
510296940.0 -0.4328972492 0.7266859466 0.0001996386 0.0002069555 7.32912e-05 5.14759e-05 0.0491792229 -0.1096949504
515296910.0 -0.4248954537 0.7304318772 -4.41929e-05 6.8988e-06 0.0002027384 -1.3234e-05 0.0473810073 -0.1102962726
520296880.0 -0.4179640481 0.7354024772 4.52798e-05 9.27831e-05 0.0003647926 0.0001263418 0.0457336161 -0.1108068897
525296850.0 -0.4106993009 0.7390792988 4.37568e-05 0.000189857 0.0001953889 3.0155e-05 0.0442955876 -0.1111924132
530296820.0 -0.4028745073 0.7434186153 8.00462e-05 -3.12989e-05 -5.66644e-05 0.0001846692 0.0424823516 -0.1117029465
535296790.0 -0.3963379057 0.7467735321 0.0001323429 9.97854e-05 -2.6968e-06 -7.4531e-05 0.040237761 -0.1122759497
540296760.0 -0.3885478304 0.7509692414 -8.92078e-05 -0.0001136028 0.0003545061 0.0001680835 0.0387730286 -0.1121883689
545296730.0 -0.3805856397 0.7552469287 0.0001537223 2.71368e-05 -2.5924e-05 8.98918e-05 0.0372054398 -0.1130117157
550296700.0 -0.373381414 0.7591148841 0.000180502 0.0003053564 3.45845e-05 -3.69895e-05 0.0352613314 -0.1133295894
555296670.0 -0.3649264294 0.7621356052 -5.56049e-05 -7.88579e-05 -1.21193e-05 -0.000164388 0.0340196758 -0.1133347626
560296640.0 -0.3576602538 0.7663527514 0.0001339283 5.44269e-05 0.0001726029 1.36074e-05 0.0324596327 -0.1137464783
565296610.0 -0.3500054432 0.7694949171 8.7629e-06 -9.41066e-05 -5.36086e-05 -0.0001205162 0.0306124416 -0.1145737791
570296580.0 -0.3427435601 0.7719288755 -4.95866e-05 -7.2171e-06 7.91707e-05 -0.0001792993 0.0285616641 -0.1146292895
575296550.0 -0.3346673159 0.7765772819 0.0001003547 0.0001468758 3.25364e-05 -6.61846e-05 0.0268810883 -0.1147642813
580296520.0 -0.3262744168 0.7795045283 -4.3736e-05 -0.0001989503 0.000279814 -0.0001079289 0.025194456 -0.1151799172
585296490.0 -0.3193316026 0.7819978571 0.0003222538 7.1998e-06 0.0001005453 0.0001708318 0.0235820881 -0.1156254371
590296460.0 -0.310343196 0.7858619901 0.0001286499 -0.0002220861 -0.0001097806 -5.3127e-06 0.0215825243 -0.1155587469
595296430.0 -0.3030626431 0.7877611111 -2.20364e-05 0.0001234629 0.0001751917 -8.91919e-05 0.0199892134 -0.1160265571
600296400.0 -0.2948216353 0.7918975239 0.0001447853 1.17346e-05 0.0003608633 0.0001337641 0.0181897392 -0.1164066571
605296370.0 -0.2876253122 0.7945058707 0.0001092808 0.0001183572 1.78202e-05 -4.86928e-05 0.0167795621 -0.1165864587
610296340.0 -0.2791053926 0.7971624062 0.0001919471 1.29913e-05 0.0001192641 0.0001498895 0.0152040749 -0.116577591
615296310.0 -0.2706854517 0.7998947721 -3.55528e-05 0.0001145768 -5.80153e-05 -6.32132e-05 0.0136215264 -0.1168879207
620296280.0 -0.2629993628 0.8023854739 0.0001279628 0.0001600436 0.0001269203 -5.2597e-05 0.0118436452 -0.1165236505
625296250.0 -0.255081601 0.8054636339 8.49479e-05 -3.36797e-05 0.0001339114 -7.8e-05 0.0105503657 -0.1170130359
630296220.0 -0.2465832774 0.8076323783 -4.81625e-05 0.0001527616 0.0002681522 0.0001710038 0.0083839513 -0.1165936296
635296190.0 -0.2389382987 0.8103604743 -1.63144e-05 -4.07284e-05 0.0001431951 6.35232e-05 0.0070424104 -0.1168577484
640296160.0 -0.2315075384 0.8124325096 -4.45115e-05 2.32837e-05 0.0002005543 0.000256538 0.0052601701 -0.1168912891
645296130.0 -0.2226364764 0.8150220586 0.0001079746 0.0001675898 0.0002936956 -7.85186e-05 0.0038301306 -0.1165300868
650296100.0 -0.2143384067 0.8167025569 0.000179391 -9.26308e-05 9.6168e-06 8.6677e-06 0.0020468278 -0.1169122179
655296070.0 -0.2065296984 0.8189474653 0.0002031683 -1.23069e-05 -3.9858e-06 -0.0002322561 0.0005736974 -0.1163703273
660296040.0 -0.1984407483 0.8205359755 7.91429e-05 -0.0002333529 3.17528e-05 2.50607e-05 -0.0009232561 -0.116320896
665296010.0 -0.1896561737 0.8221955706 0.0002841553 7.95096e-05 -7.10603e-05 -1.0384e-05 -0.0028184782 -0.1161485919
670295980.0 -0.182376434 0.8244996934 2.61988e-05 4.13953e-05 -6.43917e-05 9.4089e-05 -0.0046505206 -0.1159295919
675295950.0 -0.1733838289 0.8262066936 1.08434e-05 -9.04794e-05 0.0002594161 7.64124e-05 -0.0065131079 -0.115495172
680295920.0 -0.1651059457 0.8283373828 6.02856e-05 8.38052e-05 -5.4327e-06 -0.0001721951 -0.0077354734 -0.11535512
685295890.0 -0.1567142035 0.8302217598 3.39812e-05 -0.0002514546 0.0002453183 -5.58042e-05 -0.0095068491 -0.1149540228
690295860.0 -0.1489954875 0.8305778426 7.40291e-05 -2.25078e-05 0.0001164167 4.07733e-05 -0.0111196878 -0.1144499096
695295830.0 -0.1407401113 0.8321956366 0.0002246316 1.2899e-05 0.0004020174 0.000122679 -0.0127818605 -0.1144396389
700295800.0 -0.1324037459 0.8338543934 0.0002143234 0.0002199947 -1.34562e-05 0.0001821839 -0.0144760506 -0.1137668122
705295770.0 -0.1246352305 0.8353724837 6.14282e-05 0.0003234276 1.13762e-05 0.0003044144 -0.0163233717 -0.1130920587
710295740.0 -0.11556484 0.8365275204 -0.00016556 -6.92016e-05 6.93008e-05 6.62657e-05 -0.0182271123 -0.1128636385
715295710.0 -0.1071895666 0.8370573199 0.0003174383 -0.0001851658 0.000133188 -0.0002441332 -0.0200262997 -0.1128394778
720295680.0 -0.0995251194 0.8389385555 0.0002238038 0.000109387 0.000261776 6.593e-07 -0.0212758245 -0.1125621164
725295650.0 -0.090833463 0.8394208616 -1.79972e-05 0.0002291596 6.0797e-06 -6.6238e-05 -0.0229855183 -0.1118999713
730295620.0 -0.0825740061 0.8407601164 -2.09905e-05 -0.0001069685 -8.8495e-05 8.19315e-05 -0.0250800266 -0.1113101315
735295590.0 -0.0743791357 0.8414178074 5.309e-05 4.54138e-05 0.0001280815 3.33194e-05 -0.0265325206 -0.1110287417
740295560.0 -0.0659949371 0.8424813616 0.0001132824 -9.94139e-05 0.0001093448 -0.0001056808 -0.0277842146 -0.1105315501
745295530.0 -0.0578957931 0.8427685428 0.0001460331 -5.17555e-05 0.0003498936 -0.0001034124 -0.0296430276 -0.1102942436
750295500.0 -0.0492322928 0.8425781382 -2.48164e-05 4.48488e-05 3.71548e-05 2.67311e-05 -0.0311177865 -0.1096444843
755295470.0 -0.0412243904 0.8435591391 0.0001269279 -7.77239e-05 0.0003043033 -0.0001183117 -0.0327606946 -0.1093047107
760295440.0 -0.0328102137 0.8433469738 8.40347e-05 -3.68117e-05 -5.34267e-05 3.51948e-05 -0.0342128944 -0.1089080304
765295410.0 -0.0244665525 0.8436716995 0.0001912577 -0.0004326902 0.000222461 6.30886e-05 -0.0358385537 -0.1079427981
770295380.0 -0.0167030558 0.8443305657 4.20331e-05 -0.0003036017 0.000111732 7.27452e-05 -0.0376382958 -0.1075252842
775295350.0 -0.0078264327 0.8445522742 5.67682e-05 -4.89189e-05 0.0003003978 9.41933e-05 -0.0393889004 -0.1065895535
780295320.0 0.0005446905 0.8444402505 9.57716e-05 -0.0001245601 0.0001447626 -0.0001048228 -0.040563599 -0.1064220996
785295290.0 0.0088116528 0.843480898 0.0002857905 7.55633e-05 -2.16606e-05 -0.000300701 -0.0418293472 -0.105713132
790295260.0 0.0178223251 0.8438658521 0.0003771874 -9.47236e-05 0.0003027198 -0.0001575046 -0.043292121 -0.1050016587
795295230.0 0.0252129385 0.8438596935 0.0001219655 -9.0544e-05 -0.0001385419 -6.98891e-05 -0.0448204894 -0.1042833799
800295200.0 0.0338328677 0.843142877 0.0001082923 -0.0002320474 8.4696e-06 0.0001215408 -0.0464602864 -0.1034379672
805295170.0 0.0423832454 0.8431562408 -0.0001724551 -0.0001779972 7.24125e-05 -0.0001145822 -0.0479774951 -0.1028629332
810295140.0 0.0505744298 0.8423462914 0.0002536412 -0.000178209 0.0001482627 -0.0001248073 -0.0487814618 -0.1020122769
815295110.0 0.0590986195 0.8415837204 0.0002334659 9.923e-07 4.14736e-05 2.50667e-05 -0.0507044939 -0.1014254251
820295080.0 0.0672497779 0.8412989439 0.000186006 -8.20125e-05 -6.93466e-05 4.85566e-05 -0.0520342052 -0.1004948314
825295050.0 0.076315682 0.8404323927 0.0003599195 -4.00088e-05 -8.66628e-05 3.0223e-05 -0.0535894682 -0.099657127
830295020.0 0.0840237327 0.8399068568 -5.70241e-05 -0.0001656529 -2.57509e-05 -6.91936e-05 -0.0542896378 -0.0984289222
835294990.0 0.0916654464 0.8393335763 0.000116228 -0.0001650297 0.0002859755 -0.0001221725 -0.0562927803 -0.0975542501
840294960.0 0.1000364914 0.8383697025 -4.42284e-05 -0.0001320685 0.0002696974 0.0001228916 -0.0573964538 -0.096856967
845294930.0 0.1085091308 0.8370660471 0.0001327558 -0.0001189221 0.0001579415 -6.5423e-05 -0.0589727181 -0.0959039
850294900.0 0.1165489906 0.8362307303 0.0002694106 0.0002075721 0.0002432944 0.0001483045 -0.0605272902 -0.0945480177
