!Created with skrf (http://scikit-rf.org).
# Hz S RI R 50.0 
!freq ReS11 ImS11 ReS21 ImS21 ReS12 ImS12 ReS22 ImS22
300000.0 -0.2335621876 -0.1321692857 0.4679914129 0.0859253068 0.4689168964 0.0861641391 -0.2360515979 -0.1318208662
5299970.0 -0.2418237009 0.0050416331 0.4752126882 0.0060628095 0.4754339332 0.0063925871 -0.2444915323 0.00459878
10299940.0 -0.2384863793 0.0188381711 0.4772316258 0.0070836816 0.4771806308 0.0073784349 -0.2407741088 0.0170751455
15299910.0 -0.2335447977 0.0287362409 0.4806087727 0.0078562462 0.4810050783 0.0079932849 -0.2367112852 0.0265158111
20299880.0 -0.2286538933 0.0370276657 0.485532631 0.0082490327 0.4855994864 0.0084112381 -0.2321293446 0.0339137303
25299850.0 -0.2225077264 0.0435834373 0.4907022166 0.0078601593 0.4910896345 0.0068968882 -0.2271410027 0.039995772
30299820.0 -0.2172718471 0.0489780292 0.4959508302 0.0049828525 0.4961061149 0.0047461076 -0.221768923 0.0449492135
35299790.0 -0.2113122614 0.0530641131 0.5010140999 0.0017984321 0.5013708322 0.0016897141 -0.2169106332 0.0492395088
40299760.0 -0.2062147613 0.0560644221 0.506339055 -0.002214989 0.5066519426 -0.0022299702 -0.2117754243 0.0521611231
45299730.0 -0.200970093 0.058728079 0.5111275675 -0.0066490774 0.5112873839 -0.0069185311 -0.2069418235 0.0546703357
50299700.0 -0.195953595 0.0606968235 0.5153472181 -0.0124543067 0.515460426 -0.0125435755 -0.2026270848 0.0572013206
55299670.0 -0.1917612331 0.0624784651 0.5189175155 -0.0183309123 0.5188081909 -0.018399109 -0.1991255 0.058511399
60299640.0 -0.1879284169 0.0639974 0.5222297642 -0.0245477942 0.5227607864 -0.0244872875 -0.1953514218 0.0597910955
65299610.0 -0.1842688362 0.0649771915 0.5253730545 -0.0308390675 0.5255528127 -0.0311662123 -0.192072257 0.0610225105
70299580.0 -0.1808334687 0.0656346203 0.5272715584 -0.0371338559 0.5275281495 -0.0376353375 -0.1891263028 0.0617833022
75299550.0 -0.1779314011 0.0668736288 0.5296531266 -0.0447733372 0.5296634147 -0.044502654 -0.186158574 0.0627467106
80299520.0 -0.1751778478 0.0678150989 0.5314634422 -0.0512915557 0.5318495623 -0.0513355119 -0.1839004726 0.0634213326
85299490.0 -0.1725388151 0.0683015601 0.5326452847 -0.0581884342 0.5330410966 -0.0579023262 -0.181610719 0.0640410552
90299460.0 -0.1702074759 0.0692026676 0.5336380568 -0.0654209613 0.5334806829 -0.0650467433 -0.1793088077 0.0648342265
95299430.0 -0.1682512402 0.0699113252 0.5346416594 -0.0720095544 0.534968832 -0.0722116715 -0.1777737389 0.0657060278
100299400.0 -0.166085195 0.0701530957 0.5346572187 -0.0785950044 0.5351490136 -0.0791925648 -0.1759646028 0.0663199804
105299370.0 -0.1642801025 0.0710391255 0.5353576127 -0.0856595048 0.535645566 -0.0857027341 -0.1738709076 0.0666688097
110299340.0 -0.162222118 0.0714856142 0.5352998226 -0.0923596275 0.5357862241 -0.0921442028 -0.1728341428 0.0672712234
115299310.0 -0.1608440263 0.0725392471 0.5357078332 -0.0993755139 0.5355185365 -0.0992602585 -0.171301822 0.0683623519
120299280.0 -0.159468743 0.0732009151 0.5354433021 -0.1064021528 0.5350650887 -0.1066223432 -0.1700266489 0.0685371706
125299250.0 -0.1579475261 0.0738427502 0.5348274435 -0.1131016783 0.5346906966 -0.1129347515 -0.1688243208 0.0697587984
130299220.0 -0.1566617402 0.074587673 0.5343487539 -0.1198133441 0.5341256822 -0.1199465702 -0.1675433386 0.070458358
135299190.0 -0.1555760841 0.0759981328 0.534004204 -0.1262091056 0.5341204618 -0.1265951587 -0.1669017574 0.0710058642
140299160.0 -0.1542653349 0.0768894542 0.5331908907 -0.132996805 0.5330425345 -0.1326324167 -0.1662025739 0.0718485735
145299130.0 -0.1533855078 0.0780872748 0.5319946998 -0.1393846671 0.5317634412 -0.1394102508 -0.1649762918 0.0727958187
150299100.0 -0.1518356825 0.0788445539 0.530572366 -0.1458985975 0.5308314255 -0.1462554353 -0.1641365788 0.0738993629
155299070.0 -0.1510695535 0.0801155926 0.5293385795 -0.152279449 0.5296423099 -0.1526272906 -0.1632785049 0.0747795693
160299040.0 -0.1498476978 0.0812250264 0.527869212 -0.1587530157 0.5281853124 -0.1594485745 -0.1624556685 0.0760268162
165299010.0 -0.1487268736 0.0820714127 0.5266857188 -0.165018071 0.5266615588 -0.165639097 -0.1615617341 0.0765181784
170298980.0 -0.1480149666 0.0835823535 0.5249857999 -0.1719343706 0.5252411934 -0.1720943246 -0.1609252419 0.0777092472
175298950.0 -0.1468646762 0.0847892902 0.523576272 -0.1781196866 0.5239459095 -0.1783900378 -0.1602416178 0.0792184845
180298920.0 -0.1458414428 0.0859895281 0.5215390347 -0.1841330278 0.5219734118 -0.1847249444 -0.159489326 0.0801910379
185298890.0 -0.1451026926 0.0871914422 0.5200933463 -0.1904333598 0.5199027183 -0.190272492 -0.1583100637 0.0809424395
190298860.0 -0.1437414357 0.0886817199 0.517546651 -0.1967955355 0.5180752553 -0.1967994533 -0.1578596382 0.0821117185
195298830.0 -0.1430211096 0.0901261661 0.5164227004 -0.2028701355 0.5163548931 -0.2027389325 -0.1572161214 0.0835540562
200298800.0 -0.1419526593 0.0910868135 0.5139229805 -0.2093414381 0.5139805467 -0.2092345122 -0.1563172554 0.0844959778
205298770.0 -0.1414971609 0.0925334106 0.5115121069 -0.2148269055 0.5122659545 -0.2147650923 -0.1557568408 0.0860064825
210298740.0 -0.1401749378 0.0937997873 0.5095273928 -0.2211941493 0.509457184 -0.2211420346 -0.1552811412 0.0868745087
215298710.0 -0.1395101561 0.095504392 0.5069971705 -0.2262561422 0.5072491523 -0.2269964706 -0.1542632727 0.0882264104
220298680.0 -0.1383138745 0.0968844309 0.5046983775 -0.2329976624 0.5044135115 -0.232858637 -0.1532970395 0.0893723627
225298650.0 -0.1372102056 0.0983788004 0.5019450019 -0.2382838126 0.5024565077 -0.2380517086 -0.1528471686 0.0904372711
230298620.0 -0.1358900239 0.099841944 0.4997065853 -0.244832668 0.4999449926 -0.2444222689 -0.152218854 0.0917082483
235298590.0 -0.1356555362 0.1011353561 0.4970499953 -0.2502758659 0.4972714741 -0.2499818722 -0.1511318665 0.0933915338
240298560.0 -0.134270917 0.1026873625 0.4944918356 -0.2555322657 0.4944180687 -0.2556951386 -0.1505936973 0.0944293727
245298530.0 -0.1331210848 0.1037415649 0.4914032494 -0.2613358879 0.4919575758 -0.2618887269 -0.1495378044 0.096032958
250298500.0 -0.1322928371 0.1054019734 0.4889339796 -0.2670127838 0.4887353851 -0.2668082003 -0.1489066899 0.0971303707
255298470.0 -0.1309028031 0.107269547 0.4861035868 -0.2722193253 0.4863779081 -0.2726821991 -0.1480372735 0.0987519248
260298440.0 -0.1300950188 0.1084299998 0.4833293347 -0.2776376746 0.4831478415 -0.2780814693 -0.1475796719 0.0998685228
265298410.0 -0.1293335976 0.1100834519 0.4798646251 -0.2837964952 0.4796996646 -0.2839663527 -0.1457892809 0.1008005378
270298380.0 -0.1281468947 0.1112781363 0.4767494507 -0.2889020701 0.4769742414 -0.2889992464 -0.1453336923 0.102365886
275298350.0 -0.1269251827 0.1130738089 0.4732785794 -0.2940618808 0.4736268517 -0.2943963479 -0.1445232009 0.1040652582
280298320.0 -0.1261592778 0.1142170766 0.4706875261 -0.2994207027 0.4711229014 -0.2999354668 -0.143405656 0.1054896774
285298290.0 -0.1249075275 0.1158099935 0.4673902638 -0.3050545251 0.4677069659 -0.3048019283 -0.1428406919 0.1067048593
290298260.0 -0.123450666 0.117350123 0.4643799088 -0.3104047177 0.4641121124 -0.3105284005 -0.1416527875 0.1081767817
295298230.0 -0.1226432854 0.1185852374 0.4606394581 -0.3161999056 0.460805831 -0.3161357944 -0.1409249145 0.1093232301
300298200.0 -0.121108607 0.1201916777 0.4574406659 -0.3212181597 0.4574566658 -0.3210080916 -0.139711882 0.1106248601
305298170.0 -0.1200686823 0.1209762579 0.4537584932 -0.3265325864 0.4543311847 -0.3264621528 -0.1384765505 0.111604837
310298140.0 -0.1184553717 0.1227276784 0.45021405 -0.3314620663 0.4509802546 -0.3312737094 -0.1377302621 0.1128590116
315298110.0 -0.1176582821 0.1236969201 0.4469371302 -0.3373888219 0.44714744 -0.3366875164 -0.1365434919 0.1144757796
320298080.0 -0.1162474329 0.1249758747 0.4426759979 -0.3421214623 0.4435165431 -0.3421332191 -0.1358816784 0.1155570389
325298050.0 -0.1155973546 0.1259656831 0.4391181318 -0.3465780876 0.4397202595 -0.3466301388 -0.1346541475 0.1165657464
330298020.0 -0.1148709905 0.127822563 0.4351397418 -0.3522900741 0.4356934888 -0.3516328946 -0.1341033121 0.1177810461
335297990.0 -0.1136173293 0.1291675877 0.4313230863 -0.3566109665 0.4313251011 -0.3565241427 -0.1327779134 0.1192187331
340297960.0 -0.1123800996 0.1301849739 0.4269113895 -0.3611897832 0.4270676787 -0.361563854 -0.131893717 0.1209633949
345297930.0 -0.111145352 0.1317106838 0.4228667607 -0.3661343342 0.4232528146 -0.3660852286 -0.1310521055 0.1216871166
350297900.0 -0.1098315663 0.1330303246 0.4194547032 -0.3704890919 0.419637978 -0.3704964741 -0.1303145567 0.1234213948
355297870.0 -0.1089064952 0.1343163572 0.4151461631 -0.3748976884 0.4154368829 -0.3750391059 -0.1289444702 0.1246776958
360297840.0 -0.1074946997 0.1356615194 0.4111255442 -0.379670386 0.4112512542 -0.3799151341 -0.1279859274 0.1259628209
365297810.0 -0.106235092 0.1371720297 0.4066317662 -0.3841109952 0.4068159308 -0.3844733508 -0.1269997406 0.1273659079
370297780.0 -0.1047081895 0.1384616903 0.4021582765 -0.3889278501 0.4022036168 -0.3888967035 -0.1255918872 0.1286786321
375297750.0 -0.1032522423 0.1394919917 0.3982748702 -0.39309508 0.3981597907 -0.3931795224 -0.1244734087 0.1300656527
380297720.0 -0.1022771701 0.1411018541 0.394341895 -0.3978263747 0.3937992332 -0.3977096114 -0.1230748777 0.1316060889
385297690.0 -0.1008962794 0.142113919 0.3892184808 -0.4016550319 0.3897682138 -0.4024955646 -0.1220067112 0.1333421274
390297660.0 -0.0988778579 0.1430915388 0.3844449438 -0.4055784708 0.3850290347 -0.4058360107 -0.1203590296 0.1337313743
395297630.0 -0.0974142891 0.1445214211 0.3806631499 -0.4097781606 0.3806379804 -0.409840903 -0.1196749167 0.1350762708
400297600.0 -0.0963756342 0.1458733818 0.3763238076 -0.4147475264 0.3761818439 -0.4147433864 -0.1180106225 0.1370175942
405297570.0 -0.0947054267 0.1467082243 0.3714654816 -0.4182253469 0.3715264943 -0.418398129 -0.1167546593 0.1383364708
410297540.0 -0.0931850438 0.1482021861 0.3669254571 -0.4227170907 0.3672555193 -0.4227163849 -0.1156672088 0.1398710157
415297510.0 -0.0918576398 0.1492786287 0.3620492691 -0.4263009975 0.3628375194 -0.4267786925 -0.1139199202 0.1407060439
420297480.0 -0.090082753 0.1503061527 0.3576106751 -0.4305338019 0.3577136125 -0.4307922935 -0.1124174741 0.1422496621
425297450.0 -0.0881929098 0.1512670639 0.3530312396 -0.434354166 0.3532350126 -0.4342375772 -0.1115003965 0.1429635395
430297420.0 -0.0868491061 0.1524029488 0.3486141031 -0.4384797477 0.3486754968 -0.4377525777 -0.1097869762 0.144234793
435297390.0 -0.085039393 0.1531692194 0.3430653497 -0.442696806 0.3434412558 -0.4420381644 -0.1090947659 0.1457261349
440297360.0 -0.0834058839 0.1542153403 0.3380996898 -0.4458230796 0.3386830861 -0.4456175381 -0.1075751443 0.146936325
445297330.0 -0.0818536682 0.1552061269 0.333840525 -0.44905033 0.3332732303 -0.4496843898 -0.1059428171 0.1482143317
450297300.0 -0.0801093924 0.1562583214 0.3289744755 -0.4524853953 0.3291442913 -0.4529749058 -0.1043796958 0.1495792082
455297270.0 -0.0785436939 0.1573318074 0.3238573172 -0.456452024 0.3239778244 -0.4566679516 -0.1030390614 0.150433291
460297240.0 -0.0763549759 0.1584139438 0.3190239357 -0.4603488524 0.319083029 -0.4603721531 -0.1015163628 0.1514012436
465297210.0 -0.0749372934 0.1591066553 0.3133934555 -0.4635464029 0.3133378428 -0.4639275236 -0.099597237 0.1529528285
470297180.0 -0.0730729881 0.1601863967 0.3086040905 -0.4672922164 0.308779534 -0.4668524839 -0.0982450289 0.1539803286
475297150.0 -0.0716424424 0.1612672128 0.3034713232 -0.4704514442 0.3037549402 -0.4704866827 -0.0967678387 0.1551297096
480297120.0 -0.0693044178 0.162324983 0.2983040423 -0.4736335249 0.2986141464 -0.4737966029 -0.0956660491 0.1561163328
485297090.0 -0.0678583486 0.1627298981 0.2931604515 -0.4770980104 0.2933674695 -0.4765435623 -0.0940937991 0.1572691577
490297060.0 -0.0652630281 0.163950033 0.2872545732 -0.4803856156 0.2881510523 -0.4801736356 -0.0925789219 0.1581988658
495297030.0 -0.0639629117 0.1642629126 0.2828763349 -0.4831903509 0.2828848669 -0.4830771615 -0.0905057528 0.1590765775
500297000.0 -0.0620388871 0.1654879783 0.2776991285 -0.4860453697 0.2773165225 -0.4861609711 -0.0890528918 0.1603227703
505296970.0 -0.0598603303 0.1663885747 0.2722168049 -0.4893282244 0.2724149211 -0.4887118061 -0.087540688 0.1604964889
510296940.0 -0.0581999077 0.1669857705 0.2666063278 -0.4924486396 0.2669498059 -0.4921769397 -0.0857866215 0.1622177597
515296910.0 -0.0563517516 0.1681109063 0.2610783474 -0.494846686 0.2611355357 -0.4946569662 -0.0844062826 0.1625476828
520296880.0 -0.054134063 0.1687259816 0.255945671 -0.4978866059 0.2557588211 -0.4976867304 -0.0823437314 0.1644422672
525296850.0 -0.0525461009 0.1692250412 0.2506085226 -0.5006382312 0.2500820989 -0.5002340901 -0.0807723698 0.1651351023
530296820.0 -0.0507354607 0.1698885623 0.2449728788 -0.5030651557 0.2454305038 -0.5031385452 -0.079275597 0.1656366657
535296790.0 -0.0479694674 0.1707276884 0.2394815326 -0.505690073 0.2396219499 -0.5054587805 -0.0772113078 0.1668806451
540296760.0 -0.0461156352 0.171712013 0.2338594944 -0.508256918 0.2338756456 -0.5080736945 -0.0758751805 0.1674913118
545296730.0 -0.0448511405 0.1724885711 0.2284036192 -0.5104490712 0.2284973648 -0.5104334645 -0.0741560681 0.1684641504
550296700.0 -0.0420900183 0.1730428298 0.2226081023 -0.5130495459 0.2227314379 -0.5130143064 -0.0722894552 0.1691837652
555296670.0 -0.040479113 0.1735020015 0.2172028175 -0.5157206834 0.217399758 -0.5151410762 -0.0709182191 0.169687221
560296640.0 -0.0378432816 0.1738299417 0.2112420589 -0.5173962214 0.2120923166 -0.5177795574 -0.0690670563 0.1708775549
565296610.0 -0.0365195559 0.1748159078 0.2061295055 -0.5202764215 0.2063909834 -0.5193887627 -0.0672088817 0.1716815466
570296580.0 -0.0344377529 0.1752968127 0.2004101388 -0.5220033988 0.20018077 -0.5221331383 -0.0658110341 0.1724407716
575296550.0 -0.0322526749 0.1757913891 0.1944057167 -0.5243923583 0.194540308 -0.5244284006 -0.0642048697 0.1732194234
580296520.0 -0.0301854684 0.1764153221 0.1891245507 -0.5264695516 0.1888533392 -0.5264974597 -0.0624964729 0.1738772175
585296490.0 -0.0281012486 0.1771518218 0.1837174711 -0.5284068303 0.1828317658 -0.528544425 -0.060268753 0.1747418136
590296460.0 -0.0253291966 0.177728024 0.1776492611 -0.5303908049 0.1775267636 -0.5303816866 -0.0589479828 0.1754710954
595296430.0 -0.023688972 0.178016513 0.1713474577 -0.5322562013 0.1711688456 -0.532423783 -0.0569065152 0.1762324455
600296400.0 -0.021631399 0.1784165685 0.1654265157 -0.5337488114 0.1657701961 -0.5339668125 -0.0554262462 0.1765608191
605296370.0 -0.0198671453 0.1790868126 0.1607008201 -0.5354197253 0.1596508926 -0.5356676928 -0.0536205163 0.1772346082
610296340.0 -0.0174232091 0.1797736285 0.1544198586 -0.5370191745 0.1545803646 -0.5371572389 -0.0518558556 0.1781772502
615296310.0 -0.0151915695 0.1797626546 0.1487129409 -0.5388893318 0.1479913675 -0.5390610302 -0.0499793173 0.1789058258
620296280.0 -0.0136674284 0.1807777943 0.1426011033 -0.5406469694 0.1423103804 -0.5401810907 -0.0485367603 0.1795486349
625296250.0 -0.0116650015 0.1809771761 0.136686418 -0.5421873248 0.1364541668 -0.5420064504 -0.0468178501 0.1799975152
630296220.0 -0.0093547386 0.1815443264 0.1306230284 -0.5435242078 0.1304518017 -0.5432895584 -0.0448269438 0.1808058231
635296190.0 -0.0074230195 0.1817739233 0.1247534057 -0.544483103 0.1252128448 -0.5445155128 -0.0432557425 0.1810019952
640296160.0 -0.0053250762 0.1819638699 0.1188195244 -0.5462005949 0.1187347986 -0.5460604605 -0.0416786336 0.1817843261
645296130.0 -0.0027256999 0.182453068 0.1131373828 -0.5471182543 0.113331728 -0.547121218 -0.0400780147 0.1817542667
650296100.0 -0.0011795118 0.1827400661 0.1071641426 -0.5485569643 0.1070577817 -0.5484765337 -0.0374578572 0.1825977537
655296070.0 0.0009233179 0.1829082344 0.1010407233 -0.5498416507 0.1010290635 -0.5492734328 -0.036376513 0.1832634386
660296040.0 0.0029522239 0.1833428291 0.0952043029 -0.5504795053 0.0951858795 -0.5506418121 -0.0344273623 0.1832921307
665296010.0 0.0049908972 0.1835700228 0.0888025239 -0.5512662785 0.0890682553 -0.5513623974 -0.0324217331 0.1841646587
670295980.0 0.0068477631 0.1835902253 0.0833803624 -0.5521700462 0.0833883822 -0.5523480653 -0.0312006596 0.1841084265
675295950.0 0.0089542288 0.1838197515 0.0773819414 -0.5530144456 0.0777158679 -0.553118461 -0.0289598177 0.1850829251
680295920.0 0.0108065866 0.184156408 0.0713036259 -0.5538650146 0.0716978326 -0.5536192498 -0.0269236936 0.1851308646
685295890.0 0.0134204389 0.1843950722 0.0651567991 -0.5548060471 0.0652296234 -0.5547741216 -0.0252184702 0.1859012555
690295860.0 0.0152038909 0.1845180144 0.0593678823 -0.5552810286 0.0592836413 -0.5553163085 -0.0236683902 0.1861315973
695295830.0 0.0172997185 0.1846063616 0.0538186574 -0.5558864967 0.0531097665 -0.5559249493 -0.0218499976 0.1869186063
700295800.0 0.0194828919 0.1847538903 0.0478546714 -0.5561173944 0.0477057046 -0.5564618252 -0.0197824438 0.1872174659
705295770.0 0.0208624879 0.1846952308 0.0419044296 -0.5567965674 0.041146292 -0.5567949109 -0.0180948648 0.1875072101
710295740.0 0.0231393718 0.1846080378 0.0359612505 -0.5574214227 0.0354550755 -0.5575489738 -0.0160204013 0.1877047839
715295710.0 0.0252263736 0.1848143577 0.029864015 -0.5576210695 0.0295922855 -0.5574327102 -0.014468518 0.1876458047
720295680.0 0.0274937132 0.184650334 0.0234446114 -0.5575135418 0.023451885 -0.5579554777 -0.0123149679 0.1880356224
725295650.0 0.0289054933 0.184839324 0.0177024492 -0.5579316612 0.0173089033 -0.557749704 -0.0109372992 0.1890177633
730295620.0 0.0306230422 0.1846369271 0.0116507382 -0.557934072 0.01169655 -0.5573038801 -0.0091339788 0.1892805694
735295590.0 0.0329523529 0.1847470779 0.0057804528 -0.558161766 0.005606548 -0.5584250104 -0.0074183064 0.1891553156
740295560.0 0.0347893875 0.1843455952 1.55188e-05 -0.5580699632 -0.0003133252 -0.5583844778 -0.0054862829 0.1896307835
745295530.0 0.0369980376 0.1843776672 -0.0063346981 -0.5577579818 -0.0056524915 -0.5580262409 -0.0041538637 0.1897353701
750295500.0 0.0384788384 0.184424791 -0.0121638808 -0.5579544021 -0.0123830572 -0.5581924763 -0.0019452364 0.1898484417
755295470.0 0.0406565176 0.1839880672 -0.0182632097 -0.557727078 -0.0183399163 -0.5580826519 0.0003297167 0.190539648
760295440.0 0.0424567017 0.184422811 -0.0246796255 -0.5579412777 -0.0247050855 -0.5573000294 0.0020212807 0.1896871086
765295410.0 0.0448258093 0.1836682845 -0.0301866711 -0.5573146604 -0.0299050754 -0.557145627 0.0037575767 0.1900874477
770295380.0 0.0464693379 0.1835465997 -0.035841717 -0.5566426249 -0.036103686 -0.5572854227 0.0052938776 0.1906760154
775295350.0 0.048409194 0.1831596213 -0.0421103721 -0.5564498966 -0.042245062 -0.5560006707 0.0073435543 0.1905624041
780295320.0 0.0504911655 0.1829767786 -0.0479048986 -0.5553110716 -0.0479858512 -0.555954951 0.009445789 0.1906712455
785295290.0 0.05208348 0.1824044615 -0.0537157344 -0.5553791899 -0.0537597424 -0.5554357541 0.010830013 0.1909720356
790295260.0 0.0541417791 0.1820518335 -0.0597417584 -0.5550019944 -0.060328006 -0.5552083179 0.0125878038 0.1912986893
795295230.0 0.055991884 0.1814452864 -0.0659014216 -0.5539977072 -0.0662084326 -0.5544490161 0.0146693289 0.1904917997
800295200.0 0.0576542277 0.1815336712 -0.071580926 -0.5530839595 -0.071920191 -0.5533031598 0.0161444866 0.1907930744
805295170.0 0.0594894731 0.1810207925 -0.077691144 -0.5522103206 -0.077457425 -0.5527136752 0.0188030506 0.1909824466
810295140.0 0.0618085178 0.1805801795 -0.0837033411 -0.5512954216 -0.0837878001 -0.5515997094 0.0206207877 0.1909859031
815295110.0 0.0633215116 0.1799916225 -0.0895339208 -0.5506891481 -0.0891691389 -0.5505663303 0.0220224184 0.1909342977
820295080.0 0.0654976311 0.1795779521 -0.0950514851 -0.5492442269 -0.0953263048 -0.5497150734 0.0232620746 0.1914074791
825295050.0 0.0669938231 0.1786460614 -0.1008614866 -0.5484646778 -0.1014354011 -0.5486412494 0.0259130572 0.1912453296
830295020.0 0.069027803 0.1783111035 -0.1072072595 -0.5473420661 -0.1070846108 -0.5471599671 0.0275925675 0.1905516087
