!Created with skrf (http://scikit-rf.org).
# Hz S RI R 50.0 
!freq ReS11 ImS11 ReS21 ImS21 ReS12 ImS12 ReS22 ImS22
300000.0 -0.236434674 -0.1103042399 0.466317185 0.0716022266 0.4711388572 0.0733215281 -0.2368453355 -0.1131111166
5299970.0 -0.2408328802 0.0070546862 0.4751441523 0.0051146193 0.4752562981 0.0059160705 -0.2445934108 0.0054824419
10299940.0 -0.2371593637 0.0201212882 0.4769402851 0.0063507032 0.4772766622 0.0063007704 -0.2419188456 0.0175505946
15299910.0 -0.233077615 0.0297657633 0.4807214256 0.0078192072 0.4802709654 0.0077721889 -0.2374923384 0.0263979001
20299880.0 -0.2273903776 0.037876377 0.4852042638 0.0082279049 0.485416457 0.0080469337 -0.2328908085 0.0338413224
25299850.0 -0.2218551856 0.044437895 0.4904279909 0.0066877959 0.490407311 0.0070369765 -0.2278900971 0.0398072633
30299820.0 -0.2159947877 0.0494018237 0.4961141073 0.005208672 0.4960202693 0.0047880359 -0.2226319795 0.0448455177
35299790.0 -0.2101612849 0.0539527755 0.5017299166 0.0017085026 0.5014149784 0.0016506317 -0.2175708281 0.0488225935
40299760.0 -0.2045013316 0.0572963446 0.5060798651 -0.0023507053 0.5062252779 -0.0025706472 -0.2126893574 0.0521349135
45299730.0 -0.1995586502 0.0601514629 0.5111349634 -0.0072391326 0.510676095 -0.0072347964 -0.2080939594 0.0541325874
50299700.0 -0.1944990511 0.0619399683 0.5148640049 -0.0124816528 0.515148244 -0.0128198537 -0.203825577 0.0565226331
55299670.0 -0.1904859854 0.0638854438 0.5182380292 -0.0188258303 0.5189901234 -0.0188071046 -0.2001318489 0.0582073738
60299640.0 -0.1865863844 0.0648604758 0.5216377097 -0.0247843798 0.5215725016 -0.0247625242 -0.1960618836 0.0594481688
65299610.0 -0.1831308253 0.0663058694 0.5250736799 -0.0309620546 0.5251863968 -0.0309608589 -0.193173374 0.060487846
70299580.0 -0.1797675682 0.0670369629 0.5272069974 -0.0375874295 0.5273630809 -0.0377825392 -0.1900754131 0.0615245562
75299550.0 -0.1767017244 0.067842819 0.5293355901 -0.0443119483 0.5291530206 -0.0446006432 -0.1872435371 0.0622693426
80299520.0 -0.1740323834 0.068956668 0.5312582379 -0.05148514 0.5312515827 -0.0513785195 -0.184746298 0.0628340069
85299490.0 -0.1712155305 0.0693161681 0.5322481905 -0.0582571966 0.5322114962 -0.0584928242 -0.1826696449 0.063465304
90299460.0 -0.1693454491 0.0701222008 0.533753063 -0.0650193565 0.5336746945 -0.0653391081 -0.1801640754 0.0643088546
95299430.0 -0.1671823812 0.0711243062 0.5345715972 -0.072174895 0.5344524394 -0.0722762627 -0.1784891353 0.0649173506
100299400.0 -0.165344341 0.071865171 0.5345283238 -0.079166339 0.5347654675 -0.0792956571 -0.1769986016 0.0657258777
105299370.0 -0.1632823849 0.0722445515 0.5346393027 -0.0854677236 0.5352273536 -0.0859170162 -0.1750793337 0.0665047777
110299340.0 -0.1619066567 0.0728104861 0.534971071 -0.0922930887 0.5348949138 -0.093007218 -0.1736188375 0.0669789672
115299310.0 -0.1603785362 0.0734148986 0.5348885923 -0.099219207 0.5351561368 -0.0992329572 -0.1722591275 0.0670612278
120299280.0 -0.1591588885 0.0742170072 0.5350272687 -0.1062666911 0.5351081967 -0.1065880386 -0.1712888223 0.0681404281
125299250.0 -0.1578451558 0.0751805687 0.5345963795 -0.1128087393 0.5344204972 -0.1134294251 -0.1695989033 0.0684331988
130299220.0 -0.1567235104 0.0760975406 0.5341207832 -0.1191292944 0.5336549811 -0.1202891418 -0.1688482339 0.0696210176
135299190.0 -0.1552011505 0.0765822135 0.5332061153 -0.1262998655 0.5330816788 -0.1264399183 -0.168142306 0.0703645122
140299160.0 -0.1542274492 0.0779741852 0.5324265818 -0.1329662245 0.5324892248 -0.1331863269 -0.1666935321 0.0710040729
145299130.0 -0.1530484562 0.0789608745 0.5317943148 -0.1398690191 0.5313091816 -0.1394786573 -0.1659610337 0.0717077703
150299100.0 -0.1521603443 0.0798235446 0.530323564 -0.1463280587 0.5304570169 -0.1459695481 -0.1650899056 0.0725180771
155299070.0 -0.1507712193 0.0815034408 0.5291407745 -0.1529077309 0.5292045559 -0.1529019726 -0.1643246202 0.0737816097
160299040.0 -0.1500567941 0.0821778607 0.5278535969 -0.1586020589 0.528114477 -0.1588291634 -0.1634852026 0.0745224489
165299010.0 -0.1492551118 0.0830562431 0.5267047163 -0.1656027504 0.5268503898 -0.1655922911 -0.1628390408 0.0754351561
170298980.0 -0.1484328327 0.0842035925 0.5239348674 -0.1717141199 0.5249119319 -0.1717814789 -0.1616634338 0.0765953057
175298950.0 -0.1472017001 0.0855683562 0.5236360627 -0.178048808 0.5235261275 -0.1780969992 -0.1610666767 0.077639785
180298920.0 -0.1462088065 0.0864975589 0.521674872 -0.1842075319 0.5217371854 -0.1842854231 -0.1603722942 0.0786484457
185298890.0 -0.1451699592 0.0878874741 0.5195042238 -0.1907670482 0.5197624978 -0.1907150593 -0.1597433786 0.0796001548
190298860.0 -0.1443571318 0.0890028858 0.5175757693 -0.1968160345 0.5178476017 -0.1967775236 -0.1582873893 0.0809949338
195298830.0 -0.1433696998 0.090169596 0.5157689808 -0.2025765915 0.5155949975 -0.2032741966 -0.1580082886 0.0819362633
200298800.0 -0.1426132381 0.0916331676 0.5138280034 -0.2084429659 0.5138057491 -0.2087418145 -0.1570231516 0.0831967508
205298770.0 -0.1416484003 0.0928906558 0.5118497925 -0.2150044983 0.5118031931 -0.215053116 -0.1563625742 0.0843278132
210298740.0 -0.1409631009 0.0941401657 0.5095719057 -0.220908805 0.5096250246 -0.2211857367 -0.1556819091 0.0855124334
215298710.0 -0.1400796455 0.0955309301 0.5073226936 -0.226664429 0.507089478 -0.2265638984 -0.1550284238 0.0867325266
220298680.0 -0.1389128358 0.0968693951 0.5045254348 -0.2327843273 0.5045895243 -0.2325738883 -0.1540355062 0.0881028515
225298650.0 -0.1375692366 0.0984517424 0.5017638278 -0.2383580572 0.5020320754 -0.23871961 -0.1534245083 0.0894044556
230298620.0 -0.1370479629 0.0998872469 0.4995675199 -0.2444288963 0.4996718668 -0.2443292404 -0.1523747169 0.0904581862
235298590.0 -0.1359507745 0.1009977604 0.4971130102 -0.2499601631 0.4969936901 -0.2504731614 -0.1518938062 0.0916221148
240298560.0 -0.1349781692 0.1027117184 0.4944623831 -0.2555408491 0.4942726167 -0.2553245903 -0.1509547207 0.0929847978
245298530.0 -0.1336552382 0.1037886187 0.4909000384 -0.2614957438 0.491457725 -0.2618037946 -0.1500639834 0.0946480583
250298500.0 -0.1330917178 0.1051499639 0.4884550513 -0.2667984777 0.4888708375 -0.2665675403 -0.149079275 0.0958936202
255298470.0 -0.1320641447 0.1066083875 0.4852720925 -0.2725301297 0.4856671101 -0.2724126743 -0.1481160974 0.0969198738
260298440.0 -0.1306808354 0.1078774926 0.4828665487 -0.2778454575 0.4829328249 -0.2785309417 -0.1467194184 0.0984092756
265298410.0 -0.1295435644 0.1098519592 0.4798701722 -0.2842328321 0.4795699332 -0.2838310248 -0.1465127636 0.0994833313
270298380.0 -0.1279731959 0.1109569749 0.4760135317 -0.2890336042 0.4767944125 -0.2893204155 -0.1455019103 0.1011959409
275298350.0 -0.127537657 0.1126211036 0.4739779351 -0.2950912799 0.4736810768 -0.2949671236 -0.1445438647 0.1024900026
280298320.0 -0.1262092107 0.114043276 0.470423395 -0.2998095168 0.4701220465 -0.2998979145 -0.1435177334 0.1041938773
285298290.0 -0.1251718117 0.1154796746 0.4671787644 -0.3052693258 0.4670763242 -0.3052792294 -0.1423921873 0.1052594474
290298260.0 -0.1236681041 0.1166919387 0.4638900274 -0.3103045843 0.4638273902 -0.3105740875 -0.141252758 0.1069141803
295298230.0 -0.1222594064 0.1181237292 0.4605537725 -0.316042271 0.4602531598 -0.3160946658 -0.1403858457 0.1080823966
300298200.0 -0.1209299919 0.1194862871 0.4569606114 -0.3209960944 0.4570113658 -0.3212745554 -0.1394861125 0.1093865649
305298170.0 -0.119718271 0.1205146108 0.4538723832 -0.3265919733 0.4537977822 -0.3265517825 -0.1380156913 0.1108531227
310298140.0 -0.1181913013 0.1217911248 0.4500292214 -0.3319116057 0.4504553769 -0.3320408187 -0.1368949691 0.1125376207
315298110.0 -0.117363519 0.1232237172 0.4467946592 -0.3367761135 0.4466004495 -0.337062666 -0.1357797532 0.1133664229
320298080.0 -0.1157303905 0.1245542039 0.4426691352 -0.3419632403 0.4428505911 -0.3420760484 -0.1349498874 0.1145860523
325298050.0 -0.1146723663 0.1256889992 0.4390961033 -0.3469345161 0.4390958361 -0.3472384713 -0.1339824665 0.1158318288
330298020.0 -0.1132987378 0.1268292011 0.4343299932 -0.3520309089 0.4342986289 -0.3522918762 -0.1330816468 0.1169167561
335297990.0 -0.1121986898 0.1281574989 0.4307463837 -0.3572130245 0.4304658217 -0.357025374 -0.1321732391 0.1183324721
340297960.0 -0.1114612191 0.1298524002 0.4267780536 -0.3617970454 0.4267337114 -0.3615057091 -0.1312319896 0.1198226134
345297930.0 -0.1101319357 0.1310884976 0.4225000404 -0.3657062124 0.4223097141 -0.3658903543 -0.1298603813 0.1211908021
350297900.0 -0.1082863156 0.1326429574 0.4182487335 -0.3705388223 0.4185113969 -0.3708799906 -0.1288362939 0.1228274133
355297870.0 -0.1072623168 0.1337584084 0.4138211558 -0.3753323927 0.4142025023 -0.375737943 -0.1278817252 0.1243243691
360297840.0 -0.1055623251 0.1351873082 0.409978769 -0.3802819118 0.4100045889 -0.3805623139 -0.1266989435 0.1257188947
365297810.0 -0.1040864474 0.1365081845 0.4057419256 -0.3844746049 0.4060039972 -0.3847979143 -0.1257207748 0.1274708703
370297780.0 -0.1023347857 0.137630273 0.4013880654 -0.3887515598 0.4016074115 -0.3893431184 -0.1243725485 0.1286344709
375297750.0 -0.1013664535 0.139158089 0.3980016529 -0.3934421577 0.3973402753 -0.3937141197 -0.1231398278 0.1301537604
380297720.0 -0.0996483546 0.1400641818 0.3928753243 -0.3973360917 0.3928741998 -0.3976088605 -0.1222386118 0.1317328611
385297690.0 -0.0981947778 0.1416664073 0.3885747505 -0.401659452 0.3884215562 -0.4018144173 -0.1205226487 0.1330399143
390297660.0 -0.0967811308 0.1425466086 0.3838977614 -0.40629092 0.3839775493 -0.406772455 -0.1192463572 0.1341181885
395297630.0 -0.0947451247 0.143903004 0.3799575926 -0.4103026243 0.3794441624 -0.4106289242 -0.1180304745 0.1359285787
400297600.0 -0.093410583 0.145412869 0.3750455734 -0.4147243254 0.3754066647 -0.4145844349 -0.1172044147 0.1367783596
405297570.0 -0.0916334256 0.1467219162 0.3706211501 -0.4190337611 0.3704191949 -0.4190338308 -0.115743876 0.1385919235
410297540.0 -0.0900636118 0.1475025422 0.3654520313 -0.4224835088 0.3655431198 -0.4228025942 -0.1143528596 0.1397290853
415297510.0 -0.0885461426 0.1490980641 0.361477858 -0.4267856613 0.361323204 -0.4269491697 -0.1134878861 0.1414474028
420297480.0 -0.0866862476 0.1496685403 0.3562035837 -0.430892537 0.3565592644 -0.4306949227 -0.1118086983 0.1418715742
425297450.0 -0.0847599358 0.1504732339 0.3518685667 -0.4345505225 0.3523741393 -0.4346893886 -0.1104791984 0.1440188699
430297420.0 -0.0836574841 0.1520208779 0.3470667897 -0.4385791773 0.3468645973 -0.4384373216 -0.1091759406 0.1445941205
435297390.0 -0.081689716 0.1531576203 0.3419580624 -0.4417864258 0.3424111646 -0.4419371891 -0.1075111921 0.1464787654
440297360.0 -0.0798172192 0.1538466891 0.3370917132 -0.4456564148 0.3367945484 -0.4457336501 -0.106557235 0.147156894
445297330.0 -0.0781723799 0.1550116361 0.3320128502 -0.4498572489 0.3323777266 -0.4494902022 -0.1048749488 0.1486436989
450297300.0 -0.0765373898 0.1558083944 0.3274709729 -0.4529365646 0.3278907593 -0.4531909194 -0.1036847796 0.1496664357
455297270.0 -0.0747317479 0.1570162465 0.3226539838 -0.4567314691 0.3228554355 -0.4566933245 -0.101941875 0.151300251
460297240.0 -0.0733925776 0.1581441389 0.3175809681 -0.4598795409 0.3171603227 -0.4603797174 -0.1005966238 0.1526210054
465297210.0 -0.0709880411 0.1587489505 0.3126869622 -0.4637444783 0.3126882543 -0.4634108476 -0.0997515052 0.1533300408
470297180.0 -0.0694986347 0.1596700043 0.3072914531 -0.4666131124 0.3075967318 -0.4670565385 -0.0986075669 0.1544936853
475297150.0 -0.0679162552 0.160389921 0.301711104 -0.4698930398 0.3025805135 -0.4694715374 -0.0962517358 0.1556087523
480297120.0 -0.0659147594 0.1611888043 0.2967793939 -0.4732201309 0.2976215361 -0.473084043 -0.0950339096 0.1572856659
485297090.0 -0.063765435 0.1622601806 0.2923062978 -0.4765603384 0.2923529231 -0.4767075222 -0.0940954699 0.1580622806
490297060.0 -0.062011409 0.1630109493 0.286894408 -0.4795519777 0.2867006867 -0.4796056845 -0.0922596916 0.1594027727
495297030.0 -0.0607961128 0.1641346714 0.281402898 -0.4825326692 0.2811637739 -0.4827999631 -0.0904772132 0.1601867783
500297000.0 -0.0585443465 0.1645805767 0.275928824 -0.4854875939 0.2763990038 -0.4856580346 -0.0894824011 0.1614093497
505296970.0 -0.0570284601 0.1653739941 0.2704405042 -0.4880231981 0.2711169906 -0.4882956419 -0.0882761677 0.1623701035
510296940.0 -0.0550743055 0.1662403772 0.265614808 -0.4914038762 0.2654701485 -0.4914606552 -0.0857334287 0.1635610039
515296910.0 -0.0535024523 0.1672133301 0.2600706612 -0.4942321842 0.2603636504 -0.4941149057 -0.0847483922 0.1644618468
520296880.0 -0.0512850393 0.1679494074 0.2546468473 -0.4973794862 0.2548771275 -0.4971072394 -0.0829863371 0.1655499972
525296850.0 -0.0495940513 0.1681689852 0.2493165167 -0.4997036343 0.2496240423 -0.4999167135 -0.081105356 0.1664912096
530296820.0 -0.047500036 0.1690954003 0.2439223189 -0.5020121678 0.2437769544 -0.5024543902 -0.0803238885 0.167297358
535296790.0 -0.0455522239 0.1697461441 0.2383476191 -0.5047221904 0.2384247745 -0.5047259075 -0.0784497937 0.1681442273
540296760.0 -0.0438509556 0.1700187116 0.2330513091 -0.5078016136 0.2327939971 -0.5076505922 -0.0774568318 0.1695360914
545296730.0 -0.0420078718 0.1710305183 0.2272832192 -0.5098087462 0.2276613995 -0.5102548654 -0.0755675535 0.1699822317
550296700.0 -0.04020642 0.1715726807 0.2219272763 -0.5128358612 0.2224736638 -0.5131966287 -0.0740398483 0.1715594526
555296670.0 -0.0378886897 0.1719670907 0.2163512402 -0.5145691978 0.2165696923 -0.5147168456 -0.07262645 0.1722297482
560296640.0 -0.0362953162 0.1724275863 0.2109624888 -0.5167716805 0.2113232945 -0.5171373884 -0.0708162131 0.1728871961
565296610.0 -0.034580539 0.1730188593 0.2050635458 -0.519235945 0.204844034 -0.5191897717 -0.0692868301 0.1735756657
570296580.0 -0.0322828416 0.173428349 0.1994866709 -0.5211790169 0.1997348581 -0.5213691722 -0.0675576842 0.1752467791
575296550.0 -0.0303197796 0.1745135996 0.1936508121 -0.5233388958 0.1942719724 -0.5234417849 -0.0654974147 0.1752578612
580296520.0 -0.0285497373 0.1747673939 0.1884027303 -0.5253344411 0.188071617 -0.5256425681 -0.0641276313 0.1761889696
585296490.0 -0.0264128603 0.174838875 0.1825866805 -0.5272216513 0.1824540565 -0.5271896566 -0.0624299651 0.1765929444
590296460.0 -0.0247433283 0.1750423703 0.1763607417 -0.5292956662 0.1763186541 -0.5295820079 -0.0607980676 0.1776392483
595296430.0 -0.0229015374 0.1758204187 0.170990613 -0.5315291242 0.1709761137 -0.5312403319 -0.059220854 0.1783162108
600296400.0 -0.0208026066 0.176147852 0.165425119 -0.5332000504 0.1656341892 -0.5332017176 -0.0576116393 0.1792899282
605296370.0 -0.0183413551 0.1767564158 0.159534676 -0.534586682 0.1597625723 -0.5346725837 -0.055550357 0.1798755282
610296340.0 -0.0171148946 0.1771045471 0.1542964765 -0.5367163177 0.1541631033 -0.5365773788 -0.0541204846 0.1808790958
615296310.0 -0.0148999806 0.1775387072 0.147946798 -0.5377441206 0.1479676877 -0.5379438353 -0.0521808097 0.1810318818
620296280.0 -0.012828763 0.1777303062 0.1422709754 -0.5394522483 0.1419823504 -0.5395812187 -0.0505038791 0.1812006571
625296250.0 -0.0106625498 0.1779685023 0.1362070096 -0.5410632221 0.1361099368 -0.5410383526 -0.04893417 0.1823956882
630296220.0 -0.0087851387 0.1784045394 0.1303173536 -0.5425550765 0.1311320322 -0.542514029 -0.0472562667 0.1832200033
635296190.0 -0.0067459869 0.1783226167 0.1244765411 -0.5434109624 0.1240966792 -0.5435103421 -0.045629712 0.1835134624
640296160.0 -0.0050015116 0.1784447951 0.1189081217 -0.5449357286 0.1185015016 -0.5451527979 -0.0435510044 0.1838851928
645296130.0 -0.0029399322 0.1791540812 0.1128067105 -0.5464448592 0.1128560213 -0.5461943855 -0.0423874204 0.1843751638
650296100.0 -0.0010692154 0.179450559 0.107280886 -0.5473498329 0.1070067616 -0.5473770947 -0.0402609976 0.1850683222
655296070.0 0.0008734122 0.1791150434 0.100914402 -0.5483677511 0.1008299157 -0.5484123029 -0.0379343692 0.1857382788
660296040.0 0.0028422584 0.1799224195 0.095037966 -0.5495625621 0.0956227097 -0.5493443991 -0.0368789421 0.1858600861
665296010.0 0.0049411426 0.1793358499 0.089301338 -0.5505095793 0.0896011818 -0.5504811511 -0.0355718384 0.1867966836
670295980.0 0.0074057393 0.1798427292 0.0833979948 -0.5512995178 0.0837933321 -0.5513983258 -0.0338970031 0.1873695615
675295950.0 0.0089754971 0.1797160344 0.0770685268 -0.5524963007 0.0775971874 -0.5526425525 -0.0315245193 0.1877713028
680295920.0 0.0110219869 0.1800909065 0.071316128 -0.55321122 0.0710871799 -0.5529337367 -0.0292764436 0.1879809239
685295890.0 0.013098489 0.1797519818 0.065618541 -0.5537190524 0.0651945477 -0.5542567825 -0.0279153563 0.1888931954
690295860.0 0.0153077456 0.1797678181 0.0591725169 -0.5537187249 0.0593617707 -0.5542371206 -0.0256961887 0.1892667256
695295830.0 0.0176070223 0.1796506673 0.0527456504 -0.5549899099 0.0530761615 -0.5548463261 -0.0242995856 0.1895286132
700295800.0 0.0198682905 0.1798109068 0.0470016178 -0.5554994976 0.0477308978 -0.5556276291 -0.0222239933 0.1896397939
705295770.0 0.0212796582 0.1796858052 0.0413526744 -0.5554490549 0.0413855933 -0.5557705463 -0.0204846971 0.1901099012
710295740.0 0.023446851 0.1799601606 0.0355081407 -0.5558734017 0.0353930974 -0.5559157862 -0.0192182808 0.1908897103
715295710.0 0.0251994027 0.1796899884 0.0292063097 -0.5568480442 0.029829576 -0.5565435067 -0.0170680357 0.1906246219
720295680.0 0.027353766 0.1793431747 0.0233315769 -0.5566878762 0.0233085747 -0.5571245664 -0.0149511781 0.1911124646
725295650.0 0.0294098786 0.1792930579 0.0170881703 -0.5568379309 0.0174050904 -0.5572247609 -0.013436031 0.1916398032
730295620.0 0.0311650956 0.1790135526 0.011522153 -0.5571441788 0.0114252349 -0.5574233286 -0.0113626332 0.1915436427
735295590.0 0.033647202 0.1788882296 0.0057268635 -0.5569104937 0.0055909169 -0.5575155894 -0.009382561 0.1921611054
740295560.0 0.035326344 0.1789518292 -0.0004177817 -0.5567236841 -0.0008832068 -0.5570996656 -0.0076175304 0.192044968
745295530.0 0.0374234606 0.1784471845 -0.0065440926 -0.5570508473 -0.0063174639 -0.5571570143 -0.0058669708 0.1926014378
750295500.0 0.0396019563 0.1781299687 -0.0124426425 -0.5568238764 -0.0125338888 -0.556844845 -0.0038939522 0.1923186746
755295470.0 0.041850429 0.1780455993 -0.0187933131 -0.5568021817 -0.0182330232 -0.5568430443 -0.0023419855 0.1929299055
760295440.0 0.0432853832 0.1777401343 -0.0243737621 -0.5565820864 -0.0245561576 -0.5567373062 -0.0008396131 0.1930105301
765295410.0 0.0452379694 0.1768289959 -0.0299027773 -0.5555037288 -0.0301385561 -0.5564246015 0.002068624 0.1934623816
770295380.0 0.0475661768 0.177074746 -0.0362529964 -0.5554275092 -0.0368455266 -0.556195619 0.0038918888 0.1935798819
775295350.0 0.0492201768 0.176677861 -0.0422831535 -0.5551313224 -0.0427997478 -0.5552711129 0.0051981005 0.1931510712
780295320.0 0.0518447244 0.1761867361 -0.0485324998 -0.5546489235 -0.0480472003 -0.5548926362 0.0071438278 0.1935253755
785295290.0 0.0534283067 0.1759525001 -0.0542274071 -0.5534420944 -0.0545722082 -0.5545807514 0.0087020138 0.1938313002
790295260.0 0.0553546594 0.1754692885 -0.0602791997 -0.5538026928 -0.0601283336 -0.5538888157 0.0111119141 0.1937101514
795295230.0 0.0573900462 0.174977158 -0.0657752858 -0.5526164082 -0.0660265267 -0.5528176682 0.0126785635 0.1946157463
800295200.0 0.0594213831 0.1748069155 -0.0724267206 -0.5521190076 -0.072579923 -0.5523931726 0.0144799063 0.1937468732
805295170.0 0.0610389098 0.1739440005 -0.0781862479 -0.5507453222 -0.0783157914 -0.5510698732 0.0161749805 0.1938351532
810295140.0 0.0632256362 0.1732944734 -0.0838523659 -0.550440719 -0.0839455363 -0.5507136695 0.0183060691 0.194381498
815295110.0 0.0650917074 0.1727847248 -0.0906488298 -0.5489797964 -0.0899070547 -0.549138634 0.0199085858 0.1939162186
820295080.0 0.0669892554 0.1721438187 -0.0956577563 -0.5479592999 -0.0957842572 -0.5484843515 0.0218010532 0.1936297528
825295050.0 0.0689870136 0.1716908265 -0.1016985051 -0.5468901162 -0.1015608276 -0.5472329393 0.0239553159 0.1939668009
830295020.0 0.0709798886 0.1713985559 -0.1076082996 -0.5462370989 -0.1079860975 -0.5459293448 0.0254219635 0.1937097939
