!Created with skrf (http://scikit-rf.org).
# Hz S RI R 50.0 
!freq ReS11 ImS11 ReS21 ImS21 ReS12 ImS12 ReS22 ImS22
300000.0 -0.0474174865 -0.0699394312 0.0012711947 0.0007961409 -0.0008033856 0.0006495018 -0.7677984331 -0.1898293885
5299970.0 -0.050253676 0.0145511003 3.06351e-05 -1.65102e-05 3.65714e-05 -0.0001210621 -0.7845763442 -0.0097078578
10299940.0 -0.044451786 0.0328415956 -7.33844e-05 -0.0001826439 -3.65098e-05 -2.44912e-05 -0.7876230157 -0.0052771526
15299910.0 -0.0358244339 0.0472907125 -8.5606e-06 -9.9503e-06 -4.29076e-05 -1.28957e-05 -0.7928274202 -0.0027935914
20299880.0 -0.0256439817 0.0592626755 -0.0001177396 0.0001962158 1.133e-06 2.34846e-05 -0.799574414 0.0014556629
25299850.0 -0.0141377622 0.0686178849 5.34397e-05 -0.0001425982 5.66525e-05 -4.55685e-05 -0.8058204066 0.0077289855
30299820.0 -0.0026429776 0.075261317 -0.0002178083 3.04713e-05 -0.0001239758 8.7672e-05 -0.8122740203 0.0157247137
35299790.0 0.0089852601 0.0798734924 -9.50023e-05 0.0002456444 -9.8721e-05 -6.42917e-05 -0.8169826404 0.0249565507
40299760.0 0.0207011032 0.0826961484 -0.0001579794 0.0002586083 -0.0001112583 -8.2391e-05 -0.8210552947 0.0340002532
45299730.0 0.031292345 0.0838248622 -3.42375e-05 -3.77698e-05 -5.60749e-05 9.29599e-05 -0.8241462459 0.0439636171
50299700.0 0.0416881802 0.083762476 -5.44564e-05 -3.8753e-06 7.40786e-05 -0.000155879 -0.826559717 0.0539483253
55299670.0 0.0509030141 0.082731081 8.58908e-05 -0.0001684842 -0.0001427035 -1.8831e-06 -0.8287084585 0.0640526195
60299640.0 0.059565499 0.0803734529 9.21255e-05 0.0001733986 -1.40185e-05 9.4893e-06 -0.8295245237 0.0742142778
65299610.0 0.0678837979 0.078242807 0.000261097 0.0001218556 0.0001029821 1.74774e-05 -0.8303914587 0.0839549562
70299580.0 0.0743724518 0.0749579344 2.02356e-05 7.84407e-05 -8.60905e-05 -4.65139e-05 -0.8308979205 0.0934901609
75299550.0 0.0807460799 0.0718361629 8.95042e-05 -0.0001383435 9.455e-05 1.2353e-05 -0.8306975465 0.1040618272
80299520.0 0.0870393526 0.0679660591 0.0001282775 -0.0003493553 -0.0001083055 -3.43719e-05 -0.8308236625 0.1140226382
85299490.0 0.0917785284 0.0641051551 6.84637e-05 -8.65741e-05 -1.51977e-05 0.0001661496 -0.8300702438 0.123255058
90299460.0 0.0968689404 0.0601842545 -6.49144e-05 0.0001682202 -0.0002467834 0.0002869761 -0.8289835137 0.1328016013
95299430.0 0.1007357316 0.0559354398 -0.000103104 0.0002408983 0.0001078241 -1.42165e-05 -0.8281123244 0.1424739686
100299400.0 0.1045856235 0.0519145926 0.0002730611 3.33265e-05 8.26939e-05 6.31334e-05 -0.82711697 0.1517449027
105299370.0 0.1081019848 0.0480367358 -0.0002251054 3.63488e-05 7.7601e-06 0.0001942872 -0.8255284034 0.1608744782
110299340.0 0.1110956599 0.0440097222 -8.83678e-05 3.16765e-05 -0.0002308204 3.1085e-06 -0.8247552202 0.1697129779
115299310.0 0.1132066185 0.0400644256 -0.0001704404 0.0002965899 -0.0001499906 -3.0592e-06 -0.8233374098 0.1790226042
120299280.0 0.1155754455 0.0359824274 7.25182e-05 0.0001246856 -0.0001052409 -5.27892e-05 -0.8213254203 0.1878896717
125299250.0 0.117492108 0.0319929817 1.06989e-05 -8.22921e-05 3.02731e-05 -0.000133196 -0.819572017 0.1969739239
130299220.0 0.1192158115 0.0281113971 -0.0001345725 0.0001471848 6.60958e-05 -0.0001288889 -0.8178701727 0.2058620582
135299190.0 0.120930443 0.024446981 5.96982e-05 -6.33071e-05 2.951e-07 -0.0001055596 -0.8160295334 0.2150299931
140299160.0 0.1222084162 0.0209588005 -0.0001052863 4.42694e-05 2.93707e-05 0.0001995645 -0.81414588 0.2235222903
145299130.0 0.1234853299 0.0174373637 2.3229e-05 0.0001136567 -0.0001773469 0.0001275965 -0.8115036421 0.2327298621
150299100.0 0.1244269864 0.0137114996 -0.00010781 -3.36141e-05 4.1594e-06 0.0002299715 -0.8093827432 0.2411634552
155299070.0 0.1251894959 0.0105722652 0.0001345634 6.01244e-05 -0.0001167245 0.000131759 -0.8068678822 0.2503984136
160299040.0 0.1254897257 0.0071771304 0.0001570179 -0.0001615153 -0.0001009528 -2.47634e-05 -0.8047153492 0.2589218932
165299010.0 0.1260749764 0.0041515249 3.0478e-05 -9.50283e-05 9.37644e-05 -6.43936e-05 -0.8018066568 0.267398089
170298980.0 0.1264277121 0.0007535047 -0.0001730293 2.36246e-05 -2.72876e-05 9.21052e-05 -0.7992773248 0.2758862438
175298950.0 0.1267670962 -0.0021390324 -1.00209e-05 0.0001181048 3.92547e-05 4.94503e-05 -0.7962910622 0.2850791689
180298920.0 0.1268884562 -0.0052349158 -1.58884e-05 -0.0002247107 0.0001083887 0.0001743139 -0.7931866351 0.2931857193
185298890.0 0.1267822292 -0.0083519932 4.55096e-05 5.2272e-05 3.97814e-05 -8.18296e-05 -0.7903242475 0.3013652188
190298860.0 0.1268697351 -0.0108438562 0.0001348132 -5.32725e-05 6.3131e-05 -4.27553e-05 -0.7872246612 0.3098108908
195298830.0 0.1270666702 -0.0135709464 -2.94247e-05 8.85581e-05 7.83548e-05 -0.0001603593 -0.7841758102 0.3180034033
200298800.0 0.1270509193 -0.0165153231 0.0001772272 3.04103e-05 4.19438e-05 0.0001736756 -0.7809638407 0.3268262704
205298770.0 0.1263329087 -0.0191845172 -0.0002448496 8.02635e-05 -3.81512e-05 -0.0001807058 -0.7776719603 0.3351042336
210298740.0 0.1262035192 -0.0219536947 -9.6664e-05 8.88693e-05 0.000195113 8.89759e-05 -0.7741786327 0.3434208925
215298710.0 0.1254189033 -0.0244578023 1.0416e-06 -0.0003102894 -0.0001085566 6.77783e-05 -0.7700461209 0.3515627748
220298680.0 0.1252037422 -0.0269679105 0.0001483643 -2.21095e-05 0.0002323489 7.27052e-05 -0.7665094598 0.3591884047
225298650.0 0.1248440036 -0.0293119737 0.0001245301 0.0001541536 0.0001144452 2.90085e-05 -0.7629037521 0.3677526134
230298620.0 0.1241297547 -0.031467742 -2.60502e-05 0.0002106754 0.0001035416 0.000247589 -0.7590778705 0.37559921
235298590.0 0.1235112656 -0.033936843 7.4306e-05 -2.77353e-05 -6.19532e-05 0.0001327608 -0.7550553819 0.3834272383
240298560.0 0.1225794852 -0.0361227229 -6.76027e-05 -9.5953e-06 0.0001745716 0.0001530483 -0.7515014003 0.390852839
245298530.0 0.1220769723 -0.0383649697 -7.06347e-05 0.0001262414 7.07193e-05 -0.0002464953 -0.7471598175 0.3990438212
250298500.0 0.121321163 -0.0407534825 -0.0002130765 0.0002198555 -5.389e-07 0.0001006936 -0.7430120247 0.4072275692
255298470.0 0.1205301606 -0.0424327025 -3.66867e-05 5.53437e-05 2.13761e-05 -0.0001368039 -0.738772397 0.4145993531
260298440.0 0.1197429223 -0.0451630054 3.83716e-05 -1.44187e-05 0.0001680865 -5.76378e-05 -0.7339863719 0.4222094999
265298410.0 0.1186832828 -0.0469768398 6.6341e-05 -4.3821e-06 0.0001399125 0.0002504113 -0.7296216923 0.4302277307
270298380.0 0.1178570759 -0.0491122972 -7.22061e-05 -4.28657e-05 1.882e-06 0.0001586824 -0.725135365 0.4381652361
275298350.0 0.1171498317 -0.050805084 -5.11318e-05 8.65559e-05 0.0003124773 0.0001944722 -0.7203656526 0.4454726432
280298320.0 0.1158280883 -0.0527358204 -2.07692e-05 0.0001962556 0.000211672 -0.000330347 -0.7160420904 0.4533233285
285298290.0 0.1149917549 -0.0545418364 -7.3148e-05 0.0001141774 -3.82139e-05 0.0001357332 -0.7118333617 0.4608055403
290298260.0 0.1138196561 -0.056535144 -0.0001933088 0.0002532661 0.0001153318 1.99459e-05 -0.7062525653 0.4676187808
295298230.0 0.1127679037 -0.0587723061 5.38009e-05 3.12075e-05 -7.82896e-05 6.84181e-05 -0.7015620028 0.4746968308
300298200.0 0.1118806127 -0.0601700272 0.0001988476 0.0001534688 0.0001446535 -5.09583e-05 -0.6965683703 0.4823540692
305298170.0 0.1107655462 -0.0624220168 5.66844e-05 0.0001747015 0.0003681382 8.03184e-05 -0.6913514468 0.489535102
310298140.0 0.1098006014 -0.0645495039 0.0003088479 9.78357e-05 -7.20096e-05 -8.45877e-05 -0.6863454132 0.4971435073
315298110.0 0.108372854 -0.0663327655 0.0001612193 0.0002061477 0.0001494906 -0.0001371068 -0.6814526291 0.5040184021
320298080.0 0.1070388772 -0.06816804 -1.72675e-05 -9.9584e-05 0.0001604311 3.22612e-05 -0.6766092536 0.5107862611
325298050.0 0.1053798258 -0.0702376009 -0.0001091601 0.0001433198 0.0001316051 1.72325e-05 -0.6703685221 0.5179938112
330298020.0 0.1037229343 -0.0713722733 4.0343e-05 0.0001576143 0.0002313446 2.48557e-05 -0.6649983754 0.5248264354
335297990.0 0.1024884165 -0.0730929304 0.0002156269 -3.79702e-05 6.49901e-05 -0.0001252821 -0.6595229571 0.5313387095
340297960.0 0.1008299326 -0.0744995921 -0.000161649 -1.68501e-05 0.0002100324 7.41412e-05 -0.6543815052 0.5384551568
345297930.0 0.0997532339 -0.0760818164 0.0001255803 -0.0001328464 9.73634e-05 0.0001982143 -0.6484107254 0.5449857084
350297900.0 0.0981389502 -0.0774221304 0.0001750126 -2.63465e-05 0.0001967253 -3.45524e-05 -0.6432196152 0.5513337915
355297870.0 0.0969658309 -0.0789923856 0.0002711486 0.0001690693 -8.59387e-05 -0.0001613657 -0.6369541669 0.5586459211
360297840.0 0.0952505851 -0.0802175883 2.55253e-05 2.99724e-05 -0.0001239667 -7.55234e-05 -0.6303184989 0.5647304796
365297810.0 0.0941048842 -0.0814873495 -2.87464e-05 -5.3115e-05 0.0002430621 3.84111e-05 -0.6253552903 0.5705513436
370297780.0 0.0925063917 -0.0830409315 -0.0002512812 8.25123e-05 -0.0001210827 -9.33756e-05 -0.6190908672 0.5777849373
375297750.0 0.0910839001 -0.0843889469 5.91035e-05 -9.0387e-06 -3.7386e-05 0.0001138179 -0.6131582813 0.5841192191
380297720.0 0.0899016257 -0.0849959435 1.88215e-05 0.0001916647 0.0001428853 7.13255e-05 -0.6066284375 0.5902029024
385297690.0 0.0882006143 -0.0869221159 -5.69643e-05 -5.34301e-05 0.0001014185 -7.1523e-06 -0.6015348789 0.5967789753
390297660.0 0.0868320943 -0.0883600462 1.97002e-05 7.2748e-06 -8.65409e-05 1.0621e-05 -0.5948480316 0.6023859976
395297630.0 0.0853666294 -0.089305231 0.0001312297 0.0001468939 6.35398e-05 7.86272e-05 -0.5878609599 0.6080206113
400297600.0 0.083379197 -0.0903692166 0.0001244546 -9.83571e-05 6.29896e-05 6.75131e-05 -0.5826568654 0.6142033365
405297570.0 0.0821813111 -0.0919105535 0.0001895711 2.959e-06 -0.0001446173 0.0001444116 -0.5753252485 0.6202693624
410297540.0 0.0810891706 -0.0927916253 6.88856e-05 -5.7896e-05 0.0002153962 0.0001806584 -0.5692376628 0.6262297806
415297510.0 0.0794856222 -0.0939455762 0.0001092416 8.12466e-05 8.204e-05 4.57341e-05 -0.5630864535 0.631358179
420297480.0 0.0778281284 -0.0953976388 -2.71556e-05 9.883e-05 -0.0002056593 -3.18152e-05 -0.555960916 0.6380536343
425297450.0 0.0764334026 -0.0963183349 9.49276e-05 3.77374e-05 0.000140257 1.99157e-05 -0.5490978953 0.6426166938
430297420.0 0.0749827246 -0.0975749674 3.34848e-05 9.03347e-05 0.000159977 3.41493e-05 -0.5431507979 0.6486023843
435297390.0 0.0733526321 -0.0985046143 0.0001465934 7.88857e-05 0.0002109083 0.0001526756 -0.5366611086 0.6544363681
440297360.0 0.0718424547 -0.0996870894 6.19685e-05 -0.0001734706 6.09993e-05 0.0001508148 -0.5302044727 0.6592625326
445297330.0 0.0703905718 -0.100730051 -0.0002369214 -0.0001761089 9.83748e-05 0.0003765112 -0.5227124299 0.6646696977
450297300.0 0.0690151438 -0.1018341969 0.0001238029 0.0001171116 0.0001696184 -3.35878e-05 -0.5157624945 0.6699118301
455297270.0 0.0672103636 -0.1025300435 0.0001700538 -4.2167e-06 0.0001844644 1.2164e-06 -0.5090512995 0.6751236961
460297240.0 0.065846037 -0.1034290536 4.18894e-05 5.13991e-05 8.56544e-05 -0.0001339203 -0.5022551147 0.6801667585
465297210.0 0.0645385349 -0.1043495773 0.0002082176 0.0001274559 -1.31732e-05 -1.76136e-05 -0.4951640454 0.6858477745
470297180.0 0.0628380858 -0.1052554781 -1.1404e-05 5.31659e-05 3.94408e-05 -1.66363e-05 -0.488031912 0.6902706609
475297150.0 0.0611453146 -0.1060107285 -1.2946e-05 0.0001440219 0.0001690267 0.000182635 -0.4810897918 0.6955527381
480297120.0 0.0596651596 -0.1069160214 0.0001164749 2.26643e-05 4.48037e-05 -7.3009e-06 -0.47436154 0.7000681273
485297090.0 0.057970105 -0.1076672058 -8.95628e-05 0.000132707 0.0002237703 -1.46781e-05 -0.4669702468 0.7045933576
490297060.0 0.0570474078 -0.1084227589 0.0001595775 0.0001573663 0.0002634917 0.0002083299 -0.4596474168 0.7091449286
495297030.0 0.0551671314 -0.1093294613 -4.80424e-05 4.72537e-05 0.0001891711 6.8427e-05 -0.4522036402 0.7135167471
500297000.0 0.0532987449 -0.1099997169 5.72105e-05 1.74004e-05 0.0001324588 -2.7691e-06 -0.445176285 0.7184470358
505296970.0 0.0519955988 -0.1106025464 0.0001027506 -1.33903e-05 1.35955e-05 0.0001441194 -0.4375778175 0.7225637152
510296940.0 0.0502505198 -0.1110686454 0.0001850587 8.12621e-05 4.73927e-05 0.0002054413 -0.4299471731 0.7272291281
515296910.0 0.0489293822 -0.1114075084 6.08629e-05 6.73978e-05 9.27111e-05 4.28123e-05 -0.4228025962 0.7314627615
520296880.0 0.0472149842 -0.1123638833 -0.0002078682 -6.5745e-06 0.0001686592 -3.5356e-06 -0.4154507306 0.7360385905
525296850.0 0.0457382486 -0.1131965133 8.70708e-05 -7.0411e-05 0.0001342203 -4.48486e-05 -0.4078457147 0.7396726626
530296820.0 0.0438891679 -0.1135921953 0.000251174 0.0001275666 0.0001929667 -2.68531e-05 -0.4001989087 0.743390856
535296790.0 0.0426484942 -0.1138327394 7.81796e-05 4.72273e-05 8.68869e-05 -0.0001075361 -0.3928926698 0.748193881
540296760.0 0.0413862014 -0.1146240885 0.000268246 8.8271e-06 0.0001714352 6.37957e-05 -0.3851568298 0.7515062988
545296730.0 0.0393500625 -0.1145151515 0.0002201099 7.97329e-05 1.00248e-05 0.0001059895 -0.3778531698 0.7562293615
550296700.0 0.037975245 -0.1152575533 -3.6e-08 0.0001632103 0.0001024057 8.7872e-05 -0.3699796422 0.7595520133
555296670.0 0.0361938486 -0.1155739954 9.71733e-05 6.57001e-05 0.0003215014 -5.16196e-05 -0.3626826809 0.7628285594
560296640.0 0.0349384766 -0.1159493788 0.0001499045 8.33687e-05 0.0002381098 -2.41034e-05 -0.3542107245 0.7669204624
565296610.0 0.0328893639 -0.116371568 4.17498e-05 9.44877e-05 0.0002487488 -0.0001340854 -0.3463615259 0.7701584317
570296580.0 0.0312941813 -0.1166661088 0.0002041599 -7.80013e-05 0.0001574882 -6.63124e-05 -0.3388346754 0.7728956425
575296550.0 0.030005135 -0.1169485753 8.51022e-05 0.0001345677 8.37197e-05 -2.28334e-05 -0.3310225517 0.7767455587
580296520.0 0.028290047 -0.1165838484 1.84774e-05 -6.58864e-05 4.28884e-05 -6.0694e-05 -0.3236958595 0.779196721
585296490.0 0.0268149789 -0.1169176968 0.0001037757 -4.89343e-05 0.0001227661 -0.0001214779 -0.3148576706 0.7831883684
590296460.0 0.025294395 -0.1170981846 7.54063e-05 -8.73682e-05 0.000169706 -2.2069e-06 -0.307772489 0.785634751
595296430.0 0.0233429469 -0.1175564157 0.0001956617 -0.0002027882 7.65721e-05 -7.66462e-05 -0.3000067339 0.7888237884
600296400.0 0.0218739075 -0.1177730251 9.7811e-06 -8.05338e-05 0.0001345688 -3.16325e-05 -0.2917043712 0.7916986406
605296370.0 0.0198738673 -0.1176608028 0.0001735289 -7.8086e-05 0.000153317 8.42961e-05 -0.2835748371 0.7951740857
610296340.0 0.0186145435 -0.1177724938 0.0002362545 -7.69443e-05 0.0002010207 1.58957e-05 -0.2761649944 0.7976174946
615296310.0 0.017072587 -0.1176274081 0.0002677534 -0.0001349412 0.0001816187 -0.0001030955 -0.2674106449 0.8003220702
620296280.0 0.0152023079 -0.1170861963 2.84961e-05 -8.544e-07 2.8897e-05 -3.59678e-05 -0.2595796059 0.8036332445
625296250.0 0.0135524179 -0.1176694663 0.0001697618 -3.658e-07 0.0002257639 -5.25941e-05 -0.2513278017 0.8051340764
630296220.0 0.011877709 -0.1171091066 0.0002317363 3.00108e-05 5.55475e-05 0.0001275331 -0.2430638465 0.8080502204
635296190.0 0.0100543718 -0.117022286 -0.0001188409 3.80003e-05 4.7366e-06 -0.0001558368 -0.2350118682 0.8097802948
640296160.0 0.0086084625 -0.1173709435 7.07339e-05 -1.62363e-05 0.0003062644 6.75515e-05 -0.2270682696 0.8123094377
645296130.0 0.0072246269 -0.1169961097 0.0002468381 2.13786e-05 1.85323e-05 0.0001214887 -0.2196015975 0.814418993
650296100.0 0.0052924722 -0.1169380584 0.0001772246 -3.03826e-05 0.0001592465 -4.04098e-05 -0.2106784742 0.8171267319
655296070.0 0.0037876845 -0.1167597151 7.48907e-05 -9.88875e-05 1.20586e-05 -2.12107e-05 -0.2030055213 0.8190554813
660296040.0 0.001788995 -0.1164896709 9.12716e-05 2.29665e-05 -0.0001124164 3.99936e-05 -0.194355576 0.8210204981
665296010.0 0.0004299139 -0.1159853147 0.0001232202 -6.27747e-05 0.0002199803 -8.6437e-06 -0.1864006806 0.8224146526
670295980.0 -0.0012542928 -0.1160679846 0.0002468088 -7.274e-07 0.0003961407 2.43442e-05 -0.1786326258 0.8244213362
675295950.0 -0.0030390135 -0.1155659575 0.0003033906 -7.96394e-05 0.0001548471 -8.13621e-05 -0.1695279113 0.8264288443
680295920.0 -0.0047876104 -0.1153576202 0.0002483771 -6.00164e-05 0.0003117918 5.07913e-05 -0.1609743848 0.8277821129
685295890.0 -0.0064039446 -0.114784339 3.89915e-05 -0.0001822373 5.4052e-05 3.45859e-05 -0.1532483474 0.8295469219
690295860.0 -0.0081293218 -0.1146327001 0.0002250319 6.1419e-06 0.000127092 3.9882e-05 -0.1450138793 0.8310362416
695295830.0 -0.0098956276 -0.1144209797 8.0808e-06 0.0001990925 0.0002264208 -1.49328e-05 -0.1369493701 0.8326115053
700295800.0 -0.0116695323 -0.1135426116 0.0001580664 0.0001583619 0.0002850856 -5.0092e-05 -0.1281896371 0.8334754923
705295770.0 -0.013250591 -0.1132346854 0.000225765 0.0001524902 0.0003173095 0.0001278495 -0.1202784923 0.8356772056
710295740.0 -0.0149131268 -0.112847183 0.0001595534 -9.9467e-06 0.0001110206 -4.46976e-05 -0.1114145554 0.8360641344
715295710.0 -0.0163184741 -0.1121841459 0.0001319982 -0.0001308559 0.0001362619 -0.0001118778 -0.1036103539 0.8369435107
720295680.0 -0.018106571 -0.1120730782 0.0002407492 4.95043e-05 0.0002791075 -0.0001483605 -0.0943528257 0.8374133184
725295650.0 -0.0199869794 -0.1116413395 0.0002583545 8.64639e-05 4.86423e-05 1.80703e-05 -0.0867628994 0.8387742982
730295620.0 -0.0216524057 -0.1109386466 0.0001848468 -1.0631e-05 0.0001359392 7.89228e-05 -0.0789850702 0.839865915
735295590.0 -0.0234006846 -0.1104085997 0.0001454926 -4.15232e-05 0.0001922518 -0.0001398527 -0.0697496512 0.8402458789
740295560.0 -0.0252563137 -0.1102414131 8.46119e-05 -0.0002212947 9.84274e-05 7.6652e-05 -0.0616263718 0.841158495
745295530.0 -0.0265440106 -0.1092599685 0.0002704021 -7.5268e-06 6.34142e-05 -0.0001208582 -0.0529012705 0.8415540861
750295500.0 -0.0284188232 -0.1083732204 -0.0001061106 0.0001485572 9.3233e-06 -8.39785e-05 -0.0445420764 0.8423725406
755295470.0 -0.0299475847 -0.1082873913 3.86304e-05 0.0001394899 0.0001720114 -1.93829e-05 -0.0366222567 0.8427146182
760295440.0 -0.0319679279 -0.1074167901 0.0001097058 3.2611e-06 0.0001139814 4.40065e-05 -0.0277954667 0.8426851584
765295410.0 -0.03301862 -0.1069806139 0.0001816313 -9.0708e-05 -0.0001253789 -5.81712e-05 -0.0194345697 0.8432420166
770295380.0 -0.0347581232 -0.1061559619 0.0002908381 -0.0001160525 0.0001350641 -0.0001181773 -0.0113703115 0.8432187349
775295350.0 -0.0366685779 -0.1055864321 9.95045e-05 4.37486e-05 0.000207712 -8.04086e-05 -0.0024955504 0.8435829039
780295320.0 -0.038143984 -0.104550673 0.0001448353 2.22782e-05 6.9885e-06 0.0002299628 0.0057374858 0.8436745459
785295290.0 -0.0397405666 -0.1041727354 3.01348e-05 0.0001277611 7.69155e-05 -0.0001029614 0.0140356263 0.8432915885
790295260.0 -0.0414255347 -0.1036152378 0.0001840369 0.0001903579 6.73701e-05 4.11118e-05 0.0218982487 0.8433182032
795295230.0 -0.0430328906 -0.1028223704 0.0001681101 3.18e-07 0.0003076259 -0.0001166123 0.0302710966 0.8421754478
800295200.0 -0.0446143994 -0.1020571721 3.66842e-05 -1.52077e-05 0.0001622621 -6.33634e-05 0.0387124235 0.8423172263
805295170.0 -0.046259499 -0.1012949475 0.0002510246 6.60098e-05 0.0001428186 -4.74267e-05 0.047702389 0.8417861523
810295140.0 -0.0476987192 -0.1001979287 0.0001240563 -7.27266e-05 -6.647e-06 0.0001047997 0.0557687549 0.841311559
815295110.0 -0.049373052 -0.0996342456 0.0002197003 0.0001491381 0.0001632144 -0.0002008038 0.0636297917 0.8408845378
820295080.0 -0.0510829263 -0.0988393114 -1.9082e-05 -0.0001104971 0.0003533346 -0.0001605953 0.0716552924 0.8405884552
825295050.0 -0.0525931563 -0.0984050911 0.0001571572 -0.0001112637 -2.16733e-05 -9.44527e-05 0.080510036 0.8396527472
830295020.0 -0.0541560987 -0.0973183236 0.0003763684 5.43126e-05 0.0001747359 -2.84438e-05 0.0884548455 0.8380126624
835294990.0 -0.0555481252 -0.096382546 0.0001612654 -5.47855e-05 0.0002074834 -9.80097e-05 0.0970684237 0.8379882141
840294960.0 -0.0569498239 -0.0955815578 -1.39408e-05 -0.0001058362 0.0002689753 0.0001023297 0.1057038173 0.8366381029
845294930.0 -0.0584044469 -0.0944137852 0.0002296716 -0.0001301757 -4.95048e-05 -2.77183e-05 0.1138707998 0.8357115786
850294900.0 -0.0598668066 -0.0942142422 9.836e-05 -0.0001128733 -1.60179e-05 -0.00021083 0.1220152355 0.8343173373
