!Created with skrf (http://scikit-rf.org).
# Hz S RI R 50.0 
!freq ReS11 ImS11 ReS21 ImS21 ReS12 ImS12 ReS22 ImS22
300000.0 0.8606859103 -0.0020044389 -0.0005354233 0.0006328361 -0.0001366526 0.0008472469 -0.7670124743 -0.1694520161
5299970.0 0.8590664576 -0.0100130968 -2.254e-05 0.0001056714 5.39234e-05 2.96452e-05 -0.7851025932 -0.0087055639
10299940.0 0.8591272499 -0.0190553185 6.2307e-05 6.45151e-05 -0.0001590606 0.0001185548 -0.7886591542 -0.0052333737
15299910.0 0.8576278862 -0.0274745358 -5.09469e-05 6.21696e-05 0.0001310557 0.0001384634 -0.7937347499 -0.0030807151
20299880.0 0.8571489059 -0.0358689702 -0.0001634283 0.0001169148 8.95074e-05 3.85349e-05 -0.8007196614 0.0016358888
25299850.0 0.8567836531 -0.0438862398 -0.0002089076 -5.73827e-05 4.70736e-05 0.0001042176 -0.8069214022 0.0071652532
30299820.0 0.8560019912 -0.0520379461 -1.03304e-05 0.0003904147 7.40307e-05 -0.000109905 -0.8126351473 0.0146836504
35299790.0 0.8552803099 -0.0601956989 -3.70142e-05 -9.642e-06 -4.35658e-05 -3.72305e-05 -0.8182218142 0.0242058266
40299760.0 0.8541250593 -0.0682537592 0.0001119176 0.0001367854 2.49292e-05 -0.0001189705 -0.822010331 0.0330492124
45299730.0 0.8535704408 -0.0766268146 -8.47685e-05 -3.6171e-05 0.0001991812 9.40989e-05 -0.8256230255 0.0425491569
50299700.0 0.8527218927 -0.0850922509 -0.0001003418 0.000351836 -6.06909e-05 6.57664e-05 -0.8282171738 0.0523118479
55299670.0 0.8516195067 -0.0929719368 2.66457e-05 -8.44724e-05 -0.0001958094 -9.80207e-05 -0.8299575347 0.0627875599
60299640.0 0.8505666718 -0.1006059772 -0.0002377199 -7.28548e-05 -9.1174e-06 -0.0001501639 -0.8310900613 0.0727157291
65299610.0 0.8502692418 -0.1088521492 -0.0001177039 3.07426e-05 -8.96609e-05 1.74234e-05 -0.8315822111 0.0828312563
70299580.0 0.8484609574 -0.1175972262 6.57606e-05 3.06874e-05 3.2449e-06 -0.0002701419 -0.8324354099 0.092650189
75299550.0 0.8476959937 -0.1263064911 -0.0001365018 -7.957e-05 1.77354e-05 -6.6478e-05 -0.8322017073 0.1024989844
80299520.0 0.845642191 -0.1340060639 0.0001029546 1.00235e-05 6.19874e-05 1.41701e-05 -0.8322715516 0.1121105883
85299490.0 0.8452883103 -0.1423195845 -8.53193e-05 5.09664e-05 0.0001137888 -6.12079e-05 -0.8317402669 0.121847301
90299460.0 0.843029474 -0.1507261659 -8.4006e-06 8.6081e-06 -4.07307e-05 5.0127e-05 -0.8309960575 0.1311897275
95299430.0 0.8422867395 -0.1585675966 5.26761e-05 0.0001445318 0.0001768098 0.0001052049 -0.8300228647 0.1410879883
100299400.0 0.8394359455 -0.1666111688 -3.17751e-05 3.3563e-05 -0.0001407019 5.21504e-05 -0.8291717566 0.1497639366
105299370.0 0.8378897829 -0.1750005691 7.07968e-05 9.43227e-05 0.0002137177 -6.33969e-05 -0.8276500362 0.1590247123
110299340.0 0.8357573472 -0.1829854305 2.24275e-05 0.0002493779 6.36927e-05 -6.42322e-05 -0.8275121021 0.1683942799
115299310.0 0.8344014635 -0.191902384 6.1352e-06 1.19872e-05 -0.0001993941 -9.56471e-05 -0.8251255321 0.1768937239
120299280.0 0.8329355019 -0.1990889093 8.17e-06 1.29517e-05 -2.0606e-06 4.736e-05 -0.8234719512 0.1862366608
125299250.0 0.8299986682 -0.2081828617 -3.35191e-05 -4.27593e-05 -9.43947e-05 -1.77279e-05 -0.8223599311 0.1953186685
130299220.0 0.8283046011 -0.2154480743 0.0001144925 -0.0001720924 -0.0001015727 -0.0001245548 -0.8200643424 0.2039952586
135299190.0 0.8262654228 -0.2232587869 -4.69818e-05 5.46137e-05 -7.37814e-05 -1.65343e-05 -0.818535629 0.2126738068
140299160.0 0.8244704426 -0.2313728899 0.0002686427 -0.0001078666 6.93695e-05 -2.88083e-05 -0.8161551005 0.2212844549
145299130.0 0.8218321369 -0.2394335366 0.0001545743 -0.0001744687 0.0001013473 -1.2427e-06 -0.8139844998 0.2298994269
150299100.0 0.8193904905 -0.2468385716 -7.34402e-05 -0.0001429551 -4.4085e-06 8.41049e-05 -0.8116050474 0.2383413347
155299070.0 0.8168360844 -0.255552705 2.83231e-05 -4.07702e-05 8.32396e-05 2.7509e-05 -0.8098974604 0.2477606566
160299040.0 0.8139545029 -0.2631779142 -8.121e-06 -4.18904e-05 0.0001205839 -0.000186551 -0.8071919121 0.2564398972
165299010.0 0.811762409 -0.2708317348 -0.0002600764 -8.81977e-05 5.38601e-05 0.0001926624 -0.8043719264 0.2648468512
170298980.0 0.8092212531 -0.2794179525 0.0001007901 -5.65815e-05 0.0002341771 -8.21788e-05 -0.8022635505 0.2737043936
175298950.0 0.8061477132 -0.2864292514 -0.0001046368 -9.87161e-05 -0.0001259426 6.82463e-05 -0.7991937853 0.2817787918
180298920.0 0.8036462696 -0.2944613093 4.78525e-05 -0.0001352819 -8.78364e-05 0.0002310296 -0.7955072688 0.2902804776
185298890.0 0.7994897343 -0.3019708016 1.71266e-05 -5.40177e-05 0.0001399055 1.28615e-05 -0.7933708502 0.298399273
190298860.0 0.7976890087 -0.3104221139 -8.72878e-05 -0.0001951694 0.0001782225 1.69067e-05 -0.7895862942 0.3072660932
195298830.0 0.7947905401 -0.3178881135 -0.000207124 -2.36121e-05 -4.74856e-05 0.0001892948 -0.7872990283 0.3156799504
200298800.0 0.7913468681 -0.3261942205 -0.0001608211 0.000203858 0.0001856685 -0.0001366486 -0.7833501166 0.3240121744
205298770.0 0.7883609606 -0.3342616588 -3.49905e-05 -6.4229e-06 4.58821e-05 0.0001629546 -0.7799928292 0.3321881331
210298740.0 0.7852786971 -0.340713515 0.0001734401 -0.0001162479 -0.000147343 -6.40306e-05 -0.7773552717 0.3406439916
215298710.0 0.7815549766 -0.3484657801 2.61377e-05 0.0001271933 0.0001691196 -7.9993e-06 -0.7736415518 0.3478963066
220298680.0 0.7783876735 -0.356536744 -9.14557e-05 0.0001229051 9.5997e-05 0.000141978 -0.770034874 0.3567887621
225298650.0 0.7741043281 -0.3632944594 4.92222e-05 7.31325e-05 7.84909e-05 -1.90303e-05 -0.7662755147 0.3647238666
230298620.0 0.7715156184 -0.3713524196 -0.0002732967 -8.98179e-05 -0.000112535 2.6812e-05 -0.7620825489 0.3725847098
235298590.0 0.7673592112 -0.3788509227 -9.63101e-05 2.2771e-06 -6.3601e-06 -0.0001327619 -0.7582289813 0.3805097969
240298560.0 0.7626835985 -0.3869486508 -1.47211e-05 0.000133222 0.0001184361 0.000179164 -0.754089676 0.3882808097
245298530.0 0.7597250509 -0.3931243657 4.3659e-06 9.76997e-05 0.0001051787 7.68257e-05 -0.7502654809 0.3963758788
250298500.0 0.7560529808 -0.4010038611 0.0001043615 0.0001223161 8.4854e-06 3.45182e-05 -0.7464749257 0.4043068193
255298470.0 0.7518668189 -0.4080577558 8.4787e-05 9.84557e-05 -2.1936e-06 4.47536e-05 -0.7415847443 0.4122876104
260298440.0 0.7474248835 -0.4151457098 -5.5341e-06 0.0001169164 6.67531e-05 0.0001125949 -0.7373739987 0.4201872631
265298410.0 0.7439803162 -0.4220939904 1.0447e-05 9.35905e-05 0.0001306478 4.78309e-05 -0.7329944815 0.4278809357
270298380.0 0.7400111796 -0.4296443902 -5.94142e-05 0.0001613256 -0.0001054204 -0.0001577844 -0.7282941835 0.4353465457
275298350.0 0.7362334777 -0.4366513669 0.0001086187 -0.0001800025 6.30291e-05 -1.49578e-05 -0.7232844086 0.4431304746
280298320.0 0.7319472115 -0.4442208565 0.000156406 -6.40189e-05 9.39252e-05 -0.0001414395 -0.7189952099 0.4505261128
285298290.0 0.727039126 -0.4509915378 -1.03559e-05 -0.0002064664 -0.0002136363 0.0001107802 -0.7137496075 0.4576976261
290298260.0 0.7233927694 -0.4583688318 -5.47977e-05 0.0001137968 -4.49746e-05 -1.99347e-05 -0.7091566279 0.4661260049
295298230.0 0.7186160868 -0.4661037847 -4.39024e-05 -0.0001515419 -2.12255e-05 -0.0001634383 -0.7037775596 0.4729451693
300298200.0 0.7152676419 -0.4731786406 2.93836e-05 -0.0001450851 -0.0001559935 -1.50131e-05 -0.6995607804 0.4800523503
305298170.0 0.7105306259 -0.479705387 -9.30783e-05 0.000103239 0.0001272276 4.78121e-05 -0.6936245247 0.4877958857
310298140.0 0.7063812264 -0.487540133 0.0001960874 -3.96664e-05 7.10186e-05 -5.19672e-05 -0.6894379888 0.4953896729
315298110.0 0.7004681026 -0.4950956053 0.0001147353 0.0001172057 -0.0001264868 0.0001173845 -0.683608358 0.5019736949
320298080.0 0.6946081622 -0.5027102914 0.0002390398 1.68315e-05 -2.69587e-05 -0.0001550862 -0.6780822295 0.5091653907
325298050.0 0.6896291736 -0.5103353771 -3.6535e-06 5.54209e-05 8.93461e-05 -7.7742e-06 -0.6728250923 0.51641803
330298020.0 0.6835924706 -0.5163999258 0.0001341276 -1.79594e-05 -0.0001249753 0.0001344528 -0.6671646824 0.5232758695
335297990.0 0.6778323789 -0.5225966197 -0.0001124722 -4.7227e-05 -7.13211e-05 -3.62968e-05 -0.6617501756 0.5303242818
340297960.0 0.6728852345 -0.529524855 4.1656e-05 -9.71174e-05 6.51304e-05 -0.0001798861 -0.6555474278 0.537231946
345297930.0 0.6665222692 -0.5354357926 -0.0004147657 0.0001266489 6.9556e-05 -0.0001893982 -0.6505289537 0.5442069911
350297900.0 0.6621264303 -0.5416817634 8.756e-07 2.79794e-05 -1.7767e-05 7.6182e-06 -0.6442492132 0.5514132134
355297870.0 0.6564384142 -0.5480408119 -8.65534e-05 -3.06595e-05 -6.02255e-05 -0.0001043299 -0.6384264354 0.5574229911
360297840.0 0.6510853197 -0.5542423957 -9.25467e-05 -0.0001102828 0.0001977858 2.66749e-05 -0.6323428646 0.5638768791
365297810.0 0.6457297077 -0.5600426401 2.58305e-05 8.7378e-06 5.83746e-05 -0.000175423 -0.6264543113 0.5703519592
370297780.0 0.6399696135 -0.5663595042 -0.0001181407 0.0001337568 3.4434e-05 0.0001666084 -0.6207257715 0.5760881407
375297750.0 0.6339548699 -0.5720448808 -9.24813e-05 2.7757e-06 8.00495e-05 -8.79876e-05 -0.6147055047 0.5831254896
380297720.0 0.629577077 -0.57789461 2.33989e-05 -5.73371e-05 0.0001233563 -0.000117327 -0.6079337016 0.5903354925
385297690.0 0.6222988085 -0.5841011872 -3.22723e-05 0.0001185777 0.0001441569 5.28628e-05 -0.6024509081 0.5959505083
390297660.0 0.6172587729 -0.590568116 -1.67164e-05 -3.84564e-05 4.66329e-05 -9.67602e-05 -0.5953131768 0.601625391
395297630.0 0.6111280769 -0.5959859012 8.45386e-05 3.2e-07 4.67778e-05 0.0001177335 -0.5890950621 0.6083788898
400297600.0 0.6048807034 -0.6018702606 -0.0001831231 -3.99882e-05 0.0001104848 -0.0001170629 -0.5833248229 0.6140926688
405297570.0 0.5994884689 -0.6076434209 7.41958e-05 -1.30406e-05 6.35642e-05 -3.76726e-05 -0.5772926286 0.619828946
410297540.0 0.5933387004 -0.6131862432 -1.49462e-05 0.0001167148 -9.00241e-05 0.0001017445 -0.5701687869 0.6255871314
415297510.0 0.5879472201 -0.6189882019 5.13731e-05 8.59934e-05 0.0001607693 0.0001874473 -0.5644993912 0.6318754692
420297480.0 0.581092409 -0.6248952256 -0.0001647934 0.0001316946 -1.9595e-06 -8.9957e-06 -0.557597711 0.6366790946
425297450.0 0.5755892369 -0.6298535055 6.668e-05 0.0001012167 -6.63288e-05 -1.99174e-05 -0.5507157313 0.6434399016
430297420.0 0.5685739658 -0.6357742974 -2.55817e-05 -1.05019e-05 0.00015655 8.55578e-05 -0.5443104036 0.6482249515
435297390.0 0.5624230446 -0.6410392138 -0.0001547224 -5.38234e-05 9.4087e-06 0.0001464434 -0.5369468892 0.653466689
440297360.0 0.556149821 -0.6469849249 -3.27754e-05 0.0001818993 -6.66901e-05 -4.08994e-05 -0.5300680941 0.6590285913
445297330.0 0.5495492914 -0.652592694 -0.0001406492 1.58218e-05 0.0001163498 -8.99557e-05 -0.5243329279 0.6646175269
450297300.0 0.5437964649 -0.6573551374 -8.13984e-05 -9.42735e-05 -6.44783e-05 7.35611e-05 -0.5175795656 0.6698178804
455297270.0 0.5371090412 -0.6622193367 8.12948e-05 8.90689e-05 0.0001097021 -0.0001888499 -0.5104065379 0.6746742884
460297240.0 0.5304522235 -0.6675204192 -0.0001154925 -7.8981e-05 -7.435e-05 -8.51589e-05 -0.5028743586 0.6802853828
465297210.0 0.5236746261 -0.6727073783 -2.99784e-05 -5.68331e-05 -0.0002370358 1.74288e-05 -0.4968538468 0.6848820438
470297180.0 0.516394325 -0.678357049 9.4454e-06 7.71764e-05 9.02982e-05 0.0001053107 -0.4900673804 0.6894227874
475297150.0 0.5103491738 -0.6827879772 -5.39984e-05 -0.000110194 5.8368e-05 -8.64676e-05 -0.4825659401 0.694852315
480297120.0 0.5039759524 -0.6874514897 5.15545e-05 -0.0001102936 7.08907e-05 8.0508e-05 -0.4755996434 0.69988251
485297090.0 0.4966787138 -0.6921163727 5.6009e-05 3.76223e-05 0.0001389404 3.45298e-05 -0.4684494741 0.7041457506
490297060.0 0.4902685611 -0.697076391 5.9734e-05 -0.0001320258 -2.87984e-05 7.19272e-05 -0.4614362622 0.7086475481
495297030.0 0.4828138178 -0.7021633271 0.0001586833 0.0001294599 -0.0002115212 0.0001342441 -0.4537444734 0.7134022711
500297000.0 0.4767089013 -0.7064887465 -5.87573e-05 0.0002428253 -8.95029e-05 7.1437e-06 -0.4472798615 0.7180813796
505296970.0 0.4687447404 -0.7110164585 -9.2736e-05 -0.0001104849 -0.000175551 7.49728e-05 -0.4405242814 0.7222604522
510296940.0 0.462246368 -0.7151600518 7.55371e-05 -0.0002829604 0.0001047058 0.0001747912 -0.4325115606 0.7261980675
515296910.0 0.4548605506 -0.719597522 8.2151e-06 0.0001761123 1.40056e-05 7.3046e-06 -0.4252862054 0.7308415326
520296880.0 0.4479837707 -0.7240136585 -0.0001212081 2.72089e-05 -0.0001324764 -9.03941e-05 -0.4181962175 0.7347121116
525296850.0 0.4408349885 -0.7283726448 -0.0001695995 -0.000141166 5.94272e-05 -1.54975e-05 -0.4102659995 0.7397857404
530296820.0 0.4332471609 -0.7324347159 4.72069e-05 0.0001321164 0.0001067087 2.10748e-05 -0.4033969258 0.7429840596
535296790.0 0.42657307 -0.7363551391 0.0002474555 -0.0001866347 0.000162916 -1.11988e-05 -0.3958507171 0.7464400446
540296760.0 0.418897772 -0.7411883908 -0.000278299 0.0001339689 0.0002357366 -1.78948e-05 -0.3883557678 0.7510173234
545296730.0 0.4111907578 -0.7440017276 -7.33708e-05 2.01682e-05 1.10238e-05 -3.76673e-05 -0.3809111664 0.7543721772
550296700.0 0.4042344528 -0.7488122008 9.95543e-05 -0.0001357598 -3.41455e-05 -0.0001351954 -0.3734454859 0.7583300798
555296670.0 0.3967695719 -0.7527374403 7.47141e-05 -8.69419e-05 0.0001580451 -0.0002378126 -0.3660374874 0.7620549753
560296640.0 0.3896782796 -0.7563088708 -0.000125295 -0.0001645874 -0.0001712521 -6.23717e-05 -0.3585843787 0.7655522485
565296610.0 0.3816096 -0.7605721925 0.0001750486 -6.29831e-05 -8.23451e-05 -0.0001756816 -0.3504153725 0.7688511785
570296580.0 0.3744429578 -0.7642114845 -7.3434e-06 9.55292e-05 -4.87907e-05 2.71356e-05 -0.3435504756 0.7725165444
575296550.0 0.3672218213 -0.7669208297 0.0002666578 -0.0002594501 5.36855e-05 -7.16242e-05 -0.3353607745 0.7759869102
580296520.0 0.3596846435 -0.7704905966 -6.68084e-05 3.45503e-05 -2.63904e-05 -8.59793e-05 -0.3277187482 0.7792317651
585296490.0 0.3514599531 -0.7741348217 -0.0001059895 0.0001078793 -0.0001530737 -0.0001082011 -0.3201208869 0.7819024859
590296460.0 0.3435421885 -0.7774689362 -9.83868e-05 -6.22857e-05 5.3157e-05 4.6872e-06 -0.3120563053 0.7849171225
595296430.0 0.3362651819 -0.7803088398 2.30015e-05 7.5248e-05 -8.5729e-06 2.14858e-05 -0.3044533794 0.7878026355
600296400.0 0.3282364432 -0.7838927232 -0.0001196506 0.0002203122 -0.0001039707 9.05185e-05 -0.2967122758 0.7912482726
605296370.0 0.3210255002 -0.7864466794 -0.0001594701 7.9575e-06 -8.31263e-05 -0.0001331307 -0.2892358669 0.7945070285
610296340.0 0.3134751262 -0.7900847136 -6.6353e-06 -4.34922e-05 -0.0002036617 1.33885e-05 -0.2810526973 0.7970207069
615296310.0 0.3051053261 -0.7925793539 3.29651e-05 -4.27241e-05 1.28906e-05 2.52341e-05 -0.2726024809 0.7999106727
620296280.0 0.2975441917 -0.7955196012 0.0001564396 4.14171e-05 6.10345e-05 -1.23303e-05 -0.2647992372 0.8017103945
625296250.0 0.2901294153 -0.7980123349 0.0001013555 5.2437e-06 -2.35719e-05 0.0001538784 -0.2568912311 0.8049368363
630296220.0 0.2818688973 -0.8015966625 9.01e-07 3.06842e-05 -0.0001621084 1.704e-07 -0.2493121007 0.8076740178
635296190.0 0.2737908458 -0.8042186199 -9.22689e-05 -0.0001898291 -2.77301e-05 2.9515e-06 -0.2414270814 0.809280803
640296160.0 0.2657085285 -0.8059199857 6.97372e-05 -2.90204e-05 0.0001435307 -0.0001590437 -0.2326636986 0.8117202682
645296130.0 0.2579657048 -0.8085076894 6.87945e-05 -8.692e-07 -3.6993e-06 1.94919e-05 -0.2257523973 0.8141841565
650296100.0 0.249817332 -0.8106364273 -0.0001251725 -3.64049e-05 1.6536e-06 -0.0001645968 -0.2174169584 0.8164246597
655296070.0 0.2422899315 -0.8134570618 -0.0001199976 -0.0001028413 0.0002113866 0.0001359233 -0.2088352191 0.818064682
660296040.0 0.2329454639 -0.8154629558 0.0001571402 3.22945e-05 0.0001079341 9.7245e-06 -0.2009283429 0.8200373551
665296010.0 0.2253066377 -0.8174566542 -0.0001711107 -0.0002034602 -2.26293e-05 -0.0001223708 -0.1928399123 0.8223412303
670295980.0 0.218039047 -0.8199003754 0.0001538001 0.0001494831 -7.20009e-05 -3.46658e-05 -0.1859064688 0.823854851
675295950.0 0.2097394645 -0.8216242491 5.71006e-05 -9.74899e-05 5.94797e-05 7.45463e-05 -0.176469433 0.8260577015
680295920.0 0.2010361359 -0.8238436649 7.9526e-06 6.84881e-05 9.66731e-05 2.67999e-05 -0.1686763502 0.8282703277
685295890.0 0.1929557451 -0.824634641 0.0001283793 2.72175e-05 0.0001109981 -1.15305e-05 -0.1600166606 0.8293688804
690295860.0 0.1852971968 -0.8269981469 -4.48018e-05 1.05608e-05 -3.82697e-05 0.0001286211 -0.1524377723 0.8309170125
695295830.0 0.1767206428 -0.8289019539 1.48834e-05 -4.20568e-05 -7.30647e-05 -4.59169e-05 -0.1438752214 0.832659483
700295800.0 0.1691778495 -0.8299173681 1.80668e-05 -7.40826e-05 6.01469e-05 2.56987e-05 -0.1353105997 0.833410186
705295770.0 0.1607188763 -0.8318296256 7.3735e-05 0.0002691958 4.58634e-05 -1.49109e-05 -0.1278739903 0.8349874532
710295740.0 0.1527383324 -0.8331723848 -8.14827e-05 -9.12225e-05 0.0001305909 7.68713e-05 -0.1195741935 0.836431674
715295710.0 0.1440132775 -0.834828508 -7.929e-05 6.34124e-05 -4.8466e-05 -0.000278231 -0.1111628612 0.8371123281
720295680.0 0.1359570507 -0.8352539187 -1.66644e-05 4.09456e-05 -0.0001645717 0.0001462804 -0.1022602937 0.8381875615
725295650.0 0.1277540397 -0.8368027112 1.94116e-05 4.21523e-05 5.7427e-06 -0.0001271338 -0.0944084487 0.8394268107
730295620.0 0.1198749685 -0.8384936708 -5.1113e-05 0.0001984684 7.3912e-06 5.86593e-05 -0.0862005103 0.8402520255
735295590.0 0.1116177476 -0.8385914406 -5.29306e-05 5.16217e-05 1.6542e-05 -2.36041e-05 -0.0775680565 0.8408662039
740295560.0 0.1029248228 -0.840308353 -3.58e-05 -5.07957e-05 -4.58255e-05 -7.21813e-05 -0.0694975496 0.841797305
745295530.0 0.0942115846 -0.8409999963 5.54682e-05 -4.57243e-05 4.74199e-05 3.93643e-05 -0.0614262738 0.8425363186
750295500.0 0.0861023692 -0.841502172 4.9474e-05 -5.06621e-05 -7.39673e-05 -0.0001143546 -0.0525894663 0.8425677199
755295470.0 0.0780873432 -0.8426762356 0.0001244762 0.0001090007 -5.73573e-05 0.0001513351 -0.0445686127 0.8437238126
760295440.0 0.0695738088 -0.8425796334 1.63498e-05 9.36367e-05 -5.0005e-06 8.40537e-05 -0.0369309945 0.8435094557
765295410.0 0.0613300376 -0.84366546 0.0001259099 2.31219e-05 2.16539e-05 -5.48987e-05 -0.0277028005 0.8440705245
770295380.0 0.0530036018 -0.8440223041 -1.75926e-05 3.47358e-05 3.5379e-06 -4.89536e-05 -0.0191311954 0.8445008732
775295350.0 0.0445175107 -0.8441613629 -0.0001430177 8.81955e-05 3.5386e-06 0.0001477146 -0.0119942925 0.8441503601
780295320.0 0.0358355205 -0.8445286443 0.0001487458 -5.93563e-05 9.87994e-05 -0.0001425604 -0.0034660509 0.8448333266
785295290.0 0.02748287 -0.8442681842 -0.0001987745 0.0001266678 0.0001268521 9.8029e-06 0.0047070126 0.8449479327
790295260.0 0.0194942995 -0.8444441875 8.70996e-05 -7.89703e-05 -3.91708e-05 -0.0001562223 0.01428564 0.8442786443
795295230.0 0.0108292665 -0.8443576289 -4.60012e-05 -8.10386e-05 -5.25329e-05 -8.10686e-05 0.0219962991 0.84453735
800295200.0 0.002592363 -0.8439902673 -0.0001776361 0.0002025797 -0.0001813572 -2.3588e-05 0.030069744 0.8438055657
805295170.0 -0.0051377804 -0.8446926163 6.21678e-05 -0.000101425 -1.85685e-05 -2.93733e-05 0.03813613 0.8434048441
810295140.0 -0.0134332396 -0.8441903617 8.83625e-05 -7.94457e-05 -4.0968e-05 -1.91942e-05 0.0466315654 0.8442882935
815295110.0 -0.0216041517 -0.8434484237 0.0001160969 0.0001376522 -0.0001446305 3.91943e-05 0.0549495869 0.8432756206
820295080.0 -0.0306931845 -0.8430569557 -0.0001251812 7.89535e-05 -9.92307e-05 0.0002051777 0.0631362745 0.8423633064
825295050.0 -0.0390796982 -0.8426771817 0.0001499306 -0.000109457 -0.0001335932 9.91631e-05 0.0716344403 0.8422901801
830295020.0 -0.0471022298 -0.8421814102 -0.0002331432 -6.98505e-05 1.0744e-06 -0.0001687402 0.0792055087 0.8409373164
835294990.0 -0.0552162244 -0.8417256735 -2.57018e-05 -3.76835e-05 1.84989e-05 -0.0001467775 0.0875927999 0.8402353275
840294960.0 -0.0637698373 -0.8411590119 -0.0002027693 -0.0002051442 -3.21585e-05 -0.0002767434 0.0955511524 0.8395763972
845294930.0 -0.0716697562 -0.8407374655 4.55896e-05 -3.07481e-05 -0.0002212809 5.15234e-05 0.1042454376 0.8382094884
850294900.0 -0.0801261474 -0.839059372 0.0002875912 -9.19919e-05 0.0001167588 -6.63295e-05 0.1120516133 0.8372604057
