!Created with skrf (http://scikit-rf.org).
# Hz S RI R 50.0 
!freq ReS11 ImS11 ReS21 ImS21 ReS12 ImS12 ReS22 ImS22
300000.0 -0.239475275 -0.098591704 0.4676063229 0.0643295167 0.4685820036 0.0686745307 -0.2352896133 -0.1076494748
5299970.0 -0.2438049815 0.0070364604 0.4739450172 0.0052404089 0.4738257841 0.0053416005 -0.2440634457 0.006273835
10299940.0 -0.2406814777 0.0200996502 0.4762594689 0.0060537526 0.475946833 0.0065738579 -0.2413983623 0.0182778776
15299910.0 -0.2360343579 0.0292319682 0.4793808712 0.0080030577 0.4792516393 0.0076538862 -0.2366073078 0.0274522539
20299880.0 -0.2305708338 0.0374169643 0.4844819748 0.0084291038 0.4843128475 0.008279902 -0.2323012251 0.0355816771
25299850.0 -0.2248408179 0.0435016528 0.4898156537 0.0074066121 0.4894821149 0.007335511 -0.2270417702 0.0414455418
30299820.0 -0.2190999695 0.0485570841 0.4951578598 0.0058777531 0.4949313578 0.0053007762 -0.2218549038 0.0470551567
35299790.0 -0.2131097476 0.052949598 0.5004059946 0.0020195405 0.5005461412 0.0021088677 -0.2163485548 0.0511149135
40299760.0 -0.2075203962 0.0557222573 0.5057772192 -0.0013871205 0.5056603502 -0.0019521643 -0.2113340784 0.0545004092
45299730.0 -0.2025907273 0.0585673668 0.5104266932 -0.0066269825 0.5104178864 -0.0064627717 -0.2069504624 0.0573761097
50299700.0 -0.1980282619 0.06027619 0.514586493 -0.0121148141 0.5145010759 -0.0120639804 -0.2022815028 0.0596213289
55299670.0 -0.1937412657 0.0617304436 0.5177828088 -0.0181195909 0.5183691102 -0.0177884044 -0.1986713359 0.0613756142
60299640.0 -0.1895155482 0.0628075345 0.5211693878 -0.0243105356 0.5212624686 -0.0243183489 -0.1943132226 0.0629787649
65299610.0 -0.186232403 0.063949984 0.5246447487 -0.0302650845 0.5246960833 -0.0305035112 -0.1912651915 0.0642881037
70299580.0 -0.1826419022 0.0644175286 0.5265263005 -0.0371113681 0.5270006558 -0.0371487314 -0.1883483173 0.0656983864
75299550.0 -0.1795560591 0.06482696 0.5287519889 -0.0437314485 0.5286506114 -0.043861633 -0.1851916843 0.0666709177
80299520.0 -0.177392905 0.0657786115 0.5309411073 -0.0507395566 0.5308892347 -0.0507858629 -0.1823860134 0.0672230641
85299490.0 -0.1747754083 0.0660398839 0.5321039233 -0.0580283336 0.5318663412 -0.057680099 -0.1803814524 0.068125602
90299460.0 -0.1726416805 0.0666765366 0.5330149178 -0.0644598075 0.5333288061 -0.0648083322 -0.1774749838 0.0691783056
95299430.0 -0.1704183986 0.0672539589 0.5341156959 -0.0720436091 0.5342609991 -0.0717901277 -0.1758858656 0.0700603098
100299400.0 -0.1688409374 0.0678807293 0.5343697359 -0.0789161597 0.534420817 -0.078487529 -0.1743381624 0.0706815946
105299370.0 -0.1668933989 0.0679939116 0.5342030442 -0.0850195354 0.5347040893 -0.0858196367 -0.1719690312 0.0719698278
110299340.0 -0.1656667748 0.0686211582 0.5348292599 -0.0921983575 0.5349777718 -0.0927861785 -0.1708340074 0.0727466062
115299310.0 -0.1639389393 0.0686159547 0.5346043529 -0.0985947799 0.5351177568 -0.0987748077 -0.1690209159 0.0728296074
120299280.0 -0.1628698325 0.0693714796 0.53481851 -0.1058827736 0.5346638758 -0.1060293332 -0.1679527459 0.0741197598
125299250.0 -0.1617226318 0.0699194629 0.5345254831 -0.1123333444 0.5349024207 -0.1126247332 -0.1665987713 0.0749660195
130299220.0 -0.1605568229 0.07056648 0.5335608644 -0.1188842372 0.5338070304 -0.1195214406 -0.1654339499 0.0760173217
135299190.0 -0.1593696663 0.070985199 0.5327064021 -0.125653535 0.5328987267 -0.1259945641 -0.1642802323 0.0769648642
140299160.0 -0.158760928 0.072264231 0.5321841291 -0.1326012206 0.5325408041 -0.1328744772 -0.1628456005 0.0778289915
145299130.0 -0.1574790628 0.0727061331 0.5317776478 -0.1393883809 0.5312223851 -0.1388906273 -0.1619839194 0.0786566987
150299100.0 -0.1566061508 0.0735241079 0.5304686877 -0.1457989827 0.5304857872 -0.1455156687 -0.1607560488 0.0796341652
155299070.0 -0.1559269485 0.0747125128 0.5291145665 -0.1523657851 0.5291477131 -0.1527307484 -0.1598726425 0.081233165
160299040.0 -0.1549643218 0.0754353741 0.5272319739 -0.1583147673 0.527559032 -0.1590481687 -0.1588785198 0.0825026858
165299010.0 -0.1542860155 0.0763753026 0.5266485904 -0.1650506392 0.5263199731 -0.1654599453 -0.15788295 0.0833008353
170298980.0 -0.1535685851 0.0772256972 0.5242123007 -0.1716548425 0.5244986164 -0.171822192 -0.1570373975 0.0844323346
175298950.0 -0.152789205 0.0782745121 0.5235355704 -0.1776940012 0.5234174352 -0.1777170166 -0.1561039552 0.0854721792
180298920.0 -0.1517377129 0.0788866631 0.5213939245 -0.1843104181 0.5213633273 -0.1840057048 -0.1550100336 0.087324473
185298890.0 -0.1508949089 0.0800539342 0.5191644491 -0.1903376115 0.5196509844 -0.1902552255 -0.1544508433 0.0882160089
190298860.0 -0.1503496922 0.0811195949 0.517531942 -0.1966765819 0.5178713779 -0.1969581376 -0.152621635 0.0894551754
195298830.0 -0.1495894356 0.0819465042 0.5155288212 -0.2024300603 0.5153745368 -0.2028865233 -0.1518821822 0.0906884942
200298800.0 -0.1489049542 0.0833208962 0.5135298628 -0.2081559753 0.5135431073 -0.2084373872 -0.1506693639 0.0921859053
205298770.0 -0.1481572012 0.0844846044 0.5117410798 -0.214355898 0.511400386 -0.2147226231 -0.1499485412 0.0931139922
210298740.0 -0.1475922237 0.0856402421 0.5092671256 -0.2209702526 0.509236445 -0.2212138432 -0.1491432913 0.0949626399
215298710.0 -0.1468542281 0.0866751938 0.5071572299 -0.2263755506 0.5067675114 -0.2267840526 -0.1484959828 0.0963730855
220298680.0 -0.1459865552 0.0878657477 0.5044766099 -0.2328813779 0.5046844101 -0.2326941956 -0.1471674734 0.0978449092
225298650.0 -0.1447862832 0.0894007223 0.5018251276 -0.2386219229 0.5018732945 -0.2383088888 -0.1462781846 0.0992719845
230298620.0 -0.1446595571 0.0906678818 0.5001101513 -0.2443265376 0.5000269301 -0.2444255676 -0.1454110204 0.1005648246
235298590.0 -0.1435061549 0.0915412664 0.4966827052 -0.2496162889 0.4969677634 -0.2504751422 -0.1440071743 0.1015424569
240298560.0 -0.1431443512 0.0929586522 0.4942563901 -0.2555303584 0.4942844236 -0.2553798043 -0.1431876884 0.1034853202
245298530.0 -0.1419368745 0.0942625786 0.4907141999 -0.2613423428 0.4913756911 -0.2614600623 -0.1420403762 0.1047992294
250298500.0 -0.1417469068 0.0952052485 0.4885213267 -0.2664016544 0.4886736736 -0.2666863785 -0.1403861161 0.1062005992
255298470.0 -0.1408381727 0.0968742287 0.4853251217 -0.273103765 0.4858094784 -0.2729099609 -0.1396715563 0.1074619941
260298440.0 -0.1400166278 0.0980714415 0.4826158727 -0.2782183679 0.4825705828 -0.2780496427 -0.138312242 0.1092659903
265298410.0 -0.1385785139 0.0995283719 0.479428734 -0.2844617511 0.4796311358 -0.2838783846 -0.137487931 0.1103763477
270298380.0 -0.1377429934 0.1004237746 0.4762008073 -0.2886879425 0.4767206367 -0.2891135739 -0.1360438218 0.1121456693
275298350.0 -0.1370807344 0.1020401929 0.4729786041 -0.2950424609 0.4735807068 -0.2949982543 -0.1349940318 0.1134945289
280298320.0 -0.1363505942 0.1032761793 0.4701898187 -0.299530136 0.4699710218 -0.3003500929 -0.1335706463 0.1150007287
285298290.0 -0.1351868567 0.1048019818 0.4671834122 -0.3053811966 0.4669570335 -0.3054959656 -0.1325826623 0.1164003597
290298260.0 -0.1342074691 0.1059900064 0.4638746472 -0.310896288 0.463608103 -0.310793659 -0.1309480141 0.1180314608
295298230.0 -0.1332968875 0.1070569878 0.4604606778 -0.3160341448 0.4600020807 -0.3159324357 -0.1295148826 0.119470124
300298200.0 -0.1323156559 0.1086029878 0.4566359195 -0.3214878259 0.4568953095 -0.3212656531 -0.1284959141 0.1209399114
305298170.0 -0.1313005023 0.1093943454 0.4535346731 -0.3266123747 0.4538251169 -0.3265428389 -0.1267419323 0.1221785604
310298140.0 -0.1297483475 0.1105153725 0.4496416789 -0.331663962 0.4501220833 -0.3322144232 -0.1257503247 0.1240401749
315298110.0 -0.1292046243 0.1119074411 0.4462319519 -0.3370158581 0.4464604458 -0.3370963075 -0.1240912426 0.1248432714
320298080.0 -0.1280341102 0.1133338187 0.4424496877 -0.3425284779 0.4425693978 -0.3418992216 -0.1230681255 0.1262240846
325298050.0 -0.1273065843 0.1142537001 0.4389317345 -0.3472821264 0.4389803609 -0.3476142164 -0.1213610542 0.1276717975
330298020.0 -0.1263637466 0.1156557889 0.4338608367 -0.3522186119 0.4345168305 -0.3521700141 -0.1204189223 0.1288549011
335297990.0 -0.1254171317 0.1165728904 0.4304643902 -0.3569412368 0.4303301259 -0.3569020274 -0.1193603 0.1302736609
340297960.0 -0.1248620245 0.1181421746 0.4259698379 -0.3620596509 0.4263706149 -0.3619464992 -0.1178165903 0.1320600712
345297930.0 -0.1238958324 0.1196876778 0.4224787427 -0.366241767 0.4219118828 -0.3663687984 -0.1165174488 0.1330407969
350297900.0 -0.1224814795 0.1208299166 0.4180956461 -0.3703220723 0.4184198384 -0.3710941422 -0.1152764759 0.1347300605
355297870.0 -0.1216779486 0.1219670168 0.4139304519 -0.3756492622 0.4139119012 -0.3759079679 -0.1139609857 0.1362414672
360297840.0 -0.120283076 0.123590339 0.4096301677 -0.3807507249 0.4098656534 -0.3806636783 -0.1121057768 0.138165592
365297810.0 -0.1190238681 0.1246836302 0.4052910682 -0.384727318 0.4055506826 -0.3849426985 -0.1110454209 0.1393548611
370297780.0 -0.1178525938 0.1260054654 0.4006303995 -0.3893503186 0.401306243 -0.3893498456 -0.1090915168 0.1409181808
375297750.0 -0.1168056526 0.1275535214 0.3971418026 -0.3936715436 0.3970032037 -0.3937450342 -0.1075078052 0.1421620212
380297720.0 -0.1154844865 0.1283371418 0.3927131605 -0.3976939096 0.3925624862 -0.3981436364 -0.1060766631 0.1437867617
385297690.0 -0.1141987029 0.1299652805 0.3880436148 -0.4018190816 0.3884546404 -0.402026319 -0.1047432338 0.1452513643
390297660.0 -0.1131392549 0.1309690576 0.3835280599 -0.4064400708 0.3837558823 -0.4066023484 -0.102763953 0.14603271
395297630.0 -0.1116612118 0.1318708683 0.3794061574 -0.4102245907 0.3792650038 -0.4107661472 -0.1014652231 0.1480684482
400297600.0 -0.1104807799 0.1337824552 0.3746706 -0.4150532374 0.3753237315 -0.4150095775 -0.1002064653 0.1489742497
405297570.0 -0.1092226135 0.134793825 0.3704775239 -0.4190628509 0.3703509134 -0.4193239208 -0.0983279956 0.150674478
410297540.0 -0.1079318249 0.1357122097 0.3650420439 -0.4227593083 0.3655918668 -0.4227483515 -0.097128955 0.1515830303
415297510.0 -0.1068596494 0.1374175665 0.3608508727 -0.4269314857 0.3607174567 -0.4267813628 -0.0949477641 0.1532894943
420297480.0 -0.1052462425 0.1379654294 0.3557667929 -0.4310479994 0.3560288706 -0.4306447297 -0.0931417084 0.1541955769
425297450.0 -0.1039192068 0.1391294061 0.3513401649 -0.4346784372 0.3516567483 -0.435013387 -0.0913759791 0.1559033658
430297420.0 -0.102916656 0.1404590222 0.3465594656 -0.4388930906 0.3468568192 -0.4388513882 -0.0902169383 0.1567941241
435297390.0 -0.1011779407 0.1416573698 0.341969038 -0.4420136443 0.3417621044 -0.4421250756 -0.0881202983 0.1582536596
440297360.0 -0.1000232689 0.1428562902 0.3367326998 -0.4460901583 0.3365814167 -0.4456389504 -0.0867854664 0.1587294812
445297330.0 -0.0982434798 0.1437689053 0.3315225176 -0.4500089749 0.3317398048 -0.4498590933 -0.0847881805 0.1603342252
450297300.0 -0.0968073817 0.1448490479 0.326532025 -0.4532895288 0.3273378782 -0.4533567095 -0.0834032055 0.1616665891
455297270.0 -0.0955412942 0.1458984385 0.3221633197 -0.4568532315 0.3224845121 -0.4565885174 -0.0814225357 0.162632522
460297240.0 -0.0945416944 0.1470818157 0.3171604954 -0.4600166053 0.3168381674 -0.4602816638 -0.0798151141 0.1643831844
465297210.0 -0.0924656317 0.1478518675 0.3122796124 -0.4637950941 0.312012014 -0.4639300208 -0.0783293512 0.1647905844
470297180.0 -0.0912651896 0.1487135536 0.3070076147 -0.4668295973 0.307223568 -0.4669733452 -0.0767133589 0.1659111712
475297150.0 -0.0904037447 0.1496881994 0.3016827398 -0.4700689538 0.3021669571 -0.4698469354 -0.0746846103 0.1669825808
480297120.0 -0.0884890183 0.1505713491 0.2966632105 -0.4733728687 0.2973180802 -0.4735111804 -0.0730881204 0.1683739219
485297090.0 -0.0868795016 0.1516267127 0.2917907288 -0.476386325 0.2916520727 -0.4766849603 -0.0710512228 0.1687943282
490297060.0 -0.0855270258 0.1524834831 0.2865358746 -0.4798593258 0.2864743746 -0.47973244 -0.0692094492 0.1700057439
495297030.0 -0.0840838272 0.1540006705 0.280772906 -0.483023229 0.2810836897 -0.4831650445 -0.0674731297 0.1710045958
500297000.0 -0.082528619 0.1545361216 0.27581606 -0.4858885983 0.2759306132 -0.4858358382 -0.0660007633 0.1719100111
505296970.0 -0.0814028934 0.1555171885 0.270329494 -0.4885061619 0.2706041241 -0.4887752961 -0.0646720311 0.1730228922
510296940.0 -0.0795953941 0.1563848422 0.2650082418 -0.4918608357 0.2651200682 -0.4921772988 -0.0620907414 0.1742353019
515296910.0 -0.0782578483 0.1573950022 0.2596551518 -0.4942368302 0.2594774857 -0.4945114283 -0.060503714 0.1747821397
520296880.0 -0.0765021714 0.1581699154 0.2540660076 -0.4970927382 0.2546821855 -0.4971345243 -0.0582367316 0.1755692042
525296850.0 -0.0751691206 0.1587252041 0.2489735037 -0.4996440808 0.2491515163 -0.5005139507 -0.0559465697 0.17618984
530296820.0 -0.0736427088 0.1597347784 0.2437184039 -0.5018831036 0.2433162727 -0.502693465 -0.054982474 0.1770635107
535296790.0 -0.0719536874 0.1604105354 0.2376930292 -0.5047870946 0.2383964969 -0.5047389358 -0.0526191177 0.1776660349
540296760.0 -0.0705199308 0.1610668322 0.2323882618 -0.5080549473 0.2323218267 -0.5080835927 -0.0511769562 0.1788310108
545296730.0 -0.0689330699 0.1626016158 0.226537087 -0.5099361196 0.2270238644 -0.5104641125 -0.0490433745 0.1790982876
550296700.0 -0.0675995645 0.1629272357 0.2216092862 -0.5121523694 0.2217102093 -0.5128112365 -0.0472670131 0.180270902
555296670.0 -0.0656801439 0.1637752362 0.2161347924 -0.5149563074 0.2155387646 -0.5147719086 -0.0453216352 0.1806851908
560296640.0 -0.0641704384 0.1642966441 0.2107794269 -0.5169576289 0.2105592264 -0.5169789672 -0.0430538302 0.1815616177
565296610.0 -0.0626708806 0.1651495151 0.2044105026 -0.5193136513 0.2042499683 -0.519154156 -0.0416284823 0.1822884996
570296580.0 -0.0608859813 0.1660972503 0.1988643063 -0.5214570196 0.1995260419 -0.521659322 -0.0392411209 0.1831449158
575296550.0 -0.0593944788 0.1668598035 0.1935925987 -0.5232162564 0.193734143 -0.5235115672 -0.0374298086 0.1832135667
580296520.0 -0.0578887774 0.1672876269 0.1879533394 -0.5256996603 0.1875410532 -0.5260476021 -0.0353721712 0.183820646
585296490.0 -0.0556434443 0.1679355842 0.1819122084 -0.5279038633 0.182252789 -0.5275496662 -0.0336133179 0.1838604874
590296460.0 -0.054882681 0.1683111095 0.1760550748 -0.529443445 0.1760853553 -0.529638452 -0.0313848364 0.1851891686
595296430.0 -0.0528596468 0.1692520673 0.1707309779 -0.5313517286 0.1701735063 -0.531613787 -0.0293946373 0.1854339477
600296400.0 -0.051275702 0.1701058759 0.1649080184 -0.533051846 0.1647013875 -0.5335793713 -0.0272709455 0.1860180783
605296370.0 -0.0495018119 0.1708552632 0.1589044752 -0.5349631913 0.1592908103 -0.5345148983 -0.0255616803 0.1864771238
610296340.0 -0.0477564781 0.1713490835 0.1534319227 -0.5364624495 0.1534211207 -0.5364871821 -0.0233234364 0.1870724604
615296310.0 -0.0463515857 0.1718739541 0.1468463173 -0.5381214699 0.1472586813 -0.5380978634 -0.0212842494 0.1873563587
620296280.0 -0.0447926699 0.1723502547 0.1413965392 -0.539606569 0.1416038567 -0.5395008448 -0.019405045 0.1873938116
625296250.0 -0.042785464 0.1731639835 0.135096858 -0.5415289349 0.1358913923 -0.54130189 -0.0175553977 0.1880489395
630296220.0 -0.0410551929 0.1736701377 0.1295882556 -0.5428754824 0.130042591 -0.5427127344 -0.0154276724 0.188178869
635296190.0 -0.0396183329 0.1741741514 0.1240017207 -0.5434265044 0.1237697511 -0.5435171381 -0.0135850466 0.188486958
640296160.0 -0.0379478868 0.1745623487 0.1182037669 -0.5446634728 0.1180227708 -0.5451674216 -0.0109735701 0.1888743286
645296130.0 -0.0362173871 0.1753143639 0.112147684 -0.5463752571 0.1120735234 -0.54611845 -0.0100338987 0.1886998747
650296100.0 -0.0346085833 0.1761162051 0.1066702837 -0.547496896 0.1062758959 -0.5475531461 -0.0070462395 0.189249585
655296070.0 -0.0327904307 0.1762216028 0.1003589984 -0.5483708239 0.1004386906 -0.5484701334 -0.0048700147 0.1896819359
660296040.0 -0.0315541967 0.1769546283 0.0943230569 -0.5490350439 0.0945811374 -0.5493692454 -0.003020807 0.1892990541
665296010.0 -0.0294082495 0.1773665609 0.0888229554 -0.5505101754 0.0891332946 -0.5504183046 -0.0015651704 0.190185684
670295980.0 -0.0273688389 0.1775407755 0.082478155 -0.5511190473 0.0832024734 -0.5511685337 0.0003688892 0.1899824304
675295950.0 -0.0256377626 0.1780978923 0.0763658578 -0.5520418709 0.0768331897 -0.5525193539 0.0033865883 0.1903256033
680295920.0 -0.0242286767 0.1788374689 0.0708008834 -0.5526736217 0.0704170877 -0.5530765415 0.005490582 0.1900948898
685295890.0 -0.0224166474 0.1788493115 0.0651385744 -0.5537023459 0.0645942893 -0.5539779097 0.0073600728 0.1905038216
690295860.0 -0.0204213157 0.1793539987 0.0587627604 -0.553906238 0.0585303736 -0.5540724731 0.0096504599 0.1904962374
695295830.0 -0.0184030482 0.179583839 0.0523127598 -0.5548238084 0.0523866359 -0.5549990706 0.0114068766 0.1905447354
700295800.0 -0.0167596252 0.1799865624 0.0465917466 -0.5552309088 0.0465693347 -0.5557477771 0.0133515958 0.1902158575
705295770.0 -0.0147570948 0.1802055699 0.0404832372 -0.5556979634 0.0411652358 -0.5559208493 0.0152930788 0.19082268
710295740.0 -0.0135900432 0.1806664575 0.0349009265 -0.5558272889 0.0352355842 -0.5558940996 0.0166539225 0.1907474655
715295710.0 -0.0117021121 0.1811144404 0.0285871529 -0.5566009034 0.0289239841 -0.5565848397 0.0195764687 0.1902217551
720295680.0 -0.0098704291 0.1810483016 0.0224850419 -0.5566158459 0.0226954237 -0.5572671114 0.0219337193 0.1907770304
725295650.0 -0.0079247703 0.181401853 0.016360241 -0.5569165945 0.0168110994 -0.5569881818 0.023652899 0.1906837956
730295620.0 -0.006519233 0.1816547643 0.0106158592 -0.5570357483 0.0104803284 -0.5569921331 0.0262808701 0.1899100679
735295590.0 -0.0040915648 0.181778695 0.0048969805 -0.5570147266 0.0049903073 -0.5572283794 0.0281663937 0.1901025684
740295560.0 -0.0025921909 0.1822827246 -0.0013246173 -0.5565735139 -0.0015303788 -0.5570393499 0.0302223847 0.1899427333
745295530.0 -0.0008641927 0.1820738875 -0.0072143863 -0.556838139 -0.0071813586 -0.5572616817 0.0320938548 0.1897857863
750295500.0 0.0009204919 0.1822808739 -0.0134920398 -0.5563564599 -0.0134149595 -0.5563702522 0.034215252 0.1889273189
755295470.0 0.003224038 0.1826757334 -0.0194791358 -0.5566176616 -0.0188465465 -0.5570393415 0.035658834 0.1893217533
760295440.0 0.0046499454 0.1827921057 -0.0253368893 -0.5565344069 -0.0254756889 -0.5564525043 0.0377960634 0.1890330633
765295410.0 0.0060871122 0.1827087204 -0.0306702119 -0.5556094907 -0.0310381088 -0.5563755755 0.0407125197 0.1890702018
770295380.0 0.0082348882 0.1830695122 -0.0372922082 -0.5554606327 -0.0373633475 -0.5561434317 0.0427336834 0.1886626914
775295350.0 0.0098976393 0.1831973077 -0.0433216763 -0.5548385873 -0.0434947956 -0.5551631705 0.0442166558 0.1878003404
780295320.0 0.0118123833 0.1830017898 -0.0488516508 -0.5545115793 -0.048895479 -0.5546345793 0.0464533447 0.1879536995
785295290.0 0.0133178239 0.1832081757 -0.0550167261 -0.5534873211 -0.0551815723 -0.554118446 0.0481615205 0.1874679054
790295260.0 0.01535237 0.1833354227 -0.0611142869 -0.5535187767 -0.0608905156 -0.5534398314 0.0506186802 0.1869658953
795295230.0 0.0171722072 0.1833725592 -0.0664148375 -0.5523141793 -0.0671484337 -0.5525676744 0.0524613464 0.187548328
800295200.0 0.0190259938 0.1834299726 -0.0732254921 -0.5520680666 -0.0734183652 -0.55194953 0.0546213988 0.1865424625
805295170.0 0.0204093151 0.1832032395 -0.0792307096 -0.5503502273 -0.0786892676 -0.5509924102 0.0564653423 0.1857296994
810295140.0 0.0227138585 0.1832555346 -0.084795527 -0.5504039222 -0.0846451037 -0.5506215322 0.0586457834 0.1858227247
815295110.0 0.0244534337 0.1830203132 -0.0911061055 -0.5485005972 -0.0910806596 -0.5490344383 0.0605094692 0.1848930329
820295080.0 0.0260976212 0.1829040292 -0.096653235 -0.5484671464 -0.0966801742 -0.5483932544 0.0622801906 0.1844540395
825295050.0 0.0282963291 0.1828360917 -0.1025657313 -0.5465315974 -0.1026425208 -0.5469773682 0.0647968794 0.1841843683
830295020.0 0.0298236156 0.1827522351 -0.1084744137 -0.5453730319 -0.108869644 -0.5459061392 0.0665374206 0.1833882675
