!Created with skrf (http://scikit-rf.org).
# Hz S RI R 50.0 
!freq ReS11 ImS11 ReS21 ImS21 ReS12 ImS12 ReS22 ImS22
300000.0 -0.7729996921 -0.1695943351 -0.0019115954 0.000409271 0.0006460082 0.0014069813 -0.7702880854 -0.1893315478
5299970.0 -0.7862807955 -0.0087383442 -3.48935e-05 -2.1112e-06 2.01829e-05 3.70783e-05 -0.7849178187 -0.0090723163
10299940.0 -0.789520361 -0.0059053332 5.19481e-05 0.0001126692 -2.22214e-05 -1.33367e-05 -0.7876189144 -0.0054052393
15299910.0 -0.7942559781 -0.0032696286 6.71819e-05 0.0001617543 -7.03791e-05 1.01112e-05 -0.7929657501 -0.002600565
20299880.0 -0.8011331718 0.0005486567 0.0001513345 -4.40661e-05 -3.13541e-05 7.24611e-05 -0.7998952304 0.0018706175
25299850.0 -0.8078896184 0.0068959903 1.72702e-05 6.61504e-05 -0.0001233791 -8.302e-05 -0.8065575474 0.0081423192
30299820.0 -0.8141717533 0.0139108952 8.85184e-05 5.15887e-05 4.76615e-05 -1.84715e-05 -0.8121526985 0.0160450744
35299790.0 -0.8187808206 0.0229390621 -6.8104e-06 -7.53723e-05 -0.0001845594 -0.0002261708 -0.8174225389 0.0246499474
40299760.0 -0.8238040282 0.0321602087 -0.0002166919 -5.40944e-05 6.50868e-05 4.89112e-05 -0.8212979508 0.0339229343
45299730.0 -0.8267826446 0.0420266313 4.69878e-05 5.66134e-05 9.44915e-05 -9.29567e-05 -0.8245006271 0.0435669056
50299700.0 -0.8292049456 0.0516581855 -1.159e-06 -0.00017466 -0.0001974232 -2.31609e-05 -0.8267726799 0.0539412222
55299670.0 -0.8314690058 0.0612187607 0.0001569002 0.0001085301 -0.0001211509 0.0002481778 -0.829166823 0.0636600421
60299640.0 -0.8325766815 0.0723127161 -0.0002231954 6.10078e-05 -8.85617e-05 0.0001508819 -0.8300068196 0.0737547921
65299610.0 -0.8336999294 0.081741384 0.0001521049 -5.98139e-05 3.1689e-05 -6.63428e-05 -0.8305160219 0.08341265
70299580.0 -0.8338348953 0.0914371624 -0.0001261384 -0.000119127 9.57452e-05 -4.74354e-05 -0.8314662207 0.0934839289
75299550.0 -0.8340688572 0.1014299678 -6.96614e-05 0.0002926047 8.92589e-05 0.0001201069 -0.8310100116 0.1039624831
80299520.0 -0.8338334043 0.1123530353 -0.0002424689 2.28144e-05 -9.8085e-06 0.000277481 -0.8310164068 0.1138412917
85299490.0 -0.8325013886 0.1209977254 -7.80632e-05 0.0001980505 -1.50353e-05 6.57284e-05 -0.830515492 0.1232981524
90299460.0 -0.8321285574 0.1318096568 -0.0001048794 -7.3624e-05 -9.691e-06 -2.96691e-05 -0.82947561 0.1326058739
95299430.0 -0.8313003269 0.1399458772 -1.43728e-05 -8.1324e-06 -2.06223e-05 -0.0002012742 -0.8282456411 0.1425634293
100299400.0 -0.8303886399 0.1496875117 2.14107e-05 -4.0894e-06 7.6038e-06 2.76105e-05 -0.8277684525 0.151574572
105299370.0 -0.8288635766 0.1590874477 9.31467e-05 -5.37858e-05 0.000134159 5.52161e-05 -0.8258651507 0.1607601091
110299340.0 -0.8275943126 0.1681089391 -0.0001605652 -2.27867e-05 8.6364e-06 8.53566e-05 -0.8245297798 0.1697162467
115299310.0 -0.8264073545 0.177567226 0.0002311057 -0.000152573 -0.0002109091 0.000115957 -0.8233991022 0.17922564
120299280.0 -0.8246354267 0.1864194063 -0.0001300559 -0.0001971977 5.3713e-05 -8.64461e-05 -0.821317345 0.1878734859
125299250.0 -0.8227469066 0.1952893202 0.0001504208 -0.0001516002 -0.0002218012 -0.0001461442 -0.8198953784 0.1972555513
130299220.0 -0.8214064897 0.2045395004 4.05183e-05 3.48775e-05 7.25296e-05 5.10967e-05 -0.8181198403 0.2058444287
135299190.0 -0.8191174159 0.214326015 7.26084e-05 0.0001162195 -7.74846e-05 6.94297e-05 -0.8163219508 0.2149630768
140299160.0 -0.8174460943 0.2231414841 -0.0003168895 0.0001478308 -4.76909e-05 -0.0001013559 -0.8142935919 0.2231643444
145299130.0 -0.8148699567 0.2318311791 9.58385e-05 0.0002707581 3.97699e-05 -0.0001095038 -0.8121280739 0.2326397512
150299100.0 -0.8118885651 0.2408088257 3.75462e-05 -0.0001502856 -6.32086e-05 1.01977e-05 -0.8099514719 0.2413374811
155299070.0 -0.810015936 0.2502671952 -5.19948e-05 0.0001064706 -1.89408e-05 -0.0001304064 -0.8069136877 0.2504080158
160299040.0 -0.8072145493 0.2588399287 9.8666e-06 0.0001474498 0.0002009748 -9.23677e-05 -0.8045401729 0.2591207349
165299010.0 -0.8047162648 0.2676587755 3.445e-05 0.000236378 -0.0001410195 -0.0002836836 -0.8020853454 0.2671807499
170298980.0 -0.8013824942 0.2765828579 -0.0002690065 0.0001177787 -1.8444e-05 -6.23194e-05 -0.799360809 0.2755821971
175298950.0 -0.7991625216 0.2838885566 0.0001029334 3.31558e-05 -5.23584e-05 9.05633e-05 -0.7966374211 0.285255351
180298920.0 -0.7963503551 0.2933136294 -1.94675e-05 -0.0002532237 -0.0001172149 -9.67388e-05 -0.7935987438 0.2927942106
185298890.0 -0.7930343254 0.302374459 7.09425e-05 0.0001349163 5.83997e-05 -7.2368e-06 -0.7905647752 0.3018731265
190298860.0 -0.7893050375 0.3111517211 2.1963e-06 0.0001316577 -3.36676e-05 -9.0057e-06 -0.7873138046 0.310100814
195298830.0 -0.7860695167 0.3192225214 3.62501e-05 4.65335e-05 -0.0001208121 7.16788e-05 -0.7841708543 0.3182081756
200298800.0 -0.7827929539 0.3277084898 0.0001203553 7.48544e-05 8.03e-08 -8.09179e-05 -0.7811087815 0.3263088971
205298770.0 -0.7788486625 0.3367040109 8.1206e-06 0.000125909 0.0002140911 0.00021023 -0.7775010276 0.3348936274
210298740.0 -0.7758432338 0.344421392 -1.69879e-05 -0.0001368177 0.0002317278 9.1193e-05 -0.7746479311 0.3433495964
215298710.0 -0.7722180933 0.3533760261 6.58132e-05 -0.0001530969 -3.64945e-05 8.53162e-05 -0.7705635227 0.3510808395
220298680.0 -0.7689848171 0.360514288 0.0002310874 9.18309e-05 5.30168e-05 -1.63919e-05 -0.7666835212 0.3593066596
225298650.0 -0.7647178564 0.3693893307 -7.88505e-05 0.0001590975 -3.66412e-05 -5.27919e-05 -0.7632376393 0.3681326769
230298620.0 -0.7609941139 0.377741325 0.0001986486 -9.2535e-05 -7.61573e-05 -0.000124689 -0.759219273 0.3752046309
235298590.0 -0.7573660878 0.3859413427 -0.0001435158 0.0001659321 0.0001950909 -0.0001487898 -0.7551465155 0.3837180321
240298560.0 -0.7532863269 0.3937288494 -0.0001189528 -4.66858e-05 5.74518e-05 7.91406e-05 -0.7515825791 0.3910719567
245298530.0 -0.749041145 0.401650435 -6.01062e-05 6.94974e-05 0.0001875605 -5.02033e-05 -0.7479405629 0.3991505886
250298500.0 -0.7448330844 0.4096452502 -6.2405e-05 -4.34867e-05 2.27959e-05 -0.00017044 -0.7428001103 0.4073819421
255298470.0 -0.7407980423 0.4171269385 -7.06617e-05 -2.7072e-06 1.02448e-05 2.7916e-05 -0.7392561426 0.4148727785
260298440.0 -0.7363490932 0.4247756688 -0.000146107 -0.0001052537 0.0001479948 -9.93882e-05 -0.7342709314 0.4221375631
265298410.0 -0.7320526547 0.4327199639 -6.34099e-05 0.0001562697 0.0001171302 2.8039e-05 -0.7296925963 0.4302164122
270298380.0 -0.7275565072 0.4402848216 -1.46612e-05 4.99947e-05 -1.83279e-05 -4.6032e-05 -0.7255122809 0.4380232523
275298350.0 -0.723512332 0.4482111682 0.0001712326 -0.0001064614 3.6517e-06 -5.1974e-06 -0.7207575511 0.4457559871
280298320.0 -0.718267865 0.4556015386 -0.0001644613 -0.000316587 -7.68201e-05 5.96209e-05 -0.716599901 0.4529437125
285298290.0 -0.713524176 0.4628097463 -1.00014e-05 0.0001246212 -8.02093e-05 -0.000138897 -0.7125201571 0.4604808163
290298260.0 -0.7086754416 0.470910286 9.13097e-05 2.68395e-05 -0.0001957028 0.0001929324 -0.7063559344 0.4683409688
295298230.0 -0.7040422972 0.4781581202 -9.33676e-05 -0.0001163833 -5.1055e-06 0.0001919255 -0.7016152888 0.4752094418
300298200.0 -0.6993705292 0.4855700324 -2.88078e-05 8.616e-07 0.0001637486 -0.0001071332 -0.6966876168 0.4819733913
305298170.0 -0.6949694706 0.4926989025 2.57406e-05 0.0002380992 0.0002217157 -2.7427e-05 -0.6912342182 0.489280334
310298140.0 -0.6889949216 0.4995092822 0.0001705175 -0.0001124612 4.54028e-05 -0.0001436623 -0.6861744462 0.4971619239
315298110.0 -0.6844111371 0.507018289 0.0001165153 -9.4663e-05 5.18643e-05 4.6552e-05 -0.6812550833 0.5036816653
320298080.0 -0.6790297953 0.5142792866 2.96951e-05 -3.2278e-06 7.65408e-05 -5.81875e-05 -0.6764902506 0.5108234738
325298050.0 -0.6737055648 0.5206561077 2.8406e-06 -7.52494e-05 -2.43748e-05 -3.90411e-05 -0.6702982934 0.517376305
330298020.0 -0.6681406957 0.5276791029 -0.0001563578 0.0002448586 0.0002421271 5.62241e-05 -0.6649381232 0.5248359339
335297990.0 -0.663728519 0.534833727 -0.000205548 8.9318e-06 -0.0001816927 3.91805e-05 -0.6597826299 0.5313343104
340297960.0 -0.6579446656 0.5413697114 0.0002022337 -0.0001800585 -7.25058e-05 -1.04544e-05 -0.6540568039 0.5380899374
345297930.0 -0.6520699534 0.5481941207 -0.0001121311 -1.34662e-05 -4.54733e-05 4.023e-06 -0.6487197593 0.5446908471
350297900.0 -0.6463885831 0.5551148479 5.60526e-05 -6.17755e-05 4.50788e-05 -4.78319e-05 -0.6433623974 0.5507607565
355297870.0 -0.6412855368 0.5615058537 1.09664e-05 -0.0001006479 6.4378e-06 0.0001442976 -0.6373565638 0.5587720527
360297840.0 -0.6349685359 0.5682053751 4.83223e-05 4.492e-06 2.71509e-05 0.0001389847 -0.6308513789 0.5649559079
365297810.0 -0.6300100682 0.5749289211 -2.16252e-05 -6.02503e-05 -3.55393e-05 -2.5923e-06 -0.6261257998 0.5707268918
370297780.0 -0.6239911818 0.5804296213 5.03746e-05 -0.0001342534 0.000172791 -0.0001861727 -0.6200234959 0.5774713732
375297750.0 -0.6182193945 0.5866045466 3.12087e-05 2.22945e-05 -9.70548e-05 -8.14694e-05 -0.6136669461 0.5837475417
380297720.0 -0.6121724256 0.5929132625 0.0001596709 4.18193e-05 9.65443e-05 -1.6078e-05 -0.6069675423 0.5902786281
385297690.0 -0.6056992301 0.5991189539 -6.4823e-05 -0.0001140207 4.72688e-05 6.62369e-05 -0.6017010379 0.5966794966
390297660.0 -0.598505632 0.6052796179 -0.0001588933 -6.57608e-05 -8.92188e-05 -0.0001324601 -0.5949532321 0.602153544
395297630.0 -0.5927688735 0.6119816793 8.31927e-05 -8.71113e-05 -7.7067e-05 -9.72515e-05 -0.5877322202 0.6081036892
400297600.0 -0.5870173967 0.6184328955 -1.05177e-05 -0.0001555078 -7.7773e-06 8.92824e-05 -0.583322413 0.6140471823
405297570.0 -0.5807979904 0.6226251952 0.000164875 0.0002520437 -0.0001278761 8.83797e-05 -0.5758180039 0.6201668156
410297540.0 -0.5744246184 0.6298259468 3.29449e-05 1.63062e-05 -1.39095e-05 -6.33021e-05 -0.5692806787 0.625512965
415297510.0 -0.5685462752 0.6354271005 6.82696e-05 -1.97437e-05 0.0001576413 -3.47403e-05 -0.5629295379 0.6315312423
420297480.0 -0.5610917649 0.6404545436 0.0001514514 3.4938e-05 -5.5856e-05 -4.21439e-05 -0.5561328316 0.6381447217
425297450.0 -0.5549152691 0.6461609566 -0.0001251015 -0.0002138392 -3.304e-06 -0.0001690448 -0.550352954 0.6425959913
430297420.0 -0.5481916317 0.6516336559 -6.61825e-05 -9.77186e-05 -1.42803e-05 -8.01929e-05 -0.5431976291 0.6484104787
435297390.0 -0.5418030357 0.6570278471 6.61032e-05 -0.0002669497 -6.3813e-06 -3.3278e-06 -0.5370816643 0.6542246195
440297360.0 -0.5345438085 0.662873648 -5.83856e-05 -8.39292e-05 -0.0001797086 0.0001120876 -0.5306125263 0.6596349033
445297330.0 -0.5272828992 0.668215627 -6.5873e-05 -4.65226e-05 -2.05585e-05 2.8172e-06 -0.522892538 0.664643934
450297300.0 -0.5208283935 0.673781557 -0.0002190382 2.63992e-05 0.0001631663 -1.1023e-06 -0.5158662704 0.6693982875
455297270.0 -0.5142176347 0.678637323 -0.0001815997 4.98667e-05 2.2946e-06 1.36687e-05 -0.5099511358 0.6749342848
460297240.0 -0.5063761039 0.6841663334 3.69865e-05 -4.02051e-05 -5.6952e-06 2.2632e-05 -0.5025486664 0.6799169475
465297210.0 -0.4998727014 0.6894543075 1.11369e-05 -3.31648e-05 -0.0001471919 -0.0001642757 -0.4953662081 0.6860897235
470297180.0 -0.4921874479 0.6939197764 0.000219121 1.29701e-05 -0.0001083422 0.0001332258 -0.4880147487 0.6903719468
475297150.0 -0.485209568 0.698851512 -7.3073e-06 -9.31111e-05 0.0001418483 0.0001456519 -0.4812485399 0.6948320286
480297120.0 -0.4773491345 0.703672924 -4.3715e-05 -1.9919e-06 0.0001024009 8.07108e-05 -0.4749729666 0.7004532715
485297090.0 -0.4706109335 0.7082238901 -3.8732e-06 -4.73116e-05 -0.0001364754 0.000130392 -0.4677495808 0.7045371894
490297060.0 -0.4625645571 0.7136327892 9.42802e-05 -1.74093e-05 -9.83736e-05 -3.77925e-05 -0.4600315318 0.7091725459
495297030.0 -0.4550811728 0.7180565668 -0.0001511497 3.4744e-06 0.0001374301 -0.0002048602 -0.4527254937 0.713488462
500297000.0 -0.4475215653 0.7221597192 8.56579e-05 5.22542e-05 -6.22555e-05 -0.000130303 -0.4454405079 0.7184226576
505296970.0 -0.4396916955 0.7269751602 -0.0001697957 0.0001561875 -0.0003066186 0.0001158742 -0.4377519525 0.7225492612
510296940.0 -0.4323242556 0.7318973745 -0.0001550544 5.0559e-05 0.0001671359 -0.0002634267 -0.4299511153 0.7276893703
515296910.0 -0.4243247812 0.7354114514 -5.72917e-05 9.01243e-05 5.69787e-05 9.59734e-05 -0.4233089399 0.7311354671
520296880.0 -0.4162807004 0.7395216375 -6.22799e-05 7.98918e-05 -0.000230211 9.27578e-05 -0.4153830197 0.7361765451
525296850.0 -0.4092406666 0.7443343496 9.882e-07 3.96906e-05 0.0001239609 -1.97976e-05 -0.4080100747 0.7397602776
530296820.0 -0.4016273947 0.74799932 -0.0001625049 3.66801e-05 7.87186e-05 0.0002183312 -0.4006434053 0.7436303593
535296790.0 -0.3928405098 0.7521824282 0.0001511423 -1.27831e-05 0.0001391734 -0.0002198506 -0.3935926251 0.7483073219
540296760.0 -0.3850922962 0.7559421876 4.08599e-05 -2.64386e-05 -0.0001668982 -3.23926e-05 -0.3854620897 0.7514730393
545296730.0 -0.3777214922 0.7604972816 -0.00014634 -7.04967e-05 -4.4784e-05 3.72524e-05 -0.377683664 0.7555970343
550296700.0 -0.3693347823 0.7639231582 0.0002215408 3.51744e-05 5.1711e-06 1.35646e-05 -0.3706186132 0.7591883977
555296670.0 -0.3614219507 0.7679105198 -3.76065e-05 -5.0425e-06 3.7172e-06 -2.45944e-05 -0.3627747227 0.7628861453
560296640.0 -0.3536489147 0.7706945007 0.0001139913 9.01355e-05 -5.95076e-05 2.01442e-05 -0.3548161616 0.7665046743
565296610.0 -0.3456708467 0.7744799135 -0.0001478813 4.14643e-05 4.84231e-05 -6.59679e-05 -0.3468271694 0.7702367746
570296580.0 -0.3374900777 0.7779748922 0.0001710917 0.0001407492 8.8906e-05 0.0001015228 -0.3391468554 0.7732007622
575296550.0 -0.3283596582 0.7816619817 -3.35208e-05 8.0358e-05 4.43012e-05 6.96541e-05 -0.3311492822 0.77654875
580296520.0 -0.3211476394 0.7845124457 -9.8478e-06 7.88788e-05 0.0001279059 -0.000118184 -0.323918501 0.7797833603
585296490.0 -0.312513542 0.7871926121 0.0001782055 5.5606e-06 3.4918e-05 7.55556e-05 -0.3155176039 0.7832363133
590296460.0 -0.3043949397 0.7910028549 5.15297e-05 -9.11994e-05 -1.30449e-05 -5.5943e-05 -0.3079687522 0.7857815152
595296430.0 -0.2966277972 0.7939253157 -1.91542e-05 0.000207373 0.0002452687 4.23016e-05 -0.3002056699 0.7895644559
600296400.0 -0.2885325166 0.796656912 -7.58347e-05 3.75745e-05 0.0001350094 -4.71658e-05 -0.2920884205 0.7916606962
605296370.0 -0.2797886455 0.7996041411 -8.53149e-05 -0.0001575609 -0.0001522705 -2.01053e-05 -0.2838715724 0.7953383517
610296340.0 -0.2715706451 0.8026118874 1.77926e-05 5.70336e-05 -0.0001100019 6.10876e-05 -0.2766385654 0.7975366453
615296310.0 -0.263205044 0.8056431577 -5.0583e-06 1.03272e-05 -1.47344e-05 -2.45793e-05 -0.2679443944 0.8004279225
620296280.0 -0.2554638934 0.8081643981 -9.837e-07 -5.89026e-05 -0.0001026975 0.0001705199 -0.2603898417 0.8033211485
625296250.0 -0.2477610185 0.8102896401 5.75232e-05 3.7734e-06 -8.7134e-05 -4.76187e-05 -0.2520627716 0.8050327123
630296220.0 -0.2394242615 0.8134547742 -0.0001124552 0.0001538221 0.0001047322 4.83448e-05 -0.2438136289 0.8076836921
635296190.0 -0.230402694 0.8155314504 0.0002624969 0.0001348018 -0.0002189809 -8.79837e-05 -0.2358090609 0.8106884444
640296160.0 -0.2219734308 0.8184325961 -4.54335e-05 0.0001673619 -5.65748e-05 -4.00137e-05 -0.2277380022 0.8128189776
645296130.0 -0.213823779 0.8201771296 3.0194e-06 7.35935e-05 -0.0002023917 0.0002541232 -0.2196349709 0.8146533614
650296100.0 -0.2055347645 0.8220220588 -2.27477e-05 7.30852e-05 -0.0001078599 0.0001094768 -0.21093012 0.8170308984
655296070.0 -0.1973441313 0.8240561975 -0.0002891592 -6.55958e-05 -0.0001881005 -0.0002611756 -0.2036740167 0.8188817872
660296040.0 -0.189586353 0.8264925064 -6.60437e-05 0.0001182546 0.000272643 0.0001001838 -0.1946491531 0.8210649269
665296010.0 -0.1815468888 0.8288977607 -0.000168647 -6.6132e-05 2.7831e-06 -8.01601e-05 -0.186203232 0.8223137966
670295980.0 -0.1727611329 0.8304738484 6.9488e-06 -2.90568e-05 -0.0001182302 -0.0001370539 -0.1785894527 0.8243763961
675295950.0 -0.164044659 0.8324113535 -3.01273e-05 -9.86145e-05 -8.34492e-05 -0.0001064073 -0.1702363653 0.8265430686
680295920.0 -0.1569637797 0.8340994502 -5.14489e-05 2.59878e-05 0.0001463559 -3.57387e-05 -0.1614951807 0.8281861804
685295890.0 -0.1480364205 0.8359428849 5.51428e-05 0.0001652766 4.25855e-05 -0.0001268236 -0.1537899189 0.829746332
690295860.0 -0.1397634779 0.8371550868 -0.0002023013 -0.0001999319 0.0001099869 -0.0001691965 -0.1456190636 0.8309926935
695295830.0 -0.1306744492 0.8386121628 -1.97734e-05 -2.37156e-05 -6.6912e-06 4.78697e-05 -0.1369303443 0.8325957849
700295800.0 -0.1229247379 0.8400827705 -0.0002076061 -2.07177e-05 8.02997e-05 -1.03493e-05 -0.1284492192 0.8340072605
705295770.0 -0.1145834132 0.8418418858 -7.59243e-05 -0.0001682416 -0.0002604651 -0.0001259598 -0.1203432209 0.8353725178
710295740.0 -0.1073027027 0.8420973297 -0.0001886024 -5.10037e-05 3.771e-05 0.000173403 -0.111716183 0.8359512417
715295710.0 -0.0975471329 0.8437118365 1.25707e-05 -0.0001177748 -2.52196e-05 5.93435e-05 -0.1033663092 0.8371363606
720295680.0 -0.0892572083 0.8446268482 -8.68832e-05 0.0001119553 0.0001238375 -0.0001359817 -0.0953617757 0.8380350445
725295650.0 -0.0818586009 0.8460466119 0.0001321062 0.000159936 0.0001034449 0.0001322587 -0.0874771443 0.8391051171
730295620.0 -0.0739833693 0.8469622664 6.06817e-05 -5.9724e-06 8.708e-06 0.0001055731 -0.0790948827 0.8400587257
735295590.0 -0.0656374127 0.8478122588 -0.000104811 -0.0002059482 -9.76157e-05 0.0001912721 -0.070429578 0.8410612908
740295560.0 -0.0578507193 0.847756651 -2.61014e-05 9.88838e-05 3.72117e-05 0.0001505651 -0.0620246734 0.8416060269
745295530.0 -0.0492257049 0.8486604266 0.0001559215 8.41771e-05 -4.38873e-05 -9.5079e-06 -0.0537926221 0.8418414801
750295500.0 -0.0411120886 0.8495951641 0.0001636335 -1.14048e-05 -3.24002e-05 1.71e-08 -0.0450642718 0.8428876386
755295470.0 -0.0323885176 0.8502915834 -9.67303e-05 -0.0001030675 -0.0001478282 7.4303e-06 -0.0368191992 0.843359976
760295440.0 -0.0245586318 0.8514886709 -0.0001045499 0.0001023716 -0.0001637885 2.76206e-05 -0.0282026252 0.8427577707
765295410.0 -0.0163444318 0.8506367981 7.06272e-05 4.49154e-05 -3.19928e-05 -0.0001029176 -0.0199438687 0.8431602066
770295380.0 -0.0088272181 0.8515546319 -0.00011208 -0.0001643655 7.43275e-05 -2.10673e-05 -0.0116418002 0.8436527821
775295350.0 -0.0001949219 0.8517536166 0.0001742427 -9.64337e-05 -0.0001010895 4.29246e-05 -0.0037151684 0.8433124723
780295320.0 0.0086365373 0.8515494906 0.0002193719 -7.3781e-05 5.98446e-05 6.22261e-05 0.0049337193 0.843698861
785295290.0 0.0164579866 0.8512689585 -7.8225e-06 -0.000166551 -4.1668e-06 -0.0001053241 0.0134068417 0.8436800092
790295260.0 0.0249285755 0.85100169 -0.0001565595 -4.11931e-05 -2.01024e-05 5.34245e-05 0.0211250999 0.843517897
795295230.0 0.0332178753 0.8509761066 -0.0001128426 -1.39735e-05 -4.96589e-05 -9.7718e-05 0.029781881 0.8427923809
800295200.0 0.0407479467 0.8510690491 8.9613e-06 -9.5404e-05 3.91647e-05 -4.58294e-05 0.0379581639 0.8421171071
805295170.0 0.0488426344 0.8508350492 6.96492e-05 0.0001062966 -0.0001250722 2.55295e-05 0.0472937128 0.8424233395
810295140.0 0.0578958878 0.8509808921 -0.0001791568 -0.0001430265 9.73345e-05 0.0001227582 0.0554466459 0.8414957466
815295110.0 0.0647368747 0.8496836204 -6.61023e-05 -4.67215e-05 -5.66941e-05 -6.57982e-05 0.0628918675 0.8413214695
820295080.0 0.0732720308 0.8492892198 8.84336e-05 0.0001159409 -0.000107675 2.37561e-05 0.0711117543 0.8402934137
825295050.0 0.0814134216 0.8482150796 -7.5207e-06 -6.99437e-05 -0.0001830216 -0.0001345854 0.0797152356 0.8397948479
830295020.0 0.0901753428 0.84828532 0.0001438468 -5.95953e-05 0.0001392795 7.1135e-06 0.0877840992 0.8387547529
835294990.0 0.0979287102 0.8470125375 2.90978e-05 4.46237e-05 2.97262e-05 0.0001214936 0.0963389442 0.8381685916
840294960.0 0.1065114856 0.8455272328 2.4034e-06 -0.0001432317 -7.01877e-05 5.44098e-05 0.1050287997 0.8370101708
845294930.0 0.1142795251 0.844666753 6.7799e-06 5.27586e-05 -0.0001384129 6.26066e-05 0.1133107828 0.83603246
850294900.0 0.1235963838 0.8436644734 0.0001480958 -0.0002941966 0.0001686249 -0.0001575101 0.1212045137 0.8350248558
