!Created with skrf (http://scikit-rf.org).
# Hz S RI R 50.0 
!freq ReS11 ImS11 ReS21 ImS21 ReS12 ImS12 ReS22 ImS22
300000.0 -0.0449511996 -0.055831558 -0.0010558294 0.0015933994 -0.0005186148 0.0006146595 -0.7705655404 -0.1649186986
5299970.0 -0.0450642237 0.0155211181 -7.65281e-05 0.0001193764 0.000111725 -0.0001012983 -0.7848531239 -0.0083495488
10299940.0 -0.0390426566 0.0333623983 4.44216e-05 2.31071e-05 5.65761e-05 -0.0001346919 -0.7884472921 -0.0049520087
15299910.0 -0.0307934144 0.0483034207 -0.0001354524 0.0001126613 -9.05416e-05 -2.48276e-05 -0.7936017389 -0.0030858397
20299880.0 -0.0204189001 0.0599412718 0.0002117774 1.69391e-05 -8.26862e-05 -2.34134e-05 -0.8004718313 0.0013967315
25299850.0 -0.0092675184 0.0693948551 0.0003148707 0.000135851 -0.0001440799 0.0001234211 -0.8068612301 0.007056885
30299820.0 0.002689626 0.0759820769 -7.04002e-05 -9.1926e-05 7.16976e-05 0.0001425333 -0.8128387644 0.015041265
35299790.0 0.0144758237 0.0809417423 -2.48135e-05 0.0002704508 0.0001399415 9.3462e-05 -0.8177842091 0.0237213049
40299760.0 0.0258472073 0.0835956173 0.0001701732 -3.72142e-05 5.96558e-05 8.03736e-05 -0.8216027386 0.0332773524
45299730.0 0.0363164218 0.0852958915 -0.0001045836 3.01804e-05 0.0001021811 1.95083e-05 -0.8253291682 0.0425697859
50299700.0 0.046685237 0.0849942023 -0.0001019679 0.0001319035 5.10654e-05 -2.76013e-05 -0.827468069 0.0525317453
55299670.0 0.0556420701 0.0841622469 -1.72055e-05 -0.0001361594 5.52686e-05 9.88795e-05 -0.8297633454 0.0628511393
60299640.0 0.0643531952 0.082195273 1.59324e-05 6.02368e-05 -9.2228e-06 -5.80847e-05 -0.8310109951 0.0733097928
65299610.0 0.0721473594 0.0799511106 -3.90085e-05 2.6507e-05 -0.0001958105 0.0001738214 -0.8315332235 0.0825199686
70299580.0 0.0794393592 0.0768626164 3.09952e-05 0.0002535509 -0.0001253097 0.0001903022 -0.8323321778 0.092944264
75299550.0 0.0857225628 0.0736131758 -1.1447e-05 -5.7965e-05 -6.78723e-05 -4.8047e-05 -0.8327166749 0.1021388429
80299520.0 0.0909550605 0.0703489548 2.41545e-05 -2.67756e-05 -0.0001568575 -4.6424e-05 -0.8320273873 0.1125056511
85299490.0 0.096412172 0.0662578888 -0.0001478169 5.7732e-06 0.0002192808 0.0001706249 -0.8319824991 0.1222650593
90299460.0 0.101013867 0.0627148634 -3.93173e-05 8.26597e-05 -1.62871e-05 0.0001258296 -0.8311326093 0.1312533634
95299430.0 0.1048877597 0.0585995008 2.63996e-05 8.15741e-05 -7.5296e-06 3.2074e-05 -0.8301087242 0.141518042
100299400.0 0.1081061891 0.0552188388 0.0001503196 4.60539e-05 -7.10348e-05 6.75464e-05 -0.8283302105 0.150068409
105299370.0 0.1118390244 0.0509743188 2.07561e-05 7.92439e-05 5.1552e-05 0.0001969793 -0.8275579212 0.1588375879
110299340.0 0.114623942 0.0474351488 -4.506e-05 0.0003378426 4.72864e-05 5.67487e-05 -0.8267392917 0.1682614551
115299310.0 0.1172925612 0.042870583 0.0001046099 7.65082e-05 0.0002039299 -1.88143e-05 -0.8242988384 0.1772078724
120299280.0 0.1192115216 0.0396570249 7.91005e-05 -6.14594e-05 -3.09065e-05 4.85543e-05 -0.8232908127 0.186034595
125299250.0 0.1209064227 0.0354285383 -1.49179e-05 0.0001098526 9.97613e-05 8.29115e-05 -0.821822209 0.1956458623
130299220.0 0.1232258581 0.0322002185 0.000122045 4.33505e-05 0.0002226206 0.0002026256 -0.8197659546 0.2041177925
135299190.0 0.1245615192 0.0285326448 -0.0001427756 -6.82994e-05 0.0002386244 -5.30213e-05 -0.8181902118 0.2124671553
140299160.0 0.1260765232 0.0251368295 8.75486e-05 0.0001530715 3.76207e-05 5.616e-05 -0.8158837452 0.221589455
145299130.0 0.1269444632 0.0214243464 -1.57609e-05 -0.0001272912 3.27196e-05 1.39421e-05 -0.8142062171 0.2301973623
150299100.0 0.1278477464 0.0181878044 3.01851e-05 -8.31977e-05 7.9412e-05 5.6149e-05 -0.8114796546 0.2387153514
155299070.0 0.1285203887 0.0148967449 8.39683e-05 0.0003016611 -5.52728e-05 7.25397e-05 -0.8094170523 0.2475934972
160299040.0 0.1293951455 0.0115446621 -2.611e-05 0.000303193 1.05108e-05 0.0001598209 -0.8075248401 0.2571992946
165299010.0 0.1298076424 0.0085266064 0.0001512711 0.0002145146 0.0002720548 0.0001074223 -0.8039433348 0.2652390555
170298980.0 0.1303262019 0.0052964697 -1.272e-06 1.67118e-05 -5.324e-05 0.0002440413 -0.8022477249 0.2735084213
175298950.0 0.1305018424 0.0028395758 2.72452e-05 -1.9784e-06 1.77756e-05 4.64253e-05 -0.7989812837 0.2822247877
180298920.0 0.1305750057 -0.0005933731 -4.18525e-05 4.74307e-05 -3.55879e-05 0.0001306737 -0.7959042913 0.2908257542
185298890.0 0.1306175879 -0.0032596432 0.00017939 0.0002647749 2.27263e-05 4.37087e-05 -0.7932129424 0.2987618367
190298860.0 0.1310814056 -0.0062326517 3.24805e-05 -7.29633e-05 3.7683e-06 0.0003176773 -0.7897621537 0.3073787949
195298830.0 0.1313312412 -0.0087917099 -4.83414e-05 0.0004122005 -3.24026e-05 4.30452e-05 -0.7871573293 0.3154969891
200298800.0 0.130821902 -0.011512108 0.0001227436 0.000204469 7.94216e-05 0.0001140289 -0.783508569 0.3244779094
205298770.0 0.1305767599 -0.0139245093 0.0003859009 -0.0001682266 -6.22599e-05 6.35731e-05 -0.7797518182 0.3324692287
210298740.0 0.1305955685 -0.0165782954 -4.67294e-05 0.0001994563 0.0003730822 0.0002706364 -0.7767542381 0.3402088926
215298710.0 0.1300462231 -0.0191454915 0.0003739931 0.0002844686 9.80557e-05 0.0002535717 -0.7733330541 0.3486135844
220298680.0 0.1298737061 -0.0217313094 0.0002158578 9.24232e-05 0.000118884 -8.2983e-05 -0.7699519593 0.3568618316
225298650.0 0.1294120937 -0.0238796149 6.19509e-05 0.0001128193 5.83632e-05 0.0001677297 -0.7657634429 0.3652213227
230298620.0 0.1290243763 -0.026294527 0.0001756043 0.000223506 9.02346e-05 0.0001326382 -0.7614571734 0.3730435079
235298590.0 0.1284095919 -0.028820035 -0.0001161274 4.90868e-05 0.0004133871 0.0002394199 -0.757706332 0.3809670612
240298560.0 0.1278743573 -0.0308234235 -9.00774e-05 7.89466e-05 0.0002872388 0.0001559232 -0.7542177481 0.3885557873
245298530.0 0.1275806176 -0.0331674145 -1.35682e-05 5.916e-05 9.25355e-05 0.0002899176 -0.7503018892 0.3971258272
250298500.0 0.1268315436 -0.0350409726 -6.5372e-06 0.0002717187 9.53417e-05 7.33555e-05 -0.7460273168 0.4046611317
255298470.0 0.1263241047 -0.0371462056 0.0003932347 -5.42339e-05 -7.89054e-05 9.47194e-05 -0.7415692939 0.4124286406
260298440.0 0.1256831534 -0.0391105097 -4.43374e-05 0.0001037555 0.0001138328 7.58091e-05 -0.7370916476 0.4199061649
265298410.0 0.1248013228 -0.0412951165 0.000160742 0.000241531 9.71e-06 0.0002229335 -0.7325722315 0.4278910859
270298380.0 0.1242946016 -0.0431105876 7.1451e-05 0.0002899081 0.0002092226 0.0002701452 -0.7277378973 0.4354463596
275298350.0 0.1234821126 -0.0452985487 0.0002175002 2.4691e-06 0.0003993251 0.0001030671 -0.7227686398 0.4435984492
280298320.0 0.1226908005 -0.0470963943 0.0002970188 0.0001614116 3.93239e-05 0.0001751867 -0.7189726032 0.4502933915
285298290.0 0.1218972581 -0.0486019437 5.74393e-05 5.52772e-05 3.71429e-05 0.0001853972 -0.7134478755 0.4578459837
290298260.0 0.1212960517 -0.0504955195 1.88384e-05 -0.0001088651 5.07946e-05 3.10667e-05 -0.7083872069 0.465971639
295298230.0 0.1204333743 -0.0528058244 0.0001783622 0.0002168514 -6.04873e-05 0.0001820208 -0.7037905241 0.4730134613
300298200.0 0.1194328752 -0.0547694467 0.0001889482 0.0001716817 0.0001569047 8.6535e-05 -0.6989834189 0.4799047456
305298170.0 0.1190772647 -0.0564962065 0.0002016302 7.40925e-05 0.0001371797 0.000169889 -0.6937269682 0.4876360531
310298140.0 0.1181295356 -0.0586815276 0.0003522238 0.0002460053 2.03668e-05 7.32397e-05 -0.6888618659 0.4949596284
315298110.0 0.116592205 -0.0604548906 3.5923e-06 0.0001237744 0.000210602 -5.84166e-05 -0.6835043064 0.5019261851
320298080.0 0.1158492312 -0.062142056 -5.70336e-05 7.95772e-05 0.0002154439 0.0001344246 -0.6779694563 0.5094433249
325298050.0 0.1145022679 -0.0640026197 0.0001368728 -5.35797e-05 0.0001520613 0.0001707897 -0.6722078235 0.5160452716
330298020.0 0.1131067211 -0.0653402546 0.0001521134 0.0002207677 0.0001435871 0.0001251381 -0.6668112925 0.5234310363
335297990.0 0.1118100496 -0.0668224276 -2.23083e-05 4.82532e-05 0.0001517248 0.0002297475 -0.6616644795 0.5302385702
340297960.0 0.1104951295 -0.0681836589 0.0001493188 0.0001615953 3.69954e-05 4.76017e-05 -0.6552736204 0.5374030392
345297930.0 0.1091594979 -0.0698363554 -1.84645e-05 0.0001013267 0.0001013797 0.0001704415 -0.6499571097 0.5443536543
350297900.0 0.1085852972 -0.0711387849 0.0002389224 9.04875e-05 -3.62098e-05 0.0003518766 -0.644052799 0.5512332372
355297870.0 0.1068295942 -0.0725514446 0.0001729599 0.0001205678 4.81464e-05 0.0001680772 -0.638194014 0.5574582237
360297840.0 0.1058577301 -0.0740216952 0.0001128549 -9.5819e-06 0.0001576885 0.0001875478 -0.6319585931 0.5635966462
365297810.0 0.1048138514 -0.0750985742 0.0002929116 9.7875e-05 9.95205e-05 1.40833e-05 -0.6265974522 0.57061466
370297780.0 0.1038954676 -0.0766025443 0.0003731882 0.0002699604 1.19205e-05 0.0002009745 -0.6204589214 0.5758089293
375297750.0 0.1024063609 -0.077664896 0.0003017038 9.17788e-05 0.0001501495 -4.34252e-05 -0.614488047 0.5832331145
380297720.0 0.1017573922 -0.0790211838 9.38979e-05 0.0001826621 3.89838e-05 -4.98121e-05 -0.6079608357 0.5902021802
385297690.0 0.1000523658 -0.0801618673 0.0001701941 0.0001257028 0.0002142574 0.00013457 -0.6016958052 0.5959380477
390297660.0 0.0991928878 -0.0813985778 0.0003197911 0.0001105354 6.54027e-05 0.0002754366 -0.5954478675 0.601853627
395297630.0 0.0977051812 -0.0825272546 0.0002376243 -3.46919e-05 0.0002692871 -4.7597e-06 -0.5894262487 0.6080655635
400297600.0 0.0967647076 -0.0834230956 3.38119e-05 0.0002909771 0.0003348414 4.49118e-05 -0.5829327217 0.6136344837
405297570.0 0.0955327376 -0.0846620055 0.0002032958 0.0001748068 0.0001681019 0.000171002 -0.5772193696 0.6201983594
410297540.0 0.0942086895 -0.0857817726 0.0001300343 6.79453e-05 0.0001210508 1.33858e-05 -0.5700621447 0.625584159
415297510.0 0.0929885058 -0.0870398328 7.68836e-05 0.0001021244 0.0001425355 0.0001771464 -0.5634353381 0.6324659834
420297480.0 0.0915072698 -0.0883488451 0.0002828602 0.0003834176 0.0002363713 0.0001654266 -0.5563459441 0.6366991986
425297450.0 0.0904964035 -0.0890864742 0.0002349302 1.95433e-05 0.0002223973 3.22377e-05 -0.5504274356 0.6426324412
430297420.0 0.0890333945 -0.0902764195 0.000245751 0.000200531 0.0001380226 0.0001154342 -0.5439565442 0.6486068178
435297390.0 0.0879799815 -0.0913975208 0.0003511493 2.12649e-05 0.0001683449 0.0001503809 -0.5366408451 0.6540226028
440297360.0 0.0865666822 -0.0923808503 0.0001704975 -5.56657e-05 0.0002055137 0.0001964776 -0.5298963492 0.6588755698
445297330.0 0.0849931626 -0.0931379137 0.0004628593 0.0001491051 0.0002041676 4.12706e-05 -0.5232396273 0.6644003988
450297300.0 0.0838368905 -0.0942851675 0.0001224244 0.0002091131 0.0001134652 0.0001478712 -0.5169055405 0.6700300113
455297270.0 0.082522085 -0.095061179 0.0001528211 8.50556e-05 9.84501e-05 0.0001854588 -0.5097548932 0.6749162244
460297240.0 0.0811284855 -0.0956392343 4.83204e-05 0.0001469501 0.0002729633 6.23416e-05 -0.5025958388 0.6801438525
465297210.0 0.0800710698 -0.0969225371 0.0001309236 0.0001474606 0.0001596973 -2.38583e-05 -0.4963735325 0.6849614573
470297180.0 0.0787175889 -0.0974797618 0.0001047144 0.0001663207 0.0002066119 0.0001219128 -0.4887959113 0.6894420889
475297150.0 0.0771135414 -0.0985409468 0.0001672149 1.33889e-05 0.000394005 0.0001572727 -0.4818133058 0.694761895
480297120.0 0.0759413821 -0.0992640808 0.0002691903 0.0001061231 8.33274e-05 0.0001428172 -0.4746887654 0.6997711411
485297090.0 0.074514902 -0.1000797178 0.0004226584 0.0002713159 0.0001918994 -7.8282e-05 -0.4674644362 0.7040852762
490297060.0 0.0733239101 -0.100823613 0.0002368343 7.99825e-05 0.0003997663 5.76444e-05 -0.4607975636 0.708447648
495297030.0 0.0719607481 -0.1016984795 0.000261392 0.0002349544 0.0001769282 -5.89878e-05 -0.453492275 0.7128699434
500297000.0 0.0705243178 -0.1025292532 0.0002584281 0.0001537111 0.0002247627 0.0002176918 -0.4465415863 0.7177838732
505296970.0 0.0687167184 -0.1029885749 0.0001446313 0.0001605832 0.000216986 -3.39542e-05 -0.4400002025 0.7218498799
510296940.0 0.0675039864 -0.1037182272 0.0001969092 -0.0001975349 0.0003892008 0.000117051 -0.4320649509 0.7265807037
515296910.0 0.0660729825 -0.1042349298 0.0003726441 0.000136475 0.0002300358 -2.64405e-05 -0.4245825293 0.730972131
520296880.0 0.0647713371 -0.1050814116 0.00044502 -2.43796e-05 0.0001402846 0.0001287136 -0.4173626245 0.7349301981
525296850.0 0.0634206491 -0.1056335076 0.0001031977 -4.53796e-05 0.0003014541 -0.000127502 -0.4094328418 0.7397186071
530296820.0 0.0616458701 -0.106221232 0.0003937641 -2.48002e-05 0.000375426 6.7522e-06 -0.4028779197 0.7429917822
535296790.0 0.0604932821 -0.1068727816 0.00024707 5.29865e-05 -5.95032e-05 6.16135e-05 -0.395185968 0.7465696957
540296760.0 0.0590962035 -0.1077385928 4.82576e-05 0.0001075143 0.0003376316 -3.73789e-05 -0.3880527634 0.7514047301
545296730.0 0.0577420289 -0.1077994008 0.0002321515 0.0004046441 5.42677e-05 0.0001085081 -0.3809659328 0.7541905789
550296700.0 0.0562196492 -0.1085125738 0.0001788079 -0.0001067951 0.000351705 -0.0002374014 -0.3730170688 0.7582009072
555296670.0 0.0550019031 -0.1090414969 0.0001832869 6.06951e-05 0.0003860088 2.82735e-05 -0.3653136237 0.7616615288
560296640.0 0.0535708504 -0.1098014632 0.0002031654 7.56053e-05 0.0003691499 -5.91759e-05 -0.3572967318 0.7654327758
565296610.0 0.0518109939 -0.1101076261 0.000291509 0.0001815281 0.0002120885 -6.72417e-05 -0.3498122681 0.7690365634
570296580.0 0.0506856099 -0.1103248687 0.0004084482 -1.70359e-05 0.0002767048 3.48492e-05 -0.3432430697 0.7724983913
575296550.0 0.0493473255 -0.1110596005 0.0001828017 -8.10818e-05 0.0005031934 0.0001489044 -0.3349422037 0.7756899816
580296520.0 0.0478684704 -0.1114185478 0.0004064968 0.000195043 0.0003494509 0.0002252699 -0.3272623598 0.7790876777
585296490.0 0.0460957349 -0.1117965521 0.0002647561 0.0003937043 0.000222783 -5.49687e-05 -0.3191621856 0.781714451
590296460.0 0.0446982893 -0.1121165415 0.0002996022 -9.5498e-05 0.0003938669 -2.71137e-05 -0.3117624252 0.7845503994
595296430.0 0.0433465025 -0.1124301757 0.0004257281 -0.0001130194 0.0004053802 0.00010211 -0.3036204486 0.7875321439
600296400.0 0.0416805442 -0.1126539057 0.0003793366 0.0002311033 0.0004091166 8.68162e-05 -0.2956581923 0.7910968435
605296370.0 0.0405357855 -0.1130858287 0.0001824232 0.0001576676 5.40103e-05 0.0001318981 -0.2880781934 0.7945825119
610296340.0 0.0390987424 -0.1134995592 0.0002994525 1.2243e-06 0.0003025292 -6.64842e-05 -0.2807311455 0.797286362
615296310.0 0.0374652448 -0.1134949472 0.0003114554 4.81138e-05 0.0003542072 5.10491e-05 -0.2720807995 0.7994049374
620296280.0 0.0360889957 -0.1139680761 0.0004404631 -0.0002155103 0.0003206352 -5.07683e-05 -0.2640447957 0.8021674474
625296250.0 0.0346381824 -0.113876909 0.0003801284 5.205e-06 0.000338826 7.38756e-05 -0.2569111082 0.8049236893
630296220.0 0.033136318 -0.1144591098 -1.78138e-05 4.26403e-05 0.000316101 -2.22512e-05 -0.2486129016 0.8078453051
635296190.0 0.0314531837 -0.1147174857 0.0003390242 -6.65089e-05 0.0004427195 -0.0001591117 -0.2404891407 0.8093401966
640296160.0 0.0300602812 -0.114507297 0.0003443775 -1.55289e-05 0.0003298819 -0.0001349432 -0.2320495865 0.8118443356
645296130.0 0.0285801493 -0.1148396508 0.0003045123 5.24589e-05 0.0003482113 0.0001417476 -0.2250515714 0.814097202
650296100.0 0.027407623 -0.1147736738 0.0003738068 8.10187e-05 0.0002782483 8.43616e-05 -0.2165590184 0.8162661461
655296070.0 0.0257881052 -0.1151485039 0.0003540241 -0.0002241476 0.0003765979 -0.000129551 -0.2085451824 0.817990106
660296040.0 0.0240558021 -0.1151055325 0.0003332389 1.35504e-05 0.0003607819 -2.6834e-06 -0.2006944961 0.8194770272
665296010.0 0.0229161768 -0.1151628376 0.0002596656 -0.0001409242 0.0002999735 -5.7945e-06 -0.1922435352 0.8217027554
670295980.0 0.0214479326 -0.1155674216 0.0001286405 7.15739e-05 9.90072e-05 1.68293e-05 -0.1848522378 0.8239350104
675295950.0 0.0199909699 -0.1153532375 0.0004692445 0.0001332971 0.0002923304 9.75152e-05 -0.1760219403 0.8259576437
680295920.0 0.0182932208 -0.1152769178 0.0001750602 -1.07268e-05 0.0004352904 0.0001455157 -0.1678686935 0.8276703589
685295890.0 0.0169803709 -0.1154292191 0.0002144991 -0.0001614569 0.0002543373 -0.0001214738 -0.1598626087 0.8291770231
690295860.0 0.0160595299 -0.1152048503 0.0001832018 -4.83844e-05 0.0002658584 -3.03541e-05 -0.1511960957 0.8305708093
695295830.0 0.0145433154 -0.1154479293 0.0003156804 -0.0001076804 0.0003670158 -0.000149594 -0.143485604 0.832794253
700295800.0 0.0128938724 -0.1152012872 0.0004234859 -0.0001357258 0.0002905048 -0.0001239733 -0.1348236875 0.8335768716
705295770.0 0.0115645698 -0.1153711707 0.0001242317 -0.0001912252 0.0003216387 1.63318e-05 -0.1268403588 0.8348020585
710295740.0 0.010209377 -0.1149107921 0.000474303 -1.71343e-05 0.0003756791 2.81012e-05 -0.1186540954 0.8363341721
715295710.0 0.0085907211 -0.1148929258 0.0003702474 -8.62138e-05 0.0003715467 -7.60282e-05 -0.1106977387 0.8372798752
720295680.0 0.0070360766 -0.1150271724 0.0002963469 4.3835e-06 0.0003423668 3.08109e-05 -0.1024406698 0.8383812152
725295650.0 0.0058126309 -0.1145863253 0.0006081195 -0.0002025705 0.0003279857 -2.26815e-05 -0.0936061649 0.8392911119
730295620.0 0.0040992688 -0.1148254358 0.0004378852 5.90177e-05 0.0003527227 -4.35477e-05 -0.0854290622 0.8401881941
735295590.0 0.0027284185 -0.1144293523 0.0001970638 -0.0002204272 0.0002818118 -4.92328e-05 -0.0767258587 0.8406245989
740295560.0 0.001601203 -0.1139632466 0.0006108685 3.90814e-05 0.0003127786 -8.66075e-05 -0.0688643632 0.8410733944
745295530.0 -0.0003222325 -0.1141293143 0.0002004292 -0.0001845239 0.0002448691 -7.34297e-05 -0.0606949452 0.8413192664
750295500.0 -0.0015669853 -0.1138584589 0.0002311821 -3.718e-05 0.0003042319 -9.92044e-05 -0.0520758831 0.8424860828
755295470.0 -0.0026161958 -0.1134674912 0.000541696 -9.81455e-05 0.0003449532 -0.0001089321 -0.0444688297 0.843294967
760295440.0 -0.0043133096 -0.1131797386 0.0004098945 -7.6883e-05 0.0004547567 -0.0002760548 -0.0360096097 0.8437659307
765295410.0 -0.0057247664 -0.112900828 0.0003265145 0.0001201776 0.0004301622 -0.0001543708 -0.0267212805 0.8438589336
770295380.0 -0.0072029187 -0.1125236767 0.000355436 -0.0003365834 0.0001223745 -0.0001732772 -0.01847908 0.8441472586
775295350.0 -0.008651828 -0.1119888941 0.0003517763 -7.45104e-05 0.0004161628 -0.0001832936 -0.0111531358 0.8440258532
780295320.0 -0.0099888292 -0.1119155332 0.0004012662 -0.0001535376 0.0003090932 -3.90969e-05 -0.0027086605 0.8444045119
785295290.0 -0.0111500227 -0.1116957394 0.0004342463 -0.0001594703 0.0003030826 2.635e-06 0.0053127799 0.844488681
790295260.0 -0.0126352817 -0.1112957848 0.0004547303 -5.39402e-05 0.0003398951 3.064e-05 0.0146809127 0.8443161606
795295230.0 -0.0142199306 -0.1107469729 0.0003626181 -9.77032e-05 0.0003845542 -5.43325e-05 0.0226615914 0.8446028716
800295200.0 -0.0153456204 -0.1101794601 0.0005547014 -0.0001322224 0.0003108762 -0.0001767992 0.0305475617 0.8438980425
805295170.0 -0.0169116826 -0.1101080705 0.0002931505 -0.0001126952 0.0004340988 0.0001601898 0.0389349907 0.843291793
810295140.0 -0.0179400706 -0.1095625481 0.0002045654 -0.0001299087 0.0001720805 -9.57136e-05 0.0473237845 0.8439266539
815295110.0 -0.0192723946 -0.108936015 0.0003337316 5.92523e-05 0.0003917195 3.78184e-05 0.0560280428 0.8427670406
820295080.0 -0.0207066183 -0.1085864706 0.000215792 -0.0001130777 0.0003555688 -0.0002123614 0.0639677391 0.8417057654
825295050.0 -0.0219295655 -0.1080661121 0.0006145601 0.0001495178 0.0002746367 -0.000209828 0.0723593947 0.8412463618
830295020.0 -0.0232905721 -0.1073976292 0.0004768094 -0.0001800765 0.0003104729 -0.00032253 0.0802006648 0.8404890796
835294990.0 -0.0245593892 -0.1068768452 0.0005806299 3.88683e-05 0.0003203277 -4.72122e-05 0.0886415426 0.8398865777
840294960.0 -0.0257578581 -0.1065059444 0.0004245484 -0.0001649637 0.0006045314 -8.55599e-05 0.0969986717 0.8389565052
845294930.0 -0.0274317276 -0.1058831246 0.0002326782 -0.0001087623 0.0004048956 -0.0001100577 0.1048204298 0.8379968009
850294900.0 -0.0283228778 -0.1053487717 0.0004691267 -0.0003092898 0.0004340903 -0.000159106 0.1131408428 0.8371090945
