!Created with skrf (http://scikit-rf.org).
# Hz S RI R 50.0 
!freq ReS11 ImS11 ReS21 ImS21 ReS12 ImS12 ReS22 ImS22
300000.0 -0.0972225457 -0.0868041148 0.6235368716 0.0809816319 0.6255763667 0.0848597613 -0.0981284391 -0.0946045813
5299970.0 -0.1004804194 0.0129292742 0.6306551584 0.0106410077 0.6304038177 0.0110364773 -0.1024033932 0.0118704781
10299940.0 -0.0953237446 0.0297220798 0.6345229845 0.0158555198 0.6342549233 0.0159151251 -0.0972095457 0.028855604
15299910.0 -0.0883810074 0.0432015334 0.6403557541 0.0202256951 0.6404525558 0.0208154841 -0.0901981287 0.0419464979
20299880.0 -0.0796118658 0.0544937258 0.6487838203 0.0241649361 0.6488241416 0.0238191684 -0.0819275289 0.0534317116
25299850.0 -0.0697308693 0.0628790675 0.6583296959 0.0249569072 0.6581258743 0.0254124539 -0.0724083392 0.0618413746
30299820.0 -0.0596145485 0.0691921915 0.6680322783 0.0248946701 0.667524895 0.024395741 -0.0625992327 0.0684211298
35299790.0 -0.0492626253 0.0743528232 0.6773857853 0.0214941158 0.6775556445 0.0217037282 -0.0523917891 0.0735269816
40299760.0 -0.0396012913 0.0768751415 0.6869133741 0.017761403 0.6870566569 0.0177327951 -0.0434673474 0.0769865743
45299730.0 -0.0304693065 0.0794146965 0.6957048814 0.0120881567 0.6957642168 0.0121106821 -0.0339911475 0.0790981988
50299700.0 -0.0217838355 0.0798435885 0.7034750145 0.0047754379 0.7037334018 0.0049079893 -0.025622727 0.0802241672
55299670.0 -0.0141291899 0.0799876696 0.7105565811 -0.0029899861 0.7110398325 -0.0030316598 -0.0178402506 0.0797650792
60299640.0 -0.0066536866 0.0789684914 0.7174140973 -0.0111929818 0.7175481337 -0.0111405651 -0.0102844769 0.0796870097
65299610.0 -0.0004334809 0.0780203926 0.7237908787 -0.0196595034 0.7238762529 -0.0197470866 -0.0037162808 0.0784376793
70299580.0 0.0060441097 0.0758696944 0.7286175618 -0.0289900539 0.7285335039 -0.0291621833 0.0023586565 0.0768594606
75299550.0 0.0115393955 0.0743613787 0.732596426 -0.0387928809 0.733254979 -0.0390434782 0.0082384194 0.0756841084
80299520.0 0.0161651695 0.0722841738 0.7380135892 -0.0489078029 0.7377725352 -0.0486541537 0.0131427094 0.0730510379
85299490.0 0.0208883282 0.0694252436 0.7409076268 -0.0590349677 0.7405717819 -0.0586420354 0.0173763146 0.070849784
90299460.0 0.0245717448 0.0672843164 0.743437135 -0.0684997073 0.7436147693 -0.0687042657 0.0221191691 0.0685387613
95299430.0 0.0279367038 0.0652463159 0.7461918881 -0.0792602595 0.7460462901 -0.0788485686 0.0254460588 0.0662285961
100299400.0 0.0314794946 0.0627934726 0.7474626116 -0.0890175114 0.7475970646 -0.0894527769 0.0285404666 0.063945629
105299370.0 0.0346419369 0.0601215409 0.7487144358 -0.0989834758 0.749166916 -0.0995398694 0.0318786974 0.0618313668
110299340.0 0.0371398485 0.0577775585 0.7499952136 -0.1085593935 0.7499790483 -0.1094895669 0.0345879516 0.0592152443
115299310.0 0.0397065898 0.0549189329 0.7505981665 -0.1192257643 0.7511288213 -0.119047282 0.0372582989 0.0563027138
120299280.0 0.0413740098 0.0527005563 0.7518222506 -0.1293469486 0.751754495 -0.1298321775 0.0389463201 0.0545008999
125299250.0 0.0432223091 0.0502796225 0.7521893619 -0.1392161479 0.751946275 -0.139131462 0.0412041524 0.0512378673
130299220.0 0.0450141646 0.0479746166 0.7516194231 -0.148618921 0.751687499 -0.1492974047 0.0432184063 0.0493838305
135299190.0 0.0467844906 0.0457048137 0.7510738317 -0.1585393915 0.7510414211 -0.1585632853 0.0448665625 0.0475788262
140299160.0 0.0476085501 0.0441961488 0.7508334955 -0.1683461542 0.7512598206 -0.168384332 0.0463677086 0.0449909713
145299130.0 0.0492747926 0.0419490813 0.7506539454 -0.1785261165 0.750229626 -0.1783330595 0.0471980323 0.0426766935
150299100.0 0.0505873391 0.0398927948 0.7490032806 -0.1877308043 0.7493978173 -0.1879282743 0.0487302996 0.0409530406
155299070.0 0.0509393713 0.0382840012 0.7479014573 -0.1976341253 0.7476735842 -0.1982762977 0.0493534169 0.0388444919
160299040.0 0.0522445569 0.0361668126 0.7463222137 -0.206809986 0.7465583761 -0.2075110191 0.0506069312 0.0370603168
165299010.0 0.0528661425 0.0343775312 0.7449633763 -0.2165670774 0.7449621968 -0.2167665459 0.0519006622 0.0349283564
170298980.0 0.0534444308 0.0324506788 0.7421935677 -0.2260275858 0.7429319945 -0.2262445935 0.0529424863 0.0328970761
175298950.0 0.0544528074 0.0309066453 0.7420567343 -0.2349423191 0.7414704943 -0.2353229704 0.0534018279 0.0309104561
180298920.0 0.0553855854 0.0292770536 0.7392093755 -0.2446912383 0.7392691576 -0.244084278 0.0538376033 0.0300392088
185298890.0 0.0560115919 0.0272515775 0.7365350151 -0.2538195859 0.7371818914 -0.2532767386 0.0543034691 0.0279900499
190298860.0 0.0561664032 0.0259992512 0.7345976811 -0.2625780319 0.7344016072 -0.2630935443 0.0556520325 0.026427034
195298830.0 0.0564816384 0.0240230607 0.7316666014 -0.2714477993 0.7322045619 -0.2722450293 0.0557328872 0.0243713183
200298800.0 0.0569059366 0.0226968278 0.7298890665 -0.2803264823 0.7292505069 -0.2802536085 0.0564341719 0.023311364
205298770.0 0.0572598598 0.021330531 0.7270960789 -0.2895953905 0.7269441781 -0.2896160898 0.0568786315 0.020980815
210298740.0 0.0569355791 0.019729796 0.7237878074 -0.2988071005 0.723898832 -0.2984412547 0.0570774504 0.0201332059
215298710.0 0.0578912568 0.0185984972 0.7211116621 -0.3069449209 0.7209499262 -0.3070959345 0.0570494125 0.0184173929
220298680.0 0.0580981411 0.01725742 0.7173431399 -0.3159222274 0.7173618623 -0.3158418437 0.0574605894 0.0172464212
225298650.0 0.0583772596 0.0163939914 0.7138187257 -0.3235473322 0.7141218136 -0.3239631923 0.0574933408 0.015832179
230298620.0 0.0581006845 0.0148375577 0.7112244017 -0.3327660609 0.711207749 -0.3331516735 0.0579085156 0.0143900129
235298590.0 0.0584750314 0.0132743218 0.707613075 -0.3410310769 0.708005844 -0.3413180325 0.05829979 0.0128976903
240298560.0 0.0583554157 0.0122156896 0.7042217968 -0.349063839 0.7039747117 -0.3490387424 0.0581759953 0.0118864998
245298530.0 0.0587382784 0.011231752 0.6990639164 -0.3577985692 0.6998554961 -0.3577162931 0.0584336449 0.0108812931
250298500.0 0.0584123747 0.0097733005 0.695927787 -0.3653378882 0.6964704814 -0.3653018158 0.0587669224 0.0091022119
255298470.0 0.0584635028 0.0092355007 0.6917967282 -0.37441504 0.6926256155 -0.3741864358 0.0587050278 0.0075724568
260298440.0 0.0583023786 0.0078431765 0.687876731 -0.3818023981 0.6886877475 -0.3823327954 0.0593078103 0.0071325336
265298410.0 0.0589282866 0.0071395275 0.6841679876 -0.3909747901 0.6842024023 -0.390472085 0.0589452731 0.0056437583
270298380.0 0.0591373249 0.0055375063 0.679552543 -0.3980005581 0.6803471707 -0.3984298626 0.0591933951 0.005200043
275298350.0 0.0584313492 0.0049534956 0.6757004014 -0.4065690954 0.676117789 -0.4063413542 0.0591159504 0.0038563267
280298320.0 0.0588975795 0.0042491296 0.6714592089 -0.4140544785 0.671028474 -0.4144219428 0.05953155 0.0029260532
285298290.0 0.0587094085 0.0032847135 0.6667647306 -0.4215866472 0.6666336781 -0.4217574723 0.0589144808 0.0019436914
290298260.0 0.0589031686 0.0019037543 0.6625292593 -0.4297455277 0.6623358048 -0.4299351611 0.0596426426 0.0007069252
295298230.0 0.0589186059 0.0008368882 0.6582838662 -0.4370501946 0.6577579396 -0.4372643092 0.0595961361 -0.0002605468
300298200.0 0.0593362844 8.79879e-05 0.653150215 -0.4452543636 0.6528851087 -0.444879992 0.0591875975 -0.0011055964
305298170.0 0.0588320042 -0.0012468284 0.6480568989 -0.4529423818 0.6487678183 -0.4528577751 0.059906282 -0.0019915069
310298140.0 0.0593919996 -0.0022463592 0.6439362736 -0.4606211317 0.6442071944 -0.4610992463 0.0597070946 -0.0028633372
315298110.0 0.059017988 -0.0034265349 0.6385294817 -0.4681106715 0.6387573828 -0.4683523584 0.0598819949 -0.0042431234
320298080.0 0.0587852766 -0.0045278555 0.6332255689 -0.4755567585 0.6335764068 -0.4759977496 0.0596076091 -0.0056593543
325298050.0 0.0583456512 -0.0056225607 0.6283025408 -0.4831655778 0.6284252265 -0.4836900576 0.0592376851 -0.0069503798
330298020.0 0.0578082453 -0.0064181731 0.6215995223 -0.4904496042 0.6221351837 -0.4905538797 0.0586852007 -0.0081240492
335297990.0 0.0576280453 -0.0074317146 0.6167366317 -0.4976862902 0.6171145753 -0.4975907495 0.0580661431 -0.0087716097
340297960.0 0.0564219275 -0.0079291983 0.610305226 -0.5047936658 0.6111997371 -0.5048130379 0.0576431871 -0.0093928962
345297930.0 0.0563773427 -0.0085415784 0.6050267301 -0.5105818585 0.604500537 -0.5111777918 0.0577015679 -0.0107562594
350297900.0 0.0562880601 -0.0091807255 0.598560004 -0.5170410181 0.5997467074 -0.5177951489 0.0568161063 -0.0105174664
355297870.0 0.0562470621 -0.0101678874 0.5936752396 -0.5241539932 0.5936978088 -0.5249103361 0.0563422459 -0.0111413938
360297840.0 0.056142583 -0.0107318801 0.5874648278 -0.5317159149 0.5874273428 -0.5317773444 0.0565095897 -0.0119791082
365297810.0 0.0560947791 -0.0114741107 0.5818520335 -0.5380168794 0.5822436792 -0.538214101 0.0558970842 -0.0121749265
370297780.0 0.0558103539 -0.0121859482 0.5758855776 -0.5441656328 0.5760741324 -0.5450090914 0.0560164778 -0.0124850254
375297750.0 0.0550924429 -0.0122523092 0.5704446378 -0.5504949134 0.5698850263 -0.5512377595 0.0558527356 -0.0134753902
380297720.0 0.0551759643 -0.013870287 0.5637096122 -0.5569648058 0.5637285047 -0.556807058 0.0553919962 -0.0142702729
385297690.0 0.0552509863 -0.0138050366 0.557454811 -0.5627660059 0.5579092056 -0.5632871426 0.0550090456 -0.0147259625
390297660.0 0.0544826551 -0.0149193813 0.5509183936 -0.5696940074 0.5518148582 -0.5702498136 0.0550867831 -0.0154869905
395297630.0 0.0547567756 -0.0157033135 0.5453578669 -0.5753799686 0.5452031486 -0.5757286226 0.0543699733 -0.0157624574
400297600.0 0.053768492 -0.0158775492 0.5384788396 -0.5821181102 0.5389911901 -0.5819416046 0.0532617718 -0.016902405
405297570.0 0.054058178 -0.0166146599 0.53263311 -0.5877634219 0.5324298026 -0.5883982505 0.0537320084 -0.0166242044
410297540.0 0.0536931038 -0.0173990138 0.52551446 -0.5932442424 0.5252234498 -0.5938117911 0.0532563445 -0.0178939629
415297510.0 0.0533125733 -0.0172077691 0.5193159855 -0.5988773588 0.5196837833 -0.5993776977 0.0527179537 -0.0180171826
420297480.0 0.0529891909 -0.0188040456 0.512765765 -0.6059193487 0.5124863603 -0.6052417153 0.0530070038 -0.0190087008
425297450.0 0.0532101113 -0.0195895147 0.5058350753 -0.610983698 0.5065961004 -0.6104968524 0.0523178531 -0.0188686946
430297420.0 0.0525455276 -0.019572954 0.4993093131 -0.617040431 0.4992687642 -0.6171950787 0.0517574382 -0.0201604502
435297390.0 0.0525587722 -0.0209356619 0.4922879409 -0.6222376086 0.4924543931 -0.6222072583 0.0512195871 -0.0200093521
440297360.0 0.0523979484 -0.0214235005 0.4856627929 -0.6275068357 0.4852488757 -0.627619258 0.0512987042 -0.0214925789
445297330.0 0.0522600341 -0.0221917406 0.4781752048 -0.6336207155 0.4786224891 -0.6329993984 0.0506547114 -0.0215417254
450297300.0 0.0517328389 -0.0224514065 0.4713632917 -0.6377147991 0.471877575 -0.6385180596 0.0505263154 -0.0218312874
455297270.0 0.0512408265 -0.0234717243 0.4651262513 -0.6439333083 0.4650933448 -0.6435449627 0.0504610115 -0.0224480051
460297240.0 0.0507075092 -0.0236288891 0.457786388 -0.6481647623 0.4572655343 -0.6483049655 0.0498115204 -0.0225502992
465297210.0 0.050508589 -0.0247591898 0.4500351723 -0.6537580336 0.4505940029 -0.6535960516 0.0489566656 -0.023623754
470297180.0 0.0498262726 -0.0251317286 0.4437471489 -0.6585271138 0.443767684 -0.6588327507 0.0480965009 -0.023744004
475297150.0 0.0494908705 -0.0263031006 0.4357462328 -0.6630633994 0.4363988118 -0.6631021348 0.0481987373 -0.0246313499
480297120.0 0.0498505876 -0.0269983614 0.4286783581 -0.6677619083 0.4289025455 -0.6681901126 0.0476236723 -0.024484103
485297090.0 0.0493467026 -0.0272844341 0.4217529478 -0.6728775039 0.4216310423 -0.6734462195 0.0470634715 -0.0256395945
490297060.0 0.0490099146 -0.0280737856 0.4145649478 -0.677832459 0.4140942007 -0.6780290532 0.0469456945 -0.0254547888
495297030.0 0.0480432122 -0.0281577329 0.4058546156 -0.6818903581 0.4065052335 -0.6822718202 0.0468540255 -0.0265645782
500297000.0 0.0480128058 -0.0289845285 0.399042867 -0.6861654633 0.399010953 -0.6867850087 0.0458053508 -0.0270225851
505296970.0 0.0472254537 -0.0296478926 0.3910304354 -0.6904498519 0.3912597247 -0.6910235838 0.0449215325 -0.0269822583
510296940.0 0.0469621182 -0.0296311802 0.3839661417 -0.6960494038 0.3839796116 -0.6953168571 0.045198509 -0.0271204365
515296910.0 0.0461928658 -0.0304338853 0.3763490338 -0.6992223527 0.3763420435 -0.6995351064 0.0441943271 -0.0282454228
520296880.0 0.0459313868 -0.031257498 0.3684292134 -0.7035568851 0.3690492234 -0.7035163727 0.0444167611 -0.0284399872
525296850.0 0.045320411 -0.0320234938 0.3609367133 -0.7078481658 0.3609996754 -0.7078865198 0.0440960078 -0.0287757108
530296820.0 0.0451959889 -0.032531126 0.3534564862 -0.7109392085 0.3528030678 -0.711369121 0.0428197282 -0.0299183308
535296790.0 0.0442174 -0.0328752351 0.3449725536 -0.7147421606 0.3453349343 -0.7149127498 0.0427544825 -0.0302020597
540296760.0 0.0440329057 -0.0336647799 0.3377342404 -0.7194655981 0.3372940703 -0.7191028598 0.0414188904 -0.0300537945
545296730.0 0.0435994833 -0.0332307146 0.3293232527 -0.7226731092 0.3301375996 -0.7232625198 0.0414375999 -0.031108757
550296700.0 0.0425149394 -0.0343981943 0.3218843115 -0.7260046983 0.3224166684 -0.7268735659 0.0406828634 -0.0306419365
555296670.0 0.0425562891 -0.0351404057 0.3137130706 -0.7298644762 0.3140471839 -0.7298313941 0.0400147509 -0.0309781236
560296640.0 0.0419838345 -0.0353159788 0.3059751373 -0.7331941096 0.3059451027 -0.7330698029 0.0398624837 -0.0313706445
565296610.0 0.0407725759 -0.0359897282 0.2981707774 -0.7371559794 0.297200585 -0.7370315673 0.0393130382 -0.0323503621
570296580.0 0.0412667376 -0.0365287255 0.2893331181 -0.7396125105 0.2898335742 -0.7399166736 0.0389506133 -0.0315086279
575296550.0 0.0403587504 -0.0360652809 0.2812540587 -0.7422879115 0.2818648966 -0.7426854715 0.0385294489 -0.0326491438
580296520.0 0.0397130842 -0.0371223311 0.2737495303 -0.7457599137 0.2730186469 -0.7461663382 0.0377712 -0.0334313122
585296490.0 0.039459906 -0.0378802771 0.2654935046 -0.7490687535 0.2648513595 -0.7486896916 0.0371132947 -0.0336547851
590296460.0 0.037994516 -0.0386708917 0.2571580818 -0.7519777319 0.2567122243 -0.7519152754 0.0366769159 -0.0332282515
595296430.0 0.0378341482 -0.0384764278 0.2489864595 -0.7543382081 0.248761565 -0.754687918 0.0362921981 -0.0339246086
600296400.0 0.0372189982 -0.0386225607 0.2406737701 -0.7570149039 0.2413890802 -0.7572898633 0.0357110962 -0.0339013635
605296370.0 0.0370444464 -0.0385931913 0.2326678389 -0.759827046 0.232191971 -0.7601872723 0.035135192 -0.0349334081
610296340.0 0.0360197182 -0.03930767 0.2244726242 -0.7622542212 0.2245717228 -0.7626533868 0.0345863351 -0.0343091166
615296310.0 0.0353508653 -0.0394665284 0.215488191 -0.7642672261 0.2153554349 -0.7647101541 0.0342579824 -0.0352300956
620296280.0 0.0348280218 -0.0401029811 0.207436279 -0.7665601551 0.2077294052 -0.7668258638 0.0335943246 -0.0358528556
625296250.0 0.0346240467 -0.0401810302 0.1985926034 -0.7697569262 0.199092707 -0.7693875867 0.0330874171 -0.0353455867
630296220.0 0.0339937429 -0.0403247604 0.1903876065 -0.7712427155 0.1908271507 -0.7710438616 0.0321036603 -0.0358137331
635296190.0 0.0334235239 -0.0408483809 0.1819090469 -0.7727912692 0.1818179969 -0.7727804759 0.031663239 -0.0363653627
640296160.0 0.0326958689 -0.041116261 0.174061803 -0.7751619141 0.1738644724 -0.775463458 0.031539373 -0.0364308969
645296130.0 0.0320604737 -0.0412807959 0.1649817243 -0.7770099896 0.1651763569 -0.7770332861 0.0300045708 -0.0372860315
650296100.0 0.0311615969 -0.0411127498 0.1570794723 -0.7785068299 0.1573825423 -0.7784555926 0.02990344 -0.0373696387
655296070.0 0.0304919789 -0.0421393506 0.1483212804 -0.7802654044 0.1482532244 -0.7804817188 0.0299459729 -0.0368526866
660296040.0 0.0293329362 -0.0417814489 0.1394728882 -0.7816894308 0.1400376268 -0.7815947376 0.0286325562 -0.0378658509
665296010.0 0.0294443026 -0.0424129125 0.1319665016 -0.7835158565 0.1318065919 -0.7835003352 0.0280036787 -0.0374254574
670295980.0 0.0294384808 -0.0422846957 0.1230025199 -0.7846219012 0.1231706836 -0.7850463479 0.0269514082 -0.0379789688
675295950.0 0.0286305144 -0.0424189373 0.1139940554 -0.7858322854 0.114774577 -0.7863389166 0.0273463986 -0.0377407302
680295920.0 0.0277534501 -0.0425966726 0.1056795053 -0.7873040236 0.105330139 -0.7874534766 0.026595157 -0.0383919702
685295890.0 0.0268930138 -0.0428939819 0.0974846081 -0.7883348562 0.0965856614 -0.7886313662 0.02600133 -0.0380900907
690295860.0 0.0265235314 -0.0431883221 0.0883845095 -0.7888928668 0.0879912655 -0.7888411932 0.0257322495 -0.0380442347
695295830.0 0.0263278075 -0.0438106045 0.0789062499 -0.7902707529 0.0796984521 -0.7906788402 0.0241086828 -0.0387050868
700295800.0 0.0259505532 -0.0433543433 0.0708163909 -0.7912515056 0.0713716495 -0.791481152 0.0240256935 -0.0392515514
705295770.0 0.0248921778 -0.043574492 0.0623258204 -0.7911734492 0.0626490699 -0.7917498291 0.0234228199 -0.0389806706
710295740.0 0.0243781654 -0.0435691814 0.0537930922 -0.791885166 0.0537134907 -0.7921293224 0.0219828889 -0.0386754874
715295710.0 0.0234623893 -0.0441770143 0.0450873556 -0.7926507754 0.0458248425 -0.7934615194 0.0220043176 -0.039825638
720295680.0 0.0227635801 -0.0443555145 0.0369779437 -0.7930136643 0.0367243174 -0.7938902303 0.02204563 -0.0391282037
725295650.0 0.0225773972 -0.044020903 0.0277395396 -0.7931552792 0.0280473119 -0.7935998902 0.0209850257 -0.0391195147
730295620.0 0.0213431944 -0.0445395207 0.0194907482 -0.7940871274 0.0192470636 -0.7936652084 0.0207604274 -0.0403320203
735295590.0 0.0212394744 -0.0443372429 0.0112673704 -0.7938081861 0.0108065587 -0.7945285369 0.0198379048 -0.0391685687
740295560.0 0.0204658262 -0.0441389457 0.0023472277 -0.7932118587 0.0021689591 -0.7937617415 0.0201290505 -0.039827533
745295530.0 0.0197586247 -0.0447031057 -0.0060126458 -0.7942401273 -0.0059065441 -0.7941961885 0.0185799276 -0.0396857328
750295500.0 0.0193982947 -0.0450322944 -0.0149926954 -0.7934693578 -0.0148585434 -0.7937519694 0.0184586778 -0.0403767995
755295470.0 0.019139608 -0.0444760388 -0.0237888796 -0.7934238347 -0.023473902 -0.7936212025 0.0169010428 -0.0399358755
760295440.0 0.0178458817 -0.0446412369 -0.032544296 -0.792721179 -0.0325791714 -0.7936632496 0.0161271761 -0.0403171025
765295410.0 0.0170390455 -0.0451531076 -0.0409927555 -0.7928082459 -0.0402779285 -0.7928619257 0.0169095862 -0.0395269682
770295380.0 0.0167696524 -0.0448390563 -0.0497306838 -0.7916478573 -0.0491828078 -0.7925822131 0.0161622372 -0.0395444507
775295350.0 0.0161253066 -0.0449586567 -0.0578931588 -0.7915401447 -0.0579467901 -0.7921518413 0.0149171176 -0.0407360958
780295320.0 0.0156356442 -0.04490882 -0.0663738299 -0.7909764133 -0.0659970515 -0.791399703 0.0144700748 -0.0397788268
785295290.0 0.0147151881 -0.0445758333 -0.0751407254 -0.7894821727 -0.0754345257 -0.7902268035 0.0133850739 -0.0400510616
790295260.0 0.0142745665 -0.0445037734 -0.0838227029 -0.7892109079 -0.083724743 -0.789906624 0.0134783562 -0.040213753
795295230.0 0.0133186749 -0.0447935819 -0.0919040015 -0.7880894908 -0.0923342203 -0.788685407 0.0124716667 -0.039380274
800295200.0 0.0128747303 -0.0445743739 -0.1013973465 -0.7875591682 -0.101379528 -0.787677165 0.0121433151 -0.0398137632
805295170.0 0.0117888696 -0.0447516839 -0.1097252542 -0.7859505838 -0.1095085962 -0.786122249 0.0110286242 -0.0402062309
810295140.0 0.0114235367 -0.0448997172 -0.1174508475 -0.7851413638 -0.1180651513 -0.7856986563 0.0106653711 -0.039566255
815295110.0 0.010926434 -0.0444184014 -0.1266505765 -0.783217554 -0.1267995219 -0.7836390972 0.0098837971 -0.0401224989
820295080.0 0.0102451215 -0.0447720091 -0.1348226831 -0.7819664366 -0.1348127839 -0.7823390378 0.0093168842 -0.0398533537
825295050.0 0.0095513493 -0.0449254586 -0.1440086102 -0.7805818357 -0.1434146434 -0.7809533357 0.0092741874 -0.0397869473
830295020.0 0.008836068 -0.0442080045 -0.1519538114 -0.778694002 -0.1522623715 -0.7792050267 0.008317728 -0.0399238059
