!Created with skrf (http://scikit-rf.org).
# Hz S RI R 50.0 
!freq ReS11 ImS11 ReS21 ImS21 ReS12 ImS12 ReS22 ImS22
300000.0 -0.0997055141 -0.0836528006 0.624157948 0.0784300186 0.6260749151 0.0828440257 -0.0964247867 -0.0931965757
5299970.0 -0.1002383395 0.0126939887 0.6307558489 0.0104485408 0.6306475967 0.010989825 -0.1020054978 0.0119293292
10299940.0 -0.0952715481 0.0296457064 0.6349693227 0.015485453 0.6339650394 0.0162004699 -0.0970249091 0.0288240285
15299910.0 -0.0884599612 0.0430694522 0.6404893818 0.020368681 0.6402147085 0.0210532274 -0.0900575464 0.04201704
20299880.0 -0.0793581419 0.0543446984 0.6488247669 0.0238232312 0.6487018708 0.0240967137 -0.0820312834 0.0532489073
25299850.0 -0.0696798098 0.0628742816 0.6579915598 0.0247143856 0.657887413 0.0250977973 -0.0723254636 0.0621717918
30299820.0 -0.059608996 0.0690746794 0.6679729689 0.0249048835 0.6671842472 0.0243802053 -0.0624959261 0.0687948343
35299790.0 -0.0493790117 0.0740958848 0.6774218712 0.0213183943 0.677482152 0.0221556662 -0.0526720647 0.0735426889
40299760.0 -0.0395934824 0.0769713691 0.6868067714 0.0183980534 0.6866183891 0.0176800242 -0.0435755168 0.0771817004
45299730.0 -0.0303008336 0.0792704226 0.6961488425 0.0113098436 0.6954958634 0.0119603856 -0.03410202 0.0789607609
50299700.0 -0.0216476787 0.0798277508 0.7035876596 0.004445192 0.703710841 0.0045312379 -0.0252968332 0.0801426106
55299670.0 -0.0141770758 0.0800173945 0.7104622084 -0.0030724861 0.7113380714 -0.0029278558 -0.0177656738 0.0801917518
60299640.0 -0.0065745688 0.078849036 0.7172733627 -0.011555485 0.7172672826 -0.0113842504 -0.0105017623 0.0795770288
65299610.0 -0.000286256 0.0781315435 0.7237868752 -0.0194239694 0.7240457498 -0.020249068 -0.003758586 0.078711355
70299580.0 0.0059756157 0.0754272284 0.7284073603 -0.0294332173 0.7285587847 -0.0292700123 0.0024239852 0.0770132585
75299550.0 0.0117021993 0.0743289607 0.7331991178 -0.0385351349 0.7330571745 -0.0389057519 0.0082009645 0.0754871091
80299520.0 0.0160062785 0.0720268961 0.73745563 -0.0492757023 0.7378095409 -0.0490447917 0.0131109435 0.0729283292
85299490.0 0.0206690442 0.0695877094 0.7405879685 -0.058736518 0.7405774405 -0.0584487178 0.017541154 0.071089527
90299460.0 0.0245280342 0.0673289036 0.7438555596 -0.0687152275 0.7436198661 -0.068788512 0.022138135 0.0687565056
95299430.0 0.0282705234 0.0652619066 0.7463892003 -0.0797300936 0.7458336927 -0.0790101452 0.0255376249 0.0663343818
100299400.0 0.0314277352 0.0626464465 0.7470193388 -0.0888601312 0.7471936964 -0.0893025173 0.0283605015 0.0638981044
105299370.0 0.0346196258 0.0601538211 0.7485862653 -0.0988411773 0.748965552 -0.0991474521 0.0320260408 0.0616248056
110299340.0 0.0370183021 0.0578451173 0.7501004242 -0.1089148899 0.7500613161 -0.1097622477 0.0348085735 0.0593323165
115299310.0 0.0397110724 0.0549054532 0.7511973237 -0.1187652157 0.7512145244 -0.1188581282 0.0373259639 0.0562150488
120299280.0 0.0415873105 0.0528417415 0.7517589132 -0.1295222659 0.7513427472 -0.1295943221 0.0389183498 0.0545542942
125299250.0 0.0433391498 0.050392592 0.7518650198 -0.1393323213 0.7516720434 -0.1393865061 0.0413609298 0.0513541374
130299220.0 0.0450760627 0.0479465164 0.7513588723 -0.1489429167 0.7513407233 -0.1492646933 0.0431757785 0.0494688051
135299190.0 0.046700895 0.0453709111 0.7509529361 -0.1585260486 0.7506752871 -0.1585402791 0.0445263752 0.0474312694
140299160.0 0.0478255039 0.0439673341 0.7510027893 -0.1687095203 0.7512362324 -0.1688636977 0.0461004243 0.0454622625
145299130.0 0.0494191431 0.0417806956 0.7505098105 -0.1787524785 0.7498829962 -0.1781970481 0.0474515855 0.0427628388
150299100.0 0.0507272558 0.0398530072 0.7490730486 -0.188238575 0.749190448 -0.1880255801 0.0486140873 0.0409722951
155299070.0 0.0512224043 0.0380954045 0.7477558211 -0.1984462658 0.7476041999 -0.1982459385 0.0492178966 0.0386730385
160299040.0 0.0523913877 0.0359752716 0.7460290578 -0.2067730903 0.7460378351 -0.2072662498 0.0507547984 0.037326798
165299010.0 0.0528998506 0.0343633376 0.7455510311 -0.2169252487 0.7445873117 -0.2165913861 0.0515574243 0.0347658159
170298980.0 0.05330906 0.0327042508 0.7420429469 -0.2262212805 0.7429449762 -0.2263758403 0.0528980368 0.032944188
175298950.0 0.0545853564 0.0305220841 0.7416194326 -0.2352166325 0.7417629172 -0.2352721559 0.0533657984 0.0311903418
180298920.0 0.055172793 0.0292541418 0.7394319635 -0.2450480608 0.738832596 -0.2445540174 0.0538150635 0.0299105176
185298890.0 0.0560693832 0.0271861114 0.736912226 -0.2542104554 0.7368006088 -0.2536592888 0.0541483899 0.0276150542
190298860.0 0.0562467408 0.0258996132 0.7342569197 -0.262878151 0.7347169242 -0.2630445895 0.0553771655 0.0259657744
195298830.0 0.0563474755 0.0238099818 0.7317964786 -0.2715730773 0.7321582778 -0.2724965194 0.0560327722 0.0242740317
200298800.0 0.0571048982 0.0226317754 0.7292616655 -0.2806946648 0.7292846882 -0.280385027 0.056415338 0.0230454275
205298770.0 0.0570700579 0.0214265666 0.7268485248 -0.2891347546 0.7265408745 -0.2894353568 0.0564205961 0.0210121828
210298740.0 0.0570382165 0.0196972428 0.723931465 -0.2986618816 0.7238331042 -0.2988093363 0.056725208 0.0197525677
215298710.0 0.0577491966 0.018193312 0.7210562843 -0.3072311024 0.7209078723 -0.3070196522 0.056919511 0.0183503114
220298680.0 0.0581501706 0.017091682 0.7171520266 -0.3166078808 0.7171719594 -0.3155934828 0.0574516222 0.017236931
225298650.0 0.0586330002 0.0160262951 0.7138753843 -0.3240633782 0.7135884502 -0.3244378755 0.0574685456 0.0157284389
230298620.0 0.0579508392 0.0149756967 0.7111918263 -0.3328333974 0.710786168 -0.3332035501 0.057577801 0.0142924386
235298590.0 0.058564112 0.0132325381 0.7073517125 -0.3410857992 0.7076382204 -0.3414477275 0.0580524323 0.0127890838
240298560.0 0.0583629273 0.0121428525 0.7041011323 -0.3493202948 0.7037999321 -0.3486950953 0.0582040473 0.0116867565
245298530.0 0.0588353999 0.0112324541 0.6994219305 -0.357932074 0.6995621634 -0.3580429861 0.0581582788 0.0106324717
250298500.0 0.0582253789 0.0097378316 0.6960842714 -0.365482024 0.6963024311 -0.365971217 0.05868987 0.0088728353
255298470.0 0.0580811769 0.0088628578 0.6918909766 -0.374330544 0.6925070198 -0.3742674432 0.0585800423 0.0073951382
260298440.0 0.0584477903 0.0078482473 0.6882887093 -0.3822604655 0.6881371341 -0.3824195138 0.0594633165 0.0068786522
265298410.0 0.0589760944 0.0069914985 0.6838424895 -0.3905533748 0.6836698865 -0.3906054138 0.0588182531 0.0053817345
270298380.0 0.0589722269 0.0055965634 0.6795184533 -0.3985753914 0.6798315993 -0.3981063516 0.0588505637 0.0050098635
275298350.0 0.0585725309 0.004782555 0.6753213124 -0.4067111361 0.6759105965 -0.4066805561 0.058878937 0.0037215653
280298320.0 0.0585906053 0.003987837 0.6711556693 -0.4135296077 0.6710185123 -0.4141824218 0.0593504873 0.0026677952
285298290.0 0.0588378132 0.0030351416 0.666735748 -0.421620138 0.6662965546 -0.4221640276 0.0587473893 0.0016082029
290298260.0 0.0588284074 0.0016914847 0.6624031059 -0.4299596326 0.6621318027 -0.4293616373 0.0595090918 0.0005518049
295298230.0 0.0586629736 0.0006383069 0.6578959779 -0.4374117658 0.6573424499 -0.4373976176 0.0596602493 -0.000446773
300298200.0 0.059266007 -6.18413e-05 0.6532409525 -0.4455160083 0.6530622488 -0.4457340679 0.0593090475 -0.0014946259
305298170.0 0.0589593576 -0.0014510659 0.6478169685 -0.4531207384 0.6484661711 -0.4527694608 0.0596345911 -0.002000816
310298140.0 0.0595391713 -0.0023954813 0.643819732 -0.4605214978 0.6436173572 -0.4609681614 0.0597798755 -0.0029751036
315298110.0 0.0588335375 -0.0034266407 0.6384659387 -0.4681567326 0.6384715019 -0.4684810473 0.0598144352 -0.0045191236
320298080.0 0.0585709612 -0.0044503867 0.633501434 -0.4761810776 0.633409801 -0.4754499141 0.0594563055 -0.0059376207
325298050.0 0.058099555 -0.0058790782 0.6284215455 -0.4837613087 0.6279162234 -0.4835940309 0.0591484003 -0.0068946778
330298020.0 0.0578523382 -0.0066816231 0.6215005897 -0.4904831809 0.621783218 -0.4906245931 0.0582948031 -0.0082448162
335297990.0 0.0575305457 -0.007834428 0.6162076314 -0.4979681688 0.6163323485 -0.4978199124 0.058243731 -0.0089453837
340297960.0 0.0565476996 -0.0080656465 0.6103928934 -0.5048039754 0.6106558135 -0.5044291086 0.0574784387 -0.0098063903
345297930.0 0.0561051402 -0.0086194743 0.6052078349 -0.5109223722 0.60451735 -0.5111910478 0.0576005733 -0.0106425542
350297900.0 0.056511262 -0.0093643385 0.5985840459 -0.5176708234 0.5993782394 -0.5179058689 0.0566635123 -0.0107338937
355297870.0 0.0560663826 -0.0102887131 0.593531598 -0.5245816807 0.5932515203 -0.5247999847 0.0561951115 -0.0114426099
360297840.0 0.0558496204 -0.0107067875 0.5879855653 -0.5313994047 0.58731906 -0.5315113603 0.0560560763 -0.0116172596
365297810.0 0.055649212 -0.0116001395 0.5813590056 -0.5381083723 0.5810983973 -0.5381210722 0.0558733156 -0.0127173665
370297780.0 0.0555443764 -0.0122914958 0.5754128168 -0.5443670836 0.5760076224 -0.5447322269 0.0560287888 -0.0130004266
375297750.0 0.0551453574 -0.0125306644 0.5701916689 -0.5510639165 0.569397802 -0.5511650628 0.0555162158 -0.01350254
380297720.0 0.0549271283 -0.0136952151 0.5633672441 -0.5573107306 0.5634545854 -0.5568547876 0.0552290695 -0.014157405
385297690.0 0.0547671684 -0.0143104083 0.5573121622 -0.563329449 0.5566492851 -0.5632857943 0.0549698251 -0.0149210934
390297660.0 0.054364573 -0.0149808505 0.5503505169 -0.569820701 0.5511625289 -0.5702517828 0.0549325422 -0.0159415441
395297630.0 0.0545676349 -0.0156982941 0.5449460686 -0.5757513047 0.5448059083 -0.5755986038 0.0542658823 -0.0158938612
400297600.0 0.053692822 -0.0159411408 0.5384667822 -0.5821209967 0.5385299227 -0.5825699179 0.0534052199 -0.0170777494
405297570.0 0.053840907 -0.0166074142 0.5322817691 -0.5879369468 0.5320319071 -0.588200699 0.0538980962 -0.0168345915
410297540.0 0.0535813126 -0.017443832 0.5248976472 -0.5932522872 0.5251698821 -0.5940880517 0.0531580266 -0.0178850995
415297510.0 0.053124667 -0.0173733322 0.5188971913 -0.5989496877 0.518912459 -0.5996825456 0.0526934838 -0.0182427067
420297480.0 0.0529140738 -0.0188917931 0.5122367596 -0.6054235549 0.5121114556 -0.6057030124 0.0528345174 -0.0191917066
425297450.0 0.0531340669 -0.0196051728 0.5056043791 -0.6111172957 0.505980512 -0.61080266 0.051919525 -0.018987623
430297420.0 0.0525022276 -0.0197312548 0.4988514474 -0.6168334736 0.4993491681 -0.6170509289 0.0516827136 -0.0203882239
435297390.0 0.0526377206 -0.0206399838 0.4923476981 -0.6217282273 0.4924998716 -0.6218149881 0.0511079634 -0.0200680248
440297360.0 0.0520224176 -0.0216288729 0.4847631444 -0.6275467713 0.4845293306 -0.6275584688 0.0510439395 -0.0214654883
445297330.0 0.0522487512 -0.0221607874 0.4781382723 -0.6332954158 0.4779923563 -0.6331890922 0.0505695783 -0.0218923388
450297300.0 0.0517716262 -0.0225140341 0.4713317416 -0.6384263607 0.4713536315 -0.6386416111 0.0504238792 -0.0220782682
455297270.0 0.0511506351 -0.0233232885 0.4649552201 -0.6437286224 0.4651903177 -0.6434715682 0.0502793439 -0.0228022191
460297240.0 0.0504136956 -0.0239596268 0.4571608598 -0.6482903686 0.4566812059 -0.6488667683 0.0497797002 -0.0224816114
465297210.0 0.0506576168 -0.0247761272 0.4502401339 -0.6539225687 0.4505765531 -0.6540935748 0.0485212456 -0.0237816039
470297180.0 0.0499280314 -0.0252589794 0.4430363253 -0.6585649998 0.4435142028 -0.6592142562 0.0478294354 -0.0242861946
475297150.0 0.0493027501 -0.0263219924 0.4352309666 -0.6631103194 0.4358466999 -0.6629973382 0.0481485045 -0.0247269209
480297120.0 0.0498251212 -0.026813144 0.4284921973 -0.6681826377 0.428484917 -0.6682286951 0.0477976451 -0.0243900096
485297090.0 0.0492980934 -0.027243615 0.4216048535 -0.6731105834 0.4213495814 -0.6729544496 0.04708583 -0.0257600721
490297060.0 0.0490961185 -0.0281934354 0.4137151089 -0.6777084857 0.4137831544 -0.6775722385 0.0470160021 -0.0259144836
495297030.0 0.0478479054 -0.0282511368 0.4060052277 -0.6824658521 0.4060101601 -0.6820492043 0.0464938047 -0.0263516067
500297000.0 0.0479737535 -0.0291668092 0.3986783094 -0.686579969 0.3984025478 -0.6866364999 0.0453986874 -0.0268858484
505296970.0 0.0470312279 -0.02994328 0.3904598295 -0.6909713156 0.3907426928 -0.6908496363 0.0446762333 -0.0272339021
510296940.0 0.0467749086 -0.0301316538 0.3838196295 -0.6958351171 0.3836766544 -0.6952713392 0.0449318715 -0.0272358175
515296910.0 0.0459147391 -0.0302851043 0.3760321057 -0.6993193304 0.3758575583 -0.6993216399 0.0441500404 -0.0277978536
520296880.0 0.0460183763 -0.0314015964 0.3678955649 -0.7036481945 0.3679084444 -0.7035209046 0.0441004872 -0.0282001716
525296850.0 0.0452213131 -0.0320852641 0.36044145 -0.7076439143 0.360380084 -0.7075675651 0.0439417692 -0.0287396967
530296820.0 0.0450560614 -0.0323188282 0.3526725784 -0.7109286802 0.3527386391 -0.7120118885 0.0428858435 -0.0300672459
535296790.0 0.0440200968 -0.033155329 0.3448525745 -0.7150915561 0.3453895063 -0.7152019472 0.0428906639 -0.0302488251
540296760.0 0.0440454135 -0.033704086 0.3373368907 -0.7194954195 0.3365733898 -0.7193042524 0.0414042488 -0.0300521054
545296730.0 0.0432314757 -0.033455823 0.3287342022 -0.7220872431 0.3287135172 -0.7230997142 0.0412787659 -0.0309010807
550296700.0 0.042470069 -0.0344711725 0.3215091791 -0.7262212642 0.3217589246 -0.7265467758 0.0403638398 -0.0303775429
555296670.0 0.0424265665 -0.0352883019 0.3135164064 -0.7302793474 0.3135429441 -0.73005621 0.0397614023 -0.0311642691
560296640.0 0.0417464372 -0.035683637 0.3055338303 -0.732712044 0.3056032833 -0.7326252061 0.0395831782 -0.0315409915
565296610.0 0.0407067932 -0.0359409489 0.2970359965 -0.736775055 0.2968231527 -0.7366567527 0.0389931236 -0.0324777608
570296580.0 0.0410102535 -0.0367787275 0.28883576 -0.7398109942 0.2890904122 -0.7397608684 0.0388664612 -0.0315939663
575296550.0 0.0401298351 -0.0361367847 0.2812167986 -0.7424273208 0.2813321762 -0.7426070863 0.0386237726 -0.0328199773
580296520.0 0.0394717023 -0.0372805183 0.2730688073 -0.7456947452 0.2726880645 -0.7459621267 0.0374495821 -0.0331823267
585296490.0 0.039192793 -0.0378551882 0.265360281 -0.7494200829 0.264344062 -0.748733294 0.0368111367 -0.0339366141
590296460.0 0.0380343939 -0.0386752538 0.2563732184 -0.7518196983 0.256133365 -0.7517214514 0.0367340456 -0.0335701498
595296430.0 0.0375705933 -0.0384398957 0.2488678064 -0.7547030002 0.2483432592 -0.7548137955 0.0361616852 -0.0340390413
600296400.0 0.0370555445 -0.0388335242 0.240184599 -0.757646398 0.240725291 -0.757068689 0.0350369992 -0.0341150719
605296370.0 0.0367861645 -0.0387115991 0.2319792524 -0.7598081162 0.2318335354 -0.7596282247 0.0348446266 -0.0352129806
610296340.0 0.0357622956 -0.0395611094 0.2245332878 -0.7619636505 0.2239953687 -0.762049644 0.0342929293 -0.0343708949
615296310.0 0.0352675258 -0.0394848906 0.2153184327 -0.7649620842 0.2153736849 -0.7648049432 0.034015795 -0.0350792046
620296280.0 0.0345283685 -0.0402264852 0.206585093 -0.7668508693 0.2069371752 -0.7667986557 0.0332916704 -0.0360138782
625296250.0 0.034473676 -0.0403725487 0.1982593571 -0.7695275628 0.1983983944 -0.7692948142 0.0330515501 -0.0355647832
630296220.0 0.0338085749 -0.0403934821 0.1894713496 -0.7714026678 0.1904464509 -0.7712640337 0.0317165679 -0.0359071356
635296190.0 0.0329366418 -0.0411006414 0.1821178547 -0.7731175883 0.1816100942 -0.7728330225 0.0312385066 -0.0365293856
640296160.0 0.0322845594 -0.0412660285 0.1734924327 -0.7750872145 0.1734160539 -0.7751227088 0.0315176863 -0.0367140846
645296130.0 0.0316504353 -0.0413241288 0.1647998745 -0.7775799956 0.1650253 -0.7771888631 0.0298563176 -0.0371280799
650296100.0 0.0309718119 -0.0410899442 0.1567789962 -0.7786043221 0.1564402964 -0.7784159012 0.0297736901 -0.0372912426
655296070.0 0.0301597984 -0.0420097779 0.1478584188 -0.780289821 0.1476837135 -0.7803905442 0.0300388418 -0.0369208682
660296040.0 0.0293339787 -0.0416472843 0.1392889769 -0.7811915956 0.139705484 -0.7817586332 0.0285256714 -0.037950408
665296010.0 0.0293558952 -0.0424702108 0.1309325737 -0.7835948628 0.1316705905 -0.7831795996 0.0276318629 -0.0374849608
670295980.0 0.0293117874 -0.0421744721 0.1227968821 -0.7845306398 0.1222559523 -0.7846785051 0.0271051398 -0.0381269317
675295950.0 0.0280968666 -0.0423454241 0.1134347673 -0.7858910774 0.1142554965 -0.7863600245 0.0268272464 -0.0377794028
680295920.0 0.0274545367 -0.0424235186 0.1050291524 -0.7876700678 0.1047928101 -0.7872309225 0.0267773796 -0.0386396905
685295890.0 0.0267371819 -0.0428317409 0.0969997238 -0.7880564155 0.0962075103 -0.7887019363 0.0257961092 -0.0380929944
690295860.0 0.0263651442 -0.0429603483 0.0882014237 -0.7883795539 0.0873356086 -0.788666519 0.0255464238 -0.0381527504
695295830.0 0.0261645586 -0.0435243535 0.0784006601 -0.7902818176 0.0788047973 -0.7904901682 0.0241476774 -0.0385206645
700295800.0 0.0257237331 -0.0434388358 0.0705503491 -0.7912358039 0.0705005775 -0.7912471473 0.0237462473 -0.0395550869
705295770.0 0.0247108875 -0.0435168605 0.0623321474 -0.7917234505 0.0625107247 -0.7914637884 0.0230763831 -0.0391384348
710295740.0 0.0240448248 -0.0433687018 0.0531529384 -0.7918318432 0.0532145999 -0.7917712188 0.0218638417 -0.0391318544
715295710.0 0.0234737436 -0.0438613793 0.0451647049 -0.7925860002 0.0449899947 -0.7930160494 0.0216819067 -0.0399085295
720295680.0 0.0227249234 -0.0442006973 0.0357961551 -0.7931182164 0.0360531824 -0.7934905446 0.0213366618 -0.039158375
725295650.0 0.0223445417 -0.0441885181 0.0273118801 -0.7933279659 0.0274793989 -0.7932469661 0.0206334843 -0.0394783485
730295620.0 0.0210979363 -0.0444510209 0.0190238408 -0.7939801112 0.0188003557 -0.794156393 0.0204468877 -0.0405956066
735295590.0 0.0211855073 -0.0440515466 0.0110085569 -0.7938498486 0.0103619626 -0.7935509617 0.0195783274 -0.0394835395
740295560.0 0.0202738229 -0.0441189891 0.0012420656 -0.7929400772 0.0013712925 -0.7939360054 0.0193990687 -0.0399192012
745295530.0 0.0200170496 -0.0447892087 -0.0072242247 -0.7943967819 -0.0064615872 -0.794387313 0.0182230313 -0.0398418074
750295500.0 0.0191193237 -0.0448444903 -0.0151776121 -0.7929387922 -0.0151928258 -0.7933687925 0.018190192 -0.0405368518
755295470.0 0.0187295416 -0.0443340133 -0.0238913615 -0.7942001375 -0.0239948533 -0.7934240798 0.0167994877 -0.0403422576
760295440.0 0.0178098172 -0.0444949383 -0.0328959056 -0.7926829401 -0.0332462858 -0.7930610542 0.0157647027 -0.0404895319
765295410.0 0.016904355 -0.0452108085 -0.0406789469 -0.7926595602 -0.0409688276 -0.7927182954 0.0166346136 -0.0397561599
770295380.0 0.0167452327 -0.0447315816 -0.0502167609 -0.7924500643 -0.0498636034 -0.7927525272 0.0155728842 -0.0402708254
775295350.0 0.016080024 -0.0447175607 -0.0581576623 -0.791195814 -0.0583048046 -0.791502162 0.0145432169 -0.0410571125
780295320.0 0.0155975884 -0.045120098 -0.0664544752 -0.7906671152 -0.0662208428 -0.7908998408 0.0144580433 -0.0402781676
785295290.0 0.0144725465 -0.0444519793 -0.0757529726 -0.7887566331 -0.076084031 -0.7899877302 0.0131888557 -0.0405373462
790295260.0 0.0140290479 -0.0444526562 -0.0839121879 -0.7892839301 -0.0837272005 -0.7898840096 0.0130234738 -0.0404539782
795295230.0 0.0133226642 -0.0447405584 -0.0924028256 -0.787640417 -0.0924545018 -0.7880736838 0.0123033521 -0.039597706
800295200.0 0.012949764 -0.044697962 -0.1015717056 -0.7872970739 -0.1019139057 -0.7872759737 0.0119034968 -0.0400043918
805295170.0 0.0118732769 -0.0446976734 -0.1097675777 -0.785391291 -0.1099184133 -0.7856184038 0.0107639109 -0.0404440188
810295140.0 0.0116404605 -0.0445428925 -0.1185106874 -0.7847867643 -0.1182540003 -0.7850783729 0.0108254711 -0.0399020515
815295110.0 0.0108259931 -0.0442988941 -0.1273543835 -0.7828853314 -0.1276746859 -0.7833103618 0.009832808 -0.0404761344
820295080.0 0.0104207653 -0.0448655329 -0.1355300741 -0.7824548208 -0.1351697269 -0.7820283166 0.0091598709 -0.0400893338
825295050.0 0.0096968267 -0.0447782 -0.1440489422 -0.780353677 -0.1444357917 -0.7797998073 0.0088498403 -0.0397568986
830295020.0 0.0087815372 -0.0442096043 -0.1529534721 -0.7785013467 -0.1530680112 -0.7791721311 0.0077260572 -0.0402927191
