!Created with skrf (http://scikit-rf.org).
# Hz S RI R 50.0 
!freq ReS11 ImS11 ReS21 ImS21 ReS12 ImS12 ReS22 ImS22
300000.0 -0.7743946718 -0.1698983436 -0.000370943 0.0006098244 0.0002202754 0.000150908 -0.2086763995 -0.1058321916
5299970.0 -0.7861031756 -0.0090991847 0.0001765647 5.71946e-05 0.0003000045 -5.86845e-05 -0.2160319069 0.0060292646
10299940.0 -0.7892038839 -0.0059647321 -0.0001550071 -2.35789e-05 -6.25297e-05 -0.0001317207 -0.2121329005 0.0188692545
15299910.0 -0.7944369665 -0.0036000643 -4.42857e-05 -2.48459e-05 2.16192e-05 5.02048e-05 -0.2075571285 0.0282728682
20299880.0 -0.8012320115 0.0009112276 2.47302e-05 4.18123e-05 6.8519e-05 7.27908e-05 -0.2024319324 0.0358663133
25299850.0 -0.8076179436 0.0072500836 2.01829e-05 -5.0821e-06 1.86341e-05 0.0002740459 -0.1968604196 0.0416214992
30299820.0 -0.8139676723 0.0138369857 -2.0834e-06 1.6946e-05 -4.46125e-05 4.35188e-05 -0.1906826811 0.0465134928
35299790.0 -0.8189201996 0.0231241321 -0.0001324123 5.31087e-05 1.5096e-06 -5.76683e-05 -0.1852679896 0.0506069839
40299760.0 -0.8233602167 0.0315328779 -8.44924e-05 0.0001785877 8.85325e-05 7.67037e-05 -0.1797683443 0.0532505909
45299730.0 -0.8261433459 0.0417884589 8.00832e-05 5.31417e-05 -4.04849e-05 0.0001265033 -0.1744778472 0.055393835
50299700.0 -0.8291533024 0.0516554868 -0.0001369855 -5.38486e-05 2.7562e-05 6.72665e-05 -0.1695709466 0.0572333226
55299670.0 -0.83154478 0.0617175369 3.79048e-05 3.0625e-05 -0.0001552532 5.68645e-05 -0.165415804 0.0581900898
60299640.0 -0.8323341286 0.0718614684 2.2958e-05 -3.94731e-05 0.0001782767 4.31921e-05 -0.1613551526 0.0585315479
65299610.0 -0.8328940715 0.0818575719 -8.5707e-06 0.0001451323 7.19894e-05 -0.0001747559 -0.1578278591 0.0590810256
70299580.0 -0.8335017813 0.0915699473 -3.27574e-05 -2.88923e-05 0.0002858118 8.52694e-05 -0.1544599592 0.0595720536
75299550.0 -0.8339366707 0.1015530534 7.15163e-05 9.08294e-05 3.63521e-05 2.47018e-05 -0.1512962628 0.0596915582
80299520.0 -0.8338319503 0.1119123181 -0.0003370549 0.000274532 -1.91904e-05 0.0001879651 -0.1487927155 0.0599745988
85299490.0 -0.8327756008 0.120971592 -6.9737e-06 0.0001624984 2.32098e-05 0.0001276818 -0.1465734495 0.0597050793
90299460.0 -0.8322772951 0.1317767045 6.70063e-05 3.35688e-05 -0.0001041767 3.951e-06 -0.1442000937 0.0597824395
95299430.0 -0.8313118876 0.1405563791 -3.63291e-05 0.0001802762 0.0001726869 -0.0001877873 -0.1419518315 0.0599617163
100299400.0 -0.8304803637 0.1500070898 0.0002241051 7.50813e-05 0.0002718467 3.39839e-05 -0.1402321072 0.0604488851
105299370.0 -0.829162033 0.1594478849 4.29301e-05 -0.0001020832 -7.00172e-05 1.86673e-05 -0.1386231942 0.059665046
110299340.0 -0.8277024824 0.1684620336 -1.12142e-05 2.14427e-05 -2.47733e-05 1.20379e-05 -0.1375747026 0.0595762999
115299310.0 -0.8258785303 0.1776679964 5.67086e-05 -0.000128114 -4.06001e-05 0.0002558171 -0.1361807716 0.0600837215
120299280.0 -0.824451612 0.1869888517 -5.45432e-05 -4.45201e-05 0.0001811724 5.60979e-05 -0.1350089519 0.0598197203
125299250.0 -0.8226315715 0.1956720014 1.50427e-05 0.0002038639 3.1323e-05 0.0001271059 -0.1337556652 0.0601187341
130299220.0 -0.8204568879 0.2043667087 -9.80271e-05 6.83651e-05 0.0002524843 0.0001744698 -0.1326268323 0.0601662319
135299190.0 -0.8191222479 0.2138114619 0.0002575173 0.0001459625 -0.0001175783 -0.0001342467 -0.1316391979 0.0599659497
140299160.0 -0.817191714 0.2233996715 -2.18388e-05 -0.0001771041 0.0001381825 -5.31399e-05 -0.1315811383 0.0607699834
145299130.0 -0.8146622273 0.2323465138 0.0001018859 0.0001103104 6.41749e-05 3.54442e-05 -0.1304358591 0.0611130594
150299100.0 -0.8116095878 0.2409378865 8.05003e-05 0.0001444304 1.93843e-05 1.14868e-05 -0.1296687455 0.0613800632
155299070.0 -0.8097800019 0.2500945337 -0.0002019346 0.000249783 8.1427e-05 -7.71862e-05 -0.1290273468 0.0618458537
160299040.0 -0.8074192987 0.2588822626 6.78478e-05 0.000173323 -6.6535e-06 0.0001464441 -0.1285129241 0.0623012405
165299010.0 -0.8044906426 0.2672154806 2.64046e-05 -0.0001113358 0.0002289437 5.97936e-05 -0.1277745872 0.0626607134
170298980.0 -0.8018601049 0.2764454014 9.25995e-05 6.72576e-05 0.0001526003 9.10162e-05 -0.1274049398 0.0630686549
175298950.0 -0.7989470626 0.2842563139 -6.51305e-05 -8.0576e-06 -3.72558e-05 0.0001151599 -0.1266223072 0.0641339906
180298920.0 -0.7963311142 0.2932418208 -0.000137224 -9.09484e-05 7.14123e-05 0.0001052468 -0.1261590285 0.0643258568
185298890.0 -0.7930156779 0.3024822391 3.718e-07 -8.7867e-06 0.0003034357 3.79562e-05 -0.1256763569 0.0646875605
190298860.0 -0.7895367883 0.3109730025 1.11663e-05 4.13914e-05 0.0001674905 4.8912e-06 -0.1251586421 0.0656605873
195298830.0 -0.7866285406 0.3188624122 0.0001553534 4.47579e-05 2.8753e-06 -9.69547e-05 -0.124694085 0.0662150538
200298800.0 -0.7827548594 0.3277759445 5.3662e-05 0.0001141233 -6.56881e-05 0.0002011134 -0.1239407804 0.0668328822
205298770.0 -0.779484888 0.3363140362 4.83e-08 4.54127e-05 0.0002008826 0.0001715604 -0.1237601636 0.0675313693
210298740.0 -0.7764148565 0.3445889442 -9.85583e-05 0.0001636599 0.0001714109 -0.0001320042 -0.1233762575 0.0683617869
215298710.0 -0.7719973611 0.3529748068 8.20144e-05 0.0002001359 -7.70966e-05 9.70237e-05 -0.1227617291 0.0692414747
220298680.0 -0.7684730501 0.3610936254 0.0002180577 -1.69812e-05 9.7218e-06 0.0002659217 -0.1222022854 0.0702514835
225298650.0 -0.7646023188 0.3696171416 0.0001781028 -0.000171713 0.0001494107 -9.9941e-06 -0.1222105141 0.0708513192
230298620.0 -0.761343973 0.3779617023 0.0001967535 0.0001810454 0.0001587306 0.0001447665 -0.1214491262 0.071585751
235298590.0 -0.7572415647 0.3858662965 0.0002251598 0.0001408743 8.81002e-05 -2.45215e-05 -0.1208801713 0.0728293942
240298560.0 -0.7522629459 0.3938968673 -4.66887e-05 0.0001286511 9.97307e-05 0.000135762 -0.1203307369 0.0732901193
245298530.0 -0.7487541877 0.4017052589 0.0001233771 0.000134927 4.91055e-05 -5.80575e-05 -0.1199954713 0.0745873289
250298500.0 -0.7445221225 0.4090382268 7.98647e-05 -9.53051e-05 8.80047e-05 0.0001050238 -0.1195794109 0.0755658899
255298470.0 -0.7404652115 0.4176846326 -4.60072e-05 0.0002201165 7.34512e-05 2.34829e-05 -0.1193452274 0.0762930095
260298440.0 -0.736202224 0.4248817292 3.04618e-05 0.0002626863 0.0001349099 -0.0001276604 -0.1187660266 0.0773785577
265298410.0 -0.7319673826 0.4330753256 2.41728e-05 -4.82001e-05 7.94395e-05 0.0001970016 -0.1182589992 0.0781442893
270298380.0 -0.7269893069 0.4405138893 0.0001382809 0.0003339837 0.0002208266 6.45443e-05 -0.1174651583 0.0792209176
275298350.0 -0.7235525852 0.4480844925 1.36999e-05 0.0001905769 -5.31409e-05 -3.24908e-05 -0.1165842371 0.080260884
280298320.0 -0.7186280416 0.4558070922 0.0002129403 1.4393e-05 5.90974e-05 0.0002167743 -0.1164695608 0.0813515388
285298290.0 -0.7137500504 0.4630443731 -0.0001865505 0.0001060349 -2.1445e-05 3.12773e-05 -0.1158919822 0.0824781258
290298260.0 -0.7086560682 0.4712148513 5.29238e-05 6.61228e-05 4.80444e-05 0.0002779021 -0.1155391007 0.0835495431
295298230.0 -0.7038249587 0.4783000891 -0.0001399553 0.0002280524 1.55817e-05 0.0003262542 -0.1148310323 0.0841816544
300298200.0 -0.6991807692 0.4858374987 -5.9922e-05 5.27182e-05 0.0002591419 8.26513e-05 -0.1140745658 0.0853001844
305298170.0 -0.6945465681 0.492511934 0.0001277906 -4.55654e-05 0.000109742 -0.00011278 -0.1131784841 0.0863510802
310298140.0 -0.6888090736 0.4996512054 0.0002274772 -9.66703e-05 0.0002204239 0.0001586883 -0.1128276613 0.0876528922
315298110.0 -0.684425633 0.5066927404 0.0002251443 8.23518e-05 0.0001629205 5.95052e-05 -0.1120648928 0.0882394762
320298080.0 -0.6789718065 0.5144723621 3.76304e-05 -3.35962e-05 0.0001281264 -7.7368e-06 -0.1115567993 0.0890684471
325298050.0 -0.6732759389 0.5205045565 0.0001192707 3.6656e-05 2.1751e-06 0.0001683435 -0.1105480064 0.0902042488
330298020.0 -0.6678953266 0.5278469317 0.0001257736 0.0001094394 1.02867e-05 7.60661e-05 -0.1103494619 0.0908767265
335297990.0 -0.6626814651 0.5350007647 5.9347e-05 0.0002783798 1.97279e-05 0.0002427093 -0.109727821 0.0919681985
340297960.0 -0.6577158254 0.5411105637 0.0001520676 0.0001232479 0.0002037738 -6.05155e-05 -0.1093153841 0.0933576524
345297930.0 -0.652516681 0.548444365 -2.86436e-05 8.3463e-05 0.0001569763 4.30046e-05 -0.1085705839 0.0943847784
350297900.0 -0.6460817023 0.5553077619 0.0001086065 0.0001499345 -7.16152e-05 2.69414e-05 -0.1082427747 0.0952410924
355297870.0 -0.640919208 0.5616578251 0.0001372403 0.0001634132 0.0001395606 0.0001064972 -0.1073820548 0.0965401899
360297840.0 -0.6345603221 0.5682007901 0.0001457611 0.0001832584 0.000186467 5.3241e-05 -0.1063225 0.0974307752
365297810.0 -0.6294352582 0.5747402486 7.65916e-05 -9.82404e-05 0.0001608389 4.45801e-05 -0.1059920906 0.0988497855
370297780.0 -0.6234108898 0.580546173 0.0001052144 8.4548e-05 8.51928e-05 3.95425e-05 -0.1051877194 0.0996394672
375297750.0 -0.6175576214 0.5870559838 0.0002701587 2.72206e-05 0.0001104082 -8.05131e-05 -0.1044640922 0.1010775339
380297720.0 -0.6121038562 0.5938717132 0.0002366941 3.35374e-05 0.0002266357 0.0001253271 -0.1033208154 0.1018615059
385297690.0 -0.6059257444 0.5993734274 8.95586e-05 -2.9906e-06 0.0001283118 -9.64259e-05 -0.1027736555 0.1030724555
390297660.0 -0.59881953 0.6057260753 0.0002240744 0.0002343204 0.0002873783 5.73236e-05 -0.101933545 0.104381508
395297630.0 -0.5927984357 0.6124025513 9.81895e-05 0.0001272006 0.0001077908 0.0002167554 -0.1010157409 0.1050717565
400297600.0 -0.5862930957 0.6176888678 0.0003099961 0.0001779962 0.000222393 3.79046e-05 -0.100321551 0.1065184552
405297570.0 -0.5809257107 0.6233837009 0.0002145905 -1.93894e-05 0.0002019418 -4.4617e-06 -0.0991730227 0.1074379971
410297540.0 -0.5739495767 0.6294895126 5.39942e-05 -0.000150821 0.000275632 -8.9799e-05 -0.0988332172 0.1086043169
415297510.0 -0.5679262899 0.6353081422 0.0001058549 5.46629e-05 0.000155397 0.0001270007 -0.0975234518 0.1096011065
420297480.0 -0.5607460262 0.6410848057 0.0004674134 1.5791e-05 0.0001871092 0.0001134535 -0.0964148808 0.1106481529
425297450.0 -0.5540811504 0.6464941475 0.0001043232 -4.74467e-05 0.0002241376 3.8304e-06 -0.0958334154 0.1114434224
430297420.0 -0.5471239427 0.6518704023 3.69871e-05 -3.11473e-05 0.0001317472 -1.53481e-05 -0.0945234915 0.1125947735
435297390.0 -0.5412661938 0.6574084141 0.0001029152 7.48822e-05 0.0001468019 -8.60501e-05 -0.0941760421 0.1139206368
440297360.0 -0.534014594 0.6624961999 0.0001345613 -4.05929e-05 0.0002125358 5.43764e-05 -0.093278586 0.1146405147
445297330.0 -0.5271539998 0.6676841497 0.0001405742 0.0001929191 0.0001136312 0.0001773971 -0.0917657644 0.11568452
450297300.0 -0.520114992 0.6736204163 0.0002129312 -2.27125e-05 5.92889e-05 0.0002350613 -0.0906592505 0.1165511932
455297270.0 -0.5135409786 0.6785713657 5.50822e-05 2.99675e-05 0.0001698653 0.000166614 -0.090166027 0.1179283005
460297240.0 -0.5056986989 0.684092853 -0.0002084676 -5.302e-07 0.0002250977 0.0001798131 -0.08928447 0.1187294713
465297210.0 -0.499302909 0.6889962925 0.0002206003 5.234e-05 -2.75705e-05 0.0001621911 -0.0877928234 0.1200941109
470297180.0 -0.491802293 0.6941181443 7.46698e-05 8.97521e-05 7.27339e-05 -3.45925e-05 -0.0869255007 0.1207412964
475297150.0 -0.4849556426 0.6992580609 0.0002815674 0.0001349405 0.0002178299 2.45612e-05 -0.085558212 0.1220160462
480297120.0 -0.47686904 0.7042994667 9.98195e-05 5.52397e-05 0.0002025584 -7.61712e-05 -0.0850161461 0.1226390901
485297090.0 -0.4698253889 0.708938036 9.57643e-05 6.48669e-05 0.0001929511 -1.11594e-05 -0.0840806688 0.1241232065
490297060.0 -0.4623630039 0.7135716793 0.0001846055 -0.0001634914 0.0003200972 4.9603e-05 -0.0829064403 0.1247587973
495297030.0 -0.4549315441 0.7181018158 0.0002714433 8.515e-05 0.0001736999 -0.000279093 -0.0817460219 0.1256115611
500297000.0 -0.4469232152 0.722087847 0.000343868 0.0002112966 0.0002819704 0.0001744236 -0.0807153479 0.1264780162
505296970.0 -0.4392049426 0.7267140709 0.0002047877 0.0002368663 0.0003144695 0.0001162731 -0.0796591947 0.1276222765
510296940.0 -0.4318667773 0.7312629625 -6.93326e-05 3.0579e-06 0.0001223608 -0.0002268274 -0.0778670874 0.1286562573
515296910.0 -0.4240259857 0.7354551784 9.67271e-05 3.8622e-05 0.0001614307 -4.7811e-06 -0.0772717416 0.1291530319
520296880.0 -0.4160938419 0.7399397625 0.0001572496 9.72373e-05 0.000327147 0.0001109006 -0.0758066311 0.1303213869
525296850.0 -0.409038093 0.7442161062 0.0002064732 0.0001116226 -3.61901e-05 -1.8029e-05 -0.0748788043 0.1310808613
530296820.0 -0.401569004 0.7481042241 -2.30686e-05 0.0002077782 -6.94139e-05 -0.0001106896 -0.0735391743 0.1318825586
535296790.0 -0.3923904512 0.7521541569 0.000273175 0.0001132057 0.0002586429 0.0002594372 -0.0724450433 0.1329464182
540296760.0 -0.3850695481 0.7557533454 -4.3455e-05 0.000176203 0.0001363742 0.0001142902 -0.0714159193 0.1335456279
545296730.0 -0.3772928283 0.7602849899 0.0001419194 -3.22115e-05 0.0001881105 -4.7747e-05 -0.0700407383 0.1345782196
550296700.0 -0.3692776027 0.7640492127 0.0003602164 -7.81574e-05 0.00011033 -4.46357e-05 -0.0689973234 0.1355526902
555296670.0 -0.3615421933 0.7670787009 0.0002377484 -4.13981e-05 0.000264768 -1.96616e-05 -0.0679189329 0.1360369612
560296640.0 -0.3534509229 0.7708835756 0.0001948385 0.0001212384 0.0002045359 0.0002016238 -0.0665952076 0.1369393623
565296610.0 -0.3453197249 0.7746053439 0.0002815066 2.29521e-05 0.0002552004 -2.74832e-05 -0.0650694263 0.1381028387
570296580.0 -0.3368090283 0.7783224663 0.0003296242 7.83491e-05 3.4958e-06 0.0001934525 -0.0642488965 0.1386079566
575296550.0 -0.3283956344 0.7812874398 0.0001642402 0.0001173188 0.0003287529 6.73463e-05 -0.063021331 0.1391636595
580296520.0 -0.3211772738 0.7843001316 0.0001623389 -0.0001069015 0.000294706 9.11714e-05 -0.0617553376 0.1401151969
585296490.0 -0.3128859727 0.7875706616 9.35248e-05 4.30101e-05 0.0002321562 -7.01473e-05 -0.0601300674 0.1409656891
590296460.0 -0.3036035882 0.7910469677 3.53709e-05 -3.90147e-05 0.0003138225 -0.0001179041 -0.0591084886 0.1417175427
595296430.0 -0.2961420133 0.794069984 0.0001808073 -5.83053e-05 0.0003395186 -0.0001831713 -0.0577073 0.1424710474
600296400.0 -0.2881629502 0.7969343863 0.000270168 0.0001569597 0.0003383345 0.0001706213 -0.0566166133 0.1429595052
605296370.0 -0.2798358803 0.7999843577 2.48541e-05 -9.82238e-05 0.0003169839 0.0001251308 -0.0549315443 0.1438868241
610296340.0 -0.2710376472 0.8027080177 0.0003492237 -5.3029e-06 0.0002377289 6.16056e-05 -0.0539546274 0.1448045539
615296310.0 -0.2622778811 0.8049483272 0.0001065018 0.0001502758 0.0001143056 3.93e-05 -0.052082075 0.1451765172
620296280.0 -0.2555243979 0.8083349483 0.0002888489 3.6906e-06 0.0001501165 0.0001800575 -0.0513927953 0.1460940327
625296250.0 -0.2473726256 0.8104128163 0.0002366957 -0.000110458 0.0003979748 -3.31024e-05 -0.0502890897 0.146686748
630296220.0 -0.2383190176 0.8133363727 0.0004274994 -0.0002158755 0.0001974721 -3.03294e-05 -0.0483402263 0.1473278514
635296190.0 -0.2303112672 0.8149514729 0.0001853837 -0.0002335831 0.0001888965 7.79004e-05 -0.0471236105 0.1479881133
640296160.0 -0.2215584503 0.8176791946 0.0001885749 3.93245e-05 0.0002488415 -8.07651e-05 -0.045974469 0.148829469
645296130.0 -0.214230657 0.8209723047 0.0001007706 5.1287e-05 0.0002683771 0.0001052037 -0.0446391682 0.1492708417
650296100.0 -0.2056102714 0.8221756437 0.0003810463 0.000167582 0.0003406111 -5.37369e-05 -0.0427912354 0.1499524856
655296070.0 -0.1974749756 0.8239985048 0.0002120374 0.0001104335 0.0002627314 -0.0001369149 -0.0419068818 0.1506875179
660296040.0 -0.1890895634 0.8260143098 0.000554744 -1.1365e-06 -2.30887e-05 -0.0001362042 -0.0399501959 0.150988547
665296010.0 -0.1809509671 0.8282565208 0.0003083582 -7.35376e-05 -4.13071e-05 -0.0001165805 -0.0388947523 0.1514333453
670295980.0 -0.1727349983 0.8304957748 0.0003603515 -9.2027e-05 0.0003780716 7.83044e-05 -0.0374864756 0.1518717893
675295950.0 -0.1640824225 0.8314675841 0.0003316656 0.0001090288 0.0002745537 5.50849e-05 -0.0358947206 0.1526716232
680295920.0 -0.1569902003 0.8336540543 5.7396e-05 -0.0001205942 0.0002889625 2.47236e-05 -0.0346515134 0.1533373369
685295890.0 -0.1475403041 0.8361953073 0.000460661 5.26577e-05 -3.8828e-05 4.53394e-05 -0.0332474429 0.1537911844
690295860.0 -0.1389698323 0.8372060172 0.0002966697 1.99432e-05 0.0003125453 1.4729e-05 -0.0316544687 0.1543626907
695295830.0 -0.1301829699 0.8388802679 0.0002680295 0.0001285532 0.0003991535 -6.51869e-05 -0.0306270038 0.1551419942
700295800.0 -0.1225275979 0.8398047315 0.0002903017 -2.27669e-05 0.0002546436 -2.32909e-05 -0.0286813114 0.1552603182
705295770.0 -0.1148654623 0.8415290366 0.0002629344 0.0001200995 0.0002695241 -7.64872e-05 -0.0274120149 0.1559356621
710295740.0 -0.1072392252 0.8415251084 0.0003284023 -5.46014e-05 0.0002387891 3.74114e-05 -0.0259954222 0.1563795483
715295710.0 -0.097744091 0.8436654025 0.0002031853 3.10162e-05 0.0002140582 -1.04825e-05 -0.0245080475 0.1565281084
720295680.0 -0.088985269 0.8449176035 0.0002209555 0.0001294794 0.0004311359 0.0001359209 -0.0230514319 0.1569816296
725295650.0 -0.0817897518 0.84595781 0.0004713339 0.0001086608 0.0002629059 1.88479e-05 -0.0215069869 0.1577441835
730295620.0 -0.0737833406 0.846627418 0.0003203715 2.91998e-05 0.0003404288 -0.0002748009 -0.0203351323 0.1584556925
735295590.0 -0.0656562599 0.8474816465 0.0003795355 5.93861e-05 0.0001277485 -0.0001019522 -0.0183830114 0.1582065658
740295560.0 -0.0576321383 0.8475905394 0.0003393552 -6.0574e-05 0.0002030456 -4.86182e-05 -0.0170074441 0.1585006644
745295530.0 -0.0485088915 0.8488191014 0.0002321503 2.23033e-05 0.0002441029 -0.0002360783 -0.0156705284 0.1590914564
750295500.0 -0.0409584666 0.8490095946 0.0002339675 7.19431e-05 0.0001663386 0.0001024424 -0.0142639114 0.1595274848
755295470.0 -0.0319824729 0.8499406791 0.0004172244 -0.0001850241 0.00045286 1.74695e-05 -0.012570567 0.1601107805
760295440.0 -0.0242565688 0.85078715 0.000130415 7.16377e-05 9.24065e-05 -0.0001398982 -0.0111613045 0.1601935018
765295410.0 -0.0162218891 0.8503703923 0.0001305651 -0.0001719438 0.0003369262 6.8289e-06 -0.0096645321 0.1604922759
770295380.0 -0.0080654859 0.8512178262 0.000464671 -0.0002528949 0.0001690115 -9.19412e-05 -0.008364499 0.1606555056
775295350.0 -8.95944e-05 0.8507344757 0.0003699387 4.6656e-06 0.0003351172 -0.000136479 -0.0066512043 0.1609137893
780295320.0 0.0086181686 0.8510400734 0.0003724396 0.0002123718 0.0002430808 -5.55348e-05 -0.0050350986 0.1614763929
785295290.0 0.0171815414 0.8509274373 0.0003012931 -9.74667e-05 0.0003718176 -1.17644e-05 -0.0037939606 0.1618192293
790295260.0 0.0250186959 0.8505356073 0.0002018019 0.0001045164 0.0004162567 1.77791e-05 -0.0020409273 0.1620978963
795295230.0 0.0328553513 0.8507658097 0.0004270973 3.93e-07 0.0003339423 -7.84826e-05 -0.0006081174 0.1615841209
800295200.0 0.0414808192 0.8504827012 0.00019837 5.1981e-05 0.0001441679 -0.0002451183 0.0007096733 0.1621221735
805295170.0 0.0491712003 0.8507838302 0.0002517588 -0.0001854736 0.0001345779 -0.0001563414 0.0025917178 0.1621047782
810295140.0 0.0578624787 0.8500119667 0.0002516435 -0.0001639627 0.0003709271 -6.50689e-05 0.0041688435 0.1623492096
815295110.0 0.0651639835 0.8493333036 0.0001120657 5.81995e-05 0.0002420102 -7.2859e-06 0.0052190555 0.1626731297
820295080.0 0.0736637666 0.8490604496 0.0002574935 2.52572e-05 0.0001947935 -0.0002654565 0.0066050509 0.1632168269
825295050.0 0.0820237018 0.8483902571 0.00029332 2.16667e-05 0.0002752958 5.82834e-05 0.0085598827 0.1631373777
830295020.0 0.0909348591 0.8475562045 0.0003382332 -0.0002073521 0.0004034263 4.10294e-05 0.0098759673 0.1629570811
835294990.0 0.098374304 0.8468511731 0.0001977531 -0.0001146466 3.34582e-05 -6.92983e-05 0.0116495718 0.1633304732
840294960.0 0.1067132145 0.8454285953 0.0002669474 -0.0002317341 0.0005648476 -0.0002655846 0.0133476614 0.1632088677
845294930.0 0.1148055409 0.8446088115 2.60606e-05 0.0002061942 0.0005092594 -0.0001836747 0.01493384 0.1634750046
850294900.0 0.1242012434 0.8435012755 0.0002805621 -0.0001376654 0.0001312485 4.07896e-05 0.0162470147 0.1637613447
