!Created with skrf (http://scikit-rf.org).
# Hz S RI R 50.0 
!freq ReS11 ImS11 ReS21 ImS21 ReS12 ImS12 ReS22 ImS22
300000.0 -0.1013960059 -0.068271802 0.6322841694 0.0647868795 0.6267186308 0.0645597631 -0.1028740782 -0.0767501415
5299970.0 -0.1021413946 0.0130790834 0.6303749861 0.0094469768 0.6304684247 0.0099927138 -0.1005398862 0.0132382678
10299940.0 -0.0968832995 0.0294829801 0.6342187856 0.0149053376 0.6341552507 0.0155850801 -0.0956051343 0.0304546946
15299910.0 -0.0898584825 0.0426583805 0.6404194285 0.0198853057 0.6406070485 0.0202639598 -0.088604205 0.0435446494
20299880.0 -0.0814855884 0.0528943093 0.648306811 0.0242981217 0.6486090927 0.0239916523 -0.0796635426 0.0549232407
25299850.0 -0.0718574237 0.0620600188 0.6574553252 0.0248255259 0.657254932 0.0249881544 -0.0696198686 0.063345966
30299820.0 -0.0622570886 0.0686820659 0.6671566493 0.0243943608 0.667137221 0.0246915544 -0.0596713563 0.0700807601
35299790.0 -0.0523326737 0.0737536896 0.6770091021 0.0210788477 0.6769240936 0.0214709513 -0.0498038899 0.0749610389
40299760.0 -0.0433178245 0.077009869 0.6859217312 0.0171308679 0.6861644007 0.0169750306 -0.0398526898 0.0776395119
45299730.0 -0.0339913286 0.0792425172 0.6948037285 0.0118647933 0.6954205526 0.0120097356 -0.0310496496 0.0799911075
50299700.0 -0.0256079819 0.0801350343 0.7032444225 0.0043370548 0.7035707305 0.0051665108 -0.0228687187 0.0806501829
55299670.0 -0.017688994 0.0805215398 0.7111866987 -0.0035686166 0.7109651681 -0.0026344075 -0.014929405 0.080692994
60299640.0 -0.010007547 0.0799013689 0.7171171848 -0.011912939 0.7174929977 -0.011222007 -0.008011328 0.0796324867
65299610.0 -0.0037080824 0.0787587405 0.7232713749 -0.0204269484 0.7229916715 -0.0203543412 -0.0012489012 0.0785250935
70299580.0 0.0026940895 0.0775585291 0.7284645342 -0.0297649627 0.7284019286 -0.0293072636 0.0047357819 0.0766990928
75299550.0 0.0079378272 0.0758804247 0.7328034437 -0.0391105999 0.732639416 -0.0390961685 0.0101823499 0.0749069092
80299520.0 0.0132048966 0.0734561546 0.7370290076 -0.0493062845 0.7372966513 -0.0493218142 0.0149405978 0.0726860542
85299490.0 0.0175481455 0.0713172931 0.7402956767 -0.0583140235 0.7403244202 -0.0586725475 0.0193379532 0.0699928634
90299460.0 0.0215518507 0.0690527458 0.7428842794 -0.0689986914 0.743246422 -0.0691500927 0.0234781941 0.0680284654
95299430.0 0.0257284947 0.0664656803 0.7457009068 -0.0793254553 0.7456736301 -0.0795932032 0.0271844402 0.0654458442
100299400.0 0.0291045712 0.0645414745 0.7467158966 -0.0893024482 0.7467858507 -0.0893637327 0.0310998854 0.062342067
105299370.0 0.0322324249 0.0622218064 0.7485661578 -0.0999269815 0.7487558715 -0.0996233762 0.0338762123 0.0606579992
110299340.0 0.0349671554 0.059709924 0.7496670593 -0.109662726 0.7497810711 -0.1094491833 0.0358867557 0.0579457584
115299310.0 0.0373527058 0.0571629762 0.7505396512 -0.1196347171 0.7505601045 -0.1195517293 0.0388308437 0.0554304203
120299280.0 0.0397070156 0.0547057316 0.7509860636 -0.1297352886 0.7512226895 -0.1297815145 0.0413510674 0.0528891229
125299250.0 0.0419071392 0.0520741015 0.7514730663 -0.1393312775 0.7512345005 -0.1391526063 0.0428315289 0.0502843287
130299220.0 0.0435821715 0.0502357749 0.7511231769 -0.1493739897 0.7510793079 -0.1494249086 0.0450511895 0.0480490806
135299190.0 0.0455337459 0.0480676724 0.7510298461 -0.1591174754 0.7511016677 -0.1587981163 0.0467360657 0.0456867767
140299160.0 0.0467303377 0.0463383264 0.7504869295 -0.1690562922 0.7506205576 -0.1693608386 0.0478156161 0.0439750906
145299130.0 0.0483563947 0.0436814311 0.750332975 -0.1787477238 0.7499889093 -0.1784989142 0.0492977451 0.0420003263
150299100.0 0.0498793434 0.0420767962 0.7484376866 -0.1876867139 0.7485152738 -0.1879313088 0.0509018793 0.039890114
155299070.0 0.0502782806 0.0395481322 0.7476049799 -0.1986927784 0.747706936 -0.1982488086 0.0518017339 0.0381253692
160299040.0 0.0518099826 0.0378396738 0.7464387101 -0.2074863819 0.7459708609 -0.2077131713 0.0521491322 0.0362212938
165299010.0 0.0524475363 0.0362438568 0.7443160978 -0.2174328394 0.7447745507 -0.2174884363 0.0535995591 0.0348240891
170298980.0 0.0532641026 0.0337743004 0.7427428229 -0.2267401638 0.7428082717 -0.2266146781 0.054189159 0.0328094708
175298950.0 0.0536830942 0.0320289558 0.7412294628 -0.2354814392 0.7409125852 -0.2355667891 0.0551713883 0.0312116606
180298920.0 0.0544666238 0.0304147586 0.7381828993 -0.2446927133 0.7383521719 -0.2443750027 0.0553878368 0.0294358042
185298890.0 0.0553863795 0.0286193367 0.736526297 -0.2540261948 0.7360162313 -0.2537073464 0.0559655288 0.0285185523
190298860.0 0.0554446522 0.0271232765 0.734384629 -0.2634387906 0.7342421489 -0.2634820992 0.0564909029 0.0262643926
195298830.0 0.0559649161 0.025023947 0.7316414436 -0.2720617082 0.7316642825 -0.2721014136 0.0572469133 0.0251208483
200298800.0 0.0563763328 0.0239896295 0.7286416558 -0.2817271356 0.7290776053 -0.2815354655 0.0568069608 0.0236519576
205298770.0 0.0567773998 0.0225408284 0.7259764704 -0.2905823381 0.7256452752 -0.2901071987 0.0573480528 0.0213366489
210298740.0 0.0572079445 0.0207280298 0.7233484503 -0.2985144183 0.7226834054 -0.2981895001 0.0580258859 0.0211691808
215298710.0 0.0567493538 0.0197251991 0.719907527 -0.3078576632 0.7197542894 -0.3078068015 0.057505339 0.0197356245
220298680.0 0.0574492166 0.0175640855 0.7162625936 -0.3164274306 0.7163622265 -0.3162815119 0.0576109094 0.0179227988
225298650.0 0.0576332013 0.0166645778 0.7136413642 -0.3249500823 0.7138030482 -0.3247121057 0.0574402796 0.0164753776
230298620.0 0.0578799724 0.0155838326 0.7098538441 -0.3329188571 0.7104572195 -0.3331288672 0.0571883205 0.0150870433
235298590.0 0.057969895 0.0145615527 0.7071406703 -0.3417846607 0.7068001758 -0.341165903 0.0577470233 0.0139867138
240298560.0 0.0579096841 0.0134197806 0.7035343842 -0.3499019853 0.7030050888 -0.3504231057 0.0578144303 0.0131133681
245298530.0 0.0578453219 0.0118862421 0.6995345089 -0.3586445243 0.6996508046 -0.3588249176 0.0579423857 0.0109882544
250298500.0 0.0584271786 0.0108460726 0.6949478259 -0.3672535145 0.6947474101 -0.3660885083 0.0577316183 0.0103700989
255298470.0 0.0584207057 0.0091939915 0.691097861 -0.3743902134 0.6912792822 -0.374434703 0.0578948431 0.0092655567
260298440.0 0.0577979014 0.0080206026 0.6869348346 -0.3831146058 0.6873989712 -0.3833222401 0.0584526485 0.0076212775
265298410.0 0.058750496 0.0075049712 0.6834608195 -0.3915848717 0.6834981493 -0.3906556315 0.0579502921 0.0066731792
270298380.0 0.0584171259 0.0061079401 0.6797217464 -0.398654239 0.6793209626 -0.3989231811 0.0577447298 0.005617742
275298350.0 0.0588503683 0.0049392596 0.6752189914 -0.4073882603 0.6749515742 -0.4071978423 0.0580047194 0.0045285009
280298320.0 0.0586285852 0.0042851111 0.6708988889 -0.4145586373 0.6707215634 -0.4145719345 0.0585049538 0.0031312923
285298290.0 0.0587628602 0.0030377467 0.6666414026 -0.4220122123 0.6661906259 -0.4229063148 0.0583003966 0.0020201859
290298260.0 0.0589267932 0.0019968014 0.6616236628 -0.4293862944 0.661571218 -0.4305290141 0.0584248551 0.0017406462
295298230.0 0.0587612856 0.0009283301 0.6573821829 -0.4378866021 0.6570443944 -0.4377318675 0.0593170649 0.0001758981
300298200.0 0.0584416863 -0.0004682281 0.6527871336 -0.4453851501 0.6522540202 -0.4460205771 0.0584479864 -0.0009260661
305298170.0 0.0587557927 -0.001509749 0.6472015978 -0.453700959 0.6470780315 -0.4531612252 0.0591014559 -0.002115575
310298140.0 0.0584122307 -0.0028237583 0.6427556465 -0.4610929057 0.6430777103 -0.4610540417 0.0591618365 -0.0032442976
315298110.0 0.0584529942 -0.0043002734 0.6376553899 -0.4687881025 0.6378174005 -0.4689701275 0.0586824012 -0.0046451347
320298080.0 0.0586977042 -0.0051108164 0.6318632056 -0.47652036 0.63237723 -0.4759539287 0.0586171709 -0.0053747227
325298050.0 0.0578782268 -0.0063536785 0.6266919778 -0.4838743637 0.6269227751 -0.4836859302 0.0579117045 -0.0064610019
330298020.0 0.0573663438 -0.0076099695 0.620901259 -0.4910309341 0.6210519252 -0.4912767029 0.0573317806 -0.0079495291
335297990.0 0.0570207802 -0.0088090206 0.6158059445 -0.4977327043 0.6152731351 -0.4985355133 0.0567742988 -0.007966851
340297960.0 0.0560877798 -0.0094189299 0.6097363447 -0.505251037 0.6091769677 -0.5053345407 0.0568544101 -0.00892681
345297930.0 0.055646084 -0.0094046452 0.6037480431 -0.511822428 0.6036727069 -0.5117990469 0.0562677248 -0.0097355159
350297900.0 0.0550886898 -0.0109938506 0.5976289364 -0.519167813 0.5973935376 -0.5188314191 0.0555966177 -0.0097392703
355297870.0 0.0549094106 -0.0108459036 0.592066812 -0.5249502124 0.5926906592 -0.5255605558 0.0554710578 -0.0108521576
360297840.0 0.0545501233 -0.0117169164 0.586988669 -0.5313597694 0.5865896828 -0.5314336908 0.0549859542 -0.0112101483
365297810.0 0.0539768073 -0.0123239639 0.5804681794 -0.5387576467 0.5808828534 -0.5387374632 0.0547070981 -0.0118160248
370297780.0 0.0541327085 -0.0135331504 0.5739810967 -0.5449513528 0.5745620726 -0.5442281623 0.0539397473 -0.0124678551
375297750.0 0.0537399401 -0.0141220417 0.5679969984 -0.5517012485 0.5689902332 -0.5515268099 0.0541346639 -0.0130803281
380297720.0 0.0534213055 -0.0144624328 0.5623932945 -0.558019493 0.5625285392 -0.5571021053 0.0534445411 -0.0139087882
385297690.0 0.0528370067 -0.0153386634 0.5562258115 -0.5642480441 0.5557515745 -0.5642306933 0.053226912 -0.0140442366
390297660.0 0.0526767085 -0.0155270757 0.5498535371 -0.5703312632 0.5499808533 -0.5701381177 0.0523244207 -0.0152019133
395297630.0 0.0521069349 -0.0162112967 0.5433566428 -0.5761064757 0.543429068 -0.5765562061 0.0530560429 -0.0155652634
400297600.0 0.0516996326 -0.0169153517 0.5367967552 -0.5828260792 0.5370551324 -0.5823961459 0.051949075 -0.0160440682
405297570.0 0.0511816617 -0.0175168331 0.5305616778 -0.5880818634 0.530460162 -0.5878470186 0.0513281447 -0.0168120251
410297540.0 0.0513749091 -0.0182719265 0.5247697568 -0.5946138007 0.5247322157 -0.5942989416 0.0511059386 -0.0171013058
415297510.0 0.0513234829 -0.0185424461 0.5176334541 -0.5999226989 0.5179813796 -0.6002390307 0.0506561393 -0.0178731888
420297480.0 0.0508194181 -0.0191415328 0.510514264 -0.6059626503 0.5107849123 -0.6061361129 0.050284593 -0.0190868191
425297450.0 0.0497896557 -0.0207492553 0.5048670878 -0.6113522824 0.5046117018 -0.6117788673 0.0492856128 -0.0188686249
430297420.0 0.0497239659 -0.0209819245 0.4979095781 -0.6165168873 0.4973249584 -0.616530014 0.049334984 -0.0199900526
435297390.0 0.0492891263 -0.0212735288 0.4903438255 -0.6225926485 0.4904715573 -0.6223314292 0.0497502118 -0.0205596107
440297360.0 0.0493723923 -0.0216939174 0.4838520377 -0.6274271791 0.4837697077 -0.6279132257 0.0485413124 -0.021687355
445297330.0 0.048679974 -0.0230645889 0.4775855087 -0.6334971306 0.4770729812 -0.6326037031 0.04861151 -0.0223532885
450297300.0 0.0483809938 -0.0233339061 0.4701566765 -0.6382054273 0.4695257251 -0.6387997192 0.0483181533 -0.0233351863
455297270.0 0.048153923 -0.0239545661 0.4628645889 -0.6437712096 0.4630548683 -0.643950522 0.0479040978 -0.0235030463
460297240.0 0.0475026256 -0.024702594 0.4557855978 -0.6489434305 0.4560355826 -0.6488234409 0.0475103939 -0.0238733888
465297210.0 0.0475142207 -0.0249853233 0.4483091235 -0.6539275929 0.4487181995 -0.6545715694 0.0473492367 -0.0251549344
470297180.0 0.0468791272 -0.0259291768 0.4414591866 -0.6586959234 0.4414598487 -0.6588964444 0.0467299232 -0.0250960777
475297150.0 0.046768433 -0.0264950282 0.4339707439 -0.6631353513 0.4344981007 -0.6632834705 0.047128454 -0.0260458735
480297120.0 0.0460745033 -0.0264037752 0.4267214837 -0.6686729886 0.4266236717 -0.6686585375 0.046677499 -0.0261464488
485297090.0 0.0453010123 -0.0271852118 0.4197810476 -0.6729088487 0.4198262418 -0.6725159417 0.0462972676 -0.0272058119
490297060.0 0.044244913 -0.0279011381 0.4128092822 -0.6785889309 0.4126249013 -0.6778195645 0.0459313303 -0.0269128047
495297030.0 0.0444272629 -0.0283512017 0.4047405322 -0.6820210821 0.4053364855 -0.6827229749 0.0451183624 -0.0277027966
500297000.0 0.0440458508 -0.0291966547 0.3969520119 -0.68622272 0.3962171243 -0.6860194525 0.0446698724 -0.0275139554
505296970.0 0.0436855864 -0.0295777802 0.3893553785 -0.6905499657 0.3889482619 -0.6909012383 0.0446015834 -0.0281176616
510296940.0 0.0429857255 -0.0297133252 0.3819816483 -0.6954168138 0.3816701999 -0.6955367948 0.0444370516 -0.0284811533
515296910.0 0.0424326996 -0.0298094809 0.3745503761 -0.6996333032 0.3741012725 -0.6994007558 0.0435145651 -0.0289901711
520296880.0 0.0418631664 -0.0305715378 0.3662244864 -0.7041502076 0.3664993767 -0.7032426128 0.0430257443 -0.029602541
525296850.0 0.0415883716 -0.0317980632 0.3582036736 -0.7073673597 0.3590805374 -0.7075645116 0.0427372028 -0.0300883056
530296820.0 0.0411398338 -0.0315305324 0.3509512324 -0.7115246444 0.3510590713 -0.7119475795 0.042403196 -0.0300210846
535296790.0 0.0401830328 -0.0320710114 0.3434002209 -0.7153604752 0.3435495239 -0.7153116664 0.0417998724 -0.0307757139
540296760.0 0.0397181888 -0.0322371472 0.3350788025 -0.7195931559 0.3348382176 -0.7191759594 0.0407399952 -0.0302579352
545296730.0 0.0398445871 -0.0328953688 0.3272749739 -0.7229925442 0.3270655083 -0.7228226897 0.0403652351 -0.0311081291
550296700.0 0.0394986795 -0.0329253301 0.3190938329 -0.7258984967 0.3194979362 -0.7266092551 0.0396493879 -0.0314663066
555296670.0 0.0384653145 -0.0332506062 0.311609887 -0.7298020686 0.3118007653 -0.7294412899 0.0393090717 -0.0317088207
560296640.0 0.0385092185 -0.0331716761 0.3032907155 -0.7332054318 0.3034994333 -0.7332470389 0.0387327447 -0.032335106
565296610.0 0.0374028889 -0.0339992614 0.2952230097 -0.7367395158 0.2954773072 -0.7364546684 0.0379200215 -0.0327840632
570296580.0 0.0370430684 -0.0343983072 0.2876165809 -0.7401056216 0.2866557678 -0.7395029623 0.0376363047 -0.0326243698
575296550.0 0.0362068112 -0.0343697835 0.2792189583 -0.7429566312 0.2792412923 -0.7428051481 0.0373890812 -0.0334936783
580296520.0 0.0359295448 -0.0350208777 0.2711839307 -0.7461003684 0.2710596472 -0.7460193794 0.0365250585 -0.0339186056
585296490.0 0.0353832413 -0.0359939071 0.2634783974 -0.7485435506 0.2632200208 -0.7487241622 0.0358946895 -0.0340556933
590296460.0 0.0352467811 -0.0358231076 0.2548017515 -0.7505215133 0.2547998457 -0.7515158609 0.0345438629 -0.0343587389
595296430.0 0.0347488607 -0.0359949494 0.2459164381 -0.7548630805 0.2462057754 -0.7542884771 0.0348757338 -0.0350729324
600296400.0 0.0335589337 -0.0364423048 0.2381647386 -0.7568393648 0.2381691792 -0.7565789675 0.0338028473 -0.0352521199
605296370.0 0.0336846479 -0.036727259 0.2301976321 -0.7592546745 0.2302633408 -0.7590220747 0.0334510508 -0.0354980103
610296340.0 0.0330046391 -0.0373356025 0.2213052882 -0.7618780286 0.2219160626 -0.7620008727 0.0332351384 -0.036373743
615296310.0 0.0326682277 -0.0378458576 0.2129414595 -0.7641951115 0.2129762226 -0.7647839423 0.0326385517 -0.0363297268
620296280.0 0.0319475005 -0.0381272952 0.2053519224 -0.7667864137 0.204930168 -0.766317807 0.0319084032 -0.0370891725
625296250.0 0.0309711283 -0.03883787 0.197514515 -0.7692134171 0.1964729295 -0.7692226349 0.0323704308 -0.0369875478
630296220.0 0.0314306857 -0.0385000989 0.1876976069 -0.7710542599 0.1872971932 -0.7705928162 0.0310900809 -0.0372596212
635296190.0 0.0294258332 -0.0394397066 0.1795951078 -0.7726135165 0.1802066466 -0.773081922 0.0309791697 -0.0376822325
640296160.0 0.0292826535 -0.0392606147 0.171119543 -0.7743535307 0.1715126024 -0.7748220621 0.0301917084 -0.0379510089
645296130.0 0.0286576799 -0.0392652032 0.1629708776 -0.776206437 0.1630661108 -0.7761847916 0.0298552626 -0.0380643449
650296100.0 0.0283498295 -0.0397384268 0.1541340416 -0.7779820637 0.1541897545 -0.778166364 0.0296556984 -0.0393022798
655296070.0 0.0272591849 -0.040431644 0.1454246302 -0.7799649972 0.146241471 -0.7800475121 0.0293244967 -0.0387947775
660296040.0 0.0262992327 -0.0411242888 0.1373675652 -0.7819328452 0.1378838516 -0.7815223872 0.0289476852 -0.0390774734
665296010.0 0.026448547 -0.0404755277 0.1286876169 -0.7827794628 0.1288721586 -0.7824722253 0.0279881989 -0.0385638924
670295980.0 0.024708094 -0.040695804 0.1199589773 -0.783840669 0.1198020801 -0.7841857453 0.0271159071 -0.0393153548
675295950.0 0.0247589202 -0.0404755919 0.1119658522 -0.7849689149 0.1119570355 -0.7844943023 0.0264696898 -0.0393993119
680295920.0 0.0237299667 -0.0411585066 0.1024091099 -0.7865085142 0.1020043524 -0.786934754 0.0263107722 -0.0386298517
685295890.0 0.0234853635 -0.040626986 0.0942724492 -0.7873505633 0.0941118605 -0.7874967148 0.0254582813 -0.0392318136
690295860.0 0.0231113086 -0.0411908805 0.0858464463 -0.7880121462 0.0855037219 -0.7889670879 0.0249419073 -0.0385800882
695295830.0 0.0225968221 -0.041697699 0.0779673597 -0.7898949886 0.0768076186 -0.7892211432 0.0241668273 -0.0388249593
700295800.0 0.0220117464 -0.0418520377 0.0684322202 -0.7899985034 0.0680465282 -0.78965856 0.0236697366 -0.0384103183
705295770.0 0.0208896622 -0.0407236899 0.0596905349 -0.7909979845 0.0602702909 -0.7908937762 0.0227080465 -0.0390600815
710295740.0 0.021059013 -0.0416021644 0.0518695001 -0.7924745203 0.0516893591 -0.791993741 0.0226581558 -0.0399437167
715295710.0 0.0193346481 -0.0419920201 0.0432859308 -0.7922756593 0.0430204155 -0.7914674085 0.0223110499 -0.0394206793
720295680.0 0.0195049262 -0.0420084561 0.0343843589 -0.7921689796 0.0346933517 -0.7922454052 0.0214203118 -0.0388050175
725295650.0 0.0191896769 -0.0418642367 0.0254992444 -0.7926882618 0.0256866376 -0.7925335804 0.0201924485 -0.038918761
730295620.0 0.018785492 -0.0414879378 0.0170144046 -0.7925330367 0.0168884244 -0.7929904755 0.0198048441 -0.0396722789
735295590.0 0.0178650611 -0.04153514 0.0086425741 -0.7935721299 0.0082423017 -0.7929090808 0.0187072993 -0.0398199894
740295560.0 0.016890911 -0.0416771516 -4.04261e-05 -0.7928447405 -0.0008692885 -0.7927410848 0.0188769867 -0.0393584055
745295530.0 0.0164575634 -0.0414062386 -0.0089872873 -0.7924658401 -0.0090755044 -0.7929835012 0.0181293803 -0.0400281808
750295500.0 0.0159771155 -0.0419349124 -0.017222258 -0.792869848 -0.0176778757 -0.792877304 0.0173715185 -0.0399912952
755295470.0 0.0155595482 -0.0423527018 -0.0255961244 -0.7921178635 -0.0256089943 -0.7927591576 0.0172987951 -0.0403534646
760295440.0 0.0147243125 -0.0419025434 -0.0352572009 -0.7923723256 -0.0345154824 -0.7925461525 0.0163172195 -0.0402372636
765295410.0 0.0138596924 -0.0421071468 -0.0436185734 -0.7917684482 -0.044060209 -0.7923505571 0.0157871392 -0.0404302814
770295380.0 0.0128065715 -0.042386363 -0.0521560159 -0.7912072516 -0.052265721 -0.791318916 0.0149714646 -0.0406835867
775295350.0 0.0125364234 -0.0430837218 -0.0608556556 -0.7901128271 -0.0601889822 -0.7900839061 0.0134361887 -0.0403797724
780295320.0 0.0123946489 -0.0425264776 -0.069334289 -0.7894640697 -0.0686931986 -0.7895442682 0.0131779656 -0.0412106431
785295290.0 0.011433498 -0.0431664616 -0.0777945041 -0.7887155294 -0.0776422961 -0.7888151304 0.0134712002 -0.0405279826
790295260.0 0.0114627294 -0.0419698493 -0.0858427096 -0.7880567227 -0.0856535639 -0.7877733512 0.0125574199 -0.0409245028
795295230.0 0.0105285731 -0.0427110315 -0.0946032022 -0.7873107937 -0.0943611566 -0.7871784154 0.0118386527 -0.0404633683
800295200.0 0.0092535718 -0.0421432935 -0.1041876189 -0.7858626871 -0.103261362 -0.7860934971 0.0116159302 -0.041024191
805295170.0 0.0087569972 -0.0425810707 -0.1120371781 -0.7848557011 -0.1120772361 -0.7846551837 0.0111659725 -0.0407826137
810295140.0 0.007854069 -0.0430682591 -0.1201123776 -0.7835073703 -0.1202527956 -0.7835069906 0.0110611806 -0.0401768898
815295110.0 0.0075729153 -0.0429917994 -0.128853089 -0.7817058635 -0.1286311079 -0.7816554431 0.0097151372 -0.0404378141
820295080.0 0.0063329141 -0.0419253672 -0.1377487352 -0.7806833417 -0.1372953557 -0.7802004099 0.0092967529 -0.0405750076
825295050.0 0.0065927546 -0.0419134383 -0.1456117733 -0.7786556406 -0.1458029134 -0.7788404121 0.009231456 -0.0402328343
830295020.0 0.0057625228 -0.0419108186 -0.1544488662 -0.7775189002 -0.1539879497 -0.776925259 0.0091901056 -0.0400288076
