!Created with skrf (http://scikit-rf.org).
# Hz S RI R 50.0 
!freq ReS11 ImS11 ReS21 ImS21 ReS12 ImS12 ReS22 ImS22
300000.0 -0.3166248563 -0.1324972923 0.3720776046 0.0661625827 0.3712006551 0.0677235359 -0.3145169749 -0.1332609377
5299970.0 -0.3250132851 0.0027182507 0.378467745 0.0032667234 0.378859122 0.0033601608 -0.3258024342 0.0019691716
10299940.0 -0.3224923439 0.0141886507 0.3799357777 0.0027117372 0.3796590625 0.0031581245 -0.3233924887 0.0129550057
15299910.0 -0.3190406148 0.0221304437 0.3820355793 0.0028683989 0.3824033969 0.0028633275 -0.3203659224 0.0197841493
20299880.0 -0.3154320972 0.0289946161 0.3847369803 0.0021682191 0.3852510323 0.0019130582 -0.3177508944 0.0260893103
25299850.0 -0.3115120482 0.0347176661 0.38842864 0.0005701378 0.3888947221 0.0002064026 -0.3148833192 0.0312888006
30299820.0 -0.3082892928 0.0394030073 0.3920847531 -0.001994211 0.392081982 -0.0022386644 -0.31193484 0.0357282723
35299790.0 -0.3043054487 0.0433645529 0.3946701014 -0.0052454182 0.3953218424 -0.0049921948 -0.3092270138 0.0398646635
40299760.0 -0.3011643147 0.0468241185 0.3984026252 -0.0086476738 0.3985831611 -0.0087225868 -0.3064090082 0.0433214823
45299730.0 -0.2980068946 0.050021058 0.4012990015 -0.0121287543 0.4018040234 -0.0127763838 -0.3035865701 0.0466320811
50299700.0 -0.2950657296 0.0527297419 0.4036375944 -0.0173795416 0.4037770205 -0.0174295929 -0.3012256279 0.0499409544
55299670.0 -0.2924498584 0.0551720429 0.405925675 -0.0212861656 0.4059991571 -0.0219775049 -0.2993117205 0.0524535594
60299640.0 -0.2897207229 0.0580053074 0.4078015752 -0.0267631382 0.407904632 -0.0269465796 -0.2970019385 0.0550184663
65299610.0 -0.2872582364 0.0600473106 0.4098563098 -0.0314656026 0.4097505824 -0.0317685295 -0.2951057148 0.057640222
70299580.0 -0.2855072422 0.0618749453 0.4106827738 -0.0365572295 0.4111661626 -0.0364470315 -0.2937211052 0.0598810074
75299550.0 -0.2834671674 0.0640909141 0.4117109375 -0.0421421283 0.411917163 -0.0424430769 -0.2915968208 0.0624041398
80299520.0 -0.2815509949 0.0663103264 0.4126223895 -0.0472001265 0.4131266871 -0.047233066 -0.2905970387 0.0649730944
85299490.0 -0.2801543878 0.0685035799 0.4135638948 -0.0525785575 0.4137301524 -0.0523077246 -0.2889650896 0.0667642845
90299460.0 -0.2782984489 0.0705527368 0.4136927315 -0.0576241081 0.4136085363 -0.0577455583 -0.2872903397 0.0693078997
95299430.0 -0.2767994802 0.0723753562 0.4137305321 -0.0628060929 0.4144721703 -0.0633737053 -0.2862957009 0.0720002321
100299400.0 -0.2754926359 0.0744890284 0.4141731289 -0.0681898701 0.413974331 -0.0683551511 -0.2852518163 0.0744718336
105299370.0 -0.2735309128 0.0767780998 0.4135434898 -0.0733158416 0.4142033021 -0.0734892547 -0.2838224925 0.0762866761
110299340.0 -0.2724143497 0.0786059699 0.4135394525 -0.0782802253 0.4141226949 -0.0782917728 -0.2833147391 0.0786146652
115299310.0 -0.2715952359 0.080824674 0.4134174413 -0.0832610166 0.4134429224 -0.083834548 -0.2822031113 0.0811709031
120299280.0 -0.2704894834 0.0834470153 0.4133980348 -0.0888677894 0.4130129923 -0.0888057307 -0.2808582252 0.0832202472
125299250.0 -0.2693253404 0.0853354854 0.4124140231 -0.0936666319 0.412476488 -0.0938464846 -0.2798050023 0.086173285
130299220.0 -0.2681738968 0.0875212723 0.4118771499 -0.0988266847 0.4119628208 -0.0993420057 -0.278922278 0.0885636477
135299190.0 -0.2672694577 0.089852749 0.4114018044 -0.1036748599 0.4113939832 -0.1040627286 -0.2780258698 0.0907584148
140299160.0 -0.2661835043 0.092256809 0.410447208 -0.1088848507 0.4102294185 -0.1091220302 -0.2774728808 0.0930696839
145299130.0 -0.2654637008 0.0945906182 0.4095773169 -0.1138963629 0.4096400936 -0.1139471778 -0.2763139939 0.0959958976
150299100.0 -0.2642942189 0.0971494235 0.4084345844 -0.118968179 0.4084191648 -0.1190315587 -0.2756346084 0.0981924383
155299070.0 -0.2630249979 0.0995579517 0.4070103863 -0.1237029117 0.4076053324 -0.1238179803 -0.2746830423 0.1012564194
160299040.0 -0.2622380481 0.1020395541 0.4060902229 -0.128855684 0.4061639474 -0.1287914107 -0.2739372056 0.1036641477
165299010.0 -0.260962362 0.1043394986 0.4049416823 -0.1333213048 0.4048039388 -0.1336469323 -0.2724031142 0.1058879192
170298980.0 -0.2599592322 0.1066041516 0.4030195266 -0.1381928295 0.403498442 -0.1383408768 -0.2719135934 0.1087586704
175298950.0 -0.2592049421 0.109394713 0.4025587382 -0.1432655515 0.4025439133 -0.1430685493 -0.2708816539 0.1115543417
180298920.0 -0.2580750514 0.1119206474 0.4007513305 -0.1481618302 0.4011334445 -0.1483605572 -0.2698926338 0.1142772635
185298890.0 -0.2569524638 0.1140899039 0.3995651073 -0.1525276374 0.3991020042 -0.1527309729 -0.2686917132 0.11660495
190298860.0 -0.2557385285 0.1172389872 0.3972362647 -0.1573945422 0.3977666733 -0.1573941323 -0.2677856715 0.1194699775
195298830.0 -0.2548731248 0.1196825602 0.3962649386 -0.1617730292 0.39604715 -0.1618748462 -0.2666213451 0.1220475164
200298800.0 -0.2535258393 0.1219844879 0.3942614745 -0.166817908 0.3944755958 -0.1667082057 -0.2657139502 0.1244331689
205298770.0 -0.2528927563 0.1249973081 0.3924492514 -0.1710899989 0.3925680232 -0.1710007059 -0.2643275964 0.1275419513
210298740.0 -0.2514429606 0.1274411979 0.3909074448 -0.175648161 0.3902487776 -0.1758077285 -0.2636668328 0.1301017362
215298710.0 -0.2504137931 0.1301477058 0.3885101432 -0.1800113344 0.3888041388 -0.1802699541 -0.2620413118 0.1326200186
220298680.0 -0.2489919003 0.1323820935 0.3864550284 -0.1843038333 0.3866454311 -0.1847995548 -0.260828499 0.1354914951
225298650.0 -0.2478044423 0.1352307711 0.3841724157 -0.1887808166 0.3849620488 -0.1886565268 -0.2599596111 0.1383141783
230298620.0 -0.2466838134 0.1381440738 0.3828902116 -0.1933068546 0.382920876 -0.19371404 -0.2586775285 0.1407000029
235298590.0 -0.2453391154 0.1406638069 0.3807071661 -0.1982518003 0.3808019008 -0.1978225346 -0.2574630687 0.1434785676
240298560.0 -0.2439734825 0.1432902513 0.3784031946 -0.2021326358 0.3782453362 -0.2021155593 -0.2560188756 0.1458641045
245298530.0 -0.2427828622 0.1456648561 0.3761059237 -0.2065500398 0.376215966 -0.2065371504 -0.2547509371 0.1487273926
250298500.0 -0.2414978764 0.1482763555 0.3738494268 -0.210580972 0.3741128534 -0.2104606096 -0.2534110178 0.1516475656
255298470.0 -0.2399592191 0.1512105182 0.3718780779 -0.2149222329 0.3721000718 -0.2150607679 -0.251732133 0.1544023224
260298440.0 -0.2386636618 0.153547073 0.3695521063 -0.2186280225 0.3694238344 -0.2189398699 -0.2505418406 0.1566444127
265298410.0 -0.2375377451 0.1563231065 0.3667491065 -0.2235430779 0.3668710696 -0.2234654463 -0.2489606042 0.1590209138
270298380.0 -0.2359382144 0.1588724544 0.3641689292 -0.2277240466 0.3646618993 -0.2276182008 -0.2470480393 0.1623707765
275298350.0 -0.2346337657 0.161721254 0.3617126724 -0.2316077399 0.3621329525 -0.2315466056 -0.2459682466 0.1648602383
280298320.0 -0.2330017756 0.1637415195 0.3595693762 -0.2348789488 0.3593980766 -0.2359339803 -0.2440897224 0.1676356441
285298290.0 -0.231226512 0.1665411162 0.3563611562 -0.2394632318 0.3571018083 -0.2394931097 -0.2427673382 0.1704748766
290298260.0 -0.2300516782 0.1691131713 0.3548308141 -0.243583469 0.3542620858 -0.2436317223 -0.2410078832 0.1729582928
295298230.0 -0.228308187 0.1713425611 0.3513852087 -0.2477536261 0.3517976749 -0.2479104987 -0.2393559613 0.175470739
300298200.0 -0.2268681445 0.1744309664 0.3487556066 -0.251714297 0.3490375176 -0.2515123554 -0.2378735731 0.1780503501
305298170.0 -0.224986622 0.1766034917 0.3462279945 -0.2556215535 0.3464357468 -0.2558026029 -0.2358161266 0.1804722233
310298140.0 -0.2231884302 0.1789133454 0.343262257 -0.2595116733 0.3435433392 -0.2591569209 -0.2338132435 0.1828599072
315298110.0 -0.222007205 0.181379865 0.3407910736 -0.264064378 0.340682348 -0.2636744969 -0.2321073125 0.1855394022
320298080.0 -0.2199743518 0.1835005972 0.3371626197 -0.2673372122 0.3380866223 -0.2677696682 -0.2305849209 0.1879218383
325298050.0 -0.2187892856 0.1856292679 0.3346116476 -0.2708949515 0.3350172673 -0.2709931653 -0.2285764937 0.1903111188
330298020.0 -0.2173044684 0.1883963847 0.3314409848 -0.2748983247 0.331960909 -0.2750563277 -0.2268582204 0.1927691246
335297990.0 -0.2155619762 0.1907095998 0.3284611223 -0.2782986114 0.3284775141 -0.2786462639 -0.2246578931 0.1952499563
340297960.0 -0.2139538453 0.193047127 0.3249949553 -0.2821384302 0.324894178 -0.28243947 -0.2231060445 0.1982142262
345297930.0 -0.2119417133 0.195667138 0.3217564976 -0.2860140705 0.3219240734 -0.2859297307 -0.2209204692 0.2003343814
350297900.0 -0.2099726141 0.1979411385 0.3186710085 -0.2891866037 0.319105607 -0.2893059394 -0.2194939551 0.2024681212
355297870.0 -0.2082116728 0.200236042 0.3156718606 -0.2922440418 0.3156319724 -0.2924925518 -0.2171779617 0.2054516449
360297840.0 -0.2063295787 0.2027972509 0.3119121956 -0.2962098495 0.3124350289 -0.2964717332 -0.2151064955 0.2078736528
365297810.0 -0.2044659841 0.2051508909 0.3089180793 -0.2998067235 0.3094323539 -0.2996449157 -0.2133924208 0.2103322711
370297780.0 -0.2025639224 0.2075513908 0.3053059206 -0.3032407403 0.3060238931 -0.3028996655 -0.2114004551 0.2127213926
375297750.0 -0.2007119904 0.209469078 0.3022048859 -0.3063526603 0.3022695685 -0.3066972247 -0.2088275323 0.215287431
380297720.0 -0.1983673136 0.2122314054 0.2989171382 -0.3097750007 0.2988291675 -0.3098144034 -0.2066399594 0.2173923317
385297690.0 -0.1968231754 0.2140878095 0.2957233072 -0.3129780508 0.2958675431 -0.3131591532 -0.2044713049 0.2201320572
390297660.0 -0.1941513714 0.2162704916 0.2918028202 -0.3159620782 0.2921785474 -0.3164532128 -0.2020820935 0.2222510661
395297630.0 -0.192046933 0.2183685399 0.2885623834 -0.3189095485 0.2887453654 -0.3190612667 -0.1997560575 0.2242723155
400297600.0 -0.1898978175 0.2205490474 0.2848290421 -0.3225883602 0.2849623143 -0.3227087969 -0.197318429 0.2270570406
405297570.0 -0.1882831218 0.2226122323 0.2816170337 -0.3253821641 0.2818003202 -0.3253501014 -0.1950497233 0.2290267011
410297540.0 -0.185561881 0.2248123959 0.2776637749 -0.3288943685 0.2781357162 -0.328840484 -0.1927938345 0.2316635859
415297510.0 -0.1835753904 0.226897094 0.2741607401 -0.3313167697 0.2744475574 -0.3314616261 -0.190548551 0.2334175067
420297480.0 -0.1815485009 0.228441347 0.2707961396 -0.334441421 0.2707605908 -0.3348446716 -0.1875527451 0.2359938196
425297450.0 -0.1786844968 0.230780598 0.2670847727 -0.3373820415 0.2669280787 -0.3373296289 -0.1856643293 0.2374346783
430297420.0 -0.1764911379 0.2326444062 0.2632693764 -0.3405722855 0.2634673739 -0.3404504077 -0.1828400787 0.2401002308
435297390.0 -0.1741964643 0.2345642383 0.2591672887 -0.3438604736 0.2594956999 -0.3433275688 -0.1807412147 0.2424822524
440297360.0 -0.1712472863 0.2365149137 0.2551729472 -0.3462939657 0.2555400615 -0.3462134669 -0.1784624318 0.2446677085
445297330.0 -0.1691399531 0.2381710253 0.2518211419 -0.3490779499 0.251893805 -0.3491474876 -0.1751601101 0.2464957995
450297300.0 -0.1665825583 0.2402954094 0.2477550327 -0.3514448151 0.2484064037 -0.3514913663 -0.1727376646 0.2484405382
455297270.0 -0.1642574707 0.2420806659 0.2439749541 -0.3542708356 0.2443964673 -0.3543636592 -0.1701637955 0.2502261864
460297240.0 -0.1616836908 0.2440523045 0.2404080972 -0.3574784595 0.2401886094 -0.3573054695 -0.1676137472 0.2522804823
465297210.0 -0.1588545043 0.2457169637 0.2359174259 -0.3599115281 0.2357937996 -0.3599608403 -0.1646221791 0.2545682261
470297180.0 -0.1565295413 0.2476697776 0.2318538131 -0.3617869167 0.2325130558 -0.3621103026 -0.1622888466 0.2562122972
475297150.0 -0.1541248996 0.2495604948 0.227952921 -0.3649056398 0.2285008502 -0.3648097589 -0.1593504457 0.2579992186
480297120.0 -0.1511269839 0.2512787607 0.223986618 -0.3670240735 0.2241095808 -0.3670129989 -0.1567797271 0.2599969272
485297090.0 -0.1487590115 0.2527796827 0.2198233805 -0.3692982907 0.2200933177 -0.3692345486 -0.1543650868 0.2617456924
490297060.0 -0.1455703242 0.2543493921 0.2159051052 -0.3716817472 0.2160688466 -0.3721451921 -0.1513185404 0.2635702559
495297030.0 -0.1432893973 0.2556782194 0.2121894541 -0.3738624116 0.2121709823 -0.3743616643 -0.1485675355 0.2650630237
500297000.0 -0.1405237961 0.2577445403 0.2077250545 -0.3762857028 0.2080182215 -0.3764226812 -0.1459112529 0.2666255818
505296970.0 -0.1371763426 0.2594765372 0.2040277947 -0.3791448602 0.203773033 -0.3788297814 -0.1429406934 0.2684321149
510296940.0 -0.1343353668 0.2607587308 0.1996285984 -0.3812263994 0.1996914873 -0.3814994326 -0.1396446084 0.2703353208
515296910.0 -0.1320147693 0.2628327799 0.195167666 -0.3830965591 0.1952454224 -0.3827074565 -0.1372199373 0.2714090464
520296880.0 -0.12897265 0.2642415888 0.1913552966 -0.3850319813 0.190958821 -0.3850280211 -0.1340931929 0.273468576
525296850.0 -0.1260860464 0.2654259525 0.1866713697 -0.3869102651 0.1866795089 -0.3872251805 -0.1311707522 0.2748209156
530296820.0 -0.123489727 0.2670353141 0.182326254 -0.3890952095 0.1823264371 -0.3889062261 -0.1283046133 0.2762110331
535296790.0 -0.1199796982 0.2686778121 0.1780165813 -0.3910389636 0.1783007867 -0.3910264958 -0.1254171763 0.2780648414
540296760.0 -0.1171134363 0.2698794018 0.1739085502 -0.3930009817 0.1738454366 -0.3927655645 -0.1226555733 0.2794165898
545296730.0 -0.1144607614 0.2716609503 0.1697567906 -0.3946034786 0.1691746446 -0.3945064341 -0.1191853124 0.2809729137
550296700.0 -0.1111217712 0.2728538824 0.1652722932 -0.3967044392 0.1648934791 -0.396721758 -0.1165915365 0.2822733316
555296670.0 -0.1084952235 0.2741921338 0.1610083287 -0.3982558135 0.1607409169 -0.3981737874 -0.113675936 0.2834107393
560296640.0 -0.1052013015 0.2754151773 0.1561685376 -0.4003337713 0.1569135674 -0.400128195 -0.1110473087 0.2848305492
565296610.0 -0.1027754453 0.2769799238 0.1525134689 -0.4017286068 0.1522581548 -0.4012352481 -0.1072516906 0.2862927967
570296580.0 -0.0994282487 0.2782591247 0.1474137241 -0.4031902904 0.1476658703 -0.403262492 -0.1047135923 0.2871987374
575296550.0 -0.0960606597 0.2791818783 0.1434734017 -0.404761395 0.1431055988 -0.4048415616 -0.1013449272 0.2884986875
580296520.0 -0.0934108497 0.2807572051 0.1387978115 -0.4064013153 0.1388346969 -0.4064430167 -0.0987765099 0.2897460354
585296490.0 -0.0902088303 0.2817763894 0.1346080056 -0.4072276196 0.1341288737 -0.407715875 -0.0954300148 0.2912771595
590296460.0 -0.0868205876 0.2829688434 0.1300286934 -0.4088347718 0.1299779362 -0.4089936026 -0.0923009529 0.2921579909
595296430.0 -0.083730045 0.2839766914 0.1249736983 -0.4104150801 0.125056704 -0.4102623727 -0.0891736189 0.2931654345
600296400.0 -0.0810061126 0.2851064497 0.1206075195 -0.4112811686 0.1208027993 -0.4120534431 -0.0860567666 0.2941441163
605296370.0 -0.0777333793 0.2862893475 0.116612115 -0.4129301936 0.1164045905 -0.4131981995 -0.083261319 0.2953793652
610296340.0 -0.0742114445 0.2873923583 0.1119337675 -0.4138237753 0.1122724721 -0.4139852191 -0.0800574173 0.2962359751
615296310.0 -0.0713116128 0.2884067118 0.1073626843 -0.4153675714 0.1071284087 -0.4152976464 -0.0762713127 0.2975350638
620296280.0 -0.0684482604 0.2895647632 0.1027961845 -0.4162306053 0.1027127559 -0.4165137668 -0.074004805 0.2983566145
625296250.0 -0.0655289395 0.2905162771 0.0983968994 -0.4174334757 0.0983607753 -0.4174994879 -0.0708152445 0.2991890595
630296220.0 -0.0620482589 0.2916453093 0.0933611558 -0.4186385346 0.093636562 -0.4181921401 -0.0676449047 0.3001270503
635296190.0 -0.0592366801 0.2925797915 0.0895168215 -0.4192711623 0.0890009791 -0.4193949042 -0.0642622794 0.3007247743
640296160.0 -0.0559604737 0.293421044 0.0846291824 -0.420536958 0.0846624829 -0.4202623803 -0.0612570162 0.3017851219
645296130.0 -0.0528025281 0.2944061859 0.0801780416 -0.4210521991 0.0799326362 -0.4210169366 -0.0580944914 0.3024044666
650296100.0 -0.0497045239 0.2949094938 0.0752620508 -0.4220489252 0.0753097669 -0.422177806 -0.0542468656 0.303082206
655296070.0 -0.0465348761 0.2955549621 0.0708582973 -0.4224593125 0.07084491 -0.4222711161 -0.051977687 0.3040920933
660296040.0 -0.0435080535 0.2963495436 0.06655315 -0.4231616254 0.0663151105 -0.4234412662 -0.048149856 0.3044054382
665296010.0 -0.0403066435 0.2972454534 0.0612479303 -0.4236151988 0.0611141997 -0.4240290075 -0.044829312 0.3052170554
670295980.0 -0.0370925396 0.2982645577 0.0567597854 -0.4246263345 0.0569955652 -0.4245941115 -0.0423308672 0.3057503824
675295950.0 -0.0339448404 0.2986600995 0.052359029 -0.4249264321 0.0527875863 -0.4253718502 -0.0392688908 0.3066500584
680295920.0 -0.0311155552 0.2993446663 0.0480757143 -0.4252695816 0.0478685599 -0.4253115301 -0.0352268074 0.3068303612
685295890.0 -0.0277443155 0.3003740304 0.0431103468 -0.426354659 0.0428279165 -0.4262096526 -0.0322063708 0.3073811563
690295860.0 -0.0251087295 0.3006777558 0.038960967 -0.4263444961 0.0383320643 -0.4264515736 -0.0292042042 0.3077411357
695295830.0 -0.021698809 0.300997699 0.0341084676 -0.426930853 0.0338893662 -0.4268802532 -0.0258293535 0.3083356268
700295800.0 -0.0184920504 0.3016912684 0.0298992335 -0.427084401 0.0293349964 -0.4272124438 -0.0223849524 0.3088234998
705295770.0 -0.0156935572 0.302053968 0.0249298406 -0.4278203725 0.0245581412 -0.4278346857 -0.0194411764 0.3095600851
710295740.0 -0.0124444472 0.3023278183 0.0203713872 -0.4275015062 0.0198729574 -0.4279990888 -0.0160564336 0.3095777245
715295710.0 -0.0090313969 0.3031467259 0.0156347538 -0.4278356664 0.0153552796 -0.4278836116 -0.0130780359 0.3095452299
720295680.0 -0.0058738762 0.3032848497 0.010887162 -0.4279562808 0.0106540854 -0.4280272768 -0.009578945 0.310178172
725295650.0 -0.0033233779 0.3037750736 0.0069201876 -0.4278431211 0.006446703 -0.4282629468 -0.0066524794 0.3105132497
730295620.0 -0.0003199448 0.3040778849 0.0016905413 -0.4275962462 0.0017052724 -0.4276560796 -0.0033403684 0.3110524466
735295590.0 0.0029489366 0.3043088672 -0.0028011774 -0.4280780297 -0.0029597306 -0.4280890184 0.0001264591 0.3108768826
740295560.0 0.0057523691 0.3043859272 -0.0073699532 -0.4283546079 -0.0073460826 -0.4280663387 0.0032642561 0.3111697972
745295530.0 0.0090763571 0.3046822924 -0.0119499842 -0.4273053923 -0.0115161553 -0.42773924 0.0061936506 0.3110005953
750295500.0 0.0118597168 0.3049351473 -0.0159919768 -0.4274949225 -0.016595894 -0.4277146299 0.009613365 0.3112309468
755295470.0 0.0151735172 0.3049490101 -0.0209928212 -0.4275061052 -0.0212423103 -0.4277093985 0.0127230284 0.3115804173
760295440.0 0.0179725116 0.3051686401 -0.0260710471 -0.4269759735 -0.0261440428 -0.4267276015 0.0160355782 0.3110411099
765295410.0 0.0214579665 0.3048386766 -0.0301650772 -0.4262897261 -0.0304835388 -0.4270645404 0.0194983779 0.3112835518
770295380.0 0.0243275312 0.3053585266 -0.034609412 -0.4259925635 -0.035038339 -0.4266980131 0.0227421088 0.3107955205
775295350.0 0.0273937132 0.3052996567 -0.0395928706 -0.4258742616 -0.0394778851 -0.4258099353 0.0258138738 0.311008684
780295320.0 0.0306243262 0.3053471717 -0.043901242 -0.4250693096 -0.0440997478 -0.4253209784 0.0296510157 0.3109019128
785295290.0 0.0335695868 0.3046631713 -0.0485873527 -0.4248192891 -0.0485609514 -0.4249455288 0.0322110726 0.3113342772
790295260.0 0.0366515998 0.304600828 -0.0532782933 -0.4244464641 -0.0528580808 -0.4246679052 0.0354485881 0.310936145
795295230.0 0.0397570827 0.3041846905 -0.0577383668 -0.4236845454 -0.057741347 -0.4239157566 0.0387259446 0.3097301178
800295200.0 0.0424728995 0.3043038935 -0.0620230556 -0.4227202371 -0.0623105766 -0.4233140209 0.0417552708 0.3097989665
805295170.0 0.0456430116 0.3043837141 -0.0669307036 -0.42212462 -0.0667860624 -0.4228687959 0.0455806235 0.3095882656
810295140.0 0.0488838293 0.3037980858 -0.0712796504 -0.4212685971 -0.0715545267 -0.4215217288 0.0488380905 0.3091556981
815295110.0 0.0516075637 0.3035455895 -0.0756269574 -0.4205734543 -0.0756351446 -0.4211927654 0.0517085214 0.3090074266
820295080.0 0.0548281875 0.3029531682 -0.0801934185 -0.4197296107 -0.0802190977 -0.4201483848 0.0544748424 0.3089922961
825295050.0 0.0576004116 0.3024480966 -0.0847431902 -0.4188041374 -0.085195362 -0.4190039825 0.0585797625 0.308576486
830295020.0 0.0607854767 0.302353931 -0.0893354939 -0.4181128416 -0.0895235303 -0.4183059717 0.0613312969 0.3075430805
