!Created with skrf (http://scikit-rf.org).
# Hz S RI R 50.0 
!freq ReS11 ImS11 ReS21 ImS21 ReS12 ImS12 ReS22 ImS22
300000.0 -0.0942345755 -0.1048243824 0.6228121872 0.0956926151 0.6217845867 0.0967683303 -0.0965937328 -0.1070036946
5299970.0 -0.101503626 0.0114577475 0.6302652106 0.0107554878 0.6306774457 0.0114209282 -0.101471635 0.0113208997
10299940.0 -0.0968776495 0.0286459132 0.6346620533 0.0161446321 0.6340974816 0.0165037034 -0.0964417347 0.0284997669
15299910.0 -0.0890833305 0.0421127393 0.6406665209 0.0218000525 0.6408452604 0.0216032301 -0.0897721747 0.0419999609
20299880.0 -0.0802421466 0.0534714761 0.6489489188 0.024129331 0.6491910639 0.0242906696 -0.0808993925 0.0528722386
25299850.0 -0.0702732948 0.0624886939 0.6584386211 0.0260948479 0.6580412608 0.025389925 -0.0716909351 0.061955439
30299820.0 -0.0608637213 0.0687507152 0.6682292476 0.024239987 0.6678504235 0.0243885946 -0.0617858205 0.0683372747
35299790.0 -0.0504811359 0.0733675824 0.6768418483 0.0221576448 0.677464919 0.0220003322 -0.0523906735 0.0736537927
40299760.0 -0.0412351049 0.0762389244 0.6866259098 0.0176299251 0.6870733257 0.0177434061 -0.0424324178 0.0770460643
45299730.0 -0.031990484 0.0783599598 0.6963806627 0.0123813427 0.6962930097 0.0124371087 -0.0329750742 0.0793259189
50299700.0 -0.0230481429 0.079001313 0.7038259624 0.0051068929 0.7040497403 0.0051980476 -0.0244277635 0.080253142
55299670.0 -0.0151424761 0.0791144608 0.7114400856 -0.002316327 0.7110791525 -0.0025848001 -0.0170474007 0.0805792037
60299640.0 -0.0077130843 0.0786616016 0.7180025393 -0.010897918 0.7178108938 -0.0109641373 -0.0095176821 0.0796219229
65299610.0 -0.0013439831 0.0770328291 0.7242412278 -0.0196520838 0.7241674549 -0.0195793801 -0.0027253879 0.0784838899
70299580.0 0.0053656801 0.0752617781 0.7292273786 -0.0287213288 0.7290448798 -0.0290629848 0.0030131627 0.0773187365
75299550.0 0.0104009899 0.0734598366 0.7333518396 -0.0391924598 0.7336168661 -0.0386981181 0.0087812682 0.0752945084
80299520.0 0.0155881519 0.071640145 0.73764639 -0.0488729016 0.7373904809 -0.0489134999 0.0138749284 0.0732702352
85299490.0 0.0198602683 0.06917447 0.7407612517 -0.0586013501 0.7410261487 -0.0582520145 0.018132139 0.0709911256
90299460.0 0.0241338733 0.0668730809 0.7437474451 -0.0687922585 0.7432936171 -0.0683039773 0.0224477259 0.0691454303
95299430.0 0.0281494472 0.0641940426 0.7460565835 -0.0787611437 0.746326642 -0.0787426894 0.0260632323 0.0664891515
100299400.0 0.0313008766 0.0615631972 0.7481712344 -0.088659158 0.747866342 -0.0889566749 0.0292445238 0.0647381004
105299370.0 0.0345199135 0.0590743049 0.7494417709 -0.0986570863 0.7494338338 -0.0989695262 0.0327027642 0.0616782408
110299340.0 0.0373900928 0.0563764473 0.7501512095 -0.1084572021 0.7511073342 -0.1080505247 0.0349109993 0.0596025655
115299310.0 0.0396949184 0.0542913767 0.7516828416 -0.1189351102 0.7515368438 -0.1188625798 0.0376523863 0.0575947025
120299280.0 0.0414043081 0.0520316263 0.7520077499 -0.1297839225 0.7515400872 -0.128824097 0.0399289739 0.0545516234
125299250.0 0.0438292883 0.0498933862 0.7524086189 -0.1389531142 0.7525982379 -0.1383091922 0.0418899119 0.0529559694
130299220.0 0.0457450077 0.0469796015 0.7520866624 -0.1489013618 0.7518256364 -0.1492626311 0.0440679736 0.0506565961
135299190.0 0.0470144673 0.0454250715 0.7518642738 -0.1584717952 0.7521498325 -0.158896334 0.0454690688 0.0478967661
140299160.0 0.0487972522 0.0430652113 0.751725247 -0.1688106539 0.7513915787 -0.168282612 0.0463165225 0.0453230386
145299130.0 0.0494626705 0.0411863835 0.7501813451 -0.1780111262 0.7504744582 -0.1780122522 0.0480600459 0.0437687824
150299100.0 0.0510847651 0.0393158804 0.7494083834 -0.1882528822 0.7495604933 -0.1877545262 0.0491102883 0.0420600347
155299070.0 0.0524863474 0.0369951717 0.747648886 -0.1976801161 0.748554794 -0.1975720384 0.0505072236 0.0396555793
160299040.0 0.0532990566 0.0354326288 0.74678302 -0.207011183 0.746698193 -0.2071062716 0.0510190733 0.0382504651
165299010.0 0.0545242906 0.0333531571 0.745474335 -0.2163033071 0.7448583294 -0.216553153 0.0522588658 0.0359847399
170298980.0 0.0550853839 0.0317549452 0.7428374121 -0.2260672472 0.7433592936 -0.2261806222 0.0527353325 0.0341174655
175298950.0 0.0558475285 0.030182352 0.7421382251 -0.2352470077 0.7418992628 -0.2355234344 0.0535081008 0.0326607796
180298920.0 0.0562694622 0.0287051564 0.7398880416 -0.2444913456 0.7393728501 -0.2447224488 0.0541538463 0.0310409435
185298890.0 0.0568106817 0.0270944717 0.7376859753 -0.2535886899 0.7368192215 -0.2531380081 0.0550403268 0.029082111
190298860.0 0.0579040365 0.0255878171 0.7342387402 -0.2631810326 0.7349998121 -0.2629129556 0.0553136818 0.0274195769
195298830.0 0.0578652961 0.0243717229 0.7324255412 -0.2720890066 0.7328257593 -0.271365632 0.055534271 0.0258898809
200298800.0 0.0584225961 0.0223982182 0.7302597742 -0.2808343931 0.7299857462 -0.2808921696 0.0562673596 0.024234031
205298770.0 0.0582889447 0.0205827325 0.7269663049 -0.2895172013 0.7274226778 -0.2892035303 0.0569446445 0.0227219877
210298740.0 0.0588943028 0.0199178617 0.7241636635 -0.2984534 0.7239325352 -0.2982716557 0.0565072877 0.0209103051
215298710.0 0.0594330617 0.0184732681 0.7211263627 -0.3068296741 0.7208717537 -0.3069930586 0.0571514179 0.0200211107
220298680.0 0.0596102363 0.0175724239 0.7171771611 -0.315298616 0.7173698088 -0.3156459637 0.0573305404 0.0182523002
225298650.0 0.0597373861 0.016340151 0.7141885021 -0.3240765175 0.7143874721 -0.323848618 0.057444787 0.0163004952
230298620.0 0.0601983836 0.0151915978 0.7113738288 -0.333042301 0.7108996051 -0.3330466864 0.0573306205 0.0151079663
235298590.0 0.0598204441 0.0138452133 0.7075620328 -0.3419001679 0.7076885537 -0.3414663491 0.057865691 0.013954161
240298560.0 0.0602753069 0.0127872189 0.7045991062 -0.349296089 0.7036368642 -0.3493419658 0.0577306821 0.0127004594
245298530.0 0.0602495816 0.0113423057 0.7004864034 -0.3581733065 0.7002731505 -0.3584727138 0.0578417307 0.0116837654
250298500.0 0.0600894007 0.0101470827 0.6964839671 -0.3662296903 0.6962988102 -0.3658885439 0.0578576984 0.010549277
255298470.0 0.0605066389 0.0096423799 0.6930519244 -0.3737397413 0.6929699256 -0.3742985693 0.0578666437 0.0098962227
260298440.0 0.0606860441 0.0081856928 0.6890250829 -0.3815630815 0.6886383245 -0.3817902896 0.0576042078 0.0078019926
265298410.0 0.0598981272 0.00752142 0.6843302906 -0.3909062031 0.6843449868 -0.3909622187 0.0587691758 0.0066115335
270298380.0 0.0601436159 0.0063100703 0.6800410874 -0.3987936285 0.6806163248 -0.3979339014 0.0580895693 0.0057515688
275298350.0 0.0603636838 0.0055734537 0.6755261456 -0.4059214666 0.6759229816 -0.4060768639 0.0577242772 0.0050419808
280298320.0 0.059841729 0.0045242946 0.672247069 -0.413802492 0.6723146243 -0.4141156241 0.0585310468 0.003860492
285298290.0 0.059874087 0.003573664 0.6669254963 -0.4216980796 0.6678136712 -0.4215844084 0.058126612 0.0028235991
290298260.0 0.0599094172 0.002658901 0.6635969794 -0.4296009685 0.6634784855 -0.4299249498 0.0583424709 0.001887024
295298230.0 0.0598724154 0.0013554858 0.658472669 -0.4378226576 0.6583479534 -0.4376212923 0.0578336048 0.0002892791
300298200.0 0.0603343642 0.0007515582 0.6539866944 -0.4447842835 0.6540457261 -0.4452824067 0.05779065 -0.0005952461
305298170.0 0.0602633417 -0.0008878003 0.6492859946 -0.4528906744 0.6488343993 -0.4532516473 0.057934913 -0.0020132145
310298140.0 0.0603040896 -0.0016487594 0.644329409 -0.4603923864 0.6445580163 -0.4598909095 0.0579710361 -0.0034707978
315298110.0 0.0598249881 -0.0029986521 0.6394559205 -0.468670494 0.6389974224 -0.4685708438 0.0576013591 -0.0039422055
320298080.0 0.059673792 -0.0038911583 0.6335863557 -0.4755798664 0.6340617401 -0.4765224079 0.0572668535 -0.005560789
325298050.0 0.0586470877 -0.0052572988 0.6281937609 -0.4825707464 0.6287746334 -0.4831230403 0.0571809936 -0.0066875387
330298020.0 0.0574745533 -0.0058375988 0.6225030958 -0.4905249991 0.6238064513 -0.4908312851 0.0560636836 -0.0075741964
335297990.0 0.057581769 -0.0065942117 0.6178948771 -0.4973524291 0.616962071 -0.497538973 0.0555028323 -0.0088919718
340297960.0 0.0570058617 -0.0077815451 0.6110326755 -0.5049342123 0.6107889462 -0.504625261 0.0554184127 -0.0092789215
345297930.0 0.0562937803 -0.0085029178 0.6054188246 -0.511826613 0.6055300085 -0.5116210603 0.0550833594 -0.0104682828
350297900.0 0.0555638378 -0.0091714378 0.6002393306 -0.5176619736 0.6002896255 -0.5179023516 0.0546847737 -0.0114156177
355297870.0 0.0554336185 -0.0094870365 0.5947245646 -0.5242028421 0.5942803754 -0.524276665 0.0545235396 -0.0119644757
360297840.0 0.0552972485 -0.010360873 0.5881573714 -0.5316837278 0.5883027524 -0.5319441314 0.0535606574 -0.0121103211
365297810.0 0.0545455022 -0.0111192392 0.5823477885 -0.5377849416 0.582320161 -0.5384205814 0.0530653674 -0.0130698588
370297780.0 0.0546404647 -0.0112133652 0.5764853197 -0.5446293249 0.5763296415 -0.5441576823 0.0529341219 -0.0140729417
375297750.0 0.0545301838 -0.0123745097 0.5707738915 -0.5506278756 0.5703234671 -0.5512244118 0.0529857407 -0.0146878315
380297720.0 0.0535888525 -0.0126576995 0.5645023492 -0.5577602247 0.5644333977 -0.5575856596 0.0523084874 -0.0150382191
385297690.0 0.0530777054 -0.0137120191 0.5584200221 -0.5635010781 0.5584356067 -0.5641378239 0.0520629951 -0.0156263106
390297660.0 0.0528412971 -0.0141872213 0.5516603495 -0.5692812299 0.5526614099 -0.5698291367 0.0522449882 -0.0165604167
395297630.0 0.053121041 -0.0149795229 0.5461668834 -0.5754761603 0.5457023701 -0.57574745 0.0513775396 -0.017174473
400297600.0 0.0519610841 -0.0157150112 0.5396578039 -0.5815637951 0.5393695491 -0.5817184695 0.0515737404 -0.0175557745
405297570.0 0.0519780501 -0.0166871337 0.5333995863 -0.5878577892 0.5329959261 -0.5878102942 0.0509971727 -0.0180427965
410297540.0 0.0514910095 -0.0165641696 0.5266231499 -0.5938892606 0.5268664719 -0.5938574135 0.0504107748 -0.0187631182
415297510.0 0.0508559513 -0.0173550103 0.519329331 -0.5995315946 0.5203654882 -0.59976808 0.0506998042 -0.0191584656
420297480.0 0.0506018698 -0.0183908937 0.5131464538 -0.6054940199 0.5135144753 -0.6055915497 0.0502251477 -0.019586832
425297450.0 0.0507691375 -0.0187451973 0.5068260844 -0.6109162129 0.5066522258 -0.6108352517 0.0498390654 -0.0207274224
430297420.0 0.0500834399 -0.0193820759 0.5005038166 -0.6164835784 0.5002067362 -0.6163158007 0.0498347857 -0.021065701
435297390.0 0.049868188 -0.0200358763 0.4927807511 -0.6228363217 0.4933313586 -0.6227328457 0.0485933727 -0.0213070409
440297360.0 0.049763279 -0.0212057001 0.4863134661 -0.6279134284 0.4860127285 -0.6275804473 0.0489307575 -0.0219140812
445297330.0 0.0495118715 -0.0219655822 0.4798096265 -0.6326332481 0.4793239497 -0.6332361147 0.0484363238 -0.0220493305
450297300.0 0.0488079647 -0.0222747317 0.4724950996 -0.6377925288 0.4729375537 -0.6379287612 0.0480228699 -0.0226906769
455297270.0 0.0480778966 -0.022727067 0.465441164 -0.6435592467 0.4658999995 -0.6438466549 0.0476634154 -0.0233318322
460297240.0 0.0481975101 -0.0233700105 0.4591363808 -0.6497092111 0.4585881904 -0.6486792922 0.04737339 -0.0242694909
465297210.0 0.0478974208 -0.0240889807 0.4508107724 -0.6542356288 0.45091154 -0.6539687937 0.0474565821 -0.024093861
470297180.0 0.0471212996 -0.024817137 0.44395981 -0.6586296243 0.4443626798 -0.6588929117 0.0471068846 -0.025210788
475297150.0 0.0464677254 -0.0250180814 0.4371082774 -0.6639563769 0.4368464865 -0.663747425 0.046852712 -0.0257469675
480297120.0 0.0468815405 -0.0249057468 0.4294347499 -0.6679555913 0.4297656171 -0.6685998673 0.0459359646 -0.0262786522
485297090.0 0.0459889469 -0.0267636577 0.4218536055 -0.6734074274 0.4221164063 -0.6730414414 0.0455969391 -0.0263027377
490297060.0 0.046431613 -0.0267345061 0.4138052343 -0.6781633788 0.41465083 -0.6779942483 0.0453177164 -0.0274359551
495297030.0 0.0451541997 -0.0276718164 0.4077622148 -0.6827354881 0.4074736947 -0.6826858464 0.045391538 -0.0277261663
500297000.0 0.0446219221 -0.0278457377 0.4000516408 -0.6862817209 0.3999443111 -0.6871270883 0.0447245062 -0.0278505711
505296970.0 0.0448372729 -0.0282789295 0.3929391544 -0.6915702093 0.3925115554 -0.6908008369 0.0445035858 -0.0293392403
510296940.0 0.0443216296 -0.0290836952 0.3846896578 -0.6962792394 0.3848450221 -0.6961920414 0.0443319368 -0.0290565899
515296910.0 0.0436419642 -0.0291992298 0.3765757179 -0.6996916403 0.376665234 -0.699982123 0.0437522069 -0.0300738192
520296880.0 0.0433893075 -0.0295979096 0.3691896702 -0.7036095595 0.3691190325 -0.7034058348 0.0438127434 -0.0297519757
525296850.0 0.0431040338 -0.0302273927 0.3619383898 -0.7077895123 0.3611362446 -0.7078422932 0.0434240613 -0.030499328
530296820.0 0.0426311001 -0.0313229231 0.3539204466 -0.7123121725 0.3545328016 -0.7121677127 0.0430153463 -0.0315196763
535296790.0 0.042655741 -0.0311875908 0.3462673873 -0.7155723642 0.3459489469 -0.7155150987 0.042972833 -0.0312941817
540296760.0 0.0421255736 -0.0313999211 0.337790513 -0.7193759148 0.3381842436 -0.7194660552 0.0422958395 -0.0325911055
545296730.0 0.0409306869 -0.0318573318 0.3304927267 -0.7230367958 0.3301229523 -0.7226839724 0.0418530213 -0.0325632722
550296700.0 0.0413924259 -0.0320795141 0.3223481507 -0.7264676375 0.3218735478 -0.7270062006 0.0417697235 -0.0330450542
555296670.0 0.040821955 -0.0326750084 0.3142404625 -0.7306161947 0.3144280588 -0.7305680045 0.040843041 -0.0341519353
560296640.0 0.0410002889 -0.0332066863 0.3063939683 -0.7332370931 0.3068421013 -0.7335401655 0.0403869083 -0.0337247083
565296610.0 0.0397381432 -0.0337206488 0.2988933637 -0.7372307804 0.2987988989 -0.7366816062 0.0404362665 -0.0342842845
570296580.0 0.0393229148 -0.0337851653 0.2897492846 -0.7406944063 0.2906322284 -0.7404115721 0.0395436358 -0.0351302881
575296550.0 0.0391009926 -0.0344002755 0.2828951707 -0.7436950384 0.2821862138 -0.7431576623 0.0391932775 -0.0353134742
580296520.0 0.0388276433 -0.034384403 0.2743768877 -0.7465280866 0.2738283069 -0.7470208604 0.0382625873 -0.0356890446
585296490.0 0.0382513243 -0.0346985713 0.2661637831 -0.7490715895 0.26570591 -0.7492689596 0.0385333427 -0.0356923451
590296460.0 0.0385597573 -0.0348995105 0.2575997781 -0.7521637136 0.2579150972 -0.7524392076 0.0373736827 -0.0361826128
595296430.0 0.0376422109 -0.0353507356 0.2490823014 -0.7551219628 0.248913449 -0.7551841814 0.037345107 -0.0369138017
600296400.0 0.0376510938 -0.0355710071 0.2409102437 -0.7576120435 0.2409329963 -0.7577922138 0.0369873389 -0.0374957299
605296370.0 0.0361749114 -0.0358879926 0.2331234895 -0.7603231052 0.2323227626 -0.7605125463 0.036180069 -0.0373434922
610296340.0 0.036379718 -0.0357293115 0.2240381264 -0.7622687692 0.2250676934 -0.7620690996 0.0356548768 -0.0379658338
615296310.0 0.0361629328 -0.0362278297 0.2165580373 -0.7654615246 0.215765409 -0.7651837986 0.0356152142 -0.0378935898
620296280.0 0.0348518416 -0.0360174145 0.2072424485 -0.7679800092 0.207552375 -0.7675350081 0.0345599792 -0.0381651684
625296250.0 0.0346191999 -0.0365046536 0.1989129261 -0.7700576744 0.1991226571 -0.769922945 0.0338074247 -0.0388617458
630296220.0 0.0342455555 -0.0368136775 0.1900957957 -0.7720774126 0.1909491993 -0.7714551065 0.0334428277 -0.0387125945
635296190.0 0.033303244 -0.036701123 0.1826967815 -0.7738830942 0.1825791953 -0.7739339329 0.0331360839 -0.0392986864
640296160.0 0.0331411539 -0.0372243132 0.173725155 -0.7762695876 0.1737158745 -0.7758699965 0.0318315577 -0.0397696398
645296130.0 0.0331623272 -0.0366876748 0.1655298666 -0.7774695918 0.1660485931 -0.7774427124 0.0314854643 -0.0404976029
650296100.0 0.0320517457 -0.0374561709 0.1567925383 -0.7798488146 0.1569951439 -0.7798476037 0.0321058697 -0.0402728181
655296070.0 0.0315723033 -0.0374295465 0.1479466542 -0.7813493454 0.1481876312 -0.7809343502 0.0300637509 -0.0402414838
660296040.0 0.0312402517 -0.0376216224 0.1401928714 -0.7831363179 0.1402513721 -0.7831238383 0.0298755281 -0.0412385011
665296010.0 0.0307581934 -0.0380181557 0.1304344138 -0.7836896656 0.1314096521 -0.7840195323 0.0295207259 -0.0409575619
670295980.0 0.0304972639 -0.0379303128 0.1226705039 -0.7857152256 0.1230321053 -0.7848586098 0.028343694 -0.041707239
675295950.0 0.0294200788 -0.0380466015 0.1138533818 -0.7867231438 0.1143869837 -0.786292374 0.0277100632 -0.041370561
680295920.0 0.0289215574 -0.0379835475 0.1051005407 -0.787798218 0.1060696483 -0.7877548969 0.0275440105 -0.0422653054
685295890.0 0.0286650896 -0.0378106682 0.0966036623 -0.7892823611 0.0970063269 -0.7893120721 0.0270266992 -0.0415665153
690295860.0 0.027292834 -0.0380959611 0.088386577 -0.7901432039 0.0878651541 -0.7900709009 0.026401203 -0.0423424126
695295830.0 0.0272281061 -0.0386223585 0.0802016203 -0.7914830085 0.0800065516 -0.7909395662 0.0258646973 -0.0425007112
700295800.0 0.0267796013 -0.0381317759 0.0720198454 -0.7920722106 0.0712370268 -0.7916097956 0.0250252764 -0.0423425298
705295770.0 0.0258605355 -0.038282573 0.0627693244 -0.7931432184 0.0628168085 -0.7921359951 0.0245224263 -0.0423258531
710295740.0 0.0254895705 -0.0386891826 0.0542560158 -0.7935620917 0.0543042065 -0.7935708254 0.024010991 -0.0427025645
715295710.0 0.0246646444 -0.0381943702 0.0455403168 -0.7939916697 0.0455946483 -0.7935436327 0.023251157 -0.0428888497
720295680.0 0.0247583243 -0.0384434394 0.036872552 -0.7936165382 0.0368131992 -0.7942983622 0.0224466986 -0.0430837911
725295650.0 0.023301632 -0.0379897314 0.0283395302 -0.7945736186 0.0283105146 -0.7942587019 0.0215520997 -0.0424951308
730295620.0 0.0223597205 -0.0385887975 0.0194472129 -0.7936950236 0.0195114701 -0.7935587079 0.0209799713 -0.0421936518
735295590.0 0.0225589152 -0.0386556981 0.0105115777 -0.7948803546 0.0106438391 -0.7947016522 0.0200428861 -0.043050202
740295560.0 0.0217998024 -0.0388626502 0.0020559015 -0.7955993119 0.0022946264 -0.794904327 0.0192184233 -0.0425428848
745295530.0 0.0208110016 -0.0385331537 -0.0060889583 -0.7938868022 -0.005400135 -0.7945760718 0.0182290581 -0.042905126
750295500.0 0.0199553675 -0.0383064965 -0.0146626079 -0.7944663315 -0.0150285145 -0.794256576 0.0177736865 -0.0430293676
755295470.0 0.0193925812 -0.0383653676 -0.0229600066 -0.7942525908 -0.0231668766 -0.7945143973 0.0176870602 -0.0423706522
760295440.0 0.0187865049 -0.0380128513 -0.0327961592 -0.7942143569 -0.032135243 -0.7935394077 0.0168349901 -0.0439500349
765295410.0 0.0186346849 -0.0383726785 -0.0406780916 -0.7934961352 -0.040487947 -0.793661068 0.0162916719 -0.0427944312
770295380.0 0.0177657439 -0.0378587579 -0.048759409 -0.79235249 -0.0492587529 -0.793589119 0.0149161273 -0.0427800963
775295350.0 0.017242025 -0.0382881781 -0.0573555535 -0.792668587 -0.0574578261 -0.791940531 0.0151809764 -0.0427628064
780295320.0 0.0163687667 -0.0379319463 -0.0662785094 -0.7912064571 -0.0661867086 -0.7914165638 0.0144432824 -0.0429357399
785295290.0 0.0158498217 -0.0384270651 -0.0750235466 -0.7905797279 -0.0746227212 -0.790943503 0.0130304911 -0.0423957002
790295260.0 0.0154084025 -0.0385353808 -0.0832830757 -0.7902121748 -0.0832910613 -0.7905259017 0.012683935 -0.0417633316
795295230.0 0.0144512484 -0.038414807 -0.0921241856 -0.7894649268 -0.091845345 -0.7899166606 0.0122752528 -0.0433985751
800295200.0 0.0134527682 -0.0378509493 -0.0999034329 -0.7878442922 -0.1003604694 -0.7882025364 0.0112927422 -0.0421674462
805295170.0 0.0131040251 -0.0381531659 -0.1094962572 -0.7867574773 -0.1085065589 -0.7871252413 0.0112404843 -0.0422743916
810295140.0 0.0127246975 -0.0378720272 -0.1176867966 -0.7853642606 -0.1175037001 -0.7856179176 0.0103336386 -0.0420044897
815295110.0 0.0119838524 -0.0377235588 -0.1260023484 -0.7842595749 -0.1258439676 -0.7846231563 0.0095942576 -0.0423556123
820295080.0 0.011353685 -0.0379804215 -0.1340768635 -0.7821696327 -0.1339691234 -0.783532605 0.0077870586 -0.0411964586
825295050.0 0.010448951 -0.0376524 -0.1433590443 -0.7812533642 -0.1428551859 -0.7809932028 0.0087685187 -0.0411355604
830295020.0 0.0099251151 -0.0377887094 -0.1515122839 -0.7795114459 -0.1514380719 -0.7796460827 0.0074977542 -0.0417566923
