!Created with skrf (http://scikit-rf.org).
# Hz S RI R 50.0 
!freq ReS11 ImS11 ReS21 ImS21 ReS12 ImS12 ReS22 ImS22
300000.0 -0.7675709504 -0.1407692911 0.0004601035 0.0014226963 0.0013233355 0.0014231324 -0.0466105674 -0.0680302858
5299970.0 -0.7851639592 -0.0070520866 5.77924e-05 -7.85883e-05 0.0001124836 -9.00582e-05 -0.0481937668 0.0143279952
10299940.0 -0.7878940308 -0.0043460949 0.0002656722 1.93868e-05 8.6901e-06 0.0001600723 -0.0428014253 0.0316894037
15299910.0 -0.7931788064 -0.0013957524 -2.45156e-05 -5.9069e-05 -6.80997e-05 0.0001039203 -0.0343935002 0.0454414509
20299880.0 -0.7995105109 0.0023237008 -9.13154e-05 -3.81743e-05 0.0001087952 -9.52876e-05 -0.0246723394 0.0572781254
25299850.0 -0.8061758366 0.0082826198 -0.0002111741 0.0001100909 2.69086e-05 0.0001300141 -0.0142977892 0.0661814753
30299820.0 -0.8121540491 0.0164736602 -0.0001277277 -3.14492e-05 2.78516e-05 0.0001550626 -0.0029489995 0.0726608963
35299790.0 -0.8169853241 0.0249991224 -4.72084e-05 8.55666e-05 3.67095e-05 5.40455e-05 0.008153694 0.0771749998
40299760.0 -0.821203325 0.0344422745 7.23822e-05 -5.88881e-05 0.0001325926 2.517e-07 0.0195169414 0.0800583953
45299730.0 -0.8246535576 0.0441646519 7.84236e-05 0.0001719524 -5.47546e-05 3.82202e-05 0.0297348556 0.0813279645
50299700.0 -0.8267086102 0.0539712161 9.7131e-06 -0.0002586941 -0.0001421957 1.04199e-05 0.0397580008 0.0813541593
55299670.0 -0.8285223639 0.0642274599 7.83607e-05 0.0001515463 -8.18562e-05 0.0001930246 0.0483305552 0.0803131518
60299640.0 -0.8296951705 0.0742847291 -9.89196e-05 5.80959e-05 0.000190219 -5.85855e-05 0.0568385881 0.0783361583
65299610.0 -0.8308970546 0.0844959276 6.0209e-05 6.18442e-05 5.7709e-05 8.92967e-05 0.0642187658 0.0760844666
70299580.0 -0.8316582471 0.0946302511 8.94337e-05 5.83208e-05 -2.87993e-05 -6.1748e-06 0.0715061519 0.0729900118
75299550.0 -0.831365792 0.1043626448 -2.9486e-05 0.0001106096 -2.53263e-05 6.69411e-05 0.0773341921 0.0700396443
80299520.0 -0.8313457118 0.1144843913 0.0001395096 7.80255e-05 -9.00416e-05 -2.9736e-06 0.0827423227 0.0664705733
85299490.0 -0.8308901637 0.1239734483 -0.0002373569 8.58935e-05 9.80137e-05 4.74582e-05 0.0877757219 0.0625745602
90299460.0 -0.8297459788 0.133947924 -4.44631e-05 0.0002012774 4.21451e-05 9.37153e-05 0.09247218 0.0587471715
95299430.0 -0.8284531181 0.1438077044 5.94249e-05 4.77958e-05 -7.22874e-05 2.67029e-05 0.0963488996 0.0548674571
100299400.0 -0.8276245669 0.1529884836 0.0001371499 -4.46633e-05 0.0001203907 2.5482e-05 0.099663812 0.0508217332
105299370.0 -0.82635966 0.16216206 -0.0002289663 -0.0001739757 0.0001942021 -7.25796e-05 0.1033100542 0.0465804661
110299340.0 -0.8251652783 0.1710719163 -8.07523e-05 0.0002166905 0.0001338017 0.0001177729 0.1056066862 0.0431681099
115299310.0 -0.8235046959 0.1809015143 0.0001429049 -0.0003491274 -0.0001405991 0.0001008571 0.1082267338 0.0388835616
120299280.0 -0.8222498421 0.1894103499 -4.59642e-05 -9.11963e-05 -3.17049e-05 0.0001060302 0.1103035077 0.0349676819
125299250.0 -0.8201816918 0.1987132892 4.04056e-05 1.97018e-05 -0.000150765 -2.15324e-05 0.1122820885 0.0306714236
130299220.0 -0.8179368725 0.2075942024 0.0001260966 -2.13434e-05 -0.000199399 6.44542e-05 0.1135120842 0.0274810265
135299190.0 -0.8164575299 0.2168477312 -0.0001337776 2.95245e-05 0.0001165951 -0.0001316068 0.1149335889 0.0235004459
140299160.0 -0.8146000898 0.2260432031 4.70852e-05 -0.0001587174 7.24998e-05 -9.1071e-05 0.1164623953 0.019898148
145299130.0 -0.8122617385 0.2339149641 -4.71399e-05 8.16931e-05 -3.63514e-05 -0.0001404148 0.1171337247 0.0165646285
150299100.0 -0.8102125325 0.2433013532 0.0001651153 -0.0001041961 -2.97934e-05 2.63149e-05 0.1180602319 0.0128997816
155299070.0 -0.8075929471 0.2521823307 0.0001111527 -0.0001138901 0.0001066072 0.0001320202 0.1188572067 0.0097062864
160299040.0 -0.8050469158 0.2603851357 -4.3203e-05 0.0001620137 0.0001079199 0.0001483502 0.1194436208 0.00630866
165299010.0 -0.8022310419 0.2695119655 -7.98558e-05 5.74987e-05 -0.0001530185 -9.37085e-05 0.1199648947 0.0029105061
170298980.0 -0.7991211118 0.2780592613 0.0001763477 8.09879e-05 0.0002016753 0.0001068415 0.1204103628 -0.000172094
175298950.0 -0.7968099477 0.2872638017 5.46208e-05 0.0001939846 9.48033e-05 -1.679e-07 0.1201313602 -0.0034335011
180298920.0 -0.7937339552 0.2952484281 0.0001050793 -0.0001475277 1.7885e-05 3.58513e-05 0.120926724 -0.0060466481
185298890.0 -0.7905724726 0.3046365382 -4.34544e-05 4.86378e-05 -0.000229194 -3.71883e-05 0.1205569195 -0.0097477668
190298860.0 -0.7869783887 0.3123166655 1.33602e-05 7.30012e-05 8.66001e-05 1.08901e-05 0.1207909935 -0.0124537626
195298830.0 -0.7841440072 0.3209160634 3.67521e-05 4.90651e-05 9.92632e-05 8.89026e-05 0.1204645172 -0.0151070913
200298800.0 -0.7805567785 0.3295648176 0.0001651341 3.43977e-05 3.77377e-05 2.97948e-05 0.1206887733 -0.0183508678
205298770.0 -0.7774518341 0.337277387 5.53908e-05 0.0003396823 5.1492e-05 0.0001234599 0.1202031846 -0.0207999651
210298740.0 -0.7737939293 0.3460394371 0.0001901152 -4.59406e-05 0.0001411409 0.0001842513 0.1196982048 -0.0233085046
215298710.0 -0.7701226519 0.3542445923 -2.21032e-05 -8.56574e-05 4.91828e-05 0.0001087331 0.1191379335 -0.0257010673
220298680.0 -0.7675400023 0.3624121024 6.8134e-06 -0.0001577463 7.5623e-05 7.06816e-05 0.1189853483 -0.0283033891
225298650.0 -0.7629507397 0.3708080374 -2.08029e-05 0.0001925872 0.000112833 2.56836e-05 0.1181275676 -0.030527473
230298620.0 -0.7588741148 0.3786119289 7.19951e-05 0.0001217656 0.0001114166 -1.33357e-05 0.1179098849 -0.0333921441
235298590.0 -0.7547473503 0.3869856403 -1.19014e-05 3.73712e-05 9.80819e-05 0.0002834219 0.1171686258 -0.0353736739
240298560.0 -0.7509933127 0.3955118014 -5.3375e-06 0.00022539 9.1436e-06 2.24505e-05 0.1166110532 -0.0378330504
245298530.0 -0.7464627099 0.402958272 6.4023e-06 2.12356e-05 -1.78874e-05 6.52e-08 0.1159076219 -0.040271494
250298500.0 -0.7424125133 0.4104443504 0.0001454655 -8.37223e-05 5.49397e-05 1.33731e-05 0.1153326071 -0.0422923485
255298470.0 -0.7376308293 0.4187715655 0.0001185533 8.311e-07 -2.44353e-05 -3.87835e-05 0.1145657052 -0.0443680279
260298440.0 -0.7338694322 0.4262135115 -8.27493e-05 6.18459e-05 0.0002223006 -5.56492e-05 0.1137013761 -0.0464545524
265298410.0 -0.729208529 0.4342678226 -1.2799e-05 3.92468e-05 0.0001411115 -1.081e-06 0.1127604254 -0.0485845616
270298380.0 -0.7246190539 0.4414548434 0.000185904 -0.0001737267 -4.92354e-05 -3.58679e-05 0.1123649275 -0.0506620361
275298350.0 -0.7193101259 0.4493875964 -0.0001680718 0.0001422856 3.9972e-05 -6.32146e-05 0.1114444177 -0.052495132
280298320.0 -0.7150609796 0.4562760072 -2.32932e-05 1.1101e-05 4.75642e-05 0.0001676487 0.1107603599 -0.0545186624
285298290.0 -0.7102085761 0.4642691438 0.0001745544 0.0001778672 -1.69567e-05 0.0001187279 0.1096779768 -0.0561559545
290298260.0 -0.7058320519 0.4723804092 0.0002431107 -0.0001164318 8.44948e-05 -2.39971e-05 0.1087629688 -0.058121951
295298230.0 -0.7009751342 0.4787467618 -0.0003340424 5.04184e-05 9.77475e-05 5.2053e-05 0.1080067879 -0.0599396144
300298200.0 -0.6944606272 0.4868289554 0.0001600191 6.11332e-05 0.0001213897 -4.65486e-05 0.1066031784 -0.0617208888
305298170.0 -0.6901234485 0.4938320209 8.10312e-05 -4.2234e-05 8.72177e-05 9.85028e-05 0.1062328262 -0.0634736748
310298140.0 -0.6845830517 0.5012812879 0.0002225148 0.0001874786 9.59762e-05 0.0002392838 0.105174596 -0.0650813925
315298110.0 -0.6793355834 0.5084451775 -8.32023e-05 0.0002071909 0.000113795 -9.04567e-05 0.1040929017 -0.0673194484
320298080.0 -0.6740262391 0.5153105328 2.58962e-05 6.319e-05 3.88251e-05 6.53484e-05 0.1033736341 -0.068848214
325298050.0 -0.6684593201 0.5219723982 0.0002153073 4.25763e-05 2.914e-06 -0.0001613449 0.1018745257 -0.0707375828
330298020.0 -0.6625763321 0.5294100528 0.000134807 3.6067e-06 -0.000120757 7.63869e-05 0.1004143465 -0.0724522615
335297990.0 -0.6571058458 0.536451689 0.0001366121 -6.47937e-05 0.0001000908 0.0001443733 0.0988056359 -0.0738437924
340297960.0 -0.6520674826 0.5429099235 5.10175e-05 -0.0002063886 0.0001819216 7.28827e-05 0.0977445912 -0.0756589103
345297930.0 -0.6465027721 0.5490639704 0.0002075098 -5.7018e-05 -0.0001206338 -0.0001071275 0.0960066917 -0.0766548515
350297900.0 -0.6405801834 0.5563229665 -4.46526e-05 -0.0001254886 0.0001645343 -9.23424e-05 0.0950230899 -0.0779694774
355297870.0 -0.6339076733 0.5632037201 -0.0001629147 3.05564e-05 6.31279e-05 -0.0001105893 0.0934617678 -0.0791339582
360297840.0 -0.6289119323 0.5692081645 7.34017e-05 -8.0704e-06 0.0001295739 -5.53101e-05 0.0921266514 -0.0806394719
365297810.0 -0.6223240959 0.5755594543 -5.88019e-05 -3.27241e-05 9.89591e-05 6.81632e-05 0.0908129197 -0.0819504854
370297780.0 -0.6160975409 0.5815226862 0.0001065639 -6.68e-06 0.0001004723 4.75741e-05 0.0893508728 -0.0829895317
375297750.0 -0.6104481694 0.588418408 0.0001403568 0.000183584 8.2658e-06 0.0002936039 0.0883935457 -0.0841835674
380297720.0 -0.6037935757 0.5951548172 0.0001508082 -0.0001400014 7.25316e-05 0.0001080704 0.0866971845 -0.0853059539
385297690.0 -0.5976676613 0.6008152984 -3.46084e-05 0.0002301665 7.31141e-05 9.39983e-05 0.08526431 -0.0862156017
390297660.0 -0.5913668817 0.6072529868 0.0001711824 -0.0003730859 -5.21621e-05 -8.73446e-05 0.0836409976 -0.0877312616
395297630.0 -0.5854373551 0.6137353479 7.19215e-05 -1.40336e-05 4.31454e-05 0.0001318798 0.0823345171 -0.0888107895
400297600.0 -0.5789409124 0.6186055691 -8.96549e-05 3.56744e-05 6.20459e-05 5.90854e-05 0.0808492957 -0.0897245373
405297570.0 -0.5722315897 0.6254254429 0.0001633648 -0.0002244406 -8.7792e-06 0.0001939722 0.0793905443 -0.0906611603
410297540.0 -0.5654094075 0.630510382 8.53541e-05 -0.0002815443 0.0002072394 0.0001253492 0.0781390176 -0.091690966
415297510.0 -0.5594590236 0.6363511525 1.41192e-05 0.0001459183 6.04527e-05 5.21147e-05 0.0762279895 -0.0924032667
420297480.0 -0.5515437595 0.6422359867 5.02173e-05 -3.60162e-05 7.384e-07 -2.84186e-05 0.0746973327 -0.0937290477
425297450.0 -0.545670345 0.6478046801 -0.0002200936 6.37682e-05 2.09808e-05 -2.23064e-05 0.0738603219 -0.0945877032
430297420.0 -0.5391689523 0.6533227302 0.000135328 9.16827e-05 5.84952e-05 -3.04024e-05 0.0720464478 -0.0954591495
435297390.0 -0.532055052 0.6587956336 0.0002609025 -6.1761e-06 3.72478e-05 0.0001293795 0.0706933383 -0.0963591635
440297360.0 -0.5253646182 0.6642518347 -7.96403e-05 9.43371e-05 8.05924e-05 -7.91376e-05 0.0687246518 -0.0970962895
445297330.0 -0.5181233565 0.6695635145 0.0001496825 0.0001054046 3.35378e-05 6.29197e-05 0.0676327591 -0.0981765687
450297300.0 -0.5110879603 0.6746844125 0.0001510002 0.0002648914 0.0001968238 0.0002637227 0.0657503028 -0.0986291215
455297270.0 -0.5043255758 0.6804833683 3.02773e-05 -0.000309654 0.0001347687 0.0001373123 0.0641500028 -0.0998457766
460297240.0 -0.4971522336 0.6857536478 -1.34112e-05 -0.0001304321 0.0001002959 1.18768e-05 0.0629940557 -0.1002458648
465297210.0 -0.4902061539 0.6907887202 -4.85355e-05 -7.28902e-05 0.0001883203 -8.5334e-06 0.0611394777 -0.1012761082
470297180.0 -0.4827094611 0.6947622179 0.00027125 8.71881e-05 6.40488e-05 1.91533e-05 0.0591920346 -0.1016482896
475297150.0 -0.4758358326 0.7002350771 4.4018e-06 8.00511e-05 0.0002895601 9.57391e-05 0.0581070506 -0.1027154134
480297120.0 -0.4688491163 0.7046460224 0.0002904414 -4.5344e-05 0.000286413 0.0001521143 0.0560441286 -0.1030309725
485297090.0 -0.4614259657 0.7091625832 -0.0002124265 3.7006e-05 0.0002187279 4.43108e-05 0.0545075432 -0.103667708
490297060.0 -0.4543319276 0.714130168 9.43646e-05 0.0001536985 0.0002259553 -4.32737e-05 0.0527961634 -0.1043483147
495297030.0 -0.4470760497 0.7184181765 0.0004942199 3.47327e-05 0.0001888036 3.88424e-05 0.0514221109 -0.1055638535
500297000.0 -0.4384253741 0.7235135434 0.0001147399 0.000131451 -9.02458e-05 -6.68672e-05 0.0497125885 -0.1057902434
505296970.0 -0.4314810388 0.7272391587 -0.0001148501 0.0001646593 -2.13404e-05 -0.0002085019 0.0477787133 -0.1061602596
510296940.0 -0.4241132137 0.7318524089 2.5853e-05 -4.51896e-05 0.0001081955 1.488e-05 0.0464198506 -0.1065492206
515296910.0 -0.4166072861 0.7358866726 0.0001337429 -1.97922e-05 -6.03643e-05 0.0001047806 0.0448165695 -0.1071802783
520296880.0 -0.4084996558 0.740276158 -8.44757e-05 0.0001791364 -4.8435e-06 -2.88227e-05 0.0431663443 -0.1078928811
525296850.0 -0.4018577256 0.7452262189 0.0001900141 -7.4831e-06 0.000319659 -6.30735e-05 0.0416216078 -0.1084635969
530296820.0 -0.3940193445 0.7481914652 0.0002781969 8.0881e-06 0.0001368941 0.000121087 0.0394630671 -0.10901622
535296790.0 -0.3857932225 0.7523571073 0.0001574622 -8.24101e-05 0.0001465394 -1.47699e-05 0.0380294095 -0.1094436767
540296760.0 -0.3783790517 0.7561799628 0.0002242063 -0.0001098615 0.0001528242 0.0001035777 0.0363602285 -0.1097439022
545296730.0 -0.37122711 0.7596282713 -9.5004e-05 -7.9303e-06 0.0002969655 0.0001330875 0.034589867 -0.110047119
550296700.0 -0.3631681531 0.7638324639 0.0002067647 0.000179804 0.0002769363 8.19659e-05 0.033299991 -0.1105371061
555296670.0 -0.3546687587 0.7674053437 0.0001279182 6.90041e-05 8.58823e-05 4.36342e-05 0.0311522138 -0.1105510143
560296640.0 -0.3470053738 0.7709261037 -3.92977e-05 -0.0001405602 0.0001012366 9.12541e-05 0.0297716495 -0.1113577056
565296610.0 -0.33945905 0.7739227236 0.0002268138 0.0001259911 0.0001636498 0.0001326728 0.0276497348 -0.1111745645
570296580.0 -0.3313776633 0.7774296003 0.0001800677 -0.0001353705 0.0003138489 -1.48618e-05 0.0262430748 -0.1113791022
575296550.0 -0.3238056404 0.7807953064 0.0002125 2.39738e-05 0.0001548795 -6.40595e-05 0.024506398 -0.1120274473
580296520.0 -0.3155013291 0.7841648564 0.0002042001 0.0001277639 -3.55361e-05 -0.0001709558 0.0227467115 -0.1120440331
585296490.0 -0.3075512108 0.7868500262 9.97793e-05 -0.0001073451 -3.64278e-05 7.19638e-05 0.0210901073 -0.112865999
590296460.0 -0.2992527134 0.7899752562 5.80722e-05 8.9363e-06 0.0002795921 -6.68518e-05 0.0196080735 -0.1126205425
595296430.0 -0.2910744889 0.7938577785 4.2557e-06 -0.0001042311 7.46926e-05 -0.0001465167 0.0174526989 -0.1126041841
600296400.0 -0.2837955272 0.796100824 -8.53551e-05 3.07139e-05 -3.15454e-05 -7.77319e-05 0.0162391452 -0.1129085266
605296370.0 -0.2754570846 0.7986644452 0.000228234 0.0003374734 0.000110525 2.44738e-05 0.0145160434 -0.1126996367
610296340.0 -0.2673657346 0.8014974159 9.89518e-05 -0.0001358898 0.0001600423 -0.0001001864 0.0126099027 -0.1127873333
615296310.0 -0.2593007392 0.804354531 0.0001767125 -0.0003310688 0.0003047427 -4.45755e-05 0.0110854169 -0.113334066
620296280.0 -0.2503812268 0.8059549731 0.0001530723 4.6524e-06 0.0001983133 6.87e-07 0.0093659632 -0.1132241463
625296250.0 -0.2428241793 0.8091815899 6.4e-07 -0.0002350032 -6.48439e-05 -3.94186e-05 0.0075816075 -0.112821984
630296220.0 -0.2340781915 0.8118858551 4.53585e-05 6.007e-07 -6.9377e-06 8.81993e-05 0.0059487172 -0.1128245051
635296190.0 -0.2265785606 0.8137696005 0.0001327104 -0.0001823457 4.94014e-05 -0.0001149067 0.0043532123 -0.1130374281
640296160.0 -0.217323192 0.8150105617 0.0001636224 -1.58234e-05 9.70161e-05 0.0002311075 0.0026736383 -0.1131519895
645296130.0 -0.2097896947 0.8182383174 0.0001080002 5.76543e-05 0.0001267329 -6.35674e-05 0.0006373666 -0.1129400088
650296100.0 -0.2017778876 0.8208021832 -0.0001566855 5.17157e-05 -3.58261e-05 1.06323e-05 -0.0011619414 -0.1126879294
655296070.0 -0.1929153554 0.821951622 0.0002558536 8.71949e-05 8.973e-05 -3.1396e-06 -0.0025588222 -0.1125714603
660296040.0 -0.1852388842 0.8241556202 0.0003306971 -0.0001564532 0.0001962783 8.79393e-05 -0.0044877031 -0.1125223116
665296010.0 -0.1771888685 0.8261227245 0.0001076879 7.9367e-06 0.0001010619 6.91223e-05 -0.0060662452 -0.1123400594
670295980.0 -0.1676589692 0.8269552907 0.0001020163 4.63875e-05 0.0001516086 0.0001294865 -0.0078539418 -0.1119322169
675295950.0 -0.1600823614 0.8284179746 0.0001043962 -0.0001458507 0.0001461283 -5.38307e-05 -0.0093612965 -0.111901676
680295920.0 -0.1517005585 0.830712069 0.0001067406 4.14774e-05 0.0003718483 3.29799e-05 -0.0110736874 -0.1116706499
685295890.0 -0.1428835567 0.8318305827 1.71424e-05 -0.0002142746 8.18804e-05 -3.4816e-05 -0.0124047826 -0.111201553
690295860.0 -0.1343250133 0.8336796318 5.54881e-05 0.0001199699 0.000175654 0.0001001543 -0.014392459 -0.110977367
695295830.0 -0.1256330645 0.834550053 0.0002349638 -1.46776e-05 9.44494e-05 0.0001621413 -0.0161183581 -0.1107821107
700295800.0 -0.1177580558 0.8357941486 9.56441e-05 0.0001118112 0.0002486122 -1.05377e-05 -0.0177187448 -0.1105035191
705295770.0 -0.1090732935 0.8377175593 0.0001238992 -0.0001572935 0.0001662272 1.18824e-05 -0.0194410031 -0.1099092117
710295740.0 -0.1009904594 0.8381975542 8.10069e-05 5.04047e-05 0.0001183751 1.59239e-05 -0.0216178854 -0.1094046434
715295710.0 -0.0933327524 0.838780291 0.0001440227 0.0001355387 8.58643e-05 5.42724e-05 -0.0227763551 -0.109121856
720295680.0 -0.0842272425 0.8396162754 -1.89287e-05 -0.0001055817 8.65046e-05 0.0001489507 -0.0243432177 -0.1087424892
725295650.0 -0.0744120433 0.8406529722 0.0003460307 1.03257e-05 0.0001208507 -2.21022e-05 -0.026168447 -0.1084124125
730295620.0 -0.0673913808 0.8415724222 0.0001055906 0.000263219 1.2212e-06 -7.823e-07 -0.0273896701 -0.1080489863
735295590.0 -0.0578980953 0.8416878608 7.7448e-05 3.16779e-05 0.0001156023 6.38535e-05 -0.0290108626 -0.1074144408
740295560.0 -0.0496774034 0.842852344 0.0001642674 -0.0002558643 0.0001799392 2.32518e-05 -0.0307929454 -0.1067563193
745295530.0 -0.0414150446 0.8428418401 -7.74815e-05 -6.1356e-06 0.0002073251 -8.7453e-05 -0.0324877842 -0.1063332801
750295500.0 -0.033696717 0.8433517282 5.48475e-05 2.99855e-05 0.0001376733 -1.30903e-05 -0.03408663 -0.1064020338
755295470.0 -0.0244079153 0.8432998954 0.0002451428 -0.000135282 0.0002160695 -9.68664e-05 -0.0359803977 -0.1050026128
760295440.0 -0.0160069988 0.8438809661 4.1758e-06 -1.4419e-05 7.92845e-05 -5.48911e-05 -0.0374898104 -0.1047316666
765295410.0 -0.0076499218 0.8438243258 0.0001918393 -0.0002175972 0.0003182982 9.54742e-05 -0.0386681535 -0.1041865115
770295380.0 0.0009223839 0.8443619589 -6.0965e-06 0.0001317514 0.0001357108 -1.81012e-05 -0.0401735943 -0.103544484
775295350.0 0.0090556882 0.8441961961 0.0003512047 1.573e-07 -8.436e-06 -3.83995e-05 -0.0422520231 -0.1030688226
780295320.0 0.0180654861 0.8435394321 0.0002495447 -0.0001725756 0.0003308774 -5.93379e-05 -0.0435713929 -0.1020380826
785295290.0 0.0260992967 0.844233244 -1.09335e-05 -0.000110523 3.81017e-05 8.37336e-05 -0.0453403711 -0.1012639699
790295260.0 0.034599542 0.842875732 0.0002963803 -5.94956e-05 0.0003092915 -0.0001038665 -0.0464886511 -0.1009120855
795295230.0 0.0424771728 0.8429833498 0.0002324411 -6.727e-07 1.8849e-06 1.52852e-05 -0.0480582098 -0.1000791476
800295200.0 0.0516028409 0.8429514253 0.0001805589 -7.52593e-05 0.0002661116 -7.35856e-05 -0.0493577861 -0.09945496
805295170.0 0.0600022306 0.8423147029 0.000249295 -5.39017e-05 0.0001803314 -0.0001236363 -0.0512936991 -0.0983753872
810295140.0 0.0686585347 0.8409915774 5.45683e-05 6.1996e-06 6.96942e-05 -3.20969e-05 -0.0526163004 -0.0975842856
815295110.0 0.0772521786 0.8402526641 -7.1003e-06 0.0002002971 0.0004145124 -0.0001127304 -0.0543161092 -0.0970339029
820295080.0 0.0850959429 0.8386636981 0.0003989769 5.95686e-05 0.0002462339 3.35161e-05 -0.0556182538 -0.0960735165
825295050.0 0.0940710876 0.8386585171 2.58604e-05 -9.77137e-05 0.0001540882 -1.49036e-05 -0.0569828538 -0.0951752941
830295020.0 0.1022319692 0.8374905597 0.0002001834 -0.0001656076 0.0004140824 -1.42986e-05 -0.0584550634 -0.0942632521
835294990.0 0.1103005847 0.8371863585 0.0001171309 -0.0001511076 0.0001356947 -8.89154e-05 -0.0599431058 -0.0935377728
840294960.0 0.1187568261 0.8354395762 0.0001671682 9.36345e-05 0.0003199529 -0.0001848735 -0.0612707222 -0.0920972525
845294930.0 0.1267666455 0.8346956019 0.0002719891 -5.4626e-05 0.0002022106 -9.1642e-05 -0.0625301142 -0.0913286713
850294900.0 0.1348845492 0.8329250444 0.0003869978 7.18655e-05 0.0004035381 -0.0002833806 -0.0639988865 -0.0899418515
