!Created with skrf (http://scikit-rf.org).
# Hz S RI R 50.0 
!freq ReS11 ImS11 ReS21 ImS21 ReS12 ImS12 ReS22 ImS22
300000.0 -0.2416546784 -0.0803105512 0.4722090182 0.0552587026 0.4690832891 0.0532662923 -0.24123895 -0.0952153999
5299970.0 -0.2443796316 0.0074480283 0.4737673999 0.0047767907 0.4738588679 0.0051828135 -0.243890038 0.0073596644
10299940.0 -0.2410234264 0.0189224253 0.4755529879 0.0062677429 0.4755052487 0.006592487 -0.2407561866 0.020258989
15299910.0 -0.2364872609 0.028217235 0.4792850574 0.0073821084 0.4795962274 0.0076517193 -0.2360838222 0.0297838236
20299880.0 -0.2320016255 0.0354769211 0.4839098661 0.0086683975 0.483507082 0.0083370861 -0.2307070606 0.0374987234
25299850.0 -0.2269315134 0.0419963919 0.4890467143 0.0077405413 0.4890899878 0.0075134523 -0.2249631939 0.0438915267
30299820.0 -0.221530773 0.047289889 0.4948930423 0.0050153932 0.494551324 0.0055879144 -0.2190168075 0.0491575714
35299790.0 -0.2161146062 0.0514932691 0.4998551425 0.0020692673 0.5000233552 0.00193677 -0.2138199746 0.0536756501
40299760.0 -0.2113582341 0.0550858645 0.5050013401 -0.0017545361 0.5052539953 -0.0017564233 -0.2083240819 0.0562212734
45299730.0 -0.2065552933 0.0577488327 0.5092956347 -0.0062124223 0.5099287687 -0.0066518353 -0.2031646615 0.0588986872
50299700.0 -0.2022086436 0.0598654098 0.5142692889 -0.0119906601 0.5143502615 -0.0118333284 -0.1986215754 0.0604667176
55299670.0 -0.1982519631 0.061823423 0.5180095915 -0.0184377606 0.5177305911 -0.0176268588 -0.1944063516 0.0621271564
60299640.0 -0.1940346285 0.0636569874 0.5211088798 -0.0247769945 0.5212981687 -0.0240964601 -0.1904393646 0.0630608901
65299610.0 -0.1911627968 0.0647436056 0.5242067717 -0.0303490733 0.5242044503 -0.0307145164 -0.1873234022 0.0643426669
70299580.0 -0.1879433247 0.0661574449 0.5266524222 -0.0372515743 0.5265498387 -0.037138462 -0.1838051267 0.0650678294
75299550.0 -0.1849703374 0.0672440638 0.5281261077 -0.0439779429 0.5285946816 -0.0441686547 -0.180873685 0.0653844362
80299520.0 -0.1821838401 0.0680518715 0.5301926746 -0.0507356977 0.5308438019 -0.0508660336 -0.1785544641 0.0661346679
85299490.0 -0.1799120226 0.0688668403 0.531077613 -0.0576816925 0.531714388 -0.0574151623 -0.1761401691 0.0662334849
90299460.0 -0.1779373481 0.0696077821 0.5324693415 -0.0648963407 0.5328199818 -0.0648424302 -0.1737047648 0.0666523544
95299430.0 -0.1755221619 0.0705061986 0.5337494512 -0.0716056244 0.5335572892 -0.0717088888 -0.1716818777 0.0671226612
100299400.0 -0.1741088133 0.0716502723 0.5337986006 -0.0782744315 0.5338954396 -0.0785531587 -0.1694526329 0.0673736
105299370.0 -0.1718976733 0.0724106479 0.5343503977 -0.0856884869 0.534655291 -0.0855787068 -0.1676106899 0.0681118098
110299340.0 -0.1704277375 0.0734010142 0.5348012735 -0.0918388216 0.5342961039 -0.0920257657 -0.1665213973 0.0684930211
115299310.0 -0.1688365133 0.0742578433 0.5346775376 -0.0992908815 0.5344039525 -0.0990628911 -0.1645125302 0.0690674402
120299280.0 -0.167538506 0.0745244258 0.534045358 -0.1061139645 0.5344129275 -0.1059832162 -0.1634670083 0.069677729
125299250.0 -0.1658714009 0.075558385 0.5335536614 -0.1125006731 0.5340228003 -0.1122531292 -0.1626278872 0.0695723813
130299220.0 -0.1648721681 0.0768204972 0.5329226671 -0.1196536834 0.5331882256 -0.1194759143 -0.1610564259 0.0702491282
135299190.0 -0.163775882 0.0779040195 0.5328442391 -0.1258579434 0.5326331097 -0.1256162175 -0.1597092174 0.0710006582
140299160.0 -0.1626390703 0.0791343935 0.5319233311 -0.132930245 0.5319335348 -0.1329299288 -0.1588214719 0.0721697196
145299130.0 -0.1613705724 0.0800386517 0.5313046287 -0.1393142584 0.5305873544 -0.1393323033 -0.1579570629 0.0727418128
150299100.0 -0.1600340615 0.0813905582 0.5295449242 -0.145447248 0.529880241 -0.1454315262 -0.1568123737 0.0741032368
155299070.0 -0.1592578736 0.0819778963 0.5288741929 -0.1529850702 0.5284498929 -0.1521122665 -0.1559786012 0.0746323527
160299040.0 -0.1581144722 0.0836465714 0.5271406142 -0.1589371428 0.5269484911 -0.1587274385 -0.1555393348 0.0754608119
165299010.0 -0.1571777364 0.0848322997 0.525756899 -0.1657150163 0.5259596776 -0.1654921017 -0.1541128218 0.0767224757
170298980.0 -0.1564831682 0.0858493298 0.5242206517 -0.1717076329 0.5244682506 -0.1714485348 -0.1537313733 0.0776479163
175298950.0 -0.1555794539 0.0869604339 0.5229462489 -0.1780249578 0.5221991715 -0.178077468 -0.1529974738 0.0787008688
180298920.0 -0.1548365363 0.0884816688 0.5211825133 -0.1840589395 0.5208388286 -0.1839931845 -0.1522261211 0.079799515
185298890.0 -0.153178737 0.0895314885 0.5191891531 -0.1902612792 0.5190791815 -0.1903201261 -0.1510485151 0.0808339645
190298860.0 -0.1526212982 0.0912413406 0.5174633244 -0.1969358625 0.517459315 -0.1966144131 -0.1505461857 0.0818627565
195298830.0 -0.1518185886 0.0919500616 0.5149952876 -0.2028149625 0.5154033677 -0.2027893274 -0.1495239543 0.0830492122
200298800.0 -0.15052072 0.093544686 0.5126566907 -0.2085754021 0.5131233312 -0.2092642605 -0.1494422883 0.0843186493
205298770.0 -0.1497929057 0.0950467928 0.5108861046 -0.2149472614 0.5104669092 -0.2143113239 -0.1485357997 0.0846086056
210298740.0 -0.1489889506 0.096388021 0.5085371622 -0.2206102937 0.5086631023 -0.2206468328 -0.1474559851 0.0865815911
215298710.0 -0.1479687941 0.0976426092 0.506323849 -0.2268159656 0.5060744082 -0.2270063557 -0.1471672263 0.0877191464
220298680.0 -0.1469451505 0.0988413836 0.5033116356 -0.2325731491 0.503752189 -0.2323240947 -0.1464539732 0.0885893974
225298650.0 -0.1463003339 0.1004797955 0.5013281004 -0.2387353262 0.5013137981 -0.2386330152 -0.1458666888 0.0899087814
230298620.0 -0.1450303046 0.1022334017 0.4985497688 -0.2446257097 0.4989230207 -0.2441553531 -0.1452945621 0.09042865
235298590.0 -0.1440379576 0.1038001561 0.4960491633 -0.2502915789 0.4963551558 -0.2495974098 -0.1445285752 0.0920074144
240298560.0 -0.1430730497 0.1050500474 0.4936595535 -0.2559883872 0.4934610259 -0.2561444067 -0.1441549394 0.09390548
245298530.0 -0.1423228992 0.1064684383 0.4909676191 -0.2615992787 0.4908567774 -0.2616184833 -0.1428384937 0.0941241731
250298500.0 -0.1409557911 0.1083397796 0.4874492684 -0.2675727232 0.4870957976 -0.26644302 -0.1424948913 0.0955692161
255298470.0 -0.1400582948 0.1088749978 0.4844607444 -0.2726077307 0.4851921051 -0.2723914585 -0.1413225327 0.0966833455
260298440.0 -0.1391601138 0.1105436669 0.4819520332 -0.2781195997 0.4818303111 -0.2784646877 -0.1402253963 0.098092641
265298410.0 -0.1375286828 0.1126672031 0.478793137 -0.28425019 0.4791892878 -0.2834736245 -0.1397217408 0.0995581032
270298380.0 -0.1366151416 0.1138318005 0.4758929558 -0.28908727 0.476113591 -0.2890616686 -0.1390543266 0.1005073136
275298350.0 -0.1354151906 0.1152944301 0.4726717252 -0.2945824102 0.4730388403 -0.294591107 -0.1379692358 0.1017545407
280298320.0 -0.1337886925 0.1167973076 0.4698441302 -0.3000751725 0.4697659814 -0.2999828668 -0.1368146981 0.1028188902
285298290.0 -0.1329649665 0.1183593321 0.4665628746 -0.3051584502 0.4659746419 -0.3051089403 -0.1358251165 0.1043394324
290298260.0 -0.1315347728 0.1198803917 0.4626147681 -0.3105750295 0.4629213025 -0.3106735414 -0.13508266 0.105823834
295298230.0 -0.1301747841 0.1209953317 0.4596638896 -0.3157932313 0.4594778844 -0.3156634158 -0.1336118287 0.1064975932
300298200.0 -0.1291191595 0.1223968242 0.4564505725 -0.3206282965 0.4564501837 -0.3211276336 -0.1328613101 0.107884395
305298170.0 -0.1275130203 0.1233778445 0.4525146699 -0.3267693553 0.4524275078 -0.3265846766 -0.1314620847 0.1089989431
310298140.0 -0.1264428719 0.1252143588 0.449178058 -0.3314947017 0.449207173 -0.3317520788 -0.130616179 0.1106476653
315298110.0 -0.1254098936 0.1262415624 0.4456882654 -0.3368342587 0.4454137357 -0.3369338409 -0.129565267 0.111159739
320298080.0 -0.1237622614 0.1277333661 0.4413360933 -0.3424937525 0.4419203683 -0.3420855856 -0.1287415567 0.1128088002
325298050.0 -0.122410946 0.1286211461 0.4377302363 -0.346946153 0.4379135073 -0.3467666921 -0.1280209135 0.1138807518
330298020.0 -0.1213684156 0.1300949021 0.4334740549 -0.3520483661 0.4340186828 -0.3517132382 -0.1272114112 0.1152626754
335297990.0 -0.1198965506 0.1313047272 0.4295771278 -0.3564664166 0.4295977744 -0.3566162995 -0.1266018074 0.1170011973
340297960.0 -0.1192415454 0.1328426573 0.4259032903 -0.361230743 0.4253497084 -0.3617361502 -0.1247023237 0.1182183415
345297930.0 -0.1179631332 0.1348232345 0.4216255897 -0.3667008568 0.4215992462 -0.3663274864 -0.1240418307 0.1194745966
350297900.0 -0.1164532566 0.1355669948 0.4168522478 -0.3711852801 0.4173414693 -0.371095888 -0.1232797336 0.1212139776
355297870.0 -0.1151230034 0.1374164366 0.413122659 -0.3756822898 0.4133840364 -0.3747713799 -0.1223655454 0.1220668368
360297840.0 -0.1136384457 0.1387749871 0.4094376707 -0.379740025 0.4098375206 -0.3798300677 -0.1214009751 0.1236726835
365297810.0 -0.1123308169 0.1405146803 0.4047949847 -0.3847144579 0.4048363137 -0.3845537151 -0.1198461282 0.1248674632
370297780.0 -0.1107136454 0.1414920083 0.4004507258 -0.3887638208 0.4010054322 -0.3883426878 -0.1190850806 0.1262979027
375297750.0 -0.1092028457 0.1431496766 0.3963881611 -0.3932450266 0.3967450117 -0.3937124664 -0.117871201 0.1273617465
380297720.0 -0.1076469681 0.1440956958 0.392062536 -0.3977945702 0.3920988459 -0.3971747635 -0.1172724702 0.1287423911
385297690.0 -0.1063854617 0.1454859923 0.3876292485 -0.4016263974 0.3875776445 -0.4017940793 -0.1158555388 0.1298016812
390297660.0 -0.1048612641 0.1469181339 0.3833823236 -0.4062178288 0.3830093524 -0.4055638073 -0.1149032225 0.131608644
395297630.0 -0.1031490557 0.148426885 0.3789368652 -0.4105105617 0.3788050875 -0.4104921132 -0.1129065786 0.1323199772
400297600.0 -0.1015306454 0.1496352766 0.3740810827 -0.4149372093 0.3743291697 -0.4146053349 -0.1123063715 0.1337941196
405297570.0 -0.1004157131 0.1506395631 0.3695542964 -0.4181547713 0.3697919257 -0.4184910881 -0.1111699981 0.1349732816
410297540.0 -0.0982653654 0.1520723089 0.3651394719 -0.4226770549 0.3650834677 -0.4226971825 -0.109700157 0.1362372313
415297510.0 -0.0967381181 0.1531090303 0.3601103162 -0.426654969 0.3605664471 -0.4269655068 -0.10880439 0.1374878887
420297480.0 -0.0952564376 0.1545608459 0.3553045396 -0.430562562 0.3556223224 -0.43065912 -0.1074724023 0.1385763509
425297450.0 -0.0935524713 0.1553747421 0.3513020972 -0.4343591208 0.351298086 -0.4344342836 -0.1066441187 0.1398821429
430297420.0 -0.091883382 0.1564630602 0.3464050512 -0.4379988827 0.3458593259 -0.437777278 -0.1050086954 0.1407330023
435297390.0 -0.0904081417 0.1578321535 0.3409609096 -0.4417751737 0.3407459881 -0.4420619996 -0.1031508798 0.1422123687
440297360.0 -0.0882984103 0.1590198355 0.3363949942 -0.4453728624 0.3364187222 -0.4454009906 -0.1022219282 0.1429397134
445297330.0 -0.0868056133 0.1599068914 0.3316777068 -0.4493396809 0.331426889 -0.4489172247 -0.1006919791 0.1435241823
450297300.0 -0.0848476236 0.1611169972 0.3264800545 -0.4530535951 0.3267778072 -0.4528686359 -0.0995660283 0.1447274007
455297270.0 -0.0832496119 0.1620151326 0.3215301245 -0.4562211496 0.321582253 -0.4565030361 -0.0983449783 0.1459383757
460297240.0 -0.081515284 0.1633475564 0.316343103 -0.4597419708 0.3165146834 -0.4597968992 -0.0967149351 0.1470545873
465297210.0 -0.0794635922 0.1642476844 0.3115835454 -0.4632813262 0.311609107 -0.4638206833 -0.0949493088 0.147914862
470297180.0 -0.0777465519 0.1651253842 0.3061392984 -0.4669436546 0.3062441521 -0.4664629538 -0.0936731524 0.1493190185
475297150.0 -0.0761327673 0.1659484875 0.3013170423 -0.4695215621 0.3013219194 -0.4692522488 -0.0919737344 0.1498218204
480297120.0 -0.0741379399 0.1674771052 0.2959386188 -0.473032646 0.2959242497 -0.4734456143 -0.0902686143 0.1511681813
485297090.0 -0.0725528744 0.1681173026 0.2913205448 -0.4762528964 0.291260538 -0.4759377543 -0.0890144399 0.1524347008
490297060.0 -0.0709590965 0.1687855228 0.2858759736 -0.4795979704 0.2857706298 -0.4791631548 -0.0877888634 0.1532361601
495297030.0 -0.0687989102 0.1700904378 0.2800923239 -0.4826810797 0.2806714241 -0.4823559868 -0.0862476976 0.1542523218
500297000.0 -0.0667998684 0.1707322029 0.2747082213 -0.4851571869 0.2752926676 -0.4849509382 -0.0845798515 0.1558673099
505296970.0 -0.0649529632 0.1719055324 0.2699438439 -0.4887322681 0.2698975424 -0.4885812726 -0.0831633636 0.1564558642
510296940.0 -0.0630245356 0.1727411965 0.2643307971 -0.4912026215 0.2645097099 -0.4914958689 -0.081501655 0.1576011994
515296910.0 -0.0610845537 0.1735547536 0.2588486255 -0.4944993529 0.2589762211 -0.4939390387 -0.0800330476 0.1584639936
520296880.0 -0.0597220413 0.174245117 0.2539281681 -0.4971675717 0.253947564 -0.496923418 -0.078578737 0.1595491902
525296850.0 -0.0575808552 0.174653871 0.2479477472 -0.4993513371 0.2487656803 -0.4994224726 -0.0769855874 0.1606589481
530296820.0 -0.0554429939 0.1756277457 0.243023575 -0.5023517129 0.2426946549 -0.5022072774 -0.0756125202 0.1613114725
535296790.0 -0.0538552983 0.1765154096 0.2375278775 -0.5046772543 0.237792375 -0.5045214384 -0.0739103029 0.1620278214
540296760.0 -0.0518694135 0.1772446522 0.2317770616 -0.5076055578 0.2316635704 -0.5077455862 -0.0728147548 0.1635246793
545296730.0 -0.0496448497 0.1779903992 0.2260141893 -0.509831041 0.2261725048 -0.5097912256 -0.0709951678 0.1638425032
550296700.0 -0.0472345576 0.1787808051 0.2204636682 -0.51255299 0.220940829 -0.5126285224 -0.0698204308 0.1647239823
555296670.0 -0.0458314243 0.179342257 0.2158408234 -0.5146646089 0.2154822221 -0.51469826 -0.0680421574 0.1659210664
560296640.0 -0.0436012883 0.1803413782 0.2095373495 -0.5171683572 0.2098441415 -0.5169568406 -0.066626134 0.1669210276
565296610.0 -0.0418771349 0.1806392299 0.2037329626 -0.5191694046 0.20409669 -0.5190549787 -0.0649414447 0.1673340837
570296580.0 -0.0399459852 0.1814019054 0.1983905305 -0.5217205804 0.1980083398 -0.5212781046 -0.0634632174 0.1686333249
575296550.0 -0.0381538184 0.1822842303 0.1929190082 -0.5238121458 0.19258541 -0.523697817 -0.0619107908 0.1690259856
580296520.0 -0.0357174625 0.1824749217 0.1864936898 -0.525566003 0.1872506358 -0.5255511454 -0.0603168959 0.1694391163
585296490.0 -0.03403011 0.1826011293 0.1812783142 -0.5269126946 0.181711233 -0.5272728805 -0.0586688978 0.1700681728
590296460.0 -0.0318455406 0.1835910348 0.1753966816 -0.5288486474 0.1755236053 -0.5290709057 -0.0574386016 0.1708488254
595296430.0 -0.029683564 0.1840006461 0.1694228047 -0.5310204302 0.1698648939 -0.5309491128 -0.0553566554 0.1711189472
600296400.0 -0.0280443443 0.1844606115 0.1643164962 -0.5330449274 0.1639016964 -0.5329366383 -0.0538130658 0.1718132473
605296370.0 -0.0258515641 0.1848474844 0.1581303138 -0.5346462259 0.1584761209 -0.53465345 -0.0519193997 0.1727512108
610296340.0 -0.0239053484 0.1852169516 0.1521375202 -0.5359687202 0.1524352322 -0.5360408112 -0.0504275979 0.1732163662
615296310.0 -0.0214856019 0.1854963876 0.1462584664 -0.5373718966 0.1463433649 -0.5382330963 -0.0485007713 0.1738144246
620296280.0 -0.0196963837 0.185688603 0.1408849206 -0.539423465 0.1403261489 -0.5390180437 -0.0469476097 0.1744294425
625296250.0 -0.0177392287 0.1859676233 0.1351079058 -0.5412017607 0.1349936758 -0.5409063626 -0.0444933158 0.1750708129
630296220.0 -0.0149400995 0.1865822527 0.1284164649 -0.5422660192 0.1287132327 -0.5422358973 -0.0433566144 0.1756766192
635296190.0 -0.0137116764 0.1867000787 0.1232563853 -0.5434713774 0.1229628167 -0.5434994237 -0.0416623739 0.1763146949
640296160.0 -0.0116213608 0.1871512018 0.1173218591 -0.5443152084 0.1174796762 -0.5445787851 -0.0397815307 0.1770209033
645296130.0 -0.0094285229 0.1874743525 0.1111700256 -0.5456518535 0.1113525721 -0.546034666 -0.0382450454 0.1776264974
650296100.0 -0.0072476401 0.1876956494 0.1054167759 -0.5469290614 0.1055177958 -0.5472324633 -0.0357749406 0.177671553
655296070.0 -0.0054173916 0.1877362155 0.0994092117 -0.5482587866 0.0998821259 -0.5485867066 -0.0340587641 0.1782786719
660296040.0 -0.0034686955 0.1877196425 0.0937575986 -0.5489413179 0.093736741 -0.5493910256 -0.0322176884 0.1789181931
665296010.0 -0.0009795556 0.1880440995 0.0875501455 -0.5501019658 0.0874149182 -0.55007366 -0.0307378557 0.1797758763
670295980.0 0.0002533114 0.188368618 0.0819311722 -0.5509785304 0.0818208218 -0.55089459 -0.0292640267 0.1799628481
675295950.0 0.0028867832 0.1887877329 0.0757704251 -0.5515780548 0.0761672517 -0.5510438982 -0.0277197133 0.1804853695
680295920.0 0.0047612585 0.188372998 0.0696009411 -0.551995443 0.0693697786 -0.5531461714 -0.0256388148 0.1814534024
685295890.0 0.0069438491 0.1892204117 0.0639879351 -0.5531972033 0.0634386763 -0.5533113547 -0.0238651691 0.1816095457
690295860.0 0.0093010471 0.1887683351 0.0575660175 -0.5534964885 0.0574377944 -0.5543860165 -0.0223720883 0.1825663135
695295830.0 0.0112471747 0.18860392 0.0522145318 -0.5540826499 0.0514798139 -0.5543509903 -0.0203329557 0.1825189669
700295800.0 0.0132684552 0.1888596847 0.0456437837 -0.5548366222 0.0454625871 -0.5545878004 -0.018685455 0.1833552588
705295770.0 0.0151118645 0.1892313842 0.0398959532 -0.5553529581 0.0399282762 -0.5552886264 -0.0170780011 0.1834760091
710295740.0 0.0177392617 0.1888754909 0.0336188636 -0.5561591618 0.0338449432 -0.5564695303 -0.0151403033 0.1836784314
715295710.0 0.0188814234 0.1885582057 0.0281763776 -0.5558024303 0.0276310613 -0.5561335008 -0.0134924039 0.1839465567
720295680.0 0.0216694267 0.1886762986 0.021502074 -0.5562537047 0.0221044908 -0.5565139546 -0.0115816678 0.184642654
725295650.0 0.0236151772 0.1886728807 0.0155493838 -0.5563798793 0.016030368 -0.5566088456 -0.0105664523 0.1848955198
730295620.0 0.0258257501 0.1887535031 0.0096151026 -0.5562850956 0.0100732397 -0.556795239 -0.0088607509 0.1848271316
735295590.0 0.0279072368 0.1885777789 0.0039620473 -0.5567550734 0.0037707851 -0.5568207937 -0.006830595 0.1849386007
740295560.0 0.0295959722 0.1886316047 -0.0020426296 -0.5570833957 -0.0022774399 -0.5569101124 -0.0045056961 0.185750761
745295530.0 0.0317104054 0.188461401 -0.0080701813 -0.5563077331 -0.0084124603 -0.5562562699 -0.0027360062 0.1852097634
750295500.0 0.0338984195 0.1877476749 -0.0137304398 -0.5560821253 -0.0140025902 -0.556742993 -0.0014979383 0.1860671356
755295470.0 0.0359961408 0.1876028219 -0.0198715285 -0.5564307131 -0.019946438 -0.5564502447 0.0009421803 0.1851037773
760295440.0 0.0378966526 0.1874212656 -0.0265594725 -0.5558264602 -0.026321257 -0.5559969732 0.0025160063 0.1855139062
765295410.0 0.0401332361 0.1871743775 -0.0321286931 -0.5553479006 -0.0326469506 -0.5556450881 0.0044714998 0.1857511429
770295380.0 0.0417080554 0.1864855701 -0.0383215932 -0.5550893742 -0.0383769512 -0.5550574018 0.0059264027 0.1858552145
775295350.0 0.0438731285 0.1862053195 -0.044628192 -0.5542604101 -0.0439810173 -0.5542033583 0.0071783073 0.1858681936
780295320.0 0.0460860444 0.1859720526 -0.0500983067 -0.5539577897 -0.0495641566 -0.5539789393 0.0094387802 0.1857279423
785295290.0 0.0480101314 0.1853536996 -0.0565263904 -0.5531046284 -0.0559383306 -0.5534701202 0.0118128459 0.1858621242
790295260.0 0.0507098749 0.1854149495 -0.0618846774 -0.5525261921 -0.0611551119 -0.5521413695 0.0136592598 0.1860055871
795295230.0 0.0522224861 0.1844709737 -0.0679134728 -0.5518720158 -0.0674854009 -0.5520431721 0.0156432672 0.1859817815
800295200.0 0.0542090421 0.1843039358 -0.0742182991 -0.5511016035 -0.0738867366 -0.5511123294 0.017169088 0.1857150665
805295170.0 0.0564407654 0.1836269716 -0.0801447727 -0.5501455366 -0.0795284113 -0.5504413837 0.018961235 0.1860566002
810295140.0 0.0582763717 0.1830863489 -0.0853662017 -0.5492600654 -0.0855489009 -0.5496901369 0.0211619501 0.1859679851
815295110.0 0.0602856855 0.1823213553 -0.0918254645 -0.5481750072 -0.0912091325 -0.5483181569 0.0227756743 0.1860573765
820295080.0 0.0619639316 0.1823739195 -0.0975134644 -0.54690248 -0.0971890989 -0.5470258807 0.0246764917 0.1856678363
825295050.0 0.0644854621 0.1814485154 -0.1025723898 -0.5457611267 -0.1032222706 -0.5460626258 0.0267912095 0.1857323855
830295020.0 0.0663602229 0.1809764625 -0.1094864366 -0.5446149899 -0.1090946109 -0.5443466477 0.029002915 0.1855986795
