!Created with skrf (http://scikit-rf.org).
# Hz S RI R 50.0 
!freq ReS11 ImS11 ReS21 ImS21 ReS12 ImS12 ReS22 ImS22
300000.0 -0.3170748326 -0.1054582669 0.3707920389 0.0531494633 0.3739750003 0.0564127201 -0.3174344905 -0.1127359893
5299970.0 -0.3237731712 0.0044534178 0.3788092549 0.0028658544 0.378759897 0.0030997397 -0.326217212 0.0025332995
10299940.0 -0.3209846727 0.0153474119 0.3799605081 0.0021217753 0.3795869813 0.0021476521 -0.3241578311 0.0129843646
15299910.0 -0.3182852885 0.0234226896 0.3822243123 0.0021742575 0.3818784772 0.0026088177 -0.321263107 0.0198466714
20299880.0 -0.3144554077 0.0301455458 0.3851444898 0.0015855366 0.3851985127 0.0017654469 -0.318479561 0.02580767
25299850.0 -0.3105709377 0.0355832368 0.3884358776 -7.54722e-05 0.388400367 -6.315e-06 -0.3156667014 0.0310468076
30299820.0 -0.3068095421 0.0401501968 0.3921612128 -0.0019562958 0.3916692052 -0.0022186032 -0.3126818267 0.0355890858
35299790.0 -0.3030708535 0.0446929669 0.3950847016 -0.0056648498 0.3951691682 -0.0052902017 -0.3098115918 0.0394964603
40299760.0 -0.299601937 0.0481584225 0.3985494391 -0.0086653813 0.3982094219 -0.0090275365 -0.3070597503 0.0430140177
45299730.0 -0.2965821157 0.0515338879 0.4013011869 -0.0128360488 0.4015229375 -0.0127077901 -0.3049068663 0.0462063584
50299700.0 -0.2932637247 0.0541671389 0.4034235536 -0.017439012 0.403682351 -0.0174979714 -0.3018355455 0.0494054482
55299670.0 -0.2905866563 0.0567525647 0.4054851182 -0.0223430336 0.405831183 -0.0219555775 -0.3005903298 0.0516896491
60299640.0 -0.2882444648 0.0590837062 0.4076062265 -0.0270611891 0.4080236829 -0.0269115736 -0.2982117108 0.0547238312
65299610.0 -0.2859713863 0.0615152008 0.40918954 -0.0315223317 0.4096614435 -0.0318778016 -0.2961629131 0.057212692
70299580.0 -0.283896578 0.0636935688 0.4106387607 -0.0369930767 0.4106917267 -0.0368426108 -0.2944751117 0.0597984177
75299550.0 -0.2816315388 0.0658927038 0.4116350125 -0.0420015707 0.4114901123 -0.0422613035 -0.2929106002 0.0621870108
80299520.0 -0.2801621935 0.0678741924 0.4124887948 -0.04743392 0.4126455642 -0.0470594837 -0.291544789 0.0641350516
85299490.0 -0.2785296631 0.0694516351 0.4130393635 -0.0524183932 0.4132355849 -0.0526884819 -0.2905717887 0.0663733366
90299460.0 -0.2770520679 0.0721358272 0.4136616165 -0.0578549986 0.4135543974 -0.0584639326 -0.2887318048 0.0687858948
95299430.0 -0.2756811669 0.0742313028 0.4140561142 -0.0634206325 0.4138149323 -0.0630549865 -0.2872951462 0.0709435619
100299400.0 -0.2744205519 0.0763196957 0.4137174503 -0.0683896949 0.4137691425 -0.0680978736 -0.2866575383 0.073124375
105299370.0 -0.2728037879 0.0784448268 0.4132880471 -0.0732829022 0.41360885 -0.0738652266 -0.2851997033 0.0754574168
110299340.0 -0.2718929012 0.0804047619 0.4134488743 -0.0783772191 0.413504282 -0.0788407385 -0.2842649713 0.0779076731
115299310.0 -0.27067356 0.0825790192 0.4129053156 -0.083667664 0.4134147286 -0.0834506349 -0.2834117531 0.0800535984
120299280.0 -0.2697189994 0.0847323976 0.4130136625 -0.089019928 0.412752737 -0.0890251921 -0.2822491515 0.0827782438
125299250.0 -0.2688104148 0.0866614664 0.412430113 -0.0938852971 0.4124555128 -0.0939985288 -0.2813712105 0.0845747684
130299220.0 -0.2676435695 0.0891551805 0.4115515847 -0.0982986939 0.4114782095 -0.0991013089 -0.2804883447 0.0874187448
135299190.0 -0.2666348113 0.0909147769 0.4108838906 -0.103712654 0.4107162465 -0.1041433687 -0.2797239411 0.0898508557
140299160.0 -0.2658252582 0.0937863242 0.409883676 -0.109099182 0.4101828803 -0.109200164 -0.2785158006 0.0920873182
145299130.0 -0.2648565996 0.0959360557 0.4096099732 -0.1141398089 0.4090829502 -0.113814351 -0.2779396127 0.0946748213
150299100.0 -0.2638756356 0.0978800819 0.4078150342 -0.1187789363 0.4079057228 -0.1189704374 -0.2765859499 0.0968258866
155299070.0 -0.2627650938 0.1011220256 0.4070304015 -0.1244208526 0.4072057787 -0.1239694761 -0.276269733 0.0992930937
160299040.0 -0.2618627926 0.1030209245 0.4056776367 -0.1285192573 0.4061900942 -0.1288739877 -0.2754767083 0.1025884553
165299010.0 -0.2613024067 0.1053274337 0.4051930236 -0.1336147789 0.4045699052 -0.1337327484 -0.2743408649 0.1042772058
170298980.0 -0.2600748784 0.1079694135 0.4028522433 -0.138521567 0.4032949502 -0.1383334175 -0.2732873067 0.1071611744
175298950.0 -0.2590560829 0.1107647249 0.4024025694 -0.1432920096 0.4023036587 -0.1433144813 -0.2723299898 0.1099048212
180298920.0 -0.2579981502 0.1125699608 0.4006552479 -0.1479535041 0.4006727995 -0.1478737029 -0.2710697195 0.1124952041
185298890.0 -0.256742431 0.1153390891 0.3983745143 -0.1529100465 0.3991290484 -0.1526084983 -0.2704758464 0.1148351
190298860.0 -0.2558977106 0.1178556756 0.3972485016 -0.1574760202 0.3976028659 -0.1573126818 -0.2689235612 0.1174463738
195298830.0 -0.2545794542 0.1198707531 0.3959612732 -0.1618266768 0.3955640862 -0.1621394653 -0.268218173 0.1201821225
200298800.0 -0.2538755349 0.1228678032 0.3941648693 -0.1662588863 0.3939806566 -0.1663918661 -0.2667714328 0.1229806685
205298770.0 -0.2525956804 0.1251368654 0.3922832801 -0.170955113 0.3925895144 -0.1711427849 -0.2658491833 0.1251726743
210298740.0 -0.2516991401 0.1279178939 0.3907702655 -0.1757500225 0.3905527087 -0.1758555739 -0.264550171 0.1282568246
215298710.0 -0.2505855211 0.1302221135 0.3885046555 -0.1799930975 0.3885531365 -0.1800123128 -0.2637797394 0.1306563198
220298680.0 -0.2492888888 0.1326760849 0.3865379607 -0.1847274889 0.3866431677 -0.1847389801 -0.2623914261 0.1335931552
225298650.0 -0.2477434533 0.1354180549 0.3845075575 -0.1889085661 0.3841491112 -0.1887607182 -0.2610635811 0.1364299489
230298620.0 -0.2465967683 0.1383737227 0.382785324 -0.1936117293 0.382745566 -0.1937246218 -0.2597160258 0.1390636043
235298590.0 -0.2453278423 0.1407194745 0.3802621392 -0.1978501494 0.380586843 -0.1982406063 -0.2582922158 0.141161786
240298560.0 -0.2444792743 0.1434450725 0.3784291588 -0.2020019674 0.3785167502 -0.2022471672 -0.257272846 0.1444588438
245298530.0 -0.2428378593 0.1457101544 0.3755702069 -0.2068833164 0.3762085455 -0.2066236372 -0.2558896284 0.1471912318
250298500.0 -0.2417674551 0.1483442814 0.3737876498 -0.2105245503 0.3739607084 -0.2104107692 -0.2539547848 0.1498720156
255298470.0 -0.2398176997 0.1511271213 0.3711493307 -0.2152981582 0.3715347386 -0.2150138052 -0.2527968777 0.1522570728
260298440.0 -0.2385454695 0.1531004429 0.3691587627 -0.2187572666 0.3688398984 -0.219337669 -0.2510136349 0.1550420127
265298410.0 -0.2370200164 0.1562909832 0.3664135605 -0.2239714436 0.3664712475 -0.223604659 -0.2496419255 0.1573826861
270298380.0 -0.2356239608 0.1584004686 0.3637364156 -0.2274316557 0.3642732243 -0.2276592867 -0.2477237442 0.1602713914
275298350.0 -0.2343397653 0.1611312674 0.3617744389 -0.2317213428 0.361910125 -0.2320441533 -0.246299967 0.1631204907
280298320.0 -0.2323896066 0.1638797282 0.359032876 -0.2356564325 0.3589270544 -0.235871362 -0.2447004333 0.1657593916
285298290.0 -0.2310683616 0.1666090736 0.3565333612 -0.2397031064 0.3566257996 -0.2401972823 -0.243245878 0.1684235715
290298260.0 -0.2294278893 0.1690152905 0.354137 -0.2437311046 0.3540300356 -0.2440328399 -0.2412174381 0.1713781309
295298230.0 -0.2276566406 0.1714537461 0.3512439707 -0.2480807437 0.3508516971 -0.2479392339 -0.2394481451 0.1737182849
300298200.0 -0.2257494189 0.1736150135 0.3485665272 -0.2520227329 0.3484323166 -0.2517779175 -0.2377263393 0.1765187064
305298170.0 -0.2238673376 0.1763599798 0.3459033621 -0.2562158334 0.3460403067 -0.256072154 -0.235530576 0.1791978296
310298140.0 -0.2219327699 0.1784380937 0.3427861017 -0.2602333979 0.3429518051 -0.2604450997 -0.2338586044 0.1820565126
315298110.0 -0.220713982 0.1808937255 0.3402609989 -0.2638374586 0.3402557881 -0.2638365255 -0.2320550115 0.1841552052
320298080.0 -0.2186141596 0.183517165 0.3369501816 -0.2678981074 0.3370685007 -0.2678856621 -0.2305457232 0.1867334932
325298050.0 -0.2173155695 0.1854441969 0.3344423122 -0.2717523733 0.3340872384 -0.2719182985 -0.2282962401 0.189607002
330298020.0 -0.2150652947 0.188083193 0.3302518779 -0.2753394352 0.3308508035 -0.2751246666 -0.2267613094 0.1917420506
335297990.0 -0.213536068 0.1904761403 0.3278695335 -0.2791812171 0.3277670909 -0.2789154601 -0.2247964924 0.1943662459
340297960.0 -0.2119405767 0.1930347733 0.3243573087 -0.2827396242 0.3245170628 -0.2824829106 -0.2225175052 0.1971008766
345297930.0 -0.2100997216 0.1951681475 0.3213337311 -0.2860441449 0.3210629271 -0.285996311 -0.2205979009 0.1995881895
350297900.0 -0.2076025482 0.1974615225 0.3178699144 -0.2892260453 0.3183538191 -0.2897456953 -0.2186518242 0.2021279663
355297870.0 -0.2060741646 0.1997666831 0.3144943797 -0.2930576884 0.314730711 -0.2932610206 -0.2167147931 0.2046601523
360297840.0 -0.2039100711 0.2023271271 0.3114901144 -0.2967345244 0.3114930368 -0.2965973194 -0.2145359894 0.2074508584
365297810.0 -0.2016199682 0.2045622698 0.3077875513 -0.2998725536 0.3081401619 -0.2999243937 -0.2122636921 0.2100975435
370297780.0 -0.1995084513 0.2066204936 0.3046880974 -0.3032604699 0.305040875 -0.3040073537 -0.2105031836 0.2125041192
375297750.0 -0.1975448203 0.2094425598 0.3016061352 -0.3069863565 0.3012663846 -0.3070059693 -0.2081335889 0.2150740236
380297720.0 -0.1953433175 0.2111615587 0.2979153808 -0.3098580956 0.2979863952 -0.309875934 -0.205844113 0.2175952842
385297690.0 -0.1932164286 0.2138005295 0.294719132 -0.3129059094 0.2942712973 -0.3129606976 -0.2035845962 0.2199262936
390297660.0 -0.1909588081 0.2156866167 0.2909270766 -0.3166323634 0.2910017147 -0.3169199766 -0.2011021478 0.2219557727
395297630.0 -0.1887638906 0.2181513266 0.2875781905 -0.3195152286 0.2877136815 -0.3195209069 -0.1992133884 0.2242344699
400297600.0 -0.1865152125 0.2203250077 0.2840292427 -0.32273597 0.2841101612 -0.3231331062 -0.1973116501 0.2265604777
405297570.0 -0.1842512239 0.2225672445 0.2803064199 -0.3261915702 0.2804875991 -0.3261547675 -0.1946793043 0.2294574282
410297540.0 -0.1817741625 0.2244591557 0.2764053224 -0.3289682368 0.2763364006 -0.3291083789 -0.1921067067 0.2317508615
415297510.0 -0.1794437163 0.2266003097 0.2729410186 -0.3317784321 0.2732087363 -0.3318481598 -0.1899694545 0.2338625317
420297480.0 -0.1770432062 0.2284877035 0.2691298604 -0.3348710739 0.2693902574 -0.3350695014 -0.1875031061 0.2357321267
425297450.0 -0.1745043543 0.2306029342 0.2655008578 -0.3377868933 0.2657763585 -0.3378386628 -0.1850291952 0.2381331809
430297420.0 -0.1724250866 0.2326228642 0.2621339279 -0.3410179983 0.2618863534 -0.3407496079 -0.1827216704 0.2402944246
435297390.0 -0.1696381698 0.2348429101 0.2583440649 -0.3437885647 0.258276522 -0.3433921151 -0.1800550239 0.2427134865
440297360.0 -0.1673426395 0.2365847659 0.2540992494 -0.3463416048 0.2540436455 -0.3463535328 -0.1775680611 0.2444368787
445297330.0 -0.164987477 0.2384128438 0.250054353 -0.3492047924 0.2504981807 -0.3491625772 -0.1752893049 0.2466144526
450297300.0 -0.1623594217 0.2402255958 0.2464943123 -0.351783468 0.2466975525 -0.3515855263 -0.1729117874 0.2486749927
455297270.0 -0.1598417797 0.2420602464 0.2429220286 -0.3542988747 0.2431332313 -0.3543627097 -0.1700334379 0.2507418627
460297240.0 -0.1575005389 0.2441063731 0.2384998641 -0.3565944286 0.2385759717 -0.356989221 -0.1671818167 0.2530188139
465297210.0 -0.1545062696 0.245850713 0.2344135345 -0.3596248366 0.2348895357 -0.3598582373 -0.1649183333 0.2547579825
470297180.0 -0.1521924334 0.2475682411 0.231235417 -0.3621381132 0.2308855845 -0.3622189521 -0.1625818534 0.2566088081
475297150.0 -0.1497568389 0.2490663458 0.2267495557 -0.3643322352 0.2272026502 -0.3641797946 -0.1595535858 0.2585482939
480297120.0 -0.1469912716 0.2510308148 0.2227383415 -0.3668147451 0.2230264845 -0.366874335 -0.1569165476 0.2609060421
485297090.0 -0.1443319753 0.2525653492 0.2191380341 -0.369245669 0.2189341543 -0.3690510439 -0.1542766735 0.2621689842
490297060.0 -0.141744777 0.2543108577 0.2149288902 -0.3717342305 0.2147720187 -0.3715837919 -0.151666242 0.2640428211
495297030.0 -0.1391594505 0.256355377 0.2104913498 -0.3741168919 0.2103928642 -0.3739534354 -0.1488705945 0.2655961955
500297000.0 -0.1363340113 0.2577071526 0.2064756584 -0.3764448989 0.2064404961 -0.3761622963 -0.1463372854 0.2676873367
505296970.0 -0.1337927069 0.259015784 0.2021279808 -0.3776643074 0.2022858889 -0.3781854183 -0.1440298565 0.2695825686
510296940.0 -0.1311521799 0.2610151454 0.198346712 -0.3806128944 0.1985261278 -0.380516626 -0.1408431779 0.2710373124
515296910.0 -0.1282606431 0.2623186292 0.1936906725 -0.3825159116 0.194174842 -0.3825262549 -0.1379955483 0.2728707734
520296880.0 -0.1254711026 0.2636836386 0.1901376667 -0.3845065542 0.1900159536 -0.3847342561 -0.1351943847 0.27433577
525296850.0 -0.1229650182 0.2651235269 0.185713084 -0.3867294622 0.1857120658 -0.3865468975 -0.1323243818 0.2761405945
530296820.0 -0.1200271616 0.266796809 0.1815416716 -0.3883581008 0.1814190896 -0.3882938328 -0.1298376721 0.2772442844
535296790.0 -0.1169996151 0.2683009494 0.1770756571 -0.3904942578 0.1771483601 -0.3903032348 -0.1267723469 0.2788306749
540296760.0 -0.1143634104 0.2692526097 0.1730630146 -0.3925935153 0.1728978457 -0.3923437763 -0.1241534734 0.2807586574
545296730.0 -0.1114157312 0.2707314206 0.1683438119 -0.3939527412 0.1685760324 -0.3939534845 -0.1211069135 0.2818744547
550296700.0 -0.1087225193 0.272213595 0.1639025658 -0.395772208 0.1646798123 -0.3962046589 -0.1184211843 0.2837247704
555296670.0 -0.1054452849 0.2733427586 0.1599975244 -0.3973683039 0.1599263348 -0.3976038115 -0.1152663107 0.2849821456
560296640.0 -0.1026203328 0.2745326486 0.1554622649 -0.3993589095 0.1557875329 -0.3991554818 -0.1123368903 0.2862516245
565296610.0 -0.1000301082 0.2761537838 0.1512739671 -0.4010968075 0.1512522083 -0.4008240549 -0.1098270445 0.28763641
570296580.0 -0.0971398599 0.276919599 0.1468122032 -0.4021919225 0.147019551 -0.4023226959 -0.1065248877 0.2893738031
575296550.0 -0.0939622225 0.2784880118 0.1426202834 -0.4038984848 0.142789489 -0.4039004302 -0.1032824772 0.2902943566
580296520.0 -0.0911523942 0.2795078764 0.1381121423 -0.4055903863 0.1378971028 -0.4054471667 -0.100635121 0.2913539558
585296490.0 -0.0879575087 0.280041344 0.1337926626 -0.4064818049 0.1336791829 -0.4068939125 -0.0977149308 0.2922943032
590296460.0 -0.0852053922 0.2815390715 0.1289714131 -0.4081911362 0.1290832599 -0.4085013674 -0.0943390249 0.2939075784
595296430.0 -0.08248139 0.2827668966 0.1249893483 -0.409635837 0.1245382482 -0.4096894025 -0.0914352642 0.2946117417
600296400.0 -0.0792531604 0.2836432148 0.1204143475 -0.4107616501 0.1204850895 -0.41108104 -0.0885375005 0.2962596975
605296370.0 -0.0760590413 0.2847854869 0.1159087994 -0.4122575974 0.1161977829 -0.4121919265 -0.0853632612 0.2972844618
610296340.0 -0.073336694 0.2858754864 0.111836385 -0.4134046675 0.1119802207 -0.4138387843 -0.0825449544 0.298828727
615296310.0 -0.0702056455 0.2865374153 0.1068240978 -0.4144295064 0.1069011445 -0.4145574176 -0.0791418515 0.299514856
620296280.0 -0.0674302916 0.2873769374 0.102597851 -0.4158713714 0.1025296939 -0.415634916 -0.07673298 0.2999605002
625296250.0 -0.0641930484 0.288248882 0.0979153 -0.4168193257 0.0980266795 -0.4168500998 -0.0728990453 0.301371275
630296220.0 -0.0608791648 0.2892003183 0.0929944448 -0.4178795264 0.093661091 -0.4178015526 -0.0702220449 0.3019177065
635296190.0 -0.0582482633 0.2897475727 0.0888532838 -0.4182395355 0.0888289005 -0.4183176049 -0.0669546867 0.3028864522
640296160.0 -0.0551529769 0.2901769385 0.0844210527 -0.4193921553 0.0841419866 -0.4195505208 -0.0634564787 0.3035122384
645296130.0 -0.0519093753 0.2913028248 0.0795867598 -0.4203620455 0.079634712 -0.4205109075 -0.0611486882 0.304487034
650296100.0 -0.0489632935 0.2923652596 0.0755408021 -0.4211969151 0.0750919401 -0.4210969613 -0.0576443309 0.3054251835
655296070.0 -0.0459756876 0.2925773254 0.0706708048 -0.4216370442 0.0707527922 -0.4218503528 -0.0540259282 0.3062162929
660296040.0 -0.0430805915 0.2934488543 0.0663745648 -0.4224597342 0.0661431204 -0.4225926974 -0.0513430069 0.3066040856
665296010.0 -0.0396153922 0.2936111907 0.0617698609 -0.4232580697 0.0619790712 -0.4231619618 -0.0480560369 0.3076150247
670295980.0 -0.03617002 0.2945675493 0.0567922081 -0.4236381753 0.0573074164 -0.4238764878 -0.0454474403 0.3079536256
675295950.0 -0.0333614721 0.2948832276 0.0522497028 -0.4241931532 0.0526360806 -0.4249106507 -0.0418224526 0.3092228371
680295920.0 -0.0298214638 0.2958456257 0.0475997536 -0.4246532065 0.0476079043 -0.4251968637 -0.0385413139 0.3090705159
685295890.0 -0.0271275446 0.2958395299 0.0434448823 -0.4255398979 0.0430887097 -0.4254236796 -0.035545897 0.3097424023
690295860.0 -0.0237477226 0.2965034655 0.0383671537 -0.4251505567 0.0380867752 -0.425672192 -0.0318695736 0.3105255423
695295830.0 -0.0205927437 0.2964701061 0.0333288849 -0.4256876129 0.0337584599 -0.4260654591 -0.029137932 0.3109270749
700295800.0 -0.0176011853 0.2971193916 0.0289795805 -0.4263652268 0.0290771352 -0.4267593814 -0.0256176161 0.3113519387
705295770.0 -0.0143117418 0.2976846208 0.0245090826 -0.4267469199 0.0246055717 -0.4267024744 -0.0225843048 0.3120688352
710295740.0 -0.0111330007 0.2979821324 0.019840217 -0.4266166652 0.0200307476 -0.4268527222 -0.0197654672 0.3123667685
715295710.0 -0.0083729229 0.2982326014 0.0152178459 -0.427012889 0.0155913902 -0.4268051715 -0.0164190791 0.312017747
720295680.0 -0.0054729 0.2984322354 0.0108421994 -0.4268166092 0.0106879339 -0.4273080011 -0.0128511325 0.3126223448
725295650.0 -0.0015183498 0.2986360632 0.0055997266 -0.4271626102 0.0061410188 -0.4270552949 -0.0096573677 0.3132926994
730295620.0 0.0011372984 0.2984142316 0.0013311176 -0.4269327785 0.0014107586 -0.4274297777 -0.0062503528 0.3131268587
735295590.0 0.004811508 0.2987144281 -0.003152617 -0.4270064458 -0.0027290199 -0.4270752788 -0.0031429663 0.3133607797
740295560.0 0.0074020579 0.2990376677 -0.0077944395 -0.4266208197 -0.0078029451 -0.426724668 0.0003065676 0.3133585543
745295530.0 0.0107665489 0.2986737893 -0.0125116723 -0.426805924 -0.0123411355 -0.4269759029 0.003657796 0.3135484727
750295500.0 0.0138927243 0.2988912408 -0.0168444915 -0.4263377189 -0.0172059608 -0.4265192781 0.0069592527 0.3135405521
755295470.0 0.0174657359 0.2991801986 -0.0217486599 -0.4261969053 -0.0214479904 -0.4267706122 0.0098424729 0.3140293059
760295440.0 0.020494024 0.2990100718 -0.0264219363 -0.4261433571 -0.0264144715 -0.4260260583 0.0128103056 0.3138701151
765295410.0 0.0234464442 0.2984458501 -0.0304198117 -0.4253111309 -0.0308731156 -0.4259558593 0.016864313 0.3140170044
770295380.0 0.026748477 0.298976955 -0.0354301776 -0.4250009712 -0.0355326278 -0.425616111 0.0200294434 0.3138659056
775295350.0 0.0299225589 0.2986172283 -0.0402240468 -0.4242727256 -0.0397284127 -0.4247173491 0.0226486475 0.3132019133
780295320.0 0.0332271251 0.2984349133 -0.0446458146 -0.4241881488 -0.0443208537 -0.4246437422 0.0260732861 0.3136625527
785295290.0 0.0362826808 0.2985025394 -0.0490585141 -0.4234909471 -0.0489159186 -0.4239305555 0.0290132934 0.3135347373
790295260.0 0.0393942934 0.2980216335 -0.0537088956 -0.423282981 -0.0535399252 -0.4234692822 0.032653186 0.3132462344
795295230.0 0.0426111539 0.2980230447 -0.0582656427 -0.4223407412 -0.057893197 -0.4225031363 0.0361322011 0.3134825852
800295200.0 0.0457394602 0.2975152158 -0.0629196266 -0.4221838068 -0.0629845874 -0.4219806862 0.039098485 0.3130429943
805295170.0 0.0487911546 0.2973134533 -0.06746232 -0.4208246291 -0.067270773 -0.4209260917 0.0420882836 0.3122592214
810295140.0 0.0519792295 0.2969293451 -0.0718979698 -0.4203075843 -0.0716299726 -0.420699743 0.0459432208 0.3125744722
815295110.0 0.0551206965 0.2966269473 -0.0762619941 -0.4193553522 -0.0763608731 -0.4195333432 0.0485800351 0.3120442323
820295080.0 0.0582925138 0.2958731652 -0.0806849125 -0.4187188027 -0.0807447322 -0.4188465529 0.051766445 0.3117372294
825295050.0 0.0613806443 0.2953062174 -0.0856578658 -0.417240296 -0.0852769992 -0.4175447306 0.0552321629 0.3112108976
830295020.0 0.0645032303 0.2949065214 -0.0902676357 -0.4163253291 -0.0900045204 -0.416996929 0.0581997442 0.310769257
