!Created with skrf (http://scikit-rf.org).
# Hz S RI R 50.0 
!freq ReS11 ImS11 ReS21 ImS21 ReS12 ImS12 ReS22 ImS22
300000.0 0.8595840104 -0.0024602362 0.0002433341 -0.0007530595 -0.0004863963 0.0011031264 -0.7790217292 -0.1259688972
5299970.0 0.8591254375 -0.0106404595 1.6244e-05 -6.27057e-05 -3.24971e-05 -0.0001051248 -0.7842948849 -0.0071097094
10299940.0 0.8577785355 -0.018961288 1.7855e-06 0.0002200177 2.56772e-05 -9.52469e-05 -0.7876111093 -0.003310609
15299910.0 0.857143818 -0.0276612733 -4.59861e-05 0.0001530886 0.0001502268 -3.07693e-05 -0.7929925974 -0.0011849738
20299880.0 0.8568238023 -0.0357228261 -0.0002159109 0.0001656445 0.0001845334 0.0001227875 -0.7998743583 0.0023257997
25299850.0 0.8554905639 -0.0442648763 0.0003241068 -5.78783e-05 -0.0001271243 1.90181e-05 -0.8062921684 0.0083194033
30299820.0 0.8547358843 -0.0521863671 -0.0001928334 0.0001118188 8.57228e-05 -7.52493e-05 -0.8120865682 0.0161736123
35299790.0 0.8538430367 -0.0606682821 2.09532e-05 0.0001736684 0.000116048 -3.88303e-05 -0.8176110606 0.0251944302
40299760.0 0.8528321027 -0.0699106307 -4.90394e-05 3.88835e-05 4.6667e-06 9.12101e-05 -0.8214458089 0.034609434
45299730.0 0.8531476292 -0.0776652713 -6.02014e-05 -0.0001282348 2.92267e-05 -4.61208e-05 -0.8255714211 0.0438612908
50299700.0 0.8522066067 -0.0851254797 7.88705e-05 -1.00236e-05 4.6725e-05 -4.44521e-05 -0.8272525211 0.0539470486
55299670.0 0.851099144 -0.0940693728 2.55107e-05 2.7499e-06 0.0001106849 9.7552e-06 -0.8298265376 0.0649055632
60299640.0 0.8497821542 -0.101798399 0.0002160309 0.0001196656 -1.97404e-05 -0.0002461059 -0.8305495894 0.0743694922
65299610.0 0.8482599327 -0.1103561945 -3.56396e-05 -0.000167543 7.91565e-05 -0.0001082921 -0.8321879335 0.0841035863
70299580.0 0.8476054491 -0.1186021348 -7.0186e-05 -0.0001275593 -8.3386e-06 -0.0001400226 -0.8322937575 0.0942662559
75299550.0 0.8461724447 -0.127118822 -9.87311e-05 -0.0001141379 0.0001305318 -0.0001200008 -0.8325169443 0.1039605804
80299520.0 0.8442484041 -0.1349939669 -6.90518e-05 -1.03628e-05 -8.17189e-05 -6.99238e-05 -0.8322726498 0.1142120956
85299490.0 0.8430604658 -0.1434296902 -0.0001463611 6.63114e-05 -0.0001355454 -0.0002645743 -0.8319208379 0.1234838303
90299460.0 0.841525376 -0.1512423833 -2.31831e-05 -0.0001901673 2.27273e-05 6.77559e-05 -0.8309108079 0.1335484172
95299430.0 0.8402967739 -0.1602604065 -0.0001045016 -0.0001653195 3.13277e-05 -6.81271e-05 -0.8297258569 0.143216012
100299400.0 0.8384889349 -0.1677996471 6.53281e-05 6.01828e-05 7.03809e-05 -6.52274e-05 -0.82883136 0.1523361475
105299370.0 0.8372077357 -0.1759206313 7.1179e-05 -5.69424e-05 -0.0001588991 0.0002441359 -0.8271993583 0.1612057628
110299340.0 0.8352362255 -0.184821674 -2.08794e-05 -0.0001403665 -9.31225e-05 -0.0001128529 -0.8259278379 0.170837482
115299310.0 0.8333613404 -0.1924232464 -7.71129e-05 -0.0001097723 0.0001108165 -0.0001036891 -0.8239148359 0.1802190294
120299280.0 0.8316086809 -0.2002874847 5.97816e-05 -8.51471e-05 -6.60769e-05 0.0001719462 -0.8224279964 0.1889707007
125299250.0 0.8296311754 -0.2084219798 -6.2978e-05 -2.9296e-06 6.68366e-05 9.68458e-05 -0.8211614476 0.1978092238
130299220.0 0.8276912711 -0.21663779 5.22667e-05 7.6869e-05 -2.61048e-05 -6.22462e-05 -0.818874208 0.2071562993
135299190.0 0.8247757139 -0.2247729634 2.03213e-05 -9.04358e-05 3.28026e-05 -0.0001203448 -0.8167566292 0.215810206
140299160.0 0.8230046145 -0.2326112664 -3.8411e-05 8.84282e-05 5.13624e-05 0.0001657944 -0.8146678981 0.2251766559
145299130.0 0.8200724717 -0.2406936668 -6.90609e-05 -1.9738e-05 -0.0001449833 -0.0001568149 -0.8121225643 0.2340311271
150299100.0 0.8180681304 -0.2485236573 -4.82058e-05 -0.000110144 9.4279e-06 6.68724e-05 -0.8106577942 0.2429063321
155299070.0 0.8154691611 -0.2565661986 0.0001492844 0.0001682404 -2.2547e-05 3.1595e-05 -0.8070422551 0.2518388211
160299040.0 0.8127202622 -0.2651404715 -0.0001738821 0.0002096648 -0.0001650574 -1.9144e-05 -0.8048766242 0.260674125
165299010.0 0.8101850723 -0.272795275 1.39441e-05 9.71829e-05 -1.27165e-05 -0.0001267241 -0.8027196327 0.2693538626
170298980.0 0.8075348836 -0.2802160859 -1.41754e-05 0.000182681 -3.39929e-05 0.0001368143 -0.799198633 0.2783661696
175298950.0 0.8040498741 -0.2888934091 -8.94211e-05 0.0003120584 8.8805e-06 -5.14208e-05 -0.7965159047 0.2869985408
180298920.0 0.8021568108 -0.2959249054 -5.39381e-05 3.98782e-05 -8.63494e-05 -0.0001412405 -0.7934271934 0.295542083
185298890.0 0.7985819885 -0.3043761478 4.4941e-05 8.1381e-06 -0.0001806678 0.0002202644 -0.7903398186 0.303547127
190298860.0 0.7958747139 -0.3121097187 -0.0001388803 2.6183e-06 -0.0002020985 -1.87962e-05 -0.7879005652 0.3125568931
195298830.0 0.7924403637 -0.3198782559 5.51973e-05 0.0002039516 6.7202e-05 4.77318e-05 -0.7842950461 0.3212668487
200298800.0 0.7892834733 -0.327335342 2.82705e-05 0.0001993592 -2.92372e-05 -9.09607e-05 -0.7816361234 0.3292570075
205298770.0 0.7855327049 -0.3348981598 4.48278e-05 -0.000114294 -7.78258e-05 -0.0002482308 -0.7779642873 0.337911125
210298740.0 0.782608487 -0.3427384768 0.0001029802 -0.000131961 -5.3422e-06 -2.82194e-05 -0.7747500542 0.3460746181
215298710.0 0.7788250346 -0.350718049 -1.2736e-05 -4.0705e-05 -1.50925e-05 -0.0001492974 -0.7713245038 0.3541606642
220298680.0 0.7757976661 -0.3579672642 -0.0002128048 2.29855e-05 0.0001072727 6.81061e-05 -0.7672922529 0.362143238
225298650.0 0.7720146107 -0.3662874231 1.40883e-05 -0.0001300362 -8.59314e-05 -0.0002236748 -0.7641348483 0.3708596185
230298620.0 0.7679715723 -0.3730631351 2.22364e-05 7.10436e-05 0.0001281504 0.0001568055 -0.7595898913 0.3791012369
235298590.0 0.764683826 -0.3800786606 -0.0001021421 -8.91936e-05 3.123e-07 0.000207117 -0.7556923304 0.3868880372
240298560.0 0.7609267762 -0.3878573204 -4.58107e-05 -0.0001192206 8.34758e-05 1.75027e-05 -0.7517558191 0.3955762367
245298530.0 0.7565061678 -0.3953808283 8.63751e-05 3.07779e-05 -6.76654e-05 -0.000236513 -0.7479460615 0.4022411516
250298500.0 0.7528604289 -0.4021457267 5.05732e-05 -3.29679e-05 -7.19375e-05 -3.90438e-05 -0.743839313 0.4108213524
255298470.0 0.7486193989 -0.4105854796 0.0001015668 -0.0001570238 -0.0001024531 4.64952e-05 -0.7386129906 0.4177633665
260298440.0 0.7451001545 -0.4175069973 0.0001871293 -3.52883e-05 3.0927e-06 4.6573e-05 -0.7351014049 0.426829796
265298410.0 0.7406921341 -0.4244638747 6.77798e-05 7.86314e-05 -9.15314e-05 -0.0001009717 -0.7298487405 0.4336781659
270298380.0 0.7366514844 -0.4319404726 -4.88078e-05 -4.3487e-05 3.93279e-05 -4.82539e-05 -0.725606762 0.441314155
275298350.0 0.7322534052 -0.4392270094 0.0001092087 3.43539e-05 -9.81527e-05 -0.0001160249 -0.7206906246 0.4487960245
280298320.0 0.7279395522 -0.4465560355 -0.0001281533 -2.50037e-05 -0.0001975939 -2.81095e-05 -0.7159605064 0.4563893073
285298290.0 0.7245334835 -0.4533240705 -4.14849e-05 6.59673e-05 6.0048e-06 6.33937e-05 -0.7110655657 0.4640828887
290298260.0 0.7194813213 -0.4606648585 6.33125e-05 0.0001276768 -6.74047e-05 -5.01307e-05 -0.7063558921 0.4709361057
295298230.0 0.7149609229 -0.4676113954 0.0001528707 -6.89967e-05 1.0145e-06 -5.66094e-05 -0.7008154394 0.4780040957
300298200.0 0.7110318974 -0.4753752564 -2.44826e-05 5.10309e-05 6.62607e-05 -0.0001778569 -0.6961284114 0.4853053528
305298170.0 0.7063467895 -0.4817400294 8.32967e-05 -8.49995e-05 2.448e-06 -2.02751e-05 -0.6904037415 0.4930703981
310298140.0 0.7019861625 -0.4891814778 6.1528e-05 5.18977e-05 0.0001919585 -2.61277e-05 -0.6857290561 0.4998805261
315298110.0 0.6975610732 -0.4962482759 0.0001775113 0.0002703309 0.0001574943 1.83996e-05 -0.6799825584 0.5068418938
320298080.0 0.6926372961 -0.5039433138 0.0001731946 -3.68969e-05 3.86169e-05 -9.18831e-05 -0.6745243604 0.5146053591
325298050.0 0.686802378 -0.5112188493 -0.0001072542 4.58792e-05 0.0001221142 9.35303e-05 -0.669426892 0.5214479768
330298020.0 0.6818646797 -0.5187317413 7.40665e-05 9.55865e-05 0.0001230538 8.0876e-06 -0.6637747496 0.5289492369
335297990.0 0.6747747186 -0.525219198 -0.0002264758 3.39646e-05 -7.28824e-05 2.0646e-06 -0.6584422893 0.5350990292
340297960.0 0.6696350536 -0.5317469748 8.80467e-05 0.0002378704 -0.0001497801 0.0002281983 -0.6520185629 0.542386682
345297930.0 0.6635467683 -0.5386988749 0.0001165029 -8.12569e-05 -0.0001960802 0.0001021594 -0.6467132438 0.5487870901
350297900.0 0.6579219438 -0.5443883838 0.0001495379 -4.33641e-05 -3.80477e-05 -0.0001976125 -0.6416749564 0.5554533079
355297870.0 0.652312752 -0.5502254399 0.0001438445 -5.75756e-05 0.0001781824 0.0002079056 -0.6358393352 0.5623503018
360297840.0 0.646193056 -0.5564985588 0.0001280789 -2.11018e-05 6.3435e-06 6.05136e-05 -0.6297726057 0.5694141943
365297810.0 0.6406411813 -0.5627715597 8.45686e-05 0.0001485413 -3.30015e-05 7.6091e-05 -0.6226726712 0.575187032
370297780.0 0.6354395448 -0.5688146471 7.09839e-05 -3.8863e-06 -6.93529e-05 0.0001363042 -0.6173048016 0.5824090404
375297750.0 0.6290723026 -0.5745698434 -8.29112e-05 -7.83483e-05 -0.0002185911 6.16061e-05 -0.611723431 0.5879919223
380297720.0 0.6239431645 -0.5811636655 7.37054e-05 -4.89365e-05 -2.70393e-05 -0.0001105088 -0.6059244692 0.5944996871
385297690.0 0.6177569143 -0.5872179595 -7.91999e-05 7.982e-05 1.50847e-05 0.0001269738 -0.5990124996 0.6014502213
390297660.0 0.6121956685 -0.5927124954 1.84482e-05 -8.52113e-05 8.66698e-05 -9.72393e-05 -0.5934970779 0.6070086531
395297630.0 0.6059907922 -0.5984533009 6.28742e-05 6.97079e-05 2.15566e-05 -2.26603e-05 -0.5868453767 0.6134676937
400297600.0 0.6002256886 -0.6044295609 1.91027e-05 -0.000100542 -7.32968e-05 -1.10178e-05 -0.5807680453 0.6192888396
405297570.0 0.5941453864 -0.6101480524 -3.30593e-05 0.000110666 7.52625e-05 -0.0001163962 -0.5743987596 0.6249339792
410297540.0 0.587817055 -0.6158624071 0.000234982 0.0002102783 8.58307e-05 5.04011e-05 -0.5670352465 0.6306105316
415297510.0 0.582277687 -0.6217086923 -3.9241e-05 -0.0001332915 7.52311e-05 -1.19958e-05 -0.561048331 0.6368148211
420297480.0 0.575640686 -0.6269412723 -0.0001162089 3.28145e-05 5.41833e-05 0.0001135474 -0.554259052 0.6429816402
425297450.0 0.5691707119 -0.6330453358 7.40733e-05 7.18013e-05 -0.0001601206 4.31435e-05 -0.5478561247 0.6482681433
430297420.0 0.5627612361 -0.6380357022 0.0001561883 -0.0002156685 -0.0001613965 -5.96482e-05 -0.5410293527 0.6528661764
435297390.0 0.5565798628 -0.6437962757 -0.000157593 -6.29123e-05 8.14103e-05 -0.000270205 -0.5337867109 0.658556304
440297360.0 0.5505566663 -0.649551518 0.0002648418 2.01068e-05 -0.0001250336 2.64819e-05 -0.5270458263 0.6635333607
445297330.0 0.5438305164 -0.6544254502 0.0002353113 -6.16218e-05 4.8124e-06 6.6131e-06 -0.5204934445 0.6687694609
450297300.0 0.5373713192 -0.6593201918 -3.42311e-05 -9.97765e-05 -5.98596e-05 -5.48465e-05 -0.5131619951 0.6739403515
455297270.0 0.5306071612 -0.6647811786 -9.93893e-05 -7.61265e-05 -0.000206407 -2.11901e-05 -0.5064731152 0.6785856456
460297240.0 0.524631351 -0.6704194957 -1.32995e-05 -8.4758e-05 7.14891e-05 -2.057e-06 -0.4996218086 0.6843813065
465297210.0 0.5174501958 -0.6750130294 -2.74276e-05 0.0001541874 -6.53073e-05 -1.69845e-05 -0.4920277981 0.6890121166
470297180.0 0.5107124432 -0.6795923743 -2.15437e-05 2.15353e-05 2.87486e-05 -3.19932e-05 -0.4847288778 0.6944843032
475297150.0 0.5036181795 -0.6852642164 -0.0001947872 -0.0001391673 0.0001715671 -0.0002006917 -0.4774211358 0.6985406699
480297120.0 0.4964086503 -0.6891931359 -6.31072e-05 -0.0001206751 -8.48948e-05 8.37743e-05 -0.4697889697 0.7035730714
485297090.0 0.4897866234 -0.6945003448 -3.84265e-05 -7.46377e-05 -7.89431e-05 0.0001162992 -0.4631850516 0.7085778362
490297060.0 0.4827574398 -0.6994011656 -0.0001410557 4.16071e-05 7.17924e-05 -9.64824e-05 -0.4558447386 0.7127371298
495297030.0 0.4760085895 -0.7032969817 1.11963e-05 -0.0002551582 0.0002090029 -1.50767e-05 -0.4483454279 0.7179834816
500297000.0 0.4685876008 -0.7082193924 -2.60157e-05 -1.55962e-05 -1.97853e-05 -4.08548e-05 -0.4408379398 0.7230180582
505296970.0 0.4625517143 -0.7131666785 -9.04329e-05 9.182e-07 -9.12415e-05 -0.0001207716 -0.4335249756 0.7274702895
510296940.0 0.4550541295 -0.7175266989 1.98812e-05 8.83909e-05 7.95882e-05 -5.10523e-05 -0.4259425438 0.7308947836
515296910.0 0.4481708609 -0.7215669386 0.00011011 0.0001015652 4.70055e-05 6.08996e-05 -0.4184537889 0.7349866075
520296880.0 0.4402337255 -0.7263881924 -2.19389e-05 -9.27324e-05 7.87938e-05 0.0001787479 -0.4108047452 0.7393963998
525296850.0 0.4331971689 -0.7303457771 -0.0001434666 -1.42798e-05 -1.19509e-05 0.0001249468 -0.4036047381 0.7439475753
530296820.0 0.4254653489 -0.7342386209 -0.0001655583 -0.0002655756 0.0001085424 0.0001345976 -0.3963119182 0.7474103565
535296790.0 0.41861879 -0.7383882821 0.0001395144 0.0001804189 3.654e-05 0.0001336268 -0.388736513 0.751507874
540296760.0 0.4108735847 -0.7418088624 4.09455e-05 0.000272086 -8.06416e-05 -0.0001473447 -0.3805011657 0.7561473196
545296730.0 0.4034733188 -0.7463564233 1.577e-07 -7.84427e-05 -0.0001704424 -6.81562e-05 -0.3732876499 0.7597596116
550296700.0 0.3964461995 -0.7498554245 9.4784e-06 -2.69012e-05 -8.3004e-05 -7.89266e-05 -0.3651686992 0.7637191051
555296670.0 0.3887895808 -0.7540103595 -0.0002321105 -7.75271e-05 4.39408e-05 0.0001345985 -0.3580257077 0.7673490989
560296640.0 0.381230711 -0.7570950556 -8.68521e-05 -2.15251e-05 -5.3035e-05 8.46144e-05 -0.350102241 0.7702752868
565296610.0 0.37384085 -0.7609757975 -0.0001160893 -0.0002374204 0.00010301 -0.0002181016 -0.342420004 0.7741052245
570296580.0 0.3659818111 -0.7645728425 -8.63476e-05 0.0001320133 -9.59064e-05 1.33369e-05 -0.3347082717 0.7777676986
575296550.0 0.3581535152 -0.7679338992 8.3177e-05 -0.0001150255 1.71592e-05 2.86555e-05 -0.3266186184 0.7813858702
580296520.0 0.3504831026 -0.7715870265 0.0001238345 9.998e-07 4.38797e-05 -0.0002024177 -0.3180555642 0.7840251393
585296490.0 0.3428155996 -0.7754989963 -2.07248e-05 0.0002829503 -5.43188e-05 -6.306e-06 -0.3102924587 0.7874439562
590296460.0 0.3355096952 -0.7771127884 -8.82313e-05 -6.36431e-05 -7.8187e-05 0.0001495638 -0.3021349829 0.790936816
595296430.0 0.3274586084 -0.7815685925 -0.0001698652 0.0001776794 -2.7648e-05 -1.76948e-05 -0.2943704867 0.7931549202
600296400.0 0.3198708159 -0.7843622849 -0.0001932415 -5.7213e-05 -0.000166738 0.0001106554 -0.2871046081 0.795837442
605296370.0 0.3119517231 -0.7874070828 -0.0001205684 7.5439e-06 -2.70745e-05 -0.000101636 -0.2779651136 0.7989792164
610296340.0 0.3038582594 -0.7906003806 6.0483e-06 0.0001873657 -4.74706e-05 5.98817e-05 -0.2700042258 0.8011605244
615296310.0 0.2966114376 -0.7933993523 -5.55629e-05 1.33652e-05 -0.0002178931 -4.17332e-05 -0.2615529898 0.803423638
620296280.0 0.2880711068 -0.7955446971 -0.000100617 0.0001920574 -0.0002067719 0.0001441353 -0.2541776854 0.806738161
625296250.0 0.2809105714 -0.7989508178 0.000314607 -9.42363e-05 0.0001118562 -0.0002579177 -0.2451445935 0.8082862816
630296220.0 0.2727296146 -0.8016082746 6.9834e-06 0.0001447536 -6.51056e-05 -5.1304e-05 -0.2372760375 0.811064671
635296190.0 0.2648617508 -0.8042068138 1.64104e-05 -0.000126233 -8.81929e-05 2.0533e-06 -0.2294057045 0.8125980185
640296160.0 0.2568753761 -0.8067401738 -1.19976e-05 0.0001085965 -0.0002706473 1.38069e-05 -0.2209179972 0.8158502236
645296130.0 0.2482298168 -0.8087018278 -1.62267e-05 -0.0001743918 7.31946e-05 2.26906e-05 -0.2131897377 0.8177718225
650296100.0 0.2402218166 -0.810623029 2.71338e-05 0.0001601705 0.0001305735 0.0002023816 -0.2049059806 0.8192370143
655296070.0 0.2319950074 -0.8133529978 0.0002429467 4.29143e-05 0.0001403685 -9.46145e-05 -0.1959321753 0.8211419059
660296040.0 0.2235801644 -0.8158171994 0.0001050825 0.00010655 -0.0001695428 3.99556e-05 -0.1873398778 0.8234750933
665296010.0 0.2159590779 -0.8179425576 -2.34963e-05 -6.26625e-05 5.34803e-05 -1.50035e-05 -0.1792634169 0.8252903218
670295980.0 0.2074407858 -0.8195219655 -9.03465e-05 -2.25584e-05 9.37811e-05 -2.33127e-05 -0.1712802604 0.8269419125
675295950.0 0.1994704504 -0.8212834291 -2.6588e-05 -0.0001110325 -5.93132e-05 -0.0001896414 -0.1632459926 0.8286425342
680295920.0 0.1911131715 -0.8229964978 -0.0001341148 3.06037e-05 0.0001201046 -6.94183e-05 -0.154348237 0.8310889525
685295890.0 0.1837901567 -0.8246184201 -3.48497e-05 -4.27039e-05 -0.0001375481 4.0595e-06 -0.1457309703 0.8324464424
690295860.0 0.1747629965 -0.8261904173 3.25347e-05 -1.17522e-05 3.95398e-05 -0.000133052 -0.1382682344 0.8339692492
695295830.0 0.1667120674 -0.8284739243 7.2434e-06 2.92348e-05 -1.13601e-05 7.45227e-05 -0.1290668311 0.8348290024
700295800.0 0.158482844 -0.8297575343 1.6121e-05 0.000241097 0.0001436304 -1.4012e-05 -0.1212944018 0.8363462104
705295770.0 0.1495273531 -0.8307149388 -0.0001307418 7.83821e-05 -4.15517e-05 9.23771e-05 -0.1126690549 0.8385057721
710295740.0 0.1410227001 -0.8320032834 1.89939e-05 -2.1496e-05 -4.22366e-05 6.29125e-05 -0.1041765489 0.8386968921
715295710.0 0.1332610664 -0.833935806 -7.00668e-05 0.0001869079 1.27963e-05 8.19228e-05 -0.0959511894 0.8396775301
720295680.0 0.1249978408 -0.8348746346 -0.0001553753 8.57139e-05 0.0001895348 3.92242e-05 -0.0872964744 0.8407160272
725295650.0 0.1162782962 -0.8350896116 -0.0001012001 8.21391e-05 8.45641e-05 3.03566e-05 -0.0793721531 0.8418683219
730295620.0 0.1079507132 -0.8361118966 0.0001864222 -0.0001243731 -1.5056e-05 -0.0001497457 -0.0717768752 0.8425421847
735295590.0 0.0996123298 -0.83688714 -3.02131e-05 -2.23462e-05 -0.0001226145 2.96369e-05 -0.0632096926 0.8426958818
740295560.0 0.0915098015 -0.837905416 0.0001543046 -0.0001104577 -0.0001228282 -0.0001293252 -0.053404403 0.8438967507
745295530.0 0.0827499024 -0.8390577772 4.84683e-05 3.80741e-05 4.95401e-05 -7.51712e-05 -0.0456101924 0.8439715999
750295500.0 0.0744347704 -0.8394784826 -0.0002566526 9.54356e-05 -0.0001078447 -7.97575e-05 -0.0375489899 0.8445216753
755295470.0 0.0660468956 -0.8398899141 9.7305e-06 0.000107326 3.3612e-06 0.0001218411 -0.02875719 0.8443049539
760295440.0 0.0574500686 -0.8399927221 -6.47909e-05 -8.66847e-05 0.0001428065 0.0001437837 -0.0203219358 0.8448580519
765295410.0 0.049803724 -0.840575478 0.0001814183 0.0001065269 0.0003070276 0.0002959182 -0.012238173 0.8449666176
770295380.0 0.0408866476 -0.8410593956 -0.0001691568 -0.0003072163 0.0001281064 -8.20784e-05 -0.0034892837 0.8445533826
775295350.0 0.0323518306 -0.8420194159 0.0002292636 -0.0001000025 0.0001462754 -9.71111e-05 0.0039762968 0.8441685544
780295320.0 0.0244354514 -0.841349587 5.06437e-05 -0.0001389997 -0.0001998728 -7.41128e-05 0.0127988028 0.844429957
785295290.0 0.0155829307 -0.8417898928 0.0001201584 -0.0002600447 7.69821e-05 9.91196e-05 0.0217818529 0.844135423
790295260.0 0.0070410215 -0.8414991436 1.05376e-05 0.0001257067 -3.28769e-05 -6.34765e-05 0.0304940741 0.8437100584
795295230.0 -0.001438628 -0.8415430124 0.0001101952 -0.0001313834 8.5686e-05 -5.29134e-05 0.0392264227 0.8430862662
800295200.0 -0.0098819513 -0.8405816919 -0.0001036072 -0.0001321966 0.0002112234 -0.0001595129 0.0471032989 0.8428209852
805295170.0 -0.0179952518 -0.8409708187 1.9971e-05 0.0002785055 0.0001820248 0.000124108 0.0549033795 0.8420368015
810295140.0 -0.0266503229 -0.8404486547 -6.82705e-05 -0.0002368416 -6.18503e-05 -2.8612e-06 0.0638300139 0.8415304193
815295110.0 -0.0346446404 -0.8405001179 -0.0001722501 2.55558e-05 4.63459e-05 -5.85086e-05 0.072391035 0.8408232098
820295080.0 -0.0434392112 -0.8399884946 -7.51278e-05 -3.81481e-05 7.23671e-05 8.51876e-05 0.080593092 0.8405334241
825295050.0 -0.0508875306 -0.8391339031 0.0002060801 9.34835e-05 -0.0001127798 -4.3346e-06 0.0889271784 0.8395001778
830295020.0 -0.0597169445 -0.8380294844 -8.19851e-05 2.169e-05 -0.0002000068 3.6762e-05 0.098166149 0.8384744603
835294990.0 -0.068344928 -0.8375629637 -0.0001082609 -8.88092e-05 0.0001467162 -0.0001106449 0.1055303937 0.837522913
840294960.0 -0.0762601687 -0.836502274 -6.11375e-05 -0.0001985667 6.31511e-05 -9.35873e-05 0.1143054032 0.836682672
845294930.0 -0.08511288 -0.8358561473 8.4924e-06 0.0001234771 0.0001076979 -2.0939e-06 0.1224877953 0.8351265621
850294900.0 -0.0917700632 -0.8340919702 9.72872e-05 -0.000198124 2.07728e-05 0.0001688922 0.1304587668 0.8340510905
