!Created with skrf (http://scikit-rf.org).
# Hz S RI R 50.0 
!freq ReS11 ImS11 ReS21 ImS21 ReS12 ImS12 ReS22 ImS22
300000.0 -0.7756915057 -0.1051380896 -0.0002771786 -0.0009826822 0.000473526 0.0015437691 -0.2106994141 -0.086968457
5299970.0 -0.7852138706 -0.0064366512 8.342e-05 -0.0002961448 0.0001452432 -0.0001412785 -0.2145244242 0.0080369567
10299940.0 -0.7880174776 -0.0046463022 -3.27398e-05 -0.0001002505 8.5908e-05 -7.26796e-05 -0.210773386 0.0216065209
15299910.0 -0.7935470565 -0.0021991189 0.0002424978 6.745e-06 -5.21914e-05 2.97894e-05 -0.2059067391 0.0311183578
20299880.0 -0.8004021889 0.0018968829 0.00027533 0.0001327952 0.0001209712 6.26325e-05 -0.1999003279 0.0390412734
25299850.0 -0.8064297935 0.0076063344 -7.3899e-06 -9.03866e-05 -0.0001983998 0.0001192503 -0.1935617203 0.0458440996
30299820.0 -0.8124910578 0.0156463978 6.89843e-05 -5.24851e-05 0.0001575117 -7.50778e-05 -0.1868988955 0.0506933673
35299790.0 -0.8172560505 0.0244943119 2.80391e-05 0.0001611636 9.42725e-05 4.25827e-05 -0.1809068484 0.0551591399
40299760.0 -0.8214036734 0.0338085361 -0.0001613042 -3.75755e-05 5.0262e-06 -1.7509e-06 -0.1749078684 0.0578188711
45299730.0 -0.8245536232 0.0431994222 2.00041e-05 4.22784e-05 9.30038e-05 -1.29678e-05 -0.1693717007 0.0598699597
50299700.0 -0.8268594315 0.0528990023 8.43182e-05 -0.0001348953 0.0001093937 -3.7018e-05 -0.1643547999 0.0609474068
55299670.0 -0.8291751068 0.0631136328 0.0001058556 0.0002466915 -5.7612e-06 5.26156e-05 -0.1595828202 0.0617641095
60299640.0 -0.8307704335 0.0733673192 6.04724e-05 -0.0001007024 -3.81503e-05 0.0001021367 -0.155221026 0.0621782521
65299610.0 -0.8311542737 0.0836467182 9.51988e-05 0.000105906 1.94459e-05 -9.2543e-06 -0.1515242727 0.0626196121
70299580.0 -0.8315238181 0.0936942027 0.0001094076 -8.886e-07 -4.5544e-06 7.82314e-05 -0.1479135436 0.0631846371
75299550.0 -0.8315634723 0.1035203678 -4.86721e-05 -7.73858e-05 -4.25709e-05 9.98184e-05 -0.1448949638 0.0626627684
80299520.0 -0.8321557209 0.1132601439 -0.0001202375 2.83246e-05 -8.39133e-05 -0.0001576292 -0.1420112962 0.0628504855
85299490.0 -0.8309402169 0.1225280174 -9.24476e-05 -3.21264e-05 2.83657e-05 0.0001157977 -0.1397684439 0.0624832839
90299460.0 -0.8299295049 0.1322339264 0.0001477148 9.04698e-05 2.35843e-05 7.13202e-05 -0.137240607 0.0622964414
95299430.0 -0.829025554 0.1418166299 -4.38223e-05 9.22567e-05 0.000347768 6.35909e-05 -0.1347532156 0.0621598101
100299400.0 -0.8280272802 0.1510503814 -7.42456e-05 0.000141206 9.0582e-05 -1.76089e-05 -0.1327981414 0.0615002588
105299370.0 -0.8268612632 0.1602337925 -8.3071e-05 9.31833e-05 7.03816e-05 0.0001264815 -0.130978368 0.0616199692
110299340.0 -0.8255220146 0.1693198964 0.0001283868 -1.19044e-05 9.20276e-05 3.51511e-05 -0.1297105111 0.0612800216
115299310.0 -0.8238826045 0.1784005178 4.43702e-05 0.0001769692 -5.91704e-05 0.0001188165 -0.128172679 0.0609407521
120299280.0 -0.8218701239 0.1871558938 -5.57451e-05 -3.9278e-05 -6.17636e-05 5.30207e-05 -0.1267088943 0.0611999675
125299250.0 -0.8202605737 0.1957013156 0.0001014581 -3.33922e-05 9.88464e-05 -8.9799e-06 -0.1255115472 0.060735459
130299220.0 -0.818656569 0.2056592126 0.0001300604 8.2886e-06 -3.52693e-05 0.0001479834 -0.1244785997 0.0607147694
135299190.0 -0.8172480856 0.2139989043 -3.47545e-05 -2.14465e-05 4.50147e-05 -7.76323e-05 -0.123151228 0.0606476899
140299160.0 -0.8146131114 0.2226526075 4.11319e-05 0.0001611444 8.09441e-05 7.25121e-05 -0.1221798503 0.0611558803
145299130.0 -0.812860175 0.232040952 0.0001139485 1.33603e-05 0.0001404812 5.99345e-05 -0.1216032028 0.0613435785
150299100.0 -0.8100248324 0.2411147862 8.54182e-05 -0.000187413 6.46315e-05 -2.03192e-05 -0.1206456848 0.0617786679
155299070.0 -0.8077937012 0.2493830613 3.58035e-05 -0.0001141748 3.02995e-05 -0.0001030433 -0.1198230647 0.0619707294
160299040.0 -0.8050338633 0.2582615338 -3.88327e-05 0.0001020965 0.0001046423 -6.50614e-05 -0.1195433916 0.0627728908
165299010.0 -0.8028682953 0.2662591834 7.1042e-06 0.0001872461 0.0001259187 0.0001628209 -0.1183696273 0.0630316421
170298980.0 -0.7999294053 0.2752620899 2.64906e-05 0.0001454397 -3.3697e-05 0.000109304 -0.1179539965 0.0633365169
175298950.0 -0.7975174659 0.2840829301 0.0002836439 -0.0001039779 2.9836e-05 1.1479e-06 -0.1175887955 0.0639146893
180298920.0 -0.7944071838 0.2925654443 -4.47653e-05 -6.9092e-06 -4.81536e-05 -5.88645e-05 -0.1169514541 0.0647215473
185298890.0 -0.7910117186 0.3007682599 -0.0001175781 -3.49002e-05 0.0002508329 8.45047e-05 -0.1162945888 0.0651123162
190298860.0 -0.788534134 0.3096206531 6.95034e-05 -9.14833e-05 5.89286e-05 0.0001653261 -0.1160023132 0.06573958
195298830.0 -0.7854622448 0.3181752435 -8.00943e-05 3.45939e-05 0.0001138486 0.0001218472 -0.1154448827 0.0662120987
200298800.0 -0.781169483 0.3262829425 -8.41652e-05 0.0001692624 3.98712e-05 -1.62015e-05 -0.1151674521 0.0666574375
205298770.0 -0.7780201201 0.3344779831 -6.56476e-05 -4.38416e-05 2.80231e-05 0.0002938419 -0.1146578957 0.0673334154
210298740.0 -0.7748079419 0.342479721 2.60588e-05 5.87545e-05 1.65625e-05 -5.25415e-05 -0.1142499012 0.0680952349
215298710.0 -0.7714509024 0.3505018467 0.0001589388 1.10894e-05 -0.0002232778 6.97193e-05 -0.1139101155 0.0689649311
220298680.0 -0.7679135365 0.3587134429 0.0001145636 0.0002226664 -4.8792e-06 0.0002065909 -0.1139512341 0.069526909
225298650.0 -0.7645880767 0.3662621667 -2.8619e-06 0.0001543745 -0.0001724773 9.20456e-05 -0.1131928583 0.0702434576
230298620.0 -0.7598522551 0.3742742735 0.0003558577 0.0002426744 6.95949e-05 -9.35947e-05 -0.1130030041 0.0709227877
235298590.0 -0.7561875416 0.3832492384 -3.58913e-05 0.0001580117 3.22218e-05 1.656e-05 -0.1124200349 0.0716501815
240298560.0 -0.751953396 0.3911377694 0.0001805135 -2.83402e-05 -4.2925e-06 0.0001191104 -0.1121480859 0.072625152
245298530.0 -0.7484019833 0.3987840866 5.80866e-05 -6.67168e-05 0.0001141315 -0.0001554014 -0.1117333686 0.0728891977
250298500.0 -0.7443143282 0.406512684 0.0001020959 -0.0002183918 2.75193e-05 0.0001340797 -0.1113022446 0.0736974917
255298470.0 -0.7395967339 0.4140885557 0.0002748602 7.04665e-05 2.23582e-05 0.0003150946 -0.1108591427 0.0744826202
260298440.0 -0.735429331 0.4217630523 0.0002035596 -1.02367e-05 9.68011e-05 0.0001128712 -0.1100022142 0.0755088974
265298410.0 -0.7311432871 0.4299904601 3.08663e-05 -9.2454e-06 0.0002594914 0.0002721025 -0.1097218227 0.0765095359
270298380.0 -0.7268864957 0.4374394244 0.0001244204 0.0001635038 -2.28085e-05 0.0002453101 -0.1094056615 0.0769860832
275298350.0 -0.7223264763 0.4449592239 0.0001795751 -2.52884e-05 1.61232e-05 0.0001022118 -0.1083700215 0.0780111395
280298320.0 -0.7168040763 0.4524136682 -3.86063e-05 0.0001636477 -4.28317e-05 -0.0001286926 -0.1077846641 0.0787276079
285298290.0 -0.7127776355 0.4598301207 0.0002202188 0.0002180293 -0.0001229521 0.000253252 -0.1072103001 0.07974268
290298260.0 -0.7075757034 0.467438201 0.0001368994 0.0001949799 0.0002515356 9.41182e-05 -0.1065874593 0.0807498056
295298230.0 -0.7029686999 0.4741133007 0.0001444517 -9.77163e-05 0.0002123863 -0.0001886786 -0.1059655347 0.0812743989
300298200.0 -0.6977063801 0.4816843287 8.60031e-05 9.20922e-05 -6.28829e-05 1.3565e-06 -0.1052007707 0.0825334912
305298170.0 -0.6925418561 0.4883017091 5.77563e-05 0.0002241635 7.3982e-05 0.0001136747 -0.1040177973 0.0832101839
310298140.0 -0.6873721695 0.4959571491 9.74144e-05 0.0001431666 -8.17534e-05 9.98947e-05 -0.1041091631 0.0839041508
315298110.0 -0.6828261245 0.5034012147 0.0001223702 -5.1197e-05 5.63601e-05 0.0003167474 -0.1031623507 0.0847462388
320298080.0 -0.6773115758 0.5105785242 0.0001768742 0.0002233553 4.28891e-05 5.00634e-05 -0.1025761264 0.0857843792
325298050.0 -0.6716874164 0.5173755424 -1.83568e-05 0.0001081901 7.70799e-05 9.95414e-05 -0.1020891982 0.0864621321
330298020.0 -0.6662817769 0.5237972937 0.0002729675 3.33123e-05 0.0001647768 -1.22295e-05 -0.1018074626 0.0879604483
335297990.0 -0.6610768185 0.5305951266 0.0001720544 0.000151798 -5.25012e-05 0.0001467423 -0.1008595588 0.0892103017
340297960.0 -0.6557305085 0.5377874295 0.0001420875 1.83166e-05 7.98614e-05 4.99804e-05 -0.1002380097 0.0900450243
345297930.0 -0.6497782612 0.5439696905 -5.4037e-06 7.93359e-05 0.0001386548 -9.2445e-06 -0.1001485149 0.0909712041
350297900.0 -0.6442430508 0.5504605982 -0.000294266 0.0001404072 -9.358e-06 0.0001239971 -0.0993679923 0.0926200428
355297870.0 -0.6378474168 0.5579940938 0.0002534305 0.0001420753 0.0002721099 3.24778e-05 -0.098906483 0.0931325985
360297840.0 -0.6325250785 0.5636623493 0.0001497435 0.0001886794 0.0001022744 0.0001518631 -0.0982202101 0.0946550697
365297810.0 -0.6270089642 0.5700715167 0.0001102927 -1.00581e-05 0.0001368796 0.0001095747 -0.097373756 0.095322657
370297780.0 -0.6212152563 0.5768033398 -1.6286e-06 -2.65707e-05 1.96224e-05 -2.94667e-05 -0.0964459423 0.09663748
375297750.0 -0.6144001183 0.5831871085 0.0001232666 2.49054e-05 0.0001082029 -5.51131e-05 -0.0963596644 0.0976439409
380297720.0 -0.60868747 0.5890772667 -3.57926e-05 0.000250897 -5.14633e-05 0.0001257991 -0.0955919612 0.0985635581
385297690.0 -0.6030485029 0.5952251901 0.0003671089 7.00371e-05 0.0003834926 0.0001064308 -0.0944681585 0.0994342633
390297660.0 -0.5970911032 0.6010354661 -5.9316e-05 -6.34287e-05 4.3741e-06 8.98365e-05 -0.0941194375 0.1005793585
395297630.0 -0.5905777826 0.6079693894 -2.6167e-06 -7.28686e-05 -9.53023e-05 2.6602e-06 -0.0929620636 0.1017906815
400297600.0 -0.5843041246 0.6140675949 -0.000142975 6.75692e-05 0.0002931699 4.30555e-05 -0.0925476252 0.1028691023
405297570.0 -0.5778627777 0.6197970217 0.0001873742 0.0001734212 -8.80681e-05 9.17606e-05 -0.092064997 0.1035600003
410297540.0 -0.5712522264 0.6254616497 0.0002697405 0.0002050295 -0.0001138668 7.69108e-05 -0.0909801421 0.1048481748
415297510.0 -0.5644142492 0.631588324 0.0004119987 -5.2272e-05 4.44553e-05 -5.22858e-05 -0.0902247196 0.1056235878
420297480.0 -0.5585425766 0.6373418779 0.0002195809 0.0001914501 0.000193585 0.0001264326 -0.0896043908 0.106666104
425297450.0 -0.5517027182 0.6427114884 8.21299e-05 0.0001938001 8.92125e-05 0.0001910529 -0.0885164823 0.1074491732
430297420.0 -0.5451367294 0.6482631037 -3.28173e-05 7.76087e-05 0.0001459308 -5.69661e-05 -0.0877722532 0.1083257318
435297390.0 -0.5389835682 0.6535208174 8.62235e-05 0.0001198771 0.0001209251 4.14663e-05 -0.0868994083 0.1088774008
440297360.0 -0.5315750976 0.6589041913 3.17905e-05 -2.51251e-05 0.0001252355 0.0001659161 -0.086006978 0.110151592
445297330.0 -0.5249328064 0.6647659813 0.000443546 0.0001158907 0.0002636182 -7.14767e-05 -0.0849497093 0.1106005993
450297300.0 -0.5181965993 0.6693753784 0.0002380074 0.0002681016 0.0002909648 -4.05239e-05 -0.0837611949 0.1117271303
455297270.0 -0.5117127566 0.6745564112 0.0004610943 3.09569e-05 0.0002321952 5.25603e-05 -0.0830378918 0.1126697042
460297240.0 -0.5051034184 0.679574945 0.0002648671 0.000182459 0.0003110144 0.0002444159 -0.0820101661 0.1135609929
465297210.0 -0.4977181153 0.6848012403 0.0002820557 8.5571e-06 7.76408e-05 0.0001149389 -0.0809066997 0.1143764591
470297180.0 -0.4905840891 0.6896320419 0.0003000232 7.38953e-05 -9.48978e-05 0.0001109027 -0.0798121659 0.1154780473
475297150.0 -0.483425533 0.6942108226 0.0001781128 3.75013e-05 8.76582e-05 8.64477e-05 -0.0787524107 0.116344969
480297120.0 -0.4765404804 0.6991173897 0.0002278804 0.0001916002 0.0001781795 9.6973e-05 -0.0774827478 0.1172870268
485297090.0 -0.4693480335 0.7039782658 0.000218668 -7.732e-06 0.0001300489 0.0001506486 -0.0763393277 0.1181112454
490297060.0 -0.4623507963 0.7087405653 0.0001040927 0.0001574582 4.07879e-05 0.0002505351 -0.0757160691 0.1188988266
495297030.0 -0.4549380159 0.7130992688 0.0002636662 -0.0001199581 8.61883e-05 0.0002874441 -0.0745411199 0.1200447677
500297000.0 -0.4474253824 0.7179616524 0.0001887585 -3.88797e-05 6.04168e-05 -9.46178e-05 -0.0730327384 0.1215789013
505296970.0 -0.4400418473 0.7227897021 0.0003539308 0.0001268486 -1.33468e-05 -8.17916e-05 -0.0722449068 0.12183836
510296940.0 -0.4325287882 0.7265720243 0.0002111152 -8.35483e-05 -3.84778e-05 -1.07368e-05 -0.0711192895 0.1229023358
515296910.0 -0.4247943816 0.7306129793 0.0001274221 0.0001357011 0.0001845851 -9.99934e-05 -0.0700731464 0.1238889151
520296880.0 -0.4182479948 0.7358362364 0.000170308 0.0001644426 0.0001303966 -2.8337e-06 -0.0691493176 0.1245268476
525296850.0 -0.4102328938 0.7390274724 0.0002217656 8.35989e-05 0.0002039878 -0.0001002747 -0.067878046 0.1258446182
530296820.0 -0.4030026785 0.7434296963 7.63593e-05 -1.76064e-05 4.37645e-05 0.0003402439 -0.0670484439 0.1266846896
535296790.0 -0.3963076292 0.7467206888 8.14103e-05 8.66956e-05 0.0002016013 0.000170321 -0.0661467248 0.1271582396
540296760.0 -0.3876864561 0.7509240836 0.0002555247 -0.0001522718 0.0002294857 -7.2261e-06 -0.0649201385 0.1283228792
545296730.0 -0.3804779002 0.7554399588 0.0001678698 3.908e-07 0.0001021408 0.0003838284 -0.0639055709 0.1291756891
550296700.0 -0.3729911238 0.7587155783 4.06479e-05 8.2852e-06 0.0001561483 0.0001050405 -0.0627512603 0.1298363672
555296670.0 -0.3651977318 0.7613744675 0.0002831197 0.0001309446 0.0002838316 -3.0666e-06 -0.061572648 0.1308714629
560296640.0 -0.3578651684 0.7662454837 0.0001577461 -2.1664e-05 0.0001551105 3.4778e-06 -0.0603274984 0.1318080985
565296610.0 -0.3494918778 0.7703548853 3.90116e-05 0.0001642061 0.0002468026 -1.30956e-05 -0.0592790834 0.1319902815
570296580.0 -0.3421857495 0.7722767857 -5.9763e-05 0.0001237788 0.0002368679 0.0002194319 -0.0585399359 0.1330411145
575296550.0 -0.3343504272 0.7770724865 5.20481e-05 0.0002614286 0.0002540699 0.0001018864 -0.057361759 0.133755418
580296520.0 -0.3260745327 0.779615559 0.0003349726 -5.50922e-05 0.0002064579 0.000142096 -0.0560849611 0.134572143
585296490.0 -0.3185251032 0.7826371231 0.0002211828 0.0001826838 0.0002028458 -7.50391e-05 -0.0549312851 0.1351305109
590296460.0 -0.3106655447 0.7858528592 0.0001824522 5.07471e-05 0.0002640335 0.0001221616 -0.0538223249 0.1359096305
595296430.0 -0.3027638038 0.7886865799 4.46493e-05 0.0002035611 0.0002398135 -1.63519e-05 -0.0526412683 0.1361023909
600296400.0 -0.295045417 0.7924294505 0.0002063506 9.57237e-05 0.0002542838 3.51133e-05 -0.0511828644 0.1366724848
605296370.0 -0.2877394376 0.7944300497 8.25616e-05 -0.0001101343 0.0003267763 -8.34518e-05 -0.0498361333 0.1373993824
610296340.0 -0.2788870872 0.7973715434 0.000351739 0.0001142973 0.0001299696 -5.51668e-05 -0.0485127561 0.1381659155
615296310.0 -0.2702033432 0.799736057 0.0001292392 -8.48956e-05 0.0002642283 0.0002003008 -0.0470797771 0.1385157019
620296280.0 -0.2628821709 0.8024285007 0.0001831937 0.0002480079 0.0001435753 7.04966e-05 -0.0459342453 0.1393769061
625296250.0 -0.2550076739 0.8051669392 0.0002879768 -0.0002319085 0.0003875464 -1.64535e-05 -0.0445684237 0.1396835642
630296220.0 -0.2461443824 0.8076293285 0.0001999265 0.000115959 0.0001465245 -8.6158e-05 -0.0434267516 0.1407163606
635296190.0 -0.2386717842 0.810320314 -0.0001429452 -4.24022e-05 0.0002083688 0.0001254551 -0.0420607339 0.141058306
640296160.0 -0.2307063208 0.8124677034 3.17321e-05 7.63131e-05 0.0001770128 -1.27824e-05 -0.0407796325 0.141644815
645296130.0 -0.2220727472 0.8149979176 0.0001624181 5.02253e-05 0.0002026895 -9.28571e-05 -0.0392556064 0.1421579908
650296100.0 -0.2144506951 0.8171332049 0.0002431749 1.70653e-05 0.0002420654 0.0001110114 -0.0378723023 0.1426823851
655296070.0 -0.2060603748 0.819361298 0.0003075414 7.3794e-06 7.15632e-05 -4.93345e-05 -0.0362827767 0.143289765
660296040.0 -0.1975734081 0.8204917104 0.0002259318 -0.0001701567 0.0002258365 -0.0001215134 -0.0348888851 0.1440472602
665296010.0 -0.1898485749 0.8222324959 0.0002221038 9.7613e-05 0.0001288756 0.0002570808 -0.0334470704 0.1446606958
670295980.0 -0.1820208321 0.8244465512 0.0001270714 8.026e-05 0.0002379527 1.0883e-06 -0.0325615403 0.1450227449
675295950.0 -0.1735645541 0.8258599735 -9.8761e-06 0.0001666442 0.0002957295 0.0001131247 -0.0310803219 0.1461718769
680295920.0 -0.1648757899 0.8280370308 0.0004181994 0.0001297795 0.0002205088 -0.0001075044 -0.0293069923 0.146679206
685295890.0 -0.1565927175 0.8302162539 0.0003479161 -2.8573e-05 0.0002351143 -0.0002140423 -0.0283434582 0.1470294477
690295860.0 -0.1483538422 0.8312015621 0.0003107104 -1.27298e-05 0.0003908127 -3.08346e-05 -0.0267789267 0.147864131
695295830.0 -0.1400366006 0.8317483793 1.69076e-05 5.6689e-05 0.0001576021 9.30722e-05 -0.0250913403 0.1484242654
700295800.0 -0.1319455021 0.8338565162 0.0002834066 -0.0001598935 0.0003306395 1.59487e-05 -0.0241955143 0.1488425315
705295770.0 -0.1237232008 0.8351263989 0.0001350666 4.26108e-05 0.0002053599 -0.0001664757 -0.0226922192 0.1495872566
710295740.0 -0.1155684023 0.8364016481 0.000422384 -0.000182836 0.0001941927 8.48564e-05 -0.0217301465 0.1494624218
715295710.0 -0.1073167005 0.8371595905 0.0003599613 -7.38412e-05 0.0003359735 -0.0001989078 -0.0203061596 0.1501737948
720295680.0 -0.098662477 0.8387488559 3.12684e-05 -8.11805e-05 0.0001150264 0.0001639117 -0.0190055957 0.1506557786
725295650.0 -0.0906185029 0.8388541371 0.000119896 0.000108157 0.0002000445 5.27857e-05 -0.0174740309 0.1512222968
730295620.0 -0.0820129727 0.8405649483 0.0003822071 5.61306e-05 0.0002074696 1.25449e-05 -0.0163151086 0.1514403294
735295590.0 -0.0742532966 0.8414792187 4.21429e-05 -0.0002496064 0.0002109312 9.1899e-05 -0.0152132973 0.151553708
740295560.0 -0.0660568903 0.8420256293 0.0003490907 8.25989e-05 3.35404e-05 4.54951e-05 -0.013227329 0.1519255084
745295530.0 -0.0571259108 0.8424648574 0.0005299579 -2.3388e-05 0.000271341 -0.0001050997 -0.0118401313 0.1522743345
750295500.0 -0.048760234 0.8430894746 0.0001588907 0.0001987767 0.0002341115 7.85153e-05 -0.0109070337 0.1524082076
755295470.0 -0.0405642866 0.8427285794 0.0001807485 4.03846e-05 0.0003007775 -5.86386e-05 -0.0092625573 0.1525748276
760295440.0 -0.0328356945 0.8435486243 -6.37519e-05 -7.9781e-05 0.0002702662 4.501e-07 -0.007779551 0.1528981961
765295410.0 -0.0237368663 0.8436751288 0.0002379113 0.0001060217 0.0002452835 0.0001063005 -0.0064063273 0.153507713
770295380.0 -0.0159247277 0.8442678449 0.00040159 -0.0002038351 0.0001649127 1.92828e-05 -0.0050987338 0.1533119602
775295350.0 -0.0077373454 0.8440104231 0.0002779888 -0.0001414624 0.0001690813 4.76688e-05 -0.0037758728 0.1533275917
780295320.0 0.0010107036 0.8442102355 0.0002146102 -0.000200914 0.0003802054 3.61716e-05 -0.0023216594 0.1537894705
785295290.0 0.0092621871 0.8435638143 0.0002553795 -3.04121e-05 0.0002348524 -0.0001861681 -0.0003021783 0.1536218534
790295260.0 0.0178775451 0.8439195772 0.0001862633 4.34163e-05 2.74869e-05 5.16808e-05 0.0013215945 0.1541920472
795295230.0 0.0258208121 0.8435624828 0.0002566438 0.0001105918 0.0001537239 0.0001141864 0.0027776314 0.1541891542
800295200.0 0.0341836591 0.843025994 0.0002669038 -0.0002483233 0.0002471388 0.0001417312 0.0038005071 0.1544013934
805295170.0 0.0428741836 0.8427554041 5.6645e-05 0.0001840594 0.0002403301 -0.0001252131 0.0056446285 0.1544885229
810295140.0 0.0511249349 0.8425527054 0.0004744987 -1.0796e-05 0.0002529558 -0.000223721 0.0072987239 0.1550603359
815295110.0 0.0595190712 0.8418136806 0.0001419765 -0.0002114564 0.0002016054 -0.0001416009 0.0088744507 0.1548898661
820295080.0 0.0677772434 0.8416146063 0.0002719806 0.0001455209 0.0002628688 -8.04587e-05 0.0102875995 0.1548176267
825295050.0 0.0766855305 0.8401461256 0.0003038716 -5.22391e-05 0.000182201 2.13942e-05 0.0116690788 0.1551625355
830295020.0 0.0841778308 0.8398381603 0.000277778 -0.0002640731 0.0001763202 0.0001816752 0.0136793036 0.1550065067
835294990.0 0.0922978206 0.838938529 0.0003358065 2.0197e-06 0.0003741185 9.56827e-05 0.0147229027 0.1556808285
840294960.0 0.1000063017 0.8384057136 0.0002104141 -0.0002610025 0.0003448303 -0.0002889346 0.016404888 0.1554282225
845294930.0 0.108610689 0.8371049932 0.0003911623 -4.5896e-06 0.0003746272 -7.45414e-05 0.0178708074 0.1556610859
850294900.0 0.116783741 0.8355629057 0.0001655202 -2.12321e-05 0.0002796899 6.11274e-05 0.0194581171 0.1559607308
