!Created with skrf (http://scikit-rf.org).
# Hz S RI R 50.0 
!freq ReS11 ImS11 ReS21 ImS21 ReS12 ImS12 ReS22 ImS22
300000.0 -0.2126932304 -0.056581599 -0.0008472363 -0.0007358648 0.0009869614 0.0017103455 -0.7791339628 -0.1275841399
5299970.0 -0.216836502 0.0081910827 -0.0001980269 7.899e-05 0.0001181991 -0.0002240183 -0.784687764 -0.0070785832
10299940.0 -0.213504376 0.0195154223 -7.74025e-05 -2.51957e-05 1.57387e-05 -0.0002070395 -0.7883393568 -0.0038719194
15299910.0 -0.2086289261 0.0285262216 0.0001373933 -0.0001049745 2.80102e-05 -6.24618e-05 -0.7932228293 -0.0013549248
20299880.0 -0.2033978967 0.0360304361 -0.0001371383 0.00010251 -1.12126e-05 -1.49597e-05 -0.8003334086 0.0017669237
25299850.0 -0.1977438377 0.0423161284 -3.77612e-05 9.70154e-05 -6.0227e-05 0.0002015899 -0.8063521493 0.0082747504
30299820.0 -0.1918323633 0.046782478 0.000100094 7.21641e-05 -0.0002057897 0.0002298474 -0.8124196465 0.0158531832
35299790.0 -0.1864798336 0.0506678614 0.000221845 9.09307e-05 -0.0001704571 -2.70206e-05 -0.8174783564 0.024896068
40299760.0 -0.1808228963 0.0535038336 8.04122e-05 9.5223e-05 0.0001329813 -0.0001024387 -0.8213413771 0.0345650816
45299730.0 -0.1755416253 0.0554405034 0.0001779229 -0.0001967753 -8.19554e-05 -4.685e-07 -0.8254803166 0.0438379155
50299700.0 -0.1709962827 0.0569555559 7.84024e-05 0.0001185371 2.42167e-05 -0.0001882831 -0.8272122206 0.0536613798
55299670.0 -0.1666808603 0.0579195213 -2.10326e-05 -8.02894e-05 9.96221e-05 -9.79261e-05 -0.8295454342 0.0637605612
60299640.0 -0.1622226767 0.0590659783 8.68948e-05 -3.79909e-05 -0.0001245808 -9.40298e-05 -0.8305157827 0.074350652
65299610.0 -0.1588792106 0.0589664592 5.68996e-05 4.6786e-05 -4.87266e-05 3.47768e-05 -0.8318450922 0.0838007501
70299580.0 -0.1557854462 0.059591685 -8.29534e-05 -6.28522e-05 -2.38852e-05 0.0001671889 -0.8318941775 0.0942502766
75299550.0 -0.1527226609 0.0597134068 6.85986e-05 -7.1808e-05 3.87491e-05 6.21635e-05 -0.8318719515 0.1037848181
80299520.0 -0.1499101556 0.0600082796 -2.28832e-05 6.49445e-05 1.22932e-05 -0.0001695304 -0.8317022511 0.1138894172
85299490.0 -0.1478239036 0.0596844044 4.483e-06 4.3486e-05 9.52836e-05 9.9635e-05 -0.8314795801 0.1241035882
90299460.0 -0.1455346191 0.0600783179 -2.6102e-05 0.0002309058 -6.54557e-05 -9.80934e-05 -0.8305247534 0.1329063294
95299430.0 -0.1433503158 0.0598652372 0.0002313427 0.0001874897 -0.000105678 0.000143666 -0.8286751974 0.1427155193
100299400.0 -0.1418200115 0.0599474933 0.0001112498 7.56258e-05 0.0001237946 9.24912e-05 -0.8290081784 0.1520873926
105299370.0 -0.1399495984 0.0600776632 4.0404e-05 -0.0001351854 0.000119809 7.71107e-05 -0.8266046271 0.1607362219
110299340.0 -0.1383890222 0.0599753617 0.0001434261 -2.25101e-05 0.0001349678 1.26993e-05 -0.8253343269 0.1706324962
115299310.0 -0.1370587987 0.0600988151 0.0001752407 -6.87633e-05 0.0001367005 0.0001217458 -0.8242267679 0.180177033
120299280.0 -0.1358653237 0.059776738 0.000141651 0.0001682215 -8.57699e-05 6.34689e-05 -0.8224268462 0.1888572979
125299250.0 -0.135018837 0.0599379696 7.5702e-05 -2.60171e-05 -3.6879e-05 2.94583e-05 -0.8211806922 0.1981706112
130299220.0 -0.1339982485 0.0604875181 7.37399e-05 -0.000180379 6.05095e-05 -0.0001055991 -0.819167577 0.2069150833
135299190.0 -0.1332847802 0.0604817646 0.0001751788 0.0002586273 0.0001834765 -8.78921e-05 -0.8166058423 0.216036749
140299160.0 -0.1324211108 0.0607947984 -0.0001419034 -9.82302e-05 0.0002176368 0.0001157413 -0.8149073112 0.2247858194
145299130.0 -0.1314653233 0.0611627428 0.0001188066 0.0001337601 0.0001356652 9.58682e-05 -0.8129506871 0.2341973308
150299100.0 -0.1306793033 0.0615154139 0.0001962935 8.94247e-05 -5.73761e-05 0.000175472 -0.810967974 0.2430414061
155299070.0 -0.1301322775 0.0617918545 0.0001809519 -0.000114769 2.82132e-05 -0.0001661521 -0.8074877657 0.2518114904
160299040.0 -0.1295592023 0.0623529552 0.0002491062 2.06978e-05 -1.85733e-05 -7.2794e-06 -0.8057101518 0.2604912137
165299010.0 -0.1288179205 0.0626966835 -0.0001305821 0.0001161443 -2.65944e-05 -6.44264e-05 -0.8032537532 0.2694628515
170298980.0 -0.1284194307 0.0636249189 0.0002226249 6.46465e-05 0.000163713 -1.16524e-05 -0.7999552225 0.2778634618
175298950.0 -0.1279078626 0.0642187292 -4.56833e-05 -0.0001999295 9.01394e-05 -2.75123e-05 -0.7977282483 0.2868459803
180298920.0 -0.127305973 0.0645904848 0.0001371827 0.0001318761 0.0001361085 0.0001036242 -0.7938926951 0.2947520468
185298890.0 -0.1265417626 0.0651647627 -0.0001459786 0.0002126971 9.2701e-06 0.0003019257 -0.7905133489 0.3036599923
190298860.0 -0.1261691341 0.0659290844 0.0001570597 0.0004309354 -5.6885e-06 -0.0001094912 -0.7884325813 0.312315923
195298830.0 -0.125657122 0.0666855942 6.27469e-05 -3.70329e-05 -4.10436e-05 0.0001609765 -0.7846770079 0.3206665218
200298800.0 -0.1249634116 0.0673181784 -2.32016e-05 0.0001954662 0.0001212993 0.0002772785 -0.7820045403 0.3289611743
205298770.0 -0.1246741903 0.0678958 0.0002429638 2.03399e-05 -3.98396e-05 2.10178e-05 -0.7781421622 0.3376201307
210298740.0 -0.1245175696 0.0689362285 -0.0001272911 1.02765e-05 0.0002418561 0.0002152946 -0.7746223376 0.3459001038
215298710.0 -0.1240010197 0.0697906791 7.72089e-05 0.000262662 -4.52661e-05 -1.26777e-05 -0.7712392523 0.3537007877
220298680.0 -0.1234751087 0.0703616976 -9.58727e-05 3.28055e-05 6.80539e-05 -0.000168371 -0.7678876598 0.3612582788
225298650.0 -0.1233883091 0.0714564127 6.75546e-05 0.0002641803 0.0003239693 4.5973e-06 -0.763912145 0.3703083492
230298620.0 -0.1227719058 0.0726141529 1.88243e-05 8.36275e-05 0.0001136269 7.75135e-05 -0.7601090976 0.3779356768
235298590.0 -0.1220514822 0.0731553057 0.0001477021 2.9533e-05 9.26579e-05 5.6033e-05 -0.7559394539 0.3867028453
240298560.0 -0.1218025727 0.0737589807 7.90182e-05 -0.0001914441 2.56394e-05 -2.93348e-05 -0.7517573615 0.3949120922
245298530.0 -0.1213650104 0.0750023613 0.0001503461 -2.10975e-05 0.0001108366 0.0001031204 -0.7477292227 0.4019742284
250298500.0 -0.1204630907 0.0759255941 0.0001336374 3.09329e-05 0.0001213921 0.0002342267 -0.7435306347 0.4092934035
255298470.0 -0.1204197085 0.0763649271 -1.17335e-05 6.18292e-05 0.0002378249 9.87864e-05 -0.7383797191 0.4173411449
260298440.0 -0.1199500011 0.0774804548 -0.0001155409 0.000104778 0.0001013523 0.0002717832 -0.7346880402 0.4259201213
265298410.0 -0.1194786675 0.0787656079 0.0002983209 1.45669e-05 4.56196e-05 2.22377e-05 -0.7301099859 0.4337721856
270298380.0 -0.1190062412 0.0795979146 9.47155e-05 0.0001276293 4.21008e-05 0.0001514621 -0.725176405 0.4406424936
275298350.0 -0.1183208329 0.0810072372 7.1383e-05 0.0002466126 0.000175753 0.0001922476 -0.7210238742 0.4479548337
280298320.0 -0.1175290845 0.0817497513 0.0002366153 3.33726e-05 0.0001265337 3.10743e-05 -0.7157768439 0.4558946333
285298290.0 -0.1172107109 0.0830739183 -0.0001856146 -0.0001265973 8.55781e-05 0.0001140958 -0.7110997195 0.4634829529
290298260.0 -0.1164699284 0.0840214283 0.0001001377 0.000115637 -8.09256e-05 4.55436e-05 -0.706352106 0.4709439456
295298230.0 -0.1158049055 0.0844857884 3.5538e-06 6.62437e-05 -0.0001723628 -2.2336e-06 -0.7014821066 0.4778064832
300298200.0 -0.1152146386 0.0858403811 -4.18377e-05 -3.99941e-05 0.0001866095 0.0002164316 -0.6965445622 0.4856545782
305298170.0 -0.1145046324 0.0866408955 -7.99558e-05 6.77901e-05 1.79469e-05 0.0003379879 -0.6905898213 0.4930862646
310298140.0 -0.1139483285 0.0879335708 -0.0001130411 -0.0001700142 -0.0001044318 1.38848e-05 -0.686092808 0.5001071616
315298110.0 -0.113154593 0.0888304691 0.0003923592 -6.7174e-06 -0.0001272494 -6.1184e-05 -0.6808530099 0.5069870443
320298080.0 -0.1123098818 0.0897515801 0.0002891818 -1.55833e-05 0.000213553 0.0001716107 -0.6748757346 0.5145988389
325298050.0 -0.1118955574 0.0907214869 0.0003117517 9.74449e-05 9.53109e-05 0.000203051 -0.6697261371 0.5215443374
330298020.0 -0.1114983292 0.0914104574 -0.0001544704 -1.2213e-05 0.0001117665 -7.45129e-05 -0.6643924121 0.5286108873
335297990.0 -0.1110542569 0.0924774099 5.84316e-05 3.52886e-05 8.76438e-05 -8.88781e-05 -0.6589745147 0.535270345
340297960.0 -0.1105378491 0.0937579344 0.000367964 1.43769e-05 6.0019e-06 1.6665e-05 -0.6535407111 0.5430180259
345297930.0 -0.1099340415 0.0947098949 0.0001015272 0.0001148403 0.0001012259 -1.50846e-05 -0.6475735095 0.5485428793
350297900.0 -0.1092998761 0.0958492329 0.0001980805 5.58086e-05 -4.39341e-05 0.0001103077 -0.6419220562 0.555627186
355297870.0 -0.1082122867 0.0970671056 0.000189393 0.0001790817 0.0001766134 3.00475e-05 -0.6360639932 0.5621019791
360297840.0 -0.1079771265 0.0981349043 -2.47582e-05 0.0001247915 0.0001239932 -5.37236e-05 -0.6302198052 0.5687663726
365297810.0 -0.1072925075 0.0994263062 -3.13213e-05 4.9741e-05 0.0002288573 5.7421e-05 -0.6238208447 0.5751418211
370297780.0 -0.1064352294 0.1005110742 2.83513e-05 3.1403e-06 -3.24946e-05 0.0001025802 -0.6178027291 0.58169165
375297750.0 -0.1053143798 0.1018489343 6.46751e-05 0.0001368669 0.0001358068 0.0002059351 -0.6118950285 0.5875075028
380297720.0 -0.1048452181 0.1025516528 0.0003339314 2.89329e-05 0.0001629079 0.0002439037 -0.6060230337 0.5937990014
385297690.0 -0.1041140658 0.1039721678 0.0003359114 -7.7794e-06 8.44119e-05 3.55853e-05 -0.5994474953 0.6006807119
390297660.0 -0.1036631283 0.105116514 0.0002354193 -1.29452e-05 7.7023e-05 7.50167e-05 -0.5935459171 0.6064630641
395297630.0 -0.1022188306 0.1057479038 -9.37842e-05 0.0001213645 -2.63909e-05 0.0001513297 -0.5865089362 0.6126353194
400297600.0 -0.1015795923 0.1071012176 0.0003092219 0.0001124668 7.52529e-05 0.0001666623 -0.5811054804 0.6189559966
405297570.0 -0.1008594272 0.108391749 0.0001406414 -0.0001758734 0.0001961032 8.95279e-05 -0.5740362129 0.6240978289
410297540.0 -0.099892172 0.109463311 0.0001256145 -4.1567e-05 0.0003081845 -0.0001041594 -0.5678078838 0.6306784039
415297510.0 -0.0985777599 0.1099893687 -2.71106e-05 4.59557e-05 6.63407e-05 3.5482e-05 -0.5610546736 0.6361741752
420297480.0 -0.098193763 0.1113484664 5.11479e-05 6.3185e-05 0.0001717723 0.0001238479 -0.5548208659 0.6423726644
425297450.0 -0.0971853545 0.1123814189 0.0003413683 0.0001730255 0.0002580262 -4.18539e-05 -0.5480853229 0.647814779
430297420.0 -0.0962735262 0.113613673 6.69013e-05 0.0001846367 0.0003058073 0.000173864 -0.5416392065 0.6527627895
435297390.0 -0.0952823042 0.1146555195 0.0002784654 2.32908e-05 5.23884e-05 0.0001358303 -0.5341602101 0.6583445602
440297360.0 -0.0944806019 0.1154816589 0.0002808742 -0.00022511 0.0002500375 6.34803e-05 -0.5278811579 0.6636837597
445297330.0 -0.0932843811 0.1166638505 0.0001692559 8.53627e-05 0.0001919428 9.10517e-05 -0.5207121825 0.668392129
450297300.0 -0.092211356 0.117589576 0.0002841703 1.5076e-06 9.97714e-05 0.0001231231 -0.5136423702 0.6743259785
455297270.0 -0.0913168857 0.1185340688 -6.29086e-05 2.79935e-05 9.59501e-05 0.000116455 -0.5070032715 0.6784557005
460297240.0 -0.0908332909 0.1195501935 0.0001546237 1.18223e-05 0.0001968412 0.0002126474 -0.5003680098 0.6845916895
465297210.0 -0.0895859669 0.120792455 -3.37052e-05 9.13575e-05 0.0002051581 0.0001745593 -0.4923705452 0.6889476993
470297180.0 -0.088524771 0.121441994 0.0002025696 0.0002942266 9.67562e-05 4.66342e-05 -0.4851978676 0.6948681764
475297150.0 -0.087613246 0.1225605391 0.0003354679 -1.55288e-05 0.0003638587 7.90099e-05 -0.4781305877 0.6988595138
480297120.0 -0.0863916775 0.1236321824 0.0001542034 0.0001843824 -2.16676e-05 8.92246e-05 -0.4711552368 0.7038162709
485297090.0 -0.0855265493 0.1246242282 -7.20874e-05 0.0001986795 0.0002377182 -8.64555e-05 -0.4638468313 0.7083861776
490297060.0 -0.0843807855 0.1258763461 6.48589e-05 9.72793e-05 0.0002463233 0.0001207783 -0.4565343183 0.7128859658
495297030.0 -0.0835330285 0.126735409 8.92737e-05 4.14354e-05 -1.18967e-05 6.74295e-05 -0.4490415026 0.7181609639
500297000.0 -0.0821020697 0.1275337158 -4.39399e-05 0.0001991892 0.0001077861 4.72742e-05 -0.441487346 0.7227341133
505296970.0 -0.080894034 0.1284795482 0.0002663122 0.000137725 2.65932e-05 0.000204911 -0.4338000466 0.7265385587
510296940.0 -0.0798973134 0.1293552652 0.0001447815 9.99142e-05 7.61173e-05 -2.41724e-05 -0.4271887414 0.7309070759
515296910.0 -0.0787520061 0.1302066791 0.0004427225 0.0001106265 -1.28347e-05 -0.0001494395 -0.4188386861 0.7354917645
520296880.0 -0.0777375456 0.1313541247 -2.60945e-05 0.0001237033 0.0001643715 3.70954e-05 -0.4112318101 0.7388421718
525296850.0 -0.0763567443 0.1317085713 1.31185e-05 0.0002568859 0.0002471975 8.95266e-05 -0.404562606 0.7435805134
530296820.0 -0.0752619213 0.1331669965 0.0002935124 0.0001241099 0.0001433611 -4.61596e-05 -0.3969521886 0.7476937215
535296790.0 -0.0741033155 0.1338011928 0.0003024283 0.0003299147 0.0001201248 7.68566e-05 -0.3893465343 0.7515205692
540296760.0 -0.0731374953 0.1347542096 0.0002832421 9.83023e-05 9.9645e-06 7.10844e-05 -0.3816695769 0.7556796898
545296730.0 -0.0718699663 0.1354761182 0.0002093034 0.0001125951 0.0002250685 0.0001360909 -0.3737131293 0.7587658051
550296700.0 -0.0703186549 0.1365885392 9.41716e-05 1.2109e-05 0.000411991 0.0002682435 -0.3659678589 0.7629805644
555296670.0 -0.0693317007 0.1371780603 0.0003146827 -0.0001213846 0.0001998817 -3.91196e-05 -0.358264671 0.7669819921
560296640.0 -0.0680238053 0.1380963897 0.0001386993 8.57515e-05 3.10684e-05 7.62699e-05 -0.3504535265 0.7699758766
565296610.0 -0.066932479 0.1391971599 0.0002747588 0.0002848283 0.0003668269 0.000101604 -0.3427807808 0.7736801515
570296580.0 -0.0657759288 0.1395381058 0.0001799674 2.98988e-05 0.0001247087 0.0001519287 -0.3354770476 0.777520728
575296550.0 -0.0645223492 0.1407626635 0.0003257682 -4.1132e-05 0.0002683658 0.0001152578 -0.3268036007 0.780598038
580296520.0 -0.0632642878 0.1413612175 -1.00011e-05 0.0001397222 0.0002293616 0.0001785609 -0.3187493763 0.7836217874
585296490.0 -0.0622469767 0.1417379321 0.0001012346 0.0002434125 -2.1901e-06 -0.0001182872 -0.3109175693 0.7868489304
590296460.0 -0.0604116565 0.1428379452 0.0002419686 0.0001105453 0.0002361797 0.000123538 -0.3029673335 0.7900451533
595296430.0 -0.0592986467 0.1436105778 0.0001354836 0.0001780497 0.0002543169 -0.0001803935 -0.2955159352 0.7924675639
600296400.0 -0.0584600402 0.144368762 0.0002986673 -0.0002571767 0.0002169506 0.0001423939 -0.2871029639 0.7956773498
605296370.0 -0.0570360885 0.1451022921 0.0003260471 -4.33885e-05 -6.40883e-05 0.000104148 -0.2781135702 0.7983854335
610296340.0 -0.0553682155 0.1458775031 0.0001517859 0.0002378835 0.0001334112 0.0001664627 -0.2707467298 0.8008736815
615296310.0 -0.053767302 0.1466620508 0.0001992052 0.0001221189 0.000335152 0.0001062627 -0.2617653099 0.8032470905
620296280.0 -0.0530679127 0.1469358871 -7.1678e-06 3.9533e-05 0.0003657112 0.0001856876 -0.2546908418 0.806595242
625296250.0 -0.0514569414 0.1478879437 -8.58414e-05 7.55928e-05 0.0001459366 -0.0001207783 -0.2458472473 0.8085418714
630296220.0 -0.0498508144 0.1483189986 0.0002079071 1.03759e-05 0.0002180244 -0.0001020561 -0.2381586733 0.8113175027
635296190.0 -0.0487609102 0.1493342685 9.45084e-05 -0.0001605589 0.000308872 8.44933e-05 -0.2299367812 0.8135398486
640296160.0 -0.0474853164 0.1497495438 0.0001349335 2.56314e-05 0.0001047024 0.0001118131 -0.2214537144 0.8159787953
645296130.0 -0.0462653878 0.150896909 0.0001313538 -0.0001806595 0.0002081336 7.92321e-05 -0.2133674541 0.8180673329
650296100.0 -0.0447590877 0.1511008296 0.0003537942 9.83689e-05 0.0003576865 -2.39279e-05 -0.2050691984 0.8190785468
655296070.0 -0.0434467011 0.1516618361 0.0001150112 -9.08736e-05 0.0001076889 8.32939e-05 -0.1966678449 0.8212274475
660296040.0 -0.0421896174 0.1522958337 0.000143373 -0.0001184091 0.0004660044 -4.68526e-05 -0.1879739623 0.8236254227
665296010.0 -0.0404683266 0.1527396904 0.0002439599 -0.0001216303 0.0002967268 -7.9184e-05 -0.1796059572 0.8260369267
670295980.0 -0.039382588 0.1536727755 0.0002574522 -5.84458e-05 0.0001840397 8.03628e-05 -0.1725792989 0.8277323518
675295950.0 -0.0379724771 0.1540310504 0.0002796662 1.40449e-05 0.0002959049 -0.0002341693 -0.1641244731 0.829012837
680295920.0 -0.0364232508 0.1548057648 0.0002345952 -5.9001e-05 7.37567e-05 0.0001823933 -0.1553077263 0.8314377126
685295890.0 -0.0349373699 0.1554612342 0.0002247037 0.0002024546 0.0003148348 9.8833e-05 -0.1466383215 0.8316597636
690295860.0 -0.0334268808 0.155956536 9.40558e-05 8.19095e-05 0.0003852029 -0.0001029956 -0.1387229218 0.8340260112
695295830.0 -0.032298729 0.156491046 0.0002954216 0.0002049922 5.73903e-05 -2.37428e-05 -0.1300087136 0.8347700295
700295800.0 -0.0308791523 0.156954554 0.0003181596 -3.82156e-05 0.0001687238 -7.25502e-05 -0.1229025412 0.8362286092
705295770.0 -0.0294253332 0.1574834297 0.0002247185 -6.67594e-05 0.0002792628 -5.88677e-05 -0.1143830075 0.8383636174
710295740.0 -0.0277008998 0.1578457228 0.0006109792 -2.69947e-05 0.0002505034 0.0001460478 -0.1053626779 0.838544061
715295710.0 -0.0263524184 0.1578191264 0.0002763895 -2.9314e-06 0.0003672267 -2.5095e-06 -0.0969704382 0.8393399007
720295680.0 -0.0249093299 0.1586302359 0.0003765018 -0.0002045448 0.0002691027 5.82434e-05 -0.0883287429 0.8408215034
725295650.0 -0.0234491768 0.1592523662 0.0001861957 7.2121e-05 0.0001994293 -0.0001239339 -0.0807197364 0.8414739029
730295620.0 -0.0219783128 0.1597743795 0.0002721417 -8.86565e-05 0.0002972393 -2.68789e-05 -0.0724520151 0.8418013243
735295590.0 -0.0204419227 0.1600446524 0.0002748583 -5.66069e-05 0.0004438683 -4.4426e-05 -0.0631774276 0.8426082986
740295560.0 -0.0190669447 0.1606349876 4.63386e-05 0.0001724576 0.0004432773 -8.85761e-05 -0.0548848243 0.8434014207
745295530.0 -0.0177046223 0.1608720466 0.000107166 -0.0001891171 0.0001357465 -0.0001100479 -0.0463588861 0.8432925884
750295500.0 -0.0160065416 0.1611566005 0.0001317781 3.6956e-05 0.0002034869 -1.79113e-05 -0.0381152016 0.843800453
755295470.0 -0.0145439006 0.1616486013 0.0001660822 0.0001287866 0.0003403334 7.59888e-05 -0.0296016031 0.8436867385
760295440.0 -0.0132625902 0.1616180406 9.10438e-05 -0.0001717162 0.0003712002 9.50662e-05 -0.0211805092 0.8441160572
765295410.0 -0.0114285455 0.1621792225 0.0001215541 -0.0001098797 0.0004924732 5.96569e-05 -0.0126828213 0.8446817207
770295380.0 -0.0101448435 0.1624673207 0.0002114933 -5.88684e-05 0.0002614722 6.69433e-05 -0.0041896023 0.8448006252
775295350.0 -0.0087345641 0.1626232643 0.0002978012 -1.8572e-05 0.0005472012 4.2234e-05 0.0035498012 0.8443667496
780295320.0 -0.0071664818 0.1629926527 0.0003291462 -0.0001699548 0.0004019743 -0.000200904 0.0125240156 0.8445128539
785295290.0 -0.0056452066 0.162936885 0.0001687614 2.34954e-05 0.0003398006 -2.17503e-05 0.0209622188 0.8443249352
790295260.0 -0.003843792 0.1636789947 0.0002934077 0.0001471182 0.0001785578 -0.000103486 0.0298639121 0.8441081998
795295230.0 -0.0024385448 0.163892326 0.0002347598 -0.0001115961 0.0003934513 4.48692e-05 0.0383001846 0.8436153405
800295200.0 -0.000994194 0.164135741 0.0001042694 -1.63515e-05 0.0001856745 -0.0001172663 0.0464710703 0.843227184
805295170.0 0.0008756385 0.1639177426 0.0004171252 -0.0001391658 0.0003927713 -0.000115606 0.0543166642 0.8428496259
810295140.0 0.0023205812 0.1642595919 0.0005639825 -0.0001018644 0.0002567912 -0.0001100034 0.0637075447 0.8423636918
815295110.0 0.0034431806 0.1642279264 0.0001545076 -1.37848e-05 0.0002431178 -0.0001565645 0.0716891635 0.841537776
820295080.0 0.0050364575 0.1649250648 0.0001672712 -0.0001479581 0.0003772669 9.22217e-05 0.0804146402 0.8410042548
825295050.0 0.00697854 0.1644727556 7.79047e-05 -1.00928e-05 0.0002642611 2.19945e-05 0.0877807722 0.8402492221
830295020.0 0.0085057457 0.1649849074 0.0003504416 -6.04469e-05 0.0003322234 -9.95595e-05 0.0972617968 0.838935591
835294990.0 0.0098563771 0.1653021096 0.0003353452 -1.2534e-05 0.0002547842 1.08816e-05 0.1044615735 0.8387268915
840294960.0 0.0113811088 0.1654168284 0.0001569881 -8.69629e-05 0.0003304341 -8.5907e-05 0.1133155414 0.8369089767
845294930.0 0.013027415 0.1654277062 0.0004244698 -0.0001235631 0.0002462999 -0.0002221311 0.1212354373 0.8353168067
850294900.0 0.0146262118 0.1656898332 0.0003032684 -0.0001378666 0.0003600816 -0.0001320545 0.1295695401 0.8343018744
