!Created with skrf (http://scikit-rf.org).
# Hz S RI R 50.0 
!freq ReS11 ImS11 ReS21 ImS21 ReS12 ImS12 ReS22 ImS22
300000.0 -0.2391940202 -0.0999687342 0.4668343404 0.0662794367 0.4693161318 0.0711737136 -0.2356247813 -0.1122244633
5299970.0 -0.2436606761 0.007256588 0.4736649978 0.0051485571 0.4735109291 0.0056730567 -0.2439543028 0.0058946872
10299940.0 -0.2402069617 0.0200174219 0.4759259254 0.0060552688 0.4758479809 0.0066806878 -0.2410140976 0.018506689
15299910.0 -0.2361033785 0.0295233217 0.4795264216 0.0078807089 0.479066138 0.0078839309 -0.2365966802 0.0274405576
20299880.0 -0.2304668114 0.0372463123 0.4841706589 0.0086075368 0.4841905359 0.0085367859 -0.2319734745 0.0356067686
25299850.0 -0.224898734 0.0435861281 0.4892857815 0.0072263146 0.4894060949 0.0072078639 -0.2267788698 0.0417107841
30299820.0 -0.2188915663 0.0484764631 0.4951079393 0.0056819655 0.4946851352 0.0054555135 -0.2216376875 0.0469131714
35299790.0 -0.2128755008 0.052670776 0.5000656286 0.0019873731 0.500317849 0.0023110721 -0.2159298417 0.0512840036
40299760.0 -0.2075505666 0.0557091363 0.5054898245 -0.001433425 0.5055368383 -0.0019042622 -0.2112624319 0.0546093426
45299730.0 -0.2024609816 0.0587267776 0.5106733927 -0.0066932451 0.5103439497 -0.0067721613 -0.2065593801 0.0575209587
50299700.0 -0.1976946999 0.060272023 0.51400186 -0.0120527228 0.5146868224 -0.0120432531 -0.2020409418 0.0597935107
55299670.0 -0.1935252277 0.0617389224 0.5178041526 -0.0180834053 0.5178409397 -0.018059133 -0.1981561509 0.0612304293
60299640.0 -0.1894848553 0.0624823251 0.5211725111 -0.0244588787 0.5215264531 -0.0241650483 -0.1944743433 0.0630530112
65299610.0 -0.1860130418 0.0636233118 0.5243993255 -0.030231559 0.5243778017 -0.0305774226 -0.1909142642 0.0645993746
70299580.0 -0.1826497234 0.0644694653 0.5268230875 -0.0370941135 0.5271234164 -0.0371816687 -0.1881871131 0.0658408926
75299550.0 -0.1797903284 0.0654277394 0.5284867226 -0.0437745879 0.5288244841 -0.0442004716 -0.1850284099 0.0670931524
80299520.0 -0.17743254 0.0656818279 0.5310112956 -0.0509974814 0.530847691 -0.0509024852 -0.1825104822 0.0674753404
85299490.0 -0.1745109242 0.0659599448 0.532108631 -0.0580564356 0.5319589035 -0.0580505861 -0.1801000313 0.0681600087
90299460.0 -0.1726183737 0.0664969141 0.53307925 -0.0644760513 0.5333224097 -0.0648324077 -0.17765589 0.0692630022
95299430.0 -0.170550397 0.0670841487 0.5340541985 -0.0719762716 0.5340346975 -0.0716114806 -0.1758863101 0.0701089797
100299400.0 -0.1688606822 0.0678204488 0.5340340695 -0.078876034 0.5343056795 -0.0787724248 -0.174404268 0.0708723942
105299370.0 -0.1668680914 0.0681078736 0.5342859194 -0.0853850521 0.5345399877 -0.0858367805 -0.1719741769 0.0720432205
110299340.0 -0.1655638775 0.068548309 0.5348680308 -0.0919180624 0.5346815111 -0.0927615834 -0.1705500823 0.0725695725
115299310.0 -0.1640538809 0.068798906 0.534835875 -0.0987584601 0.535137279 -0.0992349615 -0.1691434429 0.0731820873
120299280.0 -0.1629045829 0.0694724391 0.5346856898 -0.1060354179 0.5346890186 -0.1061261515 -0.1679281341 0.0740976199
125299250.0 -0.161963864 0.0700598242 0.5343475435 -0.1125512611 0.5344039962 -0.1129913987 -0.1661633259 0.0748493409
130299220.0 -0.160449978 0.0704378728 0.5337215012 -0.1191394284 0.5336221696 -0.1197690773 -0.1652109537 0.0759217033
135299190.0 -0.1592889813 0.0710717383 0.5331039615 -0.1254903304 0.5328875984 -0.1261594742 -0.1643966923 0.0769997732
140299160.0 -0.1586100537 0.0721985468 0.5321509738 -0.1327158801 0.5322761847 -0.1327390368 -0.1627654541 0.077735119
145299130.0 -0.157766717 0.0726783997 0.531606139 -0.1393178171 0.5310983708 -0.1391666795 -0.1622792078 0.0788214276
150299100.0 -0.1565264295 0.0735568122 0.5304958428 -0.1459417087 0.5300168017 -0.1456920104 -0.1609317321 0.0797833128
155299070.0 -0.1557484326 0.0746870123 0.5289818978 -0.1528137245 0.5289553947 -0.1526286556 -0.1601740932 0.0809414412
160299040.0 -0.1548447731 0.0753030885 0.5271497911 -0.1586685857 0.5277845317 -0.1588080058 -0.1588630531 0.0823536714
165299010.0 -0.1542861701 0.0761785658 0.5262129098 -0.1655775651 0.5266406961 -0.1655119634 -0.1581603122 0.0833288607
170298980.0 -0.1535553482 0.0774181461 0.5243397436 -0.1718303479 0.5247038461 -0.1718801881 -0.1567353535 0.0845606358
175298950.0 -0.1528459346 0.0782902907 0.5236494577 -0.1779557575 0.5235006006 -0.177623594 -0.1558935608 0.0857564444
180298920.0 -0.1518593605 0.0792109881 0.5213737764 -0.1845188439 0.5214561377 -0.1842823925 -0.154829269 0.0871693814
185298890.0 -0.1509913313 0.0800167453 0.5190126646 -0.1904255635 0.5196275853 -0.190428129 -0.1544795519 0.0881365843
190298860.0 -0.1502661985 0.0813290482 0.5172709734 -0.1968208667 0.5178515734 -0.196976445 -0.1527191872 0.0894846488
195298830.0 -0.1495964313 0.0821933354 0.5154740234 -0.2025228728 0.5158701096 -0.2030687744 -0.1520298482 0.090485271
200298800.0 -0.1487832451 0.0835755199 0.513649028 -0.20864572 0.5136073777 -0.2085615417 -0.1509466621 0.09204258
205298770.0 -0.1482542998 0.084430519 0.5116089764 -0.2148747252 0.5115346112 -0.2150799124 -0.1500107715 0.0931623545
210298740.0 -0.1475043759 0.0853009865 0.5092736796 -0.220916234 0.5092812469 -0.2212694955 -0.1488215883 0.0949209821
215298710.0 -0.1468268595 0.0870406907 0.5067227485 -0.2270196934 0.5067066426 -0.2269415025 -0.1483454758 0.0958798522
220298680.0 -0.1459890212 0.0878898205 0.5044517353 -0.233103571 0.5045889653 -0.2327715005 -0.1470341988 0.0976593668
225298650.0 -0.1448336086 0.0892879887 0.5016689945 -0.2384655057 0.5018591777 -0.2385735506 -0.1461090655 0.0990126576
230298620.0 -0.1443393632 0.0905130264 0.4995860552 -0.2442346846 0.4996324079 -0.2442912844 -0.1451328266 0.1004186862
235298590.0 -0.1435457282 0.0914572027 0.4970171897 -0.249894141 0.4969877509 -0.2505111609 -0.1440151103 0.1015025582
240298560.0 -0.1430600983 0.0927933117 0.4940009643 -0.2554455888 0.4937885781 -0.255317904 -0.1431288778 0.1032175384
245298530.0 -0.142102878 0.0941966242 0.490920796 -0.2618594756 0.4912054562 -0.2617758389 -0.1422346106 0.1049048401
250298500.0 -0.1412952923 0.0950875237 0.4883714854 -0.2667658235 0.4885861648 -0.2667550838 -0.1408437021 0.1059998811
255298470.0 -0.1405600079 0.0967665611 0.4850671235 -0.2729269371 0.4857489894 -0.272767286 -0.1393996736 0.1072637694
260298440.0 -0.1397678965 0.0980266794 0.4828138137 -0.2778942095 0.4828284765 -0.2785674507 -0.1379476846 0.1088936907
265298410.0 -0.1388444741 0.0994598157 0.479536347 -0.2842814042 0.479408242 -0.2840327767 -0.137291349 0.1099280598
270298380.0 -0.1380071957 0.1005086049 0.4761263037 -0.2891347358 0.4766157091 -0.2889664071 -0.1359217932 0.1120334918
275298350.0 -0.1371321995 0.1019412362 0.473313165 -0.2952604564 0.4733547174 -0.2950791794 -0.1346223173 0.1130304677
280298320.0 -0.1361889972 0.1033488811 0.4698924092 -0.2995852982 0.4700680334 -0.2998955179 -0.1333299101 0.114877191
285298290.0 -0.1351371659 0.1044978831 0.4667516222 -0.305226542 0.4663521263 -0.3054227393 -0.1323577142 0.1162136822
290298260.0 -0.1344459678 0.1057874007 0.4638213027 -0.3108315421 0.4633606256 -0.3107177469 -0.1309178947 0.1180002435
295298230.0 -0.1334118703 0.1071365426 0.4606438613 -0.3161773657 0.4600716753 -0.3161842073 -0.1294740138 0.1191538032
300298200.0 -0.1319452131 0.1083189294 0.4565064105 -0.32129938 0.4568637763 -0.3215094267 -0.1284562323 0.1208162391
305298170.0 -0.1310265235 0.1095914405 0.4535615421 -0.3269051207 0.4537537105 -0.3265519146 -0.1266327551 0.1223743987
310298140.0 -0.1296722272 0.1104420216 0.4498441702 -0.33195446 0.4495807067 -0.33239172 -0.125517518 0.1237489302
315298110.0 -0.1292062385 0.1118052934 0.4459635724 -0.3370695663 0.4462726513 -0.3371872895 -0.1237042061 0.1249902806
320298080.0 -0.1279490605 0.1132247396 0.4421562109 -0.3419519278 0.4425695941 -0.3422888086 -0.1226572036 0.1262013211
325298050.0 -0.1272070513 0.1140367803 0.4386266002 -0.3474154377 0.4388483533 -0.3475689898 -0.1214572956 0.1276569043
330298020.0 -0.1260223944 0.1154107251 0.4337188749 -0.3524941985 0.4341216038 -0.3523844945 -0.1203533654 0.1289098905
335297990.0 -0.125227606 0.1164728201 0.43032101 -0.3574124548 0.4302737729 -0.3571141044 -0.1191156958 0.1301510161
340297960.0 -0.1249087827 0.1184439634 0.4262955188 -0.3618919344 0.4265985624 -0.3617574059 -0.118039662 0.1317724632
345297930.0 -0.1238847606 0.1195286164 0.4225062116 -0.3663057019 0.4220452536 -0.3663767387 -0.1159384644 0.1331588104
350297900.0 -0.122114536 0.120738599 0.4179799978 -0.3707832775 0.4180270588 -0.3711661826 -0.1149404183 0.1346271659
355297870.0 -0.1216944665 0.122014667 0.4135382796 -0.3757143836 0.4137373327 -0.3757325391 -0.1135247131 0.1363780078
360297840.0 -0.1201219557 0.1234166785 0.4096577083 -0.3806547288 0.4096510068 -0.3806951374 -0.1119976736 0.1381569124
365297810.0 -0.1190773177 0.1244136286 0.4051240046 -0.3846894224 0.4057014592 -0.3848928407 -0.1108630399 0.1394501556
370297780.0 -0.1179213373 0.1256993169 0.4009163586 -0.3890591311 0.4012790618 -0.389498313 -0.1090845894 0.1408675574
375297750.0 -0.1168678051 0.1276408657 0.3971649545 -0.3939307344 0.3970411316 -0.3940240284 -0.1076322556 0.1423687661
380297720.0 -0.1154220074 0.1283916671 0.3922880036 -0.3980589772 0.3924666271 -0.3981160818 -0.105819434 0.1438754952
385297690.0 -0.114464978 0.1296333801 0.3878173746 -0.4018834021 0.38787281 -0.4023842791 -0.1046184177 0.1453759395
390297660.0 -0.1131378852 0.1307467341 0.3832646972 -0.4065947872 0.3834484022 -0.4066990108 -0.1028621997 0.1461631192
395297630.0 -0.1116641361 0.1321835724 0.3793442567 -0.4104459672 0.379118355 -0.4106559435 -0.1015474217 0.1479495102
400297600.0 -0.1108946856 0.1335420183 0.3744358005 -0.4151722711 0.374819962 -0.4150782873 -0.1005695136 0.1489207736
405297570.0 -0.1091661055 0.1346638764 0.3700547655 -0.4192223901 0.3699715664 -0.4190656697 -0.0983776267 0.1505854401
410297540.0 -0.1078273788 0.1359797513 0.364841993 -0.4230249976 0.3653647638 -0.4229712604 -0.0968249556 0.1517046029
415297510.0 -0.1068628463 0.1374709997 0.3607721407 -0.4270365791 0.360852792 -0.4267319292 -0.0952787213 0.1533569117
420297480.0 -0.1051840624 0.1381263171 0.3555637247 -0.4313458211 0.3557872723 -0.4312575457 -0.0931555624 0.154217745
425297450.0 -0.1036303651 0.139109088 0.3512184615 -0.4345649927 0.3516422681 -0.434908864 -0.0918539734 0.1556946699
430297420.0 -0.1028227113 0.1405028332 0.3465936402 -0.4386951225 0.3466309784 -0.4388240642 -0.0902489949 0.1567361932
435297390.0 -0.1012843466 0.1415716555 0.3421388686 -0.442121672 0.3418424184 -0.4422681822 -0.0887811919 0.1582033203
440297360.0 -0.0998257636 0.1424273816 0.3364673429 -0.4463628293 0.3364813012 -0.4461414225 -0.0868990074 0.1590200956
445297330.0 -0.098327487 0.1437763062 0.3317440103 -0.4500378345 0.3320837512 -0.4498223155 -0.0851752416 0.1600743523
450297300.0 -0.0968188211 0.1446932024 0.326526907 -0.4529211426 0.3270402459 -0.4533959406 -0.0834981415 0.161418728
455297270.0 -0.0958659518 0.1459171953 0.3222429413 -0.4568040046 0.3219623945 -0.4568350645 -0.0812536079 0.1624719417
460297240.0 -0.0943617485 0.1469704314 0.3164478274 -0.4603097478 0.3165248638 -0.4604511081 -0.0799600492 0.1640280614
465297210.0 -0.0925406913 0.1476256856 0.3114637918 -0.4635939464 0.3120566492 -0.4635727679 -0.0784316916 0.1647440135
470297180.0 -0.0914689433 0.148886187 0.3068989107 -0.4673516289 0.3070162393 -0.4667199899 -0.0769140702 0.1657180621
475297150.0 -0.0900992248 0.1496098451 0.3013534307 -0.4701359458 0.301624688 -0.4700139882 -0.074737827 0.1668194834
480297120.0 -0.0884508156 0.1504934396 0.2965078133 -0.4732388351 0.2965507279 -0.4729466576 -0.0726179751 0.1681123972
485297090.0 -0.0868827589 0.1515420806 0.2916033996 -0.4767331978 0.2911158827 -0.4763478462 -0.0710123314 0.1687366224
490297060.0 -0.0854725073 0.1524006553 0.2860597459 -0.4798103721 0.2865470585 -0.4798484194 -0.0694151079 0.1696956391
495297030.0 -0.0843341043 0.1538866782 0.2809881699 -0.4832558063 0.2806357834 -0.483232488 -0.0674829452 0.1707409101
500297000.0 -0.082339736 0.1543511313 0.275160024 -0.4857823118 0.2756431096 -0.4860534703 -0.0657751105 0.1715858614
505296970.0 -0.0809757251 0.1554387595 0.2694958729 -0.4884722024 0.2698877181 -0.4888218897 -0.0642927531 0.1728902412
510296940.0 -0.0795779204 0.1564596821 0.265019063 -0.4918676716 0.2644759145 -0.4917463131 -0.0618222253 0.1740783801
515296910.0 -0.0782882461 0.1572313137 0.2592514229 -0.4943083545 0.2597823567 -0.4943796753 -0.0602134232 0.1745707029
520296880.0 -0.0764601884 0.1579958158 0.2542239706 -0.497308308 0.2539835978 -0.4969926012 -0.0582653193 0.1754770754
525296850.0 -0.0750015517 0.1587511643 0.2486040841 -0.5004172625 0.2486701584 -0.5003688598 -0.0561217475 0.1765183903
530296820.0 -0.0735106042 0.1598537137 0.243577991 -0.501986235 0.2430794248 -0.5027646477 -0.0547486117 0.1768219821
535296790.0 -0.0719432376 0.1606604365 0.2375896657 -0.5050590845 0.2378880036 -0.5048083619 -0.0526576117 0.1777116591
540296760.0 -0.0704250937 0.1611143527 0.2324197701 -0.5079591179 0.2317872256 -0.5075741054 -0.0509929507 0.1784517863
545296730.0 -0.0688149857 0.1620870776 0.2264656264 -0.5098148535 0.2265839607 -0.5102977262 -0.0488954205 0.1789969112
550296700.0 -0.0676492171 0.1628911292 0.2212295572 -0.5123843834 0.2216546131 -0.5127710846 -0.0471459503 0.1800261733
555296670.0 -0.0653760321 0.1637312191 0.2156514489 -0.5153048014 0.2158716309 -0.5146884962 -0.0450870219 0.1808188826
560296640.0 -0.0641186941 0.1644005132 0.2101841773 -0.5171168447 0.210096901 -0.5169092763 -0.0430358556 0.1813420585
565296610.0 -0.0627704297 0.1649392986 0.2046574678 -0.5192280383 0.2039567038 -0.5191110362 -0.0415485007 0.181584396
570296580.0 -0.060560295 0.1658811878 0.1987515232 -0.5213374384 0.1991914391 -0.5219134927 -0.0393668916 0.1829780604
575296550.0 -0.0593712199 0.1668233863 0.1933287853 -0.5234190928 0.1933870791 -0.5233444121 -0.0370896146 0.1831406401
580296520.0 -0.0575732554 0.1675148862 0.187137586 -0.5259808518 0.1874925158 -0.5259988931 -0.0352253302 0.183664964
585296490.0 -0.0560607081 0.1677172876 0.1822472358 -0.5275690261 0.18173626 -0.5277259234 -0.0334535002 0.1839242416
590296460.0 -0.0546446306 0.1682329027 0.1758558963 -0.5294590327 0.1756990616 -0.5295067376 -0.03112839 0.1848622039
595296430.0 -0.0533268519 0.1695128912 0.1707400809 -0.5313054364 0.1699129572 -0.5315064171 -0.0293412789 0.1848747676
600296400.0 -0.0512398573 0.1700268473 0.1643757175 -0.533372064 0.1649756221 -0.5332298359 -0.027378442 0.1857056922
605296370.0 -0.0494217566 0.1709571436 0.1585331306 -0.535064789 0.1587475559 -0.5347240882 -0.0252639869 0.1863032653
610296340.0 -0.0481617078 0.1711019881 0.1533841728 -0.5366590153 0.1532155583 -0.5369853314 -0.0233493513 0.1872672504
615296310.0 -0.0461755854 0.1720988705 0.1470577509 -0.5381271609 0.1469341161 -0.5380838461 -0.0212598456 0.1868597661
620296280.0 -0.0444930955 0.1722873462 0.1412043071 -0.5395340709 0.1415653369 -0.5399651063 -0.019251685 0.1872711111
625296250.0 -0.042745118 0.1730203416 0.1348975211 -0.5410569854 0.1353191806 -0.5415155667 -0.0170640999 0.1882019222
630296220.0 -0.0408791872 0.1737057797 0.1293067186 -0.5427690309 0.1301996675 -0.5422888765 -0.0153901282 0.1884122438
635296190.0 -0.0394656116 0.1743476529 0.1233903042 -0.5435196897 0.1233256577 -0.5435125171 -0.0130075059 0.1882812664
640296160.0 -0.037636879 0.1743187431 0.1175871247 -0.5453035428 0.1175272997 -0.5450721731 -0.0107579606 0.1885785577
645296130.0 -0.036352238 0.1754160407 0.1117993045 -0.5465086905 0.1120252255 -0.5462441486 -0.0095311412 0.1888614155
650296100.0 -0.0345303472 0.1764411722 0.1064834258 -0.5474180491 0.1061402487 -0.5471651368 -0.0070230795 0.1893448953
655296070.0 -0.0330280233 0.1762696409 0.1001352651 -0.5483632132 0.1002911072 -0.5484092722 -0.0048022425 0.1897947611
660296040.0 -0.0313611073 0.177144321 0.0942516707 -0.5493786004 0.0942383171 -0.5493697076 -0.0028819919 0.1895698228
665296010.0 -0.0293289516 0.1771740297 0.0882369953 -0.5503135741 0.0888541478 -0.5502199374 -0.0012964081 0.189989622
670295980.0 -0.0273762718 0.1777198674 0.0823908194 -0.5514244825 0.0826935987 -0.5510185708 0.0007047334 0.1899888525
675295950.0 -0.025545416 0.1782485587 0.0760512153 -0.5521118319 0.0767372052 -0.552683035 0.0029366897 0.1902674972
680295920.0 -0.0243535225 0.1787162398 0.0701103905 -0.5529048893 0.0700028847 -0.5532700448 0.0053774225 0.1902184441
685295890.0 -0.0225082408 0.179010228 0.0648054198 -0.5533877465 0.0642294411 -0.5538461937 0.0072979786 0.1905605628
690295860.0 -0.0203092881 0.1793737888 0.0583997186 -0.5538343307 0.0578204784 -0.5539771379 0.0098448477 0.1905233536
695295830.0 -0.0183810681 0.1794291611 0.0516950852 -0.5548955863 0.0520359566 -0.5551363119 0.0112279993 0.1907346845
700295800.0 -0.0167335638 0.1799760045 0.0462198031 -0.5551996476 0.0464109673 -0.5551230656 0.0134089101 0.1901675408
705295770.0 -0.0149253762 0.1805295248 0.0402051653 -0.5558452111 0.0402328453 -0.5557532557 0.0151803482 0.1903105262
710295740.0 -0.0133599844 0.1807526694 0.0344434618 -0.5562012545 0.034276152 -0.555889689 0.0166466369 0.1906710301
715295710.0 -0.0117892625 0.1808355468 0.0282452168 -0.5566126847 0.0285467794 -0.5563631076 0.0193774028 0.1903984189
720295680.0 -0.0101354514 0.1809646045 0.0220129424 -0.5564370132 0.0225428652 -0.5567689956 0.0219210576 0.1904498698
725295650.0 -0.0078932407 0.1813082451 0.0159483459 -0.5566665289 0.0162869371 -0.5570603224 0.0235900419 0.1903494219
730295620.0 -0.0064719057 0.1814513096 0.0105147228 -0.5567704277 0.0104034705 -0.5567527965 0.0260284271 0.1898405855
735295590.0 -0.0041841724 0.181581772 0.0043261823 -0.5568430979 0.0046415209 -0.5568551811 0.0280562923 0.1898153879
740295560.0 -0.0027012781 0.1822483183 -0.0017019059 -0.5564454046 -0.0018718974 -0.5568928136 0.030249605 0.1895518688
745295530.0 -0.0008190192 0.1817916545 -0.007638714 -0.5566162975 -0.0074861796 -0.5571750699 0.0318521255 0.1896866507
750295500.0 0.0007947322 0.1820027227 -0.0133638621 -0.5560124194 -0.0136803785 -0.5566857936 0.0341508589 0.1888113676
755295470.0 0.0033778562 0.1826347338 -0.0197941983 -0.5563734997 -0.0193887124 -0.5566592095 0.035934575 0.1890539932
760295440.0 0.0046093877 0.1825323384 -0.0257576622 -0.556034062 -0.0255681739 -0.5560883794 0.0380316644 0.1884962821
765295410.0 0.0061899533 0.1826043216 -0.0312624679 -0.5558562785 -0.0314889257 -0.556078922 0.0406530134 0.1890226235
770295380.0 0.0083173572 0.1828843578 -0.0377785956 -0.5552033019 -0.0374271311 -0.5558798571 0.0426924449 0.1885492588
775295350.0 0.0100122633 0.183228285 -0.0436662336 -0.554476382 -0.0435231028 -0.5551993962 0.043800993 0.1876353921
780295320.0 0.0119384188 0.1827400639 -0.0494199945 -0.5540708183 -0.0493029976 -0.5542349615 0.0464566512 0.1879092007
785295290.0 0.0135614195 0.1833772665 -0.0556792651 -0.553440182 -0.0554674469 -0.5539621951 0.0480637823 0.1872163634
790295260.0 0.0152621635 0.1831789183 -0.0611586575 -0.5532123636 -0.0612757752 -0.5536284877 0.0506139021 0.1866348885
795295230.0 0.017029172 0.1830569164 -0.0668579042 -0.5517878457 -0.0673038084 -0.5524271443 0.0524396543 0.1870387016
800295200.0 0.0190801663 0.1832932555 -0.0736339891 -0.5518011141 -0.0739536911 -0.5520963912 0.0547781559 0.1860800557
805295170.0 0.0207267313 0.1831661493 -0.0793163789 -0.5506703283 -0.0794754048 -0.5506526318 0.0561864237 0.1853881566
810295140.0 0.022430643 0.1831226729 -0.0848977402 -0.5499916678 -0.0852417439 -0.5505317516 0.0586412554 0.1853520968
815295110.0 0.0244227429 0.1831832745 -0.091267811 -0.5488826779 -0.0910419152 -0.5489850053 0.0605655562 0.1844130018
820295080.0 0.0261634218 0.1825552006 -0.0970584993 -0.5477535889 -0.0967994144 -0.5480838617 0.0625623178 0.1842330642
825295050.0 0.0281476577 0.182741785 -0.1029361089 -0.5467757813 -0.1028000091 -0.5468710677 0.0647033249 0.1836982213
830295020.0 0.0297636456 0.1826720273 -0.1088771603 -0.5452670241 -0.1090717777 -0.5456635055 0.0665329667 0.1830159623
