!Created with skrf (http://scikit-rf.org).
# Hz S RI R 50.0 
!freq ReS11 ImS11 ReS21 ImS21 ReS12 ImS12 ReS22 ImS22
300000.0 -0.0973669886 -0.0793651337 0.6229570798 0.0754950628 0.6254867562 0.0789576929 -0.0967955421 -0.0885710017
5299970.0 -0.1001266391 0.0131044986 0.6306945173 0.0101720696 0.6304830822 0.010950389 -0.1020689096 0.0121341234
10299940.0 -0.0954626378 0.0299432551 0.6341969669 0.0150881777 0.6347269153 0.0159214258 -0.0972418032 0.0290622217
15299910.0 -0.0885314031 0.0431529035 0.6406105757 0.0205516391 0.6405523279 0.0209135806 -0.0899142879 0.0422009849
20299880.0 -0.0795281697 0.0543007965 0.6488839652 0.0243782486 0.6490615378 0.0243173552 -0.0818495418 0.0534710228
25299850.0 -0.0696212838 0.0629246223 0.6579714605 0.0247832719 0.6582910918 0.025426654 -0.0726743961 0.0618207155
30299820.0 -0.0595651639 0.0692565251 0.6681523504 0.024276621 0.667491469 0.0243338363 -0.0625520509 0.0687492932
35299790.0 -0.0494275429 0.0744542772 0.677327745 0.0213100867 0.6773642304 0.0217520269 -0.0524758195 0.0734404639
40299760.0 -0.039752049 0.0770265145 0.6864994168 0.0173509559 0.686626098 0.0178107649 -0.0435938388 0.0769758467
45299730.0 -0.0304076175 0.0794527841 0.6958991691 0.011843958 0.6956712909 0.0120098699 -0.0339011292 0.0789649678
50299700.0 -0.0216416483 0.079782203 0.7033191644 0.0046906784 0.7036161099 0.0047309895 -0.0254003916 0.0800257071
55299670.0 -0.0142542323 0.0799461315 0.7100124995 -0.0029540604 0.7110058826 -0.0028041346 -0.0177510656 0.0795005611
60299640.0 -0.0067798923 0.0790396294 0.7168492858 -0.0113452507 0.7175993664 -0.0112413718 -0.0103112182 0.0796405833
65299610.0 -0.0002921034 0.078170124 0.7237737689 -0.0199464506 0.7241175358 -0.0200268943 -0.0035560469 0.0787178304
70299580.0 0.0060890791 0.0758308306 0.7287214794 -0.0294349363 0.7287019051 -0.0291070499 0.0023083552 0.0773114568
75299550.0 0.0114310021 0.0741820238 0.7331161852 -0.0387286024 0.7330034667 -0.0393356847 0.008107204 0.075518573
80299520.0 0.0160262028 0.0720618325 0.7378035768 -0.049074939 0.7374630859 -0.0488139019 0.0131041446 0.0728194822
85299490.0 0.0209634991 0.0694180853 0.7404905421 -0.0587640181 0.7406191803 -0.0587705964 0.0175479899 0.070849128
90299460.0 0.0246333318 0.0674040552 0.7435370721 -0.0689828564 0.7440543473 -0.0690500962 0.0223080977 0.0689090176
95299430.0 0.0282724573 0.0652419975 0.7462932453 -0.0794075252 0.7458341759 -0.0790188771 0.0255141879 0.0661230771
100299400.0 0.0313846733 0.0626138083 0.7474549396 -0.0894559651 0.7475632051 -0.0890864375 0.0284266379 0.063882984
105299370.0 0.0345081485 0.0600272813 0.748761911 -0.0991756441 0.7489893456 -0.0992518954 0.0319269113 0.0618702614
110299340.0 0.0371237852 0.0578443079 0.7497924003 -0.1089653795 0.750146069 -0.1098843162 0.0348527079 0.0593866269
115299310.0 0.0397618637 0.0549201217 0.7505968498 -0.119007532 0.7511331954 -0.1191532375 0.0372089036 0.0562020611
120299280.0 0.0412669865 0.0526972483 0.7519158924 -0.129577423 0.751563304 -0.1298424385 0.0391694397 0.0542608739
125299250.0 0.0432033935 0.0504086364 0.7518571151 -0.1391990059 0.7518373136 -0.1394507388 0.0413390241 0.0511725837
130299220.0 0.0451205004 0.0478386424 0.7511507606 -0.149102804 0.7516136402 -0.1494253889 0.0431114601 0.0495810738
135299190.0 0.0465487752 0.0452199019 0.7514173174 -0.158933654 0.7503799007 -0.1592991462 0.0446366022 0.0474535382
140299160.0 0.0476450749 0.0440819429 0.7509856909 -0.1686199242 0.7510789534 -0.168899263 0.0463269594 0.0454249759
145299130.0 0.0491736728 0.0419488167 0.7504673449 -0.1787634125 0.7497679104 -0.1783438945 0.047355031 0.0426992434
150299100.0 0.050549686 0.0398648291 0.7492897329 -0.1882709276 0.7489832271 -0.1882877056 0.0487210834 0.040905261
155299070.0 0.0512344087 0.038414496 0.7474934743 -0.1979285622 0.747638015 -0.1980254453 0.0495302776 0.0387208157
160299040.0 0.0523287251 0.0357347282 0.7458864136 -0.2068116794 0.746256963 -0.2074506837 0.0506669399 0.0371819176
165299010.0 0.0527785856 0.0342887114 0.7450382462 -0.2167474879 0.7451144795 -0.216989954 0.0518621897 0.0346122302
170298980.0 0.0533821139 0.0324178077 0.7418283217 -0.2260031378 0.7427905776 -0.2265777005 0.0529093966 0.0329691695
175298950.0 0.054272112 0.0305753338 0.7414251858 -0.2353107926 0.7413755039 -0.2353674862 0.0534657951 0.0312377039
180298920.0 0.0552390446 0.0291614754 0.7393053688 -0.2450756781 0.7388716513 -0.2442434362 0.0536682906 0.0298565254
185298890.0 0.0561680002 0.0270502301 0.7364576841 -0.2545184965 0.7367323612 -0.253634606 0.0542323068 0.0277114354
190298860.0 0.0561912501 0.0256423918 0.7346579892 -0.2631304838 0.7344806139 -0.2627863204 0.0556162383 0.0262889375
195298830.0 0.0563776028 0.0238554009 0.731464603 -0.2714355001 0.731827433 -0.272331692 0.0558719752 0.0237513795
200298800.0 0.0570940076 0.0227640166 0.7294343008 -0.2803020824 0.728648365 -0.2804366228 0.0561914742 0.0232321074
205298770.0 0.0573395141 0.0214511013 0.727126583 -0.2899070497 0.7264845754 -0.2897468148 0.0564440767 0.0209515089
210298740.0 0.0571353627 0.0194871956 0.7237269849 -0.299149808 0.7238115178 -0.2985767926 0.0568497227 0.0196944671
215298710.0 0.05772786 0.0187726219 0.7208606921 -0.3070659879 0.7204624336 -0.3072513675 0.0567983343 0.0183297137
220298680.0 0.0583171039 0.0171202515 0.7173323699 -0.3163365524 0.7172004419 -0.3158322138 0.0573157268 0.0173507095
225298650.0 0.0585654041 0.0161349682 0.7138760138 -0.3240852083 0.7139733999 -0.324332659 0.0575441949 0.0156821786
230298620.0 0.0583037894 0.0146387932 0.7115451207 -0.3333034134 0.7111953234 -0.3327910955 0.0578486006 0.0143135129
235298590.0 0.0584411818 0.0132059608 0.7073709582 -0.3412808008 0.7074710812 -0.3419906871 0.0581737522 0.0126248426
240298560.0 0.0582803823 0.0120789979 0.7035273993 -0.3497373169 0.7039309339 -0.3494046602 0.0580607233 0.0116913572
245298530.0 0.058729646 0.0110077178 0.6988845676 -0.3580131095 0.7000374592 -0.3580867361 0.058177172 0.0106733965
250298500.0 0.0582715779 0.0098890617 0.6958071676 -0.3654714915 0.6963990507 -0.3656195928 0.0585771542 0.0091612246
255298470.0 0.0579015127 0.008821155 0.692099461 -0.3748784195 0.6922737845 -0.3746074535 0.0586186813 0.007512862
260298440.0 0.0582222897 0.0078250721 0.6882858787 -0.382666224 0.6883665764 -0.3825200674 0.0593544548 0.007107127
265298410.0 0.0588909257 0.0072040783 0.6842942498 -0.39096106 0.6835649505 -0.3906186585 0.0586198261 0.0053768123
270298380.0 0.0590757672 0.0057613274 0.6791688675 -0.3981912904 0.6800250591 -0.3987467936 0.0587781293 0.0050959932
275298350.0 0.0583727958 0.0049093866 0.6754907559 -0.4065789896 0.675900323 -0.4067467141 0.058648006 0.0034424087
280298320.0 0.0583688418 0.0039286219 0.6708587935 -0.4135468642 0.6711216105 -0.4145663693 0.059376747 0.0027367846
285298290.0 0.0588770503 0.0029437655 0.6665380005 -0.422111002 0.6665567034 -0.4224286141 0.058812735 0.0016267458
290298260.0 0.0586524355 0.0017459722 0.6623622368 -0.429405981 0.6622861541 -0.4298988401 0.0594886407 0.000665008
295298230.0 0.0586161572 0.000572039 0.6577803525 -0.4374466708 0.6572654231 -0.437365362 0.0593257918 -0.000713056
300298200.0 0.0591235949 -8.24502e-05 0.6528208063 -0.4452791294 0.6528972612 -0.4455783847 0.0592217208 -0.0012975504
305298170.0 0.0588006415 -0.0014051811 0.6482512195 -0.4531776431 0.6483087775 -0.4531529735 0.0595340731 -0.0023378492
310298140.0 0.0592297835 -0.0025818943 0.6440691647 -0.4606416104 0.6434222906 -0.4611065924 0.0596347552 -0.0030458944
315298110.0 0.0586038063 -0.0033611625 0.6382012426 -0.4681227166 0.6386349896 -0.4684280193 0.0596325756 -0.0048233057
320298080.0 0.0582527093 -0.0045429632 0.6324607714 -0.475632167 0.6335146981 -0.4757174492 0.0592786295 -0.0060403385
325298050.0 0.057953496 -0.0060454031 0.6285508735 -0.4833178944 0.628194178 -0.4835967231 0.0591166831 -0.0068867204
330298020.0 0.0578525049 -0.0066318202 0.6217979711 -0.4910033374 0.6215704321 -0.4908656792 0.0580469408 -0.0084717252
335297990.0 0.0572975835 -0.007747655 0.6158616211 -0.497650387 0.6167321177 -0.4982059237 0.0580196689 -0.008928838
340297960.0 0.0565529177 -0.0081494313 0.610319273 -0.5046946085 0.6108332646 -0.5046300896 0.0572735934 -0.0095882392
345297930.0 0.0561071199 -0.0086860863 0.6048392893 -0.5110174799 0.6042088661 -0.5115722306 0.0574843939 -0.0109973258
350297900.0 0.0565648998 -0.0093883225 0.5987826415 -0.5175632987 0.5990321535 -0.5181328564 0.0567374086 -0.0106284731
355297870.0 0.056005262 -0.0100925557 0.5933623365 -0.524742711 0.5931429755 -0.5252055213 0.056182701 -0.0115104465
360297840.0 0.0560851901 -0.0109174355 0.5876632669 -0.5318803832 0.5871110698 -0.5315536459 0.0561357809 -0.012044626
365297810.0 0.0554916404 -0.0116842674 0.5814833556 -0.5377174795 0.5810701087 -0.5380936937 0.0559050755 -0.0125589919
370297780.0 0.0555672137 -0.0124151975 0.5749841691 -0.5439726279 0.5755154061 -0.5452498871 0.0562692235 -0.0130146338
375297750.0 0.0549771029 -0.0125147768 0.5701165257 -0.5510168342 0.5692266704 -0.5514193434 0.0555228746 -0.0138451043
380297720.0 0.0549259799 -0.0139122191 0.5633223705 -0.556921724 0.5636265054 -0.5571867464 0.0552340911 -0.0142660029
385297690.0 0.0546264591 -0.0139912948 0.5570933929 -0.5626331754 0.5571476204 -0.5632576212 0.0548273608 -0.0148488507
390297660.0 0.0539714297 -0.0146352604 0.550859953 -0.5696037698 0.5510768137 -0.5704474528 0.054683833 -0.0160605567
395297630.0 0.0543257596 -0.0158569388 0.545296829 -0.5750844982 0.5448786023 -0.5759194858 0.0545028331 -0.0163416787
400297600.0 0.0535800261 -0.0160944671 0.5381257554 -0.5818453623 0.5389942229 -0.5823986746 0.0533789823 -0.0170590462
405297570.0 0.053992127 -0.0165533706 0.5322082542 -0.5875593093 0.53234516 -0.5882568953 0.0534769632 -0.0170166497
410297540.0 0.0535341278 -0.0175619205 0.5248728297 -0.5933584261 0.525162101 -0.5938932863 0.0532120019 -0.0180533107
415297510.0 0.0530877537 -0.0173438684 0.5191070935 -0.5992981809 0.5190221534 -0.5997290413 0.0523238379 -0.0181427904
420297480.0 0.0528390171 -0.0188641426 0.5119554301 -0.6060323629 0.5124606042 -0.6057124437 0.0526184797 -0.0194588272
425297450.0 0.0531600424 -0.0198491927 0.5055585461 -0.6110996442 0.5059743885 -0.6110562312 0.0523882304 -0.0192592364
430297420.0 0.0522760939 -0.0196512554 0.4988419427 -0.6171589629 0.4988439765 -0.6171001921 0.0515887108 -0.0204779207
435297390.0 0.0523388089 -0.0209197106 0.4922352456 -0.6221220838 0.492055021 -0.6222582209 0.0510937958 -0.0201201763
440297360.0 0.052044114 -0.0215636239 0.4845720275 -0.6271873994 0.4844251032 -0.6278248521 0.0509612223 -0.0214217627
445297330.0 0.0520919955 -0.0221709101 0.477637902 -0.6336400876 0.4779593582 -0.6331453108 0.05074206 -0.0219875207
450297300.0 0.0515257132 -0.0227136261 0.4712669168 -0.6379718585 0.4711859207 -0.6389352363 0.0501442615 -0.0220960219
455297270.0 0.0508735724 -0.0230293457 0.4644591799 -0.643658492 0.4643836236 -0.6438225143 0.0503258762 -0.0226907593
460297240.0 0.0503052365 -0.0239866421 0.4569187996 -0.6483242612 0.4563892639 -0.6488598966 0.0498550501 -0.0227679157
465297210.0 0.0504026563 -0.0246107948 0.4498736344 -0.6538889214 0.4502749987 -0.6541032257 0.0488657462 -0.0239298047
470297180.0 0.0497109993 -0.025230564 0.4427058379 -0.6587411865 0.443106043 -0.6589870879 0.0481705624 -0.0243090063
475297150.0 0.0493005379 -0.0264262917 0.4349376292 -0.6632969146 0.435862615 -0.6633382395 0.0480612683 -0.024637652
480297120.0 0.0497095055 -0.0271678132 0.4285932753 -0.6683705571 0.4285791243 -0.6681686563 0.0477964869 -0.0246250877
485297090.0 0.049284067 -0.0274747408 0.4210555269 -0.6731471416 0.4213466634 -0.6734388562 0.0471943878 -0.0256830503
490297060.0 0.0488676888 -0.028250457 0.4137777 -0.6778829414 0.4136166424 -0.6777740259 0.0471529747 -0.0257239672
495297030.0 0.0479125023 -0.0280523477 0.4058623704 -0.6822249262 0.4063424125 -0.682451063 0.0467187835 -0.0265427348
500297000.0 0.0480102871 -0.0291472751 0.3985997833 -0.6867387928 0.3986332765 -0.6869961202 0.045615923 -0.0271237598
505296970.0 0.0469247705 -0.0298414493 0.3909444204 -0.6910422376 0.3908130944 -0.6912732629 0.0448921457 -0.0270991148
510296940.0 0.0468119535 -0.030156963 0.3833614736 -0.6955754297 0.3839071243 -0.6954108362 0.0452684953 -0.0272666734
515296910.0 0.0462694668 -0.0302878738 0.3752557089 -0.6993778187 0.3752435888 -0.6995344552 0.0440161257 -0.0282363968
520296880.0 0.0457594881 -0.0314510679 0.3678596562 -0.7035283223 0.3681251885 -0.7037430714 0.0443110303 -0.0286503313
525296850.0 0.0453244529 -0.032284992 0.3600046628 -0.7078732753 0.3607884789 -0.7076273589 0.044017462 -0.0288217302
530296820.0 0.0449849265 -0.0324383285 0.3531291786 -0.7111759666 0.3524701097 -0.7114489994 0.042748256 -0.0298133597
535296790.0 0.0441064198 -0.0330706541 0.3443908759 -0.7150295938 0.3450195711 -0.7153190515 0.0427285455 -0.0303308752
540296760.0 0.0438913653 -0.0336800984 0.3373012028 -0.7197776063 0.3363329178 -0.7195170704 0.0414795471 -0.0299220025
545296730.0 0.0432412343 -0.0333341178 0.3292513287 -0.7223523997 0.3290698618 -0.7231733365 0.0411047356 -0.0308249677
550296700.0 0.0423155837 -0.0343538036 0.3213928112 -0.7263542053 0.3219154661 -0.7267507006 0.0404146923 -0.0303958418
555296670.0 0.0424841043 -0.0352266059 0.3133510776 -0.7304140323 0.3130982342 -0.7300313495 0.0400438586 -0.0312557983
560296640.0 0.041707927 -0.0355794754 0.3054578073 -0.7333846678 0.3052564822 -0.7330260568 0.0395195675 -0.031358392
565296610.0 0.0404962565 -0.0361942484 0.2969412088 -0.736659656 0.2965058683 -0.7367346512 0.038845192 -0.0324538327
570296580.0 0.0410380715 -0.0365341998 0.2892711118 -0.7396900911 0.2894278292 -0.7398228466 0.0386749297 -0.0317068307
575296550.0 0.0401312689 -0.0362222145 0.2809815604 -0.7422911773 0.2817612428 -0.7427356674 0.0384800059 -0.0325465632
580296520.0 0.0394762035 -0.0371530446 0.2728829382 -0.7461462365 0.2725283851 -0.7461173085 0.0374474459 -0.0332308828
585296490.0 0.0391624741 -0.0378664635 0.2651011106 -0.7488024216 0.2649122101 -0.7488822031 0.0369113964 -0.033952677
590296460.0 0.0378483079 -0.0384132808 0.2562425003 -0.7517953982 0.2559022997 -0.7520558186 0.0365244233 -0.0335078893
595296430.0 0.0374572981 -0.038379259 0.248007662 -0.7546334054 0.2483931719 -0.7549078333 0.0359849351 -0.0337092986
600296400.0 0.0367919137 -0.0384056915 0.2399907205 -0.7569057602 0.2403516735 -0.7575168269 0.0356503757 -0.0341587617
605296370.0 0.036840206 -0.0385337538 0.2319831272 -0.7601160658 0.2318783351 -0.7597923855 0.0348325492 -0.0351495008
610296340.0 0.0357349222 -0.0394774226 0.2240558021 -0.7623952649 0.2236339313 -0.7622074984 0.034270983 -0.034163113
615296310.0 0.0352658099 -0.0395553549 0.2152472231 -0.7644339038 0.2148757455 -0.7647954727 0.0337779414 -0.0353662188
620296280.0 0.0347282002 -0.0401651107 0.2066984418 -0.7670009088 0.2067772514 -0.7672577407 0.0333551298 -0.0358984624
625296250.0 0.0344862854 -0.0403428788 0.1984191451 -0.7690225733 0.1984035558 -0.7695346443 0.0328232569 -0.0356042447
630296220.0 0.0335136938 -0.040585297 0.1899629012 -0.7719441165 0.1904224117 -0.7714665824 0.0316280575 -0.0358174368
635296190.0 0.0330594192 -0.040929279 0.1814317302 -0.7724680819 0.1810157178 -0.7729421348 0.0313346081 -0.0364830943
640296160.0 0.0322097234 -0.0409697424 0.1729575982 -0.7750826223 0.173291107 -0.775078184 0.0312885008 -0.0368379935
645296130.0 0.0320001837 -0.0409537985 0.1647377798 -0.7772231682 0.1643910741 -0.777469881 0.0296582265 -0.0373430167
650296100.0 0.030957557 -0.041011754 0.1563854269 -0.7787285671 0.1568697002 -0.7787949879 0.0294120431 -0.0374712998
655296070.0 0.0303455535 -0.0421388626 0.1480114159 -0.7800457046 0.1477107749 -0.7801654961 0.0295694785 -0.0368241558
660296040.0 0.0292429316 -0.0416904619 0.1393574735 -0.7815698736 0.1393528501 -0.78180471 0.0285771566 -0.0382696004
665296010.0 0.0293609427 -0.0425059689 0.1309081431 -0.7832840635 0.1309069073 -0.7832538118 0.0275868841 -0.0374127175
670295980.0 0.0290544734 -0.0423042388 0.1221063166 -0.7845239651 0.1225032349 -0.7849275668 0.0266812607 -0.0381756095
675295950.0 0.0283443912 -0.0422585704 0.1139287563 -0.7860549885 0.1139758564 -0.7870206926 0.026530254 -0.0379466316
680295920.0 0.0274661875 -0.042628674 0.105368707 -0.787488448 0.1044352517 -0.7871830074 0.0263167881 -0.0385773416
685295890.0 0.0267682141 -0.0428778296 0.096678378 -0.7881198687 0.0964903692 -0.7885346091 0.0255840812 -0.0385667791
690295860.0 0.0265585185 -0.0430636501 0.088332099 -0.7884681323 0.0872716332 -0.7889553571 0.0253263975 -0.0382333175
695295830.0 0.0262516005 -0.0434976369 0.0785195371 -0.7898847154 0.0788773332 -0.7900507839 0.0239612996 -0.038606455
700295800.0 0.0256948917 -0.0435238649 0.0702394122 -0.7912150292 0.0704206768 -0.7912710731 0.0235426888 -0.0395136839
705295770.0 0.024468408 -0.0433863478 0.0616928947 -0.791857309 0.0620220554 -0.7914879183 0.0226749678 -0.0395231363
710295740.0 0.0239959958 -0.0433696073 0.0530804617 -0.7917825195 0.0530872967 -0.7922344017 0.0215004047 -0.0391078676
715295710.0 0.0233861327 -0.0438582217 0.0450585437 -0.7929958098 0.0446349712 -0.792977406 0.0214931157 -0.0402030101
720295680.0 0.0225357404 -0.0441457753 0.036076044 -0.7929635685 0.0362666344 -0.7936588797 0.0217862482 -0.0394272227
725295650.0 0.0224218423 -0.0440204353 0.0270744807 -0.7929754515 0.026813215 -0.7937220823 0.0206949164 -0.0395442677
730295620.0 0.021141148 -0.0443503578 0.0185900831 -0.793945695 0.0184461578 -0.7942400571 0.0203299422 -0.0404680879
735295590.0 0.0211529785 -0.0443386578 0.0108779599 -0.793786963 0.0108721336 -0.7940723812 0.0191396577 -0.0396596927
740295560.0 0.0202227595 -0.0442185826 0.0013337304 -0.7930368726 0.0010227584 -0.7937130547 0.0193626889 -0.0402033294
745295530.0 0.0198001601 -0.0448051781 -0.0068068371 -0.7940523083 -0.0070311535 -0.7942108499 0.0181346352 -0.0397923094
750295500.0 0.0188845532 -0.0447046009 -0.0156788435 -0.7932415719 -0.0154099986 -0.793603087 0.0178126764 -0.0407147745
755295470.0 0.0188836645 -0.0445498278 -0.0237071805 -0.7934182787 -0.0242011469 -0.7937786865 0.0167210791 -0.0401379717
760295440.0 0.0177732895 -0.044360722 -0.0329573928 -0.7935004174 -0.0335366616 -0.7934449602 0.0156738889 -0.0406736058
765295410.0 0.0169577257 -0.0451265456 -0.0409885724 -0.7928340577 -0.041038985 -0.7929220744 0.0165471289 -0.0401826595
770295380.0 0.0168801278 -0.0448668953 -0.0502294162 -0.7922802013 -0.0501207097 -0.7923867031 0.0159534126 -0.0398868586
775295350.0 0.0161882505 -0.0447014006 -0.0584446853 -0.7914445934 -0.0584595844 -0.7916554472 0.0147506964 -0.0413508966
780295320.0 0.0154244448 -0.0447276383 -0.0671388699 -0.7911049883 -0.0667595344 -0.7911283591 0.0144663253 -0.0402259572
785295290.0 0.0147554937 -0.0443693893 -0.0758302529 -0.7892300653 -0.0761411571 -0.790149183 0.0131737848 -0.0405781736
790295260.0 0.0139848722 -0.0446311701 -0.08420935 -0.7897375722 -0.0843349713 -0.7898791984 0.0131806858 -0.0407496875
795295230.0 0.0133012276 -0.0444906819 -0.0922971916 -0.7875258918 -0.0926838557 -0.7881945709 0.0124484545 -0.0395541108
800295200.0 0.0128015063 -0.0443316705 -0.1020270491 -0.787568589 -0.1022680286 -0.7878485995 0.0121876105 -0.0406658234
805295170.0 0.0118753615 -0.0445665525 -0.1103006304 -0.785840867 -0.1100533133 -0.7860678458 0.0110742064 -0.0406881958
810295140.0 0.0114779771 -0.0446342391 -0.1183127273 -0.7847198899 -0.1188060273 -0.7851629855 0.0107605424 -0.0397859294
815295110.0 0.0107410506 -0.0444408743 -0.1272985999 -0.7832366503 -0.1275521269 -0.7834132269 0.0098786616 -0.0403826469
820295080.0 0.0102125791 -0.0448633979 -0.1354416452 -0.7819385919 -0.1360187925 -0.7817815811 0.0089763075 -0.0398528944
825295050.0 0.0096065379 -0.0448043079 -0.1442297302 -0.7796549358 -0.1439433455 -0.7805468962 0.009223582 -0.0397772203
830295020.0 0.0088870839 -0.0443575378 -0.152933644 -0.7786790894 -0.1533673096 -0.7788848902 0.0079580563 -0.0402095584
