!Created with skrf (http://scikit-rf.org).
# Hz S RI R 50.0 
!freq ReS11 ImS11 ReS21 ImS21 ReS12 ImS12 ReS22 ImS22
300000.0 -0.3118419655 -0.1333172259 0.3706143773 0.0658648356 0.3713517083 0.0668592367 -0.3137573592 -0.1320458121
5299970.0 -0.3248823999 0.0025422525 0.3782096034 0.003316276 0.3787385352 0.0034315937 -0.3255414866 0.0018788638
10299940.0 -0.3226574803 0.0141982714 0.380197916 0.0031709942 0.3796657593 0.0028056713 -0.3232466017 0.0125604405
15299910.0 -0.3189338614 0.0224623766 0.3818515357 0.0025338895 0.3822112861 0.0028789475 -0.3205204709 0.0198752279
20299880.0 -0.3153439177 0.0290435431 0.3847797773 0.0015814417 0.3850695927 0.0019453059 -0.3173615401 0.0257963753
25299850.0 -0.3114941826 0.0349612829 0.388555273 0.0003780485 0.3889024912 0.0002478189 -0.3146975219 0.0313031811
30299820.0 -0.3084541257 0.0393269231 0.3922041107 -0.0018511567 0.3923351598 -0.0020116196 -0.3118240408 0.035678612
35299790.0 -0.3043104481 0.0433160244 0.3947585579 -0.0050098785 0.3952615802 -0.0051281568 -0.3088434079 0.039929286
40299760.0 -0.3012803629 0.046795084 0.3984677982 -0.008622524 0.398404978 -0.0086772668 -0.3061752398 0.0431590438
45299730.0 -0.2980808847 0.0501624879 0.4014526069 -0.0126127762 0.4014990091 -0.0127926787 -0.3032480673 0.046678529
50299700.0 -0.2947409752 0.0528892976 0.403810451 -0.0172207066 0.4040132287 -0.0172426806 -0.3010036476 0.0497475507
55299670.0 -0.2922076303 0.0553646151 0.4058960747 -0.0216059967 0.4059462023 -0.0220884754 -0.2989850893 0.0523459933
60299640.0 -0.2896538598 0.0579958438 0.4077404602 -0.0266000274 0.4079502364 -0.0267793876 -0.2968391674 0.0548932915
65299610.0 -0.2872301884 0.0601867756 0.409716469 -0.0315850275 0.4095980953 -0.0317694398 -0.294838724 0.057481969
70299580.0 -0.2853205555 0.062057785 0.4103486663 -0.0363949609 0.4111226442 -0.0368395413 -0.2933606723 0.0599159499
75299550.0 -0.2834294083 0.0640742899 0.4117184652 -0.0420446623 0.4119580049 -0.0420774179 -0.2916099592 0.062321181
80299520.0 -0.2819293057 0.0664233831 0.4128544153 -0.0469994267 0.4131488825 -0.0473102007 -0.2903639073 0.0647357387
85299490.0 -0.27994088 0.0683566474 0.413176191 -0.0524350513 0.4137483677 -0.0523631608 -0.2888801029 0.0670572891
90299460.0 -0.2781111542 0.0707252721 0.413499525 -0.0578448893 0.4138340132 -0.0578148461 -0.2872690756 0.0695129291
95299430.0 -0.2767602193 0.0728213018 0.4140758819 -0.0630694703 0.4142392967 -0.063234373 -0.2863745921 0.0718403141
100299400.0 -0.2753170598 0.0747076526 0.4138258039 -0.0679746641 0.4141958228 -0.0682616688 -0.2851286652 0.0745596654
105299370.0 -0.2739666331 0.0767229657 0.4138423225 -0.0731741965 0.4141664465 -0.0733948815 -0.2837915479 0.0762592856
110299340.0 -0.2727680048 0.0788308882 0.4138540949 -0.078297247 0.4138494443 -0.0783114321 -0.2829154566 0.0786469113
115299310.0 -0.2716732195 0.0812756405 0.4134685552 -0.0835984575 0.4135897367 -0.0837945861 -0.281907881 0.0812783188
120299280.0 -0.2700824772 0.0831132905 0.4128716342 -0.0891765084 0.412850763 -0.0889573079 -0.2807969036 0.0832051038
125299250.0 -0.2691599644 0.0852710433 0.4128513557 -0.0936555465 0.4127924242 -0.0940054372 -0.2798686946 0.0859632426
130299220.0 -0.268255488 0.0874414946 0.4119842055 -0.0991617064 0.4118104491 -0.0992417996 -0.2788605985 0.088272832
135299190.0 -0.2671978297 0.0898437319 0.4112626727 -0.1037075973 0.4111415425 -0.1042881388 -0.2778949562 0.0904655791
140299160.0 -0.2662497166 0.0919731672 0.4104493735 -0.1090007713 0.4103304074 -0.1089789787 -0.2773799904 0.0930245081
145299130.0 -0.2651153406 0.0947098179 0.4093388745 -0.1138011963 0.4097197833 -0.1139386832 -0.2765023621 0.0957731283
150299100.0 -0.2640727575 0.096651604 0.4080403955 -0.118718112 0.40832183 -0.1190622362 -0.2753168782 0.0985460975
155299070.0 -0.2631559975 0.0995174752 0.4068536068 -0.1237986599 0.4073071069 -0.1238296974 -0.2745222356 0.1008608951
160299040.0 -0.261972065 0.1018547886 0.4059649786 -0.1285887718 0.4059537893 -0.1290564994 -0.2735267096 0.1038331142
165299010.0 -0.2609716882 0.1040675785 0.4050328404 -0.1333503077 0.4047505374 -0.1337083497 -0.2723367968 0.1060866215
170298980.0 -0.2600756066 0.1066854466 0.4031408017 -0.1382920944 0.4035985795 -0.1386036024 -0.2718428232 0.1088224441
175298950.0 -0.2588980675 0.1092316666 0.4021240493 -0.1430170845 0.4026230447 -0.1433171755 -0.2706808917 0.1114739592
180298920.0 -0.2580003276 0.1117978604 0.4004143245 -0.1476056796 0.4007311887 -0.1482276165 -0.2698303919 0.1138266239
185298890.0 -0.2568777427 0.1142606455 0.399241834 -0.1529707933 0.3991195029 -0.1524154631 -0.2684909846 0.1165859766
190298860.0 -0.2554716381 0.1173313027 0.3968385002 -0.1574658592 0.3978461177 -0.1572792722 -0.2674856131 0.119649743
195298830.0 -0.2546507077 0.1196082305 0.3961071676 -0.1617975233 0.3960038359 -0.1620205908 -0.2667131625 0.1220091194
200298800.0 -0.253281158 0.1218148897 0.3943352676 -0.1667286185 0.3944166394 -0.1667144172 -0.2653169558 0.1245699255
205298770.0 -0.2527886816 0.1246944743 0.3920706201 -0.1709326553 0.3926398002 -0.1709630233 -0.2641235078 0.1274733706
210298740.0 -0.2512920752 0.1274814807 0.3902679568 -0.1755492408 0.3903560328 -0.1757683325 -0.2633559322 0.1301377455
215298710.0 -0.2504402589 0.1302003649 0.3885911215 -0.1800668631 0.3888040067 -0.180363745 -0.2618995503 0.1326536765
220298680.0 -0.2490778251 0.13249902 0.3863429212 -0.1844672349 0.3865489261 -0.1849974957 -0.2609539324 0.1354937802
225298650.0 -0.2478494606 0.1353639887 0.3842326759 -0.1890031629 0.3847425455 -0.1884117625 -0.2599016986 0.1379512451
230298620.0 -0.2465446954 0.1379987992 0.3825257596 -0.1936144297 0.3828674619 -0.1935775504 -0.2586973913 0.1404323449
235298590.0 -0.245593215 0.1406674159 0.3809095419 -0.1983179408 0.3803939355 -0.1978528701 -0.2570780933 0.1435824054
240298560.0 -0.2440243144 0.1433072244 0.3783933085 -0.2021102499 0.3785233139 -0.2020839025 -0.2559681797 0.1458311884
245298530.0 -0.2428515441 0.1458264683 0.3762346493 -0.206587981 0.3761609716 -0.2063973145 -0.2545789119 0.1486524245
250298500.0 -0.2415934872 0.1481659149 0.3738001008 -0.2105627464 0.3738857793 -0.2104055979 -0.2534277903 0.1516403478
255298470.0 -0.2399066031 0.1512855641 0.3714969078 -0.2146902577 0.3719069519 -0.2152209783 -0.2520369606 0.1542412719
260298440.0 -0.2387312138 0.1534430204 0.3691750362 -0.2188116739 0.369301728 -0.2189875644 -0.2505226359 0.1564669604
265298410.0 -0.2374471171 0.1564456492 0.3666588001 -0.2235762721 0.3665960289 -0.2236467409 -0.2485119921 0.1595795029
270298380.0 -0.2360513046 0.1584665906 0.3641137455 -0.227364715 0.3644721076 -0.227550208 -0.2471551225 0.1623552398
275298350.0 -0.2342442977 0.1616711389 0.3612886192 -0.2314309101 0.3618361653 -0.2314651355 -0.2454659647 0.1649850071
280298320.0 -0.2331203179 0.1640315113 0.3593551147 -0.2350705686 0.3595581712 -0.2355951982 -0.2441747899 0.1676863457
285298290.0 -0.2314789124 0.1666881603 0.3566104555 -0.2394338459 0.357322215 -0.2395664022 -0.2427157624 0.1705445197
290298260.0 -0.2299718136 0.1693100205 0.3545088389 -0.2435384328 0.354349464 -0.2438670959 -0.2411141621 0.1729077529
295298230.0 -0.2283567543 0.1716029884 0.3513498374 -0.2481654834 0.3514712563 -0.2480303134 -0.239203901 0.1756608763
300298200.0 -0.2267488496 0.1742209876 0.3486317447 -0.2516746223 0.3491171313 -0.2515550588 -0.2376910943 0.1779472973
305298170.0 -0.2252059253 0.1764589054 0.3459596125 -0.2557570883 0.3465268569 -0.2558227181 -0.2355240395 0.180524741
310298140.0 -0.2231080755 0.178475025 0.3432436388 -0.2595035566 0.3436616887 -0.259145966 -0.2338338284 0.1828574771
315298110.0 -0.2218534874 0.1811170734 0.3406608517 -0.2635286911 0.3407042447 -0.2637048877 -0.2318710656 0.1857732478
320298080.0 -0.2199297902 0.1838449203 0.3371207476 -0.2674289703 0.3380421556 -0.2673978878 -0.2305087403 0.1882656186
325298050.0 -0.2187161583 0.1859678911 0.3341733332 -0.2710409882 0.334581458 -0.2712644474 -0.2281555249 0.1904989309
330298020.0 -0.2170754428 0.1888052412 0.3312783104 -0.2750482615 0.3317950068 -0.274904822 -0.2268199155 0.1929592811
335297990.0 -0.215484058 0.1906703713 0.3282993051 -0.2782655855 0.3284535736 -0.2788779274 -0.2250818941 0.1956932958
340297960.0 -0.2136653951 0.193261218 0.3250275584 -0.2822434866 0.3250922227 -0.2824290279 -0.2228817902 0.1981099386
345297930.0 -0.2119776128 0.1955570398 0.322190003 -0.2860836164 0.3218290975 -0.2862010037 -0.2210030324 0.20050551
350297900.0 -0.2101066826 0.1979064725 0.319049314 -0.2888235413 0.3191374413 -0.2892496283 -0.2191273125 0.2029038247
355297870.0 -0.2083420324 0.2004838359 0.3155847784 -0.2926269619 0.3154733974 -0.2926669704 -0.2166553664 0.2058762661
360297840.0 -0.2060536146 0.2027605944 0.3119111939 -0.2964589047 0.3123989257 -0.2965576462 -0.2150002852 0.2079530725
365297810.0 -0.2045689882 0.2052853063 0.3091517877 -0.2993320912 0.3087887025 -0.2996880958 -0.2129506393 0.2100915454
370297780.0 -0.2022619059 0.2070592227 0.3051212387 -0.302988119 0.3059766033 -0.3030168639 -0.2109794515 0.2129733623
375297750.0 -0.2004811047 0.2095267173 0.3021129098 -0.3062889875 0.3023118868 -0.3065061529 -0.208849386 0.2153258481
380297720.0 -0.1987342725 0.2119199608 0.2993504281 -0.3098991275 0.2989770032 -0.3099121867 -0.206434074 0.2177667503
385297690.0 -0.1964966056 0.2139879308 0.2952179251 -0.3126809528 0.295573498 -0.3135119421 -0.2042814939 0.2203281296
390297660.0 -0.1943883137 0.2160980703 0.29183205 -0.315821513 0.2920367975 -0.3163096322 -0.2016777093 0.2220607878
395297630.0 -0.1919660761 0.218443258 0.2885814906 -0.3191980061 0.2885799593 -0.3190933548 -0.1995634225 0.2241973719
400297600.0 -0.1899822778 0.2206568663 0.2849257275 -0.3226169597 0.2854157332 -0.322737092 -0.1974516369 0.2268414456
405297570.0 -0.1881247747 0.2226159686 0.2816999537 -0.3252971765 0.2817192196 -0.3256796278 -0.1948738065 0.2293548408
410297540.0 -0.1857079808 0.2248677494 0.2780989228 -0.3288503374 0.2779702982 -0.3286466169 -0.1925638015 0.2316745461
415297510.0 -0.183351431 0.2270185538 0.2739030549 -0.3317466598 0.274574351 -0.3318397626 -0.1902493834 0.2335134007
420297480.0 -0.1813993802 0.2287653811 0.270438086 -0.3346402054 0.2704951935 -0.3346893016 -0.1873934604 0.2359046754
425297450.0 -0.1784322509 0.2309284528 0.2669473144 -0.3378993185 0.2667271403 -0.3377733051 -0.185442601 0.2377362463
430297420.0 -0.1764700596 0.2326694939 0.2635959228 -0.3406770539 0.2631744918 -0.3405239057 -0.1827348635 0.2401270409
435297390.0 -0.1742259044 0.2347414723 0.2592672043 -0.3436973822 0.2593232894 -0.3432186409 -0.1804733273 0.2422721373
440297360.0 -0.1715113054 0.2365475705 0.2552288131 -0.346508306 0.2554739838 -0.3462598263 -0.1781856852 0.2444733929
445297330.0 -0.1691933153 0.2383220788 0.2518760889 -0.3487851931 0.2518216847 -0.349427929 -0.1751798193 0.2465153764
450297300.0 -0.1666070871 0.2405000027 0.2480243834 -0.3514145924 0.2482327298 -0.3515781717 -0.1726149469 0.2484947976
455297270.0 -0.1645464046 0.2419944701 0.2440838537 -0.3542968348 0.244357144 -0.3546695349 -0.1700989795 0.2503464443
460297240.0 -0.1614669067 0.2440712561 0.2402734493 -0.3572302261 0.2400443976 -0.3573615959 -0.1674589995 0.2521501146
465297210.0 -0.1589837582 0.2458367763 0.2360247345 -0.3597892233 0.2356968 -0.3599275772 -0.1647509913 0.2546423121
470297180.0 -0.1563325201 0.2473275374 0.2318599224 -0.3617488487 0.2321758656 -0.3620366436 -0.1620119103 0.2560583499
475297150.0 -0.1540942695 0.2495212848 0.2283141013 -0.3645978087 0.2283941704 -0.3650035822 -0.1596528781 0.2582379529
480297120.0 -0.1508660482 0.2513055759 0.2239950027 -0.3669747183 0.2244701373 -0.3669321155 -0.1573144434 0.2597697355
485297090.0 -0.1485482072 0.2527828558 0.2201191129 -0.3696159936 0.2199256909 -0.3693864807 -0.1541812441 0.2617121247
490297060.0 -0.1452665483 0.254594898 0.2155084877 -0.3720889228 0.2159027717 -0.3717382361 -0.1512208727 0.263186174
495297030.0 -0.1430599185 0.2559627155 0.2122553137 -0.3742864234 0.2117150375 -0.374137002 -0.1484575919 0.2650807034
500297000.0 -0.1404075914 0.2579927336 0.2080505939 -0.3765511632 0.207963733 -0.3766644374 -0.1458668775 0.2670664217
505296970.0 -0.1370806549 0.259214814 0.2038009323 -0.3787578529 0.2036023478 -0.378740982 -0.1427167364 0.2682448032
510296940.0 -0.134444912 0.2609083923 0.1996792969 -0.3813666567 0.1996321727 -0.3812926399 -0.1395675254 0.2702504571
515296910.0 -0.1316695359 0.2627175198 0.1948996955 -0.3833443474 0.1946742802 -0.3830438339 -0.1372607291 0.2716710522
520296880.0 -0.1288139573 0.2641292509 0.1909913831 -0.3851886164 0.1908958902 -0.3850128734 -0.1339729719 0.2734853007
525296850.0 -0.1258226935 0.2656206883 0.1865055294 -0.3869958205 0.1864006473 -0.3868980719 -0.1312282788 0.2747727637
530296820.0 -0.1235084837 0.2670083995 0.1824247292 -0.3892205463 0.1821966039 -0.3889248998 -0.12843112 0.2763022788
535296790.0 -0.1198616274 0.2683693556 0.1781157732 -0.3909858909 0.1783341177 -0.3911936462 -0.1252948128 0.2782930548
540296760.0 -0.1169263334 0.2700432351 0.1739091722 -0.3930467993 0.1734954802 -0.3924595413 -0.1226598846 0.2791073509
545296730.0 -0.1145016036 0.2716056766 0.1697113707 -0.3943364716 0.1695143192 -0.394553352 -0.1193201724 0.281032154
550296700.0 -0.1112480526 0.2728972622 0.164973174 -0.3964570651 0.1649130257 -0.3966955675 -0.1164874651 0.2818665781
555296670.0 -0.1084465476 0.2743853049 0.1608060306 -0.3986302244 0.1609124675 -0.3981241223 -0.1135399194 0.2825729601
560296640.0 -0.1051303497 0.2752190853 0.1563016181 -0.400009963 0.1565133744 -0.3998889581 -0.1106274543 0.285144278
565296610.0 -0.1026740976 0.2767148841 0.1523901405 -0.4015797364 0.1521596572 -0.4013275245 -0.1073578513 0.2863687161
570296580.0 -0.0995534046 0.27814702 0.1475705888 -0.403369773 0.1476536777 -0.4032076807 -0.104706932 0.2873234883
575296550.0 -0.0960087808 0.2792176759 0.1431950002 -0.4047215736 0.1431512746 -0.4047989545 -0.1014388754 0.2884723381
580296520.0 -0.0932820167 0.2806372371 0.1390032342 -0.406469437 0.1384953017 -0.4062808301 -0.098362313 0.2897934642
585296490.0 -0.0899931921 0.2817967645 0.1345304288 -0.4073881316 0.1341635313 -0.4077217878 -0.0953585386 0.2912812317
590296460.0 -0.0869644349 0.28284158 0.1301010745 -0.4090331057 0.1300508737 -0.4093820781 -0.092264918 0.2919122413
595296430.0 -0.0837335519 0.2840488098 0.1249237261 -0.4103666547 0.124880942 -0.4106047268 -0.0894679619 0.293203361
600296400.0 -0.0805205515 0.2850838078 0.1203784638 -0.4117061678 0.1205883822 -0.4117695314 -0.0859270998 0.2938838941
605296370.0 -0.0782204824 0.2864588601 0.1166838168 -0.4129275181 0.1159739702 -0.4130334009 -0.0830617164 0.295294055
610296340.0 -0.0745983587 0.287339271 0.1120060137 -0.4134916166 0.1121050295 -0.4139643279 -0.0800781121 0.2964048484
615296310.0 -0.0712677395 0.2884443304 0.107535312 -0.4154835315 0.1068149099 -0.415455639 -0.0763720277 0.2973298945
620296280.0 -0.0684761045 0.289657268 0.1028672876 -0.4161097197 0.1026074025 -0.4161273871 -0.0738861103 0.2981689881
625296250.0 -0.065466175 0.2903086037 0.0984204467 -0.4174621129 0.0982228138 -0.4174114122 -0.0707010206 0.299122942
630296220.0 -0.0621549157 0.2913677946 0.0935413409 -0.4185030717 0.0935504375 -0.4183744767 -0.0673435611 0.2998646946
635296190.0 -0.0593277972 0.2926384867 0.0895698972 -0.4192596718 0.0888562668 -0.4193398182 -0.0638908167 0.3008141851
640296160.0 -0.0560647806 0.293050045 0.0846293273 -0.4202401795 0.0845231152 -0.4203023096 -0.061362297 0.3017315164
645296130.0 -0.0525905206 0.2941836183 0.0797819921 -0.4210900228 0.0797788564 -0.420999921 -0.0579599941 0.3021261971
650296100.0 -0.0494072842 0.2949368951 0.075462032 -0.4220491248 0.074978456 -0.4219999741 -0.0544098867 0.3032260145
655296070.0 -0.0468389149 0.2955347623 0.0709130775 -0.422968216 0.0705374573 -0.4223842277 -0.0514476157 0.3039602284
660296040.0 -0.0435010231 0.2965635809 0.0663836039 -0.4233458136 0.0662286504 -0.4234213362 -0.0484434661 0.3045516146
665296010.0 -0.0401310228 0.2975553861 0.0613295571 -0.4239414919 0.0613266913 -0.4240469832 -0.0453406459 0.3052418205
670295980.0 -0.0373145281 0.298059995 0.0565136926 -0.4245335466 0.0567732427 -0.424208336 -0.0421163383 0.3055965176
675295950.0 -0.0341289541 0.2985520863 0.0523226805 -0.4247229471 0.0522278625 -0.4250416223 -0.0386648194 0.3062960119
680295920.0 -0.0309960123 0.2994091682 0.0479240507 -0.4251860186 0.0476635783 -0.4256045998 -0.0353677194 0.3064746563
685295890.0 -0.0277650916 0.299990807 0.0432257508 -0.4260427577 0.0427738989 -0.426319254 -0.031971983 0.3074885612
690295860.0 -0.024696247 0.3008065579 0.0390750227 -0.4266357935 0.038324993 -0.4265009835 -0.0292386124 0.3078839431
695295830.0 -0.0214771903 0.3009552704 0.0344569592 -0.4269677488 0.0336476818 -0.42690287 -0.0259812707 0.3083702797
700295800.0 -0.0182123036 0.3015355908 0.0294470651 -0.4271584046 0.0294005025 -0.4272749034 -0.0226756698 0.3085181461
705295770.0 -0.0155692096 0.3022006235 0.0246946683 -0.4275775485 0.0245532805 -0.4273114769 -0.01938402 0.3093506958
710295740.0 -0.012504392 0.3021360627 0.0202423804 -0.4276620703 0.0198586244 -0.4280631096 -0.0159625566 0.3095203575
715295710.0 -0.0092162656 0.3029262695 0.0161547947 -0.4277864639 0.0156609013 -0.4281046095 -0.0130139071 0.309592104
720295680.0 -0.0056148656 0.3029302274 0.0107672795 -0.4280046814 0.0105467365 -0.42810623 -0.0096557243 0.3100290843
725295650.0 -0.0029296043 0.3038214922 0.0065004842 -0.4278787907 0.0060641371 -0.4281170356 -0.0065719186 0.3106427268
730295620.0 -0.0002857574 0.3038186906 0.0019195052 -0.4278735499 0.0015781023 -0.4277989247 -0.0035902967 0.3109195991
735295590.0 0.0031533943 0.3043894243 -0.0030417635 -0.4280076944 -0.0030685763 -0.4281090161 -0.0001192535 0.3106529332
740295560.0 0.0060103245 0.3041680012 -0.0075707187 -0.4276080082 -0.0074958552 -0.4283220404 0.0032526166 0.311158434
745295530.0 0.0092750292 0.3047154177 -0.0120200581 -0.4273538219 -0.0116123964 -0.4274841328 0.0062768933 0.3107999204
750295500.0 0.0121799959 0.3048556119 -0.0168214807 -0.4275300095 -0.0169229358 -0.4274227291 0.0096876736 0.3110253364
755295470.0 0.0151801969 0.3047678971 -0.0209223056 -0.4272975449 -0.0211844845 -0.4277556449 0.0131915356 0.3115204745
760295440.0 0.0182007704 0.3055741437 -0.0258833643 -0.4274219721 -0.0263316927 -0.4268219584 0.0162996162 0.3107144212
765295410.0 0.0214922669 0.3049950029 -0.0304572611 -0.4265452449 -0.0303164253 -0.426848755 0.0195156085 0.3110383841
770295380.0 0.0243887101 0.3051734634 -0.0349865618 -0.4259843519 -0.0350375719 -0.4264131241 0.0223433032 0.3112213197
775295350.0 0.0272717419 0.3050146587 -0.0395281544 -0.425893277 -0.0397231703 -0.4253360995 0.0260479833 0.310742516
780295320.0 0.0307381159 0.3052159062 -0.0439538405 -0.4251040023 -0.0442234422 -0.4252039091 0.0294210211 0.3104439571
785295290.0 0.0333773263 0.3045472588 -0.0488913782 -0.4248767901 -0.0486437568 -0.4248614469 0.0324210288 0.310782964
790295260.0 0.0364594945 0.3043853355 -0.0532980833 -0.4241139554 -0.0532454238 -0.4243859196 0.035614829 0.3104427006
795295230.0 0.0397459301 0.3042751461 -0.0581560245 -0.4236048447 -0.0579215111 -0.4240856083 0.0386451066 0.3099007897
800295200.0 0.0425469467 0.304149666 -0.061948048 -0.4224727549 -0.0625342609 -0.4230711084 0.0419825543 0.3097213962
805295170.0 0.0454595548 0.3039089894 -0.0668933358 -0.4221416035 -0.0668032287 -0.4224032149 0.0457981877 0.3095709459
810295140.0 0.0488322278 0.3037760596 -0.0713702564 -0.4209864088 -0.071735314 -0.4213956462 0.048820466 0.3088136917
815295110.0 0.0517271284 0.3034477832 -0.0757895343 -0.4207018312 -0.0757675216 -0.42083287 0.051810105 0.3088325394
820295080.0 0.0548003221 0.3031530088 -0.07996574 -0.4197685044 -0.0802903514 -0.4198863343 0.0545112443 0.3086681461
825295050.0 0.0578260653 0.3027372466 -0.0850895308 -0.4188999536 -0.085572043 -0.4189964233 0.0585863054 0.3082680848
830295020.0 0.0610113949 0.3019514011 -0.0894252902 -0.4178914427 -0.0894328323 -0.4178473347 0.0611546135 0.3071173574
