!Created with skrf (http://scikit-rf.org).
# Hz S RI R 50.0 
!freq ReS11 ImS11 ReS21 ImS21 ReS12 ImS12 ReS22 ImS22
300000.0 -0.7727438374 -0.1825989425 1.68334e-05 0.0004505627 -0.0007511302 9.48867e-05 0.8593087388 -0.0021508558
5299970.0 -0.7863495116 -0.0096756929 -4.55549e-05 7.43705e-05 -1.79444e-05 4.45087e-05 0.859309446 -0.0095996999
10299940.0 -0.7894076429 -0.006368174 4.35229e-05 2.69573e-05 1.92567e-05 0.0001889986 0.8584829319 -0.0190427248
15299910.0 -0.794281751 -0.003241091 -1.08022e-05 1.99581e-05 0.0001179013 1.93523e-05 0.8577070708 -0.0275489257
20299880.0 -0.8011421601 0.0006699876 0.0001194967 0.0002035244 -7.81896e-05 -4.4549e-05 0.8562490038 -0.035619825
25299850.0 -0.8075141568 0.0066458558 0.0001459749 -9.09604e-05 0.0001009722 -0.0001133348 0.8555142559 -0.044304397
30299820.0 -0.8140757188 0.0140032957 -5.44999e-05 8.8439e-06 5.85156e-05 -0.0001827557 0.8550406747 -0.0528465853
35299790.0 -0.8185342978 0.0229082267 0.0002342265 -6.76288e-05 2.6315e-05 -8.9229e-05 0.8545476697 -0.0613125465
40299760.0 -0.8237544466 0.0321147442 -0.000100804 7.34923e-05 2.59286e-05 -0.0001562567 0.85368257 -0.0692764576
45299730.0 -0.8268288145 0.041598154 0.0002556092 -0.0001159066 -0.0001114354 -6.03387e-05 0.8525389323 -0.0771743066
50299700.0 -0.8292457161 0.0521916316 0.0001468018 -1.35732e-05 -8.07145e-05 1.52543e-05 0.8520509939 -0.0855973827
55299670.0 -0.8313604972 0.0617360804 -0.0001500895 4.60621e-05 -1.48172e-05 3.64409e-05 0.8507945697 -0.0933849165
60299640.0 -0.8323141289 0.0722172344 4.76284e-05 5.21566e-05 0.0001414742 9.71838e-05 0.8496894357 -0.1024807298
65299610.0 -0.8334602144 0.0817733004 0.0001046292 -0.0001185532 3.5905e-06 -8.36256e-05 0.8488546467 -0.1105884014
70299580.0 -0.8340587226 0.0914019188 9.3876e-05 6.62505e-05 -6.79275e-05 -5.30791e-05 0.8477577877 -0.1187549708
75299550.0 -0.8338927583 0.1019548208 0.0001012231 -3.09056e-05 2.47239e-05 0.0001628554 0.846135471 -0.1273391132
80299520.0 -0.8341166701 0.1121267208 1.12645e-05 5.6176e-06 8.53741e-05 -1.5609e-06 0.8449444131 -0.1353701117
85299490.0 -0.832648117 0.1216083486 -4.2183e-06 1.71825e-05 -0.0002263052 9.77839e-05 0.8436004525 -0.1439464775
90299460.0 -0.8327625623 0.1317791656 0.0001147345 0.0001525355 -4.4198e-06 -0.0001039215 0.8421657892 -0.1514606273
95299430.0 -0.8321207584 0.1405239834 0.0001251976 -6.37947e-05 8.5884e-05 -2.68386e-05 0.8405371599 -0.1599768298
100299400.0 -0.8306825736 0.1498516384 5.65825e-05 0.0001385365 -5.33782e-05 -2.11925e-05 0.8389954514 -0.1679440456
105299370.0 -0.8286431902 0.1589895409 -3.08783e-05 -0.0002794978 0.0001823001 -6.41448e-05 0.8371940854 -0.1763057639
110299340.0 -0.8275291593 0.16826605 -0.0001433313 0.0001914166 -0.0001079051 9.49599e-05 0.8353902591 -0.184893824
115299310.0 -0.8261536347 0.1777723846 -5.38527e-05 5.6474e-05 -0.0001591999 -2.34053e-05 0.8331557124 -0.1929390239
120299280.0 -0.824417872 0.1862394012 -2.7606e-05 -5.98833e-05 7.98789e-05 5.33054e-05 0.8319516998 -0.2008427799
125299250.0 -0.8222605434 0.1955122846 -3.6724e-05 -2.46008e-05 -3.69735e-05 -3.48201e-05 0.829464224 -0.2089415596
130299220.0 -0.821034439 0.2050286989 2.3285e-05 -2.54308e-05 0.0001020887 2.69665e-05 0.8278227421 -0.2168842652
135299190.0 -0.8184847251 0.2143762181 -0.0003650044 0.0001121208 -0.0001398384 6.47646e-05 0.8253185312 -0.2253304465
140299160.0 -0.8176923946 0.223495683 0.0002007847 -7.27269e-05 -5.57511e-05 -7.468e-06 0.8228372975 -0.2332160433
145299130.0 -0.8152042667 0.2323234308 6.75453e-05 6.54003e-05 1.86281e-05 5.11258e-05 0.820352228 -0.2416036126
150299100.0 -0.8117834239 0.2410692501 -0.0001775892 -7.90514e-05 4.25727e-05 1.05818e-05 0.8179524237 -0.2494522922
155299070.0 -0.8101948307 0.2502365486 5.74691e-05 3.42813e-05 -3.3252e-05 -0.0001141655 0.8159239288 -0.2577359046
160299040.0 -0.8075786603 0.2593782701 -1.68758e-05 8.85188e-05 2.32049e-05 5.70549e-05 0.8132945075 -0.265511592
165299010.0 -0.8042216893 0.2676173066 -9.46623e-05 -0.0001823125 0.0001371208 3.39678e-05 0.8106681695 -0.2733281113
170298980.0 -0.8018030662 0.2763851613 -8.42196e-05 -0.0001031055 -1.70821e-05 -0.000281615 0.8068538809 -0.2814485418
175298950.0 -0.7992711155 0.2846927844 -3.11618e-05 -9.55964e-05 0.0001168956 -6.23577e-05 0.8052156289 -0.2886659814
180298920.0 -0.7962453054 0.2932950213 0.000222468 4.2142e-05 0.0001594543 2.01032e-05 0.8017058304 -0.2967369197
185298890.0 -0.792809514 0.3022447929 -3.0729e-06 0.0002031872 9.41977e-05 -0.0001615344 0.7990204064 -0.3047624263
190298860.0 -0.7894468985 0.3112053801 8.83939e-05 -0.0001106777 -0.0001009576 0.0001154529 0.7955718586 -0.3130573153
195298830.0 -0.7865605531 0.319575667 2.15057e-05 0.0001218356 -0.0001149311 0.0001154248 0.7927701001 -0.3204462434
200298800.0 -0.7826851819 0.3280558408 0.0001492364 -4.75043e-05 -0.0001682312 -0.0001073019 0.7895533053 -0.3281825076
205298770.0 -0.7796373607 0.3364333401 0.0001303224 0.000246956 5.5828e-06 2.13648e-05 0.7865419267 -0.3362460932
210298740.0 -0.7760929127 0.3447482107 -2.20766e-05 0.0001968367 0.0001958254 1.45045e-05 0.7828997859 -0.3440529638
215298710.0 -0.771991538 0.3534637812 0.0001127201 5.16511e-05 0.000147484 -0.0001687791 0.7795404646 -0.3515157138
220298680.0 -0.7686891298 0.3608885359 -6.61511e-05 0.000150773 0.000135232 4.76419e-05 0.7756817208 -0.3586296331
225298650.0 -0.7648331087 0.3694921572 -0.0001207549 -7.9931e-05 7.84826e-05 0.0002256234 0.7723184703 -0.366425967
230298620.0 -0.7608052475 0.3777724168 0.0001754086 -0.0001283671 9.97665e-05 1.96909e-05 0.7688528102 -0.3735235102
235298590.0 -0.757059538 0.3857575682 7.32434e-05 -7.95251e-05 3.67413e-05 0.0001023992 0.7649533531 -0.3809538477
240298560.0 -0.7530239185 0.3940214086 0.0001808888 -2.57916e-05 6.05218e-05 1.95554e-05 0.7614055361 -0.3884293347
245298530.0 -0.7490596577 0.4014221965 3.21864e-05 -5.72609e-05 -2.03125e-05 -6.90343e-05 0.757427334 -0.396208261
250298500.0 -0.7446634562 0.4095476405 -0.0001292644 2.40196e-05 -8.3966e-06 0.0002203301 0.753247549 -0.4035040666
255298470.0 -0.7408132187 0.4176177918 -0.0002323562 -4.65795e-05 0.0001449275 0.0002152464 0.7496735881 -0.4111207277
260298440.0 -0.7358783833 0.4251255557 -0.0001531641 1.7506e-06 -9.01853e-05 1.50039e-05 0.7448881251 -0.4184630982
265298410.0 -0.7319953658 0.4331743564 -7.24783e-05 -2.55558e-05 9.18798e-05 2.80951e-05 0.7416208806 -0.4250640609
270298380.0 -0.7270815284 0.4406576937 -8.65963e-05 8.37879e-05 1.95764e-05 -5.3051e-05 0.7371184134 -0.4328071838
275298350.0 -0.7235143308 0.4486614427 6.75408e-05 2.1084e-06 0.000241765 -9.23218e-05 0.7322574474 -0.4397854163
280298320.0 -0.7184194004 0.4556091667 -0.0001340411 -9.38069e-05 -4.20706e-05 0.0002050867 0.7282608437 -0.4467884624
285298290.0 -0.7136986157 0.4633928551 -8.29336e-05 -8.02723e-05 -0.0001283001 5.46406e-05 0.724297317 -0.4538699496
290298260.0 -0.7087197699 0.4714051606 2.43046e-05 -4.46497e-05 -4.45636e-05 -8.46591e-05 0.7199964639 -0.4606436128
295298230.0 -0.7038777403 0.4783759578 -0.000175486 4.64228e-05 0.0002056976 8.63096e-05 0.715264595 -0.4676500242
300298200.0 -0.6993149951 0.4854287719 -2.05746e-05 -1.69844e-05 -0.0001137653 2.0828e-06 0.711032608 -0.4750102779
305298170.0 -0.694620012 0.4925887207 -8.28189e-05 3.52097e-05 -2.29244e-05 4.45203e-05 0.7066308141 -0.4824227009
310298140.0 -0.6888215762 0.4996489497 -6.45866e-05 3.9754e-06 -2.52438e-05 5.38647e-05 0.7019921523 -0.4897036611
315298110.0 -0.6848776466 0.5074369911 -2.2448e-05 -0.000143137 -6.30338e-05 -8.0292e-05 0.6975868431 -0.49683692
320298080.0 -0.6789819449 0.5143258099 3.56928e-05 0.0001303534 -7.31944e-05 2.52601e-05 0.6922490746 -0.5043813001
325298050.0 -0.6733262915 0.5207744032 -3.56201e-05 -0.0001082803 -1.72225e-05 6.23687e-05 0.6871219124 -0.5118474798
330298020.0 -0.6681929655 0.5283149372 3.06945e-05 -0.000240084 -0.0001327031 8.60325e-05 0.6821697465 -0.5197861057
335297990.0 -0.6629256988 0.535045819 5.09881e-05 -0.00016262 5.12089e-05 0.0001021027 0.6755380243 -0.525790147
340297960.0 -0.6579111321 0.5415768773 -3.53472e-05 -1.4924e-06 -9.54941e-05 -8.71633e-05 0.6697587446 -0.5324520987
345297930.0 -0.6519256666 0.5485130365 5.28972e-05 0.0002058145 -2.78898e-05 -7.46355e-05 0.6643521523 -0.538784878
350297900.0 -0.6464254181 0.5549162793 -9.08502e-05 -8.1338e-06 7.36832e-05 9.97764e-05 0.6581966037 -0.545478179
355297870.0 -0.6409369988 0.5612689112 -8.28601e-05 -7.7276e-05 8.34833e-05 -4.96368e-05 0.6527545204 -0.5513645795
360297840.0 -0.6347190251 0.5681304544 -9.95246e-05 -7.3256e-06 -8.92208e-05 -3.87528e-05 0.6465434633 -0.5575554407
365297810.0 -0.6295129959 0.5746728114 1.49046e-05 0.0001492854 -3.5392e-06 9.96615e-05 0.6411897822 -0.564050618
370297780.0 -0.6231402052 0.5809590113 5.82667e-05 -0.0002485375 -0.0002055248 -3.44701e-05 0.635038698 -0.569653896
375297750.0 -0.6180197187 0.5870553576 -4.64624e-05 7.6076e-06 0.0002059294 4.73931e-05 0.6301822595 -0.5758339643
380297720.0 -0.6120517396 0.5937302613 1.82497e-05 6.12986e-05 -5.63795e-05 -6.4812e-05 0.6241632681 -0.5813732288
385297690.0 -0.6059652444 0.5998774317 1.32757e-05 0.0003201435 -0.0001274725 4.6982e-06 0.61787768 -0.5877799227
390297660.0 -0.5985339954 0.6055807937 6.6548e-06 -0.0002452382 3.11942e-05 -4.8283e-05 0.6121475287 -0.593295463
395297630.0 -0.5929411441 0.6118791754 7.57622e-05 -0.0001101041 0.0001187871 -7.60081e-05 0.6061172301 -0.5994942957
400297600.0 -0.5866486212 0.6184301849 -2.94144e-05 0.0001307975 -6.6014e-06 0.000172684 0.6002728955 -0.6046545321
405297570.0 -0.5804441429 0.6233185436 0.0001455097 -2.688e-05 -0.0001183683 4.8667e-06 0.5939638689 -0.6109001307
410297540.0 -0.5737137817 0.6296698145 -0.0003204488 -3.071e-07 0.0001832085 -0.0002122924 0.587720015 -0.6169576373
415297510.0 -0.5679956029 0.6359235636 -6.88722e-05 0.0002243306 3.32344e-05 -0.0001883726 0.5819011511 -0.622154976
420297480.0 -0.56037291 0.6409572903 -0.0002653874 4.0288e-06 3.44488e-05 4.06491e-05 0.5759442167 -0.6278005795
425297450.0 -0.5540690923 0.6465059801 -5.28e-05 6.09543e-05 -0.0001207567 4.38187e-05 0.5696572762 -0.6341728815
430297420.0 -0.5478577081 0.6520011124 3.06462e-05 0.0001595633 -0.0002342137 -1.23689e-05 0.5633322653 -0.6393234119
435297390.0 -0.5408078756 0.6576514185 3.40451e-05 0.0001568899 -0.0001144073 -6.99635e-05 0.5560824835 -0.6448820049
440297360.0 -0.5338680754 0.6632575276 -0.0001156555 4.09638e-05 6.55498e-05 -4.5831e-06 0.5504672477 -0.6499439719
445297330.0 -0.5276397253 0.6682885799 0.0002812252 0.0001655462 4.34614e-05 4.9161e-06 0.5433885325 -0.6546495904
450297300.0 -0.5199950633 0.673993023 -8.96259e-05 8.1893e-05 -0.0001214163 -0.0001092041 0.537331338 -0.6599973581
455297270.0 -0.5134689183 0.6782799197 0.0001175125 0.0001708671 -9.99325e-05 -0.000278386 0.5311280016 -0.6652813133
460297240.0 -0.505497971 0.6841515789 -7.71314e-05 7.86929e-05 -2.09849e-05 2.80895e-05 0.523871745 -0.6707600733
465297210.0 -0.4986267116 0.6893429077 4.39427e-05 -7.63031e-05 6.3149e-05 9.58065e-05 0.5171545285 -0.6750397114
470297180.0 -0.4919305587 0.6940287415 -0.0001013328 0.0002058124 2.3318e-06 3.71343e-05 0.5108760661 -0.6804538854
475297150.0 -0.4847237345 0.6988271589 -8.00378e-05 -0.0001548259 -0.0001652516 -8.672e-06 0.5044530365 -0.685130456
480297120.0 -0.4767287903 0.704212958 0.0003294271 8.10584e-05 0.0001994211 -0.0003349757 0.4970100775 -0.6900608913
485297090.0 -0.4698352875 0.7082398678 -5.14053e-05 2.95843e-05 0.0001043546 9.35512e-05 0.4901806455 -0.6953426153
490297060.0 -0.4619819189 0.713692451 2.68783e-05 0.0001495025 4.97727e-05 -7.28335e-05 0.483508871 -0.6996483849
495297030.0 -0.4544090922 0.718084718 7.0562e-06 -7.2205e-06 9.70722e-05 0.0001304304 0.4760862325 -0.7048020885
500297000.0 -0.4472850945 0.7223016574 -0.0001181121 -8.12528e-05 -3.40555e-05 8.5072e-05 0.4698446545 -0.7090300055
505296970.0 -0.4393928798 0.7270072292 -0.0001177757 -0.0001100644 -6.314e-06 -9.17046e-05 0.4617308976 -0.7135684605
510296940.0 -0.4320284789 0.7315536952 2.49586e-05 -0.0002574282 5.11644e-05 -9.5308e-06 0.4544790108 -0.7178906653
515296910.0 -0.4241013613 0.7358147645 8.84833e-05 0.0001650215 7.00519e-05 -0.0002490296 0.4479971793 -0.7226382062
520296880.0 -0.4163108432 0.7402532359 -3.04662e-05 7.26026e-05 -7.21348e-05 5.94566e-05 0.4410131469 -0.7267521761
525296850.0 -0.4084294403 0.7441204173 0.0001028481 0.000143999 -0.0001737594 4.49373e-05 0.4333836334 -0.7310508461
530296820.0 -0.4009580627 0.7483636258 -0.0001356284 7.91527e-05 -8.32735e-05 -0.0001158507 0.4263153889 -0.735452643
535296790.0 -0.3925030876 0.7520631799 8.57e-07 -0.0001665301 9.70053e-05 -0.000136996 0.4196176888 -0.7388360163
540296760.0 -0.3849857903 0.7558602265 2.81431e-05 0.0001460043 -8.15183e-05 -5.43434e-05 0.4116936597 -0.7427343004
545296730.0 -0.3773667503 0.7605849274 6.66228e-05 -7.70155e-05 -1.2533e-06 8.5011e-06 0.4040415434 -0.747136891
550296700.0 -0.3690734349 0.7634795529 -0.0001018069 2.02724e-05 -1.23168e-05 -0.0001093371 0.3967239933 -0.7504552014
555296670.0 -0.3618049684 0.7669933938 0.0002525647 -0.0002061134 5.00068e-05 4.03266e-05 0.3889121625 -0.7545148398
560296640.0 -0.3532055037 0.7706633304 -0.0002083214 8.84885e-05 -2.25682e-05 0.0001104077 0.3817141621 -0.7585370383
565296610.0 -0.3456787307 0.7745727095 -2.10589e-05 5.83214e-05 -9.0088e-05 0.0001305566 0.3736329013 -0.7618514874
570296580.0 -0.3370727383 0.7783790885 8.79438e-05 -6.78712e-05 0.0002009721 -1.80746e-05 0.3662888772 -0.7663502166
575296550.0 -0.3281377829 0.7812436583 5.70784e-05 0.0003010895 5.577e-07 1.21982e-05 0.3585751954 -0.7690699788
580296520.0 -0.3205422564 0.7848282878 6.56834e-05 0.0001309615 -3.75985e-05 -3.3361e-06 0.3510841226 -0.7724925426
585296490.0 -0.3128652311 0.7878282922 2.90447e-05 -2.05701e-05 -1.90664e-05 0.0001656824 0.3434128171 -0.7752848881
590296460.0 -0.3038236758 0.7910004257 -8.76055e-05 0.0001375439 2.19761e-05 0.0001510965 0.3356686696 -0.7786427599
595296430.0 -0.2962181273 0.7938727457 -0.0002063815 -0.0001747422 2.44299e-05 -6.97715e-05 0.3280938763 -0.7825783657
600296400.0 -0.2885349392 0.796823254 0.0001817134 0.0002412906 0.0001469049 0.0001612896 0.3199937693 -0.7850682733
605296370.0 -0.2798635171 0.7995034589 1.60931e-05 1.797e-06 7.9585e-06 -2.9308e-06 0.3122198522 -0.788048501
610296340.0 -0.2713356853 0.8032555598 3.1211e-06 -2.06072e-05 0.0001271311 -8.01352e-05 0.3034900482 -0.7912575918
615296310.0 -0.2627652978 0.8057578294 -0.0001578965 0.000197815 0.0002666422 -0.0001607825 0.296470931 -0.7943541076
620296280.0 -0.2545627142 0.8081870873 4.27018e-05 -3.21584e-05 -0.0001758635 -0.0001478726 0.2887285043 -0.7964262061
625296250.0 -0.2470605269 0.8100442905 0.0001579774 -7.79627e-05 2.96698e-05 0.0001784085 0.2803498853 -0.8004237406
630296220.0 -0.2388364641 0.8129010979 -9.69207e-05 -3.11174e-05 -6.56013e-05 6.45867e-05 0.2728029982 -0.8025239877
635296190.0 -0.2301961787 0.8156515926 0.0002015119 -8.60357e-05 -4.30551e-05 -2.96753e-05 0.2646899156 -0.8043487788
640296160.0 -0.2217472086 0.8182303657 -8.41429e-05 0.0001012108 -0.0002101445 -3.27458e-05 0.2557138404 -0.8070347354
645296130.0 -0.2134298962 0.820613714 -8.98813e-05 -7.1802e-06 -3.14337e-05 0.0001165498 0.2480386724 -0.809095234
650296100.0 -0.2053128354 0.8216113082 0.0002921669 -0.0001639929 -0.00014195 0.0001274151 0.2403939299 -0.8116706134
655296070.0 -0.1974462147 0.82400393 -8.4383e-06 -7.6836e-05 -3.48471e-05 9.5929e-06 0.2321360242 -0.8140762365
660296040.0 -0.1890019666 0.8264285729 3.16507e-05 -6.31143e-05 -8.99618e-05 9.34792e-05 0.2241260216 -0.816212383
665296010.0 -0.1809244751 0.8282035058 -5.92682e-05 5.1719e-06 0.0001737888 -0.0001637361 0.2162416333 -0.8180540598
670295980.0 -0.1725826699 0.8301953628 -8.28891e-05 0.0003353863 2.40637e-05 0.0001191888 0.2075139421 -0.8199866913
675295950.0 -0.1639303426 0.8322697217 0.0001061706 0.0002290654 0.0001676777 -7.93795e-05 0.199376198 -0.8220222289
680295920.0 -0.1564044795 0.8340640218 -0.0003039166 -0.0001640451 -0.0001251126 -3.1481e-06 0.1913454698 -0.8242878082
685295890.0 -0.1473782054 0.8355794887 0.0001286768 0.0002261429 0.0001058011 0.0001882715 0.1834213123 -0.8255687238
690295860.0 -0.139029074 0.836646622 0.0001246456 -0.0002235299 9.87706e-05 -0.0001297078 0.1747889667 -0.8273963061
695295830.0 -0.1304396299 0.8381707307 8.89249e-05 -0.0001376112 -0.0001261454 2.69424e-05 0.166647295 -0.8282777177
700295800.0 -0.1225798211 0.8402370663 -2.09109e-05 -0.0001550705 7.1689e-06 -3.0758e-05 0.1586412164 -0.8300804224
705295770.0 -0.1147734959 0.8414381434 -9.3321e-06 -0.0001364583 0.0001387804 0.0001206715 0.1495989179 -0.8314838726
710295740.0 -0.1066930665 0.8422681307 0.0001098273 9.71746e-05 -0.0001087618 -0.0001967912 0.1419961894 -0.8327588988
715295710.0 -0.0974957319 0.8438538125 0.0002257612 -7.37174e-05 -9.32117e-05 2.29067e-05 0.1340573932 -0.834236827
720295680.0 -0.0885852972 0.8443774667 -2.82716e-05 -0.0001719104 -5.9652e-06 1.92043e-05 0.1255195138 -0.8357744834
725295650.0 -0.0810920198 0.845828596 -5.47133e-05 -0.0001490359 0.0001674301 0.0002635823 0.1164879984 -0.8355616535
730295620.0 -0.0734528218 0.8467555402 -0.0001362286 -0.0001640465 -4.56907e-05 9.4286e-06 0.107932175 -0.8377262383
735295590.0 -0.065839601 0.8475244282 -0.0002799587 7.58652e-05 5.27566e-05 -0.000225728 0.100755888 -0.8380060523
740295560.0 -0.0572545913 0.8475780571 -4.70759e-05 -6.20269e-05 -0.0002033999 -6.76118e-05 0.0919579051 -0.8390883268
745295530.0 -0.0487588828 0.8489637004 0.0002673358 8.26186e-05 5.57353e-05 -0.0001146178 0.0829927575 -0.8395795111
750295500.0 -0.0408685432 0.849473219 -2.24009e-05 7.97915e-05 0.0001867077 0.0001938033 0.0750643595 -0.840544435
755295470.0 -0.0319940417 0.8499443529 -8.69584e-05 -0.0001122525 -5.931e-05 7.17005e-05 0.0669082546 -0.8405754152
760295440.0 -0.0243732893 0.8508442012 -0.0001832232 0.000121152 7.99735e-05 0.0001958109 0.0586947785 -0.8415080576
765295410.0 -0.0157623513 0.8503837174 -7.56815e-05 -7.32472e-05 1.09118e-05 8.95543e-05 0.0494875399 -0.841380278
770295380.0 -0.0081067283 0.8508625565 -8.6973e-06 4.65921e-05 0.0001541073 -0.0001320459 0.0413026045 -0.8420921015
775295350.0 0.0001061687 0.8508861212 0.000180775 -0.0001201398 0.0001844558 -7.326e-07 0.0336132799 -0.8424381534
780295320.0 0.0093642696 0.851027036 4.48862e-05 -9.25523e-05 0.0001406139 1.47463e-05 0.0246951064 -0.8421126744
785295290.0 0.0172402442 0.8508505077 -0.0001194588 -2.41976e-05 0.0001004655 -3.19881e-05 0.0160000824 -0.8422143541
790295260.0 0.0247885807 0.8505226512 -0.0002381334 -9.32298e-05 0.0001054906 0.0001358518 0.0078846697 -0.8419809565
795295230.0 0.0333931977 0.8503825096 -3.20361e-05 -0.000119219 -0.0002531991 0.0001062146 -0.0011987087 -0.8428445347
800295200.0 0.0412456062 0.8506277852 9.34564e-05 7.91376e-05 4.0056e-06 -8.60792e-05 -0.0091209434 -0.8419306662
805295170.0 0.0493518584 0.8506521369 -5.24066e-05 0.0001968631 0.0002287542 2.06e-05 -0.0163513775 -0.8419153028
810295140.0 0.0578508626 0.8506627567 -1.10829e-05 8.84159e-05 -0.0002172561 8.98042e-05 -0.0257186207 -0.841558617
815295110.0 0.0657869159 0.8492676868 -5.2271e-06 -7.20483e-05 -8.89921e-05 -1.42894e-05 -0.0341864053 -0.8413902208
820295080.0 0.074108452 0.8490212383 4.0586e-06 0.0001405346 -0.0001237808 -8.7835e-05 -0.0429459174 -0.8403268583
825295050.0 0.0815598147 0.8481050084 5.8452e-06 -0.0002106274 0.0001106478 0.0001810472 -0.0503429762 -0.8396106691
830295020.0 0.0905572303 0.8475384505 2.66391e-05 -6.1777e-05 -4.2472e-06 -0.0001495874 -0.05978525 -0.8392169646
835294990.0 0.098456582 0.8467667634 -0.0002679728 0.0001427868 -3.12769e-05 0.0001283242 -0.0674096352 -0.8380113031
840294960.0 0.1069703352 0.8454720446 -5.62248e-05 0.0001321066 -5.69785e-05 -9.49569e-05 -0.0759439326 -0.8373312335
845294930.0 0.1149353343 0.8444949166 -0.0001134971 0.0001658031 2.43011e-05 2.56146e-05 -0.0838483452 -0.836402794
850294900.0 0.1238769757 0.8432870036 0.0001555149 -1.33384e-05 1.88946e-05 0.000113422 -0.0921142004 -0.8357481955
