!Created with skrf (http://scikit-rf.org).
# Hz S RI R 50.0 
!freq ReS11 ImS11 ReS21 ImS21 ReS12 ImS12 ReS22 ImS22
300000.0 -0.100827238 -0.0727517529 0.6306931374 0.0672390905 0.6247595737 0.0671631484 -0.100684044 -0.079118824
5299970.0 -0.1020391045 0.0130530778 0.6306476101 0.0101146 0.6303011951 0.010677949 -0.1008118962 0.0127835211
10299940.0 -0.0973733277 0.0291211651 0.6337057822 0.014932124 0.6338623796 0.015823309 -0.0957171294 0.0302659104
15299910.0 -0.0899781313 0.042481588 0.6404726289 0.0207370186 0.6406404199 0.0207016192 -0.0884390833 0.0434623522
20299880.0 -0.0816514258 0.0530920088 0.6483847028 0.0244541137 0.6483948713 0.023968558 -0.0796969247 0.0544788362
25299850.0 -0.0723410438 0.0622836882 0.6578995293 0.0253176469 0.6575586846 0.0254173383 -0.069642733 0.0635165592
30299820.0 -0.0620266841 0.0688763464 0.6672946572 0.0242659725 0.6672166369 0.0243474693 -0.0596553675 0.0700209452
35299790.0 -0.052541654 0.0736595061 0.6773835415 0.0213264317 0.6772707335 0.0213323753 -0.0499211775 0.0749588796
40299760.0 -0.0433077195 0.0770881071 0.6859756691 0.0173766055 0.6865085662 0.0174705175 -0.0402523293 0.0777371705
45299730.0 -0.0339760288 0.0792189924 0.6948289278 0.0118803166 0.6954681903 0.0119457671 -0.0313489731 0.0796961249
50299700.0 -0.025651762 0.080303664 0.7036514756 0.0049610262 0.7034837353 0.0056455701 -0.0225366667 0.0805270207
55299670.0 -0.0178561194 0.0804205349 0.7107945014 -0.0037991756 0.7105257761 -0.0024399782 -0.0148402231 0.0804659038
60299640.0 -0.0099127696 0.0800946971 0.717512481 -0.0116016222 0.7176541048 -0.010936923 -0.0078717239 0.0794946725
65299610.0 -0.0036957339 0.0787324899 0.7229865186 -0.019395159 0.7231568137 -0.0198073069 -0.0011119876 0.0786469098
70299580.0 0.0025265167 0.0775517864 0.7290133702 -0.0297130421 0.7285655709 -0.0290095268 0.0048005983 0.0767417873
75299550.0 0.0081764184 0.0758562581 0.7327101372 -0.0386964674 0.7326860654 -0.0389471276 0.0102430543 0.0747996368
80299520.0 0.0132945662 0.0737026725 0.7371978894 -0.0493713759 0.7370889758 -0.0487845214 0.0149280825 0.0728473477
85299490.0 0.0174857628 0.071546596 0.7403957243 -0.0586124497 0.7404765077 -0.0580565358 0.0192843123 0.0697896885
90299460.0 0.0218130387 0.0690504153 0.7426111368 -0.0690516638 0.7435317932 -0.0682539248 0.0236096349 0.0681143063
95299430.0 0.0256894948 0.0665934456 0.7454992592 -0.0787457571 0.7456256264 -0.079246245 0.0275620686 0.0657639209
100299400.0 0.0289143374 0.0647838778 0.7463828417 -0.0888110512 0.7472457793 -0.0888202088 0.0311660497 0.0625028069
105299370.0 0.032306411 0.0620278287 0.7485304151 -0.0993480956 0.7492541377 -0.0989527238 0.0340253351 0.0606321977
110299340.0 0.0349694084 0.0597526116 0.7502278031 -0.1087915997 0.7493870535 -0.1085152714 0.0361321945 0.058093588
115299310.0 0.0375398482 0.0572619207 0.7505434502 -0.1197028644 0.7505072602 -0.1194122313 0.039087271 0.055521719
120299280.0 0.0396908416 0.0546655253 0.750758111 -0.1294665147 0.7513784939 -0.1297128254 0.0413921632 0.053098235
125299250.0 0.0418185352 0.0521510725 0.7512098485 -0.1391923466 0.7516171303 -0.1390617544 0.0429576019 0.0505465678
130299220.0 0.043613336 0.0501880815 0.7510113107 -0.1497052739 0.7514201581 -0.1494149062 0.0448599072 0.0479828382
135299190.0 0.0453099496 0.048293805 0.7512179531 -0.1591207545 0.7512426815 -0.1586818665 0.0465546095 0.0459134871
140299160.0 0.0466810976 0.0461534119 0.7507911314 -0.1685223913 0.7507481827 -0.1689730353 0.0479464947 0.0443123432
145299130.0 0.0482297214 0.0438763447 0.7503364661 -0.1780738367 0.7495710777 -0.1782052721 0.04941084 0.0419320864
150299100.0 0.0496243604 0.0422088954 0.7486224665 -0.1871802688 0.7485544822 -0.1875670624 0.0506778846 0.0401713863
155299070.0 0.0503581457 0.039941952 0.7480576455 -0.1980458195 0.747383319 -0.1981594962 0.0518254525 0.0381485609
160299040.0 0.0519331364 0.0381096738 0.7462759408 -0.2072358184 0.7456128312 -0.2074512008 0.0518257278 0.0363035441
165299010.0 0.0525543317 0.0361707481 0.7443167472 -0.2169272441 0.7448070912 -0.2167781435 0.0536465433 0.0352791913
170298980.0 0.0534690185 0.0338994341 0.7427521116 -0.2265158072 0.7431078393 -0.2257788998 0.0541851582 0.0331680377
175298950.0 0.0538580302 0.0321945911 0.7413164609 -0.2353115164 0.740532444 -0.2354293404 0.0549671854 0.0312823016
180298920.0 0.0545506933 0.0304273014 0.7383760397 -0.2450241601 0.7389705515 -0.2442927972 0.0555022687 0.0296606833
185298890.0 0.0556570143 0.02881071 0.7367860026 -0.25384305 0.736393078 -0.253490768 0.0557956795 0.0284599897
190298860.0 0.0554882488 0.0275135506 0.7340016836 -0.2627601746 0.734617175 -0.2629844525 0.0564820384 0.0262898118
195298830.0 0.0564293271 0.0252364793 0.7317686867 -0.271909944 0.7322659402 -0.2716660286 0.0573230731 0.025032846
200298800.0 0.0563636297 0.0242471551 0.7290196117 -0.2810831397 0.7292650535 -0.2808827479 0.0569302614 0.0237395996
205298770.0 0.0570588233 0.022747839 0.7260757727 -0.2898869444 0.7260177872 -0.2895870921 0.0573487945 0.0214629741
210298740.0 0.057053396 0.021035383 0.7232447963 -0.2980133364 0.723165239 -0.2977228374 0.0578452521 0.0212625064
215298710.0 0.0570232588 0.0198623583 0.7205323584 -0.3070435331 0.719942474 -0.3071769225 0.057689824 0.0195424291
220298680.0 0.05761062 0.0178227776 0.7163646027 -0.3158473489 0.7166459815 -0.3154136873 0.0573362077 0.0182023211
225298650.0 0.0577722431 0.0167468051 0.7136296116 -0.3245182122 0.7138346454 -0.324435675 0.057526053 0.0165373787
230298620.0 0.0579409598 0.0158438174 0.7105633522 -0.3327859873 0.7109397806 -0.332879732 0.0573612678 0.0151478131
235298590.0 0.0578642519 0.0146634615 0.7067580599 -0.341626971 0.7069874314 -0.3411467902 0.0575536949 0.013911982
240298560.0 0.0578858024 0.0135703566 0.703048858 -0.3500700975 0.7034351402 -0.3495599189 0.0577505645 0.0131570944
245298530.0 0.0580881383 0.0119560158 0.6995155604 -0.3581416841 0.6996114676 -0.3582835927 0.058543796 0.0108785819
250298500.0 0.0583139855 0.0109928847 0.6947587533 -0.3666414366 0.6952519172 -0.365833907 0.0579893039 0.0104506982
255298470.0 0.0585918931 0.0097387145 0.6916468932 -0.3740342142 0.6915961862 -0.3739189145 0.0580619446 0.0090322244
260298440.0 0.0578575409 0.0082688757 0.687511444 -0.3833877694 0.687807692 -0.3823675556 0.05874895 0.0080500682
265298410.0 0.059167952 0.0076864842 0.6839544774 -0.3910629876 0.6837925027 -0.3907178695 0.0583696399 0.0067465875
270298380.0 0.0585856328 0.0060474506 0.679704659 -0.3982937953 0.6795763746 -0.3983472395 0.0578652156 0.0058471775
275298350.0 0.0589702163 0.0051608173 0.6754948074 -0.406422848 0.6756115612 -0.4065012375 0.0585022775 0.0042421074
280298320.0 0.0587636796 0.0043283889 0.670778106 -0.4149385169 0.6710554663 -0.4144547207 0.0586793548 0.0029373198
285298290.0 0.0588190231 0.0032871595 0.6661195828 -0.4221993754 0.6662094802 -0.4222093714 0.0585748576 0.0022739943
290298260.0 0.0589896835 0.0022193259 0.6615982907 -0.429912161 0.6620240637 -0.4298934445 0.0587178077 0.0016829348
295298230.0 0.0590577344 0.0008009365 0.6578482102 -0.4378163297 0.6570317295 -0.4373255322 0.059242279 0.0003640202
300298200.0 0.0583324056 -6.67868e-05 0.6530752501 -0.4447592414 0.65328613 -0.4458355006 0.0588371215 -0.0007535371
305298170.0 0.0587821191 -0.0015092807 0.6473522187 -0.4538827258 0.6476704124 -0.4534276568 0.0596415426 -0.0020975016
310298140.0 0.0586254 -0.0024111073 0.6429581716 -0.461184115 0.6434076622 -0.4605800982 0.0591510863 -0.003201115
315298110.0 0.0584722602 -0.004174157 0.638264169 -0.4682017395 0.6382810355 -0.4684095856 0.0592082016 -0.0046416227
320298080.0 0.0586650266 -0.0049330541 0.632037478 -0.476039844 0.6329167239 -0.4754056846 0.0588389977 -0.0052154783
325298050.0 0.0577580002 -0.0061582789 0.627357876 -0.4832421918 0.6274680392 -0.4834502673 0.0581821094 -0.0062797464
330298020.0 0.0574876722 -0.007564939 0.6211964739 -0.4906201465 0.6217506388 -0.4909713288 0.0574400408 -0.0077118783
335297990.0 0.0571945071 -0.0086978682 0.6161603674 -0.4980724255 0.615511846 -0.4980503923 0.0568126079 -0.0077006155
340297960.0 0.056137269 -0.0091828996 0.6099302765 -0.5048325141 0.6094569225 -0.5047490043 0.0569637846 -0.0084445623
345297930.0 0.0556552355 -0.0094193093 0.6041265466 -0.5121793734 0.6039956886 -0.5123126209 0.0564484601 -0.0097730829
350297900.0 0.0555188562 -0.0109747949 0.5976960389 -0.5185876154 0.5979127438 -0.5184601534 0.0558575091 -0.0097771843
355297870.0 0.0550421693 -0.0107026008 0.5921120046 -0.5250480945 0.5925310845 -0.5251182721 0.0552737942 -0.0106831585
360297840.0 0.0547620144 -0.0113837476 0.5877339747 -0.5317416141 0.587251801 -0.5314572441 0.0549493385 -0.011135605
365297810.0 0.0540096834 -0.0120562171 0.580325036 -0.5385922413 0.5813830382 -0.5383362716 0.0548392728 -0.0117006263
370297780.0 0.0542807165 -0.0129034613 0.5746134595 -0.5446613197 0.575141784 -0.544197092 0.0542321504 -0.0120683859
375297750.0 0.0537033062 -0.0138372305 0.5685447183 -0.5515898671 0.5698153217 -0.5510067023 0.0542403847 -0.0130082322
380297720.0 0.0535477987 -0.0144437424 0.5629645852 -0.5577506395 0.5627863175 -0.5565603349 0.0533703487 -0.0141788868
385297690.0 0.0527294104 -0.0151575458 0.5560968391 -0.5636647349 0.55636081 -0.5636233733 0.0533838879 -0.014153129
390297660.0 0.0526912356 -0.0151451538 0.5503534971 -0.5701108563 0.5502166753 -0.5693189387 0.0525421275 -0.0151007819
395297630.0 0.0520687514 -0.0160688915 0.5443661891 -0.5760692178 0.5437454594 -0.5761879924 0.0531008733 -0.015486302
400297600.0 0.0518475266 -0.0165022432 0.5370564622 -0.5829039722 0.5375610376 -0.582142134 0.0525180278 -0.0161255025
405297570.0 0.0513093735 -0.0174993838 0.5310681275 -0.5881333889 0.5313514007 -0.5878416992 0.0517357702 -0.0167507247
410297540.0 0.0513762091 -0.0180771988 0.5247889291 -0.5944518128 0.5252981992 -0.5936919083 0.0513324946 -0.0174332174
415297510.0 0.0513348662 -0.0187773047 0.5176011064 -0.6000756351 0.5184624208 -0.5997745524 0.0508574993 -0.0178567152
420297480.0 0.0508067595 -0.0189879846 0.5107639927 -0.6059982808 0.5111131125 -0.6059205652 0.0506623111 -0.0189194449
425297450.0 0.0501418101 -0.0205617828 0.5049406364 -0.6110319441 0.5050633424 -0.6109500191 0.0497313755 -0.0188892114
430297420.0 0.0499107343 -0.020756331 0.4977254342 -0.616558194 0.4981810476 -0.6163160549 0.0496026628 -0.0203333824
435297390.0 0.0492889296 -0.0213994124 0.4907900843 -0.6221226301 0.4908528901 -0.6219857056 0.0501075343 -0.0205341173
440297360.0 0.0495228917 -0.0214142719 0.4844345191 -0.6280373011 0.4842832682 -0.6273552971 0.0491300396 -0.0215728682
445297330.0 0.0486579459 -0.0229015671 0.4780740074 -0.6336940365 0.4777972363 -0.6326648749 0.0491204443 -0.0219813113
450297300.0 0.048825673 -0.0228758751 0.4705466522 -0.637933119 0.4701628662 -0.6387490394 0.0482790709 -0.022992803
455297270.0 0.0482981757 -0.0235300294 0.4631851784 -0.6431654585 0.4633761442 -0.6435141002 0.0481221866 -0.0230949749
460297240.0 0.0478787087 -0.0241806776 0.4558987622 -0.6486345518 0.4563562594 -0.6486105573 0.0477050148 -0.023514839
465297210.0 0.0476838115 -0.0248701375 0.449758331 -0.6540517255 0.4491055192 -0.6543072027 0.0476461312 -0.0249620411
470297180.0 0.0471635804 -0.0256272341 0.4419792634 -0.6586793786 0.4421348139 -0.6585192944 0.047392694 -0.024855752
475297150.0 0.0466942572 -0.0264171133 0.4344774836 -0.6627040692 0.4349687506 -0.6628894327 0.0472311463 -0.0258186159
480297120.0 0.0461846235 -0.0263012644 0.427409847 -0.668238501 0.4275204449 -0.6685990337 0.0471853151 -0.0259435766
485297090.0 0.0454974179 -0.0270639506 0.4199195439 -0.6730003915 0.4202049807 -0.6724578573 0.0465443467 -0.0269468012
490297060.0 0.0448864579 -0.0278402664 0.4130855683 -0.6783321995 0.4131176404 -0.6769101739 0.0459178994 -0.0266809548
495297030.0 0.0448340292 -0.0281155442 0.4047902735 -0.6815453976 0.4055381329 -0.6819557021 0.0451899783 -0.0275890095
500297000.0 0.0441439419 -0.0287749845 0.3974197449 -0.6863367507 0.3970798955 -0.6857201301 0.0450375803 -0.027397988
505296970.0 0.0439339068 -0.0294578413 0.389863253 -0.6905557647 0.3896282664 -0.6906182769 0.0445445396 -0.0281248633
510296940.0 0.0432497642 -0.0294320732 0.3824127811 -0.6948689127 0.3821783247 -0.6949887768 0.0444746749 -0.0283285787
515296910.0 0.0426549186 -0.0295636619 0.3743727376 -0.6991982495 0.3748211219 -0.6985953771 0.043838795 -0.0287446392
520296880.0 0.0422094819 -0.0306134733 0.3673753332 -0.704076773 0.3669144799 -0.7031817765 0.0431952272 -0.0296136864
525296850.0 0.0422503466 -0.0314548024 0.3586855759 -0.7070846154 0.3598276306 -0.7075666494 0.0428345491 -0.0297415956
530296820.0 0.0414708641 -0.0314715817 0.3513269277 -0.7116527136 0.3514161678 -0.7113469348 0.0423293049 -0.0302904815
535296790.0 0.0404483153 -0.0317533896 0.3444333832 -0.7153399956 0.3442071829 -0.7143569467 0.0417412198 -0.0310758705
540296760.0 0.0400662441 -0.0316540239 0.3357709549 -0.7190897703 0.3358045871 -0.7186735914 0.0408212088 -0.0305739692
545296730.0 0.0395671759 -0.0323671401 0.3273617743 -0.7221531752 0.3276362745 -0.722394115 0.0404963407 -0.0313017414
550296700.0 0.0397342094 -0.0325639962 0.3196888527 -0.725885143 0.3201680806 -0.7265558466 0.0397369966 -0.0315625162
555296670.0 0.038822196 -0.03314504 0.3117313215 -0.7296080041 0.3125849303 -0.7291011204 0.0394001538 -0.0319738757
560296640.0 0.0389074052 -0.0331221994 0.3038783505 -0.733224983 0.3043815127 -0.7327782125 0.0388897338 -0.032247201
565296610.0 0.0375199299 -0.0337607878 0.2959314229 -0.7361816295 0.2965350564 -0.736167338 0.0378249668 -0.0330093574
570296580.0 0.0371269274 -0.0339830106 0.288249818 -0.7399959373 0.2870874737 -0.7392321647 0.0377599888 -0.0324429274
575296550.0 0.0363912589 -0.0342209076 0.2796945382 -0.742860633 0.2801629221 -0.7424000505 0.037401983 -0.0336115514
580296520.0 0.0361733303 -0.0344928552 0.2716499487 -0.7457212886 0.2721141454 -0.7459561603 0.0366063655 -0.0340134917
585296490.0 0.0357334806 -0.0357074236 0.2640850736 -0.7480873895 0.2637356177 -0.7484137239 0.0362975338 -0.0342100034
590296460.0 0.0353523616 -0.0352621962 0.2554723677 -0.75047866 0.2556494725 -0.7511752576 0.0347816658 -0.0345435796
595296430.0 0.0352117489 -0.0355062721 0.246817972 -0.7543185624 0.2469643817 -0.754110473 0.0350714135 -0.0355985369
600296400.0 0.0339789931 -0.0362640432 0.2387729125 -0.7567921037 0.2387942305 -0.7562406867 0.0342785417 -0.035713964
605296370.0 0.0335578204 -0.0366856226 0.230587905 -0.7591589832 0.2309737421 -0.7591976978 0.0339227745 -0.0358147577
610296340.0 0.0333224041 -0.0368002412 0.2218765814 -0.7615530001 0.2225622228 -0.7614510956 0.033556306 -0.0363090863
615296310.0 0.0327756909 -0.0375658542 0.2135618378 -0.7638122272 0.2139137548 -0.7643969328 0.0329678723 -0.0363279714
620296280.0 0.03229935 -0.0377332328 0.205821551 -0.766311704 0.2058298829 -0.7659502304 0.0323924413 -0.0368852919
625296250.0 0.0312190853 -0.0385510777 0.198593803 -0.7686279651 0.1972066796 -0.7687290319 0.0323082551 -0.0372278513
630296220.0 0.0319129076 -0.0381405745 0.1886040606 -0.7706688396 0.1884285275 -0.7705407119 0.0315477977 -0.037065824
635296190.0 0.0298283006 -0.039152626 0.1806596217 -0.7728248969 0.1806411872 -0.772792819 0.03123294 -0.0376486273
640296160.0 0.0294484176 -0.0390903364 0.1719470377 -0.7741900157 0.1722975832 -0.7741231125 0.0305190605 -0.0377761292
645296130.0 0.0291331832 -0.0390792073 0.1633383889 -0.7758312597 0.1640086034 -0.7766438521 0.02996724 -0.0383131647
650296100.0 0.0287440224 -0.0395503666 0.1548038462 -0.7778337352 0.1554045727 -0.7781684008 0.0300818652 -0.0392274729
655296070.0 0.0277060033 -0.0401279629 0.1467233271 -0.7799159226 0.1468876767 -0.7798235492 0.0293708216 -0.0389085713
660296040.0 0.0267130791 -0.0409388798 0.1384002982 -0.7819333411 0.1382376493 -0.7814195198 0.0287348087 -0.039047461
665296010.0 0.0270251974 -0.04035434 0.1288434209 -0.7831785452 0.1296514929 -0.7826712913 0.0284539259 -0.0384351034
670295980.0 0.0248630233 -0.0403578443 0.1207609831 -0.7838440445 0.1207989443 -0.7842373598 0.0272702198 -0.0391428063
675295950.0 0.0250490111 -0.0405485522 0.1127601571 -0.7859620828 0.1126474403 -0.7848381315 0.0267905284 -0.0393237905
680295920.0 0.0242375413 -0.0412098239 0.1036746544 -0.7862919489 0.1032493439 -0.7869875592 0.0264890303 -0.0386644032
685295890.0 0.0239838375 -0.0401558609 0.0950754934 -0.7873056943 0.0952252372 -0.7872390108 0.0253326897 -0.0390395911
690295860.0 0.023656131 -0.04055864 0.087026187 -0.7877356761 0.0865726049 -0.7888829786 0.0248356144 -0.038411415
695295830.0 0.0228661453 -0.0414500851 0.0785369987 -0.7890730841 0.0778186862 -0.7891565836 0.0241926387 -0.0387541788
700295800.0 0.0224183236 -0.0417572522 0.0692866627 -0.790160005 0.0688057196 -0.7897340254 0.0239546199 -0.0385273568
705295770.0 0.0215807036 -0.0406289627 0.0603225806 -0.7909483009 0.0608817774 -0.790798617 0.0228463793 -0.0390759938
710295740.0 0.0212277186 -0.0414021881 0.0526616765 -0.7919294607 0.0526530381 -0.792155793 0.0227328782 -0.0399397467
715295710.0 0.0198994774 -0.0418035989 0.0442463769 -0.7917686764 0.0433449033 -0.7919075647 0.0222616291 -0.0396304724
720295680.0 0.0196881035 -0.0418997486 0.0347749255 -0.7927204359 0.0352454273 -0.7922659144 0.0211377119 -0.038755424
725295650.0 0.0192611813 -0.0415371276 0.0262155015 -0.7926929759 0.0262954738 -0.7928985764 0.0205085624 -0.0394580791
730295620.0 0.0189778855 -0.0413842854 0.0177479049 -0.7924488515 0.0179583732 -0.7934060421 0.0194637655 -0.0399635772
735295590.0 0.0181075169 -0.0412396804 0.0091554734 -0.7931126608 0.009143464 -0.7933325656 0.0188421875 -0.0402915432
740295560.0 0.0171539359 -0.0416289138 0.0003979743 -0.793028904 0.000503678 -0.7927736059 0.0190551249 -0.0394891171
745295530.0 0.0167187852 -0.0415372835 -0.0083794379 -0.7922287248 -0.0081983253 -0.7930407655 0.0183287048 -0.0405671096
750295500.0 0.0164838421 -0.0416110552 -0.017022703 -0.7922942072 -0.016722492 -0.79294413 0.0172615215 -0.0402141078
755295470.0 0.0157581143 -0.0420362911 -0.0250444282 -0.7924750639 -0.0248183474 -0.7930265551 0.017520781 -0.0405585337
760295440.0 0.0148290544 -0.0417045099 -0.033391949 -0.7926616147 -0.0337866667 -0.7926327066 0.0164119896 -0.0406454438
765295410.0 0.0142772183 -0.0418842354 -0.0427509114 -0.7918498199 -0.0426039517 -0.7919635499 0.0161047851 -0.0405839213
770295380.0 0.0133381165 -0.0423186661 -0.0518947579 -0.791188911 -0.0510116893 -0.7910519446 0.0150890688 -0.0410328325
775295350.0 0.0129181931 -0.0429857697 -0.0603191243 -0.7901095814 -0.0597626442 -0.7908052776 0.0134711237 -0.0404258636
780295320.0 0.0125689468 -0.0423080023 -0.0685079289 -0.7900821474 -0.0672037728 -0.7895796866 0.0134996134 -0.0414505298
785295290.0 0.0115106744 -0.0430364043 -0.0775098947 -0.7882843558 -0.0765348643 -0.7890574012 0.0138624647 -0.0407586368
790295260.0 0.0116724675 -0.0416956845 -0.0848329887 -0.7878917754 -0.0843197111 -0.7882207127 0.0125449576 -0.0411311724
795295230.0 0.0106262199 -0.0427297772 -0.0944642996 -0.7869903261 -0.0936093855 -0.7874859629 0.0126224605 -0.0406227057
800295200.0 0.009482949 -0.0421035486 -0.1036320831 -0.7857149104 -0.1024026043 -0.7863772296 0.0117523163 -0.0409402318
805295170.0 0.0091472988 -0.0425995165 -0.1111217206 -0.7850309709 -0.1111862023 -0.7852163204 0.0111104564 -0.0406508673
810295140.0 0.0079591567 -0.0427683093 -0.1201560261 -0.7836461354 -0.1195183154 -0.7840263267 0.0113524121 -0.040270875
815295110.0 0.0081696793 -0.0428264743 -0.1276812442 -0.7818734828 -0.1279988935 -0.782020883 0.0099225109 -0.0403542821
820295080.0 0.006742743 -0.0417201304 -0.1367166602 -0.7805154249 -0.1360809692 -0.7805882192 0.0093121054 -0.0404928914
825295050.0 0.0070335311 -0.0420858809 -0.1444873891 -0.778449984 -0.1445178389 -0.7791343281 0.0093904049 -0.040016693
830295020.0 0.0059977125 -0.0418014696 -0.1537648999 -0.7770221778 -0.1536124802 -0.7772828956 0.0092646626 -0.0400595317
