!Created with skrf (http://scikit-rf.org).
# Hz S RI R 50.0 
!freq ReS11 ImS11 ReS21 ImS21 ReS12 ImS12 ReS22 ImS22
300000.0 -0.2359803939 -0.1222819435 0.4656072863 0.0799290359 0.4662783783 0.0815356448 -0.2368338299 -0.1297108097
5299970.0 -0.2448320774 0.0051232912 0.4733835595 0.0063955111 0.4740562801 0.0058855767 -0.2436399118 0.0048671272
10299940.0 -0.2417697178 0.018329542 0.4759845749 0.0069017414 0.4756966541 0.0071157341 -0.23979825 0.0179923004
15299910.0 -0.2368322921 0.0281002231 0.4789610423 0.0080723026 0.4798571854 0.0080724482 -0.2358501821 0.0274688104
20299880.0 -0.2316361973 0.0363377222 0.4841832166 0.0084750872 0.4845689926 0.0084833669 -0.2310961744 0.0353706651
25299850.0 -0.2258306984 0.0427272582 0.4898714165 0.0082182748 0.4896521324 0.0077964626 -0.225875497 0.0416864995
30299820.0 -0.2200875126 0.0476242943 0.4948438028 0.0056227142 0.4953032543 0.0053589273 -0.2205061604 0.0467352531
35299790.0 -0.2144804145 0.0517504516 0.4998594703 0.0026314443 0.5004101582 0.0025774278 -0.2157792702 0.0513989576
40299760.0 -0.2092128257 0.0548549144 0.5055046044 -0.0018564711 0.5059379543 -0.0015654721 -0.2102111765 0.0546456904
45299730.0 -0.2041363323 0.0571661869 0.5104485827 -0.006067904 0.5105300149 -0.0064298725 -0.2054655107 0.0574158687
50299700.0 -0.1991719517 0.0588689919 0.5144870907 -0.0117897907 0.5145701297 -0.0120795247 -0.2008579539 0.0600709845
55299670.0 -0.1948672169 0.0605075478 0.5183869952 -0.0177783584 0.5181088946 -0.0178340944 -0.1974122328 0.0619418897
60299640.0 -0.1907300009 0.061946574 0.5217371018 -0.0242082092 0.5219808984 -0.0242402462 -0.1932663819 0.0633915035
65299610.0 -0.1870813972 0.0624744575 0.5249715092 -0.0302183785 0.5250145606 -0.0304702373 -0.1898872415 0.0646515921
70299580.0 -0.1838524917 0.063050849 0.5267131419 -0.0370483129 0.5272573465 -0.0368847857 -0.1869038722 0.0660002363
75299550.0 -0.1812047449 0.0637195761 0.5288693563 -0.0440370882 0.529240316 -0.0441588176 -0.1837839401 0.0670682077
80299520.0 -0.1783072023 0.0643828568 0.5311302981 -0.050926903 0.5313388848 -0.0511583764 -0.1811382726 0.0681732242
85299490.0 -0.1758173645 0.0648664618 0.532550704 -0.0575250431 0.5322037991 -0.0575078588 -0.1790839534 0.0686733694
90299460.0 -0.1734938896 0.0653935712 0.5329855136 -0.0645866239 0.5334608756 -0.0644150689 -0.1766184695 0.0698184918
95299430.0 -0.1713200316 0.0656789861 0.53403159 -0.0715295675 0.5346372096 -0.0717886107 -0.174846404 0.0708479783
100299400.0 -0.1695531621 0.0661771536 0.5345362178 -0.0784808412 0.5346912593 -0.078726184 -0.1730434405 0.0721132034
105299370.0 -0.1676514194 0.0665528745 0.5350924868 -0.0851504703 0.5354835533 -0.0851413984 -0.1709940181 0.0721255464
110299340.0 -0.1658543016 0.0669028963 0.535014865 -0.0916596379 0.5355912906 -0.0918814986 -0.169601626 0.0732290322
115299310.0 -0.1646368393 0.067699671 0.5348345281 -0.0985496458 0.5353656154 -0.0987261757 -0.1680357378 0.0745319244
120299280.0 -0.1633101253 0.0682462083 0.5353805244 -0.1060419645 0.5346645162 -0.1058992746 -0.1664628605 0.0748595033
125299250.0 -0.1618813226 0.0686976182 0.5348069725 -0.1125940188 0.5346309804 -0.1123279314 -0.1651390012 0.0761407944
130299220.0 -0.1605998543 0.0691963401 0.5336530525 -0.1193990874 0.5341099169 -0.1198287875 -0.1640008484 0.0771394669
135299190.0 -0.159568301 0.0701409704 0.5336137293 -0.1260951053 0.5334218864 -0.1259190916 -0.1628055622 0.0777296712
140299160.0 -0.1583793209 0.0709502053 0.5326736566 -0.1328843569 0.5325375435 -0.1325519947 -0.1621289 0.0787365478
145299130.0 -0.1580017553 0.0717147294 0.5315883269 -0.1391286769 0.5319441744 -0.139166857 -0.1606033003 0.0802437926
150299100.0 -0.1566545209 0.0722300143 0.5304785991 -0.1454956073 0.5305784569 -0.1458994709 -0.159686854 0.0813132889
155299070.0 -0.1554621055 0.073331113 0.5290971087 -0.1524110414 0.5292487614 -0.1520958949 -0.1584231275 0.0821619456
160299040.0 -0.1548001391 0.0744836317 0.5281885658 -0.1587291089 0.5277753623 -0.1587911406 -0.1577582667 0.0835863893
165299010.0 -0.1537769332 0.0751419353 0.5266999017 -0.1645332746 0.5264877626 -0.1654610583 -0.156561779 0.0844417914
170298980.0 -0.1529598308 0.0762788089 0.5243431878 -0.1715558891 0.5251202707 -0.1717072804 -0.1558178799 0.0858365909
175298950.0 -0.1522934739 0.0770702163 0.5236795588 -0.1771584631 0.5236603912 -0.1780641987 -0.1549914804 0.0873498778
180298920.0 -0.1515813075 0.0784612833 0.5216277317 -0.1843467719 0.5216246051 -0.1844430757 -0.1535004499 0.088600769
185298890.0 -0.15076657 0.0793826476 0.5200816026 -0.1903205774 0.5197552462 -0.1902505167 -0.1526231308 0.0897821537
190298860.0 -0.1496498219 0.0809433159 0.5174358851 -0.1967000318 0.5182235736 -0.1964684644 -0.1518349831 0.0910983137
195298830.0 -0.1489496304 0.0817019044 0.5159234932 -0.2024294493 0.5161366069 -0.2026777609 -0.1509455558 0.0926893923
200298800.0 -0.1482456959 0.0828204545 0.5140727196 -0.2089321655 0.5141484305 -0.2088393547 -0.1501713668 0.093664522
205298770.0 -0.1478409187 0.0839189757 0.5115530434 -0.2145270516 0.5118166772 -0.2146907781 -0.1489255763 0.09518051
210298740.0 -0.1468056405 0.0853755847 0.509232112 -0.2206941229 0.5094298395 -0.2206237715 -0.148428363 0.0962184191
215298710.0 -0.1460768036 0.0865519324 0.5069324808 -0.226174385 0.5072532113 -0.2267770513 -0.1472883301 0.0978029327
220298680.0 -0.1450285578 0.0878333748 0.5041823228 -0.2324544835 0.5043302871 -0.2326245699 -0.1461953583 0.0991715499
225298650.0 -0.1444080267 0.0891215097 0.5017504172 -0.2382941186 0.5022657636 -0.2380319985 -0.1452921199 0.1004994701
230298620.0 -0.1435116832 0.0906923521 0.4994165843 -0.2444339729 0.4999455497 -0.2445425509 -0.1443929391 0.101899211
235298590.0 -0.1432170262 0.0917368069 0.4969993288 -0.2502665742 0.49701877 -0.2500905266 -0.1432202854 0.1037360151
240298560.0 -0.1422318841 0.0931470119 0.494205911 -0.2556458724 0.4943069376 -0.2557356612 -0.14237431 0.1045170858
245298530.0 -0.1416557107 0.0940283396 0.4916914164 -0.2616635742 0.4914796033 -0.26172031 -0.1413397254 0.1064577661
250298500.0 -0.1407509308 0.0955126767 0.4888719882 -0.266829747 0.4891203469 -0.266996261 -0.1404320338 0.1081271102
255298470.0 -0.1399629721 0.0970119377 0.4862479838 -0.2726008579 0.4862352949 -0.273042741 -0.1390760784 0.1094440382
260298440.0 -0.1389187048 0.0980308793 0.4830992918 -0.2775708807 0.4831769545 -0.2780478341 -0.1382256003 0.1104358511
265298410.0 -0.138447352 0.0997702815 0.4797580655 -0.2838855006 0.4801548294 -0.2839835188 -0.1368345317 0.1120445154
270298380.0 -0.1377011891 0.1007589852 0.4768650383 -0.2891181156 0.4767210355 -0.2893264243 -0.1356502426 0.1136595959
275298350.0 -0.1367018712 0.1024556235 0.4729289825 -0.2941090908 0.4734292786 -0.294754182 -0.1344941007 0.1151792831
280298320.0 -0.1360921226 0.1037680702 0.4709084922 -0.2997005136 0.4708329481 -0.3000142284 -0.1333438356 0.1166242687
285298290.0 -0.1350674912 0.1052642233 0.4669615853 -0.3050668623 0.4674485605 -0.3049594427 -0.1324752451 0.1181087689
290298260.0 -0.1340082241 0.1064930471 0.4640568691 -0.3104651203 0.4641277361 -0.3103400483 -0.130991224 0.1193575406
295298230.0 -0.1332338572 0.1074502074 0.4606770785 -0.3157461307 0.4608421932 -0.3161815835 -0.1297083552 0.1206421235
300298200.0 -0.1323551276 0.109001376 0.4575571495 -0.3210183958 0.4573489635 -0.3209092931 -0.128582811 0.1221501641
305298170.0 -0.1310729286 0.1098189104 0.4536154455 -0.3261266186 0.4539799745 -0.3265023049 -0.127008208 0.1231754925
310298140.0 -0.1303641141 0.1114712571 0.4504511052 -0.3313380673 0.4505986676 -0.3316272143 -0.1256944085 0.1245930025
315298110.0 -0.1293789145 0.1123555244 0.4467076789 -0.3368709273 0.4470535258 -0.3371128555 -0.1244648597 0.1262476344
320298080.0 -0.1287908112 0.113827053 0.4427073705 -0.3418121875 0.4436762392 -0.3423257081 -0.1235236149 0.1271523784
325298050.0 -0.1281982139 0.1146759156 0.4388336165 -0.3465815096 0.4395299146 -0.3465697843 -0.1219788517 0.1284115294
330298020.0 -0.1275074022 0.116112721 0.4350554881 -0.3518790477 0.4355531985 -0.3519642477 -0.1213383981 0.1298602046
335297990.0 -0.126470788 0.117482488 0.4311998039 -0.3564244602 0.4314508016 -0.3569373383 -0.1197859804 0.1311723035
340297960.0 -0.1257435521 0.1186907842 0.4265597853 -0.3615638453 0.4269390056 -0.361601889 -0.1188630525 0.1329046389
345297930.0 -0.125084094 0.1198310548 0.4230790127 -0.3664469527 0.4228611684 -0.3659848179 -0.1173107214 0.1339434193
350297900.0 -0.1240703328 0.1213562966 0.4194656453 -0.3704623112 0.4194488919 -0.3709054251 -0.1159182684 0.1353289236
355297870.0 -0.1233019826 0.1224679003 0.4147474939 -0.3749190764 0.4149269564 -0.3748600248 -0.1142110181 0.1368631161
360297840.0 -0.1221299697 0.1239180596 0.4102693156 -0.379759974 0.4106678993 -0.379912118 -0.1131271869 0.1382583747
365297810.0 -0.1211375869 0.1251651855 0.4065872385 -0.3843464809 0.4063856573 -0.384589783 -0.1120867943 0.13974829
370297780.0 -0.1201059805 0.1267733259 0.401589402 -0.3886657362 0.4023463819 -0.3889049971 -0.1106402309 0.1407438652
375297750.0 -0.1190855765 0.1279479783 0.3981829108 -0.3933403188 0.3981094035 -0.3933619907 -0.1090497868 0.1421572725
380297720.0 -0.1181598618 0.1294040723 0.3939927774 -0.3983859111 0.3935259299 -0.3978606049 -0.1074728368 0.1437596126
385297690.0 -0.1169024069 0.1302892892 0.3888837393 -0.4016270705 0.3893219248 -0.4025393137 -0.1058289685 0.144913534
390297660.0 -0.1154707299 0.1312779586 0.3844111638 -0.4058901583 0.3851789675 -0.4063433809 -0.1046425365 0.1461429214
395297630.0 -0.1142135917 0.1327451466 0.3804849129 -0.4103049854 0.3801977775 -0.4100650482 -0.1028991918 0.1474733714
400297600.0 -0.1136777871 0.1339556694 0.3759859304 -0.4148050179 0.3759183166 -0.4144918309 -0.1009624408 0.149013546
405297570.0 -0.1123369487 0.1348932485 0.3714297818 -0.4184797964 0.3714597713 -0.4185496899 -0.099089101 0.1504513755
410297540.0 -0.1111043478 0.1363463744 0.3670568441 -0.4228217084 0.3670042663 -0.4224588609 -0.0978488024 0.1513934206
415297510.0 -0.1101004135 0.1374686771 0.3621732487 -0.426654796 0.3623827071 -0.4268573013 -0.0960744526 0.1527128682
420297480.0 -0.1086959268 0.1382041747 0.3574788736 -0.4306842419 0.3577084438 -0.4308406708 -0.0941436938 0.1542306695
425297450.0 -0.1070136626 0.1398043969 0.3528854138 -0.4344142784 0.3526492085 -0.4347064548 -0.0928072625 0.1551089672
430297420.0 -0.1061458939 0.1407576377 0.3481795583 -0.4385564615 0.3482073029 -0.4380000567 -0.0908490997 0.1566252462
435297390.0 -0.1048965113 0.1417652833 0.3425837782 -0.4427934423 0.3430294934 -0.4421844555 -0.0896992435 0.1579842978
440297360.0 -0.1032447211 0.142706464 0.3378924542 -0.4461288069 0.3382889833 -0.4460051194 -0.0878243304 0.1587069119
445297330.0 -0.1020169019 0.1436307781 0.3337148828 -0.4493302396 0.3335521372 -0.4497655728 -0.0858422945 0.1602974262
450297300.0 -0.1004806086 0.144881186 0.3282644457 -0.4530062748 0.3287448611 -0.4532114299 -0.0840487125 0.1610174489
455297270.0 -0.0995489091 0.1457994878 0.3235814436 -0.4564596223 0.3241601737 -0.4568655891 -0.0823010935 0.1621669149
460297240.0 -0.0978931962 0.1469739409 0.3185103157 -0.460858479 0.3184257284 -0.4604854899 -0.0804748267 0.1630454992
465297210.0 -0.0964661523 0.1479529594 0.3130222396 -0.463906911 0.3129833312 -0.4638293747 -0.078337253 0.1646316223
470297180.0 -0.0952401563 0.1490689001 0.3083326795 -0.466666622 0.3084599929 -0.4669958126 -0.0765904415 0.1650896529
475297150.0 -0.0937123881 0.1501258922 0.3028426191 -0.470245131 0.3031304449 -0.4706950701 -0.0749981925 0.166186436
480297120.0 -0.0920899485 0.1514068704 0.2976340677 -0.4740545243 0.2981768634 -0.4736945096 -0.0733765484 0.1673374726
485297090.0 -0.0906908137 0.151802948 0.2928511796 -0.4771511804 0.2926779869 -0.4767655457 -0.0712932807 0.1681481469
490297060.0 -0.0885378064 0.152981418 0.2871400173 -0.4801173321 0.2877098131 -0.4801809302 -0.0695894675 0.1690202074
495297030.0 -0.0876867936 0.1536719616 0.2822755474 -0.4832142019 0.2820824791 -0.4836263237 -0.0671772557 0.1699219295
500297000.0 -0.0862979014 0.1547914543 0.2769723897 -0.4859074813 0.2769064815 -0.4864364915 -0.0655534308 0.1710958471
505296970.0 -0.0842229079 0.1558694263 0.2718921191 -0.4894719081 0.2715262251 -0.4888676817 -0.0636595949 0.171417609
510296940.0 -0.0827508001 0.1566244792 0.2665703547 -0.4928791155 0.266774515 -0.4928306974 -0.0614092625 0.1729713183
515296910.0 -0.0811838283 0.1577392493 0.2608710565 -0.4949514609 0.2606951163 -0.4950601803 -0.0598457097 0.1729572009
520296880.0 -0.0795970159 0.1586375133 0.2557141898 -0.497672078 0.2552330841 -0.4978929563 -0.0572458294 0.1744771718
525296850.0 -0.077978964 0.1594337907 0.2497283655 -0.5002826355 0.2497231616 -0.5003344988 -0.0557101465 0.1747800568
530296820.0 -0.0769326212 0.1603666371 0.2445975821 -0.5031793206 0.2446207508 -0.5031064894 -0.0537233387 0.175323246
535296790.0 -0.0743154812 0.1610791173 0.2392553008 -0.5054715447 0.2392657041 -0.5057596723 -0.0513591619 0.1763762035
540296760.0 -0.0728294393 0.1622812873 0.2335757253 -0.5083182231 0.2331516262 -0.5083233018 -0.0493860669 0.1767341346
545296730.0 -0.0717005504 0.1633495528 0.2277855035 -0.5107162185 0.2276145933 -0.5104740531 -0.047373345 0.177647305
550296700.0 -0.0695800593 0.1638765536 0.2223481047 -0.5130152286 0.2219845264 -0.5135018567 -0.0454739495 0.1782409453
555296670.0 -0.0680035924 0.1647692076 0.2166609773 -0.5156018786 0.2170270838 -0.5158178536 -0.0437802156 0.1785889808
560296640.0 -0.0657568148 0.1654077728 0.2107967699 -0.5176359637 0.2113065643 -0.5176401843 -0.0417658068 0.1795781933
565296610.0 -0.0648035273 0.16642067 0.2057244579 -0.5202772395 0.2057031541 -0.5200974039 -0.0395473127 0.1805251864
570296580.0 -0.0628954238 0.1675447061 0.1996640188 -0.5219354762 0.1997510427 -0.5222378296 -0.0377209405 0.1804042922
575296550.0 -0.0609871967 0.1678123834 0.1941800492 -0.5245309656 0.1941814866 -0.5241148018 -0.0355148943 0.1812618516
580296520.0 -0.0593739633 0.1689920656 0.1884342488 -0.5263426018 0.1882923609 -0.5269582589 -0.0340992694 0.1816199611
585296490.0 -0.0574896626 0.1697246599 0.1828479242 -0.5284408326 0.1822845805 -0.5282348029 -0.0313678224 0.1823097295
590296460.0 -0.0552312262 0.1704364667 0.1767631642 -0.5302520147 0.1767040813 -0.5305806725 -0.0297269423 0.1829617377
595296430.0 -0.053860389 0.1710171076 0.1707064456 -0.532286488 0.1707273753 -0.5322328144 -0.0274153627 0.1829437063
600296400.0 -0.0519018989 0.1719349396 0.1651798016 -0.533859137 0.1646448368 -0.534018384 -0.0251135433 0.1832421463
605296370.0 -0.0507986782 0.1727744668 0.1598017681 -0.5356512884 0.1590273237 -0.5359707938 -0.0232593708 0.1843087575
610296340.0 -0.0484824434 0.1735119945 0.1532811181 -0.5364392145 0.1537740768 -0.5373727749 -0.0215049651 0.1844524469
615296310.0 -0.0466993996 0.1742378323 0.1477555317 -0.5389633504 0.147447691 -0.5391505321 -0.0187919209 0.1850001477
620296280.0 -0.0452165194 0.1751545704 0.1418201286 -0.5406973829 0.1415998674 -0.54047981 -0.0171110647 0.1855419918
625296250.0 -0.0439541078 0.1756482132 0.1360272378 -0.5420024581 0.1361299353 -0.5420707633 -0.015524899 0.1853218158
630296220.0 -0.0417577745 0.1764211746 0.1297149401 -0.5433656617 0.1298742362 -0.5434943869 -0.0131848708 0.1857335607
635296190.0 -0.0401218124 0.1770287955 0.1246487397 -0.5444548024 0.1242441102 -0.5449044313 -0.0112219004 0.1860593076
640296160.0 -0.0382956059 0.1778655976 0.1183368133 -0.5462875081 0.1181463045 -0.5462583886 -0.0092904675 0.1861118793
645296130.0 -0.0362075352 0.1784041688 0.1124707926 -0.5471361686 0.1123887197 -0.5473034432 -0.0073472119 0.1860418932
650296100.0 -0.0344991768 0.1788509085 0.1064272175 -0.5482717015 0.1063847025 -0.5483559952 -0.0045426112 0.1864614599
655296070.0 -0.032941572 0.1794975325 0.1003384536 -0.5495542579 0.100600307 -0.5492926101 -0.0031918595 0.18695958
660296040.0 -0.0308912709 0.1802875412 0.0949110642 -0.550559713 0.0943369752 -0.5505596498 -0.0007157154 0.1869577383
665296010.0 -0.0291791478 0.1808227875 0.0885566107 -0.5510695659 0.0884686581 -0.5511781795 0.001376826 0.1870072579
670295980.0 -0.0276235384 0.1815539291 0.0824321514 -0.5528450767 0.082587952 -0.5517272625 0.0028222256 0.1870197695
675295950.0 -0.0256760732 0.1818716197 0.076597844 -0.5529441478 0.0766297745 -0.553176983 0.0055099211 0.1874918518
680295920.0 -0.0241139186 0.1824560817 0.07064166 -0.5534651714 0.0704791708 -0.5540384216 0.0075544638 0.1871503289
685295890.0 -0.0220872023 0.1830584398 0.0644793915 -0.5546896603 0.0643531453 -0.5548135474 0.0095860586 0.1877948769
690295860.0 -0.0206484498 0.1835515427 0.058667457 -0.5551042538 0.0583927899 -0.5553195336 0.0114548503 0.1874140776
695295830.0 -0.0186890095 0.1841387807 0.053192151 -0.5555494879 0.0524423994 -0.5558137538 0.0135625781 0.1877051606
700295800.0 -0.0169569531 0.1847563873 0.0470762624 -0.556396871 0.047100197 -0.5562817185 0.0157241563 0.187724911
705295770.0 -0.0153001859 0.1848289617 0.0406424344 -0.556681246 0.0406461342 -0.5566946572 0.0178175173 0.1879028598
710295740.0 -0.0137713529 0.1851658717 0.0351563192 -0.557066696 0.0344686176 -0.5574658362 0.0200679199 0.1875343945
715295710.0 -0.0118695033 0.1857281551 0.0289390165 -0.5572122114 0.0285565411 -0.5573800715 0.0219660326 0.187375004
720295680.0 -0.0097997643 0.1860314421 0.0225067116 -0.5575268362 0.0226876627 -0.5577474478 0.024140082 0.1870590277
725295650.0 -0.0082554969 0.1869355574 0.0168897217 -0.557803713 0.0169739329 -0.5579310171 0.0260341132 0.1873286009
730295620.0 -0.0069974109 0.1867025013 0.0107445794 -0.5575757659 0.0105146595 -0.5577155728 0.0278371688 0.1876564171
735295590.0 -0.0047218145 0.1873303884 0.0047932291 -0.5582043731 0.0048102748 -0.5583533082 0.0298026488 0.1871385146
740295560.0 -0.003333986 0.1871297112 -0.0010920049 -0.5583024895 -0.0011545503 -0.5582447786 0.0320058508 0.1870038704
745295530.0 -0.0014894844 0.1877973644 -0.0068522412 -0.5572261369 -0.0063492344 -0.557614074 0.0335869512 0.1867413468
750295500.0 0.000138478 0.1882371146 -0.0127380714 -0.557700665 -0.0134571565 -0.5576500802 0.035882521 0.1865308998
755295470.0 0.0018452639 0.1885366785 -0.0187007231 -0.5578117055 -0.0189397906 -0.5580521496 0.03815788 0.186793071
760295440.0 0.0034046379 0.1889489596 -0.0255493416 -0.5577180718 -0.025285589 -0.5570357361 0.0401911828 0.1855730135
765295410.0 0.0056286936 0.1886218083 -0.0310212444 -0.5568664911 -0.0310272261 -0.5569688987 0.0421395433 0.1856754929
770295380.0 0.0070639094 0.1888149138 -0.0368899176 -0.556155349 -0.0371733313 -0.5569573518 0.0441173087 0.1855541136
775295350.0 0.0085068006 0.1890469304 -0.042893047 -0.5563619511 -0.0429559404 -0.555739095 0.0464860417 0.18509344
780295320.0 0.0102969463 0.1894453495 -0.0483994324 -0.5549688843 -0.0489853291 -0.5555134422 0.0485659673 0.1847103584
785295290.0 0.0122499148 0.1892275729 -0.0546019348 -0.554873086 -0.0546992149 -0.5550644682 0.0500585377 0.185045712
790295260.0 0.0141905694 0.1892226021 -0.0608176428 -0.5546087557 -0.0608615891 -0.5547963885 0.0521674665 0.1845674457
795295230.0 0.0154467983 0.1892636007 -0.0664748777 -0.5540202761 -0.0668009941 -0.5543017008 0.0543513603 0.1830750772
800295200.0 0.0170648861 0.1895776225 -0.0718531839 -0.5526618312 -0.072763404 -0.552882895 0.0560069912 0.1829406481
805295170.0 0.0188785607 0.1895480084 -0.0783774111 -0.5521843193 -0.0784894003 -0.5522280342 0.0586846934 0.1824974588
810295140.0 0.0209540096 0.1897959737 -0.0844643321 -0.5511325779 -0.0846034757 -0.5510522746 0.0605718973 0.1819630231
815295110.0 0.0224374908 0.1895702168 -0.0900257973 -0.5499967586 -0.0900793747 -0.5504013259 0.0622505801 0.1818565926
820295080.0 0.0243472551 0.1896964998 -0.0955974576 -0.5490398631 -0.0962754209 -0.5493168365 0.0636442548 0.1819905894
825295050.0 0.0259022556 0.1893381049 -0.1020863961 -0.5483357598 -0.1021441157 -0.547876846 0.0664901665 0.1809511259
830295020.0 0.027556748 0.1892123259 -0.1082330129 -0.5469200544 -0.108214653 -0.5469989936 0.068248889 0.1798724253
