!Created with skrf (http://scikit-rf.org).
# Hz S RI R 50.0 
!freq ReS11 ImS11 ReS21 ImS21 ReS12 ImS12 ReS22 ImS22
300000.0 -0.0947024055 -0.1006635966 0.6233696389 0.092330356 0.6212902831 0.0941952959 -0.0969087306 -0.1047441718
5299970.0 -0.1015511584 0.0113061439 0.6301970568 0.0110244147 0.6307746035 0.0112698739 -0.1017302874 0.0113309469
10299940.0 -0.0968398277 0.0287962407 0.6351158276 0.0158893847 0.6342617248 0.0166060517 -0.0965178808 0.0286726832
15299910.0 -0.0894055881 0.0421687066 0.6407494543 0.0212162156 0.6407034511 0.0215374879 -0.0898754568 0.0417422814
20299880.0 -0.0807314502 0.0536734834 0.6486603717 0.0246231063 0.6493191264 0.0246048827 -0.0811205997 0.0528898627
25299850.0 -0.070372779 0.0623749647 0.657893651 0.0255535652 0.6586861184 0.0255932555 -0.0718110339 0.0618770798
30299820.0 -0.0609152011 0.0687931921 0.6679846775 0.0245656327 0.6676077536 0.0244099352 -0.0619750372 0.0684799452
35299790.0 -0.0505915127 0.0735983089 0.6767484035 0.0221897076 0.677672163 0.0218117767 -0.0524627804 0.0737054887
40299760.0 -0.0413019089 0.0763887841 0.6874304748 0.0175803437 0.6871068769 0.0178775444 -0.0426018815 0.0770049017
45299730.0 -0.0320364386 0.0784922725 0.6957606388 0.0125941003 0.6958499922 0.0121614569 -0.0333390903 0.0790090714
50299700.0 -0.0231104605 0.0789311707 0.7038791898 0.0051719389 0.703914894 0.0048814293 -0.0245578961 0.0803460082
55299670.0 -0.0152430202 0.0788981779 0.7118410211 -0.0021567507 0.7112173935 -0.0026655616 -0.0173154337 0.0807121093
60299640.0 -0.0076245412 0.0788323921 0.7179468079 -0.0108135613 0.7177347928 -0.0110231758 -0.009955536 0.0796477798
65299610.0 -0.001128811 0.0771771489 0.724158374 -0.0199836401 0.7243906223 -0.0200267552 -0.0027646215 0.0787605335
70299580.0 0.0052767201 0.0750415616 0.7290657909 -0.0287631263 0.728996467 -0.0288438773 0.0029324069 0.0772337758
75299550.0 0.0104869914 0.0733575335 0.7335425928 -0.0390592198 0.7337345629 -0.0385903994 0.0084557864 0.0755904463
80299520.0 0.0152800137 0.071474732 0.7382081478 -0.0483245133 0.738421235 -0.048658047 0.0138821886 0.073684547
85299490.0 0.0202127391 0.069123797 0.741261798 -0.0586990104 0.7409749795 -0.0580697372 0.0180322951 0.0709877376
90299460.0 0.0239286756 0.0666005394 0.7434769943 -0.0688443517 0.7435779168 -0.0680148401 0.0223576118 0.0692520217
95299430.0 0.0280130331 0.0641648178 0.746287386 -0.0788554529 0.7461661589 -0.0790663738 0.0258192261 0.0668068464
100299400.0 0.0311816145 0.0617142759 0.7472459554 -0.0885917356 0.7479401501 -0.0886782853 0.0291045906 0.0645202719
105299370.0 0.0344337936 0.0592059945 0.7492851484 -0.0988156781 0.7497972192 -0.098732183 0.0323880476 0.0618338766
110299340.0 0.0373032524 0.0562202499 0.7502550724 -0.1084072715 0.7513107955 -0.1085044707 0.0351040782 0.0596190104
115299310.0 0.0396173395 0.054203693 0.7514264878 -0.1189994656 0.751566844 -0.11834234 0.0372697005 0.0577683844
120299280.0 0.0415203047 0.0519931441 0.7518556273 -0.1296211717 0.7519309594 -0.1292305628 0.0398286355 0.0547098496
125299250.0 0.0438716871 0.0497926472 0.752240776 -0.139023788 0.7523885699 -0.1386196602 0.0419386871 0.0529033943
130299220.0 0.0458280664 0.0470579203 0.7524140925 -0.148886674 0.7519516812 -0.1490533768 0.0436664674 0.0509325785
135299190.0 0.0469003179 0.0454957931 0.7519718409 -0.1579952188 0.7522956506 -0.1589665686 0.04547124 0.0481469052
140299160.0 0.0488608141 0.0434888288 0.7519267028 -0.1686852362 0.7518462458 -0.1680362717 0.046259875 0.0458929738
145299130.0 0.0492242101 0.0412986473 0.7505161952 -0.1780377305 0.7505756449 -0.1781605657 0.0480045821 0.0437279348
150299100.0 0.0507056907 0.0392618199 0.7495981648 -0.1879340748 0.749428134 -0.1878617313 0.0490627029 0.0419544267
155299070.0 0.0525303925 0.0370523922 0.7479826878 -0.1971524824 0.7486248251 -0.1970562517 0.0503082884 0.0396596698
160299040.0 0.0534506915 0.0357463307 0.7470514109 -0.2069656862 0.7471053643 -0.2072805606 0.0511627974 0.0380457793
165299010.0 0.0544977121 0.0335452752 0.7452961375 -0.2160867339 0.745229466 -0.2166396761 0.0521847833 0.0359515005
170298980.0 0.0550913517 0.0320973108 0.7434939853 -0.2256937437 0.7434724952 -0.2262130335 0.0526883174 0.0339038648
175298950.0 0.056006464 0.0303453939 0.7417271166 -0.2351267375 0.7418406905 -0.2353029854 0.0532996657 0.0325137083
180298920.0 0.0563295274 0.0288495073 0.7398923883 -0.2446679917 0.7396925788 -0.2443811251 0.0539897293 0.0309460465
185298890.0 0.0567614099 0.0273549865 0.7381434018 -0.2532996307 0.737734632 -0.2532122488 0.0551949267 0.0291582399
190298860.0 0.057970845 0.0257629517 0.7348563943 -0.2625430113 0.7350114865 -0.26216234 0.0549393225 0.0273638558
195298830.0 0.0578089872 0.0242784105 0.7329171225 -0.2717537002 0.7325171318 -0.2713636178 0.0555620374 0.0259927558
200298800.0 0.0585770211 0.0224998205 0.7301569787 -0.2810155387 0.7298404923 -0.2809680336 0.0563192572 0.0240817019
205298770.0 0.0584039807 0.0208968843 0.7264852177 -0.2899052672 0.7273796486 -0.2887470386 0.0570452761 0.0229429062
210298740.0 0.0589606371 0.0200598163 0.7240912559 -0.298028245 0.723881249 -0.2984921507 0.0563838218 0.0209896166
215298710.0 0.0595371822 0.0186890413 0.7213006817 -0.3065588643 0.7211887326 -0.3069064316 0.0570951786 0.0199080389
220298680.0 0.0597518122 0.0177851144 0.7178238811 -0.3154821819 0.7176677906 -0.3154953613 0.0573349949 0.0182379312
225298650.0 0.0597540519 0.0162812773 0.7142250815 -0.3238679956 0.7150182143 -0.3238320817 0.0575777955 0.0166129609
230298620.0 0.0602888829 0.015100941 0.7118185934 -0.3329730544 0.7117774373 -0.3329098776 0.0577017639 0.0151400236
235298590.0 0.0600461921 0.0138538218 0.7080839396 -0.341516871 0.7079081067 -0.3411186535 0.0579697253 0.014385942
240298560.0 0.060324944 0.0130768604 0.7044699406 -0.3491679675 0.7044992074 -0.3489288613 0.0576177543 0.0128760692
245298530.0 0.0604786833 0.0112019803 0.7008980068 -0.3580611959 0.7003057014 -0.3577802315 0.0579769883 0.0118728294
250298500.0 0.0601937526 0.0104467648 0.6966851355 -0.3662296469 0.6970292962 -0.365887518 0.0579415611 0.0107498741
255298470.0 0.0605531008 0.0097229355 0.6937552068 -0.3739405119 0.6937814822 -0.3740690869 0.058007803 0.0100510197
260298440.0 0.0609614512 0.0083382033 0.6892221219 -0.3817021905 0.6893504544 -0.3821056201 0.0577515478 0.00811345
265298410.0 0.0602734949 0.0075176263 0.6847632326 -0.3903767349 0.6848787653 -0.3911208459 0.0589914059 0.0068007616
270298380.0 0.0600719125 0.0062821172 0.6804134751 -0.3985659349 0.6809914612 -0.3977532424 0.0580836928 0.0062610087
275298350.0 0.0606626368 0.0058147931 0.6756762664 -0.405576596 0.6760065771 -0.4059378278 0.0576099907 0.0049075526
280298320.0 0.0596877446 0.0044994088 0.6720478757 -0.4132180973 0.6725481662 -0.4140444816 0.0585780286 0.0037251328
285298290.0 0.0601736886 0.0036139291 0.6670402323 -0.421906945 0.667479725 -0.4217661621 0.0580908671 0.0026829861
290298260.0 0.059967269 0.0028321621 0.6636150646 -0.4295941702 0.6634777572 -0.4292926551 0.0582455903 0.0018724485
295298230.0 0.0600208233 0.0015600103 0.658521935 -0.4378382413 0.6591090043 -0.4375046104 0.0577562294 0.0005535617
300298200.0 0.0603752032 0.0010902263 0.6538412016 -0.4454214167 0.6540313359 -0.4448990131 0.0576385508 -0.0006508081
305298170.0 0.060202741 -0.0007186128 0.6489940178 -0.4531487785 0.6496574625 -0.4528355716 0.0577915991 -0.002173275
310298140.0 0.0605584404 -0.0016299234 0.6442303219 -0.4602257115 0.644617002 -0.460133279 0.0578476328 -0.0036922058
315298110.0 0.0600422117 -0.0030769945 0.639755436 -0.4687744578 0.6392807118 -0.4682441634 0.0577939968 -0.0041447957
320298080.0 0.0596049042 -0.0037762767 0.634131435 -0.4755031929 0.6345825731 -0.476373215 0.0573732139 -0.0055349237
325298050.0 0.0587012293 -0.0053215621 0.6282191592 -0.4826098692 0.6296450778 -0.4833397732 0.0570798005 -0.0065581449
330298020.0 0.0573957707 -0.0058979233 0.6228012011 -0.4904584333 0.6238231986 -0.4905617722 0.0559919801 -0.0078330238
335297990.0 0.0577043105 -0.0065122534 0.6174093472 -0.4970333225 0.6175425427 -0.4976098704 0.0555302116 -0.0085909417
340297960.0 0.056859305 -0.0075270552 0.6116048083 -0.5049095366 0.6110246011 -0.5045919593 0.0551558745 -0.0092393355
345297930.0 0.0564311932 -0.0083840347 0.6052827001 -0.511766197 0.6057922153 -0.5117459048 0.0551346018 -0.0103351733
350297900.0 0.0559986828 -0.008942333 0.6004188683 -0.5173541525 0.6004032036 -0.5178425544 0.0545597876 -0.0111999211
355297870.0 0.0556773369 -0.009640963 0.5946299936 -0.5242606163 0.5947473407 -0.5243641134 0.0547519358 -0.0119700139
360297840.0 0.0554267338 -0.0102731949 0.5884736083 -0.5310407139 0.5888363205 -0.531665136 0.0533578722 -0.0120093226
365297810.0 0.0546041631 -0.0108158989 0.5823138275 -0.5374942029 0.5824126632 -0.538115498 0.053197565 -0.0132458184
370297780.0 0.0547686561 -0.0113786483 0.5756875136 -0.5445667332 0.5769694755 -0.5443244399 0.0529011011 -0.0138250678
375297750.0 0.0543556327 -0.0120526648 0.5707905295 -0.5505522621 0.5709228788 -0.5512592307 0.0531471688 -0.0145534834
380297720.0 0.0534595914 -0.0126048335 0.5650313863 -0.5579023654 0.5644649176 -0.557252444 0.0522901887 -0.0152279593
385297690.0 0.0532198893 -0.0137426712 0.5581547906 -0.5635880233 0.558559205 -0.5645466843 0.0521850712 -0.0155790684
390297660.0 0.0530228034 -0.0142927866 0.5521310487 -0.5691766024 0.5527949449 -0.5698872537 0.0521139726 -0.0167024696
395297630.0 0.0531642526 -0.0148924507 0.5461018415 -0.5752075335 0.5459603922 -0.5755656687 0.0515133003 -0.0171143357
400297600.0 0.0522072923 -0.015873487 0.5400347545 -0.5817218534 0.5400032954 -0.5817957629 0.051418581 -0.0172499583
405297570.0 0.0517596938 -0.0166730469 0.5329895912 -0.5875646134 0.5333104731 -0.5876960588 0.0510649297 -0.0177810862
410297540.0 0.0515344842 -0.0166760792 0.5267049262 -0.5935237563 0.5270964211 -0.5938808397 0.0509124789 -0.0187382084
415297510.0 0.051097389 -0.0175960978 0.5199372754 -0.599382119 0.5209995188 -0.599652952 0.0504324609 -0.0191204272
420297480.0 0.0508986968 -0.0186229092 0.5139122347 -0.6054634522 0.5142883812 -0.6055539147 0.0502610887 -0.0195189844
425297450.0 0.0510416753 -0.0189053676 0.5070121823 -0.6106225829 0.5071174098 -0.6110963443 0.0498181144 -0.0206735458
430297420.0 0.0499851844 -0.0193595219 0.5013663384 -0.616423 0.5008953278 -0.6160894355 0.0497933359 -0.021049992
435297390.0 0.0501258265 -0.0204097264 0.4935802108 -0.6232059507 0.4936825809 -0.6221151037 0.048977748 -0.0213894038
440297360.0 0.0498723767 -0.0209917209 0.4864462343 -0.6276130578 0.4860481743 -0.62781146 0.0489581982 -0.0218675521
445297330.0 0.0497561591 -0.0220278514 0.4803692109 -0.6329243092 0.4797838803 -0.632971619 0.0483768665 -0.0222165973
450297300.0 0.0487980359 -0.0223123438 0.473181255 -0.6379784699 0.472922626 -0.6377265388 0.048222068 -0.0227332294
455297270.0 0.0480673931 -0.0230824875 0.4660229185 -0.6433097336 0.4659304645 -0.6432414422 0.0479180029 -0.0234703123
460297240.0 0.048218281 -0.023529042 0.4590974283 -0.6495950441 0.4591699158 -0.64928875 0.0473820204 -0.0238197081
465297210.0 0.0477861468 -0.0240536763 0.4511670061 -0.6539023132 0.451078922 -0.6536792441 0.0474911581 -0.0237581443
470297180.0 0.0474218271 -0.025185312 0.4447859647 -0.6584562102 0.4447886027 -0.6589232198 0.0471056351 -0.0252225219
475297150.0 0.0468293312 -0.0250127789 0.4371220823 -0.6633644744 0.4372463937 -0.663633026 0.0466318221 -0.0257768207
480297120.0 0.0468618918 -0.0251157788 0.4300761209 -0.6685684398 0.4301562448 -0.6678438814 0.0462564866 -0.0261925693
485297090.0 0.0463732369 -0.0267922959 0.4227496422 -0.6733498348 0.4226405033 -0.6730478908 0.045970789 -0.0262456274
490297060.0 0.0466080375 -0.0266074799 0.4147925333 -0.6777125788 0.4152786565 -0.6778403735 0.0452403468 -0.0270390906
495297030.0 0.0451972465 -0.0277969886 0.4080051399 -0.6824409452 0.4075967914 -0.6827225914 0.0454952224 -0.0274430937
500297000.0 0.0449218747 -0.0278328387 0.4004807055 -0.6868483205 0.400305468 -0.6867762 0.0447582835 -0.0278573073
505296970.0 0.0453110916 -0.0283096205 0.393328239 -0.6914565937 0.3929631126 -0.6908656701 0.044393169 -0.029112374
510296940.0 0.0443388049 -0.0291982329 0.385114482 -0.6960643899 0.3856922647 -0.6961015774 0.0442241093 -0.0287773835
515296910.0 0.0437289485 -0.029290053 0.3771998736 -0.6995846011 0.3775022735 -0.7001978828 0.0437942523 -0.0299916001
520296880.0 0.0435125642 -0.0294926844 0.369908489 -0.7035146177 0.3693071209 -0.7033674069 0.0440254042 -0.0295963379
525296850.0 0.0430789713 -0.0302701379 0.3618090765 -0.707528257 0.3618500716 -0.7076702332 0.0437523795 -0.0304509999
530296820.0 0.0426739178 -0.0311096218 0.3543249554 -0.712193271 0.3544703449 -0.7120112682 0.043083162 -0.0311757787
535296790.0 0.043057308 -0.0313666428 0.3467312169 -0.7153949298 0.3468024591 -0.7159801059 0.0431441487 -0.0310588244
540296760.0 0.0420084372 -0.0312448691 0.3384681824 -0.7193315143 0.3389287412 -0.7195345299 0.0424020905 -0.03219893
545296730.0 0.0411332934 -0.0320002175 0.3305595777 -0.7228699625 0.3306808837 -0.7228053444 0.0419045811 -0.0325797087
550296700.0 0.0417495778 -0.0322320957 0.3230969368 -0.7268124101 0.3226787745 -0.7273178146 0.0419849939 -0.0327719044
555296670.0 0.0408587445 -0.0328395338 0.31427743 -0.7308479786 0.3147096106 -0.7302410366 0.0409856767 -0.0340735519
560296640.0 0.041434578 -0.0332329275 0.3066094019 -0.7334812752 0.3072292405 -0.7337816361 0.0407831522 -0.0336224849
565296610.0 0.0398650036 -0.0336792078 0.2994155194 -0.7371283317 0.299271162 -0.7359781532 0.0402700512 -0.0339534919
570296580.0 0.0395169388 -0.0337083181 0.2899096748 -0.7402717805 0.2906386094 -0.7404749319 0.0398389999 -0.0350059195
575296550.0 0.0392019387 -0.0342925981 0.2829210299 -0.7434919983 0.2828623374 -0.7432595838 0.0393459672 -0.0349111635
580296520.0 0.0388823257 -0.0342404623 0.2747373681 -0.7465369678 0.2743525522 -0.7466152147 0.0384253279 -0.0354460014
585296490.0 0.0383063533 -0.034412943 0.2666840832 -0.7490517447 0.2658293893 -0.7490859195 0.0388827498 -0.0356542704
590296460.0 0.0385640696 -0.0349227453 0.2582516622 -0.75202445 0.2583038826 -0.7525141859 0.0375415861 -0.0358821082
595296430.0 0.0379321126 -0.035125969 0.2488595503 -0.7549753842 0.249219177 -0.7553462938 0.0377168017 -0.0368795334
600296400.0 0.0376882248 -0.0359325698 0.2411503215 -0.7575401948 0.2411971746 -0.7578654531 0.0371895859 -0.0372323015
605296370.0 0.0364714241 -0.035811719 0.2335620104 -0.7598328446 0.2330307137 -0.760368403 0.0365196528 -0.037278538
610296340.0 0.0365181255 -0.0357629046 0.2249402703 -0.7621356754 0.2253170576 -0.7625401959 0.0357752212 -0.0376119107
615296310.0 0.0361941209 -0.0367380862 0.2164546501 -0.7655732772 0.2163399816 -0.7653938378 0.0357052196 -0.0376167127
620296280.0 0.0347507198 -0.03614253 0.2076520546 -0.7677429374 0.2075823409 -0.7673269746 0.0346972838 -0.0378646501
625296250.0 0.0347708535 -0.0366835193 0.1994153106 -0.7705741341 0.1999371666 -0.7699558493 0.0336839562 -0.0385020672
630296220.0 0.0343909738 -0.0369396635 0.1909219113 -0.772525689 0.1909831426 -0.7715256872 0.0337977107 -0.0389727782
635296190.0 0.0333365736 -0.0368673428 0.1826483827 -0.7737078726 0.1830709707 -0.7738879857 0.0331763697 -0.0391737129
640296160.0 0.0328860232 -0.0369781269 0.1736258192 -0.7760677086 0.1744569783 -0.7761124092 0.0320351015 -0.0395192927
645296130.0 0.0330006433 -0.036940782 0.1654018505 -0.777846946 0.166099465 -0.7775662236 0.0315724471 -0.0403615061
650296100.0 0.0322451962 -0.0373928038 0.1575575571 -0.7797681091 0.1576764253 -0.7799584755 0.0321140351 -0.0402959651
655296070.0 0.0317366621 -0.037706397 0.1482649402 -0.7812809982 0.1490431585 -0.780790794 0.0305599626 -0.0404118838
660296040.0 0.0309558103 -0.0377778155 0.1403456777 -0.7829672946 0.1403502967 -0.7831372919 0.0299695977 -0.041312002
665296010.0 0.0308729242 -0.0380151642 0.1310694205 -0.7835536042 0.1318932979 -0.7840631758 0.0298257674 -0.0409309806
670295980.0 0.030255015 -0.037948816 0.1229302285 -0.7858809227 0.1231541791 -0.7850334959 0.0284820654 -0.0416382918
675295950.0 0.0294122791 -0.0383740313 0.1142751099 -0.7868485586 0.1147675765 -0.7868924927 0.0282761943 -0.0414688909
680295920.0 0.0288654113 -0.0380747095 0.1057711277 -0.7876737587 0.1065498421 -0.7877737122 0.0279526676 -0.0420835597
685295890.0 0.0284491595 -0.0378584055 0.0970007871 -0.7892223186 0.0976618456 -0.7890068075 0.0273553167 -0.0412966782
690295860.0 0.0275305619 -0.0380888746 0.0887010819 -0.7901622142 0.0882190373 -0.7902606884 0.0263191983 -0.0422296512
695295830.0 0.027477749 -0.0387150418 0.0806591926 -0.7913546958 0.0802716482 -0.791121078 0.0259938054 -0.0421628273
700295800.0 0.0270132106 -0.0382196211 0.0722225617 -0.7917722219 0.0718883649 -0.791738121 0.025263999 -0.0420911128
705295770.0 0.025934515 -0.0382963231 0.0626592726 -0.7928372578 0.0631762114 -0.7922751085 0.0243948535 -0.0424071927
710295740.0 0.0253997714 -0.0385750989 0.0544516196 -0.793242239 0.0544541704 -0.7933966648 0.024482378 -0.042228023
715295710.0 0.0247208972 -0.0379280863 0.0456167949 -0.7943263131 0.0459990346 -0.7938531291 0.0235768273 -0.0426825853
720295680.0 0.0249697709 -0.0382666401 0.0369004081 -0.7938677073 0.0369842242 -0.7943828597 0.0227370883 -0.0428732745
725295650.0 0.0231792932 -0.0383729814 0.028677333 -0.7948102528 0.0285874644 -0.794410352 0.0215940754 -0.0421214822
730295620.0 0.0222398545 -0.0388716811 0.0197660554 -0.794631276 0.0200881569 -0.7943076155 0.0208714832 -0.042089189
735295590.0 0.0226892357 -0.0386250213 0.0114461285 -0.7956219217 0.0113530106 -0.7948360294 0.0201718416 -0.0429912792
740295560.0 0.021571151 -0.03897998 0.002536071 -0.7953748003 0.0030987341 -0.7950189658 0.0194142473 -0.0426410547
745295530.0 0.0208494285 -0.0387720386 -0.0057133864 -0.79451197 -0.005137302 -0.7949940312 0.0185566941 -0.0428268337
750295500.0 0.0200526851 -0.0385585463 -0.0142312125 -0.7952936705 -0.01451923 -0.7947256117 0.0182706557 -0.042549022
755295470.0 0.0193666467 -0.0384566734 -0.0231759641 -0.7951866164 -0.0228162289 -0.7951094565 0.0178658444 -0.0421977326
760295440.0 0.0188662235 -0.0380108377 -0.0325553829 -0.794210363 -0.0320277314 -0.7944430367 0.0171157182 -0.0435908097
765295410.0 0.0189693376 -0.0386242972 -0.0400669726 -0.7938959582 -0.0402000963 -0.7937926349 0.0163979734 -0.0431042069
770295380.0 0.0178007337 -0.0381634677 -0.0486701693 -0.7930769221 -0.048911305 -0.7937319206 0.0153378672 -0.0428564852
775295350.0 0.0172841818 -0.0386184638 -0.0572726839 -0.7930238776 -0.0573566301 -0.7925070961 0.0154096962 -0.0423015425
780295320.0 0.0164573448 -0.0381586367 -0.0657990785 -0.7915360387 -0.0657376562 -0.79229067 0.0145864666 -0.0428153786
785295290.0 0.0156884785 -0.0384159493 -0.0745216004 -0.7914382705 -0.0741484422 -0.7912190704 0.0135029145 -0.0419802238
790295260.0 0.015576544 -0.0383774392 -0.0828917297 -0.790394794 -0.0827530095 -0.7905201472 0.0126437737 -0.0417024604
795295230.0 0.0147826577 -0.0386034713 -0.0916594462 -0.7901218498 -0.0917763635 -0.7898729212 0.0124440526 -0.042980452
800295200.0 0.0134223916 -0.0380912037 -0.0993444309 -0.787895457 -0.1006256691 -0.7888441628 0.0114447249 -0.042252553
805295170.0 0.012862068 -0.0383600604 -0.1092650332 -0.7872413709 -0.1080074147 -0.7877260323 0.0117451894 -0.0418567514
810295140.0 0.0130424785 -0.0378916642 -0.1172829684 -0.7854875019 -0.1174833682 -0.7859706891 0.010516579 -0.0421543549
815295110.0 0.0118446894 -0.0378586312 -0.1255253608 -0.7844956077 -0.1252052451 -0.7852209553 0.0099601278 -0.0419868629
820295080.0 0.0115098202 -0.0377383896 -0.1337288011 -0.7831420701 -0.1337984448 -0.7832162339 0.0082958448 -0.0408951853
825295050.0 0.0102322626 -0.0378631489 -0.1429314332 -0.7814099004 -0.14253974 -0.7811080338 0.0091289712 -0.0409027928
830295020.0 0.0098550036 -0.0376332045 -0.1511633911 -0.7803145433 -0.1512310789 -0.780139087 0.0078181236 -0.0416114201
