!Created with skrf (http://scikit-rf.org).
# Hz S RI R 50.0 
!freq ReS11 ImS11 ReS21 ImS21 ReS12 ImS12 ReS22 ImS22
300000.0 -0.2331584744 -0.1270551409 0.4665414117 0.0838180965 0.4682734956 0.0831405238 -0.2347822279 -0.1278405541
5299970.0 -0.2419209959 0.0054039695 0.4748568776 0.0059476838 0.4753976805 0.0058316668 -0.2445121707 0.0044727788
10299940.0 -0.2386133626 0.0191037974 0.4773311195 0.0066807152 0.4771077438 0.0070044248 -0.241049786 0.0173805093
15299910.0 -0.2337937405 0.0288577182 0.4805242296 0.0083166637 0.4808387006 0.007691391 -0.2369770952 0.0262575553
20299880.0 -0.2286531111 0.0368423743 0.4851762591 0.0082253724 0.4853629321 0.0084726057 -0.232209338 0.0338558802
25299850.0 -0.2225025055 0.0436771751 0.4906081748 0.0076293588 0.4909269851 0.0072922461 -0.227123664 0.0400536399
30299820.0 -0.2172448012 0.0487326508 0.4962937998 0.0050916941 0.4959130672 0.0049739424 -0.22206635 0.044915828
35299790.0 -0.2113959944 0.0529800306 0.5011019171 0.0021620874 0.5015038801 0.001668965 -0.2167755214 0.0489916561
40299760.0 -0.2061024307 0.0561898814 0.5066503491 -0.0023092929 0.5065250275 -0.002137396 -0.2120930919 0.0523967286
45299730.0 -0.2010773291 0.0588989148 0.5112723527 -0.006397875 0.5113300531 -0.0070874788 -0.2071290295 0.0548507351
50299700.0 -0.1958712012 0.0606727543 0.5151385454 -0.0124270468 0.5154417084 -0.0129149186 -0.2026280278 0.0571171833
55299670.0 -0.1918210675 0.0625858429 0.5190433408 -0.018064566 0.5187952681 -0.0182679961 -0.1991413446 0.0584076386
60299640.0 -0.1877798372 0.0643027918 0.5224958561 -0.0249378994 0.5224345382 -0.0244633433 -0.1955024901 0.0597553492
65299610.0 -0.184402054 0.0653266613 0.5256767218 -0.030986034 0.5253450794 -0.0313464641 -0.1921196031 0.0608440051
70299580.0 -0.1808617824 0.0657304396 0.5273981383 -0.0368303189 0.5277522854 -0.0374749355 -0.1892508035 0.0616838473
75299550.0 -0.1781073857 0.0669247791 0.5296084867 -0.0444120224 0.5296943851 -0.0444150576 -0.1863601997 0.0628274964
80299520.0 -0.1751582264 0.0677017861 0.5314889386 -0.0513843631 0.5317868972 -0.0514106646 -0.1839587094 0.0636195721
85299490.0 -0.1723649951 0.0684861283 0.5327471848 -0.0581806675 0.5330368331 -0.0583561248 -0.1814932954 0.0640556238
90299460.0 -0.1704391102 0.069060611 0.5336778511 -0.0652112607 0.5333360883 -0.0651077496 -0.1793575746 0.0648155881
95299430.0 -0.1680839775 0.069892938 0.5343660767 -0.0721495512 0.5347520906 -0.0726117553 -0.1777777474 0.0656313528
100299400.0 -0.1658086226 0.0703406054 0.5348713227 -0.0788108451 0.5350937217 -0.0788154163 -0.1758718402 0.0668042301
105299370.0 -0.1640691792 0.0709851229 0.5352381694 -0.0858079718 0.5357741001 -0.0856795738 -0.1738838654 0.0665003219
110299340.0 -0.1621828193 0.0716916062 0.5356764333 -0.0920469523 0.5356820975 -0.0921626106 -0.1728863902 0.0672408568
115299310.0 -0.1608520563 0.0723209648 0.5352273134 -0.0991061025 0.5352755882 -0.0994726741 -0.1715096315 0.0682682501
120299280.0 -0.1595514931 0.0732484087 0.535390206 -0.1064687189 0.5349841558 -0.1063635402 -0.170172677 0.0684968382
125299250.0 -0.1578832867 0.074040472 0.5347881087 -0.1128929187 0.5347793781 -0.1129334779 -0.1687888432 0.0697740838
130299220.0 -0.1567142255 0.0746743597 0.5343260757 -0.1196271425 0.5341423564 -0.1200066618 -0.1678924283 0.0703248573
135299190.0 -0.1556727427 0.0759914551 0.5338494303 -0.1261283108 0.5339374665 -0.1264168888 -0.1670614411 0.0709366567
140299160.0 -0.1541232286 0.0766424464 0.5331048252 -0.1329089009 0.5326899051 -0.1327738485 -0.1662455108 0.0716666557
145299130.0 -0.1533659452 0.0776884744 0.531985178 -0.1392142611 0.5319723584 -0.1394144461 -0.1649944569 0.0728287649
150299100.0 -0.152300167 0.0788986101 0.5306579949 -0.1465623702 0.5307516724 -0.1461408616 -0.164072377 0.073742179
155299070.0 -0.1511633708 0.0798362584 0.5287391545 -0.1521595208 0.5297108214 -0.1526133125 -0.1632523185 0.0749847091
160299040.0 -0.1501307847 0.0814588627 0.528225806 -0.1589244206 0.5278332926 -0.1590089841 -0.1626989283 0.0758473381
165299010.0 -0.1489611036 0.0821626152 0.526642333 -0.165195633 0.5265071637 -0.1657612292 -0.1615193899 0.0766328165
170298980.0 -0.1478521146 0.0834472396 0.5249133974 -0.1716200141 0.5250904849 -0.1717110493 -0.1610554065 0.077588486
175298950.0 -0.1470839571 0.0847792197 0.5237823625 -0.1781158628 0.5240203871 -0.178335105 -0.1603596159 0.0792653427
180298920.0 -0.1462975208 0.0861706428 0.5219303458 -0.1845660417 0.5218222618 -0.1847987347 -0.159559798 0.0798174916
185298890.0 -0.1450531374 0.0874612318 0.5200244972 -0.1906481382 0.5198598762 -0.1904661253 -0.1585384625 0.0811072619
190298860.0 -0.1438599603 0.0887119231 0.5176615211 -0.1968156462 0.5181301591 -0.1966272786 -0.1579329369 0.0823402804
195298830.0 -0.1431222312 0.0902231704 0.5165610183 -0.2028690624 0.5162723815 -0.202859175 -0.1573687449 0.0834523316
200298800.0 -0.1417656971 0.091194157 0.5141912333 -0.2090800696 0.514030657 -0.2094582279 -0.156311973 0.0842493033
205298770.0 -0.1413837859 0.0927233364 0.5115726532 -0.215016939 0.5119936146 -0.2149245201 -0.1557992584 0.0858250597
210298740.0 -0.1405128023 0.0940117167 0.509797452 -0.2209535785 0.5091677907 -0.2209619219 -0.1554692903 0.0868065765
215298710.0 -0.1391931362 0.0956054739 0.5067884739 -0.2265664632 0.5073504011 -0.2271241006 -0.154335065 0.088437886
220298680.0 -0.1380336252 0.0969616076 0.5045790518 -0.2330161859 0.5046621544 -0.2329018082 -0.1535023022 0.0896504069
225298650.0 -0.137052192 0.0984430453 0.501680304 -0.2383046283 0.5024786546 -0.2384213564 -0.1528515772 0.0903721867
230298620.0 -0.1360620994 0.099727985 0.4995412918 -0.2444279952 0.5000824861 -0.2446765249 -0.1521817185 0.0917015565
235298590.0 -0.1355720746 0.1011726569 0.4973071126 -0.250903833 0.4973261545 -0.2502793306 -0.1515812985 0.093401621
240298560.0 -0.1343129371 0.1028020769 0.4944111541 -0.2555340773 0.4944059271 -0.2557413371 -0.1505738593 0.0942575402
245298530.0 -0.1334193778 0.1041992483 0.4916169768 -0.261773512 0.4918000712 -0.2618421483 -0.1497706731 0.0956899105
250298500.0 -0.1323923776 0.1054419974 0.4887246055 -0.2667900651 0.4889600364 -0.2668992092 -0.1490862877 0.0972619057
255298470.0 -0.1313090219 0.1074075143 0.4861861466 -0.2726381664 0.4866641493 -0.2730019291 -0.148249435 0.0986175486
260298440.0 -0.1300278607 0.1083393143 0.4831829446 -0.2777274141 0.4830494157 -0.2778974263 -0.1475105862 0.0995588617
265298410.0 -0.1293509129 0.1099970879 0.4798711982 -0.2841539939 0.4801404732 -0.2843683408 -0.1462011894 0.1011086082
270298380.0 -0.1283264125 0.1112531238 0.4769992207 -0.289006826 0.4772893314 -0.2888720369 -0.145436282 0.1024978038
275298350.0 -0.1269612843 0.1131122424 0.473282969 -0.2945663882 0.4734370074 -0.2944722039 -0.144390005 0.1038445352
280298320.0 -0.1262155731 0.1143986611 0.470747017 -0.2997400461 0.4708740168 -0.3000890337 -0.1437938274 0.105297803
285298290.0 -0.1249572113 0.1160193547 0.4672117166 -0.3050352269 0.4678571352 -0.3051602506 -0.1428865949 0.106979821
290298260.0 -0.1236334819 0.1174385377 0.4646727463 -0.3104439649 0.4644462437 -0.3108898215 -0.1416867158 0.1082204946
295298230.0 -0.1226258315 0.1186527609 0.4608853112 -0.3161632893 0.4608319863 -0.3162660906 -0.140637733 0.1092486152
300298200.0 -0.1214436189 0.1202385336 0.457762158 -0.3211915916 0.4577323323 -0.3207531692 -0.1398367802 0.1105510629
305298170.0 -0.1202109366 0.1210875314 0.4543357592 -0.3262113054 0.4541697056 -0.3265146646 -0.1386781224 0.1115866391
310298140.0 -0.1187329167 0.1225475198 0.4506193543 -0.3311055767 0.4507568665 -0.331223816 -0.1374697356 0.1128525099
315298110.0 -0.1178617667 0.1235805844 0.4473215329 -0.3366114056 0.4471493048 -0.3371428385 -0.1368224592 0.1140218101
320298080.0 -0.116262648 0.125109658 0.4427649127 -0.342203852 0.4435743788 -0.3421719272 -0.1357956215 0.1154719824
325298050.0 -0.1157511771 0.1259546553 0.4389485086 -0.3466769075 0.4396732159 -0.3469465004 -0.1346574326 0.1165207947
330298020.0 -0.1149995297 0.1278385534 0.4353841803 -0.3519418646 0.435645562 -0.3518847111 -0.133894515 0.1178288163
335297990.0 -0.1135548773 0.1289782546 0.4314688152 -0.3565524093 0.4314102155 -0.3564706848 -0.1331378727 0.1190394488
340297960.0 -0.1125245917 0.1303306831 0.4270429282 -0.3618854434 0.4271640878 -0.361275751 -0.1322597235 0.1208711106
345297930.0 -0.1112777887 0.1316851308 0.4234152109 -0.3666001854 0.4233874736 -0.366221433 -0.1310356444 0.1218430496
350297900.0 -0.1100014247 0.1327209715 0.4192836902 -0.370517063 0.4196120694 -0.3704380735 -0.1303766566 0.1229443666
355297870.0 -0.1087984197 0.1341815091 0.4149000311 -0.3746961882 0.4152668834 -0.374884581 -0.1288525147 0.1244701588
360297840.0 -0.1073099352 0.1358156224 0.4105289038 -0.3797624364 0.4110894367 -0.3801868527 -0.1278495444 0.1263680609
365297810.0 -0.1062877116 0.1370666567 0.4066385873 -0.383972283 0.4068540463 -0.3845364511 -0.1271918516 0.1272574418
370297780.0 -0.1044681439 0.1385165105 0.4022065379 -0.3890450899 0.4022900669 -0.3886173127 -0.1257168286 0.1285299667
375297750.0 -0.103674275 0.1396691919 0.39835589 -0.3930096165 0.3984394218 -0.3932744313 -0.1244487678 0.130077839
380297720.0 -0.1020692558 0.1408822234 0.3937706065 -0.3978961871 0.3933023817 -0.3974977959 -0.1228606502 0.1312409998
385297690.0 -0.1007421892 0.1421386562 0.3894220058 -0.4018492189 0.3893688068 -0.4024313635 -0.1217830184 0.1330847442
390297660.0 -0.0991123792 0.14309521 0.3846725847 -0.4054364073 0.3851351543 -0.4057496595 -0.1207078804 0.1339348081
395297630.0 -0.0972809769 0.1445066999 0.3806246002 -0.4096385359 0.3805179538 -0.4101118487 -0.1194601146 0.1352305902
400297600.0 -0.0962669845 0.145750203 0.376309359 -0.4143168048 0.3765253368 -0.414282868 -0.1182578868 0.136784131
405297570.0 -0.0948426718 0.1465325104 0.3714989902 -0.4184499972 0.3716346955 -0.4185220927 -0.1168010096 0.1382545195
410297540.0 -0.0932294881 0.1482184641 0.3670389419 -0.4227067884 0.3668422742 -0.4226514866 -0.1155161296 0.1394395198
415297510.0 -0.0916492248 0.149307535 0.3620482164 -0.4265817161 0.3628756081 -0.4267746025 -0.1142595606 0.1405877509
420297480.0 -0.0899977341 0.1501226014 0.3574487192 -0.4304999883 0.3578005186 -0.4306713993 -0.1124408636 0.1421375628
425297450.0 -0.0881665779 0.1514692542 0.3530436896 -0.4341658704 0.3527476237 -0.4343701897 -0.111351014 0.1425034695
430297420.0 -0.086821599 0.152286799 0.348502039 -0.4378599023 0.3482074883 -0.4380262574 -0.1097829757 0.1442819793
435297390.0 -0.0852121063 0.1534904273 0.3432371113 -0.4422672975 0.3434538743 -0.4418091397 -0.1090527288 0.1456654154
440297360.0 -0.0833995858 0.1543118454 0.3384184507 -0.4459513207 0.337815341 -0.4457676683 -0.107317091 0.1469733674
445297330.0 -0.081859917 0.1549906162 0.3337706243 -0.449167367 0.3339050576 -0.4494674209 -0.1059085932 0.1480742248
450297300.0 -0.0800493297 0.156484137 0.3287776257 -0.4529689027 0.3287912123 -0.4529812343 -0.1042212974 0.1490655009
455297270.0 -0.0787157857 0.1572774868 0.3238024021 -0.4564379142 0.3242929219 -0.4565611154 -0.1030502988 0.1503553075
460297240.0 -0.0764647273 0.1585185331 0.3191846168 -0.4608030952 0.3189253857 -0.460457603 -0.1012821482 0.1512637608
465297210.0 -0.0748361279 0.1593396201 0.3134071272 -0.4634984994 0.313188686 -0.4639805495 -0.0998552461 0.1530278832
470297180.0 -0.0731159827 0.1602519643 0.3081730857 -0.4665794507 0.3088517065 -0.4665587373 -0.0981910712 0.1537306586
475297150.0 -0.0715595227 0.1611656496 0.3035884987 -0.4703434389 0.3035765525 -0.4705759468 -0.0967525149 0.1546524567
480297120.0 -0.0692815618 0.1623420212 0.2980478876 -0.4736352904 0.298388955 -0.4737832924 -0.0955534002 0.1559424275
485297090.0 -0.0676955818 0.1625883776 0.2926594702 -0.4768557985 0.2933349018 -0.4766397651 -0.0939261369 0.157157026
490297060.0 -0.0652788362 0.1639550601 0.2871308481 -0.4802633957 0.2879737644 -0.4803242048 -0.0923415963 0.1578644308
495297030.0 -0.0636930413 0.1645208098 0.2825439437 -0.4829236696 0.2826369492 -0.4830515805 -0.0906775388 0.1589153214
500297000.0 -0.0620353142 0.1655167209 0.2776059765 -0.4856842464 0.2776297299 -0.4862618726 -0.0890497442 0.1599511215
505296970.0 -0.0596832278 0.1662244091 0.2721537553 -0.4892793649 0.2718834916 -0.4886802981 -0.0874201008 0.1606084453
510296940.0 -0.0582044524 0.1667154195 0.2669294664 -0.492511837 0.2669652566 -0.4924014667 -0.0855837433 0.1624298139
515296910.0 -0.0562225761 0.1678666159 0.2608067534 -0.4948111189 0.260741725 -0.4948342934 -0.0841077605 0.1626865961
520296880.0 -0.0541507488 0.168690729 0.2557927626 -0.4976992686 0.2557729062 -0.4974142886 -0.0827269601 0.1640130994
525296850.0 -0.0524368476 0.1693117902 0.250598766 -0.5003191323 0.2501014701 -0.5002403565 -0.0807053038 0.1648745479
530296820.0 -0.0506857283 0.1699382055 0.2449149538 -0.5028753745 0.2448254005 -0.5030775584 -0.0791560968 0.1654738135
535296790.0 -0.0481505864 0.1705343742 0.2394300377 -0.5053033298 0.2393860271 -0.5057951099 -0.0771974529 0.1669945368
540296760.0 -0.0462242253 0.1720097369 0.2336395914 -0.5082187982 0.2339087977 -0.5080342777 -0.0758549699 0.1670971447
545296730.0 -0.0447981095 0.1724882842 0.2281075884 -0.5104790554 0.2281650119 -0.5103345023 -0.0740654197 0.1681940345
550296700.0 -0.0420785117 0.1730009608 0.2226269928 -0.5134045909 0.2224247057 -0.5133404704 -0.0724292152 0.1692584647
555296670.0 -0.0403509076 0.1735052042 0.2170951484 -0.5157194162 0.2171781396 -0.515501846 -0.0707668297 0.1694509412
560296640.0 -0.0378568674 0.1737700411 0.2113682087 -0.5171769031 0.2113848039 -0.5175925189 -0.0692609081 0.1709361897
565296610.0 -0.0365343597 0.1746721024 0.2060474457 -0.5203768076 0.2063046515 -0.5194641902 -0.0672185721 0.1716742379
570296580.0 -0.034324131 0.1754029845 0.1999460972 -0.5219285743 0.2003506849 -0.5222909466 -0.0659088606 0.1720344622
575296550.0 -0.0321777249 0.1755977371 0.1948783195 -0.5242372023 0.1944430664 -0.5241659808 -0.0638786413 0.1729748103
580296520.0 -0.0303229046 0.1766419444 0.1890883099 -0.5264800988 0.1890163807 -0.526559827 -0.0625573326 0.1735390624
585296490.0 -0.0280523125 0.177111353 0.183376383 -0.5282855483 0.1829703712 -0.5278141091 -0.060323815 0.1747875615
590296460.0 -0.025476243 0.1774474319 0.1775126323 -0.5301924816 0.1776332907 -0.5305630465 -0.0591143567 0.1752509088
595296430.0 -0.0235621174 0.178252227 0.171059122 -0.5321631144 0.1709679504 -0.5321073584 -0.0570760918 0.1759850189
600296400.0 -0.0214485197 0.1786170796 0.1652717012 -0.533861332 0.1658050569 -0.5335794422 -0.0553712962 0.1762724274
605296370.0 -0.0200896212 0.1789479057 0.1606458881 -0.5350940927 0.159717597 -0.5355545269 -0.0535160797 0.177295877
610296340.0 -0.0174803346 0.1797786459 0.15431135 -0.536498532 0.1543573628 -0.5369255384 -0.0521145043 0.1779950781
615296310.0 -0.0151342507 0.1800033623 0.1485810925 -0.5392170163 0.1479614976 -0.5389261059 -0.0500951373 0.1785278406
620296280.0 -0.013763635 0.1809942285 0.1423156743 -0.5405623542 0.1422445869 -0.5402593334 -0.0486067821 0.1791927038
625296250.0 -0.0116359729 0.1809460672 0.1367957186 -0.5422547785 0.1364396127 -0.5418859801 -0.0468258906 0.1797002181
630296220.0 -0.0094383084 0.1813962819 0.1303889534 -0.543556819 0.1306751626 -0.5430891187 -0.0448431134 0.1804267808
635296190.0 -0.0075672134 0.1819861449 0.1253951528 -0.5443540219 0.1247217024 -0.5444700986 -0.043142826 0.1810569922
640296160.0 -0.0051721875 0.1819920356 0.1186578065 -0.545933984 0.1186881518 -0.5460386569 -0.0416035418 0.1814960059
645296130.0 -0.0030549748 0.1824743692 0.1132303152 -0.5473086885 0.1134580122 -0.5469161818 -0.0400567578 0.1816459882
650296100.0 -0.0013050395 0.1827252602 0.1073510088 -0.5487504109 0.1066673272 -0.5485295238 -0.0373224384 0.1824821949
655296070.0 0.0008208268 0.1829270613 0.1009280177 -0.5495690554 0.1009783595 -0.5490393642 -0.0361793302 0.1832985593
660296040.0 0.0028327301 0.1833991915 0.0954490334 -0.5505246191 0.0953613258 -0.5505668625 -0.0344540314 0.1831702563
665296010.0 0.0049318452 0.1837072341 0.0887669863 -0.5514062707 0.0888843558 -0.5510854141 -0.0324617373 0.1838494033
670295980.0 0.0071139179 0.1839896204 0.0832312269 -0.552538951 0.0826238757 -0.5517044034 -0.0309109538 0.1843149299
675295950.0 0.0090943088 0.1838650228 0.0772160496 -0.5527096601 0.0773104793 -0.5529855893 -0.0289928614 0.1850674454
680295920.0 0.0109640597 0.1841400476 0.0714862756 -0.5538269941 0.0712856353 -0.5537293141 -0.0268832801 0.1852856535
685295890.0 0.0133945776 0.1846116107 0.0650524011 -0.5546481536 0.0653436548 -0.5548451091 -0.0254696326 0.1858859253
690295860.0 0.0150392986 0.1844808337 0.0593943503 -0.5552627831 0.0590386538 -0.5554409063 -0.0236900056 0.1861288093
695295830.0 0.0173644171 0.1843641181 0.053594004 -0.5556740316 0.0532013424 -0.5556927769 -0.0220067236 0.1866894026
700295800.0 0.0192653069 0.184556222 0.0478228711 -0.5562235532 0.0475505841 -0.5561969986 -0.0199129065 0.1868201109
705295770.0 0.0210993335 0.184599263 0.0412334007 -0.5569407231 0.0414754851 -0.5565431886 -0.0182774863 0.1876486543
710295740.0 0.0232248352 0.1844083528 0.035686041 -0.5570203245 0.0351071802 -0.5573512941 -0.0162046336 0.1877640996
715295710.0 0.0253452676 0.1848307942 0.0296615286 -0.5574322446 0.0293636753 -0.5576900745 -0.014326924 0.1878069418
720295680.0 0.0275410623 0.1848452073 0.0231400767 -0.5577001239 0.0233169684 -0.5578260003 -0.012589036 0.1880916754
725295650.0 0.0289106086 0.18479631 0.0180511332 -0.5579146767 0.0174894395 -0.5578937969 -0.0108744232 0.1886259055
730295620.0 0.0308264037 0.1846900339 0.0113862811 -0.5577195013 0.0112712142 -0.5577097613 -0.0091351021 0.189423595
735295590.0 0.0333432137 0.1846346293 0.0055047168 -0.5583320113 0.0056197097 -0.5582318028 -0.0073774645 0.1888789979
740295560.0 0.0349196939 0.1841993279 -0.0004401619 -0.5580634148 -0.0002395955 -0.5583289081 -0.0056930623 0.1895512658
745295530.0 0.0368870359 0.1843569372 -0.0065550704 -0.5572336302 -0.0055183368 -0.558145767 -0.0038799137 0.1895048178
750295500.0 0.0386794726 0.1841949935 -0.0118874208 -0.5577443445 -0.0126886233 -0.5580782325 -0.001736212 0.1897953642
755295470.0 0.0408056028 0.1839564704 -0.0183484336 -0.5576579997 -0.0184656633 -0.5579305825 -0.0001249518 0.1904804768
760295440.0 0.0425302843 0.1845724229 -0.0247852154 -0.5572217794 -0.0245362749 -0.5568894601 0.0017685289 0.1895331304
765295410.0 0.0446533707 0.1834322516 -0.0306471016 -0.5568748 -0.0301394573 -0.55718357 0.0038577269 0.1902828807
770295380.0 0.0464085598 0.1836301937 -0.0357906385 -0.5564806767 -0.036447337 -0.5570967121 0.0053814036 0.1906355534
775295350.0 0.0484705303 0.1831140276 -0.0422861795 -0.5562909114 -0.0422218717 -0.5556650316 0.0074772971 0.1906032065
780295320.0 0.0502729907 0.1829726212 -0.0477798747 -0.5552195434 -0.047965618 -0.5556478095 0.0095046082 0.1904913853
785295290.0 0.0521071302 0.1824237804 -0.0539238119 -0.5551733546 -0.0537970709 -0.5551437167 0.0108007237 0.1909124936
790295260.0 0.0541884751 0.1817901887 -0.0602005471 -0.554394796 -0.0599196587 -0.5546333839 0.0126988444 0.1910278139
795295230.0 0.0560818171 0.1814894426 -0.0659584643 -0.5540205271 -0.0661522238 -0.5544081876 0.0145244744 0.1902452272
800295200.0 0.0577106209 0.1815510904 -0.071398929 -0.5526524065 -0.072001655 -0.5533443099 0.01650008 0.1908542317
805295170.0 0.0597759271 0.1809319629 -0.0775774052 -0.5525218905 -0.0777992149 -0.5525715017 0.0187886573 0.1907974819
810295140.0 0.0617669031 0.1805219012 -0.0836961245 -0.551378266 -0.084007765 -0.5516487088 0.0204506448 0.1908846309
815295110.0 0.0634509991 0.1799566909 -0.0891932896 -0.5503805437 -0.0892564235 -0.5506306351 0.021873588 0.1907760114
820295080.0 0.0655401426 0.1798156634 -0.0949739076 -0.549414047 -0.0953224374 -0.5498628984 0.0234617509 0.1913651377
825295050.0 0.0672156798 0.1787552185 -0.1013882356 -0.5479424168 -0.1016276826 -0.5483477928 0.026060202 0.191113243
830295020.0 0.0692464851 0.1782962507 -0.1074807235 -0.5474344745 -0.1072965237 -0.5471559628 0.0274677277 0.1905813499
