!Created with skrf (http://scikit-rf.org).
# Hz S RI R 50.0 
!freq ReS11 ImS11 ReS21 ImS21 ReS12 ImS12 ReS22 ImS22
300000.0 -0.234839823 -0.112470104 0.4664879538 0.0728355259 0.4708860107 0.0762489087 -0.2367641154 -0.1138155434
5299970.0 -0.2408505159 0.0069900316 0.4752454581 0.0052812048 0.4747065975 0.0059441075 -0.2446889443 0.0053261223
10299940.0 -0.2372172234 0.0198268833 0.4774051428 0.006212212 0.4771220054 0.006413426 -0.2417348371 0.0174166308
15299910.0 -0.2331202911 0.0296447894 0.4805324664 0.0077016201 0.4805106157 0.0077006485 -0.2372714358 0.0263457886
20299880.0 -0.2272184014 0.0377847337 0.4851075395 0.0082989308 0.4853430722 0.0079868016 -0.2329204521 0.033920784
25299850.0 -0.2216359487 0.0443618324 0.4904316766 0.0066501977 0.4907520195 0.007020604 -0.2278060658 0.0397517446
30299820.0 -0.2156051053 0.0495577279 0.4960463794 0.0050359365 0.4956167829 0.0048974877 -0.2226530473 0.0448901587
35299790.0 -0.2097568631 0.0539417701 0.5010167018 0.0015764182 0.5012618027 0.0015627344 -0.2172450761 0.048395908
40299760.0 -0.2045888827 0.0571212086 0.506218146 -0.0018922134 0.5063141202 -0.0021022917 -0.2125070565 0.0520915007
45299730.0 -0.199538912 0.05997253 0.5112719363 -0.0070596689 0.5112658439 -0.0071322458 -0.2080739067 0.0544895308
50299700.0 -0.1948279768 0.0620220661 0.5148578755 -0.0125506985 0.5152550705 -0.0126534542 -0.2038236073 0.0565910488
55299670.0 -0.190726874 0.0638142488 0.5187408126 -0.0186793795 0.5189821592 -0.0185569765 -0.1999289858 0.0581105087
60299640.0 -0.1863206289 0.0649395225 0.5217188985 -0.0249014917 0.5221356313 -0.0246327385 -0.1964120905 0.0595099686
65299610.0 -0.1831049544 0.0663986326 0.5249347812 -0.0305895466 0.5254400185 -0.0311709896 -0.1929488304 0.060688028
70299580.0 -0.179506506 0.0670001967 0.5269598353 -0.037502682 0.5271702588 -0.0376345022 -0.1900652779 0.0614889156
75299550.0 -0.1765137664 0.0680847967 0.5293260514 -0.0445387706 0.5290009968 -0.0443929632 -0.1872471995 0.062581827
80299520.0 -0.174042674 0.0689433678 0.5314532113 -0.0515508783 0.5312906114 -0.0514955148 -0.18472244 0.0628560942
85299490.0 -0.1714689829 0.0694805763 0.5323578253 -0.0584158318 0.5322819655 -0.058616911 -0.1823892351 0.0635485955
90299460.0 -0.1692961193 0.0700608843 0.5333423451 -0.0650476761 0.5336698218 -0.065311235 -0.18015481 0.0643827837
95299430.0 -0.1668836444 0.0711120838 0.5344261891 -0.0723532622 0.5345974119 -0.0718769478 -0.178371461 0.0647840101
100299400.0 -0.1654587949 0.0715777461 0.5347066226 -0.0788258318 0.5348518781 -0.079054079 -0.1769724134 0.0656800091
105299370.0 -0.1633402568 0.0724924395 0.5343297121 -0.0861134917 0.5350381042 -0.0861583059 -0.1752129674 0.0663840466
110299340.0 -0.1616462051 0.0730862718 0.5349483207 -0.0926958548 0.5349709819 -0.0927439211 -0.1738156166 0.066950787
115299310.0 -0.1601113925 0.0737127545 0.5350767995 -0.0993155633 0.5356655997 -0.0991001421 -0.1724706865 0.0670526687
120299280.0 -0.1591124542 0.0745268032 0.5350382515 -0.1065848574 0.5351824267 -0.1066643468 -0.1712971001 0.0681771719
125299250.0 -0.1578396099 0.0751225225 0.5346277477 -0.1128797151 0.5345894335 -0.1129514873 -0.1696418551 0.0682478025
130299220.0 -0.1564308685 0.0762374817 0.5339927447 -0.1195266791 0.534048888 -0.1195698257 -0.1688718527 0.0692244075
135299190.0 -0.1550369501 0.0768827498 0.5330859591 -0.1259966664 0.5329656023 -0.1258972353 -0.1678135332 0.0700854249
140299160.0 -0.1542990314 0.0781123769 0.5325449192 -0.1327570834 0.5328176855 -0.1329895984 -0.1668477798 0.0713584614
145299130.0 -0.1532719236 0.0788985465 0.5317242875 -0.1395785916 0.5316961522 -0.1392160896 -0.166357083 0.0718047084
150299100.0 -0.1520449392 0.0798393355 0.5304487288 -0.1463038026 0.5304696832 -0.1460701308 -0.1651223716 0.0727550016
155299070.0 -0.1511668461 0.0814254096 0.5291774779 -0.1532609711 0.5293957779 -0.1528077754 -0.1644401958 0.0734346027
160299040.0 -0.1500282668 0.082271453 0.5276376373 -0.158840139 0.5279558832 -0.1590373135 -0.1635562206 0.0747266281
165299010.0 -0.1492488187 0.0833254272 0.5264044346 -0.1658824116 0.5267377074 -0.1657259636 -0.1626821375 0.0755109696
170298980.0 -0.1484086049 0.084454752 0.5239835302 -0.1718342437 0.5247151782 -0.1720096673 -0.1616433034 0.0765861911
175298950.0 -0.1471484791 0.0854549231 0.5235384657 -0.1779774904 0.5233028005 -0.1778844929 -0.1610284854 0.0776118527
180298920.0 -0.1461044911 0.0866689287 0.5215205683 -0.184490736 0.5216060887 -0.1842702169 -0.1602049832 0.0788598445
185298890.0 -0.1452117975 0.0880345059 0.5194191654 -0.1905861849 0.5200256269 -0.1906449561 -0.1597734466 0.0794352402
190298860.0 -0.1443477607 0.089322548 0.5176397121 -0.1969370665 0.5179839282 -0.1966081808 -0.1584035601 0.0808413149
195298830.0 -0.143393193 0.0902303638 0.5156216374 -0.2028913069 0.5159618852 -0.2029934229 -0.1577791989 0.0817096535
200298800.0 -0.1424528375 0.0918898649 0.5137329009 -0.2086878046 0.5139511234 -0.2087786662 -0.1569964831 0.0835468258
205298770.0 -0.1414849683 0.0930816607 0.5120157422 -0.2150290008 0.5117650364 -0.2150899453 -0.1563775426 0.0838382822
210298740.0 -0.1408320648 0.0940146472 0.5095662914 -0.2210885874 0.5095911298 -0.220989797 -0.1553145252 0.0855990915
215298710.0 -0.1394757274 0.0956654113 0.5066951341 -0.2267786541 0.5070687172 -0.2267683036 -0.1548190443 0.0868924892
220298680.0 -0.1387623326 0.0969751804 0.5042322131 -0.2327147358 0.504988533 -0.2329172196 -0.1540612243 0.0881019163
225298650.0 -0.1376333962 0.0981483406 0.5016507711 -0.2381834115 0.5019259421 -0.2383394421 -0.1535299047 0.0894828287
230298620.0 -0.1369391892 0.0999480483 0.5000814928 -0.2444833527 0.4997577341 -0.2446820295 -0.1524161797 0.0903655571
235298590.0 -0.1360223617 0.1009317286 0.4970852891 -0.25022257 0.4969833125 -0.2502834318 -0.1516720238 0.0914696488
240298560.0 -0.1351031464 0.1024950299 0.4946092537 -0.2555702261 0.4944922211 -0.2552437191 -0.1510653112 0.0930405995
245298530.0 -0.1335884196 0.1039340824 0.4908718644 -0.2616542171 0.4912233303 -0.2614765192 -0.1499768555 0.0945266265
250298500.0 -0.1329894637 0.1049853512 0.4886592708 -0.2666692607 0.4892107803 -0.2666496066 -0.148945848 0.0957850835
255298470.0 -0.1320352183 0.1067436488 0.4855153622 -0.2726644194 0.4857639502 -0.2726501617 -0.1483211678 0.0968516904
260298440.0 -0.1307923928 0.1080520173 0.4829583494 -0.2776809202 0.482758186 -0.2783746613 -0.1470193346 0.098108014
265298410.0 -0.1293284502 0.1096940959 0.4795490315 -0.2839593573 0.479375092 -0.2837546282 -0.1467397017 0.0994884446
270298380.0 -0.1280936194 0.110931596 0.4762115095 -0.2892240377 0.4765402896 -0.2894024003 -0.1454106734 0.1013078592
275298350.0 -0.1273542164 0.1123823506 0.4732368833 -0.2945460806 0.4737541364 -0.2949988095 -0.1442686764 0.1025633787
280298320.0 -0.1261676453 0.1139861352 0.4703494401 -0.2999243449 0.4703548569 -0.3000961987 -0.1434111391 0.1040142035
285298290.0 -0.1248776777 0.115601629 0.4667264778 -0.3050957254 0.4668392121 -0.3055239939 -0.1426744447 0.1052005455
290298260.0 -0.1237336269 0.1166544238 0.4639083202 -0.3104993132 0.4639219963 -0.310449606 -0.1412371343 0.1065596464
295298230.0 -0.1224459908 0.1180807421 0.4604952341 -0.3159053015 0.460321354 -0.3158011813 -0.1403855401 0.1080950982
300298200.0 -0.1207582044 0.1195103348 0.4568799689 -0.3213172311 0.4570925137 -0.3212644222 -0.1394902908 0.1096114398
305298170.0 -0.1196448851 0.1207668825 0.4537394734 -0.3264476085 0.4539840505 -0.3264454667 -0.1379980935 0.1109923774
310298140.0 -0.118118249 0.1218010395 0.4499639639 -0.3320664146 0.450287016 -0.3318856674 -0.1368957915 0.1127126042
315298110.0 -0.1170597189 0.1230915677 0.4461709845 -0.3367122891 0.4466332062 -0.3368703197 -0.1357634782 0.113435898
320298080.0 -0.1158413665 0.1245323083 0.4424799891 -0.3418688804 0.4431898923 -0.3416967603 -0.1348201452 0.1145738629
325298050.0 -0.1146167373 0.1255061409 0.4391885022 -0.3470264851 0.4390657255 -0.3473977995 -0.1336901522 0.1160115037
330298020.0 -0.1135967901 0.1272642569 0.434443902 -0.35219416 0.4347281268 -0.3521899931 -0.1331357704 0.1170328038
335297990.0 -0.1120117264 0.1281255428 0.4303457525 -0.3570616388 0.4308753812 -0.3567416169 -0.1321920727 0.1183276163
340297960.0 -0.1114901941 0.1294837195 0.4264998143 -0.361839695 0.4267831044 -0.3613541664 -0.1310540803 0.1199409717
345297930.0 -0.1100229373 0.1311127478 0.4224849526 -0.3656444024 0.4224334659 -0.3657093154 -0.1298553352 0.1211840343
350297900.0 -0.1081255679 0.1325947437 0.4181294047 -0.3706613101 0.4186009191 -0.3708666939 -0.129093139 0.123050689
355297870.0 -0.1071768965 0.1337265198 0.4141327934 -0.3752602259 0.4145728199 -0.3755695479 -0.1280252345 0.1244760411
360297840.0 -0.1055390864 0.1351551258 0.4100372478 -0.3802937849 0.4099304696 -0.3801669596 -0.1267305803 0.1259186905
365297810.0 -0.1041137916 0.1363333142 0.4057532416 -0.3843482449 0.405693588 -0.3844543697 -0.1258723254 0.1276541786
370297780.0 -0.1026025507 0.1378303137 0.4013116933 -0.3889497984 0.4016197499 -0.3892333279 -0.1243705929 0.1287429059
375297750.0 -0.1013085793 0.1393398387 0.3981017731 -0.3937587028 0.397074383 -0.3937364756 -0.1229120126 0.1302993798
380297720.0 -0.0996852472 0.1402957363 0.3930455661 -0.3977185119 0.3930889671 -0.3977175965 -0.1218638049 0.1318866414
385297690.0 -0.0979559888 0.1416388028 0.3878998633 -0.4019918718 0.3885879175 -0.4019294885 -0.120717515 0.1332807751
390297660.0 -0.0966696166 0.1426374573 0.3837927278 -0.4064363493 0.3841275292 -0.4066261795 -0.1191832338 0.1340986871
395297630.0 -0.0946488031 0.1437720346 0.3795799562 -0.4102151229 0.3798121331 -0.4102246735 -0.1183485794 0.135993818
400297600.0 -0.0936258559 0.1455428227 0.3752236445 -0.4142953091 0.3754725265 -0.4147643358 -0.1171919874 0.1371732963
405297570.0 -0.0916142938 0.1465870167 0.3705359497 -0.4185383128 0.3708785601 -0.4186919442 -0.1160417615 0.1384602902
410297540.0 -0.0899846594 0.1473940398 0.3656446676 -0.4224721729 0.3659599978 -0.4226525986 -0.1143342151 0.1398797296
415297510.0 -0.0885810404 0.1490044461 0.3612522283 -0.4264803294 0.3611115349 -0.4265046108 -0.1129262128 0.1412462371
420297480.0 -0.086699261 0.1496283016 0.3567091718 -0.430881559 0.3564642407 -0.4309636517 -0.1113715764 0.1424018528
425297450.0 -0.0847413861 0.1506039063 0.3518316458 -0.434405112 0.3521791422 -0.4343315478 -0.1103344483 0.1440533253
430297420.0 -0.0835206701 0.1521572121 0.3469782799 -0.4387764096 0.3473366408 -0.4384335837 -0.1090255249 0.1447982492
435297390.0 -0.0814815609 0.1530801148 0.3422853394 -0.4418800264 0.3424496556 -0.4417425111 -0.1077601747 0.1466200305
440297360.0 -0.079723832 0.1539914098 0.3369688131 -0.4459879102 0.336814888 -0.4456323465 -0.1063160846 0.1470907243
445297330.0 -0.0780494293 0.1549627865 0.3320807956 -0.4493855697 0.332348218 -0.4493275802 -0.1047788135 0.148335115
450297300.0 -0.0762001679 0.15596112 0.3270365232 -0.4533309149 0.3277051283 -0.4532923219 -0.1038992935 0.1498706345
455297270.0 -0.0747822135 0.1572258734 0.3228092066 -0.4566844081 0.3229928767 -0.4564698754 -0.1019207288 0.1511879297
460297240.0 -0.0731726566 0.1581813329 0.3173962931 -0.4597728779 0.3174220911 -0.4601762285 -0.1007179011 0.1526764782
465297210.0 -0.0710774941 0.1589368718 0.3125574651 -0.4634669849 0.3130333193 -0.4636104069 -0.099702923 0.1534536409
470297180.0 -0.069443856 0.1598385952 0.3078401055 -0.4664651372 0.3079748113 -0.46685699 -0.0984218302 0.1546719576
475297150.0 -0.067898493 0.1603558165 0.3020670028 -0.4698570036 0.3022764262 -0.4696567406 -0.0964434653 0.1562179972
480297120.0 -0.0656864713 0.1614221495 0.2969265801 -0.4733957515 0.2976883984 -0.4732216607 -0.0953627838 0.1572792262
485297090.0 -0.0639316444 0.1624207104 0.2920458526 -0.476660719 0.2922096299 -0.4768148294 -0.0937408908 0.1579722974
490297060.0 -0.0621243373 0.1630299467 0.286830599 -0.4797326095 0.2868696879 -0.479383419 -0.0919289546 0.1594075256
495297030.0 -0.0606054382 0.1641933181 0.2819481108 -0.4828562572 0.2813088273 -0.4827136759 -0.0905952616 0.1601505971
500297000.0 -0.0585585598 0.1645038012 0.2760352407 -0.4860248181 0.2764594149 -0.4857467256 -0.0893281176 0.1614465962
505296970.0 -0.0569225491 0.1654633809 0.2707625627 -0.4882389398 0.2709078709 -0.4884836611 -0.088250826 0.162723334
510296940.0 -0.0547599042 0.1661966245 0.2653257034 -0.4916207675 0.265707199 -0.4915623571 -0.0862012037 0.1639630567
515296910.0 -0.0531382112 0.1672840361 0.2602563266 -0.4937624837 0.2603190707 -0.494159205 -0.0850519733 0.1645085635
520296880.0 -0.0510651654 0.1677807422 0.2543913241 -0.4970987263 0.2552708801 -0.49693389 -0.0831515656 0.1658258484
525296850.0 -0.0495313635 0.1681358051 0.2494828421 -0.4994902851 0.2496852074 -0.5001853463 -0.0814180127 0.1665604669
530296820.0 -0.0474636252 0.1689761172 0.2441464677 -0.5018494547 0.2440329187 -0.5024075116 -0.080350755 0.1673517585
535296790.0 -0.0458529369 0.1696585879 0.2384395134 -0.5046659142 0.2386606961 -0.5045532431 -0.0787022369 0.167970709
540296760.0 -0.0438491896 0.1700739113 0.2329496494 -0.5075561909 0.2329617393 -0.5074900335 -0.077079991 0.1693880637
545296730.0 -0.0418895252 0.170944195 0.2275122751 -0.5097474112 0.2277529423 -0.5102521029 -0.0755853087 0.1695986417
550296700.0 -0.0402840258 0.1714000897 0.2221702275 -0.5126752036 0.222243874 -0.5127148822 -0.074014928 0.1711777673
555296670.0 -0.03770565 0.171833738 0.2161114193 -0.5148081327 0.2167156249 -0.5148009495 -0.0723640391 0.1719843411
560296640.0 -0.0360445957 0.1726256266 0.2105370631 -0.5168710427 0.2110785267 -0.5168396256 -0.0706960256 0.1728357389
565296610.0 -0.0345661308 0.173306307 0.2052410247 -0.5192283973 0.2050901551 -0.5191675581 -0.0691234872 0.1736175827
570296580.0 -0.0323359185 0.1735335072 0.1993622701 -0.5208193753 0.2000484677 -0.5212840935 -0.0671510645 0.1749268308
575296550.0 -0.0303603118 0.17453194 0.1940825928 -0.5232718208 0.1942724011 -0.5236657638 -0.0654591814 0.175510719
580296520.0 -0.0285976609 0.174542355 0.1884411768 -0.5254962668 0.1882106474 -0.5254528897 -0.0641888097 0.1759240609
585296490.0 -0.026342997 0.1747886357 0.1826000721 -0.5273636715 0.1823360055 -0.527818407 -0.0625282493 0.1767601398
590296460.0 -0.0248884944 0.1751690844 0.176989397 -0.5291858393 0.1768871872 -0.529364937 -0.060636956 0.1776115457
595296430.0 -0.022591383 0.1759725174 0.1710864008 -0.5311650681 0.1710878324 -0.5315575682 -0.0591119367 0.1781598629
600296400.0 -0.0206873982 0.1763771655 0.1653734998 -0.532711884 0.1660511107 -0.5330469866 -0.0572836576 0.1791443534
605296370.0 -0.0187409097 0.1771806404 0.1598909533 -0.5348442506 0.1596514017 -0.5347702733 -0.0555036824 0.1798763349
610296340.0 -0.0166570688 0.1771287418 0.153860656 -0.5363675941 0.1540932676 -0.5365984223 -0.0540436793 0.1807264433
615296310.0 -0.0149163126 0.1776982326 0.1478024582 -0.5375759433 0.1484705103 -0.5380022353 -0.0519690401 0.1811700049
620296280.0 -0.0130357553 0.1775105622 0.1423499411 -0.5396482994 0.1423545905 -0.5395196491 -0.0505889674 0.1816487098
625296250.0 -0.0104830881 0.1779557271 0.1358623684 -0.5410454524 0.1363226025 -0.5414981153 -0.048797674 0.1824689276
630296220.0 -0.0084862095 0.1783760005 0.1301525579 -0.542821213 0.1308477257 -0.5426740126 -0.0471147747 0.183198034
635296190.0 -0.0068937123 0.1784799028 0.1244373011 -0.543135579 0.1246732015 -0.5432762257 -0.0453398025 0.183670723
640296160.0 -0.0050224821 0.1786189451 0.1192436551 -0.544653253 0.1185768617 -0.5451293591 -0.043358037 0.1841492588
645296130.0 -0.0030921987 0.1791965389 0.1127186498 -0.5463561324 0.1129470134 -0.5465127346 -0.0423919623 0.1844392142
650296100.0 -0.0011178443 0.1794598337 0.1074075426 -0.5472190091 0.1069726073 -0.5471101618 -0.0403962287 0.1850066809
655296070.0 0.0009827008 0.1790745376 0.1009497069 -0.5485094166 0.1010008122 -0.5486532088 -0.0377455442 0.186192399
660296040.0 0.0027697841 0.1798271985 0.0950062457 -0.5490420824 0.095393343 -0.5496360443 -0.0366405891 0.1864361243
665296010.0 0.0051524937 0.1795138232 0.0892949716 -0.5503719286 0.0899174792 -0.5508752174 -0.0348873356 0.1871835336
670295980.0 0.0076670643 0.1797738511 0.083779177 -0.5512616728 0.0839924807 -0.551096037 -0.0335065662 0.187160751
675295950.0 0.0093356383 0.1798988208 0.0774856416 -0.5522722468 0.0777759379 -0.5526137848 -0.0312073434 0.188123627
680295920.0 0.011159232 0.179899193 0.0714508743 -0.5532255813 0.0712602045 -0.5530853585 -0.0293060332 0.1881095297
685295890.0 0.013172536 0.1796728625 0.0655496787 -0.5534614696 0.065290073 -0.5539627445 -0.0276489287 0.1886961722
690295860.0 0.0155266029 0.1798549371 0.0592686827 -0.5537320478 0.0594953013 -0.5539576513 -0.0258368379 0.1892709312
695295830.0 0.0175813648 0.1795091854 0.0529333111 -0.5549904727 0.0533487737 -0.5551004845 -0.0243426375 0.1898298639
700295800.0 0.0196191455 0.1796764993 0.0470055291 -0.5554400632 0.0477521916 -0.5555879003 -0.0223844638 0.189348323
705295770.0 0.0215008605 0.1797577259 0.0413321583 -0.5557131285 0.0418760053 -0.5561223332 -0.0207865709 0.1904902572
710295740.0 0.0234346507 0.1800423923 0.0353326526 -0.5558895746 0.0357975365 -0.5560708489 -0.019347816 0.1908901355
715295710.0 0.0252804073 0.1796811527 0.0293998995 -0.556452713 0.0298306772 -0.5566012535 -0.0171397286 0.1907282606
720295680.0 0.0273192475 0.1792279081 0.0233187168 -0.5567937448 0.0239337479 -0.5569091743 -0.0149285132 0.1913056782
725295650.0 0.0296233161 0.1793722981 0.0170011724 -0.5569799574 0.0176740716 -0.5570216099 -0.0131925395 0.191770447
730295620.0 0.0311890718 0.1789661815 0.0113099667 -0.5570530443 0.011281838 -0.5568864533 -0.01119762 0.191277501
735295590.0 0.0335190234 0.178979452 0.0059730393 -0.5572727384 0.0059556152 -0.557311031 -0.0093767185 0.1923138588
740295560.0 0.0353400637 0.1788730219 -0.0008305211 -0.5567920794 -0.0005046274 -0.5572159847 -0.0073466794 0.1923523859
745295530.0 0.0374832952 0.1784451507 -0.0063884953 -0.5568222703 -0.0062436357 -0.5572543267 -0.0059081052 0.1925037504
750295500.0 0.0393590461 0.1781141687 -0.0119309995 -0.556462629 -0.0122783653 -0.5567049375 -0.0037542578 0.1925023618
755295470.0 0.0418504914 0.1782779738 -0.0182922684 -0.5569372216 -0.0180933244 -0.5571498603 -0.0025000749 0.1931239095
760295440.0 0.0433647954 0.1776824322 -0.0247222321 -0.5562081859 -0.024320407 -0.5563425577 -0.0006274305 0.1932310748
765295410.0 0.0452057323 0.1770631814 -0.030035928 -0.5556517545 -0.0301724049 -0.556551475 0.0020159007 0.1934980228
770295380.0 0.0475375357 0.1770980678 -0.036420479 -0.5554784831 -0.0359806304 -0.5560858952 0.0039238477 0.193753156
775295350.0 0.0492196221 0.1766991108 -0.0423792103 -0.5549779923 -0.0422011418 -0.5551821472 0.005259517 0.1933600349
780295320.0 0.0515737324 0.1762210625 -0.0483738945 -0.5544406311 -0.0479667521 -0.5549924665 0.0071224438 0.1936567327
785295290.0 0.053229226 0.1761187001 -0.0542410596 -0.5536935722 -0.0540961245 -0.5541332895 0.008630098 0.1938864154
790295260.0 0.0553564486 0.1753804436 -0.0602863556 -0.5534661622 -0.060195209 -0.5537785905 0.0109717968 0.1938067547
795295230.0 0.0573658756 0.1751090874 -0.0658974593 -0.5525426816 -0.0656067243 -0.5526842755 0.0127929074 0.1943053205
800295200.0 0.0592493681 0.1745649993 -0.0720462934 -0.5521544536 -0.0723197292 -0.5525885183 0.0146934362 0.1939573498
805295170.0 0.0609373617 0.1739915193 -0.0781151299 -0.550507457 -0.0779998754 -0.5510587468 0.016023266 0.1938137617
810295140.0 0.062964457 0.1734250418 -0.0836242842 -0.5501486866 -0.0836243963 -0.5508888228 0.0182665533 0.1943176988
815295110.0 0.0650433057 0.1731344655 -0.0899127034 -0.5491263114 -0.0900320577 -0.5494625786 0.0199545019 0.1938815885
820295080.0 0.0671123866 0.1721854273 -0.0957005277 -0.5483684808 -0.0959786521 -0.5487180894 0.0216329703 0.1941175637
825295050.0 0.0692395397 0.1715169521 -0.1015602709 -0.5468790103 -0.1014413338 -0.5472576044 0.0239830219 0.1937480083
830295020.0 0.0708635644 0.171327816 -0.1077099351 -0.5456958541 -0.1079624437 -0.5462780843 0.0255517106 0.1938152195
