!Created with skrf (http://scikit-rf.org).
# Hz S RI R 50.0 
!freq ReS11 ImS11 ReS21 ImS21 ReS12 ImS12 ReS22 ImS22
300000.0 -0.209986446 -0.0922251678 -0.0006234694 0.0007135275 -0.0006340837 0.0013000497 -0.7655103531 -0.1793183286
5299970.0 -0.21531124 0.0072657975 0.0001516869 2.60973e-05 0.0001140992 -0.0001955873 -0.7849774373 -0.009243846
10299940.0 -0.2116894362 0.0203028412 -0.0001596836 5.764e-06 -0.0001011838 -4.66685e-05 -0.7877691168 -0.0051598789
15299910.0 -0.2065084215 0.0301818856 -0.0001405661 -3.97117e-05 -7.09515e-05 -0.0001249658 -0.7931534176 -0.002775841
20299880.0 -0.2004464968 0.0381579733 -2.60704e-05 -8.73954e-05 -1.65857e-05 0.0001864261 -0.7998501262 0.0016781991
25299850.0 -0.1941603561 0.0446878376 5.99737e-05 4.51909e-05 1.39734e-05 0.0001654473 -0.8064019787 0.0078642039
30299820.0 -0.1878687571 0.0496970416 0.0001175136 3.04225e-05 -4.41472e-05 0.0001018326 -0.8122148427 0.0158978408
35299790.0 -0.1816400556 0.0534867308 0.0001455948 6.72659e-05 5.3948e-05 4.57641e-05 -0.8174314258 0.0247044989
40299760.0 -0.1754946241 0.0561573154 -0.0001107469 -5.89e-07 0.0002226263 2.0554e-05 -0.8215893406 0.0340346991
45299730.0 -0.1701201504 0.0581218716 -4.90352e-05 -1.85896e-05 0.0002114567 -5.87922e-05 -0.8245048848 0.0439012412
50299700.0 -0.1644291007 0.059751943 -8.54854e-05 4.98226e-05 -1.94254e-05 3.82945e-05 -0.8270212151 0.0541001444
55299670.0 -0.1597540745 0.0604758842 -5.26609e-05 6.04554e-05 5.02984e-05 9.7963e-06 -0.8290795679 0.0636340467
60299640.0 -0.1554912645 0.0610237254 -0.000100857 -0.0002048768 0.0001691996 -0.0001167007 -0.8299287891 0.0743731451
65299610.0 -0.1512734022 0.0613676015 -9.55508e-05 0.0001308238 8.27195e-05 8.23751e-05 -0.8309584842 0.0836487228
70299580.0 -0.1479887169 0.0613074371 0.0001664302 -8.10149e-05 0.0001403487 2.77472e-05 -0.831634264 0.093937323
75299550.0 -0.1444505071 0.0614629016 -5.16759e-05 -1.70593e-05 -6.3901e-06 -0.0002234869 -0.8313660018 0.1040031678
80299520.0 -0.1417169539 0.0611866214 1.7293e-06 7.14236e-05 2.10824e-05 7.94833e-05 -0.830980817 0.1141106833
85299490.0 -0.1389804726 0.0611046636 0.0001625945 0.0001044144 0.0001483325 0.000220241 -0.8303147739 0.1234058894
90299460.0 -0.1365745169 0.061109139 5.87874e-05 0.0002957175 6.1274e-06 -0.0001274675 -0.8293547172 0.1324856297
95299430.0 -0.1343748146 0.0607734675 0.0001852969 -5.24674e-05 0.0002127622 -3.25597e-05 -0.8288803187 0.1427092582
100299400.0 -0.1323568313 0.0604865559 -0.0001755427 0.0001263437 0.0001615799 -8.90526e-05 -0.8274913366 0.1520517609
105299370.0 -0.1304599762 0.0601525091 0.0002150374 0.0004473662 0.000118414 -0.0002997417 -0.8259324029 0.1606621714
110299340.0 -0.1288563139 0.060065508 -0.0001723081 0.0002623529 1.38e-08 -7.93367e-05 -0.8247252745 0.1698049576
115299310.0 -0.1275679864 0.0600657293 -0.0001022472 0.0001658623 -0.0001485422 -3.1484e-06 -0.823225717 0.1795485317
120299280.0 -0.1260341937 0.0599694653 0.000120106 6.21198e-05 0.0001285083 1.81733e-05 -0.8214414985 0.1877908658
125299250.0 -0.124950072 0.0595883924 -6.0249e-05 -3.4329e-06 0.0002944019 1.99656e-05 -0.8197058392 0.1969169655
130299220.0 -0.1238036963 0.059652878 0.0002651751 0.0001004942 -0.0001981204 0.0002280149 -0.8181012773 0.2063452448
135299190.0 -0.1229162529 0.0599243793 -3.48574e-05 8.25424e-05 -0.0001222462 -2.37712e-05 -0.8164669501 0.2152001077
140299160.0 -0.121850425 0.0601254808 -9.26712e-05 5.98965e-05 0.000135236 -0.0001746527 -0.8141493139 0.2235373246
145299130.0 -0.1208186881 0.0604449311 0.0002692147 0.0002027818 0.0001999189 0.0001842398 -0.8123239428 0.232042305
150299100.0 -0.1200176751 0.0606636508 7.78219e-05 0.0001713447 -6.68531e-05 -0.0001857191 -0.8100874485 0.2412175502
155299070.0 -0.1193302201 0.0609624132 0.0001025409 0.0001245623 8.67309e-05 0.0001650629 -0.8072647256 0.2505245286
160299040.0 -0.1187104324 0.0614048776 -6.67224e-05 0.0002135399 -2.2207e-05 0.0001333377 -0.8048870095 0.2591753191
165299010.0 -0.1181429299 0.0617886125 0.0001575982 0.0001951366 0.0002284023 -0.0001057369 -0.8016283539 0.2672587828
170298980.0 -0.1175086651 0.0619629231 0.0001822206 0.0002703955 5.41275e-05 8.79952e-05 -0.799795017 0.2754160259
175298950.0 -0.1168162254 0.0629587395 6.98705e-05 0.000121468 7.80291e-05 0.0001232664 -0.7962906429 0.2849682074
180298920.0 -0.1163418641 0.0630254005 1.13404e-05 -2.21931e-05 0.0001992523 6.90174e-05 -0.7933505089 0.2931037478
185298890.0 -0.115577212 0.0636410229 -0.0001582397 0.0003205808 7.76829e-05 -0.0001412403 -0.7908736301 0.3016415362
190298860.0 -0.1151448817 0.0645090385 -7.02097e-05 3.09351e-05 0.000100188 0.0001532138 -0.7876069287 0.3098313902
195298830.0 -0.1143181337 0.0651627033 3.3372e-06 -7.75434e-05 3.53105e-05 1.9775e-05 -0.7845117695 0.3181967898
200298800.0 -0.1137947569 0.0655129626 -8.19779e-05 0.0002973987 2.71642e-05 0.000135109 -0.7809962884 0.3264508138
205298770.0 -0.1137127442 0.0664851423 8.60918e-05 0.0002399757 0.0001139428 6.00905e-05 -0.7779610254 0.3350855412
210298740.0 -0.1131181434 0.0671695661 0.0001108343 0.0001827376 0.0003161576 8.54613e-05 -0.7742943921 0.3432283978
215298710.0 -0.1126955064 0.0678310527 9.24059e-05 -9.0578e-06 3.594e-06 0.0001821635 -0.7705996945 0.3514710916
220298680.0 -0.1118746719 0.0685074087 0.0001642417 0.0003755481 5.16433e-05 0.0001292586 -0.7669035302 0.3593812041
225298650.0 -0.1115143419 0.0694594562 3.3571e-06 6.91074e-05 -5.96745e-05 0.0001953097 -0.763400116 0.3675296567
230298620.0 -0.1110739033 0.0706266675 1.6791e-06 0.0001522309 0.0001884267 0.000256492 -0.7590445271 0.3754753498
235298590.0 -0.1107500868 0.071478119 -0.00012737 -3.24136e-05 -8.5871e-06 8.16714e-05 -0.7553280868 0.3833207468
240298560.0 -0.1104322424 0.0719423893 2.36258e-05 0.0002353198 -3.20862e-05 2.22563e-05 -0.7514235709 0.3905687435
245298530.0 -0.1099737746 0.0728009319 -9.65604e-05 0.000105837 0.000350179 8.28126e-05 -0.7474927961 0.3991649989
250298500.0 -0.1093625254 0.0737394239 -8.8877e-05 -2.11716e-05 0.0001193615 1.03493e-05 -0.7431550468 0.4069175004
255298470.0 -0.1089118574 0.0748681599 5.4524e-05 7.96688e-05 -0.0001827818 3.18448e-05 -0.7389018304 0.4144784755
260298440.0 -0.1085158598 0.0755203459 7.90272e-05 0.0001299159 6.98849e-05 -2.85888e-05 -0.7343839761 0.4220141664
265298410.0 -0.1079671583 0.0762513277 5.48714e-05 0.0002114174 0.0002166637 3.48553e-05 -0.729711911 0.429729584
270298380.0 -0.1076987059 0.0774662284 2.75093e-05 0.0002116075 6.43364e-05 0.0002007383 -0.7257052913 0.4382932698
275298350.0 -0.1071021655 0.0787336182 -1.68888e-05 0.0002883009 0.000164667 0.000191726 -0.7205474594 0.4455349403
280298320.0 -0.1065971802 0.0795141035 0.0001532894 -2.18519e-05 0.0002376153 0.0001704007 -0.7163268059 0.4528431486
285298290.0 -0.1059605563 0.0804465511 -3.3695e-06 3.11518e-05 -0.0001453178 4.06549e-05 -0.7119167992 0.4607981273
290298260.0 -0.1056571782 0.0814798407 0.0001470406 0.0002194329 -4.2814e-05 2.11848e-05 -0.7064280261 0.4677910928
295298230.0 -0.1050455895 0.0821727339 -4.54381e-05 0.0003942183 2.40997e-05 5.71204e-05 -0.7019678984 0.4747742445
300298200.0 -0.1045794314 0.0833505534 -1.0556e-06 1.63326e-05 6.44767e-05 0.0001161893 -0.6966699515 0.4827054547
305298170.0 -0.1041815312 0.0840832285 0.0003837643 -4.65577e-05 4.65492e-05 0.000108927 -0.6910550991 0.4895556244
310298140.0 -0.1036505889 0.0849555926 0.0001867947 3.20514e-05 6.83414e-05 0.0001132658 -0.6866003247 0.4969145397
315298110.0 -0.1031880158 0.0856041436 0.0001259024 -0.0001338955 8.73821e-05 0.0001903003 -0.6811797796 0.5040420011
320298080.0 -0.1026798982 0.0865436268 5.63985e-05 0.0001026094 0.0002938199 -5.38094e-05 -0.6761396471 0.5106898115
325298050.0 -0.1025832064 0.0870522778 6.72225e-05 0.0002214648 0.0001546111 -0.0001326644 -0.6702803395 0.5176944179
330298020.0 -0.1019904432 0.0885977006 0.0001106075 0.0002223837 -8.67726e-05 0.0002033783 -0.6654632708 0.5246394925
335297990.0 -0.1015693864 0.0893890555 0.000131166 0.0002414617 0.0002169933 0.0002319177 -0.6593960143 0.5313358455
340297960.0 -0.1011074264 0.0907466178 0.0002357284 -8.82638e-05 0.0001263489 0.0001002485 -0.6540948142 0.5384421426
345297930.0 -0.1005518201 0.0915963524 9.64593e-05 -0.0001092679 0.0001294263 0.0002844729 -0.6492089967 0.5444963202
350297900.0 -0.0997730222 0.0924942735 0.0001369763 6.71764e-05 4.9087e-06 0.0002078065 -0.6432910939 0.5512572136
355297870.0 -0.0994094057 0.0933842651 1.9538e-05 0.0002131696 -5.12311e-05 0.0001020071 -0.6369281743 0.5585069246
360297840.0 -0.0987165714 0.0946388441 0.0001484828 0.0001609454 0.0002113532 -3.94531e-05 -0.6304555292 0.5646172007
365297810.0 -0.0980471356 0.0954268342 0.0003248728 8.26173e-05 8.13472e-05 -0.000120744 -0.6260019609 0.5711679447
370297780.0 -0.0972206721 0.0961869223 0.0001329847 -1.31961e-05 0.0001973775 -0.0001067107 -0.6197465931 0.5777088301
375297750.0 -0.0968565967 0.0973464351 1.72602e-05 0.0004182331 0.0001167188 9.6002e-06 -0.6133877438 0.5836200087
380297720.0 -0.0958685018 0.098808032 0.0001589648 6.71405e-05 0.0002036395 -0.0001020437 -0.6068574287 0.5901125568
385297690.0 -0.0954903509 0.0993702394 6.32776e-05 -2.42995e-05 0.0001829593 -8.53081e-05 -0.601971637 0.5965599075
390297660.0 -0.0943988151 0.100306891 0.0002121419 6.1861e-06 0.0002801387 0.0002194203 -0.5947112119 0.6020691387
395297630.0 -0.0939019498 0.1013038725 2.75725e-05 0.000111089 1.23447e-05 0.0002489155 -0.5881823079 0.6078532119
400297600.0 -0.0932226303 0.1024379962 0.0001232679 0.0001137808 0.0002142788 0.0002413433 -0.5831250383 0.6142828782
405297570.0 -0.0925835431 0.1032372469 -4.10005e-05 0.0002000128 4.1446e-05 -8.43956e-05 -0.5754233897 0.6204356965
410297540.0 -0.0914169312 0.1041030427 0.0001834884 0.0001433319 0.0001998757 8.5847e-05 -0.5692500773 0.6259576567
415297510.0 -0.0911208676 0.1051444332 0.0001830336 6.51539e-05 0.0002115496 0.0002032297 -0.5626539715 0.6312004852
420297480.0 -0.0901870847 0.1059325261 4.33039e-05 -3.25156e-05 0.0002341284 5.71805e-05 -0.556411139 0.6378364698
425297450.0 -0.0888375224 0.1069038672 7.27415e-05 0.0003055114 0.0001637577 0.0001162292 -0.5498952711 0.6420506253
430297420.0 -0.0884118689 0.1078574373 5.34498e-05 8.7238e-06 2.67362e-05 5.531e-05 -0.5429161881 0.6483228683
435297390.0 -0.0875787071 0.108752057 0.0001240324 -6.76985e-05 0.0001870669 1.46238e-05 -0.5365620655 0.6542018529
440297360.0 -0.0865769862 0.1094412905 0.0002929715 -8.43279e-05 0.0001410685 0.0001376697 -0.5298686282 0.6594564999
445297330.0 -0.0855511431 0.1104774266 9.7213e-05 -2.1946e-06 0.0001486685 3.3789e-05 -0.5231248291 0.6651882304
450297300.0 -0.0847992923 0.1111085111 0.0001539289 -0.0001726542 0.0002465541 -5.3346e-06 -0.515737077 0.6699454419
455297270.0 -0.0838841239 0.1118260922 6.46506e-05 0.0001116638 0.0002795626 6.39892e-05 -0.5090449375 0.6750368576
460297240.0 -0.082588967 0.1133142034 0.0002008704 -4.14994e-05 0.0002924402 0.0001131819 -0.5021467836 0.6799818636
465297210.0 -0.081782615 0.1138225061 0.000178691 -0.0001134727 7.64197e-05 -0.0001222071 -0.4948288244 0.6854541596
470297180.0 -0.0808968807 0.1147041086 0.0002404262 -7.9443e-06 7.6628e-05 0.0001897991 -0.4875965003 0.6902740084
475297150.0 -0.0800496603 0.1157240789 0.0002433446 0.0001993044 0.0003675942 -4.03927e-05 -0.4809701995 0.6952189334
480297120.0 -0.0784440032 0.1163923493 8.9086e-05 0.0001096663 0.0002397656 0.000125031 -0.4745790409 0.7000020737
485297090.0 -0.0775071382 0.1174145363 0.0001372649 0.0001150708 0.0001278426 0.0001469844 -0.4668678799 0.7049676926
490297060.0 -0.0761923569 0.1181759268 0.0001299194 -0.0001594528 0.0002107287 6.37215e-05 -0.4597394878 0.7092891856
495297030.0 -0.0753816994 0.1190115831 0.0001444061 4.4286e-05 0.0002412229 3.96737e-05 -0.4528858207 0.7137301067
500297000.0 -0.0741462913 0.1198085208 0.0001318254 5.75675e-05 0.0001207661 0.0001121223 -0.4449622588 0.7183985062
505296970.0 -0.0729539189 0.1208316586 0.0002862195 0.0003174553 0.000194044 6.35195e-05 -0.4374301251 0.722847624
510296940.0 -0.0718080037 0.1216967439 -4.14163e-05 0.0001442898 9.74411e-05 9.2231e-05 -0.4302410367 0.7275490897
515296910.0 -0.0708505754 0.1227652251 0.0003399688 -0.0001128885 0.00032043 -0.0001031078 -0.4230159156 0.7312811163
520296880.0 -0.0694866915 0.1231979066 -8.50977e-05 0.0001298828 2.07269e-05 5.97981e-05 -0.4152113532 0.7355463862
525296850.0 -0.068628287 0.1240291294 0.0002339962 0.0001004034 3.6459e-05 0.0001317989 -0.4079533903 0.7396591807
530296820.0 -0.0673298211 0.12522983 1.84465e-05 -0.0001202727 0.0001026522 0.0001533452 -0.4001159028 0.7435109831
535296790.0 -0.0656657898 0.1257406224 0.0003433571 0.0001422473 0.0001732966 0.0002289047 -0.3932158983 0.7480370874
540296760.0 -0.0644508343 0.12655913 0.0002641909 3.29628e-05 0.0002584054 0.0001107993 -0.3851961624 0.751297476
545296730.0 -0.063409479 0.127680506 0.0002545089 0.0002144293 0.0002751812 4.62134e-05 -0.3777758509 0.7555808781
550296700.0 -0.0620647393 0.1280982239 0.0002110874 -0.0002826389 0.0002246851 2.17834e-05 -0.3698624369 0.7588364556
555296670.0 -0.0609793088 0.1290647386 0.0001864365 0.0001471614 0.0002207564 0.0001821185 -0.3628982881 0.762504593
560296640.0 -0.0593784359 0.1298135463 0.0001710468 2.83791e-05 0.0001714528 -0.0002357459 -0.3541922463 0.7663805445
565296610.0 -0.0585459681 0.1305724521 0.0001532819 1.82832e-05 0.0001291445 5.5431e-06 -0.3467496701 0.7697004505
570296580.0 -0.0571341211 0.1313448147 9.7292e-06 -0.0001376211 4.04341e-05 7.52774e-05 -0.3393972552 0.7730713716
575296550.0 -0.0559301487 0.1321640892 0.0002162677 -0.0001960753 0.0003479197 9.8555e-06 -0.3311734809 0.7764932655
580296520.0 -0.054688353 0.1333061198 0.0001770882 -8.04958e-05 0.0001687557 0.0001175109 -0.3235017418 0.7794559152
585296490.0 -0.0531806522 0.1339942194 0.0001028084 -7.41689e-05 7.37729e-05 8.12514e-05 -0.3154355429 0.7833403366
590296460.0 -0.051554803 0.1347537598 2.10062e-05 -6.4461e-06 0.0003900259 -4.02946e-05 -0.3077585482 0.7855365044
595296430.0 -0.050864001 0.1352356648 0.0002035153 0.0002239688 0.0001416131 0.0001300801 -0.3000027056 0.7888158461
600296400.0 -0.0492627003 0.1360453377 0.0001696822 -5.6567e-05 0.0001380868 -0.0001033206 -0.292002676 0.7916814083
605296370.0 -0.0478030287 0.1371177287 0.0001376088 0.0002425157 0.0001390517 0.0002169393 -0.2837197894 0.7953052233
610296340.0 -0.0463707718 0.1379888981 0.0002846097 -4.9023e-05 0.0003174975 0.0002027905 -0.2762640103 0.7976616313
615296310.0 -0.0451071929 0.1384377869 0.0003751109 0.000110032 5.57613e-05 1.7613e-05 -0.2676204178 0.8006696319
620296280.0 -0.0438320752 0.1393602486 0.0002641064 9.26556e-05 8.91816e-05 -2.24968e-05 -0.2600800188 0.8033288129
625296250.0 -0.0427412746 0.1399751872 0.0002523111 -8.80795e-05 0.0003504039 3.59846e-05 -0.2514131093 0.80523005
630296220.0 -0.0412131793 0.14074203 0.0001298795 8.192e-05 0.0002643682 4.93531e-05 -0.243394748 0.8079359117
635296190.0 -0.0401138799 0.141557541 0.0003904415 7.51951e-05 6.58452e-05 0.0001747069 -0.2357787268 0.8101492574
640296160.0 -0.0385036614 0.142093402 0.0002097875 1.27241e-05 0.0001659543 0.0001082501 -0.2274849071 0.8125962432
645296130.0 -0.0369579903 0.1428628167 0.0004540584 0.0001725525 0.0002818746 -2.61765e-05 -0.2197316367 0.8141418387
650296100.0 -0.035847133 0.1437232379 0.0004812133 3.3832e-05 0.0002694996 -0.0001899875 -0.2107432685 0.817134048
655296070.0 -0.0343408454 0.14453072 0.0001239323 -8.47328e-05 0.00043947 -8.46906e-05 -0.2030862312 0.8191136841
660296040.0 -0.0332730106 0.1448329108 0.0003891729 -6.45578e-05 0.0002721527 -4.11515e-05 -0.1940433509 0.8211523601
665296010.0 -0.0319060748 0.1455523024 -5.8838e-06 -3.98763e-05 0.0003431467 2.69836e-05 -0.1859333088 0.8224701175
670295980.0 -0.0306162586 0.146589176 0.0002861882 4.0758e-05 0.0003021455 -2.25439e-05 -0.1784898455 0.8242889291
675295950.0 -0.0290985176 0.1467548312 0.0002050647 -5.34413e-05 0.0002483009 -1.81625e-05 -0.1699412395 0.8266170068
680295920.0 -0.0278511282 0.1477001683 0.0002296882 -1.31452e-05 0.0002418627 -3.73324e-05 -0.1611159834 0.8280251247
685295890.0 -0.0264287572 0.1482507892 0.0003778392 -5.01113e-05 0.0002950002 -0.0001119979 -0.153181176 0.8299077948
690295860.0 -0.025114739 0.1486467621 4.02756e-05 0.000226329 7.956e-07 -4.67558e-05 -0.1450322709 0.8308887031
695295830.0 -0.0238148535 0.1490418275 0.0003746786 -4.00976e-05 0.0002101383 -0.0002270126 -0.1363576664 0.833131186
700295800.0 -0.0224234184 0.1500148368 0.0003139604 -1.19196e-05 0.0002410993 1.01852e-05 -0.1284964195 0.8335613821
705295770.0 -0.0212834058 0.1506023473 4.932e-05 0.0002198491 0.0002625975 -3.32189e-05 -0.1200402016 0.8354965963
710295740.0 -0.0199379778 0.1507467056 0.000332829 3.40881e-05 0.0001304466 -9.96555e-05 -0.1116443992 0.836181386
715295710.0 -0.0181980316 0.1513793428 0.0002299557 9.40097e-05 0.0003517725 4.17665e-05 -0.1032468171 0.8365185248
720295680.0 -0.0166582693 0.1519233054 0.0002468168 1.50671e-05 0.0001914838 0.0002544401 -0.0945062754 0.8378117407
725295650.0 -0.0157200811 0.152600747 0.000408324 -0.0002435922 0.0001717421 5.95007e-05 -0.08710634 0.8389747549
730295620.0 -0.0144758769 0.1528186748 0.0002238566 0.0001138525 0.0003102952 2.21735e-05 -0.0787716897 0.8403528164
735295590.0 -0.0133530533 0.1535325671 -2.80056e-05 3.22435e-05 0.0001203155 -1.65254e-05 -0.0696907748 0.8403346595
740295560.0 -0.0119706621 0.1536452597 0.000213605 -0.0001004123 0.0002004412 -9.85283e-05 -0.0613176399 0.8416351071
745295530.0 -0.0105104572 0.1540043533 0.0005012858 -4.0651e-05 0.0003234772 -0.0001778412 -0.0536153867 0.841742657
750295500.0 -0.0093365838 0.1547064076 0.0003448684 -0.0001705598 0.0003067109 6.04114e-05 -0.0448899289 0.8425093663
755295470.0 -0.0077292443 0.1549737858 0.0002461948 3.20088e-05 0.0003136715 -0.0001199809 -0.0368172593 0.843136801
760295440.0 -0.0063317195 0.1555854942 7.43147e-05 8.8031e-06 0.0003721932 -0.0001681209 -0.027777245 0.8429868985
765295410.0 -0.0050872147 0.1557457979 0.0001518878 -7.39847e-05 0.0001910263 3.79597e-05 -0.0192195073 0.8438912417
770295380.0 -0.0040184614 0.1560463839 0.0001895874 6.92083e-05 0.0004011157 -4.00361e-05 -0.0113220022 0.8433279563
775295350.0 -0.0025159377 0.1564194863 0.0002110282 3.84688e-05 0.0003358499 -0.0001081425 -0.0033750185 0.8434422657
780295320.0 -0.0008457734 0.1567666261 0.0004287492 -0.0002411984 0.0002156355 -0.0001500792 0.0052502012 0.8438415544
785295290.0 0.0003510517 0.1571784448 0.00035502 5.77429e-05 0.0004271143 -7.5892e-05 0.0137083762 0.8436132905
790295260.0 0.0015627395 0.1570997553 0.000305716 7.19769e-05 0.0003495252 -3.84395e-05 0.0220241713 0.8436659109
795295230.0 0.002930767 0.1572117674 0.0003545688 7.86385e-05 0.0001845679 0.0001329283 0.0300884693 0.8424153413
800295200.0 0.0040809407 0.1575210734 0.0005367884 -0.0001773072 0.0001965757 -8.31545e-05 0.0384065576 0.8424952638
805295170.0 0.0054943965 0.1579662598 8.50935e-05 1.73614e-05 0.0004889879 5.57006e-05 0.04742563 0.8417846713
810295140.0 0.0071909093 0.1582210811 0.0003257081 -4.5161e-06 0.0003277719 -6.13348e-05 0.0558850639 0.8411871742
815295110.0 0.0081593762 0.158285836 0.000339579 -3.8141e-05 0.000218989 4.76874e-05 0.0639459193 0.8407332244
820295080.0 0.0097050092 0.1583562752 0.0004454874 0.0001653386 0.0003572562 -0.0001598867 0.0716679044 0.8403726191
825295050.0 0.0108600012 0.1583542741 0.0001164933 -9.661e-05 0.0001025668 -0.0001291296 0.0802351112 0.8395902
830295020.0 0.0125516193 0.1585862849 0.0002815749 1.29684e-05 0.0001658103 -0.0002341172 0.0880840701 0.8381217768
835294990.0 0.0136916171 0.1587116118 0.000154203 -0.0001042824 0.0003967208 -0.0001303138 0.0968053348 0.8381637484
840294960.0 0.0151824141 0.1586916205 0.0003406227 -0.0002884556 0.0002085438 -8.72237e-05 0.1058584806 0.8369376754
845294930.0 0.0166013373 0.1587795762 0.0004301631 -8.2951e-05 0.0001141725 0.0001100502 0.11372094 0.8355305151
850294900.0 0.0183281934 0.1586030555 0.0001249035 -0.0001178937 0.0003886845 -9.08536e-05 0.1211937525 0.8343923268
