!Created with skrf (http://scikit-rf.org).
# Hz S RI R 50.0 
!freq ReS11 ImS11 ReS21 ImS21 ReS12 ImS12 ReS22 ImS22
300000.0 -0.7789414827 -0.1053189994 0.000930747 -0.0014751034 0.0006942726 0.0004764957 -0.2131364507 -0.085689614
5299970.0 -0.7848654595 -0.0062149742 0.0002417533 -0.0001172804 0.0001567244 -7.22109e-05 -0.2148884412 0.0083042405
10299940.0 -0.7875743643 -0.0042669886 -3.20014e-05 -5.6288e-05 1.15938e-05 4.45201e-05 -0.2112714083 0.0215620816
15299910.0 -0.7933102986 -0.0022053533 -6.29008e-05 5.86294e-05 -0.0001279452 9.72177e-05 -0.2062385948 0.0312537185
20299880.0 -0.8000217127 0.0014338677 -6.67236e-05 8.2645e-06 0.000136512 -6.15302e-05 -0.2001111855 0.039067501
25299850.0 -0.8066046935 0.0079345113 -7.39502e-05 3.4559e-06 6.10514e-05 4.70801e-05 -0.1933523782 0.0455929001
30299820.0 -0.8127449122 0.0152440561 -0.0001281345 -3.19112e-05 -5.37729e-05 -5.6252e-06 -0.1874170357 0.0506658384
35299790.0 -0.8173579655 0.0246194001 0.0001231395 2.22363e-05 -1.27762e-05 0.000101824 -0.1809957791 0.0549557026
40299760.0 -0.8215633626 0.0338009015 4.94003e-05 0.000194269 0.0001671093 -5.72366e-05 -0.1749137048 0.0574336118
45299730.0 -0.8247125673 0.0424868048 0.000118098 -0.000174745 -0.0003015604 6.2201e-06 -0.1693981039 0.0598337881
50299700.0 -0.8271751919 0.0532634679 6.14259e-05 0.0001645023 -5.30358e-05 6.86045e-05 -0.1641719364 0.0608495499
55299670.0 -0.8293373787 0.063164431 9.84876e-05 -1.802e-06 0.0002025317 0.000139629 -0.1595617342 0.0619133752
60299640.0 -0.8304856539 0.0730644701 5.52353e-05 -6.4194e-06 5.54526e-05 5.114e-06 -0.1548215859 0.0623551941
65299610.0 -0.8310647624 0.0832416831 -4.40123e-05 -0.0002390569 3.49888e-05 4.10532e-05 -0.1514843573 0.0625039744
70299580.0 -0.8311099254 0.0933830735 -4.3616e-06 0.0001285378 4.68407e-05 0.0001501816 -0.1477974992 0.0627794879
75299550.0 -0.8317575685 0.1033530813 1.54161e-05 2.25201e-05 -0.0001604503 -1.6387e-05 -0.1444442938 0.06244215
80299520.0 -0.8316986595 0.113054534 0.0003330105 -0.0001688598 4.30421e-05 3.75121e-05 -0.1420572874 0.0628403438
85299490.0 -0.8314757971 0.1224439397 0.0001659277 -3.63742e-05 -9.59665e-05 8.77307e-05 -0.1395443747 0.0625149945
90299460.0 -0.8304176133 0.131871741 8.13604e-05 -0.0001086861 1.88259e-05 0.0001524898 -0.1369095621 0.0619850322
95299430.0 -0.8293604057 0.1418540515 9.17766e-05 0.0001217353 -0.0001925195 -2.42577e-05 -0.1349114413 0.0618740458
100299400.0 -0.8282069949 0.1505663236 -1.5607e-06 -0.0002363218 -0.0002217685 0.0001974517 -0.1327214632 0.0615914206
105299370.0 -0.8272764847 0.1600985422 0.0001458322 -1.73622e-05 0.0002060195 -3.50042e-05 -0.1305880997 0.061600429
110299340.0 -0.825253769 0.1695362953 7.44827e-05 -4.23282e-05 1.3956e-05 0.0002025522 -0.1296724675 0.0612640213
115299310.0 -0.8237275799 0.1783141973 1.01937e-05 6.01107e-05 6.19048e-05 5.26202e-05 -0.1280033678 0.0609116191
120299280.0 -0.8224475306 0.1872988416 -4.58639e-05 0.0001004922 0.0001474096 3.69466e-05 -0.1267278165 0.0611685774
125299250.0 -0.8205912782 0.1959617554 -0.0001874518 -9.8433e-06 -1.4402e-06 2.94272e-05 -0.1255790711 0.0607877668
130299220.0 -0.8187745007 0.2052609674 -4.04258e-05 1.15655e-05 -8.27349e-05 0.000143993 -0.1245417013 0.060718966
135299190.0 -0.816961238 0.2142741525 0.0002518737 -5.5275e-05 -2.099e-06 0.0003523646 -0.1230859693 0.061010083
140299160.0 -0.8146796285 0.2229192207 2.51018e-05 0.0002221581 5.58959e-05 -7.7951e-06 -0.1222905758 0.0612298439
145299130.0 -0.8130508416 0.2324321365 -3.22922e-05 -3.87135e-05 7.48805e-05 1.39651e-05 -0.121737377 0.061527287
150299100.0 -0.8101010375 0.2408897229 -3.30473e-05 3.17462e-05 0.0001773731 -5.10286e-05 -0.1209374069 0.0619603824
155299070.0 -0.807435709 0.2494806755 -5.04591e-05 -6.30128e-05 0.0001503765 7.27783e-05 -0.119796952 0.062400351
160299040.0 -0.8049907095 0.2581647326 0.0001088792 0.0002987294 7.37761e-05 8.04643e-05 -0.1197533325 0.062699477
165299010.0 -0.8026763555 0.2665518783 -0.0001910103 -7.90657e-05 -1.71964e-05 7.6906e-06 -0.1185381496 0.0630914601
170298980.0 -0.7999747935 0.2752495599 5.99491e-05 0.0002581487 4.47028e-05 0.0001671856 -0.117987132 0.0634308523
175298950.0 -0.7970523707 0.2842868307 0.0002688177 0.0002834403 0.0001255177 0.000122191 -0.1179073159 0.063929428
180298920.0 -0.7951097696 0.2922097518 -2.754e-05 0.0002311921 2.21115e-05 -8.97559e-05 -0.1169681756 0.0646812696
185298890.0 -0.7911285777 0.3004070975 8.82363e-05 -9.24771e-05 -0.0001460789 0.000283301 -0.1166615098 0.0650726433
190298860.0 -0.7882993582 0.3099745909 1.62255e-05 -0.0001344063 -3.89752e-05 0.000227208 -0.1159177695 0.0659456494
195298830.0 -0.7851055289 0.3178348576 -7.59757e-05 -2.00956e-05 -3.76207e-05 8.95016e-05 -0.1157271464 0.0664004632
200298800.0 -0.7812851046 0.3259108506 0.0001404592 0.0003616792 -4.53565e-05 -5.7206e-06 -0.115228464 0.0669183152
205298770.0 -0.778883583 0.3342822557 -7.3348e-05 0.000284573 9.87565e-05 -0.0002343317 -0.1147273616 0.0671608115
210298740.0 -0.7748475425 0.3420827771 -5.93331e-05 0.0001914415 -0.0001180055 2.15204e-05 -0.1142605565 0.0680613804
215298710.0 -0.7717230615 0.3506945239 -1.84718e-05 -5.7665e-06 2.4955e-05 0.000125285 -0.1143112221 0.0685042574
220298680.0 -0.767282685 0.35812283 -0.0001748414 0.0001314222 -4.29155e-05 -1.18781e-05 -0.1139715262 0.0694356283
225298650.0 -0.7641780365 0.3664344752 0.0002061813 7.11273e-05 1.04333e-05 -8.74035e-05 -0.1134662225 0.0700146825
230298620.0 -0.7606581776 0.374819631 0.0001572645 0.0002696145 -5.31447e-05 0.0002550455 -0.1130098291 0.0710331429
235298590.0 -0.7565463918 0.3830346836 -2.61014e-05 0.0001040954 -0.0002467275 1.12205e-05 -0.1125747577 0.0717183535
240298560.0 -0.7524903305 0.3909795939 0.000112188 -5.17428e-05 0.0001780791 0.0001629903 -0.1119068609 0.0724085007
245298530.0 -0.7483897985 0.3985781342 -9.35437e-05 -0.0002588423 0.0002133205 0.0001969064 -0.1117266222 0.0727682044
250298500.0 -0.744518376 0.4069685287 3.61013e-05 0.0002536821 -0.0002450345 3.15346e-05 -0.1114143037 0.0736168501
255298470.0 -0.7398973449 0.4140007123 7.16465e-05 0.0001758034 0.0001048237 -0.0001550443 -0.1107563657 0.074573403
260298440.0 -0.7352697686 0.4210902924 7.0122e-06 -6.33889e-05 0.0001164148 0.0001689467 -0.1102107538 0.0753450903
265298410.0 -0.7313915621 0.4295979137 0.0001455825 0.0001542988 5.93513e-05 0.0002414168 -0.1098922361 0.076387998
270298380.0 -0.7267226754 0.4370796293 -3.61654e-05 0.0001828968 -8.99569e-05 5.27157e-05 -0.1088744047 0.0769975627
275298350.0 -0.7223251063 0.4445332136 -2.87054e-05 5.64962e-05 -0.0002117418 8.00809e-05 -0.1084461473 0.0782612382
280298320.0 -0.7172091652 0.452106317 5.17324e-05 3.7279e-06 3.09807e-05 0.0003544215 -0.1079990221 0.0789975695
285298290.0 -0.7129218297 0.4600030088 -3.23332e-05 0.0002730386 8.5157e-05 5.72438e-05 -0.1068397713 0.0795523302
290298260.0 -0.708229875 0.4674141603 0.0002518284 -0.0001220434 7.3429e-06 0.0001375607 -0.1066546491 0.0808556126
295298230.0 -0.702313817 0.4743402349 3.6719e-05 5.6423e-06 0.0001463891 -2.74731e-05 -0.105703026 0.081160972
300298200.0 -0.6982680749 0.4817947587 1.84976e-05 2.8061e-05 0.000135556 0.0001963052 -0.1052972334 0.0826089034
305298170.0 -0.6926072363 0.4885158816 0.0001081339 0.0002339945 5.04616e-05 0.0002068284 -0.1041307642 0.0831851528
310298140.0 -0.6874243209 0.4959923332 0.0001579075 -1.71645e-05 0.0002103677 0.0002389155 -0.1040139074 0.0840684253
315298110.0 -0.6826872891 0.5031322925 0.0001827519 0.0002637233 5.14716e-05 1.44691e-05 -0.1035311955 0.0850467257
320298080.0 -0.67739919 0.5102892118 0.0001582197 9.65042e-05 5.0172e-05 1.47718e-05 -0.1028535828 0.0859698002
325298050.0 -0.6717591597 0.5170858151 0.0001665606 9.6066e-05 -6.40712e-05 0.0001356166 -0.102420775 0.0864465475
330298020.0 -0.6665533084 0.5235353587 0.0001784538 3.11374e-05 -5.9047e-05 3.27032e-05 -0.1019484296 0.0876365394
335297990.0 -0.6611575739 0.5303785041 5.94814e-05 -0.0001738608 1.75002e-05 7.30554e-05 -0.1014333208 0.0892845168
340297960.0 -0.6557797146 0.5371735856 -2.7605e-05 0.0001960483 0.0002447863 0.0002971075 -0.1003781615 0.0903306263
345297930.0 -0.650219527 0.5442010622 0.0001176577 0.0001357037 0.0002189817 -1.04577e-05 -0.1001883165 0.0908818063
350297900.0 -0.6451458665 0.55122151 4.34808e-05 -0.000156172 -5.21039e-05 -7.9045e-05 -0.0996354786 0.092549625
355297870.0 -0.63824069 0.5580832818 5.37507e-05 0.0001524804 2.9214e-06 0.0001193262 -0.0990966024 0.0935018096
360297840.0 -0.6327978053 0.5634061263 0.0002085473 -9.4069e-05 6.04936e-05 4.35101e-05 -0.0985060861 0.094399824
365297810.0 -0.6267389794 0.5700586918 0.0001333227 -1.23384e-05 5.02929e-05 0.0001215392 -0.0975277414 0.09529905
370297780.0 -0.6204479008 0.5771633627 0.000138914 0.0004219735 0.0001521461 9.69129e-05 -0.0966223038 0.0967041666
375297750.0 -0.6145730787 0.5834503573 -7.88112e-05 0.0001414237 0.0001541665 -4.46227e-05 -0.096167327 0.0972549205
380297720.0 -0.6087175354 0.5893359968 7.10552e-05 3.6612e-05 0.0001674623 0.000142465 -0.0957693366 0.0987006683
385297690.0 -0.6035142769 0.5951135923 0.0004756023 0.0001709957 4.8351e-06 3.07152e-05 -0.0946355138 0.0996595964
390297660.0 -0.5970633428 0.6014102518 -0.000112195 8.13311e-05 -0.0002078498 0.0002132404 -0.094270793 0.1006406702
395297630.0 -0.5901313788 0.6081805701 2.71253e-05 0.0004073088 9.21154e-05 7.22601e-05 -0.0932759185 0.1016810199
400297600.0 -0.5841854763 0.6138859482 8.30186e-05 -3.32868e-05 1.401e-06 7.03673e-05 -0.0924028902 0.1026796576
405297570.0 -0.5781468287 0.6195197077 0.0001174009 0.0001752911 0.0001300514 0.0003324751 -0.0917573272 0.1032912608
410297540.0 -0.5712693592 0.6254079377 0.0001345765 2.44974e-05 0.0002727243 8.6362e-06 -0.0908812919 0.1045982514
415297510.0 -0.5646058699 0.6304105977 1.65804e-05 0.0001822053 0.0002143487 5.30646e-05 -0.0903049232 0.1058907571
420297480.0 -0.5594538951 0.636952434 0.0002900329 0.0001974442 0.0002486486 0.000279071 -0.0894428751 0.1064373348
425297450.0 -0.5518246189 0.642455064 0.0001787879 -3.3233e-06 2.13934e-05 0.0001530691 -0.0887032943 0.1075729706
430297420.0 -0.5455606183 0.6479469606 7.13454e-05 -9.04193e-05 0.0001012983 0.0001167478 -0.0879072965 0.1082563372
435297390.0 -0.5389191949 0.6529220852 0.0002262658 0.0001157426 0.0001726513 0.0001257362 -0.0867822552 0.1091882047
440297360.0 -0.5317360752 0.6585052407 4.35341e-05 2.3683e-05 0.0001037758 -3.87596e-05 -0.0857483985 0.1103393744
445297330.0 -0.5250605605 0.664089394 0.0002684272 5.09568e-05 8.73607e-05 0.0002335692 -0.0847680546 0.1106522266
450297300.0 -0.5186180477 0.6692910063 6.05495e-05 1.98658e-05 0.0002282341 0.0002776022 -0.0838256927 0.1117900476
455297270.0 -0.5111311072 0.6744666141 0.0001527933 -3.85605e-05 0.0001363034 0.0001361337 -0.0832874812 0.1125875203
460297240.0 -0.5051782819 0.6795287991 7.30592e-05 0.0003305865 0.0001037757 -6.84692e-05 -0.0820722905 0.1137940765
465297210.0 -0.4976442775 0.6850125099 3.22725e-05 3.7504e-05 0.0003108199 0.000150335 -0.0808775391 0.1142927904
470297180.0 -0.490457928 0.6900462128 9.72898e-05 3.12769e-05 0.0001061437 7.91139e-05 -0.0799587149 0.1157835316
475297150.0 -0.4833575926 0.694145967 -8.93625e-05 0.0002430635 -7.3862e-06 8.3622e-06 -0.0789913186 0.1166101847
480297120.0 -0.4767896067 0.6994994602 0.0002460593 6.98245e-05 0.0001933563 -6.06127e-05 -0.0774757992 0.117238794
485297090.0 -0.4693005267 0.7041451397 0.0001047821 2.31038e-05 0.0001595096 0.0001172008 -0.0763017303 0.1180091493
490297060.0 -0.4625391218 0.7084870047 7.974e-06 0.0001474055 0.0001725016 -0.0001432159 -0.0755750271 0.1191010662
495297030.0 -0.4549512599 0.7130100753 0.0003636011 0.0001717828 0.00028322 0.0001388349 -0.0746944074 0.120399341
500297000.0 -0.4482191731 0.7179293261 7.85288e-05 0.000116351 0.0001879455 0.0001411938 -0.0734023473 0.1213496693
505296970.0 -0.4403458913 0.7222488668 0.0003662833 -4.69345e-05 0.0002322629 -3.76056e-05 -0.0724555842 0.1219811162
510296940.0 -0.4333212171 0.7262577228 0.000124617 -4.40319e-05 0.0001736508 9.85139e-05 -0.0713062037 0.1228150932
515296910.0 -0.4247716906 0.7306154532 0.0001112052 0.0003435342 1.2677e-05 0.0001482684 -0.0703886196 0.1239823594
520296880.0 -0.4185774217 0.7350940045 0.000449866 0.0001053974 6.8637e-05 -0.0001118465 -0.0693164759 0.124342357
525296850.0 -0.4103573692 0.7390354568 0.0001153817 1.8838e-05 4.5866e-05 -0.0002049154 -0.0681006739 0.1255675851
530296820.0 -0.4031206117 0.7435733269 0.000140577 1.24895e-05 0.0001995588 0.0002265664 -0.0669299943 0.1265866868
535296790.0 -0.3960168886 0.7466086373 9.15298e-05 -5.006e-07 0.0002475996 0.0001496128 -0.0664367087 0.1272491414
540296760.0 -0.3884227051 0.7508225968 3.9613e-05 -0.0001612131 0.0003358008 5.2085e-06 -0.0649780964 0.128303249
545296730.0 -0.381429161 0.7549899327 0.0001046038 3.03372e-05 0.0001145007 2.65007e-05 -0.0643502708 0.1289085395
550296700.0 -0.3734707623 0.7585453046 0.0002534241 6.21975e-05 1.3675e-05 0.000217799 -0.0628750198 0.129747087
555296670.0 -0.3651205695 0.7615373521 0.0001098 -1.3805e-05 0.0002584681 0.0002502968 -0.0617036601 0.1308415691
560296640.0 -0.3577886163 0.7659791218 0.0003818683 -6.6739e-06 0.0001973382 0.0001604216 -0.0606473542 0.1312317899
565296610.0 -0.3500164324 0.769252011 0.0003435884 0.0001212659 0.0003061239 6.76273e-05 -0.0595423548 0.1318275805
570296580.0 -0.3428531825 0.7720725755 0.000277758 -9.933e-05 0.000241836 0.0002958978 -0.0585534226 0.1328430725
575296550.0 -0.3347849073 0.7767665357 0.0002370194 6.202e-07 0.0001496324 -4.80713e-05 -0.0570096927 0.1336024606
580296520.0 -0.3267236588 0.7793632508 0.0004410847 0.0001053551 7.26766e-05 -6.46143e-05 -0.0558957534 0.1343134682
585296490.0 -0.3186467829 0.7823133222 0.0005309661 -6.29508e-05 0.0002914236 7.48661e-05 -0.0546971853 0.1349157227
590296460.0 -0.3109928138 0.7853371546 9.25034e-05 0.000138624 0.000218538 -1.10325e-05 -0.0539540726 0.1356468596
595296430.0 -0.3030201098 0.788307492 0.0001545302 0.0001819404 0.0001213028 9.52695e-05 -0.0524638645 0.1356715108
600296400.0 -0.2953642894 0.7922608543 0.0003640535 9.07971e-05 0.000190194 0.0001999524 -0.0514829089 0.1365008707
605296370.0 -0.2880544505 0.7945792467 0.0002484458 5.52684e-05 0.0001885081 4.26208e-05 -0.0497356521 0.1376830832
610296340.0 -0.2791438041 0.7973112992 0.0002044733 2.3968e-06 0.0003509155 7.09085e-05 -0.0485905307 0.1381441149
615296310.0 -0.2708387757 0.8000037871 9.63947e-05 -3.79538e-05 0.0003229323 -1.38417e-05 -0.0472946799 0.1385866172
620296280.0 -0.2632655367 0.8020551781 0.0002232449 0.0001199392 0.0004115086 2.3437e-06 -0.0460760563 0.1394210101
625296250.0 -0.2552609554 0.8050914491 0.0004294141 4.33186e-05 0.0002784724 0.0001606197 -0.0444153696 0.1397925139
630296220.0 -0.2461972123 0.8073717985 0.0003286407 -0.0002409756 0.0003249162 5.49915e-05 -0.0432163806 0.1408573014
635296190.0 -0.2386709334 0.8099021601 0.0002084429 -0.0001021368 0.0002790894 -1.61927e-05 -0.041999001 0.140885399
640296160.0 -0.231153221 0.8120583639 -2.0447e-06 9.0653e-06 0.0002379573 -1.46941e-05 -0.040539287 0.1419239345
645296130.0 -0.2229140946 0.8150835632 0.0002262949 3.84063e-05 2.63111e-05 0.0002838569 -0.0391182242 0.1427708758
650296100.0 -0.2148951251 0.8164644305 0.0001930274 -4.45026e-05 0.0002890739 0.0001204697 -0.0377015775 0.1425885326
655296070.0 -0.2065558557 0.8193724355 0.0003534461 0.0001151343 0.0002524187 -1.00457e-05 -0.036227271 0.1436364636
660296040.0 -0.1982877315 0.8203500035 0.0001179489 -0.0002268833 5.64183e-05 -1.06568e-05 -0.0352044197 0.1443220333
665296010.0 -0.1896582234 0.8222182131 0.0003587883 0.0001851869 0.0002079401 -0.000161068 -0.0337782231 0.1447082011
670295980.0 -0.1823597675 0.8243219076 0.0002826765 0.0001418881 0.0001874823 -4.52136e-05 -0.0324642761 0.1451455879
675295950.0 -0.1733658228 0.8260681289 0.0002807684 2.39645e-05 0.0002426858 0.0001148647 -0.031334592 0.1458528206
680295920.0 -0.1648423179 0.8279545188 -4.3146e-06 7.38712e-05 0.0003077937 -9.18985e-05 -0.0298542686 0.146648701
685295890.0 -0.1569987974 0.8303627037 0.000349083 0.0001108039 0.0002767096 0.0001715352 -0.0281080933 0.1468982532
690295860.0 -0.1490333423 0.8311300304 0.0004282368 8.80514e-05 0.0003442064 -4.47882e-05 -0.0268463791 0.1480679005
695295830.0 -0.1410182631 0.8319440844 0.0003331964 -0.0001684085 0.0004113866 -6.8379e-06 -0.0256424056 0.1480814602
700295800.0 -0.1317688793 0.8336573348 0.0002770254 7.44947e-05 0.0004445657 -1.35136e-05 -0.0245049206 0.1487340413
705295770.0 -0.1245146884 0.8353319871 0.0001586619 -7.30629e-05 0.0002404292 -5.4587e-05 -0.0229707096 0.1495450953
710295740.0 -0.1159111302 0.8366248197 0.0004598273 0.0001550588 0.0004299532 -4.29571e-05 -0.0218514111 0.149484242
715295710.0 -0.1077043047 0.8372014004 0.0002678223 -0.0002012506 0.000342019 8.23486e-05 -0.0201362046 0.1499159031
720295680.0 -0.0990625998 0.8384749267 0.0001126981 -0.0002466775 0.0002158954 3.21254e-05 -0.0189711611 0.1504945123
725295650.0 -0.090487444 0.8400645054 4.25489e-05 -3.1361e-05 5.22077e-05 0.0001874187 -0.0178514486 0.1511068259
730295620.0 -0.0822737868 0.8405752816 0.0003458073 -0.0002189839 8.01185e-05 -0.0002195658 -0.0162535891 0.1511321248
735295590.0 -0.0743433777 0.841278038 0.0002750555 -0.000167527 0.0004418265 1.20384e-05 -0.0151736809 0.1516955726
740295560.0 -0.0659834786 0.842203793 0.0004786468 0.000300122 0.0002842894 -0.0001975896 -0.0130556589 0.1519200625
745295530.0 -0.0576204757 0.8426642663 0.0004585178 -0.0001479377 0.0002841759 8.1387e-06 -0.0121085775 0.1518731811
750295500.0 -0.0490981565 0.8430423589 0.0003060542 -8.07864e-05 0.0002067085 0.000164442 -0.010744599 0.1526640642
755295470.0 -0.0407131477 0.8428205496 0.0003312453 0.0002741614 0.0001301435 -8.608e-06 -0.0091442824 0.1524714833
760295440.0 -0.0328244206 0.8434049961 0.0002249491 1.8882e-06 0.0002564939 -0.0002661857 -0.0077025107 0.1525907832
765295410.0 -0.0246936939 0.8440117226 0.0003861921 -6.18452e-05 0.0003407242 -0.0001977767 -0.0061975704 0.1534444889
770295380.0 -0.0161245235 0.8440351073 4.9972e-05 -0.0001988094 0.0002811774 -0.0001490679 -0.005017775 0.1533008913
775295350.0 -0.0073210314 0.8444513615 0.000220564 0.0001884287 0.000174167 -0.0001050145 -0.0039304778 0.1534534693
780295320.0 0.0007420621 0.8444419486 9.13523e-05 -0.0001073637 0.0001678978 7.70667e-05 -0.0022027756 0.1535930618
785295290.0 0.0087414691 0.8439967561 0.0001852273 -0.0001351526 0.000258846 -2.76925e-05 -0.0004399679 0.1538599261
790295260.0 0.0179705244 0.8438620158 0.0001564909 -9.61425e-05 0.000250076 -0.0001214725 0.0010080869 0.1543401165
795295230.0 0.0254616851 0.8434710927 0.0002271574 1.38113e-05 0.000274142 0.0001269668 0.0026725834 0.1541024547
800295200.0 0.0339237663 0.8429946033 0.0002459449 4.01847e-05 0.0003748956 -1.33924e-05 0.0041880017 0.1547088952
805295170.0 0.042765698 0.8428655523 0.000261704 -7.86451e-05 8.70307e-05 -0.000187884 0.0054815334 0.1547542133
810295140.0 0.0507500594 0.8423754813 0.0002954169 -0.0001297745 0.00011041 -1.0932e-05 0.0074106835 0.1548843971
815295110.0 0.0587929724 0.8417844542 0.0001901706 6.22447e-05 0.0004495706 -1.46985e-05 0.0086964252 0.1549231013
820295080.0 0.0671871498 0.8413168876 0.0003973672 -0.0003374652 0.0002363318 -0.0002034444 0.0103196844 0.1551695428
825295050.0 0.076298839 0.8401290809 0.0001866194 -4.46708e-05 0.0002554336 2.27287e-05 0.0117078162 0.1554624008
830295020.0 0.0839342251 0.8398974519 0.0004355083 -8.29789e-05 0.0001474324 0.0001191096 0.0135849036 0.1555651776
835294990.0 0.0918857928 0.839410679 0.0001957633 -0.0002112573 0.0002296371 -1.48452e-05 0.0149056566 0.1558838083
840294960.0 0.0996828569 0.8382726446 0.0005608166 -0.0001608482 0.0002986136 8.31956e-05 0.0164620914 0.1553552731
845294930.0 0.1083129102 0.8370931208 0.0002218822 -0.0002231101 0.0003091749 -0.0002059714 0.0177394348 0.1556971395
850294900.0 0.1166461727 0.8363972605 0.0003235477 -4.50217e-05 0.0005330074 -2.1868e-05 0.0190712405 0.1560390753
