!Created with skrf (http://scikit-rf.org).
# Hz S RI R 50.0 
!freq ReS11 ImS11 ReS21 ImS21 ReS12 ImS12 ReS22 ImS22
300000.0 -0.2376603481 -0.1164328203 0.467921868 0.0776453465 0.4663790502 0.0777245108 -0.2358281526 -0.1237140352
5299970.0 -0.244583379 0.0058407471 0.4732862992 0.0057397151 0.4740376584 0.0056518908 -0.2437055229 0.0048524354
10299940.0 -0.2415287651 0.0187968429 0.4759275526 0.0065912288 0.4758699906 0.0069988234 -0.24040159 0.0182190041
15299910.0 -0.2368236856 0.028581983 0.479285325 0.0083892821 0.4796902255 0.0081560739 -0.2360238978 0.0274297081
20299880.0 -0.2318571453 0.0363459171 0.4841276599 0.008455802 0.4843289523 0.0084694082 -0.2311630409 0.0356216072
25299850.0 -0.2257229318 0.0427693093 0.4897580712 0.0079205914 0.4896306548 0.0077017467 -0.2261950121 0.041757019
30299820.0 -0.2200552923 0.0478117919 0.4950313821 0.0058535054 0.4950787879 0.0051949038 -0.2207929747 0.0467700253
35299790.0 -0.2142127119 0.0519409009 0.5000536505 0.0020776026 0.5004809553 0.0023758746 -0.2158534514 0.0515064503
40299760.0 -0.2091215466 0.0547796145 0.5056668683 -0.001855539 0.5058410557 -0.0017690916 -0.2107307727 0.0546124815
45299730.0 -0.2041218284 0.0571771742 0.5103065043 -0.0059821934 0.5107180556 -0.0061810903 -0.2057681005 0.0577293849
50299700.0 -0.1990913641 0.0590185894 0.5147035369 -0.0119687681 0.5145134233 -0.012022928 -0.2010541034 0.0601050839
55299670.0 -0.1948406391 0.0606335727 0.5185383866 -0.0172447755 0.5181820036 -0.0181775699 -0.197398709 0.0617889149
60299640.0 -0.190741206 0.0619694109 0.5217111298 -0.0238700325 0.5217991258 -0.0240934305 -0.1935955019 0.0634723584
65299610.0 -0.1871349412 0.0628887599 0.5250521544 -0.030225895 0.5245108786 -0.0305098525 -0.1900591896 0.0647960913
70299580.0 -0.1838775986 0.0631111941 0.5267691819 -0.0369283886 0.5270089264 -0.037227248 -0.1871694011 0.0657284821
75299550.0 -0.1811003905 0.0641443761 0.5289461116 -0.0444883444 0.5291316133 -0.0441328782 -0.1840766838 0.0669870063
80299520.0 -0.1781901219 0.0645245298 0.5310882517 -0.0510487374 0.5309880616 -0.0504059823 -0.1815600749 0.0679453494
85299490.0 -0.1758400562 0.0650063418 0.5322901157 -0.0577116045 0.5325308836 -0.0573687047 -0.1793992677 0.0686510407
90299460.0 -0.1734056392 0.0654400137 0.5332444897 -0.0646064718 0.5331619435 -0.0646498005 -0.1766170732 0.0697268732
95299430.0 -0.1713307168 0.0657065298 0.5339422508 -0.0714677802 0.534734913 -0.0717678243 -0.1751379292 0.070796579
100299400.0 -0.1692968357 0.0660432065 0.5348539635 -0.078056148 0.5345788222 -0.0783963101 -0.1731720073 0.0716241654
105299370.0 -0.1675409594 0.0667545316 0.5349742925 -0.0851784779 0.5352078486 -0.0851447399 -0.1709224202 0.0720333856
110299340.0 -0.1656675808 0.0670661612 0.534743646 -0.0918109892 0.5356287053 -0.0920941079 -0.1697821836 0.073118314
115299310.0 -0.1644233262 0.0676787737 0.5349617189 -0.0984773688 0.5351749535 -0.0991462457 -0.1681653959 0.0745551747
120299280.0 -0.1631699755 0.0683758592 0.534962069 -0.1062423491 0.5347588044 -0.1063118109 -0.1668248153 0.0747111889
125299250.0 -0.161873345 0.0688262118 0.5345577281 -0.1124736251 0.5345267292 -0.1121020913 -0.1654071452 0.0760866293
130299220.0 -0.1608469967 0.0693172349 0.5341325077 -0.1193504942 0.5339682511 -0.1197760205 -0.1640607669 0.0770029506
135299190.0 -0.1595047369 0.0702370226 0.533564745 -0.1258237369 0.5338729392 -0.1261267709 -0.1629530123 0.0775240421
140299160.0 -0.1583879563 0.0708951282 0.5327734514 -0.1325096574 0.532619595 -0.1323944114 -0.162455805 0.078690807
145299130.0 -0.1579175477 0.0716417023 0.5316138927 -0.1391141826 0.5317968037 -0.1390485738 -0.1610614742 0.0798704286
150299100.0 -0.1567091509 0.072495181 0.5307228799 -0.145646458 0.5308581995 -0.146157289 -0.1599996286 0.0812206773
155299070.0 -0.1554998373 0.073483521 0.5289102073 -0.1523991406 0.5294520853 -0.1520709791 -0.1588452283 0.0820955813
160299040.0 -0.1550071966 0.074466498 0.5282688675 -0.1587557336 0.5281750702 -0.1590278411 -0.157993872 0.0836028443
165299010.0 -0.1537695901 0.0754033441 0.5265494223 -0.1649954552 0.5264139668 -0.1652507114 -0.1565979083 0.0844599545
170298980.0 -0.1531057101 0.07665543 0.5245809756 -0.1714227683 0.5249252686 -0.1719498628 -0.1562543603 0.0858043631
175298950.0 -0.1521016184 0.0774894809 0.5234418159 -0.1776187794 0.5234985605 -0.1783507049 -0.1550380261 0.0873757761
180298920.0 -0.151683111 0.0784632072 0.5217505831 -0.1845922218 0.5216981485 -0.1844026783 -0.1541114358 0.0883776731
185298890.0 -0.1509426572 0.0794943324 0.5199808933 -0.19037084 0.5195591402 -0.1903387 -0.1531107293 0.0894705143
190298860.0 -0.1498561012 0.0810825069 0.5172824999 -0.1968795267 0.5182037126 -0.196522822 -0.1522314614 0.0911059314
195298830.0 -0.1492553118 0.0819716433 0.5165365104 -0.2025841902 0.5162091194 -0.2026123369 -0.1515437503 0.0919609642
200298800.0 -0.1481696476 0.0827228071 0.5135834106 -0.2092127032 0.5139985053 -0.2092322665 -0.1500686486 0.0933970726
205298770.0 -0.147828456 0.0840084254 0.5110383897 -0.2147822469 0.5120859649 -0.2147232613 -0.1490051157 0.0950907488
210298740.0 -0.146953283 0.0856412611 0.509675585 -0.2209087196 0.5095314228 -0.2210169888 -0.1487524464 0.09612039
215298710.0 -0.1461885817 0.0867573318 0.5068622508 -0.2266443006 0.5070269269 -0.2267727715 -0.1473887207 0.0976696438
220298680.0 -0.1453893123 0.0878546839 0.5045834341 -0.2327890384 0.5048502406 -0.2328493856 -0.1464060428 0.0990093343
225298650.0 -0.144802045 0.0889957379 0.5018268231 -0.2383836922 0.502180414 -0.2380623104 -0.1454377029 0.1002028958
230298620.0 -0.1435848946 0.0905694694 0.499277107 -0.2445003549 0.5000301268 -0.2443211089 -0.1447708274 0.1015412445
235298590.0 -0.1431086101 0.0918405689 0.4971606486 -0.2504612685 0.4971444154 -0.250252884 -0.1436696397 0.1030226292
240298560.0 -0.1421681108 0.0931892268 0.4944673604 -0.2555791398 0.4943453966 -0.2557493723 -0.1426605202 0.1044696155
245298530.0 -0.1417042426 0.0943543616 0.4915187817 -0.261671682 0.4915326773 -0.2617288962 -0.1416303963 0.1060495645
250298500.0 -0.1407600353 0.095678622 0.4885226204 -0.2670585305 0.4889816367 -0.2667318398 -0.1406918443 0.1079881832
255298470.0 -0.1397728224 0.0973167358 0.485907291 -0.2722875578 0.4862720947 -0.2727724951 -0.1395459174 0.1091355694
260298440.0 -0.1388788126 0.0982000519 0.4829729743 -0.2780748156 0.4832786094 -0.2781903658 -0.1384473352 0.1101396841
265298410.0 -0.1385601488 0.0996291104 0.4795731554 -0.2840884652 0.4796011403 -0.2842179366 -0.1368223506 0.111489123
270298380.0 -0.1378687991 0.1007924439 0.476752431 -0.289111718 0.4766770162 -0.2892158931 -0.1358489877 0.1134224615
275298350.0 -0.1366574547 0.1025953219 0.4732567914 -0.2946414693 0.4735214825 -0.2944980734 -0.1348364374 0.1149979577
280298320.0 -0.1362633927 0.1035892505 0.4706484467 -0.2995759238 0.4708434014 -0.2998705292 -0.1334498648 0.1161350418
285298290.0 -0.1353164922 0.1050958698 0.4666758219 -0.3052075798 0.4672107469 -0.3050811772 -0.1325265663 0.1179388561
290298260.0 -0.1342768237 0.1065310281 0.4638944904 -0.3107799837 0.4640852864 -0.3106623466 -0.1313022822 0.1193625134
295298230.0 -0.1332926493 0.1075421684 0.460366403 -0.3162162946 0.4607037667 -0.3163102167 -0.130013995 0.1204909262
300298200.0 -0.1322873478 0.1089240667 0.4572229605 -0.3212468322 0.4574784136 -0.3210165664 -0.1286382998 0.1220485346
305298170.0 -0.131440833 0.1098644429 0.4538327743 -0.3264307154 0.4538639999 -0.3265883807 -0.1273543467 0.1231826011
310298140.0 -0.1303533415 0.1112662345 0.4505268176 -0.3313762973 0.4504842926 -0.3314974572 -0.1259753928 0.1241524221
315298110.0 -0.1295820237 0.1123062501 0.4469847333 -0.3370598437 0.4465745279 -0.3371766099 -0.1246852858 0.1257312217
320298080.0 -0.1287904407 0.1135831986 0.4427661922 -0.3420864552 0.4432386378 -0.3420803932 -0.1236592472 0.1268975561
325298050.0 -0.128227575 0.1144841312 0.4387469844 -0.3466701071 0.4394256305 -0.3467688251 -0.1222487864 0.1283956014
330298020.0 -0.1277041364 0.1159443731 0.4354387231 -0.3522124105 0.4352945029 -0.3519597192 -0.1212730706 0.1294427942
335297990.0 -0.1265846269 0.1172866039 0.4310893971 -0.3567935874 0.4312709376 -0.3570120056 -0.1198056213 0.1311145232
340297960.0 -0.1257076679 0.1185104043 0.4263899255 -0.3617830961 0.4267345995 -0.3619516282 -0.1187260096 0.1328330814
345297930.0 -0.1250005838 0.1197543633 0.422719355 -0.3668223343 0.4229226994 -0.3663299564 -0.1174810957 0.1340012663
350297900.0 -0.1242471821 0.1211494261 0.4188648788 -0.3708084024 0.419318334 -0.3707268783 -0.1162638066 0.134993436
355297870.0 -0.1230966667 0.1224387662 0.4148176391 -0.3752914314 0.4149237398 -0.3749058299 -0.114655755 0.1365671023
360297840.0 -0.1218452852 0.1238317992 0.4099050605 -0.379891285 0.4107098487 -0.380519673 -0.1136752763 0.1382220439
365297810.0 -0.1213654959 0.1251981238 0.4062737063 -0.3846204213 0.4063563902 -0.3846753053 -0.1123990119 0.1393802241
370297780.0 -0.1199979569 0.1263952511 0.4016126379 -0.3890259472 0.402274477 -0.3888116364 -0.1104784197 0.1405860555
375297750.0 -0.1189432472 0.1277674845 0.3973925321 -0.3933118389 0.3974304996 -0.3934917761 -0.1089024566 0.1417763157
380297720.0 -0.1181981918 0.129123537 0.393556733 -0.3977632774 0.3934278648 -0.3978188465 -0.1073318872 0.1434809517
385297690.0 -0.117003629 0.130292011 0.3887871171 -0.4020549575 0.3891999214 -0.4025380682 -0.1059905025 0.1448135554
390297660.0 -0.1155600103 0.1310275176 0.3848953004 -0.4056198533 0.3847476308 -0.4064203205 -0.1041682774 0.1460393838
395297630.0 -0.1142226726 0.1327985967 0.3803324857 -0.4102370545 0.3800263491 -0.4102252259 -0.1027101155 0.1471527501
400297600.0 -0.113571941 0.133848356 0.3757891218 -0.4145155777 0.3754228667 -0.4142590377 -0.1007662394 0.1487264923
405297570.0 -0.112448767 0.1346405629 0.3713251065 -0.4185547074 0.3712941725 -0.4188120534 -0.0994030121 0.1500711571
410297540.0 -0.1110917014 0.1363540396 0.3666150481 -0.4228247166 0.3667994209 -0.4226935413 -0.0979373394 0.151273447
415297510.0 -0.1098703196 0.137238801 0.3617866705 -0.426573682 0.3621947323 -0.4268157353 -0.0960856268 0.1525243179
420297480.0 -0.1087050909 0.1384025022 0.3572263305 -0.4308010098 0.3570418924 -0.4309625886 -0.0940722171 0.1540263447
425297450.0 -0.1067211233 0.1395966332 0.3521723389 -0.4342581144 0.3527254521 -0.4346163004 -0.0931118345 0.1546070153
430297420.0 -0.1058480779 0.140498727 0.3478626293 -0.4386190096 0.3479792449 -0.4380445196 -0.0907855411 0.1560736288
435297390.0 -0.1045343678 0.1418780126 0.3426700857 -0.4426591435 0.3431563144 -0.4422670185 -0.089619507 0.1575225334
440297360.0 -0.1030551005 0.1426281137 0.3373440473 -0.4460462883 0.3376786497 -0.4458881043 -0.0876012006 0.1586495233
445297330.0 -0.1019387904 0.1433461262 0.3333813616 -0.4491966377 0.3330658609 -0.4500404177 -0.0859781542 0.159744428
450297300.0 -0.1004435362 0.1447926477 0.3282554375 -0.4532156169 0.3285011346 -0.4528230393 -0.0841226651 0.1608498612
455297270.0 -0.0995291295 0.1458613858 0.3234175715 -0.4566455341 0.3235472752 -0.4568317015 -0.08205362 0.1618758354
460297240.0 -0.0976732487 0.1469807437 0.3187268598 -0.4605596064 0.3182466865 -0.4602302048 -0.0803917727 0.1626211472
465297210.0 -0.0962426002 0.1477772591 0.3130627518 -0.4637564983 0.312982871 -0.4642866658 -0.078382089 0.1643461335
470297180.0 -0.0952708244 0.1487551641 0.3081327422 -0.4666950184 0.308076628 -0.466881457 -0.0766362153 0.1647130167
475297150.0 -0.0939118156 0.1501365939 0.3027811347 -0.4705033891 0.3032533996 -0.4704968708 -0.075136721 0.1657279175
480297120.0 -0.091757977 0.1513948738 0.2975784478 -0.4734335311 0.2980197845 -0.4733618052 -0.0735001808 0.1669366687
485297090.0 -0.0907260672 0.1515168062 0.2926412073 -0.4769550002 0.2927342457 -0.4768924142 -0.0715840336 0.168071673
490297060.0 -0.0887039434 0.1530940139 0.2871718657 -0.4799898108 0.2872584487 -0.4802161574 -0.0696138056 0.1685338502
495297030.0 -0.0876126665 0.1540275873 0.2823384843 -0.4836921531 0.2817902143 -0.4835977075 -0.0671626721 0.1695436448
500297000.0 -0.0859757818 0.1548828365 0.2768527213 -0.4859859826 0.2768341174 -0.4862026653 -0.065786337 0.1703405349
505296970.0 -0.0839619683 0.1559756793 0.2716331238 -0.4894125939 0.2715755963 -0.4893212404 -0.0633048531 0.170996708
510296940.0 -0.0827326943 0.1566307556 0.2663584329 -0.492813968 0.2662512284 -0.4923198891 -0.0612181624 0.1722032885
515296910.0 -0.0811736704 0.1577608882 0.2603452668 -0.4951571033 0.2604080124 -0.4949014619 -0.0597964774 0.1725402658
520296880.0 -0.0794399906 0.1588200287 0.2553638186 -0.4979412653 0.2552975451 -0.497883356 -0.057537777 0.1739019971
525296850.0 -0.077882327 0.1592967192 0.2501839601 -0.5000797113 0.2493235368 -0.5006631846 -0.0555844898 0.1747717921
530296820.0 -0.0767205828 0.1605040497 0.2441705756 -0.5033623273 0.2440425788 -0.5030807958 -0.0537206042 0.1751588347
535296790.0 -0.0740789287 0.1613915551 0.238947363 -0.5056361882 0.2390218485 -0.5059349719 -0.051542661 0.1760839463
540296760.0 -0.0727443164 0.1623543348 0.2331152101 -0.5083978466 0.2333979452 -0.5080743131 -0.0499972174 0.1765828056
545296730.0 -0.0719303365 0.1635045361 0.2275048047 -0.5109859569 0.2274600059 -0.510439543 -0.0475483765 0.1773334937
550296700.0 -0.0692933766 0.1643021072 0.2220699265 -0.513242145 0.221892137 -0.5133847499 -0.0452914985 0.1777327868
555296670.0 -0.0677187147 0.1649399941 0.2162186686 -0.5159400871 0.2162499014 -0.5153478178 -0.0438268018 0.1779546659
560296640.0 -0.0658013649 0.1655461358 0.2107230572 -0.5177528345 0.2110843106 -0.5178541242 -0.041634617 0.1792044889
565296610.0 -0.0647466781 0.1665140261 0.2056441449 -0.5201568568 0.2054620955 -0.5195616677 -0.0396425406 0.1797500719
570296580.0 -0.0630565236 0.1675375356 0.199552059 -0.5222385849 0.1996551747 -0.5224913374 -0.0377015898 0.1803492436
575296550.0 -0.0609203449 0.1681189454 0.1938791739 -0.524233183 0.1937938577 -0.5242269627 -0.035330268 0.1806734059
580296520.0 -0.0593719231 0.1690416016 0.187943457 -0.5263435691 0.1880596508 -0.5265956083 -0.0337550591 0.1810096365
585296490.0 -0.0574800514 0.1698425497 0.1825140894 -0.5282985204 0.1819774277 -0.5282330896 -0.0312692126 0.1820074175
590296460.0 -0.0554300699 0.1704124921 0.1769472003 -0.5302134468 0.1766052539 -0.5307047857 -0.029706408 0.18248149
595296430.0 -0.0537503446 0.1712635992 0.1701332964 -0.5320554104 0.170192307 -0.5323242937 -0.0272438664 0.1827990746
600296400.0 -0.052009452 0.1719847747 0.1645389049 -0.5336451594 0.165056331 -0.5339259793 -0.0256064575 0.1829334372
605296370.0 -0.0506982933 0.1728220138 0.1593821838 -0.5356830558 0.1590649631 -0.5357139371 -0.0236193462 0.1837030052
610296340.0 -0.0486105945 0.1738471736 0.1535926453 -0.5365838572 0.1533290134 -0.5373778504 -0.0213551171 0.1843105896
615296310.0 -0.0464295636 0.174116169 0.1474536133 -0.5390392535 0.147535069 -0.5389623935 -0.0189329397 0.184516831
620296280.0 -0.045481879 0.175216722 0.1412623693 -0.5408040104 0.1414294894 -0.5401572135 -0.0172691925 0.1850896759
625296250.0 -0.0435763839 0.1757832506 0.1359898057 -0.5420404064 0.1358890496 -0.5419613028 -0.0154697692 0.184895036
630296220.0 -0.0414831771 0.1763685441 0.1298867356 -0.543459725 0.1296710361 -0.5431993838 -0.0129216119 0.1854373391
635296190.0 -0.0400111869 0.1772395051 0.1243539648 -0.5445967448 0.1235860317 -0.5446975434 -0.0111323866 0.1859037949
640296160.0 -0.0383079927 0.1778563552 0.1180120943 -0.5462485639 0.1178708623 -0.546456134 -0.0092088555 0.1858294224
645296130.0 -0.0363418871 0.1788308416 0.1119574664 -0.5476165517 0.1119622775 -0.5469982661 -0.007060652 0.1856384942
650296100.0 -0.0346517186 0.1791039268 0.1062478957 -0.5486096622 0.1057224691 -0.5482818934 -0.0044549408 0.1863538471
655296070.0 -0.0328371012 0.1795573492 0.0999775828 -0.5489041772 0.0999235399 -0.5490913826 -0.003182074 0.1867467573
660296040.0 -0.0311722095 0.1803482175 0.0944401631 -0.5505391512 0.0940903189 -0.5508093661 -0.0007014779 0.1863454291
665296010.0 -0.0292366293 0.1809215532 0.0879082618 -0.5510475776 0.0880257906 -0.5511333923 0.0011333232 0.1866283075
670295980.0 -0.0274216689 0.1813176063 0.0820404203 -0.551959571 0.082316095 -0.551460437 0.003050844 0.1863757334
675295950.0 -0.0258326418 0.1819961933 0.0764035213 -0.5531895062 0.076388056 -0.5530721107 0.0053030219 0.186936406
680295920.0 -0.0243458978 0.1826099818 0.0704829759 -0.5538583864 0.0704917142 -0.5535276408 0.0077554692 0.1865645991
685295890.0 -0.0219565765 0.1832426494 0.064063554 -0.5548981109 0.0641254033 -0.5545631348 0.0095297241 0.1872799257
690295860.0 -0.0206686033 0.1838173304 0.0581656161 -0.5552273387 0.0581140153 -0.5553996098 0.0115792077 0.1871564525
695295830.0 -0.0186164162 0.1837936926 0.0523367404 -0.5556691552 0.0521265459 -0.5557435798 0.0137297788 0.1873748495
700295800.0 -0.0168185147 0.1846456416 0.0467467159 -0.5562986749 0.0463643081 -0.5563470519 0.0159248042 0.1870600993
705295770.0 -0.015373787 0.185018235 0.0403190821 -0.5572409452 0.040400091 -0.5563875176 0.017779476 0.1872096041
710295740.0 -0.0136687183 0.1851790949 0.0345502555 -0.5569617996 0.0346353803 -0.5573124487 0.020053703 0.1870271271
715295710.0 -0.0117292167 0.1858906909 0.0287149742 -0.5573546011 0.0284963607 -0.5571688194 0.0219934658 0.186955889
720295680.0 -0.0095338751 0.1859511608 0.0220161267 -0.557600827 0.0222672257 -0.557752732 0.0239969852 0.1865808897
725295650.0 -0.0084130086 0.1868220329 0.0166161203 -0.5581596775 0.0164458932 -0.5580561974 0.0259936226 0.1874402652
730295620.0 -0.0068442875 0.1868287528 0.0102854428 -0.5575423926 0.0105653043 -0.5573387797 0.0278020963 0.1871959527
735295590.0 -0.0045689361 0.1872508974 0.004289157 -0.5578474107 0.0040713833 -0.557952072 0.0301092555 0.1867656419
740295560.0 -0.0033108608 0.1871689981 -0.0015372422 -0.557958504 -0.0013798398 -0.5585971271 0.0320993019 0.1869182789
745295530.0 -0.001641682 0.1878949425 -0.0070769093 -0.5576297044 -0.0066825828 -0.5575199676 0.0339032732 0.1863787689
750295500.0 4.42669e-05 0.1882393608 -0.0131147066 -0.5578632203 -0.0135036994 -0.557875792 0.0357403896 0.1862187503
755295470.0 0.0016916015 0.1882448149 -0.0191085406 -0.5573615737 -0.0196542309 -0.5578806338 0.0384748267 0.1864522959
760295440.0 0.0035575471 0.1892074458 -0.0255967596 -0.5574807092 -0.0255500476 -0.5571573871 0.0401808505 0.1850067014
765295410.0 0.0055087369 0.1883817904 -0.0312987446 -0.5570169992 -0.0310626769 -0.556904844 0.0422483991 0.1850994112
770295380.0 0.0072840781 0.1891304155 -0.037072938 -0.556107862 -0.037146373 -0.5569005998 0.043931705 0.1850582586
775295350.0 0.0087986511 0.1889040404 -0.0433142591 -0.5558762123 -0.0429840748 -0.5556237582 0.0463812724 0.1846816977
780295320.0 0.0107374641 0.1896584591 -0.049045242 -0.5550155792 -0.0492122175 -0.5555604853 0.0485945449 0.1843413903
785295290.0 0.0121167273 0.1894602064 -0.0552187392 -0.5548216904 -0.0552969049 -0.5550195951 0.04967808 0.1844007175
790295260.0 0.0139796436 0.1893225929 -0.0607496404 -0.5543747275 -0.0609068524 -0.5545241546 0.0523262615 0.1841372212
795295230.0 0.0156523105 0.1891550295 -0.0669732662 -0.5533949915 -0.0670590345 -0.5535575622 0.0540178518 0.1828884704
800295200.0 0.0170046356 0.1897286911 -0.0722324452 -0.5523392293 -0.0727151936 -0.5525915544 0.0561262717 0.182821445
805295170.0 0.0189644824 0.1894565486 -0.078875631 -0.551633929 -0.078853088 -0.5526083242 0.0587988494 0.1826131796
810295140.0 0.021273342 0.1898629955 -0.0850096119 -0.5509576377 -0.0849235287 -0.5511092008 0.0606720404 0.181855181
815295110.0 0.0223787219 0.1898599434 -0.0904389472 -0.5500536626 -0.090194925 -0.5503996451 0.0622732662 0.1815067141
820295080.0 0.0244129355 0.189660325 -0.0962848913 -0.5488462663 -0.0964510655 -0.5494449636 0.0636580937 0.1813946205
825295050.0 0.0258521418 0.1894154438 -0.1025773636 -0.547754953 -0.1025709053 -0.5481142553 0.0666593733 0.1806841025
830295020.0 0.0277695882 0.189588663 -0.1080903156 -0.5466506148 -0.1083338448 -0.5469891842 0.0680542792 0.1795614742
