!Created with skrf (http://scikit-rf.org).
# Hz S RI R 50.0 
!freq ReS11 ImS11 ReS21 ImS21 ReS12 ImS12 ReS22 ImS22
300000.0 -0.2439217842 -0.0874714704 0.4765813766 0.0596578406 0.4719672156 0.0570941814 -0.2409163635 -0.0979770597
5299970.0 -0.2450148544 0.0070537897 0.4750478186 0.0048504344 0.4749134493 0.0050459334 -0.2407698052 0.0076310848
10299940.0 -0.2417140783 0.0179915797 0.4767960394 0.0057319105 0.4767299367 0.0062155615 -0.2373367533 0.0206516577
15299910.0 -0.2375591833 0.0268035128 0.4804765987 0.0073241734 0.4804903429 0.0073697366 -0.2329625498 0.0301349353
20299880.0 -0.232931288 0.0340509004 0.4851739464 0.0083198133 0.4851443899 0.0076012084 -0.2277852357 0.0381368398
25299850.0 -0.2278872661 0.0402454951 0.4902711811 0.0070976547 0.4901801041 0.0068542523 -0.2217654594 0.0450184611
30299820.0 -0.2223739246 0.0453295249 0.4955887409 0.0049429059 0.4955065113 0.0049624252 -0.2160848384 0.0503035796
35299790.0 -0.2172085541 0.0490797797 0.5008905971 0.0010414022 0.5007363339 0.0014469704 -0.2105798175 0.0543191443
40299760.0 -0.2127801633 0.0524113391 0.5057624169 -0.0024694927 0.5058089517 -0.0024473432 -0.205408521 0.0575083745
45299730.0 -0.2079366558 0.0548624201 0.5100388501 -0.0070908121 0.5107767915 -0.0071565824 -0.2002309019 0.0605761761
50299700.0 -0.203681867 0.056675553 0.5150007243 -0.012870938 0.5147328927 -0.0124303194 -0.1954218799 0.0626862841
55299670.0 -0.1999875684 0.058397875 0.5185856529 -0.0188876736 0.5184862779 -0.0188033905 -0.1914455706 0.0644079924
60299640.0 -0.1962818977 0.0600478654 0.5220623455 -0.0250057077 0.5220342024 -0.0247555279 -0.1874740475 0.0655538944
65299610.0 -0.1930787874 0.061186414 0.5247705106 -0.0313901854 0.5248945512 -0.0312329208 -0.1841844513 0.0664966943
70299580.0 -0.1899041543 0.0621486821 0.5272597473 -0.037355811 0.5271200944 -0.0378773839 -0.1809920778 0.0677988901
75299550.0 -0.1870159924 0.0629592716 0.5291350156 -0.0447163366 0.5289629773 -0.0448114374 -0.1776836761 0.0684422423
80299520.0 -0.1847186303 0.0635766168 0.5305580371 -0.0515770775 0.5310298319 -0.0517606499 -0.1752829798 0.0692339912
85299490.0 -0.1823590945 0.0641628204 0.5318316423 -0.0586911864 0.5323599648 -0.0579867162 -0.1729860358 0.0694283229
90299460.0 -0.1806081442 0.0649294604 0.5326119822 -0.0654727938 0.5330870511 -0.0654789058 -0.1704071203 0.0703435414
95299430.0 -0.1784943737 0.0653724972 0.5344567479 -0.0726019648 0.5340164813 -0.0727705827 -0.1683351478 0.0713477437
100299400.0 -0.1766634037 0.0664444717 0.5341980355 -0.0794681631 0.5343174132 -0.0792858821 -0.1661108961 0.0714750245
105299370.0 -0.1750010738 0.0667758994 0.5345876312 -0.0861795837 0.5350239754 -0.0864520783 -0.1641000289 0.072330843
110299340.0 -0.1734950458 0.067418974 0.5345280382 -0.0929763424 0.5347087341 -0.0928053242 -0.1630486532 0.0729874448
115299310.0 -0.1719330952 0.0683686793 0.5345680366 -0.1001147385 0.5347555651 -0.0996413754 -0.1610532247 0.0737052693
120299280.0 -0.1705979249 0.0685839033 0.5343828088 -0.1065372666 0.5342971139 -0.106422867 -0.1594746512 0.0744766689
125299250.0 -0.1695021417 0.0690941943 0.5338643357 -0.1128474879 0.5344208189 -0.1131251767 -0.1586371812 0.0745241862
130299220.0 -0.1687126948 0.0703590027 0.5330684977 -0.1199863998 0.5335633235 -0.1201734889 -0.1568788402 0.0758849212
135299190.0 -0.1674892835 0.0714264719 0.5329221639 -0.1265790631 0.5327542164 -0.1264487112 -0.1554880836 0.0766546375
140299160.0 -0.1666973299 0.0720738079 0.5320859133 -0.1336899421 0.5318240104 -0.133476365 -0.1544920118 0.0780321843
145299130.0 -0.1657837171 0.072845581 0.5312302957 -0.1399314842 0.5308078858 -0.1397873183 -0.1535486481 0.0788156868
150299100.0 -0.1645455583 0.0740708201 0.5295688101 -0.1459662022 0.5299429089 -0.1460673342 -0.1524856512 0.0801010471
155299070.0 -0.1637866958 0.0746422885 0.5290577621 -0.1532601838 0.5286130674 -0.1529489356 -0.1512164566 0.0811047777
160299040.0 -0.1628268612 0.0758874597 0.5273124527 -0.1591822143 0.5270644691 -0.1593224891 -0.1506269973 0.0821289323
165299010.0 -0.1620907871 0.0769613055 0.5259163973 -0.1661592374 0.5263497337 -0.1658463561 -0.1490899292 0.0836315422
170298980.0 -0.1614144064 0.0779673393 0.5241986885 -0.1721618448 0.5245049436 -0.172052541 -0.1481640715 0.0848058725
175298950.0 -0.1609017811 0.0789320467 0.5232193789 -0.1782684334 0.5222281352 -0.1782763416 -0.1475845169 0.0857181586
180298920.0 -0.1600108253 0.0801071244 0.5213274223 -0.1846399452 0.5207204236 -0.1845083434 -0.14663849 0.0873112753
185298890.0 -0.158749064 0.0808024157 0.5189812592 -0.19053683 0.5189141083 -0.190767353 -0.1453597533 0.0888223123
190298860.0 -0.1586460187 0.082255644 0.5177706358 -0.1970986229 0.5174101346 -0.1968415206 -0.1446856981 0.089711484
195298830.0 -0.15775987 0.0831896068 0.5149098927 -0.2031730055 0.5153800956 -0.2029421933 -0.1434971376 0.0913572319
200298800.0 -0.1566632377 0.0844273408 0.5130130356 -0.2090864715 0.5131974495 -0.2091520188 -0.1430881373 0.0926305683
205298770.0 -0.1560263132 0.0858931255 0.5109031637 -0.2155071024 0.5107841205 -0.2149233434 -0.1420999042 0.0933485066
210298740.0 -0.1554193111 0.086996604 0.508635972 -0.2209239754 0.5085466678 -0.2211680079 -0.1408828705 0.0952613542
215298710.0 -0.1553789827 0.0883681869 0.5063813079 -0.2271147845 0.5059866624 -0.2271735466 -0.1403736917 0.0964292041
220298680.0 -0.1541651099 0.0893480821 0.503585245 -0.2325027713 0.5036841642 -0.2329619617 -0.1395173599 0.0976150922
225298650.0 -0.1533154778 0.0907318483 0.5015051248 -0.2389293934 0.5014402716 -0.238670799 -0.1388398526 0.0988519259
230298620.0 -0.1524046292 0.0923480403 0.4988920062 -0.2445768459 0.4995985765 -0.2443108892 -0.1381799757 0.1002679484
235298590.0 -0.1518633262 0.0937881911 0.4962853945 -0.250710589 0.4962782964 -0.2498260161 -0.1369327483 0.1017393777
240298560.0 -0.1509557349 0.0949805446 0.4939169027 -0.2563548691 0.493219209 -0.2562463161 -0.1359513786 0.1033851755
245298530.0 -0.1506630314 0.0963756939 0.4912849327 -0.2617313964 0.4907477205 -0.2618398719 -0.1348395438 0.1039320922
250298500.0 -0.1492343037 0.0975354046 0.4872516839 -0.2674189545 0.4875978318 -0.2669063508 -0.134349423 0.105478539
255298470.0 -0.1486539373 0.0985968568 0.4849652089 -0.2728234477 0.4850178215 -0.2729631485 -0.1328441505 0.1069898718
260298440.0 -0.1480076574 0.099924472 0.4820006254 -0.2785356181 0.4820528655 -0.2786795582 -0.1315605471 0.1082907101
265298410.0 -0.1468470376 0.1019423648 0.4789811892 -0.2842251206 0.4791230452 -0.2840572118 -0.1306663627 0.1097723454
270298380.0 -0.1462246851 0.1029797838 0.4762762399 -0.2893125849 0.4763769209 -0.2893634868 -0.1298654501 0.111040392
275298350.0 -0.1450191216 0.104351043 0.4730772578 -0.2947625271 0.4729677573 -0.2947903184 -0.128242075 0.1124040108
280298320.0 -0.1439551856 0.1056502417 0.469841597 -0.3004496523 0.4694609155 -0.3000909927 -0.1267388303 0.1137177593
285298290.0 -0.1429690441 0.1073481998 0.4665483458 -0.3052501631 0.4662192696 -0.3056495164 -0.1257987491 0.1150200586
290298260.0 -0.1418217015 0.108447465 0.4630593082 -0.3105168046 0.4632331751 -0.3106333642 -0.1245312901 0.1163083386
295298230.0 -0.1407493165 0.1096446921 0.4596714287 -0.3157043116 0.4596766121 -0.3159593492 -0.1226227869 0.1174522844
300298200.0 -0.1402652092 0.1107208161 0.4567911993 -0.3212133427 0.456464948 -0.321361223 -0.1218875044 0.1189277178
305298170.0 -0.1390003575 0.1120713651 0.4525615324 -0.3263117786 0.4526615254 -0.3265170836 -0.1199451525 0.120148032
310298140.0 -0.1380616908 0.1137154878 0.4490380947 -0.3319234307 0.4495056369 -0.3317857101 -0.1188796855 0.1216236539
315298110.0 -0.1370494231 0.1145890797 0.4457238031 -0.3365849611 0.4460514556 -0.3367966464 -0.1177015315 0.12252632
320298080.0 -0.1357707367 0.1158907129 0.440878731 -0.3425316005 0.4416577251 -0.3419599081 -0.1164313283 0.1239638949
325298050.0 -0.1351815315 0.1172363395 0.4378394319 -0.3473427731 0.4378389832 -0.3471547186 -0.1151751254 0.1252916596
330298020.0 -0.1342574966 0.1181753447 0.433864625 -0.3518878584 0.4339879617 -0.3522074975 -0.1140889553 0.1265235796
335297990.0 -0.1328437551 0.1191241003 0.4295898467 -0.3564899295 0.4294832527 -0.3568469262 -0.1134534545 0.1282542723
340297960.0 -0.1324429579 0.1210401552 0.4252804468 -0.3616868177 0.425347898 -0.361862001 -0.1114290372 0.1297895288
345297930.0 -0.131666656 0.1226455429 0.421567169 -0.3665405741 0.4211201242 -0.3667180667 -0.1102523825 0.1306167958
350297900.0 -0.1306156549 0.1234780732 0.4170092362 -0.3710828111 0.4171066463 -0.371156743 -0.1093163963 0.132519446
355297870.0 -0.1292060071 0.125673483 0.4130251863 -0.3756937783 0.4136872565 -0.3755426791 -0.1081356369 0.1339585357
360297840.0 -0.1281474613 0.1267680547 0.409757801 -0.3798615749 0.4094738117 -0.3799781503 -0.1066945777 0.1354437622
365297810.0 -0.1274381075 0.1283131458 0.4049435496 -0.3848022149 0.4054292405 -0.3848580506 -0.1048900157 0.1368967187
370297780.0 -0.1258218001 0.12929127 0.4008501164 -0.3888048319 0.4007916602 -0.3887517464 -0.1033841603 0.1381326673
375297750.0 -0.1245156133 0.1306936613 0.3964432681 -0.3934411598 0.3967113304 -0.3934467086 -0.1022065351 0.1394948301
380297720.0 -0.1233361285 0.1321139997 0.3923099549 -0.3981185299 0.3923284654 -0.3972959718 -0.1012525711 0.1406345813
385297690.0 -0.1227386465 0.1335073575 0.38768785 -0.4018279682 0.3876222462 -0.401957841 -0.0997784605 0.1421214481
390297660.0 -0.1212296393 0.134885417 0.3832002409 -0.4060859356 0.3830668661 -0.4059793329 -0.0980825172 0.1432382256
395297630.0 -0.1198453609 0.1364208944 0.379125511 -0.4106129062 0.378823902 -0.4103955883 -0.0962529719 0.1445353472
400297600.0 -0.1187944673 0.1377089344 0.3741018917 -0.415252791 0.3739952127 -0.4145446039 -0.0948141167 0.1455748485
405297570.0 -0.1177917437 0.1386998829 0.3695728619 -0.4182341063 0.3700529927 -0.418267 -0.0940003924 0.1468415716
410297540.0 -0.1161995584 0.13977394 0.3652432069 -0.4227971077 0.3652884013 -0.4229124229 -0.0922233209 0.1482743433
415297510.0 -0.114287499 0.1411801252 0.3602889913 -0.4271264429 0.3605759827 -0.4268559583 -0.0908421757 0.1491378378
420297480.0 -0.1135482945 0.1427730625 0.355693645 -0.4307684523 0.3555572347 -0.4308004037 -0.0890735238 0.1503298843
425297450.0 -0.1120073846 0.1435321472 0.3512565026 -0.4345615381 0.351483374 -0.434502279 -0.0878658436 0.151606665
430297420.0 -0.1108117122 0.1450056324 0.3460786195 -0.4378210763 0.3461277983 -0.4378081151 -0.0861106675 0.1525606991
435297390.0 -0.1095300949 0.1460082818 0.3412984135 -0.4419876006 0.3405987139 -0.4418992277 -0.0837114992 0.1535019501
440297360.0 -0.1079755873 0.1475010213 0.3367324486 -0.4456534746 0.336725027 -0.4455221743 -0.0826654731 0.1543022218
445297330.0 -0.1066339246 0.1482821081 0.3318890307 -0.4490074157 0.3316980734 -0.4489497457 -0.0806721925 0.155163478
450297300.0 -0.1051975837 0.149548297 0.3270023022 -0.452752705 0.3268409445 -0.4531477433 -0.0793097483 0.1561734972
455297270.0 -0.103920012 0.1507203669 0.3213822257 -0.4564970863 0.3219950927 -0.4567204502 -0.0771745831 0.1571339603
460297240.0 -0.1024380337 0.1516121492 0.3165811454 -0.4597239009 0.316619322 -0.4600660051 -0.0757573916 0.1584472665
465297210.0 -0.1005530478 0.152871798 0.3118766139 -0.4637297125 0.3117197954 -0.4637592331 -0.0735109886 0.1588881931
470297180.0 -0.099220378 0.1536718001 0.3059534708 -0.4668355469 0.3065939766 -0.4667304485 -0.0717985573 0.1601271218
475297150.0 -0.0980167781 0.1545617921 0.3013086335 -0.469668336 0.3015117735 -0.4694517524 -0.0697121507 0.1606503581
480297120.0 -0.0963361653 0.156209714 0.296414862 -0.473294581 0.2958759344 -0.4735666104 -0.0679964462 0.1617098102
485297090.0 -0.0948375245 0.1573133876 0.2909854822 -0.4760055195 0.2913827619 -0.476103144 -0.0661327 0.1625538607
490297060.0 -0.0939544788 0.1582963429 0.2864548779 -0.4796109676 0.285794276 -0.4792820465 -0.0644086599 0.1637942589
495297030.0 -0.0922016069 0.1592613915 0.2808285902 -0.4821774685 0.281042349 -0.4825392633 -0.0628355396 0.1647584885
500297000.0 -0.0904049685 0.1600023074 0.2755067295 -0.4850545273 0.2750282917 -0.485178261 -0.0606218607 0.1658472577
505296970.0 -0.0886559864 0.1612027832 0.2702666555 -0.4883479645 0.2697209297 -0.4883912163 -0.0590942408 0.1666267466
510296940.0 -0.0874479465 0.1622238313 0.2647280807 -0.4918390693 0.2649002344 -0.4915995153 -0.0572493445 0.1674518525
515296910.0 -0.085924274 0.163398751 0.2590692546 -0.4944245385 0.259188131 -0.4938771041 -0.055061785 0.1682135685
520296880.0 -0.0842621506 0.1642363785 0.2541445629 -0.49700287 0.2538122327 -0.4966453723 -0.0532545435 0.1688495601
525296850.0 -0.08254068 0.1648575608 0.2485109554 -0.4993107475 0.2488385261 -0.4995155081 -0.051544296 0.1700306144
530296820.0 -0.0810199002 0.166279108 0.2432902915 -0.5027063071 0.2430907793 -0.5021838828 -0.0496303583 0.1704054422
535296790.0 -0.0797025621 0.1669074491 0.2378615526 -0.5048399486 0.2378720426 -0.5043795945 -0.0481702216 0.1712024129
540296760.0 -0.0780675126 0.1681191814 0.2320825808 -0.5075836399 0.2320663053 -0.5077070102 -0.0462738143 0.1722779765
545296730.0 -0.0761805044 0.1688994023 0.2263775464 -0.5098268394 0.2263923356 -0.5098085648 -0.0445329405 0.1726838954
550296700.0 -0.0744895244 0.1695463061 0.2209114352 -0.5122339503 0.221352022 -0.512694576 -0.0426965784 0.1733663876
555296670.0 -0.0729659346 0.1705420943 0.2154462763 -0.5142612115 0.2156717617 -0.5144543681 -0.0403341918 0.1744772047
560296640.0 -0.0711197931 0.1717852295 0.2100350447 -0.5169957337 0.2101924744 -0.5170704375 -0.0386939968 0.1751268758
565296610.0 -0.0699472949 0.1722419593 0.2045856518 -0.5192227965 0.2043275345 -0.5190678637 -0.036640391 0.1749661843
570296580.0 -0.0681222054 0.1733528973 0.1987902034 -0.5217990359 0.1980326053 -0.5217304494 -0.0352755861 0.1764716693
575296550.0 -0.066433644 0.1742088149 0.1931448408 -0.5237906937 0.192781762 -0.5234597143 -0.0330301137 0.1763258097
580296520.0 -0.0645834083 0.1749352296 0.1871595593 -0.5257817046 0.187129756 -0.5255061628 -0.0311042703 0.17695935
585296490.0 -0.063150723 0.1751609839 0.1818455608 -0.5271198545 0.1817292372 -0.5273777908 -0.0287969026 0.1776971526
590296460.0 -0.0611492067 0.1763517931 0.1756918321 -0.5291504837 0.175873638 -0.529508327 -0.0278170312 0.1780209984
595296430.0 -0.059312986 0.1768247041 0.1698955567 -0.5315293658 0.1699140999 -0.5311398275 -0.0252930019 0.1779774859
600296400.0 -0.0580149782 0.1777387658 0.1642664022 -0.5332368696 0.1642724283 -0.5326662032 -0.0234921035 0.1785613042
605296370.0 -0.0561078667 0.1783377201 0.1582147281 -0.5345598045 0.1586751138 -0.5350218921 -0.0212361484 0.1790650757
610296340.0 -0.0545227887 0.1789315996 0.152419828 -0.5363569875 0.1524680669 -0.5363165455 -0.0192896102 0.179313539
615296310.0 -0.0523222902 0.1794654967 0.1468247212 -0.5377748418 0.1463304541 -0.5383414068 -0.0169774473 0.1794496855
620296280.0 -0.0508273272 0.1797730331 0.1412109875 -0.5393588278 0.1410051753 -0.5393908276 -0.0158110736 0.1798744918
625296250.0 -0.0494231685 0.1804016141 0.1357578569 -0.541237365 0.1352437241 -0.5412457602 -0.0127320195 0.1801359194
630296220.0 -0.0467951404 0.1813186231 0.1288086964 -0.5422400772 0.1285429588 -0.5421183013 -0.0110587773 0.1804472126
635296190.0 -0.045914924 0.1819631802 0.1235674338 -0.5436146673 0.1232746313 -0.5437691409 -0.0092004175 0.1804976143
640296160.0 -0.0440544636 0.1824320378 0.1176226761 -0.5447819591 0.1177417026 -0.5447466953 -0.0067143163 0.1806608237
645296130.0 -0.042361395 0.183330597 0.1116266566 -0.5459220303 0.1117741103 -0.5459612026 -0.004911175 0.1808787193
650296100.0 -0.0403075361 0.1832176904 0.1056931155 -0.5470202956 0.105705386 -0.5472289736 -0.0025916455 0.1807109893
655296070.0 -0.038973675 0.1841292708 0.0996425376 -0.5481350313 0.0997007873 -0.5485200781 -0.000602631 0.1812965661
660296040.0 -0.0372031971 0.1843520237 0.094048468 -0.549267667 0.0938922013 -0.5494455799 0.0018023145 0.1814820732
665296010.0 -0.0347831285 0.1848254098 0.0875158949 -0.5500261069 0.0879178278 -0.5502052808 0.0036949523 0.1821476664
670295980.0 -0.033681084 0.1855546404 0.0817647023 -0.5510518675 0.0819077642 -0.5509535316 0.0050667108 0.1817686598
675295950.0 -0.0318818857 0.1860574869 0.0763880024 -0.5518855486 0.0764110794 -0.5514745522 0.0073254841 0.1823201925
680295920.0 -0.0302023282 0.1862914842 0.0699758095 -0.5524705676 0.069576714 -0.5529668482 0.0097611363 0.1827062594
685295890.0 -0.028062538 0.1873705707 0.0641226794 -0.5534126255 0.0638401307 -0.5532106878 0.0113018497 0.1826220549
690295860.0 -0.0260822899 0.1874836502 0.0582078187 -0.5534453596 0.0581269354 -0.5544315027 0.0132730528 0.1831136485
695295830.0 -0.0241624153 0.1877392831 0.0520806509 -0.5541980503 0.0518757717 -0.5546013804 0.0156761541 0.1830454805
700295800.0 -0.0222651897 0.1878318667 0.0460791395 -0.5548984063 0.045695408 -0.554776461 0.0175292668 0.1831138791
705295770.0 -0.0206540884 0.1884068351 0.0398793741 -0.555246396 0.0403775985 -0.555574629 0.0196624136 0.1833591974
710295740.0 -0.0186343777 0.1890887869 0.0344632205 -0.5562664432 0.0344931924 -0.5564150892 0.0216099468 0.1828476273
715295710.0 -0.0172863679 0.1890929614 0.0287727473 -0.5560541199 0.0277851588 -0.5564161563 0.0238406109 0.182916189
720295680.0 -0.015126979 0.1893082397 0.0224238074 -0.5565519701 0.0222890437 -0.5562532087 0.0257313009 0.1830710439
725295650.0 -0.0130837688 0.1897651506 0.0159421438 -0.5564418322 0.0161027252 -0.556660132 0.0273908838 0.1830793423
730295620.0 -0.0112632491 0.190410654 0.0100911327 -0.5564029439 0.010216231 -0.5567576818 0.0289385773 0.1822257132
735295590.0 -0.0096970734 0.1906235245 0.0042546077 -0.5572294301 0.0038399686 -0.5565802703 0.0311587801 0.182022065
740295560.0 -0.0078639406 0.1906991681 -0.00177574 -0.5564157208 -0.0022325632 -0.5570228514 0.0338540442 0.1826245311
745295530.0 -0.0060326988 0.1913001041 -0.0077802328 -0.556494933 -0.008105181 -0.5566871906 0.035415557 0.1817417339
750295500.0 -0.0038993533 0.1912031503 -0.0134844206 -0.5561394859 -0.0139355864 -0.5564671598 0.0371936289 0.1816127638
755295470.0 -0.0020357337 0.1913463674 -0.0197203131 -0.5563317279 -0.0198857823 -0.5563344966 0.0396301852 0.1810591828
760295440.0 -0.0002975027 0.191244712 -0.0258002529 -0.55628388 -0.0258787896 -0.5564001647 0.0411944563 0.1808937473
765295410.0 0.0015097444 0.1917205674 -0.0320098607 -0.5555430888 -0.031717864 -0.5557463318 0.0434445996 0.1806479247
770295380.0 0.0031238797 0.1915368594 -0.0376704167 -0.5552971823 -0.0380001528 -0.5550358442 0.0450458851 0.1801750528
775295350.0 0.0049820904 0.1915073618 -0.0442471558 -0.5542350142 -0.0438720161 -0.5548757772 0.046635662 0.1801492761
780295320.0 0.0070600155 0.1916809994 -0.0498667908 -0.5540382359 -0.0494619164 -0.5540234808 0.0489239934 0.1791722292
785295290.0 0.0086138734 0.1912827854 -0.0559742975 -0.5530516483 -0.0559548544 -0.5533241658 0.0516813857 0.1788547742
790295260.0 0.0110534714 0.1921048329 -0.0611892954 -0.553095442 -0.0611076302 -0.552855158 0.0534198159 0.1785045823
795295230.0 0.012787594 0.1916185338 -0.067480724 -0.5518830861 -0.0672665456 -0.5520876758 0.0554216262 0.178080277
800295200.0 0.0141467081 0.1921544837 -0.0739986313 -0.5510651968 -0.0736155889 -0.5511798379 0.0577316894 0.1774653634
805295170.0 0.0164230865 0.1916935198 -0.0796067907 -0.5505607342 -0.0796329209 -0.5508091048 0.0591230647 0.177035172
810295140.0 0.0178613768 0.1914044799 -0.0853686897 -0.5491905799 -0.0853105158 -0.54948733 0.0616073113 0.1764192979
815295110.0 0.0197855738 0.1913177349 -0.0911752945 -0.5481349973 -0.091128127 -0.5484651078 0.0633294554 0.1760841542
820295080.0 0.0213425748 0.1915604876 -0.0965650014 -0.5472020554 -0.0965855854 -0.5473766924 0.0652167122 0.1754649244
825295050.0 0.0240008292 0.1913967346 -0.1029367249 -0.5460267288 -0.1032031834 -0.5464592385 0.0679136835 0.1748053053
830295020.0 0.0255009183 0.1915422021 -0.1090793306 -0.545097171 -0.1090211327 -0.5451060709 0.0701642381 0.1742863989
