!Created with skrf (http://scikit-rf.org).
# Hz S RI R 50.0 
!freq ReS11 ImS11 ReS21 ImS21 ReS12 ImS12 ReS22 ImS22
300000.0 -0.2401837324 -0.0974728575 0.4667649486 0.0637922145 0.4698750611 0.0685383099 -0.2377154769 -0.1101289776
5299970.0 -0.2437774003 0.0071461788 0.4737651212 0.0054372511 0.4737496838 0.0057015791 -0.243761407 0.0057825891
10299940.0 -0.2404729575 0.0198376594 0.475751308 0.0065432539 0.4758692951 0.0065992231 -0.2409748148 0.0183205408
15299910.0 -0.2361112788 0.0293515568 0.4794377756 0.0079990959 0.4794009929 0.0080741324 -0.2365435177 0.0274462113
20299880.0 -0.2305167729 0.0371802049 0.4840540449 0.0082044317 0.4839176956 0.0083493258 -0.2319098464 0.0354390223
25299850.0 -0.2247603434 0.0434680603 0.4894232861 0.0074572458 0.489656774 0.0075294028 -0.2268313937 0.0418892827
30299820.0 -0.2185030133 0.0486239743 0.4947656201 0.0054525599 0.4945843262 0.0052916849 -0.2213089906 0.04692799
35299790.0 -0.2130249875 0.0529335542 0.5004597454 0.0020724329 0.5001545906 0.0021818532 -0.2158679904 0.0506050479
40299760.0 -0.2075607958 0.0555240011 0.5056995787 -0.0015952275 0.5054289771 -0.0016697746 -0.2113257748 0.0546743407
45299730.0 -0.2024726269 0.0587427884 0.5101361107 -0.0065357205 0.5106206382 -0.0064595209 -0.2068214637 0.0572176412
50299700.0 -0.1975280442 0.0600611728 0.5140506181 -0.0120347245 0.5145164147 -0.0122896698 -0.2018175999 0.0599108759
55299670.0 -0.1936364596 0.0617876715 0.5178426789 -0.0181431711 0.5183469289 -0.0180356858 -0.1985071369 0.0616409493
60299640.0 -0.189370548 0.0626571372 0.5210273024 -0.0243468652 0.5214099577 -0.0244094256 -0.1944035932 0.0633849964
65299610.0 -0.1860459409 0.0639307465 0.5240819914 -0.0305319461 0.5245918628 -0.0305322897 -0.1909569929 0.0648752107
70299580.0 -0.182568643 0.064099904 0.5264832138 -0.037074446 0.5266612418 -0.0372982876 -0.1880307217 0.0655684997
75299550.0 -0.1795491356 0.0650287055 0.5286308247 -0.0438360367 0.5285413295 -0.0442043415 -0.1848227736 0.0668260664
80299520.0 -0.1771086324 0.065725278 0.5307132279 -0.0511899475 0.5309641743 -0.050944985 -0.1825857454 0.0673580901
85299490.0 -0.1746774438 0.0658863708 0.5319587333 -0.057963413 0.5317268807 -0.0578150063 -0.1802633451 0.0682650165
90299460.0 -0.172524413 0.0664967331 0.5329087825 -0.0646146983 0.5333617396 -0.0649328119 -0.1776675482 0.0694276978
95299430.0 -0.1705945704 0.0673420402 0.5341464706 -0.0721452827 0.5341702455 -0.0715826296 -0.1757755617 0.0701856046
100299400.0 -0.1686192439 0.0676151511 0.5343962159 -0.0788284798 0.5344154143 -0.0788272656 -0.1741333623 0.0708210306
105299370.0 -0.1668206522 0.0682226288 0.5343728547 -0.0853751819 0.5350410277 -0.085611698 -0.1721420322 0.0720824099
110299340.0 -0.1658215241 0.0683799037 0.5347843621 -0.0921142334 0.5350740558 -0.0926323803 -0.1707346638 0.0730549639
115299310.0 -0.1638488222 0.0687256628 0.5347187293 -0.0989402037 0.5351706483 -0.0988139662 -0.1692545066 0.0730308809
120299280.0 -0.1628828763 0.069360347 0.5348001161 -0.105938991 0.534378432 -0.1064792492 -0.1678604095 0.0743008462
125299250.0 -0.1618476315 0.0696411034 0.5345158073 -0.1125923253 0.5343840046 -0.1127944496 -0.166420017 0.074838282
130299220.0 -0.1605389379 0.0707097307 0.5335457528 -0.1191623365 0.5336744431 -0.119427575 -0.1653891866 0.0758125358
135299190.0 -0.1594106258 0.0711852468 0.5330484966 -0.1259331656 0.5326004582 -0.1258718082 -0.1644141899 0.0768501477
140299160.0 -0.1587465353 0.0721796315 0.5324418899 -0.1325461164 0.5324892815 -0.132912055 -0.162924991 0.0780488337
145299130.0 -0.1574903443 0.0730299595 0.5315859913 -0.1393545388 0.5312850179 -0.139098162 -0.1621553698 0.078755458
150299100.0 -0.1566056133 0.0733631335 0.5301249176 -0.1457542847 0.5303289612 -0.1458049193 -0.1608100793 0.0799256153
155299070.0 -0.155954557 0.0747135831 0.5292709627 -0.1527685821 0.5293418771 -0.1527791391 -0.1602738651 0.0808930155
160299040.0 -0.1550684935 0.0751797709 0.5273652763 -0.1579331236 0.5280064218 -0.1587471227 -0.1590778196 0.0819948784
165299010.0 -0.1542892408 0.0762773003 0.5263045384 -0.1652019508 0.5265354873 -0.165395248 -0.158054488 0.0831255859
170298980.0 -0.153526485 0.0771943673 0.5237680094 -0.1716041209 0.5246184488 -0.1719735044 -0.1568257537 0.0846115953
175298950.0 -0.1526194147 0.0783789998 0.52326413 -0.1779820287 0.5231536161 -0.177741782 -0.1559473227 0.0853582857
180298920.0 -0.1520311651 0.07906473 0.5213347308 -0.1845144892 0.5215632571 -0.1840179786 -0.1551953245 0.0870240678
185298890.0 -0.1509238304 0.0800995277 0.5192370637 -0.1905273205 0.5194331345 -0.1903934746 -0.1543572424 0.0881410274
190298860.0 -0.1504208088 0.0813399492 0.5177181185 -0.1967778194 0.5175217923 -0.1967933594 -0.1529156501 0.0893999894
195298830.0 -0.1496613908 0.0820358982 0.515641193 -0.2022985294 0.5159525665 -0.2030855317 -0.1518531205 0.0906650495
200298800.0 -0.1488215582 0.0835349576 0.5132290387 -0.2082233705 0.5135521016 -0.2088390903 -0.1506744681 0.0923384515
205298770.0 -0.148144767 0.0845728897 0.5114485605 -0.2144208821 0.5115305069 -0.2150600717 -0.1500723132 0.0931174698
210298740.0 -0.1476033278 0.0856179037 0.5094121231 -0.2214026085 0.5093294268 -0.221190184 -0.149168262 0.0947280363
215298710.0 -0.1466608109 0.0868383538 0.5070798824 -0.2264174761 0.5068927867 -0.2267602564 -0.1482886742 0.0960058122
220298680.0 -0.1458867457 0.0881563344 0.5044625922 -0.2329428216 0.5045249762 -0.2329202207 -0.1470327649 0.0974045945
225298650.0 -0.1449906299 0.0894387026 0.5016159259 -0.2384507943 0.5015019438 -0.2385195876 -0.1461360484 0.0989191275
230298620.0 -0.1444096982 0.09049765 0.4996468052 -0.244089073 0.4996720313 -0.2444238858 -0.1450660542 0.1002807568
235298590.0 -0.1436328798 0.0915470239 0.496755519 -0.2501557833 0.4967286424 -0.2505835495 -0.1442315621 0.1013352041
240298560.0 -0.1430216253 0.0930636957 0.4942518752 -0.2557462442 0.4942482002 -0.2557326904 -0.1430887674 0.1030242817
245298530.0 -0.1416356817 0.0941100005 0.4907017911 -0.2613765982 0.4912373869 -0.261588951 -0.1417830896 0.104664104
250298500.0 -0.1414364771 0.0951543467 0.4883988277 -0.2668102231 0.4887819593 -0.2666668891 -0.140323165 0.1058831612
255298470.0 -0.1406370353 0.0965564465 0.4851695915 -0.2729904364 0.4854716899 -0.2728890967 -0.139381116 0.1071856799
260298440.0 -0.1397679362 0.097876006 0.4825609894 -0.2780340219 0.4823442845 -0.2781730916 -0.1380340938 0.1086158638
265298410.0 -0.138515209 0.0995632591 0.4794832351 -0.2841877349 0.4791943442 -0.2837651189 -0.1373495623 0.1101449099
270298380.0 -0.137651146 0.1005119781 0.4759636301 -0.2893947 0.4766817875 -0.289219961 -0.1359895595 0.1117858526
275298350.0 -0.1370384994 0.1020448808 0.4730625104 -0.2949768939 0.4735724761 -0.2951525412 -0.1345828405 0.1133673634
280298320.0 -0.136321912 0.1032735781 0.4702526306 -0.2994640854 0.4699416146 -0.3003195614 -0.1333615863 0.114946644
285298290.0 -0.1351137069 0.104646728 0.4665911466 -0.3051407039 0.4666126516 -0.3053714373 -0.1323925856 0.1163843168
290298260.0 -0.1344477854 0.1060005098 0.4634613202 -0.3109099297 0.4636514019 -0.3109141986 -0.1307010615 0.11789217
295298230.0 -0.1331735682 0.107086094 0.4603933466 -0.3161044904 0.4598866868 -0.3159785126 -0.1296587218 0.1191641421
300298200.0 -0.1319959828 0.1081553678 0.4564591339 -0.3210491796 0.4568129264 -0.3216105234 -0.1283551548 0.1209709546
305298170.0 -0.1311427469 0.1094830276 0.4534118595 -0.3268188901 0.4534097507 -0.3266751084 -0.126618832 0.122304836
310298140.0 -0.12986023 0.1104942488 0.4499288633 -0.3316357189 0.4500030407 -0.3321935318 -0.1253270071 0.1240653453
315298110.0 -0.1293087145 0.1117830828 0.4459577102 -0.33723057 0.446238602 -0.337123812 -0.1239519802 0.1249735613
320298080.0 -0.1281435751 0.1132566714 0.4422393103 -0.3423596531 0.4425062183 -0.3424213623 -0.1225455865 0.1262979857
325298050.0 -0.1271214918 0.1141579268 0.4388845131 -0.3472443518 0.4387423728 -0.3475132948 -0.1213656197 0.1278093212
330298020.0 -0.1262979812 0.1154636396 0.4339328031 -0.3525141828 0.434384612 -0.3521289101 -0.1203325518 0.1286475274
335297990.0 -0.1253181962 0.1167349332 0.4302548365 -0.3572139504 0.4306965893 -0.3574206134 -0.1190579007 0.1303868465
340297960.0 -0.1247159948 0.118002033 0.4259466192 -0.3621629291 0.4262877671 -0.361771646 -0.1176675134 0.1320419321
345297930.0 -0.1237078575 0.1193677909 0.4220957269 -0.3663504668 0.4217498099 -0.3662061398 -0.1162067539 0.1331410597
350297900.0 -0.1222646256 0.1209500094 0.4177752164 -0.3708309111 0.4182580205 -0.3710753624 -0.1150146671 0.1347163198
355297870.0 -0.121358217 0.1219571512 0.41342575 -0.3755791321 0.4138656959 -0.3759698822 -0.1135911238 0.1361860996
360297840.0 -0.1202369912 0.1233288175 0.4096998425 -0.3804377 0.4095581775 -0.3804447936 -0.1121088538 0.1380737402
365297810.0 -0.1188943339 0.124428838 0.405089396 -0.3849006257 0.4052661734 -0.3851978236 -0.1107660954 0.1396147805
370297780.0 -0.1178335909 0.1258936106 0.4009224032 -0.3889000207 0.4012932694 -0.389396481 -0.1089703193 0.1406432795
375297750.0 -0.1169170652 0.1274519231 0.3970855752 -0.3935633081 0.3970074173 -0.3936943781 -0.107613195 0.142397184
380297720.0 -0.1158150664 0.1284000149 0.3930150313 -0.39766414 0.3925632682 -0.3979774619 -0.106180681 0.1437207775
385297690.0 -0.1141665477 0.1297849686 0.3876673952 -0.4020136738 0.3876765594 -0.4025676079 -0.104374883 0.1453490851
390297660.0 -0.1133512412 0.130961668 0.3833327523 -0.4066612124 0.3833777351 -0.4068267145 -0.1027461338 0.1464570433
395297630.0 -0.1114111312 0.1320690437 0.3790662505 -0.4104801085 0.3791109419 -0.4110069068 -0.1014009708 0.1479788778
400297600.0 -0.1107820489 0.1335444896 0.3743870299 -0.4149105535 0.3751269944 -0.4152373235 -0.1004887814 0.1492563886
405297570.0 -0.1093699116 0.1348746418 0.3702005749 -0.4191285343 0.3700153427 -0.4194501634 -0.0986303774 0.1507946851
410297540.0 -0.1081524913 0.1356638642 0.3650991023 -0.4227019634 0.3648819526 -0.4230495142 -0.0967307738 0.1516217723
415297510.0 -0.1066947992 0.1373134138 0.3607382624 -0.4268959904 0.3608389696 -0.4271345504 -0.0953778464 0.1535788277
420297480.0 -0.1053441372 0.1379806275 0.3556057 -0.4312381371 0.3561190645 -0.431064844 -0.0934527485 0.1541609374
425297450.0 -0.1038921916 0.1389334627 0.3512746242 -0.4345551652 0.3515769601 -0.4349712116 -0.0917348062 0.1559435934
430297420.0 -0.1025473168 0.1405435385 0.3463617366 -0.4392455856 0.3466964394 -0.4384480983 -0.0903800307 0.1567035215
435297390.0 -0.101221147 0.1413524304 0.3416291258 -0.4422664417 0.3419434242 -0.4424169037 -0.0885107545 0.1583210135
440297360.0 -0.0996011944 0.1426085232 0.3365107029 -0.446048547 0.3364651879 -0.4459542504 -0.0868957666 0.1588412662
445297330.0 -0.0983174283 0.1438070113 0.3316982124 -0.4501000076 0.3318157976 -0.4494265808 -0.0850350554 0.1603845743
450297300.0 -0.0968197926 0.1448272953 0.3269522442 -0.4531551133 0.326969146 -0.4532914087 -0.0835094401 0.1616590404
455297270.0 -0.0956606787 0.1456623835 0.322050476 -0.456561676 0.3222802753 -0.4568193007 -0.0814181869 0.1625606011
460297240.0 -0.0945466645 0.1468846952 0.3170147414 -0.4604626562 0.3165262661 -0.4603990122 -0.0798221166 0.1639643748
465297210.0 -0.0925063874 0.1477864821 0.3119398741 -0.4634965557 0.3122847966 -0.4637578331 -0.0784278824 0.1646787292
470297180.0 -0.091535343 0.1487041486 0.3070842041 -0.4668050911 0.307017057 -0.4668325416 -0.0768462631 0.1657492759
475297150.0 -0.0900506613 0.1496575567 0.3013339031 -0.4701065632 0.301931684 -0.4698710384 -0.0747702365 0.1666962333
480297120.0 -0.0886035008 0.1506549065 0.2967162672 -0.4735299744 0.2967691368 -0.4735267735 -0.0730106802 0.1682200866
485297090.0 -0.086894586 0.1516374432 0.2913447936 -0.4766883038 0.291441638 -0.4767540699 -0.0715573701 0.1685668211
490297060.0 -0.0853262017 0.1523783882 0.2861306887 -0.4797671219 0.2861858378 -0.4798121123 -0.0693357683 0.1702318535
495297030.0 -0.0843913304 0.1536770676 0.2807096828 -0.4825816601 0.2803412157 -0.4827295674 -0.0673500743 0.1708647432
500297000.0 -0.08212818 0.1541873082 0.2753576863 -0.485832759 0.2754430713 -0.4858909343 -0.0660604768 0.1716600389
505296970.0 -0.0812489445 0.1551815124 0.2702225413 -0.4881838156 0.2701963185 -0.4886892715 -0.0642962331 0.1728040178
510296940.0 -0.0795457991 0.1564286631 0.2650911034 -0.4918623365 0.2649041886 -0.4914989114 -0.0617608378 0.17366354
515296910.0 -0.078295097 0.1573888545 0.2595011407 -0.494495068 0.2596622988 -0.4947159276 -0.0603750809 0.174457788
520296880.0 -0.0766414798 0.1579786905 0.2540649494 -0.497041196 0.254225229 -0.4968672968 -0.0581549424 0.175281357
525296850.0 -0.0749710324 0.15876369 0.2485088785 -0.4999092334 0.248775156 -0.4999778123 -0.0557904115 0.1761229117
530296820.0 -0.0736457402 0.1596209915 0.2433943785 -0.5020744055 0.2433260414 -0.5023408836 -0.0548172058 0.1765591346
535296790.0 -0.0720600577 0.1606695061 0.2375296967 -0.5048088927 0.2375234912 -0.5047304776 -0.052642889 0.1774039331
540296760.0 -0.0703078889 0.1611688985 0.2319078543 -0.5077788694 0.2318002077 -0.5077958563 -0.0508462443 0.1782090297
545296730.0 -0.0688179371 0.1623664889 0.2268172413 -0.5100203129 0.2265402014 -0.5104556784 -0.0488080048 0.1788459669
550296700.0 -0.0674072056 0.1628979401 0.2213785911 -0.5125722917 0.2217663022 -0.5129477477 -0.0472558117 0.1801001093
555296670.0 -0.0654847382 0.1636462602 0.2156487962 -0.5148655925 0.2157806782 -0.5149330621 -0.0449826642 0.1806376114
560296640.0 -0.0641383085 0.16435679 0.2099049417 -0.5168547724 0.2103766253 -0.5168548585 -0.0431127342 0.1811579229
565296610.0 -0.0628427796 0.1650450912 0.204400817 -0.5193040359 0.2042949245 -0.5195149921 -0.0413450484 0.1817351397
570296580.0 -0.0608910083 0.1657153295 0.1983830398 -0.5215564961 0.1989477442 -0.5212813831 -0.0390533391 0.1829424316
575296550.0 -0.0594354437 0.1668955708 0.1930753084 -0.5229515944 0.1933127188 -0.5232427235 -0.0368744848 0.1832097197
580296520.0 -0.0578016067 0.167156145 0.1876262017 -0.5254869225 0.1873308593 -0.5258368394 -0.0352942235 0.1835200993
585296490.0 -0.0557568141 0.1678890215 0.181882367 -0.5274514725 0.1818091485 -0.5276328075 -0.0332350221 0.1838459242
590296460.0 -0.0547529863 0.1683628321 0.1759103367 -0.5293540797 0.1759932578 -0.5297563229 -0.0310608833 0.1848257006
595296430.0 -0.0528230542 0.1694063071 0.1707030204 -0.5315940761 0.1700074663 -0.5314474741 -0.0292165458 0.1846796625
600296400.0 -0.0511249107 0.1698987634 0.1644161663 -0.5331136786 0.1648296926 -0.5333432321 -0.0273018531 0.1856987051
605296370.0 -0.0493679594 0.1709884991 0.1587282046 -0.5350716776 0.1590522178 -0.5350800059 -0.025168896 0.1861124596
610296340.0 -0.0480214133 0.1712927278 0.1531263694 -0.53689359 0.1531654269 -0.536660674 -0.023414824 0.1868112691
615296310.0 -0.0462687918 0.1721048958 0.1466250206 -0.5379440163 0.1472414543 -0.5379359929 -0.0210453315 0.1870030947
620296280.0 -0.0445313463 0.172292321 0.1410284598 -0.5393581136 0.1413449414 -0.539780042 -0.01923028 0.1873134469
625296250.0 -0.0428404553 0.1730220616 0.1349060928 -0.541298762 0.1353359658 -0.5413179811 -0.0172050508 0.1879926503
630296220.0 -0.0409699 0.1737486741 0.1293166751 -0.5424146741 0.1297957798 -0.5427024228 -0.0153304731 0.188144856
635296190.0 -0.0396853065 0.174380576 0.1239391742 -0.5436271642 0.123681794 -0.5430634955 -0.0134692977 0.1882427858
640296160.0 -0.037754851 0.1746748571 0.1178193331 -0.5448108573 0.1177642451 -0.5453486293 -0.0107356181 0.1885153895
645296130.0 -0.0361845332 0.1753765523 0.1118507332 -0.5462983232 0.1120322338 -0.5462943585 -0.0097989338 0.1885800428
650296100.0 -0.0347649856 0.1761084939 0.1064997754 -0.5473580825 0.1063560407 -0.5473548655 -0.0072210015 0.189206048
655296070.0 -0.0330244246 0.1759705265 0.1002484722 -0.5484666466 0.0999357599 -0.5485043043 -0.0045741593 0.1895609537
660296040.0 -0.0314449196 0.177049991 0.0945141924 -0.5493781194 0.0945092744 -0.5493375998 -0.0030397888 0.1894325137
665296010.0 -0.0292286405 0.1770784923 0.0884809412 -0.5504393355 0.0888071481 -0.550322812 -0.0011127747 0.1900832059
670295980.0 -0.0272908693 0.177926993 0.0822249701 -0.5513955052 0.0828102095 -0.5512297126 0.0002411774 0.190034832
675295950.0 -0.0255796581 0.1781104782 0.0762913189 -0.5520784174 0.0769474171 -0.5528661855 0.0029437496 0.1903487536
680295920.0 -0.0240667007 0.1788138752 0.0704942112 -0.5527485504 0.0703173932 -0.5529988982 0.0053991625 0.1901258095
685295890.0 -0.0222959916 0.1789498123 0.0646309732 -0.5539344553 0.0642896562 -0.5538659095 0.0072526548 0.1903080922
690295860.0 -0.0201185542 0.1795014121 0.0585997349 -0.55365719 0.0582208534 -0.5544357969 0.009593193 0.1909163877
695295830.0 -0.0184867097 0.1795344386 0.0517940776 -0.5547042093 0.0521752723 -0.5547739196 0.0111660085 0.1907384757
700295800.0 -0.0169199661 0.1798042997 0.0459615284 -0.5557621677 0.0464337835 -0.5555862323 0.0134420378 0.1902161291
705295770.0 -0.0150032537 0.1801971527 0.0403406903 -0.5556062337 0.0408355946 -0.5556921628 0.0149869918 0.1905192474
710295740.0 -0.0135198699 0.1807200526 0.0346139808 -0.5557791302 0.0343907407 -0.5562382961 0.0170258879 0.1910163592
715295710.0 -0.0116888853 0.1809281786 0.0284971042 -0.5561065554 0.0287166919 -0.5566684615 0.01937686 0.1903071093
720295680.0 -0.0099153869 0.1811475848 0.0220715158 -0.55671233 0.0225005776 -0.5569482032 0.0216892383 0.1907373571
725295650.0 -0.0078503375 0.1815139773 0.0162699553 -0.5566398126 0.0164250946 -0.5567588838 0.0239211632 0.190554266
730295620.0 -0.0066604044 0.1814230759 0.0103830296 -0.5567335027 0.0101301372 -0.5570976908 0.0257599638 0.1900088441
735295590.0 -0.0041899252 0.1817750964 0.004719452 -0.5571275203 0.004526246 -0.5571579617 0.0279659895 0.1902240999
740295560.0 -0.0025623833 0.1822314846 -0.0016453027 -0.556718746 -0.0018147364 -0.556919567 0.03032645 0.1897845668
745295530.0 -0.000914817 0.1820078386 -0.007645679 -0.5567085982 -0.0075543652 -0.5570038857 0.0318304336 0.1896810139
750295500.0 0.0008453228 0.1822050478 -0.0133576474 -0.5565759031 -0.0138446001 -0.556551263 0.0342416925 0.1888479259
755295470.0 0.0033655456 0.182583877 -0.0197758135 -0.5564661093 -0.0195530608 -0.5567943903 0.0357304265 0.1893661297
760295440.0 0.0044515211 0.1826746122 -0.0257196737 -0.5560769318 -0.0257550813 -0.5565395165 0.0375166825 0.1890719889
765295410.0 0.0061490393 0.1825293504 -0.0313070283 -0.5554989199 -0.0313089992 -0.5564748182 0.0405760391 0.1889761265
770295380.0 0.0080930434 0.1829726316 -0.0375477855 -0.5550767238 -0.0375553886 -0.5554281241 0.0427776189 0.1885056978
775295350.0 0.0096151671 0.1831351999 -0.0432581358 -0.5547955693 -0.0432049829 -0.5550861402 0.043883554 0.1875001328
780295320.0 0.0120800151 0.1826271271 -0.0494471956 -0.5545623228 -0.0490237795 -0.5545137865 0.0465678683 0.1878815058
785295290.0 0.0135037675 0.1832205995 -0.0555860169 -0.5531616743 -0.0552722238 -0.5539664422 0.0479706654 0.187004178
790295260.0 0.0153592918 0.1832429991 -0.0613549794 -0.5534179938 -0.0616911457 -0.5537261981 0.0505916831 0.1867356818
795295230.0 0.0171378188 0.1830539469 -0.0670676195 -0.5521677125 -0.0671765082 -0.552480145 0.0526927975 0.1869886858
800295200.0 0.0191964868 0.1832306408 -0.0736364854 -0.5519614948 -0.0739950318 -0.5518521151 0.0544850881 0.186195806
805295170.0 0.0204991084 0.1832472944 -0.0794038546 -0.550484992 -0.0791588714 -0.5506184299 0.0563248109 0.185365905
810295140.0 0.0226797459 0.1828308966 -0.084983037 -0.5497117628 -0.0851386659 -0.5505216368 0.0587063415 0.1855807429
815295110.0 0.0243587323 0.1828969361 -0.091166531 -0.5485545697 -0.0913489543 -0.5487723566 0.0602882561 0.1842686549
820295080.0 0.02613969 0.1826271861 -0.0968109089 -0.5480396953 -0.0969908101 -0.5478650706 0.0623885372 0.1839071942
825295050.0 0.0281361615 0.1827890614 -0.1029002148 -0.5466892637 -0.1027895402 -0.5468879326 0.0645146439 0.1836863087
830295020.0 0.0298352178 0.1826893451 -0.1089341205 -0.5456237051 -0.1093117559 -0.5457633561 0.0665574913 0.1828401623
