!Created with skrf (http://scikit-rf.org).
# Hz S RI R 50.0 
!freq ReS11 ImS11 ReS21 ImS21 ReS12 ImS12 ReS22 ImS22
300000.0 -0.2388156381 -0.0955680533 0.4668908224 0.0645096707 0.4698993655 0.0668084074 -0.2380250254 -0.1076750702
5299970.0 -0.2437955077 0.0073628949 0.4734751725 0.0050438684 0.4738513467 0.0054050121 -0.2442883751 0.0059508508
10299940.0 -0.2404164523 0.0199043551 0.4759008492 0.0060604237 0.4761648786 0.0064886922 -0.241260553 0.0183520788
15299910.0 -0.2359905559 0.0294995805 0.4794414184 0.0077558255 0.4792028851 0.0082242636 -0.236950076 0.0274095554
20299880.0 -0.2306119515 0.0370132676 0.4840889078 0.008746396 0.4843530666 0.0083858464 -0.2321639078 0.0354919956
25299850.0 -0.2248269386 0.0434197907 0.4893585534 0.0072785398 0.4895065801 0.0074977368 -0.2269633589 0.0420131978
30299820.0 -0.21879545 0.0485085864 0.4953022075 0.0055131681 0.4946305545 0.0052902922 -0.2217249235 0.0471942684
35299790.0 -0.2132397122 0.0529360416 0.5004864842 0.0021984838 0.5005412194 0.0021039033 -0.2161672216 0.0508928338
40299760.0 -0.2075264371 0.0553720626 0.5055252199 -0.0013052963 0.5054437267 -0.0017177856 -0.2115926841 0.0546656275
45299730.0 -0.2026465825 0.0584720428 0.5100215683 -0.0065656689 0.5104180235 -0.006347499 -0.206917389 0.0572989505
50299700.0 -0.1976890788 0.0600812036 0.5138946781 -0.0121658166 0.5144594096 -0.0120399936 -0.202329853 0.0593526662
55299670.0 -0.1938108908 0.0616241406 0.5178718368 -0.0182163958 0.5185817541 -0.0178676656 -0.1983166037 0.0613601052
60299640.0 -0.1895296112 0.0625879227 0.521229585 -0.0244548996 0.5214530912 -0.0244231648 -0.1944818802 0.0630993026
65299610.0 -0.1862885604 0.0640087657 0.5245533211 -0.0301499943 0.524575622 -0.0304208898 -0.1913428981 0.0644662481
70299580.0 -0.1828549562 0.0643482891 0.5270170715 -0.0371027567 0.5268174547 -0.0372908857 -0.1881804226 0.0657232141
75299550.0 -0.1795506943 0.0651072999 0.528291498 -0.0439333733 0.5284342737 -0.044004844 -0.1855058626 0.0668581189
80299520.0 -0.1773384672 0.0658552686 0.530765877 -0.0509360685 0.531193387 -0.050696412 -0.1830623649 0.0672726729
85299490.0 -0.1747304139 0.0658940138 0.5318596575 -0.0577798008 0.5321033004 -0.0580195172 -0.1801692651 0.0684368945
90299460.0 -0.1725726725 0.0667251507 0.5329743739 -0.0650276191 0.5334872635 -0.0645385226 -0.1776695419 0.0692596961
95299430.0 -0.1705039367 0.0672426602 0.5343590697 -0.072184334 0.5342484392 -0.0718193981 -0.1759532266 0.0700546917
100299400.0 -0.1687497292 0.0679075574 0.534743062 -0.0786546142 0.5342222998 -0.0783625982 -0.1741799306 0.0706528764
105299370.0 -0.1669200583 0.0681815289 0.5345449075 -0.0852669676 0.5347551324 -0.0856580875 -0.1720686104 0.0716234793
110299340.0 -0.1656613541 0.0685609002 0.5346787189 -0.0922003302 0.5350904883 -0.092567106 -0.1710401957 0.0724901264
115299310.0 -0.164004843 0.0687385099 0.5349976079 -0.0989322917 0.5350677072 -0.0990662486 -0.1692349947 0.0731592535
120299280.0 -0.1628220715 0.0692467955 0.5344947311 -0.1058193584 0.5348165955 -0.1061222249 -0.167827336 0.074268459
125299250.0 -0.161896423 0.0698783675 0.5343683204 -0.112122734 0.5343655469 -0.1123980338 -0.1660829895 0.0747612871
130299220.0 -0.1605323231 0.0705369038 0.5336286404 -0.1189715763 0.5338433608 -0.1195964775 -0.1649880557 0.0758892677
135299190.0 -0.1593692416 0.0709167916 0.5328853139 -0.1256543266 0.5329177721 -0.1257327023 -0.1641200539 0.0770208476
140299160.0 -0.1585459357 0.0722989731 0.5326815755 -0.1327577972 0.5325099034 -0.1331048633 -0.1628194224 0.0779131883
145299130.0 -0.1575345588 0.0727304315 0.5317675366 -0.1394506401 0.531287098 -0.1389766159 -0.1622237382 0.0788203279
150299100.0 -0.1566819661 0.0736528161 0.5301841959 -0.1457488934 0.5302466267 -0.1457494261 -0.1608802021 0.0798538633
155299070.0 -0.1558354871 0.0748372192 0.5290025708 -0.1526624961 0.5292240177 -0.1524256649 -0.1602067207 0.0807686176
160299040.0 -0.1550325309 0.0755178115 0.5278678659 -0.1579820123 0.5276799743 -0.1587392031 -0.158907268 0.082542538
165299010.0 -0.1544196805 0.0761106266 0.5266540176 -0.1654236382 0.526722078 -0.1651793048 -0.1579843896 0.0832490247
170298980.0 -0.1537216014 0.0772437391 0.5242302471 -0.1714305735 0.5246709958 -0.1718678482 -0.156826836 0.0848307821
175298950.0 -0.1525013441 0.0782695112 0.5237677839 -0.1777077474 0.5235889781 -0.1778626404 -0.1560260875 0.085648363
180298920.0 -0.1517234293 0.0790822999 0.5214632988 -0.1844377915 0.5219422093 -0.1838674072 -0.1549386952 0.0870656459
185298890.0 -0.150942071 0.0801243497 0.5192782651 -0.1903607827 0.5198188339 -0.1902638423 -0.1543282776 0.0878622852
190298860.0 -0.1501189689 0.0813836509 0.5176600005 -0.1966843356 0.5175676458 -0.1968009585 -0.1524580653 0.0893291227
195298830.0 -0.149443544 0.0819210025 0.5156025384 -0.2020095717 0.5159540787 -0.2029157714 -0.1520502287 0.0906852505
200298800.0 -0.1491650984 0.0834266739 0.5140394557 -0.2084159736 0.513718396 -0.208707966 -0.1508524661 0.092315664
205298770.0 -0.1482274488 0.0845874227 0.5118066563 -0.2143118426 0.5114682454 -0.2149739211 -0.1502604798 0.09301793
210298740.0 -0.1474842661 0.0854907808 0.5092410149 -0.2212013438 0.5094594706 -0.2214401124 -0.1491313759 0.0949257946
215298710.0 -0.1465782673 0.0868712338 0.5067803183 -0.2265684882 0.5069855292 -0.2266845277 -0.1483919523 0.0959638114
220298680.0 -0.1459208065 0.0879808684 0.5044671166 -0.2327764638 0.5046592854 -0.2329013218 -0.1470746938 0.0979088285
225298650.0 -0.1453672124 0.0893555373 0.5017942563 -0.2383118895 0.5018942577 -0.238334136 -0.1464756652 0.0991870056
230298620.0 -0.1446290573 0.0905607419 0.4998724458 -0.2442932075 0.4999551849 -0.2443523187 -0.1451920957 0.1004019037
235298590.0 -0.1437518203 0.0917061068 0.4971652772 -0.2499979364 0.49707124 -0.2504356601 -0.1440435395 0.1016094045
240298560.0 -0.1431715852 0.0929124344 0.4943798681 -0.2554945712 0.4946132457 -0.255391014 -0.1431797695 0.1032445098
245298530.0 -0.1419035997 0.0943915053 0.4905545873 -0.2616392469 0.4912320836 -0.2616761844 -0.1421003647 0.1048838024
250298500.0 -0.1415007531 0.0951382459 0.4884887031 -0.2662253135 0.4889925137 -0.266773094 -0.140572618 0.1062345515
255298470.0 -0.1408825028 0.0968465837 0.4854374177 -0.2730826163 0.4858288114 -0.2727347746 -0.1395922991 0.1076556696
260298440.0 -0.1398887938 0.0979287968 0.4828321097 -0.2778466661 0.482731727 -0.2785230844 -0.1383790068 0.1090297051
265298410.0 -0.1388575895 0.0997206566 0.4794811542 -0.2842577098 0.479342453 -0.2837820072 -0.1373590336 0.1101610137
270298380.0 -0.1377999181 0.1006727746 0.4760412224 -0.2891180513 0.476762036 -0.2893672609 -0.1360747499 0.112108127
275298350.0 -0.1374026861 0.101997282 0.4734376203 -0.2953309209 0.4736452028 -0.2948752239 -0.1348429621 0.1134096338
280298320.0 -0.136197331 0.1033465764 0.469923762 -0.2998341866 0.4700751239 -0.3001222196 -0.1337605934 0.1149931752
285298290.0 -0.1353452074 0.1047691958 0.466962879 -0.3052034936 0.4669296923 -0.3052734714 -0.1326438356 0.1162251366
290298260.0 -0.134247892 0.1058648096 0.4637606766 -0.3108659349 0.4637167729 -0.3110864497 -0.1306471323 0.1178184107
295298230.0 -0.1334089333 0.1073133528 0.4605981654 -0.3160530663 0.4601678094 -0.3158885285 -0.1294859818 0.1193256931
300298200.0 -0.1320727272 0.1085620207 0.4565644206 -0.3211351967 0.4570587446 -0.3212682553 -0.1286783883 0.1209729845
305298170.0 -0.1312837925 0.1095961034 0.4536370581 -0.3267569502 0.4539940999 -0.3267505568 -0.1269003596 0.1224573732
310298140.0 -0.1299049553 0.1106316516 0.4500597556 -0.3318900517 0.4500527489 -0.3321848012 -0.1256782804 0.1241719753
315298110.0 -0.1291419471 0.111956798 0.4459660739 -0.3367469754 0.4462440882 -0.3370501999 -0.123850025 0.1251293589
320298080.0 -0.1282659198 0.1133735601 0.4425833397 -0.342640597 0.4426365903 -0.342378902 -0.1228964436 0.1260139093
325298050.0 -0.1274050438 0.1137711255 0.4390662066 -0.3471163841 0.4386040234 -0.3473404914 -0.1216306382 0.1276178967
330298020.0 -0.126559428 0.1154510389 0.4341417803 -0.3519993632 0.4343225357 -0.3523947114 -0.1203240863 0.1286922154
335297990.0 -0.1252767189 0.1165286224 0.4301638733 -0.3570877554 0.4305832689 -0.3573596442 -0.1191871961 0.1303234543
340297960.0 -0.1247457778 0.1181687798 0.4260185905 -0.3621298203 0.426675846 -0.3617704793 -0.1179155923 0.1319391328
345297930.0 -0.1238944494 0.1193470576 0.4223369883 -0.3660439154 0.4218703632 -0.3660418767 -0.116283825 0.1330606613
350297900.0 -0.1224197105 0.1210480019 0.4181243377 -0.3710654149 0.418869293 -0.3710952473 -0.1151983581 0.1350379158
355297870.0 -0.1215210597 0.1221154817 0.4137434147 -0.3755820605 0.4135557469 -0.3758133484 -0.1137395328 0.1364465397
360297840.0 -0.1203541794 0.1234428569 0.4098514062 -0.3804302784 0.4095732486 -0.3806313336 -0.1121057214 0.1379963194
365297810.0 -0.1190287513 0.12490096 0.4055488309 -0.3848852519 0.4054218964 -0.3847715412 -0.1107641935 0.139504974
370297780.0 -0.1177446799 0.1257916743 0.4008505774 -0.3890501579 0.4012146675 -0.3895153281 -0.1091969174 0.1407976808
375297750.0 -0.1170510411 0.1275288786 0.3974737388 -0.3935166951 0.3969378662 -0.3938227295 -0.1075437974 0.1422811493
380297720.0 -0.1154030482 0.1283156565 0.3925180326 -0.3979218668 0.3926683051 -0.3977972164 -0.1059983283 0.1438837365
385297690.0 -0.1142239476 0.130030879 0.3878542856 -0.402014667 0.3879841651 -0.4022790449 -0.104635956 0.1452117418
390297660.0 -0.1131133752 0.1312026451 0.38350899 -0.4068079278 0.3839359655 -0.4068027708 -0.1031938107 0.1460943272
395297630.0 -0.111909707 0.1322032541 0.3795786863 -0.4103719023 0.3792633813 -0.4107683324 -0.1015869731 0.1479000165
400297600.0 -0.110816182 0.1335454829 0.3749023484 -0.4147335826 0.3752849535 -0.4148336046 -0.1003947731 0.149074608
405297570.0 -0.1093559756 0.134625683 0.3704177548 -0.4187796632 0.3704537958 -0.4191747117 -0.0984121579 0.150507956
410297540.0 -0.1081464859 0.1358473075 0.3651329511 -0.4227908718 0.3654490412 -0.4229149071 -0.0969391581 0.1519455132
415297510.0 -0.1068061977 0.1371888797 0.3610074126 -0.4267472953 0.3606211359 -0.4269427976 -0.0953723399 0.153291645
420297480.0 -0.1053301427 0.1379407726 0.3560370284 -0.4308453612 0.3565230497 -0.4309088899 -0.0934706417 0.1539124579
425297450.0 -0.1037489859 0.1390866695 0.3514955555 -0.4345009521 0.351796614 -0.435006673 -0.0915458304 0.1559043817
430297420.0 -0.1028557524 0.1404918576 0.3466572165 -0.4389500869 0.3469590588 -0.4389062291 -0.090416709 0.1568741489
435297390.0 -0.1011698337 0.1414870303 0.3418177847 -0.4420448713 0.3421691684 -0.4422808711 -0.0884630347 0.1581190752
440297360.0 -0.0999360403 0.1425676116 0.3368541107 -0.4459754342 0.336517409 -0.4456848324 -0.0868724048 0.1588578737
445297330.0 -0.0983668245 0.14389979 0.33177394 -0.450178011 0.3318454809 -0.4498450931 -0.0851107544 0.1600721615
450297300.0 -0.0968217328 0.1446448635 0.3267806075 -0.4532584029 0.3271412647 -0.4534863448 -0.0835966059 0.1616498951
455297270.0 -0.0955119716 0.1458295347 0.3222808872 -0.4569967807 0.3223374065 -0.4562976931 -0.0812653199 0.162690152
460297240.0 -0.0944586718 0.146840849 0.3168369881 -0.4598908883 0.3168420818 -0.460532204 -0.0797399252 0.1641374894
465297210.0 -0.0925423175 0.1482478783 0.3119450711 -0.4639519432 0.3125722813 -0.4637092488 -0.0786807788 0.1644857645
470297180.0 -0.0913788656 0.1486914697 0.3071109006 -0.4667344921 0.307406154 -0.4669186475 -0.0769080392 0.1659523645
475297150.0 -0.0902933993 0.1495754086 0.3020827831 -0.4696587415 0.301947196 -0.4699562202 -0.0745794859 0.1671866759
480297120.0 -0.0885114125 0.1503550522 0.2969085926 -0.4730620613 0.2970604537 -0.4734043646 -0.0730587184 0.1685517385
485297090.0 -0.0870555379 0.151686512 0.2918038829 -0.4767459444 0.2918240601 -0.4768575185 -0.0715038006 0.1691413379
490297060.0 -0.0851743809 0.1525696186 0.2866358695 -0.4797928394 0.286637458 -0.4798033344 -0.0693682528 0.1702856122
495297030.0 -0.084394237 0.1537089391 0.2812370879 -0.4825623049 0.2804932374 -0.4830934235 -0.0672474143 0.1706784052
500297000.0 -0.082358187 0.1545141821 0.2757122038 -0.4858727769 0.2756718228 -0.4858464235 -0.0658848076 0.1718338618
505296970.0 -0.0811950436 0.1551300691 0.2703604304 -0.4883822125 0.2701980408 -0.4886996832 -0.0642822077 0.1728835723
510296940.0 -0.0795166246 0.1563035696 0.2649624961 -0.4918114303 0.2652249145 -0.4918884569 -0.0619406822 0.1740512644
515296910.0 -0.0782832924 0.1574682441 0.259181102 -0.4940999941 0.2598486168 -0.494403702 -0.060398099 0.1744359693
520296880.0 -0.0766181903 0.1579635116 0.2542869857 -0.4968954274 0.2544481632 -0.4973826607 -0.058286694 0.1754908559
525296850.0 -0.0749637641 0.1588226054 0.2489167479 -0.499224673 0.249001688 -0.5001764525 -0.0561351697 0.1766177331
530296820.0 -0.0733711204 0.1596695852 0.2436007639 -0.5018179721 0.2432808575 -0.5023870113 -0.0547181164 0.1767514221
535296790.0 -0.0721117675 0.1604769968 0.2379247118 -0.5047736824 0.2379906685 -0.5047971147 -0.0528372881 0.1775771443
540296760.0 -0.0705453166 0.1610622626 0.2323308246 -0.5080944886 0.2321024448 -0.5079721203 -0.0512898499 0.1786028671
545296730.0 -0.0687942078 0.1623572142 0.2266253047 -0.5098998623 0.2269771599 -0.5103976624 -0.0488179183 0.1790238424
550296700.0 -0.0674316262 0.1629307402 0.2213194198 -0.5124806173 0.2219605825 -0.5127883006 -0.0471713 0.1802624685
555296670.0 -0.0654212979 0.1635700966 0.2157200306 -0.5151866995 0.2161325141 -0.5148487166 -0.0454961718 0.1808018543
560296640.0 -0.0640985824 0.1645392707 0.2102198229 -0.5170591206 0.2101801631 -0.5168939698 -0.0433235667 0.1814882512
565296610.0 -0.0628070696 0.1650839872 0.2046066889 -0.5195725402 0.2043736061 -0.5193954085 -0.0414653861 0.1821276734
570296580.0 -0.0606219447 0.1658429148 0.1989080433 -0.5214786267 0.1995418072 -0.5219547343 -0.0393521478 0.1831343562
575296550.0 -0.0592296348 0.1669868141 0.1928630725 -0.5232293227 0.193339359 -0.5235238405 -0.0370928305 0.1833329896
580296520.0 -0.0576135299 0.1674929467 0.1876510561 -0.5253696553 0.1878524342 -0.5259919944 -0.0353300219 0.1837077477
585296490.0 -0.0558717659 0.167863608 0.1823390013 -0.5280168594 0.1816880322 -0.5274259939 -0.0335029549 0.1841669756
590296460.0 -0.0548579924 0.1686192592 0.1761820648 -0.5297796666 0.1762206947 -0.5297644443 -0.031271117 0.1851151919
595296430.0 -0.0528503769 0.1692648602 0.1704222434 -0.5310172679 0.1703892516 -0.5316702341 -0.0292470853 0.1851253231
600296400.0 -0.0511877201 0.1702096226 0.1648593737 -0.5331807343 0.1651874743 -0.5332830169 -0.02745109 0.1859222461
605296370.0 -0.0494654683 0.1708130793 0.1592739855 -0.5349525014 0.1589075317 -0.5348402914 -0.0253515689 0.1863453277
610296340.0 -0.0481629255 0.1713352167 0.1536142475 -0.5362961133 0.1536041397 -0.5367009478 -0.0234610877 0.1873296984
615296310.0 -0.046263982 0.1722036998 0.1472482323 -0.5378014217 0.1474539315 -0.5382690901 -0.0213117534 0.1872181416
620296280.0 -0.0446830215 0.1721794436 0.1418234862 -0.5395049689 0.1417499894 -0.5399184968 -0.0196642122 0.1874624917
625296250.0 -0.0426800731 0.1729962121 0.1350998816 -0.5413500247 0.1356465308 -0.5415642826 -0.0171502185 0.188210806
630296220.0 -0.0411530015 0.1735902263 0.1293987437 -0.5427433401 0.1299400978 -0.5428939223 -0.0155390888 0.1882617434
635296190.0 -0.0395150694 0.1743686374 0.1237186338 -0.543449076 0.1238388226 -0.5436893259 -0.0133673626 0.1884343019
640296160.0 -0.0378077635 0.1746192879 0.1179850781 -0.5446615146 0.1180578484 -0.5450889503 -0.0110275995 0.188741711
645296130.0 -0.0360896681 0.1754718627 0.1121637042 -0.5463559887 0.1121164417 -0.5464500771 -0.0096422242 0.1886890137
650296100.0 -0.034485809 0.1764035314 0.1064550933 -0.5474256877 0.1063221407 -0.5473279269 -0.0073298315 0.189333521
655296070.0 -0.0328459822 0.1762851503 0.1003960096 -0.5482374016 0.1003928759 -0.5485355475 -0.0047724961 0.1896186931
660296040.0 -0.0316433044 0.1770279816 0.0948456791 -0.5494848175 0.0946266575 -0.5494976676 -0.0030564809 0.1893042277
665296010.0 -0.0293047333 0.1771883554 0.0884831011 -0.5503401939 0.088815424 -0.5503890628 -0.0011371061 0.1898390874
670295980.0 -0.0276156475 0.1777391848 0.0827001662 -0.5513856007 0.0830787979 -0.5514498188 0.0006711416 0.1898932907
675295950.0 -0.0256235313 0.1779982361 0.0764328214 -0.5524531629 0.0770328525 -0.5526900487 0.0031476365 0.1903483712
680295920.0 -0.0241034054 0.1787632735 0.0705827206 -0.5531591842 0.0704837308 -0.5527724907 0.0052867465 0.1901304918
685295890.0 -0.0225604355 0.1788720673 0.064704505 -0.5535016123 0.0645321347 -0.5539347814 0.0071626662 0.1905240788
690295860.0 -0.0203171117 0.1792582176 0.0589281736 -0.5537290105 0.0587072568 -0.5542573143 0.0092083854 0.1904983223
695295830.0 -0.0183811582 0.1795306663 0.0518242435 -0.5548281609 0.0525171247 -0.555037267 0.0113547942 0.1908053331
700295800.0 -0.0166080305 0.1799123899 0.046019129 -0.5553510235 0.0466869992 -0.5555845388 0.0133919859 0.1903114603
705295770.0 -0.0148112391 0.1805347511 0.0406270767 -0.5556263204 0.0409762774 -0.5558404688 0.0154354411 0.190559531
710295740.0 -0.0133201833 0.1809779868 0.0348683139 -0.5558405617 0.0347138307 -0.5560936958 0.0167591763 0.190816609
715295710.0 -0.0116984335 0.181057135 0.0285205057 -0.5565961141 0.0291917928 -0.556254908 0.0195869957 0.190073943
720295680.0 -0.0098797859 0.1807214416 0.0223700272 -0.556302392 0.022910393 -0.5572796077 0.0217204694 0.1907208991
725295650.0 -0.0077320082 0.1815920861 0.0162349181 -0.5569058268 0.0162287802 -0.55687133 0.023949092 0.1906527577
730295620.0 -0.0064511329 0.1814971625 0.0104432342 -0.5569885616 0.0103062431 -0.5570619611 0.0260568504 0.1898134777
735295590.0 -0.004259774 0.1816325958 0.0046164999 -0.5568302794 0.0045549224 -0.5573788296 0.0281090023 0.1900548625
740295560.0 -0.0027804435 0.1823250592 -0.0014755027 -0.5566743677 -0.0011061178 -0.5571632616 0.0302229943 0.1898282787
745295530.0 -0.0010630821 0.1818508377 -0.007670168 -0.5564669698 -0.0073629366 -0.5571734689 0.0318229114 0.1897187618
750295500.0 0.0008496288 0.1822119262 -0.0134482323 -0.5564562315 -0.0132533043 -0.5565822047 0.0343006039 0.1893055366
755295470.0 0.0031704019 0.1827016344 -0.0195381621 -0.5564299772 -0.0193126773 -0.5566658524 0.0359816548 0.189504768
760295440.0 0.0043738264 0.1828250431 -0.0256950171 -0.556379055 -0.0253752353 -0.5565303131 0.0377078871 0.1888913263
765295410.0 0.0061126576 0.1824435334 -0.0309167417 -0.5557076473 -0.0311284427 -0.5564063398 0.0407835973 0.1891269447
770295380.0 0.0083181188 0.183069787 -0.0374884404 -0.5549307494 -0.0371386626 -0.5555345036 0.0428887976 0.1886340512
775295350.0 0.0100907422 0.1830566192 -0.0431002021 -0.5546146284 -0.0431690257 -0.55530061 0.0441213563 0.1879364658
780295320.0 0.0119287138 0.1826687967 -0.048814324 -0.5543500253 -0.0490782478 -0.5547558072 0.0464131862 0.1880101197
785295290.0 0.0133524783 0.1832051448 -0.0549945514 -0.5533578489 -0.0552183643 -0.5540115657 0.0481787726 0.1873696243
790295260.0 0.0152609258 0.1830109904 -0.0611083729 -0.553440036 -0.0611954715 -0.5535192383 0.0508083818 0.1871250545
795295230.0 0.0171134867 0.1832804427 -0.0669517483 -0.5520705894 -0.0665258277 -0.5525832523 0.0526784683 0.1871713412
800295200.0 0.0190961944 0.1832473644 -0.073033122 -0.5517946818 -0.0733761229 -0.5522308573 0.0546852319 0.1862907972
805295170.0 0.0205704308 0.1831175533 -0.0792095025 -0.5507796594 -0.0789017487 -0.5508314941 0.0566472894 0.1856746842
810295140.0 0.0225509802 0.1829773783 -0.0846666253 -0.5498361734 -0.0847962387 -0.5506327959 0.0587747624 0.1858703054
815295110.0 0.0241196274 0.1832629357 -0.0907189446 -0.5490671677 -0.090896214 -0.5493145976 0.0604403307 0.1848170256
820295080.0 0.026058281 0.1825487555 -0.0965375955 -0.5478106036 -0.0966374436 -0.5482553089 0.0625294992 0.184644334
825295050.0 0.0281217142 0.1825197583 -0.1028053333 -0.5463570271 -0.1026232807 -0.5469199736 0.0647256948 0.1840297707
830295020.0 0.029777961 0.1829020459 -0.1085694701 -0.5457864765 -0.1089674549 -0.5456019698 0.0663994589 0.1833384095
