!Created with skrf (http://scikit-rf.org).
# Hz S RI R 50.0 
!freq ReS11 ImS11 ReS21 ImS21 ReS12 ImS12 ReS22 ImS22
300000.0 -0.0998926566 -0.0621954947 0.6306048428 0.0578747571 0.6239292181 0.0584055299 -0.1030266613 -0.0681144756
5299970.0 -0.1022184601 0.013284548 0.630226735 0.0099507045 0.6306501772 0.0102322642 -0.1010817774 0.0131553385
10299940.0 -0.0973281782 0.029395611 0.6339613001 0.0150173021 0.633886229 0.0157439529 -0.0963595106 0.0303754903
15299910.0 -0.0899872068 0.0427202559 0.6408066462 0.0204483286 0.64076157 0.0203937868 -0.0889312051 0.0433943532
20299880.0 -0.0816615765 0.0529981968 0.648319807 0.0246775632 0.6485986946 0.0242337003 -0.0804260484 0.0542446196
25299850.0 -0.0724782323 0.0623906346 0.6577440994 0.025037043 0.6577693334 0.0256391747 -0.0701460713 0.0629515179
30299820.0 -0.0621755611 0.0689004275 0.6673833559 0.0244523779 0.6673750498 0.0247510522 -0.0601287521 0.0699863587
35299790.0 -0.0528131127 0.0735744201 0.6771658617 0.0213724004 0.6769693413 0.0219470197 -0.0503525443 0.0746319004
40299760.0 -0.0433741228 0.0774233313 0.686467126 0.0173144183 0.6866359769 0.017796544 -0.0403651345 0.0771451319
45299730.0 -0.0341337844 0.079388426 0.6951640513 0.012247117 0.6953556473 0.0120570148 -0.0313094554 0.0794049502
50299700.0 -0.0258179389 0.080135513 0.703410507 0.0051802143 0.7034975189 0.0055191415 -0.0227078726 0.0803731157
55299670.0 -0.0177493244 0.0805245469 0.7109432393 -0.0035312716 0.7107896509 -0.0022451742 -0.0148490967 0.0806161976
60299640.0 -0.0099720128 0.0800493739 0.7173214972 -0.0114702808 0.717558256 -0.0103943385 -0.0075448769 0.0792668844
65299610.0 -0.0037756286 0.0788723343 0.7236525596 -0.0198311346 0.7237572426 -0.0196558355 -0.0012117315 0.0783280866
70299580.0 0.0027213519 0.0775629167 0.7288469607 -0.0294606382 0.7284320986 -0.0288728263 0.0048694111 0.076588429
75299550.0 0.0080896958 0.0758074572 0.7327358529 -0.0390888533 0.7331314218 -0.0390543865 0.0103234041 0.0751181901
80299520.0 0.0131290906 0.0735804056 0.7373954689 -0.048415909 0.7374509675 -0.0486063356 0.0156265597 0.0725318317
85299490.0 0.0177666845 0.0714841586 0.7402130276 -0.0580392644 0.7408284129 -0.0579098413 0.0197789677 0.0698152576
90299460.0 0.021832327 0.0689997171 0.7426566347 -0.0690070369 0.7434401481 -0.068728743 0.0238243705 0.0681931943
95299430.0 0.0260500506 0.0666309284 0.7457008977 -0.0786284122 0.7456925039 -0.0790136555 0.0278289493 0.0654525796
100299400.0 0.0292524426 0.064742116 0.7465692841 -0.0884744532 0.7471224978 -0.0889488861 0.031252811 0.0628275348
105299370.0 0.032448002 0.0619159377 0.7489881032 -0.0990759193 0.7492728804 -0.098998227 0.0343706914 0.0611996956
110299340.0 0.0351605129 0.0596124761 0.7503621128 -0.1088844463 0.7498736727 -0.1086529214 0.0363329158 0.058167807
115299310.0 0.0376716608 0.0572441777 0.7508515747 -0.1194227396 0.7511887995 -0.1188158588 0.0392718502 0.0558553202
120299280.0 0.0399930266 0.054481945 0.7512943109 -0.1297640875 0.7517377609 -0.1290107595 0.0416927147 0.0535392106
125299250.0 0.0421530668 0.052262015 0.7513000066 -0.1390238922 0.7513489246 -0.1386636971 0.0428586228 0.0508290127
130299220.0 0.0435821781 0.0501769528 0.751073125 -0.1492052454 0.7515792087 -0.1488027367 0.0448470725 0.0487160953
135299190.0 0.0453292995 0.0482652301 0.751422278 -0.1588004393 0.7510292351 -0.1584327431 0.0465713979 0.0465963443
140299160.0 0.0466448158 0.0461498781 0.751052691 -0.1685553904 0.7507175513 -0.1686111628 0.0476751642 0.0450325811
145299130.0 0.0480258143 0.0436798468 0.7500712569 -0.1784101536 0.7497778903 -0.1777640803 0.0492318526 0.0425222881
150299100.0 0.0497146191 0.0420888369 0.7485765966 -0.1873191237 0.748843412 -0.1867937128 0.0505580366 0.0406026559
155299070.0 0.0500896189 0.0398314074 0.748377295 -0.1981692636 0.7475577244 -0.1979187611 0.0513682045 0.0387590298
160299040.0 0.0515817965 0.0382241483 0.7465431578 -0.2070130778 0.7463539914 -0.2071052374 0.0520545833 0.0368046393
165299010.0 0.0522794724 0.0365182893 0.7446632512 -0.2167253248 0.7452794856 -0.2168189969 0.053219674 0.0352953751
170298980.0 0.0530870932 0.0340117664 0.7429772984 -0.2262159482 0.7433083279 -0.2260465024 0.0537931571 0.0330592987
175298950.0 0.0534453002 0.032315216 0.7415066068 -0.2350648461 0.7411818002 -0.2351167856 0.0545082665 0.0315409811
180298920.0 0.0542123272 0.0306996996 0.7391980606 -0.2446634653 0.7388560262 -0.2443236896 0.0554636422 0.0298732704
185298890.0 0.0553928929 0.029053031 0.7366494729 -0.2530528869 0.7366978938 -0.2535886244 0.0557198359 0.0284682635
190298860.0 0.0552322533 0.0274132348 0.7342923465 -0.2629537787 0.7349981646 -0.2625718958 0.0560653698 0.0262188833
195298830.0 0.0560975215 0.0256980182 0.732167256 -0.2717322543 0.7325329244 -0.2709700964 0.0568906626 0.0250685486
200298800.0 0.0564305875 0.0241142986 0.7287762043 -0.2809890204 0.7294293578 -0.2811745851 0.0566585704 0.0234924382
205298770.0 0.0570845124 0.0228329599 0.7256151564 -0.2899494151 0.7264614252 -0.2896149686 0.0572420844 0.0209428264
210298740.0 0.0570537757 0.0211330071 0.7237361059 -0.2977491103 0.7229670325 -0.2977628134 0.0579055075 0.0211028612
215298710.0 0.0568640749 0.0198343756 0.7206759187 -0.3077676349 0.7203298124 -0.3071985865 0.0576434497 0.019436397
220298680.0 0.0576837324 0.0178698531 0.7168775298 -0.3156007893 0.7171073084 -0.31572371 0.0576917694 0.0180684663
225298650.0 0.0578571516 0.0169280013 0.7138006153 -0.3246496047 0.7138135593 -0.3242699629 0.0574776625 0.0162901206
230298620.0 0.0579205087 0.0159015965 0.7108198299 -0.3328427289 0.7113003061 -0.3328842499 0.0576175298 0.0146080027
235298590.0 0.0578790355 0.0147257327 0.7069550524 -0.3412898268 0.7071109292 -0.340196424 0.0578949514 0.0136551664
240298560.0 0.0581387219 0.0134422517 0.7037638169 -0.3498276095 0.7035093458 -0.3492856782 0.0579289903 0.0129644337
245298530.0 0.0583182711 0.0119677781 0.7002342867 -0.3581445697 0.7001310968 -0.3579276544 0.058755727 0.0109143306
250298500.0 0.0587193668 0.0108697479 0.6956985473 -0.3668491352 0.6957346954 -0.3656813888 0.0583284241 0.0104049113
255298470.0 0.0585522032 0.0094390443 0.6913661702 -0.3738455774 0.6922338668 -0.3737420064 0.0584327895 0.0088781576
260298440.0 0.0581339312 0.0080357265 0.6878329699 -0.3830205894 0.6886919577 -0.3820121848 0.0587820191 0.0079314711
265298410.0 0.0589803205 0.0076424046 0.6840921874 -0.3906840237 0.684322648 -0.3905922138 0.0585704411 0.006974726
270298380.0 0.0587168426 0.0060716673 0.6796839289 -0.3981098297 0.6799029136 -0.3979434213 0.0584456777 0.005569491
275298350.0 0.0591024305 0.0052044528 0.6759053642 -0.4070200866 0.6759175306 -0.406467797 0.0586820893 0.0046935888
280298320.0 0.0586845574 0.004644933 0.6716191416 -0.4139961918 0.6713647847 -0.4139847776 0.0587442145 0.0036993817
285298290.0 0.0588715478 0.0031474358 0.6670108487 -0.4221256119 0.6668600022 -0.422057743 0.0587761636 0.0025698854
290298260.0 0.0591237573 0.0018930258 0.6620043063 -0.4293142453 0.6626682058 -0.4299097126 0.0587777862 0.0019152964
295298230.0 0.0589807611 0.0007517493 0.6582101283 -0.4374672531 0.6578510392 -0.4374862088 0.0592935772 0.000651532
300298200.0 0.0584754782 -0.0001662967 0.6533321558 -0.4450871846 0.653406347 -0.445387848 0.0588317944 -0.0001414697
305298170.0 0.058749359 -0.0013984183 0.6481993079 -0.4534139278 0.6483015711 -0.4525091197 0.0594821418 -0.0016621306
310298140.0 0.0582962195 -0.0024657018 0.643642632 -0.4607573316 0.6437600866 -0.4606511232 0.059219871 -0.0025298941
315298110.0 0.0585775229 -0.0040291755 0.6384084298 -0.4684028309 0.638620309 -0.4684785625 0.0589168089 -0.0038095035
320298080.0 0.0584096569 -0.0046488551 0.632105012 -0.4759245805 0.6332971789 -0.4757439715 0.0586103856 -0.0047008749
325298050.0 0.0578976261 -0.0057240276 0.6274059444 -0.4832896152 0.6277717177 -0.4834062698 0.0579136869 -0.0058323539
330298020.0 0.0573414069 -0.0070213903 0.6216080936 -0.490792426 0.6221282513 -0.4907148995 0.0571867292 -0.0071977301
335297990.0 0.0570415245 -0.0084486509 0.6158097 -0.497116372 0.6160107944 -0.4977372619 0.0562700432 -0.0073881944
340297960.0 0.0560278731 -0.0086475588 0.6106500522 -0.5046025052 0.609703355 -0.5043302635 0.0565718004 -0.0084496341
345297930.0 0.0557446385 -0.0087906616 0.6043927304 -0.5117020219 0.6042362319 -0.511515554 0.0561842113 -0.0096424937
350297900.0 0.0552866819 -0.0106792922 0.5984410074 -0.5189738686 0.598485541 -0.5182697424 0.05518587 -0.0097598185
355297870.0 0.0550132185 -0.0104008347 0.5925870476 -0.5245006105 0.5934290995 -0.5245564712 0.0549952935 -0.010452205
360297840.0 0.0548354384 -0.0112614349 0.5878104102 -0.5316846281 0.5877825434 -0.5312449866 0.054733622 -0.0112380583
365297810.0 0.0543063597 -0.0117872833 0.5811237571 -0.5380903263 0.5818020459 -0.5381505721 0.0544123451 -0.0118132759
370297780.0 0.0544367734 -0.0128923107 0.5752267754 -0.5444713565 0.5756270772 -0.5441950158 0.0540867132 -0.0124123065
375297750.0 0.0540555351 -0.013424169 0.5689135403 -0.550743056 0.5701540469 -0.5507294001 0.054097627 -0.0130549019
380297720.0 0.0538647786 -0.0140263253 0.5634454578 -0.5575236697 0.5633532636 -0.5569078282 0.0532297324 -0.0139636899
385297690.0 0.0529752169 -0.0150029838 0.5566276086 -0.563558868 0.5569560973 -0.5630656315 0.0533980684 -0.0144068526
390297660.0 0.052798989 -0.0154726493 0.5503007928 -0.5701043836 0.5506413528 -0.569452578 0.0528466402 -0.0154427638
395297630.0 0.0524052588 -0.0159346189 0.5448766494 -0.5760746656 0.5445983172 -0.5757593103 0.0533620476 -0.0158678719
400297600.0 0.0520438443 -0.0165882897 0.5375093899 -0.5826568179 0.5383389064 -0.5823176156 0.0524843512 -0.0164590843
405297570.0 0.0514950501 -0.0172943507 0.5317811601 -0.5877115967 0.5315667386 -0.5877462881 0.051940917 -0.0169901601
410297540.0 0.0516135304 -0.018083103 0.5257165395 -0.5941378556 0.5258688321 -0.5938248332 0.0514502505 -0.0175714956
415297510.0 0.0513273448 -0.0185645761 0.5184611568 -0.6000285515 0.5190181595 -0.5997410718 0.0515809643 -0.0180983633
420297480.0 0.0512261503 -0.0191635622 0.5117840721 -0.6061889455 0.5119428122 -0.6058067991 0.0508243632 -0.0191151138
425297450.0 0.0502652704 -0.0203682128 0.5055646663 -0.6109978062 0.5053997754 -0.6111785824 0.0499498558 -0.0189533961
430297420.0 0.0498346604 -0.0206586018 0.4982804796 -0.6160113088 0.4981778349 -0.6162191841 0.0502919856 -0.020047525
435297390.0 0.0493630149 -0.0214050886 0.4913705017 -0.6221317779 0.4913095253 -0.6217700592 0.050576068 -0.0205879505
440297360.0 0.0494544629 -0.0217102297 0.4847424802 -0.6277458769 0.4850541511 -0.6275434119 0.0492984917 -0.0214353862
445297330.0 0.0486930482 -0.0228847222 0.4780577788 -0.6331527871 0.4779996149 -0.6326786528 0.0492809347 -0.0224680875
450297300.0 0.0487842217 -0.0230664282 0.4707958504 -0.638079185 0.4711460537 -0.6384754891 0.048745607 -0.0228197554
455297270.0 0.0483365132 -0.0235244868 0.4634445962 -0.6434519935 0.4645243922 -0.6434574166 0.0483882862 -0.0228073484
460297240.0 0.0479341164 -0.0239286772 0.4565377933 -0.6482355023 0.4567621694 -0.6484817937 0.0479327007 -0.023342798
465297210.0 0.0477845024 -0.0244966256 0.4499119746 -0.6540131953 0.4497100665 -0.6543418814 0.0477889308 -0.0244820753
470297180.0 0.0472581425 -0.0255905099 0.4420598638 -0.6590504217 0.4430550215 -0.6587975849 0.0476183081 -0.0245135934
475297150.0 0.0467685594 -0.026199205 0.4351231305 -0.6630428098 0.4355549642 -0.6627742456 0.0473410021 -0.0252737095
480297120.0 0.0460725691 -0.0259483976 0.4277819228 -0.6684193826 0.4279479365 -0.6685632365 0.0470304501 -0.0255251954
485297090.0 0.0455008431 -0.0265407295 0.4204984067 -0.6722960223 0.4206248757 -0.6726269505 0.046374575 -0.026499943
490297060.0 0.0448189108 -0.0272907967 0.4138721865 -0.6779611295 0.4140066551 -0.6770028828 0.0461169941 -0.0262990418
495297030.0 0.0446488192 -0.0276992913 0.4059252475 -0.6822609352 0.4066240805 -0.6818758685 0.0451754879 -0.0271176435
500297000.0 0.0443339172 -0.0284917811 0.3980913321 -0.6857807671 0.3979006395 -0.6861715164 0.044625368 -0.027161826
505296970.0 0.0441810471 -0.0291150912 0.3907346066 -0.6906487493 0.3905978261 -0.6906364311 0.0443122969 -0.0278044361
510296940.0 0.0434451339 -0.0291002487 0.3827439317 -0.6953313092 0.3832987031 -0.6957519547 0.0445512626 -0.0280878626
515296910.0 0.0428073151 -0.0293382209 0.3748945789 -0.6996140308 0.3753529199 -0.6992335375 0.0438353994 -0.0285856486
520296880.0 0.0424400001 -0.0300920045 0.3673731163 -0.703652186 0.3675619706 -0.7030518416 0.0429457926 -0.0295367877
525296850.0 0.0423776367 -0.0313444832 0.3596132008 -0.7072281135 0.3602698377 -0.7072651199 0.0424946274 -0.0298928619
530296820.0 0.041765934 -0.0309893032 0.3519789518 -0.7111137846 0.3523774613 -0.7111939323 0.0422404394 -0.0301003604
535296790.0 0.0406987115 -0.0317493118 0.3446210813 -0.7151533729 0.3448040407 -0.714671693 0.0420246212 -0.0313103656
540296760.0 0.0406462725 -0.0319743308 0.3363949961 -0.7195039197 0.3364450667 -0.7188073761 0.0406199012 -0.0308110097
545296730.0 0.0400752043 -0.0324003822 0.3278995581 -0.7223362038 0.328534016 -0.7225633967 0.0405884051 -0.031526537
550296700.0 0.0400236914 -0.0327608709 0.3204298144 -0.7259464284 0.321124067 -0.7261636466 0.0398977523 -0.0314961713
555296670.0 0.0388340921 -0.033039835 0.3130918645 -0.729111381 0.313058261 -0.7291715359 0.0393512951 -0.032382246
560296640.0 0.0386851244 -0.0331946252 0.3047318527 -0.733239056 0.3046886214 -0.732927281 0.0391606825 -0.0329431836
565296610.0 0.0376997053 -0.0339212789 0.2962434599 -0.7364898433 0.2965477208 -0.7359702781 0.0381251976 -0.033673498
570296580.0 0.0372126114 -0.0340920422 0.2886578824 -0.7394459586 0.2881298965 -0.7397590773 0.0377947571 -0.0329773975
575296550.0 0.0363991346 -0.0343298425 0.2809081921 -0.7432170222 0.2805326997 -0.7428683186 0.0376539522 -0.0337569732
580296520.0 0.0361528136 -0.0345924875 0.2724456968 -0.7456267995 0.2722953432 -0.7458835153 0.0371391079 -0.0342366476
585296490.0 0.0357656764 -0.0356353928 0.2639621987 -0.7481791894 0.2650140114 -0.74858316 0.036589114 -0.0344216766
590296460.0 0.0353689453 -0.0355798782 0.2564174733 -0.7508464179 0.2560810141 -0.7505587954 0.0351268926 -0.0347739508
595296430.0 0.0351512391 -0.0356617839 0.2473496323 -0.7539710886 0.2475657358 -0.7542554744 0.0355000373 -0.0353778955
600296400.0 0.0340458781 -0.0365306652 0.2393237063 -0.7571200732 0.2400129261 -0.7567142228 0.0346668006 -0.0354884353
605296370.0 0.0335694178 -0.0366504418 0.2311322776 -0.7591283592 0.2318553685 -0.7595560722 0.0340974257 -0.0360210003
610296340.0 0.0331508398 -0.0366843408 0.2222867633 -0.7616482743 0.223173627 -0.7619143809 0.034048819 -0.0364986257
615296310.0 0.0328244554 -0.0376638455 0.2144038245 -0.7639087413 0.2143818974 -0.7648784692 0.0333732089 -0.0362111704
620296280.0 0.0323483955 -0.0376310747 0.2063310806 -0.7666420889 0.2060371047 -0.7658951386 0.0326001619 -0.0366487446
625296250.0 0.0311194141 -0.038667607 0.1988603229 -0.7693381839 0.1981424798 -0.7690249051 0.0329194997 -0.0367474725
630296220.0 0.0320523812 -0.0381957791 0.1889195873 -0.7710876292 0.189353559 -0.7702304703 0.0319870382 -0.0366163895
635296190.0 0.0296390712 -0.0390622009 0.1804864798 -0.7729522139 0.1813426534 -0.7725960426 0.0314973542 -0.0372620254
640296160.0 0.0295976416 -0.0386958692 0.1728534648 -0.7746396896 0.1733292384 -0.7748075346 0.0308334577 -0.0376360599
645296130.0 0.0293262135 -0.0388925128 0.1635355066 -0.7758874696 0.1643239022 -0.7768580516 0.0302959722 -0.0378507996
650296100.0 0.0288939805 -0.0393841446 0.1554646622 -0.7779030119 0.1561550391 -0.7786561066 0.0301801508 -0.0388493502
655296070.0 0.0276090988 -0.0398676024 0.1471230474 -0.7800833215 0.1475979325 -0.780050338 0.0292558364 -0.0384239315
660296040.0 0.0267078654 -0.0403549615 0.1383725308 -0.7816495611 0.1388026462 -0.7819073375 0.0291305704 -0.0387827383
665296010.0 0.0271807313 -0.0401142103 0.1294695035 -0.7825342622 0.1303826766 -0.7830973327 0.0284413635 -0.0378902442
670295980.0 0.0250022776 -0.0404342416 0.1215796481 -0.7840980906 0.1216672588 -0.7844132849 0.0272839404 -0.038717184
675295950.0 0.0254046531 -0.0400399373 0.1134640019 -0.7854828534 0.1133369736 -0.7849705113 0.0264305997 -0.0390965013
680295920.0 0.0243543343 -0.0409773723 0.1039766312 -0.7864963795 0.1036716917 -0.7872306255 0.0262511317 -0.0384592514
685295890.0 0.0241247181 -0.0403451201 0.0953384779 -0.7878451018 0.0952071211 -0.7880907485 0.0255600615 -0.0392384835
690295860.0 0.0239283688 -0.0407355529 0.0869566645 -0.7884194589 0.0872820963 -0.7891536055 0.0247921568 -0.0386502564
695295830.0 0.0230959513 -0.0411899433 0.0785979578 -0.7893039907 0.07872998 -0.7894800225 0.0240137403 -0.0389295223
700295800.0 0.0225333052 -0.0414725408 0.0696621243 -0.7901195772 0.0700206151 -0.7896632972 0.0236023483 -0.0387078073
705295770.0 0.0215318689 -0.0407018011 0.0611642865 -0.7904989567 0.0619863694 -0.7912151815 0.0229424767 -0.0392056291
710295740.0 0.0214922371 -0.0411709761 0.0530841298 -0.7924046437 0.0531951391 -0.7926831282 0.0225759788 -0.0401003513
715295710.0 0.0199777019 -0.0417248321 0.0449903309 -0.792016441 0.0441092202 -0.7923670234 0.0225776722 -0.0398317297
720295680.0 0.0199966426 -0.0416045075 0.0356494939 -0.7929840839 0.035979314 -0.7927227061 0.0211617403 -0.0394879053
725295650.0 0.0193195932 -0.0417004991 0.0268199589 -0.7929782457 0.0268478452 -0.793091437 0.020255093 -0.039644211
730295620.0 0.0191906233 -0.0413970826 0.018519143 -0.7927118902 0.0183707444 -0.793179917 0.0196286736 -0.0402865601
735295590.0 0.0179066671 -0.0414424804 0.0102676529 -0.7938480522 0.0095281909 -0.793313088 0.0192795673 -0.0403330752
740295560.0 0.017272602 -0.0416958719 0.001196201 -0.7928863452 0.0012972216 -0.7932074971 0.0190527172 -0.0401122312
745295530.0 0.0169222516 -0.0413854558 -0.0073131688 -0.7929466196 -0.007603367 -0.7935891528 0.0182704234 -0.0408124091
750295500.0 0.0163939178 -0.0415938156 -0.0160698594 -0.7925814818 -0.0161463567 -0.7938383424 0.0176739323 -0.0404982613
755295470.0 0.0158368186 -0.0423235526 -0.0249028859 -0.7932758074 -0.0244298466 -0.7934061047 0.0179421021 -0.0409913728
760295440.0 0.0148415107 -0.0416888662 -0.0333687318 -0.7931362799 -0.0331065673 -0.7929275127 0.0167261432 -0.0408260084
765295410.0 0.0143057099 -0.0419256919 -0.0421633256 -0.792484392 -0.0426011357 -0.7923419465 0.0164009844 -0.0404469997
770295380.0 0.0132934288 -0.0422011092 -0.0514412512 -0.7915753201 -0.0507092767 -0.7917885225 0.0151726196 -0.040737067
775295350.0 0.0129055766 -0.0427317093 -0.0596499963 -0.7907835327 -0.0588276998 -0.7907004631 0.014386144 -0.0405917772
780295320.0 0.0125615958 -0.0420095156 -0.0678098256 -0.7904801937 -0.0672471698 -0.7903733554 0.0139616244 -0.0411638125
785295290.0 0.0116944228 -0.0426881525 -0.0764170052 -0.7885055168 -0.0760621233 -0.7894878101 0.0144509947 -0.0404195899
790295260.0 0.0117520516 -0.041583396 -0.0846395374 -0.7880160622 -0.0840520452 -0.7883230212 0.0130311231 -0.0409466344
795295230.0 0.0107555809 -0.0423340876 -0.093461802 -0.787976065 -0.0927375294 -0.7876488515 0.0126973905 -0.040095522
800295200.0 0.0095834547 -0.0418025841 -0.1030688658 -0.7863838844 -0.1018160033 -0.7865202691 0.0119066453 -0.0407852246
805295170.0 0.0095269387 -0.0421911175 -0.1107017534 -0.7848590771 -0.1109159211 -0.7855471366 0.0114257282 -0.0404063933
810295140.0 0.0084891487 -0.0425037162 -0.1191272824 -0.7838259618 -0.1191891916 -0.7842649866 0.0111974743 -0.0400254908
815295110.0 0.0084077666 -0.0426875206 -0.1274640664 -0.7818757426 -0.1271961278 -0.7824559437 0.010195288 -0.0398208752
820295080.0 0.0070511302 -0.0416240631 -0.136113135 -0.7807252451 -0.1357525859 -0.7811187815 0.0096087763 -0.0401952685
825295050.0 0.0073563386 -0.0418706869 -0.1440123338 -0.7785280777 -0.1442013854 -0.7798218621 0.0094486601 -0.0401281829
830295020.0 0.0062670938 -0.041672049 -0.1531870742 -0.7775078184 -0.152820899 -0.7778887958 0.0093702837 -0.0399175793
