!Created with skrf (http://scikit-rf.org).
# Hz S RI R 50.0 
!freq ReS11 ImS11 ReS21 ImS21 ReS12 ImS12 ReS22 ImS22
300000.0 -0.1024476951 -0.065921924 0.6328484129 0.0613538668 0.6250591927 0.0626845736 -0.1000679885 -0.0741437879
5299970.0 -0.1021107042 0.0135086955 0.6305811702 0.0094842303 0.6304113731 0.0101770659 -0.1006744211 0.0131337298
10299940.0 -0.0971819023 0.0294715892 0.6340297982 0.0151250817 0.6339557923 0.0156679506 -0.0958716762 0.0304804473
15299910.0 -0.0897359724 0.0424050156 0.640478192 0.0201286204 0.6407175594 0.0202108307 -0.0885460869 0.0436854606
20299880.0 -0.0815860977 0.0534047066 0.648631925 0.0244130499 0.6486344282 0.02367085 -0.0795068883 0.0545724283
25299850.0 -0.0722984502 0.062171381 0.6576817851 0.0247513351 0.6575184246 0.0254551405 -0.0695832008 0.0633643949
30299820.0 -0.0621302841 0.0685874929 0.6675593791 0.0241369929 0.6672775246 0.0243241208 -0.0596018104 0.0701858911
35299790.0 -0.0524731416 0.0736064431 0.6774646161 0.021152892 0.6769737063 0.0213837893 -0.0497881018 0.0748944182
40299760.0 -0.0433653372 0.0771771437 0.6864258589 0.0171124769 0.6866210062 0.0174742326 -0.0403361765 0.0775674629
45299730.0 -0.0339363362 0.0792747541 0.6948875205 0.0117457277 0.6955291684 0.0115556538 -0.0312425388 0.0799582232
50299700.0 -0.0257362441 0.0800199899 0.7033710093 0.0044438378 0.7036556545 0.0050740712 -0.022611768 0.0805977146
55299670.0 -0.017655485 0.0803523508 0.7110735947 -0.0035460097 0.7104449624 -0.0030073875 -0.0146194755 0.080568
60299640.0 -0.009917665 0.0798497882 0.7171527526 -0.0120669351 0.7174629548 -0.0113002266 -0.0075715242 0.0793878618
65299610.0 -0.0035495677 0.0788259996 0.7233037685 -0.0201834892 0.7237211003 -0.0202300399 -0.0014118819 0.0785537837
70299580.0 0.0026302122 0.0776068509 0.7286186584 -0.0294931966 0.7287516019 -0.0293490694 0.0046753184 0.0768891026
75299550.0 0.0082668418 0.0759865753 0.7327531919 -0.0391788974 0.7323398731 -0.0393600798 0.0102068958 0.0746254796
80299520.0 0.0131665668 0.0734339004 0.7368456829 -0.0496548807 0.7372570837 -0.0494604522 0.0148694138 0.0726177938
85299490.0 0.017663935 0.0712925137 0.740408975 -0.058930401 0.740051009 -0.0589444996 0.0196462682 0.0698729066
90299460.0 0.0218582582 0.0688657802 0.7427176993 -0.0694892178 0.7433278532 -0.0689000995 0.0234454741 0.0679607576
95299430.0 0.0256608205 0.0664604463 0.7452362713 -0.07921782 0.7458040576 -0.0795742185 0.0275288104 0.065488967
100299400.0 0.0290303737 0.0645343112 0.7466363407 -0.0889452803 0.746966217 -0.0894150995 0.0310468733 0.06258455
105299370.0 0.0322315331 0.0619798324 0.7484546802 -0.0997339183 0.7490151219 -0.0992013736 0.0341459453 0.060446664
110299340.0 0.0348543083 0.0595722955 0.7498346679 -0.1094018644 0.7492690538 -0.1089668383 0.0359586564 0.0579778495
115299310.0 0.0375395169 0.0573612521 0.7505638152 -0.1190386767 0.7503328054 -0.1194284509 0.0388277311 0.0553094434
120299280.0 0.0398094285 0.0547274529 0.7510533412 -0.1293160274 0.7511004835 -0.129581551 0.0411810145 0.0528158424
125299250.0 0.0418037941 0.0524538477 0.7515737304 -0.1392663341 0.7516200468 -0.1392686383 0.0426516389 0.0503753664
130299220.0 0.0434946854 0.0503703785 0.7508573548 -0.1494325372 0.7514727261 -0.1496089901 0.0448579382 0.0482034541
135299190.0 0.0455664659 0.0482297545 0.7513389015 -0.1591934452 0.7506557812 -0.1587513139 0.0466280143 0.0457711059
140299160.0 0.0464776258 0.0463165828 0.7504130681 -0.1687179672 0.7505322173 -0.1693804434 0.0480456753 0.0442791145
145299130.0 0.0482656472 0.0437809625 0.7500506824 -0.1787221408 0.7496017699 -0.1785656791 0.0492607141 0.0418767677
150299100.0 0.0498754347 0.0421309476 0.7485005649 -0.1874003356 0.7488362952 -0.1880933763 0.0509566376 0.0400973825
155299070.0 0.050524413 0.0396347905 0.7482199255 -0.19875329 0.7476765907 -0.1982786431 0.0517351275 0.0383258191
160299040.0 0.0519932039 0.0379746881 0.7459292231 -0.2077151453 0.7453900771 -0.2076638308 0.0521471133 0.0361219547
165299010.0 0.0527324132 0.0362552864 0.7447639934 -0.2174009492 0.7445078295 -0.2174084032 0.0535930796 0.03485996
170298980.0 0.0533232954 0.033783029 0.7431872716 -0.2266616068 0.7428943772 -0.2264606497 0.0544600139 0.0329073624
175298950.0 0.0536830468 0.0322034143 0.7412078176 -0.2354802909 0.7407344385 -0.2354573609 0.0549220193 0.031548687
180298920.0 0.0546402869 0.030474398 0.7390435532 -0.24472376 0.7386570732 -0.244622624 0.055424905 0.0296731673
185298890.0 0.0555424136 0.0285471922 0.7366676845 -0.2537767036 0.7362071916 -0.2540328193 0.0560149498 0.0285576476
190298860.0 0.055324237 0.0272227699 0.7339771526 -0.2633522418 0.7342827374 -0.263152969 0.0564189134 0.026573549
195298830.0 0.0561066328 0.025232991 0.7318122408 -0.2719045539 0.73220757 -0.272171861 0.0573779419 0.0250961774
200298800.0 0.0563249833 0.0237552334 0.7283493941 -0.2821073388 0.7286393292 -0.2814272611 0.0570329971 0.0235848195
205298770.0 0.0568425343 0.0228226406 0.725999349 -0.290389213 0.7259777997 -0.2901581174 0.0574526634 0.0213037393
210298740.0 0.0571433293 0.0208029938 0.7232735803 -0.29807975 0.7228236052 -0.2979724538 0.0579251894 0.0211601977
215298710.0 0.056778381 0.019440728 0.7200346856 -0.3076264108 0.7199174571 -0.3077094684 0.0576128639 0.0198473345
220298680.0 0.0575327112 0.0176182668 0.7164962873 -0.3160975516 0.7163457969 -0.3159913263 0.0574775601 0.0181335668
225298650.0 0.0577805945 0.0165012516 0.713647978 -0.3248925667 0.713379601 -0.324741236 0.057292294 0.0163672045
230298620.0 0.0579612083 0.0154611452 0.7104964508 -0.3334610649 0.710749507 -0.3332439194 0.0572186602 0.0149288252
235298590.0 0.0577203476 0.0147167078 0.7068444689 -0.3419820685 0.7065495301 -0.341326654 0.0576608859 0.0137703614
240298560.0 0.0579640103 0.01327056 0.7032500947 -0.3502722846 0.703219175 -0.3504182703 0.0572944358 0.0133138262
245298530.0 0.0576642689 0.0120051909 0.6997387784 -0.3584702391 0.6996808453 -0.358942184 0.0581008046 0.0108195756
250298500.0 0.058417296 0.011060416 0.69483741 -0.3668946835 0.6946623236 -0.3663866998 0.0577968428 0.0102224853
255298470.0 0.058181889 0.0094642976 0.6910394663 -0.3743776018 0.6914356596 -0.3745172292 0.058097574 0.0092233147
260298440.0 0.0580535072 0.0080751393 0.6874056052 -0.3837649853 0.6873044528 -0.3826071934 0.0583694385 0.0080084334
265298410.0 0.0585598529 0.0075442104 0.6833857176 -0.3914855501 0.6839117299 -0.3909615106 0.0579060894 0.0068563227
270298380.0 0.0584178624 0.0062587183 0.6792691112 -0.3988168674 0.6796025549 -0.398753531 0.0578625238 0.0056918176
275298350.0 0.0587503916 0.0052283234 0.6748903676 -0.406643232 0.6753130582 -0.4068511021 0.0582953169 0.0040666661
280298320.0 0.0587399009 0.0042737568 0.6711391688 -0.4145762639 0.6707470772 -0.4146463319 0.0585049273 0.0034228261
285298290.0 0.058719389 0.0029423019 0.6664329609 -0.4225502428 0.6660341516 -0.4227053103 0.0581658097 0.0020135479
290298260.0 0.0590212801 0.0018813738 0.6617631571 -0.4296818308 0.6616588886 -0.4305306678 0.058435563 0.0015350185
295298230.0 0.0589307334 0.0008552667 0.6576542074 -0.4372956741 0.6572201429 -0.4381044105 0.0592789434 0.000239815
300298200.0 0.0584461627 -0.0005409631 0.6525502837 -0.4452644445 0.6526909202 -0.4461881471 0.0588076516 -0.0008308815
305298170.0 0.0586612506 -0.0015091035 0.6475961121 -0.4539006977 0.6475123083 -0.4533658938 0.0594909753 -0.002413689
310298140.0 0.0583762262 -0.0026703382 0.6431289253 -0.4612086545 0.6431994239 -0.4611307698 0.0595265612 -0.00324105
315298110.0 0.058207341 -0.0042125654 0.637936797 -0.4684300759 0.6377436885 -0.4686763939 0.0586839811 -0.0044659848
320298080.0 0.058627593 -0.0049901496 0.6319152379 -0.4763710879 0.6326323536 -0.4759913851 0.0586476312 -0.0054805608
325298050.0 0.057883076 -0.0065159156 0.6269791244 -0.4836643875 0.6269246052 -0.4836654962 0.0578907211 -0.0066040194
330298020.0 0.0575237879 -0.0075386459 0.6212017624 -0.4913313337 0.6215199014 -0.4911829306 0.0574223946 -0.0077719711
335297990.0 0.0570225755 -0.0088303242 0.6155332078 -0.4982155524 0.6154125612 -0.4983802185 0.0568931549 -0.0080665527
340297960.0 0.0559326746 -0.0091188774 0.6093312513 -0.5046302747 0.6091225966 -0.5057561219 0.057072421 -0.0087207926
345297930.0 0.0556597323 -0.0095208888 0.6040731091 -0.5124046807 0.603630275 -0.5121228887 0.0563823112 -0.0100752006
350297900.0 0.0551799562 -0.0111837906 0.5972684267 -0.5193862351 0.5975406972 -0.5188817229 0.0557452826 -0.0097686508
355297870.0 0.0545835323 -0.0107222405 0.5921007127 -0.5251859925 0.5923825739 -0.5255044742 0.0551671191 -0.0107653941
360297840.0 0.0544205878 -0.0118291266 0.5869118959 -0.5318058402 0.5871277062 -0.5321565533 0.0550541436 -0.0110071093
365297810.0 0.0537627796 -0.0121672263 0.5807113976 -0.5388864007 0.5811260696 -0.5387674282 0.0547924613 -0.0116691556
370297780.0 0.0541597392 -0.0133750175 0.5742554524 -0.5450009741 0.5750229185 -0.5445662947 0.0542533392 -0.012257602
375297750.0 0.0537816706 -0.0140942956 0.5683358469 -0.5514786155 0.5693631574 -0.5514209911 0.0542168798 -0.0129888884
380297720.0 0.0532117201 -0.0144202602 0.5625232051 -0.5575429151 0.5625212883 -0.5572095143 0.0535357057 -0.0138629904
385297690.0 0.052664639 -0.0155861514 0.5559403465 -0.5644145774 0.5558719853 -0.5638106635 0.0533266609 -0.0138977595
390297660.0 0.0524756153 -0.0153591318 0.5503921503 -0.5704708597 0.5496453077 -0.5698773822 0.0526534981 -0.01517344
395297630.0 0.0520362004 -0.0160458701 0.5437557755 -0.5763980745 0.5435315645 -0.5768051469 0.0530875761 -0.0157587044
400297600.0 0.0516217633 -0.0167911287 0.53678183 -0.5830477647 0.5371914837 -0.5825970561 0.0520604547 -0.0159546671
405297570.0 0.0511776642 -0.017458752 0.5304304899 -0.58818742 0.5307077608 -0.5879686188 0.0515544802 -0.0168828281
410297540.0 0.0512837987 -0.0183453501 0.5246354907 -0.5941035733 0.5251750878 -0.5944456089 0.0509366549 -0.017116139
415297510.0 0.0511991088 -0.0187738292 0.5177391984 -0.6005671501 0.5179188911 -0.6001142655 0.0509426061 -0.0176839239
420297480.0 0.0505591316 -0.0191363862 0.510867595 -0.6058327683 0.5107315526 -0.6064415015 0.0501043984 -0.0188908872
425297450.0 0.0498342535 -0.0205102712 0.5047695299 -0.6118785224 0.5045853168 -0.611891911 0.0494425336 -0.0189478373
430297420.0 0.0498859247 -0.0208925572 0.4970123251 -0.6158668259 0.4974542075 -0.6165276261 0.0491764978 -0.0199804532
435297390.0 0.0492434045 -0.0213954559 0.4903247736 -0.6225173091 0.4904311694 -0.6228523451 0.0495673551 -0.0206966503
440297360.0 0.0492597703 -0.0217927729 0.4834688984 -0.6278356237 0.484049162 -0.6279264312 0.048718994 -0.0214587054
445297330.0 0.0484259569 -0.0230633858 0.4775904275 -0.6333667996 0.4771131077 -0.6328953802 0.0486882793 -0.0219960887
450297300.0 0.0486027275 -0.0230152205 0.4703768575 -0.6384187027 0.4699681789 -0.6389516697 0.0481294104 -0.0230867858
455297270.0 0.0480538364 -0.0237808872 0.4629739603 -0.6439469413 0.4631358899 -0.6441973459 0.0477623317 -0.0231944585
460297240.0 0.0473648095 -0.0244896886 0.4558201599 -0.6490173669 0.455817734 -0.6489565974 0.0474779743 -0.0239460627
465297210.0 0.0473755498 -0.0249979582 0.4486352546 -0.6535352535 0.44860906 -0.6546809245 0.0472839899 -0.0249045262
470297180.0 0.047111204 -0.0258817356 0.4415821363 -0.6593656404 0.4413602913 -0.6593881468 0.0470340978 -0.0248083103
475297150.0 0.0465010827 -0.0263220949 0.4338569701 -0.6627943215 0.4344007388 -0.6635928167 0.0471825438 -0.0263118463
480297120.0 0.0459406548 -0.026306457 0.4265131099 -0.6686268913 0.4269315596 -0.6689335728 0.0468718213 -0.0262236983
485297090.0 0.0454141846 -0.0272732221 0.4198469418 -0.6728515193 0.4200847082 -0.6727938251 0.0464469345 -0.0271692051
490297060.0 0.0445035918 -0.0281357275 0.412667779 -0.6783465617 0.4123131549 -0.6774278623 0.0457768918 -0.0268484865
495297030.0 0.0442860528 -0.0282991864 0.4044673886 -0.6822776184 0.4054038304 -0.682089152 0.0452936706 -0.0276351822
500297000.0 0.0439643676 -0.029278196 0.3968413937 -0.6861393472 0.3964645294 -0.6860183118 0.0447959324 -0.0276783919
505296970.0 0.0437117831 -0.0296122762 0.390027816 -0.6907112076 0.388945634 -0.691243647 0.0443315876 -0.0280978007
510296940.0 0.0428354859 -0.0297589793 0.3819812061 -0.6953285237 0.3813791542 -0.6956508613 0.0441712463 -0.0286301342
515296910.0 0.0425085199 -0.0298780091 0.3742477143 -0.6995872107 0.373924398 -0.6994179023 0.0438848755 -0.0289539767
520296880.0 0.0419813957 -0.0304964002 0.3666173058 -0.7039471001 0.3668446726 -0.7031588082 0.0428929797 -0.0297480081
525296850.0 0.0418279343 -0.0315398278 0.3590610842 -0.7075184876 0.359204894 -0.707503914 0.0424346917 -0.0299175561
530296820.0 0.0411925244 -0.0315641836 0.3509790152 -0.7115713293 0.3506628279 -0.7113995777 0.0423785368 -0.0301730579
535296790.0 0.040152719 -0.0321235506 0.3434279474 -0.7152186232 0.3434715753 -0.7147278106 0.0420102767 -0.0311202482
540296760.0 0.0399881997 -0.0320206314 0.3351578615 -0.7195440568 0.3347717457 -0.7191976976 0.0408438618 -0.0304286554
545296730.0 0.0394077795 -0.0326128732 0.3270264021 -0.7226877662 0.3272807979 -0.7225394956 0.040250633 -0.0313431285
550296700.0 0.0392944246 -0.0328530595 0.3193217669 -0.7262719932 0.3196267957 -0.7261939596 0.0393089462 -0.0311570404
555296670.0 0.0385198117 -0.0331527959 0.3120259196 -0.7301025967 0.3118492532 -0.72975224 0.0394243608 -0.0316614812
560296640.0 0.0384234817 -0.0331911321 0.3035465998 -0.7329114187 0.303765645 -0.7330208603 0.038684054 -0.0322193019
565296610.0 0.0370512162 -0.0342320689 0.2953059033 -0.7366815697 0.2954169393 -0.7361144214 0.0379630211 -0.0330258398
570296580.0 0.0366324103 -0.0339287172 0.2877065734 -0.7400806421 0.2867203714 -0.7396137684 0.0374921797 -0.0325224351
575296550.0 0.036293435 -0.0343650962 0.2798481495 -0.7435149615 0.2790281779 -0.7426436887 0.0374804768 -0.0333505548
580296520.0 0.0358559071 -0.0346900091 0.2713569269 -0.746327093 0.2709880394 -0.7457757314 0.0364136544 -0.0338333126
585296490.0 0.0354187117 -0.0359452435 0.2634718096 -0.7481753135 0.2633686286 -0.7488079448 0.0358942166 -0.0340521382
590296460.0 0.0353317055 -0.035724724 0.2553829623 -0.7509770183 0.2546738344 -0.7514273924 0.0348537474 -0.0345069144
595296430.0 0.0347575626 -0.0358991089 0.2458944914 -0.7547219908 0.2467035232 -0.7540158182 0.0349363253 -0.0352464454
600296400.0 0.0334903954 -0.0366075859 0.2384072289 -0.7567398636 0.238671775 -0.7566338285 0.0339045819 -0.0354576937
605296370.0 0.0333038521 -0.0366920628 0.2299527091 -0.7595151717 0.2305072304 -0.7595687064 0.0335464348 -0.0356401327
610296340.0 0.0330784894 -0.0368308566 0.2212023021 -0.7618270214 0.2216919124 -0.7622498684 0.0334623299 -0.0361782894
615296310.0 0.0328937729 -0.0378028568 0.2133737596 -0.7635709405 0.2126058608 -0.7644785008 0.0329626008 -0.0361212196
620296280.0 0.0319273759 -0.0379251772 0.2055281017 -0.766746653 0.2047907032 -0.766315325 0.0319146669 -0.0367491817
625296250.0 0.0309798021 -0.038806397 0.1975167761 -0.7689637365 0.1965589115 -0.7690349414 0.0322132662 -0.0370344061
630296220.0 0.0314160545 -0.0383798716 0.1876144126 -0.770883968 0.1877263781 -0.7708835925 0.0314430273 -0.0371945276
635296190.0 0.0296697887 -0.0393368991 0.1797261119 -0.7726455715 0.179616491 -0.77275248 0.0308911834 -0.0373135484
640296160.0 0.0292287414 -0.0389703462 0.1709421769 -0.7738547069 0.1714643433 -0.7747875622 0.0302250939 -0.0380637528
645296130.0 0.0289255544 -0.0391585725 0.1627009004 -0.7762773487 0.1633683502 -0.7766411398 0.0298743416 -0.0379016829
650296100.0 0.0283378268 -0.0397149281 0.1545698777 -0.7782862557 0.1546429721 -0.7784351324 0.030005205 -0.0391916208
655296070.0 0.0273133163 -0.0403509868 0.1461216628 -0.779800476 0.1461430835 -0.7801909755 0.0293305074 -0.0389729248
660296040.0 0.0261368905 -0.0409302787 0.1379523717 -0.781788491 0.1374366253 -0.78161195 0.0286477738 -0.0390494173
665296010.0 0.0266111452 -0.0408511596 0.1282961214 -0.7826662025 0.1286120107 -0.7823281395 0.0283787555 -0.0385482502
670295980.0 0.0246775493 -0.0405979388 0.1202911361 -0.7844262826 0.1200487662 -0.7839768811 0.0268765622 -0.0392770731
675295950.0 0.0248669382 -0.0407009241 0.1119759774 -0.7856826594 0.1118336543 -0.7846680725 0.0265062944 -0.0390774612
680295920.0 0.0235430521 -0.041297752 0.1025854612 -0.7866123196 0.1022606883 -0.7867637691 0.0262315437 -0.0385244245
685295890.0 0.0237029488 -0.0405227537 0.0945359562 -0.7869321802 0.0944693341 -0.7879152835 0.0256997281 -0.0390014805
690295860.0 0.0231654989 -0.0410437042 0.0864580732 -0.7885838843 0.0858972113 -0.7889105963 0.0248388328 -0.0384716464
695295830.0 0.0225547064 -0.0414728623 0.0777980258 -0.789581385 0.076760125 -0.7892179988 0.0243327462 -0.039266932
700295800.0 0.0219548931 -0.0417867551 0.0686913231 -0.7903388155 0.0682607567 -0.7899472105 0.023804074 -0.0385055703
705295770.0 0.0212107573 -0.0409373227 0.0599568682 -0.7904294258 0.0603490794 -0.7910904719 0.0226457197 -0.0387896434
710295740.0 0.020868381 -0.0413890689 0.0517969863 -0.7922458403 0.0520964614 -0.7923795562 0.0229417502 -0.0396243971
715295710.0 0.0193531515 -0.0419922718 0.0430989898 -0.7923664628 0.0428519838 -0.7924040985 0.0220508257 -0.0393248739
720295680.0 0.0194198498 -0.0418286035 0.0345149178 -0.7925371537 0.0346837819 -0.7924239084 0.0213182518 -0.0385027948
725295650.0 0.0191566763 -0.0419414088 0.0253460212 -0.7925146667 0.0255386857 -0.7930257438 0.0201588002 -0.0389910916
730295620.0 0.0188662972 -0.0416788586 0.0170374391 -0.7925886342 0.0167685084 -0.7930964954 0.0196683308 -0.0397106142
735295590.0 0.017731162 -0.0417151111 0.0085788119 -0.7931689816 0.0085502617 -0.7933272337 0.0188958386 -0.0397077997
740295560.0 0.0170129634 -0.0417900682 -0.0004647982 -0.7932508507 -4.1472e-06 -0.7925895781 0.01880439 -0.0394551808
745295530.0 0.0164067316 -0.0416362269 -0.0086821744 -0.7928501319 -0.0091192904 -0.7928187 0.0181416276 -0.0403380093
750295500.0 0.0160567632 -0.0420097731 -0.0174019849 -0.792560445 -0.0177217031 -0.7927629016 0.0172857993 -0.0399804433
755295470.0 0.0153858229 -0.0422624699 -0.025485962 -0.7926181924 -0.0259255919 -0.7930434781 0.0174241624 -0.0405415289
760295440.0 0.0146290418 -0.0420808147 -0.0346529083 -0.7925426778 -0.0350128614 -0.7929007464 0.0162274452 -0.0402786591
765295410.0 0.0141468028 -0.0421122837 -0.0433729563 -0.792188628 -0.0440286933 -0.7922154022 0.0157505241 -0.0403229611
770295380.0 0.0132730961 -0.0420658859 -0.0522979373 -0.7910382046 -0.0524334952 -0.7910224266 0.0148146001 -0.0408226039
775295350.0 0.0125258726 -0.0429479563 -0.0606568003 -0.7902065014 -0.0601909122 -0.7906228475 0.0136578773 -0.0401569192
780295320.0 0.0121514695 -0.0424826564 -0.0694221582 -0.7894902654 -0.0687346858 -0.7899746445 0.0131469765 -0.0411336372
785295290.0 0.0115889144 -0.0429019125 -0.0782231136 -0.7885641657 -0.0775869441 -0.7888030053 0.0135471719 -0.0406367998
790295260.0 0.0112921054 -0.0418436363 -0.085530714 -0.7880262253 -0.0853525624 -0.7878200027 0.0123195286 -0.040854237
795295230.0 0.0104038189 -0.042512761 -0.0949178193 -0.7876099021 -0.0943117202 -0.7873922281 0.0122484287 -0.0404097159
800295200.0 0.0093458593 -0.0422968777 -0.103834342 -0.7857989484 -0.1034963065 -0.7856920006 0.0115239004 -0.0406908832
805295170.0 0.0087930793 -0.0426498815 -0.1116481115 -0.7846101195 -0.1119327782 -0.784982171 0.0106430669 -0.0406223419
810295140.0 0.0079710894 -0.0431722786 -0.1202287877 -0.7836667478 -0.1204495284 -0.7833811009 0.0110607053 -0.0404434488
815295110.0 0.0075633157 -0.0429952394 -0.1285592177 -0.7816317975 -0.1288749089 -0.7819173121 0.0097663232 -0.0402411784
820295080.0 0.0064521894 -0.0416704531 -0.1373852381 -0.7803848199 -0.1371704826 -0.7804485907 0.0091015429 -0.0402267764
825295050.0 0.0065037219 -0.0421314773 -0.1451631144 -0.7791377211 -0.1457043605 -0.7790439455 0.0090984856 -0.0400436304
830295020.0 0.0058436872 -0.0419915141 -0.1544185736 -0.7769655362 -0.1544262276 -0.7771524452 0.0092435615 -0.0401540526
