!Created with skrf (http://scikit-rf.org).
# Hz S RI R 50.0 
!freq ReS11 ImS11 ReS21 ImS21 ReS12 ImS12 ReS22 ImS22
300000.0 -0.7735951297 -0.1524957016 -0.0004187526 0.0005507375 -0.0003110834 0.0002791288 0.8600714503 -0.0019138064
5299970.0 -0.7848375678 -0.0075014695 -4.75347e-05 0.0001222992 4.51109e-05 0.0001020434 0.8588376423 -0.0104210186
10299940.0 -0.7874298198 -0.0040686287 -6.08006e-05 0.0002249857 7.65574e-05 -0.0001100108 0.8582947184 -0.0189540225
15299910.0 -0.7930467656 -0.0016361084 7.42319e-05 -5.55886e-05 -1.52726e-05 4.2181e-05 0.8571978968 -0.0275817986
20299880.0 -0.7994903021 0.0022423694 0.0001230739 0.0002166115 -0.0001108413 -3.53685e-05 0.8569845138 -0.0361881809
25299850.0 -0.806260367 0.0084167692 -1.84084e-05 -0.00020693 0.0001098616 -9.59631e-05 0.8554777895 -0.0439796977
30299820.0 -0.8116016547 0.0164287321 -0.0001459439 -0.0001271149 0.0001122571 -2.50075e-05 0.8554273582 -0.0522986005
35299790.0 -0.817310889 0.0252473108 2.13521e-05 6.94908e-05 -4.84547e-05 9.06543e-05 0.8547062628 -0.0608125983
40299760.0 -0.8215546543 0.0339934619 9.13419e-05 8.36593e-05 -8.88332e-05 -0.0003067147 0.8536515368 -0.0686938646
45299730.0 -0.8249243857 0.0441100141 0.0001757999 -5.9876e-05 0.0001067592 -1.88541e-05 0.8527310271 -0.0765644936
50299700.0 -0.8267079579 0.0535899789 0.0001523138 6.83543e-05 -0.0002300306 4.63131e-05 0.8515159421 -0.0852031547
55299670.0 -0.8285124977 0.0641944559 -3.02139e-05 0.0001687005 1.66829e-05 -5.64034e-05 0.8506583131 -0.09341835
60299640.0 -0.8298887969 0.0742516093 0.0001466403 -0.0001849118 5.09008e-05 -4.79739e-05 0.8495621182 -0.1017617774
65299610.0 -0.8311130349 0.0851053722 4.73548e-05 3.05794e-05 2.8841e-05 -4.65078e-05 0.848644891 -0.1096369025
70299580.0 -0.8314949175 0.0946020418 0.0001392178 7.38217e-05 -2.08915e-05 4.20874e-05 0.8472271288 -0.1183910834
75299550.0 -0.8315184376 0.1046346543 3.45948e-05 -0.0001002552 1.8142e-05 0.0001818461 0.8471505601 -0.1262600881
80299520.0 -0.8313228269 0.1144444027 -0.0001361598 5.59853e-05 6.29337e-05 -4.07233e-05 0.845078835 -0.1344586491
85299490.0 -0.8308185489 0.1242263355 -4.56436e-05 6.90841e-05 0.000257964 8.24636e-05 0.8439024128 -0.1428795355
90299460.0 -0.8297141216 0.1337921328 0.0001238458 5.83556e-05 4.77611e-05 -0.0001082094 0.8421537439 -0.1517520424
95299430.0 -0.829040321 0.1435807437 0.0002318915 -9.63374e-05 1.70452e-05 -0.0001185271 0.8403125745 -0.1588435667
100299400.0 -0.8279881965 0.1530665504 0.0001976501 6.56715e-05 6.18562e-05 9.03561e-05 0.8389423023 -0.1676696575
105299370.0 -0.8263125272 0.162388112 5.71898e-05 0.0001503957 0.0001418863 -4.98937e-05 0.8365260833 -0.1762534554
110299340.0 -0.8256905284 0.1710760039 2.6034e-06 3.05306e-05 4.42758e-05 -2.03328e-05 0.8352530536 -0.1835134465
115299310.0 -0.8236964276 0.1808117195 -0.0001059781 0.0002795059 5.01995e-05 -0.0001940652 0.8333239063 -0.1922720289
120299280.0 -0.8224042404 0.1897928033 8.24417e-05 2.36908e-05 -9.16437e-05 1.8888e-06 0.8310212695 -0.2000557532
125299250.0 -0.8205452542 0.1987979112 0.0001154649 0.0001473116 0.0001823048 -7.28967e-05 0.8293631567 -0.2084853405
130299220.0 -0.8183315241 0.2078287302 0.0003071463 -0.0002111537 -2.24371e-05 -0.0001216439 0.8271701557 -0.2167225555
135299190.0 -0.8165152647 0.2167631061 -6.66127e-05 -0.0001709957 -0.0001747285 -0.0002571572 0.8253403407 -0.2244489449
140299160.0 -0.8145645059 0.2258898345 -4.03219e-05 -0.0001307131 -9.83536e-05 0.0001111052 0.8228588498 -0.2323941285
145299130.0 -0.8123082631 0.2342090275 0.0002645501 7.91746e-05 -7.7606e-05 -9.18133e-05 0.8202309814 -0.2408595877
150299100.0 -0.8100200283 0.2430055238 -0.0001950264 -3.35824e-05 0.0001681975 -0.0002332024 0.817725639 -0.2488113438
155299070.0 -0.8075057032 0.2520349432 -0.0001680704 4.21805e-05 -0.0001450052 1.36022e-05 0.8156157331 -0.2563436107
160299040.0 -0.80501891 0.2607886705 1.03039e-05 -0.0001081887 -6.37652e-05 0.0001007084 0.8130593117 -0.2643263248
165299010.0 -0.8017978554 0.2694280159 -0.0001574245 -5.05396e-05 6.90936e-05 -3.66894e-05 0.810856931 -0.2720602786
170298980.0 -0.7995209263 0.278285739 0.0002543721 6.00289e-05 0.0002759763 3.63679e-05 0.8077039082 -0.2803191729
175298950.0 -0.7968930106 0.2870227559 5.85721e-05 9.14887e-05 -6.46884e-05 -4.64939e-05 0.8049329184 -0.2881331917
180298920.0 -0.7937223597 0.2952838877 2.10945e-05 -0.000135325 6.955e-07 1.35045e-05 0.8016471901 -0.296380006
185298890.0 -0.7904216672 0.3042868596 -8.9416e-06 -1.60057e-05 -9.65035e-05 0.0001003238 0.7991397323 -0.303786932
190298860.0 -0.7871882311 0.3124259889 5.31179e-05 8.95043e-05 -3.666e-05 1.74167e-05 0.7963338603 -0.3112690301
195298830.0 -0.7838246763 0.3205086394 -7.30061e-05 -0.0001404255 -8.25824e-05 4.05019e-05 0.7931242376 -0.3196748159
200298800.0 -0.7810345219 0.3294775363 0.0001235046 -0.0001798562 0.0001242991 -5.96848e-05 0.7902722335 -0.3275881147
205298770.0 -0.7776156227 0.3371879137 -0.00020649 -0.0001526529 -1.12816e-05 4.78729e-05 0.7867544586 -0.334714144
210298740.0 -0.7735639325 0.3462825461 2.78701e-05 9.54845e-05 4.58585e-05 -7.81767e-05 0.7836171476 -0.3432168762
215298710.0 -0.770087555 0.3540227349 0.0003379965 -0.0002319254 -0.0001878935 -3.19514e-05 0.7804029652 -0.3502039845
220298680.0 -0.766786685 0.3619732328 4.32259e-05 -9.12247e-05 -5.61712e-05 -2.93267e-05 0.7769100683 -0.3574707853
225298650.0 -0.7624647049 0.371248691 4.1647e-06 0.0001983134 -5.37128e-05 0.0001576465 0.7729191162 -0.3653331134
230298620.0 -0.7592382296 0.3785304516 7.03645e-05 7.00729e-05 -8.37374e-05 -2.64558e-05 0.7695651657 -0.3728523607
235298590.0 -0.754777245 0.3875010823 -0.0002357683 6.4899e-06 -0.0001155761 9.87448e-05 0.7658840386 -0.3796625002
240298560.0 -0.7508765878 0.3950079095 0.0001037122 6.77062e-05 -0.0001325522 -0.000111487 0.7621809584 -0.3871600738
245298530.0 -0.7462837571 0.4029489339 8.60969e-05 6.22471e-05 -9.7131e-06 1.35117e-05 0.758372576 -0.3948455501
250298500.0 -0.7424670554 0.4105124746 -0.0001432825 3.64098e-05 -7.11987e-05 -8.4776e-06 0.7545742769 -0.4017084663
255298470.0 -0.7378589784 0.4186368605 0.0001006377 3.42574e-05 -0.0001208108 2.52506e-05 0.7508900258 -0.4093631783
260298440.0 -0.7336179786 0.4259982278 9.56416e-05 1.792e-05 7.97534e-05 -0.0001761303 0.7468123169 -0.416700977
265298410.0 -0.7293066261 0.4337793675 1.62991e-05 -0.0001282131 -0.0002055488 -2.59105e-05 0.7431934112 -0.4242410268
270298380.0 -0.7249842252 0.4418899239 0.0001550014 0.0001226841 7.631e-07 2.09686e-05 0.7392169276 -0.4305909231
275298350.0 -0.7197197229 0.4491733735 9.54269e-05 -1.20418e-05 0.0001650413 1.12423e-05 0.7349995883 -0.4370936503
280298320.0 -0.7148996051 0.4567862274 7.46485e-05 -0.0001249601 1.93483e-05 -6.94374e-05 0.7310295079 -0.4453840638
285298290.0 -0.7097769977 0.464107882 -0.0001125802 -7.68765e-05 -0.0002473971 1.00479e-05 0.7265249459 -0.4520610692
290298260.0 -0.7057966249 0.4719208845 -8.54046e-05 -0.0002314899 9.18988e-05 -2.73817e-05 0.7229969538 -0.4589600481
295298230.0 -0.7008696323 0.479515554 4.71985e-05 6.19987e-05 -0.0001581178 -9.7679e-05 0.7182043593 -0.4654183845
300298200.0 -0.6949722534 0.4868125293 4.91489e-05 0.0001903545 2.2745e-05 9.4721e-05 0.7138210699 -0.4734602865
305298170.0 -0.690443425 0.4938672332 6.66034e-05 -2.45298e-05 -7.1611e-06 9.69356e-05 0.7098117191 -0.4795313844
310298140.0 -0.6847516778 0.5010673578 -7.01034e-05 8.28939e-05 -4.68735e-05 -8.46073e-05 0.7054963433 -0.4868080233
315298110.0 -0.6793336927 0.5078976389 -0.0001153 5.97456e-05 -0.000212665 1.35171e-05 0.700547073 -0.4939227653
320298080.0 -0.6739525154 0.5155158477 -8.09875e-05 -3.19579e-05 -9.61658e-05 -0.0001714981 0.696205435 -0.5016344435
325298050.0 -0.6682062566 0.5221588868 4.70322e-05 0.0001823361 0.0001634017 -6.91402e-05 0.691404062 -0.5095978964
330298020.0 -0.662938006 0.529147206 0.000141192 -0.0001823083 4.77309e-05 -0.000160422 0.6856464415 -0.5168128255
335297990.0 -0.6573956118 0.5365332288 -0.0001811012 0.000176145 -6.44059e-05 4.8052e-06 0.6798967203 -0.5235369291
340297960.0 -0.6520677627 0.5429854944 9.59393e-05 0.0001947847 1.528e-05 -1.50239e-05 0.6742558907 -0.5296148619
345297930.0 -0.6460474655 0.5490058194 3.64056e-05 0.0001699021 4.52488e-05 8.34288e-05 0.6686739222 -0.5355733887
350297900.0 -0.6407004175 0.555952654 -1.16373e-05 6.13982e-05 1.34777e-05 -9.52793e-05 0.66346075 -0.5412267321
355297870.0 -0.6344054279 0.5624481381 -0.0002129377 -0.0001951213 3.86006e-05 -0.0001025334 0.6573055684 -0.548142026
360297840.0 -0.6285258445 0.5688813893 1.02206e-05 -0.0001496513 -0.0001378437 -6.40889e-05 0.6520507055 -0.5538681464
365297810.0 -0.6221990869 0.5757296498 2.02815e-05 0.0001333981 -7.53136e-05 7.69836e-05 0.6465801744 -0.5605490621
370297780.0 -0.6165162306 0.5812768009 -0.0001855357 -0.0001505585 2.252e-07 8.651e-06 0.6413364907 -0.5659037714
375297750.0 -0.6104398364 0.5879458152 5.25749e-05 -6.66443e-05 7.25261e-05 -0.0001716231 0.6353563063 -0.5717842425
380297720.0 -0.6040862956 0.5944229415 -5.84552e-05 -8.10664e-05 -0.0001746706 8.93804e-05 0.6301859084 -0.5777105027
385297690.0 -0.5977072236 0.6013364272 -3.69643e-05 -0.0002416984 -9.74171e-05 -4.92917e-05 0.6241428664 -0.5831897994
390297660.0 -0.5908188473 0.6069767044 -0.0001271165 0.0001542953 -3.2328e-06 -4.12587e-05 0.6191316856 -0.5900668455
395297630.0 -0.5850925271 0.6132781996 -7.16686e-05 7.70934e-05 2.22188e-05 2.5365e-05 0.6128259113 -0.5952974679
400297600.0 -0.5790768912 0.6197237848 0.0001457197 -8.37596e-05 7.0274e-06 3.5969e-05 0.6067148836 -0.6011883418
405297570.0 -0.5726135242 0.6248438034 0.0001438197 -8.3011e-06 -0.0001458971 6.88881e-05 0.6015612335 -0.6072921811
410297540.0 -0.5654379304 0.6308671972 0.0001827048 -0.0001903614 0.0002342036 2.18066e-05 0.5952140281 -0.6124356848
415297510.0 -0.5586955365 0.6363288635 7.87483e-05 4.05628e-05 4.99321e-05 0.0001791938 0.5892788897 -0.6178687732
420297480.0 -0.5521835451 0.6420326458 4.76974e-05 -2.61959e-05 6.9232e-05 -5.88694e-05 0.5829993756 -0.6241220161
425297450.0 -0.5455535271 0.6484545638 4.37429e-05 7.3136e-05 2.17776e-05 -3.97359e-05 0.5768950424 -0.6291210616
430297420.0 -0.5396198309 0.6529637228 9.11679e-05 -4.2046e-05 -4.78004e-05 -0.0002157509 0.5707483934 -0.6351313471
435297390.0 -0.5318662037 0.6589783759 2.58431e-05 -0.0002899163 -6.86353e-05 -0.0001144767 0.5646500784 -0.6406616599
440297360.0 -0.5256098893 0.6643907933 -6.48337e-05 5.85865e-05 -3.337e-05 -0.0001953602 0.5585706332 -0.6457233378
445297330.0 -0.5183655523 0.6696135368 -0.0001058404 5.63009e-05 5.57427e-05 -6.17477e-05 0.5521612077 -0.6514024168
450297300.0 -0.5112917332 0.674997538 3.92408e-05 7.69532e-05 -0.0001567075 6.7602e-06 0.5448587674 -0.6566024124
455297270.0 -0.5045968518 0.6798681151 -0.0001006557 2.18532e-05 1.44684e-05 1.76891e-05 0.5384347692 -0.6617890931
460297240.0 -0.4978290876 0.6853075621 4.19122e-05 -6.10177e-05 -3.50534e-05 -0.0002411147 0.5327665313 -0.6666484022
465297210.0 -0.4899758601 0.6906850707 -1.40383e-05 -0.0001332935 0.0001926612 4.53808e-05 0.5256712512 -0.6725475982
470297180.0 -0.4826883857 0.6945905959 -5.16074e-05 -0.0002221145 3.8719e-05 8.10138e-05 0.5189389118 -0.677081986
475297150.0 -0.4754088779 0.700133503 -8.07611e-05 0.0001937159 -6.36832e-05 0.0001213243 0.5123795756 -0.6819039704
480297120.0 -0.4689910299 0.7041587664 0.0003699669 -7.58285e-05 -0.0001231299 -6.41753e-05 0.5055397267 -0.6866237685
485297090.0 -0.4614502701 0.7095728059 -0.0001383695 -0.0001107642 -9.9657e-06 0.0001443472 0.4982366355 -0.6918157596
490297060.0 -0.4540794434 0.7136422126 -4.32801e-05 2.49085e-05 0.0001284953 5.19379e-05 0.4918335898 -0.6969303813
495297030.0 -0.4472737711 0.7185215591 3.32694e-05 0.0002469403 4.13322e-05 1.80649e-05 0.4854205156 -0.7014680121
500297000.0 -0.4389305758 0.723292516 -0.0001234527 0.0002369486 0.0001893791 -3.99994e-05 0.4776020648 -0.7061105125
505296970.0 -0.4316190884 0.7274935378 0.0002093353 0.000198248 -1.78169e-05 5.27827e-05 0.4703994638 -0.7107422111
510296940.0 -0.4243390958 0.7322060556 -0.000206398 -0.0001184655 2.0113e-06 -3.85049e-05 0.4633836692 -0.7149893198
515296910.0 -0.417188109 0.7362912461 -2.98833e-05 7.3906e-05 1.3479e-06 6.63989e-05 0.4558090164 -0.7190122989
520296880.0 -0.4092705927 0.7404323819 6.47266e-05 0.0002007075 7.1236e-06 -0.0001901783 0.4495324713 -0.7243046972
525296850.0 -0.4019736565 0.7449777459 6.7151e-06 -3.2558e-06 0.0002092295 2.63497e-05 0.4423451586 -0.7287386871
530296820.0 -0.3944730127 0.7481068159 -0.0001798112 -0.0002823389 3.43632e-05 1.18068e-05 0.4348147874 -0.732180018
535296790.0 -0.3858330121 0.7523224523 1.6752e-05 -0.0001743181 -4.7967e-06 -2.22072e-05 0.4268859685 -0.7376291695
540296760.0 -0.3782501143 0.7557889766 -7.8995e-06 -8.22971e-05 -3.40643e-05 -1.84448e-05 0.419630342 -0.7409690293
545296730.0 -0.3708181201 0.7599314545 -0.0001801247 -1.9613e-06 -0.0002838677 4.48803e-05 0.41208614 -0.7454466286
550296700.0 -0.3633641208 0.7635080289 2.08836e-05 0.0002130186 -1.04445e-05 -9.59516e-05 0.4055520691 -0.7490475574
555296670.0 -0.3544709694 0.7668006721 3.30818e-05 0.0001199915 0.0002016213 -0.000233912 0.3972501338 -0.7528197484
560296640.0 -0.3474260613 0.7707397383 7.30623e-05 0.0003209082 0.0001282396 -7.6223e-05 0.3901859337 -0.7564965114
565296610.0 -0.3395315039 0.7738815355 0.0001359717 -0.0002278536 7.32408e-05 7.41169e-05 0.3831480473 -0.7607826708
570296580.0 -0.3315165267 0.7774864367 -8.27187e-05 5.32125e-05 5.86014e-05 -1.51709e-05 0.374662955 -0.7637057549
575296550.0 -0.3234301522 0.7806700408 5.89727e-05 -7.3838e-06 -6.1014e-06 5.47945e-05 0.3664658312 -0.7673504353
580296520.0 -0.3153813178 0.7838213161 7.2287e-06 6.16314e-05 -9.75981e-05 2.5956e-06 0.359011265 -0.7706958382
585296490.0 -0.3076807649 0.7860821144 -6.9061e-05 9.00057e-05 0.0001644375 8.0579e-05 0.3518654427 -0.775070545
590296460.0 -0.2999098679 0.7896892435 -0.0002639918 6.057e-05 -6.52664e-05 0.000106882 0.3441043394 -0.7777425782
595296430.0 -0.2914576918 0.7936332747 0.000134866 0.0001750458 -0.0001739445 2.91471e-05 0.3356201103 -0.7808699651
600296400.0 -0.2834075612 0.7958434543 5.17136e-05 0.000259608 3.9657e-05 -1.5078e-05 0.3283776218 -0.7839083229
605296370.0 -0.2752990925 0.7986779076 -0.0001463561 3.82981e-05 -0.0001686469 5.34408e-05 0.3202723324 -0.787709448
610296340.0 -0.2675415853 0.8011408249 7.8223e-05 -8.72748e-05 -3.07053e-05 -0.0001714327 0.3120227253 -0.7900209804
615296310.0 -0.2594935204 0.8043650036 -7.49289e-05 -0.0002181071 -3.41511e-05 0.0002161272 0.304914857 -0.7939462607
620296280.0 -0.250860976 0.8062662032 7.77503e-05 5.63011e-05 1.35024e-05 -7.45242e-05 0.2967453337 -0.797139057
625296250.0 -0.2428191611 0.8090407807 0.0001702072 -7.826e-06 -0.0001735199 -1.17224e-05 0.2879553873 -0.7984886083
630296220.0 -0.2341261478 0.8121857638 0.0001942465 -0.0001602598 -4.24183e-05 0.0001724456 0.2802769335 -0.8008593782
635296190.0 -0.2265600493 0.8137242345 2.09741e-05 -0.0001188223 -4.02203e-05 5.48986e-05 0.2723411965 -0.8039210636
640296160.0 -0.2176531395 0.8154177919 -0.0001429462 8.1248e-05 0.0001046559 -4.32231e-05 0.2642692284 -0.8067615367
645296130.0 -0.2102455549 0.8179468883 -0.0001895835 3.3492e-06 2.98463e-05 4.21699e-05 0.2561253272 -0.8090475618
650296100.0 -0.2020041815 0.8201879446 -0.0002021694 5.9953e-05 4.11102e-05 -0.0001002033 0.2481122807 -0.8112695335
655296070.0 -0.1928342141 0.822172886 -4.73554e-05 -6.78095e-05 -3.72858e-05 0.0001937566 0.2396770149 -0.8137433419
660296040.0 -0.1850803188 0.8241814639 -0.0002109218 -0.0001328312 0.0002751083 4.13226e-05 0.2314251212 -0.8162229978
665296010.0 -0.1767971383 0.8256738461 7.0325e-06 0.0002310704 0.0002432225 9.60288e-05 0.2237332019 -0.8182183017
670295980.0 -0.1681705683 0.8274139739 -9.77728e-05 0.0001936807 -5.82746e-05 0.0001718516 0.2156047029 -0.8200587393
675295950.0 -0.1601398225 0.8291351047 -8.1258e-06 -7.80341e-05 0.0001457248 -5.4335e-06 0.2074658882 -0.8216438873
680295920.0 -0.1517632817 0.8308651671 0.0001781379 -0.000139838 4.92111e-05 -6.5061e-06 0.1991583275 -0.8242092684
685295890.0 -0.1430859668 0.8323429425 1.08696e-05 2.42325e-05 0.0001786023 0.0001492131 0.1913481279 -0.8258046578
690295860.0 -0.1344881332 0.8331463535 -0.0002968992 -0.0001824697 -6.2432e-06 1.94467e-05 0.183171058 -0.8273813133
695295830.0 -0.1261591822 0.8346854277 3.85114e-05 0.0001016599 3.74552e-05 -4.05838e-05 0.1738515858 -0.829370521
700295800.0 -0.1173596457 0.8354188282 0.0002446058 -7.37962e-05 0.0001147665 0.0002600742 0.1656715675 -0.8306287785
705295770.0 -0.1092488464 0.8375956148 -4.06088e-05 -0.0001640595 -3.42783e-05 -0.0001258798 0.1572455951 -0.8311969537
710295740.0 -0.1011329995 0.8380807855 7.47339e-05 -0.0001429474 2.87233e-05 2.68645e-05 0.1489351658 -0.8330835498
715295710.0 -0.0933159811 0.839231773 9.19201e-05 4.64976e-05 0.0001630391 0.0001485882 0.1410378431 -0.8345487083
720295680.0 -0.0845010594 0.840023255 -0.0001060462 0.0001251197 7.621e-07 0.0002311456 0.1333189769 -0.835456673
725295650.0 -0.075213089 0.8409220785 8.46087e-05 0.0002093253 4.53426e-05 -3.3105e-06 0.125128958 -0.8369104549
730295620.0 -0.0678113911 0.8411842684 -0.0001534464 -0.0001676491 6.51457e-05 0.0002533953 0.1159100031 -0.8385499704
735295590.0 -0.0582990234 0.841406377 0.0001628167 0.0002209873 5.8299e-05 0.0001529952 0.107431813 -0.8388862798
740295560.0 -0.0503242541 0.8429601656 -2.11608e-05 -3.67878e-05 -5.31441e-05 1.92963e-05 0.0990012389 -0.8401349208
745295530.0 -0.0417304804 0.8426181515 0.0001958805 -0.0001412252 9.5519e-05 -2.5571e-06 0.0909409895 -0.840226338
750295500.0 -0.0338707588 0.8431337408 -7.36339e-05 -9.4685e-06 0.000105978 -4.80328e-05 0.0828321843 -0.841694555
755295470.0 -0.0244681373 0.8434681577 -1.39264e-05 0.0001203135 0.0001189545 -0.00028377 0.073559233 -0.8419799303
760295440.0 -0.0162679536 0.8433874417 -0.0001567501 9.71719e-05 0.000106945 3.93907e-05 0.0654493788 -0.8429606133
765295410.0 -0.0075986132 0.8435178161 -8.72002e-05 -0.0001162849 -3.46354e-05 -0.0001158669 0.0573917944 -0.8427379441
770295380.0 0.0005914428 0.8443206532 0.0002121862 4.69913e-05 -2.25905e-05 0.0001612817 0.0490119286 -0.8430394991
775295350.0 0.0089399817 0.8437331397 -3.53387e-05 7.49222e-05 0.0001337009 -3.11086e-05 0.0403138155 -0.8443968121
780295320.0 0.0177282266 0.8435143259 -8.9524e-05 -0.0002378104 0.0002020123 7.99742e-05 0.0317039754 -0.8435386669
785295290.0 0.0256279321 0.843570001 0.0001235242 9.36691e-05 0.0001342071 2.36284e-05 0.0233064079 -0.843688036
790295260.0 0.0342408379 0.8426585198 0.0001995048 -0.0001196174 7.35219e-05 -9.17328e-05 0.0149294005 -0.8443756098
795295230.0 0.0427711846 0.8433376452 -3.2916e-06 -0.0001377353 0.0001994515 9.91009e-05 0.0065768406 -0.8441724058
800295200.0 0.0515191689 0.8421989967 1.0924e-05 -5.56926e-05 0.000212855 -7.63855e-05 -0.001938959 -0.8445674841
805295170.0 0.0596528623 0.8422962871 -3.0891e-05 0.0001836029 -0.0002132002 -6.53297e-05 -0.0105410848 -0.8441529647
810295140.0 0.0680689681 0.8408695002 0.0001036276 0.0001729675 0.0001490559 -1.887e-06 -0.0186213584 -0.8432213822
815295110.0 0.0768174996 0.8398653934 -0.0001146714 -1.16319e-05 3.41206e-05 -0.0001189973 -0.0273864262 -0.8427351016
820295080.0 0.0850347339 0.8390622608 -0.0001421044 -0.0002135488 -4.88364e-05 -1.49951e-05 -0.0362098195 -0.8431333784
825295050.0 0.0941926921 0.83895066 7.12462e-05 -4.38175e-05 0.0001832847 4.09916e-05 -0.0436679045 -0.8422784378
830295020.0 0.1019489226 0.8380197185 -4.12812e-05 -9.1513e-06 2.08449e-05 3.6692e-06 -0.0530063064 -0.8413341174
835294990.0 0.1097910921 0.8369097975 -1.7101e-06 -2.78654e-05 -4.16457e-05 0.0001220529 -0.0607999421 -0.8411164997
840294960.0 0.1185930962 0.8353856366 -1.6176e-05 -7.45877e-05 -6.54521e-05 6.87522e-05 -0.0698130181 -0.8390721253
845294930.0 0.1269681548 0.8348779412 6.34984e-05 -2.02928e-05 -8.71522e-05 -0.0001591891 -0.0773084095 -0.8388609236
850294900.0 0.1353432391 0.8328859547 -8.97126e-05 -0.0001680517 -4.76616e-05 -1.6325e-06 -0.0860418534 -0.8375980385
