!Created with skrf (http://scikit-rf.org).
# Hz S RI R 50.0 
!freq ReS11 ImS11 ReS21 ImS21 ReS12 ImS12 ReS22 ImS22
300000.0 -0.2416522092 -0.0963282 0.4724051605 0.0657185481 0.4712491087 0.0616244976 -0.2366622399 -0.1046621523
5299970.0 -0.2448160719 0.0065157209 0.4749512957 0.0050589048 0.4748883349 0.0049859294 -0.2406467497 0.0069215793
10299940.0 -0.2417145577 0.0177819934 0.4767996661 0.0060657172 0.4766877072 0.0063766108 -0.2372180306 0.0205732386
15299910.0 -0.2372767351 0.026856639 0.4803208383 0.00721579 0.4802510515 0.0071617204 -0.2323715802 0.0299794365
20299880.0 -0.2327529876 0.0337019309 0.4852050155 0.0083795285 0.4848799236 0.0077331779 -0.2271717628 0.0382220017
25299850.0 -0.2275710249 0.0401914732 0.4901941022 0.0072379503 0.4897981738 0.00706154 -0.2214984715 0.0449295279
30299820.0 -0.2227104495 0.045152987 0.4955504422 0.0048065563 0.4952618828 0.0049696515 -0.2157761272 0.0502773901
35299790.0 -0.2172135676 0.0491789491 0.500491787 0.0011912355 0.5008781019 0.0015175493 -0.2104156156 0.0550726735
40299760.0 -0.2123915351 0.0524087603 0.5056631873 -0.0024854559 0.5058230378 -0.0026210024 -0.2047973306 0.0579185237
45299730.0 -0.2078593036 0.0549089241 0.5104200933 -0.0073615977 0.5106665097 -0.0073008235 -0.2001815623 0.0608949851
50299700.0 -0.2039957133 0.0568376065 0.5150130948 -0.0128818455 0.5147306742 -0.0123716749 -0.1953810275 0.0627708651
55299670.0 -0.200071173 0.0587032724 0.5187954372 -0.0191550208 0.5187315814 -0.0187041963 -0.1916096861 0.0649809738
60299640.0 -0.1959206515 0.0599135992 0.5218385231 -0.0249518535 0.5221117248 -0.0246373583 -0.1872618566 0.0656385415
65299610.0 -0.1929790543 0.0609606615 0.5247616179 -0.0315766466 0.5249814676 -0.0315737306 -0.1839452382 0.0670234
70299580.0 -0.1899608945 0.0620786161 0.5271666552 -0.0380472419 0.526845135 -0.0380607231 -0.1807697028 0.0678714326
75299550.0 -0.1873728039 0.0630864033 0.5286030243 -0.0446793738 0.5286258916 -0.0445783394 -0.1780745361 0.0680854155
80299520.0 -0.1847661926 0.0637055017 0.5308180025 -0.0515170784 0.5309971999 -0.051490356 -0.1756619233 0.0691931578
85299490.0 -0.1824658621 0.0642276529 0.5319772943 -0.0582657334 0.531933808 -0.0584396568 -0.1730624185 0.0697328283
90299460.0 -0.1802748342 0.0649236803 0.5328397986 -0.0657291391 0.533180076 -0.0655352819 -0.1706802581 0.070482647
95299430.0 -0.1783290772 0.0653922951 0.5339303157 -0.0723838782 0.5340872295 -0.0723184516 -0.1685584855 0.0710383263
100299400.0 -0.1769727827 0.066464578 0.5341051994 -0.0792101684 0.5340615621 -0.0791497813 -0.1662114157 0.071457174
105299370.0 -0.1748449223 0.0669222603 0.5344802847 -0.0861406037 0.5348926217 -0.0862605968 -0.1642948847 0.0723455202
110299340.0 -0.173497388 0.0676703768 0.5345073755 -0.0924600338 0.5343545954 -0.0925836667 -0.1630358753 0.0726537335
115299310.0 -0.1719355061 0.0685833789 0.5346429103 -0.0998774259 0.5345449309 -0.1000917549 -0.1612135465 0.0733403871
120299280.0 -0.1708089441 0.0686415709 0.5341863824 -0.1065631959 0.5341753956 -0.1067711121 -0.1594451029 0.0742603251
125299250.0 -0.1696406721 0.0692258578 0.5339463916 -0.1129095406 0.5342041559 -0.1130855695 -0.1585884224 0.0742608924
130299220.0 -0.168643803 0.0704346184 0.5332512559 -0.1198975434 0.5333405632 -0.120098987 -0.1568474515 0.0753898872
135299190.0 -0.1674227385 0.071288777 0.532661695 -0.1268393845 0.5327413728 -0.1267307868 -0.1556007505 0.0762854155
140299160.0 -0.1664877206 0.0719139778 0.5318714305 -0.1331090337 0.5318802078 -0.1335162504 -0.1541711434 0.0777320792
145299130.0 -0.1653705102 0.073113948 0.5309610866 -0.139666681 0.5306401211 -0.1397647947 -0.1530312379 0.078513231
150299100.0 -0.1642375415 0.0737866474 0.5295050341 -0.1458986929 0.5297725322 -0.1461797266 -0.1521688304 0.0799646699
155299070.0 -0.1638717137 0.0746229641 0.5290119327 -0.1533129901 0.5284152295 -0.1528090727 -0.1505479148 0.0808451371
160299040.0 -0.1626883519 0.0758222942 0.5271389718 -0.1590740506 0.5269233418 -0.1595366486 -0.1498821017 0.0821130266
165299010.0 -0.1620813832 0.077029495 0.5254022618 -0.1657335836 0.5258724133 -0.1659295408 -0.1486958981 0.0833245171
170298980.0 -0.1613220223 0.0776244879 0.524405399 -0.1722617447 0.5245244508 -0.1716974427 -0.1477454205 0.0847063078
175298950.0 -0.1607152169 0.0789283361 0.522855839 -0.1784497698 0.5221571764 -0.1782488632 -0.1469833324 0.0858658765
180298920.0 -0.1599924054 0.0800432392 0.5211751004 -0.1847103905 0.5207248333 -0.1845076619 -0.1461523682 0.0873134803
185298890.0 -0.1589033298 0.0807571828 0.5190849013 -0.1907376563 0.5190202484 -0.190495407 -0.1453567218 0.0885876879
190298860.0 -0.1582084098 0.0824783461 0.5170968615 -0.1968870816 0.5176998974 -0.1966444126 -0.1442655623 0.0896403839
195298830.0 -0.1575861479 0.0831801795 0.5151832497 -0.2031665596 0.5152838511 -0.2025925014 -0.1434314447 0.0914986613
200298800.0 -0.1564484379 0.0846027801 0.512480288 -0.2091790807 0.5131628474 -0.2093224629 -0.1428903892 0.0927825815
205298770.0 -0.1561788255 0.0860126967 0.5102617865 -0.2157117101 0.5106893501 -0.215134984 -0.1416480389 0.0933948891
210298740.0 -0.1554958168 0.0867393791 0.5083302945 -0.2207713224 0.5084389558 -0.2207081373 -0.140578959 0.0955856361
215298710.0 -0.1551484462 0.0883445719 0.5064398114 -0.2270634118 0.5065130453 -0.2274520005 -0.14027218 0.0967172638
220298680.0 -0.1540698265 0.08959218 0.503682967 -0.2330591805 0.5035830743 -0.2330205764 -0.1395322064 0.0976959694
225298650.0 -0.1533307238 0.0908327815 0.5012263665 -0.2390916269 0.5015085036 -0.2390108479 -0.138653452 0.0991566475
230298620.0 -0.1525121406 0.0922963861 0.4986000633 -0.2447113837 0.4992445851 -0.2445463438 -0.1380783664 0.1002758454
235298590.0 -0.1516770254 0.0937656364 0.4962074524 -0.25049077 0.4961899404 -0.2502444537 -0.1368380682 0.1019162227
240298560.0 -0.1513060218 0.0949675618 0.4936030557 -0.2565103149 0.4932658722 -0.2564654565 -0.1362254928 0.1035204669
245298530.0 -0.1504899084 0.0964312341 0.491010596 -0.2616590062 0.4906108687 -0.2622892749 -0.1348897815 0.1041318883
250298500.0 -0.1495134255 0.0977574527 0.4874546357 -0.2675688024 0.4874337044 -0.2671161931 -0.1343307817 0.1057620151
255298470.0 -0.1486583685 0.0986870144 0.4843167686 -0.2726962847 0.4847445359 -0.272826526 -0.1329774647 0.1069003562
260298440.0 -0.1481956466 0.1001983108 0.481580689 -0.2786417409 0.4820177611 -0.2784028158 -0.1315097576 0.1081129848
265298410.0 -0.14674073 0.1018028183 0.4789669719 -0.284101628 0.4791016453 -0.283861816 -0.1309974603 0.1096443326
270298380.0 -0.1462397602 0.1031511515 0.4760850292 -0.2892642931 0.476148319 -0.2894463114 -0.1299257226 0.1110191738
275298350.0 -0.1447112992 0.1044664199 0.4723470301 -0.2950183121 0.4727535684 -0.2949145795 -0.1285485233 0.1123324956
280298320.0 -0.1438533964 0.1057865344 0.4692628889 -0.3002035686 0.4696540929 -0.3003572475 -0.1270820253 0.1134706537
285298290.0 -0.142989975 0.1074068848 0.4664689174 -0.3056085274 0.4664484016 -0.3055469102 -0.1256776561 0.1146163512
290298260.0 -0.1420421009 0.1085599825 0.4627427073 -0.3106797256 0.4629805319 -0.3107073531 -0.124382224 0.1163440216
295298230.0 -0.1409164 0.1096445045 0.4595312833 -0.3159945628 0.4595602362 -0.3160770435 -0.1226399619 0.1170825815
300298200.0 -0.1401528802 0.1109845345 0.4562666674 -0.3210401709 0.4562138974 -0.3212708976 -0.1216120483 0.1186664523
305298170.0 -0.1389982393 0.1122869898 0.4523421576 -0.3268676808 0.4527904159 -0.326477052 -0.1198215573 0.1198590835
310298140.0 -0.137975344 0.1136842392 0.448721403 -0.3317741128 0.448783041 -0.3317722363 -0.1186508702 0.1211179847
315298110.0 -0.1368983306 0.1145098607 0.4455662122 -0.3370498295 0.4454735483 -0.3369506092 -0.1172585255 0.1220866398
320298080.0 -0.1357972861 0.1159364101 0.4409041927 -0.3425667481 0.4414452257 -0.3419203434 -0.1161682022 0.1236419225
325298050.0 -0.1347492359 0.1170697414 0.4378997705 -0.3473457795 0.4379678875 -0.3470401891 -0.1149268419 0.125236732
330298020.0 -0.1341343653 0.1181500376 0.4337036026 -0.3520033851 0.433928397 -0.3517869028 -0.1138617157 0.126261279
335297990.0 -0.1331616735 0.1192938144 0.4295555945 -0.3567686083 0.4297220497 -0.3570308915 -0.1127425028 0.1281000858
340297960.0 -0.1323474123 0.1207402925 0.4256165527 -0.3613799771 0.4251681256 -0.3617248009 -0.1112201813 0.1295964659
345297930.0 -0.1314541499 0.1225564688 0.4213835079 -0.3664295726 0.4213269573 -0.3663416688 -0.1101058467 0.1308556258
350297900.0 -0.1302865415 0.1235054494 0.4168378706 -0.3711613611 0.4171646789 -0.3708080351 -0.1088511366 0.1325005845
355297870.0 -0.1291788847 0.1256716585 0.4130914199 -0.3756311893 0.4132780679 -0.3752922376 -0.1078211192 0.1335345955
360297840.0 -0.1282860814 0.126972577 0.4095733145 -0.3799534057 0.4095654191 -0.3799451124 -0.1062682409 0.1355430324
365297810.0 -0.1271851893 0.1284353183 0.4049137694 -0.3844516903 0.4052390417 -0.3846100853 -0.1049052966 0.1368208214
370297780.0 -0.1257541679 0.129128838 0.4000853645 -0.3885912033 0.4011645991 -0.3884369435 -0.103621022 0.138311242
375297750.0 -0.1247830778 0.1304897426 0.3964450271 -0.3933074389 0.3969533511 -0.3933186511 -0.1023109841 0.1396199582
380297720.0 -0.1233066973 0.1318604556 0.3919305899 -0.397662778 0.3922342383 -0.3972122906 -0.1011317435 0.1408415497
385297690.0 -0.1225892859 0.1334553855 0.3875738079 -0.4018737936 0.3874687772 -0.4018217605 -0.0994295291 0.1422301171
390297660.0 -0.1211542441 0.1350023573 0.3832457161 -0.4062425047 0.3829477358 -0.4055995715 -0.0984843356 0.1434448452
395297630.0 -0.1199854416 0.1363256604 0.3785513928 -0.4100527989 0.3786148506 -0.4102242893 -0.0962953604 0.1448044304
400297600.0 -0.1186320513 0.1376959502 0.3737698471 -0.414870424 0.3742014547 -0.4146045139 -0.0948432329 0.1456922976
405297570.0 -0.1176098762 0.1388271763 0.3695993741 -0.4184828793 0.3695984932 -0.41841623 -0.0939992134 0.1469746016
410297540.0 -0.1159781224 0.1400241453 0.3650144431 -0.4223441156 0.3652857472 -0.4227032096 -0.0921692466 0.1486031886
415297510.0 -0.1144628956 0.141098472 0.360646322 -0.4268523843 0.3606391237 -0.4268890483 -0.0908932176 0.1496594952
420297480.0 -0.1135040122 0.1432033774 0.3554049954 -0.4309507293 0.3556181206 -0.4306641813 -0.0892380314 0.1503975533
425297450.0 -0.1119822357 0.1436093454 0.3508302443 -0.4343115306 0.3511355436 -0.4347475962 -0.087964758 0.1518857801
430297420.0 -0.110829668 0.1448366246 0.3462746868 -0.4376438215 0.3461977218 -0.4379876239 -0.0862467991 0.1520997619
435297390.0 -0.1094937592 0.146062298 0.3410722654 -0.4418121695 0.3408056449 -0.4420454381 -0.0841329857 0.15321301
440297360.0 -0.1080290202 0.1475022111 0.3363211287 -0.4454187116 0.3365655681 -0.4455065738 -0.0828698748 0.1543417348
445297330.0 -0.1066504687 0.1482860128 0.3319143565 -0.4490438295 0.3316081128 -0.4489498975 -0.0809959001 0.1547469682
450297300.0 -0.1050860661 0.1493006751 0.3266339206 -0.4526919822 0.3263646264 -0.4533910699 -0.0791132325 0.1560375901
455297270.0 -0.1036149448 0.1506768061 0.3215935153 -0.4563491561 0.3217086201 -0.4563798118 -0.0775639981 0.1568661208
460297240.0 -0.1024454752 0.1519253731 0.3164804075 -0.4596304859 0.3168910692 -0.4598945588 -0.0756738764 0.1579894531
465297210.0 -0.1005447006 0.1529634687 0.3115657029 -0.4632037259 0.3115927924 -0.4638297093 -0.0736865195 0.1585100657
470297180.0 -0.0992249026 0.1537555786 0.3065744477 -0.4665724121 0.3062915868 -0.4664526796 -0.0718052698 0.1597034946
475297150.0 -0.097964175 0.1545425758 0.3010361065 -0.4691997021 0.3013709796 -0.4695768774 -0.0695947408 0.1601944531
480297120.0 -0.0963495496 0.1562350904 0.2961063158 -0.4731559062 0.2963685517 -0.4732789144 -0.0676948388 0.1616692759
485297090.0 -0.0947971278 0.1572252168 0.2911123371 -0.4760284699 0.2909628824 -0.4760216142 -0.0661047525 0.1622244577
490297060.0 -0.0938742206 0.1582875884 0.2861954388 -0.4797661301 0.2863162011 -0.4790655116 -0.0638150971 0.1632867533
495297030.0 -0.0920783764 0.1593031685 0.2803545949 -0.4822641464 0.2809196171 -0.4823486169 -0.0626157164 0.1644479531
500297000.0 -0.0905225214 0.1599121065 0.2748543334 -0.4848815046 0.2750860594 -0.4849979646 -0.0601907641 0.1657899873
505296970.0 -0.0886953224 0.160995175 0.2703146602 -0.4881514912 0.269708782 -0.4882782187 -0.0586069061 0.1662453341
510296940.0 -0.0873796637 0.1622468633 0.2647482153 -0.491176249 0.2647135434 -0.4916735456 -0.0565823096 0.167504453
515296910.0 -0.0857758647 0.163220487 0.2593531261 -0.4940121602 0.2591180962 -0.4939395597 -0.0544770475 0.1679824709
520296880.0 -0.0844854458 0.1643013089 0.254166055 -0.4973504653 0.2539533808 -0.4968561677 -0.0530065721 0.168917522
525296850.0 -0.082420187 0.1647368886 0.2481008018 -0.4995395026 0.2488464471 -0.4995213161 -0.0512907041 0.1697168849
530296820.0 -0.0808439454 0.1663517707 0.2426841314 -0.5025013258 0.2429303783 -0.5022676168 -0.0493462313 0.170625854
535296790.0 -0.0797963354 0.1668157234 0.2379234994 -0.5045249092 0.2376900657 -0.5045927687 -0.0477585411 0.1712652293
540296760.0 -0.0777942284 0.1683382234 0.2321910858 -0.5076577069 0.2319827863 -0.5076095956 -0.0457710053 0.1725444417
545296730.0 -0.0762993151 0.1689949538 0.2263323769 -0.5096647712 0.226312064 -0.5096632299 -0.0441107141 0.172863152
550296700.0 -0.0742649598 0.1703159265 0.2207827597 -0.5122480494 0.2207887379 -0.5126373108 -0.0422698475 0.173896262
555296670.0 -0.0730647911 0.1708325961 0.215610639 -0.514384963 0.215656403 -0.5145355558 -0.0403746756 0.1748823539
560296640.0 -0.0710205446 0.1717238408 0.2096479938 -0.517085499 0.2097969334 -0.5169833076 -0.0385125968 0.1751135578
565296610.0 -0.069792431 0.1724151281 0.2040696506 -0.51939579 0.2040891432 -0.5191838577 -0.0366699197 0.1752753687
570296580.0 -0.0682755114 0.1730737715 0.1991408039 -0.5213659207 0.1980537085 -0.5212361599 -0.035204896 0.1763845313
575296550.0 -0.0665036321 0.1744190032 0.1931396052 -0.523916495 0.1928825298 -0.5234140616 -0.0329474308 0.1765218205
580296520.0 -0.0648394954 0.1750271322 0.1875028074 -0.52541763 0.1873757903 -0.5257517118 -0.0312409004 0.1770161894
585296490.0 -0.0630323418 0.1753607468 0.181595255 -0.5270975086 0.1818915015 -0.5275501248 -0.0291917069 0.1774428766
590296460.0 -0.0608765542 0.1763741495 0.1757306908 -0.528773862 0.1759484097 -0.5291369017 -0.0275637917 0.1779315525
595296430.0 -0.0590952533 0.1770278604 0.1693446743 -0.5314487676 0.1696505374 -0.5312854138 -0.0254442083 0.1779873366
600296400.0 -0.0579453478 0.1778846132 0.1641199008 -0.5331088868 0.1638683435 -0.5324779734 -0.0238345452 0.1783943483
605296370.0 -0.0561309168 0.1782210713 0.1582816145 -0.53431649 0.1584590181 -0.5347008078 -0.0215960309 0.1788345015
610296340.0 -0.0542423352 0.1791080575 0.1519194283 -0.5359379982 0.152503154 -0.5363360491 -0.0193935189 0.1789357079
615296310.0 -0.0522941247 0.1794555507 0.1464931219 -0.5375066379 0.1467242106 -0.5381581147 -0.0171671754 0.1792123011
620296280.0 -0.0507501163 0.1800746682 0.1406789265 -0.5390619861 0.1408065033 -0.5391270379 -0.0156781145 0.1795455885
625296250.0 -0.0492274662 0.180539066 0.1356164923 -0.5408050375 0.1353503762 -0.5412689658 -0.0127782055 0.1798001763
630296220.0 -0.0466065111 0.1814391853 0.1288537745 -0.5422566516 0.1286376529 -0.5420409493 -0.0115101102 0.1800834451
635296190.0 -0.04567703 0.1816416064 0.123332697 -0.543360907 0.1233748665 -0.5434211892 -0.0090614429 0.1804980904
640296160.0 -0.0441762645 0.1823784786 0.1173830543 -0.5443364245 0.1176525659 -0.5447058744 -0.0067243674 0.1805525205
645296130.0 -0.0421657177 0.1831772958 0.1113401635 -0.545764973 0.1122409782 -0.5459987927 -0.0047296946 0.1807057884
650296100.0 -0.0401936179 0.183738412 0.1054931597 -0.5472908783 0.1059266497 -0.5469322897 -0.0024297648 0.1804746919
655296070.0 -0.0387314411 0.1838163596 0.0996639637 -0.5479847491 0.1001053115 -0.5481421794 -0.0002282303 0.1809665463
660296040.0 -0.0371229087 0.1841099699 0.0941691596 -0.5490480987 0.0939504858 -0.5486306444 0.0015964808 0.1809303049
665296010.0 -0.0348115837 0.1844662892 0.0877702905 -0.5495594398 0.0879082872 -0.5497725659 0.0039879551 0.1814399136
670295980.0 -0.0338689975 0.1856104207 0.0821671637 -0.5509743739 0.0821572256 -0.5508344841 0.0055629775 0.1816261972
675295950.0 -0.0317635176 0.1861615539 0.075960703 -0.5512536597 0.0762302606 -0.5513115003 0.0074098881 0.1819345838
680295920.0 -0.0299532063 0.1863274414 0.0699379169 -0.552612042 0.069365186 -0.552802492 0.0099556499 0.1823734703
685295890.0 -0.0281970429 0.187330783 0.0640939998 -0.5532966046 0.063624533 -0.552991419 0.0116744065 0.1821849358
690295860.0 -0.0260254559 0.1872894437 0.0584213662 -0.5531328122 0.0579170177 -0.5538872646 0.013852138 0.1830697231
695295830.0 -0.0243544836 0.1875650042 0.0527259935 -0.5539903166 0.0515759123 -0.5542859529 0.0159334713 0.1827415515
700295800.0 -0.0226741379 0.1879027058 0.0461156956 -0.5547147177 0.0456372477 -0.554529939 0.0175308345 0.1831282856
705295770.0 -0.0207541193 0.1889822611 0.0398375897 -0.5553319141 0.040509333 -0.5553956214 0.0195854203 0.1832016719
710295740.0 -0.0185604525 0.1887462909 0.0342538196 -0.5558629167 0.0343479043 -0.5562915439 0.0216910475 0.1829111612
715295710.0 -0.0173085243 0.1891822942 0.0287632708 -0.5559980516 0.028172234 -0.5561316676 0.0238957907 0.1831494282
720295680.0 -0.0151424792 0.1895086711 0.022102778 -0.5561260838 0.0223753168 -0.5564648982 0.025725578 0.1836322287
725295650.0 -0.0131190775 0.1898721786 0.0162235302 -0.5564437924 0.0161096425 -0.5568780504 0.0274826067 0.1831977754
730295620.0 -0.0112727609 0.1905239025 0.0098867247 -0.5563297814 0.0102403868 -0.556593176 0.029092742 0.1828422938
735295590.0 -0.0094929978 0.1906617617 0.0041183708 -0.5568175505 0.0040671756 -0.5566647263 0.0312929768 0.1824445486
740295560.0 -0.0079478511 0.1910908896 -0.0019438606 -0.55621253 -0.0019189652 -0.5568890994 0.0337300607 0.1825048965
745295530.0 -0.0058694804 0.1911797849 -0.0078244575 -0.55560933 -0.0079923149 -0.5565346162 0.0354046774 0.1817353332
750295500.0 -0.0037259555 0.1912870936 -0.0137412287 -0.5561374545 -0.0138927462 -0.5561713063 0.0372400995 0.1820669773
755295470.0 -0.0020586921 0.1913773265 -0.0194849252 -0.5560670344 -0.0197961983 -0.55641018 0.0393821542 0.1811438588
760295440.0 -0.0003720662 0.1917335194 -0.0258429882 -0.5564676403 -0.0259230192 -0.5560379437 0.0411359429 0.1806761447
765295410.0 0.0016982016 0.1915782268 -0.0319712501 -0.5554192839 -0.0322866274 -0.5554348772 0.0432075074 0.1807350708
770295380.0 0.0030731856 0.1915840238 -0.0383820878 -0.5551163505 -0.0379095009 -0.5551142413 0.0450548776 0.1800159534
775295350.0 0.0050445434 0.1914280899 -0.0441075286 -0.5542893282 -0.0434484439 -0.5545885688 0.0464451504 0.1798362611
780295320.0 0.0070464702 0.1918252583 -0.0499216756 -0.5539382014 -0.0491749972 -0.5538932899 0.0486962312 0.1789570006
785295290.0 0.0086135105 0.1915871742 -0.0562088952 -0.5530670966 -0.0555985835 -0.5535522324 0.0516360504 0.1783825722
790295260.0 0.0109257382 0.1921438674 -0.0614052959 -0.5526449745 -0.0610743093 -0.5525336199 0.0531409573 0.1780147037
795295230.0 0.0124718231 0.1914917168 -0.0675217701 -0.5517316104 -0.0672162071 -0.551988319 0.0552876508 0.177642287
800295200.0 0.0144125173 0.191966418 -0.074045644 -0.5507380643 -0.0732017203 -0.5512821485 0.0573319547 0.1770225343
805295170.0 0.0163417746 0.191549772 -0.0793308125 -0.5498915217 -0.0793606153 -0.5506404556 0.0594442575 0.1764082232
810295140.0 0.0179019989 0.1913716059 -0.0847182079 -0.5491537751 -0.0850512673 -0.5495720273 0.0617037311 0.1762852801
815295110.0 0.0197781273 0.1909685744 -0.0910524941 -0.5478575463 -0.0908764184 -0.5484320147 0.0633558166 0.1755531943
820295080.0 0.0214953487 0.1917689658 -0.0968515079 -0.5470049916 -0.0967551755 -0.547147792 0.0654426984 0.1749958446
825295050.0 0.0239359549 0.1915196189 -0.1022167999 -0.5461085938 -0.1027204836 -0.5462606947 0.0679609455 0.1746028485
830295020.0 0.0255344183 0.191595994 -0.1089247927 -0.5450803281 -0.1089374163 -0.5450956298 0.0702184834 0.1741591548
