!Created with skrf (http://scikit-rf.org).
# Hz S RI R 50.0 
!freq ReS11 ImS11 ReS21 ImS21 ReS12 ImS12 ReS22 ImS22
300000.0 -0.2393888154 -0.111574052 0.4694286325 0.0725111847 0.4739998251 0.0743615694 -0.2417373964 -0.1150870679
5299970.0 -0.2407034725 0.0070548504 0.4751599615 0.0057835866 0.4749431365 0.0058940583 -0.2447095108 0.0052361568
10299940.0 -0.2372576724 0.0200396235 0.4773318625 0.0063487428 0.4769664326 0.0064102394 -0.2417804178 0.01761725
15299910.0 -0.233005165 0.0298062091 0.4804777504 0.0075605711 0.4804896588 0.0076761724 -0.2372549734 0.0264429114
20299880.0 -0.2272894275 0.0379109703 0.4850728518 0.0075148108 0.485334888 0.008372075 -0.2329657321 0.0340301556
25299850.0 -0.2216297091 0.044188007 0.4906882185 0.007027407 0.49073595 0.0067274565 -0.2277436594 0.0396694016
30299820.0 -0.2157518446 0.0494967949 0.496233036 0.0049867515 0.4957765572 0.0050135514 -0.2225873287 0.0446870162
35299790.0 -0.2099736002 0.054164966 0.5013714783 0.001807814 0.5011535306 0.0019422202 -0.2173495728 0.0486131899
40299760.0 -0.2045668718 0.0571589229 0.5065613761 -0.0020541048 0.5063581132 -0.002398496 -0.2128723915 0.0519656631
45299730.0 -0.1996915346 0.0600279791 0.5111733791 -0.0070017953 0.5109920712 -0.007069467 -0.2080143546 0.0545709763
50299700.0 -0.1948745024 0.0618911569 0.5147968785 -0.0128491292 0.5155006108 -0.0129282994 -0.203698162 0.0567135908
55299670.0 -0.1906214945 0.0637297188 0.5183139371 -0.0185299989 0.5189094257 -0.0186173183 -0.1998246036 0.0581836193
60299640.0 -0.1865252569 0.0648621586 0.5220197641 -0.0251612526 0.522002104 -0.0250102413 -0.196509453 0.059418691
65299610.0 -0.1832784319 0.0663516945 0.5252176642 -0.0308198643 0.5250876 -0.0312612101 -0.1928263968 0.0606913015
70299580.0 -0.1795884387 0.0669481299 0.5273691691 -0.037408816 0.5271595697 -0.0377451978 -0.1901373743 0.0614797435
75299550.0 -0.1767092711 0.0681588162 0.5290709418 -0.0447922254 0.5292262314 -0.0447986069 -0.1870679771 0.0626443442
80299520.0 -0.1741956269 0.0688873809 0.5315765796 -0.0514838452 0.5316202184 -0.0513018838 -0.1848087975 0.0629444329
85299490.0 -0.1716168654 0.0692453149 0.5326684338 -0.0582194839 0.5324277683 -0.0583943597 -0.1826231702 0.0634663295
90299460.0 -0.1693380371 0.0702775949 0.5334372063 -0.0652131514 0.5336095913 -0.0653933482 -0.1799604571 0.0644228503
95299430.0 -0.1672505624 0.0710903596 0.5343314771 -0.0726019194 0.5345649552 -0.0720853323 -0.1783741586 0.0649385302
100299400.0 -0.1654428127 0.0718969088 0.534681309 -0.0788752493 0.5345806857 -0.0791325831 -0.1770318722 0.0653878672
105299370.0 -0.1633637082 0.0724572538 0.5347943657 -0.0857629617 0.5351631162 -0.0861622558 -0.1748663856 0.0663165347
110299340.0 -0.162013648 0.0730349171 0.5349896508 -0.0927363163 0.5349444327 -0.0929326022 -0.1738982477 0.066838193
115299310.0 -0.1603536472 0.0735485424 0.5347859535 -0.0992343194 0.5350360291 -0.0991915994 -0.1723115417 0.0668772525
120299280.0 -0.1590368441 0.0742083357 0.5347377237 -0.105952318 0.5350585958 -0.1064761785 -0.1712111788 0.0679671066
125299250.0 -0.1580645422 0.0752488673 0.534658064 -0.1128106349 0.53462186 -0.1129754146 -0.1697535991 0.0680106878
130299220.0 -0.1567071225 0.0760806288 0.5339881222 -0.1192246757 0.5339043818 -0.11975941 -0.1689222438 0.0693512791
135299190.0 -0.1550630849 0.0766732391 0.5331958545 -0.1262709428 0.5328967397 -0.126723262 -0.1679445875 0.0701710089
140299160.0 -0.1543883617 0.077984634 0.532796702 -0.1327965157 0.5327873845 -0.1332012863 -0.1668832878 0.0710201181
145299130.0 -0.1531184287 0.0790031837 0.5318401374 -0.1396195284 0.5315240056 -0.1395743049 -0.1661696044 0.0718663687
150299100.0 -0.1522272388 0.079974627 0.5302955857 -0.1458886746 0.5303242626 -0.1462580818 -0.1650843865 0.0724421422
155299070.0 -0.1512125462 0.0813940295 0.529067346 -0.1528407456 0.5291858598 -0.1528816276 -0.1646569431 0.0736819506
160299040.0 -0.150147995 0.0821901702 0.5272406974 -0.1586611836 0.5279328053 -0.1589213727 -0.1634649365 0.0745934742
165299010.0 -0.1492775665 0.0832605774 0.5268910108 -0.1654143606 0.5267164451 -0.1653550702 -0.1626610074 0.0753481923
170298980.0 -0.1485967119 0.0843240518 0.5244371975 -0.1720607755 0.5246831664 -0.171774825 -0.1616717041 0.076183173
175298950.0 -0.1472722698 0.0857253537 0.5236910963 -0.1778532082 0.5235099585 -0.1780137021 -0.1613325835 0.0774825581
180298920.0 -0.1464023824 0.0866016644 0.5217130054 -0.1843877104 0.5218296905 -0.1845216695 -0.1601554515 0.0788231448
185298890.0 -0.1452469946 0.0878680371 0.5196993896 -0.1911634394 0.5196272162 -0.1904358082 -0.1598718925 0.079547664
190298860.0 -0.1444766073 0.0890905281 0.517430299 -0.1968870951 0.5181675961 -0.1969645383 -0.1584916435 0.0807261933
195298830.0 -0.143573087 0.0903763271 0.5160578426 -0.2027298653 0.5157650665 -0.203024619 -0.1581653122 0.0815217521
200298800.0 -0.1427055244 0.0915097376 0.5139084224 -0.2084661039 0.5137715948 -0.2088867958 -0.1571116695 0.0832740476
205298770.0 -0.1417187755 0.0931250806 0.5123781216 -0.2147045623 0.5116210946 -0.2150355025 -0.156149984 0.0839502544
210298740.0 -0.1410081037 0.0942482875 0.5092314002 -0.2212185998 0.5094888366 -0.2209680301 -0.1554879654 0.0853864529
215298710.0 -0.1399162967 0.0957594618 0.5072480385 -0.22691266 0.5067744481 -0.2265822252 -0.1550290688 0.0866502653
220298680.0 -0.1387771005 0.0970436577 0.5045655596 -0.2327775484 0.5046200185 -0.2327848536 -0.1541008427 0.0880260025
225298650.0 -0.1376153123 0.0985190326 0.5015687461 -0.2385030463 0.5020117645 -0.2384442471 -0.1534560249 0.0892437661
230298620.0 -0.1369559775 0.0999655331 0.4997321204 -0.2442453494 0.4996582918 -0.244559052 -0.1524325392 0.0903714292
235298590.0 -0.1360057097 0.1011465077 0.497226921 -0.2501498792 0.4970608857 -0.2504014512 -0.1516990006 0.0913590281
240298560.0 -0.1350714198 0.1026218137 0.4942772616 -0.2558204326 0.4950005776 -0.2553470067 -0.1510578826 0.0932303639
245298530.0 -0.1336825367 0.1039619309 0.4910963407 -0.2616134917 0.4915671614 -0.261471557 -0.1499540793 0.0944300975
250298500.0 -0.1331987406 0.1051490683 0.4884895546 -0.2666777963 0.4891076894 -0.2662860189 -0.1489203611 0.0956792351
255298470.0 -0.1320025593 0.1066523259 0.4856469003 -0.272672045 0.4856715538 -0.2728499994 -0.1482414352 0.0966647192
260298440.0 -0.1309154715 0.1082780461 0.482978084 -0.2780231575 0.4830629063 -0.2781079909 -0.1469298533 0.0982784369
265298410.0 -0.1293831859 0.1099715435 0.4798588351 -0.2841956293 0.4800095551 -0.2837380989 -0.1464864002 0.099638438
270298380.0 -0.1282067867 0.1108946288 0.4760516683 -0.2889748162 0.4768583679 -0.2894580667 -0.1451303748 0.1013070886
275298350.0 -0.1276075342 0.1125903026 0.473717038 -0.2949185579 0.4739313889 -0.2948877962 -0.1441312791 0.1026109666
280298320.0 -0.1260015126 0.1141629367 0.4702701348 -0.2998696663 0.4703171286 -0.3000914525 -0.1435111308 0.1038882814
285298290.0 -0.1250467729 0.1153454903 0.4671694929 -0.3048322454 0.4669765452 -0.305505775 -0.1425795214 0.1054024587
290298260.0 -0.123630497 0.1169815492 0.4639648358 -0.3105252344 0.4638752745 -0.3103572169 -0.1408863878 0.1067205643
295298230.0 -0.122542381 0.1179346931 0.4605296715 -0.3158581534 0.4602760884 -0.315752216 -0.1403419485 0.1080258704
300298200.0 -0.1209790765 0.1193473228 0.4570722173 -0.3212170541 0.4571653674 -0.3212035977 -0.1392171051 0.1093774621
305298170.0 -0.119719941 0.1207413953 0.4539318993 -0.3266601252 0.4541362828 -0.3265718078 -0.1379632802 0.111075747
310298140.0 -0.118178815 0.1220127371 0.450212436 -0.331668217 0.4502415291 -0.332223025 -0.1369729649 0.1123926167
315298110.0 -0.1173255537 0.1233315596 0.4463037909 -0.3370100587 0.4464195094 -0.3371108862 -0.1356475092 0.113205455
320298080.0 -0.1158720438 0.1247529593 0.4423314503 -0.3420344923 0.4431967641 -0.3417828777 -0.1347670026 0.1144321814
325298050.0 -0.1147095016 0.1256796155 0.439225781 -0.3473466033 0.4390628381 -0.3475322435 -0.1339087962 0.1157712151
330298020.0 -0.1136747378 0.1272400237 0.4343983532 -0.3519579736 0.4345482144 -0.3523128398 -0.1330387963 0.1171336609
335297990.0 -0.1121904409 0.1281283563 0.4305669582 -0.3568260512 0.4308439457 -0.3568919048 -0.1323943801 0.1186259347
340297960.0 -0.1115793588 0.1299001369 0.4263304717 -0.3618611511 0.4268967605 -0.3617519245 -0.1311663404 0.1200477453
345297930.0 -0.1101106865 0.1311265029 0.4225831716 -0.3658907362 0.421904716 -0.3662295228 -0.1296552195 0.1211577214
350297900.0 -0.1082662398 0.1324366645 0.4183194288 -0.370663913 0.4185309359 -0.3709098777 -0.1288533367 0.1233560478
355297870.0 -0.1071368426 0.133766604 0.4141941959 -0.3752547675 0.4141868923 -0.3757471925 -0.1280075528 0.1244277347
360297840.0 -0.1057006453 0.1352276149 0.4102901994 -0.3801682753 0.4099997334 -0.3803723774 -0.1265384783 0.1260352073
365297810.0 -0.1040590176 0.1363614127 0.4054254606 -0.3844386406 0.4059492565 -0.3848244351 -0.1254175102 0.1276214629
370297780.0 -0.1026886479 0.1376994962 0.4014809154 -0.3889097259 0.4018052328 -0.3895675647 -0.1241261763 0.1289417232
375297750.0 -0.1011730654 0.1393807941 0.3979054052 -0.3936653028 0.3971748754 -0.3940167906 -0.1231115808 0.1304282661
380297720.0 -0.0996647733 0.1402208247 0.3929094484 -0.3978666894 0.3930060714 -0.3975266308 -0.1217837457 0.1317117578
385297690.0 -0.0980309672 0.1416443803 0.3882047284 -0.4018386889 0.3884681765 -0.4020009207 -0.1205653549 0.1333871742
390297660.0 -0.0968070435 0.142699649 0.3838559085 -0.4065728176 0.384037064 -0.4068041716 -0.1192638774 0.1341481328
395297630.0 -0.0947708825 0.1439688742 0.3798790752 -0.4102776166 0.3795444804 -0.4104396405 -0.118135444 0.1355827009
400297600.0 -0.0935155173 0.1452827134 0.3753990438 -0.4147398134 0.3757583867 -0.4147182682 -0.1173887185 0.1366696966
405297570.0 -0.0917826354 0.1467000223 0.3703879347 -0.4187410852 0.3709177916 -0.4190212598 -0.1159930431 0.1385893138
410297540.0 -0.0900011981 0.1477490761 0.3654969351 -0.4227945709 0.3655224411 -0.4227908872 -0.1142712513 0.1400710302
415297510.0 -0.0884953611 0.1491006914 0.3613756556 -0.4264646024 0.3612679256 -0.4266732949 -0.1131358511 0.1414188082
420297480.0 -0.0868208944 0.1496872408 0.3564694627 -0.4306859 0.3564206742 -0.430640731 -0.1116103398 0.142062858
425297450.0 -0.0850975112 0.1508114552 0.3519658051 -0.4343695981 0.3520351541 -0.434779898 -0.1103919835 0.1440537451
430297420.0 -0.0837902633 0.152301591 0.3473698495 -0.4387312958 0.347271715 -0.4385112576 -0.1091587012 0.1448099128
435297390.0 -0.0818494512 0.1530636747 0.3423008132 -0.441831273 0.3423768195 -0.4420452015 -0.1080155459 0.1464983147
440297360.0 -0.0802121752 0.1541512313 0.3373305099 -0.4462257194 0.3368367978 -0.4457233624 -0.1062993364 0.1473331791
445297330.0 -0.0780613157 0.1551545843 0.3321425356 -0.4496479329 0.3323385587 -0.4495492109 -0.1048985864 0.1483942658
450297300.0 -0.076325467 0.1562472791 0.3274282076 -0.4530983346 0.3278201926 -0.4533995022 -0.1039185286 0.1499994558
455297270.0 -0.0747578876 0.1570409466 0.3230512287 -0.4568219243 0.3229219027 -0.4564598076 -0.1020830141 0.1510711804
460297240.0 -0.0733960023 0.1582332029 0.3174266794 -0.4601388151 0.3170878069 -0.4598567787 -0.1005375238 0.1526844081
465297210.0 -0.0709359694 0.1592027407 0.3124146897 -0.4636687489 0.3125503602 -0.4631747117 -0.0996821007 0.1534928342
470297180.0 -0.0697074905 0.1598602257 0.307673187 -0.4667664029 0.3078047137 -0.4665519828 -0.0983248333 0.1546832868
475297150.0 -0.0678735736 0.1603997217 0.3019600186 -0.4698370875 0.302399601 -0.4701071002 -0.0965432325 0.1561547493
480297120.0 -0.065770046 0.1613659067 0.2970505732 -0.4732973798 0.2971280132 -0.4735629806 -0.0952064596 0.1574382335
485297090.0 -0.0640958287 0.162179627 0.2920676049 -0.4764516133 0.2920677746 -0.4766947984 -0.0939390832 0.1578738253
490297060.0 -0.061969146 0.1630211471 0.2866173396 -0.4795304476 0.2866346289 -0.4796569852 -0.0924408259 0.1593359818
495297030.0 -0.0607828625 0.1643508112 0.2813862175 -0.4830127337 0.2815571288 -0.4826549189 -0.0908114404 0.1601444172
500297000.0 -0.0584254293 0.1645438589 0.2760630539 -0.4855825641 0.2762291403 -0.4857298189 -0.0896763201 0.1612780467
505296970.0 -0.0567588327 0.1653310865 0.2701543991 -0.4883492927 0.2708680549 -0.4883655834 -0.088109877 0.1622682477
510296940.0 -0.0551822335 0.1667044756 0.2653197144 -0.4916230169 0.265668492 -0.4918802809 -0.0862377223 0.163719085
515296910.0 -0.053315982 0.1673870232 0.2599593749 -0.4940567658 0.260328738 -0.4942607982 -0.0847379568 0.1645295753
520296880.0 -0.0509678549 0.1677808877 0.2545862665 -0.4972859801 0.2549618947 -0.4969875635 -0.0831777683 0.1654347799
525296850.0 -0.0494710394 0.168249429 0.2495389876 -0.4998864277 0.2496856371 -0.5000710351 -0.0813223095 0.1665908117
530296820.0 -0.0477531924 0.1691197302 0.2441243392 -0.5017252194 0.2438368313 -0.5022611643 -0.080232369 0.1673198361
535296790.0 -0.0456107697 0.1695376603 0.238275975 -0.5048040265 0.238515863 -0.5047711567 -0.0785118188 0.1680552812
540296760.0 -0.0440451134 0.1700413767 0.232994139 -0.5080091543 0.2324785896 -0.5079040928 -0.0772033675 0.1692240875
545296730.0 -0.0420369573 0.171023011 0.2271947201 -0.5097625389 0.2279265444 -0.5101890092 -0.0758313785 0.1696657876
550296700.0 -0.0402362777 0.171534151 0.221821911 -0.5124333954 0.2225586019 -0.5127846216 -0.0739780781 0.1711859189
555296670.0 -0.0377573816 0.1719689373 0.2160964962 -0.5147078002 0.2164984153 -0.515099914 -0.0725432035 0.1719194995
560296640.0 -0.0362827803 0.1725413173 0.2110896918 -0.516653602 0.2107940455 -0.5169096405 -0.0705015494 0.1728063483
565296610.0 -0.0343804241 0.1732536532 0.2047988004 -0.5194475941 0.2050803243 -0.5195436148 -0.0693220722 0.1734558808
570296580.0 -0.032354136 0.1733906643 0.1994766475 -0.5210363675 0.1999091349 -0.521754448 -0.0674903157 0.1748596091
575296550.0 -0.0306406311 0.1745555927 0.1939738773 -0.5232612659 0.1944939287 -0.5229366506 -0.0656644245 0.1752793962
580296520.0 -0.0284982566 0.1747783494 0.1884880172 -0.5254226331 0.1880291407 -0.5256960122 -0.0639522217 0.1760877253
585296490.0 -0.0265800221 0.1747390343 0.1824152576 -0.5274130673 0.1825891608 -0.5275252659 -0.0623921954 0.1764224391
590296460.0 -0.024857404 0.1753270437 0.1765600696 -0.5297953355 0.176510717 -0.5296551675 -0.0607053972 0.1779672505
595296430.0 -0.0225132728 0.1759101339 0.1708212565 -0.5315166318 0.1710903964 -0.5316428322 -0.0588318955 0.178073476
600296400.0 -0.0209295687 0.1763973076 0.1654648118 -0.5331538031 0.1657800802 -0.5329659218 -0.057431294 0.1791889242
605296370.0 -0.0187137608 0.1769715727 0.1595743903 -0.5349228388 0.159822364 -0.5347081128 -0.0557311234 0.179574087
610296340.0 -0.0170652374 0.1771609632 0.1542256807 -0.5365620815 0.1539011362 -0.5366401928 -0.0540474318 0.18067041
615296310.0 -0.0148246409 0.17764763 0.1473109436 -0.538313993 0.1478552943 -0.5380138457 -0.0522557515 0.181125634
620296280.0 -0.0127909896 0.1776937034 0.1424534176 -0.5394078209 0.1423121236 -0.539621508 -0.0505753603 0.1816834387
625296250.0 -0.0107162191 0.1781092134 0.1360407974 -0.5411901127 0.1361687471 -0.5414556411 -0.0484778967 0.1827080622
630296220.0 -0.0085659739 0.1782946115 0.1301940846 -0.542705639 0.1305802569 -0.5423160735 -0.0474428035 0.182983489
635296190.0 -0.0070452955 0.1784491262 0.1245290996 -0.5435665604 0.1243525576 -0.5435573047 -0.0452675183 0.1834873375
640296160.0 -0.0048344685 0.1787150831 0.1190294626 -0.5450213802 0.1185364593 -0.5451948836 -0.0432308723 0.1843555815
645296130.0 -0.0026898169 0.17897901 0.1124990688 -0.5464815426 0.1130581648 -0.5464290954 -0.0423400723 0.184404838
650296100.0 -0.0007866883 0.1793746976 0.1068162774 -0.5470593831 0.1067440745 -0.5476816099 -0.0400495054 0.1852421513
655296070.0 0.0010779107 0.1793159078 0.1007608121 -0.5485999149 0.1010367124 -0.5485641054 -0.0381645445 0.1861097077
660296040.0 0.0027334946 0.1798420395 0.0949641692 -0.5492941421 0.0952149128 -0.5492766854 -0.0365867633 0.1863587984
665296010.0 0.0050493209 0.1793849395 0.0897034072 -0.5505474924 0.0896374498 -0.550588233 -0.034819517 0.1871047203
670295980.0 0.00752024 0.1796785384 0.0831790551 -0.5515112883 0.0835726574 -0.5516047351 -0.0336051524 0.1873636537
675295950.0 0.0092954275 0.1799368132 0.0770772738 -0.5521695427 0.0774692149 -0.5526570583 -0.0310630003 0.187742137
680295920.0 0.0111790041 0.1803290683 0.0711745103 -0.5535022106 0.0713003839 -0.5531644554 -0.0292017873 0.1883680701
685295890.0 0.013037334 0.1799380245 0.0654810087 -0.5536694768 0.0650972477 -0.5542389929 -0.0275407466 0.1890426981
690295860.0 0.0152144957 0.1800157041 0.059499699 -0.5542955342 0.05899577 -0.5542313606 -0.0254624368 0.189429661
695295830.0 0.017476531 0.1796506377 0.0530933401 -0.554400661 0.0533253953 -0.5550802615 -0.0244619786 0.1894838367
700295800.0 0.0193741536 0.179638949 0.0471957586 -0.5555329004 0.0472950546 -0.5556200238 -0.0222332701 0.1897162826
705295770.0 0.0213592432 0.1798222963 0.0411399719 -0.5556888925 0.0414084921 -0.5559879405 -0.0208649311 0.1904850399
710295740.0 0.0235921821 0.1797583905 0.0349860451 -0.5559295522 0.0353486112 -0.5561498678 -0.0193247299 0.1910433442
715295710.0 0.0251111333 0.1797802344 0.0293807317 -0.5565486023 0.0298593176 -0.5568294887 -0.0171295979 0.1908566498
720295680.0 0.0271567012 0.1794575597 0.0234501527 -0.5565882673 0.023241311 -0.557271108 -0.0148348986 0.1916258742
725295650.0 0.0294923779 0.1791191352 0.0169572321 -0.5569124159 0.017333306 -0.5568538113 -0.0129008383 0.1915158898
730295620.0 0.0311984881 0.1789722256 0.0112068836 -0.557103169 0.011274987 -0.5571588225 -0.0112146035 0.1917350866
735295590.0 0.033435761 0.1789305662 0.0054262516 -0.5569587155 0.0053424754 -0.557456903 -0.0092622203 0.1923644632
740295560.0 0.0355419635 0.1787428742 -0.0006722884 -0.5567029345 -0.0007401994 -0.5572099713 -0.0073652234 0.1922828495
745295530.0 0.0374534463 0.1782861856 -0.0067617414 -0.5570646536 -0.0062414288 -0.5572508055 -0.0059461971 0.1926769424
750295500.0 0.0394700763 0.1778854089 -0.0123386491 -0.5566600467 -0.0125133966 -0.5567674534 -0.0039279528 0.192374689
755295470.0 0.0419346435 0.1781667904 -0.018420728 -0.5567880213 -0.0184396981 -0.5570748581 -0.002460712 0.1929672334
760295440.0 0.0432982232 0.1778038651 -0.0247262674 -0.5563560028 -0.0249514579 -0.5565171821 -0.0003720767 0.1929993735
765295410.0 0.0452409353 0.1769994908 -0.0301534277 -0.5557870222 -0.0304819664 -0.5563725358 0.0020316189 0.1935121133
770295380.0 0.0474929028 0.1769587119 -0.0365866406 -0.5554784341 -0.0365041012 -0.556042722 0.0034188524 0.1936131252
775295350.0 0.0494462498 0.176705828 -0.0423775261 -0.5550737463 -0.0420146635 -0.5552242405 0.0048952607 0.1932703601
780295320.0 0.0516525299 0.1759851307 -0.0485431446 -0.554468695 -0.0483011534 -0.5551500419 0.0072281628 0.1937388972
785295290.0 0.0534276058 0.1759711002 -0.0543117545 -0.5533825769 -0.0544937443 -0.5541942435 0.0087143174 0.1935646462
790295260.0 0.0553498656 0.1754858349 -0.0604778003 -0.5535403523 -0.06040439 -0.5538504117 0.0108842318 0.1936321408
795295230.0 0.0573710002 0.1753321681 -0.0660547511 -0.5526803327 -0.066040292 -0.5529001615 0.0128911715 0.1939219106
800295200.0 0.0593368649 0.1747511728 -0.0722819644 -0.5523595025 -0.0725722029 -0.5525230557 0.0146232878 0.1939448867
805295170.0 0.0610163673 0.1737307343 -0.0782071214 -0.5510721598 -0.0778930508 -0.5511469594 0.0161259083 0.1936480287
810295140.0 0.0630821594 0.1734202187 -0.0837540259 -0.550305677 -0.0839003796 -0.5509855448 0.0183260788 0.194516643
815295110.0 0.0654023702 0.1731162702 -0.090441056 -0.548916107 -0.0903549771 -0.5495042926 0.0199730748 0.193859414
820295080.0 0.0673112456 0.1719523033 -0.0956829527 -0.5481032868 -0.0960338434 -0.5488275379 0.0218173049 0.193713551
825295050.0 0.0689924467 0.1713797446 -0.1017087519 -0.5469785344 -0.1018446032 -0.5471520037 0.0242987231 0.1940355083
830295020.0 0.071175796 0.1712951907 -0.1078874586 -0.54582083 -0.1079429441 -0.5462584706 0.0256543505 0.1934140105
