!Created with skrf (http://scikit-rf.org).
# Hz S RI R 50.0 
!freq ReS11 ImS11 ReS21 ImS21 ReS12 ImS12 ReS22 ImS22
300000.0 -0.3179450782 -0.1056281602 0.3728540016 0.0533434845 0.3729596963 0.0572527375 -0.3163216619 -0.112941565
5299970.0 -0.3237741839 0.0048574117 0.3784725434 0.00278667 0.378049186 0.0032453904 -0.3259572638 0.0027183936
10299940.0 -0.3211297794 0.0154757841 0.3798111492 0.0023451807 0.3795807168 0.0024970007 -0.3237064275 0.0126727607
15299910.0 -0.3180641024 0.0234953909 0.3816515753 0.002266631 0.3819757999 0.0025740804 -0.3210993346 0.0195392328
20299880.0 -0.3144762025 0.0302969204 0.3853300891 0.0016463848 0.3850257276 0.0017455991 -0.3187888495 0.0260154033
25299850.0 -0.3105167518 0.0358219804 0.3885464586 -0.0002061745 0.3883373708 -1.19151e-05 -0.3153691658 0.0309156653
30299820.0 -0.3066699475 0.0404476803 0.3920109153 -0.0021916459 0.3915535491 -0.002080532 -0.3126362269 0.0353498536
35299790.0 -0.30283281 0.0446580533 0.3949449946 -0.0052353187 0.3951876594 -0.0051845924 -0.3096253299 0.0395256955
40299760.0 -0.2994735839 0.0479312669 0.3982129514 -0.0084748816 0.3983335932 -0.0088990745 -0.307295883 0.04309231
45299730.0 -0.2966182417 0.0513680822 0.4015040945 -0.0127323538 0.4014843022 -0.0126465156 -0.3046001484 0.0464619883
50299700.0 -0.2932758491 0.0541358419 0.4032242278 -0.0171443121 0.4037439992 -0.0175840438 -0.3019148333 0.0493352777
55299670.0 -0.2908423409 0.0568908876 0.4055804962 -0.0222626321 0.4058152068 -0.0220078401 -0.30034335 0.052363256
60299640.0 -0.2878476194 0.0590211478 0.4075026396 -0.0272800548 0.4076511347 -0.0269882461 -0.2981438885 0.0544782999
65299610.0 -0.2860799159 0.0617337036 0.4091058192 -0.0312981239 0.4096173656 -0.0317923344 -0.2960607916 0.0571383345
70299580.0 -0.2839170657 0.063432179 0.410498283 -0.0370964788 0.4106543781 -0.0367917253 -0.2946460057 0.0595499905
75299550.0 -0.2818899082 0.0657527733 0.411350295 -0.0420581064 0.4113798123 -0.0422413992 -0.2929525101 0.0620848504
80299520.0 -0.2802563399 0.0679774737 0.4127795197 -0.0471193318 0.4127043285 -0.0474300737 -0.2915517795 0.0642828381
85299490.0 -0.2785139537 0.0697643885 0.4131830603 -0.0526220725 0.4131377199 -0.0526687292 -0.2903854356 0.0665672465
90299460.0 -0.2771395972 0.0721075468 0.4136536576 -0.0576988066 0.4136608581 -0.0580128805 -0.2887235055 0.0688602925
95299430.0 -0.2755724991 0.0745416421 0.4141840037 -0.0636940201 0.4140265089 -0.0632785547 -0.2876389781 0.0713514571
100299400.0 -0.2743045316 0.0765048283 0.4137556821 -0.068496785 0.4139496316 -0.068191661 -0.2867262786 0.0732166887
105299370.0 -0.2729100626 0.0784480388 0.4135390588 -0.0732703515 0.4137687558 -0.0739919598 -0.2849526134 0.0760315334
110299340.0 -0.2720702485 0.0802733706 0.4132331931 -0.078393856 0.4135047128 -0.0789847295 -0.2843830038 0.0784847984
115299310.0 -0.2709949173 0.0821911263 0.4130792276 -0.0834952949 0.4132216558 -0.0835951921 -0.2829661314 0.0800181177
120299280.0 -0.2698615521 0.0846075052 0.413008388 -0.0886886574 0.4127836914 -0.0892438719 -0.2823060445 0.0830146116
125299250.0 -0.2691156872 0.0868051238 0.4123997719 -0.0939478617 0.4123455184 -0.0942323223 -0.2811034669 0.0849918721
130299220.0 -0.2677916623 0.0890027777 0.4115579234 -0.0985066098 0.4114864719 -0.0989684149 -0.2807027777 0.0872694825
135299190.0 -0.2666713044 0.0911371889 0.4109332749 -0.103760972 0.4106600737 -0.1040231448 -0.279277595 0.0895448003
140299160.0 -0.2659664152 0.0936110452 0.4100928751 -0.1088238948 0.4104774586 -0.1092050897 -0.2786015826 0.0919933074
145299130.0 -0.2647106278 0.095660216 0.4095366313 -0.1140944236 0.4091194176 -0.1136588986 -0.2777934721 0.0944242213
150299100.0 -0.2637386069 0.0981578624 0.4078959767 -0.118968488 0.408164717 -0.1188590382 -0.2768128654 0.0970498667
155299070.0 -0.2628331905 0.100957229 0.4069247221 -0.124073842 0.4069967806 -0.1243412026 -0.2761706802 0.099626907
160299040.0 -0.2619616431 0.1031246602 0.4058411677 -0.1286526549 0.4058473044 -0.1289236498 -0.2751885942 0.1022255687
165299010.0 -0.2610712273 0.1054568746 0.4048195359 -0.1336392577 0.4046949324 -0.1337236467 -0.2743492443 0.105002766
170298980.0 -0.2601373899 0.1078080067 0.4029040723 -0.1387307993 0.403004795 -0.138347341 -0.2728184786 0.1072347315
175298950.0 -0.2592465184 0.1105263479 0.4025959892 -0.1430799087 0.4022162869 -0.1433208969 -0.272170227 0.1098343485
180298920.0 -0.2581208201 0.1128136895 0.4002085838 -0.1481719649 0.4006596412 -0.1476977913 -0.2712922103 0.1123606736
185298890.0 -0.2570616153 0.115234273 0.3985220541 -0.1527253879 0.3988917318 -0.1523930864 -0.2700041193 0.1146268663
190298860.0 -0.2556038226 0.1177654068 0.3972204554 -0.157500802 0.3972834765 -0.1575757925 -0.2688425282 0.1175574079
195298830.0 -0.2545744444 0.1200002896 0.3955735528 -0.16185882 0.395487822 -0.1622261345 -0.2678875064 0.1200040895
200298800.0 -0.253642484 0.1229284184 0.3940403234 -0.1662826476 0.3938234266 -0.1665364281 -0.2666221111 0.1231033571
205298770.0 -0.2524411297 0.1250453804 0.3921625401 -0.1712233362 0.3922709636 -0.1711616442 -0.265624718 0.1254669166
210298740.0 -0.2513955612 0.1278115901 0.3905349621 -0.1759139296 0.3903894607 -0.175997254 -0.2648587139 0.1283419006
215298710.0 -0.2502509571 0.1304546314 0.3886030783 -0.1803020631 0.3884193848 -0.1800613189 -0.2634889164 0.1307413292
220298680.0 -0.2492725331 0.133084439 0.3867020158 -0.1846605073 0.3865608092 -0.1847779697 -0.2621314296 0.1337268308
225298650.0 -0.2475676728 0.1354785424 0.3841941384 -0.1888965606 0.3840980111 -0.1889413634 -0.2611371167 0.1361820592
230298620.0 -0.2466521172 0.1381539794 0.3826902671 -0.1938605818 0.3824678538 -0.1934459609 -0.2595290833 0.1388683492
235298590.0 -0.2455403325 0.1406257222 0.3806525767 -0.1976921324 0.3802505035 -0.1978905068 -0.2582901043 0.1413441841
240298560.0 -0.244323594 0.1434005552 0.378178219 -0.2022496354 0.3782534547 -0.2019231963 -0.2570088371 0.144351207
245298530.0 -0.2424932614 0.1461254823 0.3754115999 -0.2066610204 0.375437041 -0.2066679842 -0.2554900197 0.147035766
250298500.0 -0.2414689692 0.1484289475 0.3736422809 -0.2105513718 0.3738875463 -0.2103474357 -0.2539965997 0.1499786375
255298470.0 -0.2403955313 0.1508965174 0.371541933 -0.2152046734 0.3712325923 -0.2148634563 -0.2525438788 0.1522069683
260298440.0 -0.2385417302 0.1535520714 0.3688563939 -0.219378002 0.3691236624 -0.2193668174 -0.2509934276 0.154947137
265298410.0 -0.2373140684 0.1561535888 0.3665609867 -0.2238447708 0.3664034346 -0.2234107681 -0.2497440924 0.1574895256
270298380.0 -0.2353854135 0.1586114907 0.363535449 -0.2277528768 0.3643040856 -0.2279069541 -0.2478074414 0.1603987794
275298350.0 -0.2339633961 0.1611884064 0.3615451858 -0.2319446525 0.3619215997 -0.2319838824 -0.2464307226 0.1630107031
280298320.0 -0.2325533555 0.163987575 0.3592817836 -0.2356970349 0.3591164893 -0.2361462781 -0.2447314926 0.1657571229
285298290.0 -0.2308466242 0.1663672038 0.3562143695 -0.2397591604 0.3565064749 -0.2400506577 -0.2429808575 0.168211513
290298260.0 -0.2292405994 0.1688954183 0.3539158198 -0.2437281202 0.3535126955 -0.2439842581 -0.240842406 0.1711130051
295298230.0 -0.227641899 0.1713912198 0.3513256113 -0.2479555799 0.3511769893 -0.2482335688 -0.2392466223 0.1737056322
300298200.0 -0.2257062261 0.1734326345 0.348300275 -0.251837671 0.348202896 -0.2521339218 -0.2377895864 0.1764162463
305298170.0 -0.2241036445 0.1762492422 0.346221396 -0.2559775795 0.345990437 -0.2559433716 -0.2354600925 0.1792368171
310298140.0 -0.2220445029 0.178364385 0.342628754 -0.2603008634 0.3427919295 -0.260308513 -0.2337775231 0.1819277129
315298110.0 -0.2206471546 0.1807518903 0.3400458082 -0.2637087334 0.3401961202 -0.2638684146 -0.2317079463 0.1844135027
320298080.0 -0.2186206907 0.1832751569 0.3371000871 -0.2679407936 0.3372099156 -0.2676761667 -0.2300257347 0.1867891536
325298050.0 -0.2169130129 0.1854623096 0.3341858442 -0.2718412325 0.3340355677 -0.2717311531 -0.2281928606 0.1894886531
330298020.0 -0.2150406761 0.1879943845 0.3304754107 -0.2756313881 0.3307442062 -0.2755529067 -0.2263214731 0.1916436947
335297990.0 -0.2134790137 0.1902486451 0.3275993423 -0.2792755525 0.3276743631 -0.279189609 -0.2249856244 0.1944259618
340297960.0 -0.2118384473 0.1927358482 0.3242190514 -0.2827702403 0.3247817547 -0.2825138258 -0.2226528263 0.1968799017
345297930.0 -0.2100012957 0.1950995306 0.3211123371 -0.2858296634 0.3206219286 -0.2857850735 -0.2203536175 0.1996156968
350297900.0 -0.2077050396 0.1977260101 0.3178858924 -0.289757114 0.3177377506 -0.2897137122 -0.218763961 0.2021518837
355297870.0 -0.2060657313 0.1999935963 0.3147528788 -0.293084132 0.3147817128 -0.2933467104 -0.2164196405 0.2049125267
360297840.0 -0.2039041575 0.2022482893 0.3113598801 -0.296728639 0.3113456395 -0.2970822868 -0.2142663515 0.2074178614
365297810.0 -0.201784421 0.2047002066 0.3078236786 -0.3001870064 0.3081282985 -0.3002863269 -0.2122735464 0.2099796358
370297780.0 -0.1996175258 0.2067641343 0.3047982267 -0.3033668378 0.3043921547 -0.3034696068 -0.2102224294 0.212115881
375297750.0 -0.1977582807 0.2092496355 0.3016548352 -0.307044724 0.3011561794 -0.3069575797 -0.2077993128 0.2149236217
380297720.0 -0.1952654889 0.2112319977 0.2978670183 -0.3099079016 0.2977968967 -0.3098685838 -0.2056219982 0.2175780372
385297690.0 -0.1932484566 0.2138207851 0.2946738239 -0.3130163713 0.2943474333 -0.3130582158 -0.2035482977 0.2198071059
390297660.0 -0.1909924441 0.2159591007 0.2908222954 -0.3167329442 0.2907928396 -0.3169757942 -0.201298427 0.2220206158
395297630.0 -0.1884144441 0.2181246698 0.2873728637 -0.3195742498 0.2876924208 -0.3197010731 -0.1991851321 0.2242504672
400297600.0 -0.1867198222 0.2203864912 0.2840982142 -0.3229490317 0.28438383 -0.3233414859 -0.1972048688 0.2266859312
405297570.0 -0.1842313465 0.2225424691 0.2805312891 -0.3261342226 0.2803686137 -0.3261310647 -0.1945095728 0.2290289797
410297540.0 -0.181845629 0.2244755145 0.2764051183 -0.3288294523 0.2764891948 -0.3284594381 -0.1924437037 0.2312475298
415297510.0 -0.1798436659 0.2266842073 0.2729154392 -0.331970827 0.2732047524 -0.3320725884 -0.1899757156 0.2339710895
420297480.0 -0.1770945109 0.2285927861 0.2692686011 -0.3351129754 0.2690437079 -0.3349196515 -0.1873202744 0.2360508793
425297450.0 -0.1743423697 0.2305804957 0.2655078337 -0.338049725 0.2659822704 -0.337991014 -0.184893185 0.238137473
430297420.0 -0.1723875076 0.2325024875 0.2620066987 -0.3407935825 0.2620001691 -0.3407908293 -0.1826614127 0.2402067402
435297390.0 -0.1694948658 0.2344797184 0.2581651412 -0.3435710625 0.2583914174 -0.3431487194 -0.1801905823 0.2426779253
440297360.0 -0.1670777031 0.2363832322 0.2536755855 -0.3462112168 0.2538817052 -0.3465388526 -0.1774236073 0.2443976661
445297330.0 -0.1647822736 0.2384357368 0.2502448516 -0.3491808612 0.2502917686 -0.3488934003 -0.1754108163 0.246600424
450297300.0 -0.1623110121 0.2404451036 0.2463290273 -0.3519691717 0.2466093286 -0.351653626 -0.1729061304 0.2486444361
455297270.0 -0.1597474807 0.2421010636 0.2429978212 -0.3546589221 0.2428772811 -0.3542808916 -0.1696410854 0.2505374423
460297240.0 -0.1575486349 0.2441617166 0.2388140901 -0.3568556791 0.2384517367 -0.3573640768 -0.1671399936 0.2531729026
465297210.0 -0.154337523 0.2457247019 0.2344910017 -0.3595927841 0.234937343 -0.359698537 -0.1650923363 0.254860112
470297180.0 -0.1520819428 0.247702436 0.2306436019 -0.3619712676 0.2309406071 -0.3619361991 -0.1625782871 0.2566171906
475297150.0 -0.1497795082 0.2491896771 0.2264254097 -0.3643353059 0.2269837152 -0.3639440644 -0.1596459929 0.2582387079
480297120.0 -0.1468838997 0.2507911008 0.2226636872 -0.3667435424 0.2229031304 -0.3670319432 -0.1569613508 0.2608859985
485297090.0 -0.1443167874 0.2528566024 0.2188148947 -0.369444129 0.2189824984 -0.3691157924 -0.1545896164 0.2622430692
490297060.0 -0.1416499665 0.2541957665 0.2148120756 -0.3717755652 0.2145795007 -0.3716523451 -0.1515871653 0.264202197
495297030.0 -0.1392239219 0.256217806 0.2105546753 -0.3739638337 0.2102613514 -0.3739914339 -0.1487852691 0.2654621493
500297000.0 -0.1359129939 0.2577054604 0.2064074437 -0.376192604 0.2063835463 -0.3761124854 -0.146285395 0.26777987
505296970.0 -0.1336767704 0.2588922464 0.2021240159 -0.3780760026 0.2021930905 -0.377880159 -0.143985673 0.2695182092
510296940.0 -0.1310767765 0.2605999252 0.1981635706 -0.3806016224 0.1979103637 -0.3805114479 -0.1405609684 0.2712298825
515296910.0 -0.1286537178 0.262547962 0.1939208111 -0.3824674645 0.1941232031 -0.3826159821 -0.138202393 0.2730293505
520296880.0 -0.1253397564 0.2638823556 0.1895597233 -0.3848086662 0.1896650185 -0.3843807912 -0.1352166505 0.2745872773
525296850.0 -0.1228311442 0.265115233 0.1856911285 -0.386335201 0.1856678776 -0.3866328357 -0.1319629111 0.2758753679
530296820.0 -0.1200670593 0.2665582823 0.1813653706 -0.388290891 0.1811098302 -0.3884793764 -0.1299873096 0.2771876767
535296790.0 -0.116910914 0.2680725069 0.1769013535 -0.3901108263 0.1772214465 -0.3903489213 -0.1267089194 0.2786601411
540296760.0 -0.114394963 0.2690139363 0.1729629336 -0.3923530865 0.1723444062 -0.3922958128 -0.1240934883 0.2807009532
545296730.0 -0.1115029229 0.2707934896 0.1684782821 -0.3940736264 0.1685517481 -0.3942543686 -0.1210312522 0.2819130618
550296700.0 -0.1086292811 0.2720506701 0.1643215224 -0.3957688918 0.1646783242 -0.3958984341 -0.118404893 0.2834888642
555296670.0 -0.1054360764 0.2731897714 0.1598010773 -0.3973319397 0.1600899128 -0.3977118238 -0.1152931539 0.2848952663
560296640.0 -0.1028170529 0.2745824582 0.1555326333 -0.39926517 0.1558887398 -0.3990757383 -0.112399878 0.2864030387
565296610.0 -0.1000332934 0.2758782344 0.1512482218 -0.400913244 0.1511678189 -0.400999277 -0.1092922394 0.287270875
570296580.0 -0.0969557777 0.2769864989 0.1467240103 -0.4023149375 0.1469451318 -0.4029592913 -0.1065472652 0.2892212265
575296550.0 -0.094226838 0.2782891468 0.1423610463 -0.4037179445 0.1427999336 -0.4039049096 -0.1032051977 0.2901215992
580296520.0 -0.0913074378 0.2793300607 0.1383403708 -0.4055277289 0.1380111926 -0.4055540011 -0.1003534561 0.2914964453
585296490.0 -0.0877777594 0.2801397045 0.1334143602 -0.4066164858 0.1334548919 -0.4067429044 -0.0974179217 0.292618176
590296460.0 -0.0855025598 0.2813649002 0.1290868209 -0.4082635216 0.1290813585 -0.4083187959 -0.09431144 0.2935830619
595296430.0 -0.0822636061 0.2823490042 0.1247629913 -0.409806775 0.1245955602 -0.4097918794 -0.0914366456 0.2945872485
600296400.0 -0.079389668 0.2836517855 0.1201144377 -0.411222174 0.1205216623 -0.4109638605 -0.0883839724 0.2961034635
605296370.0 -0.0761003874 0.2847287782 0.1157827969 -0.4124930242 0.1159891466 -0.4118463961 -0.0852123899 0.2970289818
610296340.0 -0.0735984524 0.28542327 0.1117104848 -0.4130986794 0.1115041321 -0.4137483201 -0.0819709075 0.2984035871
615296310.0 -0.0704125955 0.2866322537 0.1070881382 -0.4142700934 0.1068614212 -0.4143891546 -0.0792964134 0.2990764085
620296280.0 -0.067350474 0.2871972913 0.1026370426 -0.4152298007 0.1024176389 -0.415530678 -0.0763459775 0.3000035361
625296250.0 -0.0642485331 0.2880618828 0.0977551222 -0.4167104381 0.0976704619 -0.4169963219 -0.0731956574 0.301115725
630296220.0 -0.060679649 0.2891450428 0.0932796379 -0.4179017291 0.0935812369 -0.4178150829 -0.0701677939 0.3023363936
635296190.0 -0.0583677183 0.2900103083 0.0884313431 -0.418586002 0.0886850381 -0.4181135505 -0.0668519945 0.3028588411
640296160.0 -0.0548922344 0.2903616499 0.0842105082 -0.4195041755 0.0841372417 -0.4194007487 -0.0637175883 0.3035382938
645296130.0 -0.0519508449 0.2915671692 0.0794657381 -0.4204079346 0.0798976048 -0.420277264 -0.0609198448 0.3041471747
650296100.0 -0.0487239782 0.2920522512 0.0753530945 -0.4210723839 0.0755358639 -0.4212776369 -0.0577003684 0.3053419999
655296070.0 -0.0456858918 0.292434311 0.0704970534 -0.4216630441 0.0707382634 -0.4221142429 -0.0540139228 0.3060225487
660296040.0 -0.0430276498 0.2935094756 0.0660754487 -0.4223843863 0.065913976 -0.4225225277 -0.0513329339 0.3067628868
665296010.0 -0.0397065163 0.2936547891 0.0616064927 -0.4230921532 0.0617679244 -0.4231902268 -0.0481811556 0.30750176
670295980.0 -0.0361797252 0.2944219257 0.0567530202 -0.4238143713 0.0570790869 -0.4238599312 -0.0450921937 0.3081428316
675295950.0 -0.0331817392 0.2949274428 0.0519174587 -0.4243312767 0.0523707329 -0.4245584452 -0.0417199423 0.3087382224
680295920.0 -0.030333974 0.2955250086 0.0476092707 -0.4245995188 0.0473618329 -0.4250486311 -0.0381838496 0.3093656713
685295890.0 -0.0270975707 0.2959262548 0.043107251 -0.4252981627 0.0427958011 -0.425432382 -0.0349239598 0.3099070935
690295860.0 -0.0234437806 0.2964569308 0.038250919 -0.4255623373 0.0383871302 -0.4259274005 -0.0321186417 0.3102591511
695295830.0 -0.0204485896 0.2965581819 0.0333454895 -0.4257395697 0.033486575 -0.4261521994 -0.0289914196 0.3110123436
700295800.0 -0.0174542982 0.2970686062 0.0288455179 -0.4264992364 0.0293484497 -0.4265211475 -0.0256158667 0.3108519117
705295770.0 -0.0141011031 0.2976552802 0.024260361 -0.4264619354 0.024440261 -0.4265564247 -0.0227340022 0.3114923752
710295740.0 -0.0113293717 0.298123765 0.0199655675 -0.4270281392 0.0197715535 -0.426948258 -0.0197208058 0.3124048055
715295710.0 -0.0081228853 0.2982792852 0.0152383996 -0.4270640322 0.015317465 -0.4269999147 -0.0161508128 0.3124320185
720295680.0 -0.0050940801 0.2982899071 0.0104383113 -0.4267944889 0.0109333486 -0.427342097 -0.0127757615 0.3127711226
725295650.0 -0.0016771892 0.2985531728 0.0056850091 -0.4267113066 0.0060676366 -0.4272059115 -0.0093874594 0.3128132074
730295620.0 0.0011616736 0.2985773184 0.0013172922 -0.426815182 0.0013093917 -0.4270922598 -0.0065410228 0.312803344
735295590.0 0.0047298813 0.2987401358 -0.0029586788 -0.4268908902 -0.0032282992 -0.4271673537 -0.0027504794 0.3132199066
740295560.0 0.0077907673 0.2991734789 -0.0079466598 -0.4268458088 -0.0080144026 -0.4269469297 0.000128704 0.3134377882
745295530.0 0.0107515508 0.2987717771 -0.0127103469 -0.4268084556 -0.0125664939 -0.4270851401 0.0030576027 0.3137448351
750295500.0 0.0143930687 0.2989494341 -0.0172699869 -0.4262608645 -0.017214307 -0.4264121481 0.0068704727 0.3134553981
755295470.0 0.0177635246 0.2988508112 -0.0220448555 -0.4261477199 -0.0216497799 -0.4264415136 0.0098117518 0.3138481246
760295440.0 0.0205256139 0.2987361743 -0.0266796219 -0.425793658 -0.0262679346 -0.426001801 0.0128053036 0.3137288742
765295410.0 0.0234824578 0.2986681874 -0.0307134993 -0.42569256 -0.0308540485 -0.4259236894 0.0168406333 0.3138865116
770295380.0 0.0268433984 0.2990907926 -0.0358489078 -0.4254931255 -0.0357370537 -0.4255598857 0.0201044428 0.3136223683
775295350.0 0.0301063221 0.2988092205 -0.0402422696 -0.4244940024 -0.0402099947 -0.4246162714 0.0224910839 0.3131677151
780295320.0 0.0332191946 0.2982037234 -0.0448084753 -0.4244725487 -0.0444490611 -0.4244472271 0.0260169863 0.3138092229
785295290.0 0.0361222343 0.2987515247 -0.0493316338 -0.4235080913 -0.0490813571 -0.4237549759 0.0290802981 0.3134869536
790295260.0 0.0394099336 0.2979967195 -0.0538706459 -0.42310626 -0.0538493941 -0.423623223 0.0327982058 0.3132219815
795295230.0 0.0427499008 0.2978833052 -0.0580395252 -0.4222480667 -0.0584252878 -0.4228212655 0.0360157848 0.3134089378
800295200.0 0.0459280422 0.2975791153 -0.0627567192 -0.4219640251 -0.0629784195 -0.421985811 0.0391912167 0.3128189689
805295170.0 0.0487865312 0.2971541221 -0.0675684435 -0.4207664884 -0.0674154353 -0.420832271 0.0420312494 0.3123710169
810295140.0 0.052056439 0.2969889269 -0.0718227555 -0.4203685073 -0.0721217977 -0.4208685348 0.0458010912 0.3126980462
815295110.0 0.0550115361 0.2962981835 -0.076536974 -0.4191063939 -0.0765560173 -0.4192960311 0.0487309827 0.3118099237
820295080.0 0.0583369205 0.2955465135 -0.0811396692 -0.4183546757 -0.0811777252 -0.4188438194 0.0519465951 0.3116384341
825295050.0 0.0615717061 0.2951458846 -0.0855878614 -0.4171568723 -0.085532023 -0.4178180024 0.0554962361 0.3112885872
830295020.0 0.0643838283 0.2949707625 -0.0899470179 -0.4164441412 -0.0902749678 -0.4165936472 0.0583693268 0.3107394298
