!Created with skrf (http://scikit-rf.org).
# Hz S RI R 50.0 
!freq ReS11 ImS11 ReS21 ImS21 ReS12 ImS12 ReS22 ImS22
300000.0 0.8608076174 -0.0020193954 -0.0008590372 -0.0003877081 0.0002053706 0.0003456438 -0.7732174167 -0.1722407522
5299970.0 0.8597479933 -0.0101905603 -7.7658e-06 5.8004e-05 0.0001626063 -0.0003301463 -0.7854221169 -0.0085766873
10299940.0 0.8591479627 -0.0190487361 0.000249003 8.88647e-05 5.59709e-05 -4.17292e-05 -0.7882981458 -0.0051699269
15299910.0 0.8580562909 -0.0274841021 0.0001274297 0.000157258 0.0001381736 -0.0001157022 -0.7936350322 -0.0033399115
20299880.0 0.857146029 -0.0359954534 -0.0001419516 -7.88298e-05 -0.0001480854 5.41679e-05 -0.8007411015 0.0015152783
25299850.0 0.8565957402 -0.0434395032 -9.88333e-05 -2.51288e-05 -9.10074e-05 2.07078e-05 -0.8067625181 0.0072985907
30299820.0 0.8556561091 -0.0522033929 -0.0001012818 0.0001052415 4.52778e-05 -2.7708e-06 -0.8128139754 0.0148520916
35299790.0 0.8554572848 -0.0604292025 -0.0001306548 -0.0002222957 -0.0001247219 2.99736e-05 -0.817927748 0.0239420695
40299760.0 0.854052195 -0.0682032486 1.65142e-05 0.0001177383 -7.44413e-05 -6.85236e-05 -0.8215485601 0.0331508605
45299730.0 0.8530263725 -0.0764301338 -0.0002589416 2.6494e-05 -0.0001488122 0.0001736925 -0.8254270649 0.0420064227
50299700.0 0.8524242592 -0.0850937445 -9.09402e-05 3.34457e-05 -4.28285e-05 0.0001127529 -0.8279660462 0.0528994216
55299670.0 0.8518841229 -0.0928018686 7.20442e-05 -2.00634e-05 1.39644e-05 -1.25031e-05 -0.8303142151 0.0629962585
60299640.0 0.8507224536 -0.1006945463 7.95616e-05 0.0002127096 -5.56442e-05 -1.75066e-05 -0.8310805309 0.0729603021
65299610.0 0.8499838443 -0.1089264131 -3.6747e-06 0.0001901684 2.52621e-05 4.22203e-05 -0.8313776634 0.0826359583
70299580.0 0.8486398019 -0.1178174121 0.000152572 -0.0003246084 -0.0001112124 -0.0001220623 -0.8320447656 0.0926193425
75299550.0 0.8472104012 -0.1265020172 -0.000276439 -0.0001931538 5.42598e-05 -0.0001541591 -0.8328078352 0.1024461586
80299520.0 0.8458918455 -0.1343085568 -1.62952e-05 0.0001040971 2.50403e-05 0.0001321597 -0.8324356918 0.1125623247
85299490.0 0.8446107301 -0.1423402764 4.97852e-05 0.0001520457 -4.98628e-05 1.62609e-05 -0.8317803212 0.121729405
90299460.0 0.8433056124 -0.150531146 0.000284475 8.20095e-05 -6.76385e-05 7.08267e-05 -0.8314168026 0.1313589706
95299430.0 0.8417764542 -0.1589824139 7.39393e-05 0.0001535465 0.0001797213 5.8915e-06 -0.830069315 0.1411342327
100299400.0 0.8396689646 -0.166686756 -5.86983e-05 -0.0001664069 -1.78593e-05 8.18223e-05 -0.8292074998 0.1495319945
105299370.0 0.8382451337 -0.175223054 -7.80689e-05 0.0001067276 3.64122e-05 -0.0001844402 -0.8276894555 0.1592979954
110299340.0 0.8365182863 -0.1832973434 -4.83412e-05 8.05946e-05 -0.0001749847 9.40714e-05 -0.8272024225 0.1686846441
115299310.0 0.8343524728 -0.1918808548 -1.78162e-05 0.0001798435 -3.46373e-05 -3.71279e-05 -0.8248008263 0.1768037834
120299280.0 0.8322889532 -0.1992537793 -3.6147e-05 0.0001346378 6.54836e-05 6.01666e-05 -0.8233427643 0.1860439907
125299250.0 0.8304205843 -0.2073688277 4.70818e-05 -0.0001794062 5.3009e-06 -0.000169687 -0.8220192168 0.1952069671
130299220.0 0.8287074311 -0.2155992658 -4.70739e-05 0.0001865389 -3.16875e-05 -3.02842e-05 -0.8204801792 0.2042526431
135299190.0 0.826549121 -0.2235213894 -1.1068e-06 0.0003240318 0.0001083615 2.95036e-05 -0.8180471648 0.2129292474
140299160.0 0.8244974349 -0.2314745526 5.56013e-05 -2.96517e-05 -1.74748e-05 2.69132e-05 -0.816096881 0.2213924592
145299130.0 0.821864814 -0.2391827472 8.95774e-05 -6.30081e-05 -5.46692e-05 8.8045e-06 -0.8139194322 0.2298536289
150299100.0 0.8196970527 -0.2466895493 0.0001097129 -8.63917e-05 -1.10534e-05 1.67691e-05 -0.8115300039 0.2380447189
155299070.0 0.8164808785 -0.2557192109 -2.13432e-05 -3.02814e-05 -2.30851e-05 -3.05645e-05 -0.8094746303 0.2471665051
160299040.0 0.8144831699 -0.2634302468 4.749e-07 6.84153e-05 -0.0001205608 0.0001087329 -0.8074654213 0.2566088873
165299010.0 0.8117651931 -0.2710636491 -0.0001268372 1.90704e-05 0.0001276854 7.43407e-05 -0.8046137284 0.2643335689
170298980.0 0.8091207424 -0.2792518586 -5.12503e-05 -0.0003423961 1.55537e-05 0.0001083288 -0.8021668456 0.273029148
175298950.0 0.8067274275 -0.2865553565 0.0002420269 -0.0001642793 -4.88081e-05 0.0001188284 -0.7993509499 0.2817955476
180298920.0 0.803778399 -0.2947037443 9.27876e-05 7.51323e-05 6.972e-07 7.7672e-05 -0.7954444825 0.2901244198
185298890.0 0.8003657341 -0.3030314986 -2.97237e-05 0.0002455218 -5.99563e-05 -5.03095e-05 -0.7931926578 0.298601831
190298860.0 0.7975560218 -0.3105326119 5.03531e-05 -7.84817e-05 0.000116217 1.67306e-05 -0.7895817498 0.3074965246
195298830.0 0.7948111305 -0.3173363887 -2.62127e-05 -9.14424e-05 -1.77734e-05 1.25902e-05 -0.7869880385 0.3156496053
200298800.0 0.7910324133 -0.3261901604 0.0001987771 1.30194e-05 5.57282e-05 0.0001318804 -0.7833753846 0.3241789972
205298770.0 0.788558258 -0.3338166608 -3.78638e-05 0.0002132186 -0.0001362106 4.48098e-05 -0.7800004696 0.332391618
210298740.0 0.7851156756 -0.3408478303 5.20912e-05 4.4898e-05 8.88291e-05 -1.2991e-06 -0.7769712044 0.3404899538
215298710.0 0.7811748664 -0.3487234653 -0.0001821631 0.0001744081 -7.0735e-05 0.0002545185 -0.7735590946 0.3481828507
220298680.0 0.7782694819 -0.3564469927 -6.02558e-05 -0.0001248763 0.0001176936 -3.3694e-05 -0.7699730358 0.3567942008
225298650.0 0.774280215 -0.3639245466 0.0001242488 -9.09387e-05 -4.54488e-05 0.0001066208 -0.7662277871 0.3644119318
230298620.0 0.7709067638 -0.3711393966 -8.89026e-05 6.43836e-05 4.68909e-05 -1.87996e-05 -0.7616951382 0.3731209452
235298590.0 0.7674359378 -0.3789162626 9.53339e-05 -6.77379e-05 -0.0001642321 0.0001820215 -0.75782354 0.3806732073
240298560.0 0.7632241536 -0.3870210693 -1.92213e-05 0.000113741 5.34392e-05 -9.25157e-05 -0.7544198367 0.3882786887
245298530.0 0.7598583513 -0.3935231286 2.11288e-05 0.0001560471 -0.0001093769 0.0001021624 -0.7496314443 0.3965515146
250298500.0 0.7557311478 -0.4011077454 -0.0001827706 -0.0001916909 -0.0001531898 -0.0001438919 -0.7460115324 0.4045947149
255298470.0 0.7521534105 -0.4080105634 -0.0001014025 -0.0001307108 0.0002018486 -4.37547e-05 -0.7417357607 0.4124645122
260298440.0 0.7477594082 -0.4149837713 0.0001420218 -0.0001372587 -5.39571e-05 -0.0003377661 -0.7370746761 0.4198543204
265298410.0 0.744320795 -0.422506607 3.905e-05 0.0001523326 -1.08585e-05 2.8524e-06 -0.7329389128 0.4270855437
270298380.0 0.7403338122 -0.429289049 -9.30225e-05 -5.9902e-06 0.0001971301 0.0002051899 -0.7276365869 0.4350993439
275298350.0 0.7358207836 -0.436766009 4.70157e-05 -0.000145375 0.0001552508 -1.27896e-05 -0.7229313676 0.4434440306
280298320.0 0.7321106898 -0.4440394319 -0.0001566073 8.11931e-05 1.5373e-05 5.56528e-05 -0.7190410389 0.450410991
285298290.0 0.7272808677 -0.4512755395 2.62521e-05 -0.0001593905 -7.24942e-05 -9.02787e-05 -0.7135623467 0.4574318563
290298260.0 0.7236196369 -0.4584190091 -0.0001378987 -0.0001894869 -3.0137e-05 6.14272e-05 -0.7091014718 0.4657303129
295298230.0 0.7191564413 -0.4662561434 4.88431e-05 -1.19277e-05 0.0001838293 8.59897e-05 -0.7036803668 0.4729885187
300298200.0 0.7146545416 -0.4724953528 -3.02741e-05 0.0001181937 -9.25625e-05 4.77081e-05 -0.6988924611 0.4801640841
305298170.0 0.7108752575 -0.479744521 -0.0001013849 -0.0001396201 9.73697e-05 -0.0001046746 -0.6935522104 0.4873274206
310298140.0 0.7060656933 -0.487722919 0.0001710755 -0.0001653075 0.0001210021 -7.1613e-06 -0.6892277575 0.49483122
315298110.0 0.7006285071 -0.4958511919 0.0001831589 -8.72799e-05 0.0001164933 9.87432e-05 -0.6831766592 0.5021402796
320298080.0 0.6944999267 -0.5021993026 -2.35352e-05 -9.73849e-05 -8.99469e-05 6.42533e-05 -0.67834295 0.5093388808
325298050.0 0.6897896308 -0.5103793814 -0.000113515 -5.63477e-05 2.89468e-05 9.16094e-05 -0.6721869614 0.515967167
330298020.0 0.6840457522 -0.5166142342 -1.9335e-05 2.85616e-05 -0.000157687 -0.0001311957 -0.6672096196 0.5232771598
335297990.0 0.6782347986 -0.5229674933 -2.05391e-05 -4.63912e-05 -4.42994e-05 -1.10839e-05 -0.6617906957 0.5303890328
340297960.0 0.6726825356 -0.5290999191 3.74617e-05 0.0001541449 0.0001452637 -0.0002036061 -0.6559138126 0.5372005143
345297930.0 0.6669775675 -0.5352296978 -2.18023e-05 0.0001379811 5.11887e-05 0.0001375348 -0.6499458319 0.5443902963
350297900.0 0.6616411541 -0.5415252065 1.76008e-05 -5.75826e-05 -0.0001225466 2.47012e-05 -0.6442313438 0.5512162295
355297870.0 0.6565646595 -0.5479968643 0.0001952195 0.0001067309 5.83127e-05 -2.37777e-05 -0.6384218477 0.5575623585
360297840.0 0.6506078247 -0.5545731093 1.05967e-05 -4.20342e-05 6.35636e-05 -5.8156e-06 -0.632460821 0.5637026442
365297810.0 0.6453830098 -0.5601932297 -6.17311e-05 8.70982e-05 0.0002918119 -0.0001827704 -0.6263503658 0.5708329455
370297780.0 0.6397507673 -0.5659094291 -0.00010206 -0.0001103387 -2.82338e-05 -0.0001417389 -0.6211133857 0.575973759
375297750.0 0.6336579491 -0.5719679752 -3.81438e-05 0.0001194824 0.0001277099 0.000157077 -0.614188932 0.5829919346
380297720.0 0.6292191082 -0.5785670375 6.84126e-05 1.76036e-05 1.77339e-05 3.78976e-05 -0.6082078502 0.5902007366
385297690.0 0.6225682808 -0.5843412424 -0.0001582531 -0.0001256979 -5.0872e-05 0.000130506 -0.6021938439 0.5960725507
390297660.0 0.617098808 -0.5901538125 8.97296e-05 -4.37018e-05 -5.26999e-05 8.02983e-05 -0.595670416 0.6017656384
395297630.0 0.6113616588 -0.5959084088 -5.28299e-05 2.57925e-05 -0.0001378242 -1.85446e-05 -0.5892396782 0.6082980532
400297600.0 0.6046501512 -0.6018981578 0.0001013373 8.16078e-05 4.46879e-05 7.5263e-06 -0.5832178662 0.6135890101
405297570.0 0.5994048004 -0.6077255051 -0.0001407344 0.0001349891 2.59275e-05 -1.73074e-05 -0.5773434332 0.6196206731
410297540.0 0.5929874957 -0.6133115972 -0.0001036588 0.0001180303 0.0001650227 -4.55198e-05 -0.5702551205 0.6251835435
415297510.0 0.5873701393 -0.6186649464 -0.0002826324 3.67018e-05 -1.43412e-05 -4.11725e-05 -0.5639432259 0.6320346369
420297480.0 0.5808706606 -0.6252600536 -3.70111e-05 -0.0001567255 -6.8996e-05 0.0001169923 -0.5576696694 0.6366040198
425297450.0 0.5748655611 -0.6301961989 0.0001983905 -5.08215e-05 0.0002609986 5.85045e-05 -0.5503151027 0.6431165829
430297420.0 0.5683370394 -0.6359374001 -0.0001002282 -3.7119e-06 0.0002230939 0.0001557219 -0.5445253836 0.6487107699
435297390.0 0.5625491011 -0.641298113 0.0001302193 6.22133e-05 -1.51123e-05 2.85053e-05 -0.5378055923 0.6537945942
440297360.0 0.5560424055 -0.6472439642 7.9118e-06 0.0002131288 0.0001229486 2.10165e-05 -0.5306035626 0.6588758602
445297330.0 0.5498061394 -0.6518676821 7.28519e-05 -8.89101e-05 5.48025e-05 -7.15529e-05 -0.524201112 0.6641286686
450297300.0 0.5433475043 -0.6573880755 -0.0002956195 -9.783e-07 -0.0001703723 -0.0001329914 -0.5174688261 0.6700675906
455297270.0 0.5365288488 -0.6623191156 -0.0003616802 8.9463e-05 -0.0001515563 0.000103293 -0.5099473933 0.6750255538
460297240.0 0.5299579839 -0.6674761003 -5.05958e-05 0.0001243545 4.331e-06 -0.0001121945 -0.5034834541 0.6804911939
465297210.0 0.523248847 -0.6725555208 0.0003147786 2.83883e-05 -0.0001188777 7.98775e-05 -0.496596032 0.6851133368
470297180.0 0.5169855731 -0.6777972854 1.50332e-05 -1.12898e-05 9.3372e-06 0.0001000353 -0.489930901 0.6894767119
475297150.0 0.5102964517 -0.6825808469 7.30257e-05 -6.38546e-05 -2.78785e-05 -8.711e-07 -0.4823419342 0.6945385865
480297120.0 0.5039833095 -0.6873084554 -6.00964e-05 4.00011e-05 8.40664e-05 -2.59813e-05 -0.4756319741 0.6998715022
485297090.0 0.4968299112 -0.6923905497 -0.0001419353 0.0001096458 0.0001232092 -0.0001333657 -0.4680889428 0.7040505392
490297060.0 0.4901834013 -0.6969625114 6.02578e-05 -1.15431e-05 9.04313e-05 -0.0001139399 -0.4615913698 0.7087494917
495297030.0 0.4829508366 -0.7023680176 5.10461e-05 -0.0002957436 -9.63452e-05 0.0002158071 -0.4535842833 0.7131098789
500297000.0 0.4763771682 -0.7062503918 6.42485e-05 8.79652e-05 8.9471e-06 -7.7654e-06 -0.4469180366 0.7178885776
505296970.0 0.4684619772 -0.7108179597 -8.3447e-06 0.0002107376 0.000165646 -4.04177e-05 -0.4406692367 0.7215345661
510296940.0 0.461696508 -0.7151673748 -0.0002107826 -0.0001506409 -0.0001210911 5.00416e-05 -0.4323984707 0.7268831251
515296910.0 0.4546685266 -0.719928999 6.15598e-05 5.15639e-05 -4.00751e-05 3.90862e-05 -0.4250821689 0.7305992976
520296880.0 0.448017785 -0.7246067304 4.52474e-05 -0.00013744 5.06889e-05 2.63324e-05 -0.417980522 0.7348853944
525296850.0 0.4407349253 -0.7285152964 2.195e-05 0.0001449277 -0.0001393799 7.29291e-05 -0.4101661004 0.7394046778
530296820.0 0.433413745 -0.7327979333 0.0003265757 3.95721e-05 5.6086e-06 -0.0001530946 -0.4033129749 0.7428549701
535296790.0 0.4263917618 -0.736533701 9.8666e-05 -9.84308e-05 0.0001023036 0.0001646831 -0.3958119624 0.7461116612
540296760.0 0.4190566748 -0.7414590133 -8.07932e-05 3.03775e-05 -7.97921e-05 -5.85521e-05 -0.3883994853 0.7507393645
545296730.0 0.411171721 -0.7443722869 -3.64856e-05 0.0002523279 -6.67e-07 -1.76389e-05 -0.3810159589 0.7538612567
550296700.0 0.4038308655 -0.7489544576 -3.23498e-05 0.0001625311 -8.9977e-06 0.0001975988 -0.3734933671 0.7581937868
555296670.0 0.3964129971 -0.7527674623 -1.12542e-05 8.63632e-05 -7.92911e-05 -1.78943e-05 -0.3657908281 0.7616375596
560296640.0 0.3894075497 -0.7567734447 6.23935e-05 -3.63199e-05 -1.31062e-05 -1.05568e-05 -0.3575728582 0.7654042243
565296610.0 0.3819255682 -0.7600633349 -8.34537e-05 0.0003312338 -0.0003437313 8.42781e-05 -0.3504077898 0.769006001
570296580.0 0.3744807012 -0.7641991589 -0.0001994875 -2.77805e-05 8.82711e-05 0.0002108767 -0.3435479322 0.7726708979
575296550.0 0.3670561096 -0.7669373239 4.7338e-05 0.0001319172 -0.0003492424 8.50452e-05 -0.3352846175 0.7756051649
580296520.0 0.3601287524 -0.7703918203 0.0001352629 0.0002600479 -4.27182e-05 -1.26226e-05 -0.3274479281 0.7789274804
585296490.0 0.3514304635 -0.774127496 0.0001227695 0.0003007084 -1.84653e-05 4.08613e-05 -0.3196176844 0.781911556
590296460.0 0.3434907452 -0.7779348139 -0.0002201677 0.0001261238 -0.0001422596 8.44997e-05 -0.3115884456 0.7852213735
595296430.0 0.3363078645 -0.7809875349 -5.9651e-06 -1.78072e-05 5.49543e-05 -0.0002639583 -0.3039594359 0.7874549665
600296400.0 0.3285196207 -0.7835610535 0.0002174494 -8.21755e-05 0.0001326452 -0.0001190469 -0.2963481265 0.7911073793
605296370.0 0.3212194984 -0.7862372461 -0.000319737 0.0001011165 -6.41991e-05 -3.1579e-05 -0.2887072589 0.7943576206
610296340.0 0.3131217761 -0.7901204884 0.0001217106 3.28029e-05 -1.09153e-05 -6.49522e-05 -0.2808123904 0.7971340338
615296310.0 0.305158684 -0.7922691 0.0001352028 7.13111e-05 2.21915e-05 -4.64463e-05 -0.2724040048 0.7994995135
620296280.0 0.2975593383 -0.7954998123 4.46071e-05 4.8461e-06 -9.06986e-05 0.0001154876 -0.2649591447 0.8021138588
625296250.0 0.2897028424 -0.7980365833 0.0001579595 1.24688e-05 -5.62594e-05 0.0002616506 -0.2574034504 0.8048738435
630296220.0 0.281779281 -0.8015097163 -7.28592e-05 -9.92891e-05 0.0001695339 2.73601e-05 -0.2492026915 0.8076935329
635296190.0 0.2737689933 -0.8043703019 -8.83555e-05 0.0001379384 -2.05591e-05 -0.0001558954 -0.2411850738 0.8091010698
640296160.0 0.2661964541 -0.8060928525 -1.85808e-05 3.76149e-05 2.46181e-05 -2.69608e-05 -0.2321937228 0.812119452
645296130.0 0.2576448808 -0.8084990837 3.0073e-05 0.000148723 3.5463e-06 6.44419e-05 -0.225478723 0.8140503833
650296100.0 0.2494524185 -0.8110849673 0.0001524883 -5.55958e-05 -0.0001072827 -0.0002101236 -0.2166756167 0.8166919883
655296070.0 0.2419733004 -0.8131503168 4.55263e-05 4.73855e-05 0.0001296451 -0.0001280899 -0.2087525467 0.8184221356
660296040.0 0.2331918559 -0.8154808454 1.37122e-05 -0.0001134716 -8.58837e-05 -9.87157e-05 -0.2012232428 0.8206480125
665296010.0 0.2253648068 -0.817388115 -5.7713e-05 0.0001445393 -3.3141e-06 2.13077e-05 -0.1927622071 0.823088724
670295980.0 0.2177192376 -0.8201877401 0.0001001206 0.0001702039 3.57148e-05 -1.6748e-06 -0.1854968846 0.8244917921
675295950.0 0.2096560895 -0.8216966852 -0.0001090904 0.0001325507 1.72826e-05 9.35969e-05 -0.1761682474 0.8260611891
680295920.0 0.2009982491 -0.8238431262 -5.57929e-05 -4.44983e-05 2.20087e-05 -7.34128e-05 -0.1687553191 0.8276708587
685295890.0 0.1929990698 -0.8249447944 -7.81108e-05 -0.0001112857 -7.35244e-05 0.0001096828 -0.1600635524 0.8294744333
690295860.0 0.1855976692 -0.8272951125 -0.0001798894 0.0001239172 0.0001023665 2.03035e-05 -0.1519017735 0.8312512135
695295830.0 0.1770189658 -0.8294164791 -9.8966e-06 -0.0001234794 -8.33478e-05 4.62258e-05 -0.1436424857 0.8326166019
700295800.0 0.1687167159 -0.8300679034 6.30968e-05 -9.2017e-06 -0.0002361662 -0.0001865222 -0.1352404287 0.83327592
705295770.0 0.1605840857 -0.8323652628 3.54808e-05 -0.0001689591 0.0001375882 2.6335e-05 -0.127468964 0.8350297808
710295740.0 0.1519312618 -0.8333123551 -0.0002795269 -0.0001128883 0.0001223494 -2.02872e-05 -0.1196869196 0.8368873378
715295710.0 0.1441623535 -0.8340289385 -0.0001083738 2.65392e-05 8.50684e-05 -3.91595e-05 -0.1108383891 0.8376344246
720295680.0 0.1355469928 -0.8360346646 3.6074e-06 -9.60686e-05 -5.15268e-05 -6.78906e-05 -0.1026831711 0.8387853473
725295650.0 0.1276916225 -0.836507993 1.48048e-05 9.68816e-05 6.71897e-05 -9.53943e-05 -0.0940748328 0.8402220116
730295620.0 0.1191966094 -0.8384500921 0.000110134 0.0001278926 -9.9147e-06 -7.68797e-05 -0.0857905811 0.8407322305
735295590.0 0.1110223157 -0.8392674669 -5.69883e-05 6.4608e-06 -0.0001327978 -5.58918e-05 -0.077197228 0.841185538
740295560.0 0.1023570077 -0.8401601866 -5.78805e-05 0.0001164025 5.63882e-05 8.28272e-05 -0.0692341506 0.8412727925
745295530.0 0.0939884405 -0.8415761895 -5.22632e-05 -4.08819e-05 -1.75333e-05 2.36007e-05 -0.0609442261 0.8421837525
750295500.0 0.0862624671 -0.841257335 -5.50006e-05 5.48516e-05 -4.83036e-05 4.04725e-05 -0.0524297029 0.8427348995
755295470.0 0.0773369771 -0.8424030215 -0.0002351158 0.0001842168 -1.68939e-05 -4.58977e-05 -0.0450513829 0.8438399513
760295440.0 0.0695292342 -0.8426912755 1.88432e-05 9.4611e-06 -7.287e-07 0.0001354559 -0.0366228093 0.8441103229
765295410.0 0.0610441366 -0.8434204311 9.0566e-05 0.0001347856 8.9277e-05 -4.78762e-05 -0.0274584351 0.844723937
770295380.0 0.0526953017 -0.8440098571 -6.76365e-05 5.43254e-05 -6.85047e-05 1.21411e-05 -0.0190942533 0.8445305796
775295350.0 0.0444957392 -0.8438962895 -0.0001037313 8.3441e-06 -6.55341e-05 1.30652e-05 -0.0117147959 0.8443483216
780295320.0 0.0356158373 -0.8447067835 -0.0001271036 -0.0001379383 8.08206e-05 -5.29823e-05 -0.0032962181 0.8449972039
785295290.0 0.0276139207 -0.8442313385 -8.37342e-05 -0.0001134786 -1.1085e-05 -1.80951e-05 0.0047572845 0.8447594862
790295260.0 0.0194975863 -0.84462756 -0.0001422899 -3.42173e-05 -8.64653e-05 1.25673e-05 0.0137875741 0.8446784982
795295230.0 0.0111551882 -0.844548136 -5.8731e-06 -0.0001901882 -0.0001414141 -6.49514e-05 0.0221550726 0.8445196232
800295200.0 0.0033384532 -0.8441351223 -0.0002155072 -9.33993e-05 0.0001857308 0.0001243294 0.0302328068 0.8440380437
805295170.0 -0.0052319657 -0.8447119924 -0.0001430686 -6.46727e-05 -1.6334e-05 -0.0001397137 0.038183881 0.8433025331
810295140.0 -0.0142861138 -0.8445645175 8.87663e-05 -0.0002307641 -2.16258e-05 5.66335e-05 0.0464918883 0.8444911254
815295110.0 -0.0219850804 -0.843395262 4.37941e-05 3.6544e-05 2.59119e-05 -2.98025e-05 0.055032304 0.8435301762
820295080.0 -0.0308452497 -0.8431872705 2.66823e-05 -5.92769e-05 -9.3812e-05 0.0001243666 0.0627536837 0.8423478514
825295050.0 -0.0389960486 -0.8433506952 0.0001305787 -0.0002452233 4.10236e-05 9.62292e-05 0.0709349047 0.842136643
830295020.0 -0.0468635125 -0.8418751935 0.0001242121 -7.18876e-05 0.0001620544 9.53213e-05 0.0794752887 0.8408241778
835294990.0 -0.0554638985 -0.8419275313 -8.41222e-05 0.000188779 5.94637e-05 7.52187e-05 0.0880519048 0.8399187932
840294960.0 -0.0634302308 -0.8415319804 0.0002711167 -1.76075e-05 7.41175e-05 5.57749e-05 0.0957263305 0.8396838092
845294930.0 -0.0721255251 -0.8401228954 -8.70843e-05 3.67203e-05 -0.0001278442 0.0001825836 0.1041513246 0.8381841806
