!Created with skrf (http://scikit-rf.org).
# Hz S RI R 50.0 
!freq ReS11 ImS11 ReS21 ImS21 ReS12 ImS12 ReS22 ImS22
300000.0 -0.243780982 -0.0798468198 0.4748939787 0.0547010437 0.4690569123 0.0525696232 -0.2425477521 -0.0949534034
5299970.0 -0.2445421979 0.0071382481 0.4736619936 0.004913441 0.4735105268 0.005277884 -0.2441046314 0.0072236479
10299940.0 -0.2413624741 0.0188117182 0.4756940414 0.0061361674 0.4755604527 0.0065854783 -0.2407929568 0.0203316868
15299910.0 -0.2369288964 0.0278425645 0.4793574846 0.0079361585 0.4794706135 0.0076234616 -0.2362802273 0.0295776772
20299880.0 -0.2320721023 0.0353189406 0.4838707035 0.0088193525 0.4839489047 0.0084496274 -0.2308259654 0.0373326378
25299850.0 -0.2268159272 0.0421734384 0.4890827081 0.0071528798 0.4892546041 0.0075961492 -0.2251515419 0.0436946076
30299820.0 -0.2217446886 0.0471146938 0.4943513339 0.0052298028 0.4945617036 0.0054237194 -0.2192764489 0.0493133103
35299790.0 -0.2163523836 0.0514815278 0.5001264937 0.002078982 0.500168681 0.0019249597 -0.2136456483 0.0533821079
40299760.0 -0.2113527706 0.0549009745 0.5049254496 -0.0019421457 0.5053899957 -0.0017854244 -0.2084956273 0.0559935248
45299730.0 -0.2067009513 0.0576941728 0.5093403374 -0.0063240455 0.510297218 -0.0062883169 -0.2032922576 0.0590082969
50299700.0 -0.2024431603 0.0598810251 0.5144350032 -0.0120269883 0.5143898535 -0.011633816 -0.1985068326 0.0606308038
55299670.0 -0.1986036687 0.0616448934 0.5181157142 -0.0182940898 0.5178515327 -0.0177838771 -0.1943157115 0.0622592527
60299640.0 -0.1944084055 0.0637271044 0.5210790815 -0.0242335916 0.52154782 -0.024035773 -0.1902856298 0.0629451666
65299610.0 -0.1912665465 0.0647510939 0.5241731892 -0.0306217877 0.5242478526 -0.0305469209 -0.1870230435 0.0641817784
70299580.0 -0.1880056134 0.0662212484 0.5265199103 -0.0372221355 0.526602639 -0.0369402272 -0.1838758317 0.0646468489
75299550.0 -0.1850331417 0.0670722537 0.5283368971 -0.0442838724 0.5282350573 -0.0439618324 -0.1809598629 0.0650560036
80299520.0 -0.1824720954 0.0682031736 0.530595864 -0.0511885957 0.5306860742 -0.050988049 -0.1784554408 0.0659862834
85299490.0 -0.1800103314 0.0686847837 0.531480078 -0.0571300459 0.5315724404 -0.0573174087 -0.1760566386 0.0661461081
90299460.0 -0.1779258777 0.0696681344 0.5324838675 -0.0647495768 0.5328737479 -0.0646549741 -0.1736608115 0.0668326168
95299430.0 -0.1754632292 0.0704848499 0.5337958928 -0.0714375778 0.5335885817 -0.0720699527 -0.1713680713 0.0674896284
100299400.0 -0.173969818 0.0717253138 0.5337257339 -0.0784064126 0.5338964142 -0.0784043797 -0.1695644949 0.0672289644
105299370.0 -0.1720831156 0.0725251446 0.5343472768 -0.0858550274 0.534558101 -0.0854821755 -0.1672063248 0.0681685881
110299340.0 -0.1704226207 0.0732600253 0.5344172758 -0.0918360912 0.5345916309 -0.0921190809 -0.166487806 0.0682709913
115299310.0 -0.168775116 0.0743852795 0.5344939159 -0.0993567743 0.534497719 -0.098997038 -0.1649224616 0.0690784337
120299280.0 -0.1673008842 0.07472445 0.5343014516 -0.1057609946 0.5343461655 -0.1059758197 -0.1636776021 0.0695442277
125299250.0 -0.1661214155 0.0758384608 0.53428458 -0.1126786321 0.5340576975 -0.1123385534 -0.1624354451 0.0696571171
130299220.0 -0.1651952255 0.0769791106 0.5334973989 -0.1195268665 0.5333145814 -0.1193427011 -0.1610840911 0.0704821721
135299190.0 -0.1636498888 0.077965358 0.5330829716 -0.1258539888 0.5327165002 -0.1259924682 -0.1600355351 0.0711783578
140299160.0 -0.1628710851 0.0789226666 0.5322452383 -0.1328139624 0.5317378245 -0.1327267224 -0.1588691562 0.0724518812
145299130.0 -0.1615827317 0.0798787542 0.5312391969 -0.1395319546 0.5309377992 -0.139102834 -0.1579288195 0.0729972913
150299100.0 -0.1599658553 0.0811427019 0.5296790934 -0.1451634491 0.5299502537 -0.1454783824 -0.1568744388 0.0736465378
155299070.0 -0.159292439 0.0819528174 0.5287100096 -0.1525454679 0.5281506321 -0.1522940602 -0.1559791893 0.0746906131
160299040.0 -0.1579989342 0.0832868116 0.527355548 -0.1586366069 0.5265818972 -0.1587449083 -0.1554730812 0.075339509
165299010.0 -0.1576061725 0.0847734925 0.5258214619 -0.1657487431 0.5256228629 -0.1652898789 -0.1542453882 0.0767426905
170298980.0 -0.1564103393 0.0858500818 0.5240345423 -0.1718159782 0.5244208703 -0.1717265168 -0.153486348 0.0774507222
175298950.0 -0.1556630094 0.0871558294 0.5231151246 -0.1776888502 0.5223580205 -0.1776588481 -0.1529926914 0.0787332718
180298920.0 -0.1546741816 0.0883730988 0.5208835642 -0.1844429287 0.5208604298 -0.1840333297 -0.151930394 0.0801061158
185298890.0 -0.1533171525 0.08949973 0.5189671986 -0.190091014 0.5190463422 -0.190174947 -0.151212839 0.080907562
190298860.0 -0.1526149041 0.0910491722 0.5176811927 -0.1964470024 0.5174772936 -0.1966720634 -0.150390083 0.0817874731
195298830.0 -0.1516744063 0.0920975431 0.5153431931 -0.2023883209 0.5155855747 -0.2026211773 -0.1499059771 0.0832086314
200298800.0 -0.1508082131 0.0936773075 0.5132471886 -0.2088269497 0.5135315165 -0.209021271 -0.1493020965 0.0841826418
205298770.0 -0.1497467721 0.0952482254 0.5105271689 -0.2150294 0.5109941227 -0.2143127019 -0.1485730262 0.0845551796
210298740.0 -0.1488733865 0.0963168538 0.5083634932 -0.2203502001 0.5088659801 -0.220553217 -0.1476103217 0.086969896
215298710.0 -0.1484246579 0.0976841177 0.506452254 -0.2268477934 0.5060503181 -0.2268065661 -0.1471985289 0.0876426187
220298680.0 -0.1468493108 0.09891868 0.5035687227 -0.2328871218 0.5041436471 -0.2325648345 -0.1468510185 0.0885361024
225298650.0 -0.1463305307 0.1005990698 0.501355491 -0.2388087917 0.501603892 -0.2383979957 -0.1462925108 0.0898139097
230298620.0 -0.1450873699 0.1021982994 0.4987831815 -0.2439136388 0.4994082888 -0.2443356744 -0.1455229856 0.090898527
235298590.0 -0.1439367244 0.1039066972 0.4960812341 -0.2499807715 0.4962121697 -0.2497958745 -0.1445556954 0.0922113299
240298560.0 -0.14330017 0.1050644583 0.493724384 -0.2557488728 0.4933735328 -0.2559123256 -0.1438162392 0.0940279357
245298530.0 -0.142230374 0.1064628431 0.4913100321 -0.2615650193 0.4911484354 -0.2616990163 -0.1429450301 0.0941468908
250298500.0 -0.1407854166 0.1080866437 0.4872894323 -0.2673488131 0.487593079 -0.2667093813 -0.1421919966 0.0954743145
255298470.0 -0.1399000464 0.1091238203 0.484957206 -0.2724139011 0.4849036999 -0.2727491696 -0.1414590096 0.0969936081
260298440.0 -0.1391092946 0.1103905986 0.4819526339 -0.2786360165 0.4822857388 -0.2779898729 -0.1405001024 0.0982014959
265298410.0 -0.1376529286 0.1124598755 0.4791866495 -0.2842171025 0.4791888991 -0.2835336317 -0.1397768304 0.0992506249
270298380.0 -0.1366034457 0.1139752903 0.4762111891 -0.289151325 0.4763558971 -0.2889342135 -0.1389068625 0.100455593
275298350.0 -0.1350641067 0.1153044459 0.4727903356 -0.2948925462 0.4730746239 -0.2944280993 -0.1379887879 0.1019907819
280298320.0 -0.1338608375 0.1168563069 0.4697471198 -0.2998761094 0.4696534078 -0.2998210983 -0.1369374412 0.1031601122
285298290.0 -0.1328353026 0.1184150527 0.4664141087 -0.3054528128 0.4664021336 -0.3052786697 -0.1358277092 0.1044049734
290298260.0 -0.1314999724 0.1199052472 0.4627832223 -0.3104098821 0.4633502713 -0.3105813951 -0.1347303305 0.1057800771
295298230.0 -0.1300917754 0.1207962355 0.4599926028 -0.3154389705 0.4596001752 -0.315866436 -0.1335430692 0.1066172175
300298200.0 -0.1292360006 0.1223845384 0.4565748245 -0.3207295915 0.4565740567 -0.3212173327 -0.1327903079 0.1077968663
305298170.0 -0.127779863 0.1235203912 0.4525502192 -0.3263655006 0.4527732145 -0.3263918703 -0.1312762962 0.1090440813
310298140.0 -0.1265684747 0.1254023229 0.4490470979 -0.3316079065 0.4494277522 -0.3314007833 -0.1306910196 0.1104916207
315298110.0 -0.1250612142 0.1263090653 0.4456017043 -0.3367523732 0.4459551837 -0.3367093278 -0.1296623352 0.1116962917
320298080.0 -0.123691089 0.1275521714 0.4413212334 -0.342247657 0.4420904075 -0.3419092563 -0.1287842896 0.1126527379
325298050.0 -0.1227796594 0.1289005161 0.4379386216 -0.3472936115 0.4381964461 -0.3468371216 -0.1279103121 0.1140845357
330298020.0 -0.1213900405 0.1300462208 0.4338471827 -0.3517828084 0.4338387 -0.3518647661 -0.1268957207 0.1150778809
335297990.0 -0.1200282814 0.1312702358 0.4298028142 -0.3563829615 0.4297715618 -0.356953795 -0.1267200827 0.1170766055
340297960.0 -0.1193180571 0.1330485061 0.425755713 -0.3612268418 0.4257989324 -0.3620817701 -0.1248092665 0.1184700118
345297930.0 -0.117895069 0.1345735222 0.4217116509 -0.3664643932 0.4213401856 -0.366153248 -0.1241425438 0.1192518685
350297900.0 -0.1164993401 0.1354830492 0.4168784728 -0.3707105401 0.4172092852 -0.3707076282 -0.1235298606 0.12098006
355297870.0 -0.1150838314 0.1376466156 0.4131142944 -0.3757284625 0.4134507427 -0.3752210935 -0.1224064493 0.1218520978
360297840.0 -0.1137274005 0.1390523702 0.4097112421 -0.3795658674 0.4099754868 -0.3797584821 -0.1212023419 0.1237549062
365297810.0 -0.112404505 0.1405254798 0.4050838718 -0.3847658779 0.4055331372 -0.3847738253 -0.1203045161 0.1251811542
370297780.0 -0.1106889381 0.1413522654 0.400565177 -0.3886903867 0.400776342 -0.3885774953 -0.1190254231 0.1264306079
375297750.0 -0.1090400713 0.1430075826 0.3965269348 -0.3934375233 0.3968958457 -0.3929923477 -0.1179464185 0.1273178472
380297720.0 -0.1074604148 0.1439576425 0.391728081 -0.3978951562 0.3923522773 -0.3971774118 -0.1172275711 0.1287061289
385297690.0 -0.1065445697 0.1453944143 0.3875872592 -0.4018400984 0.3873523587 -0.4018216346 -0.1158663419 0.1302054769
390297660.0 -0.1050199996 0.1470698624 0.3833091739 -0.4065922569 0.3831999131 -0.4055399069 -0.1150473729 0.1312640407
395297630.0 -0.103014356 0.1482981066 0.3790095128 -0.4102415731 0.3786337009 -0.410713913 -0.1129574889 0.1327328735
400297600.0 -0.1016410135 0.1498978544 0.3738358341 -0.4147385745 0.3742844849 -0.4143867741 -0.1124803477 0.1338340649
405297570.0 -0.1003655871 0.1507335733 0.3694890493 -0.4184527654 0.3699430571 -0.4182530791 -0.1115652232 0.1350880468
410297540.0 -0.0986039812 0.1518968961 0.365198328 -0.4229598085 0.3655982813 -0.4226192753 -0.1101256316 0.1365050868
415297510.0 -0.0967105776 0.1531982934 0.3600107918 -0.4269267142 0.3605831814 -0.4267907541 -0.1087083137 0.1375289499
420297480.0 -0.095183028 0.1547114116 0.3557256435 -0.4306705249 0.355791978 -0.430874124 -0.1074687355 0.1388311537
425297450.0 -0.0935501907 0.1556176584 0.3513187611 -0.434336372 0.3514721008 -0.4346289857 -0.1066419726 0.1401387656
430297420.0 -0.0919946699 0.1565537544 0.3462369249 -0.4379243088 0.3461778161 -0.4379192991 -0.1050340939 0.1407870753
435297390.0 -0.0903476907 0.1580199153 0.3411091782 -0.4418527899 0.3412093401 -0.4418677874 -0.1031763222 0.1419386993
440297360.0 -0.0883947904 0.1591779326 0.3365482128 -0.4454309627 0.3366400463 -0.4456611622 -0.1023266242 0.1429379639
445297330.0 -0.0868159229 0.1597517254 0.3316397563 -0.4491265453 0.3316627713 -0.4488184762 -0.1009654087 0.1439004718
450297300.0 -0.0846776315 0.1608497874 0.3265613116 -0.4531134566 0.3266049323 -0.4530181122 -0.0997144867 0.1445054505
455297270.0 -0.0831095326 0.1621436639 0.3211707508 -0.4563905481 0.3220581847 -0.4563761466 -0.0980603249 0.1458124662
460297240.0 -0.0814885411 0.1631987434 0.3160636963 -0.4597963324 0.3169831675 -0.4596950842 -0.0966702034 0.147312925
465297210.0 -0.079423792 0.1643030883 0.3115938474 -0.4630795558 0.3118338433 -0.4634658029 -0.0952047079 0.1478046336
470297180.0 -0.0777234362 0.1652175849 0.3063359506 -0.4665510912 0.3063237368 -0.4665863812 -0.0934816555 0.1495190268
475297150.0 -0.0760027695 0.1661259996 0.3013872949 -0.4695508139 0.3016681977 -0.4695549794 -0.0917833309 0.1500240392
480297120.0 -0.0741480415 0.1675579765 0.2962340825 -0.4733788538 0.2958421647 -0.4736518324 -0.0904334592 0.1511160154
485297090.0 -0.0725224125 0.1683143447 0.2911555299 -0.476238231 0.291412008 -0.4757727002 -0.0890782547 0.1524229028
490297060.0 -0.0706954019 0.1689702981 0.2860812831 -0.4798359146 0.2859730362 -0.479526256 -0.0871785395 0.153467949
495297030.0 -0.0689661048 0.1701839166 0.2807520624 -0.4823487653 0.2809861962 -0.4824744093 -0.086356207 0.1545651157
500297000.0 -0.0667945794 0.1709546053 0.275431432 -0.4851999935 0.2751798468 -0.485107183 -0.0845923214 0.1557503819
505296970.0 -0.0649233093 0.1716097007 0.2699831771 -0.4880536275 0.2699159454 -0.4881466039 -0.0833381552 0.1564711845
510296940.0 -0.0628918547 0.1724864192 0.2644879233 -0.4914312157 0.2645203576 -0.4912036104 -0.0813086206 0.1575550695
515296910.0 -0.0609984336 0.173301177 0.2591921653 -0.4939998506 0.2591924149 -0.4940154952 -0.0799156323 0.1584616372
520296880.0 -0.0592589979 0.174324132 0.2538300407 -0.4973902683 0.2540727759 -0.4968303382 -0.0785896797 0.159584577
525296850.0 -0.057451552 0.174597267 0.2480765158 -0.4995827264 0.2489305139 -0.4995713178 -0.0771261473 0.1603382433
530296820.0 -0.0553816124 0.1758882854 0.2428865622 -0.5026971576 0.2432257209 -0.5024220973 -0.0754690699 0.1614260671
535296790.0 -0.0540848975 0.1765741727 0.2380312173 -0.5045635559 0.2378422742 -0.5042712129 -0.0742541066 0.162004618
540296760.0 -0.0517948492 0.1775709112 0.2322983416 -0.5078265511 0.2318472427 -0.5073499045 -0.0728891203 0.1634085269
545296730.0 -0.0499188188 0.1780816649 0.2262096537 -0.5098137991 0.226453358 -0.5099918037 -0.0713550264 0.163957643
550296700.0 -0.0474344697 0.1788976869 0.2206996988 -0.5124944463 0.2210720026 -0.5124474077 -0.0699196707 0.1650991772
555296670.0 -0.0461371741 0.1795757764 0.2159390345 -0.5145755605 0.2156278809 -0.5144446363 -0.0684330363 0.1660103409
560296640.0 -0.0433975146 0.1802940907 0.2095255706 -0.5166488933 0.2098823029 -0.5170961332 -0.0664125643 0.1663847619
565296610.0 -0.0417750274 0.1808070166 0.2034795248 -0.5191555443 0.2044461766 -0.5190754803 -0.064954747 0.1670967679
570296580.0 -0.0401103775 0.1812060083 0.198466306 -0.5217972975 0.1982984686 -0.5214798362 -0.0636073708 0.1683701012
575296550.0 -0.0380042377 0.1823228816 0.1929176523 -0.5239297914 0.1927853776 -0.5235584347 -0.0617419127 0.1688207433
580296520.0 -0.0358459053 0.1826236213 0.187048834 -0.525498691 0.1868184583 -0.5257606918 -0.0601992501 0.1695170344
585296490.0 -0.0338903473 0.1828049502 0.1814193186 -0.5272436422 0.1817078441 -0.5275534011 -0.0585291532 0.1704508687
590296460.0 -0.0317217658 0.1834428634 0.1755296998 -0.5286924818 0.1755993113 -0.5293369627 -0.0573859921 0.1712337673
595296430.0 -0.0297991309 0.1841981412 0.1694360237 -0.5315016734 0.1697312214 -0.531015109 -0.0555420964 0.1714366759
600296400.0 -0.0278521387 0.1846363132 0.1639809918 -0.5331162603 0.1639605621 -0.5328220692 -0.0538305092 0.1722957437
605296370.0 -0.0261325113 0.1849514751 0.1584283734 -0.5349120003 0.1583069597 -0.534789356 -0.0519875055 0.1729630949
610296340.0 -0.0237141225 0.1854166345 0.1521910296 -0.5365790599 0.1523380963 -0.5362786592 -0.0501700541 0.1736367042
615296310.0 -0.0214428653 0.1856392435 0.1463130767 -0.537682868 0.1461758553 -0.5383393694 -0.0483016171 0.1739370301
620296280.0 -0.0196359239 0.185706207 0.1410175922 -0.539095338 0.1408006583 -0.5391554488 -0.0469750849 0.1746108686
625296250.0 -0.0177912247 0.1860555438 0.1357372984 -0.5411588145 0.1348082263 -0.5411615926 -0.0448617265 0.1750399988
630296220.0 -0.0149100201 0.1865336886 0.1284621605 -0.5421980433 0.1288772603 -0.5419639504 -0.0435077564 0.1758541966
635296190.0 -0.0138048014 0.1868442443 0.1237170639 -0.5438495137 0.1229783141 -0.5438426449 -0.0415224357 0.1765402922
640296160.0 -0.0116796795 0.18743444 0.1171242417 -0.5447428704 0.1176585733 -0.5443957253 -0.0398731774 0.1769336392
645296130.0 -0.0093852693 0.1875996402 0.1108076085 -0.5459951338 0.1117145738 -0.5461611377 -0.0379716628 0.1776512144
650296100.0 -0.0073525645 0.1875935107 0.1052440985 -0.5468557615 0.1058462834 -0.5470732803 -0.0361535836 0.1772912032
655296070.0 -0.0056724638 0.1876901112 0.0992601471 -0.54800518 0.099868465 -0.5478545466 -0.0343234581 0.1783764874
660296040.0 -0.0037235164 0.1876454838 0.0938591104 -0.5488651741 0.0940140263 -0.5492083989 -0.0323382318 0.1787543472
665296010.0 -0.0009124898 0.1879879138 0.0874612705 -0.5498635167 0.0880964586 -0.5497799394 -0.030739018 0.1797224929
670295980.0 0.0001582693 0.1881650796 0.08168828 -0.5508179289 0.0819446936 -0.5511100253 -0.0292661363 0.1798328588
675295950.0 0.0027758733 0.1885703203 0.0761527454 -0.551769727 0.0761834549 -0.5515183893 -0.0277137712 0.1801836237
680295920.0 0.0047255675 0.1884845722 0.0696181969 -0.5523900938 0.0698034108 -0.5527052465 -0.0255979959 0.1815026158
685295890.0 0.0068212572 0.1892347561 0.0640883261 -0.5535681322 0.0635642935 -0.5533872784 -0.0237455429 0.1819630543
690295860.0 0.0092080033 0.1888371728 0.0580032265 -0.5530772399 0.0577251068 -0.5543065509 -0.0221027113 0.1823946081
695295830.0 0.0112871951 0.188928134 0.0526244521 -0.5543928201 0.0519225569 -0.5547010365 -0.0207888478 0.1825817518
700295800.0 0.0133884029 0.1885378625 0.0459315885 -0.5548134298 0.0454265598 -0.5544741122 -0.0189483425 0.1831968053
705295770.0 0.0153375558 0.1893323989 0.039642025 -0.5554453607 0.0400511464 -0.5557872732 -0.0170971595 0.1835669204
710295740.0 0.0176536584 0.1888837265 0.0342600087 -0.555785844 0.0343746553 -0.5561520046 -0.015192501 0.1836397607
715295710.0 0.0193167248 0.1887183536 0.0281201039 -0.5560286395 0.0279377876 -0.555931332 -0.0135302515 0.1839699557
720295680.0 0.0215560781 0.1885980114 0.0218741261 -0.5565254848 0.0223749748 -0.556712123 -0.0115985049 0.184630942
725295650.0 0.0237013932 0.1888613143 0.0156521888 -0.5563548617 0.0160245717 -0.5570455965 -0.0105072845 0.1849278362
730295620.0 0.0259828252 0.1888519842 0.0098718453 -0.5563745987 0.0100577351 -0.5569070221 -0.0087759062 0.1851467466
735295590.0 0.027853721 0.1885605981 0.0038599564 -0.5567790093 0.0038816331 -0.556809629 -0.007336008 0.1850378881
740295560.0 0.0295081728 0.1886385692 -0.0019855153 -0.5565133471 -0.0018843213 -0.556685008 -0.004653326 0.1853578912
745295530.0 0.0320123919 0.1885609607 -0.0080347657 -0.5559541986 -0.0084161022 -0.5564397219 -0.0027978288 0.1851907048
750295500.0 0.0339451901 0.1881802941 -0.0140292625 -0.5560991677 -0.013888799 -0.5563469726 -0.0014583017 0.1853237635
755295470.0 0.0362137697 0.1877755036 -0.0196776398 -0.5563415928 -0.0196984097 -0.5563065601 0.0005813194 0.1853517916
760295440.0 0.0376694605 0.1874786481 -0.0258374413 -0.5563953495 -0.0257738227 -0.5562705705 0.0023158698 0.1854461518
765295410.0 0.0400678575 0.1874883938 -0.0320932154 -0.5556085654 -0.0324236552 -0.5559567724 0.0043708671 0.185919249
770295380.0 0.0421461161 0.1865393652 -0.0388252417 -0.5548152359 -0.0381752073 -0.5550925751 0.0058358574 0.1858027484
775295350.0 0.0440345946 0.186375403 -0.044714588 -0.5545504052 -0.0436643432 -0.5546448282 0.0072564272 0.1859047142
780295320.0 0.0460072714 0.1859395929 -0.0498928658 -0.5537713092 -0.0495895064 -0.5540628137 0.0093032959 0.1858232868
785295290.0 0.0478459667 0.1851655787 -0.0563306896 -0.5530849997 -0.0556367163 -0.5534798245 0.0118722985 0.1860138034
790295260.0 0.0508235074 0.1853948423 -0.0614972359 -0.5527629994 -0.0608966494 -0.5524684782 0.0132914003 0.1860817675
795295230.0 0.0523125357 0.1846509856 -0.0677316695 -0.5519080152 -0.0674896359 -0.5521437776 0.0155152008 0.1860512606
800295200.0 0.0540467728 0.1843200501 -0.0741178251 -0.5507366997 -0.0737105587 -0.5513481936 0.0170837655 0.185862775
805295170.0 0.056513459 0.1836642741 -0.0795133693 -0.5501612655 -0.0796924599 -0.5504447959 0.0188082993 0.1860035373
810295140.0 0.058148083 0.1832497869 -0.0852926589 -0.549337838 -0.0856876063 -0.5497344585 0.0212481304 0.1864886872
815295110.0 0.0601424449 0.1825773247 -0.0914600003 -0.5480788951 -0.0910657741 -0.5487085368 0.0230724256 0.1862482386
820295080.0 0.0619894501 0.1825833479 -0.0976577242 -0.5473017957 -0.0970567531 -0.5470967058 0.0247761828 0.1859209479
825295050.0 0.0645840388 0.1815815919 -0.1029643455 -0.5461064485 -0.1031792619 -0.5466000525 0.0266045188 0.1860625399
830295020.0 0.0664558512 0.1811496176 -0.1090129497 -0.5449077958 -0.1091362699 -0.5449083485 0.0291105632 0.1857369825
