!Created with skrf (http://scikit-rf.org).
# Hz S RI R 50.0 
!freq ReS11 ImS11 ReS21 ImS21 ReS12 ImS12 ReS22 ImS22
300000.0 -0.2389257984 -0.104128881 0.4664900514 0.0681271498 0.4690063352 0.0714318672 -0.2367811927 -0.1123077042
5299970.0 -0.2437901704 0.0070589674 0.474058985 0.0055112811 0.473623745 0.0058302843 -0.2440960788 0.005639252
10299940.0 -0.2402840149 0.0197128637 0.4760421601 0.0065136848 0.4756538843 0.006833915 -0.2410908081 0.018348411
15299910.0 -0.2360799292 0.0294105361 0.4795118623 0.0075796601 0.4794315337 0.0081206459 -0.2364087792 0.0274865011
20299880.0 -0.2305705206 0.0371854913 0.4840990364 0.0082884726 0.4843285452 0.0084362392 -0.2318788754 0.0355035653
25299850.0 -0.2248293623 0.0435445261 0.4894437083 0.007418202 0.4895943744 0.007460404 -0.226916346 0.0417465196
30299820.0 -0.2188878971 0.0483795874 0.4952486499 0.0057526507 0.4945774567 0.0053645217 -0.2214513439 0.0469986731
35299790.0 -0.2128765421 0.0527697528 0.5003458938 0.0019674662 0.5005062224 0.0022920609 -0.2161704189 0.0513045983
40299760.0 -0.2073870382 0.0555364682 0.5051463527 -0.001449912 0.5054510768 -0.001673927 -0.2113361162 0.054606552
45299730.0 -0.2025552465 0.0587041317 0.5104631363 -0.0065666577 0.5102981394 -0.0066819758 -0.2064100289 0.0575224655
50299700.0 -0.1975557409 0.0601250593 0.5140570156 -0.012504339 0.5143276948 -0.01229704 -0.2018758342 0.0598936944
55299670.0 -0.1936514619 0.0617289133 0.5175119641 -0.0181893048 0.5181737233 -0.0179494313 -0.1981981117 0.0616516494
60299640.0 -0.1892679714 0.0628453456 0.5210999085 -0.0244048059 0.5215681197 -0.024464921 -0.1944560237 0.0634672338
65299610.0 -0.1862610021 0.0637735572 0.5243061643 -0.0299258667 0.5245330856 -0.0305896244 -0.1910680941 0.0647070182
70299580.0 -0.1825788785 0.0642923783 0.526724687 -0.0368687408 0.5266096646 -0.0370201181 -0.1880676552 0.0656513848
75299550.0 -0.1796301013 0.0651237825 0.528759729 -0.0440423948 0.5285946995 -0.0438365119 -0.1849130719 0.0668021415
80299520.0 -0.1770999728 0.0655926193 0.5308733445 -0.0508495751 0.5307901967 -0.0509343479 -0.18245733 0.0675595975
85299490.0 -0.174737697 0.0659853646 0.5324404027 -0.0576836952 0.5321976065 -0.0578231044 -0.1802951942 0.068526509
90299460.0 -0.1724956263 0.0663919529 0.5330840612 -0.0646612453 0.5333065849 -0.0646795811 -0.1777420966 0.0693603678
95299430.0 -0.1705396855 0.0672144332 0.534140911 -0.0720391131 0.5338762353 -0.0718451053 -0.1757578334 0.0705223073
100299400.0 -0.1689553359 0.0677100928 0.5342299931 -0.0786963355 0.5342692358 -0.0789876095 -0.1741996447 0.0712644096
105299370.0 -0.1669527822 0.0680824791 0.5345188161 -0.0853250834 0.5346037261 -0.0857700592 -0.1721284773 0.0717157662
110299340.0 -0.1655334459 0.0684679821 0.534641884 -0.0919817727 0.5350792258 -0.0924313304 -0.1710712279 0.0727452567
115299310.0 -0.1640725557 0.0687483572 0.5348967874 -0.0990091522 0.5349882693 -0.0989159918 -0.1690480915 0.0729589135
120299280.0 -0.1629263085 0.0693453813 0.5350196634 -0.1059600936 0.5346553203 -0.1062688215 -0.1680472913 0.0744335777
125299250.0 -0.1617703017 0.0698376203 0.5344644229 -0.1122198365 0.5345195056 -0.1128273406 -0.1664723756 0.0748481339
130299220.0 -0.1603621019 0.0706389981 0.5338497852 -0.1190907604 0.5337630728 -0.1196489808 -0.1652708132 0.0762131828
135299190.0 -0.1593339633 0.0710140173 0.5332569331 -0.1256556674 0.532661286 -0.1259355529 -0.1643271692 0.0771861541
140299160.0 -0.1583800861 0.0722627637 0.5322261711 -0.1325573394 0.5324520024 -0.1328473516 -0.1630889823 0.0780053097
145299130.0 -0.1572962228 0.0728899813 0.5316405387 -0.1391693903 0.5309452525 -0.1389740209 -0.1621211734 0.078640375
150299100.0 -0.1564879614 0.0735547643 0.5300471934 -0.145735885 0.5301445265 -0.1456462667 -0.1609970163 0.0800441221
155299070.0 -0.1557644542 0.074861191 0.528824091 -0.1526554421 0.5290713945 -0.1524432471 -0.1602280366 0.0810556254
160299040.0 -0.1548746562 0.0754069109 0.5275874165 -0.1584579677 0.5277381784 -0.1588012004 -0.1589620844 0.0823297783
165299010.0 -0.1541478913 0.0763684685 0.5265508309 -0.1652863951 0.5263519435 -0.1653437851 -0.1578760879 0.0831105663
170298980.0 -0.1534990705 0.0772937979 0.5242597657 -0.1715925047 0.5246364676 -0.1714270275 -0.157065887 0.0844396701
175298950.0 -0.1525630484 0.0783128238 0.5234236307 -0.1777839004 0.5233757949 -0.1778763567 -0.1560560088 0.0854112731
180298920.0 -0.1517682477 0.0792261613 0.5214292975 -0.1844353571 0.5216127565 -0.1842769541 -0.1548806064 0.087087754
185298890.0 -0.1509225983 0.0802232885 0.519481405 -0.1906149596 0.5197317705 -0.1903212271 -0.1541964969 0.0877309223
190298860.0 -0.1501538426 0.0812239797 0.5176356914 -0.1966878669 0.5175561709 -0.1964478103 -0.1526092664 0.0891886676
195298830.0 -0.1493691512 0.0822157095 0.5155816709 -0.2027852427 0.5155243936 -0.2030624506 -0.1521072261 0.0905252245
200298800.0 -0.1485749479 0.0834281356 0.5136665939 -0.208364034 0.5134885078 -0.2087023106 -0.1511141249 0.0921497495
205298770.0 -0.1482831858 0.0845104286 0.5118135018 -0.2145174796 0.511421141 -0.2147698044 -0.1500739053 0.0929827459
210298740.0 -0.1476042001 0.0854503889 0.5094153717 -0.2209289009 0.5090596829 -0.2211819213 -0.1488615466 0.0948428172
215298710.0 -0.1465587499 0.0870252104 0.5067369121 -0.226758406 0.5069872514 -0.2261927066 -0.1485700199 0.0957533681
220298680.0 -0.1457528006 0.0881366129 0.5041983901 -0.2330837894 0.5042443355 -0.2328886715 -0.1471313805 0.0976073328
225298650.0 -0.145004528 0.0894256136 0.5017364439 -0.2383029925 0.5017143218 -0.2383514544 -0.1463348989 0.0990028465
230298620.0 -0.1446517741 0.0904547058 0.4998782312 -0.2443113274 0.4999170623 -0.2444919948 -0.1451319963 0.1000541764
235298590.0 -0.1437220317 0.0916848614 0.4969381116 -0.2498726169 0.4969533278 -0.2503421547 -0.1440817043 0.1012437398
240298560.0 -0.1429832992 0.0930450703 0.4942979952 -0.2555774149 0.4940072913 -0.2553921482 -0.1431357466 0.1031312116
245298530.0 -0.1417869392 0.0942548026 0.4908887335 -0.2614676235 0.4911579238 -0.2616670894 -0.1418124929 0.1049205371
250298500.0 -0.1414037717 0.0953422836 0.488070016 -0.2667123003 0.4888232675 -0.2668462544 -0.1405606441 0.1060764694
255298470.0 -0.1406898676 0.0969472154 0.4857464838 -0.2727460208 0.4858272276 -0.2724686442 -0.1394566864 0.1068978418
260298440.0 -0.1397247465 0.0979476238 0.4827845277 -0.2778525744 0.4827098558 -0.2780933525 -0.1380095231 0.108660652
265298410.0 -0.1388310597 0.0995211787 0.4797235376 -0.2841120529 0.4795488442 -0.2842101437 -0.137429523 0.1100065367
270298380.0 -0.1378969755 0.1006473218 0.476156769 -0.2894034901 0.4764863618 -0.2890739838 -0.1360067607 0.1118436614
275298350.0 -0.1370878202 0.102009085 0.4732020196 -0.294721129 0.4736122091 -0.2954207078 -0.1344315161 0.1133579735
280298320.0 -0.1362959853 0.103322557 0.4702997393 -0.2996648486 0.4701897368 -0.3002430526 -0.1333715155 0.1150136941
285298290.0 -0.135060741 0.1048681722 0.4668543402 -0.3053481339 0.4669467507 -0.3054011194 -0.1324575072 0.1163647506
290298260.0 -0.1343040964 0.1057832353 0.4635482524 -0.3107061291 0.4636246744 -0.3109961099 -0.1305241957 0.1178098635
295298230.0 -0.1332473814 0.1070535922 0.4602683112 -0.3159248714 0.4599758276 -0.3160096393 -0.1292626931 0.1192206496
300298200.0 -0.1321695869 0.108328102 0.4566095593 -0.3212948244 0.4568559032 -0.3210063077 -0.1284207284 0.1208934978
305298170.0 -0.1306805929 0.1097036107 0.4535681764 -0.3268973665 0.4533767246 -0.3267773943 -0.1265227193 0.1224774443
310298140.0 -0.1297761134 0.1106119615 0.4502387872 -0.3321877707 0.4497539737 -0.3320284416 -0.1253472082 0.1239265703
315298110.0 -0.1292655981 0.1118237987 0.4458691305 -0.3366202356 0.446353795 -0.3370533555 -0.1236711574 0.1252208319
320298080.0 -0.1280597747 0.1132100006 0.4421667038 -0.3423182534 0.4425294384 -0.3424236434 -0.1225426256 0.126264645
325298050.0 -0.1272876055 0.1141738873 0.439037809 -0.3472449128 0.438819832 -0.3477222889 -0.1211530558 0.1277782915
330298020.0 -0.1263213341 0.1157440208 0.4342296974 -0.3521194363 0.4341598144 -0.3519655038 -0.1202784471 0.1288653807
335297990.0 -0.1253509302 0.1165197951 0.4304134561 -0.3571707962 0.4306648116 -0.3570451568 -0.1190214954 0.1303195117
340297960.0 -0.1248113136 0.1181096593 0.4261968932 -0.3618084352 0.4263523037 -0.3618166743 -0.1176063041 0.1318380304
345297930.0 -0.1237290751 0.1196957993 0.4222733045 -0.3664652189 0.4216220877 -0.3663065249 -0.1161483822 0.1330697592
350297900.0 -0.122107393 0.1208118693 0.4178435464 -0.3708134107 0.4182999478 -0.371003928 -0.1154170093 0.1351664934
355297870.0 -0.1214483684 0.1220919376 0.4138838172 -0.3755218741 0.4141198356 -0.3755862202 -0.1138909286 0.1363567504
360297840.0 -0.1201840006 0.1234584428 0.4095827962 -0.3805949371 0.409558288 -0.3804829455 -0.1118068599 0.1381321486
365297810.0 -0.1188571309 0.1246146952 0.4050856997 -0.3848035279 0.4054314331 -0.3848140733 -0.1106637068 0.1395384634
370297780.0 -0.1178500522 0.1256693615 0.4012329192 -0.3888647937 0.4012189073 -0.3893815375 -0.109177592 0.1410393416
375297750.0 -0.1167372108 0.1274956799 0.3973404584 -0.393603477 0.3968469626 -0.3938751027 -0.1073407233 0.1426037781
380297720.0 -0.1153225608 0.1282280118 0.3923872183 -0.397849506 0.3924238069 -0.3979224001 -0.1058145235 0.1438083511
385297690.0 -0.1143058685 0.1299138764 0.3880081858 -0.402069338 0.3881708204 -0.4020174324 -0.1043860025 0.1450947524
390297660.0 -0.1132538377 0.1311118918 0.3835131911 -0.4066938017 0.3835357848 -0.4066994087 -0.1028543606 0.1464403268
395297630.0 -0.1117121011 0.1320284621 0.3792135998 -0.410125805 0.3794423963 -0.4106002304 -0.1015829574 0.1482174929
400297600.0 -0.1105369034 0.1334418886 0.3748338858 -0.4149195131 0.3749909848 -0.4150701138 -0.100282395 0.1493982892
405297570.0 -0.1092169023 0.1347780403 0.3703801004 -0.4186819134 0.3702790634 -0.4189608562 -0.0986023581 0.1506590316
410297540.0 -0.1080994783 0.135796583 0.3649391532 -0.4231459808 0.3652009181 -0.4228345772 -0.0965691279 0.1520124005
415297510.0 -0.106704621 0.1375042477 0.3607755079 -0.4269716793 0.3607429927 -0.4266637229 -0.0953442449 0.1533131778
420297480.0 -0.1051340193 0.1380479036 0.3559329823 -0.4310006649 0.3560308082 -0.4310554567 -0.0935234852 0.1542092582
425297450.0 -0.1036787025 0.1392652036 0.3513990366 -0.4346681665 0.3516315297 -0.4347505516 -0.091693894 0.1558848308
430297420.0 -0.1027885254 0.140744485 0.3468117694 -0.4388197667 0.3467949459 -0.4387602129 -0.0902741927 0.157005369
435297390.0 -0.1010538004 0.1414773615 0.3413301173 -0.4420009961 0.3416238595 -0.442081025 -0.0885282973 0.1584463998
440297360.0 -0.0994856883 0.1425160164 0.3363939942 -0.4459613734 0.3364707146 -0.4461164021 -0.0868314541 0.1589970257
445297330.0 -0.098327485 0.1437148057 0.3317139623 -0.4499704711 0.3315016473 -0.4497545991 -0.0852187076 0.1602265662
450297300.0 -0.0969473436 0.1448209469 0.3268169291 -0.4534061593 0.3272780522 -0.4533475675 -0.0834415517 0.1617204404
455297270.0 -0.0956455522 0.1459254686 0.3223397166 -0.4570704531 0.3222380287 -0.4567394576 -0.0816754234 0.1627472483
460297240.0 -0.0946144621 0.1472170626 0.3171100989 -0.4602163873 0.3167889571 -0.4603827048 -0.0796443504 0.1640136117
465297210.0 -0.0926006053 0.1476804132 0.3120308623 -0.4633870893 0.3121679445 -0.4637422832 -0.0783577377 0.164732576
470297180.0 -0.0912788382 0.1488802231 0.3069458803 -0.4668560905 0.3072558017 -0.4670383484 -0.0770340222 0.1657693369
475297150.0 -0.0899355766 0.1495729188 0.3015826022 -0.4698141444 0.3018389497 -0.470006569 -0.0747720054 0.1670209685
480297120.0 -0.0885087506 0.1506402 0.2965949123 -0.4731358636 0.296785042 -0.4734939517 -0.0731506497 0.1685784016
485297090.0 -0.0866160213 0.1515114438 0.2914314531 -0.4763658981 0.2914503398 -0.4766617888 -0.071609227 0.1688939253
490297060.0 -0.0852150798 0.1523046032 0.2864980891 -0.4799520699 0.2866385247 -0.479750674 -0.0696857894 0.170001915
495297030.0 -0.0841256316 0.1534850843 0.2808478147 -0.4825489781 0.2804212474 -0.4827463135 -0.0675235248 0.1707413857
500297000.0 -0.082360247 0.1544681402 0.2757195149 -0.4860248437 0.2758430214 -0.4857968743 -0.0657656519 0.1717769441
505296970.0 -0.0813052713 0.1552355775 0.269830753 -0.4884945612 0.2700825792 -0.4884330612 -0.0644825922 0.1729126758
510296940.0 -0.0794662735 0.1560746929 0.2647504486 -0.4914520955 0.2652394668 -0.491665908 -0.0622027813 0.1739379279
515296910.0 -0.0781731748 0.157185594 0.2597052721 -0.494162131 0.259435602 -0.4944828414 -0.0603114507 0.1746296983
520296880.0 -0.076361925 0.1579581234 0.2543639482 -0.4969827459 0.2544300369 -0.49713162 -0.058134976 0.1751360128
525296850.0 -0.0750066141 0.1589056055 0.2488515282 -0.5000437098 0.2488965524 -0.500017997 -0.0561125391 0.1764381752
530296820.0 -0.0735002605 0.1598652347 0.2435826668 -0.5020813127 0.2431479208 -0.5026005591 -0.0546542006 0.1764733976
535296790.0 -0.0719025009 0.1604725446 0.2377316534 -0.504826883 0.238010445 -0.5048151212 -0.0526757561 0.1775870632
540296760.0 -0.0702491456 0.1611667689 0.2322975875 -0.5081868079 0.2321202578 -0.5077272785 -0.0511623064 0.1787214716
545296730.0 -0.0687410688 0.1624277424 0.2268628106 -0.5100456742 0.226682454 -0.5099702328 -0.0491000024 0.1788701958
550296700.0 -0.0674648766 0.1629566645 0.2213175618 -0.5125859908 0.2218353939 -0.5126586479 -0.0470389581 0.1800643893
555296670.0 -0.0653454345 0.1637036623 0.2164269698 -0.5149305754 0.2161378588 -0.5150639291 -0.0452566882 0.1806282546
560296640.0 -0.0641043386 0.1643619752 0.210096036 -0.5170892984 0.2102126051 -0.5169473437 -0.0428585671 0.1812586084
565296610.0 -0.0628281195 0.165009283 0.2041985193 -0.5191446899 0.2040155075 -0.5194738991 -0.0412144229 0.1816684456
570296580.0 -0.0606439937 0.1656658561 0.1985726838 -0.5210916782 0.1995575482 -0.5214520009 -0.0392633435 0.183162421
575296550.0 -0.0592836897 0.1670107239 0.1932433981 -0.5233291761 0.1935475655 -0.5233612736 -0.0370592701 0.1833920956
580296520.0 -0.0580669722 0.1672572574 0.187819696 -0.5253605021 0.1877780154 -0.525487293 -0.0354486665 0.1836875058
585296490.0 -0.0559384164 0.1677572466 0.1822381165 -0.5274934254 0.1820023311 -0.5276186929 -0.0334071453 0.1840695694
590296460.0 -0.0544919382 0.168376734 0.1758510532 -0.5292404965 0.1759634423 -0.5298598235 -0.0310819281 0.1850154179
595296430.0 -0.0528793016 0.1693964775 0.1706562788 -0.531316212 0.1704134682 -0.5318087405 -0.028993588 0.1851712717
600296400.0 -0.0514591924 0.1699774176 0.1647423806 -0.5330748243 0.1651250469 -0.5329418302 -0.0272720804 0.1858650204
605296370.0 -0.0495522674 0.1708242775 0.1588752062 -0.5350003642 0.1592012689 -0.5346540859 -0.0254663705 0.1862519335
610296340.0 -0.0481463921 0.171255942 0.1533030615 -0.5360768496 0.153440152 -0.5366471844 -0.0231210905 0.1872619705
615296310.0 -0.0460521761 0.1720627207 0.1471488556 -0.5380894915 0.14724877 -0.5382454327 -0.0211474577 0.1870168509
620296280.0 -0.0445744039 0.1725978346 0.141751127 -0.5393435767 0.141351881 -0.5398080116 -0.0194025278 0.1872963442
625296250.0 -0.0428604123 0.1731298384 0.1349139878 -0.5413326982 0.1353507838 -0.541438594 -0.0168855553 0.1881609789
630296220.0 -0.0411631475 0.1738042453 0.1294711772 -0.5424791017 0.1299013981 -0.5424535409 -0.0151941586 0.1885565169
635296190.0 -0.0395524153 0.1743400846 0.1236903869 -0.5433143535 0.1237761963 -0.5432853075 -0.0133195793 0.1884701222
640296160.0 -0.0378319467 0.1745504614 0.1183050851 -0.5448877826 0.1179121255 -0.5453309434 -0.010646457 0.188616401
645296130.0 -0.0361317265 0.1753301352 0.1118527569 -0.5463822764 0.1119467088 -0.5465042082 -0.0092246246 0.1888303775
650296100.0 -0.034561998 0.1762073017 0.1067721106 -0.5471617604 0.1064439722 -0.547382837 -0.00707597 0.1891929438
655296070.0 -0.0329695346 0.1760413718 0.1004708791 -0.5480778512 0.1001629457 -0.5484391708 -0.0047236962 0.1895751352
660296040.0 -0.0314015579 0.176934874 0.0948740264 -0.5491801174 0.0943756672 -0.5493995928 -0.0030474699 0.1896107833
665296010.0 -0.029316598 0.1771471944 0.0886800599 -0.5503908211 0.0886896678 -0.5506718628 -0.0011660645 0.1901321359
670295980.0 -0.027382284 0.178036786 0.0823537534 -0.5516472671 0.0828282691 -0.5513336129 0.0005916316 0.1903826301
675295950.0 -0.0256571868 0.177979474 0.0761690882 -0.5519363646 0.0769092894 -0.5526169377 0.0032182488 0.1908738842
680295920.0 -0.0240492188 0.1789539745 0.0705649237 -0.5528543767 0.0703722763 -0.5530974261 0.0053208242 0.1905543871
685295890.0 -0.0223873098 0.1789172385 0.0647301133 -0.5536117826 0.0645575653 -0.554025993 0.0071733643 0.190752211
690295860.0 -0.0202951836 0.1794504226 0.0584430563 -0.5539998438 0.0582674513 -0.5537749762 0.0095716389 0.1905574837
695295830.0 -0.0184914185 0.1793990889 0.0518506752 -0.5545764608 0.0522286824 -0.5550390957 0.011365994 0.1908408921
700295800.0 -0.0166038408 0.1801896998 0.0463264658 -0.5552583152 0.0461764894 -0.5555676785 0.0134037578 0.1904496296
705295770.0 -0.0150477603 0.1804248944 0.0404734273 -0.5556911686 0.0406309305 -0.5557830789 0.0154117415 0.1908048686
710295740.0 -0.0131084682 0.1808093672 0.0345320047 -0.5561182102 0.0345793991 -0.5561741635 0.016823059 0.1907902512
715295710.0 -0.0118109161 0.1811309402 0.0283641794 -0.5566211797 0.0286871728 -0.556519674 0.0193996358 0.1902480398
720295680.0 -0.0099516121 0.1810213892 0.0224585682 -0.5565827442 0.0226556003 -0.5568405266 0.0218243401 0.190755484
725295650.0 -0.0078744255 0.1816441786 0.0162329152 -0.5569165818 0.0163467232 -0.5568367351 0.0236608184 0.1906929668
730295620.0 -0.0065027294 0.1815178183 0.0104201901 -0.5566894205 0.0106642748 -0.5567729377 0.0258908025 0.1899976702
735295590.0 -0.0042876281 0.1817136233 0.0049782383 -0.5570099601 0.004888795 -0.557393949 0.0280192376 0.1900580121
740295560.0 -0.0028609281 0.1822369254 -0.0011354524 -0.5566786568 -0.0017170546 -0.5570250753 0.0302397437 0.1897803624
745295530.0 -0.0008072177 0.1818881681 -0.0074384596 -0.556648114 -0.007085117 -0.5570564658 0.0317604931 0.1898681619
750295500.0 0.0005591412 0.1820664472 -0.01321416 -0.5564915749 -0.0137741479 -0.5566734913 0.0341933231 0.1891884473
755295470.0 0.0031426363 0.1827010024 -0.01937024 -0.5562640606 -0.019218946 -0.556759494 0.0357894555 0.1893994857
760295440.0 0.0046350064 0.1827153033 -0.0259426271 -0.5557891418 -0.0253565183 -0.5561269526 0.0374123597 0.1888913684
765295410.0 0.0060952473 0.1827019176 -0.0310392143 -0.5558063958 -0.0312521584 -0.5562195281 0.0406003591 0.189004745
770295380.0 0.0083250442 0.1828813192 -0.0373020283 -0.5552638053 -0.0370633287 -0.5556871597 0.0424129505 0.1888013455
775295350.0 0.0098740155 0.1831208428 -0.0432183149 -0.5548492332 -0.0431518743 -0.5553242832 0.0437462615 0.187765856
780295320.0 0.0118881761 0.1828715264 -0.0491358405 -0.5541186511 -0.0492576783 -0.5546994964 0.0461373334 0.1878661812
785295290.0 0.0136262029 0.1833658114 -0.0550759025 -0.5530951131 -0.0549494163 -0.5543234216 0.0480007468 0.1874176366
790295260.0 0.0151653373 0.1833694057 -0.0607531054 -0.5533342875 -0.0611171926 -0.5534048539 0.0506367615 0.1870206127
795295230.0 0.0170064303 0.1832363004 -0.0668729966 -0.5521087051 -0.0668637644 -0.5525361427 0.0524361656 0.1869969834
800295200.0 0.0191566214 0.1832351359 -0.0735153014 -0.5520771219 -0.0732614091 -0.5517291494 0.0544727088 0.186388692
805295170.0 0.0206483466 0.1832583711 -0.0786752954 -0.5504314445 -0.079344496 -0.5507211934 0.0561387069 0.1856957911
810295140.0 0.0224832662 0.1829488434 -0.0846740661 -0.550297939 -0.0848211383 -0.5503826298 0.0586629154 0.1856535597
815295110.0 0.0244343328 0.1829469631 -0.0910735812 -0.5487988304 -0.0910969452 -0.5489237403 0.060366969 0.1844836812
820295080.0 0.0261221155 0.1825063553 -0.0967863096 -0.5480189617 -0.0968045317 -0.5478939742 0.0621400131 0.1843708003
825295050.0 0.0278927424 0.1827108916 -0.1026045844 -0.5464875124 -0.1026901417 -0.5469820938 0.0650043851 0.1838644959
830295020.0 0.0298358895 0.1828925649 -0.1088047202 -0.5455352072 -0.1089889975 -0.546150873 0.0663398022 0.1830983032
