!Created with skrf (http://scikit-rf.org).
# Hz S RI R 50.0 
!freq ReS11 ImS11 ReS21 ImS21 ReS12 ImS12 ReS22 ImS22
300000.0 -0.1004662744 -0.0701888577 0.6294518712 0.0648879945 0.6236670671 0.0663150918 -0.0994360688 -0.0780059528
5299970.0 -0.1021575481 0.0129342404 0.6301241664 0.0103563169 0.630759288 0.0102106744 -0.1010095771 0.0131098271
10299940.0 -0.0971618263 0.0292455378 0.6343391974 0.015235415 0.63429908 0.015566151 -0.095839532 0.0302827044
15299910.0 -0.0898945424 0.042410176 0.6404585116 0.0205918942 0.6405564216 0.0207886532 -0.0888086908 0.0433083962
20299880.0 -0.0818385371 0.0530371124 0.6486447103 0.024709395 0.6486912516 0.0241841917 -0.0798723131 0.0543841243
25299850.0 -0.0724086777 0.0621983207 0.6578589416 0.0252011862 0.6574216504 0.0256219271 -0.0698092003 0.0632121824
30299820.0 -0.0622186551 0.0688869091 0.6672456162 0.0245110766 0.6672284687 0.0245773157 -0.0597960669 0.070007539
35299790.0 -0.0527170399 0.0735432327 0.6772693305 0.0213886808 0.6768749422 0.0217808566 -0.0498629576 0.0749123231
40299760.0 -0.043323589 0.0773296354 0.6862926029 0.0172843842 0.6864634024 0.0177828496 -0.0404337914 0.0774527655
45299730.0 -0.0339221353 0.0793738231 0.695002476 0.0120248243 0.6956938303 0.0120900784 -0.0312989905 0.0797808963
50299700.0 -0.0259084434 0.0801441088 0.7033838281 0.0049073056 0.7034236378 0.0055794235 -0.0225931387 0.080428445
55299670.0 -0.0177204946 0.0804291011 0.7110367005 -0.0034799012 0.7107405394 -0.0023676661 -0.0150659749 0.0806319424
60299640.0 -0.0099818688 0.0802894433 0.7174159624 -0.01161408 0.7177443888 -0.0109824652 -0.0077320315 0.0794111776
65299610.0 -0.0037851234 0.0787900807 0.7234911205 -0.0200604346 0.7233551451 -0.019441983 -0.0010501939 0.0785006444
70299580.0 0.0024036492 0.0776151277 0.7284681949 -0.0290894657 0.7288535421 -0.0291167858 0.0047540412 0.0767956809
75299550.0 0.0080655387 0.0756516289 0.7326540981 -0.0384740673 0.732784345 -0.0389909419 0.0102318518 0.0750185416
80299520.0 0.0129941919 0.0737145437 0.7372827458 -0.0486510831 0.7375617663 -0.0486964269 0.0149990167 0.0726874629
85299490.0 0.017805806 0.0714263517 0.7403841227 -0.0583956587 0.7405699886 -0.058181982 0.0196272795 0.0701585695
90299460.0 0.0215935685 0.0689886787 0.7423423125 -0.0687502847 0.7430860409 -0.0683921741 0.023761672 0.0679401274
95299430.0 0.0258816861 0.0665914151 0.7459353106 -0.0789148017 0.7455561772 -0.0790806372 0.027698735 0.0656234101
100299400.0 0.0291934041 0.0646689714 0.7470182542 -0.0890725104 0.7470670932 -0.0887777292 0.0312945805 0.0627911726
105299370.0 0.0322073895 0.0622544969 0.7484306917 -0.0990444725 0.7490931618 -0.0991153219 0.0344975667 0.0608629767
110299340.0 0.0350640895 0.0599328237 0.7501680494 -0.1088741039 0.7495019513 -0.1087314869 0.0361282911 0.0580136112
115299310.0 0.0374953107 0.0573709824 0.7511098578 -0.118908569 0.7506495118 -0.1192438101 0.0390605421 0.0557851033
120299280.0 0.039861068 0.0547210036 0.7513869294 -0.1292700369 0.751435403 -0.1293975093 0.0416698247 0.0531382088
125299250.0 0.0418303063 0.0525418212 0.7517617813 -0.1385742394 0.7516120322 -0.1390656588 0.04291866 0.0505590267
130299220.0 0.0434115994 0.0503854421 0.751278069 -0.1492517908 0.7512831511 -0.1493283442 0.0448546833 0.048311003
135299190.0 0.045194933 0.0480897347 0.7518533291 -0.1587102694 0.7510630814 -0.1585937589 0.046588505 0.0462834967
140299160.0 0.0467118466 0.0464242499 0.7507349872 -0.1693227418 0.7507447606 -0.1685099138 0.0481233349 0.0445789941
145299130.0 0.048027061 0.0440492454 0.7502139205 -0.1781636105 0.7496772735 -0.1782679302 0.0495166727 0.0419152922
150299100.0 0.0497020495 0.0420930643 0.7488320372 -0.1873464949 0.7488922181 -0.1873779131 0.0505867523 0.040026519
155299070.0 0.0504875211 0.0399067934 0.7479514169 -0.1980550233 0.7476889494 -0.1975921499 0.0516020589 0.0386431128
160299040.0 0.0520640773 0.03808843 0.7462761311 -0.2071170925 0.7457012622 -0.2073035879 0.052194422 0.0364468645
165299010.0 0.0526554126 0.0362398192 0.7451495161 -0.2172911503 0.7447803341 -0.2168473978 0.0536794282 0.0348926477
170298980.0 0.0531864532 0.0341567093 0.742902223 -0.2261503343 0.7432225108 -0.2259332486 0.0540795266 0.0329931291
175298950.0 0.0536705766 0.032233665 0.7416132458 -0.2354316115 0.7406171719 -0.2350113499 0.0543292164 0.0315037974
180298920.0 0.054286509 0.030718684 0.7388035215 -0.2443958772 0.7388693761 -0.2443336528 0.0556745363 0.0298328833
185298890.0 0.0557180566 0.0288586841 0.7368125683 -0.2533841674 0.7365773036 -0.253673253 0.0558480876 0.0282845373
190298860.0 0.0553854893 0.0275510735 0.7344277837 -0.2626323975 0.7349071892 -0.2624594927 0.0564786845 0.0264781504
195298830.0 0.0558573071 0.0254717187 0.7322182351 -0.2715429101 0.7322180167 -0.2716294327 0.0573156538 0.0253120524
200298800.0 0.0565109638 0.0242004674 0.7292389999 -0.2811396201 0.7289960716 -0.2806965468 0.05677818 0.0236060676
205298770.0 0.0570092106 0.0228191853 0.7261078918 -0.2899956069 0.726090803 -0.2895087479 0.0573684564 0.0216524769
210298740.0 0.0570728117 0.0211392068 0.7231647334 -0.2980022049 0.7229362628 -0.2974928796 0.0577215695 0.0210624615
215298710.0 0.0568859312 0.019652576 0.720420264 -0.3071347565 0.7201893523 -0.3073775711 0.0578756937 0.0200594904
220298680.0 0.0577277692 0.018086536 0.7170115065 -0.3155025593 0.717037411 -0.315310447 0.0575388825 0.01795127
225298650.0 0.0578414707 0.0168219538 0.714011959 -0.3249442233 0.714216381 -0.3242864084 0.0576330769 0.0165149983
230298620.0 0.0579943365 0.016093327 0.7107713207 -0.3326917528 0.71106542 -0.3327273239 0.0575260278 0.0152265883
235298590.0 0.0580001233 0.0145663026 0.7069173133 -0.3413520306 0.7068530991 -0.3408446168 0.0577780102 0.0140314051
240298560.0 0.0580749688 0.0134291492 0.7037498677 -0.3498814033 0.703125529 -0.3498193273 0.057738582 0.0133424958
245298530.0 0.0580311163 0.0121615016 0.7001068192 -0.3586723633 0.7002387197 -0.3579602431 0.0582616581 0.0108811791
250298500.0 0.0584534023 0.0111636899 0.6952129735 -0.3661440695 0.6951651897 -0.365423522 0.0581738289 0.0106182974
255298470.0 0.0585421877 0.0095461538 0.6913962958 -0.3745042492 0.6920668768 -0.3739426661 0.0581842316 0.0091107859
260298440.0 0.0581026067 0.0080577165 0.6876215781 -0.3828439356 0.6879044154 -0.3819818058 0.0588347549 0.0081538873
265298410.0 0.0589792435 0.0079793906 0.6839451235 -0.3909357403 0.6840884501 -0.3901228376 0.0582860328 0.0069214451
270298380.0 0.0586916819 0.0061176539 0.6803891014 -0.3980465966 0.6796067944 -0.3982677956 0.0580547128 0.0058441062
275298350.0 0.0590506341 0.0052061759 0.6752668984 -0.4069637659 0.6759232574 -0.4064368394 0.0583341585 0.0043361799
280298320.0 0.0587781099 0.0043815686 0.6710824657 -0.4146890357 0.6710533074 -0.4141697393 0.0588876212 0.0035001468
285298290.0 0.0586902745 0.0033306699 0.6667695503 -0.4223301668 0.6664782464 -0.4219357673 0.0586193171 0.0024862499
290298260.0 0.0590483617 0.0023511764 0.6619003421 -0.4296691335 0.6623922008 -0.4297539471 0.0587520606 0.0018326809
295298230.0 0.0590258987 0.0011124583 0.6579487542 -0.4377254143 0.657421181 -0.4376326358 0.059319094 0.0004128491
300298200.0 0.0586877215 -0.0002239545 0.6532186708 -0.4450078968 0.6531933882 -0.4451657969 0.058851608 -0.0006984039
305298170.0 0.0588027927 -0.0013297133 0.6480447334 -0.4535842732 0.6480454237 -0.4526338631 0.0595146035 -0.0021188281
310298140.0 0.0584551766 -0.0024491107 0.6428854402 -0.4605060635 0.6441082214 -0.4602720206 0.0597458668 -0.00295778
315298110.0 0.0585127765 -0.0038872308 0.6379848473 -0.4684544761 0.6379125003 -0.4678015757 0.0589479526 -0.0040531835
320298080.0 0.058688201 -0.0047959596 0.632026883 -0.4761525005 0.6329139203 -0.4757815313 0.0586157302 -0.0054862537
325298050.0 0.0577485611 -0.0061108695 0.6274690647 -0.4838277203 0.62734946 -0.4829903265 0.0581035866 -0.0062257527
330298020.0 0.0574301082 -0.0071655199 0.6214328495 -0.4909530446 0.6221148479 -0.4904677532 0.0573368831 -0.0075035137
335297990.0 0.0574239281 -0.0083501111 0.616225129 -0.4972417778 0.6157602494 -0.4978226701 0.0566742498 -0.0077034147
340297960.0 0.0561123986 -0.0088058763 0.6103058714 -0.5044175803 0.6098780619 -0.5048710869 0.0570875614 -0.0083946991
345297930.0 0.0557554518 -0.0089345171 0.6044724227 -0.5118338488 0.6045601292 -0.5122900678 0.0567385321 -0.0097890924
350297900.0 0.0553164329 -0.0108237957 0.5979734236 -0.5185498266 0.598074959 -0.518455769 0.0556160533 -0.0096931583
355297870.0 0.0551494151 -0.0104616875 0.5927558144 -0.5247826496 0.5930907412 -0.5246297596 0.055199927 -0.0107688434
360297840.0 0.0545336264 -0.0113154916 0.5873371566 -0.5313384226 0.5874836125 -0.5314652372 0.0552025268 -0.0112357196
365297810.0 0.0541878567 -0.012068969 0.5811806975 -0.5382847829 0.582002204 -0.5380998313 0.0547707974 -0.0116820721
370297780.0 0.0544715828 -0.0128801472 0.5750508116 -0.5445352889 0.5756822219 -0.5438285512 0.0543634357 -0.012285818
375297750.0 0.0541467434 -0.0137066627 0.5691873209 -0.5512300624 0.5699052837 -0.5508180755 0.0545531235 -0.0129349131
380297720.0 0.0535016611 -0.0139374963 0.5626939618 -0.5570410387 0.56345406 -0.5565066334 0.0534000466 -0.013934153
385297690.0 0.0530542228 -0.0148100713 0.5565316982 -0.5634328121 0.5567331059 -0.5632728232 0.0535869374 -0.0139169087
390297660.0 0.0528956207 -0.0152303226 0.5507713873 -0.569860598 0.5504942851 -0.5693283117 0.0529721817 -0.0153080987
395297630.0 0.0523830345 -0.0160181081 0.5444061584 -0.5758615158 0.5447095149 -0.5757711096 0.0533189255 -0.0157117826
400297600.0 0.0517397014 -0.0166728246 0.5373967232 -0.5827888236 0.5378232905 -0.5815346835 0.0524579005 -0.0162449547
405297570.0 0.0514836318 -0.0173384303 0.5313046015 -0.5882629711 0.5313002014 -0.5872936744 0.0518990049 -0.0168899332
410297540.0 0.0514726572 -0.0180189208 0.5246221277 -0.5941563354 0.525312128 -0.5939666826 0.051634504 -0.017088501
415297510.0 0.0513133694 -0.0184669217 0.5181668777 -0.5998781559 0.5183099088 -0.599930228 0.0512828126 -0.0178824464
420297480.0 0.0511126135 -0.0187963531 0.51143045 -0.6051746793 0.5119538371 -0.605549112 0.0503873236 -0.0190433879
425297450.0 0.0503446425 -0.0204189559 0.5053947583 -0.6115442137 0.5054007545 -0.6111690664 0.0497847082 -0.0189230941
430297420.0 0.0499513539 -0.0209594474 0.4983384208 -0.616328225 0.4987300294 -0.616204921 0.049525164 -0.0200964364
435297390.0 0.0494207213 -0.0211424256 0.4913281055 -0.6221219568 0.4910605805 -0.6217267046 0.0504029083 -0.0205076519
440297360.0 0.0494617762 -0.0215070173 0.4848573666 -0.6276662331 0.4846275353 -0.6276108993 0.0489279973 -0.0214256579
445297330.0 0.0487608042 -0.0228063918 0.4780724867 -0.6333730619 0.477940905 -0.6323483225 0.0490868056 -0.0223006346
450297300.0 0.0488133137 -0.0230103675 0.4708582777 -0.6384651868 0.4706348511 -0.638357739 0.0486288563 -0.0227135542
455297270.0 0.0484317805 -0.0235399894 0.4635824543 -0.6437184595 0.4637881492 -0.643623401 0.0483564027 -0.0233174383
460297240.0 0.0477821338 -0.0240727873 0.4561669701 -0.6484578095 0.4563157728 -0.6487985955 0.0475664807 -0.0236317346
465297210.0 0.0479118763 -0.0247380918 0.4498081822 -0.6538978037 0.4494581585 -0.6541034488 0.0473950736 -0.0246623383
470297180.0 0.0472348952 -0.0255304428 0.4421132272 -0.6587088758 0.4423608776 -0.6582987785 0.0473112722 -0.024696809
475297150.0 0.0467830783 -0.0262743087 0.4347414831 -0.6630503877 0.4349763373 -0.6629837116 0.0474540035 -0.0257663665
480297120.0 0.0463387587 -0.0260392144 0.4274885593 -0.6683875477 0.4272426317 -0.6686881494 0.0471074961 -0.0257460435
485297090.0 0.0456702367 -0.026790898 0.4203990823 -0.672415822 0.4205183854 -0.6723655454 0.0468349311 -0.0267948244
490297060.0 0.0450315599 -0.0274750172 0.4133135545 -0.6783456157 0.4134215517 -0.676795817 0.0462494698 -0.0265356781
495297030.0 0.0448018649 -0.028079651 0.4053803147 -0.6820131851 0.4062028806 -0.6817813999 0.0452492744 -0.0274354559
500297000.0 0.0444541466 -0.0288387303 0.3979278319 -0.6863849432 0.3973681715 -0.6863284985 0.0452766306 -0.0274327268
505296970.0 0.0442797274 -0.029379124 0.390541477 -0.6905785234 0.3898323666 -0.6905956361 0.0445728044 -0.0280350438
510296940.0 0.0433661909 -0.0294535072 0.38243761 -0.69549738 0.3828018565 -0.6951661911 0.0445123422 -0.0281566762
515296910.0 0.0427598857 -0.0296182076 0.3747077678 -0.6995680612 0.3752753225 -0.6987614892 0.0440805678 -0.0286739892
520296880.0 0.0422497363 -0.030236539 0.367528935 -0.704124312 0.3677053855 -0.7028473536 0.0433412893 -0.0295642914
525296850.0 0.0420345173 -0.0313389057 0.3595117868 -0.7071473349 0.3597974019 -0.707076778 0.042675711 -0.0296874287
530296820.0 0.0416291928 -0.0311160798 0.3517350969 -0.7115139059 0.3519931576 -0.7113929906 0.0426871993 -0.0300668777
535296790.0 0.0404054399 -0.0317022505 0.3440303593 -0.7154667562 0.3442378818 -0.7147100187 0.0420451327 -0.0310369662
540296760.0 0.0403812016 -0.0318197074 0.3365237081 -0.7193266003 0.3359467217 -0.7189851595 0.0409001232 -0.030641275
545296730.0 0.03999423 -0.0325813022 0.3283211905 -0.7223577775 0.3286441143 -0.7222406463 0.0404051363 -0.0313273628
550296700.0 0.0399096223 -0.0325789799 0.3202820861 -0.7255961655 0.3204459798 -0.7259721983 0.0398553883 -0.0315590523
555296670.0 0.0388398599 -0.0331101541 0.3124620489 -0.7297073563 0.3127253516 -0.729328708 0.0394279431 -0.0318690912
560296640.0 0.0388087149 -0.0327542048 0.3041859192 -0.7330576052 0.3046308169 -0.7328701003 0.0389157843 -0.0325729061
565296610.0 0.0375369669 -0.0340480502 0.2959056995 -0.7364351785 0.2964874938 -0.7363726419 0.0380843489 -0.0330572331
570296580.0 0.0373408336 -0.0337140398 0.2887596738 -0.7399933989 0.2877407472 -0.7394318513 0.0379710978 -0.0327005084
575296550.0 0.0364529917 -0.034009032 0.280539264 -0.7435195909 0.2805529403 -0.7424117918 0.0377488366 -0.0335652827
580296520.0 0.0362978756 -0.034676393 0.2715364712 -0.7461804378 0.272430756 -0.7456346123 0.0370028545 -0.0338431816
585296490.0 0.035753372 -0.03570007 0.264051895 -0.7482853909 0.2642722498 -0.7483010136 0.0363306519 -0.0343005457
590296460.0 0.0356056808 -0.035470172 0.2560054256 -0.7504571082 0.2556609283 -0.7512915859 0.035018995 -0.0345759219
595296430.0 0.0350335415 -0.0357296163 0.2470141422 -0.7546965593 0.2473390126 -0.7541348823 0.0353017144 -0.0353320011
600296400.0 0.0341632587 -0.0363281751 0.2395642021 -0.7564810042 0.2394510279 -0.7566045747 0.0345210323 -0.0356653662
605296370.0 0.0335738232 -0.0363954719 0.2306775208 -0.7590578687 0.2313153752 -0.7593498704 0.0337200334 -0.0358370628
610296340.0 0.0331866695 -0.0367121805 0.22226341 -0.7617475745 0.2231529821 -0.7617870658 0.0339081637 -0.0366163074
615296310.0 0.0328584827 -0.0376471174 0.2140345806 -0.7638625101 0.214498233 -0.7649664014 0.0335449745 -0.0364400425
620296280.0 0.0323338784 -0.0376949535 0.2062682223 -0.7666256568 0.205922493 -0.7661596843 0.0324690984 -0.0369550384
625296250.0 0.0314037962 -0.0384434045 0.1984579735 -0.7689370208 0.1978668036 -0.7688852678 0.0327207323 -0.0370108401
630296220.0 0.0318851505 -0.038152881 0.1886528953 -0.7707817309 0.1891406829 -0.7704067397 0.0315946585 -0.0371515633
635296190.0 0.0299246719 -0.0393373486 0.1806889305 -0.7727458937 0.1810079836 -0.7726700353 0.0313854225 -0.0371875315
640296160.0 0.0296022583 -0.0388221184 0.1723630434 -0.7747135531 0.172826504 -0.7741635322 0.0305760688 -0.037776897
645296130.0 0.0291071621 -0.038646652 0.1635000433 -0.7758259001 0.164233728 -0.7766814471 0.0302373861 -0.0379757268
650296100.0 0.0287358025 -0.0393474843 0.1549617695 -0.7780010063 0.155773381 -0.7784772532 0.0301666398 -0.0390860403
655296070.0 0.0277752233 -0.0396655201 0.1470770527 -0.7799060356 0.147423031 -0.7800776996 0.0295430377 -0.0386559467
660296040.0 0.0266762715 -0.0404472946 0.1384980086 -0.7818014213 0.1388666761 -0.7816904635 0.0291993864 -0.0391272231
665296010.0 0.0271712213 -0.0402628061 0.1293428939 -0.7826999777 0.1302967477 -0.7829447796 0.028443356 -0.0384098331
670295980.0 0.025095106 -0.0403634569 0.1211601953 -0.7844869199 0.121201934 -0.7841485762 0.0272645697 -0.0390119083
675295950.0 0.0252616134 -0.040206182 0.1131652434 -0.7850801032 0.1132528039 -0.7846993082 0.02658934 -0.0393387123
680295920.0 0.024284445 -0.0410504362 0.1038588342 -0.7868255449 0.1032780267 -0.7871857558 0.0263032541 -0.0386262224
685295890.0 0.0241021389 -0.040214185 0.0954321051 -0.7877691364 0.0952687065 -0.7875288261 0.0255753495 -0.0389520222
690295860.0 0.0237053922 -0.0406174794 0.0871002257 -0.7880313677 0.0867496228 -0.7890032127 0.0251650055 -0.0386699226
695295830.0 0.0230949187 -0.0412016501 0.0789202705 -0.7893702502 0.0780646139 -0.7892813521 0.0242878488 -0.0390640437
700295800.0 0.0226671144 -0.0414114758 0.0700885946 -0.7900044052 0.0693571392 -0.7896084618 0.0237741659 -0.0383896667
705295770.0 0.0214615936 -0.0406383612 0.0609632747 -0.7910701856 0.0613093666 -0.7913774867 0.0231385193 -0.0390882374
710295740.0 0.0215975031 -0.0412434422 0.0526610759 -0.7923325206 0.0530398585 -0.7923375072 0.0227918751 -0.039958264
715295710.0 0.0200664402 -0.0414545104 0.0445768355 -0.7921469045 0.0440101145 -0.7923235704 0.0222362918 -0.0394044737
720295680.0 0.0199078476 -0.0417627725 0.0354437471 -0.7934384211 0.0361544711 -0.7928139816 0.0213433807 -0.0389838477
725295650.0 0.0196442754 -0.0417761131 0.0267314596 -0.792843572 0.026959524 -0.7929502565 0.0203869171 -0.0392550024
730295620.0 0.0191035192 -0.0412230463 0.0178139244 -0.7930072249 0.0185111962 -0.7931806879 0.0195802746 -0.0400182606
735295590.0 0.0179498052 -0.0412968961 0.0096469598 -0.7935596578 0.0091761456 -0.7934568422 0.0188694985 -0.0402892798
740295560.0 0.0172033241 -0.0414154828 0.0013398659 -0.7928061143 0.0007529054 -0.7933772502 0.019120992 -0.0396998611
745295530.0 0.0170103244 -0.0414135834 -0.007434237 -0.792611264 -0.0076745975 -0.7931421653 0.0184602736 -0.0406206601
750295500.0 0.0164173208 -0.0418489845 -0.016200404 -0.7932266365 -0.0159543474 -0.7931260766 0.0175669425 -0.0401747336
755295470.0 0.0158922936 -0.0418714113 -0.0249508564 -0.7925457197 -0.024509286 -0.7930361154 0.0175842899 -0.040967199
760295440.0 0.0152644418 -0.0416312873 -0.0337560932 -0.7928423409 -0.0333929224 -0.792847993 0.0165847097 -0.0406152753
765295410.0 0.0144612614 -0.0419245657 -0.0423319101 -0.7920893334 -0.0420788796 -0.7925924815 0.0162702157 -0.0406526043
770295380.0 0.0134129424 -0.042379956 -0.0513071613 -0.7919244133 -0.0506167561 -0.7912640173 0.0152791711 -0.0410158591
775295350.0 0.0128818796 -0.0426842054 -0.0600813415 -0.7900665005 -0.0592305777 -0.7910995153 0.0136609006 -0.0406384614
780295320.0 0.0125710171 -0.0424015542 -0.0679215056 -0.7900647814 -0.0673354306 -0.7903593192 0.0135209049 -0.0412852505
785295290.0 0.0116372242 -0.0428874981 -0.0764551102 -0.7887656688 -0.0766576762 -0.7895036099 0.0138517289 -0.0406907427
790295260.0 0.0115731964 -0.0415128822 -0.0846919475 -0.7879995306 -0.084067548 -0.7884632051 0.0127251495 -0.0408621783
795295230.0 0.0107575247 -0.0424943984 -0.0934314758 -0.7872103487 -0.0931053187 -0.7877741108 0.0125435112 -0.0405618061
800295200.0 0.0095436981 -0.0420733718 -0.1032112445 -0.7861880473 -0.1020766134 -0.7861845533 0.0117475733 -0.040997087
805295170.0 0.0093670976 -0.0422370214 -0.1110476315 -0.7847542005 -0.1107821543 -0.785320827 0.0112975037 -0.0407052881
810295140.0 0.0083809438 -0.0426243798 -0.1190512243 -0.7835612919 -0.1188828796 -0.7840219659 0.0114788987 -0.0402928112
815295110.0 0.008288425 -0.0427561082 -0.1277544733 -0.7820532469 -0.1272147625 -0.7824051953 0.0102579609 -0.0401179488
820295080.0 0.0067240269 -0.0415140563 -0.1366146042 -0.7804838492 -0.1356997967 -0.7810407449 0.009632183 -0.0406415063
825295050.0 0.0071923591 -0.0417908883 -0.144263633 -0.77923052 -0.1441186893 -0.7795604933 0.009586245 -0.0401977945
830295020.0 0.0064248604 -0.041786714 -0.1532525849 -0.7773470753 -0.1533196809 -0.7775759791 0.0097396632 -0.0400207795
