!Created with skrf (http://scikit-rf.org).
# Hz S RI R 50.0 
!freq ReS11 ImS11 ReS21 ImS21 ReS12 ImS12 ReS22 ImS22
300000.0 -0.2107192456 -0.080053893 6.99296e-05 0.000601276 -0.0002724335 0.0018784303 -0.7625906952 -0.1632030138
5299970.0 -0.2143927194 0.0085914887 3.70183e-05 4.7786e-05 7.469e-06 -3.84453e-05 -0.7851784834 -0.0080253683
10299940.0 -0.2103045652 0.0214173684 -9.9978e-06 2.32476e-05 3.72686e-05 -7.95702e-05 -0.7885074301 -0.0051467288
15299910.0 -0.2055302052 0.0313074555 -0.0002876128 -9.3175e-05 -0.0001410854 7.08537e-05 -0.7938006896 -0.002870626
20299880.0 -0.1994777695 0.0391140381 -4.60785e-05 0.0002542666 -3.57778e-05 -4.74629e-05 -0.8004168988 0.0013294423
25299850.0 -0.1930162487 0.0454087892 -2.77928e-05 -5.48049e-05 -2.61069e-05 -0.000252008 -0.8068207627 0.0073023304
30299820.0 -0.1863590648 0.0504825276 -5.64878e-05 -9.50478e-05 0.000234625 -0.0001131734 -0.8131960576 0.0147787294
35299790.0 -0.1800361843 0.0544804689 0.0001385293 -5.60074e-05 -0.0002513927 -1.65591e-05 -0.818077508 0.0235078038
40299760.0 -0.1740500286 0.0571177873 -0.000147493 1.24054e-05 9.67699e-05 0.0002145107 -0.8217574055 0.0334310872
45299730.0 -0.1684364479 0.0593604325 8.53754e-05 -4.1223e-05 -6.05351e-05 3.06677e-05 -0.8257479555 0.0421594538
50299700.0 -0.1630766412 0.0608142312 3.65137e-05 -4.3582e-06 -7.77378e-05 5.008e-05 -0.827911156 0.0526095904
55299670.0 -0.1582570916 0.0617834399 9.84567e-05 0.0002575752 -9.52218e-05 0.0001108039 -0.8299073123 0.0627698712
60299640.0 -0.1538666318 0.0623755506 -3.39115e-05 0.0001574278 3.33932e-05 3.45787e-05 -0.8310427897 0.0732156333
65299610.0 -0.150168936 0.0626675517 -4.5026e-06 -1.96367e-05 0.0001179887 -6.56078e-05 -0.831647703 0.0828829248
70299580.0 -0.1466588395 0.06277979 -4.28161e-05 -9.98707e-05 -6.05311e-05 -4.30917e-05 -0.8324000732 0.0928926046
75299550.0 -0.1431559593 0.0626333517 -9.11861e-05 -7.5901e-06 -3.52138e-05 4.1142e-06 -0.8323485177 0.1022895107
80299520.0 -0.1404063964 0.0627898424 0.000168326 1.51201e-05 7.38919e-05 1.68137e-05 -0.8323446666 0.1125814604
85299490.0 -0.1378374299 0.0623946873 -5.95671e-05 0.0001340433 0.0001199552 0.0001045159 -0.8320739322 0.1216188486
90299460.0 -0.1355778911 0.0624398044 5.29584e-05 0.0001210623 0.0001294312 -6.94195e-05 -0.8308562304 0.1316522759
95299430.0 -0.133509082 0.0621055295 0.0001005236 0.0002101239 3.88406e-05 0.0002308937 -0.8299177408 0.1410976377
100299400.0 -0.1317153422 0.0619694016 0.0002430859 1.19733e-05 -6.2029e-05 -7.6373e-06 -0.8287857453 0.1496432166
105299370.0 -0.1299318943 0.0617586866 0.0001888846 -1.16291e-05 7.43972e-05 0.0001605917 -0.8278554893 0.1591975823
110299340.0 -0.1283743351 0.0614707266 -1.05732e-05 0.0002077624 7.86748e-05 -8.2862e-05 -0.8265216499 0.1684579052
115299310.0 -0.1268293397 0.0612456999 8.54811e-05 5.33237e-05 6.62071e-05 0.0001053272 -0.8248542469 0.1769115874
120299280.0 -0.1256375786 0.0610809166 -9.22947e-05 -3.48721e-05 3.24886e-05 -7.04614e-05 -0.8236680054 0.1859735188
125299250.0 -0.1245855515 0.0607445334 2.96147e-05 -1.7775e-05 -8.76102e-05 -5.51094e-05 -0.8217607808 0.1956415952
130299220.0 -0.1235198501 0.0612973462 -2.76271e-05 0.0001560032 0.0001126358 -3.5562e-05 -0.8198484146 0.2041961901
135299190.0 -0.1223311282 0.0611055898 3.2169e-05 -3.69535e-05 -0.0001425313 -8.63158e-05 -0.8180019752 0.2126675232
140299160.0 -0.1216779367 0.0614520325 0.0001194163 2.78899e-05 2.46359e-05 1.07653e-05 -0.8158096201 0.2216160388
145299130.0 -0.120858041 0.0613967706 8.17086e-05 -2.9741e-06 3.90633e-05 0.0001494959 -0.8135919714 0.2299762174
150299100.0 -0.1202512493 0.0615264983 -4.9305e-05 0.0002325937 6.34996e-05 2.7433e-05 -0.811923924 0.2381438088
155299070.0 -0.1195322542 0.0622218862 -0.000128079 0.0001816529 -3.02788e-05 5.25978e-05 -0.809599378 0.2474779546
160299040.0 -0.1186669236 0.0621798095 0.0003164475 0.0002213501 -0.000122444 -8.00815e-05 -0.807424328 0.2566537377
165299010.0 -0.1183633544 0.0626357151 -8.54382e-05 -7.40169e-05 0.0002647072 5.95265e-05 -0.8041718931 0.2644811333
170298980.0 -0.1175814246 0.0627527758 0.0001891175 -6.75897e-05 2.2781e-05 -4.4162e-06 -0.8021852346 0.2734913097
175298950.0 -0.1169157543 0.0636360214 -0.0002422165 -0.0001043377 -2.68238e-05 1.05246e-05 -0.799150001 0.2822528551
180298920.0 -0.1162704296 0.0637505296 0.0001903768 0.0001490414 0.0002606638 9.77719e-05 -0.7957740564 0.2902158911
185298890.0 -0.115967604 0.0645197189 -2.46291e-05 7.61592e-05 0.0001335868 0.0001518117 -0.79304335 0.2981796249
190298860.0 -0.1153999204 0.0647930956 0.0001334541 -4.40414e-05 0.0001176587 4.11348e-05 -0.7895992347 0.3073756246
195298830.0 -0.1144293723 0.0651995753 -0.0001409294 8.86651e-05 0.0003155226 5.28662e-05 -0.7869565207 0.3154309136
200298800.0 -0.114344549 0.0659273773 5.9097e-06 9.67563e-05 3.95276e-05 2.31615e-05 -0.7833118867 0.3244238808
205298770.0 -0.1139917828 0.0664780832 0.0001733062 0.0002669721 0.0001190025 0.000230746 -0.780383832 0.3321393392
210298740.0 -0.1132237858 0.0673245542 2.51776e-05 0.0001631674 -1.74506e-05 0.0001598216 -0.7768029844 0.3403317286
215298710.0 -0.1129936782 0.0680242589 0.0002287061 0.0001621696 -7.50213e-05 0.000134641 -0.7728727428 0.3483420982
220298680.0 -0.1126060189 0.0683616634 0.000212538 5.68982e-05 -8.58061e-05 0.0001865439 -0.7697190467 0.3574498029
225298650.0 -0.11175221 0.0692832332 -9.1811e-06 9.79609e-05 0.000246519 0.0002276561 -0.7663082879 0.364811988
230298620.0 -0.1116101051 0.0701639335 -2.02457e-05 -8.05186e-05 0.0001443609 -0.0001565953 -0.7616689325 0.3731160743
235298590.0 -0.1111314421 0.0707779127 0.0001658299 0.0001578719 0.0001227397 0.000262656 -0.7582447015 0.3807534176
240298560.0 -0.1108808102 0.0715761875 0.0001983215 0.0001938514 2.9709e-05 9.56625e-05 -0.7542245111 0.3885548322
245298530.0 -0.1102029152 0.0722600993 1.01298e-05 0.0002148902 -0.0001063239 3.06772e-05 -0.75029517 0.396363163
250298500.0 -0.1098495538 0.0730073399 0.0001764837 1.6579e-06 3.65702e-05 0.0003000577 -0.7460356088 0.4046743285
255298470.0 -0.1090943337 0.0739812345 9.983e-05 0.0001520692 -0.0001112942 0.0001346471 -0.7414589543 0.4124830979
260298440.0 -0.1084740783 0.0749106281 1.1566e-06 0.0002579421 6.79726e-05 0.0002044543 -0.736973769 0.4198334501
265298410.0 -0.1083741726 0.0759404428 0.0001812731 6.15151e-05 0.0001793964 0.0001034157 -0.7325919909 0.4274950383
270298380.0 -0.1077087118 0.0767157789 -0.0001291244 9.19807e-05 0.000114186 -6.52273e-05 -0.7279615557 0.4352841109
275298350.0 -0.1071324606 0.077501273 -4.71179e-05 0.00013985 0.0002198724 6.27307e-05 -0.7227953109 0.4433175258
280298320.0 -0.1066169216 0.0786231101 -2.83498e-05 4.65066e-05 0.0001896556 -6.4604e-05 -0.7187460312 0.4504463882
285298290.0 -0.1059550114 0.079694931 7.67807e-05 -2.16161e-05 7.78172e-05 0.0001761653 -0.7136609382 0.4578115396
290298260.0 -0.1053693434 0.0803081888 -0.0001664969 2.46899e-05 0.0001853104 -8.8705e-05 -0.708827893 0.4656623716
295298230.0 -0.1048475733 0.0812439364 -4.72708e-05 0.0001469256 9.06949e-05 8.31335e-05 -0.7037167642 0.4727121009
300298200.0 -0.1039819022 0.081808119 0.0001268144 0.0001642467 7.27021e-05 0.0001515446 -0.6988526659 0.4798637792
305298170.0 -0.1030692201 0.0829866069 0.0001694881 0.0002638081 -8.8087e-05 0.0002064124 -0.6932795269 0.4876379633
310298140.0 -0.1029129477 0.0832839327 0.000134895 0.0004007304 5.22867e-05 0.0001337143 -0.6887123114 0.495175198
315298110.0 -0.1028551004 0.0844433574 -7.1909e-06 0.0002204436 0.000292325 -1.68469e-05 -0.6834968616 0.5022048905
320298080.0 -0.1017926467 0.0852839312 0.0002333313 0.0002056857 0.0002130277 6.93266e-05 -0.677923615 0.5097057166
325298050.0 -0.1014535258 0.0862802594 -1.21885e-05 0.0001945986 0.0002896087 7.64833e-05 -0.6727567245 0.5162025895
330298020.0 -0.1009361598 0.0872222151 0.0002160238 9.02104e-05 0.0001038448 0.0001041283 -0.6669404843 0.5230581689
335297990.0 -0.1002815353 0.0883422438 0.0001290386 0.000228505 0.000249652 -2.23661e-05 -0.661226912 0.5302176972
340297960.0 -0.1001945222 0.089247562 0.0002420565 -1.94476e-05 0.0002407401 0.0002894675 -0.6553832446 0.5370877551
345297930.0 -0.0996198518 0.0901951282 1.83483e-05 0.0001745548 8.91971e-05 -9.47475e-05 -0.6497089917 0.5441309365
350297900.0 -0.0985239125 0.0911518269 0.0001100578 0.0001321491 0.0002056826 -2.99694e-05 -0.6444941578 0.5509945642
355297870.0 -0.0982778512 0.0922378985 -6.66308e-05 0.0001776335 0.0002178782 0.0001346743 -0.6381905924 0.5579342983
360297840.0 -0.0974500527 0.0933501253 5.59398e-05 0.0001276059 2.47143e-05 -0.0001029407 -0.6325992698 0.5637041708
365297810.0 -0.0965504518 0.0941272276 -2.95121e-05 -6.39995e-05 0.0001600642 0.0002217748 -0.6262651339 0.570365829
370297780.0 -0.0959565632 0.0952509996 4.32638e-05 -2.58164e-05 0.0001286954 -6.13984e-05 -0.621138444 0.5767071237
375297750.0 -0.0951448982 0.0964140053 0.0001736002 -3.82316e-05 0.0001454376 0.0003517695 -0.614606618 0.5832493307
380297720.0 -0.0942505865 0.0972774667 0.0001643351 -2.65702e-05 0.0001084029 -1.96565e-05 -0.6079475242 0.5907618547
385297690.0 -0.0936625315 0.0981356893 3.20082e-05 0.0001098079 -4.77155e-05 6.44764e-05 -0.602099354 0.5960791202
390297660.0 -0.0928355306 0.0995450779 -4.9196e-05 0.000121992 0.000115369 -4.90925e-05 -0.5953202508 0.6017087129
395297630.0 -0.0920374019 0.1002963754 8.11459e-05 7.61941e-05 0.0002712744 -0.000111115 -0.5893992893 0.6082301265
400297600.0 -0.091099912 0.1013007927 0.0003007913 -8.7279e-05 0.0001755232 3.05036e-05 -0.5835888617 0.6139998606
405297570.0 -0.0903956542 0.1024715459 0.0003798252 2.56954e-05 0.0001544334 0.0002029445 -0.5774568484 0.6201862297
410297540.0 -0.0896400222 0.1031344398 5.09298e-05 0.0002100001 1.508e-07 0.0001237473 -0.5698337114 0.6256462366
415297510.0 -0.0887414471 0.104230284 7.03338e-05 1.2882e-05 7.17474e-05 0.000115138 -0.5641508026 0.6320963119
420297480.0 -0.0876741104 0.1052893647 -7.1543e-06 3.8068e-05 6.78272e-05 4.20251e-05 -0.5571448436 0.6364641676
425297450.0 -0.0870784563 0.106096486 0.0002680337 0.0001126236 0.0001037811 -5.70166e-05 -0.5499708853 0.6430602887
430297420.0 -0.0861989843 0.1070276201 9.1123e-05 8.53361e-05 -5.17385e-05 -1.31356e-05 -0.5440420781 0.6484985625
435297390.0 -0.085197909 0.1080607769 0.0001484908 0.0001270506 0.000203405 3.66406e-05 -0.5372779332 0.6536510273
440297360.0 -0.0842050832 0.1089225516 0.0001340759 -0.0001227334 0.0001860681 5.871e-05 -0.530187799 0.6590292817
445297330.0 -0.0831914555 0.110019579 0.0002117038 -1.73321e-05 0.0003167863 -1.36207e-05 -0.5236544502 0.6642639371
450297300.0 -0.0824453108 0.11088547 0.0001603913 7.87892e-05 0.0002159108 2.42237e-05 -0.5174561362 0.6698772234
455297270.0 -0.0814958098 0.111850465 0.0002958266 0.0003602943 0.000278327 -6.25839e-05 -0.5099231433 0.6753045953
460297240.0 -0.0806143901 0.1129121473 0.0001298393 0.0001290393 0.0003127736 4.5662e-05 -0.5026115682 0.6802947534
465297210.0 -0.07932163 0.1137060181 -3.23218e-05 6.0179e-06 0.0003082031 2.37794e-05 -0.4962696706 0.6849331625
470297180.0 -0.0786200653 0.1147013122 0.0002509688 1.75129e-05 0.0002330452 6.00549e-05 -0.4894054493 0.6894393093
475297150.0 -0.0776845014 0.115878849 0.0001073678 0.0002722382 0.0001776963 -3.65887e-05 -0.4820760853 0.6947285692
480297120.0 -0.0767613776 0.1164767946 0.000126045 -0.0001998747 0.0003211549 0.000269636 -0.475501618 0.7002177273
485297090.0 -0.0755002184 0.1174172553 -3.68887e-05 0.0002100209 0.0003260853 0.0001327759 -0.468123468 0.7039240314
490297060.0 -0.0745701065 0.1180674523 0.0001695081 0.0001175113 0.0003331969 -3.04206e-05 -0.461082423 0.7082218954
495297030.0 -0.0733961756 0.1191226398 0.0001111773 -1.63306e-05 0.0001274342 -3.0736e-06 -0.4534734386 0.7130569725
500297000.0 -0.0723388138 0.1198905525 0.0001390102 -0.0001625202 8.41334e-05 9.07916e-05 -0.4469282429 0.7176813533
505296970.0 -0.0714236332 0.1207643785 0.0002888555 3.93733e-05 0.0002417238 7.40377e-05 -0.4400958401 0.7222105302
510296940.0 -0.0701895471 0.1216215552 0.0003885112 -0.0001830775 7.06561e-05 3.3382e-06 -0.4320561935 0.7262243897
515296910.0 -0.0695074036 0.1224675399 0.0001158703 0.0001438844 0.0001402797 -0.0001401465 -0.4249976374 0.7307885155
520296880.0 -0.0681690714 0.1233707391 0.0001058922 0.0002744394 0.0003864062 -4.82764e-05 -0.4176893779 0.7347835826
525296850.0 -0.0669608322 0.1241029272 -9.49519e-05 -1.70463e-05 9.2768e-05 -2.68546e-05 -0.4103357597 0.739573752
530296820.0 -0.0659027302 0.124919168 0.000310505 5.74218e-05 0.0002086965 6.5747e-06 -0.4034920514 0.7427147974
535296790.0 -0.0647145621 0.1256828442 1.81879e-05 0.0002386624 0.0001587394 0.0001762815 -0.3954801287 0.7464861774
540296760.0 -0.0638352985 0.1263913144 0.0001095951 -0.0001031871 0.0001208327 0.0002406747 -0.3883063533 0.7506426389
545296730.0 -0.0625852359 0.127546258 0.0002279529 -7.08903e-05 0.0001933542 8.32476e-05 -0.3809332699 0.754043766
550296700.0 -0.0614377879 0.1284926113 -7.70791e-05 -0.0001147902 3.68277e-05 -9.54596e-05 -0.3731182712 0.7582426547
555296670.0 -0.0600782181 0.1290283451 0.0003823011 -9.05083e-05 5.84922e-05 4.63092e-05 -0.3658074304 0.761454998
560296640.0 -0.0587919155 0.1295614385 0.0002389418 1.90493e-05 0.0003228322 0.000170682 -0.357495258 0.7658889022
565296610.0 -0.0579743776 0.1304830856 0.0003775386 -3.55222e-05 0.0001696213 -6.83316e-05 -0.3504973737 0.7687151383
570296580.0 -0.0566945925 0.1311974722 0.0001058832 7.43122e-05 0.0003117318 -8.83852e-05 -0.3431604698 0.7727153857
575296550.0 -0.0555408727 0.1319761719 0.0001735716 -7.93083e-05 0.0003353242 0.0002285676 -0.3350394662 0.7754907229
580296520.0 -0.0544231637 0.1324510262 0.0001388122 0.0001488311 5.21e-08 0.0002781605 -0.327389643 0.7793487677
585296490.0 -0.0531755213 0.1332515142 0.0002028433 0.0002037903 0.0001476806 0.0001038331 -0.3192905743 0.7815924673
590296460.0 -0.0522109842 0.1339659499 0.0001442528 -6.24846e-05 0.0003764776 6.155e-07 -0.3116429608 0.785070331
595296430.0 -0.0507615132 0.1348984446 0.0002075327 9.82374e-05 0.0002121654 2.97316e-05 -0.3039462821 0.7878939197
600296400.0 -0.0494701758 0.1353967373 0.0001497769 1.021e-06 0.0002702827 0.0002646365 -0.2964952813 0.7914352395
605296370.0 -0.0480785921 0.1360146202 0.000250321 -2.40191e-05 0.0002113022 7.46891e-05 -0.2885354084 0.7944897055
610296340.0 -0.0468466205 0.1366908552 0.000159396 4.87572e-05 0.0001268388 5.90082e-05 -0.2803667309 0.7964637945
615296310.0 -0.0456845026 0.1373247736 0.0001759554 9.14848e-05 0.0001421209 6.3872e-06 -0.2723326456 0.7995721719
620296280.0 -0.0442916487 0.1380454146 0.0003411239 5.3666e-06 0.0003501268 7.45642e-05 -0.2654344807 0.8023608577
625296250.0 -0.0431510532 0.1387629091 0.0002259275 -9.99769e-05 0.0002309071 3.65434e-05 -0.2570029554 0.8048189219
630296220.0 -0.0417140278 0.1393929816 0.0002048544 0.00018276 1.06472e-05 -3.40744e-05 -0.2489123687 0.807335194
635296190.0 -0.0405742421 0.1399675504 0.0002358454 3.81027e-05 0.0001851364 9.47164e-05 -0.2408666572 0.8096913182
640296160.0 -0.0393347746 0.1401936084 0.0002835028 0.0001215053 0.000226682 8.43153e-05 -0.2321716565 0.8113927233
645296130.0 -0.0380319082 0.1410391762 0.0002246902 0.0001256619 0.0002702992 6.23566e-05 -0.2249911744 0.8141171759
650296100.0 -0.0365409443 0.1417725591 0.0004094976 0.0001016564 0.0002664733 4.41981e-05 -0.2168378165 0.8167112687
655296070.0 -0.0351166709 0.1419392615 0.0001591046 7.56464e-05 0.0003947284 2.52303e-05 -0.2086160424 0.8181357951
660296040.0 -0.0339495237 0.1428875863 0.0001614971 0.0001283721 0.0003047495 7.02371e-05 -0.2009506398 0.8205415799
665296010.0 -0.0326340184 0.1430453344 0.0002133392 -6.56274e-05 0.0001607483 2.6521e-05 -0.1928526527 0.8221288265
670295980.0 -0.0311902246 0.1436023788 0.0001400551 0.0001165658 0.0001595057 -1.90415e-05 -0.1855500511 0.8241146784
675295950.0 -0.029922618 0.1441712905 0.0002246687 -2.81901e-05 0.0002387257 -6.28464e-05 -0.1761260495 0.8259659864
680295920.0 -0.0285220064 0.1447618752 0.0002823213 0.0001246937 9.96067e-05 -6.98853e-05 -0.1677496203 0.8280684846
685295890.0 -0.0269675128 0.1453471894 0.0001806318 -5.97286e-05 0.0002241672 -4.86402e-05 -0.1600965377 0.8295298614
690295860.0 -0.0254201783 0.1458226501 0.0002848983 6.26803e-05 0.000178412 -0.0001056999 -0.1516970505 0.830348468
695295830.0 -0.0242328365 0.1460454712 0.0002677469 -4.23096e-05 0.0003772354 -3.553e-05 -0.14352175 0.832384868
700295800.0 -0.0229816242 0.1463644438 0.0003529618 -4.36749e-05 0.0002741708 0.0001296334 -0.1347931529 0.8329708385
705295770.0 -0.0214745729 0.1467797283 0.0002397176 0.0001338425 0.0001771715 -9.12304e-05 -0.1273822916 0.8349972614
710295740.0 -0.0202219279 0.1473438413 0.0001762894 1.58869e-05 0.0002141086 2.38371e-05 -0.1193123048 0.836678955
715295710.0 -0.0191512453 0.1478418928 0.0003817723 -7.74503e-05 0.0002158118 -7.414e-05 -0.1110496005 0.8375942071
720295680.0 -0.0174672615 0.1479955097 1.61138e-05 -0.0001111654 0.0002485818 8.72918e-05 -0.1025818543 0.8385789996
725295650.0 -0.0159887154 0.1485452317 0.0004076644 7.82358e-05 0.0001204276 0.0001710166 -0.0938556347 0.8392967078
730295620.0 -0.0147344108 0.1487228689 0.0001668811 3.57803e-05 0.0002491568 -1.21226e-05 -0.0856395544 0.8404150067
735295590.0 -0.012948588 0.1492783077 0.0002564402 7.38515e-05 0.0001954476 -0.0001801 -0.0768044656 0.8409058084
740295560.0 -0.0116906214 0.1496514014 0.0003034806 -2.66843e-05 0.0001049203 0.0001233774 -0.0692650937 0.8414007296
745295530.0 -0.0104732953 0.1499494218 0.0002173416 -1.8604e-06 0.0002606638 -0.000113619 -0.060569177 0.842599067
750295500.0 -0.0086664545 0.1501641154 0.0001812513 4.66879e-05 0.0002515591 -9.5701e-06 -0.0523547927 0.8427589949
755295470.0 -0.007095358 0.1503874243 0.0003951737 -2.78972e-05 0.0003703328 -0.0001773262 -0.0445741184 0.8435403524
760295440.0 -0.0058543935 0.1506512193 0.000341063 -6.40334e-05 0.0002966697 0.0001819803 -0.0366400847 0.8439399959
765295410.0 -0.0046213408 0.1505514104 0.0004128683 -0.0001729027 0.0001680718 -0.0001032607 -0.0273338465 0.844162838
770295380.0 -0.0029741978 0.1514351977 0.0004995027 -5.9741e-06 0.0003416176 1.12602e-05 -0.0188870573 0.844306309
775295350.0 -0.0016775769 0.1517352736 -5.3816e-06 4.8579e-06 0.0003592524 -3.7546e-05 -0.0111276389 0.8440355642
780295320.0 -0.0003211542 0.151369561 0.0002833773 0.0001456757 0.0001997373 0.000121827 -0.0030278409 0.8443680989
785295290.0 0.0013464697 0.1520193449 0.0004400053 -0.0001372113 0.0003788596 -9.34301e-05 0.0046076547 0.8447519358
790295260.0 0.0027913173 0.1522264949 7.84351e-05 -4.05595e-05 3.03508e-05 -0.0001774759 0.0141631714 0.8443921852
795295230.0 0.0042016247 0.152447379 0.0003008827 -5.13082e-05 0.0002950394 -0.0001264496 0.02254467 0.8446509106
800295200.0 0.0059366185 0.1525394221 0.0001957506 3.24355e-05 0.0001716224 -0.000158723 0.0301462699 0.8439905808
805295170.0 0.0072120206 0.1526221194 0.0003382969 -5.37854e-05 0.0003875034 -0.0001702855 0.0384043998 0.843120162
810295140.0 0.008656653 0.1529182873 0.0003742525 -1.60385e-05 0.0002551877 0.0001484829 0.0467850578 0.8441505218
815295110.0 0.0102763147 0.1530089127 0.0002029186 -2.74891e-05 0.0003150811 -5.69551e-05 0.0552182466 0.8430539227
820295080.0 0.0116105124 0.1529771852 0.0004590301 -0.0001453587 0.0003929953 -0.0002017789 0.06324416 0.8422018397
825295050.0 0.0135602781 0.1531335196 0.0003431404 -0.0002316796 0.0001092208 -0.0001624467 0.0720718046 0.8419636939
830295020.0 0.0146814966 0.153418767 0.0004106528 -0.0001092258 0.0002396132 -0.0001946081 0.0796719377 0.8405021273
835294990.0 0.015993335 0.153492132 0.0003288218 -0.0002540926 0.0003792668 -6.26671e-05 0.088442121 0.8397382531
840294960.0 0.0176680931 0.1533882213 0.0002382377 0.0001849414 0.0003385946 -4.3649e-05 0.0961339084 0.8392078382
845294930.0 0.0191161519 0.1536588748 0.0002463944 -0.000173557 0.0002408235 9.496e-06 0.1046867724 0.8380222196
850294900.0 0.020794958 0.1534546506 0.0002991963 -0.0003269652 0.0004154395 -3.6908e-05 0.1125517741 0.8371965735
