!Created with skrf (http://scikit-rf.org).
# Hz S RI R 50.0 
!freq ReS11 ImS11 ReS21 ImS21 ReS12 ImS12 ReS22 ImS22
300000.0 -0.1014977913 -0.063309634 0.631465749 0.0587276346 0.6254577258 0.0590902914 -0.1028799721 -0.0700660727
5299970.0 -0.1022500486 0.0132619075 0.6305571279 0.0100784638 0.6309140069 0.0102715965 -0.1010997304 0.0132095712
10299940.0 -0.0974223042 0.0295556189 0.6336898747 0.0152819174 0.6342405288 0.0154796504 -0.0959123747 0.0302291396
15299910.0 -0.0903344776 0.0427612703 0.640536579 0.0202040632 0.6407778591 0.0208197073 -0.0888453811 0.0437748462
20299880.0 -0.0818114187 0.0533154075 0.6485800319 0.0241111128 0.6487916997 0.0241158689 -0.0801306603 0.0544345173
25299850.0 -0.0724447173 0.0622290038 0.6580720346 0.0254934206 0.6577032467 0.0259241253 -0.0701061366 0.0629007732
30299820.0 -0.06231272 0.0687205643 0.6676204756 0.024261504 0.6671673627 0.0248859835 -0.0602364775 0.0696620355
35299790.0 -0.0525354949 0.0737903035 0.6774746474 0.0215369601 0.6772330473 0.0218438953 -0.0499282963 0.074725731
40299760.0 -0.0433569472 0.0772088379 0.6864287179 0.0174477122 0.6864740891 0.017566835 -0.0403846745 0.0773502764
45299730.0 -0.0339038201 0.0793777155 0.6948912311 0.0119884742 0.6957390051 0.0124437317 -0.0312516424 0.0795107863
50299700.0 -0.0257313736 0.0803659796 0.7039762088 0.0050666076 0.7037037459 0.0057163944 -0.0226572236 0.0802663674
55299670.0 -0.0176088762 0.0805257005 0.7108635156 -0.0032498596 0.7108091098 -0.0024818094 -0.0146605374 0.0802347138
60299640.0 -0.0100190344 0.0801824568 0.7170689499 -0.0113792733 0.7176496345 -0.0106627589 -0.0077587786 0.0794101856
65299610.0 -0.0038224877 0.0789387838 0.7230756469 -0.0200171039 0.7235816326 -0.0194979439 -0.0009585034 0.0784159247
70299580.0 0.0025650441 0.0776707481 0.7281902046 -0.0290859412 0.7289316437 -0.0288380507 0.0050530578 0.0767658755
75299550.0 0.0083343942 0.0758237502 0.7326182138 -0.0385540855 0.732642329 -0.0387467991 0.0103464953 0.0747687401
80299520.0 0.0131685863 0.0735274053 0.7368309098 -0.0490937652 0.7374993372 -0.0484879577 0.015407882 0.0727678056
85299490.0 0.0178930284 0.0713933248 0.7403307521 -0.0580824088 0.7406099757 -0.0581693718 0.0198310503 0.0698666404
90299460.0 0.0217481702 0.0690902199 0.7426176065 -0.0690032758 0.7436056062 -0.0687873942 0.0241272763 0.0681583952
95299430.0 0.026107466 0.066397795 0.7455017402 -0.078882979 0.7456412605 -0.0790061755 0.0275606944 0.0656976774
100299400.0 0.0289318991 0.0646311891 0.7467637665 -0.0885078771 0.7473635593 -0.0887746758 0.0314755957 0.0627870747
105299370.0 0.0324764312 0.0619331654 0.7486546244 -0.0991068764 0.7492338883 -0.09873848 0.0340519076 0.0609579911
110299340.0 0.0351350121 0.0597346848 0.7503635158 -0.1088248041 0.74999946 -0.1089274605 0.0362969353 0.0581672551
115299310.0 0.0375906031 0.0572576442 0.7505777973 -0.1195128979 0.7512633142 -0.1191131401 0.0393181723 0.0558753922
120299280.0 0.039844638 0.0545476662 0.7511734387 -0.1289803122 0.7515382898 -0.129131688 0.041361347 0.0532742748
125299250.0 0.0418882201 0.0520360129 0.7517062754 -0.1386277841 0.7521030462 -0.1385047262 0.0430767036 0.0506673103
130299220.0 0.0433636698 0.0502828793 0.7512736812 -0.1487543111 0.7514068221 -0.1491248399 0.044781909 0.0484972475
135299190.0 0.0451546166 0.0481745091 0.7512374518 -0.158612053 0.7509386275 -0.1587162468 0.0465223771 0.0463488263
140299160.0 0.0463596148 0.0463601797 0.750861812 -0.1686863379 0.7512113999 -0.1686521548 0.0479461172 0.0449607474
145299130.0 0.0480379581 0.0437724325 0.750382587 -0.1785864221 0.7498992029 -0.178224476 0.0491974886 0.0424974516
150299100.0 0.0497130717 0.042205563 0.7486899218 -0.1869395378 0.7492917086 -0.18715807 0.0505055804 0.0406191269
155299070.0 0.0501317379 0.0399232664 0.7481347136 -0.1981480968 0.7476032724 -0.1974356535 0.0515148079 0.0387647842
160299040.0 0.0515283442 0.0382763628 0.7462794695 -0.2068222945 0.7461232801 -0.2074039109 0.0517290005 0.0363349634
165299010.0 0.0525200811 0.0363283201 0.7449396313 -0.2169303754 0.7452613854 -0.2164255244 0.0532746081 0.0350803312
170298980.0 0.0533014791 0.0342187718 0.7427639446 -0.22608357 0.7432400383 -0.2261379684 0.0539940764 0.0330602188
175298950.0 0.0535476478 0.0324780214 0.7416086846 -0.2349952702 0.7407740772 -0.235060842 0.0545089951 0.0314961846
180298920.0 0.0541642586 0.0306969249 0.7385220163 -0.2445536673 0.7392150933 -0.2442919881 0.0551593012 0.0298515383
185298890.0 0.0553350471 0.0290163994 0.7368086544 -0.2537071463 0.7364857855 -0.2534610824 0.0555377107 0.0280788009
190298860.0 0.0554820063 0.027580556 0.7345985255 -0.2632419964 0.7349645324 -0.2623373526 0.0558731009 0.0264458263
195298830.0 0.0562182748 0.0254931815 0.7319799449 -0.2717613694 0.7323053677 -0.2713889765 0.0569253079 0.0250658452
200298800.0 0.0563853306 0.0242668092 0.7292856699 -0.2809106263 0.7293502584 -0.2810041119 0.0568048304 0.0233321654
205298770.0 0.0571187592 0.0231845353 0.725783635 -0.2902177928 0.7266819208 -0.2891924927 0.0569917527 0.0214856388
210298740.0 0.0571793116 0.0212983045 0.7235739349 -0.2978272302 0.7236204402 -0.2981493536 0.0579553656 0.0209782977
215298710.0 0.056942724 0.0197279817 0.7207065026 -0.306912658 0.7206181153 -0.3073860535 0.0574983046 0.0197895
220298680.0 0.0578332952 0.018095007 0.7166140659 -0.3155334693 0.7172977291 -0.3154378329 0.0575771803 0.0178315024
225298650.0 0.0579162627 0.0167893208 0.7137975346 -0.3247573057 0.7141729723 -0.3244140377 0.0575684599 0.0161008876
230298620.0 0.0579880462 0.0161735361 0.7108023944 -0.3326490067 0.7112458833 -0.3322466688 0.0578390477 0.014786797
235298590.0 0.0579793387 0.0145384801 0.7071025265 -0.3411770362 0.7071124435 -0.3407307024 0.0580557354 0.0134790754
240298560.0 0.0582256511 0.0134463956 0.7036568442 -0.3497140367 0.7032957458 -0.3496137226 0.0580305719 0.0129831633
245298530.0 0.0579274881 0.0118804776 0.6998492727 -0.3575843539 0.7000393834 -0.3578098094 0.0585720032 0.0108762094
250298500.0 0.0587109332 0.0111496062 0.6958021959 -0.3663887123 0.6953489512 -0.3656379652 0.0583425522 0.0103164329
255298470.0 0.0582738283 0.0095816804 0.6911063822 -0.3740730836 0.6918263994 -0.3740921924 0.0587649691 0.0090981822
260298440.0 0.058138615 0.0083647351 0.6875534765 -0.3824533298 0.6881731587 -0.3820154701 0.0588537045 0.007987275
265298410.0 0.0588685488 0.0076333872 0.6838721724 -0.3904359928 0.6842458764 -0.3902084912 0.0585336107 0.007052529
270298380.0 0.0587220554 0.0062986422 0.680398975 -0.3982202613 0.6799050783 -0.3981714933 0.0583341522 0.0058504094
275298350.0 0.0591058097 0.005430506 0.675404331 -0.4064007476 0.6755956671 -0.4065111952 0.0587955696 0.0045656117
280298320.0 0.0587365433 0.0043347845 0.6714136639 -0.4145416678 0.6714985505 -0.4138625378 0.0588570774 0.0037373345
285298290.0 0.0585873074 0.0031427931 0.6668799524 -0.4219764179 0.6667915467 -0.4225812719 0.0585688721 0.002491035
290298260.0 0.0588802012 0.0020503699 0.6622637595 -0.4291743306 0.6620315808 -0.4295682315 0.0589290737 0.0020919282
295298230.0 0.0588660068 0.0007785088 0.6572168011 -0.4375751836 0.6579435102 -0.4376737481 0.0593681445 0.0004798449
300298200.0 0.0583116408 0.0001005328 0.6537349239 -0.4450262221 0.6534681652 -0.4454006614 0.0587217973 -0.0004834165
305298170.0 0.0587711262 -0.0013643589 0.648069827 -0.4536022218 0.6481859354 -0.4527112801 0.0594801788 -0.0017479543
310298140.0 0.0583711922 -0.0022736336 0.6437882888 -0.4609363127 0.6435985312 -0.4602470818 0.0591100777 -0.0024623883
315298110.0 0.0583659011 -0.0039020604 0.6383290045 -0.4683582818 0.6388254999 -0.4681176472 0.0587431156 -0.0037525495
320298080.0 0.0584478253 -0.0047410095 0.6323112814 -0.4758317043 0.6332250343 -0.4755193047 0.0588606013 -0.0049911404
325298050.0 0.0577870241 -0.0060414126 0.627406579 -0.4833127041 0.6276162385 -0.4829185256 0.0575950566 -0.0060701017
330298020.0 0.0574325533 -0.0071938946 0.6215053047 -0.4904406394 0.6220015839 -0.4902045858 0.057013439 -0.0071027532
335297990.0 0.0568852803 -0.0083735007 0.6160776026 -0.4973750481 0.6161372237 -0.4975029298 0.0561703114 -0.007340757
340297960.0 0.0561108875 -0.0087521648 0.6099714256 -0.5047946378 0.609612246 -0.5046118428 0.0567776083 -0.0083166932
345297930.0 0.0558480262 -0.0089068067 0.6047960167 -0.511937299 0.6044162701 -0.5118494356 0.0560357482 -0.0098706533
350297900.0 0.0552300429 -0.0107162529 0.5978927445 -0.5188208181 0.597807799 -0.5181784671 0.0551953186 -0.0097924878
355297870.0 0.0548474388 -0.0103490716 0.5927321544 -0.5246789744 0.5932136219 -0.5246572868 0.0552297697 -0.0108824943
360297840.0 0.0548981711 -0.0111275117 0.587419161 -0.5310613264 0.5879665098 -0.531608282 0.0550216229 -0.0111573953
365297810.0 0.0540231872 -0.0119315549 0.5809598289 -0.5381648397 0.5816830942 -0.5380658952 0.0544317283 -0.0120022103
370297780.0 0.0543232882 -0.0128890196 0.5746073073 -0.5449406407 0.5753020817 -0.5437592663 0.0542277836 -0.0125900325
375297750.0 0.0541238018 -0.0135948457 0.5691713688 -0.5513708624 0.5701299356 -0.5508669809 0.0542960786 -0.0126262253
380297720.0 0.0538058973 -0.0141266019 0.5628397626 -0.5574239532 0.5632906057 -0.5567431904 0.0532198109 -0.0141133427
385297690.0 0.052687355 -0.01520546 0.5564159672 -0.5631440549 0.5570073872 -0.5631029904 0.0535474993 -0.0142555395
390297660.0 0.053012274 -0.0153385696 0.5510495897 -0.5696573479 0.5502054458 -0.56915869 0.0528323331 -0.0155271004
395297630.0 0.0524769941 -0.0162784559 0.5442751095 -0.5762313245 0.5447873711 -0.5762207308 0.0536613733 -0.0160415425
400297600.0 0.0520982602 -0.0166987368 0.5372397173 -0.5825499967 0.5384688146 -0.5819604635 0.0524635741 -0.0165859352
405297570.0 0.0513679294 -0.0176111176 0.5313196429 -0.5878331085 0.5319350593 -0.5874564558 0.0518319297 -0.0170743456
410297540.0 0.0515802918 -0.0181569277 0.5249937969 -0.5941775673 0.5259084067 -0.5939346705 0.0516143402 -0.0174545717
415297510.0 0.0512768869 -0.0186034236 0.5180015911 -0.6002999562 0.5190570018 -0.599733875 0.0513878815 -0.0183196186
420297480.0 0.0511216517 -0.0190251293 0.5118982786 -0.6053705136 0.5119316239 -0.6057890613 0.0510228966 -0.0191804937
425297450.0 0.0505169035 -0.0205756407 0.5053111697 -0.6118010668 0.5057208449 -0.6112106662 0.0498090238 -0.0190113838
430297420.0 0.0499852777 -0.020966114 0.4984160522 -0.6160479553 0.4981574239 -0.6158796401 0.0502733747 -0.0201230857
435297390.0 0.0493051158 -0.0212897466 0.491228916 -0.6222200759 0.4913635839 -0.6222311173 0.0506535366 -0.0205365133
440297360.0 0.0494797097 -0.0216061141 0.4845989379 -0.6269252689 0.4849322458 -0.6275468242 0.0491918744 -0.0212656122
445297330.0 0.0488322457 -0.0227574876 0.4782795983 -0.6330058011 0.4780759878 -0.6328233358 0.0494408788 -0.0220710316
450297300.0 0.0487182166 -0.0229480264 0.4709312416 -0.6383721528 0.4712048123 -0.6387568277 0.0488167702 -0.0228931167
455297270.0 0.0482501334 -0.0234680922 0.4635171483 -0.6434921013 0.4643630128 -0.643135226 0.04856655 -0.0227644095
460297240.0 0.0475207708 -0.0242910288 0.4568230921 -0.6486680365 0.456775855 -0.6490554641 0.0477289208 -0.0232066649
465297210.0 0.0476983999 -0.0247068523 0.4496940791 -0.6534884118 0.4497541171 -0.654312909 0.0475079609 -0.0244380977
470297180.0 0.0469868313 -0.0256018857 0.4421244416 -0.6587930657 0.4421209085 -0.6587176993 0.0470633559 -0.0242056591
475297150.0 0.0468467694 -0.0260749264 0.4346851584 -0.662855915 0.4354538043 -0.6630220391 0.0473259412 -0.0251887839
480297120.0 0.0462483405 -0.02600786 0.4278489084 -0.6683214468 0.4278819167 -0.6683610873 0.0470684202 -0.025485815
485297090.0 0.045555845 -0.026429922 0.4203942929 -0.6722855735 0.4206336692 -0.6728610478 0.0461193126 -0.0261755509
490297060.0 0.044703234 -0.0273672144 0.4131166742 -0.6779491326 0.4133862031 -0.6772406868 0.045764022 -0.0265120383
495297030.0 0.0450889057 -0.0275781608 0.405402893 -0.6818017644 0.4060946397 -0.68163611 0.04502267 -0.0272451641
500297000.0 0.0441957194 -0.0285481109 0.3978666133 -0.6864243184 0.3979090115 -0.6856534184 0.0449656841 -0.0273185512
505296970.0 0.0437727894 -0.0289689651 0.3905697663 -0.6906963072 0.3902879372 -0.6905305315 0.0441267798 -0.0280345645
510296940.0 0.0434782962 -0.0291245339 0.3829069984 -0.6952065164 0.3830328152 -0.6952700689 0.0439869768 -0.0280487975
515296910.0 0.0427690368 -0.0294370714 0.3749221751 -0.6987418425 0.3754681802 -0.6989108728 0.0438228113 -0.0287684086
520296880.0 0.0424274963 -0.0302287626 0.3674872339 -0.7034359054 0.367843319 -0.7032182846 0.043087318 -0.0296247342
525296850.0 0.0423027092 -0.0312307042 0.3594745664 -0.7071629551 0.3601210245 -0.7070131348 0.0424354434 -0.0299530002
530296820.0 0.0417771767 -0.03133836 0.3519517574 -0.7113915682 0.3520701994 -0.7110741793 0.0421456898 -0.0301877258
535296790.0 0.0407631742 -0.031702625 0.3448780508 -0.7151880528 0.3445976723 -0.7149387004 0.0417990486 -0.0312856761
540296760.0 0.0402296579 -0.0317915665 0.3364039329 -0.7197217693 0.3367595811 -0.7186289011 0.0406989977 -0.0308452878
545296730.0 0.0396081216 -0.0324883098 0.3280470177 -0.7222250237 0.328460913 -0.7222546766 0.0405192025 -0.0315680655
550296700.0 0.0398779645 -0.032727753 0.3204257565 -0.7257310852 0.3206988355 -0.7262245737 0.0396629035 -0.0319943873
555296670.0 0.0386049402 -0.0330930839 0.3131599458 -0.7294631082 0.3131015261 -0.7293660306 0.0394870678 -0.0323646644
560296640.0 0.0387160964 -0.0332173152 0.3045513106 -0.7332698803 0.3049265613 -0.7329820493 0.0390568544 -0.0329832869
565296610.0 0.0375986445 -0.0338400477 0.2964624755 -0.7363254489 0.2971857069 -0.7362659181 0.0382090356 -0.0336109481
570296580.0 0.037394755 -0.0341240243 0.2888622726 -0.739934527 0.2882101499 -0.739309396 0.0379102113 -0.0331064033
575296550.0 0.0364281196 -0.0344409636 0.2802877643 -0.7432542504 0.2804107906 -0.7432389992 0.037912181 -0.033856054
580296520.0 0.0363344869 -0.0347466312 0.2719826189 -0.7460727206 0.2725907903 -0.7457241799 0.0371353766 -0.0343166359
585296490.0 0.0355253222 -0.0357362347 0.2650091821 -0.7481819197 0.264555904 -0.7484214555 0.03654652 -0.0344071606
590296460.0 0.0353295996 -0.0353299205 0.2558170871 -0.7505910864 0.2558118994 -0.7511257597 0.0350849251 -0.0345964166
595296430.0 0.0348109773 -0.0355695708 0.2472002022 -0.7544965049 0.2476734815 -0.754351806 0.0355661102 -0.0355346871
600296400.0 0.0338971087 -0.0364291483 0.2392863159 -0.7566366077 0.2395232345 -0.7561021909 0.0345453061 -0.0353920937
605296370.0 0.0335173218 -0.0364221027 0.2305384524 -0.7589589502 0.2313278754 -0.7597278503 0.0340687204 -0.0358183201
610296340.0 0.0331098873 -0.036719862 0.2229383495 -0.7614961661 0.2229274507 -0.761914505 0.0340261373 -0.036266159
615296310.0 0.0328274997 -0.037586009 0.21449939 -0.7641324857 0.2143428171 -0.7646262813 0.0337261886 -0.036167964
620296280.0 0.0324505179 -0.0376662945 0.2063728231 -0.7664170232 0.2060753262 -0.7664222793 0.032511677 -0.0368255915
625296250.0 0.0314403392 -0.0383665642 0.1985373785 -0.7691716022 0.1984007997 -0.769414554 0.0328695895 -0.0369454011
630296220.0 0.031907826 -0.0383622326 0.188570026 -0.7710421132 0.1889534907 -0.7706474251 0.0316786071 -0.0368642793
635296190.0 0.02979979 -0.0387413021 0.1808253658 -0.7728095707 0.1812375628 -0.7728109503 0.0316244074 -0.037123251
640296160.0 0.0297939519 -0.0385266885 0.1726084519 -0.7747668894 0.1729028989 -0.774904723 0.0308233181 -0.0377784394
645296130.0 0.0291517186 -0.0388523099 0.1637220138 -0.7758782985 0.1644451058 -0.7764055196 0.0301909279 -0.0375042676
650296100.0 0.0288837217 -0.0396607316 0.1553024141 -0.7781868237 0.1561469087 -0.7782294517 0.0302920117 -0.0384960605
655296070.0 0.0277721661 -0.0399644762 0.147122325 -0.7796966712 0.1473145199 -0.7799211555 0.0294956631 -0.0380633854
660296040.0 0.0267957939 -0.0402245651 0.1385676485 -0.7817158649 0.1389694481 -0.7820617274 0.0291516936 -0.0383317939
665296010.0 0.0270134169 -0.0402438775 0.1296674974 -0.7822810637 0.130254902 -0.7824224537 0.0281668043 -0.0381335859
670295980.0 0.0252057117 -0.0401855485 0.1215490193 -0.7844645554 0.1219503749 -0.784176786 0.0271092152 -0.0387654295
675295950.0 0.0253480711 -0.0400518071 0.1131939182 -0.7854842989 0.1132311386 -0.7848243207 0.0265975146 -0.0390997849
680295920.0 0.0241714992 -0.0409647313 0.1040842167 -0.7862841033 0.1036914843 -0.7870950146 0.0262523857 -0.0383924549
685295890.0 0.0239144181 -0.0401853711 0.0955006866 -0.7875463295 0.0954897585 -0.787898777 0.0252392864 -0.0389672084
690295860.0 0.0239549407 -0.0406759898 0.0868681258 -0.7881641262 0.0873313297 -0.7888507533 0.0246084814 -0.0383448947
695295830.0 0.0228657854 -0.0410941276 0.079246917 -0.7888959223 0.0786702867 -0.7893720739 0.0240698619 -0.0388737472
700295800.0 0.0228618017 -0.0416701754 0.0697687319 -0.7903401639 0.0697166862 -0.7900983173 0.0235190292 -0.0386560435
705295770.0 0.0215985774 -0.0403600884 0.0613579475 -0.790857162 0.0620019076 -0.7911905086 0.0226163702 -0.0391450984
710295740.0 0.0215068861 -0.0413163076 0.0527188528 -0.7923902417 0.0536215427 -0.7921319578 0.0225280652 -0.0402635674
715295710.0 0.0200949573 -0.0417838914 0.0447102401 -0.7922752643 0.0442615507 -0.792335414 0.0223465208 -0.0400554506
720295680.0 0.0200099967 -0.0416253483 0.0354532358 -0.7932479694 0.0360250236 -0.792714849 0.0213111053 -0.03915299
725295650.0 0.0194255615 -0.0416549736 0.0267802108 -0.7930045898 0.0272272173 -0.7930464292 0.0204498731 -0.0396093415
730295620.0 0.0188932781 -0.0416102972 0.0179748474 -0.7928488462 0.0183189685 -0.7932111002 0.0196584239 -0.0404493455
735295590.0 0.0182117596 -0.0415832233 0.0097139812 -0.79382835 0.0099471822 -0.793523865 0.0193987992 -0.0405545316
740295560.0 0.0169033813 -0.0416825212 0.0012302288 -0.7933820506 0.0011848055 -0.7931164849 0.0193239725 -0.0401965613
745295530.0 0.0167484606 -0.0417485098 -0.0079963217 -0.7930788518 -0.0077065991 -0.7934225579 0.018526285 -0.0407226724
750295500.0 0.0162041416 -0.0417695672 -0.0165632227 -0.7927897248 -0.0160699829 -0.793416762 0.0176905609 -0.0405952774
755295470.0 0.0157409424 -0.0421424022 -0.0245333025 -0.7933190214 -0.0242216513 -0.7937186508 0.0177209071 -0.0409760172
760295440.0 0.0149644755 -0.0417625015 -0.0333893683 -0.7927460721 -0.0331293428 -0.7930916129 0.0170182771 -0.0408218095
765295410.0 0.0143161739 -0.0415557682 -0.0423762612 -0.7921957932 -0.042866813 -0.7926656958 0.0165245915 -0.0404810732
770295380.0 0.0134339883 -0.0419202564 -0.0513637551 -0.7921884602 -0.0507951125 -0.7917105219 0.0155269124 -0.0410413119
775295350.0 0.0127825377 -0.0427531457 -0.0595703613 -0.7909104223 -0.0590849718 -0.7908861433 0.0140326359 -0.0403793685
780295320.0 0.0124233924 -0.0420740943 -0.067766262 -0.7898344456 -0.0670908245 -0.7906626131 0.0139870331 -0.0414426292
785295290.0 0.0115475258 -0.0428578907 -0.0764605128 -0.7891109083 -0.076325461 -0.7895829329 0.0143134021 -0.0405732186
790295260.0 0.0117709073 -0.0414120972 -0.0845452697 -0.7884831377 -0.0843807094 -0.7885380594 0.0128852791 -0.0406788865
795295230.0 0.0106458227 -0.0421330476 -0.0934769466 -0.7872011049 -0.0928151523 -0.7881458563 0.0128098635 -0.0402048309
800295200.0 0.0097083 -0.0417346478 -0.1025526449 -0.7859505821 -0.1017394844 -0.786325389 0.012261445 -0.0406250789
805295170.0 0.0093978322 -0.0421180527 -0.111033972 -0.7849483408 -0.1105884788 -0.7851243247 0.011162636 -0.04032829
810295140.0 0.0085541971 -0.0425040135 -0.1187199235 -0.7835831825 -0.1189594989 -0.7843191491 0.0114392549 -0.0400463378
815295110.0 0.0084768785 -0.0426656079 -0.127451669 -0.7820250114 -0.1271348009 -0.7828091942 0.0100713606 -0.039931324
820295080.0 0.0071332884 -0.0415230586 -0.1363432757 -0.7806148497 -0.1357598775 -0.7810520944 0.0098628615 -0.0402091311
825295050.0 0.0072360492 -0.0420082189 -0.1439813096 -0.7792036194 -0.1440884738 -0.7797339262 0.0097083679 -0.040271448
830295020.0 0.0063936584 -0.0415707887 -0.153374139 -0.7776437942 -0.1528454293 -0.7774752004 0.0092716459 -0.0395922829
