!Created with skrf (http://scikit-rf.org).
# Hz S RI R 50.0 
!freq ReS11 ImS11 ReS21 ImS21 ReS12 ImS12 ReS22 ImS22
300000.0 -0.2397391056 -0.0744759228 0.4721321533 0.0500467776 0.468493915 0.0496445632 -0.2435210028 -0.0891210045
5299970.0 -0.2441956233 0.0073724987 0.4735517072 0.004974417 0.4735601172 0.0049103109 -0.2440825942 0.0071696538
10299940.0 -0.2410775593 0.0189746344 0.4753035549 0.0060943282 0.4755474744 0.0062404864 -0.2407112289 0.0204969108
15299910.0 -0.2365991842 0.0279442244 0.4791915979 0.0076064492 0.4793339106 0.0076319648 -0.2362390033 0.0297136248
20299880.0 -0.2320520019 0.0356008901 0.4836119072 0.0086206933 0.4838325395 0.0083464318 -0.2308149675 0.0374352613
25299850.0 -0.2269706987 0.0421273131 0.4892245396 0.0071568009 0.4892103259 0.0074817313 -0.2249765617 0.0439333044
30299820.0 -0.2214053034 0.0470617819 0.494675278 0.0053352206 0.4941536359 0.0052953897 -0.2190929768 0.0490120944
35299790.0 -0.2162026588 0.0514539403 0.4999582273 0.0017410346 0.500190219 0.0018479631 -0.2134374489 0.0531985458
40299760.0 -0.2115469351 0.0550409432 0.504692883 -0.00196329 0.5050664231 -0.001863415 -0.2082206756 0.0560124561
45299730.0 -0.206597684 0.0575728899 0.5098224149 -0.0065537521 0.5097350801 -0.0066976696 -0.2031136462 0.0588994376
50299700.0 -0.2024092325 0.0598253247 0.5142008569 -0.0120586959 0.5142511663 -0.0117304763 -0.1986110708 0.0605292631
55299670.0 -0.1983304756 0.0616239575 0.5177703281 -0.0185974253 0.5180706855 -0.0179220637 -0.1944969674 0.0620737704
60299640.0 -0.1941490713 0.0635564514 0.5211961239 -0.0245913631 0.5214534542 -0.0241218238 -0.1901857203 0.0632866704
65299610.0 -0.1910597345 0.0646897172 0.5242771699 -0.0306171505 0.5244043031 -0.0307908316 -0.1872397558 0.0642260381
70299580.0 -0.1879310984 0.0660113923 0.5265557375 -0.0373929312 0.5266539727 -0.0372118022 -0.1838577071 0.0649404547
75299550.0 -0.1851631745 0.0673637171 0.5282965518 -0.0439634764 0.5281141083 -0.044083725 -0.1809398166 0.0651972927
80299520.0 -0.1827235214 0.0683357066 0.530605629 -0.0512440915 0.5302964949 -0.0509054617 -0.178091017 0.0659186413
85299490.0 -0.1800849868 0.0687834748 0.5315374984 -0.0575724084 0.5316797134 -0.0575292191 -0.1762834189 0.0662259099
90299460.0 -0.178004579 0.069862242 0.5325198979 -0.0648771959 0.5332168153 -0.0651603376 -0.1737298488 0.0664087823
95299430.0 -0.1756316535 0.0703919053 0.5336635484 -0.0717575666 0.5335603169 -0.0717744908 -0.1716184302 0.0671512242
100299400.0 -0.173857832 0.0718064423 0.5337287396 -0.0787418162 0.5339903023 -0.0785969853 -0.1694807462 0.0671461729
105299370.0 -0.1723186265 0.0724500315 0.5341983628 -0.0853953598 0.5345316187 -0.0857436026 -0.1675289018 0.0680058126
110299340.0 -0.1704145152 0.0729789056 0.5346791591 -0.0919858453 0.5342419716 -0.0918243138 -0.166552549 0.0684115182
115299310.0 -0.1688915508 0.0740192347 0.5345777338 -0.0991759633 0.5343977735 -0.0992324185 -0.1648713947 0.0690198717
120299280.0 -0.167523267 0.0745332824 0.534103397 -0.1057231373 0.5341665166 -0.1059184765 -0.1632773647 0.0691969809
125299250.0 -0.1661969943 0.0756007523 0.5340570262 -0.1122029804 0.5340516752 -0.1128043816 -0.1626434191 0.0695831281
130299220.0 -0.1650425343 0.0767201121 0.5331471689 -0.1198450999 0.5330968346 -0.1197209194 -0.1611001509 0.0702903192
135299190.0 -0.1636516536 0.0778915807 0.5327724828 -0.1261315675 0.532866129 -0.1256449981 -0.1598285661 0.0712031969
140299160.0 -0.1625299267 0.0790231453 0.5319576398 -0.1327999514 0.5318031104 -0.1328529331 -0.1589495835 0.0720274291
145299130.0 -0.1613767126 0.0797593877 0.5310195429 -0.1394456292 0.5307241931 -0.1395171893 -0.1575867335 0.072852473
150299100.0 -0.1599436566 0.081374079 0.5298492329 -0.1458105343 0.5298801904 -0.1456289134 -0.1569682194 0.0738678172
155299070.0 -0.1596707402 0.0820441756 0.5291914476 -0.1529473133 0.5284286505 -0.1525037065 -0.1559228703 0.0748191335
160299040.0 -0.1582752102 0.0833568172 0.5274654662 -0.1587346878 0.5269997915 -0.1588776568 -0.1558176466 0.0755193906
165299010.0 -0.1574796353 0.0845722612 0.5257903163 -0.1654913616 0.5258971445 -0.1656776254 -0.1541502707 0.0766864498
170298980.0 -0.1565754032 0.0856075556 0.5243800918 -0.17163574 0.5244008953 -0.171882805 -0.1537009782 0.077504203
175298950.0 -0.1554727657 0.0871081432 0.5232422948 -0.1781437466 0.5224062682 -0.1780029615 -0.1529350918 0.0786564285
180298920.0 -0.1545760704 0.0881189752 0.5210522403 -0.1843756513 0.5204250516 -0.1840728929 -0.1517025527 0.0798620515
185298890.0 -0.1533186826 0.0892845714 0.5190828345 -0.1906378612 0.5186481711 -0.1903964474 -0.1511866141 0.0808503667
190298860.0 -0.1525821022 0.0910770433 0.5172056332 -0.1968069067 0.5175434866 -0.1965755384 -0.1506892167 0.0820011953
195298830.0 -0.1518271324 0.0922109684 0.5153086413 -0.2029480634 0.5149428526 -0.2026755654 -0.1495039805 0.0828688921
200298800.0 -0.1506305955 0.0936120984 0.5129481013 -0.2090387638 0.5129655944 -0.2086844241 -0.1492456015 0.0841247932
205298770.0 -0.1498626522 0.0949588107 0.5106910435 -0.2153081864 0.5109061201 -0.2151316728 -0.1485084239 0.0845549221
210298740.0 -0.1489842878 0.0964893237 0.5087320435 -0.2207820307 0.5083169249 -0.2206314034 -0.1475044897 0.086668083
215298710.0 -0.148277924 0.0977865418 0.5064714682 -0.2267229606 0.5060834893 -0.2271454561 -0.1472829259 0.0877083876
220298680.0 -0.1468635768 0.0986520729 0.5033901631 -0.2327925581 0.5038105294 -0.2326642982 -0.1468738186 0.08857888
225298650.0 -0.1461133502 0.1004079277 0.5015865502 -0.2386571877 0.5015773708 -0.2385804299 -0.1462562729 0.0896162901
230298620.0 -0.1450834276 0.1020391401 0.4989182888 -0.2443551817 0.4992076263 -0.2445755795 -0.1455762359 0.0909242361
235298590.0 -0.1440022035 0.1038017163 0.4959787758 -0.250379142 0.4962823657 -0.2502237611 -0.144658198 0.0921617962
240298560.0 -0.1433265573 0.1049210043 0.4936946736 -0.2562707667 0.4933265429 -0.2560738503 -0.1439784785 0.0935134367
245298530.0 -0.1421785715 0.1063700731 0.4909019783 -0.2618431096 0.490966054 -0.2618662903 -0.1427739361 0.0941780795
250298500.0 -0.140684737 0.1080096732 0.4875946768 -0.2674303311 0.487261244 -0.2670550485 -0.1425293806 0.0955625424
255298470.0 -0.1400188296 0.109029056 0.4845886369 -0.2728573172 0.4847457856 -0.2728809251 -0.1414424508 0.0971300067
260298440.0 -0.139026301 0.1107093256 0.4821778738 -0.2785674642 0.4823612782 -0.278586394 -0.1406941737 0.0981917461
265298410.0 -0.1378023211 0.1123679455 0.4789305035 -0.2840857348 0.4791974158 -0.2840142605 -0.1397499537 0.0996212734
270298380.0 -0.1368541052 0.1137038284 0.4760635931 -0.28898995 0.475763779 -0.2890712311 -0.139084864 0.1004514903
275298350.0 -0.1351346958 0.1151576915 0.4727014121 -0.294795629 0.4730169403 -0.2949527529 -0.1380034282 0.1018595808
280298320.0 -0.1340174387 0.1169603662 0.4697660896 -0.3003595945 0.4692653026 -0.3001046324 -0.1366718307 0.1032018248
285298290.0 -0.1328768348 0.1182758249 0.4662473527 -0.3053308611 0.4660041543 -0.3052845561 -0.1360160044 0.1041402295
290298260.0 -0.1315569606 0.1197249043 0.4631899012 -0.3105709579 0.4631687244 -0.3108606106 -0.1348480889 0.105864771
295298230.0 -0.130319209 0.1208377745 0.4594363594 -0.3158537987 0.4596343736 -0.3161802404 -0.1335958059 0.1067968959
300298200.0 -0.1294178892 0.1224807236 0.4562960321 -0.3209817617 0.4560729217 -0.3214847416 -0.1327996452 0.1081440533
305298170.0 -0.1277562652 0.1235328554 0.4522784739 -0.3262597477 0.4524745624 -0.3266756505 -0.131272236 0.1091227793
310298140.0 -0.1265484349 0.1254203817 0.4493449449 -0.3319333708 0.4495438749 -0.3316036798 -0.1305370669 0.1102394613
315298110.0 -0.1252377092 0.1260479045 0.4455592631 -0.3365184158 0.4456588977 -0.3370114855 -0.1295115485 0.1115735779
320298080.0 -0.1238510966 0.1276590586 0.4412459097 -0.3421525499 0.4416194532 -0.3416917251 -0.1286541273 0.1125276289
325298050.0 -0.1225055391 0.1287749727 0.4376400361 -0.3471464848 0.437801918 -0.3470994092 -0.1278856237 0.113957818
330298020.0 -0.1214758604 0.1300032512 0.4335982088 -0.3522850194 0.4338811334 -0.3521049459 -0.1269450478 0.1151080433
335297990.0 -0.1199436171 0.1310714145 0.4295406798 -0.3567982561 0.4294573497 -0.3568851852 -0.1268746051 0.1167638048
340297960.0 -0.1191530929 0.1329064559 0.4252821934 -0.3616039195 0.4250735261 -0.3616612493 -0.1248200029 0.118260937
345297930.0 -0.1178474699 0.1344975692 0.421183098 -0.3664757457 0.4213044529 -0.3664814716 -0.1242051969 0.1191252818
350297900.0 -0.1167893794 0.1356334073 0.4171017509 -0.3715180107 0.4168526257 -0.3709328932 -0.1234531018 0.1210883157
355297870.0 -0.1152735865 0.1374548753 0.4134529248 -0.3754350298 0.4133984419 -0.3752742271 -0.1226193877 0.122004121
360297840.0 -0.1135326406 0.1387900365 0.4096828205 -0.3797834959 0.4094221803 -0.3798622049 -0.1213669073 0.1236689097
365297810.0 -0.1124083728 0.1402525562 0.4046378959 -0.3846428385 0.4052773878 -0.3849814529 -0.1200431338 0.1248852385
370297780.0 -0.1107113124 0.1414141681 0.4003185172 -0.3887458612 0.4008324425 -0.3888052187 -0.1194065895 0.1262834693
375297750.0 -0.1091975941 0.142933793 0.3965570527 -0.3937979062 0.3966786491 -0.3935837729 -0.1180025257 0.1276676068
380297720.0 -0.1076002468 0.1441514032 0.3919386036 -0.3980077119 0.3920575466 -0.39722337 -0.1171985297 0.1287547667
385297690.0 -0.1065893597 0.1454744732 0.3874814914 -0.402032364 0.3874629564 -0.4022073155 -0.1159871574 0.130327856
390297660.0 -0.1047948455 0.1470111807 0.383135433 -0.405847085 0.3831750973 -0.4057192114 -0.1149444972 0.1312951145
395297630.0 -0.103100295 0.1482197437 0.3786967777 -0.4105902353 0.3785994517 -0.4106355015 -0.1132328538 0.1324934876
400297600.0 -0.1017873543 0.1495886157 0.3737590993 -0.4150850181 0.3740130892 -0.4147427259 -0.1122029026 0.1339080164
405297570.0 -0.1005003955 0.1507239817 0.3693881224 -0.4185398327 0.3694219242 -0.4187810374 -0.1114747061 0.1351649866
410297540.0 -0.0983723232 0.1519435934 0.3649748733 -0.4226658286 0.3652018544 -0.4231946682 -0.1102450059 0.1367741616
415297510.0 -0.0965757969 0.1532142591 0.3597948554 -0.4268967446 0.360154783 -0.4269017614 -0.1087209801 0.1375015417
420297480.0 -0.0949687973 0.1545130332 0.3551529087 -0.4308116378 0.355477837 -0.4306604583 -0.1077325462 0.1386795206
425297450.0 -0.0932758977 0.1554674938 0.3509852319 -0.4343947105 0.3513125478 -0.4345217756 -0.1067394621 0.1399263335
430297420.0 -0.0919967955 0.1563912745 0.3462581623 -0.4379263668 0.3459930442 -0.4378438726 -0.1051516794 0.1409277508
435297390.0 -0.090260191 0.1577111655 0.340812791 -0.4422568458 0.3404685872 -0.4421770589 -0.1033052621 0.1418537761
440297360.0 -0.0883890601 0.1588293907 0.3362456743 -0.4453716049 0.3365605706 -0.4456722071 -0.1026083243 0.1428726052
445297330.0 -0.0867847056 0.15960365 0.3315803792 -0.449214743 0.3316886026 -0.4489859491 -0.1008757311 0.1436565423
450297300.0 -0.084772424 0.1609263533 0.3262912323 -0.4529888088 0.3262889272 -0.4531615534 -0.0993651616 0.1445742549
455297270.0 -0.0833268549 0.1619072171 0.3214206387 -0.4561475476 0.3217747272 -0.4567665364 -0.0980714057 0.1457785877
460297240.0 -0.0814572502 0.1630063371 0.3160590258 -0.4595301583 0.3162128141 -0.4602004986 -0.096618409 0.1473701426
465297210.0 -0.0795144828 0.1643367119 0.3115536497 -0.4636570352 0.3113378765 -0.4638450026 -0.0949768183 0.1481030008
470297180.0 -0.0777616219 0.1648884017 0.3059319712 -0.4665280967 0.3061042495 -0.4670037129 -0.0938379849 0.1493555774
475297150.0 -0.0758716999 0.165746768 0.300966594 -0.4693725294 0.3015948561 -0.4693877014 -0.0918997177 0.1498033875
480297120.0 -0.0741417747 0.1672104259 0.2959256067 -0.4732311225 0.2957570569 -0.4734799752 -0.0904823561 0.1513648163
485297090.0 -0.0724797808 0.1681531211 0.2909254422 -0.476117055 0.290755798 -0.4760572048 -0.0889936773 0.1519932207
490297060.0 -0.070880105 0.1690076758 0.2858769439 -0.47983743 0.2856904997 -0.4791330436 -0.0876915787 0.1531806352
495297030.0 -0.0689416656 0.1700585747 0.2801547598 -0.4825560874 0.2809304338 -0.4823029625 -0.0861886363 0.1543611973
500297000.0 -0.067038547 0.170788959 0.2754700649 -0.4853296736 0.2750529548 -0.4854245537 -0.084719129 0.1557639808
505296970.0 -0.0650030442 0.1715719603 0.2700920013 -0.4880041177 0.2697981583 -0.4887817461 -0.0831161179 0.1564865973
510296940.0 -0.0630905608 0.1724533801 0.2645868083 -0.4910498111 0.2644611648 -0.4916315857 -0.0814945134 0.1577415134
515296910.0 -0.061270389 0.1733332611 0.2588906721 -0.4942129264 0.2589248926 -0.4941875934 -0.0799731529 0.1583883729
520296880.0 -0.0596407973 0.1741689568 0.2538333836 -0.4972700411 0.2536512727 -0.4969068653 -0.0788232034 0.1593531756
525296850.0 -0.0570889405 0.1745293002 0.247764255 -0.4997795955 0.2486753655 -0.4997590165 -0.077538809 0.1605978687
530296820.0 -0.0555212106 0.1758250293 0.2427721851 -0.5021955102 0.2429968161 -0.5024753386 -0.0753270847 0.1614783187
535296790.0 -0.0539751962 0.1764226388 0.2373738718 -0.5049447924 0.2371746818 -0.504644221 -0.0742988424 0.1621274261
540296760.0 -0.0520144722 0.1772657346 0.2317933753 -0.5078462294 0.2315372382 -0.5076429683 -0.0728419002 0.1633679168
545296730.0 -0.0496095333 0.1778323644 0.2258310668 -0.5098574346 0.2260721235 -0.5102959209 -0.0711386025 0.1636833609
550296700.0 -0.0475138172 0.1787621609 0.2205981338 -0.5117589102 0.2204930483 -0.5124830918 -0.0698227691 0.1649205643
555296670.0 -0.0459053304 0.179137603 0.2149877541 -0.5146842608 0.215151557 -0.5144941034 -0.0681029516 0.1659021715
560296640.0 -0.0435392523 0.1802385294 0.2091893735 -0.5173978335 0.2093610562 -0.5172741885 -0.0665481411 0.1668854245
565296610.0 -0.0422076637 0.1804603715 0.2037343782 -0.5191657049 0.2037547545 -0.519148816 -0.0654762629 0.1668551108
570296580.0 -0.0399859038 0.181295099 0.198211185 -0.5218399519 0.1976157054 -0.5215817576 -0.063666447 0.1685691769
575296550.0 -0.0383780738 0.1821647812 0.1928320439 -0.5236621893 0.1920980283 -0.5238465725 -0.0616469127 0.1688019792
580296520.0 -0.0358437501 0.182575327 0.1866472496 -0.5260078285 0.1866010553 -0.5258182877 -0.0601279696 0.169321168
585296490.0 -0.0340423717 0.1823400719 0.1812311663 -0.5274032565 0.1815664344 -0.5273456603 -0.0586800908 0.1702250182
590296460.0 -0.0313759873 0.1834941981 0.1754552941 -0.5288170203 0.1751586356 -0.5293151811 -0.0575961077 0.1711654817
595296430.0 -0.0298327706 0.183804227 0.1692607572 -0.5314741361 0.1692165569 -0.531272884 -0.0550905308 0.1713771367
600296400.0 -0.0280509082 0.1841726697 0.1637681146 -0.5332454446 0.1636802379 -0.5325957719 -0.0539351712 0.1719961958
605296370.0 -0.0258682453 0.1846191889 0.1577355639 -0.5348415658 0.1581189727 -0.5342541626 -0.0519833496 0.1727465559
610296340.0 -0.0238558797 0.18523054 0.1520397475 -0.5362503184 0.1523319419 -0.5365648889 -0.0502934394 0.1734619757
615296310.0 -0.0215386613 0.185298621 0.1458895253 -0.5373180987 0.1457032751 -0.5382736167 -0.0483013769 0.173875599
620296280.0 -0.0195745757 0.1855214004 0.1402036389 -0.5394112181 0.1404266107 -0.5392940426 -0.047105732 0.1745960607
625296250.0 -0.0178808175 0.1860887779 0.1347636533 -0.5412444873 0.1349035589 -0.5409319417 -0.044725659 0.1751747081
630296220.0 -0.0150566302 0.1862038505 0.1282583955 -0.5422482127 0.1284918536 -0.5421607027 -0.0433738054 0.1757529791
635296190.0 -0.0138391587 0.1864544077 0.1226324604 -0.5434902391 0.1226716322 -0.543500016 -0.0416307857 0.1764017745
640296160.0 -0.0116965731 0.1869962619 0.1169495748 -0.5449685961 0.1172464102 -0.5449533761 -0.0397510251 0.1767506358
645296130.0 -0.0094411584 0.1873840393 0.110998296 -0.5457596582 0.1113184537 -0.5461044423 -0.0380065669 0.1774665281
650296100.0 -0.0071329965 0.187260448 0.105232094 -0.5469263162 0.1049656815 -0.5472753377 -0.0360059672 0.1775683702
655296070.0 -0.0054668523 0.1874459693 0.0993237572 -0.5480762963 0.0993661619 -0.5482589758 -0.0342133049 0.1781336852
660296040.0 -0.0036719888 0.1871743139 0.0931991763 -0.5492798049 0.0934594537 -0.5495553532 -0.0324921001 0.1789086109
665296010.0 -0.0008025005 0.1877518692 0.0869725269 -0.5499185788 0.0875965031 -0.5500014063 -0.0306628215 0.1797456896
670295980.0 2.12812e-05 0.1883703328 0.0816189973 -0.5509792057 0.081588058 -0.5508783094 -0.0294123619 0.1800345283
675295950.0 0.0026388532 0.1884332897 0.0755407707 -0.5518538783 0.0756878084 -0.551401197 -0.027793652 0.1806405396
680295920.0 0.00472397 0.1882945459 0.0687659769 -0.5525330386 0.0694270174 -0.5528368385 -0.0256215069 0.1814620012
685295890.0 0.006961908 0.1890740328 0.0634369046 -0.5531192813 0.063389779 -0.5538219395 -0.024037794 0.1815821668
690295860.0 0.0093061129 0.1885766344 0.0572079116 -0.5538861612 0.0574824259 -0.5542513115 -0.0222817589 0.1824987136
695295830.0 0.0112316145 0.1886384729 0.051640482 -0.5541092054 0.0512039456 -0.5542320096 -0.0202207001 0.182490041
700295800.0 0.013368482 0.1880372528 0.045500026 -0.5542253698 0.0450331785 -0.5547277486 -0.0187177935 0.1832932912
705295770.0 0.0152080428 0.1889419016 0.0395512557 -0.5554287987 0.0395172729 -0.5552375654 -0.0170959843 0.183370087
710295740.0 0.0174177246 0.1887928577 0.033622371 -0.5561162985 0.0339412359 -0.5563408724 -0.0153384836 0.1836944551
715295710.0 0.0189580352 0.1884418969 0.0281435488 -0.5560460257 0.0272979737 -0.5561452229 -0.013403992 0.1840664054
720295680.0 0.0213051324 0.1885143895 0.0218050549 -0.5563027134 0.0217848602 -0.5566292462 -0.0115169165 0.184693901
725295650.0 0.0233340187 0.1884101484 0.0155730128 -0.5567012867 0.0153281981 -0.5566548077 -0.0103057199 0.1849298391
730295620.0 0.0257744705 0.1886602961 0.0097172861 -0.5563692038 0.0094060896 -0.5565815302 -0.0083572135 0.1847317645
735295590.0 0.0275798467 0.1884000365 0.0037356826 -0.5567551316 0.0035696586 -0.5565215374 -0.0068165276 0.1849213647
740295560.0 0.0294006405 0.1883045989 -0.0023636043 -0.556969308 -0.0023217464 -0.5568508856 -0.0049049001 0.1852148257
745295530.0 0.031748667 0.1882347881 -0.0086273627 -0.5562109481 -0.0081816815 -0.5563472459 -0.0029346506 0.1853734771
750295500.0 0.0340539845 0.1878320135 -0.0141397631 -0.5561415046 -0.0145057433 -0.5564920454 -0.0011986365 0.185596741
755295470.0 0.0361692047 0.1872050597 -0.0200775723 -0.5559308448 -0.0204659825 -0.556201377 0.0008063048 0.1854435902
760295440.0 0.0376612553 0.1874261818 -0.0257000167 -0.5562547693 -0.0265877951 -0.5561474964 0.0025151545 0.185625706
765295410.0 0.0400459368 0.1871055895 -0.0322970746 -0.5555022312 -0.0328741512 -0.5556198222 0.0042842733 0.186012058
770295380.0 0.0422578946 0.1865055045 -0.0386970271 -0.5546644598 -0.0387428966 -0.5546482945 0.0057389331 0.1857385036
775295350.0 0.0440231226 0.1858931999 -0.0445191897 -0.5542995645 -0.0439970603 -0.554420702 0.007529437 0.1859925138
780295320.0 0.0463234481 0.1858834772 -0.0503888038 -0.5538346389 -0.0496431057 -0.5537681053 0.0094620131 0.1859003553
785295290.0 0.0478590453 0.1847950781 -0.0565311852 -0.5527333626 -0.0564231021 -0.5532147151 0.0115973392 0.1860209367
790295260.0 0.0506057554 0.1853008896 -0.0617093725 -0.5525987284 -0.0615713498 -0.552700739 0.0134217359 0.1858705191
795295230.0 0.0522549608 0.1842693941 -0.0682724103 -0.5512863326 -0.0676012735 -0.5525375355 0.0151978419 0.186301757
800295200.0 0.0540756777 0.1843930265 -0.074590254 -0.5510359776 -0.0741689487 -0.5511313743 0.0173166579 0.1858035685
805295170.0 0.0561353246 0.1835312219 -0.0804250309 -0.5502683572 -0.0801416829 -0.5505862699 0.0190957697 0.1860995155
810295140.0 0.0582136343 0.1829338803 -0.0857122739 -0.549239286 -0.0858707776 -0.5497292815 0.0209411276 0.1862274522
815295110.0 0.0602176829 0.1821908042 -0.0917001738 -0.5480654745 -0.0916557971 -0.5481255156 0.0226527839 0.1860401743
820295080.0 0.0621011563 0.182281441 -0.0976701439 -0.5469603034 -0.0976660139 -0.547598093 0.024866105 0.1858503784
825295050.0 0.0645731481 0.1814180268 -0.1035113085 -0.5460447083 -0.103468696 -0.5463816414 0.0268358516 0.1860645219
830295020.0 0.0664612247 0.1809479154 -0.1097258677 -0.5448271278 -0.1095756532 -0.5446672347 0.0292736846 0.1858397988
