!Created with skrf (http://scikit-rf.org).
# Hz S RI R 50.0 
!freq ReS11 ImS11 ReS21 ImS21 ReS12 ImS12 ReS22 ImS22
300000.0 -0.3150360136 -0.1236788255 0.371404921 0.0626492631 0.3712017428 0.0641418571 -0.3156378605 -0.1270505603
5299970.0 -0.3250298364 0.0030782611 0.3782759148 0.0032978085 0.3789755357 0.0030013591 -0.3260427057 0.0023462519
10299940.0 -0.3227729344 0.014335796 0.3801104778 0.0028470161 0.3796992968 0.0027657768 -0.3234299456 0.0125309461
15299910.0 -0.3191271202 0.0221913174 0.3819427234 0.0027108689 0.3823204452 0.0029493853 -0.3207038447 0.0197140671
20299880.0 -0.3156373412 0.0291964787 0.3847283846 0.0015648716 0.3853862597 0.0020147706 -0.3180119151 0.025953491
25299850.0 -0.3115091275 0.0346775082 0.3884542745 0.0008283835 0.3886365875 0.0003059512 -0.3149982736 0.0313086704
30299820.0 -0.3083576966 0.0395250036 0.392136031 -0.0020969912 0.3919642028 -0.0021189888 -0.3120905587 0.0358005307
35299790.0 -0.3045193031 0.0436130525 0.394963554 -0.0050536242 0.395506497 -0.0050810293 -0.3093440656 0.0401514219
40299760.0 -0.301349086 0.0468036576 0.3985333738 -0.0086076098 0.3984645679 -0.0086999666 -0.3065886611 0.0433945354
45299730.0 -0.2978489303 0.0502031212 0.4013043026 -0.0126103913 0.4015349135 -0.0125456331 -0.3038074164 0.0466613609
50299700.0 -0.2947640127 0.0526697202 0.4038161765 -0.0173649324 0.4036937572 -0.0172277807 -0.3013968008 0.0496332847
55299670.0 -0.2924286647 0.0553019506 0.4059832151 -0.0214267396 0.4060525767 -0.0218718354 -0.2995072302 0.0521577072
60299640.0 -0.2897860376 0.0580562152 0.4080277743 -0.0267054178 0.4079990113 -0.0269820784 -0.2974084329 0.0546586063
65299610.0 -0.2873666536 0.0604171864 0.4099004708 -0.0317774408 0.409920713 -0.0318750565 -0.2951448891 0.0574431002
70299580.0 -0.2854465342 0.0622317471 0.4107112443 -0.0367502105 0.4109891934 -0.0367331679 -0.2939515845 0.0599136426
75299550.0 -0.2833618614 0.0642644681 0.4116769796 -0.0422514178 0.4119052878 -0.0421103552 -0.2921291101 0.0624588073
80299520.0 -0.2817914435 0.0665007559 0.4127202954 -0.0471356165 0.4130320488 -0.0474372872 -0.2905828304 0.0650351138
85299490.0 -0.2796155522 0.0683019215 0.4130914479 -0.0523574824 0.4134354229 -0.0525301955 -0.2893197504 0.0669736949
90299460.0 -0.2782713926 0.0707514169 0.4135668062 -0.0580780495 0.4138179488 -0.0575042065 -0.2877784953 0.0692948129
95299430.0 -0.2767519589 0.0726347935 0.4136428785 -0.0627260324 0.4143264869 -0.0633776537 -0.2866629438 0.0716644119
100299400.0 -0.2753058858 0.0744228694 0.4137025969 -0.0679204606 0.41405908 -0.0683492039 -0.2854627539 0.0744945651
105299370.0 -0.2740826644 0.076888416 0.41379079 -0.0730864692 0.4144815608 -0.0732859722 -0.2840847226 0.0761494771
110299340.0 -0.2727422101 0.0786599676 0.4134976833 -0.0782308886 0.4141845859 -0.0784554865 -0.2834753396 0.0787137916
115299310.0 -0.2717621129 0.0811565013 0.4136948882 -0.0837435851 0.4139597876 -0.0836350028 -0.282365711 0.0812622117
120299280.0 -0.2706089898 0.0833548148 0.4132235111 -0.0892104785 0.4131881111 -0.0890144962 -0.28134792 0.0833052321
125299250.0 -0.2694715877 0.0852204745 0.4122703708 -0.0938729427 0.4129016808 -0.0938844928 -0.2803137738 0.0860265228
130299220.0 -0.2683849621 0.0874011173 0.4119274215 -0.0990789722 0.411914395 -0.0995517273 -0.2791980044 0.0883030489
135299190.0 -0.2671868821 0.0900395864 0.4114518957 -0.1036173255 0.4116161047 -0.1042115307 -0.2783676003 0.0905862646
140299160.0 -0.2664997063 0.0921613771 0.410828965 -0.1091497932 0.4106084023 -0.1089605438 -0.278069577 0.093095521
145299130.0 -0.2656598279 0.0946864108 0.4096589211 -0.1139655315 0.4098743604 -0.1139193236 -0.2767573786 0.095785159
150299100.0 -0.2640742838 0.0968695253 0.4084344978 -0.1187813665 0.408447266 -0.1193026167 -0.2757921913 0.0983614993
155299070.0 -0.2630540299 0.0993396841 0.4068672995 -0.1235613636 0.4074256687 -0.12378938 -0.2746616204 0.1007130112
160299040.0 -0.262322707 0.101979838 0.4062116977 -0.1288534887 0.4059715045 -0.1288337962 -0.273955574 0.1036762023
165299010.0 -0.2610010602 0.1040005803 0.4049048855 -0.1332888161 0.4048453673 -0.1338969758 -0.2728432376 0.1059552569
170298980.0 -0.2603989006 0.1067235719 0.403336616 -0.1380350792 0.4037740768 -0.1386712382 -0.2719295661 0.1083695909
175298950.0 -0.2592257793 0.1089515623 0.4021850724 -0.1430407927 0.4025636442 -0.1433777557 -0.2713339968 0.1117072225
180298920.0 -0.2581906172 0.1118159544 0.4006039741 -0.147708181 0.4008927312 -0.1483605979 -0.2702177829 0.1141423749
185298890.0 -0.257035855 0.114461815 0.3997114498 -0.1528905305 0.3992415868 -0.1524075136 -0.2688331249 0.1162394663
190298860.0 -0.2557426001 0.1173302048 0.3974175113 -0.157574222 0.3976709132 -0.1572783706 -0.2680184581 0.1189804911
195298830.0 -0.2545853485 0.1195544311 0.3959767579 -0.1614148177 0.3960793543 -0.1621437236 -0.2672187382 0.1218289496
200298800.0 -0.2537080425 0.1220668178 0.3942592918 -0.1668052891 0.3941347589 -0.166748153 -0.2656944619 0.1243788755
205298770.0 -0.2528803704 0.1245315967 0.3923147177 -0.1705671212 0.3924240278 -0.1710351581 -0.2646207755 0.1272917103
210298740.0 -0.2515587242 0.1273400499 0.3906531365 -0.1757081382 0.3905067699 -0.175783703 -0.2638244268 0.1298591295
215298710.0 -0.250299698 0.1302161546 0.3885086532 -0.180090803 0.3886880967 -0.1802701773 -0.2623344631 0.1326557296
220298680.0 -0.2490477903 0.1325495354 0.3864291224 -0.1846352412 0.3868228742 -0.1848317247 -0.2613483837 0.135167358
225298650.0 -0.247827163 0.1352881724 0.3842483023 -0.1888939811 0.3849517303 -0.1885824931 -0.260277394 0.1377660813
230298620.0 -0.2466215678 0.1379996701 0.3828017726 -0.1934790963 0.3831162587 -0.1935050701 -0.2591589153 0.1404503759
235298590.0 -0.2456320355 0.1408648623 0.3805945548 -0.1982359752 0.380765556 -0.1978332445 -0.2575155099 0.1433858898
240298560.0 -0.2440502361 0.1433210191 0.3782237506 -0.2019931329 0.3784412309 -0.2021814607 -0.2562371721 0.1455573216
245298530.0 -0.2428197043 0.1456539373 0.3761120534 -0.2063737711 0.3761244867 -0.2066277487 -0.2547881772 0.1486462
250298500.0 -0.2414374895 0.1484864984 0.3739100415 -0.2108134038 0.3741511382 -0.2105022108 -0.2534887223 0.1516225279
255298470.0 -0.2401748292 0.1512562063 0.3718601462 -0.2146990369 0.372364406 -0.2150494022 -0.2523161942 0.1540069896
260298440.0 -0.2388350402 0.1535130057 0.3696351188 -0.2186660845 0.3697713051 -0.2190751069 -0.2511248172 0.1564960933
265298410.0 -0.2373186588 0.1565217132 0.3668835357 -0.2234690949 0.3670356022 -0.2237148464 -0.2490232346 0.1593897251
270298380.0 -0.2359712279 0.1587869904 0.3641789703 -0.2273259108 0.3644468743 -0.2276916393 -0.2473450226 0.1621096811
275298350.0 -0.2343758889 0.1619193831 0.3613343255 -0.2315261143 0.3615406129 -0.2316180061 -0.2459621641 0.1648746213
280298320.0 -0.2331569244 0.1639883727 0.35933853 -0.2353338469 0.359670583 -0.2358313626 -0.2445277836 0.1673483039
285298290.0 -0.2315680208 0.1668223826 0.3566648186 -0.2395001593 0.3571848193 -0.2395968736 -0.2432086934 0.1704656792
290298260.0 -0.2298511178 0.1694152051 0.3545753686 -0.2434956085 0.3543357295 -0.2440117348 -0.2412601888 0.1729459527
295298230.0 -0.2284881283 0.1714067738 0.3513826096 -0.247830774 0.3519412468 -0.2478730581 -0.2394271776 0.1749939711
300298200.0 -0.2267252842 0.1742267678 0.3490037781 -0.251798025 0.3491118806 -0.2515310027 -0.2378562022 0.1778461203
305298170.0 -0.2252718322 0.176494815 0.3462878108 -0.2557517672 0.3463277402 -0.2558478847 -0.2358547192 0.1803486961
310298140.0 -0.2232844187 0.1789874844 0.3433287541 -0.2597001898 0.3437296181 -0.2594765581 -0.2343008995 0.1830048176
315298110.0 -0.2219439728 0.1811801138 0.3405242207 -0.263581377 0.3404900893 -0.2637171638 -0.2321711424 0.1853162852
320298080.0 -0.2198266996 0.1839767692 0.3371985649 -0.2675897161 0.337727384 -0.2676338905 -0.2305682862 0.1878539787
325298050.0 -0.2185863266 0.1857735231 0.3343512473 -0.270993049 0.3348448209 -0.2712767006 -0.2283638101 0.1900308985
330298020.0 -0.2168581492 0.188487675 0.3312475418 -0.2749889418 0.3317795698 -0.2750509105 -0.2272147105 0.1925150448
335297990.0 -0.2153634132 0.1907068993 0.3282085882 -0.2785444999 0.328499541 -0.2788354931 -0.2251527838 0.1951966405
340297960.0 -0.2134304536 0.1932283007 0.3248844289 -0.2824411442 0.3250460918 -0.2823760278 -0.2230683827 0.1979488643
345297930.0 -0.2116031874 0.1955876493 0.3218737542 -0.2862596353 0.3221470934 -0.2859853381 -0.2213364115 0.2004450916
350297900.0 -0.2101003633 0.197880728 0.3190008398 -0.2894204303 0.3187367779 -0.2892127595 -0.2193578589 0.2026074855
355297870.0 -0.2083529298 0.2001896816 0.3155522003 -0.2924301438 0.3158623036 -0.292853528 -0.217495952 0.2052857313
360297840.0 -0.2062303368 0.2025761406 0.3121146045 -0.2960955754 0.3124472309 -0.2964017961 -0.2151702065 0.2077610123
365297810.0 -0.2044724 0.2052158553 0.3087957197 -0.2997758651 0.309218621 -0.2997172424 -0.2133538186 0.2100314546
370297780.0 -0.2025230715 0.2071160207 0.3050364905 -0.3032000895 0.3059208891 -0.3033563641 -0.2111297974 0.2124718285
375297750.0 -0.2004511919 0.2097369967 0.3024307215 -0.306456282 0.3022180936 -0.3066271522 -0.2085372232 0.2148955985
380297720.0 -0.1988222336 0.2121899777 0.2991843508 -0.3097963869 0.2988609644 -0.3100933236 -0.2068281468 0.217479603
385297690.0 -0.1964710285 0.2142195335 0.2953231519 -0.3130190391 0.2955855967 -0.3135901944 -0.2045016775 0.2200216827
390297660.0 -0.1939471204 0.2162058043 0.2918730798 -0.3159108163 0.292393824 -0.3163160617 -0.2021310898 0.2219220107
395297630.0 -0.19181252 0.2183479639 0.2882782013 -0.3190979256 0.2883034784 -0.3193283649 -0.1999758832 0.223927793
400297600.0 -0.1901379141 0.2205270435 0.284896659 -0.3227149234 0.2854023899 -0.3227213248 -0.1976362935 0.2267529091
405297570.0 -0.1879854846 0.2222926464 0.2813656822 -0.3251958317 0.2816417761 -0.3257957588 -0.1950036899 0.2289926609
410297540.0 -0.185587868 0.2246998198 0.278072316 -0.3290256456 0.2780392634 -0.3284656753 -0.1927001372 0.2313843547
415297510.0 -0.1833904883 0.2268964879 0.2740506317 -0.3316766268 0.274805633 -0.3318180202 -0.1902971228 0.2334409706
420297480.0 -0.1811994402 0.2283529594 0.2702608257 -0.3344768351 0.2709710209 -0.3348012188 -0.1879183092 0.2357122692
425297450.0 -0.1785262676 0.2304653326 0.266996564 -0.3375682597 0.2668554457 -0.3376416507 -0.1859225882 0.2370969501
430297420.0 -0.1763589182 0.2325854029 0.2630792112 -0.3405074097 0.2635170538 -0.3402549392 -0.1828956998 0.2399320815
435297390.0 -0.1739032237 0.2346003053 0.259131132 -0.3435527046 0.2591984057 -0.3433762383 -0.1808401709 0.2423498952
440297360.0 -0.1713303843 0.2366441486 0.2552809507 -0.3460947767 0.2554597868 -0.3461611691 -0.1778862916 0.243787715
445297330.0 -0.1690306312 0.2382670855 0.251731956 -0.348747938 0.2518839945 -0.3493318904 -0.1753332702 0.2461935821
450297300.0 -0.1666080362 0.2402048867 0.2477328293 -0.3515645724 0.2483305907 -0.3515617298 -0.1727042641 0.2481162926
455297270.0 -0.1645615968 0.2420217015 0.2441466786 -0.3543446727 0.244033152 -0.3545599229 -0.1701911977 0.2502148362
460297240.0 -0.1614097399 0.2440342862 0.2402513614 -0.3572801726 0.2402827677 -0.3571274129 -0.1677142627 0.2520393633
465297210.0 -0.15909219 0.2458996897 0.2360046318 -0.3597359082 0.2359285296 -0.3599341371 -0.1649450548 0.2542609531
470297180.0 -0.1565945922 0.2476025684 0.2319555316 -0.3619268048 0.2324393766 -0.3620804773 -0.1623259264 0.2557236795
475297150.0 -0.1538964648 0.2498027349 0.2280170818 -0.3646877173 0.2283484545 -0.3648758256 -0.1594592927 0.2578027717
480297120.0 -0.1509741174 0.2515772978 0.2240585305 -0.3672170685 0.2239649352 -0.3672182059 -0.157028582 0.2596856342
485297090.0 -0.1485843821 0.2528108915 0.2201738508 -0.3695219864 0.2201145812 -0.3695853043 -0.1543699424 0.2615109171
490297060.0 -0.1453582025 0.2547206523 0.2158430992 -0.3720243113 0.2160516907 -0.3721764088 -0.1514574619 0.2630493905
495297030.0 -0.1430058892 0.2560038534 0.2119583477 -0.3743699909 0.2119424257 -0.3743318208 -0.1483775042 0.2645665344
500297000.0 -0.1404804725 0.2579440257 0.2079230889 -0.3764988281 0.2078537912 -0.3765429629 -0.1458693676 0.2666155894
505296970.0 -0.137078366 0.2596115946 0.2032742379 -0.3790379437 0.2037275028 -0.3786108772 -0.143208785 0.2680240204
510296940.0 -0.1344688588 0.2609944308 0.1995732949 -0.3816166896 0.1999848508 -0.3812279252 -0.1400772685 0.2701329979
515296910.0 -0.1317133839 0.2627471934 0.1950267644 -0.3831369544 0.1947873997 -0.3828928663 -0.1370148112 0.2713726896
520296880.0 -0.1285740805 0.2641384937 0.1909750434 -0.3846812482 0.1907918906 -0.3850341076 -0.1340217399 0.2733615039
525296850.0 -0.1260100842 0.2655998238 0.1865346692 -0.3871735994 0.186534942 -0.387217987 -0.1313654023 0.2747574595
530296820.0 -0.1233632128 0.2670441532 0.1825912619 -0.3891858757 0.1822218347 -0.3890258441 -0.1280773205 0.276098442
535296790.0 -0.1200589591 0.2684827765 0.1783293217 -0.3909521208 0.1782434554 -0.391184273 -0.1252804939 0.2777292013
540296760.0 -0.1172157973 0.2701449328 0.1735082223 -0.3930633716 0.1736947892 -0.3927280817 -0.1224456319 0.2790494606
545296730.0 -0.1146298519 0.2717942923 0.169596435 -0.3945094296 0.1694248074 -0.3945913399 -0.119367665 0.2805588899
550296700.0 -0.1112538142 0.2728988334 0.1652658572 -0.3966163763 0.1646611562 -0.3967531995 -0.1164897825 0.2820845175
555296670.0 -0.108398536 0.274342285 0.1608849936 -0.3984328289 0.1607982459 -0.3983077689 -0.113684551 0.2829747988
560296640.0 -0.1051962094 0.2754882394 0.1562056097 -0.3997926594 0.156639707 -0.4001450393 -0.1104623136 0.2846636578
565296610.0 -0.1027722704 0.2769382753 0.1525900749 -0.4018419748 0.151962178 -0.4015422972 -0.1073806086 0.2860052479
570296580.0 -0.0995025805 0.2784793046 0.1477387918 -0.4033000617 0.1475823806 -0.4031723612 -0.1045257296 0.2872336466
575296550.0 -0.0961060169 0.2791356505 0.143382873 -0.4048413221 0.1429298051 -0.4048412769 -0.101252534 0.2883226561
580296520.0 -0.0934247181 0.2807090557 0.1388028731 -0.4060910637 0.1389278227 -0.4064886708 -0.0986693372 0.2892553527
585296490.0 -0.0902369123 0.2819477459 0.1346233893 -0.4080488321 0.1338247709 -0.4077100817 -0.0953178915 0.291271506
590296460.0 -0.0868272179 0.2830140915 0.1301339137 -0.4092023517 0.1299192332 -0.4093821148 -0.092371699 0.2920572038
595296430.0 -0.0838710476 0.284065993 0.1251498162 -0.4103526856 0.1252134445 -0.4103660794 -0.0891943579 0.2929071528
600296400.0 -0.0806849949 0.2854009967 0.1205784018 -0.4116925941 0.1206440769 -0.4115447365 -0.0858759012 0.2938141233
605296370.0 -0.077868548 0.2862729944 0.1169236951 -0.4127912927 0.1162499373 -0.41304148 -0.0830389339 0.295282088
610296340.0 -0.0747502899 0.2878095072 0.1120785028 -0.4137070484 0.1120391396 -0.4142048387 -0.0802148674 0.2965637117
615296310.0 -0.071222024 0.2885200425 0.1070752677 -0.4154682191 0.1068928749 -0.4153352301 -0.0762081161 0.2971962014
620296280.0 -0.068712098 0.2897009129 0.102926584 -0.4166003421 0.1025916538 -0.4163308208 -0.0737193638 0.2982018417
625296250.0 -0.0657742645 0.2906554852 0.0984445451 -0.4175854052 0.0985323847 -0.4175839854 -0.0705332 0.2986428269
630296220.0 -0.0620498495 0.291517414 0.0932968912 -0.418449204 0.0934038746 -0.4183190221 -0.067361508 0.2997843183
635296190.0 -0.0592515684 0.2927064839 0.0890675846 -0.4192295857 0.089051957 -0.4193275545 -0.0640554506 0.3005254966
640296160.0 -0.0561323302 0.2933408159 0.0849455149 -0.4204181358 0.0845072641 -0.4205147462 -0.0609138352 0.3013132405
645296130.0 -0.0530697515 0.2944858641 0.0801218298 -0.4213181913 0.0797244111 -0.421311133 -0.0580793964 0.3020438105
650296100.0 -0.0498990207 0.2949754726 0.0754050402 -0.422414636 0.0750491905 -0.4221282591 -0.0542536006 0.302927377
655296070.0 -0.0466522488 0.2956893401 0.070818866 -0.4226167512 0.0707264476 -0.4224705478 -0.051779871 0.3040307786
660296040.0 -0.0435857901 0.2965335508 0.0665842009 -0.4237270985 0.0662931532 -0.423642761 -0.0479660011 0.3040587493
665296010.0 -0.0404191539 0.2974832285 0.061169465 -0.4237215793 0.0613439721 -0.423966702 -0.0451486088 0.3049455383
670295980.0 -0.0372170576 0.2982625894 0.0566542466 -0.424997029 0.0566798827 -0.4242007068 -0.042146938 0.3054336279
675295950.0 -0.0340725839 0.2985485894 0.0524993131 -0.4251750108 0.0522122673 -0.4252318779 -0.0387519832 0.3062506687
680295920.0 -0.0310979743 0.2995749587 0.0479412925 -0.4251511628 0.047679935 -0.4252891684 -0.0351698718 0.3062923761
685295890.0 -0.027781524 0.2999477024 0.0430409972 -0.4262089205 0.0427737513 -0.4263477902 -0.0321495484 0.3073579676
690295860.0 -0.0247996075 0.300516348 0.0386599365 -0.4263945146 0.0383328327 -0.4265485525 -0.0289744295 0.3075875461
695295830.0 -0.0215554977 0.3010423287 0.0342520762 -0.4269604148 0.0337602927 -0.4269339773 -0.0259934212 0.3082559426
700295800.0 -0.0183274111 0.3017250185 0.0298396998 -0.4272873788 0.0293153372 -0.4273877861 -0.0222665709 0.3082606834
705295770.0 -0.0155337573 0.3023002227 0.0245161751 -0.4278048114 0.024578752 -0.4275072472 -0.0194325969 0.309385197
710295740.0 -0.0126223661 0.3022762901 0.0205330278 -0.4272877871 0.0200105289 -0.4277345295 -0.0158009674 0.3096404641
715295710.0 -0.0092415308 0.3029280276 0.0156180153 -0.4280857512 0.0151745805 -0.4280590876 -0.0127795086 0.3093843387
720295680.0 -0.0056508645 0.3032427992 0.0107064336 -0.4279851703 0.0105108632 -0.428232341 -0.0095096773 0.3099491046
725295650.0 -0.0032222463 0.3037625347 0.0067770104 -0.4278543348 0.0063946888 -0.4282134715 -0.0064580159 0.3103999913
730295620.0 -0.0003519815 0.3039664247 0.0019432414 -0.4278689432 0.0014982821 -0.4278145145 -0.0034212647 0.3108157422
735295590.0 0.0029931152 0.3043914808 -0.0030534484 -0.4280743304 -0.0029670237 -0.4280884011 0.000249701 0.3103306933
740295560.0 0.0059396498 0.3041285054 -0.0073544609 -0.4279823857 -0.0075712695 -0.428167665 0.0035905016 0.3108632608
745295530.0 0.0090300987 0.3047020278 -0.0117122748 -0.4273291848 -0.0117105261 -0.4277881841 0.0061203312 0.3110908999
750295500.0 0.0121555265 0.3047788081 -0.0163135248 -0.4274540469 -0.0168774309 -0.427451398 0.0098368267 0.3109614619
755295470.0 0.0150131956 0.3049611783 -0.0208436139 -0.4276345994 -0.0214402874 -0.4276120811 0.0131852748 0.3113015823
760295440.0 0.0180993178 0.3054663484 -0.0260173259 -0.4269642334 -0.0259549871 -0.4267994524 0.016408023 0.3107584964
765295410.0 0.021660052 0.30492258 -0.0303663468 -0.4265732852 -0.0304059787 -0.4265702553 0.0195427704 0.3107971045
770295380.0 0.0245482332 0.3050226953 -0.0350220043 -0.4259871861 -0.0349850692 -0.4266386641 0.0227470891 0.3109485059
775295350.0 0.0277808231 0.3050802919 -0.0396379408 -0.4259327471 -0.0397069487 -0.4256871028 0.0260439679 0.3106858995
780295320.0 0.0307692393 0.3048122031 -0.0439834209 -0.4249173442 -0.0442088803 -0.4252131217 0.0296197158 0.3106426981
785295290.0 0.0335632159 0.3046607756 -0.0486548821 -0.4248325884 -0.0490179639 -0.4251399522 0.0321682874 0.3104131366
790295260.0 0.0369048894 0.3044425507 -0.0535441048 -0.4240640737 -0.0534227932 -0.4244653379 0.0356937658 0.3105773769
795295230.0 0.039921468 0.3044151448 -0.0578933657 -0.4237738115 -0.0581088167 -0.4240732156 0.0391044969 0.3098652662
800295200.0 0.0429792727 0.3043002451 -0.0619743297 -0.4226242082 -0.0623838193 -0.4231127641 0.0421734104 0.3095934386
805295170.0 0.0456181606 0.304192789 -0.0666270355 -0.422334931 -0.0668867427 -0.42248268 0.0458716651 0.3091711152
810295140.0 0.0491385733 0.3041113521 -0.0714758046 -0.4216119199 -0.0717080336 -0.421440272 0.0491524086 0.3090711306
815295110.0 0.0517930646 0.3034008325 -0.076010721 -0.4206622455 -0.0758783809 -0.4210747902 0.0519620535 0.3091968871
820295080.0 0.0548347731 0.303370801 -0.0802803856 -0.4195494063 -0.080412972 -0.420086302 0.0548353636 0.3089997805
825295050.0 0.0577539987 0.3026251249 -0.0848524546 -0.4193010998 -0.08522249 -0.4191785255 0.0585786843 0.3080022988
830295020.0 0.0607954219 0.3022207668 -0.0892837418 -0.4178513624 -0.0895316875 -0.4180314024 0.0614301095 0.3072849206
