!Created with skrf (http://scikit-rf.org).
# Hz S RI R 50.0 
!freq ReS11 ImS11 ReS21 ImS21 ReS12 ImS12 ReS22 ImS22
300000.0 -0.2434911134 -0.08342254 0.474772586 0.05531457 0.4729674498 0.0513250983 -0.2436755188 -0.0909351257
5299970.0 -0.2450941107 0.0067395758 0.474845967 0.0049002263 0.4750057498 0.0050765693 -0.2415499222 0.0076141999
10299940.0 -0.2420436862 0.0180523789 0.4769514318 0.0059778735 0.4768343992 0.0060294334 -0.2379559963 0.0205237113
15299910.0 -0.2376653561 0.0267810316 0.4803151554 0.0073944467 0.480809613 0.0073900688 -0.2334454002 0.0300866962
20299880.0 -0.2329466603 0.034028356 0.4851537948 0.0082641718 0.4852557183 0.0081053595 -0.228183224 0.0380614163
25299850.0 -0.2281366731 0.0402452892 0.4903135304 0.0071947136 0.4901447655 0.0075310208 -0.2225270259 0.0446330687
30299820.0 -0.2226335139 0.0452896845 0.4957784425 0.0047334193 0.4954972197 0.0051179566 -0.216370129 0.0500218551
35299790.0 -0.2174863175 0.0490907511 0.5005751638 0.0014191892 0.5008330282 0.0018919984 -0.2108493839 0.0546855174
40299760.0 -0.2129041013 0.0523138684 0.5060975166 -0.00219069 0.506068165 -0.0022676609 -0.2054295742 0.0571907532
45299730.0 -0.2078796242 0.0545218329 0.5099923599 -0.0067005854 0.5109393053 -0.0069313646 -0.2003008693 0.0599987698
50299700.0 -0.2037609139 0.0565882378 0.5150096832 -0.0127474835 0.5150004013 -0.0123641541 -0.1957168848 0.0622146534
55299670.0 -0.1998111015 0.0582870827 0.5185080821 -0.0189107745 0.5188378064 -0.0184124021 -0.1914246131 0.0641882554
60299640.0 -0.1957484963 0.0598156365 0.5216692948 -0.0249758735 0.5221113929 -0.0246638147 -0.1874201922 0.0652310267
65299610.0 -0.1929042053 0.0610622467 0.5248736067 -0.0313741875 0.5250617975 -0.0309667425 -0.1840529521 0.0663842981
70299580.0 -0.1898360318 0.0619408222 0.5270444551 -0.0379601227 0.5272041227 -0.037578341 -0.1806022423 0.0677071497
75299550.0 -0.186968977 0.0630701285 0.5290220656 -0.0446144878 0.5289509484 -0.0446434749 -0.1777715734 0.0683379258
80299520.0 -0.1848031938 0.0636906638 0.5310713191 -0.0516255483 0.5310669233 -0.0510522065 -0.1750330488 0.0689799568
85299490.0 -0.1823036822 0.0642558904 0.5319584254 -0.058213218 0.5323582069 -0.0576483436 -0.1729329325 0.0693868409
90299460.0 -0.1805157507 0.064757796 0.533114717 -0.0652611996 0.5335968924 -0.0655049508 -0.1703597568 0.0706358407
95299430.0 -0.1781252302 0.0651641809 0.5343096349 -0.0719161361 0.5341756557 -0.0724001585 -0.1679389027 0.0713482502
100299400.0 -0.1765573515 0.0662089974 0.5338803172 -0.0791261428 0.5341158761 -0.0787264439 -0.1659646211 0.0714848493
105299370.0 -0.1749780043 0.0670242809 0.534608668 -0.0861915036 0.5349675294 -0.0857709695 -0.1639498376 0.0725672268
110299340.0 -0.1734987074 0.0674867253 0.5351713627 -0.0926253164 0.5346509803 -0.0925475743 -0.1629374521 0.0734263896
115299310.0 -0.1720780918 0.0679004731 0.5349529921 -0.0995081721 0.5348598727 -0.0992987498 -0.1612080219 0.0739996241
120299280.0 -0.1706103695 0.0684052448 0.5345014822 -0.1063954681 0.534671821 -0.1062034595 -0.1596028055 0.0746799357
125299250.0 -0.1697088621 0.0692574807 0.534239454 -0.1129238088 0.5345080708 -0.1126417058 -0.1587733185 0.0752311377
130299220.0 -0.1687663842 0.0704450874 0.5333452729 -0.1200672151 0.5337068567 -0.119556124 -0.1571402093 0.0760189014
135299190.0 -0.1676689409 0.0709801873 0.5331290348 -0.1260851316 0.5331751046 -0.126115545 -0.1557338204 0.0769844263
140299160.0 -0.1668023778 0.0720209209 0.5323231058 -0.1335543551 0.5324016521 -0.1330468777 -0.1548175411 0.0781779279
145299130.0 -0.1655706421 0.0728042497 0.5314583248 -0.1396126319 0.5313568391 -0.1392760451 -0.1537877235 0.078983466
150299100.0 -0.1646435639 0.073963622 0.5302205866 -0.1456064448 0.5301883826 -0.1456585007 -0.1526079742 0.0806872133
155299070.0 -0.1640728255 0.0746078644 0.5290670482 -0.1530017325 0.5288155944 -0.1526129124 -0.1515226441 0.0816530174
160299040.0 -0.1630310713 0.0758983586 0.5273638559 -0.1589476727 0.5271366616 -0.159203959 -0.1510918575 0.0825907027
165299010.0 -0.1621393 0.0770173354 0.5259238347 -0.1660198711 0.5262443489 -0.165474587 -0.1498380562 0.0839110736
170298980.0 -0.1615661071 0.0778502112 0.5242696329 -0.1716520349 0.5246386925 -0.1717317008 -0.1485827936 0.0846709144
175298950.0 -0.160852775 0.0790193873 0.5234270698 -0.1784696198 0.5226980425 -0.1781381424 -0.1478688522 0.0861184003
180298920.0 -0.1601726064 0.0800820824 0.5212792878 -0.1841742206 0.5212661017 -0.1840605163 -0.1470389692 0.0875097026
185298890.0 -0.1589628031 0.0808625758 0.5196700297 -0.1905481577 0.5192517336 -0.1903313633 -0.1459157756 0.0886002982
190298860.0 -0.1584493154 0.082460668 0.517310395 -0.1968208729 0.5177895814 -0.1968677546 -0.1448060738 0.08967785
195298830.0 -0.1576566547 0.0835079951 0.5151238945 -0.2031058839 0.5153215467 -0.2027465667 -0.1439864547 0.0911010731
200298800.0 -0.1568280195 0.0846474033 0.5130889623 -0.2090170699 0.5134983837 -0.2087412462 -0.1434835105 0.0920927737
205298770.0 -0.1561992451 0.0861175483 0.5108058093 -0.2151693415 0.510805842 -0.2150740046 -0.1421691828 0.0929039194
210298740.0 -0.155386514 0.0869454851 0.5086065452 -0.2206796091 0.5088546542 -0.2207336893 -0.1407471176 0.0950335403
215298710.0 -0.1550227985 0.0883791293 0.5064210017 -0.2269993332 0.5064180757 -0.2269439098 -0.1403163686 0.096208584
220298680.0 -0.1539812678 0.0892120116 0.5038704434 -0.2324307782 0.5039829499 -0.2326595363 -0.139769051 0.0972575393
225298650.0 -0.1531357923 0.0906994407 0.5016497271 -0.2389357225 0.5017161324 -0.2385914021 -0.1387483343 0.098385931
230298620.0 -0.1527707276 0.0922785035 0.4995114268 -0.2443291854 0.4996959067 -0.2443978726 -0.1381855862 0.0999832736
235298590.0 -0.1517723034 0.0939528422 0.4965833413 -0.2505365556 0.4965762885 -0.2499223082 -0.1366872377 0.101643402
240298560.0 -0.1512139853 0.0949105563 0.4941782129 -0.2563962275 0.4941699296 -0.2558823436 -0.1359493928 0.1030358688
245298530.0 -0.1502698201 0.0960507556 0.4915687848 -0.2612895103 0.4910026909 -0.2619351954 -0.1346320052 0.1040258509
250298500.0 -0.1492044171 0.0974706442 0.4875945649 -0.2673427912 0.487696117 -0.2669607523 -0.1336947032 0.1054564427
255298470.0 -0.1487133607 0.0986928733 0.4847882101 -0.272281239 0.4851137362 -0.2726707447 -0.1325744669 0.1068213428
260298440.0 -0.148138063 0.1001373988 0.4821150187 -0.278726392 0.4825175671 -0.2781087285 -0.1312518576 0.1083595939
265298410.0 -0.1466519616 0.1017890137 0.479040745 -0.284225539 0.4795224505 -0.2834551799 -0.1306353611 0.1096858642
270298380.0 -0.1462757981 0.1030950894 0.4763400037 -0.2888944742 0.4766145341 -0.2894356635 -0.1296794699 0.1110854515
275298350.0 -0.1450103745 0.1043694175 0.4731876516 -0.2947228256 0.4734207297 -0.2946713245 -0.1282556519 0.1123956368
280298320.0 -0.1440614524 0.1061247789 0.4700893309 -0.300580501 0.4701177846 -0.2994812715 -0.1268023867 0.1137725046
285298290.0 -0.1432905717 0.1073202941 0.467113509 -0.3055136875 0.4663762683 -0.3053070952 -0.1258802338 0.1150351599
290298260.0 -0.1420627514 0.1085106923 0.4632841202 -0.3106461078 0.4633564776 -0.3104651183 -0.1244336569 0.1167684256
295298230.0 -0.1409441228 0.1094331615 0.4598870863 -0.3155841958 0.4599607379 -0.3157734749 -0.1225756266 0.117988809
300298200.0 -0.1405006108 0.1110845118 0.4569276874 -0.320899653 0.4568590652 -0.3208138966 -0.1218303235 0.1194133843
305298170.0 -0.1391531169 0.1120008816 0.4528474583 -0.3263713636 0.4533551971 -0.326107696 -0.1201511522 0.1204496353
310298140.0 -0.1380676819 0.1137584199 0.4500022731 -0.3314643768 0.4497484217 -0.3313379085 -0.1191341712 0.1218604609
315298110.0 -0.1370080586 0.114496317 0.4456677395 -0.3362734917 0.4462849323 -0.3368332661 -0.1178456526 0.1229032478
320298080.0 -0.1361210691 0.1160353615 0.4416986074 -0.3420606297 0.4424546572 -0.3419442707 -0.1165447356 0.1245308577
325298050.0 -0.1352507021 0.1171253834 0.4383612538 -0.3470003395 0.4381909779 -0.3467283862 -0.1159408637 0.1255216726
330298020.0 -0.1343514613 0.118521604 0.4339482371 -0.3517963677 0.4346719636 -0.3518145362 -0.1146832772 0.1269859222
335297990.0 -0.1334868131 0.119429679 0.4300478331 -0.3567703033 0.4298959335 -0.3563697598 -0.1136953562 0.1287677408
340297960.0 -0.1327722544 0.1210574787 0.4257670752 -0.3614847468 0.4256716222 -0.3611113796 -0.1119019476 0.1297854161
345297930.0 -0.1314794723 0.1227763172 0.4219231387 -0.3662427004 0.4217764961 -0.3664011247 -0.1108757603 0.1309874453
350297900.0 -0.130553884 0.1238403202 0.4174531302 -0.3708621238 0.4177615175 -0.3705667792 -0.1098988435 0.1328266297
355297870.0 -0.1292261803 0.1259634309 0.4133259539 -0.3752978869 0.4139316145 -0.3753016091 -0.108341516 0.1338357681
360297840.0 -0.1281197131 0.1266718279 0.4101048066 -0.3794460713 0.4101899697 -0.3798389099 -0.1071961978 0.1354582988
365297810.0 -0.1272244683 0.1284730596 0.4056768183 -0.3844565246 0.4054664668 -0.3847249534 -0.1053965534 0.136533286
370297780.0 -0.125845759 0.12951741 0.4009450565 -0.3885572983 0.4014787933 -0.3885577323 -0.104200957 0.1379278051
375297750.0 -0.124375751 0.1309723703 0.3967321266 -0.3933676813 0.3972757567 -0.3932330795 -0.1024986301 0.1390555663
380297720.0 -0.1236789013 0.1321269584 0.3924281824 -0.3979989703 0.3928151068 -0.3969306246 -0.1011552809 0.1403045857
385297690.0 -0.1224109618 0.133597324 0.3878620189 -0.4018020193 0.3879553566 -0.4016990341 -0.0996593065 0.1417596467
390297660.0 -0.1211366684 0.1350671777 0.383899263 -0.4065708914 0.383720816 -0.405707523 -0.0987021856 0.1429045412
395297630.0 -0.1198221031 0.1361660061 0.3791875352 -0.4103922702 0.3790392052 -0.4104261755 -0.0961767172 0.1444436992
400297600.0 -0.1186385931 0.1376391838 0.374259181 -0.4144430997 0.3745734187 -0.4141172938 -0.0948246712 0.14528591
405297570.0 -0.1177368043 0.1386636401 0.3700632056 -0.4182293667 0.3702044051 -0.4178907223 -0.0937580804 0.1466521855
410297540.0 -0.1160561295 0.1400266676 0.3656483719 -0.4224442842 0.3660000026 -0.4224814257 -0.0921599606 0.1482205767
415297510.0 -0.1146771409 0.1412601738 0.3604341122 -0.4266644437 0.3608520538 -0.4266865547 -0.0904713664 0.1492931713
420297480.0 -0.1133899808 0.1425774161 0.3558941311 -0.430447833 0.3559265845 -0.4305024685 -0.0889106775 0.1503626914
425297450.0 -0.1120760487 0.1432215529 0.3518082874 -0.4340511487 0.3521038239 -0.4342451641 -0.0876782106 0.1516879747
430297420.0 -0.1107477171 0.1447156827 0.3462484261 -0.4376973441 0.3469147778 -0.4377787416 -0.0860881731 0.1523309413
435297390.0 -0.1096337483 0.1459776764 0.3416935019 -0.441637741 0.3412294497 -0.4420815276 -0.0834655647 0.1536442918
440297360.0 -0.1079693819 0.1474047679 0.3367236433 -0.445401641 0.3370560699 -0.4453297349 -0.082280341 0.1546147826
445297330.0 -0.1068776335 0.1483037398 0.332260937 -0.4489956497 0.3321144422 -0.4487792513 -0.0806284871 0.155459407
450297300.0 -0.1048406582 0.1494584743 0.3272192861 -0.4526514682 0.3273568825 -0.453001073 -0.0791504277 0.1563211259
455297270.0 -0.1039114075 0.1506640758 0.3218927093 -0.4563773259 0.3226651099 -0.4565520132 -0.0773804066 0.1577310053
460297240.0 -0.1025349084 0.1520403303 0.317209507 -0.4596052439 0.3173175847 -0.4597143322 -0.0754394967 0.1587377365
465297210.0 -0.1007579711 0.1530458988 0.3122323804 -0.4629759559 0.3123048518 -0.4636251481 -0.0736690021 0.1593982301
470297180.0 -0.0994197139 0.1538753537 0.3070165234 -0.4662911736 0.3071243869 -0.466665198 -0.0717430581 0.1609029057
475297150.0 -0.0978504077 0.1549626177 0.3015518827 -0.4692373406 0.3023628488 -0.4694018202 -0.0700514374 0.1612985089
480297120.0 -0.0964966138 0.1564133613 0.2965207126 -0.4731633226 0.2967895832 -0.4733644258 -0.0678965289 0.1625400986
485297090.0 -0.0950239954 0.1573238706 0.2916138146 -0.4758093624 0.2917731435 -0.4760144818 -0.0664451375 0.1633161291
490297060.0 -0.0938759259 0.1584237559 0.2870538291 -0.4796594125 0.2866594099 -0.4792591782 -0.0645250393 0.1641552643
495297030.0 -0.0919526166 0.1595596035 0.2813278411 -0.4822609479 0.2817403067 -0.482307945 -0.063238322 0.165227445
500297000.0 -0.090379618 0.1605218748 0.2757551916 -0.4847627009 0.2758359201 -0.4848526114 -0.0610629628 0.1664880975
505296970.0 -0.088731191 0.1614563524 0.2706017696 -0.4882542117 0.2705112389 -0.4885256376 -0.0593604122 0.1669287644
510296940.0 -0.0875192549 0.1625746789 0.2648731229 -0.4914294235 0.2650919318 -0.4914805726 -0.0571757712 0.1676842689
515296910.0 -0.0854544236 0.1637132425 0.2599354346 -0.4941300796 0.2598289977 -0.4941967633 -0.0553248813 0.1684680702
520296880.0 -0.0842167211 0.1643459887 0.2546580592 -0.4972283295 0.2545880911 -0.4967098344 -0.0536377151 0.1691548673
525296850.0 -0.0824873867 0.1648867729 0.2487593999 -0.4994367319 0.2492404799 -0.4994237468 -0.0519264926 0.1700187216
530296820.0 -0.0807124474 0.1665105552 0.2434024098 -0.5029063286 0.243808225 -0.5022002652 -0.0497597717 0.1706981696
535296790.0 -0.0797690102 0.16732238 0.2383275462 -0.5044839419 0.238633541 -0.5044776748 -0.0481339128 0.1709589972
540296760.0 -0.077969494 0.1681761769 0.2327504344 -0.5075894631 0.2327398478 -0.5074401641 -0.0466886749 0.1724355759
545296730.0 -0.0762234433 0.169293504 0.2268554234 -0.5096543589 0.227283194 -0.5100336088 -0.044675297 0.1727261013
550296700.0 -0.0743264473 0.169961563 0.2214047204 -0.5121167174 0.2220055733 -0.5125015532 -0.043038527 0.1735869673
555296670.0 -0.0729661237 0.1706521838 0.2160899924 -0.5142717855 0.2161840852 -0.5147304469 -0.0406051439 0.1744608177
560296640.0 -0.0710340157 0.1717587412 0.2101446771 -0.5171222183 0.2106732615 -0.5170424939 -0.038728458 0.1747008196
565296610.0 -0.0697636441 0.1724076015 0.2044301149 -0.5195683594 0.2049999625 -0.5188463738 -0.036832659 0.1748724755
570296580.0 -0.0685139193 0.1731646173 0.1993469624 -0.5220689914 0.1987018243 -0.5215155486 -0.0349833059 0.1761710062
575296550.0 -0.0663112607 0.1744053204 0.1932352428 -0.5235124698 0.1936096428 -0.5239399388 -0.0329947244 0.1765413395
580296520.0 -0.0644290597 0.1749322799 0.1873769843 -0.5255942754 0.1880198257 -0.5255105117 -0.0307841344 0.1766315426
585296490.0 -0.0633578109 0.17536439 0.1823933142 -0.5273978945 0.1825021916 -0.5272506985 -0.0290144222 0.177449123
590296460.0 -0.0611244371 0.1763147131 0.1764527734 -0.5290767807 0.1769954041 -0.5290612387 -0.0276587334 0.1778055259
595296430.0 -0.0594316218 0.1770634241 0.1697988503 -0.531270202 0.1706448428 -0.5310643261 -0.0250986605 0.1778600629
600296400.0 -0.0580758362 0.1774482076 0.1652389285 -0.5330703733 0.1649104745 -0.5328051252 -0.0233611323 0.1786530555
605296370.0 -0.0564319039 0.1782849292 0.1590640296 -0.5342135729 0.1591571868 -0.5345479638 -0.0211520502 0.1791695076
610296340.0 -0.0543483388 0.1791662964 0.1529355979 -0.5363743535 0.1536870045 -0.536079526 -0.0187800031 0.1793854422
615296310.0 -0.0522767866 0.1795426246 0.1471097223 -0.537672258 0.1471870875 -0.5382006627 -0.0165971957 0.1796772993
620296280.0 -0.050798603 0.1801460338 0.1414042002 -0.5390778714 0.1415917735 -0.5393667164 -0.0153035836 0.1799587113
625296250.0 -0.0493043943 0.1807802163 0.1360342988 -0.5414117057 0.1358937648 -0.541244699 -0.0126608726 0.1805143566
630296220.0 -0.0467393209 0.1815251845 0.1293919094 -0.5419753791 0.1296851127 -0.5420357083 -0.0107403336 0.180818173
635296190.0 -0.0458311889 0.1820345469 0.1238698676 -0.5433856681 0.123913946 -0.5438746065 -0.0086785069 0.1810265901
640296160.0 -0.0440455018 0.1827588769 0.1183274824 -0.5447770708 0.1183892159 -0.5451877733 -0.0067793409 0.1814992229
645296130.0 -0.0422114189 0.1835400595 0.1119691147 -0.5458006062 0.1128682471 -0.5461984525 -0.0046182264 0.1817485488
650296100.0 -0.0400330687 0.1839642479 0.1062463356 -0.5473990506 0.1062203423 -0.5472641871 -0.0026215789 0.1814474428
655296070.0 -0.0386057056 0.184303234 0.1005942982 -0.5481436632 0.1004975134 -0.5485261722 -0.0004134577 0.1818648947
660296040.0 -0.0372262218 0.1845414899 0.0945350906 -0.5493513377 0.0947372492 -0.5494165525 0.001744479 0.1820633123
665296010.0 -0.0347405639 0.1852932521 0.0880317666 -0.5503608248 0.0884092092 -0.5502669007 0.0033559679 0.182739798
670295980.0 -0.0341119172 0.1858846938 0.0827580988 -0.5509547071 0.0827744626 -0.5514293089 0.0050099249 0.1824669374
675295950.0 -0.0316766913 0.1862259451 0.0767768007 -0.5517380445 0.076966432 -0.5517605656 0.0070730154 0.1824602548
680295920.0 -0.0299677196 0.1864288947 0.0704456921 -0.5523611744 0.0702434441 -0.5532706575 0.0091960022 0.1833199288
685295890.0 -0.0280014853 0.1873940611 0.0646123388 -0.5535203586 0.0646486661 -0.5532716997 0.0111702795 0.1829394095
690295860.0 -0.0260543106 0.1876998063 0.058491525 -0.5535315471 0.0589532292 -0.5544551378 0.013215882 0.1835543503
695295830.0 -0.0243538348 0.1877106635 0.0533073455 -0.5542446738 0.0526326543 -0.5547527847 0.015472653 0.1831447998
700295800.0 -0.0224725928 0.188140987 0.0465546875 -0.5544040661 0.0462836818 -0.5550661122 0.0172790324 0.1835075196
705295770.0 -0.0210477389 0.1893114282 0.0406669166 -0.5555558834 0.0408544847 -0.5556514006 0.0192424098 0.1830019941
710295740.0 -0.018763598 0.1891878404 0.0347572607 -0.5567748196 0.0349505376 -0.5561791968 0.0211307837 0.1826998892
715295710.0 -0.0173520553 0.1893027163 0.0291754074 -0.5564010421 0.0284165215 -0.5566874874 0.023565075 0.1828009271
720295680.0 -0.0152656729 0.1895654085 0.022703239 -0.5563662074 0.0229911857 -0.5567548699 0.0254274798 0.1831011671
725295650.0 -0.0133727004 0.1899440117 0.0169057773 -0.556738742 0.0169512579 -0.5567425568 0.0270499352 0.1828125686
730295620.0 -0.0113385608 0.190584349 0.0106443433 -0.5566798165 0.0111308896 -0.5568874421 0.0288277728 0.1824114979
735295590.0 -0.0095494342 0.190743588 0.0047473924 -0.5571717164 0.0050506818 -0.5569322415 0.0311423899 0.1820654471
740295560.0 -0.0078244926 0.1911450779 -0.0012095771 -0.5567458582 -0.0013336311 -0.5570439435 0.0334635601 0.182370321
745295530.0 -0.006135242 0.1913686235 -0.0073249501 -0.5563986924 -0.0073087929 -0.5569304478 0.0355037231 0.1816203616
750295500.0 -0.0039287155 0.1912757689 -0.013428169 -0.5564952314 -0.0127542376 -0.5569046118 0.0372467255 0.1816048164
755295470.0 -0.002158895 0.191415246 -0.018989877 -0.5563364475 -0.0186424776 -0.5567490954 0.0398296513 0.1806227833
760295440.0 -0.0004974713 0.1918224692 -0.0250110834 -0.5565263717 -0.0252833379 -0.5565001314 0.0413605168 0.1807766383
765295410.0 0.0014698154 0.191810257 -0.0310046152 -0.5559090354 -0.0316076979 -0.5561620749 0.0435069412 0.1806352362
770295380.0 0.0029177588 0.1917838039 -0.0372386182 -0.5554200438 -0.037154241 -0.5552578456 0.0453747692 0.1799202621
775295350.0 0.0048362621 0.191338351 -0.0431425263 -0.5546538141 -0.0426377646 -0.5548147652 0.0469785305 0.1800516287
780295320.0 0.0070220226 0.1921831509 -0.0493543896 -0.5540668523 -0.048445052 -0.5543142122 0.0493563748 0.1790997622
785295290.0 0.0083012705 0.1914700271 -0.055460754 -0.5530447521 -0.0547186442 -0.5537716955 0.0515355993 0.1791941849
790295260.0 0.0108860483 0.1923350268 -0.0606082471 -0.5533568043 -0.0600268135 -0.5526970517 0.0534928076 0.1786992378
795295230.0 0.0126641843 0.1920405199 -0.0670817787 -0.5520851009 -0.066518326 -0.5526423437 0.0558709181 0.1783733899
800295200.0 0.0142667373 0.1921391793 -0.0734720398 -0.5515430099 -0.0727020058 -0.5517130685 0.057652102 0.1779161314
805295170.0 0.0163224625 0.1919577 -0.0788260339 -0.5507112712 -0.0785661063 -0.5511554529 0.0594999406 0.1775961981
810295140.0 0.0179046844 0.1918331338 -0.0842643991 -0.5492687327 -0.0847439835 -0.5499428486 0.0621009998 0.1769905809
815295110.0 0.0199756467 0.1915660835 -0.090781429 -0.5481625329 -0.0903949104 -0.5489524789 0.0635558867 0.1764921435
820295080.0 0.021539271 0.1921706401 -0.0962564924 -0.5476627862 -0.0959864499 -0.5477328879 0.0657210136 0.1760043936
825295050.0 0.0242374081 0.1917820433 -0.1019401559 -0.5464839138 -0.1022951186 -0.5465963271 0.0677107859 0.1753428365
830295020.0 0.0254482847 0.1920489181 -0.1081252667 -0.5455079914 -0.1081640203 -0.5456311999 0.0702125979 0.1748845892
