!Created with skrf (http://scikit-rf.org).
# Hz S RI R 50.0 
!freq ReS11 ImS11 ReS21 ImS21 ReS12 ImS12 ReS22 ImS22
300000.0 -0.100696573 -0.0691967842 0.63107786 0.0647594644 0.6241260047 0.0648588182 -0.1005838813 -0.0756080775
5299970.0 -0.1021276001 0.0132816168 0.6303303648 0.0096041506 0.6308663984 0.0104040918 -0.1007099781 0.0132521044
10299940.0 -0.0973702135 0.0293855186 0.6337219474 0.0150307841 0.6344381566 0.0156338499 -0.0959150855 0.0304522329
15299910.0 -0.0901269073 0.0426709016 0.6403914409 0.0202669641 0.6406738199 0.0201351418 -0.0887435032 0.043595786
20299880.0 -0.08160998 0.0530767727 0.6481084568 0.0244122287 0.6484605863 0.0239098418 -0.0798011707 0.0545827438
25299850.0 -0.0721822689 0.0623801369 0.6574032365 0.0254738302 0.657745814 0.0251785465 -0.0696253145 0.0631251896
30299820.0 -0.0622752894 0.0690800543 0.6677378894 0.0242291471 0.6673503333 0.024525515 -0.0598097512 0.0700787625
35299790.0 -0.0526522145 0.0737269752 0.6770869398 0.0212839539 0.6772587595 0.021459675 -0.049883958 0.0747629124
40299760.0 -0.0430837174 0.0772556775 0.6860663505 0.016992757 0.6867667237 0.0175367393 -0.0403018699 0.0773981864
45299730.0 -0.0339991765 0.0795099643 0.6951351291 0.0115598521 0.6952647501 0.0123126812 -0.0312855984 0.0797339865
50299700.0 -0.0257161104 0.0801896593 0.7037724049 0.0046695033 0.7037165566 0.0052707189 -0.0224726753 0.0803558233
55299670.0 -0.0177186238 0.080298828 0.7109886206 -0.0033404856 0.7106787786 -0.0028988828 -0.0148266199 0.0805344489
60299640.0 -0.0098222867 0.0800436415 0.716975258 -0.0116200608 0.7177635254 -0.0110648518 -0.0080269395 0.0794738914
65299610.0 -0.003765336 0.0789785487 0.7233532598 -0.0203202803 0.7234037324 -0.0196472919 -0.0013431415 0.0784356052
70299580.0 0.0025984517 0.0777072317 0.7285313787 -0.0292045317 0.7286636906 -0.0291955829 0.0046544064 0.0767068076
75299550.0 0.0080042467 0.0760243644 0.7326981972 -0.0388543783 0.732464372 -0.0392091845 0.0099691086 0.0747782688
80299520.0 0.0130091486 0.0736797287 0.7372421114 -0.0493028202 0.7371644197 -0.0487892296 0.0149132647 0.0725219823
85299490.0 0.0176338538 0.0713874445 0.7405394584 -0.0583456715 0.7401156732 -0.0583353952 0.019598165 0.0699808555
90299460.0 0.0214977055 0.0691374727 0.7425936559 -0.0691806232 0.743206572 -0.0686503254 0.023589207 0.0679753123
95299430.0 0.0256430956 0.0664891861 0.7456141038 -0.0789996636 0.7455080944 -0.0796351766 0.0274043193 0.065381353
100299400.0 0.0289213217 0.0645584412 0.7466006625 -0.0892754566 0.7474488671 -0.0895048369 0.030962634 0.0627463588
105299370.0 0.0323801546 0.0620980865 0.7486850383 -0.0992739146 0.7487488042 -0.0992351216 0.0341793164 0.0606563516
110299340.0 0.0350276469 0.0597865477 0.7498783907 -0.1086723245 0.7501835173 -0.1090883805 0.0360887874 0.0580318655
115299310.0 0.0375735588 0.0574610987 0.750825999 -0.119794937 0.7505705342 -0.1191229997 0.0390090256 0.0554971308
120299280.0 0.0398251349 0.0548330423 0.7511833797 -0.1291970486 0.7511154503 -0.1296945212 0.041298406 0.0530553737
125299250.0 0.0418380006 0.0523697304 0.7516311372 -0.1392474784 0.7517010327 -0.1390490284 0.0429653451 0.0503698403
130299220.0 0.0434468381 0.0503422573 0.7512489714 -0.1496255763 0.7512419782 -0.1492700139 0.0450714401 0.0482136376
135299190.0 0.0452113129 0.0481137624 0.7519098881 -0.1589700313 0.7512110977 -0.1590458893 0.0465453722 0.0461786448
140299160.0 0.0467178153 0.0462248856 0.7506211675 -0.1688250136 0.7506779176 -0.1689751956 0.0476580072 0.0445052821
145299130.0 0.0480546499 0.0437153884 0.7500777809 -0.1785104342 0.7499855946 -0.1781845299 0.0492897906 0.0422117642
150299100.0 0.0497841178 0.0422329851 0.7488165678 -0.1873342857 0.749001707 -0.187883087 0.0508014791 0.0401244907
155299070.0 0.0501591065 0.0396110008 0.747891333 -0.1980574056 0.7475198859 -0.1978326537 0.0519855107 0.038419289
160299040.0 0.0518494435 0.0381783102 0.746364792 -0.2074745828 0.7458621758 -0.2077097399 0.0519575952 0.0359824996
165299010.0 0.0525369132 0.0363869526 0.744668905 -0.2170602132 0.7446380867 -0.2172818229 0.0535190472 0.034633955
170298980.0 0.0533883618 0.0339799603 0.7428508279 -0.2259912361 0.743180035 -0.2261799953 0.0540144422 0.0329462646
175298950.0 0.0536519989 0.0323354208 0.7417558746 -0.2353156205 0.7406914417 -0.2353790226 0.0547143113 0.0315073483
180298920.0 0.0542263901 0.0304472165 0.738891297 -0.2451372988 0.7389726715 -0.2443464461 0.0555185427 0.029808132
185298890.0 0.0554296219 0.028865638 0.7365415779 -0.2535438276 0.7364762847 -0.2541876087 0.0560066008 0.0280587808
190298860.0 0.0553214274 0.0273313445 0.73451616 -0.2629908613 0.7345183292 -0.2628931804 0.0562553415 0.0261609055
195298830.0 0.0558738702 0.0254889883 0.7316922913 -0.2711950821 0.7320626523 -0.2718371442 0.056939461 0.0252610732
200298800.0 0.0561758309 0.0241366181 0.7291211508 -0.2811124651 0.7289202485 -0.2811414741 0.0566402835 0.0236320308
205298770.0 0.0567831016 0.0226493525 0.7260187485 -0.2901269068 0.7261686717 -0.2902361028 0.0571548923 0.0212887657
210298740.0 0.0571759659 0.0209248478 0.72320177 -0.2984107502 0.7232928699 -0.2978701757 0.0577430667 0.021072291
215298710.0 0.0569381631 0.0196276055 0.7203149112 -0.3073918913 0.7204614938 -0.3077905082 0.0576972946 0.020011836
220298680.0 0.0577989207 0.0177245018 0.7160577173 -0.3160701037 0.7165918191 -0.3160368171 0.0576198597 0.0178125205
225298650.0 0.0578147971 0.0166238852 0.7137172514 -0.3248003279 0.713717695 -0.3246925469 0.057515411 0.0163617129
230298620.0 0.0578888424 0.015681197 0.7107400711 -0.3327364964 0.7111090884 -0.3330770393 0.057570963 0.0148165724
235298590.0 0.0579219148 0.0146993575 0.7068241074 -0.3414556354 0.707177212 -0.3407166248 0.0575208057 0.0141610495
240298560.0 0.0580759643 0.0134127953 0.703726662 -0.3500527279 0.7030545887 -0.3501866357 0.0577304026 0.0129073025
245298530.0 0.0578980464 0.0121186076 0.6999223336 -0.3582156039 0.6993443933 -0.358486269 0.0582492495 0.0108918745
250298500.0 0.0585056493 0.0108917241 0.6953399765 -0.3666207956 0.6951648023 -0.3662982481 0.0576985146 0.0103706611
255298470.0 0.0583347742 0.0092002923 0.6914292672 -0.3741438564 0.6917623317 -0.3742788095 0.0582300418 0.008989063
260298440.0 0.0580219939 0.0080241199 0.6874946672 -0.3832813269 0.6880579502 -0.3827886657 0.0585451733 0.0079441282
265298410.0 0.0588230537 0.0075860301 0.6835583785 -0.3913563714 0.6841717454 -0.390322946 0.058323555 0.0068076102
270298380.0 0.0586629562 0.0060762628 0.6796990623 -0.3986890467 0.679189278 -0.3984313274 0.0579296437 0.0057973458
275298350.0 0.0588396288 0.005011343 0.6752349954 -0.4067498245 0.6752025938 -0.4069450457 0.0580446315 0.0044080489
280298320.0 0.0586909768 0.0043704546 0.6710556114 -0.4144571686 0.670993883 -0.4141831019 0.0586044577 0.0033924758
285298290.0 0.0587240751 0.0030486363 0.6664414995 -0.4220824742 0.6666021577 -0.4221930723 0.0584860796 0.0024184784
290298260.0 0.0588445708 0.0020411449 0.6619307171 -0.4297946815 0.6619385729 -0.430112176 0.058611141 0.0017183552
295298230.0 0.0590915412 0.0008378688 0.6574089397 -0.4378678379 0.6571486578 -0.4378477638 0.059394581 0.0002171955
300298200.0 0.0582059547 -0.0004935105 0.6530509084 -0.4451645503 0.6532616292 -0.446107417 0.0587508544 -0.0008762214
305298170.0 0.0586237244 -0.0012865364 0.6476078604 -0.4542899324 0.6477706259 -0.4529853297 0.0592473769 -0.0018777403
310298140.0 0.0584500547 -0.0026862883 0.64295808 -0.460916331 0.643065357 -0.4607352673 0.0588849153 -0.0031071464
315298110.0 0.0581215758 -0.0041435962 0.6376572099 -0.4683482547 0.6386990641 -0.468902953 0.0587662177 -0.0044507569
320298080.0 0.058611465 -0.0047842956 0.6322380017 -0.4769991246 0.6327339665 -0.4761370231 0.058840379 -0.0054366553
325298050.0 0.0577129784 -0.0060671135 0.6272791592 -0.4836974404 0.6271076388 -0.4833841649 0.0579316738 -0.006525214
330298020.0 0.0573210615 -0.007651727 0.621040418 -0.4910071132 0.6214534854 -0.4909208313 0.0571482135 -0.0075706259
335297990.0 0.0569196442 -0.0087515924 0.6160015051 -0.4979227629 0.6157647831 -0.4981776364 0.0565781336 -0.0078565712
340297960.0 0.0562346311 -0.0089435429 0.609991557 -0.5051242202 0.6092653531 -0.5051090673 0.0569870762 -0.008626504
345297930.0 0.0557485367 -0.0091924293 0.6041508287 -0.5117769928 0.6040028618 -0.5123110124 0.0561556526 -0.0100040281
350297900.0 0.0551008643 -0.0108059858 0.5974809064 -0.5189803847 0.5980959479 -0.5185774487 0.0553949353 -0.0097502331
355297870.0 0.0548392624 -0.0109558018 0.5921014979 -0.5251313395 0.5927573241 -0.5250048879 0.0553085069 -0.0108926915
360297840.0 0.0548243714 -0.0113925969 0.5873328452 -0.5317634547 0.5873953383 -0.5315410335 0.0549148453 -0.0111536564
365297810.0 0.0541618711 -0.0122630563 0.5806868385 -0.5387911097 0.5809985929 -0.5387705653 0.0546135506 -0.0116992217
370297780.0 0.0543712802 -0.0132004829 0.5744407818 -0.5446326151 0.5748208703 -0.5440983701 0.0539989896 -0.012732604
375297750.0 0.0536384715 -0.0138623649 0.5689218181 -0.5509544152 0.569591514 -0.5513467071 0.0543255084 -0.0129944738
380297720.0 0.0533633495 -0.0143723292 0.5622598547 -0.5579210825 0.5630632125 -0.5570009606 0.0531319142 -0.0138208369
385297690.0 0.052797592 -0.0151240838 0.5564543898 -0.5640268799 0.5560407228 -0.5634873194 0.0533787449 -0.0141809159
390297660.0 0.0525735552 -0.0154341175 0.5500043063 -0.570040192 0.5501163955 -0.5696884462 0.0526168346 -0.0151974445
395297630.0 0.0523113325 -0.0161104682 0.5435484699 -0.5764051537 0.5441174715 -0.5761061199 0.0530382381 -0.01583385
400297600.0 0.0517918345 -0.0170369276 0.5372663387 -0.5831616068 0.5369062977 -0.5825304728 0.0523149671 -0.0164531028
405297570.0 0.0512368296 -0.017585089 0.531606386 -0.5876369415 0.5309560598 -0.5877978246 0.051849549 -0.0169567129
410297540.0 0.0516328878 -0.0181170023 0.5249179116 -0.5941548531 0.5252868049 -0.5940224865 0.0511062432 -0.0171195225
415297510.0 0.051271727 -0.0187056415 0.5178785937 -0.6000935151 0.5182445317 -0.6000549261 0.0510908048 -0.0177192092
420297480.0 0.0509778699 -0.019145873 0.5112745035 -0.6053692574 0.5116183418 -0.605803501 0.0505008793 -0.0190485758
425297450.0 0.0502322866 -0.0207010862 0.5048237806 -0.611542658 0.5050713053 -0.6114809782 0.0494355975 -0.0186827891
430297420.0 0.049753617 -0.020635129 0.4976599115 -0.6161791045 0.4977543802 -0.6165333613 0.0496736647 -0.0202889092
435297390.0 0.0494185392 -0.0213963563 0.4902065277 -0.622347393 0.4906662434 -0.6221304829 0.0501164638 -0.0209969854
440297360.0 0.0493584006 -0.0218905658 0.4842861578 -0.627529405 0.4843452899 -0.6278802113 0.0485803935 -0.0215054758
445297330.0 0.0485471314 -0.0229330938 0.4780731401 -0.6331875521 0.4777039323 -0.632774214 0.0488622487 -0.02230114
450297300.0 0.0486721859 -0.0232109569 0.4707037409 -0.6382280126 0.4697992921 -0.638774041 0.0481558876 -0.0227008276
455297270.0 0.0482209397 -0.0237451656 0.4632954726 -0.6431690617 0.4634801328 -0.6438616256 0.0480423347 -0.0230597459
460297240.0 0.0475854294 -0.0242681185 0.456210266 -0.6488268985 0.4563648721 -0.6490488112 0.0478816458 -0.0236096526
465297210.0 0.0476444268 -0.0247083269 0.4492978586 -0.6540304808 0.4489034727 -0.6545825432 0.0473899117 -0.0248569818
470297180.0 0.0469294464 -0.0257579933 0.4410645143 -0.6592582426 0.4416851407 -0.6589563479 0.0471121079 -0.0247728061
475297150.0 0.0465618023 -0.026420115 0.434749284 -0.6631650952 0.4348584075 -0.6630575802 0.0473055476 -0.0257499643
480297120.0 0.0459238646 -0.0261497194 0.4275793837 -0.6683192415 0.4274265841 -0.6685297845 0.0468533111 -0.0258736
485297090.0 0.045287699 -0.0270382949 0.4198034885 -0.6725028302 0.4200753327 -0.672912053 0.0463467171 -0.0271340596
490297060.0 0.044694165 -0.027865201 0.4127715967 -0.6781032442 0.4130291571 -0.6775565224 0.046148854 -0.0268022849
495297030.0 0.0447323607 -0.0282286462 0.4048798115 -0.6823113811 0.4056837199 -0.6821387376 0.0450939544 -0.0275681262
500297000.0 0.0439196368 -0.0290312545 0.3974412067 -0.6859219678 0.3969063334 -0.6858927034 0.0449198608 -0.0272951188
505296970.0 0.0440810295 -0.0293740777 0.390143034 -0.6906820716 0.3899746699 -0.6912125413 0.0445873998 -0.0282095425
510296940.0 0.0431020306 -0.0293083321 0.3822428179 -0.6949663587 0.3820825395 -0.6954132866 0.0443459664 -0.0282834327
515296910.0 0.0425043995 -0.0298416616 0.3742247641 -0.6992877359 0.374606369 -0.6992893882 0.0438477273 -0.0285553615
520296880.0 0.0422636584 -0.0304442183 0.366651166 -0.7036526216 0.3668026626 -0.7035303568 0.0430965136 -0.029472771
525296850.0 0.0418246358 -0.0313773278 0.3594420896 -0.7076118292 0.3595553264 -0.7073163976 0.0424934698 -0.0298484981
530296820.0 0.0413929532 -0.0312753239 0.3511559326 -0.7114367304 0.3517205517 -0.7112019167 0.0422802606 -0.0301970528
535296790.0 0.0404922586 -0.0317878399 0.3436255402 -0.7151605006 0.3443807091 -0.7147305024 0.0417451565 -0.0309821383
540296760.0 0.0400206929 -0.0319710259 0.3355801546 -0.7193387593 0.3354855974 -0.719409576 0.0405141913 -0.0303364814
545296730.0 0.0393383648 -0.032885208 0.3275078046 -0.7222100555 0.3276377218 -0.7228154753 0.0403332487 -0.0313213784
550296700.0 0.0398684845 -0.0328905562 0.3198579308 -0.7262212572 0.3199802004 -0.7265729146 0.0397503463 -0.031593004
555296670.0 0.0386036302 -0.0331454628 0.3120293252 -0.729256253 0.3121708668 -0.7294794993 0.0394409226 -0.0318284284
560296640.0 0.0384766934 -0.0332641933 0.3038780737 -0.7332086079 0.304326559 -0.7332257361 0.038778582 -0.032501669
565296610.0 0.0371951539 -0.0339218493 0.2954516025 -0.736458629 0.2960838126 -0.7362275123 0.0379977293 -0.0332860383
570296580.0 0.0372165058 -0.0339447394 0.2877282173 -0.7400422581 0.2874203283 -0.7394971427 0.0375983826 -0.0326542967
575296550.0 0.0364422907 -0.0344543837 0.2799119339 -0.7430465107 0.2796152369 -0.7431106726 0.0373363666 -0.0337462101
580296520.0 0.0359599276 -0.034810111 0.2713349226 -0.7459587878 0.2718097149 -0.7456814039 0.0365468195 -0.0339404359
585296490.0 0.0353635071 -0.0358626774 0.2634446209 -0.7484319847 0.263605073 -0.7484153105 0.0360044079 -0.0341191862
590296460.0 0.0355715792 -0.0356109279 0.2555441669 -0.7506606534 0.2552434388 -0.7513134345 0.0346664901 -0.0345779556
595296430.0 0.0349926048 -0.0356641918 0.2463225304 -0.7548060083 0.2470175108 -0.754384232 0.0350669561 -0.0352123089
600296400.0 0.0337984264 -0.0364162218 0.2388283831 -0.7570487417 0.2385669601 -0.7564658006 0.0339953582 -0.0352351331
605296370.0 0.0335653899 -0.0367358089 0.230257992 -0.7592762035 0.2306336711 -0.7588059857 0.0337517308 -0.0356078417
610296340.0 0.0328876054 -0.037175959 0.221693308 -0.7619132378 0.2224270164 -0.761367755 0.0337186012 -0.0359793692
615296310.0 0.0328372546 -0.0377677613 0.213383071 -0.7644537256 0.212835796 -0.7644014398 0.0332318565 -0.0362492447
620296280.0 0.0320542972 -0.0378149581 0.2057344113 -0.7665313256 0.2048725078 -0.7662149208 0.0320880974 -0.0368081705
625296250.0 0.031256094 -0.0386662468 0.1979782769 -0.7686791844 0.1973902643 -0.7689367886 0.0325255301 -0.0370415577
630296220.0 0.0318370182 -0.0383437573 0.1884822059 -0.7707055235 0.1877888409 -0.7702217718 0.0315531155 -0.03709844
635296190.0 0.0295562433 -0.039136942 0.1800710407 -0.7726856613 0.1804177408 -0.7728324008 0.0312819237 -0.0374244955
640296160.0 0.0293648129 -0.0390644175 0.171585994 -0.7742703683 0.1717120355 -0.7748577256 0.0304644065 -0.0377174568
645296130.0 0.0289242316 -0.0391698556 0.1628760111 -0.7762232943 0.1637135069 -0.7763897126 0.0297395722 -0.0378502707
650296100.0 0.0288567348 -0.0396841367 0.1551140268 -0.7779336704 0.1546186217 -0.778716934 0.0299854192 -0.0389612537
655296070.0 0.0273315602 -0.0400620216 0.1466296189 -0.77990077 0.1464523297 -0.779734038 0.0290219604 -0.0385531334
660296040.0 0.0264019706 -0.0406537175 0.13745482 -0.7813743244 0.138112632 -0.7816691047 0.0289025214 -0.0388618504
665296010.0 0.0266462917 -0.0402516647 0.1285059105 -0.7823797203 0.1297733423 -0.7831118175 0.0282535363 -0.0383653813
670295980.0 0.0248787551 -0.0403597586 0.1208762484 -0.7839278642 0.1208168052 -0.7844686542 0.0270615859 -0.0388469691
675295950.0 0.0249538953 -0.0403010525 0.1124483354 -0.7851291714 0.1124551851 -0.7845414957 0.0266426618 -0.0391349962
680295920.0 0.0240395921 -0.0411499964 0.1034559557 -0.7867763983 0.1023223039 -0.7870435402 0.0262220744 -0.0385641064
685295890.0 0.0239584454 -0.0404948949 0.0948094661 -0.7872484963 0.0944477018 -0.787922765 0.0258889079 -0.0392248658
690295860.0 0.0233836902 -0.0410230797 0.0861242455 -0.7881951815 0.0860832671 -0.7890832204 0.0249961963 -0.038681823
695295830.0 0.0228567155 -0.0413821716 0.0785177123 -0.7893235502 0.0771909725 -0.7892650433 0.0240635195 -0.0389332619
700295800.0 0.022302183 -0.0419935705 0.0691747157 -0.7898326905 0.0684422807 -0.7898581571 0.0235610843 -0.0384278137
705295770.0 0.0213216482 -0.0407053032 0.0603119436 -0.7913176009 0.0611766083 -0.7908037663 0.0228877232 -0.0389206756
710295740.0 0.0211863427 -0.0414447696 0.052037763 -0.7923688167 0.0525885489 -0.7927333262 0.0227817591 -0.0395649583
715295710.0 0.0198465266 -0.0418658723 0.0439889242 -0.792438145 0.0434800047 -0.7923934796 0.022153996 -0.0396320509
720295680.0 0.019783927 -0.0416564957 0.0348677433 -0.7923059215 0.0352226643 -0.7924397199 0.0213250889 -0.0387931762
725295650.0 0.0191024696 -0.0418993297 0.0263725498 -0.7928940952 0.0261452042 -0.7931246089 0.0202844757 -0.0394187471
730295620.0 0.0187608102 -0.0413472115 0.0175799917 -0.7927347954 0.0173356334 -0.7931912023 0.0195934784 -0.0399910405
735295590.0 0.0175730903 -0.0415658586 0.0087064388 -0.7932801406 0.0086828694 -0.793347867 0.0188797392 -0.0400657584
740295560.0 0.0168902833 -0.0414995061 0.0001849061 -0.7932237575 0.0003512117 -0.7932143103 0.0190130801 -0.0397142703
745295530.0 0.0167315049 -0.0416368023 -0.0080426497 -0.7921918507 -0.008405544 -0.793330289 0.0183103152 -0.0404814055
750295500.0 0.0160266578 -0.041927012 -0.0171258653 -0.7929537875 -0.0165265536 -0.7933889596 0.0174734748 -0.0400038997
755295470.0 0.0158483459 -0.0420291736 -0.0253452536 -0.7925840701 -0.0257950926 -0.7930562353 0.0175507816 -0.0405348226
760295440.0 0.0146452005 -0.0419847778 -0.0343843963 -0.7925109038 -0.0343382854 -0.7930980934 0.0164870235 -0.0403576329
765295410.0 0.0141131674 -0.0421483948 -0.0432934734 -0.7920261952 -0.0435710778 -0.7919612431 0.0157210448 -0.0403501801
770295380.0 0.0133356232 -0.0423135811 -0.0520160516 -0.7914111975 -0.0517885172 -0.791486087 0.0151758402 -0.0408259861
775295350.0 0.0124966332 -0.0427064973 -0.0603651711 -0.7903618956 -0.0598330834 -0.7909525199 0.0137558733 -0.0405687511
780295320.0 0.0124375892 -0.0424320136 -0.0685962914 -0.7898098834 -0.0680080419 -0.7899190106 0.0133730368 -0.0413286572
785295290.0 0.0113838767 -0.0427932802 -0.0776102731 -0.7883265557 -0.077305791 -0.7890759322 0.0136670715 -0.0406586727
790295260.0 0.0115674007 -0.0417274259 -0.0850118389 -0.787819004 -0.0851232399 -0.7883400682 0.0125458531 -0.0406967017
795295230.0 0.0105430944 -0.0425195247 -0.0942882914 -0.7870382607 -0.0937739936 -0.7876494447 0.0122401148 -0.0400428736
800295200.0 0.0095255766 -0.0419731176 -0.1032940563 -0.7856113602 -0.1031414543 -0.7858954935 0.0117292698 -0.0407595272
805295170.0 0.0092773418 -0.0423350403 -0.111806248 -0.7846301817 -0.1112903818 -0.7852406005 0.0113324904 -0.0405255299
810295140.0 0.0078932012 -0.04300391 -0.1199900866 -0.7836622752 -0.1200556019 -0.7837482081 0.0110932153 -0.0405413812
815295110.0 0.0079733699 -0.0429006787 -0.1284322988 -0.7820240891 -0.1284814254 -0.7818213593 0.0095085862 -0.0402786454
820295080.0 0.0067305796 -0.0418532506 -0.1369322604 -0.780303485 -0.1368149678 -0.7804668207 0.0093185335 -0.0403291435
825295050.0 0.0070406902 -0.0420401832 -0.1445954123 -0.7786943137 -0.145192629 -0.7794542679 0.0092766283 -0.0404438828
830295020.0 0.005956804 -0.0420877836 -0.1546187057 -0.7773986447 -0.1538824067 -0.7770730893 0.0095271711 -0.039933335
