!Created with skrf (http://scikit-rf.org).
# Hz S RI R 50.0 
!freq ReS11 ImS11 ReS21 ImS21 ReS12 ImS12 ReS22 ImS22
300000.0 -0.3146888074 -0.128905488 0.3733596737 0.0636997016 0.3713782752 0.0643038346 -0.3176396878 -0.1279544842
5299970.0 -0.3247825651 0.0029007382 0.3785238972 0.0033566198 0.3787758164 0.003149584 -0.3257390055 0.0022393995
10299940.0 -0.3227887965 0.013879499 0.3801812647 0.002621641 0.3797523806 0.0031779935 -0.3231966014 0.0125895906
15299910.0 -0.3191395364 0.0222681321 0.3820322523 0.0026803759 0.3822977549 0.0029446405 -0.3206392159 0.019821969
20299880.0 -0.315727749 0.029115185 0.3851266856 0.001703495 0.3852587248 0.0019350326 -0.3176265517 0.0259399663
25299850.0 -0.3114889852 0.0347485793 0.3884543235 0.0007562357 0.3885568279 5.82198e-05 -0.3148940193 0.0311374785
30299820.0 -0.3082851751 0.0393019281 0.3921681615 -0.0020478742 0.3920426484 -0.0019192493 -0.3118108939 0.0355878585
35299790.0 -0.3042608578 0.0433247818 0.3946004796 -0.0050083886 0.3953242837 -0.0049381143 -0.3091808701 0.03964671
40299760.0 -0.3014484925 0.0467584974 0.3983150788 -0.0085818588 0.3986304156 -0.0087000361 -0.3061743379 0.0433888575
45299730.0 -0.2981782749 0.0501839285 0.4012471174 -0.0125056441 0.4014128787 -0.0127583751 -0.303698046 0.0464330941
50299700.0 -0.2948196252 0.0526888513 0.4037367471 -0.0171855876 0.4038635104 -0.0171118199 -0.3010674563 0.0499543125
55299670.0 -0.2923476678 0.0551054933 0.4057652869 -0.021399151 0.4059927615 -0.022244865 -0.2992770989 0.0523994386
60299640.0 -0.289904648 0.0579391905 0.4082353516 -0.0269105845 0.4083740706 -0.0270602428 -0.2972800093 0.0548176583
65299610.0 -0.2876185097 0.0602255658 0.4099955051 -0.0313741816 0.4099450589 -0.0317659879 -0.2951150541 0.0573792818
70299580.0 -0.2854455459 0.0620425249 0.4107659505 -0.0364438791 0.4109709478 -0.0367933187 -0.2936022795 0.0599796551
75299550.0 -0.2835576032 0.0642805352 0.4116386786 -0.0421989016 0.4122629909 -0.0421297262 -0.2919268765 0.0626354426
80299520.0 -0.2818447733 0.0665806353 0.4129542107 -0.0474212401 0.4130489477 -0.0475440802 -0.290445898 0.0648422039
85299490.0 -0.2797203487 0.0686421069 0.4135805753 -0.0525350132 0.4133513252 -0.0525136025 -0.2890852634 0.0667899156
90299460.0 -0.2785982377 0.0708910396 0.4136912956 -0.0581385794 0.4137533432 -0.0575892583 -0.2874736952 0.0693640843
95299430.0 -0.2769984997 0.0727283364 0.413789715 -0.0628126825 0.4140821169 -0.0632954252 -0.286210919 0.071778264
100299400.0 -0.2755064704 0.074593064 0.4138957712 -0.0677500314 0.414219412 -0.0682958261 -0.2854445698 0.0743992673
105299370.0 -0.2735370045 0.0765717383 0.4135087809 -0.0735061516 0.4142801786 -0.0732527725 -0.283921723 0.0761567866
110299340.0 -0.2725398706 0.0787143578 0.4134206455 -0.0781076213 0.4143010601 -0.0785229578 -0.2832562899 0.0786837871
115299310.0 -0.2716003034 0.0811584444 0.4135604282 -0.0835121179 0.4136624673 -0.0837170297 -0.2823725117 0.0813908153
120299280.0 -0.2705224276 0.0831712587 0.4132912638 -0.0891455101 0.4129907353 -0.089066573 -0.2811102313 0.0831556464
125299250.0 -0.269147211 0.0851970764 0.412438915 -0.0937628079 0.4127812444 -0.0936995572 -0.2799353715 0.0859279356
130299220.0 -0.2684325236 0.0876431576 0.4121407109 -0.0991611703 0.4119693367 -0.0993476772 -0.2793646028 0.0880916627
135299190.0 -0.2674859932 0.0897252123 0.4115072206 -0.1037512913 0.4115309657 -0.1044103624 -0.2781783148 0.0907321143
140299160.0 -0.266319587 0.0922232829 0.410579991 -0.1092656874 0.4103205364 -0.1088058164 -0.2777907445 0.0931376675
145299130.0 -0.2653318297 0.0948257425 0.4095295475 -0.1139700263 0.4097334554 -0.1138900575 -0.2766174043 0.0957560958
150299100.0 -0.2639420159 0.0965994299 0.4085138487 -0.1188249829 0.4085616463 -0.1190124834 -0.275738277 0.0984758279
155299070.0 -0.2630871332 0.0994475002 0.406972285 -0.1238976026 0.4073294832 -0.1239909979 -0.2745017336 0.1008872609
160299040.0 -0.2621788829 0.1022729708 0.4064728639 -0.1289382083 0.4062112224 -0.1287811103 -0.2739058336 0.1036870148
165299010.0 -0.2610534791 0.1042546151 0.4049000888 -0.1332636862 0.4049464551 -0.1336210721 -0.2727122978 0.1060967492
170298980.0 -0.2600759398 0.1068999877 0.4030915164 -0.1381852585 0.4034695607 -0.1382303652 -0.271966517 0.1085325819
175298950.0 -0.2592538995 0.109297547 0.402477843 -0.1431348432 0.4022108217 -0.1434575224 -0.2710273761 0.1117779248
180298920.0 -0.2582316803 0.111806848 0.4006245748 -0.1480519029 0.4007909252 -0.1482602787 -0.2699820568 0.1143312134
185298890.0 -0.2571037953 0.1142566354 0.3994835819 -0.1523113224 0.3993718969 -0.1524421143 -0.2685987735 0.1164488291
190298860.0 -0.2558238854 0.1171528766 0.3971969346 -0.1570625423 0.3977812452 -0.1571068415 -0.2678303379 0.1193442228
195298830.0 -0.2548939757 0.119681578 0.3963925361 -0.1617055075 0.3963737536 -0.1620426251 -0.2668548212 0.1220581507
200298800.0 -0.2534217719 0.121897038 0.3943632525 -0.1667964172 0.3941502902 -0.1666677125 -0.2657208476 0.1245744256
205298770.0 -0.2527989561 0.1248207668 0.3920660624 -0.1708535707 0.3926079209 -0.1711889796 -0.264485747 0.1275314729
210298740.0 -0.2516896184 0.1273661203 0.3909497291 -0.175861521 0.3905199863 -0.1759301126 -0.2635351888 0.1300245071
215298710.0 -0.2499928047 0.1301348671 0.3882878854 -0.1800336397 0.3891113403 -0.1805417057 -0.2624162437 0.1327781743
220298680.0 -0.2488268474 0.1323277442 0.3863065019 -0.1846594904 0.3864749396 -0.1849690404 -0.2610097571 0.1352536549
225298650.0 -0.2475778849 0.1353034665 0.3842644733 -0.1891786128 0.3849554605 -0.1888598744 -0.2598520227 0.1379324583
230298620.0 -0.2465411499 0.138072325 0.3824649466 -0.1936806565 0.3826716918 -0.1934736383 -0.2587826306 0.1406617664
235298590.0 -0.2452221283 0.1405369551 0.380690008 -0.1979398244 0.3807015826 -0.197852297 -0.2573060382 0.1435052179
240298560.0 -0.2440826124 0.1434531523 0.3784208015 -0.2021622003 0.3784678967 -0.2022616802 -0.2559636794 0.146026234
245298530.0 -0.2427185757 0.1456925932 0.3760522026 -0.2064257779 0.3762041809 -0.2068951489 -0.2547801592 0.1489345883
250298500.0 -0.2414623456 0.1484490429 0.3741278957 -0.2108915254 0.3740273866 -0.2106102092 -0.2530012896 0.1516281378
255298470.0 -0.239885243 0.151214012 0.371744546 -0.214737342 0.3721608782 -0.2149667864 -0.25187475 0.1542347739
260298440.0 -0.2383893999 0.1536410289 0.3695305207 -0.2187392565 0.3697244741 -0.2188488091 -0.2508165777 0.1566839687
265298410.0 -0.2374956077 0.1561637135 0.3667149133 -0.2236719858 0.3668312879 -0.2236801828 -0.2489205871 0.1594212815
270298380.0 -0.2361078313 0.1586705858 0.3644412241 -0.227576365 0.3646505653 -0.2276396471 -0.247579809 0.1619571207
275298350.0 -0.2346200508 0.1617508949 0.3615066422 -0.2315169859 0.36146958 -0.2315059882 -0.2453952221 0.1648480431
280298320.0 -0.233214387 0.1638437372 0.3595330629 -0.2351140881 0.3597415924 -0.235831093 -0.2443460862 0.1679037419
285298290.0 -0.2316711292 0.1670189548 0.3567963173 -0.2397263893 0.3571764131 -0.239661746 -0.2428602083 0.1705162598
290298260.0 -0.2300087186 0.1695752506 0.3546641599 -0.2436137316 0.354284119 -0.2438931663 -0.2407632176 0.1730477202
295298230.0 -0.2282513829 0.1716940383 0.3515981984 -0.2481449763 0.3517645998 -0.2478867626 -0.2394538241 0.1752389586
300298200.0 -0.2267466551 0.174368437 0.3488038289 -0.2516948449 0.3488378814 -0.2517563444 -0.2377143071 0.1777956151
305298170.0 -0.2251208172 0.1765995974 0.3459804074 -0.2556936561 0.3465535211 -0.2557755938 -0.235762299 0.1803246093
310298140.0 -0.2231950359 0.1789477544 0.3433562485 -0.2594290954 0.3439464036 -0.2594663803 -0.2342167293 0.1829641174
315298110.0 -0.2216639017 0.1812205343 0.3405111669 -0.2636223334 0.3406299783 -0.263709694 -0.2321333228 0.1855255665
320298080.0 -0.2202431837 0.183840012 0.3373450636 -0.2674911488 0.3379263295 -0.2674101298 -0.2305559476 0.1877406516
325298050.0 -0.218632504 0.1857704677 0.3345134652 -0.2712303125 0.3350648746 -0.2712373696 -0.2285043127 0.1904605803
330298020.0 -0.2170554637 0.188715836 0.3313641431 -0.2747715551 0.3319601348 -0.2749078231 -0.2270154547 0.1927343371
335297990.0 -0.2151304956 0.1907051816 0.328397757 -0.2785332405 0.3286573523 -0.2789129544 -0.2247204684 0.1956135168
340297960.0 -0.2138137203 0.1934183132 0.3248856925 -0.2824508271 0.3252074261 -0.2825539413 -0.2230252023 0.1981339058
345297930.0 -0.2118964737 0.195843935 0.321505323 -0.2862401545 0.3218640044 -0.285936829 -0.2211366109 0.200190174
350297900.0 -0.2100050328 0.1979023614 0.3188158559 -0.2891135932 0.3189909125 -0.2894238814 -0.2194714548 0.2026202787
355297870.0 -0.2083426702 0.2002686313 0.3155852604 -0.2925185686 0.3156786817 -0.2925315491 -0.2170974508 0.2055813809
360297840.0 -0.2062303958 0.202944652 0.3122504368 -0.2964316023 0.3126708939 -0.2968065837 -0.2152078109 0.2080581619
365297810.0 -0.2046515878 0.20530928 0.3091718031 -0.2997719343 0.3092619395 -0.2998062716 -0.2134381344 0.2101707291
370297780.0 -0.2026555868 0.2071807334 0.3052175446 -0.3027957923 0.3058894221 -0.3029134861 -0.2110718965 0.2127784712
375297750.0 -0.2006759134 0.2095667661 0.3022531828 -0.3062203243 0.3024992154 -0.3067654732 -0.2087576469 0.2150042518
380297720.0 -0.1986559387 0.2118417498 0.2993405874 -0.3097591956 0.2988758839 -0.3100088225 -0.2067971285 0.2177478643
385297690.0 -0.1965107102 0.2141572267 0.2952526 -0.3127116571 0.2956179388 -0.3132911305 -0.2045110425 0.2198714811
390297660.0 -0.1941921853 0.2160437323 0.2918090256 -0.3157719357 0.2920603355 -0.3161115988 -0.2016762297 0.2218803182
395297630.0 -0.1917843592 0.2183615345 0.2884196862 -0.3189198755 0.2884921042 -0.3192953421 -0.1998471715 0.2241897673
400297600.0 -0.1901999899 0.2208497825 0.2849246805 -0.3228251534 0.2852430888 -0.3223312961 -0.1976298716 0.2265601014
405297570.0 -0.1880682941 0.222558392 0.2816178065 -0.3253529679 0.2816908837 -0.3257733567 -0.194937461 0.2292008051
410297540.0 -0.1855955287 0.224850006 0.2778967787 -0.3287822627 0.277907402 -0.3287889662 -0.1929454583 0.2311933646
415297510.0 -0.1835664347 0.2271407074 0.2741170308 -0.3317142971 0.2747644354 -0.3319240325 -0.1905510601 0.2334087489
420297480.0 -0.1811520792 0.2286812185 0.2703654183 -0.3347327227 0.2707213247 -0.3347890328 -0.1877033234 0.2360811893
425297450.0 -0.1787589827 0.2306679762 0.2671089655 -0.3372225709 0.2664821492 -0.3375067604 -0.1854223204 0.2375507357
430297420.0 -0.1765021703 0.2328011148 0.2638293953 -0.3405663153 0.2635979198 -0.3401461911 -0.1827126401 0.2399082246
435297390.0 -0.1740018155 0.234640299 0.259109581 -0.3436195969 0.2594065474 -0.3434494262 -0.1808843352 0.2424532962
440297360.0 -0.1713422697 0.2364674724 0.2551086512 -0.3461627471 0.2552890378 -0.3463386843 -0.1779771557 0.2442590957
445297330.0 -0.1689117762 0.2380832751 0.251613372 -0.3485433811 0.2521062992 -0.3493858432 -0.1753834072 0.2462667438
450297300.0 -0.1666718491 0.2403911953 0.247721214 -0.3514032104 0.2482741317 -0.3516811215 -0.1728781334 0.2482823675
455297270.0 -0.1645446814 0.2421650591 0.2443163663 -0.3545535988 0.2441323123 -0.354657798 -0.1701423233 0.2504031581
460297240.0 -0.1615917996 0.2441369253 0.2402472205 -0.3571813751 0.2402897056 -0.3570627086 -0.1677170056 0.2519796609
465297210.0 -0.1591115443 0.2458423451 0.2358554228 -0.3597905491 0.2355990356 -0.3598191648 -0.1645831643 0.2541678048
470297180.0 -0.1566307741 0.2477292434 0.2320230264 -0.3619541492 0.2324928859 -0.3619735219 -0.1624192233 0.2559400663
475297150.0 -0.1541590324 0.2494070275 0.2280843747 -0.3641133884 0.2282115058 -0.364867498 -0.1592708671 0.2579879438
480297120.0 -0.1510413901 0.2513258834 0.2241494615 -0.3671288149 0.2242255934 -0.3667632298 -0.157106094 0.2594959044
485297090.0 -0.1487043379 0.2528810182 0.2201079091 -0.3697353994 0.220084919 -0.3695586826 -0.1541545429 0.2618755904
490297060.0 -0.1452073641 0.2546584626 0.2155034074 -0.3721456 0.216026364 -0.3721151675 -0.1513047008 0.2631367043
495297030.0 -0.1429105644 0.2558179837 0.2119997827 -0.3742397546 0.211669963 -0.3743779334 -0.1483001839 0.2649803528
500297000.0 -0.1403573999 0.2577801793 0.2079421249 -0.3764543344 0.2077353099 -0.3766577866 -0.1455491946 0.2668137441
505296970.0 -0.1370221042 0.2593513255 0.2037415447 -0.3788194802 0.2039114252 -0.37846282 -0.1428922098 0.2678928457
510296940.0 -0.1345639335 0.2611361114 0.1995909712 -0.3813903931 0.199691874 -0.3811292209 -0.139847905 0.2702303224
515296910.0 -0.1317457324 0.2627697308 0.1952330019 -0.382803305 0.1950745037 -0.3830848439 -0.1373498048 0.2715763243
520296880.0 -0.1289380715 0.2641726241 0.1910127879 -0.3850524516 0.1907193586 -0.3849497164 -0.1338373067 0.2734460552
525296850.0 -0.125980934 0.2655383207 0.1865427435 -0.3872609653 0.1864511371 -0.3869973131 -0.1310349089 0.2745870902
530296820.0 -0.1235863291 0.2670190843 0.1825491703 -0.3892084137 0.1825482362 -0.3890497776 -0.1286011953 0.2761349686
535296790.0 -0.1199219927 0.268521861 0.1778230213 -0.3909921442 0.1781914568 -0.3911181033 -0.1253929878 0.2778939162
540296760.0 -0.116974834 0.2700242792 0.1737121244 -0.3928484775 0.1737918432 -0.3929950707 -0.1226564704 0.2791026751
545296730.0 -0.1148080268 0.2719411876 0.1697340459 -0.3948214691 0.1694053693 -0.3944303949 -0.1194110455 0.2804985273
550296700.0 -0.1112255291 0.2728780503 0.1653216333 -0.396521449 0.164872396 -0.3964218115 -0.1164161231 0.282141403
555296670.0 -0.1083982567 0.2742119618 0.1608256077 -0.3982139893 0.160789429 -0.3981417513 -0.1139055696 0.2829410275
560296640.0 -0.1050719011 0.2753393945 0.15612663 -0.4000482488 0.1566491018 -0.4001318072 -0.1107500902 0.2849419892
565296610.0 -0.1026980342 0.276725003 0.1528400288 -0.4015947915 0.1520150025 -0.4013808859 -0.1072011684 0.2862707801
570296580.0 -0.0994111231 0.278304201 0.1475007484 -0.4033476692 0.1476730831 -0.4035738578 -0.104831715 0.2873051342
575296550.0 -0.0965076975 0.2791995159 0.1437504416 -0.404940753 0.143195823 -0.4046690135 -0.101260296 0.2881935312
580296520.0 -0.093322916 0.2805313812 0.1390352404 -0.4061331478 0.1386307374 -0.4065041242 -0.0986932824 0.2895766856
585296490.0 -0.0901022316 0.2817361273 0.1347366523 -0.4076081635 0.1340430143 -0.4077128689 -0.0952170076 0.29105005
590296460.0 -0.0867422759 0.2829357532 0.1300931914 -0.4090924313 0.1301884093 -0.409439135 -0.092349392 0.2919645121
595296430.0 -0.0836610695 0.2840049311 0.12533115 -0.4102948247 0.1249851034 -0.4104507686 -0.0890003277 0.2929659107
600296400.0 -0.0808246435 0.2852063576 0.1207841261 -0.411472377 0.1206667364 -0.4118758577 -0.0861241934 0.2939917732
605296370.0 -0.0777288694 0.2864411826 0.1167973075 -0.4130162548 0.1159579925 -0.4131160221 -0.0825371497 0.2954441549
610296340.0 -0.074460266 0.2877376457 0.1120332859 -0.4137715259 0.1122186468 -0.4142040719 -0.0802491242 0.2960032483
615296310.0 -0.0713437645 0.2885723092 0.1075291404 -0.4154964778 0.1070477368 -0.4154275363 -0.0764874763 0.2971989301
620296280.0 -0.0684460768 0.2897794786 0.1027575454 -0.4163303434 0.1028233153 -0.4165315457 -0.073873813 0.2982047711
625296250.0 -0.0653532714 0.2904451972 0.0984064627 -0.4176284879 0.0983432514 -0.4176204122 -0.0706180724 0.2990277965
630296220.0 -0.0622059668 0.2913640086 0.0934243395 -0.4184898708 0.0934924451 -0.4182628421 -0.0674636806 0.3000052242
635296190.0 -0.0591674101 0.2923923115 0.0894377188 -0.4192910292 0.0889698448 -0.419375415 -0.0643268898 0.3006826504
640296160.0 -0.0556389094 0.2934171585 0.0843569442 -0.4206634231 0.0843721321 -0.4205430886 -0.0612649468 0.3016197633
645296130.0 -0.0525468359 0.2946646899 0.0798820161 -0.4214025006 0.080060259 -0.4207907457 -0.058230212 0.3020246731
650296100.0 -0.0496836408 0.2949523233 0.0755291432 -0.4221590067 0.0751297196 -0.4218717845 -0.0543796984 0.303026762
655296070.0 -0.046585686 0.2958904395 0.0708614454 -0.4229581125 0.0707170449 -0.4223426023 -0.0518601247 0.3038423434
660296040.0 -0.0434640293 0.2966941967 0.0663597716 -0.4233484924 0.0663033552 -0.4234899466 -0.0481957442 0.3044128147
665296010.0 -0.0400438902 0.2972912059 0.0612701781 -0.4237235694 0.0612763687 -0.4239880571 -0.0449858662 0.3048577049
670295980.0 -0.0373396577 0.2981353028 0.0571560503 -0.4246423942 0.0570842962 -0.4244105682 -0.0422082662 0.3055433596
675295950.0 -0.0339498549 0.2987526453 0.0524168759 -0.4251105855 0.052319578 -0.4254359979 -0.0388831959 0.306215521
680295920.0 -0.0307967059 0.2994247094 0.0478035459 -0.4256219117 0.0477239168 -0.4255454635 -0.035094647 0.3067580102
685295890.0 -0.0277825435 0.3000870567 0.0430458694 -0.4260893063 0.0430322514 -0.4262871034 -0.032244942 0.3073860321
690295860.0 -0.0249008113 0.3006985603 0.0386468239 -0.4265869451 0.0383164334 -0.4267073392 -0.0292221964 0.3077871903
695295830.0 -0.0213859527 0.3010752311 0.0341613551 -0.4269196057 0.0338393135 -0.4267870471 -0.0257972718 0.3083056689
700295800.0 -0.0182914067 0.3018224588 0.0297971514 -0.4272396533 0.0294780101 -0.4274471128 -0.022627308 0.3087102483
705295770.0 -0.0157012707 0.3020558478 0.0249299213 -0.4274412844 0.0247701052 -0.4274700605 -0.0194585327 0.3092570398
710295740.0 -0.0122234675 0.3022879811 0.0203690689 -0.427607384 0.0198117125 -0.4280942229 -0.0161316768 0.3095040236
715295710.0 -0.0090887281 0.3030059043 0.0155925582 -0.4278637164 0.015525379 -0.4280788813 -0.0127043645 0.3096554443
720295680.0 -0.0057501293 0.3033073621 0.0107277007 -0.4276339208 0.0107270562 -0.428168509 -0.0096402408 0.3098728557
725295650.0 -0.0030354227 0.3035893274 0.006694697 -0.4280339989 0.0063676181 -0.4283079785 -0.0063960427 0.3105083148
730295620.0 -0.0003129122 0.3042770084 0.0017487626 -0.4278088638 0.0014915178 -0.4276637975 -0.0034404279 0.3109466294
735295590.0 0.0028760889 0.3043806199 -0.0028094786 -0.4280134383 -0.00309892 -0.4282268269 0.0001617323 0.3102913799
740295560.0 0.0059481881 0.3039868553 -0.007381456 -0.4278614164 -0.0073291593 -0.4281139663 0.0031385414 0.3108836449
745295530.0 0.0091919906 0.3047977647 -0.0117304611 -0.4273326324 -0.0115955064 -0.4278654412 0.0063664829 0.3110519661
750295500.0 0.0118176607 0.3047495074 -0.0161264365 -0.4273803133 -0.0168587999 -0.4275582756 0.0096588193 0.3108543927
755295470.0 0.0151175635 0.3050783789 -0.0208844084 -0.4278479547 -0.0211930121 -0.4276808541 0.0128896908 0.3113223083
760295440.0 0.0183540179 0.3052287932 -0.0263364679 -0.4272226984 -0.0261490142 -0.4266935649 0.0164798308 0.3106126204
765295410.0 0.0214580845 0.3046887415 -0.0302577677 -0.4264711075 -0.0304268405 -0.4268364989 0.0196173344 0.3111259762
770295380.0 0.0242568257 0.3050718193 -0.0347444699 -0.4261787819 -0.035291503 -0.4268110887 0.0224038904 0.3109619474
775295350.0 0.0274648748 0.3051747992 -0.0396718826 -0.4258193249 -0.0395746517 -0.4253241646 0.0259032199 0.3108528861
780295320.0 0.0305099886 0.3054294124 -0.0439450686 -0.4256557832 -0.0442435119 -0.425499904 0.0293983334 0.3108540652
785295290.0 0.033502796 0.305060032 -0.0485861336 -0.4250049389 -0.0487013624 -0.4249948413 0.0323379267 0.3107682142
790295260.0 0.0366037257 0.3044685735 -0.0532296554 -0.4242597412 -0.0532646663 -0.4247585559 0.0354441512 0.3106241054
795295230.0 0.0397122291 0.3043499445 -0.0576575431 -0.4237422857 -0.0579326173 -0.4239306519 0.0389101167 0.3097065172
800295200.0 0.0425285084 0.3044238972 -0.0618355909 -0.4225621923 -0.062419072 -0.4233267314 0.0418487725 0.3099065459
805295170.0 0.045557067 0.3044697767 -0.0668340799 -0.4225641062 -0.0668122901 -0.422577883 0.0458126715 0.3095756773
810295140.0 0.0488356232 0.3040690603 -0.0716124011 -0.4214013063 -0.0713348379 -0.4215868071 0.0486915239 0.3090560965
815295110.0 0.0516890216 0.3036870355 -0.075870396 -0.4210665531 -0.0757375675 -0.420932196 0.0517451455 0.3089302727
820295080.0 0.0545895452 0.3031419631 -0.0800452975 -0.419440219 -0.0800923098 -0.4200708017 0.0546452851 0.3085984789
825295050.0 0.0575387544 0.302487896 -0.0848537718 -0.4187407358 -0.0850413568 -0.4190829392 0.05845612 0.3083474408
830295020.0 0.0609687088 0.3024052867 -0.0894236513 -0.4180590845 -0.089512136 -0.4179799642 0.0614724486 0.3073023204
