!Created with skrf (http://scikit-rf.org).
# Hz S RI R 50.0 
!freq ReS11 ImS11 ReS21 ImS21 ReS12 ImS12 ReS22 ImS22
300000.0 -0.3151300564 -0.1311484521 0.3686757883 0.0650673153 0.3707622769 0.0661788369 -0.3142901642 -0.1322942951
5299970.0 -0.3249227534 0.0023564573 0.3781186973 0.0035750326 0.3786775619 0.0031313993 -0.3256566034 0.0018026407
10299940.0 -0.3222796704 0.0141482063 0.3798023591 0.0026391219 0.3799990507 0.0029549721 -0.3231878947 0.0124617785
15299910.0 -0.3188358773 0.0225464891 0.3819128733 0.0024055703 0.3819526864 0.0027232468 -0.3205322163 0.0200435726
20299880.0 -0.3153945028 0.0289133423 0.3849990634 0.0019290057 0.3850964049 0.0020260785 -0.3174241786 0.0261335118
25299850.0 -0.311642052 0.0347510897 0.3884879742 0.0003560883 0.3886858151 0.0001916749 -0.3146336375 0.0315599167
30299820.0 -0.3081173006 0.0394064282 0.3918447731 -0.0018428985 0.3918931489 -0.0022429727 -0.3115258798 0.0357666143
35299790.0 -0.3043568782 0.0432388281 0.3948777856 -0.0048228463 0.3952767261 -0.0054266752 -0.3092247755 0.0400817697
40299760.0 -0.3010512756 0.0469180445 0.3981889827 -0.0088218007 0.39831981 -0.0087764515 -0.3064118578 0.0436295652
45299730.0 -0.2981533317 0.0501486826 0.4011959407 -0.0124969203 0.4017273872 -0.0127331778 -0.3035354938 0.0466502479
50299700.0 -0.2947930956 0.0527021792 0.403443082 -0.0170207848 0.4036972587 -0.0172611908 -0.300828565 0.0498150832
55299670.0 -0.2923986534 0.0550404457 0.405798866 -0.0213805819 0.4060772989 -0.022009942 -0.2990431001 0.0523573005
60299640.0 -0.2897878554 0.0581019182 0.4080057766 -0.0269156216 0.407763172 -0.0269656707 -0.2969437815 0.0549458405
65299610.0 -0.2872783004 0.0602480837 0.4095847987 -0.031490415 0.4096891358 -0.031844948 -0.2949365907 0.0573613591
70299580.0 -0.2854479099 0.0623323827 0.4105394946 -0.0367059201 0.4110965369 -0.036847872 -0.2934627455 0.0599414484
75299550.0 -0.2832857196 0.0643189649 0.4116485633 -0.041983769 0.4120056596 -0.0421119296 -0.2914145825 0.0625012481
80299520.0 -0.281432272 0.0666867617 0.4127485679 -0.0474195236 0.4129172769 -0.0475603256 -0.2900364369 0.0648657663
85299490.0 -0.2798240318 0.0685559676 0.413283051 -0.0528055498 0.4135025232 -0.0523765726 -0.2888657819 0.0670936858
90299460.0 -0.2783250498 0.0707644705 0.4137855934 -0.0575863962 0.4137446589 -0.0577863833 -0.2872080992 0.0695019654
95299430.0 -0.276782862 0.0726564843 0.4139705829 -0.0628901335 0.4145151248 -0.0634149581 -0.2861204639 0.0720440253
100299400.0 -0.2751015929 0.0747438214 0.4135911132 -0.0681410841 0.4141745917 -0.0682001523 -0.2850211713 0.0745847576
105299370.0 -0.2740246949 0.076789147 0.4139421977 -0.0733882804 0.4142437736 -0.0733975425 -0.2836916734 0.0764005123
110299340.0 -0.2723677135 0.0787185756 0.4136984861 -0.0784110197 0.413729166 -0.0783474548 -0.2826646444 0.0788439552
115299310.0 -0.2717110231 0.0814481863 0.4135157988 -0.083512092 0.4135855357 -0.0838031022 -0.2820053325 0.0813973625
120299280.0 -0.2703036938 0.0831408528 0.4134413751 -0.0889402411 0.4130519225 -0.0890229677 -0.2807649125 0.0832056763
125299250.0 -0.2693182576 0.0853378741 0.4122758123 -0.0937005293 0.4126054008 -0.09389153 -0.2799764449 0.0862445136
130299220.0 -0.2682023073 0.0873038969 0.4118016756 -0.0988030958 0.4119849202 -0.0992964718 -0.2790257462 0.0882575914
135299190.0 -0.2670919246 0.0900113241 0.411277352 -0.1040478058 0.4115667095 -0.1041470776 -0.2780425223 0.090689272
140299160.0 -0.2661300467 0.0922469323 0.4104188029 -0.1092516202 0.4105640073 -0.108886777 -0.2774885055 0.093271376
145299130.0 -0.2652773584 0.0947732631 0.4094523826 -0.1139186388 0.4095779649 -0.1139167972 -0.2765016573 0.0958106311
150299100.0 -0.2643848819 0.0969682944 0.4083402746 -0.118963454 0.4082850229 -0.1190435096 -0.2752362244 0.0984052341
155299070.0 -0.2631154861 0.0993971928 0.406856434 -0.1233607546 0.4073668237 -0.123905113 -0.2745085987 0.101272868
160299040.0 -0.2624990156 0.1019182769 0.4061584093 -0.1284932071 0.4061872151 -0.1289206642 -0.2736673116 0.1037120565
165299010.0 -0.2613173087 0.104625248 0.4051423085 -0.1333625674 0.4046058883 -0.1336828948 -0.272335742 0.1059875384
170298980.0 -0.2600795995 0.1067639912 0.4030159744 -0.1384317984 0.4037068432 -0.1381118903 -0.2719304854 0.108697004
175298950.0 -0.2591205176 0.1092396157 0.4022324969 -0.1431188043 0.4021836682 -0.1435091269 -0.2707302121 0.1118950283
180298920.0 -0.2579380802 0.1119970692 0.4003401359 -0.1479434601 0.4004522939 -0.1483204396 -0.2694418402 0.11380972
185298890.0 -0.2568846398 0.1142083742 0.3990680745 -0.1526999431 0.3991259287 -0.1527958882 -0.2683982753 0.1168444586
190298860.0 -0.2558776482 0.1172311898 0.3971057973 -0.1574208705 0.3974425943 -0.1572102312 -0.2676631889 0.119476234
195298830.0 -0.2547970198 0.1195964543 0.3961029811 -0.1618955603 0.3959798812 -0.1621494556 -0.266611999 0.122235965
200298800.0 -0.2535207108 0.1218838798 0.3941160368 -0.1669047546 0.394240904 -0.1667674849 -0.265499419 0.1248092722
205298770.0 -0.2527867435 0.1246309978 0.3920936889 -0.1709623027 0.3925058791 -0.1707853828 -0.2641087522 0.1275068368
210298740.0 -0.251384552 0.1273042913 0.3905679467 -0.1755618131 0.3903951252 -0.1757280086 -0.2635030582 0.1300370449
215298710.0 -0.2502008732 0.1301294321 0.388216689 -0.1798946222 0.3884015344 -0.1805633694 -0.2620300343 0.1328261225
220298680.0 -0.2491437305 0.1325104442 0.3866316213 -0.1846427654 0.3863539999 -0.1847139748 -0.2607971014 0.1354665006
225298650.0 -0.247850569 0.1353395798 0.3844375424 -0.1890060004 0.384762265 -0.188785548 -0.259841799 0.1381326457
230298620.0 -0.2464132667 0.138078032 0.3827249097 -0.1937273052 0.382999451 -0.1936171305 -0.2584275429 0.1405370315
235298590.0 -0.2455261889 0.140692839 0.3807600315 -0.1983958543 0.3806439164 -0.1979305374 -0.2572901609 0.1435099355
240298560.0 -0.2441787947 0.1431622927 0.3782024125 -0.2023467279 0.3784029377 -0.2022587595 -0.2559687589 0.1458846479
245298530.0 -0.2427746458 0.1456418148 0.3759173025 -0.2066044656 0.3759782516 -0.2068406459 -0.2546833279 0.1490102486
250298500.0 -0.2416690947 0.1483052258 0.3738395482 -0.2107843082 0.3739664365 -0.2105474079 -0.2533593303 0.1518406003
255298470.0 -0.2400447379 0.151430773 0.3714550692 -0.2149118217 0.3719382132 -0.2152404633 -0.2517485092 0.1545619713
260298440.0 -0.238906555 0.153722575 0.3696114052 -0.2191451842 0.3695359222 -0.2191663198 -0.2505417887 0.1568650879
265298410.0 -0.2375519311 0.1563894031 0.3669280404 -0.2236398152 0.3666103255 -0.2236032336 -0.2485474693 0.1595849619
270298380.0 -0.2360615168 0.1584841512 0.3642626053 -0.2271235111 0.3645865136 -0.2274507175 -0.2471173351 0.1626424632
275298350.0 -0.2346450237 0.161594045 0.361608187 -0.2310197084 0.3618824182 -0.2314779953 -0.2457997661 0.1650949542
280298320.0 -0.2333001731 0.1640233748 0.3596634935 -0.2350663472 0.3593595309 -0.2356615202 -0.2435880865 0.1674362862
285298290.0 -0.2315430948 0.1667879112 0.3566050749 -0.2397575509 0.3569764657 -0.239589015 -0.2426774674 0.1705001517
290298260.0 -0.2297451514 0.1692170504 0.3541702487 -0.2437249846 0.3544559302 -0.2436909934 -0.2412665009 0.1730117666
295298230.0 -0.2286045883 0.1715212206 0.3515601222 -0.247901 0.3516136335 -0.2480629897 -0.2390096259 0.1754847217
300298200.0 -0.226634708 0.1742735777 0.3490871703 -0.2516868825 0.3489370094 -0.2518015783 -0.2372049877 0.1781886623
305298170.0 -0.2250481271 0.1765149278 0.3459098969 -0.2557501652 0.3464842804 -0.2558438992 -0.2356768206 0.180655699
310298140.0 -0.2230511674 0.1786963872 0.3433091371 -0.2594720238 0.3436644639 -0.2593202519 -0.2337641077 0.1831721987
315298110.0 -0.2219709637 0.1809954288 0.3405011281 -0.2635393026 0.3405749311 -0.263856659 -0.2321063812 0.1859702014
320298080.0 -0.2200672666 0.183831955 0.3371160137 -0.2672826661 0.3379391549 -0.2674943618 -0.2303030661 0.1882729713
325298050.0 -0.2188620202 0.1854923274 0.3343652545 -0.2707536962 0.3346781664 -0.2710688627 -0.2280106407 0.1905970956
330298020.0 -0.2172018029 0.1884983487 0.3312622389 -0.2751551718 0.3314975363 -0.2754818702 -0.2266846168 0.1931206658
335297990.0 -0.2151450115 0.190796664 0.3281172048 -0.2783636053 0.3285503477 -0.2788263083 -0.2248880238 0.1955253277
340297960.0 -0.2135954351 0.1932860492 0.3247809617 -0.2823280797 0.325287054 -0.2822857383 -0.2229635883 0.1982707328
345297930.0 -0.21198538 0.1954292987 0.321917749 -0.2858978917 0.3219052819 -0.2859835747 -0.2209286906 0.200707082
350297900.0 -0.2101887046 0.1980621535 0.3190002535 -0.2891114838 0.3190425475 -0.2890646864 -0.2193186832 0.2027438418
355297870.0 -0.2082623108 0.2002611512 0.3153943435 -0.2927829421 0.3156590236 -0.2925438787 -0.2170251778 0.2055809249
360297840.0 -0.2062120168 0.2026237149 0.3120375662 -0.2962248251 0.3125607067 -0.2962806276 -0.2151828059 0.2081348707
365297810.0 -0.204680184 0.2049642079 0.3089160457 -0.299369867 0.3092925516 -0.2995366422 -0.2132504677 0.2103518198
370297780.0 -0.2027094213 0.2074660541 0.3054601944 -0.303124486 0.305746828 -0.3031372739 -0.2110086498 0.2129576999
375297750.0 -0.2005434516 0.2095853516 0.3021780426 -0.3062529055 0.3021879134 -0.3068163797 -0.2085718129 0.2152344486
380297720.0 -0.1987052723 0.2120585345 0.2991461358 -0.3099507145 0.2989911251 -0.3098507512 -0.2062927421 0.2177594279
385297690.0 -0.1967211801 0.2139832117 0.2954394542 -0.3129612356 0.2955669021 -0.3133260624 -0.2043513921 0.2200194962
390297660.0 -0.1940597583 0.2161368026 0.2918267193 -0.3158601364 0.2923465092 -0.3160018154 -0.2019336504 0.2222874401
395297630.0 -0.1919485983 0.2183044404 0.288826435 -0.3189626965 0.2883787521 -0.3190803734 -0.1995306139 0.2242895021
400297600.0 -0.1903700818 0.2206114279 0.2851524382 -0.3224297065 0.285401834 -0.3225805778 -0.1976556734 0.2267979793
405297570.0 -0.1879260334 0.2221371275 0.28140726 -0.3253272134 0.2815544401 -0.3256848633 -0.1949756609 0.2293206013
410297540.0 -0.1853597519 0.2247353798 0.2777722058 -0.3285256972 0.2779797892 -0.3287301203 -0.1926400432 0.2314020167
415297510.0 -0.1834488816 0.2266711671 0.274216028 -0.3316687636 0.2741967442 -0.3316664288 -0.1896561928 0.2330923278
420297480.0 -0.181271038 0.2288430608 0.2705990625 -0.3344695643 0.2708316712 -0.335084039 -0.1875098856 0.2363107582
425297450.0 -0.1784591211 0.2307480125 0.2670417883 -0.337477757 0.2669481012 -0.3375061218 -0.1855706485 0.2375000337
430297420.0 -0.1765929379 0.2329107861 0.2636740359 -0.340697652 0.2631924363 -0.3402457151 -0.1825086506 0.240152611
435297390.0 -0.1740101151 0.2347398459 0.259102855 -0.3438924845 0.2593014111 -0.3432111601 -0.1807138846 0.2426579917
440297360.0 -0.1714213469 0.2364183657 0.2552853199 -0.3459704669 0.2552873048 -0.3463266461 -0.1776350761 0.2444602623
445297330.0 -0.1690635892 0.2383990404 0.251408034 -0.3488712668 0.251718373 -0.3490309698 -0.1753796717 0.2463786704
450297300.0 -0.1665265867 0.2403302868 0.2479118529 -0.351280911 0.2482756332 -0.3517427797 -0.1726454737 0.2481433644
455297270.0 -0.1643487806 0.2423092171 0.2438748988 -0.3541300035 0.2441455818 -0.3545980777 -0.1700538172 0.2505591372
460297240.0 -0.1615595907 0.244027468 0.2401556987 -0.3572798825 0.2402075041 -0.3572676244 -0.1674777581 0.2525484804
465297210.0 -0.1591772415 0.2457905742 0.2359229155 -0.3599238673 0.2361647386 -0.3598730517 -0.1649330339 0.2546002906
470297180.0 -0.1566063523 0.247506221 0.2321202586 -0.3619202666 0.2322352461 -0.3623969353 -0.162088629 0.2562835891
475297150.0 -0.1538959691 0.249614221 0.2281097996 -0.3646793258 0.2282023146 -0.3648799339 -0.1593423355 0.258160408
480297120.0 -0.1510178522 0.2513506797 0.2238678271 -0.3672900083 0.2242352294 -0.3671505039 -0.1571696472 0.2599756347
485297090.0 -0.148296856 0.2529951063 0.2199332711 -0.369592688 0.2201302213 -0.3696535136 -0.1541160684 0.2621086227
490297060.0 -0.1454215937 0.2548619033 0.2155457343 -0.3719333138 0.2160718379 -0.3720382372 -0.1513770188 0.2633890946
495297030.0 -0.1431685758 0.2560439397 0.212191835 -0.3742749902 0.2117413999 -0.3743996646 -0.1483700991 0.2650777351
500297000.0 -0.1402858325 0.2578810175 0.2075969394 -0.3765896476 0.2075087534 -0.3764768027 -0.1455890397 0.266828577
505296970.0 -0.1374212773 0.2593656991 0.2036844159 -0.3786053277 0.2036244712 -0.3785959004 -0.1429094427 0.2682962209
510296940.0 -0.1346353334 0.2609710054 0.1996201421 -0.3814244871 0.1994817366 -0.3810885387 -0.1394285659 0.270251872
515296910.0 -0.1319093486 0.2625544853 0.1950867025 -0.3831119122 0.1950697207 -0.3830169841 -0.1374684562 0.2715686322
520296880.0 -0.1288788658 0.2645300899 0.191029279 -0.385057908 0.1908597775 -0.3847927688 -0.1339166777 0.2734963083
525296850.0 -0.1261270385 0.2655014305 0.1865001303 -0.3872709968 0.1863827055 -0.3872222514 -0.1312154757 0.2749372855
530296820.0 -0.1233400853 0.267063459 0.1824066829 -0.3891910929 0.1824192671 -0.3887024472 -0.1284640585 0.2760163612
535296790.0 -0.1198490344 0.2683566501 0.1782687105 -0.3907568692 0.1780970197 -0.3912887869 -0.1252863956 0.277969558
540296760.0 -0.117265171 0.269851401 0.1736361732 -0.3928274621 0.1736277723 -0.3926970393 -0.1224672952 0.2792371185
545296730.0 -0.1146547067 0.2719396756 0.1699982656 -0.3947489803 0.1694295373 -0.3943473025 -0.1195278309 0.2805035013
550296700.0 -0.1111062009 0.2729121663 0.1651560806 -0.3966104939 0.1649184396 -0.3969854284 -0.1164680701 0.2824266658
555296670.0 -0.1083926667 0.274263248 0.1606629138 -0.3985011214 0.1607595786 -0.3979463856 -0.1137811265 0.2831301694
560296640.0 -0.1053304141 0.2753684613 0.1561903509 -0.3999866363 0.1564099719 -0.3998590611 -0.1102083296 0.2846866048
565296610.0 -0.1025111361 0.2767332426 0.1522236224 -0.4016936374 0.1522005424 -0.4010948768 -0.1075022465 0.2859323464
570296580.0 -0.0992593097 0.2782751779 0.1472945867 -0.4029785987 0.1475127435 -0.4030276467 -0.1046523164 0.287192559
575296550.0 -0.0963791174 0.279258855 0.1436207047 -0.405002818 0.1430403212 -0.4046512538 -0.1013483929 0.2884308361
580296520.0 -0.0931383863 0.2804809541 0.1386263457 -0.4061687875 0.1387973453 -0.4065469965 -0.0988255322 0.2897183984
585296490.0 -0.0898342643 0.2814715884 0.1344649281 -0.4073841257 0.1342080789 -0.4077556249 -0.0951984811 0.2910725353
590296460.0 -0.0866215619 0.2831138401 0.1300821032 -0.4092757146 0.1300410561 -0.409275401 -0.0923090399 0.2924105694
595296430.0 -0.083811716 0.2841013188 0.1249953426 -0.4103785046 0.1249282419 -0.4104229941 -0.0892608625 0.2930121376
600296400.0 -0.080714605 0.2850260576 0.1205948105 -0.4114488131 0.1209007086 -0.4115813113 -0.086177279 0.2939967204
605296370.0 -0.0780018369 0.2860503979 0.1165450972 -0.412611247 0.116337685 -0.4131427791 -0.0830738962 0.2953928998
610296340.0 -0.074513697 0.2875763069 0.1118718237 -0.4134394692 0.112001072 -0.4139025045 -0.0797325041 0.2963208805
615296310.0 -0.0712335256 0.2885799755 0.1074673175 -0.4152781303 0.1069675914 -0.4153839985 -0.0765014879 0.2973735273
620296280.0 -0.0687149177 0.2896585259 0.1029930479 -0.4164136943 0.1025948557 -0.4161835282 -0.0738074131 0.2985483766
625296250.0 -0.0657384254 0.2902586601 0.0981290244 -0.417374788 0.0981000008 -0.4176014836 -0.0707336053 0.29889345
630296220.0 -0.0623595168 0.2916175963 0.0933932543 -0.418731588 0.0931864028 -0.4185732661 -0.0670695099 0.3001895942
635296190.0 -0.059099061 0.2926972666 0.0892039865 -0.419289256 0.0890886608 -0.4192522868 -0.0644802739 0.3006937573
640296160.0 -0.0558906756 0.2930232741 0.0846430786 -0.420324299 0.0842509542 -0.4202637806 -0.0611543574 0.3017204171
645296130.0 -0.0526529365 0.2943631172 0.0801781659 -0.4211927037 0.079836992 -0.4208493566 -0.0583672648 0.302330362
650296100.0 -0.0498466416 0.2945651112 0.0755692709 -0.4219127392 0.0749129119 -0.4222469695 -0.0544281065 0.303011285
655296070.0 -0.0464886896 0.2956889854 0.0706342956 -0.422844401 0.0705955554 -0.4227706567 -0.0517524103 0.3040353842
660296040.0 -0.0432892816 0.2965249335 0.0661291182 -0.4236132297 0.0660782695 -0.4235073831 -0.0485302575 0.3045452136
665296010.0 -0.0402470249 0.2975275336 0.0610133137 -0.4238452386 0.0613325685 -0.424014914 -0.0450064921 0.3049905495
670295980.0 -0.0374577334 0.2979392681 0.0569970878 -0.4246154426 0.0567402372 -0.4244036188 -0.0423096496 0.3055467878
675295950.0 -0.0342247013 0.2985196328 0.0523093904 -0.4249862741 0.0521094358 -0.4253670318 -0.0387802867 0.3065017832
680295920.0 -0.0310772565 0.2995716079 0.047877135 -0.4252613384 0.0477568181 -0.4253945574 -0.0354447583 0.3063640231
685295890.0 -0.0277652242 0.3000572261 0.0432017814 -0.4259960838 0.0428907379 -0.4261204642 -0.0322411695 0.3073678664
690295860.0 -0.0248944701 0.3003404244 0.0387240538 -0.4260797063 0.0380623569 -0.4266551435 -0.0290234918 0.3080575246
695295830.0 -0.0215171038 0.3008366703 0.0342191237 -0.4269872076 0.0339130807 -0.4266559796 -0.0260989946 0.3085705146
700295800.0 -0.0183263432 0.3017391342 0.0296243096 -0.4272124305 0.02918389 -0.4271882347 -0.0224811247 0.3086765716
705295770.0 -0.0157370514 0.3021491989 0.0248224595 -0.4277634156 0.0243939765 -0.4275861883 -0.0196168414 0.3091635419
710295740.0 -0.0123627848 0.3021315432 0.0202688382 -0.4277807112 0.0200815603 -0.4281053492 -0.0161036631 0.3096451785
715295710.0 -0.0089697052 0.3027827752 0.0157473909 -0.4282446684 0.0152879343 -0.4281336348 -0.0127256058 0.3095364532
720295680.0 -0.0058438381 0.3030576257 0.010927423 -0.4277854896 0.0104645505 -0.4280966822 -0.0094418567 0.3095993593
725295650.0 -0.0030733505 0.3039081142 0.0065689187 -0.4278758305 0.0060984681 -0.4280635573 -0.0066054442 0.3105088615
730295620.0 -0.0003440031 0.3039046121 0.0019444365 -0.4275815034 0.0013101782 -0.4278491043 -0.0035674554 0.3107700272
735295590.0 0.0031103344 0.3041056942 -0.003039714 -0.427631639 -0.0028503942 -0.4276688941 -2.14319e-05 0.3103224476
740295560.0 0.0056793816 0.304280345 -0.0073801977 -0.4278759081 -0.0073418615 -0.4283576505 0.003082099 0.3107854783
745295530.0 0.0090364932 0.3045343787 -0.0118505266 -0.4271947716 -0.0118948346 -0.4276015805 0.0062146394 0.3109379893
750295500.0 0.0121859311 0.3051213184 -0.0164582505 -0.427348025 -0.0169023419 -0.4277893622 0.00956344 0.3108617335
755295470.0 0.0148978683 0.3048453168 -0.0205938698 -0.4275550479 -0.0213344644 -0.4273691127 0.0129534501 0.3111600224
760295440.0 0.0181807669 0.3051993855 -0.0261357108 -0.4272051882 -0.0264040309 -0.4268410236 0.0163122406 0.3105606009
765295410.0 0.0216741347 0.3046060322 -0.0305445606 -0.4264612382 -0.0303796281 -0.4265842697 0.0196680704 0.3108162214
770295380.0 0.0242431842 0.3051974769 -0.0348973214 -0.4262271892 -0.0351739647 -0.4265019214 0.0223940846 0.3112949349
775295350.0 0.0275233222 0.3049510867 -0.0400855698 -0.4258149456 -0.0396921378 -0.4253877609 0.0261242235 0.3108143379
780295320.0 0.0304378557 0.3049247487 -0.0440821067 -0.4251683191 -0.0442359413 -0.4254799488 0.0293360001 0.3107583147
785295290.0 0.0335389376 0.3044679754 -0.0488026768 -0.4244678414 -0.0488289026 -0.4250473535 0.0322221554 0.3110224709
790295260.0 0.036615564 0.3042986868 -0.0533134947 -0.4243747185 -0.0533761415 -0.4247253423 0.0355271705 0.3106686051
795295230.0 0.039497769 0.3040908214 -0.0576276284 -0.4237066264 -0.0579542515 -0.4237556704 0.0387979478 0.3095797506
800295200.0 0.0425127307 0.3044790574 -0.062368207 -0.4224564481 -0.0626424201 -0.4229897732 0.0418293309 0.3097558161
805295170.0 0.045562846 0.3041531959 -0.066800122 -0.4222939248 -0.067053577 -0.4226385216 0.0459081971 0.3095256858
810295140.0 0.0489099461 0.3038932661 -0.0711943491 -0.4211663537 -0.071686321 -0.4213778082 0.0490134805 0.3089631283
815295110.0 0.0517848734 0.3033452866 -0.0759026089 -0.4205123923 -0.0755376391 -0.4208543415 0.0517571332 0.3087376866
820295080.0 0.0548239207 0.3032571045 -0.0798639163 -0.4199965492 -0.0801137144 -0.4201075523 0.0541627644 0.3087725158
825295050.0 0.0576749807 0.3025445505 -0.0848751247 -0.4189870489 -0.08511265 -0.4191847401 0.0585252131 0.3082354542
830295020.0 0.0609161972 0.3021314246 -0.0895543332 -0.4180035823 -0.0895749133 -0.4181222653 0.0615265293 0.307405096
