!Created with skrf (http://scikit-rf.org).
# Hz S RI R 50.0 
!freq ReS11 ImS11 ReS21 ImS21 ReS12 ImS12 ReS22 ImS22
300000.0 -0.7686969007 -0.175602576 3.98021e-05 0.0012662617 -0.0005098948 0.0022846127 -0.7596385282 -0.1935507754
5299970.0 -0.785973311 -0.0095990032 2.64056e-05 -3.38498e-05 0.0001371593 -0.0001340241 -0.7847017995 -0.0094607846
10299940.0 -0.7893715292 -0.0059549912 4.38565e-05 2.10429e-05 7.2201e-05 0.0002235645 -0.7872267008 -0.0054105266
15299910.0 -0.7941027158 -0.0030116551 -0.0001910573 0.0001889118 -2.06984e-05 8.63715e-05 -0.7928370302 -0.0026816695
20299880.0 -0.800854842 0.0005593276 5.5433e-05 4.57594e-05 0.0002756563 5.91043e-05 -0.7995871975 0.001302512
25299850.0 -0.8075202526 0.006490511 -0.0001341717 2.50912e-05 0.0001747099 8.24028e-05 -0.8061802229 0.0080377374
30299820.0 -0.8141420825 0.0141856427 5.74028e-05 -5.30646e-05 -0.0001269073 -0.0001072925 -0.8118786009 0.0156880786
35299790.0 -0.8186383565 0.0231505518 -0.0001168969 -4.80328e-05 -0.0001427013 -3.74419e-05 -0.8170550668 0.024810431
40299760.0 -0.8233433322 0.0318030059 1.24638e-05 -0.0001085716 -1.3829e-06 5.5381e-06 -0.821042375 0.0340026197
45299730.0 -0.8268293963 0.0419891447 -7.53118e-05 9.1006e-05 1.35724e-05 -6.90164e-05 -0.8239483309 0.0438093317
50299700.0 -0.8292015089 0.051938109 0.0001948074 -1.24227e-05 -0.0002522232 -4.31838e-05 -0.8265345946 0.0539384254
55299670.0 -0.8312508394 0.0614496403 7.79882e-05 -0.0002342749 -0.0001967145 -0.000100811 -0.8284832743 0.0637728898
60299640.0 -0.8328378626 0.0718369988 7.27078e-05 7.05851e-05 -0.0001469802 -9.20071e-05 -0.8294426035 0.0739502803
65299610.0 -0.8336680444 0.0819788245 -1.75538e-05 -0.0001379074 -8.92853e-05 0.0001760667 -0.8303055471 0.0841753479
70299580.0 -0.8334075776 0.0914160232 -0.0001051887 -0.0001977101 -0.0001639185 -2.83798e-05 -0.8307155821 0.0935019874
75299550.0 -0.8334293341 0.1013578986 2.9497e-05 -2.5647e-06 7.62933e-05 -7.25216e-05 -0.8306951511 0.1041271785
80299520.0 -0.8340251641 0.1118894937 2.87524e-05 1.78806e-05 -0.0002258743 -6.47196e-05 -0.831026169 0.1137595895
85299490.0 -0.8325863042 0.1213646351 -0.0002208182 -6.66999e-05 -0.0001737701 2.14037e-05 -0.8301057573 0.1232572273
90299460.0 -0.8319926645 0.1316472379 -2.01755e-05 -8.9065e-05 -9.12699e-05 0.0001099996 -0.8290011934 0.1324547158
95299430.0 -0.8317317796 0.1407096766 -0.0001343722 0.0001316481 0.0001525466 -0.0001038602 -0.8281976912 0.1427305925
100299400.0 -0.8302748256 0.149671833 4.45649e-05 -1.21942e-05 -6.41151e-05 2.75737e-05 -0.8269268766 0.1517675375
105299370.0 -0.8294255444 0.1591133201 -5.18366e-05 6.20708e-05 6.89694e-05 -5.09286e-05 -0.8257499737 0.1610466424
110299340.0 -0.8279279057 0.168818804 1.14662e-05 5.86839e-05 0.0001989349 3.35367e-05 -0.8243186781 0.1697673171
115299310.0 -0.8258966435 0.1773279936 -0.0001330298 0.000299382 0.0001115235 -0.0002447871 -0.823353778 0.17916614
120299280.0 -0.8242574445 0.1869452527 0.0002238321 -3.44409e-05 -7.0941e-06 -0.000129891 -0.8209172407 0.1876631925
125299250.0 -0.8224570888 0.195470938 6.27659e-05 -2.2549e-05 -0.0001199075 1.71088e-05 -0.8194239614 0.1973623354
130299220.0 -0.8208192378 0.2047815649 2.56982e-05 0.0001414027 -8.79974e-05 -7.35856e-05 -0.8177677109 0.2058394719
135299190.0 -0.8188431933 0.2142081471 -7.99847e-05 -1.49865e-05 -2.36049e-05 3.9987e-06 -0.8155342455 0.2150669166
140299160.0 -0.8174924597 0.2234787681 -5.39921e-05 0.0001024165 0.0002094306 5.26348e-05 -0.8138831054 0.2236615629
145299130.0 -0.814940835 0.2323846487 -5.63763e-05 -6.00824e-05 -6.94027e-05 -0.0002141948 -0.8118249557 0.2323288907
150299100.0 -0.8117934725 0.2410973907 -0.000141597 6.42578e-05 0.0001174202 0.0002569164 -0.8099191159 0.2415224301
155299070.0 -0.8103564353 0.2502667973 -7.45291e-05 1.52073e-05 9.90956e-05 -1.06263e-05 -0.8067524644 0.2507011346
160299040.0 -0.8076728476 0.2592785117 1.04426e-05 -3.49556e-05 0.0001676234 0.0002355831 -0.8045926609 0.2593673277
165299010.0 -0.8045529408 0.2671928663 -0.0001891888 -0.0001288143 -8.26243e-05 0.000197443 -0.8015891319 0.2671156801
170298980.0 -0.8017388158 0.2763874526 -8.98735e-05 0.000119722 -0.0002324943 -0.0001601399 -0.7991800792 0.2756997887
175298950.0 -0.7993386817 0.284448641 -0.0001594441 -4.86396e-05 -8.2521e-06 -4.14133e-05 -0.7958773158 0.2850593383
180298920.0 -0.796040101 0.2930901386 5.81151e-05 -4.7145e-06 -0.0001354843 -0.0001062043 -0.7933139452 0.2933702052
185298890.0 -0.7927252712 0.3023903495 0.0002077504 8.69797e-05 -0.0001247976 -2.5071e-05 -0.790231741 0.3015954948
190298860.0 -0.7897864137 0.3112063568 -5.84991e-05 -7.78773e-05 9.51999e-05 -0.0001348862 -0.7867578958 0.309994101
195298830.0 -0.7868224965 0.3192463789 0.0001464768 -0.0002695988 -8.32673e-05 -0.0001143664 -0.7841454816 0.317861572
200298800.0 -0.7832572682 0.3283700638 8.76558e-05 -0.0001928455 5.19138e-05 0.0001373335 -0.7811404839 0.3267076873
205298770.0 -0.7790241339 0.3362787397 7.69381e-05 1.32056e-05 7.6099e-06 -6.2401e-05 -0.7775736095 0.3349948725
210298740.0 -0.7759456698 0.3446776832 -4.2944e-06 -0.000146766 0.0001013897 8.52164e-05 -0.7736857697 0.3431867319
215298710.0 -0.7721913662 0.3531513285 -6.44399e-05 8.05258e-05 -7.59556e-05 -0.0001805106 -0.7700591932 0.3515561759
220298680.0 -0.7687086505 0.360939053 6.84e-07 -7.74766e-05 0.0001660321 2.31879e-05 -0.7664224827 0.3593776543
225298650.0 -0.7648027269 0.3692430338 5.68866e-05 -1.51843e-05 -6.58041e-05 8.24623e-05 -0.7629557098 0.3674140084
230298620.0 -0.7614684251 0.3773671448 -5.48084e-05 0.0001835547 -5.13964e-05 3.00379e-05 -0.7588283075 0.3759350334
235298590.0 -0.7572647046 0.3859488873 0.0001600796 0.0001079646 3.43423e-05 -0.0002533956 -0.7549335103 0.3834068895
240298560.0 -0.7527206532 0.3939032605 -1.2002e-05 0.0002449222 0.0001177861 -0.0001041477 -0.7510555215 0.3912217952
245298530.0 -0.7489697789 0.401825068 3.82203e-05 -1.99035e-05 3.77387e-05 -9.64805e-05 -0.74707099 0.3989882887
250298500.0 -0.7446900295 0.4090669966 -0.0001342681 -3.62621e-05 0.0001203393 0.0001600799 -0.7426703805 0.4074288534
255298470.0 -0.7407888779 0.4173020373 -0.0001012686 -1.8948e-05 -3.46523e-05 -0.0001735475 -0.7386410874 0.4144335765
260298440.0 -0.7359814467 0.4251245864 -0.0002405396 6.69453e-05 0.00023134 -0.00013179 -0.7337023213 0.4219293857
265298410.0 -0.7319320233 0.4326520429 3.18554e-05 -1.91342e-05 -0.0001507157 7.21522e-05 -0.7298277579 0.4299076469
270298380.0 -0.7269118047 0.4401670723 -8.15024e-05 -4.30748e-05 -0.0001774953 -0.0001998477 -0.7251263852 0.4382888416
275298350.0 -0.7226970126 0.4479162272 2.75682e-05 3.80672e-05 5.55138e-05 -5.38659e-05 -0.7204812032 0.4458335375
280298320.0 -0.718341894 0.4556081091 0.0001302021 1.88332e-05 0.0001255986 0.0001490642 -0.7158717808 0.4528275506
285298290.0 -0.7134548654 0.463244365 3.59783e-05 4.39969e-05 2.00496e-05 -8.997e-06 -0.711724816 0.4607740668
290298260.0 -0.7088319751 0.4711863533 2.66894e-05 3.31393e-05 -5.27127e-05 4.58837e-05 -0.7061874283 0.4676571266
295298230.0 -0.70386436 0.4779765158 0.0001698194 0.0001083587 -6.2408e-06 5.94486e-05 -0.7015971423 0.4752118521
300298200.0 -0.699298652 0.4855297078 -3.61828e-05 3.09392e-05 -6.73262e-05 -3.01241e-05 -0.6964563215 0.4821682398
305298170.0 -0.694530031 0.4926770681 -8.24111e-05 -0.0001042522 1.72087e-05 3.31966e-05 -0.6917197841 0.4891873797
310298140.0 -0.6885562271 0.4998840105 -2.17349e-05 -0.0001037499 0.0002688165 -1.98266e-05 -0.6862103398 0.4972738316
315298110.0 -0.6848751021 0.5071012522 -7.09973e-05 3.44792e-05 2.08974e-05 -0.0001804372 -0.681374181 0.5038902041
320298080.0 -0.6790587443 0.5148093407 0.0001007566 -4.36733e-05 7.25342e-05 -0.0001318921 -0.6760443124 0.5107545542
325298050.0 -0.6735271196 0.5211261958 -9.6766e-06 1.82753e-05 0.0001124059 -0.0001136684 -0.6701994595 0.5174023699
330298020.0 -0.6680002744 0.5277783198 0.0001252374 -4.33645e-05 0.0002042406 -8.96481e-05 -0.6651689251 0.5246688248
335297990.0 -0.6628165607 0.5348788697 0.0002244007 0.0001553647 -0.0001388887 0.0001514388 -0.6591812958 0.5319433047
340297960.0 -0.6577311541 0.5413425708 -5.66772e-05 -0.0001328233 0.0001675478 0.0001962362 -0.6544356458 0.5386532415
345297930.0 -0.6519888921 0.5485227659 -0.0001847784 0.000131295 -6.50044e-05 1.91298e-05 -0.6484445464 0.5450263169
350297900.0 -0.6464880352 0.5550972835 0.0002284469 0.0001201142 2.9827e-05 -4.57933e-05 -0.6430829577 0.5515470771
355297870.0 -0.6406921805 0.5614325322 3.0247e-06 0.0001614243 -4.8943e-05 0.0001526574 -0.6369952208 0.5586332597
360297840.0 -0.6347602876 0.5679192464 0.0001098734 0.0002279453 -0.000147366 -0.0001614528 -0.6309337157 0.5651329635
365297810.0 -0.6295459066 0.5745090787 0.0001843444 -0.0001073516 -0.0001159224 -5.35399e-05 -0.6254522209 0.5709640239
370297780.0 -0.6232325123 0.5807298763 -6.37127e-05 -0.0001693402 -5.25752e-05 -0.0002265227 -0.6193373467 0.5783919974
375297750.0 -0.6181207068 0.5869391274 4.00814e-05 -0.0002135798 -0.0002028791 9.04957e-05 -0.6134976909 0.5836522742
380297720.0 -0.6119381608 0.5933604054 -7.7477e-05 -3.31141e-05 -8.82257e-05 2.39652e-05 -0.6071203145 0.5905480555
385297690.0 -0.6062535851 0.5992408539 -4.5058e-06 -0.0001100266 0.0003233859 6.37159e-05 -0.6017921706 0.5969621663
390297660.0 -0.5984128771 0.6059070174 1.05639e-05 0.0001011856 -9.91142e-05 -0.000127787 -0.5945264796 0.6022393822
395297630.0 -0.5931734668 0.6117084424 -0.0001052631 -9.72232e-05 3.95615e-05 4.84024e-05 -0.5884808822 0.6081991702
400297600.0 -0.5867865439 0.6180805487 0.000107224 0.0001210998 -3.54204e-05 -1.93723e-05 -0.5824079861 0.6141902467
405297570.0 -0.5809956874 0.6234352801 0.0001622471 -0.000109784 4.56771e-05 -7.81325e-05 -0.575305921 0.6202002885
410297540.0 -0.5737266233 0.6296943432 -6.293e-05 0.0001125818 4.98872e-05 -2.21676e-05 -0.569275304 0.6262916448
415297510.0 -0.567992897 0.6356350794 -0.0002105255 -5.30791e-05 -4.09825e-05 9.7266e-06 -0.562546629 0.6316037714
420297480.0 -0.5609491545 0.6415476831 6.62026e-05 0.0002639251 -0.0001129797 -9.0981e-05 -0.5561829844 0.6378277342
425297450.0 -0.5541216856 0.6463295719 2.54373e-05 4.6174e-06 -6.25989e-05 -0.0001486245 -0.5496536964 0.6427862357
430297420.0 -0.5477642219 0.6515405386 -9.93132e-05 4.77809e-05 -1.5575e-06 9.60664e-05 -0.5431297872 0.6486162912
435297390.0 -0.5407783465 0.6571548514 1.94919e-05 4.03716e-05 7.32539e-05 0.0002139269 -0.5364828561 0.6542572246
440297360.0 -0.5341305044 0.6628498192 -5.14818e-05 1.85492e-05 7.98554e-05 2.90635e-05 -0.5300115201 0.6597397333
445297330.0 -0.5273383594 0.6682244082 2.10983e-05 1.44893e-05 0.0001213106 8.85315e-05 -0.5226593063 0.6650191118
450297300.0 -0.5204727366 0.6742010936 -5.3622e-05 2.9058e-06 1.25596e-05 -0.000184463 -0.5156482838 0.6697850751
455297270.0 -0.5139799221 0.6783627757 -0.0001513201 -1.18674e-05 1.14384e-05 -2.00393e-05 -0.5089612747 0.6752981856
460297240.0 -0.5055685085 0.6837685772 -6.26904e-05 8.453e-06 -5.23534e-05 0.0001634127 -0.5023862021 0.679898467
465297210.0 -0.4997076477 0.6890973864 -7.5172e-06 -0.0001839366 1.6651e-06 -7.18293e-05 -0.4948564983 0.6857894231
470297180.0 -0.491703362 0.6942598596 2.83661e-05 1.8689e-05 -3.59793e-05 6.19669e-05 -0.4882338044 0.6901060322
475297150.0 -0.4850759624 0.6986856232 0.0002226593 -7.37538e-05 -8.60334e-05 -2.87244e-05 -0.4815470332 0.6954929336
480297120.0 -0.4767670656 0.7041010803 0.0001229876 6.13129e-05 -6.94506e-05 -0.0001665803 -0.4739540225 0.6997967947
485297090.0 -0.4698798789 0.708484741 5.73503e-05 -8.00474e-05 -0.0001542262 5.72531e-05 -0.4667996057 0.7047560261
490297060.0 -0.4624865068 0.7139859676 7.86901e-05 3.67121e-05 0.0001033458 0.000193969 -0.459759651 0.7090701325
495297030.0 -0.4547451962 0.7183278645 0.0001150981 -9.91231e-05 -0.0002021678 -0.0001358334 -0.4524334012 0.7141360146
500297000.0 -0.4469535811 0.72225438 1.36754e-05 0.0001028869 -3.67662e-05 -0.0001362872 -0.4451042751 0.7185946546
505296970.0 -0.4392995739 0.7274146479 -0.0001833922 0.0001842286 -9.5424e-05 7.53854e-05 -0.437692264 0.7231748817
510296940.0 -0.4322618144 0.7313554289 5.701e-05 0.0001035632 0.0001097323 6.51189e-05 -0.4298999283 0.727482105
515296910.0 -0.4244808214 0.7351535527 8.47603e-05 -0.0001387571 -6.641e-07 0.0001395678 -0.4232677523 0.7310891747
520296880.0 -0.4163491266 0.7399084982 2.94617e-05 -9.75439e-05 -9.3958e-05 0.0001955481 -0.4152096641 0.7356793672
525296850.0 -0.4085400519 0.7439493056 1.59573e-05 0.000154939 -3.60055e-05 -7.39255e-05 -0.4078267054 0.7396368937
530296820.0 -0.4012275537 0.7479028349 -8.12128e-05 -3.19593e-05 -9.0379e-05 4.77223e-05 -0.4004962649 0.7436529463
535296790.0 -0.3932470215 0.7518267785 -0.0001570591 -7.52743e-05 -9.84739e-05 7.50308e-05 -0.3927562013 0.7484791723
540296760.0 -0.3852428515 0.755571873 -1.15164e-05 9.39734e-05 0.0001064996 -4.43931e-05 -0.3849250932 0.7518521039
545296730.0 -0.3774357088 0.7600411597 -0.0001078963 -0.0001265013 0.0001348474 -0.000160245 -0.3773052598 0.7555411602
550296700.0 -0.3692537665 0.7637466711 5.63112e-05 1.47708e-05 3.38068e-05 3.71523e-05 -0.3701046356 0.7591893116
555296670.0 -0.3613061965 0.7673037497 5.3548e-06 3.71798e-05 -6.1761e-06 -0.0002632633 -0.3622904797 0.7624908216
560296640.0 -0.3530894291 0.7706765404 -7.94684e-05 -1.1491e-06 3.4223e-06 0.0001910946 -0.3547265775 0.7668875238
565296610.0 -0.3456632842 0.7740762783 5.24308e-05 9.09401e-05 -2.09767e-05 -0.0001343409 -0.3467211353 0.7698301372
570296580.0 -0.3370236483 0.7779201632 -8.80434e-05 4.3182e-06 3.20608e-05 3.94595e-05 -0.3392086649 0.7728973641
575296550.0 -0.3286166197 0.7815559656 0.0001559115 6.75405e-05 -3.3063e-05 0.0002522601 -0.3313183012 0.776420962
580296520.0 -0.3211043137 0.7843335396 0.0001250172 -2.7844e-06 0.0001024277 7.93549e-05 -0.3235665793 0.779354481
585296490.0 -0.3122701148 0.787841106 -9.6418e-06 0.0001416847 -1.565e-06 0.0001326709 -0.3154095278 0.7836124467
590296460.0 -0.3038694411 0.7909383387 2.70958e-05 3.68869e-05 0.0001698784 -0.0001420157 -0.3076489493 0.7851660464
595296430.0 -0.2959928339 0.7938101129 -7.6823e-06 -5.71247e-05 0.0001278949 0.0001154509 -0.2998201189 0.7895034911
600296400.0 -0.288223519 0.7970088067 -0.0001546796 0.0002232609 -8.91522e-05 -3.393e-05 -0.2919234811 0.7919313508
605296370.0 -0.2797531323 0.7992893955 -5.18224e-05 -4.31869e-05 -8.8278e-05 -3.365e-06 -0.2836564582 0.7953651079
610296340.0 -0.2713852126 0.8027505101 7.11501e-05 7.69983e-05 4.68822e-05 -0.0001144221 -0.2762452502 0.7978678509
615296310.0 -0.2630563609 0.8052703426 -7.30847e-05 8.25343e-05 3.18763e-05 -1.26353e-05 -0.26752157 0.8006509926
620296280.0 -0.2553756903 0.8086200012 -0.0002130866 7.267e-06 -1.928e-06 -0.0001059682 -0.2598818857 0.8030629873
625296250.0 -0.2474440198 0.8101769235 -1.51177e-05 1.28909e-05 2.27293e-05 9.23018e-05 -0.2514870763 0.8051961986
630296220.0 -0.2390643625 0.8130316482 1.57041e-05 -9.78306e-05 3.88538e-05 6.39945e-05 -0.2435070614 0.8081443236
635296190.0 -0.2299717734 0.8155672176 6.5036e-06 -2.6201e-05 6.71148e-05 8.61206e-05 -0.2357095411 0.8101936744
640296160.0 -0.221632639 0.817416458 0.0001014825 9.39438e-05 1.9175e-06 6.37778e-05 -0.2271142903 0.812814832
645296130.0 -0.2132733178 0.8207216767 -3.16231e-05 0.0001490789 -0.0001338518 -9.58143e-05 -0.219333027 0.8146483044
650296100.0 -0.2054212061 0.8217495433 -5.26681e-05 7.67989e-05 -5.42633e-05 -2.91073e-05 -0.2108760848 0.8169310775
655296070.0 -0.1975455392 0.8242286076 1.84653e-05 9.9665e-05 -8.19354e-05 -0.0001295074 -0.2028231969 0.8190567457
660296040.0 -0.1895541096 0.825958443 -0.0002497852 -0.0002461873 -7.06772e-05 2.82096e-05 -0.1942980481 0.8209912367
665296010.0 -0.1806360184 0.828504333 -3.9077e-05 2.46512e-05 -8.57782e-05 -9.15661e-05 -0.1863094869 0.8220107766
670295980.0 -0.1726485479 0.8303209433 2.89823e-05 4.21824e-05 7.36073e-05 0.0001140109 -0.1784434114 0.8245705113
675295950.0 -0.1639744715 0.8318955992 8.79766e-05 -5.79528e-05 3.25778e-05 -4.98735e-05 -0.1695443175 0.8262839026
680295920.0 -0.1559690012 0.8338174632 -0.0002814632 0.0002937882 -6.67369e-05 6.47348e-05 -0.1614340945 0.8273907771
685295890.0 -0.147779947 0.8356835796 0.0002863657 8.5635e-05 -0.0001257032 3.85536e-05 -0.1533267713 0.8297045309
690295860.0 -0.1389701134 0.8371933246 9.30088e-05 9.26797e-05 -3.66698e-05 5.04491e-05 -0.1451428289 0.8311967824
695295830.0 -0.1306417321 0.8388912275 0.0001334903 -0.0001178048 1.64243e-05 0.0001683936 -0.1368854536 0.8327671492
700295800.0 -0.1226079368 0.8398910109 9.7438e-05 -0.0001741643 -0.0001677631 6.63033e-05 -0.1284375226 0.8338127076
705295770.0 -0.1148962522 0.8418351023 -7.18166e-05 -0.0002341609 -0.0001071259 -0.0001499635 -0.120259057 0.8352299481
710295740.0 -0.1062891061 0.842153988 -2.84323e-05 -7.77816e-05 3.74684e-05 -5.92305e-05 -0.111778953 0.8365289828
715295710.0 -0.0976228609 0.8434907038 4.84386e-05 -4.0218e-05 -6.73876e-05 0.0001025824 -0.1028605075 0.8370320072
720295680.0 -0.0887115982 0.8443313466 6.9125e-05 3.68032e-05 0.0001654487 0.0001356139 -0.0950025891 0.8377009945
725295650.0 -0.0814996944 0.8456154905 -9.80098e-05 -1.71871e-05 -1.6964e-06 -0.0001001117 -0.0867607709 0.8394320189
730295620.0 -0.0734875216 0.8466317252 -8.64043e-05 -4.64297e-05 1.76381e-05 8.11163e-05 -0.0789520389 0.8403815682
735295590.0 -0.0658142308 0.8476292266 -4.42393e-05 -8.41542e-05 3.3511e-05 2.10288e-05 -0.069511341 0.8403528006
740295560.0 -0.0574747706 0.8476121866 -0.0001518345 0.00011208 7.95757e-05 7.84573e-05 -0.0611970023 0.8412083792
745295530.0 -0.0487927593 0.8486971491 7.67091e-05 -6.60899e-05 -0.0001379386 7.59221e-05 -0.0533549257 0.8416658317
750295500.0 -0.041243297 0.8495543053 -0.0001640175 -9.89353e-05 0.0001065676 8.00062e-05 -0.0446573895 0.8421277335
755295470.0 -0.0321364301 0.8498514072 -4.5169e-05 -0.0001338424 4.49563e-05 -1.94445e-05 -0.0368180215 0.8429472319
760295440.0 -0.024430402 0.8508331813 -6.91001e-05 0.0001206807 -1.93384e-05 -0.0001430284 -0.0278947518 0.8430013062
765295410.0 -0.0156251265 0.8511106572 -1.1416e-06 -2.9678e-06 2.41558e-05 -6.4701e-06 -0.0197271067 0.8432629699
770295380.0 -0.008374777 0.8506287026 0.0001156225 -2.08314e-05 5.37854e-05 -0.0001305615 -0.011401339 0.8432128348
775295350.0 -9.9682e-05 0.851493737 -1.36391e-05 9.11583e-05 6.99058e-05 -2.21739e-05 -0.0034690408 0.8429579904
780295320.0 0.0089952024 0.8510247874 -9.55977e-05 -0.0001605467 -4.03244e-05 7.10039e-05 0.0053898503 0.843707674
785295290.0 0.017201623 0.8514876483 -0.0001198109 6.73543e-05 -2.03163e-05 -0.000105609 0.0131694047 0.8435432164
790295260.0 0.0249114796 0.85074362 -4.98269e-05 0.0002428285 6.27256e-05 8.0845e-06 0.0218597092 0.8434458582
795295230.0 0.0331681725 0.8506595321 -9.14804e-05 -0.0002750297 0.0002103769 9.37243e-05 0.0300560799 0.8422352766
800295200.0 0.0410344719 0.8507267748 8.50363e-05 -0.0001596011 4.16632e-05 -1.76645e-05 0.038164757 0.8421827402
805295170.0 0.0488940848 0.8505772591 -0.000269228 -1.84159e-05 0.0002068064 -5.89688e-05 0.0472740131 0.8419998472
810295140.0 0.0578439956 0.8507300857 -3.54429e-05 -7.03572e-05 -0.0001018842 6.39783e-05 0.0560704409 0.8413160699
815295110.0 0.0653332742 0.84981866 0.0001678687 -0.0001495338 -8.72228e-05 0.0001141582 0.0635017736 0.8408780414
820295080.0 0.0736811787 0.848862454 9.56926e-05 3.03338e-05 0.0001449054 0.0001148362 0.0711920453 0.840290177
825295050.0 0.0817331769 0.8483889699 -0.0001386452 -0.0001463751 -6.86461e-05 0.0001897915 0.0802532606 0.8395561616
830295020.0 0.090907097 0.8475194721 0.0001700154 0.0001144115 3.09314e-05 4.20315e-05 0.0881233467 0.8380911754
835294990.0 0.0980142065 0.8468171004 0.0002747036 -4.46697e-05 -0.0001615317 0.0001211951 0.0967168151 0.8377826066
840294960.0 0.106824417 0.8458943238 -0.0002087848 5.84346e-05 -1.93131e-05 7.28894e-05 0.1053307889 0.8367609579
845294930.0 0.1146147078 0.844421915 -0.0001068927 2.454e-06 -6.74358e-05 8.52379e-05 0.1135196227 0.8355537973
850294900.0 0.1242429482 0.8435418507 -3.31475e-05 -7.18098e-05 -0.000157078 0.0001932025 0.1211321718 0.8348175001
