!Created with skrf (http://scikit-rf.org).
# Hz S RI R 50.0 
!freq ReS11 ImS11 ReS21 ImS21 ReS12 ImS12 ReS22 ImS22
300000.0 -0.2410926481 -0.0811533151 0.4716896118 0.0559368821 0.4701776057 0.0511004821 -0.2395950794 -0.0904435689
5299970.0 -0.2451292655 0.006852763 0.4749012826 0.0047362601 0.4749198347 0.0049101819 -0.241513017 0.0077921103
10299940.0 -0.2418709363 0.0179701453 0.4768755482 0.0062844972 0.4767233719 0.0060335608 -0.2381040257 0.0205380828
15299910.0 -0.2376043264 0.0268801762 0.4802433465 0.0076329445 0.4809446935 0.0075840346 -0.233558297 0.0301495218
20299880.0 -0.2329429569 0.0339970907 0.4850489528 0.0082284907 0.4849497681 0.0079928995 -0.2281804114 0.0378394439
25299850.0 -0.2279718612 0.0404241265 0.4902829229 0.00741498 0.4903499544 0.0073369754 -0.2223640506 0.0444388577
30299820.0 -0.2227302178 0.0448754628 0.4955869221 0.0050381931 0.4956853327 0.0048583597 -0.2162478783 0.0499816311
35299790.0 -0.2174630586 0.0492593492 0.5010482278 0.0012847181 0.5009972925 0.0018550044 -0.2109212933 0.0541924429
40299760.0 -0.2126551591 0.0525613993 0.5059136619 -0.0024154817 0.5064611701 -0.002238709 -0.205526312 0.0572631399
45299730.0 -0.2079712901 0.0548464203 0.510583851 -0.0070457476 0.5108672532 -0.0069446612 -0.2004142799 0.0599241305
50299700.0 -0.2037707333 0.0569367724 0.515130245 -0.0124209737 0.5152118453 -0.0119727957 -0.1955405505 0.0620032984
55299670.0 -0.1997871783 0.0582391978 0.5186639717 -0.0188074935 0.5186192357 -0.0186487113 -0.1915904903 0.0639839993
60299640.0 -0.1959164787 0.0601443749 0.5219305092 -0.0250023335 0.5223316169 -0.0243867202 -0.1872923666 0.0653899191
65299610.0 -0.1929665469 0.0608179268 0.5247066568 -0.0310803408 0.5248814671 -0.0311897356 -0.1836044824 0.0664660416
70299580.0 -0.1899700247 0.0621431476 0.5273247481 -0.0378383431 0.5271719755 -0.0374479458 -0.1808136968 0.0674272239
75299550.0 -0.1868465009 0.0628845461 0.5287460059 -0.0444815734 0.529045668 -0.0444058904 -0.1776926628 0.0682215953
80299520.0 -0.1846582334 0.0635917027 0.5308487227 -0.0517789015 0.5311234496 -0.0512483588 -0.1750087788 0.0690517124
85299490.0 -0.1822861998 0.0642996791 0.5319873412 -0.0581238691 0.5323349278 -0.0578902697 -0.1725728175 0.0696946532
90299460.0 -0.1801839341 0.0647754242 0.5326294551 -0.0651808042 0.5335825753 -0.0649953161 -0.1701760428 0.0706658547
95299430.0 -0.1781210877 0.0654163582 0.5343454293 -0.0719965729 0.5342286809 -0.0720180756 -0.1679196459 0.0712353793
100299400.0 -0.1763877804 0.0662300041 0.5342139796 -0.0786575767 0.5341854038 -0.0788516895 -0.1660186964 0.0715920093
105299370.0 -0.1748692615 0.0665308387 0.5347239888 -0.0857333923 0.5349630872 -0.0857406141 -0.163835241 0.0727896069
110299340.0 -0.1734512025 0.0673614123 0.5350748307 -0.0924694243 0.5349824032 -0.092431216 -0.1627932502 0.0731677955
115299310.0 -0.171767856 0.0679857858 0.5349114078 -0.099383996 0.5347947736 -0.0995390902 -0.1612536856 0.0741745363
120299280.0 -0.1706312705 0.0684916616 0.5345900473 -0.1064405375 0.5343862634 -0.1062689494 -0.1595400183 0.0747418523
125299250.0 -0.1696291239 0.0691698735 0.5341939888 -0.1128421881 0.5343141853 -0.1125668341 -0.1586506501 0.0750834842
130299220.0 -0.1686680108 0.070028088 0.5337323793 -0.1196976836 0.5336159701 -0.1195355014 -0.1571546335 0.0763866471
135299190.0 -0.1672997924 0.0710228702 0.5332739127 -0.1263577215 0.5329113026 -0.1261503914 -0.1558337808 0.0772581157
140299160.0 -0.1666817412 0.0720342304 0.5322816949 -0.1329863021 0.5324625351 -0.1330159335 -0.1546243453 0.0784833675
145299130.0 -0.1656844483 0.0727454116 0.531608625 -0.1394512596 0.5310226823 -0.1393991414 -0.1539095497 0.0790230703
150299100.0 -0.1646318085 0.0739271244 0.5301501951 -0.1455060832 0.5300921706 -0.1455851706 -0.1526226241 0.0808443405
155299070.0 -0.1643929121 0.0745918716 0.5290501336 -0.1530086189 0.5291474059 -0.1525307906 -0.151585412 0.0815057097
160299040.0 -0.1627842086 0.0755499844 0.527264931 -0.1587934026 0.5272529333 -0.1591332657 -0.151083019 0.0825073995
165299010.0 -0.1621206235 0.07684879 0.5257366976 -0.1656847506 0.5261456971 -0.1653970196 -0.1497703309 0.0837624291
170298980.0 -0.1616024124 0.0777104672 0.5244798376 -0.171131889 0.5247635421 -0.1715542163 -0.1487694351 0.0845741276
175298950.0 -0.1610401918 0.0790384093 0.5232365099 -0.1778114604 0.522446984 -0.1777352363 -0.1482422173 0.0860722739
180298920.0 -0.1600809336 0.0799848612 0.5210513203 -0.1846285852 0.5209642481 -0.1838069169 -0.1472970768 0.0870224882
185298890.0 -0.1589688131 0.0812055151 0.5194372457 -0.1906083924 0.5192418404 -0.1903948628 -0.1460229761 0.0884762395
190298860.0 -0.1586278393 0.0824503572 0.5176752829 -0.1968474095 0.517878193 -0.1964392361 -0.14526237 0.0896540446
195298830.0 -0.1578484757 0.0833537818 0.5152820402 -0.2026942609 0.5156376805 -0.2031369295 -0.1439686039 0.0908936665
200298800.0 -0.156882959 0.0843754657 0.5130814447 -0.2089748237 0.5136826026 -0.2090826972 -0.1438104036 0.0919786225
205298770.0 -0.1560833653 0.0858427039 0.5109389765 -0.2155241882 0.5111028766 -0.2148966009 -0.1422904365 0.092976991
210298740.0 -0.155398951 0.0868439152 0.5088500764 -0.2206067318 0.5091130364 -0.2206403229 -0.1411790418 0.0952123683
215298710.0 -0.1550894666 0.0883550241 0.5066113113 -0.2267329327 0.5065838176 -0.2268047565 -0.1404823455 0.0960727541
220298680.0 -0.1536803523 0.0893972175 0.5034813338 -0.2323806945 0.5039811426 -0.2324415368 -0.1397348516 0.0971934643
225298650.0 -0.1534562072 0.0906939244 0.5014978898 -0.2387952515 0.5018714466 -0.2384993816 -0.1387597685 0.0987062307
230298620.0 -0.1524942552 0.0922831385 0.4994602591 -0.2438211473 0.4994823266 -0.2440350482 -0.1377427297 0.0995730523
235298590.0 -0.1518254228 0.0936982316 0.4965237214 -0.2499202178 0.4964931932 -0.2494630176 -0.1369216767 0.1012496114
240298560.0 -0.1510028682 0.0949207365 0.493911172 -0.2562269079 0.4937938905 -0.2555421337 -0.135817044 0.102795744
245298530.0 -0.15053646 0.0963540121 0.4912367398 -0.2614788463 0.491294823 -0.2615161388 -0.1345112959 0.1038498147
250298500.0 -0.1492938907 0.0978387136 0.488074423 -0.2674952213 0.4878715494 -0.2666190036 -0.1335023989 0.1054885808
255298470.0 -0.148737165 0.0983962754 0.4847788968 -0.2720056585 0.4852923257 -0.2725021025 -0.1324500095 0.106881843
260298440.0 -0.1480165041 0.0998514909 0.4824417961 -0.278262643 0.4825623254 -0.2780676635 -0.1311044069 0.1082967902
265298410.0 -0.1467496298 0.1017622168 0.4793990496 -0.284110557 0.4796484376 -0.2834716516 -0.1302701286 0.1096509435
270298380.0 -0.1457263222 0.1028674579 0.4764968381 -0.2889644634 0.4763491029 -0.2886306389 -0.1292324619 0.1111170182
275298350.0 -0.1449070298 0.1039764403 0.473069478 -0.2945476735 0.4737677201 -0.2943627705 -0.1281243009 0.1122002715
280298320.0 -0.1440353665 0.1055895574 0.470373978 -0.3003652375 0.4701144659 -0.2995927912 -0.1268297413 0.1140454179
285298290.0 -0.1432039246 0.1069647455 0.4667971617 -0.3050695527 0.4668093158 -0.305351883 -0.1258056995 0.1152385047
290298260.0 -0.1419560825 0.1082549665 0.4631557126 -0.3106002946 0.4634723583 -0.3104174403 -0.1243220832 0.11722484
295298230.0 -0.1407708988 0.1093480704 0.46001111 -0.3155602905 0.4602804644 -0.315576179 -0.1229534306 0.1179878763
300298200.0 -0.1403092114 0.1111762156 0.4569312586 -0.3206490758 0.4569822643 -0.321408868 -0.1217127513 0.1195392728
305298170.0 -0.1389114692 0.1121310814 0.4526596781 -0.326220253 0.4530510255 -0.3265732675 -0.1201897274 0.1207092727
310298140.0 -0.1379359999 0.1136848509 0.4497693469 -0.3312654204 0.4495659462 -0.3315391815 -0.1192026834 0.122016946
315298110.0 -0.1372018072 0.1145453394 0.4461351193 -0.3365444166 0.4463747432 -0.3363838904 -0.1179177791 0.1230259432
320298080.0 -0.1359231976 0.115941056 0.4415634882 -0.3418582453 0.4424251957 -0.3416776685 -0.1169761878 0.1246200991
325298050.0 -0.1351840002 0.1171548497 0.438428194 -0.3469421811 0.4383497675 -0.346727555 -0.1157918894 0.1255102695
330298020.0 -0.1342214347 0.1183189471 0.4339717549 -0.3516878112 0.4345816934 -0.3518490636 -0.1143936693 0.1269970878
335297990.0 -0.1333184636 0.1193097485 0.4299292169 -0.3564165656 0.4302128121 -0.3565533768 -0.113909929 0.1288348342
340297960.0 -0.1326921844 0.1212512193 0.4257571606 -0.3612969246 0.4260249932 -0.3614098495 -0.1122192716 0.1301590629
345297930.0 -0.1315403787 0.1227670898 0.4220510763 -0.3666584853 0.4219561406 -0.3660646687 -0.1111090852 0.1307918643
350297900.0 -0.1305750323 0.1237378164 0.4174980633 -0.3709318382 0.4177975167 -0.3707374614 -0.10991317 0.132745231
355297870.0 -0.1292220845 0.1255205095 0.4134763264 -0.3753597144 0.4141452875 -0.3752294027 -0.1087750389 0.1337357025
360297840.0 -0.1282892202 0.1269030448 0.4100465297 -0.3797210347 0.4102773706 -0.379689698 -0.1070711222 0.1353908329
365297810.0 -0.127427794 0.1283432886 0.4054318473 -0.3845595075 0.4058073297 -0.3843217196 -0.1055303316 0.1365546041
370297780.0 -0.1259862965 0.1293613832 0.4008981582 -0.3885145142 0.4011543029 -0.3880085445 -0.1040010156 0.1378549353
375297750.0 -0.1245097992 0.1308708753 0.3970044138 -0.3932566814 0.3975260536 -0.3928241962 -0.1026655199 0.1391118861
380297720.0 -0.1235262751 0.1320501259 0.3924611794 -0.3975721279 0.3927291019 -0.3968607638 -0.1015123667 0.1403471146
385297690.0 -0.1225459666 0.1333626925 0.3880457967 -0.4016763844 0.3879530379 -0.4016099015 -0.0997141849 0.1416066252
390297660.0 -0.1213303531 0.1349952119 0.3839674734 -0.4058845803 0.3836449354 -0.4054931929 -0.0986951201 0.1428468973
395297630.0 -0.1196514008 0.1363558621 0.3794529455 -0.4097684903 0.3794034039 -0.4101018351 -0.0962800931 0.1441948277
400297600.0 -0.1183532122 0.1377613241 0.374105521 -0.4151258852 0.375280974 -0.4141768538 -0.0951008533 0.1453590108
405297570.0 -0.1179249513 0.1388391725 0.3702978477 -0.4181348805 0.3703339512 -0.4181737734 -0.0935389957 0.1469159471
410297540.0 -0.1159710614 0.1398876328 0.3655302426 -0.4224030411 0.3661082543 -0.4223918006 -0.0918567936 0.1477459707
415297510.0 -0.1143665743 0.1410174636 0.3605158529 -0.4263399377 0.3610263092 -0.4264761654 -0.0902556784 0.1491103981
420297480.0 -0.1135274702 0.1428781391 0.3561359487 -0.4306602365 0.356217777 -0.4304735406 -0.0890597452 0.149910062
425297450.0 -0.1121092273 0.1434775666 0.3518639617 -0.4342449456 0.3516235755 -0.4341718726 -0.0872045555 0.1517117961
430297420.0 -0.1107481814 0.1445826065 0.3468451418 -0.4377311137 0.347001123 -0.4378499124 -0.0855166017 0.1523313707
435297390.0 -0.1096769397 0.1459167885 0.3417215788 -0.4415466042 0.341607906 -0.441615236 -0.0833829516 0.1534021528
440297360.0 -0.1081286864 0.1473690496 0.3370630897 -0.4450152654 0.3375876383 -0.4455882197 -0.0824776344 0.1547250981
445297330.0 -0.1068562767 0.1483750654 0.3327108758 -0.4491196078 0.332528991 -0.4487288998 -0.0804886453 0.1552606762
450297300.0 -0.1052063252 0.1493305893 0.3273470277 -0.4526369554 0.3274173798 -0.4528834557 -0.078805176 0.1566024499
455297270.0 -0.1038317573 0.1506797159 0.3223683803 -0.4559722861 0.3225193527 -0.4563849241 -0.0772135311 0.1575371739
460297240.0 -0.1022865656 0.1516191114 0.3172349604 -0.4594796191 0.3174842662 -0.4597354588 -0.0755340367 0.158821811
465297210.0 -0.1007711773 0.1530774548 0.3124694972 -0.4629080001 0.3124973906 -0.4631002723 -0.0737970983 0.1594903248
470297180.0 -0.0993918235 0.1541616365 0.3068993667 -0.4666963939 0.3074755413 -0.4665428054 -0.0718317873 0.1608047356
475297150.0 -0.0979295653 0.1549532455 0.3014219567 -0.4693307622 0.3023161596 -0.4694273476 -0.0696933334 0.1612628717
480297120.0 -0.0965870007 0.1565902177 0.2966909774 -0.4729832325 0.296523125 -0.4732397356 -0.068173835 0.1625315702
485297090.0 -0.0950914074 0.1574026844 0.2917721424 -0.4758035527 0.2918074029 -0.475967798 -0.0660747602 0.1633625933
490297060.0 -0.0939673731 0.1586086248 0.2869408713 -0.4795263508 0.2867249171 -0.4790142526 -0.0647083705 0.1646313189
495297030.0 -0.0921524925 0.1593327303 0.2813693545 -0.482475368 0.2818647251 -0.4821364435 -0.0631290257 0.1653948317
500297000.0 -0.0907095034 0.1602458029 0.2761937401 -0.4847499138 0.2757726315 -0.4847619395 -0.061220802 0.1665402505
505296970.0 -0.0888695538 0.1613149045 0.2706613877 -0.4882111671 0.2708624068 -0.4884027258 -0.0591814825 0.1670918564
510296940.0 -0.087362513 0.1623480526 0.26510731 -0.4913088272 0.2653380296 -0.4913009973 -0.0572519994 0.1677186803
515296910.0 -0.0854969972 0.1634324165 0.2599183286 -0.4941999633 0.2598405237 -0.4940230659 -0.0555550524 0.1686716625
520296880.0 -0.0843782392 0.1644492913 0.2543663209 -0.4973061886 0.2549822636 -0.4966366617 -0.054048854 0.1691235535
525296850.0 -0.0825002377 0.1649352543 0.2487340978 -0.4994100841 0.2495682514 -0.4998343165 -0.0518705252 0.1704458109
530296820.0 -0.0810959313 0.1662831313 0.2437224219 -0.5023013031 0.2436634075 -0.5023816992 -0.0498107093 0.1706679281
535296790.0 -0.0796156191 0.1672412763 0.2384178251 -0.5047993153 0.2386003383 -0.5043638909 -0.0487036026 0.1708699237
540296760.0 -0.0781067091 0.1683121185 0.2325879218 -0.5076740761 0.2327898145 -0.5073420048 -0.0465843797 0.1721466079
545296730.0 -0.0765725013 0.1690005781 0.2267949366 -0.5095245917 0.2272781268 -0.5098525768 -0.0444358648 0.1725770998
550296700.0 -0.0743092815 0.1700086401 0.2214170315 -0.5121257363 0.2216769573 -0.5125181645 -0.0428741155 0.1732378577
555296670.0 -0.0730166732 0.1705351445 0.2162489041 -0.5145674589 0.2164769338 -0.5142451118 -0.0407629436 0.1741749408
560296640.0 -0.071221328 0.1718067389 0.2104540258 -0.5169784076 0.2108629377 -0.5170451495 -0.0386360297 0.1745133419
565296610.0 -0.0700338572 0.1722128238 0.2050977451 -0.5193293112 0.205221154 -0.519112957 -0.0367955796 0.1747496275
570296580.0 -0.0683685692 0.173026538 0.1996082881 -0.5216647572 0.1991378359 -0.5213774306 -0.0351451262 0.1760405207
575296550.0 -0.0668393314 0.1740550414 0.1941174568 -0.5235445591 0.1934020805 -0.5233789273 -0.0326928623 0.1762824761
580296520.0 -0.0647366974 0.174891296 0.1876553003 -0.5255992003 0.1879084416 -0.5255404001 -0.0308817967 0.1766203981
585296490.0 -0.0630702646 0.1752816094 0.1823253498 -0.5271942489 0.1827534454 -0.5276736837 -0.0288290999 0.177263507
590296460.0 -0.0609173745 0.1765135305 0.1763331771 -0.5290665911 0.176618241 -0.5287925563 -0.0274201199 0.1776734999
595296430.0 -0.0595719372 0.1772158596 0.1704230338 -0.531490387 0.1705580229 -0.5310834583 -0.0252099067 0.1781233541
600296400.0 -0.0578780415 0.1777080486 0.1646968156 -0.532859073 0.1653357798 -0.5329383092 -0.023496953 0.1783831264
605296370.0 -0.0563367797 0.178118886 0.1591875779 -0.5346862522 0.1598376432 -0.5346262273 -0.0208871929 0.178992612
610296340.0 -0.0543433493 0.1793887638 0.1530299749 -0.5361732266 0.153294309 -0.5361305971 -0.0188187915 0.1792385024
615296310.0 -0.0523957363 0.179822697 0.1473185741 -0.5378614091 0.1477678796 -0.5381696359 -0.0167755319 0.1796819219
620296280.0 -0.0510551025 0.1802500526 0.1418313339 -0.5391313422 0.1416068303 -0.5390812636 -0.0153090858 0.1801698224
625296250.0 -0.049228307 0.1806596491 0.1364045843 -0.5413788147 0.1360421308 -0.5413469622 -0.0124793318 0.1803568661
630296220.0 -0.0466635694 0.1813792443 0.1293874754 -0.5421879526 0.1298006005 -0.5419537622 -0.0110572938 0.181074925
635296190.0 -0.046117413 0.1820231937 0.1241807339 -0.5436693886 0.124281746 -0.5434776586 -0.008957486 0.1812086227
640296160.0 -0.0438941159 0.1829633697 0.1179723402 -0.5443681267 0.1184675553 -0.5450070551 -0.0067443546 0.1814825936
645296130.0 -0.0421201032 0.183451007 0.112147352 -0.5459896799 0.112819294 -0.5461103501 -0.0049687638 0.1817067034
650296100.0 -0.0402714339 0.1839177587 0.1063645813 -0.5470840997 0.1066302993 -0.5471758356 -0.0029382511 0.1814220368
655296070.0 -0.0387615623 0.1843840317 0.1008908533 -0.548121885 0.1006776622 -0.548547247 -0.0005401345 0.1817827567
660296040.0 -0.0372569522 0.1843774845 0.0948978269 -0.549099865 0.0948329673 -0.5495485013 0.0014174334 0.18209101
665296010.0 -0.034749765 0.1852503887 0.0883193617 -0.5500761281 0.0888151246 -0.5502769762 0.0035080795 0.1822328486
670295980.0 -0.0339362761 0.1857936843 0.0829742293 -0.5508921167 0.0828438749 -0.5513722126 0.0049598321 0.1828240843
675295950.0 -0.0315838291 0.1863773116 0.0767098603 -0.5515726544 0.0769919938 -0.5513834865 0.0069960733 0.1824159506
680295920.0 -0.0301201373 0.1864939624 0.0707078681 -0.5521492399 0.0704045956 -0.5531992349 0.0090395003 0.1831569689
685295890.0 -0.0279354118 0.1876119199 0.0645504818 -0.5533675291 0.0647558023 -0.553517125 0.0111562418 0.1829072042
690295860.0 -0.0261276652 0.1877388907 0.0589119903 -0.5533372555 0.0586401775 -0.5542384325 0.0130986813 0.1832546662
695295830.0 -0.0241959708 0.1878654716 0.0532995907 -0.5546816678 0.0527819071 -0.5542723456 0.0147914709 0.1829755627
700295800.0 -0.0223936814 0.1881060373 0.0466446983 -0.5549372312 0.046692907 -0.5549324157 0.0168874598 0.1834059276
705295770.0 -0.0210754068 0.1889629557 0.0407913623 -0.5553554222 0.0412169152 -0.5556858187 0.0191645794 0.1832628839
710295740.0 -0.0189454238 0.189090832 0.0351349633 -0.5562963716 0.0351827669 -0.5561716043 0.0212364548 0.1826455075
715295710.0 -0.017335912 0.1894010465 0.0293077899 -0.5563881235 0.0289553237 -0.5563447222 0.0231928589 0.1827090201
720295680.0 -0.0152850286 0.1896748093 0.0233269333 -0.5563588722 0.0231857461 -0.5566333468 0.0253559855 0.1826592173
725295650.0 -0.0133806645 0.1898723944 0.0171029781 -0.5568992132 0.0169543566 -0.5568387639 0.02686827 0.1827231603
730295620.0 -0.011191809 0.1903805163 0.0108423408 -0.5564253811 0.0111197961 -0.5569198838 0.0288967558 0.1822812162
735295590.0 -0.0097220211 0.1906458766 0.0047514981 -0.5568673144 0.0052208159 -0.5566913603 0.0308162776 0.1818581027
740295560.0 -0.0080969841 0.1910143808 -0.0012305474 -0.557015448 -0.0011207379 -0.5573193212 0.0338738883 0.1822770642
745295530.0 -0.0060891249 0.1912325951 -0.0074200813 -0.5561020377 -0.0070188985 -0.5567290285 0.0353659877 0.1814807163
750295500.0 -0.0038966447 0.191235639 -0.0128366493 -0.5561050067 -0.0127358732 -0.5569214732 0.0372989934 0.1816543066
755295470.0 -0.0025207118 0.1914604605 -0.0185910627 -0.5563748762 -0.0185361507 -0.5565200466 0.0394553974 0.1809080855
760295440.0 -0.0006609805 0.1917232636 -0.0245499474 -0.5560169658 -0.0251776916 -0.5566034117 0.0417212326 0.1806402081
765295410.0 0.0013263654 0.1920042369 -0.0311062534 -0.5556684286 -0.0314443708 -0.5560454841 0.0436868051 0.1805811636
770295380.0 0.002997498 0.1919158595 -0.0374587072 -0.5554943435 -0.0371464962 -0.5555648689 0.0453230518 0.1802647944
775295350.0 0.0046912411 0.1913936603 -0.0429404751 -0.5543646222 -0.0424246269 -0.5548681223 0.0469298894 0.1800155552
780295320.0 0.0070230417 0.192067018 -0.049122832 -0.5541716983 -0.0483035294 -0.5542695375 0.0490934155 0.1792361482
785295290.0 0.0081458361 0.1914028478 -0.0548389864 -0.5533958839 -0.0545421695 -0.5538513591 0.0518580213 0.1790669271
790295260.0 0.0110984716 0.1923530553 -0.0604501311 -0.5530424652 -0.0596426623 -0.5531997122 0.0533656346 0.1787958533
795295230.0 0.0125575994 0.1920580507 -0.0667729709 -0.5521935025 -0.0663215107 -0.5528027482 0.055793346 0.1783460228
800295200.0 0.0142000052 0.1922079668 -0.0732906193 -0.5514726786 -0.0726790303 -0.5513981388 0.0577228876 0.1777225572
805295170.0 0.0162700732 0.1920748859 -0.0786848314 -0.5505454355 -0.0785784144 -0.5510478615 0.0593790497 0.1773214561
810295140.0 0.0179459565 0.1916729715 -0.0845139708 -0.5498528944 -0.084509432 -0.5498336416 0.0619386848 0.1773503459
815295110.0 0.0201003433 0.1917203871 -0.0905385019 -0.5484960844 -0.0898298445 -0.5489561691 0.0636041222 0.1766027366
820295080.0 0.0214415042 0.1922358417 -0.0961530059 -0.5474500725 -0.095640033 -0.5477916106 0.0654498389 0.1761117605
825295050.0 0.0240166426 0.1918843468 -0.1017102904 -0.5464473581 -0.1019012539 -0.5467633798 0.0675505882 0.1755958727
830295020.0 0.0257517629 0.1919776081 -0.1083405124 -0.5451562868 -0.1079806494 -0.5454813923 0.0702428926 0.1748883648
