!Created with skrf (http://scikit-rf.org).
# Hz S RI R 50.0 
!freq ReS11 ImS11 ReS21 ImS21 ReS12 ImS12 ReS22 ImS22
300000.0 -0.0987565278 -0.0633059877 0.6305619358 0.0616723685 0.6235300361 0.0621998106 -0.1012494404 -0.0748430189
5299970.0 -0.1020721866 0.0132456052 0.630506355 0.0099736751 0.6307680661 0.0099593268 -0.1011294479 0.0131129171
10299940.0 -0.0970985428 0.0292777821 0.633993283 0.0156296773 0.6342378857 0.0155531077 -0.0957160972 0.030460726
15299910.0 -0.0898988094 0.0427504908 0.6405120543 0.0203821341 0.6406478384 0.020278647 -0.0886037718 0.0434898737
20299880.0 -0.0815449399 0.0530415691 0.6486937601 0.0245746217 0.6486175772 0.0238946059 -0.0798711044 0.0545959889
25299850.0 -0.0722772818 0.0622166229 0.6573798971 0.0245685622 0.6577706507 0.025369403 -0.0697083586 0.0630555485
30299820.0 -0.0623736653 0.0688037904 0.6676421262 0.0244434673 0.6673762068 0.0244894545 -0.0598466288 0.0699752415
35299790.0 -0.0525401112 0.0736850808 0.6772401564 0.0213420472 0.6773895649 0.0214934391 -0.049822029 0.0749866684
40299760.0 -0.0432788379 0.0771794459 0.686227031 0.0173624825 0.6864831628 0.0176126421 -0.0403924656 0.0775356621
45299730.0 -0.0338152033 0.0794996095 0.6952599605 0.0117360265 0.6953192906 0.0119089941 -0.0312175832 0.0798251346
50299700.0 -0.0256232474 0.0802000255 0.7036494925 0.0048098125 0.7036421101 0.0054868348 -0.0228172205 0.0804125767
55299670.0 -0.0176279882 0.0802748946 0.7107540559 -0.0034793614 0.7108327759 -0.0026963432 -0.0149230961 0.0805661596
60299640.0 -0.010032987 0.0802295466 0.7178714341 -0.0113430878 0.7178222576 -0.0108514784 -0.0078063286 0.0797044606
65299610.0 -0.0036632875 0.0788191535 0.7232209961 -0.0202057751 0.7239476486 -0.0198794272 -0.0011246416 0.0785760912
70299580.0 0.0026637599 0.0774507646 0.7283822579 -0.0295278026 0.7285515155 -0.0291118588 0.0047349309 0.0765351554
75299550.0 0.0081442718 0.0759368189 0.732632743 -0.0389608659 0.7326081725 -0.0387059818 0.0102623077 0.074792612
80299520.0 0.012938612 0.0734059777 0.7365752278 -0.0493341708 0.7371638371 -0.048931082 0.0151702057 0.0726899723
85299490.0 0.0175399963 0.0715574074 0.7403841683 -0.0587558733 0.7408136834 -0.0587077597 0.019428677 0.0699616732
90299460.0 0.0216591059 0.0688529357 0.7424497197 -0.0688870399 0.7432853311 -0.0689846241 0.0235904267 0.0679729721
95299430.0 0.0259509076 0.0664887358 0.7455256557 -0.079075209 0.7456168526 -0.0792345302 0.0275791742 0.0654219151
100299400.0 0.0289321279 0.0644397851 0.7468865878 -0.0893103494 0.7469465953 -0.0889698351 0.0311533028 0.0626240218
105299370.0 0.0321599415 0.0620232585 0.7483725574 -0.0994759671 0.7488608774 -0.099477801 0.0340935154 0.0607757003
110299340.0 0.034973691 0.0595765595 0.7498302473 -0.1090642195 0.7493734791 -0.1089260339 0.0362036194 0.0579864631
115299310.0 0.0374021063 0.0572551839 0.75085448 -0.1194891794 0.7506741737 -0.1192925034 0.0389545136 0.0554012058
120299280.0 0.0397891101 0.0546828485 0.7510185342 -0.1291354514 0.7511639332 -0.129721078 0.0413404201 0.0531634246
125299250.0 0.0420824322 0.0522508924 0.7517101224 -0.139289288 0.7517799095 -0.1386318156 0.0430485517 0.050314056
130299220.0 0.0433463622 0.0504628255 0.7511313322 -0.1495501307 0.7509731577 -0.1493031372 0.0448206915 0.0480498523
135299190.0 0.0451492749 0.0484158814 0.7511381634 -0.1586912958 0.751370243 -0.1590368103 0.0468174456 0.0459550088
140299160.0 0.0464348918 0.046191574 0.7510964128 -0.1691491369 0.750740162 -0.1691454568 0.0477308827 0.044118718
145299130.0 0.0481165836 0.0438045205 0.7501957069 -0.1786622022 0.7495216072 -0.1785203636 0.0492716329 0.0420451065
150299100.0 0.0497725955 0.0421329193 0.7482779231 -0.1875536709 0.7490049564 -0.1878217092 0.0509918515 0.0399968301
155299070.0 0.0503630584 0.0397474383 0.7481723384 -0.198296582 0.7476221059 -0.1982403778 0.0519268383 0.0383435466
160299040.0 0.0519090896 0.0380336701 0.7462309118 -0.2076405339 0.7456701622 -0.2072899123 0.051871408 0.0360794519
165299010.0 0.0522769607 0.0362277445 0.7444729346 -0.2171419462 0.7449933624 -0.2172396005 0.0539455901 0.0350934462
170298980.0 0.0532787345 0.0339233503 0.7432011832 -0.2265129486 0.7429767398 -0.2261587358 0.0541843597 0.0331104451
175298950.0 0.0536116762 0.0321442545 0.741818737 -0.2353058877 0.7406976187 -0.2353946191 0.0547973968 0.0312352839
180298920.0 0.0545156381 0.030481079 0.7386117959 -0.2448883654 0.7390344959 -0.2444882088 0.0555298207 0.0297458716
185298890.0 0.055708602 0.0284728082 0.7365182584 -0.253962071 0.7361062112 -0.2538139427 0.0556986065 0.0283652017
190298860.0 0.0556431678 0.0274308985 0.7340672982 -0.2631306072 0.7344390577 -0.2635258494 0.0563664453 0.0261499405
195298830.0 0.0562776295 0.0251861434 0.7319346718 -0.2721206128 0.7321773965 -0.272104082 0.0571978553 0.0249996361
200298800.0 0.0563786505 0.0241056774 0.7286257302 -0.281352251 0.7290491078 -0.2814219875 0.0570941139 0.0236008175
205298770.0 0.0568224114 0.0226875874 0.7254672083 -0.2902248202 0.7258913434 -0.2900049106 0.0574540945 0.0216952637
210298740.0 0.0572653149 0.0207382198 0.7231723907 -0.2985361715 0.723007297 -0.2983077218 0.0579162662 0.0213799916
215298710.0 0.0568457269 0.0195250731 0.7200728588 -0.3072554627 0.7201079103 -0.3078074455 0.057836096 0.0196797619
220298680.0 0.0575642031 0.0179628575 0.7165339838 -0.3159213022 0.7169480761 -0.3161142968 0.057614083 0.0182690346
225298650.0 0.057935504 0.0166687739 0.7137286401 -0.3250403128 0.7138678094 -0.3245653487 0.0574209295 0.016366935
230298620.0 0.0580523538 0.0155632762 0.7105517894 -0.3329224239 0.7111974392 -0.332955937 0.0574624816 0.0151160346
235298590.0 0.0580819183 0.0143881803 0.7064884386 -0.3416028975 0.706811312 -0.3408515042 0.0575364502 0.0140463114
240298560.0 0.057909278 0.0134218485 0.7037347954 -0.3500684069 0.7028671119 -0.3500825615 0.0574924065 0.0129661754
245298530.0 0.0578963329 0.0120504581 0.6996717812 -0.3580058089 0.7001119265 -0.3586711513 0.0583987804 0.0109411188
250298500.0 0.0583225156 0.0109279469 0.6949829311 -0.3665550463 0.6946538616 -0.3659438271 0.0579678563 0.0102366809
255298470.0 0.0583836242 0.0093883761 0.6910257467 -0.3739976664 0.6915475412 -0.3745565329 0.058183036 0.0089660484
260298440.0 0.0578712441 0.0081102567 0.6871986483 -0.3829799576 0.6874455745 -0.3826928542 0.0585615238 0.0080276842
265298410.0 0.0588102889 0.0075288674 0.6833916 -0.3911388969 0.6842937435 -0.3907906226 0.0581421244 0.0067783513
270298380.0 0.0584622262 0.0063899773 0.679511496 -0.3984925998 0.6794216652 -0.3985065095 0.0578195995 0.0057143745
275298350.0 0.0588832736 0.0048780765 0.6747929052 -0.4069988272 0.6756840814 -0.4068421036 0.0582620277 0.004560159
280298320.0 0.0588059523 0.0043577089 0.6711153388 -0.4150615198 0.6711900808 -0.4147309977 0.0587285661 0.0032770437
285298290.0 0.0586307107 0.0031358398 0.6665933053 -0.42242334 0.6662075501 -0.4227073475 0.0584652007 0.0022554439
290298260.0 0.058987235 0.0020895238 0.6618132033 -0.4299096726 0.6620992208 -0.4302817604 0.0584196532 0.001816113
295298230.0 0.0589205044 0.0009106758 0.6575899197 -0.4378842091 0.6567661483 -0.4379590085 0.0589801162 0.0001922301
300298200.0 0.0583403607 -0.0002843622 0.6530982889 -0.4453610871 0.6524661281 -0.4459716651 0.0587043636 -0.0006731365
305298170.0 0.0585478622 -0.0014296494 0.6474493429 -0.4536462721 0.6476587547 -0.4533461854 0.0594478822 -0.0020829424
310298140.0 0.0585574898 -0.0025624822 0.6428183403 -0.46070439 0.6434661573 -0.4608326566 0.0593098324 -0.0030679555
315298110.0 0.058135628 -0.0040752223 0.637864435 -0.4685452369 0.638517614 -0.4687666373 0.0590081984 -0.0042607536
320298080.0 0.0584692613 -0.0050293444 0.6324068945 -0.4763879779 0.6326062822 -0.4757587944 0.0587272745 -0.0053036604
325298050.0 0.0577304858 -0.0062403486 0.6276260273 -0.4835404592 0.6268248683 -0.4835724398 0.0579152079 -0.0064498134
330298020.0 0.0571856115 -0.0075156477 0.621217903 -0.491294397 0.6218204608 -0.4912916628 0.0576287125 -0.0078161313
335297990.0 0.0571260677 -0.0087413827 0.6159374962 -0.4978960126 0.6157451193 -0.4982115684 0.056696378 -0.0079997747
340297960.0 0.056075977 -0.0092852005 0.6096846629 -0.5051371481 0.6092568872 -0.5048998606 0.0569300543 -0.0086387102
345297930.0 0.0556979954 -0.0094079992 0.6039602663 -0.5121426579 0.6038576206 -0.5123105628 0.0565294611 -0.0098719768
350297900.0 0.0552188271 -0.010753502 0.597547797 -0.5189255751 0.597888909 -0.519295367 0.0554713059 -0.0098307483
355297870.0 0.0549740776 -0.0108847889 0.5922113985 -0.5253373262 0.5925049259 -0.5256846451 0.0551366189 -0.0107171309
360297840.0 0.0546803797 -0.0113336797 0.5874025498 -0.5316922076 0.586874221 -0.5316027102 0.0548042029 -0.0112928927
365297810.0 0.0537723241 -0.0121805006 0.5803404414 -0.5388794761 0.5813880345 -0.538903793 0.0546219762 -0.0118643692
370297780.0 0.054371365 -0.0133133607 0.5744480805 -0.5446530335 0.5748942347 -0.5445552022 0.0540602613 -0.0122730483
375297750.0 0.0538854776 -0.0139511972 0.5687825853 -0.5513053343 0.5692884907 -0.5511827052 0.0542325649 -0.0131874851
380297720.0 0.0534060566 -0.0144485363 0.5629520096 -0.5577478367 0.5626611664 -0.5569693991 0.0534031407 -0.0140692074
385297690.0 0.0527049471 -0.0151770589 0.5565484435 -0.5640662843 0.5558711816 -0.5639068867 0.0533934156 -0.0141113701
390297660.0 0.0528609827 -0.015431974 0.5502020609 -0.5706429151 0.5495773002 -0.569459823 0.0524917869 -0.0152381638
395297630.0 0.0522029254 -0.0162105559 0.5437303733 -0.5759937203 0.544374979 -0.5759972051 0.0530463391 -0.0158669415
400297600.0 0.0519761189 -0.0169387886 0.5370817783 -0.5828926238 0.5374025853 -0.5823746059 0.0520706102 -0.0159714555
405297570.0 0.0512607182 -0.0175456632 0.5309660253 -0.5880593482 0.5313046858 -0.5878225907 0.0514490836 -0.0169288786
410297540.0 0.0513746624 -0.0182527321 0.5244412418 -0.5940267658 0.525207267 -0.5943762797 0.0511164926 -0.0172195522
415297510.0 0.0511373514 -0.0187335434 0.5175279616 -0.600165303 0.5182620731 -0.6001935501 0.0508075782 -0.0180087002
420297480.0 0.0505774975 -0.0189276962 0.5109598199 -0.6062202216 0.5111672874 -0.6061221645 0.0504536485 -0.0191257386
425297450.0 0.0499681237 -0.0205320927 0.5049121432 -0.6113230475 0.5049598507 -0.6117929286 0.0495415302 -0.0189323935
430297420.0 0.0498515468 -0.0205962888 0.4974291539 -0.6162930999 0.4976691946 -0.6164868805 0.0493883563 -0.0199209179
435297390.0 0.0494128734 -0.0216219467 0.4905946689 -0.6226925121 0.4910432071 -0.6224459311 0.0501818709 -0.0207115536
440297360.0 0.0495027731 -0.0216502302 0.4842526036 -0.6275499556 0.4839222979 -0.628118808 0.0486978032 -0.0213132009
445297330.0 0.0485085234 -0.0230673671 0.4773305281 -0.6331608425 0.4777176899 -0.6327753144 0.0488108223 -0.0219995971
450297300.0 0.048650455 -0.0231601744 0.4707508622 -0.6382767298 0.4703021682 -0.6392621481 0.0479702145 -0.0228769352
455297270.0 0.0480045123 -0.0239375535 0.4630818527 -0.6436155296 0.4637565119 -0.6438924746 0.0480446191 -0.023161243
460297240.0 0.0476359933 -0.0242495267 0.4557883728 -0.6486613037 0.4562315797 -0.6489012172 0.0479695607 -0.0239287795
465297210.0 0.0474507073 -0.0251969873 0.4496784685 -0.6537351491 0.449118158 -0.6543621583 0.0474688203 -0.0248350895
470297180.0 0.0469581883 -0.0257293859 0.4412557025 -0.6589289504 0.44206702 -0.6589431454 0.0473216927 -0.0249069301
475297150.0 0.0467084716 -0.0267693031 0.4343207992 -0.6626950996 0.4345216251 -0.6628780259 0.0472446814 -0.02601266
480297120.0 0.0459798115 -0.0262930418 0.4269114473 -0.6687572756 0.4270490276 -0.6689968831 0.0469572101 -0.026132799
485297090.0 0.0453405034 -0.0270385556 0.4200120192 -0.6726742309 0.4198528064 -0.6730394027 0.0462315288 -0.026982884
490297060.0 0.0446145079 -0.0278596487 0.4128150455 -0.678338778 0.4128249974 -0.6775212149 0.0460129084 -0.0267069872
495297030.0 0.0445264102 -0.0281367044 0.4050086288 -0.6824672132 0.4053972272 -0.6822231786 0.0451090669 -0.027691238
500297000.0 0.0442161731 -0.0290193281 0.3971634794 -0.6860934081 0.3966411936 -0.6863593547 0.0449793552 -0.0275395636
505296970.0 0.0439187287 -0.0295496345 0.3899291114 -0.6910148125 0.3895639441 -0.6910536703 0.0444982325 -0.027976781
510296940.0 0.0431547995 -0.029570798 0.3822905009 -0.6954783085 0.3821587235 -0.6948277529 0.0442568022 -0.0283815321
515296910.0 0.0427312212 -0.029836633 0.3746708026 -0.6995593257 0.3743961956 -0.6989095647 0.0437286481 -0.0289439151
520296880.0 0.0421370431 -0.0304229038 0.3671194012 -0.7039763831 0.3668511571 -0.7033686519 0.0432308181 -0.0295269086
525296850.0 0.0421119996 -0.0318134984 0.3586020292 -0.7076121578 0.3595177325 -0.7076157022 0.0423862139 -0.0297050754
530296820.0 0.0412986757 -0.0312705114 0.3509796198 -0.7116972751 0.3514327534 -0.7111620593 0.0421253805 -0.030081232
535296790.0 0.0403764448 -0.031835565 0.3442725241 -0.7151543709 0.3438739012 -0.7151754312 0.0420269791 -0.0311012615
540296760.0 0.0399301539 -0.0318319446 0.3360923477 -0.7193602968 0.3357671014 -0.7190895932 0.0408932585 -0.0303127257
545296730.0 0.0396272188 -0.0326660323 0.3272163348 -0.7227097876 0.3275095161 -0.722631228 0.0404177169 -0.0315493454
550296700.0 0.0396226778 -0.0326804567 0.3199032339 -0.7255829893 0.3202850654 -0.7264226752 0.0395699824 -0.0317447851
555296670.0 0.0386003289 -0.0332867916 0.3121745583 -0.7295389722 0.312426477 -0.7297483234 0.0393963818 -0.031967914
560296640.0 0.0385360613 -0.0332295238 0.3038812898 -0.733153072 0.303734327 -0.7328561876 0.0388052914 -0.0323413494
565296610.0 0.0373642892 -0.0341067187 0.2952580555 -0.7366948033 0.2960347724 -0.7364063695 0.0378427031 -0.0329758961
570296580.0 0.036786779 -0.0340678494 0.2880950733 -0.7401727812 0.2870341217 -0.7401429385 0.0376849297 -0.0327858777
575296550.0 0.0364483694 -0.0343655096 0.2801295901 -0.7429752552 0.279594338 -0.7428924274 0.0376004496 -0.0336225565
580296520.0 0.0360805528 -0.0346397771 0.2712810738 -0.7460892722 0.2719812964 -0.7459234202 0.0364477073 -0.0341957591
585296490.0 0.0355521813 -0.0357392933 0.2637741724 -0.7484767722 0.2635261073 -0.7486192651 0.0359084078 -0.0338105317
590296460.0 0.0353109948 -0.0354417259 0.2552681539 -0.7503944383 0.2548604051 -0.7512295135 0.0349259158 -0.0344648345
595296430.0 0.0347743792 -0.0359934733 0.2461467048 -0.7544443168 0.2462879171 -0.7539200283 0.0348339408 -0.0354113616
600296400.0 0.0337148995 -0.0364110766 0.238525284 -0.7572559937 0.2386269486 -0.7565574138 0.0340415471 -0.0353829011
605296370.0 0.0334939616 -0.036763179 0.2300261638 -0.759263246 0.2309132375 -0.7592205504 0.0336510088 -0.0356341217
610296340.0 0.0328863782 -0.0372436525 0.2219095449 -0.7618359057 0.2221401776 -0.7619347011 0.0334040275 -0.0363713669
615296310.0 0.0326482424 -0.03778416 0.2131480903 -0.7641174572 0.2134014088 -0.7646237532 0.0330305171 -0.0364432832
620296280.0 0.0319759215 -0.0381872894 0.205470646 -0.7664201298 0.2051483814 -0.7662663806 0.0318039233 -0.0367555673
625296250.0 0.0310632238 -0.0389800933 0.1977007315 -0.7689256986 0.1972596623 -0.769327474 0.0325122815 -0.0367624189
630296220.0 0.0316347181 -0.0383523233 0.1879644052 -0.7710836406 0.1883751141 -0.7706270269 0.0314821615 -0.037176083
635296190.0 0.0298316751 -0.0392804494 0.1806505209 -0.7730406751 0.1802327127 -0.7730413711 0.0310777691 -0.0374527411
640296160.0 0.0294241597 -0.0389006653 0.1718586562 -0.7745263964 0.1716374055 -0.774539533 0.0303342894 -0.0377851119
645296130.0 0.0289513098 -0.0394286522 0.1629068047 -0.7760369685 0.1637612493 -0.7762387327 0.0298782023 -0.0378304209
650296100.0 0.0284268054 -0.0395937317 0.1543818784 -0.7781152012 0.1549007963 -0.7784616654 0.029735159 -0.0391206439
655296070.0 0.0274411849 -0.040070371 0.1465149659 -0.779956647 0.1462598703 -0.7801439381 0.0291635349 -0.0386976551
660296040.0 0.0262895227 -0.0408000146 0.1377686989 -0.781452603 0.1383623109 -0.7814686809 0.0290152221 -0.0387141833
665296010.0 0.0267106117 -0.0404778553 0.1286438565 -0.7825119507 0.1292139266 -0.7830456407 0.0283626684 -0.0385411023
670295980.0 0.0248834781 -0.0404667247 0.1203775768 -0.7839942692 0.1205374465 -0.7847250666 0.0271913459 -0.0391432451
675295950.0 0.0247966889 -0.040367585 0.1122244434 -0.7853386371 0.1125425862 -0.7846615476 0.0264126897 -0.0392550119
680295920.0 0.023729376 -0.0411600291 0.103257585 -0.7864003388 0.1030630863 -0.7866068465 0.0261888919 -0.0384389698
685295890.0 0.0237764352 -0.0404291001 0.0950735092 -0.7877054857 0.0947894377 -0.7876072989 0.0255257561 -0.0391256959
690295860.0 0.0234565709 -0.0411133453 0.08625924 -0.7884565109 0.0860294899 -0.7887975113 0.0248296849 -0.0381580075
695295830.0 0.0228097142 -0.0414177446 0.0785235524 -0.7894593255 0.0778267994 -0.789202162 0.0244650605 -0.0389985421
700295800.0 0.02209887 -0.0417075947 0.0692905614 -0.790024491 0.0683956949 -0.7896188746 0.0237472984 -0.0384824492
705295770.0 0.0213920856 -0.0408129946 0.0601601239 -0.7904141112 0.0605595222 -0.7909839253 0.0228682946 -0.0390084429
710295740.0 0.0211005666 -0.0413800724 0.0521281086 -0.7921809013 0.0524325983 -0.7920310197 0.0225624643 -0.0398566333
715295710.0 0.0197028378 -0.0417885917 0.0435435992 -0.7921272551 0.0429140141 -0.7918983022 0.022247005 -0.0396475394
720295680.0 0.0195540258 -0.0415479245 0.0347229605 -0.7926554461 0.0349627373 -0.7920761731 0.0214987574 -0.0388711996
725295650.0 0.0192412828 -0.0415867135 0.0258600111 -0.792696343 0.02638143 -0.7927879916 0.0200870226 -0.0392083581
730295620.0 0.0188669845 -0.041389186 0.0169138244 -0.7926487227 0.0173031808 -0.7929195157 0.0196037503 -0.0399247214
735295590.0 0.0179330412 -0.0414357367 0.0087879684 -0.7930083864 0.0087907275 -0.7932174816 0.0188833462 -0.0401468238
740295560.0 0.0169107041 -0.0415682246 0.0004451319 -0.7929984203 -3.00468e-05 -0.7929919466 0.0189827326 -0.0397867968
745295530.0 0.0164898762 -0.0414563813 -0.0084428878 -0.7923705941 -0.0086189075 -0.7930522865 0.0180445684 -0.0400875819
750295500.0 0.016144 -0.04195822 -0.0169927284 -0.7927003522 -0.0166618423 -0.7930239213 0.0175635896 -0.0402599575
755295470.0 0.0155762755 -0.0422978113 -0.0256967602 -0.792758448 -0.0257059127 -0.7929038459 0.0175661347 -0.0405897996
760295440.0 0.0147490458 -0.0418273086 -0.0341454984 -0.7928154301 -0.0344406684 -0.7925870604 0.0165147519 -0.0403986561
765295410.0 0.014185258 -0.0420051313 -0.0429843196 -0.7922303978 -0.0437997771 -0.7927530923 0.0160983341 -0.0403160646
770295380.0 0.0132673797 -0.0424693571 -0.0518973851 -0.7916373182 -0.051935449 -0.7915612236 0.0151426065 -0.0408183264
775295350.0 0.0126395422 -0.0428976405 -0.0603455215 -0.7902166832 -0.059673647 -0.7905297764 0.0136938986 -0.0402268683
780295320.0 0.0124234076 -0.0422181011 -0.0688882995 -0.7895305456 -0.0681518769 -0.7901568026 0.0133611259 -0.0412970571
785295290.0 0.0112611364 -0.04296574 -0.0777574199 -0.7885900744 -0.0773197729 -0.7889108504 0.0137334962 -0.0404119397
790295260.0 0.0113747428 -0.0419860582 -0.0856701775 -0.7876992559 -0.0850793626 -0.7881486299 0.0126747654 -0.0409287656
795295230.0 0.0104906102 -0.0426468686 -0.0944565772 -0.7869680349 -0.093511506 -0.7873248145 0.0124339952 -0.0403396616
800295200.0 0.0094349815 -0.0422021093 -0.1041468609 -0.7861008646 -0.1035096231 -0.7858686427 0.0113073707 -0.0409451261
805295170.0 0.0089755009 -0.042399812 -0.1115740332 -0.7843836192 -0.1116737085 -0.7852548444 0.0109716857 -0.0407307921
810295140.0 0.0079641125 -0.0427032543 -0.1201076672 -0.7830892926 -0.1200867741 -0.7835210122 0.0112013357 -0.0401824519
815295110.0 0.0076813877 -0.0429957238 -0.1282457126 -0.7816032713 -0.1280685199 -0.7818652765 0.0099009679 -0.0401533781
820295080.0 0.006568064 -0.0418617576 -0.1370215316 -0.7805404941 -0.1367702262 -0.7807108725 0.0096498518 -0.0406797916
825295050.0 0.0068885253 -0.0420886849 -0.145102983 -0.7791022221 -0.1453767734 -0.7794719182 0.0093184047 -0.0406292551
830295020.0 0.0059733242 -0.041912853 -0.1537187681 -0.7770572687 -0.1540996729 -0.7772065934 0.0092118353 -0.0401435648
