!Created with skrf (http://scikit-rf.org).
# Hz S RI R 50.0 
!freq ReS11 ImS11 ReS21 ImS21 ReS12 ImS12 ReS22 ImS22
300000.0 -0.2353925969 -0.1204448875 0.4654040556 0.0798063181 0.4657002052 0.0801304813 -0.2342087713 -0.1267614604
5299970.0 -0.2449552351 0.005108477 0.4735516032 0.0058695066 0.473745447 0.0057902938 -0.2435774991 0.0050919836
10299940.0 -0.2415335226 0.0185110671 0.4759865185 0.0069252904 0.4756157799 0.0072003807 -0.2402623452 0.0178527654
15299910.0 -0.23676818 0.0283044643 0.4795063935 0.0084172 0.4795688239 0.0082285913 -0.2360026055 0.0275557376
20299880.0 -0.2314861649 0.0363818836 0.4841724565 0.0083101651 0.4843100751 0.0084603674 -0.2312369299 0.0354562077
25299850.0 -0.2256492501 0.0428217035 0.4901090422 0.0077241731 0.4896034046 0.0078036852 -0.2262762271 0.0417251061
30299820.0 -0.220300154 0.0476925183 0.4952251745 0.0059809628 0.4954480439 0.0055727112 -0.2206942233 0.0468924544
35299790.0 -0.2143275559 0.0517901473 0.5000917693 0.0026204934 0.5005465835 0.002508972 -0.2157694872 0.0515095872
40299760.0 -0.2091407762 0.054615226 0.5053034814 -0.0014499876 0.5055039153 -0.0015289548 -0.2105620019 0.0547091142
45299730.0 -0.2038135269 0.0573345285 0.5099226331 -0.0060749658 0.5105710898 -0.006228163 -0.2057523363 0.0575310953
50299700.0 -0.1992002795 0.0589682966 0.514492837 -0.0119778721 0.5146779995 -0.0118865262 -0.2012842661 0.0602249791
55299670.0 -0.1948999762 0.0602483428 0.5183771175 -0.0174319061 0.5184815061 -0.0178340615 -0.1975806999 0.0619214069
60299640.0 -0.1908266542 0.0617614418 0.5220551675 -0.0238425882 0.52185092 -0.023948889 -0.1933373007 0.0633528409
65299610.0 -0.1873777138 0.0625696198 0.5251880502 -0.0301790922 0.5247529708 -0.0306954343 -0.1899438394 0.0647695368
70299580.0 -0.1840934442 0.0631165081 0.5271999825 -0.0368306103 0.5273819624 -0.0370658454 -0.1872104113 0.0658345017
75299550.0 -0.181116246 0.0638280589 0.5292146484 -0.0440597424 0.5290831437 -0.0439265822 -0.1840240152 0.0666872433
80299520.0 -0.1785517646 0.0647373831 0.5310148934 -0.0508288039 0.5310301818 -0.0508693835 -0.1815295373 0.0680104214
85299490.0 -0.1756250365 0.0650153752 0.5324851403 -0.0580204196 0.5326468311 -0.0573853167 -0.1793616166 0.0687027168
90299460.0 -0.1734570813 0.0654640627 0.5332765216 -0.0648682045 0.5330317159 -0.0645604538 -0.1766185487 0.069904024
95299430.0 -0.1715186342 0.0658150025 0.5345151552 -0.0712417593 0.5345522789 -0.0717761046 -0.1751604479 0.0706237462
100299400.0 -0.1695680828 0.0662288795 0.534662651 -0.0781435225 0.5350367664 -0.078442145 -0.1731995235 0.0719401916
105299370.0 -0.1675635818 0.0666553018 0.5349822762 -0.0852928145 0.5352577477 -0.0854983046 -0.1708635322 0.0721943714
110299340.0 -0.1659344375 0.067012951 0.5355289849 -0.0916363761 0.5355945853 -0.0918088555 -0.1695806711 0.0730635801
115299310.0 -0.1644462177 0.0674558444 0.5347685488 -0.098440287 0.5350659374 -0.0988682421 -0.1683339652 0.074380147
120299280.0 -0.1632728357 0.068143797 0.5351713189 -0.1064152621 0.534898211 -0.1060500762 -0.1666134789 0.0745262608
125299250.0 -0.1619653755 0.0684921451 0.5348251771 -0.1122581939 0.5342344832 -0.1126171994 -0.1652454197 0.0759148436
130299220.0 -0.1608441107 0.0692156369 0.5342140459 -0.1192873301 0.53381864 -0.1197816964 -0.1639939861 0.0768270059
135299190.0 -0.15963383 0.0701612902 0.5336683608 -0.1259576378 0.5335371213 -0.1259931305 -0.1632663304 0.0778097692
140299160.0 -0.1587468133 0.0708546363 0.5329408077 -0.1328172441 0.5327387692 -0.1322859833 -0.1623587834 0.0786819527
145299130.0 -0.1579421168 0.0717238393 0.531912302 -0.1391010128 0.5316269748 -0.1389785409 -0.1608171276 0.0801561694
150299100.0 -0.1565818363 0.072584759 0.5306914823 -0.1459509232 0.5305947075 -0.1458082536 -0.1597861751 0.0813565261
155299070.0 -0.1555242547 0.0733785294 0.5289501053 -0.1520031535 0.5292521276 -0.1521760884 -0.1586450857 0.0823161163
160299040.0 -0.1550457121 0.0744597459 0.528298465 -0.1586243433 0.5278499159 -0.1591106258 -0.157869403 0.0837597962
165299010.0 -0.1535588348 0.0752656809 0.5267648423 -0.1651568087 0.5265421687 -0.1650940984 -0.1568087695 0.0844918515
170298980.0 -0.153014519 0.0762736808 0.524722824 -0.1717059692 0.5250235487 -0.1714338676 -0.156131324 0.08595624
175298950.0 -0.1521185563 0.0773412733 0.5237349697 -0.1776776897 0.5237564072 -0.1780274343 -0.1547897839 0.0873718988
180298920.0 -0.1517490715 0.0784744227 0.5220634736 -0.1842710814 0.5215664113 -0.1843923193 -0.1540603275 0.0884236992
185298890.0 -0.1509286206 0.0795950415 0.5202798472 -0.1903132576 0.5198264806 -0.1901399799 -0.1527816072 0.0892752195
190298860.0 -0.1496344646 0.0806810262 0.5176640547 -0.1964324634 0.5182339581 -0.1963611157 -0.1523048355 0.0909679079
195298830.0 -0.1491957599 0.0819378831 0.516229031 -0.2023834341 0.5162078268 -0.2024868958 -0.1515848334 0.0923588506
200298800.0 -0.1479920595 0.0827117663 0.5140625597 -0.2090172271 0.5138087461 -0.209027299 -0.1503681628 0.0934232441
205298770.0 -0.1479440791 0.0839082426 0.5114573021 -0.2149849809 0.5121858127 -0.2148489437 -0.1493460425 0.0950854327
210298740.0 -0.1470115115 0.0853389848 0.5099358527 -0.2206526581 0.5091415874 -0.2210271763 -0.1485801864 0.0963182504
215298710.0 -0.1460560023 0.086720258 0.5069561057 -0.226765111 0.507353894 -0.2268642853 -0.14718041 0.0977671186
220298680.0 -0.1451342365 0.0878096646 0.5043634283 -0.2323836306 0.5044538059 -0.2327051519 -0.146523767 0.0990986375
225298650.0 -0.1445753621 0.0890152254 0.5017003362 -0.2382970582 0.5023019656 -0.2381203843 -0.1454303959 0.1003945223
230298620.0 -0.1435121872 0.0905133685 0.4998561422 -0.2439292879 0.5001326369 -0.2444825674 -0.1447377406 0.1016922634
235298590.0 -0.1433887111 0.0919132646 0.497049575 -0.2506688167 0.4970651443 -0.2499792646 -0.1436181646 0.1035470684
240298560.0 -0.1421420482 0.093209421 0.4942612576 -0.2554326095 0.4942649363 -0.2556566277 -0.1425754396 0.1043809667
245298530.0 -0.1415942074 0.0941423116 0.4914821154 -0.2616037585 0.4913806735 -0.2617335372 -0.1414099174 0.1059722607
250298500.0 -0.1407649126 0.095574828 0.4889440976 -0.2669905567 0.4888282689 -0.2671040219 -0.1405042492 0.107636103
255298470.0 -0.1402393609 0.0971204097 0.48642824 -0.2725587029 0.4864162556 -0.2728909977 -0.1395636114 0.1090092032
260298440.0 -0.1390020687 0.0982122416 0.4832575088 -0.2778024595 0.4832875872 -0.2779265638 -0.1385673778 0.110186581
265298410.0 -0.1384442134 0.0997177252 0.4799744713 -0.2841125935 0.479998423 -0.2840996772 -0.1367398077 0.1118482317
270298380.0 -0.1377770623 0.1009102241 0.4767396803 -0.2890490727 0.4769794719 -0.2891896638 -0.1358364556 0.1134418655
275298350.0 -0.1366462337 0.1025688437 0.4731692007 -0.294232211 0.4734800117 -0.2945384312 -0.1349373913 0.1149994861
280298320.0 -0.1360449759 0.1035672382 0.4706950239 -0.2995853335 0.4708471995 -0.2999660219 -0.1334444692 0.1163167274
285298290.0 -0.1350411725 0.1049077913 0.4670015945 -0.3049876661 0.4674271547 -0.3050366056 -0.1324127303 0.1178294174
290298260.0 -0.1341241046 0.106556953 0.4645528075 -0.3105433529 0.4643217316 -0.3105099653 -0.1314300716 0.1191882566
295298230.0 -0.1334349596 0.1073296139 0.460973667 -0.3160694072 0.4607571601 -0.3159964463 -0.1299109256 0.1203140051
300298200.0 -0.1323827662 0.1091808608 0.4575724296 -0.321188735 0.4576533966 -0.3208740189 -0.1289284297 0.1220742231
305298170.0 -0.1314740491 0.1101198958 0.4541964441 -0.3264114594 0.4540257733 -0.3264960875 -0.1273161532 0.1230450964
310298140.0 -0.1301645443 0.1111565382 0.4502535057 -0.3312802595 0.450587815 -0.3312619736 -0.1258077839 0.1244267311
315298110.0 -0.1298046301 0.1123964787 0.4469163944 -0.3372048647 0.4467896913 -0.3371558457 -0.1248235151 0.125918808
320298080.0 -0.1288475412 0.113830845 0.4423985337 -0.3422714821 0.4432953661 -0.341795553 -0.1236043896 0.1268439996
325298050.0 -0.1281578547 0.1145960708 0.438850205 -0.3465304185 0.4396575779 -0.3469661639 -0.1221278208 0.1280591164
330298020.0 -0.1276291717 0.1161385234 0.4353176105 -0.3518823473 0.4355475022 -0.3521326156 -0.1212162941 0.129476348
335297990.0 -0.1266406521 0.117549865 0.4312370035 -0.3567061468 0.4314780597 -0.3569196206 -0.1199634685 0.131143684
340297960.0 -0.1259288184 0.1187591607 0.4268604208 -0.3618885533 0.426872337 -0.3616236765 -0.1188967475 0.1327632389
345297930.0 -0.1252263016 0.1197670319 0.4229908899 -0.3662214908 0.4230109052 -0.3664091052 -0.117439671 0.1339694828
350297900.0 -0.1242351697 0.1210688824 0.4193341495 -0.3708732333 0.4195844246 -0.3707186583 -0.1163139614 0.1353530236
355297870.0 -0.123075526 0.1225128571 0.4146143131 -0.3746436289 0.4149814398 -0.3752192708 -0.1146301681 0.1365020085
360297840.0 -0.1221191989 0.1240111163 0.4104275824 -0.3799523452 0.4109809562 -0.3804843082 -0.1131899927 0.1384545555
365297810.0 -0.1211103597 0.1253071231 0.4059661458 -0.3847224749 0.4066772456 -0.3844824066 -0.112433676 0.1393949633
370297780.0 -0.120067643 0.1263924473 0.4016757397 -0.388919526 0.4021947922 -0.3887293579 -0.1107633034 0.1407525389
375297750.0 -0.1188661591 0.1277916212 0.3982500056 -0.3930846095 0.3979495982 -0.3932593978 -0.1087336219 0.1420256394
380297720.0 -0.1182145391 0.1291228859 0.3937551846 -0.3982089041 0.3935285598 -0.3980322352 -0.1075428013 0.1437953482
385297690.0 -0.1168847356 0.1300686521 0.3890976661 -0.4019223936 0.3892726015 -0.4025413181 -0.1059101431 0.1451437776
390297660.0 -0.1154892499 0.1315202098 0.3847831309 -0.4061081851 0.3846148839 -0.4060950891 -0.104057892 0.1458194435
395297630.0 -0.1141701746 0.1324972286 0.3802786527 -0.409853946 0.3803404448 -0.4104451391 -0.1028793648 0.1474500993
400297600.0 -0.1134957584 0.1340691892 0.3758220395 -0.4144661636 0.3760190011 -0.4143216671 -0.1010760963 0.1489191834
405297570.0 -0.1123354401 0.1346546919 0.3711752101 -0.4182806374 0.3717304361 -0.4184857898 -0.0996415807 0.1502216339
410297540.0 -0.1110482096 0.1362107816 0.3669583149 -0.4225095445 0.3667758478 -0.4224023271 -0.0979089004 0.151275172
415297510.0 -0.1097436204 0.137259047 0.3617416579 -0.426737267 0.3626306053 -0.426712389 -0.0961503401 0.1525618821
420297480.0 -0.1088175345 0.1382750182 0.3571504938 -0.4307789129 0.3576822253 -0.4306439269 -0.0943504589 0.1540060146
425297450.0 -0.1069317714 0.1394022 0.3523619573 -0.4343002414 0.3524904306 -0.4343304085 -0.0929810267 0.1546493733
430297420.0 -0.1061153656 0.1405954753 0.3484493827 -0.4384522612 0.3484719261 -0.4378795699 -0.0910334938 0.156141655
435297390.0 -0.1046106611 0.1417155606 0.3428704607 -0.4424390425 0.3430772798 -0.4422234175 -0.0899093205 0.1575691489
440297360.0 -0.1030390677 0.142706598 0.3377851237 -0.4457666732 0.3381041201 -0.446139192 -0.0879327538 0.1585939178
445297330.0 -0.1018318505 0.143515528 0.333743194 -0.4492971713 0.333445546 -0.4496116188 -0.0858262963 0.1597469016
450297300.0 -0.100530712 0.1447856178 0.3284029256 -0.4530859068 0.3284576114 -0.4529527426 -0.0839010833 0.1607566168
455297270.0 -0.0993501021 0.1457288705 0.3233462589 -0.456595054 0.3236551559 -0.456756113 -0.0823929599 0.1618114135
460297240.0 -0.0978175337 0.1470779472 0.3186521193 -0.4605566206 0.3186257909 -0.4605607457 -0.0804702724 0.1628615821
465297210.0 -0.0962870777 0.1479973242 0.3129455851 -0.4638581109 0.3130525717 -0.4639499247 -0.078739128 0.1645254528
470297180.0 -0.0952539224 0.1488888597 0.3083880908 -0.4669327845 0.3084750908 -0.4667707564 -0.076517045 0.1648125192
475297150.0 -0.0939365941 0.1503292581 0.3030354601 -0.4707654579 0.30304326 -0.4704354416 -0.0745716609 0.166056948
480297120.0 -0.0917697712 0.1513249716 0.2980338331 -0.473793639 0.2983837778 -0.4734841497 -0.0735703788 0.1667685405
485297090.0 -0.0904041469 0.1519269 0.2922373409 -0.4771473699 0.2928508059 -0.4768363244 -0.0714031445 0.1679347154
490297060.0 -0.0885786138 0.153019672 0.2874006659 -0.4804949442 0.2877053145 -0.4800670297 -0.0694582743 0.1686407725
495297030.0 -0.0876302066 0.1536793389 0.2822297458 -0.4833105373 0.2826005266 -0.4832867632 -0.0674423979 0.1696863373
500297000.0 -0.0860342623 0.1549542861 0.2772490825 -0.4861835401 0.276583322 -0.4861717799 -0.065536486 0.1707543694
505296970.0 -0.084129746 0.1560318635 0.2712689569 -0.4893541264 0.2717366109 -0.4890104143 -0.0635856598 0.1709142153
510296940.0 -0.0827009142 0.1567345186 0.2663453979 -0.4928599502 0.2663635417 -0.4924334238 -0.0611607666 0.1723574442
515296910.0 -0.0811560748 0.157969556 0.2603536874 -0.4948031948 0.2603537246 -0.4947763642 -0.0599166619 0.1728567694
520296880.0 -0.0794314895 0.1587405879 0.2551324583 -0.497586486 0.2553798796 -0.4973714967 -0.0575866151 0.1739397434
525296850.0 -0.0779426115 0.1593967014 0.2499612427 -0.500632111 0.2498396962 -0.500300894 -0.055641907 0.1744665003
530296820.0 -0.0762941371 0.1602392593 0.2443778985 -0.5033683827 0.2443468428 -0.5029349933 -0.0536726107 0.1751376411
535296790.0 -0.0742590951 0.1612210442 0.2388811357 -0.5054598705 0.2389508682 -0.5058174988 -0.0513632251 0.1762654377
540296760.0 -0.0727675836 0.1624164203 0.2331866046 -0.508141623 0.2331998907 -0.5081662808 -0.049470701 0.1763853085
545296730.0 -0.0717481641 0.1634085539 0.2277028625 -0.5105559324 0.2275804997 -0.5106136689 -0.0475891665 0.1777463219
550296700.0 -0.0694838634 0.163820764 0.2222126898 -0.5132285086 0.2220689473 -0.5133979573 -0.0454111497 0.1778875067
555296670.0 -0.0679878387 0.1647887564 0.2164246212 -0.5157171128 0.2165266456 -0.5155363153 -0.0438911971 0.1782681223
560296640.0 -0.0660156595 0.1653733494 0.2108190369 -0.5180998974 0.2109290488 -0.5177205758 -0.0416030392 0.1792933455
565296610.0 -0.0647536403 0.1662518377 0.205904226 -0.5201934683 0.2054655882 -0.5196998172 -0.0394489807 0.1800606232
570296580.0 -0.0632148747 0.1672908677 0.200006557 -0.5220970675 0.1998501457 -0.5224134539 -0.0376726474 0.1805782445
575296550.0 -0.0608652781 0.1677726771 0.1942564464 -0.5246160172 0.1941067933 -0.5245301939 -0.0356052717 0.1808684251
580296520.0 -0.059549946 0.1689946531 0.1882109983 -0.526360604 0.1885011255 -0.5268636285 -0.033868132 0.1815032948
585296490.0 -0.0576498254 0.1697630255 0.1829651765 -0.5285119962 0.1823559279 -0.5281124648 -0.0310357982 0.1819629242
590296460.0 -0.0553546156 0.1704319025 0.1768338914 -0.5301603372 0.1765974547 -0.5305501053 -0.029520444 0.18242581
595296430.0 -0.0540295674 0.1711121907 0.1705601164 -0.532121525 0.1708531057 -0.5321497397 -0.0274074986 0.182690031
600296400.0 -0.052116055 0.1719021642 0.1651503869 -0.5336032312 0.1648702386 -0.5338464688 -0.0253262059 0.1832665539
605296370.0 -0.0505817625 0.1729715271 0.159714651 -0.5355472945 0.1590939397 -0.5358377493 -0.0233105539 0.1838317103
610296340.0 -0.0485710346 0.1738498063 0.1534151613 -0.5370112859 0.1538349978 -0.5371298491 -0.0216189673 0.1840709809
615296310.0 -0.0465452467 0.1740673484 0.1475363144 -0.5390837246 0.1474216109 -0.5389732904 -0.018833695 0.1848261136
620296280.0 -0.0453919349 0.1753025618 0.1418053443 -0.5405473164 0.1417029634 -0.5402231984 -0.017301768 0.1852479
625296250.0 -0.0438735557 0.175694396 0.1359739389 -0.5419624254 0.1358163811 -0.542113656 -0.0153170105 0.1852064044
630296220.0 -0.0416493598 0.1764777753 0.129789863 -0.5437703626 0.1298091928 -0.5431150462 -0.0129566277 0.1851427447
635296190.0 -0.0401725638 0.1773329177 0.1241721546 -0.5448367464 0.1237013739 -0.5444277861 -0.0110372767 0.1857973591
640296160.0 -0.038344499 0.17770172 0.1181941638 -0.5461348113 0.1178283655 -0.5460082145 -0.009159825 0.1858425265
645296130.0 -0.0361340551 0.1785645185 0.1122674523 -0.5470748485 0.1123808455 -0.5467847903 -0.0067136186 0.1857113917
650296100.0 -0.0346675749 0.1791921065 0.1061918705 -0.5488627283 0.1059818409 -0.5483235324 -0.0043841678 0.1863621536
655296070.0 -0.0331982667 0.1796670676 0.100409455 -0.5497888819 0.1004197107 -0.5489505086 -0.0030021052 0.1864483347
660296040.0 -0.0312264103 0.1804992824 0.0946017009 -0.5505661716 0.0946158464 -0.5503475707 -0.0007817724 0.1864485878
665296010.0 -0.0292767374 0.1808595757 0.0879460064 -0.5512090235 0.0884561739 -0.5513314087 0.0016796921 0.1868840392
670295980.0 -0.027670693 0.1813786061 0.0823601181 -0.5525643383 0.0824474435 -0.5518805523 0.0031901321 0.1867917545
675295950.0 -0.025794131 0.1820194719 0.0764996017 -0.5529835437 0.0769308619 -0.5533487426 0.0051136089 0.1873525413
680295920.0 -0.0243984717 0.1825572242 0.0709246106 -0.5537241943 0.070546268 -0.5535826506 0.0076577387 0.1867742192
685295890.0 -0.0222462809 0.1830474703 0.0642283332 -0.5547087203 0.0647366546 -0.5545775887 0.009608528 0.1874830989
690295860.0 -0.020889435 0.1836522826 0.0588396645 -0.5552217062 0.0581237968 -0.5553124906 0.0117357125 0.1871541342
695295830.0 -0.019092012 0.1838830046 0.0533692839 -0.5561060872 0.0527156502 -0.5556817458 0.0137171739 0.1875956158
700295800.0 -0.0167770126 0.18460968 0.0469916816 -0.5560850154 0.0468071914 -0.5561157413 0.0159038771 0.1872088938
705295770.0 -0.0155116436 0.1848811289 0.0408774924 -0.5570936166 0.0407752547 -0.5569371745 0.0177871329 0.1878204994
710295740.0 -0.0137621238 0.1851926366 0.0353360218 -0.5568734374 0.0347453059 -0.557327005 0.0200858072 0.18733698
715295710.0 -0.0117483473 0.1860248646 0.0288601776 -0.5576270195 0.0285194586 -0.5572353925 0.0221941514 0.1870014795
720295680.0 -0.0098902224 0.1860940626 0.0226414847 -0.5578244123 0.0224541025 -0.5576108959 0.0241479439 0.1869323759
725295650.0 -0.0084363934 0.1867806113 0.0170065206 -0.5581005136 0.0163432932 -0.557846397 0.026162076 0.187323526
730295620.0 -0.0072839485 0.1866051814 0.0109153273 -0.5574336542 0.0107048437 -0.5574422836 0.0280701057 0.1874993357
735295590.0 -0.0052231634 0.18734884 0.0051268654 -0.5582884042 0.0047356903 -0.5582671779 0.0299757507 0.1867811941
740295560.0 -0.0034378485 0.1872508375 -0.0010976768 -0.5580421397 -0.0008322346 -0.5583212066 0.0319295996 0.1869781944
745295530.0 -0.0017069738 0.1878203307 -0.0071805192 -0.5571007146 -0.0064700376 -0.5579084437 0.0335861972 0.186606623
750295500.0 -0.000170391 0.1881955144 -0.0129055616 -0.5578667079 -0.0132336489 -0.5576176606 0.0359361295 0.1863547791
755295470.0 0.0016028588 0.1881849282 -0.0186856916 -0.5573788209 -0.0192871537 -0.5581957047 0.0382089968 0.186447221
760295440.0 0.0033105053 0.1890345744 -0.0255086617 -0.5574059796 -0.025423176 -0.5567706418 0.0404624289 0.1850895055
765295410.0 0.005579496 0.1886230556 -0.030739734 -0.5568488305 -0.031020766 -0.557203369 0.0422610745 0.1853164459
770295380.0 0.0071025966 0.1887727983 -0.0369861021 -0.5560620739 -0.0371738079 -0.5570595379 0.044075927 0.1853639688
775295350.0 0.0087347145 0.1890201036 -0.0428252614 -0.5561639554 -0.0432168796 -0.5558273658 0.0464168005 0.1850652286
780295320.0 0.0105959035 0.1892533223 -0.048626304 -0.5552283834 -0.0488403012 -0.5553290183 0.0489936731 0.1846468172
785295290.0 0.0120941284 0.1895192124 -0.0546842876 -0.5550284734 -0.0546641833 -0.5553494146 0.0498671378 0.1847237311
790295260.0 0.0140670757 0.1891356112 -0.0611924315 -0.5545755472 -0.0605798895 -0.5544788258 0.0522688851 0.1843555919
795295230.0 0.0156966607 0.1892340737 -0.066880209 -0.5539143693 -0.0669888865 -0.5539547543 0.0542240679 0.1829858486
800295200.0 0.0170670049 0.1897248381 -0.0722747749 -0.5527175693 -0.0726323823 -0.5531615674 0.0561072337 0.1829904926
805295170.0 0.0188528033 0.1898430427 -0.0787566108 -0.5520495653 -0.0785588464 -0.5521361961 0.0587950919 0.1823212836
810295140.0 0.020743663 0.1898052551 -0.0845080102 -0.5510488588 -0.084610585 -0.5514906459 0.0605368699 0.1819419216
815295110.0 0.0221362439 0.1897982153 -0.0902077006 -0.5503886987 -0.0897906859 -0.5504586679 0.0621672704 0.1816001388
820295080.0 0.0242949409 0.1894669089 -0.0953564361 -0.5485620534 -0.0958483443 -0.5492847555 0.0638721875 0.1814902982
825295050.0 0.0256497516 0.1896420652 -0.1021173915 -0.5482418907 -0.1020683086 -0.5481547949 0.0668012885 0.1810537967
830295020.0 0.0277374858 0.1896247773 -0.1081153315 -0.5470488821 -0.1079536984 -0.5469790204 0.0683086201 0.1798883196
