!Created with skrf (http://scikit-rf.org).
# Hz S RI R 50.0 
!freq ReS11 ImS11 ReS21 ImS21 ReS12 ImS12 ReS22 ImS22
300000.0 -0.2419533552 -0.0979081148 0.4715509322 0.0669417781 0.4705452288 0.062740328 -0.2366303276 -0.1086261006
5299970.0 -0.2449682661 0.0062759079 0.4748326169 0.0050494187 0.4747484267 0.0050640211 -0.240433907 0.0072454884
10299940.0 -0.2416689598 0.0179621377 0.4768974039 0.0062655334 0.4768968992 0.0063792011 -0.2371688421 0.0203959138
15299910.0 -0.2371531865 0.0266308907 0.4801895262 0.0073273607 0.480626534 0.0073625642 -0.2324638155 0.0300071066
20299880.0 -0.2327688138 0.0341198623 0.4847152834 0.0077394013 0.4850207247 0.007744251 -0.2273414215 0.0381819479
25299850.0 -0.2277639038 0.0399583326 0.490156623 0.0071185707 0.4897845854 0.0071203773 -0.2212857833 0.0450302674
30299820.0 -0.222566979 0.0450615003 0.4954475405 0.0048325299 0.4950555647 0.0048362806 -0.2158943019 0.0506420733
35299790.0 -0.217213954 0.0492235042 0.50053637 0.0013238945 0.5005748909 0.001487663 -0.210116097 0.0547963416
40299760.0 -0.212687668 0.0525355795 0.5061384712 -0.0024502151 0.5062272946 -0.0023745542 -0.2047629118 0.057708249
45299730.0 -0.2079935443 0.0550014092 0.5101621092 -0.0074593485 0.5108015972 -0.0069026685 -0.2001004362 0.0610221886
50299700.0 -0.2037703965 0.0569082872 0.5148922897 -0.0129535788 0.5146476825 -0.0122561473 -0.1952971074 0.0627480608
55299670.0 -0.1999192701 0.0584974482 0.5190551867 -0.0192409486 0.5183267929 -0.0188317693 -0.1913571922 0.0646496957
60299640.0 -0.1959931294 0.0599739054 0.5214432688 -0.0252257061 0.5218607731 -0.0246937462 -0.1874588429 0.0654608842
65299610.0 -0.1929935216 0.0612020073 0.5246198868 -0.031539342 0.5249088954 -0.0314230713 -0.1841726914 0.0671473718
70299580.0 -0.1899947818 0.062105094 0.5271072779 -0.0378347756 0.5268591711 -0.037510373 -0.1809077234 0.0674859428
75299550.0 -0.1872601914 0.0630421802 0.5289181552 -0.0448274216 0.5289139822 -0.0449857188 -0.1782767881 0.0682853941
80299520.0 -0.1848816495 0.063672372 0.5304754647 -0.051747814 0.530863699 -0.0516620197 -0.1754116949 0.0692127219
85299490.0 -0.1827131494 0.064226627 0.5321697848 -0.0582267096 0.5322185327 -0.0582259923 -0.1730787676 0.0697419717
90299460.0 -0.1806465851 0.0648397486 0.5329196944 -0.065644734 0.5334777012 -0.0652409701 -0.1705217352 0.070401036
95299430.0 -0.1781381694 0.065492716 0.5336887579 -0.0725492106 0.5337370023 -0.0726319268 -0.1683350552 0.0711673758
100299400.0 -0.176831284 0.0663127612 0.5339103282 -0.0792056185 0.5340064831 -0.0792162826 -0.1663762564 0.0716624064
105299370.0 -0.1748392499 0.0669640167 0.5345819577 -0.0865143353 0.5347647212 -0.0861884417 -0.1643242859 0.0723221748
110299340.0 -0.1736625011 0.067517496 0.5345352042 -0.0927897355 0.5344617091 -0.0925825456 -0.1630391631 0.0725927726
115299310.0 -0.1719748996 0.0682613542 0.5344898303 -0.099808423 0.5343511785 -0.099820768 -0.1610951411 0.0734578958
120299280.0 -0.1708829477 0.0684656143 0.5343836847 -0.1064499306 0.5343282688 -0.1065216111 -0.1594091899 0.0740003656
125299250.0 -0.1695265798 0.0691642606 0.5339860614 -0.1129427377 0.5343529386 -0.1129722181 -0.1585991045 0.0745754516
130299220.0 -0.1683308935 0.0704909403 0.5332106588 -0.1202504472 0.5332267795 -0.1202131569 -0.1570012916 0.0756130535
135299190.0 -0.1673016256 0.0711674017 0.5325025684 -0.1265095941 0.5325644812 -0.1263550913 -0.1554458626 0.076320402
140299160.0 -0.1666315905 0.0720913781 0.5318292783 -0.1331401859 0.5320121018 -0.1333095984 -0.1543346108 0.0776039368
145299130.0 -0.1655358896 0.0730318275 0.5309326224 -0.1399170113 0.5305206674 -0.1396476678 -0.1531868499 0.0785176687
150299100.0 -0.1640220581 0.0738515276 0.5294613623 -0.1457295762 0.5297382837 -0.1460165947 -0.1519032823 0.0801454659
155299070.0 -0.1636201267 0.074604892 0.5288079878 -0.1529513286 0.5284541178 -0.1529358325 -0.1505891234 0.080771317
160299040.0 -0.1627171965 0.0754507939 0.5269540824 -0.1592746383 0.526682342 -0.1593907254 -0.1501950338 0.0821034078
165299010.0 -0.1621441751 0.0770167746 0.5257079853 -0.1659409575 0.5261197836 -0.1657208059 -0.1486556991 0.0836608124
170298980.0 -0.1614500225 0.0777549105 0.5239193298 -0.1722009982 0.5241494013 -0.1719236551 -0.1478001025 0.0848033351
175298950.0 -0.1607128394 0.0787542891 0.5231932392 -0.1782100458 0.5225542726 -0.1785869144 -0.1470374203 0.0859044975
180298920.0 -0.1598801062 0.0800017104 0.5209296513 -0.1840459487 0.520915297 -0.1842840018 -0.1460348648 0.0873734551
185298890.0 -0.1587656882 0.0810827778 0.5190947735 -0.1909938769 0.5187460403 -0.1907106896 -0.1449220719 0.0887281186
190298860.0 -0.1585574741 0.082187688 0.5175611246 -0.1968286423 0.5173657122 -0.1970658304 -0.1441970278 0.0898347128
195298830.0 -0.1577583695 0.0831016447 0.5152558439 -0.2029651755 0.5154250109 -0.2028431325 -0.1430509003 0.0913559281
200298800.0 -0.1568448284 0.0846337787 0.5128179859 -0.2091442018 0.5128697552 -0.209361336 -0.142774583 0.0927532092
205298770.0 -0.1562011473 0.0858015818 0.5108418925 -0.2154639878 0.5106228464 -0.2149869936 -0.1419860457 0.0932930835
210298740.0 -0.1555663089 0.0871243808 0.5086502965 -0.2206655856 0.5082473933 -0.2210216307 -0.1406057587 0.0955347136
215298710.0 -0.155002088 0.0882553416 0.5061992806 -0.2271761625 0.5060272387 -0.2274678857 -0.1400836394 0.0968829585
220298680.0 -0.1540212027 0.0891103392 0.5037224334 -0.2327864944 0.5036877035 -0.2331037434 -0.1394767023 0.0981168347
225298650.0 -0.1534167626 0.0907485119 0.5011355075 -0.2387146878 0.5012380485 -0.2390322751 -0.1390420945 0.0991274888
230298620.0 -0.1525138731 0.0922460998 0.4986904653 -0.2442482016 0.4992283911 -0.2448218902 -0.1383892567 0.1005038465
235298590.0 -0.1517178064 0.093677655 0.4961602969 -0.2502359863 0.4962764938 -0.2502291221 -0.1368005391 0.1019108305
240298560.0 -0.151330033 0.0951473998 0.4935967141 -0.2563947802 0.4931640909 -0.2563280106 -0.1361329451 0.1036005315
245298530.0 -0.1504320428 0.0964289319 0.4907882192 -0.2618562363 0.4905585698 -0.261938278 -0.1350267005 0.1042295309
250298500.0 -0.1495148774 0.0977131479 0.4873559463 -0.2676323163 0.4875579334 -0.2672275978 -0.1343304475 0.1056018794
255298470.0 -0.148617955 0.0988894018 0.4842814834 -0.2729731183 0.4848848222 -0.2728368247 -0.1333173622 0.1067753846
260298440.0 -0.1482703866 0.1001694186 0.4818352677 -0.2786407203 0.4816858994 -0.2783343223 -0.1315237557 0.1084097685
265298410.0 -0.146674163 0.1019135848 0.478627989 -0.2843871388 0.4788928022 -0.2838682734 -0.1307894719 0.1094875025
270298380.0 -0.1460828645 0.1028764313 0.4764130571 -0.2889920726 0.4757878815 -0.2892721488 -0.1297386795 0.1110448671
275298350.0 -0.1448398609 0.1042537347 0.4724282243 -0.2951642616 0.4726857362 -0.2949094849 -0.1282397586 0.1121359842
280298320.0 -0.1438004432 0.1059238355 0.4696104638 -0.3004425193 0.4696640605 -0.3001327335 -0.1270248089 0.1132451996
285298290.0 -0.143175866 0.1073669825 0.4660593504 -0.3055801187 0.4660157454 -0.30551465 -0.1256729471 0.1149122609
290298260.0 -0.1419427888 0.1087115169 0.462771278 -0.310322604 0.4628458034 -0.3107228267 -0.1244229362 0.1163550071
295298230.0 -0.1408787169 0.1095514768 0.4595998983 -0.3159978467 0.4594899579 -0.3159028721 -0.122749375 0.1173092232
300298200.0 -0.140376417 0.1109200562 0.4566016408 -0.3210258795 0.4567341027 -0.3214352471 -0.12182764 0.1188218902
305298170.0 -0.1387960352 0.1120633436 0.4519852922 -0.3267831932 0.4524396225 -0.3266343068 -0.1200678942 0.1197134717
310298140.0 -0.1378010474 0.1136328904 0.4490786923 -0.3316947422 0.4493407063 -0.3315076168 -0.1186912771 0.1212265908
315298110.0 -0.1368327913 0.1144562699 0.4456704239 -0.3369268759 0.4457159382 -0.3367534778 -0.1172444427 0.1219406669
320298080.0 -0.1358458356 0.1158317662 0.4412241451 -0.342263504 0.4416453555 -0.3422367458 -0.1159550081 0.1236407366
325298050.0 -0.1349341809 0.11698261 0.4378932815 -0.3473692172 0.4376666543 -0.3470989391 -0.1151033226 0.1251412401
330298020.0 -0.1339638384 0.1179519181 0.4336783762 -0.3518638179 0.433652821 -0.3521944303 -0.1139929555 0.1263104959
335297990.0 -0.1330256859 0.1191395028 0.4296451064 -0.3565672378 0.4296745591 -0.3569511072 -0.1129863693 0.1284899486
340297960.0 -0.1324548667 0.1210155348 0.4253527484 -0.3613479656 0.4256472685 -0.3621533329 -0.1110946803 0.1298837331
345297930.0 -0.1312564675 0.1224578157 0.4211350537 -0.3666119208 0.4215537849 -0.3663671023 -0.1099036469 0.1306802083
350297900.0 -0.1304412295 0.1233821223 0.4164748653 -0.3708131822 0.417375988 -0.3708538884 -0.1091383441 0.1325068145
355297870.0 -0.1291899816 0.125498877 0.4130040303 -0.3755431789 0.413332371 -0.3750874395 -0.1077616071 0.1338014107
360297840.0 -0.1282918024 0.1267437603 0.4096055453 -0.3798318243 0.4097152803 -0.3797638144 -0.1064496475 0.1356729088
365297810.0 -0.1272617046 0.1282189257 0.4048638614 -0.3848247029 0.4052740168 -0.3845973717 -0.1050612555 0.1367564395
370297780.0 -0.1255330118 0.1292819293 0.4004878174 -0.3887494423 0.4010495918 -0.3887018996 -0.1037006044 0.1383910335
375297750.0 -0.1244994713 0.1307468504 0.3962371882 -0.3935147884 0.3968455278 -0.3931759953 -0.1023081908 0.1394104743
380297720.0 -0.1234106439 0.1323051585 0.3920133476 -0.3979362893 0.3922756196 -0.3971737388 -0.1011240291 0.1406699689
385297690.0 -0.1226898348 0.1335689751 0.3874641492 -0.4019028378 0.3872996506 -0.4014566523 -0.0995896331 0.1419936788
390297660.0 -0.1213354507 0.1350175808 0.3832948014 -0.4058944588 0.3830777513 -0.4059118489 -0.0983961727 0.1434210719
395297630.0 -0.1198919529 0.1365272961 0.3787732492 -0.4104293513 0.3787282377 -0.4103033864 -0.096191174 0.1447498172
400297600.0 -0.1186027766 0.1375086986 0.3739158137 -0.4145313955 0.3742323327 -0.414621151 -0.0952472255 0.1458672067
405297570.0 -0.1177371913 0.1390143541 0.3696640014 -0.4182867974 0.3694722661 -0.4182761916 -0.0935752463 0.1470569841
410297540.0 -0.1159625299 0.1401931238 0.364850946 -0.4229442746 0.3654414914 -0.4226720443 -0.0924280616 0.1485543313
415297510.0 -0.1144901492 0.1412095433 0.360315692 -0.4268323635 0.3602780166 -0.4267769125 -0.0903739741 0.1494071356
420297480.0 -0.1136064421 0.1428481823 0.355419602 -0.4306027739 0.3553861854 -0.4304808954 -0.0891390831 0.1501673521
425297450.0 -0.1118575706 0.1435185097 0.3511136377 -0.434312254 0.3511060619 -0.434360812 -0.0877662278 0.1516294912
430297420.0 -0.1105327548 0.1450411722 0.3458257386 -0.4377218752 0.3463475417 -0.4377102814 -0.0865601102 0.1521634627
435297390.0 -0.109506322 0.146285954 0.3409807672 -0.4416053772 0.3411568785 -0.4421897164 -0.0839678245 0.1534451257
440297360.0 -0.1077012676 0.1473401507 0.3362122424 -0.4451291999 0.3363465654 -0.4455250303 -0.0826154503 0.1540452099
445297330.0 -0.1066409156 0.1484967602 0.3317296445 -0.4491675296 0.3314998211 -0.4488358978 -0.0808063847 0.1549232926
450297300.0 -0.1051140228 0.1495116864 0.3265269567 -0.4527711654 0.3264907678 -0.4531870095 -0.0793303396 0.1556690197
455297270.0 -0.1035874369 0.1507011493 0.3216551974 -0.4563852706 0.3216506653 -0.4564388954 -0.0772628268 0.1567665795
460297240.0 -0.1024659188 0.1516598668 0.3163754769 -0.4598484205 0.3168520678 -0.4596796648 -0.0755398887 0.1580743953
465297210.0 -0.1006323178 0.1529056746 0.3114675734 -0.4631003501 0.3116253644 -0.4632034516 -0.0736454745 0.1584085845
470297180.0 -0.0991908534 0.1537577832 0.30611603 -0.4667269182 0.3064418383 -0.4664190449 -0.0716027485 0.1599407187
475297150.0 -0.0976982197 0.1549765355 0.3011623862 -0.4693861639 0.3015505422 -0.469245861 -0.069682854 0.1604531643
480297120.0 -0.096455782 0.1563116137 0.2963741527 -0.4731681845 0.2958717622 -0.4731707181 -0.0677491994 0.1616374259
485297090.0 -0.0948377401 0.1572477647 0.291134211 -0.4760749141 0.2913544861 -0.475783028 -0.0659993266 0.1621895599
490297060.0 -0.0938567302 0.1581601 0.2863146164 -0.4792898339 0.2862170169 -0.4791492376 -0.0641755717 0.1635674453
495297030.0 -0.0918548765 0.1591647337 0.2805485335 -0.4822518835 0.2809546807 -0.4819732076 -0.062127409 0.1641836939
500297000.0 -0.0903579223 0.160138543 0.2752529768 -0.4851174107 0.2749456416 -0.4854325511 -0.0602442165 0.1655788463
505296970.0 -0.0885266311 0.1607910505 0.2700474594 -0.4877712398 0.2695651911 -0.4882981384 -0.058613354 0.1663353207
510296940.0 -0.0874473259 0.1621203156 0.264751749 -0.4909935619 0.2645136862 -0.491239222 -0.0565282555 0.1672104513
515296910.0 -0.0857375842 0.1632685526 0.2591268225 -0.4939186572 0.2593110189 -0.4938312547 -0.0547194151 0.1678881099
520296880.0 -0.0841267127 0.1641549479 0.2538053294 -0.4970445292 0.2540372537 -0.4966888936 -0.0527939654 0.1689107308
525296850.0 -0.0825143172 0.1648581132 0.2481930983 -0.4996099184 0.24889744 -0.4994259245 -0.0513725158 0.1700611837
530296820.0 -0.0809217471 0.1661525762 0.2431882575 -0.5023920749 0.2431297721 -0.5021861399 -0.0493012632 0.1706833892
535296790.0 -0.079565345 0.1672295478 0.2377218907 -0.505112155 0.2380618142 -0.5045271153 -0.0477917804 0.1713146655
540296760.0 -0.0779708229 0.1679116769 0.232127504 -0.5074998329 0.231904307 -0.507481648 -0.0458243457 0.1725954398
545296730.0 -0.0762540659 0.1689762616 0.2262967067 -0.5097105291 0.2262624322 -0.5093446452 -0.0439778021 0.1728523815
550296700.0 -0.0741009008 0.1700575019 0.2207916394 -0.5123793311 0.2210736001 -0.5124189943 -0.0422853746 0.1740109442
555296670.0 -0.0730386782 0.1707239669 0.215771054 -0.514631551 0.2152183584 -0.5142864577 -0.0401679068 0.1748812167
560296640.0 -0.0709514463 0.171846785 0.2096826277 -0.5168925758 0.2095128513 -0.5168018724 -0.0383833292 0.17499373
565296610.0 -0.0697547512 0.1726929826 0.203949143 -0.5192836367 0.2044920562 -0.5192751479 -0.0368544295 0.175215468
570296580.0 -0.06814287 0.1731312548 0.1988500675 -0.5217799796 0.1981104695 -0.5213262852 -0.034833725 0.1763438455
575296550.0 -0.0667696247 0.1745713665 0.193411353 -0.5240235877 0.192825546 -0.5234677402 -0.0329845048 0.176521969
580296520.0 -0.0647113459 0.1749995131 0.187339893 -0.5255168569 0.1870687275 -0.5253673982 -0.0307379382 0.1769924727
585296490.0 -0.0631355691 0.1753050186 0.1815002381 -0.5271459191 0.1817004616 -0.5274177317 -0.0291121051 0.1775528748
590296460.0 -0.061060776 0.1760927129 0.1755394451 -0.5287510909 0.1757806019 -0.5295380059 -0.02782625 0.1780060939
595296430.0 -0.0593727674 0.1771073793 0.169479342 -0.5314931043 0.1696535805 -0.5309833395 -0.0254561115 0.177954201
600296400.0 -0.057943602 0.1777723832 0.1641789074 -0.5331492867 0.1642267083 -0.5328385077 -0.0238212809 0.1785451029
605296370.0 -0.0561576404 0.1783701208 0.1583842579 -0.534375021 0.1583940652 -0.5344536196 -0.0214567461 0.1787693946
610296340.0 -0.0542527258 0.1789963321 0.1521598464 -0.5361884831 0.1528138747 -0.5361432908 -0.0195867667 0.1790288109
615296310.0 -0.0525549694 0.179691831 0.1465516699 -0.5379277433 0.1464115741 -0.5381083231 -0.0174353861 0.1790945127
620296280.0 -0.0509576919 0.1799445374 0.1406475327 -0.5392546952 0.14082572 -0.5387170767 -0.0155507182 0.1793010555
625296250.0 -0.0492506149 0.1804127212 0.1356762346 -0.5409616054 0.1351390066 -0.5410681172 -0.0129854847 0.1795885411
630296220.0 -0.0468730297 0.181479226 0.1289488569 -0.5419742686 0.1287816377 -0.5420457861 -0.0110049808 0.1800288564
635296190.0 -0.0458998262 0.1818236099 0.1235573553 -0.5432494814 0.1233002011 -0.5432666935 -0.0090072974 0.1803060369
640296160.0 -0.0441045414 0.1826104816 0.117477141 -0.54436454 0.117446493 -0.5449280966 -0.0068493524 0.1803379048
645296130.0 -0.0420450842 0.1833444624 0.1112558713 -0.5458725331 0.1116349538 -0.5457804088 -0.0048200156 0.180610157
650296100.0 -0.040162436 0.183823997 0.1055240542 -0.5471626171 0.1059015683 -0.5470261286 -0.0024976076 0.1805043947
655296070.0 -0.0388230449 0.183952885 0.0999275701 -0.5479681127 0.0999580654 -0.5481438945 -0.0002866052 0.1809655129
660296040.0 -0.0370973507 0.1839556118 0.093862445 -0.5491271885 0.0939328436 -0.5491502194 0.001824902 0.1813780165
665296010.0 -0.0348938648 0.1848833403 0.0874966811 -0.5500102431 0.0879451449 -0.5499448609 0.0038122009 0.1816754172
670295980.0 -0.033844162 0.1855507827 0.0821890179 -0.550928258 0.0818407579 -0.5507469715 0.0055259639 0.1815103769
675295950.0 -0.0316946537 0.1859137338 0.0763364078 -0.5514229494 0.0761751184 -0.5511482366 0.0076315203 0.1820410611
680295920.0 -0.0298776631 0.18620023 0.0700520764 -0.552273691 0.0695872978 -0.5528493161 0.0097440911 0.1825879893
685295890.0 -0.0281489874 0.1871294001 0.0644101578 -0.5531680426 0.0636554986 -0.5530238765 0.0117192416 0.1822235008
690295860.0 -0.0261841864 0.1873299635 0.0582823782 -0.5530688133 0.0579310213 -0.5542049632 0.013908511 0.1830163211
695295830.0 -0.0241424694 0.1875402205 0.0524224382 -0.5540220253 0.0517964219 -0.5542596389 0.0159023989 0.1828451959
700295800.0 -0.0222894076 0.1879874512 0.0460131961 -0.5546413623 0.0455139483 -0.5546502491 0.0176734811 0.183279443
705295770.0 -0.0208766407 0.1890145548 0.0401171154 -0.5552317157 0.0399766758 -0.555502368 0.0197624319 0.1831002523
710295740.0 -0.0187600205 0.1893187948 0.0342552448 -0.5559939645 0.0346841938 -0.5561224208 0.0216662341 0.1829989387
715295710.0 -0.0173129871 0.1891175932 0.0285417017 -0.5560652766 0.0280619038 -0.5558881146 0.0241087711 0.1828444927
720295680.0 -0.015209703 0.1896601173 0.0221551627 -0.5566573648 0.0218910227 -0.5562128833 0.026051621 0.1832165096
725295650.0 -0.0131950342 0.1899693401 0.0163938692 -0.556451732 0.0165214497 -0.5569091097 0.0274650013 0.1831217393
730295620.0 -0.01115927 0.1906581564 0.0100238068 -0.5565912933 0.0102701082 -0.5565504166 0.0291912979 0.1826871514
735295590.0 -0.0094014565 0.1908197997 0.0042692741 -0.5572357756 0.0041623099 -0.5565684618 0.0310332141 0.1821504421
740295560.0 -0.0078177396 0.1909346661 -0.0018239905 -0.556715018 -0.0018684881 -0.5567161934 0.0336397148 0.1825561153
745295530.0 -0.0060602474 0.1913608295 -0.0077449248 -0.5563917539 -0.0081495459 -0.5564467306 0.0354014169 0.1818529398
750295500.0 -0.003812754 0.1914155971 -0.0134739945 -0.5564701296 -0.0137435703 -0.5566571733 0.0372257695 0.1818192872
755295470.0 -0.0019219067 0.1912773294 -0.0199095031 -0.5564117668 -0.0200147666 -0.5561992504 0.0395939125 0.1810496257
760295440.0 -0.0004522211 0.191594393 -0.0256710641 -0.5559881498 -0.0260314882 -0.5561981991 0.0411154503 0.180985092
765295410.0 0.0013084165 0.1918095939 -0.0315680158 -0.5556699255 -0.0321667486 -0.5558220396 0.0434075555 0.1805629073
770295380.0 0.0032539343 0.1917028941 -0.0382330451 -0.5549486716 -0.0381123207 -0.5549546142 0.0450397824 0.180016667
775295350.0 0.0048492391 0.1914424708 -0.044158941 -0.5545045119 -0.043522352 -0.554506711 0.0464237035 0.1797352429
780295320.0 0.0072106895 0.191983675 -0.0498231597 -0.5537475813 -0.0492915323 -0.5538446266 0.0489605262 0.1788534001
785295290.0 0.0086736301 0.1913850185 -0.0558619382 -0.5528322607 -0.0557365412 -0.5533243468 0.0513069627 0.1786674977
790295260.0 0.011057928 0.1920677994 -0.0612218227 -0.5526843151 -0.0609709008 -0.5526615785 0.053218017 0.1782868289
795295230.0 0.0127301741 0.1917490813 -0.0676270954 -0.5519169621 -0.0670991021 -0.5521206374 0.0554814844 0.1776562227
800295200.0 0.0141492743 0.1921030117 -0.0741570047 -0.5510684134 -0.0731602048 -0.5510151165 0.0574741924 0.1771165267
805295170.0 0.0159584754 0.1917394357 -0.0793174468 -0.5501634026 -0.0797278103 -0.5507195751 0.0593133067 0.1766273719
810295140.0 0.0180334159 0.1915697577 -0.0851008165 -0.5492288594 -0.0851139811 -0.54938547 0.0616305559 0.1759561171
815295110.0 0.019596908 0.1913184566 -0.0910674814 -0.5483463926 -0.0907331311 -0.5483248425 0.0634385297 0.1755484273
820295080.0 0.0216005912 0.1917514562 -0.0970021993 -0.5474366019 -0.0969542085 -0.54716741 0.0653697144 0.1748408978
825295050.0 0.023909269 0.1914226786 -0.1024486026 -0.5459206688 -0.1029307423 -0.5463664883 0.0676723259 0.1742885941
830295020.0 0.0253623646 0.1915894119 -0.1089945653 -0.5448858687 -0.1089769512 -0.5451510122 0.0704786307 0.173670763
