!Created with skrf (http://scikit-rf.org).
# Hz S RI R 50.0 
!freq ReS11 ImS11 ReS21 ImS21 ReS12 ImS12 ReS22 ImS22
300000.0 0.8605268697 -0.0014037519 -0.0009814956 0.0002944115 -0.0008714632 8.56249e-05 -0.7674330735 -0.1911989952
5299970.0 0.8598233276 -0.0102417692 6.16631e-05 -0.0002212206 9.90114e-05 -3.95429e-05 -0.7842548209 -0.0097243122
10299940.0 0.8581809584 -0.0188009606 0.0002068786 -0.0002926146 -0.0002096335 3.81615e-05 -0.7876992302 -0.0057593667
15299910.0 0.857705664 -0.0273242426 0.0002779295 9.08324e-05 -9.75591e-05 -0.0001408534 -0.7925628419 -0.0024746593
20299880.0 0.8572476018 -0.0353854759 5.748e-05 0.0001634717 -0.0001279137 -0.0001318825 -0.7993502276 0.0018053585
25299850.0 0.8565749344 -0.0439023167 -3.40667e-05 8.45216e-05 -7.03928e-05 3.68541e-05 -0.8063793025 0.0080064196
30299820.0 0.8561361337 -0.052119487 -0.0002236548 8.78639e-05 -0.0001556864 7.98047e-05 -0.8121727362 0.0155070342
35299790.0 0.854909367 -0.0602481901 -0.0003603274 0.000211002 9.95473e-05 -8.00418e-05 -0.8168311624 0.0244698162
40299760.0 0.8547062344 -0.0682808021 0.0002525024 -0.0002229129 0.0001611129 -5.40442e-05 -0.8209459378 0.0339941502
45299730.0 0.8533499738 -0.0764252898 -9.17861e-05 7.57636e-05 -0.0001035329 -5.0969e-05 -0.8241726873 0.0436061298
50299700.0 0.8526888971 -0.0844846439 6.52879e-05 1.65228e-05 -8.55133e-05 2.71239e-05 -0.8264583759 0.0536879695
55299670.0 0.8519187763 -0.0927691894 -8.1964e-05 -5.39608e-05 0.0001040374 -2.65208e-05 -0.8287196999 0.0639138359
60299640.0 0.8508702465 -0.1008893209 3.24856e-05 -0.0002928599 -4.42259e-05 -0.0001689507 -0.8297072036 0.0740882072
65299610.0 0.8498943968 -0.1090833162 2.07015e-05 -4.39291e-05 0.0001064609 -9.19732e-05 -0.8304269982 0.0838304778
70299580.0 0.8486642305 -0.1176500193 0.0001223976 -5.57947e-05 -0.0001007659 3.33215e-05 -0.8310842299 0.0936295236
75299550.0 0.8478273623 -0.1255675186 -0.0001657059 0.0002032072 -1.88698e-05 3.55429e-05 -0.8305381857 0.1037592393
80299520.0 0.8458218845 -0.1337746528 -0.0001501026 -2.76044e-05 -1.11916e-05 -8.6e-06 -0.8307087195 0.1144309277
85299490.0 0.845326253 -0.141626046 -0.0001211625 2.15116e-05 -0.0001400649 -7.43283e-05 -0.8301464989 0.1234704135
90299460.0 0.8439088739 -0.1502772657 0.0001397457 -4.42581e-05 -0.0002036378 0.0002074614 -0.8291902998 0.1329012985
95299430.0 0.8424758045 -0.1579625097 -4.77048e-05 -0.0001589777 -0.0001236696 -3.27706e-05 -0.8281983233 0.142763995
100299400.0 0.840270491 -0.1662932966 -4.1811e-05 -0.0001357471 3.56121e-05 0.0001279396 -0.8273905716 0.1515842649
105299370.0 0.8391884748 -0.1743820802 0.0001592666 -0.000125835 4.4629e-06 -0.0001185101 -0.8259749043 0.1608111936
110299340.0 0.837842364 -0.1828417234 1.4145e-05 -0.0001334108 6.53004e-05 -3.71598e-05 -0.8244851617 0.1696617752
115299310.0 0.8358028729 -0.1908589765 -8.5739e-05 9.66692e-05 0.0001194328 -0.0001575245 -0.823247069 0.1794309454
120299280.0 0.8338301332 -0.1983581701 -0.0001054711 -0.0002586986 1.7008e-06 0.0001984033 -0.8207237275 0.1879316669
125299250.0 0.8318551245 -0.2063808898 0.0001072225 -8.40328e-05 -0.0001067405 1.05758e-05 -0.8198230369 0.1970920371
130299220.0 0.8298331436 -0.2142497956 0.0002116433 2.9349e-05 2.3585e-05 -0.0001316817 -0.8178882885 0.2058020346
135299190.0 0.8282201847 -0.2229026043 -8.0041e-05 -0.0001857998 0.0001633749 0.0003125665 -0.815817986 0.2152964883
140299160.0 0.8256658896 -0.2303201862 -0.0001014944 6.49561e-05 5.12251e-05 -0.0002261665 -0.8136849596 0.2233138559
145299130.0 0.8234380167 -0.2380720402 -0.0001035606 -2.90186e-05 0.0001200214 0.0001706577 -0.81184321 0.2325738193
150299100.0 0.820885513 -0.2459624045 -6.9093e-05 -0.0001410044 1.88395e-05 -5.63593e-05 -0.8097228185 0.2414362043
155299070.0 0.8185220788 -0.2540384729 0.0001317451 -5.49748e-05 7.95153e-05 0.0001280127 -0.8071157766 0.2505120902
160299040.0 0.8161630433 -0.2622481175 3.0589e-06 -8.05891e-05 0.0002227921 0.0001425992 -0.8046540013 0.2588366998
165299010.0 0.8132224687 -0.2696679111 6.99487e-05 3.87002e-05 -1.79694e-05 -0.0001356542 -0.8018026205 0.2668746653
170298980.0 0.8114238049 -0.2781737061 0.0002123241 -6.3561e-06 -0.0001057394 3.78355e-05 -0.799528229 0.2757321798
175298950.0 0.8085492319 -0.2852897699 -9.46926e-05 0.0001108012 5.50217e-05 7.87273e-05 -0.7968168934 0.2848554348
180298920.0 0.8059102655 -0.2933616314 1.85773e-05 -0.0002879538 2.86973e-05 -0.0002143664 -0.7930353641 0.2930886237
185298890.0 0.8026473922 -0.3011867488 4.3198e-05 1.4389e-06 9.75122e-05 1.54452e-05 -0.7898485595 0.3014620797
190298860.0 0.799304542 -0.3092552046 5.25453e-05 0.0002086325 8.69358e-05 1.66561e-05 -0.7870867254 0.3097840496
195298830.0 0.7967539167 -0.3157779462 -1.39107e-05 3.2227e-05 0.0001090535 6.6881e-06 -0.7843870473 0.3179510311
200298800.0 0.7939728234 -0.3239173073 -7.97623e-05 0.0001698938 4.0544e-06 2.87347e-05 -0.7808624865 0.3267069563
205298770.0 0.7904352398 -0.3316684267 -0.000151486 -0.000233777 0.0001930433 -0.0001165939 -0.7776022532 0.3352735887
210298740.0 0.7878919226 -0.3391201847 3.44334e-05 0.0001129098 0.0001401061 -8.20607e-05 -0.7742803664 0.3431290003
215298710.0 0.7846668732 -0.3468094424 -4.69173e-05 0.0001226617 8.51294e-05 -0.0001022444 -0.7702222267 0.3512096323
220298680.0 0.781103024 -0.3536120587 -0.0001490597 9.98274e-05 0.0001290993 -0.0002139262 -0.7667786651 0.3596077249
225298650.0 0.7775208438 -0.3620216249 -3.76236e-05 7.89681e-05 -1.18432e-05 -0.0001849221 -0.7624923016 0.3677527874
230298620.0 0.77340194 -0.3690247538 8.96002e-05 -0.0001113324 9.11485e-05 -0.0001296725 -0.7589637601 0.3751962003
235298590.0 0.7705318851 -0.3763289644 -0.0001644587 -0.0001218239 -2.63274e-05 -5.13639e-05 -0.7546839537 0.3832038069
240298560.0 0.7665317238 -0.3837137364 0.0001925902 6.67381e-05 -0.0001701403 0.0001056447 -0.7513206037 0.3905859852
245298530.0 0.762528571 -0.3907549008 0.000140658 -1.11389e-05 -2.4746e-06 2.39976e-05 -0.7475748816 0.3993445895
250298500.0 0.7590507471 -0.3984431943 4.12601e-05 4.51131e-05 -1.51507e-05 -0.000123649 -0.7426413107 0.4069978508
255298470.0 0.7551175093 -0.4048355855 -0.0001144618 -4.59418e-05 -5.0858e-06 3.19e-06 -0.7394205301 0.4146536274
260298440.0 0.7510894722 -0.41304916 9.70794e-05 7.25836e-05 -1.62229e-05 -9.77943e-05 -0.7342363503 0.4219641131
265298410.0 0.7467481021 -0.4197290042 -6.4065e-06 -0.000195255 -0.0002690076 -0.0001244322 -0.7298637338 0.4304142924
270298380.0 0.7431912557 -0.4271069342 0.0001415976 0.000126818 -6.34011e-05 4.31543e-05 -0.724901455 0.437762464
275298350.0 0.7390043156 -0.433888681 -1.24553e-05 -0.0001629415 -0.0001158731 -0.0001121734 -0.7203591096 0.4456633066
280298320.0 0.734802141 -0.4414872695 -0.0001291759 9.49145e-05 0.0001349353 -0.0002882053 -0.7160192013 0.4529592338
285298290.0 0.7306480488 -0.4484738442 -0.0001515634 -0.0001126227 -0.0001338739 9.812e-05 -0.7122266372 0.4605346973
290298260.0 0.7262119176 -0.4552121724 4.29076e-05 -8.83753e-05 -2.00763e-05 -0.0002123161 -0.7064022635 0.4679741021
295298230.0 0.7222910614 -0.4623274093 0.0001239065 0.0001428948 -9.00236e-05 -6.49501e-05 -0.7010090736 0.4746721838
300298200.0 0.7181343844 -0.4695155443 -4.28757e-05 -0.0002813377 4.87023e-05 6.96331e-05 -0.6969201726 0.482498636
305298170.0 0.7135093054 -0.476890888 0.000121938 0.0001466584 -0.0001490994 -7.47289e-05 -0.6917066004 0.4894931587
310298140.0 0.7091261985 -0.48538973 5.79957e-05 4.17979e-05 5.41726e-05 8.81263e-05 -0.6857763702 0.4967057164
315298110.0 0.7039084429 -0.4924308315 -6.82617e-05 -5.87015e-05 0.0002891155 0.0001312414 -0.6811289777 0.5037025157
320298080.0 0.6984495041 -0.4995552042 0.000138618 -0.0002205151 0.0001498378 -5.38462e-05 -0.6760021027 0.5105900258
325298050.0 0.6920227771 -0.5065990894 -0.0001024887 -0.0001876304 6.8524e-06 -1.85658e-05 -0.6701856079 0.5177377666
330298020.0 0.6867270145 -0.5136311428 -8.76024e-05 7.17581e-05 -4.24273e-05 -1.04671e-05 -0.6653463308 0.5246418038
335297990.0 0.6808915556 -0.5190525798 7.807e-07 0.0001163721 -0.0001691853 -7.1699e-06 -0.6594816875 0.5315468362
340297960.0 0.6754633761 -0.5256045842 1.01756e-05 -2.2455e-05 9.57802e-05 8.7638e-05 -0.6538102287 0.5385308899
345297930.0 0.6702083245 -0.5316661355 -0.0002425672 0.0002101716 4.26167e-05 6.04566e-05 -0.6490243191 0.5451361953
350297900.0 0.6649004868 -0.5381569563 -6.97808e-05 3.56689e-05 0.0001028471 -4.59276e-05 -0.6429634052 0.5514815458
355297870.0 0.659863029 -0.5449641084 0.0001341901 4.98201e-05 9.19994e-05 8.13195e-05 -0.6371446808 0.5590189701
360297840.0 0.6541113097 -0.5504376308 5.22057e-05 3.10822e-05 5.67614e-05 -0.0001247773 -0.6308258614 0.5649708451
365297810.0 0.6483905177 -0.5566315885 8.1317e-06 -0.0001251047 -2.13957e-05 0.0001064787 -0.6258253797 0.5711131699
370297780.0 0.6430355081 -0.5631392769 -0.0001852036 -0.0002278755 0.0001018622 1.49851e-05 -0.6195297779 0.5779978311
375297750.0 0.6380577053 -0.5688868455 3.0188e-06 3.726e-05 -3.41643e-05 -6.60749e-05 -0.6133656376 0.5839484885
380297720.0 0.6317566306 -0.5746539731 4.10872e-05 3.09747e-05 -8.41304e-05 -0.0001268863 -0.6067783347 0.5901051817
385297690.0 0.6264435426 -0.5812165286 -7.22385e-05 -0.00013179 0.0001753358 4.29853e-05 -0.6016346432 0.5966385168
390297660.0 0.6208239639 -0.5868801568 0.0001005355 8.6565e-06 3.59644e-05 1.795e-07 -0.5944989409 0.6019939142
395297630.0 0.6147380061 -0.5921051144 -5.79379e-05 6.82945e-05 -0.0002080798 -0.0002403972 -0.5881705662 0.6080598233
400297600.0 0.6086575105 -0.5986582007 -0.0001344093 -8.46892e-05 2.45695e-05 9.86486e-05 -0.5826126651 0.6141962295
405297570.0 0.6034287397 -0.604485332 1.984e-07 -0.0001302742 4.26818e-05 0.0002369765 -0.5752474398 0.6202271602
410297540.0 0.5981035637 -0.6099009794 -8.93821e-05 1.15386e-05 1.77019e-05 -1.26724e-05 -0.5689123987 0.6261718236
415297510.0 0.5914277144 -0.6155747905 0.0001532689 -1.44241e-05 4.2724e-05 8.5956e-06 -0.5629963773 0.6316252985
420297480.0 0.5855799111 -0.6216897545 8.28323e-05 4.95104e-05 -8.63857e-05 -8.5183e-05 -0.5563046223 0.638322026
425297450.0 0.579529436 -0.6271504686 0.0001199294 2.53658e-05 -4.13968e-05 6.15301e-05 -0.5497075036 0.6425920607
430297420.0 0.5732711536 -0.6328675366 4.6708e-05 0.0001546226 -4.30132e-05 -0.0001515047 -0.5431644232 0.6479702858
435297390.0 0.5670099508 -0.6386016032 9.5932e-05 -4.36806e-05 -1.42046e-05 5.27673e-05 -0.5367116878 0.6543867096
440297360.0 0.5606304979 -0.644029618 -0.0001106843 -3.85598e-05 0.0001069699 9.37172e-05 -0.530244958 0.6595675204
445297330.0 0.5554378126 -0.6490461994 1.56856e-05 3.90273e-05 0.000115715 -9.64685e-05 -0.523087949 0.6655513728
450297300.0 0.548894888 -0.6545989033 -7.79454e-05 0.0001282362 0.0001592765 7.96047e-05 -0.5154919434 0.6697181012
455297270.0 0.542246977 -0.6598443584 0.0001064161 -0.000287311 -2.5378e-06 5.80448e-05 -0.5088630686 0.6753266842
460297240.0 0.5359405717 -0.6645015574 -2.75085e-05 -9.2159e-06 0.0002184552 1.13175e-05 -0.5025648203 0.6802021261
465297210.0 0.5293939548 -0.6694520818 0.000142576 0.0001334663 -0.000224098 -1.34481e-05 -0.4950245253 0.6860805105
470297180.0 0.523250189 -0.6752137266 -7.813e-07 -9.78796e-05 0.0001773128 5.27976e-05 -0.4879636809 0.6903837854
475297150.0 0.5160475657 -0.6801253895 6.22819e-05 -1.1227e-06 4.32904e-05 -0.0002649775 -0.4809564511 0.6954001661
480297120.0 0.510355147 -0.6852991233 3.8626e-06 0.0002039244 0.0001511421 3.24209e-05 -0.4742849533 0.7001814255
485297090.0 0.5027411521 -0.6900355611 -0.000187522 5.24242e-05 3.28958e-05 -4.08877e-05 -0.4666796303 0.7047989186
490297060.0 0.4967394923 -0.6944813645 6.85529e-05 8.86445e-05 0.0001122323 -8.03686e-05 -0.4594189502 0.709050814
495297030.0 0.4906979421 -0.6995727868 -5.51451e-05 -0.0001279636 6.73858e-05 -9.00435e-05 -0.4522580915 0.7133413588
500297000.0 0.4835075732 -0.7043119559 0.0002173257 -6.00324e-05 4.24348e-05 0.0001669904 -0.4452294147 0.7185415738
505296970.0 0.4762892629 -0.7088950233 4.85085e-05 7.46347e-05 -0.0001697869 -0.0002313428 -0.4371507602 0.723065372
510296940.0 0.4696313213 -0.7134724007 9.21519e-05 0.0001056667 -0.0001358765 3.74262e-05 -0.4298872094 0.7274736755
515296910.0 0.4621461436 -0.718662292 0.0002698287 -0.0001109838 0.0002946489 6.30315e-05 -0.4231420059 0.7308004257
520296880.0 0.4561849932 -0.7223286005 1.0362e-06 -3.32802e-05 4.1736e-05 7.35185e-05 -0.415345753 0.7360682116
525296850.0 0.4487027002 -0.7269071921 2.98676e-05 4.55341e-05 5.54805e-05 2.99786e-05 -0.4079266597 0.7393830681
530296820.0 0.4414091864 -0.7318723261 6.96262e-05 -7.33666e-05 -0.0001144819 1.6135e-05 -0.4000914795 0.7433402733
535296790.0 0.4347367952 -0.7354781909 6.6507e-05 -0.0001513102 3.148e-05 2.86881e-05 -0.3929567675 0.7480688676
540296760.0 0.4281122387 -0.7391049322 7.5295e-05 8.77416e-05 -1.64427e-05 0.0001425821 -0.3848609442 0.7515013192
545296730.0 0.4196433257 -0.7435833672 6.3806e-05 -4.91206e-05 -0.0001915417 0.0002412521 -0.3774213211 0.7555969192
550296700.0 0.4131641401 -0.7470200255 7.431e-06 4.66267e-05 1.01216e-05 1.32906e-05 -0.3696228437 0.7595010701
555296670.0 0.4057971294 -0.7516432076 -9.5816e-05 0.0001555938 -3.3262e-06 -5.44997e-05 -0.3623922007 0.7625107995
560296640.0 0.3988120981 -0.7547988999 0.0002586296 -1.30553e-05 8.52893e-05 3.36692e-05 -0.3546132602 0.7664071436
565296610.0 0.3913261923 -0.7592291118 0.0001103981 0.000122795 -7.12247e-05 0.000137825 -0.346422483 0.7698210616
570296580.0 0.3839527011 -0.7628316118 -0.0001253494 4.21381e-05 -2.4556e-05 -0.0002167221 -0.339158768 0.7732058624
575296550.0 0.3766023467 -0.7668415977 -7.70594e-05 0.0001323619 8.43567e-05 7.64896e-05 -0.3311421417 0.7764332345
580296520.0 0.3690220736 -0.7692051973 -9.6684e-05 -2.99141e-05 0.0001252708 -2.9575e-06 -0.3233211356 0.779527503
585296490.0 0.3617048122 -0.7725202222 1.31977e-05 2.35089e-05 -0.0001176268 -2.1824e-06 -0.3152150548 0.7830941242
590296460.0 0.353860339 -0.7762758541 3.00078e-05 -5.2598e-06 -8.62729e-05 5.93982e-05 -0.3076931925 0.785752979
595296430.0 0.3467180879 -0.7799727588 3.90044e-05 3.90944e-05 3.6748e-06 -7.35551e-05 -0.2996343551 0.7887780954
600296400.0 0.3390588124 -0.7834184893 8.99643e-05 0.0001293155 -3.6908e-05 0.0002712869 -0.2919334488 0.7914605638
605296370.0 0.3306347776 -0.7863524393 -0.0001015118 -0.000139683 -0.0002027883 0.0001057974 -0.2831528973 0.7954326264
610296340.0 0.3232862604 -0.789541707 -7.2336e-06 -0.0001741497 0.0002298001 -0.0002073171 -0.2758278553 0.7976877494
615296310.0 0.3155556733 -0.7918330317 -6.87542e-05 -0.0001868867 0.0001571486 1.54347e-05 -0.2674789086 0.8008320577
620296280.0 0.307681272 -0.7949161784 6.6441e-05 0.0001410646 0.000113097 -2.29128e-05 -0.2597468839 0.8035842491
625296250.0 0.2997031063 -0.798231075 -0.0002103006 0.000101767 6.82125e-05 0.0001004605 -0.2510854399 0.8048022517
630296220.0 0.2915432223 -0.8001831345 -8.3976e-05 -0.0001634428 5.9447e-06 -9.85614e-05 -0.2433173748 0.8084378133
635296190.0 0.2837242217 -0.8030384235 5.2178e-06 -5.61659e-05 4.29946e-05 2.13091e-05 -0.2351047059 0.80975292
640296160.0 0.275731619 -0.8055310839 -0.0002676622 2.76356e-05 -4.53465e-05 -0.0001645847 -0.2270783812 0.8125036895
645296130.0 0.2685789747 -0.8080429117 0.0001290464 3.68075e-05 6.99721e-05 -6.38903e-05 -0.2194366257 0.8142668993
650296100.0 0.2604499073 -0.810097887 -4.11329e-05 -7.08127e-05 0.0001348674 3.22001e-05 -0.2103236202 0.8166462058
655296070.0 0.2521513291 -0.8131017186 0.0001225687 8.08183e-05 -8.6724e-05 6.44658e-05 -0.2027940547 0.819022767
660296040.0 0.2439462675 -0.8151762188 1.02026e-05 -8.3998e-06 -0.0001352528 1.51585e-05 -0.194225226 0.8211251069
665296010.0 0.2358568217 -0.8174018683 5.12052e-05 -0.0001154552 1.94556e-05 3.39851e-05 -0.1859164199 0.8229053064
670295980.0 0.2280129981 -0.8194860528 0.0001016189 -3.4174e-05 8.63651e-05 7.803e-07 -0.1780314279 0.8240495442
675295950.0 0.2192767236 -0.8216195611 6.14278e-05 1.12392e-05 3.36145e-05 -8.1606e-06 -0.1690191353 0.8263144978
680295920.0 0.2114387604 -0.8238415728 6.59214e-05 0.0001170243 3.49853e-05 0.0001507747 -0.1609611086 0.8277356671
685295890.0 0.2027357061 -0.8248057889 6.94347e-05 9.74873e-05 8.89996e-05 -6.96302e-05 -0.1530637445 0.8300330999
690295860.0 0.194422787 -0.8267324794 -4.9621e-05 -1.42695e-05 0.0001381628 0.0001929362 -0.1451555785 0.8309641582
695295830.0 0.1865567239 -0.828571238 0.000126036 -1.47825e-05 -3.51216e-05 -9.5743e-05 -0.1367468358 0.8326008856
700295800.0 0.1779598988 -0.8301663647 -4.95382e-05 -0.0002381228 -8.72117e-05 -0.0001163971 -0.1283316743 0.8331608932
705295770.0 0.1698524709 -0.8310686567 -5.876e-05 1.37808e-05 5.81522e-05 -2.7011e-06 -0.1198098595 0.8351340328
710295740.0 0.1620383718 -0.83212466 -0.0001302297 -9.49681e-05 -2.64135e-05 1.78549e-05 -0.1117674751 0.8361728393
715295710.0 0.1539157834 -0.8340106936 -6.09855e-05 2.50495e-05 3.26967e-05 1.2048e-06 -0.1028488661 0.8363941025
720295680.0 0.14531982 -0.8344757253 -0.0001357898 -4.45044e-05 -2.49127e-05 6.87326e-05 -0.0949063878 0.837807297
725295650.0 0.1364345159 -0.8358209557 0.0001443421 0.0002016709 0.0001457313 0.0002385774 -0.0867533035 0.8394223876
730295620.0 0.1281057701 -0.8375542567 3.14581e-05 -2.52766e-05 1.36155e-05 -8.72371e-05 -0.0788989122 0.8399727342
735295590.0 0.119893205 -0.8388026906 6.02966e-05 -0.0001611722 6.82305e-05 -9.78981e-05 -0.0697047192 0.8406206915
740295560.0 0.1113930623 -0.839026681 -3.10756e-05 -6.5501e-05 7.27807e-05 6.20746e-05 -0.061424047 0.8414772669
745295530.0 0.1032076409 -0.8396728205 -4.46798e-05 -0.0001420042 5.83138e-05 -1.12773e-05 -0.0531867086 0.8416136921
750295500.0 0.0946268572 -0.8408024408 8.21795e-05 -7.62835e-05 0.0001168923 -0.0001023409 -0.0444080965 0.8418833655
755295470.0 0.086236218 -0.8410696379 3.46872e-05 -1.2014e-06 7.79521e-05 -0.0001543178 -0.0366843294 0.8425627793
760295440.0 0.0784657845 -0.8414290614 -4.2902e-05 0.0002109388 0.000125101 -0.0001260969 -0.027688856 0.8426521435
765295410.0 0.0696483097 -0.8418620593 -0.0001758646 -6.40654e-05 4.96654e-05 8.39799e-05 -0.0196817187 0.8433419457
770295380.0 0.0613113801 -0.8418387081 0.0001235665 0.0001489418 0.0001390787 7.94341e-05 -0.0112792383 0.8436330563
775295350.0 0.0530904191 -0.8425580231 -3.05509e-05 5.3133e-06 -0.0001233286 -0.0001198676 -0.0028191747 0.8430857892
780295320.0 0.0439490057 -0.8430291152 -6.748e-07 -9.47927e-05 -0.0001374186 -7.26669e-05 0.0056547243 0.8433783455
785295290.0 0.0356269865 -0.8433026387 -0.0003409891 0.0001004166 -9.2638e-06 8.55908e-05 0.0136826958 0.8432225629
790295260.0 0.0284739634 -0.8430255519 -0.0002177702 0.0001665465 0.0002519374 -1.04098e-05 0.0223101162 0.8432511941
795295230.0 0.0197593862 -0.8438590339 -0.0001188586 -9.62711e-05 -0.0001370172 0.000210018 0.0302785385 0.8421809565
800295200.0 0.011104817 -0.8437054671 0.0001284485 -9.68139e-05 0.0001863935 -0.0001314152 0.038744428 0.8422720226
805295170.0 0.0025371943 -0.8435679502 1.18069e-05 -5.01227e-05 5.96913e-05 4.88684e-05 0.0474019892 0.8418732242
810295140.0 -0.0060339518 -0.8426043008 2.39063e-05 -8.17884e-05 -4.60554e-05 3.34921e-05 0.0557978922 0.8412220359
815295110.0 -0.014440002 -0.8423723705 6.1233e-06 -0.0001779634 0.0001797589 8.23467e-05 0.0632972854 0.8408256518
820295080.0 -0.0224988239 -0.8422194911 -6.06229e-05 -9.4145e-06 -0.0001595118 -6.92286e-05 0.0715521302 0.8409890425
825295050.0 -0.0319397074 -0.842032974 -0.0001216381 4.54184e-05 1.20321e-05 9.4147e-06 0.0802301483 0.8394575248
830295020.0 -0.0394336333 -0.8416406494 0.0001426885 9.59042e-05 1.90628e-05 0.0001395687 0.0881897405 0.8379972646
835294990.0 -0.0476831215 -0.8407947697 3.32331e-05 -7.07645e-05 3.42303e-05 7.77767e-05 0.0970228211 0.8375538519
840294960.0 -0.0555187017 -0.8402308684 0.0003106014 0.000134735 0.000164722 0.0001356235 0.1056027237 0.8363347742
845294930.0 -0.0641417785 -0.838759017 -6.48936e-05 2.80571e-05 -0.0001480354 5.72905e-05 0.1137722699 0.8355151219
850294900.0 -0.0717755403 -0.8380441532 -7.6225e-06 4.64858e-05 -9.66741e-05 -0.0001142854 0.1211342447 0.8343068793
