!Created with skrf (http://scikit-rf.org).
# Hz S RI R 50.0 
!freq ReS11 ImS11 ReS21 ImS21 ReS12 ImS12 ReS22 ImS22
300000.0 -0.0951109791 -0.0836738061 0.6215789515 0.0802603915 0.6239212504 0.0822795192 -0.0969378168 -0.0930060899
5299970.0 -0.1002370086 0.012732849 0.6304127674 0.0105530226 0.630725725 0.0111071908 -0.1021655128 0.0115017376
10299940.0 -0.0951970096 0.0295808166 0.6343254892 0.0153694965 0.6340109208 0.0161391846 -0.0973177727 0.0290852916
15299910.0 -0.088459948 0.0431892967 0.6405923732 0.0206831523 0.6397797549 0.0208518065 -0.0903070383 0.0419123475
20299880.0 -0.0794786671 0.0542111472 0.6488232828 0.0243849139 0.6485258756 0.0241967999 -0.0817483057 0.0535814623
25299850.0 -0.0696193301 0.0627909409 0.658188843 0.0251005707 0.6580962182 0.0254404202 -0.0726591416 0.0619637514
30299820.0 -0.0597755671 0.0690053476 0.6680444062 0.0246384497 0.6674214744 0.0247501541 -0.062873613 0.0685751631
35299790.0 -0.0493046811 0.0741630468 0.6776758304 0.0215622892 0.6775068626 0.0218088243 -0.0525397419 0.0733143425
40299760.0 -0.0398537629 0.0771983787 0.6869157641 0.0182449029 0.6868042942 0.0178272251 -0.0436044736 0.0770369898
45299730.0 -0.0302133094 0.0793930597 0.6954595282 0.0117372115 0.695646316 0.0120039103 -0.0341591784 0.0790628291
50299700.0 -0.0217798901 0.0797245017 0.7030704631 0.0046025263 0.7033769679 0.0046640074 -0.025531191 0.080023046
55299670.0 -0.0142535189 0.0798416339 0.7104920093 -0.0031060031 0.711281953 -0.0028724288 -0.0177954768 0.0799172634
60299640.0 -0.0067199418 0.0787589808 0.7173641182 -0.0116267874 0.7176761348 -0.0114478205 -0.0102576863 0.0799263874
65299610.0 -0.0001854242 0.0781498712 0.7237067074 -0.0193338968 0.7238958082 -0.0199922451 -0.0035152446 0.078782757
70299580.0 0.0059655223 0.0757479774 0.7286732685 -0.0292206254 0.728861308 -0.0291132408 0.0022889029 0.0771807252
75299550.0 0.0119117356 0.0744546432 0.7331126884 -0.0389221692 0.7330921999 -0.0392574752 0.0080299585 0.0757289312
80299520.0 0.0161826436 0.072031856 0.737585857 -0.0489964466 0.7374706827 -0.048831515 0.0131277971 0.072754717
85299490.0 0.0209779127 0.0696536475 0.7407584117 -0.0595132309 0.7408450795 -0.0587762426 0.0174667951 0.0709958314
90299460.0 0.0245996853 0.0673093277 0.743472425 -0.0687797556 0.7436547848 -0.0689139945 0.0220511651 0.0685865625
95299430.0 0.0282742498 0.0654640409 0.7465208751 -0.079137598 0.746124953 -0.0788179465 0.0252946221 0.0662392937
100299400.0 0.0313098202 0.0627689095 0.7476418477 -0.0891376258 0.7479017205 -0.0894148488 0.0285599585 0.0640677315
105299370.0 0.0345845919 0.0600286074 0.7486468563 -0.0988330181 0.7488380127 -0.0992636848 0.0320227483 0.0618057161
110299340.0 0.0370380718 0.0578598123 0.7498697416 -0.1092135094 0.7497960143 -0.109455069 0.0348222952 0.0591021006
115299310.0 0.0397003838 0.0548189172 0.7510781713 -0.1192064458 0.7509215236 -0.1188734212 0.0371912045 0.0563182251
120299280.0 0.0416037844 0.0527531946 0.7520704232 -0.1297251016 0.7513967868 -0.129340777 0.038977219 0.0544078882
125299250.0 0.0432910751 0.0501857246 0.7518670009 -0.1393188095 0.7519592439 -0.1395242146 0.0414157811 0.051146319
130299220.0 0.0449538087 0.0479028135 0.751984672 -0.1488653223 0.7517204071 -0.1493840046 0.0434045733 0.049473182
135299190.0 0.0469078433 0.0454233749 0.7511178249 -0.1588605584 0.7510178888 -0.1588102151 0.0444737897 0.0473647907
140299160.0 0.0477657299 0.0442355888 0.7509025721 -0.1687185296 0.7509485666 -0.1689284711 0.0460926036 0.0455486149
145299130.0 0.0492723855 0.0420423664 0.7506311868 -0.1787660747 0.750022917 -0.178601711 0.0469969094 0.0428102679
150299100.0 0.050620644 0.0398887897 0.7488651479 -0.1888317245 0.7492438398 -0.1881387613 0.0487892923 0.0408479851
155299070.0 0.0509875623 0.0382436026 0.7474483923 -0.198250747 0.7475435693 -0.1984973029 0.0493257654 0.0386161213
160299040.0 0.0523045977 0.035946098 0.7462656495 -0.2068948284 0.7463114127 -0.2074209538 0.05046957 0.0371316298
165299010.0 0.0529201818 0.0342457096 0.7455127806 -0.2167598058 0.7450916665 -0.2168148436 0.0514140456 0.0348882102
170298980.0 0.0533911873 0.0324883894 0.742499479 -0.22633283 0.7428927899 -0.2259457929 0.0526268063 0.0331093514
175298950.0 0.0543474912 0.0306098481 0.741563092 -0.2353274345 0.7415436667 -0.2357248663 0.0530558381 0.031202762
180298920.0 0.0552605544 0.0290881601 0.7393548576 -0.2446534394 0.7393907563 -0.2442182864 0.0537760103 0.0299466179
185298890.0 0.0561963711 0.0272193592 0.7365185896 -0.2541820687 0.7365863324 -0.2537068484 0.0544885629 0.027916444
190298860.0 0.0560835194 0.0258402213 0.7338682597 -0.2629850312 0.7347750499 -0.2629996547 0.0555639361 0.0262517344
195298830.0 0.0565272257 0.0237938953 0.7321035242 -0.2715889843 0.7320734866 -0.2722484989 0.0557207924 0.0241582438
200298800.0 0.0569133279 0.0227249454 0.729453952 -0.2801961397 0.7292381051 -0.2803563757 0.0562347825 0.0230285889
205298770.0 0.0571958881 0.0214555523 0.7268844333 -0.2892411975 0.726647658 -0.2895705676 0.0564583536 0.0209225962
210298740.0 0.0573315228 0.0197202136 0.7237882601 -0.2992540999 0.7237097573 -0.2985368606 0.0567675374 0.0199975574
215298710.0 0.0579331037 0.0184826727 0.7203844809 -0.3074148866 0.7208454885 -0.3072837777 0.0568769109 0.0184397771
220298680.0 0.0582177413 0.0172954847 0.7173795246 -0.3158141859 0.7172126374 -0.3154462409 0.0573621579 0.0174550205
225298650.0 0.0585672991 0.0162209075 0.7138862386 -0.3237802368 0.713861202 -0.3242601954 0.0574590082 0.0157065384
230298620.0 0.0581456475 0.0148924581 0.7110677471 -0.3326882997 0.7111130822 -0.3328849931 0.0575710191 0.0144837155
235298590.0 0.0585218417 0.0131664792 0.7075574566 -0.3410745417 0.7074329006 -0.341018178 0.0581326909 0.0127819974
240298560.0 0.0582846275 0.0120819021 0.7036493993 -0.3495095671 0.7038503394 -0.3493491499 0.0581776778 0.0118522079
245298530.0 0.0588850764 0.0111980762 0.6990209096 -0.3580926059 0.6999496635 -0.3582584087 0.0582454805 0.0106213437
250298500.0 0.0586161063 0.0097698593 0.6962587047 -0.3660445774 0.6963708192 -0.365681482 0.058770655 0.0090687911
255298470.0 0.0583107232 0.0090167191 0.6919123424 -0.3748219105 0.6920083302 -0.3745083965 0.058701209 0.0072756417
260298440.0 0.0583781654 0.0078853819 0.6882105882 -0.3820016258 0.6882952405 -0.3826922212 0.0593501554 0.0070906679
265298410.0 0.058964205 0.0070616104 0.6838211274 -0.3908391285 0.6839999935 -0.3909185968 0.0586591128 0.0052258895
270298380.0 0.0590957197 0.0055922288 0.6791673037 -0.398637397 0.6799299845 -0.3985964866 0.0589252941 0.0049661188
275298350.0 0.058416291 0.0048225887 0.6750749167 -0.4066084851 0.6756494589 -0.4069759883 0.0589358431 0.0034914801
280298320.0 0.0586778309 0.0040087873 0.6709294818 -0.4135774767 0.6709186315 -0.4143974199 0.0591219532 0.00279114
285298290.0 0.0587672389 0.0029782333 0.6672376235 -0.4219284873 0.666243991 -0.4218205507 0.0586795753 0.0014754431
290298260.0 0.0587871743 0.0018882606 0.6623974705 -0.429614297 0.6621740915 -0.429853761 0.0596157841 0.0006439724
295298230.0 0.0587962618 0.0008723419 0.6578158306 -0.437584217 0.6574717869 -0.437542207 0.0595624216 -0.000251836
300298200.0 0.059349985 -4.96865e-05 0.6529947584 -0.4453017294 0.6531395426 -0.4455365133 0.0593912616 -0.0012869035
305298170.0 0.0588476165 -0.0014076298 0.6479959182 -0.4529786767 0.6484225824 -0.4531024874 0.0595375852 -0.0022546516
310298140.0 0.0594240058 -0.0025669617 0.6436150875 -0.4608401369 0.6432148207 -0.46100155 0.0597258706 -0.0028665206
315298110.0 0.0587851473 -0.0033281732 0.6381555393 -0.4684045414 0.6386485183 -0.4681904675 0.0599122306 -0.0046207059
320298080.0 0.0585462093 -0.0042993785 0.6330405438 -0.4756865265 0.6335020753 -0.4753601202 0.0592162123 -0.0059805603
325298050.0 0.0581843374 -0.005797298 0.628185495 -0.4833489021 0.6279915957 -0.483720423 0.0590970584 -0.0070629428
330298020.0 0.0580920257 -0.0065446399 0.6216048995 -0.4905476054 0.6218054861 -0.4907035637 0.0583025355 -0.0081538744
335297990.0 0.057558445 -0.0076129555 0.6167609532 -0.4975615977 0.6169642656 -0.4979495264 0.0580392758 -0.0089963904
340297960.0 0.0564448963 -0.0080390235 0.61034137 -0.5047679575 0.610669627 -0.504584438 0.05743313 -0.0096153671
345297930.0 0.0561282168 -0.0085873467 0.6043527722 -0.5110553642 0.6043777654 -0.5109907528 0.0576149681 -0.0108129091
350297900.0 0.0566895375 -0.0094959382 0.5991792416 -0.5173909414 0.5994028902 -0.5179319014 0.0566602171 -0.0106775568
355297870.0 0.055859115 -0.0101706253 0.5926173958 -0.5246513713 0.5933079499 -0.5249670893 0.0564260827 -0.0113094916
360297840.0 0.0560923187 -0.0108455573 0.5874695877 -0.5318848997 0.5870357367 -0.5312351826 0.0562685972 -0.011978111
365297810.0 0.0557256674 -0.0115650898 0.5812397233 -0.5376494256 0.5812348129 -0.5380223653 0.0559220503 -0.0123416286
370297780.0 0.0557788002 -0.0122222667 0.5755813992 -0.5442460548 0.5760649844 -0.5451528248 0.0559761229 -0.0129894024
375297750.0 0.0550802945 -0.0123238624 0.5702838566 -0.551157953 0.5696602078 -0.5511466551 0.0555270367 -0.0134522248
380297720.0 0.0552397249 -0.013769429 0.563228453 -0.5572777799 0.5634247219 -0.5569317419 0.0555375706 -0.0143688827
385297690.0 0.0547737907 -0.014211142 0.5571836419 -0.5631443667 0.5570267261 -0.5636626444 0.0548840173 -0.0150394561
390297660.0 0.0542592512 -0.0148235237 0.5509705432 -0.569966484 0.5510025364 -0.5702840772 0.0552487589 -0.0157614292
395297630.0 0.0547237382 -0.0158718146 0.5451723105 -0.5754998358 0.5448323894 -0.5754769221 0.0542895501 -0.0158760179
400297600.0 0.0538652505 -0.015981202 0.538298717 -0.5819039647 0.5387672705 -0.5823135901 0.0532684907 -0.0169982842
405297570.0 0.0539403895 -0.0165790693 0.5322837627 -0.5879410689 0.5319424424 -0.588103914 0.0539827584 -0.0169870455
410297540.0 0.0537427012 -0.0175217037 0.5249487141 -0.5939701543 0.5251634593 -0.5941400128 0.0532873592 -0.017834981
415297510.0 0.0533250198 -0.0174008003 0.5187892079 -0.5993917243 0.5192055024 -0.5998360849 0.0526967621 -0.0181455322
420297480.0 0.0529339942 -0.0189404704 0.5117378337 -0.6054470693 0.5124397083 -0.605842721 0.0528167881 -0.0191622095
425297450.0 0.0531106108 -0.0195838108 0.5055405691 -0.6113258063 0.5060886882 -0.6110827288 0.0523234059 -0.0187886666
430297420.0 0.0523154605 -0.0195310708 0.4988866816 -0.6172080414 0.4986785658 -0.6170591357 0.0515146237 -0.0204707943
435297390.0 0.0524503241 -0.020714709 0.4922379586 -0.6222354485 0.4922060431 -0.6219378125 0.051075773 -0.0201954961
440297360.0 0.0522290539 -0.0214869857 0.4851843484 -0.6274646883 0.4846533625 -0.6280283245 0.0509121275 -0.0214949069
445297330.0 0.0522468082 -0.022195017 0.4776866339 -0.6335517039 0.4781142572 -0.6334914267 0.0507181561 -0.0217233696
450297300.0 0.0518006653 -0.0226225663 0.471330265 -0.638013433 0.4715801564 -0.6389878038 0.050440332 -0.0219848511
455297270.0 0.0510402308 -0.023486482 0.4647465758 -0.6434875419 0.4650864092 -0.6437657259 0.0502819481 -0.0226966643
460297240.0 0.0503379878 -0.0239818533 0.4573895102 -0.6479364574 0.4571006953 -0.6486883848 0.0494731134 -0.0225833215
465297210.0 0.050611524 -0.0247644686 0.4500473977 -0.6539267954 0.4503253456 -0.6538095034 0.0485513039 -0.0237731692
470297180.0 0.0498448222 -0.0251654638 0.4431214612 -0.6586643572 0.4436558786 -0.659217718 0.0479864772 -0.0242159565
475297150.0 0.0495500643 -0.0264705376 0.4355002481 -0.663605748 0.4360822906 -0.6632031109 0.0483321282 -0.0247034356
480297120.0 0.0496730408 -0.0267849484 0.4285242252 -0.6678331508 0.4287168212 -0.6684504596 0.0474783882 -0.0246188726
485297090.0 0.0495195662 -0.0272821881 0.4214528466 -0.6732030824 0.421295781 -0.6732555588 0.0469939945 -0.0257676371
490297060.0 0.0490782441 -0.0281545114 0.41384774 -0.6779758519 0.4139351156 -0.6777311677 0.0471439796 -0.0258504381
495297030.0 0.0477948933 -0.0280462461 0.4057373602 -0.6822512003 0.4058824515 -0.6819078822 0.0463665569 -0.0266402446
500297000.0 0.048040221 -0.0292377982 0.3988653603 -0.6861617393 0.3983447241 -0.6864683851 0.045495262 -0.0270065476
505296970.0 0.0471501299 -0.029671541 0.3908807835 -0.6908219857 0.3906695979 -0.6906421261 0.0449006855 -0.0272549369
510296940.0 0.0466856538 -0.0301142844 0.383288931 -0.6955301173 0.3836507253 -0.6953226489 0.0450202805 -0.0271373243
515296910.0 0.0461978783 -0.0304904286 0.3755698929 -0.6990810015 0.375831878 -0.6992026092 0.0438384775 -0.0281446191
520296880.0 0.0458295395 -0.0314302054 0.367787019 -0.7037196455 0.3681216727 -0.7035078803 0.0439287713 -0.0283236534
525296850.0 0.0452973095 -0.031930786 0.3607519252 -0.7078980281 0.3603701615 -0.7076831013 0.043775171 -0.0287914735
530296820.0 0.0450419752 -0.0326468679 0.3529155302 -0.710832964 0.3523211583 -0.7112332565 0.0426756655 -0.0300126699
535296790.0 0.0441844539 -0.0330036318 0.3441691835 -0.714807111 0.3455681763 -0.7150647027 0.0427245009 -0.0302255857
540296760.0 0.0438764036 -0.0339825081 0.3372244136 -0.7193911915 0.3369315086 -0.7196291037 0.0414086892 -0.030194154
545296730.0 0.0435967684 -0.033634762 0.3290924786 -0.7226474019 0.3288414482 -0.7228042272 0.0412603922 -0.0309849754
550296700.0 0.0424744977 -0.0344522862 0.3214940788 -0.7261392718 0.3217286424 -0.726495888 0.0404842286 -0.0307036235
555296670.0 0.0426266056 -0.0351925608 0.3131968814 -0.7298679003 0.3131207836 -0.7301204224 0.0398296862 -0.031077514
560296640.0 0.0417846482 -0.0354978692 0.3055001887 -0.7332988836 0.3051951284 -0.7329835477 0.0397416183 -0.0317148364
565296610.0 0.040565174 -0.0362583119 0.2969321879 -0.7368214205 0.2970116016 -0.7367380399 0.0390504736 -0.0325187759
570296580.0 0.0413230311 -0.0364433386 0.2894608742 -0.7401908342 0.289541081 -0.7397878836 0.0386228302 -0.0320792295
575296550.0 0.0402292911 -0.0362015575 0.2806692544 -0.7426492871 0.2815811221 -0.7426662597 0.038222364 -0.0327428606
580296520.0 0.0393391567 -0.0371563568 0.2733996438 -0.7463165363 0.2731710225 -0.7463186271 0.0374201145 -0.033153834
585296490.0 0.0393363724 -0.0378059055 0.2655162305 -0.7490263495 0.2649635783 -0.7484196673 0.0367089412 -0.0339851641
590296460.0 0.0380009403 -0.038316708 0.2563591477 -0.7517776235 0.2562882152 -0.7514946327 0.0367650545 -0.0330713618
595296430.0 0.0378095123 -0.038376384 0.2491838921 -0.7546567015 0.2482755531 -0.7549071597 0.0362885668 -0.0341752747
600296400.0 0.037079363 -0.0387386882 0.2402591148 -0.7578616685 0.2402910203 -0.7568885852 0.0355304648 -0.0338789712
605296370.0 0.0367499184 -0.0389224598 0.2316815656 -0.7598514598 0.2319675432 -0.7592539068 0.0349179791 -0.0349275002
610296340.0 0.0358779447 -0.0394834944 0.2238811401 -0.7623400794 0.2238954691 -0.7623225739 0.0342442869 -0.0348886872
615296310.0 0.0354368068 -0.0395826738 0.215079004 -0.7648233123 0.2152875958 -0.7647998066 0.0342088476 -0.0349586518
620296280.0 0.0344587213 -0.040209016 0.2071842123 -0.7667904407 0.2071620452 -0.7670332156 0.0335340193 -0.035765981
625296250.0 0.0344041474 -0.0405049146 0.1982619084 -0.7697588795 0.1985335162 -0.7692674753 0.0328936779 -0.0355114538
630296220.0 0.0337934781 -0.0406229492 0.1900483703 -0.7719630883 0.1905829436 -0.7710004302 0.0315676109 -0.0358227528
635296190.0 0.0329982951 -0.0409001683 0.1814117244 -0.7727759589 0.1816769852 -0.7722564278 0.0313472915 -0.0365138469
640296160.0 0.0323909056 -0.0411409609 0.1734616612 -0.7751422157 0.1734842052 -0.7751513266 0.0316293439 -0.0367804504
645296130.0 0.0320269565 -0.0412892906 0.1647304034 -0.7771682455 0.1649450645 -0.777220722 0.0299443992 -0.0369597667
650296100.0 0.0309285124 -0.0408937483 0.1568541543 -0.7784331224 0.156796397 -0.7785763004 0.0298856252 -0.0372289003
655296070.0 0.0302607895 -0.0420619939 0.1479832109 -0.7801753938 0.1479525546 -0.7800856027 0.0298764026 -0.036761816
660296040.0 0.0292001641 -0.0417532397 0.1392203445 -0.7814751973 0.1394006921 -0.7816566007 0.0284959862 -0.038014276
665296010.0 0.0293217801 -0.0425362113 0.1313300834 -0.7829719465 0.1313769024 -0.7835132891 0.0277964366 -0.037480818
670295980.0 0.029177845 -0.0424742338 0.1226754083 -0.7848835344 0.1226699188 -0.7846213114 0.0268973527 -0.0383063193
675295950.0 0.0282203816 -0.0425018414 0.1137190788 -0.7858276308 0.1141863486 -0.786679933 0.0269611478 -0.0377400891
680295920.0 0.0274900847 -0.0424640737 0.1050866884 -0.7871183943 0.1050342158 -0.7873670959 0.026531205 -0.0387332799
685295890.0 0.026680997 -0.0428306174 0.0973231743 -0.7880978547 0.0960494904 -0.7882988517 0.0259221009 -0.0381462327
690295860.0 0.0263514245 -0.0430474296 0.0880596301 -0.7886582728 0.0877455995 -0.7890182072 0.0255025696 -0.0382281796
695295830.0 0.0261836508 -0.0435593343 0.0787308923 -0.7902255177 0.0788268558 -0.7905821671 0.0239868477 -0.0387382448
700295800.0 0.0258560091 -0.0436453501 0.0710711078 -0.7908541201 0.070295213 -0.7913090421 0.0236676179 -0.0390220365
705295770.0 0.0247661733 -0.0437185276 0.062434756 -0.7918558632 0.0624064004 -0.7918272653 0.0230912776 -0.0391758287
710295740.0 0.0239495656 -0.0431767114 0.0536064623 -0.7920138705 0.053287203 -0.7918722196 0.0214786807 -0.03901813
715295710.0 0.0234542919 -0.0438561283 0.0448179057 -0.7929381813 0.0453016007 -0.7931006725 0.021748339 -0.0401038628
720295680.0 0.0227878559 -0.0442629007 0.036006376 -0.7929472574 0.0366224576 -0.7935294993 0.0219239782 -0.0391291811
725295650.0 0.0225736513 -0.044088187 0.0275956415 -0.793445643 0.0278717424 -0.7929169971 0.020843836 -0.0389764608
730295620.0 0.0213074271 -0.0446355198 0.0189421536 -0.7938745475 0.0192488096 -0.7939980982 0.0203927268 -0.0406716446
735295590.0 0.021189366 -0.0444672622 0.0108299077 -0.794311565 0.010997793 -0.7938126301 0.0197191052 -0.0395332171
740295560.0 0.0201866481 -0.0442300177 0.001733801 -0.7934528879 0.0017240894 -0.7939258282 0.0193164224 -0.0400209769
745295530.0 0.0198562954 -0.0446937928 -0.0066215978 -0.7937787031 -0.0066797518 -0.7942205845 0.0178910562 -0.0396474383
750295500.0 0.0191856584 -0.0447848487 -0.0146256578 -0.7934248654 -0.0153541336 -0.7936235243 0.0181985054 -0.0405304679
755295470.0 0.0191059691 -0.0445593502 -0.0236033261 -0.7938755691 -0.0236002396 -0.7936695085 0.016761012 -0.0403305132
760295440.0 0.0179418937 -0.0447081208 -0.0325120887 -0.7931389667 -0.0327937494 -0.7935030133 0.0160198068 -0.0404661125
765295410.0 0.0171068997 -0.0449100846 -0.0409583834 -0.7925082677 -0.0408511389 -0.7931107181 0.0167061421 -0.0397211672
770295380.0 0.0168923176 -0.0448060909 -0.0497300102 -0.7920985268 -0.0499968898 -0.7923883317 0.0157347938 -0.0399538206
775295350.0 0.0158764215 -0.044620709 -0.0584080677 -0.7909907758 -0.0585268347 -0.7918365515 0.014597056 -0.0408214138
780295320.0 0.0155798124 -0.0447527181 -0.0665812819 -0.7912954163 -0.0663125242 -0.7909958337 0.0142667742 -0.0402335614
785295290.0 0.0146944066 -0.0444576356 -0.075691786 -0.7889819806 -0.0755402572 -0.7902441225 0.0130926758 -0.0402820524
790295260.0 0.0139095847 -0.0447410608 -0.0842836023 -0.7896688065 -0.0841617078 -0.7894976343 0.0131420071 -0.0402388217
795295230.0 0.0136443197 -0.0447963265 -0.0920709071 -0.7879375028 -0.0926449352 -0.7878932634 0.0126502062 -0.0395786896
800295200.0 0.0126472563 -0.0444523816 -0.1016995637 -0.7875111455 -0.1018055755 -0.7880104753 0.0117878503 -0.0401314756
805295170.0 0.0115457351 -0.0449513963 -0.1095988574 -0.785835004 -0.1100125587 -0.786428601 0.0111463553 -0.0405336135
810295140.0 0.0114656554 -0.0448493417 -0.1180445752 -0.785061463 -0.1180706367 -0.7856175367 0.0105047134 -0.0399385217
815295110.0 0.010803909 -0.0444231454 -0.1271579396 -0.7834560047 -0.1273276816 -0.7833048441 0.00989662 -0.0406334325
820295080.0 0.0100819734 -0.0446386546 -0.1353059576 -0.7818792452 -0.1356060524 -0.7825194563 0.0091378339 -0.0402570146
825295050.0 0.0096246072 -0.0448513073 -0.1437703756 -0.7800846743 -0.1441517968 -0.7802504204 0.0091644927 -0.0396191108
830295020.0 0.0088203796 -0.0441202471 -0.1531573514 -0.7785994425 -0.1528259695 -0.7788937329 0.0080671811 -0.0399681423
