!Created with skrf (http://scikit-rf.org).
# Hz S RI R 50.0 
!freq ReS11 ImS11 ReS21 ImS21 ReS12 ImS12 ReS22 ImS22
300000.0 -0.2099642919 -0.0819685813 0.0006338771 0.0017560749 0.0011463312 0.0009824546 -0.7701876295 -0.1645091137
5299970.0 -0.2141517576 0.008608184 -0.0001493082 -5.91801e-05 -0.0001637917 -0.0001300112 -0.7846366586 -0.0085221739
10299940.0 -0.2103217379 0.0213334687 0.0001651045 4.6944e-06 -3.63324e-05 -7.1157e-06 -0.7882972104 -0.0050890262
15299910.0 -0.2054538483 0.0313174615 3.22383e-05 0.0001002457 -7.50876e-05 -0.0001398159 -0.7933593923 -0.0031322576
20299880.0 -0.1993013782 0.0390807768 5.40281e-05 -0.0003243512 -7.64826e-05 4.4553e-05 -0.8000508747 0.0017445929
25299850.0 -0.1931110582 0.0454271268 -1.76468e-05 -5.97739e-05 -2.78134e-05 0.000169442 -0.8068402733 0.0074551793
30299820.0 -0.1863334079 0.0504046535 0.0001210864 0.0001007685 -9.83219e-05 -4.6672e-06 -0.8124335939 0.014719518
35299790.0 -0.1798474182 0.0544038861 0.0002044728 2.40478e-05 2.95995e-05 5.11298e-05 -0.8179019338 0.0240712535
40299760.0 -0.1741406466 0.0570588179 0.0001800145 9.02849e-05 0.0001532295 6.97867e-05 -0.8214525228 0.0333863816
45299730.0 -0.1683740744 0.05938902 -0.000172189 6.53692e-05 -5.90565e-05 -3.50804e-05 -0.8254396613 0.0423283012
50299700.0 -0.1628693106 0.0608780069 0.0001259196 2.16606e-05 0.0001765721 0.0001547973 -0.8273314893 0.0525097102
55299670.0 -0.1583653703 0.0617346548 -7.98241e-05 0.0001219831 5.3293e-06 -0.0002416668 -0.8296908732 0.0630627157
60299640.0 -0.1536802086 0.0623562625 -0.0003558615 4.8741e-06 -3.12002e-05 -2.21016e-05 -0.8306911529 0.0730527418
65299610.0 -0.1500908075 0.0627816227 -0.0001330548 -0.0001063321 -4.074e-06 -2.91701e-05 -0.8312757981 0.0829234116
70299580.0 -0.1465221315 0.0625313386 0.0002193968 7.50421e-05 -6.03858e-05 0.0001864646 -0.8321547445 0.092532615
75299550.0 -0.1431586885 0.062650716 2.32228e-05 5.09782e-05 -0.0001767879 0.0001900317 -0.8326500441 0.1024006815
80299520.0 -0.1405399169 0.0627098179 -1.40553e-05 -3.20211e-05 -0.0001077398 5.71363e-05 -0.8319906048 0.1124336539
85299490.0 -0.1378198875 0.0621875249 -0.0001994502 3.43039e-05 -3.1066e-05 -0.000130974 -0.8316858132 0.121391759
90299460.0 -0.1355275235 0.0622198002 4.79915e-05 8.9735e-06 1.58926e-05 -8.41924e-05 -0.8304839604 0.1315527768
95299430.0 -0.1333005929 0.06195146 1.3295e-05 -2.66161e-05 -2.37069e-05 -7.09304e-05 -0.8298908818 0.1411550675
100299400.0 -0.1315799783 0.0618550133 5.27695e-05 -0.0001275642 0.0001671708 0.0001117171 -0.8289388913 0.1499050357
105299370.0 -0.1298272538 0.0616621743 0.0001271829 -8.24402e-05 5.06982e-05 0.0001546397 -0.8273302144 0.158877663
110299340.0 -0.1282339734 0.0616719004 -4.08914e-05 -5.80561e-05 -0.0001031854 0.0002295115 -0.8267349221 0.1685512922
115299310.0 -0.1269378368 0.0609767301 0.0001726539 3.17316e-05 7.675e-07 3.80996e-05 -0.8250710081 0.1773530079
120299280.0 -0.1257291723 0.0613823015 0.0001087763 -2.87559e-05 -0.0001293334 -5.17727e-05 -0.8234164277 0.1860078811
125299250.0 -0.1246715892 0.0610983585 1.44697e-05 4.78638e-05 0.0002697077 2.60244e-05 -0.8216018468 0.1952439051
130299220.0 -0.1232132716 0.0611380474 8.9588e-05 -0.0001097662 1.83686e-05 -0.0001384165 -0.8200528232 0.2042170357
135299190.0 -0.1224613547 0.061048586 -5.8156e-05 0.0001618488 -0.0001632592 -2.5325e-05 -0.8181136499 0.2124329451
140299160.0 -0.1215057392 0.0613550661 0.0001193833 1.63923e-05 -2.03795e-05 1.5063e-05 -0.8157311754 0.2210863778
145299130.0 -0.1205880735 0.0613839717 0.0002549683 6.6374e-06 8.2991e-05 0.0002069324 -0.8139996226 0.2297458919
150299100.0 -0.1200344054 0.0615536031 4.60587e-05 -1.74582e-05 3.29088e-05 -5.8069e-06 -0.8116614765 0.2387512355
155299070.0 -0.1195381 0.0621891461 -8.52092e-05 -7.8534e-06 2.50911e-05 -4.41769e-05 -0.8093973981 0.247555897
160299040.0 -0.1184084425 0.0622470857 -0.0002812365 0.000142824 -3.16077e-05 9.06973e-05 -0.8072969736 0.2563821871
165299010.0 -0.1182147407 0.0625905817 -0.0001143372 -0.0001184185 0.0002647895 -8.62165e-05 -0.8044520086 0.2648250255
170298980.0 -0.1177984811 0.0628857627 2.62089e-05 0.000100676 0.0001258591 0.0001182971 -0.801513981 0.2735964707
175298950.0 -0.1166731073 0.0636582385 6.70253e-05 7.4342e-05 -0.0001515416 0.0001304767 -0.7989120089 0.2822255511
180298920.0 -0.1164554223 0.0638152348 -1.75334e-05 8.57447e-05 9.0291e-06 0.0001189127 -0.7951700025 0.2904201345
185298890.0 -0.1158505472 0.0642303549 0.0001404744 0.0001094725 8.174e-07 5.859e-05 -0.7931911367 0.2980089354
190298860.0 -0.1152184339 0.0647597397 -1.90136e-05 0.0001031667 0.0001803637 -2.02357e-05 -0.7893313185 0.3073107062
195298830.0 -0.1144975652 0.0650463795 6.79634e-05 0.0001055932 -1.74382e-05 -0.0001710478 -0.7870826906 0.3156703777
200298800.0 -0.1142321369 0.0660052895 -3.7864e-05 -3.12902e-05 -0.000241253 -1.76056e-05 -0.7832899873 0.3238830632
205298770.0 -0.1136760881 0.0665598754 5.85007e-05 2.8733e-06 -3.6207e-05 0.0001707379 -0.7801697064 0.3318758099
210298740.0 -0.1131406222 0.0672905236 0.0001395012 -0.000169373 6.27004e-05 -4.34124e-05 -0.7764804354 0.3400346598
215298710.0 -0.1131605302 0.0676820934 -5.15601e-05 -9.04311e-05 0.0001463116 0.0001131699 -0.7731425329 0.3481546869
220298680.0 -0.1125846436 0.0683862729 3.27941e-05 -0.0001225816 8.17042e-05 -0.0001058137 -0.769234066 0.3573015213
225298650.0 -0.1119797055 0.0691446987 -9.41272e-05 0.0002179225 1.82571e-05 6.09818e-05 -0.76597113 0.3648990922
230298620.0 -0.1117723732 0.0701286206 0.0003432772 0.0001647521 -4.36659e-05 -0.0002215819 -0.7612242285 0.372636094
235298590.0 -0.1109865639 0.0706093465 7.47135e-05 -0.0001503337 -4.37073e-05 1.318e-07 -0.757555979 0.3802999533
240298560.0 -0.1106588047 0.0716849308 -8.60776e-05 7.4327e-05 0.0001685455 6.96571e-05 -0.7540679676 0.3880876811
245298530.0 -0.1099346821 0.0722535063 0.0001309812 -0.0002109627 1.72833e-05 0.0002152893 -0.7500238146 0.3966541457
250298500.0 -0.1098274279 0.0730054624 0.0001551289 0.0002274854 9.177e-06 -2.01407e-05 -0.7457596674 0.4050203589
255298470.0 -0.1091310622 0.0740657438 -0.0001954677 3.40888e-05 3.31155e-05 0.0001093148 -0.7414843011 0.4126543148
260298440.0 -0.1084820013 0.0752327907 0.0003166113 -2.11771e-05 0.000232861 6.08051e-05 -0.7369659456 0.4200588718
265298410.0 -0.1084077342 0.0760566082 1.8571e-05 -3.81442e-05 0.0001840174 1.3645e-06 -0.7327928731 0.4273243231
270298380.0 -0.1074951042 0.0767015108 -3.0617e-06 -0.0001708757 -6.9189e-06 6.51565e-05 -0.7276110166 0.4352534163
275298350.0 -0.1070472223 0.077595172 -6.0503e-06 0.0001118273 0.0003531679 0.0001148747 -0.7227570952 0.4432481119
280298320.0 -0.106632139 0.0786675094 0.0002731164 0.0001711116 -3.42882e-05 0.0001147047 -0.7184843027 0.450518481
285298290.0 -0.1058843267 0.0795573695 -3.21665e-05 -3.4688e-06 0.0001090266 -4.24619e-05 -0.713594312 0.457509488
290298260.0 -0.1052954731 0.080503751 0.0002504395 0.0003415851 0.0001214041 2.46441e-05 -0.7088860316 0.4660799368
295298230.0 -0.1047766559 0.0813238014 0.0002500321 -1.44218e-05 0.0002132386 -3.13106e-05 -0.7040335176 0.4728741725
300298200.0 -0.1042129441 0.0820173524 0.0002090784 -6.25065e-05 0.0002177466 -1.99736e-05 -0.6983395955 0.4803174347
305298170.0 -0.1032253078 0.0829606934 7.8277e-06 0.00014048 -7.60691e-05 0.0001171456 -0.6933907327 0.4877415974
310298140.0 -0.1026450623 0.0834558079 -4.76665e-05 0.0002503345 0.0001241497 0.0002102914 -0.6886124045 0.4947279091
315298110.0 -0.1024367212 0.0844730006 -1.04606e-05 0.0001662478 0.00015518 -3.48582e-05 -0.6831941819 0.5021287449
320298080.0 -0.1018232045 0.085477875 0.0001291042 6.30184e-05 8.48907e-05 0.0002273425 -0.6775023889 0.5094253921
325298050.0 -0.1014218166 0.0860792879 0.0003111887 0.0002005899 0.0001869637 0.0001304312 -0.6722603884 0.5161311432
330298020.0 -0.1009204766 0.0872660651 0.0002502817 0.0002155915 0.0003295491 0.0002460897 -0.6669778626 0.5232648135
335297990.0 -0.1003347031 0.0880424435 0.0003586635 -4.55628e-05 0.0001129256 0.0002256161 -0.6610807865 0.5301952702
340297960.0 -0.0998017085 0.0891596488 0.0001547998 0.0004124651 -4.5473e-06 5.72388e-05 -0.6556647094 0.5367882956
345297930.0 -0.0995379607 0.090015601 0.0001338254 0.0001188593 0.000186966 0.000136522 -0.6496627397 0.5435332006
350297900.0 -0.0982404156 0.0912683632 0.000270257 9.01653e-05 0.000199937 4.87422e-05 -0.6441044646 0.5510052653
355297870.0 -0.0979946071 0.0923445211 0.0001474731 0.0001422526 3.6676e-06 0.0001780883 -0.6383664568 0.5571945014
360297840.0 -0.0973574297 0.093194664 0.0002223309 0.0001099185 -2.90263e-05 7.60802e-05 -0.6324418224 0.5637467486
365297810.0 -0.0965141706 0.094103666 2.36087e-05 0.000126476 -6.2105e-06 0.000247103 -0.6265742331 0.5706764299
370297780.0 -0.0958531512 0.0952617308 0.0001262613 -2.21136e-05 0.0001455364 0.0001245046 -0.6207055351 0.5765898645
375297750.0 -0.0950446233 0.0963067852 7.17798e-05 -2.89148e-05 0.0002346306 -8.68955e-05 -0.6144693244 0.5833209101
380297720.0 -0.094282907 0.0973197823 0.0001730063 0.000137591 2.51623e-05 2.45427e-05 -0.6076410078 0.5902958415
385297690.0 -0.0933587946 0.0983992691 4.64794e-05 0.0001480555 0.0002727091 1.60455e-05 -0.601890825 0.5959204757
390297660.0 -0.0927606991 0.0994286874 0.0003289468 4.44372e-05 0.0002305345 2.04138e-05 -0.595763785 0.6015751608
395297630.0 -0.0919433742 0.1001985432 0.0002588537 -1.909e-05 0.0002612811 3.488e-05 -0.589345423 0.6082850281
400297600.0 -0.0911922428 0.1015589364 0.0001797888 0.0002279779 0.0002943349 0.0002071953 -0.5830566835 0.6138351155
405297570.0 -0.0901481203 0.1022312061 0.0001115869 -9.77905e-05 0.0002072321 0.0001327753 -0.5771441076 0.6201054299
410297540.0 -0.0894401134 0.1033907324 8.84723e-05 3.13164e-05 7.84824e-05 0.0001706709 -0.5700049775 0.6255035547
415297510.0 -0.0888711233 0.1040413958 8.39108e-05 0.0003773014 0.0001297585 -4.0989e-05 -0.5635198899 0.632442583
420297480.0 -0.0876169907 0.1051074095 0.0002854323 -5.48633e-05 0.0001734309 -2.514e-07 -0.5567491911 0.6360099013
425297450.0 -0.0867833202 0.1059761922 9.90988e-05 0.0001263738 0.0001353365 -8.7838e-06 -0.5501759131 0.6432492058
430297420.0 -0.0862452381 0.1070388525 -9.73752e-05 0.0003283995 9.11189e-05 -9.43686e-05 -0.5437096639 0.648658728
435297390.0 -0.0849094049 0.1081897159 0.0001016258 -1.8849e-05 4.35845e-05 9.83854e-05 -0.5365004361 0.6535729198
440297360.0 -0.0840089157 0.1089113373 0.0002468493 -6.93584e-05 0.0002569445 7.51883e-05 -0.5302736161 0.6588112093
445297330.0 -0.0835330381 0.1100689668 0.0001729405 7.28235e-05 0.000143156 -8.56792e-05 -0.5236426531 0.6644583192
450297300.0 -0.082481045 0.1107474454 5.91453e-05 0.0001361998 0.0001335686 0.0001778148 -0.5165932322 0.6697057932
455297270.0 -0.081570998 0.1120460347 0.0001314242 2.27305e-05 0.0001769861 0.0001535715 -0.5101017584 0.6750487671
460297240.0 -0.0806142475 0.1129639582 0.000227498 6.0201e-06 0.0002299227 2.39351e-05 -0.5029092776 0.6806792496
465297210.0 -0.0791933524 0.1135017637 0.0001879938 5.4776e-05 0.0002386797 -1.55619e-05 -0.4962342172 0.6849740846
470297180.0 -0.0785549382 0.1146644701 0.0002001376 0.0001152022 -5.608e-07 -2.62962e-05 -0.4892471836 0.6895617762
475297150.0 -0.0775851509 0.1154000333 0.0002037124 0.0004136124 0.0003480126 2.70945e-05 -0.4823424987 0.6948322256
480297120.0 -0.0765549285 0.1161635909 0.0002032275 0.0002280386 0.0002592871 0.0001030837 -0.4751758902 0.7004030505
485297090.0 -0.0756139176 0.1171029723 0.0001178866 -8.77732e-05 0.0001226239 0.0001549767 -0.4678021961 0.7034753674
490297060.0 -0.0744104817 0.1181636375 0.0003104524 6.44845e-05 0.0001443575 5.4494e-05 -0.4611793779 0.7082154158
495297030.0 -0.073478431 0.1192031122 0.0003565473 2.77851e-05 0.0002027725 0.0002305713 -0.4532066926 0.712711586
500297000.0 -0.0724552891 0.1198687867 0.0001263471 -3.42337e-05 6.86766e-05 3.15592e-05 -0.4470980974 0.7178898694
505296970.0 -0.0714764896 0.1206181849 0.0001922234 0.0001303318 -3.64459e-05 5.01067e-05 -0.439678038 0.7219224045
510296940.0 -0.0701560778 0.1216863535 0.0002430192 -1.35914e-05 0.0001263544 3.9822e-06 -0.4321098006 0.7263182368
515296910.0 -0.069496687 0.1228136457 0.0002843179 0.0001540273 -0.0001155284 -4.51748e-05 -0.4246015949 0.7308699546
520296880.0 -0.0681724747 0.1235556045 0.0001553152 -0.0001336045 0.0001313805 0.0001135143 -0.4176949704 0.7345063935
525296850.0 -0.067148088 0.1242224752 0.0001344619 -2.55577e-05 0.0001780494 0.0002374664 -0.40950008 0.7393903225
530296820.0 -0.0660781742 0.1248687363 0.0002447786 -8.17362e-05 0.0002241904 0.0002454427 -0.4028917476 0.7428145646
535296790.0 -0.0647901707 0.1258225844 0.0001840582 9.34182e-05 0.0001952184 -0.0001416586 -0.3952722952 0.7462935314
540296760.0 -0.0638699454 0.1261621714 0.0003964411 -4.16366e-05 6.17194e-05 8.77796e-05 -0.3880382592 0.750847494
545296730.0 -0.0625172474 0.1273312533 4.97591e-05 0.0001544531 -3.4119e-05 5.28925e-05 -0.3807594856 0.7542747599
550296700.0 -0.0620066292 0.1283223671 0.0005437157 0.0001669402 6.82948e-05 -5.32995e-05 -0.3730582312 0.7579966371
555296670.0 -0.0601819797 0.1290721815 -7.07248e-05 2.91796e-05 0.0002115965 8.97882e-05 -0.3655690709 0.7613869564
560296640.0 -0.0589540935 0.1297067246 0.0001033125 0.0001557562 0.0002034795 -1.63308e-05 -0.3578997653 0.7654995524
565296610.0 -0.058006743 0.130649909 0.0002362859 0.0001823558 9.55906e-05 0.0001235861 -0.3503238612 0.7688021889
570296580.0 -0.0568280256 0.1314047419 0.0003717794 5.51513e-05 5.89833e-05 5.88687e-05 -0.3426649939 0.7723135005
575296550.0 -0.0555558397 0.1318655527 0.0002006463 -6.2844e-06 0.0001120464 0.0001425317 -0.3345771547 0.7756932055
580296520.0 -0.0539781938 0.1326766129 -9.6268e-06 8.50724e-05 9.54578e-05 0.0001065471 -0.3271788194 0.7789677463
585296490.0 -0.0532045047 0.1332249138 0.0001218047 0.0002721395 0.0004943889 4.643e-07 -0.319554509 0.7818325382
590296460.0 -0.0520963214 0.1338830161 0.0002845249 0.0001246211 5.19975e-05 8.63808e-05 -0.3115179456 0.7849430027
595296430.0 -0.050721951 0.1347251145 0.0002296415 3.92216e-05 0.0001844797 -0.0001275041 -0.3037511634 0.7872650584
600296400.0 -0.0493401661 0.1353696372 0.0002893087 0.0002824526 8.39581e-05 0.0001138999 -0.2958063515 0.7911679365
605296370.0 -0.0480491258 0.1360927651 0.0001712845 0.0001009895 0.000326702 -7.68593e-05 -0.288705728 0.7942258258
610296340.0 -0.0469378701 0.1366689337 8.34502e-05 0.0001247113 -0.0001468052 -3.36196e-05 -0.2804618229 0.7973249813
615296310.0 -0.0454827663 0.1374002269 -4.09413e-05 0.0001012719 0.0001185227 -1.93002e-05 -0.2722442555 0.7990126001
620296280.0 -0.0443976366 0.1379214773 0.0003237043 3.7635e-06 0.0001678253 -0.000193637 -0.2650611691 0.8021346632
625296250.0 -0.0431827879 0.1384335947 0.0002117924 -5.2565e-06 0.0002341064 -9.62239e-05 -0.2568400353 0.804607088
630296220.0 -0.0414786027 0.1391856491 0.0003189033 0.0002467149 0.0001231641 -9.46323e-05 -0.2488176659 0.8079553482
635296190.0 -0.0406944193 0.1397554981 0.0001882356 -2.85444e-05 0.000116434 -8.5822e-05 -0.2409004374 0.8096857654
640296160.0 -0.038944079 0.1401909312 0.0004007506 -8.1342e-05 7.27813e-05 -0.0002667876 -0.2322376545 0.8120489406
645296130.0 -0.0382740259 0.1410979293 0.0004123249 0.0002144653 0.000267663 8.86248e-05 -0.2254299329 0.8142566496
650296100.0 -0.0364968107 0.1416980856 6.70052e-05 -3.38404e-05 0.0001650732 -2.26194e-05 -0.2169396603 0.8171493647
655296070.0 -0.0352138756 0.1420011987 0.0003137232 -0.0001222429 0.0002262684 -3.78782e-05 -0.2085326493 0.817755469
660296040.0 -0.0339508255 0.1428027613 0.0003391965 -9.33593e-05 0.0002992771 -0.0001517924 -0.1997119816 0.8203047186
665296010.0 -0.03244268 0.1430036156 0.000144978 -0.0001767361 0.000305963 0.0001186728 -0.1927547222 0.8219635359
670295980.0 -0.0310642179 0.1437348248 0.0002169891 -0.0002294692 0.000262631 -3.78842e-05 -0.1854265755 0.8242002858
675295950.0 -0.029958053 0.1439455599 0.0002578921 0.0001311224 8.39749e-05 -0.0001542605 -0.1765534312 0.8257422983
680295920.0 -0.0285250048 0.1447919636 0.0002833794 3.21951e-05 0.0001817066 -0.000242036 -0.1680421744 0.8278562126
685295890.0 -0.0271419553 0.1450592492 0.0001188364 4.54135e-05 0.0001345246 0.0001677196 -0.1597476686 0.8291291716
690295860.0 -0.0254752989 0.1455996694 0.0002731235 -3.93561e-05 0.0002580604 -0.000131229 -0.1519083391 0.8305014951
695295830.0 -0.0242957666 0.1460211756 0.000267387 5.71461e-05 0.0002136472 -0.0001031512 -0.1432079579 0.8325298272
700295800.0 -0.02289932 0.1466542373 0.0003010522 -8.5828e-05 0.0002541365 9.32671e-05 -0.1348760945 0.8334932896
705295770.0 -0.0213451825 0.1469360866 0.0001462308 -6.404e-05 0.0002522931 4.9096e-06 -0.1272875959 0.8354609031
710295740.0 -0.0199487957 0.1474002247 0.0003533557 0.0001874227 0.0002800241 -3.39964e-05 -0.1193101614 0.8362052312
715295710.0 -0.0190813983 0.1478508082 0.0002909427 0.000179712 0.0003732294 0.0001715977 -0.110863206 0.8376917609
720295680.0 -0.0175673168 0.1480166197 0.0002177302 1.16891e-05 0.0002621566 7.72772e-05 -0.1021454039 0.8384304989
725295650.0 -0.0161823818 0.1486523667 0.000179518 1.34828e-05 0.0003554334 1.23371e-05 -0.0937154004 0.8392467822
730295620.0 -0.0146310566 0.1484887615 0.0005201605 -8.78012e-05 0.0002709766 -2.76227e-05 -0.0855689252 0.8403596777
735295590.0 -0.0131096587 0.1491151178 0.000327308 -4.28131e-05 0.0002014393 -0.000100597 -0.076710574 0.8405261124
740295560.0 -0.011712777 0.1495654225 0.0005239552 -0.0001232853 0.0004579286 6.8222e-06 -0.0692660517 0.8413596684
745295530.0 -0.0101943396 0.1497516566 0.0003141975 0.0001038159 0.0003770005 -5.86719e-05 -0.0607629933 0.8423027408
750295500.0 -0.0087408722 0.1501122688 0.000353136 3.0148e-06 0.0003670012 -3.03676e-05 -0.052209939 0.8423542755
755295470.0 -0.0069729445 0.1505247574 3.53453e-05 0.0001719901 0.0003796844 -4.19457e-05 -0.0442515099 0.8431322585
760295440.0 -0.0059717541 0.1508036819 0.0002222367 -0.0001507244 0.0004121893 4.3075e-05 -0.0364881157 0.8437735682
765295410.0 -0.0042971493 0.1507349508 0.0001013531 -3.07614e-05 0.0002013908 6.86916e-05 -0.0270811617 0.844165354
770295380.0 -0.0028873367 0.1511352335 0.0005244578 -6.42847e-05 -3.87291e-05 -0.0001426538 -0.0188316986 0.8439209673
775295350.0 -0.0017741876 0.1517523231 0.000544197 -0.0001062868 0.0001345759 -0.0001823948 -0.0111619638 0.8439707172
780295320.0 -0.0003431428 0.1516191756 0.0004210216 0.0001167783 0.0002263121 2.17309e-05 -0.0027281912 0.8442993914
785295290.0 0.0013893707 0.152181097 0.0003091892 9.95336e-05 0.0001960184 2.85554e-05 0.0050923487 0.8442973747
790295260.0 0.002615782 0.1519768429 0.0001588248 1.48472e-05 0.0004469716 -9.47493e-05 0.0144590585 0.8443574989
795295230.0 0.0042091985 0.1524218779 0.0001311746 -0.0002816115 0.00040793 0.0001328636 0.0222371122 0.8443075655
800295200.0 0.0058072084 0.152504455 0.0003119267 8.71243e-05 0.0004185283 3.97413e-05 0.030483586 0.8441284864
805295170.0 0.007311036 0.1525971248 0.0001747085 0.0001568043 0.0003781251 -0.0001871392 0.0384790616 0.8435453184
810295140.0 0.0088341302 0.1528665533 2.82161e-05 -0.0001251096 0.0003684258 -0.0001207947 0.0472372086 0.8441959858
815295110.0 0.0102268211 0.1531250471 0.000280471 -3.79466e-05 0.0001581823 -0.000185144 0.0553741909 0.8426757452
820295080.0 0.0117210406 0.152913999 0.0002106242 0.0001236326 0.0002973661 -0.0001361517 0.0637934354 0.8417956298
825295050.0 0.013193441 0.1532427604 0.0003215123 -0.0002116638 0.000266586 0.0001127854 0.072123448 0.8414228293
830295020.0 0.0148372296 0.1532252653 0.0002294821 -0.000128632 0.0002204907 -5.75592e-05 0.0799227474 0.8405738342
835294990.0 0.0160179214 0.1534979302 0.0002622993 -0.0001321641 0.0001046539 -2.80884e-05 0.0882335796 0.8395978235
840294960.0 0.017861416 0.1531841497 0.0002318055 2.3191e-05 0.0005183849 -0.0001845886 0.0965668255 0.8390579168
845294930.0 0.0190977622 0.1536397526 0.0003642449 -0.0001594359 0.0001552352 -0.0001628882 0.1046402569 0.837955828
850294900.0 0.0207461173 0.1531972567 0.0002344761 -0.0003012949 0.000280366 -0.0001585103 0.1126281451 0.8374655531
