!Created with skrf (http://scikit-rf.org).
# Hz S RI R 50.0 
!freq ReS11 ImS11 ReS21 ImS21 ReS12 ImS12 ReS22 ImS22
300000.0 -0.2085624117 -0.0968577518 -0.0004565163 0.0007432301 0.0003527956 0.0014704298 -0.7692801782 -0.1969557341
5299970.0 -0.2151767935 0.0070162337 -8.17081e-05 -8.77188e-05 -4.17179e-05 6.14e-08 -0.7851559936 -0.0096670005
10299940.0 -0.2119261399 0.0203873298 -1.2892e-06 -3.214e-07 3.12438e-05 -0.0001141545 -0.7877009111 -0.0054988126
15299910.0 -0.2062384986 0.0300549262 -0.0002791202 -1.90932e-05 -0.0002207955 6.96745e-05 -0.7929288019 -0.0029663968
20299880.0 -0.2006281641 0.0380744011 0.0002373539 -0.0004619189 6.0538e-05 0.0001136934 -0.7996975252 0.001886949
25299850.0 -0.1939797854 0.0448506354 2.66773e-05 0.0001617695 8.7955e-05 5.22529e-05 -0.8059632408 0.0076829165
30299820.0 -0.1877870963 0.0497002894 0.0001002149 -6.43376e-05 -8.29468e-05 -4.29088e-05 -0.812041965 0.0154723951
35299790.0 -0.1814953161 0.0537523991 -8.28387e-05 -1.35182e-05 -0.0001412459 6.90974e-05 -0.8171098429 0.0247331485
40299760.0 -0.1755130155 0.0561172024 0.0001822708 -0.0001199775 -2.38423e-05 -0.000107656 -0.8208301435 0.0339256658
45299730.0 -0.1698619258 0.0582954969 0.0001804814 -0.0001731302 -4.1929e-05 -7.92904e-05 -0.8244273245 0.0434856129
50299700.0 -0.1643007535 0.0595428681 -2.2321e-05 -2.02331e-05 -9.564e-05 -3.25883e-05 -0.827128233 0.0539524175
55299670.0 -0.1596433708 0.0605836386 -0.0001231328 1.19007e-05 0.0001174926 0.0001612917 -0.8287780284 0.0637787963
60299640.0 -0.1553044711 0.0609043544 -7.71073e-05 0.0002679397 -6.008e-06 -0.0001245778 -0.8298434243 0.0740336483
65299610.0 -0.151105301 0.0612913943 3.25498e-05 0.0001230629 0.000114363 3.33566e-05 -0.8307517254 0.0843868308
70299580.0 -0.1479765397 0.0613743667 -8.66736e-05 3.7803e-05 0.0002454704 4.37726e-05 -0.8316377779 0.093836594
75299550.0 -0.1446258972 0.0612834863 -5.9726e-06 0.0002504867 9.53168e-05 -4.8748e-05 -0.8309693115 0.1040589586
80299520.0 -0.1417108244 0.0612602369 -5.87181e-05 7.43539e-05 -0.0001434706 -9.49915e-05 -0.8305146447 0.1137680502
85299490.0 -0.1390314332 0.0611544863 -0.0001754285 0.0002015068 -6.95268e-05 1.08144e-05 -0.8302816582 0.1233403454
90299460.0 -0.136203857 0.0609260345 9.51623e-05 0.0002028172 0.0001022675 -4.40866e-05 -0.8287678773 0.1328419743
95299430.0 -0.134296815 0.0607411899 3.17686e-05 -5.92857e-05 -0.0002077048 9.54241e-05 -0.8284403556 0.142804292
100299400.0 -0.1321297697 0.060504707 0.0001127791 0.0001502073 -0.0001988365 0.0002293541 -0.827228246 0.1518086025
105299370.0 -0.130368794 0.0600180183 0.0002228705 0.000101046 7.66482e-05 -0.0001820399 -0.8259619067 0.1608525402
110299340.0 -0.1288661434 0.0598865067 -0.0001341478 5.08642e-05 0.0001221111 8.20543e-05 -0.8245996505 0.169712174
115299310.0 -0.1273177062 0.0602369245 -0.0002172346 0.000220451 -9.85784e-05 0.0001223127 -0.8231742399 0.1790164406
120299280.0 -0.12612471 0.059997496 0.0002476528 4.149e-07 1.45172e-05 -0.0001478259 -0.8212187404 0.1879303558
125299250.0 -0.1250934243 0.059718636 -3.12842e-05 3.16308e-05 0.0001326549 -0.0002049978 -0.8199467074 0.1972274564
130299220.0 -0.1237402445 0.0597453328 -4.07214e-05 0.0003489055 0.0001291665 4.94733e-05 -0.817722449 0.2057889655
135299190.0 -0.1228164032 0.0599749146 0.0001109658 -0.0002080935 7.79623e-05 -2.1555e-05 -0.816365501 0.2155536116
140299160.0 -0.1218439437 0.0600629559 -4.37173e-05 0.0002552683 -4.23205e-05 -7.2096e-06 -0.8140417558 0.2233627488
145299130.0 -0.1208349651 0.0604019167 8.54999e-05 -0.0001213939 1.76694e-05 -5.59753e-05 -0.812299117 0.2320163022
150299100.0 -0.1201445315 0.0605230458 0.0001119753 -0.0002837028 0.0001301463 0.0001555716 -0.8096358748 0.2411388996
155299070.0 -0.1196831673 0.0609577595 0.0001148916 3.27178e-05 0.0001206817 9.92579e-05 -0.8072127717 0.2501643221
160299040.0 -0.1185721546 0.0615649608 2.8831e-06 3.02467e-05 7.04236e-05 -0.0001353558 -0.804599739 0.2590692475
165299010.0 -0.1179920033 0.0616665842 -0.0002329806 0.0001270435 -1.89204e-05 1.23974e-05 -0.8011169498 0.2671121802
170298980.0 -0.1172229132 0.0619442697 8.06717e-05 0.000165858 0.0001178001 9.979e-05 -0.7995141037 0.2759205884
175298950.0 -0.116555471 0.0625587093 -9.77886e-05 7.12867e-05 -5.74959e-05 -1.39583e-05 -0.7965180773 0.2848898325
180298920.0 -0.1165524344 0.063019166 -6.088e-07 -0.000111608 0.0001615526 0.0001125636 -0.7932906006 0.2935948469
185298890.0 -0.1157217357 0.0635418289 0.0001146599 2.57311e-05 -0.0001880014 -4.33003e-05 -0.7903620166 0.3018049025
190298860.0 -0.1151102619 0.064496249 -0.0001459844 7.72021e-05 -4.09587e-05 2.53771e-05 -0.7872347229 0.309825621
195298830.0 -0.1144322817 0.0653359795 0.0001106686 0.0001196255 1.89403e-05 -2.01211e-05 -0.7840740087 0.3181583458
200298800.0 -0.113823989 0.065507773 8.22583e-05 7.07187e-05 9.89999e-05 -0.0001004204 -0.7810168504 0.3265501198
205298770.0 -0.1135069179 0.0661745553 -6.51034e-05 -5.16404e-05 0.0001232072 5.46235e-05 -0.7777981466 0.335500463
210298740.0 -0.1130354689 0.0670548331 -2.78933e-05 0.0002902491 4.23656e-05 4.03909e-05 -0.7743467669 0.3432696458
215298710.0 -0.1127928908 0.0679202344 -0.000177372 -4.39272e-05 0.0003582431 -8.94551e-05 -0.7700477847 0.3517029095
220298680.0 -0.1119672803 0.06835286 0.0002100822 8.68417e-05 3.0738e-05 0.0001163061 -0.7665366443 0.3594599952
225298650.0 -0.1116155373 0.0696170689 0.0001472554 4.93926e-05 -0.000160104 0.000101514 -0.7629053042 0.3677059147
230298620.0 -0.1112637711 0.0705111013 7.463e-07 0.0002898031 -5.98544e-05 9.08204e-05 -0.7589024009 0.3754537982
235298590.0 -0.1108031625 0.0713579389 4.17099e-05 -1.3349e-05 1.89526e-05 0.0002508339 -0.7550392419 0.3833165977
240298560.0 -0.1102753196 0.0720256923 0.0001006242 -1.79327e-05 0.0001950417 0.0001444628 -0.7513118883 0.3906492555
245298530.0 -0.1100334072 0.0726718793 0.000128294 3.94188e-05 0.0001053775 7.69119e-05 -0.7473979322 0.3995012421
250298500.0 -0.1093802972 0.0736648281 -7.21221e-05 0.0002817051 -5.37196e-05 0.0001233652 -0.7429503097 0.406714121
255298470.0 -0.1090013183 0.0746906242 0.000100589 0.0001541509 9.08627e-05 0.0002834519 -0.7390367395 0.4143786623
260298440.0 -0.1084530953 0.0756052961 2.38355e-05 0.0001020552 0.0001354326 -0.0001083844 -0.734238463 0.4217564977
265298410.0 -0.1081499327 0.0766651649 0.0002865502 -3.04651e-05 -0.0002662163 -0.0001610482 -0.7300230006 0.4305502463
270298380.0 -0.1078666795 0.0772822471 0.000211201 0.0001390568 5.18042e-05 -2.86852e-05 -0.7251521858 0.437910622
275298350.0 -0.1071039898 0.0785326957 0.000244836 2.86812e-05 0.0002945888 0.0001368221 -0.7206908216 0.4457859072
280298320.0 -0.1065475723 0.079358988 0.0001105161 6.36242e-05 4.03632e-05 9.26334e-05 -0.7160562547 0.4530926453
285298290.0 -0.1062586564 0.0802828254 0.0001009483 0.0002158642 0.0002121268 -5.95227e-05 -0.7121912366 0.4604705286
290298260.0 -0.1055602684 0.0813450099 -0.0002736658 0.0001036671 0.0003495468 3.9844e-05 -0.7063986275 0.467929114
295298230.0 -0.1052100621 0.0821618823 0.000138907 -0.0001558718 -9.7116e-06 0.0002197048 -0.701622727 0.4747880708
300298200.0 -0.104584554 0.0835098508 8.16966e-05 5.06515e-05 -4.3435e-05 -2.95431e-05 -0.6967818755 0.4825496028
305298170.0 -0.1043330075 0.0839020973 -2.30533e-05 0.0001454456 0.0001013031 -6.24153e-05 -0.6914747447 0.4894533288
310298140.0 -0.1036248735 0.0846124541 0.0001491012 0.000109299 0.0001324796 -8.42696e-05 -0.6864445349 0.4968491848
315298110.0 -0.1031178189 0.0857701214 0.0001966748 -2.8293e-05 9.70814e-05 0.000198357 -0.6813802856 0.5036507958
320298080.0 -0.1025821514 0.086405157 6.40605e-05 9.48507e-05 -9.4113e-05 0.0002827874 -0.676039302 0.5105499533
325298050.0 -0.1024905236 0.0872251597 -0.0001286224 0.0002278959 0.0001663254 0.0001251596 -0.6700690553 0.5179447566
330298020.0 -0.1019767539 0.0885837202 0.0001638467 -0.0001433952 0.0003235225 0.0001237493 -0.6651557172 0.5245262729
335297990.0 -0.101478502 0.0894463976 -7.94063e-05 6.21298e-05 0.0001017522 2.71186e-05 -0.6595613517 0.5315696185
340297960.0 -0.1010368604 0.0905484443 0.0002068941 0.000297135 1.91468e-05 0.0002611919 -0.6542575709 0.5385725789
345297930.0 -0.1004292903 0.091478775 0.0002592288 -0.0001710844 0.0002549437 0.000127629 -0.6486746435 0.544721418
350297900.0 -0.0997705251 0.0923056801 9.82337e-05 0.0001161656 5.85371e-05 0.0001759126 -0.6432961603 0.5512100995
355297870.0 -0.0993299274 0.0933753553 -2.17783e-05 -7.977e-07 0.0001225325 0.0002295764 -0.6371133814 0.5583840174
360297840.0 -0.0988097702 0.0944656234 3.27902e-05 1.42223e-05 0.0002789729 3.54609e-05 -0.6310615006 0.5651607492
365297810.0 -0.0979897874 0.0955749639 5.58322e-05 1.70776e-05 6.42733e-05 -7.32172e-05 -0.6262716006 0.5703988342
370297780.0 -0.0971822442 0.0960254752 0.0001562215 0.0001868409 4.41512e-05 -2.427e-07 -0.6195235543 0.5777044702
375297750.0 -0.0969246338 0.0975017179 5.53861e-05 0.0001095687 0.0001026556 8.06268e-05 -0.6131137112 0.5839440331
380297720.0 -0.0962010949 0.0986545543 0.0001516074 0.0001169968 -7.77279e-05 0.0001087333 -0.6073087049 0.5903427935
385297690.0 -0.0953476396 0.0994500703 2.57342e-05 0.0001835115 0.0002131601 0.0001344421 -0.6011781645 0.596210559
390297660.0 -0.0945149275 0.1002752525 -6.237e-05 9.75057e-05 0.0001082184 7.1255e-06 -0.5946880559 0.6018007646
395297630.0 -0.0938036911 0.1013606471 2.11767e-05 -7.68757e-05 -3.96186e-05 0.0001100096 -0.5882867107 0.6078763441
400297600.0 -0.0932452582 0.1022852269 0.0001234861 -4.15816e-05 0.0001539099 -5.91192e-05 -0.5828241028 0.6142373361
405297570.0 -0.0925517495 0.1030678785 3.64355e-05 0.0002863349 -8.45752e-05 6.79376e-05 -0.5753966254 0.6197459368
410297540.0 -0.0914094656 0.1041223146 0.0002771151 5.3788e-05 -4.65491e-05 -6.2238e-05 -0.5695287806 0.625610236
415297510.0 -0.091029862 0.1051515139 0.0001620322 8.05449e-05 2.49534e-05 -1.2096e-06 -0.5630584144 0.6316000789
420297480.0 -0.0902239661 0.1056562203 0.0002937053 1.87046e-05 0.0002359999 0.0001965592 -0.5562484648 0.6379883872
425297450.0 -0.0889870675 0.1067660606 5.7593e-06 0.0001265279 0.0002064563 0.0002862161 -0.549772913 0.6419750634
430297420.0 -0.0884957763 0.107643743 0.0001515052 -0.0001870191 -2.27963e-05 8.03192e-05 -0.5433088752 0.6487670356
435297390.0 -0.0876029378 0.1086867477 0.0002134272 2.9966e-05 0.0001772401 -2.67324e-05 -0.5369089067 0.6539797199
440297360.0 -0.0865912957 0.1095930697 0.0002343525 0.0001059662 -5.8908e-06 0.0001124131 -0.5303043629 0.6594366115
445297330.0 -0.0855676951 0.1105244236 5.07881e-05 0.0002541373 7.41775e-05 0.0002224126 -0.5231652532 0.6649738539
450297300.0 -0.0847124443 0.1111949645 5.14425e-05 7.1713e-06 8.07492e-05 8.75775e-05 -0.5158088435 0.669585933
455297270.0 -0.083938294 0.112168027 0.0001778271 -0.0001586861 0.0001745913 9.45141e-05 -0.5091064879 0.6745607793
460297240.0 -0.0827758345 0.112808025 0.0001791103 0.0001696754 5.19e-07 3.47042e-05 -0.5023339457 0.6794243745
465297210.0 -0.0818337676 0.1138688146 0.0001174277 0.0001197844 -3.82398e-05 0.0001085916 -0.4950965255 0.6860267891
470297180.0 -0.080909953 0.1149339676 0.0001156764 0.0001119381 0.0004083017 3.17909e-05 -0.4883098485 0.6898717517
475297150.0 -0.0800323952 0.1157331557 6.50972e-05 -2.937e-07 0.0002828022 -1.69543e-05 -0.4819972053 0.6949552013
480297120.0 -0.0784456921 0.1167611461 0.0002276384 9.65181e-05 0.0003368862 -2.87496e-05 -0.4738886778 0.7001051204
485297090.0 -0.0776784534 0.1174876836 8.85552e-05 -0.0001187033 0.0002425949 0.000264166 -0.4673722951 0.7052582121
490297060.0 -0.0761476651 0.1182589825 0.0003455844 1.32974e-05 1.63478e-05 -4.01944e-05 -0.4595881004 0.7090277495
495297030.0 -0.0753935339 0.1188268919 0.0002599026 6.52683e-05 0.0001537912 0.0002623448 -0.4523276668 0.7135875137
500297000.0 -0.0742899519 0.1198871824 9.2954e-06 -9.50439e-05 0.0002232297 4.71638e-05 -0.4450112528 0.7183410876
505296970.0 -0.0729605033 0.1207453825 0.0002054795 -2.92809e-05 0.0001367144 0.0001248022 -0.4378330228 0.7227809533
510296940.0 -0.0719473203 0.1219228362 0.0001592367 -4.25581e-05 7.99549e-05 -6.25918e-05 -0.429855737 0.7275010128
515296910.0 -0.070817079 0.1225205838 0.0002055502 0.0001044304 0.0002175203 2.00112e-05 -0.423373262 0.7309608536
520296880.0 -0.069760462 0.1233221895 0.0002960634 0.0001671735 8.56745e-05 4.78996e-05 -0.4152813269 0.7356099902
525296850.0 -0.0682672287 0.1240257604 0.0001774187 5.13268e-05 0.0003503668 1.46713e-05 -0.4079228819 0.7397545535
530296820.0 -0.067357364 0.1250443587 -0.0001271741 0.0002976223 4.94682e-05 6.73098e-05 -0.4011106776 0.7431420245
535296790.0 -0.0658266764 0.1258906959 9.40308e-05 9.33277e-05 0.000184774 0.0001540942 -0.3934484462 0.7477519694
540296760.0 -0.0643308734 0.1262852539 0.0001888853 -1.58016e-05 5.27849e-05 0.0002224495 -0.3846726945 0.7512823331
545296730.0 -0.0638009614 0.1275974867 0.0002387416 -7.86387e-05 0.000170554 0.0001017741 -0.3779024213 0.7553689292
550296700.0 -0.0624254027 0.1282023202 0.00032882 9.46082e-05 0.0002295949 6.73002e-05 -0.3700339287 0.7591567355
555296670.0 -0.0609319726 0.1291839053 3.13505e-05 -4.9725e-05 0.0002565617 -4.87987e-05 -0.3623877797 0.76226767
560296640.0 -0.0595939918 0.129658957 0.0001771495 3.26115e-05 0.0003449927 3.03434e-05 -0.3543617151 0.7665206017
565296610.0 -0.0587131372 0.1308688648 0.0001591141 8.05513e-05 0.0002032891 0.0001016385 -0.3468722792 0.770303194
570296580.0 -0.0573059282 0.1315347369 9.3788e-05 -2.73188e-05 0.0003079829 5.30054e-05 -0.3391146301 0.7727039068
575296550.0 -0.0556707463 0.1319434842 0.0002243694 -8.59e-07 0.000176671 0.0001225241 -0.3308972814 0.7764294915
580296520.0 -0.0547492734 0.1329823592 4.28739e-05 0.0001402383 0.0002842803 0.0001498133 -0.3237175625 0.7797197874
585296490.0 -0.0530545894 0.1338791678 0.0002082435 0.0001101047 0.00016289 1.92795e-05 -0.3154068221 0.7831322546
590296460.0 -0.0516956383 0.1345384205 2.22005e-05 7.55309e-05 0.0001962938 4.66645e-05 -0.3074128791 0.7858661786
595296430.0 -0.0503648809 0.1352449413 0.0001009288 0.0001378457 0.0003218778 -5.4565e-05 -0.3002690929 0.7890556432
600296400.0 -0.049100658 0.1359451768 0.0002186138 -7.60777e-05 0.0002092592 -9.06327e-05 -0.2915379583 0.7915303147
605296370.0 -0.0479346647 0.1369283798 0.0001678836 7.68765e-05 5.01129e-05 0.0001402356 -0.2839066759 0.7953777614
610296340.0 -0.0464214213 0.1378160639 0.0002851937 1.06533e-05 0.0003450102 0.000112679 -0.2762653925 0.7978748955
615296310.0 -0.045041972 0.1383367453 0.0001810463 4.35497e-05 8.43819e-05 8.51873e-05 -0.267469387 0.8010620387
620296280.0 -0.0440822175 0.1393839154 0.0003005265 -0.0001347106 0.0001350084 -3.83608e-05 -0.2602269429 0.8035611358
625296250.0 -0.0428701275 0.1397764809 0.000395246 7.68205e-05 0.0001290679 8.9922e-05 -0.2517746356 0.8051280027
630296220.0 -0.041587225 0.1408032261 0.0001349902 -5.8949e-06 0.0002529552 1.85467e-05 -0.2431302305 0.8081960183
635296190.0 -0.0401645738 0.1415685953 0.0001523981 5.565e-06 9.52358e-05 0.0001327541 -0.2356856011 0.8100071774
640296160.0 -0.0384512404 0.1419451111 0.0003757045 -6.40529e-05 0.0001113999 -7.37704e-05 -0.2273359142 0.8120265357
645296130.0 -0.0368210948 0.1429518267 0.0002224189 -4.9247e-05 9.60514e-05 5.79065e-05 -0.2195187416 0.814064432
650296100.0 -0.0357416039 0.1432942097 0.0002737841 -0.0001092115 0.0003813106 -1.36394e-05 -0.2109433023 0.8171090246
655296070.0 -0.0344544425 0.1440943047 0.0002614703 -9.00468e-05 0.0003366065 3.86545e-05 -0.2029498495 0.8188195315
660296040.0 -0.0333165594 0.1449173092 0.0002710944 -4.45968e-05 0.0004239 0.0001243317 -0.1942992967 0.8212178862
665296010.0 -0.031684669 0.1453856899 0.0006386649 3.5859e-05 0.0001839805 2.46646e-05 -0.1863602539 0.8222611507
670295980.0 -0.0306885678 0.1462761863 0.0001945312 -0.0002736616 5.24299e-05 5.12241e-05 -0.1786454414 0.8245626743
675295950.0 -0.0292749076 0.1467702983 0.0002900412 1.23595e-05 0.0004152177 -1.11067e-05 -0.1698100949 0.826502518
680295920.0 -0.0281525175 0.1477093327 0.000203608 0.0001094318 0.0003797566 -0.0001343839 -0.1612434946 0.8276836399
685295890.0 -0.0263499115 0.1482867535 0.0001840287 -0.0001911839 0.0002516683 0.0001513748 -0.1534545182 0.8295884283
690295860.0 -0.0251604366 0.1486929192 0.000255623 -6.72054e-05 0.0001741645 2.34274e-05 -0.1455668806 0.8313790174
695295830.0 -0.0238516824 0.1489675259 0.0002731995 -4.33897e-05 3.21851e-05 -1.85354e-05 -0.1369146339 0.8326954761
700295800.0 -0.0222786908 0.149931067 0.0001722094 -0.0001017839 0.000172571 -0.0001542049 -0.1286210715 0.8335776383
705295770.0 -0.0212061877 0.1501514136 0.0001825361 -0.0001105041 0.0003586253 -0.0001201578 -0.1203075639 0.8357067302
710295740.0 -0.0200247006 0.150532795 0.0004021948 -0.0001731733 0.0001087546 0.0001196718 -0.1113241111 0.8364118465
715295710.0 -0.0179354325 0.1512953969 0.0002793728 -0.0001494106 0.0003481351 5.24887e-05 -0.1032259729 0.8364649531
720295680.0 -0.016898433 0.1516198763 0.0004355565 -7.90231e-05 0.0002264651 -0.0001775071 -0.0945143448 0.8376704178
725295650.0 -0.0156235459 0.1526329907 0.0002960286 5.12881e-05 0.0001814297 -0.0002247943 -0.0870576431 0.8391129156
730295620.0 -0.0146348698 0.1527488271 0.0002357121 -6.059e-07 0.0003400712 8.8795e-05 -0.079101784 0.8403398656
735295590.0 -0.0131148465 0.1534416072 0.0001436322 3.0707e-05 0.0002741142 1.25065e-05 -0.0693493213 0.8406441445
740295560.0 -0.0120153769 0.1536033137 0.0005014049 0.0001038796 0.0002688647 -2.17831e-05 -0.0616629651 0.8418067594
745295530.0 -0.010481025 0.1541930859 0.000274977 -4.52771e-05 0.0003292059 -0.000110499 -0.053427685 0.8418823116
750295500.0 -0.0092887975 0.1547349042 0.0001971756 -0.0001665009 0.000286186 -5.10458e-05 -0.0449703642 0.8425084254
755295470.0 -0.0079597022 0.155032883 0.0002399052 -0.0002673985 0.0003299486 -7.45337e-05 -0.0374329145 0.8430789801
760295440.0 -0.0065188391 0.1555568883 0.0003058853 -6.49505e-05 0.0001836535 -8.64148e-05 -0.0278278217 0.8422725202
765295410.0 -0.0049337925 0.1556799972 0.0003369316 -8.8918e-06 0.0003937691 2.72128e-05 -0.0200478385 0.8435299648
770295380.0 -0.0039899845 0.15619894 0.0002172534 -4.94145e-05 0.0001615601 -3.81328e-05 -0.011526105 0.8434619353
775295350.0 -0.0024656943 0.1564517024 0.0001235017 -4.9663e-06 0.0002128334 6.4491e-06 -0.0033618817 0.8428597454
780295320.0 -0.0010242578 0.1567634987 0.0003577928 3.0368e-05 0.0002838927 6.86027e-05 0.0056670064 0.8436366382
785295290.0 0.0002040195 0.1568603984 -3.61508e-05 -5.6367e-06 0.0002148737 3.65313e-05 0.0136166594 0.8435103944
790295260.0 0.0014557552 0.1569705206 0.0001680189 4.9793e-06 0.0002673418 -8.08247e-05 0.0218236323 0.8431951812
795295230.0 0.002706248 0.1574178924 0.0001744985 -2.18113e-05 0.0001801749 8.66432e-05 0.0303755614 0.8427208865
800295200.0 0.0040860684 0.1574694445 0.0002686901 -0.0001611545 0.0003505771 -0.0001174633 0.0384476755 0.8422626867
805295170.0 0.005551657 0.1580120794 0.0002273671 -0.0002972784 0.0004392958 -0.0002101297 0.0471527018 0.8422815692
810295140.0 0.0069699939 0.1583383741 0.0002342237 -2.41464e-05 0.000214942 -0.0001928599 0.0558108397 0.841348961
815295110.0 0.0081140385 0.1582124018 0.0001876463 -0.0003336351 0.0001530704 -2.23517e-05 0.0631642673 0.8414248552
820295080.0 0.009489203 0.1582724448 0.0001719778 0.000184184 0.00021867 1.5112e-06 0.0714766177 0.8408073248
825295050.0 0.0109522181 0.1584941758 0.0001292291 3.82913e-05 0.0003476864 -0.0001552706 0.0800368853 0.8398113039
830295020.0 0.0124827198 0.1586097955 0.00028757 -0.0001185169 0.0003476409 -0.0002879172 0.0880279303 0.8381288234
835294990.0 0.0133990434 0.1582944878 0.0001834055 -2.71791e-05 0.0004267918 -0.0002078125 0.0962853606 0.8379434017
840294960.0 0.0150477189 0.1583948744 0.000373996 -5.72011e-05 0.0002529634 1.20717e-05 0.105424349 0.8364614568
845294930.0 0.0165167312 0.1586779357 0.0003408954 -0.0001974135 0.0001684136 3.6544e-05 0.1135284926 0.8352553724
850294900.0 0.0180776477 0.1585330906 0.0005463817 -0.0003352206 0.0002905162 6.30921e-05 0.12153166 0.8348661016
