!Created with skrf (http://scikit-rf.org).
# Hz S RI R 50.0 
!freq ReS11 ImS11 ReS21 ImS21 ReS12 ImS12 ReS22 ImS22
300000.0 -0.2360064268 -0.1140609636 0.4664937727 0.0748749513 0.4688693824 0.0764402427 -0.2354626002 -0.1157522185
5299970.0 -0.2406765552 0.0069615088 0.4752631137 0.0051600758 0.4749068195 0.0057800408 -0.2444022952 0.0050602102
10299940.0 -0.2372934229 0.0201761369 0.4771240178 0.006177644 0.4769929992 0.0066789 -0.2418073964 0.0175142391
15299910.0 -0.2328627899 0.0295729384 0.4804151408 0.0076841601 0.4804726952 0.0077626663 -0.2371473381 0.0264554224
20299880.0 -0.2272472715 0.0379460751 0.4853461584 0.0077063263 0.4853076426 0.0080863735 -0.2328403823 0.0340150161
25299850.0 -0.2217841848 0.0443149482 0.4903134487 0.0070079465 0.4904856416 0.0067280515 -0.2277143107 0.0398825425
30299820.0 -0.2155431925 0.0495782677 0.4963937943 0.0049194747 0.4957095863 0.0050125364 -0.2226145679 0.0449168552
35299790.0 -0.2102128429 0.0540621047 0.5014526522 0.0017200417 0.5016419875 0.001781206 -0.217198856 0.0487204614
40299760.0 -0.2045362651 0.0570612514 0.5064005106 -0.0020169654 0.5065377264 -0.0019044924 -0.2129675477 0.0522772394
45299730.0 -0.1994278431 0.0599843208 0.5112038676 -0.0073251814 0.5110570471 -0.0068940347 -0.207872304 0.0544359569
50299700.0 -0.1942831576 0.0618986279 0.5147775046 -0.0129755703 0.51511754 -0.0127564249 -0.203401495 0.0566301409
55299670.0 -0.1905371977 0.0637346202 0.5181310972 -0.0186754715 0.5188785794 -0.018536024 -0.2000248503 0.0581654086
60299640.0 -0.1864603691 0.0648981553 0.5219217946 -0.0249959529 0.5220319042 -0.0247725856 -0.1961086677 0.0597724285
65299610.0 -0.1830526893 0.0662278168 0.5247751866 -0.0305122978 0.5250493 -0.0310866996 -0.1926790617 0.06058523
70299580.0 -0.1796213346 0.0672545733 0.5274064046 -0.0378670434 0.5271975627 -0.0377624312 -0.1898383761 0.0618688542
75299550.0 -0.1764692466 0.0682909272 0.5291725859 -0.0444210996 0.5294654948 -0.0448104668 -0.1868744407 0.0629446721
80299520.0 -0.1739807726 0.0689985455 0.5313895373 -0.0513764051 0.531386359 -0.0516579871 -0.1846901552 0.0629165641
85299490.0 -0.1714733902 0.0694605246 0.5323086161 -0.0586669317 0.5324185158 -0.0584815071 -0.1826720531 0.0638084345
90299460.0 -0.1691409835 0.0701331473 0.5335774113 -0.0647209856 0.5337555234 -0.0651945505 -0.1800758603 0.0644938647
95299430.0 -0.1671438578 0.0711178551 0.5342149248 -0.0722581405 0.5344411312 -0.0721208399 -0.1784423249 0.0649619769
100299400.0 -0.1653223155 0.0718352983 0.5345163511 -0.0791420741 0.5345795548 -0.079170842 -0.1769777737 0.0654954044
105299370.0 -0.1634362502 0.0725236796 0.5349417976 -0.0856840052 0.5351473454 -0.0861549276 -0.1748316177 0.0665051102
110299340.0 -0.1619795223 0.072932852 0.5348803035 -0.0928165273 0.5352307718 -0.0930284569 -0.1736641373 0.0670169648
115299310.0 -0.1600820104 0.0736594979 0.5346066856 -0.0994990321 0.5353590938 -0.0996245196 -0.1723094167 0.0669915406
120299280.0 -0.1590476321 0.0745546931 0.5350809419 -0.1064538463 0.5352181688 -0.1065355128 -0.1713705726 0.0680970787
125299250.0 -0.1579000104 0.0752376766 0.5343362152 -0.1127632478 0.5350426112 -0.1130584813 -0.1699737024 0.0684065464
130299220.0 -0.1564410597 0.0759003911 0.5338030719 -0.1193529299 0.5340043773 -0.1198467939 -0.1687179571 0.0694796591
135299190.0 -0.1552238352 0.0768749557 0.53326527 -0.1262462656 0.5330178427 -0.126482533 -0.1679317258 0.0702207596
140299160.0 -0.1545979433 0.0783259523 0.5325842378 -0.1331294467 0.5327146914 -0.1333051377 -0.1669066642 0.0713009684
145299130.0 -0.1532031012 0.0789562309 0.5318812833 -0.1392068507 0.5313315829 -0.1392048447 -0.1662657019 0.0718602383
150299100.0 -0.151780815 0.0800319348 0.5301525344 -0.146615837 0.5305302303 -0.1457679896 -0.165285143 0.0725156177
155299070.0 -0.1512842447 0.0813806971 0.52895569 -0.1529088962 0.5290879056 -0.1530544285 -0.1645173406 0.0732212562
160299040.0 -0.1499999175 0.0820864724 0.5273277661 -0.1585263841 0.5280274984 -0.1592258917 -0.1635272216 0.0749341072
165299010.0 -0.149147118 0.083325955 0.52665199 -0.1656962029 0.5267918602 -0.1655613005 -0.1627578285 0.0756111357
170298980.0 -0.148476914 0.0843559445 0.5242837135 -0.1717986801 0.524970545 -0.171985821 -0.1618971172 0.0764270151
175298950.0 -0.1472711196 0.0855187591 0.5234873414 -0.1778643476 0.5233143505 -0.1782252709 -0.1608951808 0.077352178
180298920.0 -0.146170623 0.0868779082 0.5216299728 -0.1846816894 0.5215366682 -0.1840292364 -0.1602765494 0.0787477796
185298890.0 -0.1452102776 0.0878888924 0.5190984844 -0.1906145215 0.5196219013 -0.1905045467 -0.1596450338 0.0795897961
190298860.0 -0.1443115965 0.0890317214 0.5177108362 -0.1967575949 0.5180472219 -0.1968001573 -0.1585349398 0.0807275912
195298830.0 -0.1433256814 0.0902896102 0.5153445617 -0.2028574467 0.515834904 -0.2032009026 -0.1577968522 0.0818175486
200298800.0 -0.1426462249 0.0918241946 0.5138071726 -0.2083448127 0.5138258076 -0.2087312571 -0.1571714308 0.0831592248
205298770.0 -0.1416424117 0.0928626542 0.5117334966 -0.2147754783 0.5117472363 -0.2149992707 -0.1562445582 0.0839999727
210298740.0 -0.1409083336 0.0942564398 0.5095078961 -0.2212092886 0.5096764491 -0.2212104686 -0.1559641334 0.0853993435
215298710.0 -0.1397145002 0.0955462608 0.5070461146 -0.2268702539 0.5071000154 -0.2268132075 -0.1552211884 0.0868838679
220298680.0 -0.1385609863 0.0971089184 0.5044910252 -0.2329853637 0.5043912032 -0.2330238282 -0.1542034595 0.088194472
225298650.0 -0.1374612108 0.0984107761 0.5018623911 -0.2382408755 0.5018817043 -0.2386424458 -0.1536143539 0.089354569
230298620.0 -0.1370398934 0.099735593 0.4999382034 -0.2443412049 0.5000259381 -0.2444076409 -0.1524329078 0.0902956114
235298590.0 -0.1360171588 0.1010728839 0.4972149482 -0.249602867 0.4970546364 -0.2505789968 -0.1517541068 0.0916284668
240298560.0 -0.1351485042 0.1025045814 0.4945451128 -0.2553839291 0.4941465915 -0.2553314583 -0.1510647489 0.0933263902
245298530.0 -0.1334426269 0.1041172905 0.4907447949 -0.2615080429 0.4910699274 -0.2618112433 -0.1502640107 0.094620461
250298500.0 -0.1330231272 0.1050568639 0.4885740608 -0.2665358704 0.4887621319 -0.2667210569 -0.1489061575 0.0957914423
255298470.0 -0.132020282 0.1069529122 0.4854532635 -0.2728181845 0.485970623 -0.272812087 -0.1482360516 0.0967824725
260298440.0 -0.1307780995 0.1080834387 0.4827038849 -0.2777042106 0.483067837 -0.2784182916 -0.1470121623 0.0983499963
265298410.0 -0.1294423568 0.109750437 0.4797574625 -0.2840588983 0.4798168248 -0.2840258565 -0.1462873372 0.0994857903
270298380.0 -0.1280952382 0.1109900387 0.4766350998 -0.2893596309 0.4766858563 -0.2895728859 -0.1452895582 0.1010146295
275298350.0 -0.1272919582 0.112410878 0.4730946581 -0.2950463627 0.4738205134 -0.2949017174 -0.1444631786 0.1026574793
280298320.0 -0.1260491379 0.113899892 0.4703207912 -0.2998866272 0.4700535042 -0.3001817385 -0.1435941984 0.1038326111
285298290.0 -0.1249219389 0.1154889294 0.4669371456 -0.3053203695 0.466773493 -0.3054101745 -0.1427392794 0.1052427633
290298260.0 -0.1237813977 0.1168574549 0.4640249639 -0.3107274179 0.4637604129 -0.3105500214 -0.1410399728 0.1067089858
295298230.0 -0.122505964 0.1182142871 0.4605127428 -0.3158639934 0.4600417331 -0.3158782426 -0.1403366451 0.1081164338
300298200.0 -0.1210995849 0.1193241325 0.4573430547 -0.3211884314 0.4570480689 -0.3214741568 -0.1392001496 0.1094234748
305298170.0 -0.1194894426 0.1207934588 0.4535268378 -0.3266620896 0.4538047728 -0.326662388 -0.1380478535 0.1111453585
310298140.0 -0.1180436183 0.1217713404 0.4500885177 -0.3317744058 0.4501600934 -0.3318988942 -0.1370778451 0.1123827054
315298110.0 -0.1171351824 0.1231211245 0.4458313185 -0.3367160784 0.4465481347 -0.3368929541 -0.1357771045 0.1134619536
320298080.0 -0.1158072638 0.1245085827 0.4425040756 -0.3422427076 0.4428266156 -0.3419294658 -0.134692147 0.1144957303
325298050.0 -0.114598519 0.1256980566 0.439091403 -0.3472254136 0.4390906196 -0.3472663075 -0.1338167605 0.1159844829
330298020.0 -0.1133058241 0.1269526702 0.4344316075 -0.3520588966 0.4345063245 -0.3524772301 -0.1327522515 0.1170931205
335297990.0 -0.1122581017 0.1281285099 0.4305981267 -0.3567162331 0.4306741064 -0.3569273817 -0.1319579674 0.1182855563
340297960.0 -0.1113815431 0.1295868619 0.4265138162 -0.3615038542 0.4269543244 -0.3613953745 -0.1313914024 0.1201402687
345297930.0 -0.110115086 0.1310636106 0.4222953453 -0.365542643 0.4223325949 -0.366045551 -0.1298290683 0.1213315231
350297900.0 -0.1082916675 0.1325705219 0.4184237945 -0.3704580956 0.4186695113 -0.3710599997 -0.1290840002 0.1231395775
355297870.0 -0.1071417592 0.1336022453 0.4140813335 -0.3748639379 0.414174905 -0.375686888 -0.1280655479 0.1243329148
360297840.0 -0.1057925605 0.1351867513 0.4101240481 -0.3803916157 0.4100575795 -0.3799795568 -0.1266229517 0.1257533637
365297810.0 -0.104161328 0.1364859151 0.4056990266 -0.3847046927 0.4058332883 -0.3844825383 -0.1254836618 0.1273639651
370297780.0 -0.1024488404 0.1376526782 0.4016046987 -0.3889086165 0.4015657026 -0.3893238962 -0.1244216144 0.1286246597
375297750.0 -0.1013631392 0.1394204856 0.3979024776 -0.3934895456 0.3972098068 -0.3938417994 -0.1231143437 0.1302965753
380297720.0 -0.0997723003 0.1403201843 0.3930077115 -0.3974773105 0.3927727143 -0.3975754068 -0.1216487521 0.1316078309
385297690.0 -0.0978662036 0.1416211404 0.3883165974 -0.4016197942 0.3887406063 -0.4018513993 -0.1207242472 0.1331599577
390297660.0 -0.0968166885 0.1428876937 0.3835578178 -0.4066604025 0.3839043047 -0.4062463548 -0.1192610556 0.1342307041
395297630.0 -0.0950449216 0.1439907245 0.3794537747 -0.4103511446 0.3797360553 -0.4107051588 -0.1180925738 0.1357858368
400297600.0 -0.0933532347 0.1456319413 0.3750072837 -0.4147861433 0.3755606549 -0.4148077768 -0.1173173498 0.1370203837
405297570.0 -0.0919648877 0.1464746119 0.3711295715 -0.4187289165 0.3708013957 -0.4188403339 -0.1157768488 0.138570866
410297540.0 -0.0900564991 0.1475162727 0.3651343884 -0.4226487684 0.3655426456 -0.4227948385 -0.1144245568 0.1398269679
415297510.0 -0.0884347645 0.1490202701 0.3613418791 -0.4269257879 0.361488781 -0.4265922916 -0.1132304665 0.1414449171
420297480.0 -0.0868385613 0.1495948868 0.3562571897 -0.4309520178 0.3566219755 -0.4305453639 -0.1115310869 0.1420182294
425297450.0 -0.0847185641 0.1505675279 0.351552523 -0.4345151689 0.3519804923 -0.4345180514 -0.109973468 0.1438213035
430297420.0 -0.0834835156 0.1521875791 0.3472768379 -0.4388988375 0.3468813343 -0.4384880456 -0.109113039 0.145053507
435297390.0 -0.0816669117 0.1529707812 0.3420196708 -0.4417670537 0.3424593665 -0.4419436674 -0.1076676725 0.1466224037
440297360.0 -0.0797927415 0.1540726996 0.3368507534 -0.4458580161 0.3371112693 -0.445598065 -0.1064730049 0.1473204057
445297330.0 -0.0778153929 0.1550799985 0.331936041 -0.4498912115 0.3322739275 -0.4494282556 -0.105093294 0.1487240498
450297300.0 -0.0763483608 0.156059512 0.3274468404 -0.4528903866 0.3276746151 -0.4527932859 -0.1036029524 0.1498171865
455297270.0 -0.074984005 0.1571434685 0.3224914675 -0.4568259451 0.3229763751 -0.4565159001 -0.1022636808 0.1512949403
460297240.0 -0.0732209927 0.1581207807 0.3174240604 -0.4596977257 0.317319321 -0.4601226498 -0.1006332634 0.1526489038
465297210.0 -0.0711285815 0.1586973361 0.3126109271 -0.4634228834 0.3130503209 -0.4634518462 -0.099429086 0.1532074006
470297180.0 -0.0696072507 0.1598011286 0.3072242075 -0.46655167 0.3076902899 -0.4668426904 -0.0984883153 0.1545464502
475297150.0 -0.06757196 0.160573553 0.3018029844 -0.4698855158 0.3025837919 -0.4695042055 -0.0965538001 0.1555658975
480297120.0 -0.0657922116 0.1613297404 0.2971870796 -0.4731618789 0.2976912225 -0.4728643354 -0.0952184041 0.1574391463
485297090.0 -0.0639235216 0.1621083746 0.2919491059 -0.4764196453 0.2919370617 -0.4764537178 -0.0937079453 0.1580523734
490297060.0 -0.0622105607 0.1630898142 0.2867561647 -0.4796920644 0.2869214159 -0.4793345521 -0.0921438423 0.1593158266
495297030.0 -0.0605449909 0.1642305973 0.2815886441 -0.4825945652 0.2810902702 -0.482352789 -0.0905224594 0.1601838363
500297000.0 -0.0585699592 0.1645392704 0.2763555004 -0.4857657699 0.2766074731 -0.4857372286 -0.0893776935 0.1614084266
505296970.0 -0.0571491395 0.1655851926 0.2706533051 -0.4880490617 0.2705556238 -0.4885257069 -0.0881103931 0.1623885082
510296940.0 -0.0549008272 0.1662321067 0.2651288825 -0.491417347 0.2659697065 -0.4918148777 -0.0859940163 0.1636140767
515296910.0 -0.0533707255 0.1672095229 0.2599350656 -0.4944190199 0.2605782265 -0.4940573278 -0.0848206625 0.1642899872
520296880.0 -0.0513463556 0.1678121613 0.2551076522 -0.4965884794 0.2550906488 -0.4971424769 -0.0831367408 0.1654612624
525296850.0 -0.04931648 0.1682814456 0.249221992 -0.4995187864 0.2496412873 -0.4998797381 -0.0812640856 0.1666108366
530296820.0 -0.0474566174 0.1690402406 0.2440848971 -0.5018043104 0.2437870582 -0.5023921915 -0.0802879702 0.1670288772
535296790.0 -0.0455812367 0.1696325739 0.238254402 -0.5042573799 0.2389129651 -0.5048807337 -0.0787082665 0.1678731966
540296760.0 -0.0436434124 0.1699721114 0.2327442564 -0.5074757144 0.2329823867 -0.5074511903 -0.0770444777 0.16919628
545296730.0 -0.0419574975 0.1711512865 0.2273838488 -0.5096396747 0.2274888849 -0.5101977295 -0.0755568761 0.169782595
550296700.0 -0.0402607212 0.1713909413 0.2219470517 -0.5122134099 0.2226496887 -0.5124087765 -0.0740869984 0.1712438627
555296670.0 -0.0379856212 0.1719909857 0.2164577802 -0.5144128461 0.2163319698 -0.5147513719 -0.0725339406 0.1721330766
560296640.0 -0.0363015087 0.1725192275 0.2108729337 -0.5167321836 0.2113292832 -0.5166324641 -0.0706298217 0.1728936715
565296610.0 -0.0345907426 0.1732152017 0.2050207227 -0.5193982947 0.2049078758 -0.51929358 -0.0694876961 0.1736123802
570296580.0 -0.0322992429 0.173694008 0.1994864748 -0.5213403388 0.1999232448 -0.5217588972 -0.0673162754 0.1750446085
575296550.0 -0.0301207172 0.1744099642 0.1934725535 -0.523292046 0.1943846187 -0.5234405171 -0.0655406179 0.1753645984
580296520.0 -0.0283728022 0.1746371295 0.1880610748 -0.5253753773 0.1882605235 -0.5257787777 -0.0639769976 0.1759491442
585296490.0 -0.0264623682 0.1749348616 0.1828527427 -0.5273165461 0.1824313869 -0.5273368102 -0.0623910885 0.1764399586
590296460.0 -0.0249433591 0.1755272674 0.1766431996 -0.5290655439 0.1766690207 -0.5296264924 -0.0607713882 0.1774381816
595296430.0 -0.0226636203 0.1758490275 0.1711759488 -0.5309453545 0.1709076322 -0.5315658555 -0.0590631985 0.1781780216
600296400.0 -0.020680791 0.1764398915 0.1654456316 -0.5330356989 0.1658137339 -0.5331727895 -0.057402205 0.1793774649
605296370.0 -0.0185550651 0.1770998584 0.1597939131 -0.5350260702 0.1594852287 -0.5348110505 -0.0556232057 0.1794535913
610296340.0 -0.0169105868 0.1770987763 0.1543826238 -0.5366523324 0.1542398055 -0.5365777077 -0.0539888856 0.1807525849
615296310.0 -0.0148897538 0.1774170286 0.1479156488 -0.5379007775 0.1476240237 -0.538595091 -0.0519633971 0.1814908585
620296280.0 -0.0128930607 0.177644337 0.1422841658 -0.5394699979 0.1426402103 -0.5397304652 -0.050910856 0.1817589147
625296250.0 -0.0109402647 0.1779594657 0.1362445011 -0.5412175 0.1361404918 -0.5415430467 -0.0487746183 0.1824825331
630296220.0 -0.0086937215 0.1783081989 0.1299479753 -0.5424480216 0.1305650307 -0.5425596117 -0.047198251 0.1831358264
635296190.0 -0.0068377072 0.178510824 0.1244680653 -0.5433248479 0.1244480879 -0.5431144818 -0.0455765287 0.183567172
640296160.0 -0.0049306295 0.1787191506 0.1187728383 -0.5451131949 0.1188806729 -0.5451387244 -0.0434237814 0.1844576043
645296130.0 -0.0031002495 0.1792999241 0.1126358644 -0.546357048 0.1128262401 -0.5464821652 -0.0424115116 0.1843709906
650296100.0 -0.0010986646 0.1796181747 0.1072596179 -0.5471800763 0.1074575326 -0.5473227557 -0.0402215429 0.185253604
655296070.0 0.0008818216 0.1792195168 0.1015664136 -0.5486324009 0.1009763663 -0.5482505101 -0.0381757604 0.185779569
660296040.0 0.0028282905 0.1796546715 0.0954288753 -0.5492421225 0.0951795569 -0.5496635607 -0.036986734 0.1864950714
665296010.0 0.005082277 0.1794457773 0.0894380096 -0.550145955 0.0897674471 -0.5502109293 -0.0351551576 0.1868963134
670295980.0 0.007400081 0.1800051749 0.0832490562 -0.5513473908 0.0835061614 -0.5509040969 -0.0335169984 0.1873103081
675295950.0 0.0091725856 0.1798639387 0.0769466917 -0.5524014058 0.0778068671 -0.5527454068 -0.0313008806 0.1880904206
680295920.0 0.0110626074 0.1801365722 0.0714949155 -0.553051574 0.0713216884 -0.5528907369 -0.0296314264 0.1879194858
685295890.0 0.0129257852 0.180006153 0.0655399244 -0.5539784454 0.0653941232 -0.5539917341 -0.0278882512 0.1886613907
690295860.0 0.0154414329 0.1799590354 0.0594315267 -0.5536842178 0.0591225839 -0.5541916113 -0.0256082052 0.1893984131
695295830.0 0.0175052855 0.1798272007 0.0528279112 -0.5547457887 0.0530246486 -0.5549917349 -0.0242602014 0.1895004463
700295800.0 0.0194008761 0.1797742761 0.0474750009 -0.5555506462 0.047598132 -0.555532592 -0.022437761 0.1895935016
705295770.0 0.0214316021 0.1796321081 0.0413979711 -0.5555393422 0.0417805057 -0.5557324248 -0.0208838677 0.1902513007
710295740.0 0.0235369353 0.1800526117 0.0352155351 -0.5562314658 0.0356799709 -0.5564676664 -0.0196931345 0.190804912
715295710.0 0.025140783 0.1798911388 0.0293774014 -0.5566915872 0.0297739775 -0.5567183581 -0.0170205205 0.190800984
720295680.0 0.0271176902 0.1792776112 0.0232927421 -0.5566017395 0.0233322534 -0.5571551227 -0.0150136044 0.1914004846
725295650.0 0.0297330883 0.1794810143 0.0168398424 -0.5570022363 0.0173520296 -0.5570480292 -0.0130929589 0.1914176461
730295620.0 0.0311573208 0.1792303542 0.0111334413 -0.5569812152 0.0115777682 -0.5571087678 -0.0113625219 0.1913911137
735295590.0 0.0337591906 0.1788669634 0.0056475268 -0.5572763076 0.0057899624 -0.557433606 -0.0096767423 0.1921547592
740295560.0 0.0355021317 0.1790430803 -0.0008169663 -0.5567373594 -0.0003823231 -0.5568534511 -0.0073900096 0.1920611969
745295530.0 0.037336062 0.1780909547 -0.0066989685 -0.5568612158 -0.0060958814 -0.5575612671 -0.0062273374 0.1924887045
750295500.0 0.0392752724 0.1779561364 -0.0124934265 -0.5565005709 -0.0124065578 -0.5568685345 -0.003858974 0.1926443607
755295470.0 0.0417555683 0.1780043683 -0.0186236934 -0.5566855451 -0.0181274063 -0.5571675116 -0.0025342694 0.1932802599
760295440.0 0.0434945715 0.1779121629 -0.0247886663 -0.5563054647 -0.0245455765 -0.5566791899 -0.00086986 0.192899161
765295410.0 0.0453120711 0.1768458213 -0.030105976 -0.5556492232 -0.0301542399 -0.5562233704 0.0020120637 0.1935313348
770295380.0 0.0475592486 0.1771005923 -0.0363078869 -0.5552322968 -0.0364868261 -0.5562143056 0.003874589 0.193603337
775295350.0 0.0494696871 0.1766090471 -0.0424920216 -0.5548436632 -0.0423474098 -0.5549864687 0.00488737 0.1929813975
780295320.0 0.0515246247 0.1758986519 -0.0480771401 -0.5545977744 -0.0479121204 -0.5550304597 0.0071809316 0.1938925167
785295290.0 0.0534305822 0.1762122802 -0.0541018245 -0.5537339165 -0.0542165544 -0.5547106996 0.0085464906 0.193932924
790295260.0 0.0555161348 0.1751470802 -0.06022985 -0.553368708 -0.0601181654 -0.5537088911 0.0109632175 0.1936208938
795295230.0 0.0572895329 0.1752222171 -0.0659430952 -0.5524244637 -0.0660215759 -0.5530236573 0.0126386421 0.1941948193
800295200.0 0.0595639169 0.1747322298 -0.0726150976 -0.5522417909 -0.0723068379 -0.5521627528 0.014485742 0.1938070249
805295170.0 0.0612564698 0.1741214293 -0.0781106731 -0.5511655753 -0.0780863455 -0.550991434 0.0161294473 0.1936552281
810295140.0 0.0633019277 0.1735458738 -0.0836176956 -0.5504089436 -0.08362361 -0.5504352141 0.0181002711 0.1941853511
815295110.0 0.0650906989 0.1729230976 -0.0901681338 -0.5488990351 -0.090074627 -0.5492989417 0.0197488517 0.1937294746
820295080.0 0.0669861577 0.1719966413 -0.095560884 -0.5481044649 -0.0959592006 -0.5485634777 0.0214940463 0.1937871808
825295050.0 0.0690479844 0.171687178 -0.1014844082 -0.5467276624 -0.101400143 -0.5474608897 0.0239510814 0.1938611902
830295020.0 0.0710461501 0.1713902187 -0.1074861942 -0.5457533026 -0.1081389748 -0.546233176 0.0255303603 0.1933980941
