!Created with skrf (http://scikit-rf.org).
# Hz S RI R 50.0 
!freq ReS11 ImS11 ReS21 ImS21 ReS12 ImS12 ReS22 ImS22
300000.0 -0.2373915771 -0.1030240167 0.4686395229 0.0668715503 0.4719790244 0.0697453886 -0.238228604 -0.1066390168
5299970.0 -0.2408508635 0.0073596557 0.4748334334 0.0049398264 0.4750660317 0.0053550168 -0.2447363468 0.0059290009
10299940.0 -0.2371943874 0.020256329 0.4769514388 0.0063500034 0.4769997675 0.0063469539 -0.2417959277 0.0172774604
15299910.0 -0.232593283 0.0298851388 0.4804885659 0.0074099116 0.480519144 0.0076279027 -0.2372986455 0.0264719822
20299880.0 -0.2274237813 0.0378938369 0.4852050022 0.0080381463 0.4854252643 0.0079540672 -0.2326755869 0.0341665487
25299850.0 -0.2216944201 0.0443418152 0.4904858219 0.0067325711 0.4905919358 0.0071071 -0.2278171309 0.0399143423
30299820.0 -0.2158115175 0.0496729719 0.4960463701 0.0051157028 0.4959401425 0.0046296387 -0.2226309118 0.045132837
35299790.0 -0.2101487603 0.0540260612 0.5012820151 0.0018420609 0.5012121097 0.0015308296 -0.2171770589 0.0486572231
40299760.0 -0.2045420343 0.0569197859 0.5063400367 -0.0019601583 0.5061031082 -0.0022135703 -0.2126247189 0.051980732
45299730.0 -0.1994048593 0.0600723075 0.5110386833 -0.0070135037 0.5110742517 -0.0069420434 -0.20780962 0.0542726369
50299700.0 -0.1945844821 0.0620404703 0.5147979264 -0.0127288385 0.5151353866 -0.012876867 -0.2033145486 0.0563979443
55299670.0 -0.1904167924 0.0638428506 0.5185316494 -0.0188431217 0.5186822138 -0.0187736085 -0.1999481042 0.0578282958
60299640.0 -0.1863374992 0.0648745661 0.5214248322 -0.0249757603 0.5221500322 -0.0249062102 -0.1961957815 0.0598778112
65299610.0 -0.1829875543 0.0662811856 0.5249210486 -0.0310006619 0.5250280495 -0.0312936 -0.1927678798 0.0606224341
70299580.0 -0.1794840374 0.0669035797 0.5272859938 -0.0374204097 0.527303714 -0.0376882344 -0.1900389824 0.0616442965
75299550.0 -0.1765237617 0.0679992661 0.5292574112 -0.0444479418 0.5288954948 -0.0447900006 -0.1871159379 0.0625047208
80299520.0 -0.1740719769 0.0691553785 0.5313492619 -0.0518184784 0.5313891622 -0.051553834 -0.1847804931 0.0629219793
85299490.0 -0.1715263544 0.0692945528 0.532638968 -0.0583301776 0.5324442436 -0.0584686499 -0.182571042 0.0637279518
90299460.0 -0.1693866662 0.0703147707 0.5332930622 -0.065154305 0.5336969287 -0.0653424536 -0.1800943105 0.0644338952
95299430.0 -0.1669290158 0.070820616 0.5343592486 -0.0725765828 0.5342332846 -0.0723011174 -0.1783020802 0.0651872456
100299400.0 -0.1654093895 0.07187098 0.5345468716 -0.0791550338 0.5348237394 -0.0792498106 -0.1769942936 0.0658066381
105299370.0 -0.163256836 0.0724222609 0.5347749562 -0.0857632924 0.5350893661 -0.0861294089 -0.1749035901 0.0663277873
110299340.0 -0.1619618389 0.0732359756 0.5349575633 -0.0927880447 0.5348465024 -0.092982142 -0.1736453685 0.0669189482
115299310.0 -0.1603205116 0.0731474445 0.5346183202 -0.0992789734 0.5351941981 -0.0992548793 -0.17214881 0.0672728818
120299280.0 -0.1591434739 0.0743846824 0.5347757644 -0.106820129 0.5347623229 -0.1069349652 -0.171154585 0.0682341189
125299250.0 -0.1577602066 0.0750702967 0.5346693625 -0.1127259558 0.5348084385 -0.1131571406 -0.1699853868 0.0684208961
130299220.0 -0.1566591067 0.0760439985 0.5339336117 -0.1197186959 0.5339262028 -0.1199426695 -0.168612281 0.0695064221
135299190.0 -0.1551371707 0.0764905259 0.533000934 -0.1258888605 0.5326293454 -0.126589538 -0.1677908175 0.0701784055
140299160.0 -0.1541146523 0.0782796465 0.5322955164 -0.1332637989 0.5324472179 -0.1332662047 -0.1665029792 0.0710243001
145299130.0 -0.1528243123 0.0788423889 0.5318467855 -0.140029206 0.5315868682 -0.139220627 -0.1662865844 0.0717855267
150299100.0 -0.1518197808 0.0798421019 0.5303190295 -0.1463651198 0.5303425748 -0.1458937068 -0.1653481153 0.0724588312
155299070.0 -0.1512005603 0.0813190409 0.5291976475 -0.1530605892 0.5290919794 -0.1530865909 -0.1643979131 0.073637706
160299040.0 -0.1500084877 0.0820920203 0.5277090048 -0.1587692389 0.5277654384 -0.1593686156 -0.1635417613 0.0748358906
165299010.0 -0.1493194144 0.0832254296 0.5265206622 -0.1658107843 0.5266231096 -0.1656956242 -0.1630868981 0.0754374993
170298980.0 -0.1484986676 0.0842704667 0.5239308347 -0.1716546125 0.5245148918 -0.1718981732 -0.1617033229 0.0765249061
175298950.0 -0.1475101264 0.0856065557 0.5234190017 -0.1781687921 0.5231436796 -0.1782998453 -0.1611599826 0.07751409
180298920.0 -0.1462812728 0.0865970417 0.5213528176 -0.1845504572 0.5213143113 -0.1841315355 -0.1601198371 0.0788552895
185298890.0 -0.145164673 0.0878848036 0.5192312275 -0.1907960421 0.5196052252 -0.1905191416 -0.159836555 0.0797295908
190298860.0 -0.1446259141 0.0891826768 0.5176343573 -0.196777545 0.5178919209 -0.1969497409 -0.1586531446 0.0807727604
195298830.0 -0.1434468564 0.0902141514 0.5154785618 -0.2029075188 0.5154927486 -0.2033636961 -0.1579322845 0.0820005804
200298800.0 -0.1424227941 0.0917994723 0.5135038078 -0.2083493838 0.5135316564 -0.2089123453 -0.1570828959 0.083145428
205298770.0 -0.1416593961 0.0929265561 0.5117436917 -0.2149662163 0.5117547337 -0.2152191264 -0.1565120306 0.0839443908
210298740.0 -0.1409966201 0.0941307539 0.5092548916 -0.2212520078 0.5092749817 -0.2212388253 -0.1556176917 0.0856933749
215298710.0 -0.1398105218 0.0954964664 0.5073087104 -0.2269874223 0.5070104944 -0.2267832939 -0.1549179713 0.0866486207
220298680.0 -0.1387424069 0.0968852546 0.5044113726 -0.2330094443 0.5043730764 -0.232967779 -0.1541520815 0.0881962868
225298650.0 -0.1376548659 0.098473755 0.5020689072 -0.2385414945 0.5018470501 -0.2383074541 -0.153550535 0.0893725316
230298620.0 -0.1368619847 0.0997916511 0.4997936077 -0.2447029466 0.4999949375 -0.2444012017 -0.1527507259 0.0904870106
235298590.0 -0.1358594416 0.1011290198 0.496713389 -0.2503120986 0.4968875373 -0.2502855438 -0.1518799677 0.0915431328
240298560.0 -0.1351781684 0.1020144266 0.4942410617 -0.2555074771 0.4941345781 -0.255809224 -0.151068989 0.0932065842
245298530.0 -0.1335793614 0.1040283042 0.4907079426 -0.2617304461 0.4912500394 -0.2617802345 -0.1501152984 0.0944288648
250298500.0 -0.1330831911 0.1050891296 0.4884530575 -0.2666831254 0.4886699677 -0.2668762187 -0.1489764411 0.0957149476
255298470.0 -0.1318650292 0.106752881 0.4853999667 -0.2726112616 0.4855482939 -0.2728777491 -0.1484567743 0.0966733405
260298440.0 -0.1309772897 0.1082203554 0.482853075 -0.2781239705 0.4827807615 -0.278360014 -0.1471885426 0.0982571964
265298410.0 -0.1295018134 0.1095488645 0.4796233215 -0.2841949696 0.4793913541 -0.2836609073 -0.1466060515 0.0996267666
270298380.0 -0.1282583693 0.1108610051 0.4760855968 -0.2893838384 0.4768177778 -0.28914355 -0.1456430383 0.1010246074
275298350.0 -0.127568322 0.1125303961 0.4733803524 -0.2953144103 0.4736037904 -0.2949609169 -0.1447875151 0.1024415003
280298320.0 -0.1261805878 0.1137034899 0.4699510891 -0.2995557608 0.4697633029 -0.300301891 -0.1434647174 0.1039517759
285298290.0 -0.1249106428 0.1155809663 0.4669367659 -0.3056558055 0.4668021973 -0.3055511833 -0.142770263 0.1053018224
290298260.0 -0.1238405316 0.1166698898 0.4635972552 -0.3106347234 0.4637559253 -0.3110186322 -0.1413315614 0.1068022568
295298230.0 -0.122486421 0.1181804999 0.4606101744 -0.3161442585 0.4599062748 -0.3162336852 -0.1403145049 0.1079994096
300298200.0 -0.1208964293 0.1194208992 0.4563843597 -0.3212766028 0.4570485302 -0.3214685371 -0.1395271155 0.1095020447
305298170.0 -0.1198320917 0.1206092539 0.4534860773 -0.3266324138 0.4535294239 -0.3266456241 -0.138215814 0.1106983079
310298140.0 -0.118156663 0.1217484824 0.4501012411 -0.3319848932 0.4500205437 -0.3323486458 -0.1370441481 0.1122798281
315298110.0 -0.1172199966 0.1231074378 0.4462737168 -0.3368581512 0.4461158127 -0.3369286558 -0.1359257796 0.1131599204
320298080.0 -0.1159334504 0.1245401724 0.442362974 -0.3420570827 0.4423939871 -0.3420635905 -0.1351005988 0.1142496408
325298050.0 -0.1149875371 0.1252257532 0.4389736465 -0.3472667837 0.4388827219 -0.3474476809 -0.1338118729 0.1156621769
330298020.0 -0.1134859788 0.1269510787 0.4341974861 -0.3523728415 0.4344968723 -0.3523723878 -0.1332048829 0.116726487
335297990.0 -0.1120991977 0.1282494111 0.4304036487 -0.3572288954 0.4307394089 -0.3571373807 -0.1323626004 0.1185122889
340297960.0 -0.1116263094 0.1297351748 0.4262632972 -0.3620378658 0.4264046837 -0.3617440762 -0.1311891651 0.1194906508
345297930.0 -0.1102188487 0.1310511483 0.4225621017 -0.3661660193 0.4220173605 -0.3663124357 -0.1298574972 0.1209425399
350297900.0 -0.1084023328 0.1322025972 0.4179293351 -0.3705478066 0.4185640497 -0.3711263943 -0.1287488291 0.1228588355
355297870.0 -0.1071437429 0.1335954179 0.4137844272 -0.3755810925 0.4142931392 -0.375929037 -0.1279703908 0.124334955
360297840.0 -0.1056098327 0.1348712018 0.4095227569 -0.3800769368 0.4095496979 -0.3802625393 -0.1266420013 0.1254033748
365297810.0 -0.104097361 0.1360696818 0.4053841568 -0.3847907999 0.4057369582 -0.3847110268 -0.1256471798 0.1270968533
370297780.0 -0.1025911119 0.1374258713 0.4011095974 -0.3888574726 0.4013398814 -0.3891960239 -0.1242135869 0.1282966608
375297750.0 -0.1014982681 0.1391554665 0.3976374278 -0.3937566445 0.3968492567 -0.3935944618 -0.1229824524 0.1298381642
380297720.0 -0.0994360597 0.140018487 0.3927183781 -0.3976849177 0.3926023497 -0.3979861426 -0.1214391787 0.131513023
385297690.0 -0.0980871668 0.1416230343 0.3879826895 -0.4016512543 0.388244411 -0.4020673022 -0.1203531287 0.1327329572
390297660.0 -0.0966706558 0.1426484614 0.3836619592 -0.406798804 0.3839462514 -0.4065979206 -0.1192482914 0.133815595
395297630.0 -0.0947994452 0.1438149889 0.37963859 -0.4102958424 0.3793382919 -0.4107848609 -0.1180877215 0.1355339254
400297600.0 -0.0935686588 0.1454399629 0.374958138 -0.414740217 0.3753785649 -0.4153140218 -0.1173368031 0.1368777129
405297570.0 -0.0918717166 0.1463888857 0.3704174081 -0.4191118698 0.3703367273 -0.4191479703 -0.1155783794 0.1385343663
410297540.0 -0.0900594057 0.1476562936 0.3652516205 -0.42264541 0.365979243 -0.4229350596 -0.114512677 0.13941082
415297510.0 -0.0886289451 0.1490330455 0.3611416265 -0.4266258241 0.3611380972 -0.4270306391 -0.1130285481 0.1412550587
420297480.0 -0.086785928 0.1497952912 0.3561222433 -0.4311677714 0.356582714 -0.4309260067 -0.1114932082 0.1420837445
425297450.0 -0.0849529962 0.1506543776 0.3513614236 -0.4346043819 0.3517771533 -0.4346123927 -0.1101047537 0.1436351496
430297420.0 -0.0837489136 0.1520749986 0.3469514532 -0.4388459092 0.3466710441 -0.438465695 -0.1088927326 0.1445388695
435297390.0 -0.0817276557 0.153026367 0.3420300715 -0.4423251186 0.3418358064 -0.4418543802 -0.1074379321 0.1463274678
440297360.0 -0.0800514427 0.1538320851 0.3366021343 -0.4457300067 0.3368103487 -0.4458300241 -0.1061821144 0.1467285614
445297330.0 -0.0782306148 0.1550192793 0.3318063138 -0.4496090055 0.3318386938 -0.4495768952 -0.1046080064 0.1487609075
450297300.0 -0.076532482 0.1559868249 0.3275465013 -0.4531687709 0.3269642267 -0.453585239 -0.103295562 0.1499444682
455297270.0 -0.074862084 0.1571462422 0.3225503538 -0.4567920043 0.3223975377 -0.456801058 -0.1017399331 0.1511082644
460297240.0 -0.0734513191 0.1576307216 0.317119931 -0.45961723 0.3170859807 -0.4602393355 -0.1004528958 0.152677725
465297210.0 -0.0710423962 0.1586969527 0.3122894618 -0.4634531709 0.3125465527 -0.4636978328 -0.0993024579 0.1532230875
470297180.0 -0.069608911 0.1597031643 0.3069644151 -0.4665833493 0.307098124 -0.4670082538 -0.0982782804 0.1546851677
475297150.0 -0.0678719602 0.1605272649 0.3019674173 -0.4699959954 0.3019520411 -0.4699615736 -0.0962098936 0.1558883773
480297120.0 -0.0656156257 0.1611639211 0.2969691338 -0.4730803188 0.2969922875 -0.4732841823 -0.0947410619 0.1572034619
485297090.0 -0.0640564676 0.1621772072 0.2917474066 -0.4765471068 0.2916576134 -0.4765651667 -0.0936287697 0.1578542086
490297060.0 -0.0620645204 0.1630040094 0.2864983654 -0.4796477003 0.2865665353 -0.479846742 -0.0915735739 0.159287425
495297030.0 -0.0607184603 0.1638568491 0.2810062886 -0.4828925808 0.281113114 -0.4830988763 -0.0903373959 0.1600676379
500297000.0 -0.0584528631 0.1642509025 0.2757483299 -0.4855426654 0.2758594312 -0.4856717872 -0.0891151524 0.1611175266
505296970.0 -0.0569297463 0.1653253291 0.270449625 -0.4884928155 0.2703566381 -0.4885482235 -0.0877229293 0.1624174224
510296940.0 -0.0549402684 0.1664506064 0.2651981518 -0.491710393 0.2650412688 -0.4917019761 -0.0857324377 0.1637356717
515296910.0 -0.0533970655 0.1670541082 0.2598248367 -0.4940068795 0.2596040776 -0.4944092263 -0.084686539 0.1645107351
520296880.0 -0.0510029904 0.1679080638 0.2542539329 -0.4975197024 0.2546954484 -0.4969458352 -0.0826687131 0.1656401454
525296850.0 -0.0495571185 0.1681424534 0.2488628845 -0.4997502938 0.2491915092 -0.5003722117 -0.0812959216 0.16667596
530296820.0 -0.0475214867 0.1689450387 0.2434085151 -0.5018479557 0.2436791476 -0.5024144134 -0.0799397798 0.1672620102
535296790.0 -0.0455895209 0.1697282755 0.2382272855 -0.5049591984 0.2380641569 -0.5046994894 -0.0785083859 0.1679621925
540296760.0 -0.0438076145 0.1698850747 0.2330968711 -0.5077654742 0.2322190772 -0.5079333372 -0.0769242987 0.169116562
545296730.0 -0.0419199369 0.1707927708 0.2273431754 -0.5094783892 0.2271702746 -0.510217422 -0.0753516678 0.1701760122
550296700.0 -0.0400201289 0.1715038009 0.2213953464 -0.5126919447 0.2219083917 -0.5126085586 -0.0739613422 0.1712841821
555296670.0 -0.0379988505 0.1719206351 0.2163074786 -0.5145803503 0.2162338385 -0.5148329163 -0.0721055952 0.1722348968
560296640.0 -0.0361329074 0.1726012865 0.2101828825 -0.5169701717 0.2104605836 -0.5165345521 -0.0706025501 0.1730139213
565296610.0 -0.0345913499 0.1729825023 0.2044124729 -0.5193391598 0.204605888 -0.5190462535 -0.0692154951 0.173574089
570296580.0 -0.0321050803 0.1733947124 0.1986392965 -0.5210775475 0.1997516454 -0.5215970905 -0.0670546297 0.1752261976
575296550.0 -0.0302888074 0.1744405247 0.1932884867 -0.5233571538 0.1937223719 -0.5234845448 -0.0652813245 0.1754223042
580296520.0 -0.0286014567 0.1744806068 0.1879452008 -0.5256994247 0.1878585535 -0.525515634 -0.0639778922 0.1762325338
585296490.0 -0.0263097091 0.1746224339 0.1823342639 -0.5276163367 0.1822383181 -0.5277192533 -0.0624070528 0.1766376891
590296460.0 -0.0249801146 0.1751545801 0.1762078006 -0.5294156164 0.1762852125 -0.529817777 -0.0604730345 0.1777507552
595296430.0 -0.0228606878 0.1758421531 0.1707394824 -0.5314434303 0.1707585245 -0.5315735996 -0.0590655831 0.1781817933
600296400.0 -0.020775938 0.176233615 0.1649727505 -0.5330577076 0.1653976843 -0.5332047283 -0.0573308824 0.1792892816
605296370.0 -0.0186733183 0.1769243321 0.1590094262 -0.5348550914 0.1592681675 -0.5344608068 -0.0555135675 0.179804821
610296340.0 -0.0168577592 0.1771970469 0.1535995453 -0.5365948485 0.1535325711 -0.5366664509 -0.0541494031 0.1807074568
615296310.0 -0.014867136 0.1775618357 0.1475223929 -0.5382205321 0.1474151847 -0.538225668 -0.0520963002 0.1810938383
620296280.0 -0.0128408083 0.1775550805 0.141535442 -0.5394713741 0.1418697322 -0.5395791815 -0.0505975845 0.1815814044
625296250.0 -0.0106658782 0.1779436208 0.1354408639 -0.5413076405 0.1357624818 -0.5413096808 -0.0487428558 0.1824927544
630296220.0 -0.0087962686 0.1782049911 0.129795084 -0.5429292373 0.1305522897 -0.5426314837 -0.0473024027 0.1831962012
635296190.0 -0.0070549715 0.1787449512 0.1240901121 -0.5434682823 0.1241020286 -0.5433462518 -0.0453540896 0.1836139916
640296160.0 -0.0050569589 0.1782865305 0.1187494092 -0.5447036235 0.1183230517 -0.5450260485 -0.0433325006 0.184189867
645296130.0 -0.0032822529 0.1789773069 0.1119010558 -0.5464858047 0.1121095398 -0.5460481532 -0.0423614431 0.1841865003
650296100.0 -0.0010941753 0.1793689883 0.1064611939 -0.5470442387 0.1067728772 -0.5473626103 -0.0405270301 0.1852062575
655296070.0 0.0007281443 0.1789407178 0.1009548802 -0.5484353403 0.1003360189 -0.5481925823 -0.0380095336 0.185973521
660296040.0 0.0027269009 0.1795878982 0.0946948542 -0.549240879 0.0949812356 -0.5492080291 -0.036806674 0.1861891959
665296010.0 0.0050674807 0.1796332764 0.088802741 -0.5502514673 0.0891394965 -0.5505444242 -0.0349105559 0.1868403539
670295980.0 0.0072073748 0.1795260508 0.0829329237 -0.5508571389 0.083385271 -0.5512788387 -0.0336302032 0.1872776911
675295950.0 0.0092727032 0.1795698831 0.0768136763 -0.5519503902 0.0769961655 -0.5525328694 -0.0313135989 0.1877807138
680295920.0 0.0108523979 0.180060734 0.0705150337 -0.5526596603 0.0707723545 -0.5531341618 -0.0294495107 0.1879718858
685295890.0 0.0129054428 0.179929895 0.0653161695 -0.5536377345 0.064667507 -0.5540961086 -0.0276307852 0.1886835547
690295860.0 0.0152139894 0.1797450455 0.0591169383 -0.5537231356 0.0583972874 -0.5541570939 -0.0255774531 0.1889749236
695295830.0 0.0173301052 0.1796650166 0.0522939608 -0.5546773218 0.0524568987 -0.5549642334 -0.0243335558 0.1895497141
700295800.0 0.0193863286 0.1798035643 0.0468366519 -0.5552579465 0.0467357596 -0.5559345561 -0.0226763483 0.1895222463
705295770.0 0.0211619189 0.1797820231 0.0410967596 -0.5558194535 0.0410418293 -0.5559332299 -0.0205619207 0.1899584044
710295740.0 0.0234633071 0.1799497616 0.0349950757 -0.5560604058 0.0348331134 -0.5561116915 -0.0194373495 0.1906276605
715295710.0 0.0253343015 0.1796847726 0.0286472149 -0.5566365474 0.0289796236 -0.5566970337 -0.017155827 0.1903939248
720295680.0 0.0273864434 0.1792733947 0.0229036361 -0.5564481991 0.0230996332 -0.5569049911 -0.0150662094 0.1913019278
725295650.0 0.029434974 0.1790864039 0.016736471 -0.5564470576 0.0171200519 -0.5568327145 -0.0131389392 0.1914437751
730295620.0 0.0310495618 0.1791700572 0.0109974491 -0.5568648886 0.0107806476 -0.5571232827 -0.0111393782 0.1909821783
735295590.0 0.0338189408 0.1787888642 0.0050402337 -0.5571448859 0.005342801 -0.5571288885 -0.0094842927 0.1915328808
740295560.0 0.0353010203 0.1788913644 -0.0010629325 -0.5567401294 -0.0013929476 -0.5567578058 -0.0073030324 0.1915774826
745295530.0 0.0373009043 0.1783750736 -0.0070688996 -0.5570281163 -0.0069583154 -0.5572252408 -0.0058671516 0.1923792703
750295500.0 0.0395756556 0.1781401284 -0.012956206 -0.5564399979 -0.0132137447 -0.5566379756 -0.004019762 0.1921131367
755295470.0 0.0419173522 0.1782357152 -0.0188983871 -0.5568174538 -0.0187208539 -0.5569490971 -0.0023686945 0.1923948244
760295440.0 0.0433843477 0.1775452828 -0.0251555959 -0.5563850489 -0.0250280949 -0.5563158511 -0.0006825478 0.1924963915
765295410.0 0.0452172574 0.1769870284 -0.0308284026 -0.5557649282 -0.0305729693 -0.5563854585 0.0021541296 0.1929829371
770295380.0 0.047455768 0.1770763995 -0.0366815766 -0.5553955324 -0.0371607238 -0.5558015904 0.0039109411 0.1930057872
775295350.0 0.0493248224 0.1767361524 -0.0431651616 -0.5550714288 -0.0430108461 -0.554917402 0.005323979 0.1924740564
780295320.0 0.0515354373 0.1760660439 -0.0485075303 -0.5546487321 -0.0484662629 -0.5548182307 0.0072352747 0.1930998311
785295290.0 0.0535634767 0.1758236986 -0.054717598 -0.5534160309 -0.055046516 -0.5538803905 0.0086408098 0.1931066568
790295260.0 0.0550767173 0.1756467733 -0.0605941624 -0.553310972 -0.0605810819 -0.5538237331 0.0113833493 0.1934774913
795295230.0 0.0572989463 0.1750862596 -0.0668483426 -0.552207929 -0.0663403478 -0.5528477238 0.0128947207 0.1938375725
800295200.0 0.059526898 0.1746279336 -0.0732003061 -0.5519984193 -0.0732313556 -0.5522633692 0.0148938556 0.1933038888
805295170.0 0.0611411212 0.1738854477 -0.0782871907 -0.5508855012 -0.0786983079 -0.550705233 0.0164633988 0.19320812
810295140.0 0.0635536461 0.1735042185 -0.0846119909 -0.5501799084 -0.0845736571 -0.5507665373 0.0183797865 0.1938832781
815295110.0 0.0652683476 0.1730486903 -0.0904692399 -0.5488438887 -0.0909369521 -0.5491659169 0.0200524673 0.1932929255
820295080.0 0.0670678688 0.1717853986 -0.0961285184 -0.5477706458 -0.0963262038 -0.5482338574 0.0220742531 0.1931815159
825295050.0 0.0691723267 0.1717015319 -0.1019459442 -0.5462967109 -0.1022021056 -0.547535903 0.0243991244 0.193499561
830295020.0 0.0709264193 0.1712506785 -0.1081184386 -0.5457881579 -0.1086914388 -0.5462703649 0.0259333374 0.1931179411
