!Created with skrf (http://scikit-rf.org).
# Hz S RI R 50.0 
!freq ReS11 ImS11 ReS21 ImS21 ReS12 ImS12 ReS22 ImS22
300000.0 -0.7709788885 -0.1739289089 0.0026957729 -0.0019498417 0.0002747013 -0.0004000665 -0.7633607465 -0.1949847482
5299970.0 -0.7857662343 -0.0093520201 -0.0002660716 0.000281643 0.0001809405 3.52003e-05 -0.7841108215 -0.0101644584
10299940.0 -0.78959952 -0.0059694094 -3.90905e-05 5.24482e-05 0.0002136974 0.0001232179 -0.7871432427 -0.0054077788
15299910.0 -0.7939647944 -0.0032400542 -0.0001120978 -0.0001108852 -8.75249e-05 -8.00802e-05 -0.7924732328 -0.0026690044
20299880.0 -0.8011740915 0.0007818439 -0.0001690355 0.0001476856 -5.31633e-05 9.27847e-05 -0.7993745353 0.0017782363
25299850.0 -0.8077532529 0.0072722575 -5.06656e-05 2.80365e-05 0.0002209869 -3.42986e-05 -0.8058003896 0.0076895086
30299820.0 -0.8141226946 0.0133367986 7.0155e-06 -0.0002409198 0.0001211817 5.45402e-05 -0.8115787884 0.0156416398
35299790.0 -0.8188613356 0.0231204194 5.31665e-05 0.0001723135 6.02502e-05 -0.0001935116 -0.8164978557 0.0245659029
40299760.0 -0.8237938092 0.0319602262 0.0001183966 0.0001162821 2.32909e-05 1.08046e-05 -0.8205599364 0.0340836486
45299730.0 -0.8269800736 0.0420974244 -6.95876e-05 2.79243e-05 -8.2113e-05 -2.43546e-05 -0.8239635034 0.0434789191
50299700.0 -0.8293207315 0.0515488781 9.46602e-05 -0.0001156217 -4.7217e-06 6.8411e-05 -0.8261949368 0.0535387937
55299670.0 -0.831604581 0.0615608109 4.29635e-05 -0.0002162014 -4.54213e-05 0.0001242574 -0.8283546352 0.0638698578
60299640.0 -0.8323187021 0.0717087742 -3.6589e-05 -0.0001111434 3.4327e-05 -2.32948e-05 -0.8292361311 0.0739873896
65299610.0 -0.8336051025 0.0818491183 -8.07413e-05 -2.19777e-05 -0.0001595871 3.51883e-05 -0.8299827987 0.0838235357
70299580.0 -0.8334526041 0.0916577889 -0.0001090633 0.0001361769 -2.8248e-05 0.0001078799 -0.8303929842 0.0933971286
75299550.0 -0.8339880295 0.1014632271 -0.0001484929 -0.0001944988 -3.76116e-05 -0.0001657931 -0.8303047558 0.1042138595
80299520.0 -0.8346734766 0.1122378177 -5.04616e-05 6.76151e-05 0.0001803849 0.0002230284 -0.8302419475 0.1141848423
85299490.0 -0.8329622146 0.1207015392 -0.0002018261 -9.02534e-05 0.0001565596 0.0001865665 -0.8298492932 0.1233866829
90299460.0 -0.832233139 0.131333476 0.0001180207 5.79684e-05 0.0001398458 -2.31478e-05 -0.8283697957 0.1330095185
95299430.0 -0.8320055198 0.1406939201 0.0001765289 -8.80215e-05 0.0001531328 -0.0003218323 -0.8279459471 0.1427844706
100299400.0 -0.8303948408 0.1502905566 0.0001609047 -0.0001119986 3.11427e-05 -7.99825e-05 -0.82695508 0.1514847139
105299370.0 -0.8292467279 0.1593252551 0.000180025 0.0001505462 -1.81109e-05 -5.9225e-06 -0.8253699806 0.1607748944
110299340.0 -0.8277323467 0.168329432 -0.0001336456 8.86358e-05 0.0001281756 -0.0002384638 -0.8240120603 0.1697225081
115299310.0 -0.8265874084 0.1774540698 -8.3004e-06 -0.0002247682 -0.0001091103 0.0001628361 -0.822842339 0.1792197056
120299280.0 -0.824372778 0.1871008856 -1.47024e-05 8.90265e-05 -0.0001118316 -0.0001279237 -0.8209909597 0.1877302389
125299250.0 -0.8224269732 0.1960922454 7.79254e-05 -9.61253e-05 8.3361e-05 0.0001038919 -0.8195896885 0.1968221679
130299220.0 -0.8209141019 0.2056921863 1.57489e-05 8.7346e-05 -0.0001303648 9.8088e-06 -0.8172134596 0.2054565663
135299190.0 -0.8190234723 0.214533875 5.1315e-05 -0.0001551294 2.96385e-05 0.0001017852 -0.8157136912 0.2149236676
140299160.0 -0.8172685273 0.2236910711 -7.20844e-05 -1.94774e-05 8.05241e-05 2.50057e-05 -0.8134695713 0.223202741
145299130.0 -0.8150164867 0.2323471611 -1.23828e-05 1.0304e-06 -0.0001139254 5.87103e-05 -0.8115468207 0.2325740279
150299100.0 -0.8116173329 0.2413710419 -0.0001165501 7.89084e-05 -0.0001040094 -0.0001631841 -0.8090474591 0.2408480548
155299070.0 -0.8102910569 0.2505937977 -2.31446e-05 0.0001099559 -0.0001905036 -2.69021e-05 -0.8070191976 0.2507842017
160299040.0 -0.8078979395 0.259321524 5.75632e-05 -3.22382e-05 1.44821e-05 -0.0002233633 -0.8042965955 0.2591776056
165299010.0 -0.8042049688 0.2673832043 0.0001232133 6.38219e-05 -9.5462e-06 4.80083e-05 -0.801114437 0.2674706392
170298980.0 -0.8017672302 0.276111277 -0.0001291139 0.0001297779 -0.0002009073 -4.50545e-05 -0.7992858171 0.275989748
175298950.0 -0.7990838054 0.2842395404 0.0002068232 0.0001343489 -2.18703e-05 -0.0001088273 -0.7959762327 0.2844478866
180298920.0 -0.7964350597 0.2936865789 1.60983e-05 4.99023e-05 -6.01993e-05 -5.64396e-05 -0.793117536 0.2932834196
185298890.0 -0.792445228 0.3022507416 2.8807e-05 9.98901e-05 -0.0002229939 -5.05228e-05 -0.7901725953 0.3016872557
190298860.0 -0.7895158068 0.3113155931 0.0001135308 -8.95523e-05 0.0001614156 8.40314e-05 -0.7865592517 0.3101765338
195298830.0 -0.786788335 0.3193154846 3.66403e-05 1.4992e-06 0.0001465637 -0.0002616104 -0.7841288928 0.3181703643
200298800.0 -0.7826691896 0.3279499007 -0.0001356245 -9.03029e-05 -8.84926e-05 -2.54989e-05 -0.7806999091 0.3264541841
205298770.0 -0.7792757791 0.336824153 0.0003521643 -5.94263e-05 -0.0001102491 2.09965e-05 -0.7773726493 0.3351972214
210298740.0 -0.7761438989 0.3451439019 -0.0001298557 -0.0001735239 -5.144e-06 1.464e-06 -0.7736748878 0.3437054716
215298710.0 -0.7721559814 0.353806928 3.81726e-05 1.82663e-05 -8.4204e-06 1.89583e-05 -0.7701199714 0.3515454127
220298680.0 -0.7688267831 0.3608543775 -0.0002522125 2.57843e-05 -3.56068e-05 2.0467e-06 -0.7663108131 0.3596226963
225298650.0 -0.7652252256 0.3694932 8.19588e-05 -8.60359e-05 6.89669e-05 9.07011e-05 -0.7628416931 0.3676060911
230298620.0 -0.7610540748 0.3780585986 3.20507e-05 -7.61628e-05 0.0001565479 4.7891e-05 -0.7587877467 0.3754164673
235298590.0 -0.7571280417 0.3862351752 -4.73135e-05 -5.556e-05 -7.63221e-05 -7.68236e-05 -0.7548376695 0.3833953887
240298560.0 -0.7524896147 0.3940333172 0.0001477571 1.60995e-05 -0.000139974 7.26802e-05 -0.7505751273 0.3906618332
245298530.0 -0.7491437299 0.4018295155 5.13303e-05 4.88802e-05 0.0002091266 1.43804e-05 -0.7470949929 0.3990219301
250298500.0 -0.744420048 0.4095561971 -2.40974e-05 0.0001516899 -2.83063e-05 -8.72161e-05 -0.7429272505 0.4072213084
255298470.0 -0.7405461922 0.4179361421 -9.69659e-05 0.0001145082 -0.0001266551 -4.4421e-06 -0.7387970266 0.41448272
260298440.0 -0.7364812945 0.4251553175 -6.11395e-05 3.63206e-05 -0.0001087582 0.0002434891 -0.7336530455 0.4216194041
265298410.0 -0.7322635826 0.4328371207 -6.21397e-05 0.0001358732 0.0001330805 9.5047e-06 -0.7297225428 0.4302860271
270298380.0 -0.727021471 0.4401512652 0.0001808161 -0.0002753927 1.5836e-06 0.0001305838 -0.7248527217 0.4382800007
275298350.0 -0.7230147799 0.4481929346 -2.00698e-05 -1.93072e-05 -2.68849e-05 -6.75479e-05 -0.7203558735 0.4457244558
280298320.0 -0.7182415548 0.4556680289 0.0001813017 -2.9688e-06 -9.24257e-05 7.59295e-05 -0.7159657827 0.4528317021
285298290.0 -0.7131882615 0.4636244941 -2.73417e-05 -0.0002207671 -8.5058e-05 -9.75344e-05 -0.7117059208 0.4605195128
290298260.0 -0.7088602968 0.4709931977 0.0001027469 0.0001114451 8.85891e-05 0.0001626407 -0.7063990206 0.4676042287
295298230.0 -0.7038158424 0.4782673593 -0.0001846557 -8.95524e-05 -0.0001330716 -5.18146e-05 -0.7014662901 0.4749107802
300298200.0 -0.6996739166 0.4855861383 6.88246e-05 -0.0001067082 -8.192e-07 -0.0001367529 -0.6958067508 0.4826324626
305298170.0 -0.6948212057 0.4928584814 6.97324e-05 5.78272e-05 -0.0002324594 -7.5661e-06 -0.6907547994 0.4890899994
310298140.0 -0.6889099898 0.4997640669 2.43657e-05 0.0001201971 -2.33949e-05 5.78687e-05 -0.6859699167 0.4969984144
315298110.0 -0.6845788443 0.5071784632 3.91751e-05 -0.0001323802 1.51923e-05 -7.35051e-05 -0.6810970135 0.5038824002
320298080.0 -0.6787813834 0.5141627511 6.97852e-05 0.0002016769 -0.0001290954 1.22995e-05 -0.6760022471 0.5106209984
325298050.0 -0.6734906625 0.5213597085 -0.0001855854 -9.31858e-05 -0.0001632986 -9.4246e-06 -0.6696923108 0.5178513952
330298020.0 -0.6684376784 0.5279587461 5.72579e-05 0.0001336457 1.8255e-06 -1.34609e-05 -0.665175826 0.5247601348
335297990.0 -0.6629054151 0.5349161107 6.6544e-06 8.27265e-05 0.0001213329 8.12203e-05 -0.659284076 0.5317509401
340297960.0 -0.6577442309 0.5417085092 0.000205775 -0.000121081 -0.0001739203 0.0001209805 -0.6539907711 0.5386605059
345297930.0 -0.6516911999 0.5484114811 7.09108e-05 0.000143231 7.62473e-05 0.0002060947 -0.6486051353 0.5443539085
350297900.0 -0.6462624858 0.5551998001 3.59863e-05 6.06444e-05 -0.0001191691 9.77405e-05 -0.6428843084 0.5512463576
355297870.0 -0.6410550153 0.5616310957 -6.71877e-05 -8.12695e-05 7.18691e-05 0.0002425116 -0.6368575322 0.558858861
360297840.0 -0.6346936885 0.5679082263 -0.0002739514 -7.944e-07 -0.0001198648 -7.65964e-05 -0.6302310747 0.5648869807
365297810.0 -0.629626233 0.5747242698 0.0002402863 -9.77939e-05 -1.47703e-05 -0.0001728961 -0.6257142818 0.5708935129
370297780.0 -0.6233156693 0.5810974709 -0.0002223913 -5.48929e-05 -0.0001492548 -0.0001990654 -0.6194642292 0.5778181485
375297750.0 -0.6179737511 0.5871354462 -5.10227e-05 -6.32266e-05 1.72397e-05 -4.75249e-05 -0.6130903757 0.5840843525
380297720.0 -0.6116079884 0.5932931339 -0.0002055333 -5.52856e-05 -1.65481e-05 -9.60533e-05 -0.6068285211 0.5906515488
385297690.0 -0.6061474479 0.5998807162 -0.0001175874 -7.76836e-05 -0.000173194 -3.82278e-05 -0.6012804154 0.596601423
390297660.0 -0.5985060246 0.6055786442 1.01869e-05 0.0002319638 9.1521e-06 -6.72611e-05 -0.5943722435 0.6020764146
395297630.0 -0.5932383988 0.612051376 3.68452e-05 6.02667e-05 0.0001284415 5.87889e-05 -0.5878987068 0.6079361558
400297600.0 -0.5870271314 0.6181425871 0.0001777253 4.60514e-05 6.18715e-05 0.0002292423 -0.5826431791 0.6143876671
405297570.0 -0.5809625954 0.6234062837 0.0001347635 -0.0002606291 0.0002714438 0.0001914581 -0.5753664394 0.6202678139
410297540.0 -0.5740369936 0.6299681414 -1.94497e-05 -5.92932e-05 7.73021e-05 -5.16226e-05 -0.5694435857 0.6260494403
415297510.0 -0.5677541557 0.635887565 4.07181e-05 7.73216e-05 -0.0001158235 -8.03778e-05 -0.5625122734 0.6318110615
420297480.0 -0.5612789224 0.6408671515 2.15041e-05 2.5287e-05 -3.5973e-05 -0.0001618847 -0.5558181363 0.6382637951
425297450.0 -0.554814891 0.6466164398 -1.28304e-05 5.09951e-05 -2.90906e-05 7.13794e-05 -0.5494042601 0.6427703984
430297420.0 -0.5481325973 0.652355812 -9.26897e-05 -0.000101749 -0.0002967402 -4.52544e-05 -0.54304413 0.6485838043
435297390.0 -0.5413224957 0.6572895511 3.39641e-05 -3.82993e-05 9.17439e-05 0.0002598561 -0.5367537227 0.6544589652
440297360.0 -0.5343260653 0.6630972741 9.2569e-06 -8.43424e-05 -1.95265e-05 -0.0001976327 -0.530256705 0.6598235593
445297330.0 -0.5273741201 0.667974351 -0.0002252286 0.0001138376 9.6245e-05 4.40283e-05 -0.5226616071 0.6653666931
450297300.0 -0.5205426694 0.6738151183 8.37642e-05 -0.0002699638 -4.3297e-06 6.61154e-05 -0.5158821672 0.6699147727
455297270.0 -0.5136755817 0.6785740409 -4.98073e-05 0.0001412399 1.39748e-05 6.9044e-05 -0.5087541407 0.6748295451
460297240.0 -0.5061059214 0.684152333 5.13945e-05 0.0001246264 -5.11165e-05 -0.0001899206 -0.50271676 0.6801874031
465297210.0 -0.4994299197 0.6893827895 0.000103626 0.0001083151 0.0002048348 -6.5903e-05 -0.4954684509 0.6861736984
470297180.0 -0.4921788688 0.6941193705 9.14369e-05 -8.55364e-05 -9.18955e-05 0.0003524287 -0.4881767923 0.6905945053
475297150.0 -0.4851348089 0.6988481111 0.000130052 -5.0089e-05 5.2863e-05 -5.02215e-05 -0.4813219632 0.6954527285
480297120.0 -0.4771206783 0.7042048559 6.46961e-05 0.0001169524 -4.51193e-05 8.3284e-06 -0.4747806852 0.7005686989
485297090.0 -0.4699820499 0.7086529762 -6.59019e-05 -1.63704e-05 2.99784e-05 -1.03681e-05 -0.46704883 0.705068795
490297060.0 -0.4617133863 0.7139504555 -6.27123e-05 -3.36761e-05 -2.6691e-05 -5.03373e-05 -0.4598125516 0.7093597231
495297030.0 -0.4551496553 0.7180606004 5.91873e-05 -0.0001462892 -6.69284e-05 2.38324e-05 -0.452272742 0.7134950477
500297000.0 -0.4473792729 0.7222292633 0.0001021075 0.0002591072 -4.76971e-05 5.41707e-05 -0.4449290575 0.7187438271
505296970.0 -0.4397013911 0.7274536779 -3.53443e-05 7.8633e-06 8.40903e-05 4.8288e-05 -0.4376593529 0.7230652779
510296940.0 -0.4320170435 0.731759769 -0.0002476441 -0.0001750803 -0.0001670075 3.69678e-05 -0.4301312276 0.7278877721
515296910.0 -0.4243060175 0.7361037793 -1.88094e-05 1.40002e-05 -8.13861e-05 6.55517e-05 -0.4232305035 0.7314738858
520296880.0 -0.4162377437 0.7400282901 0.0002075669 -0.0001213066 3.2273e-05 2.97865e-05 -0.4150905077 0.7361341848
525296850.0 -0.4083375866 0.7441277797 -0.0002304247 -0.0001126787 -0.0002408902 0.0001048614 -0.4079877611 0.7399692768
530296820.0 -0.4010876221 0.7481757128 -7.11245e-05 0.0002355787 -5.19168e-05 -0.0001057048 -0.4003234526 0.7438542066
535296790.0 -0.3929664766 0.7520738119 -5.87635e-05 0.0001378716 -4.9942e-06 1.9723e-05 -0.3931659088 0.7482352256
540296760.0 -0.384997629 0.7559721415 7.0999e-05 -0.0001504855 -1.3491e-06 0.0002616048 -0.3850317641 0.7515380059
545296730.0 -0.3777507087 0.7606101754 -1.3776e-05 -6.78474e-05 1.97884e-05 -0.0001121161 -0.3775927493 0.7557844057
550296700.0 -0.3690503322 0.7639964337 8.63666e-05 -1.01978e-05 0.0001024404 -6.19e-06 -0.369653728 0.759338432
555296670.0 -0.3614978769 0.766949286 -7.388e-05 0.0001017591 -0.0001342061 8.29586e-05 -0.3624737381 0.7626267419
560296640.0 -0.3531578007 0.7702519107 -9.95132e-05 -0.0001219203 0.0001400596 2.2501e-05 -0.3543879089 0.7669265976
565296610.0 -0.3458152464 0.7737692202 0.0001971412 -0.0002131381 9.6258e-05 -0.0001120144 -0.346668155 0.7703317098
570296580.0 -0.3372093613 0.7787995097 0.0001677208 -0.0001643544 7.85691e-05 0.0001313359 -0.3391374027 0.7732403381
575296550.0 -0.3284321891 0.781342867 -5.4386e-05 7.24087e-05 4.15994e-05 0.000170197 -0.3306985893 0.7762269844
580296520.0 -0.3214183544 0.7843568675 3.76172e-05 -8.52685e-05 7.48257e-05 -3.99705e-05 -0.3235117383 0.7795443678
585296490.0 -0.3126017549 0.7875327713 0.0001870497 -5.3437e-06 6.08681e-05 -0.0001954484 -0.3151964695 0.7834385588
590296460.0 -0.3036150613 0.7904470793 -0.0002448615 -1.66462e-05 0.0001983423 6.29136e-05 -0.307705945 0.7857452044
595296430.0 -0.2958058863 0.793927896 7.29811e-05 1.14654e-05 -0.0002142868 4.87246e-05 -0.3000507494 0.7888988982
600296400.0 -0.2884391315 0.7969285304 0.0002256537 3.48605e-05 -5.3476e-05 5.56342e-05 -0.2916687224 0.792016586
605296370.0 -0.2795687851 0.8000552945 -4.23424e-05 7.56006e-05 -0.0001638504 -0.000168974 -0.283830681 0.7953764178
610296340.0 -0.2713293349 0.8030631037 4.11951e-05 3.49311e-05 0.0001236279 -6.02379e-05 -0.2760635076 0.7977599847
615296310.0 -0.2627268247 0.8055092097 1.57996e-05 -5.7056e-06 2.0715e-05 -2.61986e-05 -0.2672313502 0.8009498343
620296280.0 -0.25543819 0.8084366282 8.80089e-05 -3.441e-07 0.0001238423 1.25687e-05 -0.2601137322 0.8033138092
625296250.0 -0.2474300549 0.8103918452 5.80064e-05 4.34863e-05 6.80335e-05 4.54663e-05 -0.2516601333 0.8050546077
630296220.0 -0.2387885266 0.8131995835 2.38476e-05 -5.36807e-05 -0.0001337633 -0.0001479169 -0.2433858864 0.8081213306
635296190.0 -0.230739676 0.8160464158 -0.0001702921 0.0001168889 -0.0001196043 -9.4534e-06 -0.2357452616 0.8100938087
640296160.0 -0.2219622911 0.8181392392 0.0002063629 0.0001045956 3.5367e-06 -0.0001717788 -0.2274570278 0.8126516961
645296130.0 -0.21354675 0.8205860127 -2.96e-05 2.1894e-06 -0.0001954672 -1.51702e-05 -0.2193603654 0.8149184306
650296100.0 -0.2055902898 0.8221800934 7.67695e-05 4.60496e-05 -0.0001081314 -2.35319e-05 -0.2106397699 0.8168707693
655296070.0 -0.1977581131 0.8244059053 4.30665e-05 -0.00013563 -0.0002177675 3.01763e-05 -0.2032651509 0.8189891501
660296040.0 -0.1891598476 0.8260403657 0.0002878724 4.45256e-05 0.0001019575 -2.05565e-05 -0.1943966649 0.8210118925
665296010.0 -0.1807179044 0.8285370097 -0.0001013269 8.05654e-05 0.0001557255 6.71179e-05 -0.1859988703 0.8227403911
670295980.0 -0.1723559754 0.831146283 -4.1404e-06 0.0002461225 0.0001308518 -2.94528e-05 -0.1784937969 0.8246005846
675295950.0 -0.1644403289 0.8326725728 -6.89592e-05 -0.0001877661 -8.42952e-05 0.000191618 -0.1697484784 0.8264589277
680295920.0 -0.1567485769 0.8338974449 9.31e-06 0.0001410483 5.95617e-05 -1.16549e-05 -0.1610453139 0.8281691694
685295890.0 -0.1472892795 0.8360384272 7.34565e-05 0.0001608073 9.62139e-05 8.90412e-05 -0.1530126104 0.8299714398
690295860.0 -0.13914248 0.83696559 -0.0001489983 -1.74639e-05 1.78627e-05 9.20762e-05 -0.1453596422 0.8311016209
695295830.0 -0.1308001817 0.8388460874 8.03235e-05 0.0001714223 5.91291e-05 -0.0002475915 -0.1368392499 0.8328131055
700295800.0 -0.1224477818 0.8399657384 9.99779e-05 -5.08324e-05 -5.05097e-05 0.0001575896 -0.1286239121 0.8335839048
705295770.0 -0.1147641533 0.8421175265 0.000246228 -0.000138705 0.0001238551 -2.60558e-05 -0.1203217371 0.8353941768
710295740.0 -0.1072969074 0.8420997735 -5.42517e-05 -4.20176e-05 0.0002467378 -0.0001371827 -0.1113807512 0.836319444
715295710.0 -0.0971868605 0.8436980442 -6.30583e-05 1.1357e-06 -7.60603e-05 -0.0002426604 -0.1030327774 0.8364448944
720295680.0 -0.0895068578 0.8444837069 -8.6264e-05 5.46553e-05 -0.0001478118 -0.0003639174 -0.094671041 0.8375297517
725295650.0 -0.0812619424 0.8461658825 -8.54708e-05 1.83932e-05 7.1932e-06 4.2492e-05 -0.0868307516 0.8392421369
730295620.0 -0.0736671841 0.8467699298 9.95475e-05 -1.41257e-05 -0.0002035755 -0.0001505403 -0.0789498017 0.8400024352
735295590.0 -0.0652923267 0.8478690541 -1.08515e-05 0.0001035542 0.0002547158 8.9914e-06 -0.0697377673 0.8405841573
740295560.0 -0.0573033407 0.8480685991 -0.000116083 8.54108e-05 -6.93916e-05 3.04607e-05 -0.0614001924 0.8413577728
745295530.0 -0.0483176307 0.8495272124 -0.0001602249 -2.09701e-05 -9.61394e-05 5.4715e-05 -0.0535827335 0.8416065692
750295500.0 -0.0407083964 0.8494305004 0.0001197627 8.40816e-05 -6.86246e-05 5.12819e-05 -0.0444058001 0.8425237341
755295470.0 -0.0319469703 0.8503530204 7.67477e-05 -2.59379e-05 -0.0001111766 0.0001280298 -0.0369525406 0.8427889536
760295440.0 -0.0243118724 0.8510853956 -0.0001126794 0.0001670962 0.000120698 0.0001503388 -0.0279251153 0.8426060413
765295410.0 -0.0157780826 0.8509026048 1.31101e-05 -9.62574e-05 0.0002949696 0.0001499083 -0.0195105981 0.8433647371
770295380.0 -0.0084890823 0.8513987016 6.16146e-05 -2.92866e-05 0.0001610769 0.0001148695 -0.0117114898 0.8434098436
775295350.0 0.0003325474 0.8517423222 -9.51578e-05 -0.000135128 2.38123e-05 -0.0001346954 -0.0032273629 0.8432335305
780295320.0 0.0088959168 0.8513460919 0.0002468991 -2.87232e-05 -9.6444e-06 0.0001094773 0.0049859759 0.8434791941
785295290.0 0.0168912677 0.8512527255 0.0001041573 -4.07237e-05 6.30295e-05 0.0001654821 0.0136560853 0.843454025
790295260.0 0.02493052 0.851223541 9.25741e-05 -4.37162e-05 8.2777e-05 5.50554e-05 0.0218573101 0.843569163
795295230.0 0.0329816262 0.8511627908 0.000203342 -6.54462e-05 -4.28949e-05 -0.0001113798 0.0301584161 0.8428785975
800295200.0 0.0408000339 0.8510989264 -9.32127e-05 -5.23717e-05 4.95749e-05 3.85183e-05 0.0384222984 0.8421902228
805295170.0 0.049164849 0.8509840779 3.53471e-05 5.7304e-06 0.0001342249 -5.13247e-05 0.0472948298 0.841964649
810295140.0 0.0580406076 0.8508888082 -0.0001551296 -0.0002034374 -0.0001003714 -1.31904e-05 0.05539824 0.8411816025
815295110.0 0.0651766526 0.8496079257 -4.2437e-06 9.3263e-05 4.5426e-05 0.0002201156 0.063657766 0.8408121097
820295080.0 0.0736539342 0.8495358177 -7.35482e-05 0.0001909902 2.96348e-05 0.0001473294 0.071821521 0.8402094167
825295050.0 0.0820252975 0.8480952476 9.20346e-05 6.11735e-05 4.0095e-06 3.93799e-05 0.0803036118 0.839434323
830295020.0 0.090705829 0.8475395559 -5.71558e-05 9.85123e-05 3.50697e-05 -9.168e-06 0.0880511097 0.8382905787
835294990.0 0.0980500203 0.8465984391 1.7934e-06 0.0001083663 -0.0001984134 0.0001511722 0.0967677117 0.837994571
840294960.0 0.1069408869 0.8451506307 -0.0001927323 0.0001790892 -0.0002038913 5.32826e-05 0.1057824512 0.836449126
845294930.0 0.1145053049 0.8447430465 -0.0002251474 -2.52259e-05 -1.03294e-05 -7.96038e-05 0.1134356548 0.8353486686
850294900.0 0.1238487424 0.8430826614 3.41986e-05 -1.28725e-05 0.0001299142 -3.1568e-06 0.1214725145 0.834568412
