!Created with skrf (http://scikit-rf.org).
# Hz S RI R 50.0 
!freq ReS11 ImS11 ReS21 ImS21 ReS12 ImS12 ReS22 ImS22
300000.0 0.8609052317 -0.002283098 0.0005336116 0.000658999 -0.0002589659 7.57951e-05 -0.7696323821 -0.1709538693
5299970.0 0.8594344641 -0.0102181666 0.0002675432 2.16825e-05 5.58e-05 3.41579e-05 -0.7845944046 -0.0085261719
10299940.0 0.8590261254 -0.0196042536 3.8227e-05 -0.0002102636 -8.98559e-05 -5.88565e-05 -0.7883293573 -0.0051470562
15299910.0 0.8578061134 -0.0276530907 3.77282e-05 0.0001152379 -0.0002418811 -2.72997e-05 -0.7937909408 -0.0029255802
20299880.0 0.8570387991 -0.0359862679 -4.63393e-05 -0.000113908 0.0002059545 -3.55641e-05 -0.8004855699 0.0017231477
25299850.0 0.8565854511 -0.0439319587 -1.7236e-05 0.0002595865 0.00016761 -5.37836e-05 -0.8064835369 0.0073832779
30299820.0 0.8553709901 -0.0521785651 -6.72823e-05 -1.08458e-05 -0.0002277578 0.0001320557 -0.8123420442 0.0149799494
35299790.0 0.8547993928 -0.0602049256 0.0001322993 -4.75444e-05 -4.2341e-05 0.0001540072 -0.8179563319 0.0238525343
40299760.0 0.8539971973 -0.0683898187 4.1529e-06 4.78247e-05 0.0001499368 0.0002080211 -0.8218237666 0.0331404467
45299730.0 0.8534898634 -0.0764099167 -6.9269e-05 -0.0001588821 0.0001684685 0.0002760627 -0.8255809579 0.0427006117
50299700.0 0.8527223805 -0.0851344514 -7.45451e-05 -0.0001954123 7.34468e-05 4.16205e-05 -0.827926234 0.0525602739
55299670.0 0.8515803938 -0.0930151766 8.2074e-05 0.0001227407 5.08231e-05 0.0002351926 -0.8297103598 0.0632335358
60299640.0 0.8502398729 -0.1012500019 -5.44238e-05 6.36343e-05 6.2196e-05 -1.35511e-05 -0.8310395268 0.0729590496
65299610.0 0.8501937988 -0.1093019857 3.62941e-05 -3.52032e-05 4.69671e-05 -0.0001294572 -0.8314328943 0.0828281134
70299580.0 0.848859084 -0.1180253543 -3.54337e-05 0.0002239591 0.0002101648 -0.0001844789 -0.8318098342 0.0930474924
75299550.0 0.8475090635 -0.1265730958 0.000170213 4.00195e-05 5.90796e-05 -1.02441e-05 -0.8327038415 0.1025568642
80299520.0 0.8453707881 -0.134154981 2.66636e-05 2.8046e-05 -0.000134476 -8.55737e-05 -0.832005514 0.11267254
85299490.0 0.845202561 -0.1423191836 0.0001850475 -0.0001670469 6.66173e-05 6.67677e-05 -0.8321285075 0.1219371505
90299460.0 0.8431103525 -0.1504149965 0.000123655 -4.33434e-05 -7.34439e-05 -0.0001436715 -0.8307997118 0.1314914991
95299430.0 0.8416457516 -0.1590938581 -5.27482e-05 5.10819e-05 -1.75024e-05 -4.57552e-05 -0.8301260244 0.1409491221
100299400.0 0.8397975013 -0.1671678251 -0.0001524658 0.0002042044 -0.0001197822 7.68663e-05 -0.8285997261 0.1494954144
105299370.0 0.8379654094 -0.1753300741 -0.0001925369 -7.91673e-05 0.0002299782 -0.000153615 -0.8274381843 0.1593123884
110299340.0 0.836598086 -0.1831049784 4.32831e-05 -2.46077e-05 -0.0001877791 1.11417e-05 -0.8266726472 0.168178397
115299310.0 0.8342593613 -0.1921426712 -0.0001164406 0.0001049097 -4.57493e-05 -2.81115e-05 -0.8244271705 0.1772309885
120299280.0 0.832560699 -0.1993860689 -4.61e-06 -0.000216516 -5.7069e-05 3.09341e-05 -0.8232471628 0.1865614194
125299250.0 0.8305746277 -0.2080148001 -7.6302e-05 0.0001108907 -8.50667e-05 -0.0001397748 -0.8219113114 0.1954039984
130299220.0 0.8287127666 -0.2159576189 0.0001841287 2.0039e-06 0.0001198218 5.79591e-05 -0.8204034992 0.2045246974
135299190.0 0.8262240164 -0.2236244473 -0.0002758039 -8.7189e-06 -0.0001806516 0.0002207594 -0.8181364969 0.2127253399
140299160.0 0.8242599739 -0.231608794 -0.0001421337 0.0001220869 -6.3139e-06 0.0001666496 -0.8157902685 0.2220827046
145299130.0 0.821424379 -0.2396607729 0.0002267527 -0.0001210089 5.28553e-05 3.45217e-05 -0.8135682468 0.2299220513
150299100.0 0.8195967724 -0.247792617 -8.68077e-05 6.90843e-05 -8.01381e-05 4.34706e-05 -0.8116525531 0.2383159071
155299070.0 0.81654413 -0.2558681931 -0.0002570209 0.0001206675 -7.5246e-05 -0.0001190978 -0.8093790619 0.2473046786
160299040.0 0.8140034486 -0.2638099679 -8.33496e-05 1.59475e-05 -9.9452e-06 0.00022775 -0.8076300299 0.2567045616
165299010.0 0.8116366164 -0.2709559389 8.33009e-05 6.1378e-06 -0.0001699497 -3.67783e-05 -0.8037436505 0.2649967263
170298980.0 0.8092875855 -0.27915378 5.74119e-05 6.26298e-05 -7.56729e-05 9.90514e-05 -0.801773914 0.2730755284
175298950.0 0.8062715948 -0.2868022931 9.73231e-05 -2.32073e-05 0.0001789462 4.3109e-06 -0.7989527657 0.2820938846
180298920.0 0.8033559324 -0.2945495402 3.73369e-05 0.0001079665 5.5815e-06 3.82799e-05 -0.795584608 0.2902431186
185298890.0 0.8002006573 -0.3026214953 -5.952e-06 -1.32429e-05 -3.8476e-05 0.0001431344 -0.7926847787 0.2985814047
190298860.0 0.7976560997 -0.3109083585 0.0002552474 0.0001034663 5.5181e-06 9.96248e-05 -0.7896918976 0.3078545876
195298830.0 0.794550632 -0.318012176 0.0001068385 4.8676e-06 0.0002249689 1.75464e-05 -0.7868050707 0.3155199365
200298800.0 0.7910829244 -0.3264512962 0.0001569547 -7.38075e-05 -0.0001351874 -0.0001239443 -0.7833147261 0.3241175429
205298770.0 0.7884851906 -0.3341699673 6.63502e-05 -2.39982e-05 3.48028e-05 -3.91868e-05 -0.7799642719 0.3323406892
210298740.0 0.7855020361 -0.3410874892 7.94231e-05 -4.83285e-05 -9.89728e-05 6.48271e-05 -0.7767559853 0.3402517882
215298710.0 0.7811711175 -0.3487867981 -0.0001650323 0.0001423233 6.75263e-05 -1.86359e-05 -0.7732983957 0.3485044284
220298680.0 0.7785033249 -0.3567031477 -1.30247e-05 0.0001341211 -0.0002261637 4.42428e-05 -0.7695890238 0.3566155538
225298650.0 0.774103108 -0.3636901761 9.96072e-05 -0.0002306836 0.0001639608 9.8488e-05 -0.7662681658 0.3647782136
230298620.0 0.7710444035 -0.3722206207 0.0002166929 8.55583e-05 0.0001121764 -1.91109e-05 -0.7615258314 0.3725166534
235298590.0 0.767329691 -0.3793308145 0.0001954116 -0.0001066013 9.37514e-05 4.942e-05 -0.7577714256 0.3804599256
240298560.0 0.7637477379 -0.3872362925 9.49599e-05 6.51928e-05 0.0002079205 -1.57657e-05 -0.7542841455 0.3887692118
245298530.0 0.7597689514 -0.3933210932 -3.71051e-05 -4.5368e-06 -0.000117076 -7.60328e-05 -0.7502894026 0.3969494923
250298500.0 0.7560966327 -0.4010593917 5.58183e-05 9.3138e-06 7.72277e-05 -1.97247e-05 -0.7458584281 0.4048996437
255298470.0 0.7516864975 -0.4083389737 0.0001673741 9.80433e-05 -2.81472e-05 -4.06151e-05 -0.7411415619 0.4125443052
260298440.0 0.7474426816 -0.415396786 0.000150859 -2.02281e-05 -5.1121e-06 -0.000177561 -0.7366975149 0.4199422534
265298410.0 0.7436821392 -0.4227072261 -0.0001512942 -5.69474e-05 -3.8668e-06 -0.0001516748 -0.7325150863 0.4277632183
270298380.0 0.7400661794 -0.4298142729 -6.12415e-05 -0.0002437698 1.98333e-05 -6.2636e-06 -0.7274331543 0.4353945299
275298350.0 0.735921283 -0.4373849771 2.8462e-06 -4.65136e-05 -0.0001021077 9.8228e-05 -0.7229309971 0.4432699842
280298320.0 0.7320260992 -0.4441796848 0.0002247226 -2.68699e-05 0.0002041519 8.31584e-05 -0.7188278833 0.4500785293
285298290.0 0.7271439354 -0.451428848 -5.11924e-05 0.0001000322 -2.36553e-05 0.0002929014 -0.7134037881 0.4574935122
290298260.0 0.7232382972 -0.457916869 4.33393e-05 9.20416e-05 -7.18452e-05 -0.0001136836 -0.70881306 0.4657252498
295298230.0 0.7184811186 -0.4662245676 -5.76848e-05 6.95704e-05 -2.36907e-05 -5.73497e-05 -0.7037918302 0.4728794161
300298200.0 0.7147613008 -0.4734688268 0.0001870812 0.0001256743 -0.0001518488 -8.37494e-05 -0.6988500366 0.4803765876
305298170.0 0.7104838007 -0.4796485699 1.9715e-06 1.94556e-05 6.02705e-05 -0.0001011535 -0.693500826 0.4883279399
310298140.0 0.7058691089 -0.4882339531 6.65831e-05 -9.9e-09 -4.18358e-05 3.50842e-05 -0.6888713051 0.4954690958
315298110.0 0.7003710838 -0.4960374497 6.90927e-05 0.000229031 0.0001220585 5.8537e-06 -0.6831227063 0.5022427231
320298080.0 0.6946651199 -0.5027748656 -9.78718e-05 -6.9985e-06 0.0001566432 -7.74967e-05 -0.6776213424 0.509290422
325298050.0 0.6897595422 -0.510099107 0.0002882255 0.0001530322 1.17988e-05 6.94034e-05 -0.672355285 0.516364757
330298020.0 0.6841981326 -0.5166101725 -0.0002818854 -5.08547e-05 -0.000129962 -9.89134e-05 -0.6666326379 0.5237040964
335297990.0 0.6781957279 -0.5227238178 0.0001583622 0.0001189565 9.71121e-05 -0.0001636739 -0.6610983983 0.5296272811
340297960.0 0.6727122317 -0.529039522 -0.0001166951 0.0001356265 -0.0001245666 -5.77869e-05 -0.6553340571 0.5371092216
345297930.0 0.6666604737 -0.5354080671 0.0001059694 0.0002335358 -9.6025e-06 0.000181131 -0.6497529263 0.5435161925
350297900.0 0.6612634261 -0.5422514355 2.29472e-05 -9.45915e-05 -0.0001133964 0.0001307012 -0.6437828851 0.550909573
355297870.0 0.656016773 -0.5484348317 -4.60117e-05 -7.73089e-05 -9.32343e-05 0.0001739707 -0.6380078265 0.5575162421
360297840.0 0.6504925028 -0.5546113197 7.5576e-05 0.0001131584 3.59783e-05 -9.59334e-05 -0.632510014 0.5642686333
365297810.0 0.6454640844 -0.5604638216 -0.0001258512 2.98627e-05 -0.0002714988 3.4694e-05 -0.6260466205 0.5704567832
370297780.0 0.639749758 -0.5663620101 7.26053e-05 -8.26314e-05 4.19837e-05 -1.68195e-05 -0.620568731 0.5759855749
375297750.0 0.6335032352 -0.5725708665 -1.9207e-06 0.0001994216 5.19013e-05 -0.0001829517 -0.6141662876 0.5831455029
380297720.0 0.6291810474 -0.5785836809 -0.0001197566 -0.0001535057 -0.0001014641 0.0001385143 -0.6081044233 0.590321905
385297690.0 0.6223710255 -0.5845045055 -9.53584e-05 2.37525e-05 -0.0001877105 0.0002532154 -0.6019378608 0.5959867558
390297660.0 0.617193924 -0.590396343 0.0001504945 8.83968e-05 -3.69803e-05 -8.94429e-05 -0.5953372864 0.6012050247
395297630.0 0.611267396 -0.596354611 5.24602e-05 -0.0002644641 -1.11846e-05 1.1828e-05 -0.5891230664 0.6080426122
400297600.0 0.6044354186 -0.6019152204 2.83973e-05 -0.0001190735 -3.51088e-05 1.00398e-05 -0.5830941321 0.6136058104
405297570.0 0.5991703602 -0.608063506 -7.35818e-05 -4.53439e-05 -0.0001618364 7.61413e-05 -0.5773430289 0.6203974329
410297540.0 0.5931766629 -0.6137803853 -6.5759e-05 -6.4055e-05 -1.88852e-05 -0.0001056859 -0.5697695032 0.62576019
415297510.0 0.5872763551 -0.6192957764 -4.81441e-05 -1.83821e-05 5.1354e-05 0.0001430988 -0.5640569491 0.6317477325
420297480.0 0.5807188477 -0.6251507828 -5.47482e-05 -8.59548e-05 -0.0001563288 -5.26213e-05 -0.5574360856 0.6366636377
425297450.0 0.5748675969 -0.630675742 -4.75443e-05 -2.34973e-05 -8.45922e-05 -6.05022e-05 -0.5504187241 0.6436126188
430297420.0 0.5676148054 -0.6357533364 -0.0001593358 -2.05139e-05 -2.09691e-05 -7.73551e-05 -0.5439567523 0.6489002254
435297390.0 0.5623162212 -0.6419561155 5.47119e-05 -4.79444e-05 9.6449e-05 0.0001642898 -0.5372553437 0.6537912417
440297360.0 0.5556408973 -0.6474677228 -6.78604e-05 2.22031e-05 1.99105e-05 -4.45919e-05 -0.5302833285 0.6589688174
445297330.0 0.5491324476 -0.6523983756 0.0001755635 4.15365e-05 -6.59823e-05 -2.26691e-05 -0.5235509582 0.6644985405
450297300.0 0.5432906922 -0.6579294213 -0.0001539591 -0.0002749061 -4.86174e-05 9.50831e-05 -0.5173017454 0.6698418981
455297270.0 0.5362373961 -0.6624449164 -7.41025e-05 8.96667e-05 -6.19608e-05 -3.03118e-05 -0.5099539203 0.6746429801
460297240.0 0.5296674197 -0.6675733574 -8.454e-06 -7.40925e-05 0.0002298917 2.61159e-05 -0.5027144279 0.6804314121
465297210.0 0.5235597803 -0.6728729463 -4.03592e-05 -2.03667e-05 -4.79132e-05 5.37236e-05 -0.4958174572 0.6849530721
470297180.0 0.5164237964 -0.6779378109 0.0001777944 -0.0002053595 8.10798e-05 -9.52287e-05 -0.4891630118 0.6897231411
475297150.0 0.5096767649 -0.6826599498 -0.0002842706 1.05554e-05 -0.0001195107 -0.0001163155 -0.4819762892 0.6947360268
480297120.0 0.503751637 -0.6878833531 -5.55876e-05 -0.0001861965 -7.18776e-05 9.31297e-05 -0.4753405797 0.7003460789
485297090.0 0.4960934719 -0.6925416096 -0.0001652637 -0.0001006653 -6.26996e-05 0.0001599585 -0.4675422685 0.7040580922
490297060.0 0.4899719677 -0.6972592621 0.0001018097 -3.29028e-05 7.60328e-05 -4.07197e-05 -0.4609905279 0.7085861925
495297030.0 0.4822914947 -0.7023363248 1.49932e-05 -5.00219e-05 -7.15503e-05 0.0001041179 -0.453274376 0.7127848438
500297000.0 0.4760878688 -0.7064440209 0.0001029202 9.16689e-05 2.55805e-05 -0.0001356838 -0.4465511791 0.7176619229
505296970.0 0.4681890379 -0.7113556846 7.11369e-05 -7.195e-07 0.0001186646 -0.0001771163 -0.4396693632 0.7221315412
510296940.0 0.4614002489 -0.7154617189 -0.0001275537 0.0001834085 4.40655e-05 9.60858e-05 -0.4318758173 0.7268445458
515296910.0 0.4542299019 -0.7202561888 -2.052e-06 -0.0001596664 2.26125e-05 2.13216e-05 -0.4246800566 0.7310399355
520296880.0 0.4472583492 -0.7242845423 -1.01345e-05 0.0001290895 2.59507e-05 -3.25509e-05 -0.4170034683 0.7347242516
525296850.0 0.440622201 -0.7288945192 -7.3753e-06 0.0001250383 -3.00918e-05 -0.0001290336 -0.4098400616 0.7391821034
530296820.0 0.432643227 -0.7332430403 0.0001316447 0.0002233848 0.0001493599 7.62736e-05 -0.4029167274 0.743011048
535296790.0 0.4258977821 -0.73674792 2.04609e-05 -0.0002022089 -1.27408e-05 0.0001425181 -0.3951598665 0.7463045799
540296760.0 0.4189512274 -0.7415130258 -3.31119e-05 0.0002720895 -6.21666e-05 8.3554e-05 -0.3877775212 0.7506369863
545296730.0 0.4110121395 -0.7444982658 0.0001354347 7.08371e-05 -8.98492e-05 1.87555e-05 -0.3808178627 0.7543448957
550296700.0 0.403829126 -0.7491109391 0.0001628993 6.75867e-05 -0.0001140349 2.81233e-05 -0.3728390337 0.7582814814
555296670.0 0.3962218475 -0.7531596197 -5.55412e-05 5.43637e-05 -0.0003270946 -0.000170599 -0.3652262768 0.761658303
560296640.0 0.3894425991 -0.7569169225 -5.68573e-05 -4.1573e-06 0.0002084103 0.0001470972 -0.3574169959 0.7653222956
565296610.0 0.3813380186 -0.7604267082 2.12337e-05 -0.0001651435 -9.15883e-05 7.23064e-05 -0.3501548068 0.7688892792
570296580.0 0.3745237434 -0.7643405573 -5.1532e-05 0.000114193 5.70505e-05 -7.61967e-05 -0.342929172 0.7725642891
575296550.0 0.3668080948 -0.7672440128 -0.0001341589 5.29198e-05 -5.1407e-05 9.11988e-05 -0.3344577439 0.7758893046
580296520.0 0.3596094056 -0.7701766241 0.0002028248 0.000162453 5.716e-06 -0.0001125308 -0.3269049095 0.7790825432
585296490.0 0.3510115038 -0.7735917986 -2.86255e-05 0.0001772381 -0.0001147033 0.0001718517 -0.319388796 0.7816324204
590296460.0 0.343403148 -0.7777170334 -0.0002492413 9.99124e-05 -2.99453e-05 0.0001688455 -0.3111470609 0.7847593961
595296430.0 0.3359193641 -0.7807747229 -4.50638e-05 -0.0001655606 -0.0001461104 0.0001448294 -0.3040007248 0.7873333196
600296400.0 0.3279125923 -0.7835593272 -0.0001384352 -0.0001903352 0.0002068169 1.17295e-05 -0.2959159979 0.7916307793
605296370.0 0.3208789817 -0.7867765873 -0.0001163501 5.8973e-06 -0.0001587691 -5.924e-05 -0.2881089528 0.7942625574
610296340.0 0.3128063538 -0.7905940763 7.40243e-05 1.55417e-05 8.10371e-05 -5.06496e-05 -0.2800578301 0.7970662885
615296310.0 0.3045836651 -0.7927170622 -0.0001245974 -3.8828e-06 4.63996e-05 -8.30173e-05 -0.2724532718 0.7998016209
620296280.0 0.2969910818 -0.7958576681 -8.07531e-05 -0.0001704432 -1.08284e-05 0.0001135312 -0.2644293085 0.801844529
625296250.0 0.2896194186 -0.7988321385 -3.36928e-05 8.20298e-05 -4.99825e-05 -4.35424e-05 -0.2565214811 0.804550792
630296220.0 0.2811403359 -0.8017421561 -8.6535e-05 7.21292e-05 -1.7064e-06 3.70802e-05 -0.2483168054 0.8072856174
635296190.0 0.2735807532 -0.8041943663 -0.0004002209 0.0001715418 -7.39637e-05 -5.96337e-05 -0.2406628206 0.8096326793
640296160.0 0.2655414212 -0.8061749804 7.08856e-05 -0.000195672 0.000170859 3.4214e-06 -0.2321796165 0.8111612644
645296130.0 0.2574997278 -0.8089044013 -0.0001970094 -3.09858e-05 0.0001121795 -0.0002614861 -0.2245268266 0.8138454277
650296100.0 0.2493264064 -0.8105752298 2.46193e-05 3.38899e-05 0.0001262853 0.0001391276 -0.2163479213 0.8166553883
655296070.0 0.2415224931 -0.8134910839 -4.42634e-05 -1.21917e-05 -0.0002015907 8.66398e-05 -0.2082888763 0.8178874015
660296040.0 0.2327180873 -0.8155295504 -4.5596e-05 -2.15316e-05 -8.563e-06 -4.48186e-05 -0.1998227998 0.820081372
665296010.0 0.2252041978 -0.8175504868 -0.000152836 0.0001478912 3.94952e-05 2.40381e-05 -0.1922758734 0.8228534141
670295980.0 0.2178919664 -0.8203993747 8.18331e-05 -4.07823e-05 0.0001256793 5.8552e-06 -0.1849958876 0.824134913
675295950.0 0.2094956881 -0.8219432573 -0.0001548549 8.33118e-05 -0.0002026402 -1.4939e-05 -0.17616221 0.8261678425
680295920.0 0.2004743756 -0.823574834 7.00293e-05 7.86391e-05 0.0001630407 3.34158e-05 -0.1676507829 0.8276325146
685295890.0 0.1926047578 -0.8252949454 -6.6245e-06 -5.00147e-05 0.000107125 -0.0001414633 -0.1593893259 0.8291709012
690295860.0 0.1851280037 -0.8272796349 -0.0001471035 -0.0001037301 -2.92472e-05 0.0001744058 -0.1515393336 0.8307967686
695295830.0 0.1764759629 -0.8288009126 -0.0001010172 -0.0001832474 0.0002022586 -0.0001199841 -0.1436033238 0.8323835554
700295800.0 0.1687415859 -0.8303345359 -3.51453e-05 -0.0001417385 5.33698e-05 3.73595e-05 -0.1347330472 0.833234301
705295770.0 0.1603542663 -0.832240506 2.28972e-05 -0.0001983433 -5.30411e-05 -1.3281e-06 -0.1273670999 0.8351200026
710295740.0 0.1513611401 -0.8336120538 4.82633e-05 0.0001554753 -5.8167e-05 7.0905e-06 -0.1187876951 0.8363531128
715295710.0 0.1433393549 -0.8341001524 2.8943e-06 -7.58004e-05 0.000143787 0.0001344718 -0.1106886808 0.8373753814
720295680.0 0.1358237345 -0.835682328 6.89285e-05 -0.0001771617 -0.0001134087 -4.01568e-05 -0.1017250185 0.8384522924
725295650.0 0.1276276249 -0.8368685442 0.0001396147 -0.0001248225 0.0001399538 -6.25306e-05 -0.0938915959 0.8396373807
730295620.0 0.1192674158 -0.8385136018 0.0002044908 0.0001102697 -7.5801e-06 9.81482e-05 -0.0850315681 0.8402414514
735295590.0 0.111134382 -0.8389696631 0.0001890138 0.0001871675 -2.3604e-06 0.0001199165 -0.0765532214 0.8405885827
740295560.0 0.1024640051 -0.8401060228 -3.44196e-05 -0.0001371595 -9.78448e-05 0.0001949462 -0.0686498304 0.8413303154
745295530.0 0.0940036911 -0.840884411 -7.05213e-05 0.000199908 -0.0001998733 4.97538e-05 -0.0607196034 0.8425025548
750295500.0 0.0860098821 -0.8412615607 -0.0001143588 0.0001435054 0.0001577667 -1.83982e-05 -0.0521505873 0.8425660778
755295470.0 0.0772595924 -0.8426414621 5.37823e-05 0.0002186571 9.41745e-05 0.0001042047 -0.0441882262 0.8432709322
760295440.0 0.0689330523 -0.8427364904 -1.94064e-05 6.93877e-05 6.4206e-06 0.0001858263 -0.0359579221 0.8432915171
765295410.0 0.0605182385 -0.8438906117 2.7711e-05 -2.67339e-05 5.9223e-05 -0.0001258532 -0.0268411598 0.843888315
770295380.0 0.0523948745 -0.8437827485 3.23532e-05 0.0001401144 -2.4904e-06 4.59273e-05 -0.0189671388 0.8440764445
775295350.0 0.0439058306 -0.8438542754 -3.042e-06 -3.03077e-05 -4.82657e-05 -0.000166106 -0.0111433074 0.8438414557
780295320.0 0.0354141055 -0.845006651 0.0001658826 -8.45417e-05 -9.5018e-06 -0.000181701 -0.0026809167 0.8444161872
785295290.0 0.0273411413 -0.8447380172 -9.1845e-05 6.753e-05 2.36237e-05 0.000190548 0.0055774716 0.8443930957
790295260.0 0.0192959524 -0.8446274361 -0.0001771938 7.07518e-05 0.0002831372 -2.90266e-05 0.0145876141 0.844214825
795295230.0 0.0101858642 -0.8443591136 1.47307e-05 5.1169e-06 4.69255e-05 -6.45203e-05 0.022796274 0.8447958325
800295200.0 0.0029419335 -0.8441592654 -4.33144e-05 -0.0002351467 -1.34731e-05 -2.09523e-05 0.0307225753 0.8436061827
805295170.0 -0.0055726911 -0.8445496179 4.69913e-05 -0.0001015543 8.79353e-05 -7.59319e-05 0.0387179652 0.8430942853
810295140.0 -0.0144536308 -0.8438433496 0.0001802914 -1.394e-07 4.39525e-05 -0.0002147241 0.047469058 0.8435887695
815295110.0 -0.0223121611 -0.843683695 -0.0001943498 -8.00013e-05 9.62212e-05 -1.72788e-05 0.0557753772 0.8429717756
820295080.0 -0.0314819683 -0.8435257513 0.0001583414 -0.0002228405 -3.2337e-05 -0.0001114332 0.0639826471 0.8419338982
825295050.0 -0.0395003491 -0.8430583779 7.771e-05 5.53195e-05 5.18452e-05 7.02944e-05 0.0719449697 0.8414809839
830295020.0 -0.0476715605 -0.8422604496 -0.0001327021 2.4209e-06 -7.9775e-05 0.0001009883 0.0800326058 0.8405500577
835294990.0 -0.0558308931 -0.8413395229 2.14667e-05 0.0002589513 0.0001544744 2.34575e-05 0.0883379759 0.8395342432
840294960.0 -0.0638702786 -0.840843011 -1.8459e-06 -8.46052e-05 0.0001133446 -1.59068e-05 0.0961123378 0.8390165998
845294930.0 -0.0719471441 -0.8402355394 1.85653e-05 -9.40233e-05 -0.0001423087 1.81073e-05 0.1047343453 0.8379714323
850294900.0 -0.0809543129 -0.8389487941 -3.60922e-05 -0.0001125059 2.17637e-05 -0.0001178895 0.1132079724 0.8370969341
