!Created with skrf (http://scikit-rf.org).
# Hz S RI R 50.0 
!freq ReS11 ImS11 ReS21 ImS21 ReS12 ImS12 ReS22 ImS22
300000.0 -0.2412993339 -0.0831729466 0.4718236315 0.0571343122 0.4683120538 0.0538137228 -0.2413809663 -0.0958251402
5299970.0 -0.2443224126 0.0069120748 0.4736462096 0.0048022029 0.4734855113 0.0054019538 -0.2438091892 0.0073216374
10299940.0 -0.2411781396 0.0185345168 0.4755121937 0.0060379731 0.4753420814 0.0064616692 -0.2405453628 0.0203332906
15299910.0 -0.2366703023 0.0279956552 0.4789737118 0.0074921342 0.4793180853 0.0076335037 -0.2358971468 0.0296354477
20299880.0 -0.2322337609 0.0354930294 0.4839457323 0.0085859046 0.484139642 0.0084062664 -0.2309891557 0.0374464958
25299850.0 -0.2269302295 0.0419704383 0.4893282214 0.0075724431 0.4888524894 0.0075938855 -0.2245370516 0.0438972
30299820.0 -0.2215255164 0.0473654655 0.4943856302 0.005338691 0.4946769744 0.005350285 -0.2190502688 0.0492236568
35299790.0 -0.2165434244 0.0513504737 0.4999625892 0.0020937267 0.4998236805 0.0020751683 -0.2136682653 0.0533016545
40299760.0 -0.2116641217 0.0549994495 0.5049263649 -0.0019884125 0.505170533 -0.0017333541 -0.2082210396 0.0562770008
45299730.0 -0.2065911243 0.0576534723 0.5096323502 -0.0061449972 0.5099558205 -0.0062091628 -0.2032972705 0.0590408752
50299700.0 -0.2023459147 0.0596858458 0.5144866332 -0.0119476315 0.5142049786 -0.0115736969 -0.19841328 0.0606587233
55299670.0 -0.1983385721 0.061641247 0.5178173633 -0.0183683437 0.5178657433 -0.0182748865 -0.1945403457 0.0623335692
60299640.0 -0.194118497 0.0636761387 0.5212707066 -0.0245782556 0.5212078136 -0.0241010528 -0.1905379671 0.0632733715
65299610.0 -0.1910119462 0.0647828021 0.5243012644 -0.0308946966 0.524030171 -0.0305221609 -0.1872316969 0.0641430561
70299580.0 -0.18795331 0.0661406937 0.52680108 -0.0372437839 0.5263454075 -0.0371367341 -0.1838186056 0.0648897755
75299550.0 -0.1850840544 0.0672584629 0.5282907021 -0.0438477353 0.5285410311 -0.043971526 -0.181267495 0.0655532035
80299520.0 -0.18246768 0.0680801558 0.5302953246 -0.051161999 0.5306444477 -0.0511266762 -0.1783077119 0.0661253233
85299490.0 -0.1800618662 0.0687705426 0.5314721104 -0.057217434 0.5318485024 -0.0572220563 -0.1762773487 0.0662602205
90299460.0 -0.178000905 0.0697344956 0.5325539697 -0.06479872 0.5326718704 -0.0647588597 -0.1736218215 0.0666913789
95299430.0 -0.1754677003 0.0704779853 0.5336792824 -0.071679856 0.5333611681 -0.0717619122 -0.171385239 0.0673526916
100299400.0 -0.173891057 0.071572023 0.5336394174 -0.0784749983 0.5339878688 -0.0786452909 -0.1695340169 0.0672123128
105299370.0 -0.1721852577 0.0723595963 0.5343914439 -0.0854670726 0.5343311869 -0.085536958 -0.1675351053 0.068128437
110299340.0 -0.1703804237 0.0733545856 0.5345021308 -0.0922333184 0.5344078425 -0.0921253386 -0.1663827082 0.0683214617
115299310.0 -0.1687780226 0.0740869225 0.5345006518 -0.0991995165 0.5344123515 -0.0988039885 -0.1646973447 0.0687413152
120299280.0 -0.1676073501 0.0745563526 0.5340677753 -0.1057959621 0.534397624 -0.1058013722 -0.163203748 0.0693459798
125299250.0 -0.1660373872 0.0754614789 0.5339166159 -0.1123135565 0.5338915483 -0.1123674954 -0.1625132341 0.0697036904
130299220.0 -0.1650695109 0.0766515179 0.5332073408 -0.119456304 0.5333579546 -0.1193116272 -0.1610937599 0.0699865113
135299190.0 -0.1635858539 0.0780757523 0.5325335014 -0.1263422816 0.5326219637 -0.1259254101 -0.1596127843 0.0712643768
140299160.0 -0.1626409363 0.0790149749 0.5319243688 -0.1326893856 0.5321365605 -0.1329290233 -0.1588321124 0.0719747267
145299130.0 -0.1613573295 0.079996352 0.5312037099 -0.1391330413 0.5309499517 -0.1390934665 -0.15775542 0.0728937826
150299100.0 -0.1600443294 0.0810959828 0.529585109 -0.1456681085 0.5298847444 -0.1454245777 -0.1568252928 0.0742335781
155299070.0 -0.1593716243 0.0822515309 0.5285522455 -0.1528297871 0.5281618709 -0.1522942645 -0.1556950076 0.0744016583
160299040.0 -0.1581975117 0.0833546119 0.5271751618 -0.1587922174 0.5267494218 -0.1590368043 -0.1553389626 0.0755538933
165299010.0 -0.1572625664 0.0847181425 0.5257092078 -0.1654723465 0.5256937402 -0.1655232013 -0.154118209 0.0766085273
170298980.0 -0.1562535342 0.0860280527 0.5238477066 -0.1718631518 0.5242810057 -0.1715212536 -0.153352267 0.0775722024
175298950.0 -0.1556202419 0.0869016259 0.5229660224 -0.1777966696 0.5224095848 -0.1779722921 -0.1527071796 0.0789227912
180298920.0 -0.1549041033 0.0884457127 0.5208481513 -0.1845728004 0.5208582847 -0.1836547369 -0.1518006868 0.0799584814
185298890.0 -0.1533037632 0.089682982 0.5191642008 -0.1904004972 0.5188611459 -0.1902327999 -0.15119074 0.0809269726
190298860.0 -0.1527433293 0.0910100794 0.5171945054 -0.1970222654 0.5174274239 -0.1962698832 -0.1506790119 0.0817164555
195298830.0 -0.1518253925 0.0920994193 0.515143373 -0.2029808066 0.5154898507 -0.2025383692 -0.1493801885 0.0830971912
200298800.0 -0.1506579452 0.0935646767 0.5127129077 -0.2089124516 0.5133207132 -0.2090194112 -0.1492992362 0.0844794586
205298770.0 -0.1497371179 0.0947738566 0.5104777101 -0.2151785897 0.5105379299 -0.2148639786 -0.1485106528 0.0846071734
210298740.0 -0.1488892683 0.0964248368 0.5085985338 -0.2208712439 0.5085916869 -0.2205076669 -0.1472871382 0.0866602892
215298710.0 -0.1483757226 0.0979600034 0.5061434838 -0.2270937136 0.5061386845 -0.2271525497 -0.1471226315 0.0879894196
220298680.0 -0.1468762112 0.0989394657 0.5032913325 -0.2323282746 0.5036944517 -0.2327531324 -0.146761101 0.088767597
225298650.0 -0.1462456197 0.1004697491 0.5010582892 -0.2387944418 0.5013176948 -0.238302727 -0.1460802612 0.0897119452
230298620.0 -0.1451141324 0.1022252753 0.4988220901 -0.2440306679 0.499109503 -0.2443419092 -0.1455202635 0.0911151695
235298590.0 -0.143995079 0.1036791201 0.4962186509 -0.2501725329 0.4962790086 -0.2497695339 -0.1447087103 0.0923605575
240298560.0 -0.1433837171 0.105065131 0.4938735605 -0.2558135574 0.4936008329 -0.255808982 -0.1440333603 0.0937547059
245298530.0 -0.1420808777 0.1067327088 0.4911138282 -0.2616774282 0.4908093387 -0.2617196007 -0.1429284984 0.0941289292
250298500.0 -0.1407267864 0.1082618715 0.4873222327 -0.2673854046 0.4873593636 -0.2666744736 -0.142448999 0.095613565
255298470.0 -0.1397851849 0.1089782739 0.4841001242 -0.2725959486 0.4849020243 -0.2726870709 -0.1415520181 0.0967940625
260298440.0 -0.1392868214 0.1108327066 0.4817475197 -0.2785673278 0.4823588292 -0.2780897724 -0.1405067108 0.098285127
265298410.0 -0.1374632366 0.1125690576 0.4785694904 -0.2841305896 0.4794182656 -0.2836537167 -0.140122592 0.0994054898
270298380.0 -0.1366572497 0.1137551383 0.4760422547 -0.2890740228 0.4760776492 -0.2892787035 -0.1389004855 0.100652788
275298350.0 -0.1352237938 0.1153400537 0.4725147935 -0.294863004 0.4729185388 -0.2947606045 -0.1379481657 0.101435616
280298320.0 -0.1338950191 0.116805697 0.4696815839 -0.3003474097 0.4698043069 -0.3000162282 -0.1371083323 0.102909681
285298290.0 -0.1328640751 0.1185668074 0.4663811557 -0.3055576754 0.4661064645 -0.3051889069 -0.1359248302 0.1041841026
290298260.0 -0.1314575754 0.1198327179 0.463052675 -0.3105392023 0.4630956977 -0.3106312859 -0.1348644601 0.1056529016
295298230.0 -0.1300758095 0.12067839 0.4599870006 -0.3158487214 0.4596092228 -0.3157596897 -0.1336217133 0.1065019484
300298200.0 -0.1291917688 0.1222549516 0.4566352355 -0.3209826298 0.4567011072 -0.321111787 -0.1327988961 0.1078651855
305298170.0 -0.1276890852 0.1237643641 0.4524197882 -0.3264985428 0.4524152713 -0.3261610184 -0.1311630073 0.1088270687
310298140.0 -0.1265521752 0.1252451443 0.4491380393 -0.3314621026 0.4491765601 -0.3316252923 -0.1305351759 0.1103761066
315298110.0 -0.1254053726 0.1261457127 0.4455278264 -0.3366440335 0.4456928761 -0.3367466912 -0.1297061127 0.1113579037
320298080.0 -0.1236189415 0.1276182033 0.4413199202 -0.3425524911 0.4417289523 -0.341927036 -0.1286227968 0.112561735
325298050.0 -0.1225850513 0.1288634289 0.4375834077 -0.3473874888 0.4374544822 -0.3468550476 -0.1279015978 0.113749561
330298020.0 -0.1212177767 0.1299239457 0.4332937831 -0.3520153705 0.4339860483 -0.3519568161 -0.1270193626 0.1152018249
335297990.0 -0.1198321169 0.1311634768 0.429726978 -0.3567094579 0.4295531798 -0.3566412535 -0.1264345539 0.1169012324
340297960.0 -0.119215223 0.13311689 0.4255896626 -0.3613920964 0.4253156964 -0.3617183418 -0.1249639087 0.1182142246
345297930.0 -0.1177513309 0.1348953145 0.4215325517 -0.3667073169 0.421400142 -0.3665514537 -0.1241427878 0.1192410501
350297900.0 -0.1165357269 0.1355075742 0.4167112764 -0.3711727198 0.4170397043 -0.3709949098 -0.123486907 0.1209358546
355297870.0 -0.1147897485 0.1375823176 0.4131563964 -0.3754224609 0.4132906652 -0.3753305917 -0.1222710179 0.122088808
360297840.0 -0.1135706626 0.1388135266 0.4093936081 -0.379963116 0.4093800358 -0.3797629024 -0.1212455071 0.1236589123
365297810.0 -0.1123943213 0.140331369 0.4052727383 -0.384830816 0.4053288143 -0.3846797031 -0.1200932231 0.1248643477
370297780.0 -0.1106622256 0.1415495188 0.4002934044 -0.3888193562 0.4007611098 -0.3883048344 -0.1192265206 0.1260928616
375297750.0 -0.1092065236 0.1428462839 0.3963991702 -0.3934617384 0.3966785975 -0.3931582392 -0.117771253 0.1274307751
380297720.0 -0.1078397056 0.1442406678 0.3920127744 -0.3978328996 0.3919981333 -0.3971467673 -0.1171435883 0.1285989531
385297690.0 -0.1062180817 0.1455122795 0.3869328271 -0.4023144724 0.3875984526 -0.4018865401 -0.115962653 0.130259135
390297660.0 -0.1047711859 0.1471903019 0.3830246377 -0.4063208089 0.3828939945 -0.4058941474 -0.1149242459 0.1313272634
395297630.0 -0.1033540068 0.1484032924 0.3790351252 -0.410767782 0.3789425875 -0.4103033068 -0.1132503518 0.132372951
400297600.0 -0.1017148336 0.1496500833 0.3738192679 -0.4149760216 0.3742353384 -0.4146879704 -0.1121584676 0.1338451545
405297570.0 -0.100383111 0.1507439533 0.369539819 -0.4185004513 0.3693726195 -0.4185164724 -0.111286231 0.1351661969
410297540.0 -0.0984196245 0.152034025 0.3648019427 -0.4225074167 0.3650579829 -0.4225278151 -0.1100418969 0.1367727283
415297510.0 -0.0964990733 0.1531771338 0.3597642677 -0.4267469132 0.360281157 -0.4267999682 -0.1088150786 0.1377484033
420297480.0 -0.0950774275 0.1547697669 0.3553049855 -0.4309813608 0.3556676247 -0.4305047732 -0.1076961474 0.138134722
425297450.0 -0.0936703616 0.1552811714 0.3507600106 -0.4343758588 0.3512262065 -0.4343891179 -0.1065900575 0.1400918418
430297420.0 -0.091774518 0.1565484174 0.345845603 -0.4378719043 0.3459931143 -0.4378749427 -0.1050285598 0.1407319609
435297390.0 -0.0902242888 0.1580489811 0.3411377729 -0.4421294199 0.3409841573 -0.4417105838 -0.1033937272 0.1416665305
440297360.0 -0.088316519 0.1591659168 0.3362368573 -0.4456993396 0.3365518003 -0.4457753046 -0.1024872123 0.1425502316
445297330.0 -0.0866836505 0.1597753039 0.331469261 -0.4493411428 0.3319468571 -0.4489149762 -0.1007029408 0.1434909018
450297300.0 -0.0848694561 0.1608894441 0.3267031524 -0.4526699304 0.3260820926 -0.4533388395 -0.0996276931 0.144919019
455297270.0 -0.0830309774 0.1620842403 0.321224098 -0.4562849432 0.3216907604 -0.4566006115 -0.0981706001 0.1459130203
460297240.0 -0.0815530893 0.1632765404 0.3164054628 -0.4599525672 0.3167931394 -0.4598233418 -0.0965788112 0.1471594224
465297210.0 -0.0791814355 0.164305173 0.311441429 -0.4635824652 0.3116054305 -0.4638929015 -0.0951784717 0.1479487987
470297180.0 -0.0778854301 0.1650885505 0.3063838491 -0.4666384574 0.3065814265 -0.4665054965 -0.093458214 0.149293513
475297150.0 -0.0757594427 0.1659208683 0.3011762008 -0.4692756776 0.3014622643 -0.4695888465 -0.0919624123 0.1497045325
480297120.0 -0.074009526 0.1671369445 0.295972696 -0.4731556461 0.2959557398 -0.4731555573 -0.0902669558 0.1513146289
485297090.0 -0.0723700917 0.1679860416 0.2910625239 -0.4758531805 0.2915046546 -0.4761003001 -0.0891331732 0.1519544424
490297060.0 -0.0710579771 0.1690925364 0.2858590532 -0.4796640351 0.2862796016 -0.4792236283 -0.0875129195 0.1532717146
495297030.0 -0.0690989599 0.1699455849 0.2803714669 -0.4825333493 0.2809711217 -0.4823536837 -0.0862008297 0.1542108354
500297000.0 -0.0669870693 0.1708369754 0.2752657986 -0.4850629268 0.2752477441 -0.4851913885 -0.0844702068 0.1555629193
505296970.0 -0.0649020155 0.1717308806 0.2700195858 -0.4880732557 0.2698222092 -0.4882570418 -0.0830920333 0.1563698272
510296940.0 -0.0631578122 0.1725882757 0.2647428411 -0.4914283907 0.2643429083 -0.4915645833 -0.0814904836 0.1576937542
515296910.0 -0.0610306526 0.1732226009 0.2589439966 -0.4938627446 0.2589275195 -0.4941119484 -0.0799164644 0.1584218165
520296880.0 -0.0595246454 0.1743268383 0.2539831122 -0.4973276086 0.2539560097 -0.4970552317 -0.0785274398 0.1594248623
525296850.0 -0.0573489667 0.1744093303 0.2478645044 -0.4993739376 0.2486377977 -0.4997561942 -0.0770921503 0.1606081668
530296820.0 -0.0553283463 0.1755801568 0.2426753057 -0.502663591 0.2432199427 -0.5025048497 -0.0752891006 0.1613982304
535296790.0 -0.0535651991 0.17657234 0.2377337091 -0.5045428038 0.2375567269 -0.5046549282 -0.0740350829 0.1618340306
540296760.0 -0.0519740651 0.1775348324 0.2322393756 -0.507630589 0.2318004452 -0.507701779 -0.0727801521 0.1635581681
545296730.0 -0.0498895685 0.1781198736 0.2261402845 -0.5096229904 0.2263380233 -0.5096155122 -0.0712725761 0.1637834648
550296700.0 -0.0474799766 0.1787549499 0.2207240668 -0.5122757583 0.2212766345 -0.5125425225 -0.0698304935 0.1650953808
555296670.0 -0.0461015043 0.1793670568 0.2152814684 -0.5147317137 0.2152736578 -0.5144641552 -0.0679135307 0.1659374125
560296640.0 -0.0435587545 0.1803891385 0.2097257292 -0.5173177201 0.209482236 -0.5170705214 -0.0665632483 0.1666978162
565296610.0 -0.0417526955 0.1809625249 0.2039094386 -0.5192639259 0.2042201396 -0.5192373607 -0.0651698953 0.1671948179
570296580.0 -0.0400152875 0.1812559509 0.1980756188 -0.5212149996 0.1978275939 -0.521451675 -0.0635833437 0.1685788829
575296550.0 -0.0380322268 0.1823782248 0.1924174588 -0.5237622244 0.1924684429 -0.5237631109 -0.0620257125 0.1688715985
580296520.0 -0.0356979992 0.1826596421 0.1869886476 -0.5258929153 0.1870250419 -0.5254285736 -0.0601625519 0.1694243289
585296490.0 -0.0339611441 0.1827633295 0.1812282737 -0.5271732506 0.1815914596 -0.5274753094 -0.0589889832 0.1703185276
590296460.0 -0.0316790087 0.1836993133 0.1755487588 -0.5292130826 0.1756109416 -0.5291073893 -0.0575245891 0.1711901289
595296430.0 -0.0297190036 0.1842601647 0.1695247093 -0.5315110972 0.169716262 -0.5309482434 -0.0551217613 0.1712943366
600296400.0 -0.0279695291 0.1844396709 0.1640578774 -0.5332373532 0.1640282903 -0.5326120563 -0.0539512844 0.1717050299
605296370.0 -0.0258841637 0.184960239 0.1579422005 -0.5347573909 0.1584549036 -0.5347124026 -0.0523410031 0.1729652889
610296340.0 -0.023664091 0.1852828101 0.1517175725 -0.5360422182 0.152454206 -0.5361979996 -0.0503768146 0.1732784277
615296310.0 -0.0213708972 0.1856978277 0.1461004247 -0.5376028884 0.1461944811 -0.5379581687 -0.0485477703 0.1739327006
620296280.0 -0.0194421028 0.1857861678 0.1406955031 -0.5391986003 0.1406268139 -0.5391715024 -0.0471284991 0.1744021199
625296250.0 -0.0175524903 0.1859976806 0.1349818307 -0.5409636108 0.1345859962 -0.5410044569 -0.0447801315 0.1750991732
630296220.0 -0.0149386881 0.1865731756 0.1283980777 -0.5423455651 0.1285187236 -0.5419728689 -0.0435931437 0.1757284448
635296190.0 -0.0137660865 0.1864731819 0.1232479498 -0.5433630201 0.1230295463 -0.5434338185 -0.0415498391 0.1764313656
640296160.0 -0.0115872538 0.1871944995 0.1169447106 -0.5446516937 0.1174720838 -0.5446739925 -0.039827203 0.1767240056
645296130.0 -0.0094747778 0.1875867191 0.1113275239 -0.5457462342 0.1115239313 -0.5460576665 -0.0377361392 0.1774563363
650296100.0 -0.0071447003 0.187370765 0.1048947134 -0.5468213931 0.1054620285 -0.5471299974 -0.0361724791 0.1772634821
655296070.0 -0.0054836158 0.187809951 0.0993260182 -0.5484334585 0.0998752243 -0.5480319317 -0.0341457225 0.1780280894
660296040.0 -0.0038312352 0.1877518016 0.093746556 -0.5496686987 0.0934390655 -0.5490250088 -0.0324782711 0.1787178534
665296010.0 -0.0009809775 0.1878380613 0.0873408258 -0.5499986111 0.087384093 -0.5500709337 -0.0304438982 0.1795928968
670295980.0 0.0003225099 0.1885686865 0.0815509615 -0.5510482744 0.0814141773 -0.5511636077 -0.0290392861 0.1797958372
675295950.0 0.0027237068 0.188477195 0.0758399429 -0.5516228565 0.076014877 -0.5508199941 -0.0276003148 0.1803236653
680295920.0 0.0047285106 0.188485846 0.069517731 -0.5522901739 0.0690088886 -0.553157746 -0.0254017886 0.1814995202
685295890.0 0.0069819782 0.1888947157 0.0638170235 -0.552657562 0.0635453761 -0.5532565942 -0.0239087371 0.1815085512
690295860.0 0.0093589301 0.1887598295 0.0575598571 -0.5532237819 0.0575865148 -0.5539955967 -0.0221298451 0.1825371647
695295830.0 0.0110693414 0.1886236312 0.052170453 -0.5541632936 0.0517204857 -0.5542550616 -0.0201018363 0.182581075
700295800.0 0.0132423159 0.188601606 0.0458471225 -0.5550944391 0.0454997514 -0.5546754353 -0.0186178594 0.183288118
705295770.0 0.0154049445 0.1893991608 0.0394831944 -0.5552913307 0.0401092233 -0.5555343683 -0.0171290194 0.1835403088
710295740.0 0.0175375072 0.1889708698 0.0338485304 -0.5561969971 0.0338997317 -0.5559623358 -0.015232364 0.1833919732
715295710.0 0.0191871364 0.1888755571 0.0284317959 -0.5559613596 0.0274732077 -0.5559881131 -0.0130834418 0.1840890079
720295680.0 0.0215915102 0.1886519169 0.021940934 -0.5564695598 0.0221554404 -0.5563746164 -0.0114394147 0.1846880729
725295650.0 0.0238625527 0.1886609057 0.0155656174 -0.5564330816 0.0153652424 -0.5566270284 -0.0103523143 0.1854675683
730295620.0 0.0260011945 0.1886583736 0.0094420481 -0.5561589458 0.0099256641 -0.5565823681 -0.0086372699 0.1847479794
735295590.0 0.027764517 0.1886334714 0.003985063 -0.5570582992 0.0038646587 -0.556770814 -0.0070197354 0.1851872988
740295560.0 0.0297687047 0.188560925 -0.002451716 -0.556261443 -0.0026516624 -0.5567615816 -0.0043752543 0.1857004266
745295530.0 0.0319869292 0.188344252 -0.0082903151 -0.5562001294 -0.0082208215 -0.556323184 -0.0031636652 0.1852681638
750295500.0 0.0341419232 0.1878676713 -0.0141685899 -0.5562906787 -0.0141153263 -0.5565655396 -0.0011442425 0.1854806808
755295470.0 0.0361176991 0.1876784834 -0.0201602417 -0.5560176015 -0.0201635263 -0.5561952313 0.0008223212 0.1852934724
760295440.0 0.0381501111 0.1873589768 -0.0264816884 -0.5558935782 -0.0264279912 -0.5557779624 0.0023606093 0.1856747303
765295410.0 0.0399949259 0.1872052277 -0.0323662145 -0.5552855517 -0.0326475269 -0.5556415025 0.0045121153 0.1859994082
770295380.0 0.0420363018 0.1865662774 -0.0385048519 -0.5550446736 -0.0385529547 -0.5547162943 0.0056624319 0.1858939434
775295350.0 0.0438269781 0.1860843804 -0.0444313859 -0.5542856946 -0.0438832456 -0.5544962711 0.0070800329 0.1859646002
780295320.0 0.0459954359 0.1858959952 -0.0502597845 -0.5535325447 -0.0494505043 -0.5539925269 0.0092038285 0.1854678912
785295290.0 0.0479987676 0.1850769782 -0.0562944585 -0.5527387147 -0.0559687292 -0.5535441794 0.0115376595 0.1858152128
790295260.0 0.05057306 0.1854106714 -0.0620075028 -0.5525309464 -0.0610773602 -0.5525508804 0.0135189254 0.1858303442
795295230.0 0.0523531079 0.1846557609 -0.0679137277 -0.5519477621 -0.0672906225 -0.5521121642 0.0153371919 0.1858117473
800295200.0 0.0541549259 0.1845769922 -0.0742170205 -0.5507382587 -0.073787927 -0.5512086141 0.0170938568 0.1860448326
805295170.0 0.0561792025 0.1837394979 -0.0800801094 -0.5505932943 -0.0800138911 -0.5505201148 0.0189685541 0.1858304124
810295140.0 0.0581240923 0.1827887679 -0.085491259 -0.5490677819 -0.0855033342 -0.5495095443 0.021238677 0.1861166318
815295110.0 0.0605055715 0.1823216084 -0.0918553455 -0.5481368699 -0.0913404176 -0.5483832576 0.0226930957 0.1857987939
820295080.0 0.0619499857 0.1821319919 -0.0975468817 -0.5470267709 -0.0971641794 -0.5471255148 0.0245382948 0.1857893932
825295050.0 0.0645581889 0.181477298 -0.1030816946 -0.5459496207 -0.1032549563 -0.5462699996 0.0267394647 0.1854873719
830295020.0 0.0662316012 0.1811365179 -0.1090664637 -0.5448103053 -0.1095051826 -0.5447562594 0.0290954953 0.1857023491
