!Created with skrf (http://scikit-rf.org).
# Hz S RI R 50.0 
!freq ReS11 ImS11 ReS21 ImS21 ReS12 ImS12 ReS22 ImS22
300000.0 -0.0491268251 -0.0442670745 -0.0004869389 -0.0003070201 8.30809e-05 0.00058734 -0.7747990603 -0.135452335
5299970.0 -0.0486543825 0.0153127349 -8.50024e-05 0.0001851005 -3.42377e-05 0.000117071 -0.7845200401 -0.0073056066
10299940.0 -0.0431623546 0.0319574197 1.87625e-05 0.0001980981 -8.4616e-05 -0.0001360305 -0.7877821688 -0.0034445837
15299910.0 -0.0348995405 0.0460488027 1.8243e-05 -6.9556e-06 -8.76539e-05 -3.59878e-05 -0.7930685906 -0.0014940639
20299880.0 -0.0252015688 0.0574200977 -4.38719e-05 -0.0001651742 -4.39932e-05 -4.01137e-05 -0.7998311493 0.0023280203
25299850.0 -0.0144668351 0.0665875076 -7.75393e-05 8.63711e-05 1.75452e-05 -3.7026e-06 -0.8062069433 0.0081762597
30299820.0 -0.0034085534 0.0730646872 5.0221e-05 -0.000177181 -5.7178e-06 -9.3548e-06 -0.8115029977 0.0164249612
35299790.0 0.0079737328 0.0775451838 5.77658e-05 0.0001032832 -0.0002050119 -5.37866e-05 -0.8170606587 0.0247189246
40299760.0 0.0189787047 0.080593947 -0.0001554519 -0.0001212904 -4.12854e-05 -1.42408e-05 -0.8209655942 0.0346852298
45299730.0 0.0295312121 0.0816293998 0.0001599992 4.40114e-05 -9.77495e-05 3.53868e-05 -0.8248723132 0.0440747431
50299700.0 0.0390434032 0.0815910016 -8.1515e-05 -9.7063e-06 8.2525e-05 -2.50367e-05 -0.827247694 0.0541217389
55299670.0 0.0483440241 0.0804377013 -9.4741e-06 9.86773e-05 7.42709e-05 0.0001527426 -0.8294817925 0.0644828692
60299640.0 0.0568567582 0.0789011853 -0.0002162383 -6.14026e-05 -1.1472e-06 2.11027e-05 -0.8303921796 0.0741314255
65299610.0 0.0644714995 0.0762332817 -0.0001020707 -8.72144e-05 9.29954e-05 8.76727e-05 -0.8322783064 0.0840556227
70299580.0 0.0710989517 0.0733998407 0.0001562476 7.7982e-05 3.40081e-05 5.37163e-05 -0.8317931641 0.0946455458
75299550.0 0.0774111143 0.0701441228 -0.0001882526 2.33596e-05 7.24097e-05 -3.01805e-05 -0.8323482525 0.1037368201
80299520.0 0.0830289492 0.0669096115 -0.0001914039 2.51265e-05 2.41549e-05 1.1573e-06 -0.8320079458 0.1139255046
85299490.0 0.0877062811 0.0627317589 -6.11607e-05 0.0001317326 -2.64367e-05 0.0001337786 -0.8314546032 0.1235394103
90299460.0 0.0922579906 0.0590933639 2.54152e-05 -5.9025e-05 0.000192843 9.7552e-06 -0.8308126784 0.1329770808
95299430.0 0.0965060101 0.0547592141 -5.9896e-06 -0.0001781483 -5.66239e-05 -6.33442e-05 -0.8292497382 0.1428816761
100299400.0 0.0998550473 0.0514334942 0.0001057098 9.69056e-05 0.000180264 -7.50032e-05 -0.8284992469 0.15245664
105299370.0 0.1029769144 0.0474198055 -1.12233e-05 -0.0002614718 6.68499e-05 2.25804e-05 -0.8268421826 0.1609806056
110299340.0 0.1058312926 0.0431723642 -4.00307e-05 0.0002257177 9.09027e-05 5.9142e-05 -0.8252648041 0.17077506
115299310.0 0.1086445007 0.0392954394 -0.0001751718 0.0001038251 -0.0001525555 9.55136e-05 -0.8238415161 0.17981894
120299280.0 0.1103679114 0.0352545807 0.0001313489 0.0001170662 9.29274e-05 0.0001894086 -0.8224645168 0.1888490468
125299250.0 0.1120933097 0.0314032 5.675e-07 0.0001958121 -8.60162e-05 4.8574e-06 -0.8208373699 0.1979906063
130299220.0 0.1136446426 0.0279373105 -0.0001152165 -0.0002176853 2.03237e-05 -0.0001165799 -0.8193644347 0.2068352821
135299190.0 0.1153742431 0.0243628451 4.61496e-05 -8.14824e-05 6.9885e-05 4.52346e-05 -0.8163401874 0.2158888903
140299160.0 0.1163188746 0.0204884035 -3.70017e-05 0.0001060098 2.8036e-06 0.000183174 -0.8142367277 0.2248216881
145299130.0 0.117703616 0.0171682081 6.8764e-06 -7.05428e-05 -5.01214e-05 5.68415e-05 -0.8121504119 0.2339521667
150299100.0 0.1185502119 0.0135179171 0.0001176155 -2.7865e-06 4.45082e-05 0.0001000367 -0.8107038419 0.2428780517
155299070.0 0.1188515528 0.0104647241 -2.1089e-06 0.0001445702 -4.31445e-05 5.10703e-05 -0.8074142355 0.2515739395
160299040.0 0.1193567886 0.0073131898 3.72179e-05 -0.0001113994 0.0002340427 2.36418e-05 -0.8052431977 0.2607475674
165299010.0 0.1199766856 0.0038089286 -4.71874e-05 0.0003934194 -5.87589e-05 5.84527e-05 -0.8022538004 0.2694696421
170298980.0 0.1200752787 0.0009248354 0.0004487874 5.02177e-05 -0.0001598882 -0.0001312854 -0.7996836087 0.2779455237
175298950.0 0.1202243723 -0.0021893984 0.0002686509 -0.0001355815 3.78559e-05 0.0002375168 -0.7967996961 0.2870035908
180298920.0 0.1205166379 -0.0049540511 -5.12696e-05 -0.0001313353 0.0002262015 0.0001217805 -0.7937526452 0.2955511332
185298890.0 0.1207228745 -0.0082573061 0.0001551902 0.0001782359 -3.88984e-05 0.0001120088 -0.7902330922 0.3035363085
190298860.0 0.1204896852 -0.0110252316 9.83599e-05 -4.5905e-06 -1.3396e-06 -0.0001965075 -0.7883051166 0.3115612235
195298830.0 0.1200936604 -0.0137672806 -6.53839e-05 0.0003082839 -9.09455e-05 0.0001028543 -0.7845249595 0.3207342438
200298800.0 0.1201436422 -0.0163305855 -8.24592e-05 4.31856e-05 -9.93253e-05 5.40804e-05 -0.7815836748 0.329128366
205298770.0 0.1195360665 -0.0191139573 -0.0002205281 -1.12374e-05 2.64332e-05 0.0001598962 -0.7774550026 0.3373528382
210298740.0 0.119208252 -0.0215866999 0.0003485825 -2.50432e-05 -0.000137912 0.0001592376 -0.7749111361 0.3458569587
215298710.0 0.1186337379 -0.0244882045 7.4445e-06 0.0002006075 -0.0001224079 1.93398e-05 -0.7709438263 0.3537176609
220298680.0 0.1182803542 -0.0270731668 0.000247233 0.0002141113 0.0001146522 0.0002283925 -0.7675994032 0.361776518
225298650.0 0.1175612686 -0.0293610538 1.2385e-06 3.0423e-06 -3.24141e-05 0.0001752361 -0.7634330117 0.3706813672
230298620.0 0.1169718453 -0.0315294209 -2.87312e-05 0.0001692987 5.8272e-05 3.9208e-06 -0.7600149227 0.3782238957
235298590.0 0.1164612365 -0.0338508891 0.0001622526 0.0001743691 -3.86596e-05 -0.0002203877 -0.7552377503 0.3866095737
240298560.0 0.1158861776 -0.0363470116 6.07625e-05 -8.78217e-05 7.29912e-05 0.0002304126 -0.7516227277 0.3953928101
245298530.0 0.1149804482 -0.0383853127 0.00010812 2.4543e-05 0.000198128 3.59782e-05 -0.7477843052 0.4020512382
250298500.0 0.1141280408 -0.0406766278 -0.0001380666 -3.14075e-05 4.37975e-05 1.82283e-05 -0.7436931486 0.4099535487
255298470.0 0.1130938179 -0.0429793504 -6.84679e-05 -5.6525e-05 2.1279e-06 -7.54095e-05 -0.7388625449 0.4172858425
260298440.0 0.1125533882 -0.0450597814 1.0552e-05 0.0001499877 1.03026e-05 2.69711e-05 -0.7349714862 0.4259488125
265298410.0 0.1115491895 -0.0467589418 1.74738e-05 4.86933e-05 -0.0002198756 7.1781e-05 -0.7303360662 0.4335180319
270298380.0 0.1106733376 -0.0490644235 -6.58042e-05 9.19529e-05 8.56483e-05 0.0002132545 -0.7254461722 0.4413373195
275298350.0 0.1097239116 -0.0510359387 -0.0002100757 1.647e-05 0.000312558 0.0001270057 -0.7205706203 0.4484694414
280298320.0 0.1090440101 -0.0528971915 3.98974e-05 -4.21867e-05 7.39754e-05 8.42432e-05 -0.7157673978 0.4554988054
285298290.0 0.1082750863 -0.0546028103 0.000396426 2.95203e-05 3.97e-05 8.36286e-05 -0.710645659 0.463636088
290298260.0 0.1072749169 -0.056743185 0.0001528416 0.0001230955 2.16064e-05 8.04466e-05 -0.7062924993 0.4708496054
295298230.0 0.1062319147 -0.0585857392 0.0002491978 5.02969e-05 7.36971e-05 0.0001068146 -0.7013160318 0.4778661611
300298200.0 0.1051341282 -0.0604880589 7.6124e-06 -8.34413e-05 4.38479e-05 5.8225e-06 -0.695975335 0.4852516618
305298170.0 0.104104059 -0.0624779093 0.0002604415 0.0001644884 4.85864e-05 0.0001227779 -0.6903046083 0.4931818379
310298140.0 0.1030031553 -0.0638301701 -0.000171807 -0.0001019657 4.45548e-05 -0.0001378694 -0.6856656077 0.4998644497
315298110.0 0.1020749485 -0.0658361604 3.09059e-05 0.0001983205 -0.0001490899 0.000198127 -0.6798579143 0.5069274504
320298080.0 0.1008470915 -0.0676663999 5.96217e-05 -6.94887e-05 -0.0001218581 0.0002338611 -0.6750848956 0.5145069074
325298050.0 0.0996905993 -0.069692959 0.0003399847 4.38865e-05 -6.96394e-05 1.5549e-06 -0.6690198767 0.5210631399
330298020.0 0.0980495263 -0.0714116806 -3.87222e-05 0.0001013993 -2.9487e-05 -8.78243e-05 -0.6640309011 0.5281386157
335297990.0 0.0966726647 -0.0729853593 0.0001126431 5.7938e-06 -7.73341e-05 -0.0001484386 -0.6585353662 0.5350979946
340297960.0 0.0948395548 -0.0747010154 -6.8933e-05 0.0002023758 -3.9733e-06 9.85524e-05 -0.6531463581 0.5420936477
345297930.0 0.0934553613 -0.0760859549 3.72281e-05 4.82743e-05 0.000183764 0.0002058952 -0.6472276162 0.5483216804
350297900.0 0.0920465934 -0.0772753043 4.27959e-05 -3.63409e-05 2.44772e-05 0.0001719638 -0.6414598987 0.5551043455
355297870.0 0.0909999075 -0.0784089831 0.0001872192 0.0003067692 0.0001074545 6.31571e-05 -0.6355271472 0.5620424916
360297840.0 0.0895289447 -0.0797149157 0.0001893164 3.9803e-06 9.1439e-05 0.0001691277 -0.6300102286 0.569109218
365297810.0 0.0878714056 -0.0810415417 -1.46022e-05 0.000295789 0.0001775567 -6.08949e-05 -0.6230913991 0.5748959805
370297780.0 0.0864812564 -0.0826244992 9.16408e-05 0.0001345186 0.0001332074 0.0001056105 -0.6180740627 0.581593795
375297750.0 0.0854510247 -0.0835015458 0.0001092435 -7.24865e-05 -4.21235e-05 1.87493e-05 -0.6113919191 0.5875954961
380297720.0 0.0839151833 -0.0851783343 0.000108804 -0.0002922723 0.000164565 -0.0001847446 -0.6057652968 0.5938669049
385297690.0 0.0823877297 -0.0862350103 -8.20712e-05 0.0001764142 0.0002255623 -0.0002603521 -0.5991792306 0.6005766995
390297660.0 0.0809751242 -0.0870298082 -9.08633e-05 -0.0002008069 -5.57165e-05 0.0001930603 -0.593572147 0.6067811183
395297630.0 0.0797336489 -0.0883770009 5.02252e-05 0.0001101113 0.0003395247 8.3754e-05 -0.586280253 0.6123289897
400297600.0 0.0784732941 -0.0895736302 0.0001226722 2.3174e-05 7.99379e-05 0.0001148205 -0.5807550564 0.6188157543
405297570.0 0.076603576 -0.0904552757 0.0001836466 8.90254e-05 5.09039e-05 1.04328e-05 -0.5738501893 0.6246469941
410297540.0 0.0749551146 -0.0916370628 0.0001075909 1.35676e-05 1.17249e-05 -0.0002407052 -0.5674044292 0.6302457314
415297510.0 0.073656292 -0.0931527369 7.13435e-05 0.0001293536 0.0001487392 -4.37929e-05 -0.5612116788 0.636104444
420297480.0 0.0724705491 -0.0935621795 7.30799e-05 0.0001833934 3.92114e-05 0.0001906883 -0.5544059068 0.6416211417
425297450.0 0.0707837458 -0.0947046135 6.82404e-05 4.08652e-05 7.29796e-05 -7.72029e-05 -0.5477796734 0.6480146992
430297420.0 0.0692960522 -0.095789019 0.0001578605 0.0001029934 0.0001586294 1.62402e-05 -0.541065359 0.6527926474
435297390.0 0.0675450154 -0.0966421266 -0.0001409783 3.0916e-06 0.0001046063 0.0002018838 -0.5337835691 0.6582497026
440297360.0 0.0658273005 -0.0973938383 -6.8559e-06 0.000154513 0.0001311547 -0.0001269097 -0.5273369731 0.6633775167
445297330.0 0.0643731785 -0.0986069774 6.2043e-05 0.0001085653 7.30232e-05 5.61898e-05 -0.5200449292 0.6685732089
450297300.0 0.063105748 -0.0992516744 5.7845e-06 -4.47182e-05 0.0001227008 -9.78334e-05 -0.5131509721 0.6736321353
455297270.0 0.0614410569 -0.1001897384 -0.0001222584 -6.36152e-05 8.34311e-05 4.79315e-05 -0.5067913958 0.6787484461
460297240.0 0.0598187638 -0.1010124056 3.84786e-05 0.0001476762 0.0001496954 -1.30504e-05 -0.4992133136 0.6840636527
465297210.0 0.0584214855 -0.1019712203 0.000290048 -0.0002738199 7.12382e-05 -9.37648e-05 -0.4921141804 0.6887350696
470297180.0 0.0567220775 -0.1026530384 -1.39838e-05 -0.0001531987 -8.97304e-05 0.0002184506 -0.4850455402 0.6943778691
475297150.0 0.0548664779 -0.1034259258 0.0001748419 1.96136e-05 -7.78689e-05 -1.55301e-05 -0.4777227574 0.6986399476
480297120.0 0.0535355035 -0.1039328941 0.0002137354 6.65511e-05 0.0001109331 6.28507e-05 -0.4699306436 0.7036451464
485297090.0 0.0522444486 -0.1045543205 -2.59918e-05 -2.38631e-05 0.0001705102 -0.0001159434 -0.4630974494 0.708383068
490297060.0 0.0501314703 -0.1051470615 1.84257e-05 -8.26835e-05 0.0002324245 -0.0003072746 -0.4561552252 0.7127088149
495297030.0 0.0486549221 -0.1057068806 0.0001440409 -4.4255e-06 -1.1137e-06 0.0001590872 -0.4487271894 0.7177162071
500297000.0 0.0472277679 -0.106659519 0.0001251366 -2.91035e-05 0.0002680104 0.0002086265 -0.4411757442 0.7224754612
505296970.0 0.0457472953 -0.1071497493 0.0002880379 0.0002445103 8.72439e-05 4.76129e-05 -0.4336629122 0.7264346987
510296940.0 0.0439505631 -0.1078789886 -0.0002906898 -0.0002284435 0.0001141309 -0.0001297062 -0.4259416739 0.7306043533
515296910.0 0.0424044004 -0.1082306529 0.0003431515 -8.85956e-05 0.0003027276 0.0001178382 -0.4189081777 0.7350022582
520296880.0 0.0406216932 -0.1087892221 0.0001365122 -1.83192e-05 0.0003238374 4.06912e-05 -0.4111609291 0.7389425089
525296850.0 0.0391771933 -0.1093492389 0.0001742878 0.0002375238 0.0002100015 -4.1691e-05 -0.4043066525 0.7434957997
530296820.0 0.0372844636 -0.1094812062 -8.1287e-06 0.0001001091 0.0001607136 7.16596e-05 -0.3967397295 0.7474726548
535296790.0 0.0356521229 -0.1100876369 4.19176e-05 0.0001787665 1.26568e-05 -0.0001898601 -0.3892544814 0.7512188995
540296760.0 0.0339391694 -0.1105424072 0.0001034752 -2.75976e-05 -6.88214e-05 8.82763e-05 -0.3809509475 0.7556262016
545296730.0 0.0321952851 -0.1107215519 -0.0001277366 -0.0001148981 -2.33834e-05 -0.0001003566 -0.3736772025 0.7590993145
550296700.0 0.03107213 -0.1111251436 0.0002091465 7.86965e-05 3.16762e-05 -3.38879e-05 -0.3663583441 0.7630728619
555296670.0 0.0290297428 -0.1115388027 8.42002e-05 1.52606e-05 0.0001081503 -3.5459e-06 -0.3581547482 0.7672568339
560296640.0 0.0276335964 -0.1118730268 0.0001843125 -0.0002147534 9.13527e-05 2.26371e-05 -0.3501712356 0.7708769474
565296610.0 0.0258456906 -0.1120369761 7.831e-07 3.8155e-05 5.72207e-05 7.78997e-05 -0.3426295102 0.7734301653
570296580.0 0.0238311098 -0.1125943089 0.0001326265 -5.22325e-05 0.0001213099 -4.62996e-05 -0.3350147715 0.7776870504
575296550.0 0.0225646941 -0.1124663839 0.0001680539 6.59262e-05 0.0001811318 -0.0001099664 -0.3264614878 0.7806453029
580296520.0 0.020850198 -0.1129902844 3.51095e-05 -0.0001599035 -3.63515e-05 0.0001184908 -0.3183691417 0.7837969187
585296490.0 0.0187708883 -0.1131478738 1.34899e-05 2.00985e-05 0.0002201793 0.00017583 -0.3107909449 0.7869166471
590296460.0 0.0177645339 -0.1131030318 0.0001100695 0.0001042827 0.0001073031 -6.40729e-05 -0.3033059862 0.7900077994
595296430.0 0.0157165677 -0.1134977097 -0.0001212709 5.8515e-05 0.0001857543 -7.71618e-05 -0.2945174793 0.7925651604
600296400.0 0.0140348211 -0.1135298104 5.37293e-05 -1.24046e-05 0.0001369269 0.0002188342 -0.2867934448 0.7955637931
605296370.0 0.0122789794 -0.1136672314 -2.12103e-05 -0.0002526615 0.0001856087 6.51419e-05 -0.2781118018 0.7987275178
610296340.0 0.0102243161 -0.113923025 -6.25489e-05 -3.60971e-05 0.0001176665 1.4e-05 -0.2707190258 0.8009302407
615296310.0 0.0091470953 -0.1139110102 0.0001280453 9.3482e-06 0.000157979 1.78665e-05 -0.2617008017 0.8032976136
620296280.0 0.0071676346 -0.1140876633 0.0002550678 -0.000121277 8.63094e-05 0.0002056794 -0.2540432667 0.8062514472
625296250.0 0.0055880438 -0.1141663694 8.6933e-06 0.0002151301 0.0002807819 -6.6287e-05 -0.2453370911 0.8083236696
630296220.0 0.0042330045 -0.1143132914 0.000157573 2.77002e-05 0.0001983686 -0.000132003 -0.2377721549 0.8110579886
635296190.0 0.0020028492 -0.1140285361 -3.74567e-05 0.0001405877 0.0002055694 -5.82342e-05 -0.2295368685 0.8125585265
640296160.0 0.000606146 -0.1139808827 -4.17908e-05 -8.64684e-05 0.0002499304 -1.21194e-05 -0.2207927557 0.8154292248
645296130.0 -0.0010347432 -0.1136822089 0.0001622782 -9.69521e-05 0.0001437072 -0.0001574629 -0.2133234542 0.8178062792
650296100.0 -0.0029235968 -0.113657228 0.0001287184 0.0001662838 0.0001250496 -0.0001087366 -0.2047736905 0.818535618
655296070.0 -0.0044816704 -0.1135151532 0.0002045411 -9.71604e-05 5.6549e-05 4.29454e-05 -0.1959681124 0.8211394177
660296040.0 -0.0062138457 -0.113548838 0.0001437408 -1.14725e-05 9.16144e-05 -6.72706e-05 -0.1881561615 0.8231432652
665296010.0 -0.0077274628 -0.113382345 0.0002581693 -7.89848e-05 7.3295e-06 -0.000107636 -0.1794393756 0.8253675592
670295980.0 -0.0096986224 -0.1128810502 5.18481e-05 -8.9977e-05 0.0001653697 -9.79556e-05 -0.1716779162 0.8263788527
675295950.0 -0.0113545011 -0.1128220209 -1.02386e-05 -1.15069e-05 0.0002151154 8.17177e-05 -0.1637414817 0.8286997999
680295920.0 -0.0129060529 -0.1121782641 8.86225e-05 -0.0002133415 0.0003268232 -9.19723e-05 -0.1551197134 0.8312887853
685295890.0 -0.014219631 -0.1118191216 8.55975e-05 -6.75886e-05 0.000105121 0.0001064296 -0.1460229504 0.8314067655
690295860.0 -0.0157350346 -0.1117359259 -7.1622e-06 -0.0001840901 0.0001454584 6.51282e-05 -0.1380365488 0.833411629
695295830.0 -0.0176972565 -0.1114841817 0.0002473795 4.295e-06 0.0003062337 -6.07071e-05 -0.129685532 0.8347551538
700295800.0 -0.0192566562 -0.1112358169 0.0001000628 -1.50642e-05 5.60982e-05 -0.0001541404 -0.1222260792 0.8359546583
705295770.0 -0.0211950602 -0.1105046917 0.0001283945 -0.0001083204 6.40791e-05 -4.2593e-05 -0.1137708808 0.8380640497
710295740.0 -0.0227187458 -0.1102916824 0.0001139627 -0.0002610233 0.0001848094 -0.0001470659 -0.105095327 0.8382679568
715295710.0 -0.0246796646 -0.1101359642 0.0001581253 -0.0002614203 0.0001976602 0.0001459028 -0.096821849 0.8397346436
720295680.0 -0.0258595627 -0.1097896376 0.0003311352 6.6297e-05 0.0002254532 -5.53889e-05 -0.0878589815 0.8403899585
725295650.0 -0.0275808651 -0.1090451328 6.10767e-05 -5.76258e-05 0.0001646051 0.0002543228 -0.0801628601 0.8415858692
730295620.0 -0.0291125504 -0.1083650799 0.0002838542 8.14681e-05 0.0001413738 -0.0002410185 -0.0718186899 0.8420798629
735295590.0 -0.0306289309 -0.1080039823 0.000154327 -2.44908e-05 0.0005507746 1.86034e-05 -0.0636021272 0.842741548
740295560.0 -0.0324730544 -0.1073552831 0.0003274833 -0.0002695847 0.0003671356 -0.0001062591 -0.0537675959 0.8437814865
745295530.0 -0.0339784919 -0.1069759458 0.0002018817 6.95549e-05 0.0002203941 4.64327e-05 -0.0463275953 0.8433912749
750295500.0 -0.0355585216 -0.1064948675 0.0003038983 -5.7123e-06 0.0003649521 -0.0001530446 -0.0379099063 0.8440249129
755295470.0 -0.0371615892 -0.1056759964 -0.000191941 0.0001090842 -4.19074e-05 9.6672e-05 -0.0293018048 0.8438313932
760295440.0 -0.0385384958 -0.1050826745 -0.0001161546 -0.0001307846 0.0002380604 1.94688e-05 -0.0208217318 0.844322439
765295410.0 -0.040161296 -0.1045721 0.0002523678 2.4227e-05 0.0002023658 4.968e-05 -0.0123756395 0.8446745979
770295380.0 -0.0418915918 -0.1039989768 0.000187406 1.52894e-05 7.32843e-05 -5.5796e-05 -0.0043523956 0.8445152117
775295350.0 -0.0437435506 -0.1036020426 0.0001253836 -0.0002222679 7.57633e-05 -0.0001719857 0.0035100392 0.8440387004
780295320.0 -0.0447995208 -0.1025416175 0.0003063463 -9.62479e-05 0.0001103234 -9.22715e-05 0.012041794 0.8443738755
785295290.0 -0.046698461 -0.1023142383 0.0001840315 0.0002418169 0.0001572731 -0.0001991566 0.0209709273 0.8438753095
790295260.0 -0.0480058621 -0.1010960501 0.000378116 -0.0002566311 0.000110024 -0.0002194885 0.0296622105 0.8441238545
795295230.0 -0.0495642916 -0.1004732767 -1.89971e-05 -0.0001383596 0.0004684453 -0.0001050115 0.0384896454 0.8427206662
800295200.0 -0.0509924455 -0.0998466004 0.0001418843 -0.000301586 0.0001222869 -0.0001036607 0.0470049824 0.8428275818
805295170.0 -0.0525998287 -0.0990624763 0.0002059929 -0.000179722 0.000487872 0.0002137605 0.0547151433 0.8424307234
810295140.0 -0.0537715644 -0.0984551455 0.0003791038 6.71557e-05 0.0003341517 -0.0001550525 0.0636086772 0.8413970159
815295110.0 -0.0554856383 -0.0975047759 0.0001898165 0.0001356069 0.0001987471 -7.24181e-05 0.0719887675 0.8406292423
820295080.0 -0.0567202188 -0.0964332048 0.0002106708 -6.74718e-05 0.000388628 5.07511e-05 0.0801184864 0.8403322385
825295050.0 -0.057935541 -0.0957651765 9.0553e-06 -5.1875e-06 6.81516e-05 9.00663e-05 0.0885998048 0.8401331067
830295020.0 -0.0596712462 -0.0947887102 -6.05874e-05 -0.0004115943 0.0001710742 0.0002014516 0.0972845179 0.8385377667
835294990.0 -0.0610010813 -0.093760038 -6.095e-07 4.63856e-05 0.0001706771 -0.000118937 0.1048736692 0.8378776723
840294960.0 -0.0624891069 -0.0928511234 0.0001462341 -0.0001523579 -3.03552e-05 -0.0001853384 0.1139339236 0.8361671572
845294930.0 -0.0637538429 -0.0918004198 0.0002435606 -0.0001569929 0.0001908715 -0.0001818882 0.1214334669 0.8351897088
850294900.0 -0.0651721929 -0.0906319007 -1.49996e-05 -3.0366e-06 0.0003994403 1.23988e-05 0.130053076 0.8338158482
