!Created with skrf (http://scikit-rf.org).
# Hz S RI R 50.0 
!freq ReS11 ImS11 ReS21 ImS21 ReS12 ImS12 ReS22 ImS22
300000.0 -0.0510689186 -0.0601343776 -0.000814208 -0.0007527824 -0.0001588894 0.0005839453 -0.7706857821 -0.1633470364
5299970.0 -0.0491654998 0.0154449835 0.0001004445 -0.0001264001 0.0001412242 -8.01768e-05 -0.7851631263 -0.0085244347
10299940.0 -0.0432845123 0.0333365926 0.0001864618 0.0001745684 0.0002145322 0.0001343245 -0.7884283168 -0.0051856827
15299910.0 -0.0352011158 0.0480599646 -5.5667e-06 0.0001000255 -9.29711e-05 4.09186e-05 -0.7938004582 -0.0027660678
20299880.0 -0.0246550409 0.0596924803 0.0002262942 -9.4584e-05 -0.0001598287 -2.27042e-05 -0.8005431116 0.001684417
25299850.0 -0.0131657994 0.0689764328 0.0001792572 -0.0002556264 -0.000225578 0.0002305791 -0.8067904065 0.007264097
30299820.0 -0.0014750812 0.0756521555 0.000231502 -0.0001459988 -4.14238e-05 0.0004132006 -0.8130727461 0.0146440945
35299790.0 0.0102892245 0.0806499375 6.00227e-05 0.0001661632 0.0001070673 -6.2324e-05 -0.8180914791 0.0238028172
40299760.0 0.0216657162 0.0831279269 -0.0002229653 7.13758e-05 1.37654e-05 -2.33293e-05 -0.8217121343 0.0333364547
45299730.0 0.0324399634 0.0848767142 -4.3869e-05 -0.0001308601 1.90481e-05 4.01085e-05 -0.8253336889 0.0425523821
50299700.0 0.0428908753 0.0843283112 3.31717e-05 -0.000231456 -8.6415e-05 -0.0001964315 -0.8281610391 0.0527310966
55299670.0 0.051988899 0.0831926086 -4.4821e-05 0.0001592103 9.18555e-05 0.0001033094 -0.8303468624 0.0631168858
60299640.0 0.0609638707 0.081296343 0.0001093016 0.0001275114 -0.0002048115 0.000105984 -0.8314653818 0.0729357398
65299610.0 0.0686690224 0.0790049864 -0.0002438952 5.0616e-05 6.1799e-06 0.000120402 -0.8318762267 0.0829776473
70299580.0 0.0755719162 0.075792329 -0.0001210103 -2.90723e-05 0.0001094568 2.39022e-05 -0.8328374548 0.0927024337
75299550.0 0.0820326766 0.0719830642 -0.0001192352 0.0001958981 0.0001554723 9.16433e-05 -0.8326348656 0.1020367584
80299520.0 0.0876467492 0.0686963062 3.50189e-05 7.1963e-06 0.0001047544 0.0001884123 -0.8323017477 0.1118368885
85299490.0 0.0929189635 0.0647120793 0.0002133774 0.0001098007 -0.000111014 -9.69709e-05 -0.8319362125 0.1218363472
90299460.0 0.0973159178 0.0611454343 -5.09889e-05 -4.74546e-05 6.10865e-05 1.81645e-05 -0.8309896117 0.131313653
95299430.0 0.1013178413 0.056981263 6.05756e-05 0.0002197808 -5.65211e-05 -1.87766e-05 -0.8301297057 0.1408688549
100299400.0 0.1049472335 0.0533149138 -8.9719e-06 6.46427e-05 5.46724e-05 2.56586e-05 -0.8290277937 0.1496727394
105299370.0 0.1082543913 0.0486118195 -0.0001513981 5.56747e-05 2.99257e-05 6.99857e-05 -0.8279575831 0.1590401107
110299340.0 0.1108805477 0.0448244907 2.84815e-05 -0.0001074183 0.000160402 -4.89599e-05 -0.8270050184 0.1684084347
115299310.0 0.113397003 0.0405069631 0.0002156421 2.50511e-05 -3.92803e-05 -8.45799e-05 -0.8248010868 0.1768568703
120299280.0 0.1153775803 0.0367908694 -3.04997e-05 9.28604e-05 1.2787e-06 8.0795e-05 -0.8232476642 0.1861123101
125299250.0 0.1174492624 0.0326293615 0.00017992 -2.40582e-05 6.41349e-05 -6.67266e-05 -0.8215425282 0.195261213
130299220.0 0.1192208397 0.0291208358 2.43488e-05 -6.42206e-05 -0.0001734731 0.0001440921 -0.8205193873 0.204048056
135299190.0 0.1206461348 0.0252895262 6.71121e-05 0.0001490398 -4.48352e-05 -8.02903e-05 -0.8182672043 0.2125397623
140299160.0 0.1221649712 0.0216040797 0.0001331695 7.3839e-06 0.0001901688 8.42903e-05 -0.8160393973 0.2217002278
145299130.0 0.1227780511 0.0178985221 0.0001056175 -0.0002172505 0.0001053359 3.92797e-05 -0.8139946301 0.2297120723
150299100.0 0.1238041172 0.0144266417 -9.00364e-05 -2.8355e-05 -0.0001348684 -5.71994e-05 -0.8115434051 0.2386300887
155299070.0 0.1246397539 0.0111060776 0.0001928386 5.61769e-05 -2.34733e-05 4.62264e-05 -0.8096200552 0.2475152286
160299040.0 0.1250634986 0.0076196745 0.0002562646 6.95465e-05 -1.78987e-05 -0.000118086 -0.807383423 0.256849274
165299010.0 0.1252216385 0.0043974423 -7.4206e-06 4.46377e-05 9.54354e-05 0.000100526 -0.8043981012 0.2648533238
170298980.0 0.1257554073 0.0009635611 -2.46272e-05 5.10935e-05 1.37129e-05 3.00792e-05 -0.8019988097 0.273803993
175298950.0 0.1259855779 -0.0019418068 -2.5839e-05 -7.78677e-05 0.0001912778 0.0001037247 -0.7990175739 0.2816100219
180298920.0 0.1260181952 -0.0052662471 -9.35137e-05 -5.90766e-05 4.0816e-06 -4.27117e-05 -0.795429146 0.2901781492
185298890.0 0.1261467769 -0.0083306593 -3.65392e-05 0.0001294023 0.0001532677 -1.68808e-05 -0.7930832406 0.2987059478
190298860.0 0.1262722575 -0.0111101893 9.48638e-05 -4.66725e-05 -2.41e-07 0.0002014866 -0.7897401045 0.3072295019
195298830.0 0.1265458491 -0.0140685977 0.0001221979 -7.37131e-05 0.0001650289 0.0001642129 -0.7869793738 0.3152963735
200298800.0 0.1256418036 -0.0168972389 -0.0001638479 -0.0001337327 0.0001448515 0.0002130124 -0.783300868 0.3239598699
205298770.0 0.1253778602 -0.0195207469 -0.0001595718 2.39903e-05 0.0002483672 0.0001416749 -0.7798663605 0.332108252
210298740.0 0.1250844763 -0.022208195 -0.0001412528 1.67008e-05 0.0001420272 2.04004e-05 -0.7764612649 0.3406752337
215298710.0 0.1247599623 -0.024854302 0.00019676 4.45972e-05 1.2978e-05 -1.6207e-05 -0.7737273176 0.3481975836
220298680.0 0.1241495887 -0.0273920819 1.0196e-05 3.54697e-05 -0.0001636319 0.0001425549 -0.7698344919 0.3569578136
225298650.0 0.1236695458 -0.0297380738 0.0001002581 -0.0001308415 0.0001047407 0.0001319993 -0.7661169953 0.3645077631
230298620.0 0.1230403814 -0.0324938756 0.0002407054 0.000132114 -5.79221e-05 0.0002225472 -0.7619943582 0.372446273
235298590.0 0.1223705516 -0.0349487803 -0.0001273647 3.8182e-05 -7.97637e-05 3.37148e-05 -0.7581317857 0.3805749896
240298560.0 0.1216074654 -0.0371835487 0.0002055154 0.0001041965 -0.0001011709 0.0001993713 -0.7543087454 0.3889999569
245298530.0 0.1209771792 -0.039504616 0.0003382642 5.68062e-05 -1.69104e-05 8.76387e-05 -0.7503831089 0.3965646265
250298500.0 0.1200777401 -0.0419185661 5.99698e-05 -0.000126798 0.0001899779 4.53586e-05 -0.7459502293 0.4047490071
255298470.0 0.119536744 -0.0439351564 2.41555e-05 -5.66563e-05 3.94664e-05 0.0001191695 -0.7416695061 0.412435448
260298440.0 0.1187217119 -0.046119956 2.16461e-05 3.4677e-05 -6.91593e-05 0.0001193581 -0.7367868186 0.419812214
265298410.0 0.1176855859 -0.0479502204 3.89287e-05 -0.0001697475 -2.94141e-05 -9.57501e-05 -0.7327751283 0.4273216518
270298380.0 0.1171138073 -0.0501187194 -0.0001975058 4.63124e-05 7.26589e-05 0.0001253684 -0.7280865172 0.4354908021
275298350.0 0.1162014984 -0.0521153192 -0.0001415194 -5.5703e-05 6.70433e-05 4.46365e-05 -0.7228648784 0.4429825317
280298320.0 0.1150735306 -0.054161716 -0.0002300792 5.92778e-05 8.244e-07 0.0002901646 -0.7191954833 0.4499322143
285298290.0 0.1143588598 -0.0561562948 -4.04766e-05 0.0001017238 0.0002735075 0.0001003669 -0.7136733545 0.4581634511
290298260.0 0.1133132775 -0.058109507 0.0001561409 0.0001766888 0.0001882409 1.12154e-05 -0.7089543547 0.4653495212
295298230.0 0.11216534 -0.0600917829 0.0001621902 -0.000185953 0.0001284806 -3.2038e-05 -0.7041934339 0.4729210386
300298200.0 0.1113179183 -0.0623231021 5.39349e-05 -5.2213e-05 -5.99222e-05 9.01937e-05 -0.6986630151 0.4800212351
305298170.0 0.1105816458 -0.0640421226 9.05957e-05 0.0003332669 2.62394e-05 3.61163e-05 -0.693431347 0.4880149162
310298140.0 0.109293387 -0.0664550127 -0.0001904665 -0.0002294458 0.0001894982 -0.000124443 -0.6891101022 0.495228526
315298110.0 0.1076672343 -0.0680864624 0.0001240073 -0.0002130014 0.0002229354 0.0002261873 -0.6836242478 0.5018794158
320298080.0 0.1065029862 -0.0700073697 0.0001360358 -4.40872e-05 0.0004372125 -2.48639e-05 -0.6785045583 0.5091502391
325298050.0 0.1050071656 -0.0718906012 4.0597e-06 -0.0001267692 0.000226305 -7.01234e-05 -0.6725534181 0.5161566186
330298020.0 0.1035057547 -0.0734483288 3.1146e-06 -5.28934e-05 -0.0001032636 0.0001790055 -0.6668659132 0.52351186
335297990.0 0.1021347929 -0.0750606259 0.0001719588 0.0001213212 0.0001093593 -1.75035e-05 -0.6619524342 0.5304870518
340297960.0 0.1005897653 -0.0762270491 4.24717e-05 9.0007e-06 -9.92749e-05 7.8025e-06 -0.6563270617 0.536976662
345297930.0 0.0993394934 -0.0778468203 -6.226e-07 0.0001392731 0.00014322 9.47722e-05 -0.6501090429 0.5437868535
350297900.0 0.0981977853 -0.0792361595 -4.96039e-05 8.89236e-05 0.0001616039 3.36237e-05 -0.6443857876 0.5507933867
355297870.0 0.0963856546 -0.0807043156 6.23323e-05 -2.0064e-05 9.03065e-05 7.858e-07 -0.6387737522 0.5570489513
360297840.0 0.0953281255 -0.0822227987 6.06888e-05 0.0001555413 0.0001276403 -1.9499e-06 -0.6326944201 0.5637471246
365297810.0 0.0938873045 -0.0835032155 8.36293e-05 2.20254e-05 0.0001543254 -0.0001001362 -0.6261479812 0.5708508644
370297780.0 0.0923505713 -0.0847144901 0.0001192005 0.0001500909 3.68476e-05 9.88501e-05 -0.6204701909 0.5763392431
375297750.0 0.0910338061 -0.0858953671 -3.78505e-05 -2.88358e-05 -2.0237e-05 9.36643e-05 -0.6145436913 0.5830872444
380297720.0 0.0900052544 -0.087351745 4.63055e-05 -1.52915e-05 -1.98352e-05 -7.94967e-05 -0.6081535372 0.5902277283
385297690.0 0.0881511356 -0.0884668426 -6.77201e-05 0.0001341225 5.8689e-06 -9.22698e-05 -0.6021919165 0.5961267623
390297660.0 0.0869904142 -0.0897587921 0.0001072063 2.41289e-05 9.09473e-05 0.0001268976 -0.595666503 0.6011137868
395297630.0 0.0855456632 -0.0911039077 -5.05754e-05 -0.0001414303 -1.61362e-05 -0.0001215495 -0.5895063423 0.6083066282
400297600.0 0.0840517964 -0.0919897585 -6.72e-07 0.0001245567 -0.0001375123 0.0001140359 -0.583457505 0.6140056273
405297570.0 0.082544171 -0.0933858767 9.25011e-05 -0.0002130161 5.029e-06 -0.0001509744 -0.5772506951 0.6204696404
410297540.0 0.0812303055 -0.094301699 2.25129e-05 0.0001125488 0.0001970946 -5.44918e-05 -0.5700608197 0.6255865243
415297510.0 0.0794506989 -0.0953867071 -6.21531e-05 -3.94279e-05 -3.7229e-05 -4.76492e-05 -0.5639928545 0.6317139901
420297480.0 0.077972885 -0.0966205979 -5.73088e-05 0.0001014037 0.00043098 4.26368e-05 -0.5571164884 0.6367577877
425297450.0 0.0765051747 -0.097622506 0.0001384395 4.87338e-05 0.000231591 0.0001655438 -0.5503064657 0.6428651922
430297420.0 0.0749686205 -0.0985920934 -5.53147e-05 0.0001678167 -5.67696e-05 -6.88354e-05 -0.544372915 0.648521507
435297390.0 0.0735019619 -0.0996703069 0.0001240971 1.25124e-05 -3.56999e-05 -4.78258e-05 -0.5368192295 0.653781834
440297360.0 0.0720508004 -0.1005460689 0.000143248 4.1354e-05 0.0001965225 3.95968e-05 -0.5308238639 0.6589482107
445297330.0 0.0704321867 -0.1013768259 8.4347e-05 2.00976e-05 0.0001557061 2.36251e-05 -0.5238793421 0.6645786582
450297300.0 0.0689503768 -0.102501146 6.50576e-05 0.0001892204 4.69895e-05 -3.98773e-05 -0.5173478732 0.6695697184
455297270.0 0.0673917957 -0.103289468 0.0001201222 1.14935e-05 0.0003161486 -1.71214e-05 -0.5102318934 0.6750647852
460297240.0 0.0655836291 -0.1038801644 0.0001011791 0.0001819073 0.0002041798 0.0001361298 -0.5029382704 0.680381012
465297210.0 0.0639958244 -0.1048015335 8.77389e-05 9.65305e-05 0.0002536359 -2.23924e-05 -0.4963618652 0.6852627067
470297180.0 0.062585729 -0.1055185498 5.7169e-05 -0.0001726693 0.0001922017 4.78802e-05 -0.4898002168 0.6895135072
475297150.0 0.061089461 -0.1064946608 0.0001477034 3.66783e-05 0.0002176513 -4.332e-07 -0.4825243486 0.694909208
480297120.0 0.0592796955 -0.1074517394 0.0003733643 -6.92882e-05 4.9863e-06 -2.79296e-05 -0.4755263607 0.7003475378
485297090.0 0.0578186151 -0.1080123886 5.28863e-05 0.0001621329 0.0001332059 5.01486e-05 -0.4679955073 0.7040507773
490297060.0 0.0560420124 -0.1085025348 -1.65314e-05 0.0001640408 0.0001472996 2.04019e-05 -0.4612449482 0.7088465269
495297030.0 0.0545287739 -0.1093282604 0.0003387054 -8.36798e-05 0.0001400815 0.0001113943 -0.4536849282 0.7127376066
500297000.0 0.0531705374 -0.1103787007 0.0001813713 0.0001957288 0.0002570819 0.000148469 -0.4470516476 0.7178888831
505296970.0 0.0511042326 -0.1106704647 0.0004158309 -1.63337e-05 0.000126809 -2.9008e-06 -0.4407233753 0.7222754766
510296940.0 0.049725604 -0.111192756 0.0001730375 -0.0002479813 2.10138e-05 -4.7464e-06 -0.4320895993 0.7265036213
515296910.0 0.0476543875 -0.1116114149 5.10334e-05 0.0001988442 0.0002892407 2.54701e-05 -0.4247349162 0.7306840551
520296880.0 0.0462307509 -0.1123326298 -0.0001703056 0.0001157886 0.000221683 -0.0001160983 -0.4178197536 0.7351681315
525296850.0 0.0446510511 -0.1127813492 0.0002666986 -0.000152401 4.49156e-05 0.0001314168 -0.410227294 0.7396907985
530296820.0 0.0430475064 -0.1137116477 0.0002184013 -4.13509e-05 0.0002779949 -0.0001969159 -0.402879556 0.7429351576
535296790.0 0.0413926146 -0.113763584 -1.04016e-05 0.0001529168 3.2251e-05 -2.16003e-05 -0.3963436273 0.7462933308
540296760.0 0.0394905859 -0.1145489477 0.0001930248 -0.0001492422 0.0001798726 -0.000145104 -0.3888161977 0.7512392852
545296730.0 0.0378765812 -0.1144741122 8.25297e-05 -9.47239e-05 0.0001224001 0.0002296384 -0.3807982303 0.7544980781
550296700.0 0.0361488415 -0.1150793535 0.0001745053 -6.4953e-06 0.0002786941 5.4572e-05 -0.3737142478 0.7578765536
555296670.0 0.0348338534 -0.1155896688 -9.31162e-05 -0.000287529 4.47952e-05 7.24855e-05 -0.366155506 0.7619778036
560296640.0 0.033077548 -0.1161059368 0.0004347514 0.0001738638 0.0002586337 -0.0001881245 -0.3581855258 0.7657765732
565296610.0 0.0311909266 -0.1164273533 9.92258e-05 -5.60199e-05 0.0002600696 0.0001374659 -0.350751184 0.7692215099
570296580.0 0.0296293476 -0.1166724021 0.0001643001 5.29668e-05 -3.68201e-05 -7.6525e-05 -0.3436571161 0.7727292206
575296550.0 0.0281293847 -0.1167848029 -5.69825e-05 -4.14891e-05 1.64477e-05 -7.54808e-05 -0.3348215176 0.7756597808
580296520.0 0.0263054838 -0.1171866701 0.0001844766 6.33014e-05 0.0003557696 -8.97295e-05 -0.3276609298 0.7791818598
585296490.0 0.0243738182 -0.1173694678 -4.48121e-05 0.0002426402 -3.9928e-06 4.10711e-05 -0.3200193829 0.7822345689
590296460.0 0.0225872441 -0.1173403596 0.0001667889 0.0001316249 -2.64531e-05 7.14781e-05 -0.3118468872 0.7852235162
595296430.0 0.0212525538 -0.1177911947 9.6217e-06 0.0003286585 5.30065e-05 -0.0002105148 -0.3046089908 0.7878933173
600296400.0 0.01936864 -0.1177662331 0.0002047598 0.0001413896 0.0004525109 8.15682e-05 -0.296535615 0.7915183291
605296370.0 0.0180319823 -0.1181865951 0.0001373574 -0.0001792068 0.0001510783 2.32833e-05 -0.2887371257 0.7945265591
610296340.0 0.0161495358 -0.1182823248 5.91699e-05 5.74015e-05 0.0001308137 0.0002074028 -0.2802757333 0.7974518704
615296310.0 0.014374049 -0.1180932029 0.0001517462 2.11791e-05 -1.232e-06 -1.3063e-06 -0.2731449593 0.7992934425
620296280.0 0.0127702829 -0.1183773184 0.0003493977 0.0001917775 7.24771e-05 0.000109286 -0.2646949051 0.8019633835
625296250.0 0.0110100099 -0.1184918443 6.37677e-05 -0.0001223852 -3.53365e-05 -0.0001016586 -0.2572000483 0.8048394436
630296220.0 0.0094516542 -0.1184035492 0.0001621953 2.93753e-05 -4.7302e-06 -5.70393e-05 -0.2489454611 0.8077293796
635296190.0 0.0075708136 -0.1186398454 0.0002191967 -0.000224281 -5.99727e-05 5.14371e-05 -0.2414218228 0.8094958808
640296160.0 0.0060355546 -0.1184032204 -3.0425e-06 9.0745e-06 0.000105725 -9.26686e-05 -0.2329530031 0.8118831915
645296130.0 0.0042058586 -0.118369721 3.57154e-05 -1.28777e-05 0.0003178569 0.0001066222 -0.2251836777 0.8141259654
650296100.0 0.0024279524 -0.118099523 0.0001877895 -6.9463e-06 0.0002712708 -0.0001364862 -0.2169009619 0.8171309221
655296070.0 0.0008516564 -0.1182864105 0.0001529309 -9.59429e-05 0.0002509454 -0.0001440041 -0.208877817 0.8185777399
660296040.0 -0.0008639835 -0.1177523543 0.0002648152 -0.0001533932 0.0001490828 0.0001043101 -0.2008215472 0.8202632473
665296010.0 -0.0022763308 -0.1178908573 0.0002268854 -1.57948e-05 6.96922e-05 0.0002231728 -0.1931185208 0.8225211231
670295980.0 -0.0041052727 -0.1178459852 -6.9514e-06 2.52059e-05 0.0002846035 -5.53534e-05 -0.1853195109 0.8240453005
675295950.0 -0.0057416076 -0.1175286144 0.0002203988 -1.51254e-05 0.0001447768 -0.0001281372 -0.1766087203 0.8263284659
680295920.0 -0.0075715198 -0.117066361 0.0001216219 -3.63849e-05 -7.59389e-05 0.0002529272 -0.1684521557 0.8278643598
685295890.0 -0.0091655404 -0.1167672388 0.0002498327 -2.2059e-06 7.89374e-05 -0.0001638352 -0.1597566847 0.8296231239
690295860.0 -0.0106169718 -0.116849591 0.0003087613 1.0581e-06 0.0001473304 3.78613e-05 -0.1515897706 0.8308978633
695295830.0 -0.0124784263 -0.1165148648 2.70842e-05 2.01764e-05 0.0001865524 -6.67198e-05 -0.1441965893 0.8326424693
700295800.0 -0.0139571823 -0.1163863802 0.000294306 0.0001364705 0.0001708436 1.26546e-05 -0.1350074051 0.8332840112
705295770.0 -0.0156683688 -0.1158924704 0.0002502914 9.9271e-06 1.03154e-05 -5.28037e-05 -0.1272565202 0.835365462
710295740.0 -0.0173876667 -0.1153015277 0.0001157862 6.62469e-05 8.93987e-05 -4.80313e-05 -0.1193468137 0.8370339266
715295710.0 -0.019013554 -0.1148501207 0.0003413814 6.42176e-05 0.0002039501 -5.59386e-05 -0.1110720996 0.8375133446
720295680.0 -0.0204888543 -0.114989531 0.0001978309 -9.77711e-05 3.30617e-05 0.0001337933 -0.1028835748 0.8383987937
725295650.0 -0.0222997318 -0.1142116429 0.0001366165 -0.0002227974 0.0001089793 3.82667e-05 -0.09412884 0.8395252385
730295620.0 -0.024033439 -0.1140966044 4.0129e-06 -0.0001193618 0.000259897 0.000143933 -0.0861334753 0.840399073
735295590.0 -0.0253125481 -0.1135952252 0.0002079825 -9.89253e-05 7.56773e-05 7.4734e-05 -0.0771207739 0.8410895774
740295560.0 -0.0270374253 -0.1127019863 7.38472e-05 -3.20678e-05 0.0001782176 -4.90367e-05 -0.0696756887 0.8411469956
745295530.0 -0.0286034791 -0.1124255357 0.0002849041 -8.6944e-06 5.09973e-05 -0.0001483469 -0.0609266267 0.8425691814
750295500.0 -0.030015164 -0.1121561277 3.3892e-06 0.0002564947 0.0001791426 -5.52529e-05 -0.0525236558 0.8424260857
755295470.0 -0.0315858833 -0.1111509931 0.0001473953 -0.0003706501 0.0001157798 -4.25521e-05 -0.04516977 0.8439847034
760295440.0 -0.0335748939 -0.1105079603 -6.3185e-05 -4.42501e-05 0.000137548 -0.0001953485 -0.0364795481 0.8441304946
765295410.0 -0.0349514455 -0.1101445166 0.0002617967 -0.0001382714 -1.81537e-05 -3.29076e-05 -0.0274180618 0.8446224619
770295380.0 -0.0362859495 -0.1093683227 0.0001270643 -0.0003755598 0.0002665894 6.33149e-05 -0.0192348095 0.844465576
775295350.0 -0.0383442726 -0.1089022579 0.0003713639 -5.59423e-05 0.0001098215 0.0001387002 -0.01157558 0.8440733361
780295320.0 -0.0397732548 -0.1084040074 7.54911e-05 0.0001061774 0.0002005626 -8.53463e-05 -0.0031974321 0.8450449413
785295290.0 -0.0410867703 -0.1073909547 0.0002936999 4.622e-07 0.0001289652 0.0001785177 0.0050416684 0.8448596194
790295260.0 -0.042669559 -0.1068892345 0.0002038293 0.0001070317 0.0001720021 9.58497e-05 0.0140706646 0.8445594275
795295230.0 -0.0441545224 -0.1060710631 1.23631e-05 0.0001093894 9.23429e-05 -3.17407e-05 0.0221904038 0.8445700108
800295200.0 -0.0454795346 -0.1053517863 0.0002627261 -9.7883e-05 0.0002446411 0.0002062615 0.0301697378 0.8441125279
805295170.0 -0.0471035168 -0.1047061233 0.0002016231 -0.0001807494 7.1386e-06 -1.21993e-05 0.0378642601 0.8435924654
810295140.0 -0.048503771 -0.1038049497 0.0004274265 -0.0002207153 0.0002422829 -4.19187e-05 0.0464392814 0.8441354181
815295110.0 -0.0501085618 -0.1030546196 9.47967e-05 -0.0003672379 9.09547e-05 8.45773e-05 0.0548709422 0.843278823
820295080.0 -0.0514167643 -0.1024448989 8.37608e-05 -8.04739e-05 0.000134336 -4.32874e-05 0.0627163134 0.8425675041
825295050.0 -0.0530295238 -0.1014478199 -3.61856e-05 -0.0001293419 0.0002217055 0.0001806762 0.071322611 0.8422019513
830295020.0 -0.0541863956 -0.1005876414 0.0003304715 -0.0001341168 0.0001987564 -2.5729e-06 0.0791895824 0.8412063431
835294990.0 -0.0558888148 -0.0997093887 1.586e-07 -3.90635e-05 0.0001997835 -0.0001081056 0.0882099237 0.840310826
840294960.0 -0.0572147528 -0.0989129667 0.0001743652 -6.11346e-05 0.00029133 -4.42732e-05 0.095994563 0.8397064584
845294930.0 -0.0585284432 -0.0980547887 0.0002045225 -2.85207e-05 0.0002434991 3.59441e-05 0.1041599093 0.8382846037
850294900.0 -0.0600246547 -0.0969916143 0.0002508734 -0.0003247361 7.05827e-05 -0.0001284032 0.1123240686 0.8376010549
