!Created with skrf (http://scikit-rf.org).
# Hz S RI R 50.0 
!freq ReS11 ImS11 ReS21 ImS21 ReS12 ImS12 ReS22 ImS22
300000.0 -0.3229430561 -0.078204181 0.376691079 0.0421838363 0.3723397936 0.0408346231 -0.3196939019 -0.0968735926
5299970.0 -0.3265119252 0.0043901116 0.3783614061 0.0022672485 0.3781251675 0.0030548572 -0.3239093594 0.0047522995
10299940.0 -0.3242992596 0.0134272548 0.3793513443 0.0018120057 0.3796804874 0.0021861408 -0.3215540498 0.0162324486
15299910.0 -0.3214999459 0.0203164096 0.3818325628 0.0022361743 0.3822070614 0.0019360242 -0.3183838499 0.023748722
20299880.0 -0.3188375518 0.0262721813 0.3847765428 0.0022160156 0.3847586286 0.0015100473 -0.314549335 0.0303272134
25299850.0 -0.3156465744 0.0317238524 0.3882029271 6.08374e-05 0.3879713522 6.49959e-05 -0.3107826009 0.0361907999
30299820.0 -0.3129536394 0.0358172755 0.3911280093 -0.0023901999 0.3914255664 -0.0025236613 -0.307040361 0.0408492258
35299790.0 -0.3099705381 0.0400499811 0.3946902199 -0.005628086 0.3950573058 -0.0056506082 -0.3034572231 0.0451600215
40299760.0 -0.3071632764 0.0435361164 0.3978126125 -0.0087577081 0.3982203104 -0.0089046356 -0.300319789 0.048616667
45299730.0 -0.3047687221 0.0465872282 0.4006276748 -0.0128576686 0.4009108785 -0.0126325605 -0.2973667665 0.0519078623
50299700.0 -0.3027167648 0.0494494802 0.4035862996 -0.0171028116 0.4034280142 -0.0170539886 -0.2939812562 0.0544458294
55299670.0 -0.3003874405 0.0522217073 0.4058577021 -0.0222957617 0.4055185174 -0.0222735125 -0.2916060888 0.0571892226
60299640.0 -0.2981207449 0.0548959585 0.4075387628 -0.0270080469 0.4078331641 -0.0268671733 -0.2894252073 0.0593697653
65299610.0 -0.2965573036 0.0575105659 0.4092654412 -0.0317861062 0.4090464278 -0.0319340372 -0.2869903881 0.0617112692
70299580.0 -0.2946263195 0.0601298517 0.4103121116 -0.0373088875 0.4107422788 -0.0368151045 -0.2853988464 0.0639300125
75299550.0 -0.2929020208 0.0626639719 0.4111096381 -0.0423628467 0.4114670887 -0.0422934427 -0.2833927776 0.0657415554
80299520.0 -0.2915838584 0.0646824426 0.4121588849 -0.0475614103 0.4126088371 -0.0475723336 -0.2817891186 0.0682774068
85299490.0 -0.2902563953 0.066875339 0.4126909822 -0.0527034101 0.4126979929 -0.052342049 -0.2800685387 0.0698926011
90299460.0 -0.2888179683 0.0693691057 0.4130697916 -0.0578095335 0.4132196874 -0.0579890124 -0.2783279555 0.0720523481
95299430.0 -0.2874225573 0.0717816023 0.4135326352 -0.0629831489 0.4135130247 -0.0632378498 -0.2766904917 0.0742316354
100299400.0 -0.2864284927 0.074147259 0.4130575626 -0.0683655878 0.4132250646 -0.0683464299 -0.2750032342 0.0762879088
105299370.0 -0.2851471917 0.0763800945 0.4130230656 -0.0738341895 0.4135632919 -0.0736046029 -0.273735261 0.0784104022
110299340.0 -0.2839460029 0.0788333692 0.4131184259 -0.0787717358 0.4130921161 -0.0785303905 -0.2729520188 0.0805724584
115299310.0 -0.282994434 0.0813980927 0.4130701598 -0.084319659 0.4127934478 -0.0837645065 -0.2712922592 0.08249839
120299280.0 -0.2817298366 0.0829147237 0.412279457 -0.088555769 0.4125669529 -0.0892106829 -0.2705530406 0.0849482554
125299250.0 -0.2808541929 0.0854026795 0.4120437642 -0.0939190245 0.4119262628 -0.0936880016 -0.2695489535 0.086478679
130299220.0 -0.2804463992 0.0879923815 0.4107801626 -0.0988265527 0.4107845781 -0.0993308869 -0.2685579091 0.0885277468
135299190.0 -0.279518454 0.090560849 0.4107887012 -0.1040947961 0.4105420096 -0.103696864 -0.2671370984 0.091132701
140299160.0 -0.2784001559 0.0932505248 0.4098540109 -0.1094335732 0.4096711346 -0.1093801562 -0.2662428876 0.0937120436
145299130.0 -0.2771865672 0.0956633012 0.4084287392 -0.1139825681 0.4082810603 -0.1140526158 -0.2655284701 0.0958331208
150299100.0 -0.2763375198 0.0982475273 0.4076722564 -0.1186331233 0.4078118287 -0.1187556261 -0.2642671259 0.098530268
155299070.0 -0.2755052367 0.1008010675 0.4065647496 -0.1239064171 0.4062713311 -0.1241301833 -0.2630719268 0.1008099879
160299040.0 -0.2745492434 0.1032305484 0.4053560037 -0.1289034775 0.4050319625 -0.1290309258 -0.2627289617 0.1029576747
165299010.0 -0.2737388025 0.1061549692 0.404321545 -0.1338145393 0.404076486 -0.1338782763 -0.261424102 0.1058255416
170298980.0 -0.2729435067 0.108498834 0.4025517087 -0.1385607447 0.4029384734 -0.1386453813 -0.2601836908 0.1083379971
175298950.0 -0.2719446547 0.1111425111 0.4017531852 -0.1431954619 0.4010158735 -0.1430994493 -0.2594959965 0.1106129397
180298920.0 -0.270970654 0.1138590057 0.4000084316 -0.1475908321 0.3999085755 -0.147718255 -0.2584596489 0.1131257124
185298890.0 -0.2692619661 0.11614012 0.3982958496 -0.1523391285 0.3981045222 -0.1525252048 -0.2571391739 0.1159579955
190298860.0 -0.2689089929 0.119265597 0.396839412 -0.1574092193 0.3970493617 -0.1573494207 -0.2563216943 0.1185173424
195298830.0 -0.2680256922 0.1216599987 0.3952641779 -0.1621106338 0.3951746938 -0.1619016932 -0.254845546 0.1210892704
200298800.0 -0.2664276961 0.1245903435 0.3933938315 -0.1667311941 0.3937424258 -0.1666818536 -0.2545337477 0.1234847804
205298770.0 -0.2655751481 0.1271874479 0.3918292343 -0.1712745218 0.3914541916 -0.1710633683 -0.2531235538 0.1255941876
210298740.0 -0.2642424843 0.1299593388 0.3896741075 -0.1757097384 0.3898077465 -0.175362851 -0.2520246596 0.128613047
215298710.0 -0.2634125389 0.1328268904 0.3882431294 -0.1803007196 0.3878739348 -0.1803019141 -0.2512595986 0.130926453
220298680.0 -0.2618666771 0.1350873437 0.3853374283 -0.1846690031 0.3855452686 -0.1847459917 -0.2499877934 0.1332536813
225298650.0 -0.2613700315 0.1380965929 0.3839776167 -0.1892516481 0.3839576912 -0.1890920135 -0.2491946655 0.1357463755
230298620.0 -0.2597889599 0.1409294369 0.3819016474 -0.1934987498 0.3823893018 -0.1937172232 -0.2479511199 0.1384355099
235298590.0 -0.2582580369 0.143443558 0.3794593737 -0.1978266692 0.3801035704 -0.1975811298 -0.2465891408 0.1412643866
240298560.0 -0.2569616108 0.1465187864 0.3778540705 -0.2022800914 0.3773117152 -0.202645994 -0.2451192624 0.143993154
245298530.0 -0.2557505347 0.1489587358 0.3757286022 -0.2067301197 0.375578143 -0.2066215671 -0.2439027438 0.1459523183
250298500.0 -0.2543151703 0.1517588615 0.3725210418 -0.2113015927 0.3728285504 -0.2107420038 -0.2424856098 0.1487560459
255298470.0 -0.2530817628 0.1539174022 0.370331769 -0.2146514867 0.3705673541 -0.2150134168 -0.2412523757 0.1510653106
260298440.0 -0.2515965102 0.1568474504 0.3682378167 -0.2194021966 0.3685541026 -0.2191986765 -0.2394233892 0.1537071882
265298410.0 -0.2500743083 0.1598463129 0.3657773737 -0.2238655568 0.3660516571 -0.2234389134 -0.238348256 0.1560224224
270298380.0 -0.2486695411 0.1624359834 0.3637467103 -0.2274036875 0.363826121 -0.2274534676 -0.2369206119 0.1587550782
275298350.0 -0.2467276323 0.1653566515 0.3607484758 -0.2316133166 0.3613272382 -0.2315684878 -0.2350769306 0.1611907329
280298320.0 -0.2451409977 0.1680139414 0.358915124 -0.2357199645 0.3587359601 -0.2356680848 -0.2335451636 0.1635148562
285298290.0 -0.2435534545 0.1708375321 0.3559438173 -0.2400632613 0.3558404387 -0.2400690049 -0.2321129521 0.1660180903
290298260.0 -0.2417726199 0.1731267615 0.3529685283 -0.24361906 0.3532438818 -0.2438681019 -0.230263684 0.1685443276
295298230.0 -0.2399740978 0.175402122 0.3506507628 -0.2479335961 0.3506370247 -0.2476162238 -0.2283514319 0.1707904815
300298200.0 -0.2385595604 0.1782218977 0.3480709767 -0.2513202842 0.3478145125 -0.2519393897 -0.2267630351 0.1734635154
305298170.0 -0.2366214014 0.1805297256 0.3449196406 -0.2560204241 0.3450010812 -0.2559332039 -0.2243839345 0.1757218968
310298140.0 -0.2348662481 0.1835325553 0.342086431 -0.2597372865 0.3424317204 -0.259544987 -0.2232455253 0.1780512651
315298110.0 -0.2330505593 0.1858494014 0.3394590023 -0.2634607618 0.3395353652 -0.263600589 -0.2213328003 0.1805951971
320298080.0 -0.2312693787 0.1884453031 0.3361301003 -0.2679659045 0.3365045238 -0.2677280776 -0.2196631448 0.1832650434
325298050.0 -0.2294411313 0.1904528333 0.3334061184 -0.2715540182 0.333618454 -0.2713152535 -0.2181457778 0.1853955826
330298020.0 -0.2275051749 0.1931449619 0.3300720314 -0.2752219659 0.3303567633 -0.2751036465 -0.216259631 0.1878695818
335297990.0 -0.2256743591 0.1955709592 0.3270072689 -0.2785751193 0.3270757861 -0.2786691826 -0.2149133901 0.1907464952
340297960.0 -0.2242628418 0.1982638191 0.323822481 -0.2823725413 0.3236048664 -0.2824828499 -0.2123337132 0.1928445898
345297930.0 -0.2221277749 0.200881527 0.3204659632 -0.2859540847 0.3206239031 -0.2861305154 -0.2105345589 0.1951038991
350297900.0 -0.2204603268 0.2031729817 0.3173539185 -0.2896379768 0.3170443636 -0.2895477927 -0.2091257056 0.1978569955
355297870.0 -0.2180671808 0.2059550165 0.3139575932 -0.2929782594 0.3142793955 -0.2926612953 -0.2073251202 0.2000335909
360297840.0 -0.2162106602 0.2087052546 0.3113094232 -0.296357247 0.3114678532 -0.2959622198 -0.2052761273 0.2026916802
365297810.0 -0.2138422013 0.211143736 0.3074722169 -0.3000670344 0.3075747319 -0.2998399643 -0.2028446584 0.2048395061
370297780.0 -0.2116145227 0.2131257285 0.303765146 -0.3029360624 0.3044665894 -0.3028386006 -0.2006417477 0.2075598368
375297750.0 -0.2094761748 0.215755806 0.3008952024 -0.3066210157 0.3011180472 -0.3064456463 -0.1987792021 0.2093604187
380297720.0 -0.2074662633 0.2177674883 0.2974986122 -0.3097693525 0.2976776411 -0.309466369 -0.1971597756 0.2119064555
385297690.0 -0.2054408088 0.220538584 0.2941274184 -0.3128855394 0.2937979928 -0.3131733402 -0.1944890615 0.2144478292
390297660.0 -0.2030307731 0.2228191985 0.2903937809 -0.316241038 0.2904404937 -0.3158556968 -0.1926957725 0.216452522
395297630.0 -0.2007848018 0.2249522445 0.2872726166 -0.3192972819 0.2869823382 -0.3192998542 -0.1898780133 0.2188308725
400297600.0 -0.1984741765 0.2276245921 0.2830762847 -0.3228378697 0.2833574395 -0.3223267606 -0.1880116957 0.2206628697
405297570.0 -0.1963553079 0.2295583275 0.2801547829 -0.3253789429 0.2800422249 -0.3252779624 -0.1861767673 0.2228593598
410297540.0 -0.1935960878 0.2320473331 0.2763346591 -0.3287982 0.2763623249 -0.3286887565 -0.1837192386 0.2253008679
415297510.0 -0.1913808043 0.2335879197 0.2723977476 -0.3317062643 0.2728351211 -0.3317758431 -0.1815611109 0.2272568018
420297480.0 -0.1889422 0.2366043709 0.2687855093 -0.334897562 0.2690275634 -0.3346927688 -0.1793953751 0.229179014
425297450.0 -0.1864447307 0.2380358842 0.2655389956 -0.3373064442 0.2654852971 -0.3373928048 -0.1771715692 0.2312870053
430297420.0 -0.1840647221 0.2403629763 0.2615417667 -0.3401069341 0.2615538488 -0.3401833157 -0.1745567373 0.2330205674
435297390.0 -0.1818804968 0.2425215648 0.257462557 -0.3432902019 0.2571830451 -0.3432722858 -0.1717463782 0.2350947873
440297360.0 -0.1793436478 0.2445235762 0.2538167887 -0.3458881062 0.2541562195 -0.3460048887 -0.1697943834 0.2368283493
445297330.0 -0.1767368932 0.2465700815 0.2504323743 -0.3486580519 0.2502726306 -0.3487804564 -0.1671382928 0.2385977357
450297300.0 -0.1739953837 0.2482103638 0.2462823174 -0.3511295875 0.2464593169 -0.3514726383 -0.1644591035 0.2406776031
455297270.0 -0.1716818959 0.2506691667 0.2422661193 -0.354306124 0.242595228 -0.3541757244 -0.162224578 0.2423863456
460297240.0 -0.1690580326 0.2523479243 0.2384457393 -0.356246618 0.2382742903 -0.3568322942 -0.1596176524 0.2446839768
465297210.0 -0.1661225603 0.2543663161 0.2345396129 -0.3592131077 0.2347189508 -0.3594357442 -0.156910198 0.2460498196
470297180.0 -0.163527846 0.2559362892 0.2303815643 -0.3616853144 0.2303218546 -0.3618129363 -0.1544454672 0.2484254172
475297150.0 -0.1609520823 0.2578681177 0.2261793826 -0.3637515878 0.2267939196 -0.363974246 -0.1516737668 0.2495342836
480297120.0 -0.1584182279 0.2600994499 0.2225798915 -0.3670352155 0.2223062254 -0.3667739749 -0.1487156826 0.2517627562
485297090.0 -0.1553301548 0.2617368743 0.2185605181 -0.3685331951 0.2186205439 -0.3688467474 -0.1460602798 0.2531605857
490297060.0 -0.1530026119 0.2639082327 0.2145793823 -0.3714521219 0.2143088135 -0.3712048579 -0.1435824746 0.2547153199
495297030.0 -0.1500609714 0.2653278931 0.2100463144 -0.3735009255 0.2107718748 -0.3736814321 -0.1410355606 0.2567527298
500297000.0 -0.1472467337 0.2668915221 0.2062946203 -0.3755923421 0.205856435 -0.3756953647 -0.1379159889 0.2587020624
505296970.0 -0.1445727617 0.2685091714 0.2021056526 -0.3775440747 0.2020824563 -0.3781305831 -0.1354727415 0.2600011604
510296940.0 -0.1417621453 0.2704444219 0.1978709574 -0.3802705979 0.197766369 -0.3801001599 -0.1323896059 0.2616160912
515296910.0 -0.1386820655 0.271729336 0.1936968688 -0.3823401833 0.1937343463 -0.3820347725 -0.130105447 0.2632941781
520296880.0 -0.1361166401 0.2738177664 0.1897567495 -0.3845129079 0.1896318559 -0.3845049768 -0.1274458912 0.2648023396
525296850.0 -0.1329775836 0.275148015 0.1849315843 -0.3864153786 0.1854835669 -0.3865694995 -0.1245171737 0.266390914
530296820.0 -0.1299579378 0.2766856483 0.1807550147 -0.3885962652 0.1811504595 -0.3885265835 -0.121514841 0.2680768758
535296790.0 -0.1278775382 0.2783903937 0.1773349023 -0.3901997189 0.1769912356 -0.3898935793 -0.1191202658 0.2690230556
540296760.0 -0.1245898494 0.2798900988 0.1725803386 -0.3924277979 0.1723107467 -0.3924207617 -0.1161467792 0.2708212253
545296730.0 -0.1218511026 0.2810763653 0.1680647861 -0.3939435834 0.1682196657 -0.3941225302 -0.1134785476 0.2724257269
550296700.0 -0.1185553849 0.2828257866 0.1638939077 -0.39561521 0.163893004 -0.3957940119 -0.1108595122 0.2736193006
555296670.0 -0.1155242206 0.2837187001 0.1596137064 -0.3974872487 0.1597568264 -0.3975797319 -0.108148429 0.2756288039
560296640.0 -0.1125380161 0.2855782297 0.1551251484 -0.3992779593 0.1554294293 -0.3990514472 -0.104791903 0.2763765171
565296610.0 -0.1100468908 0.2869197103 0.1508722274 -0.4008191409 0.151004484 -0.4007707716 -0.1023847989 0.2775588994
570296580.0 -0.1073099488 0.2876744843 0.1465044653 -0.4026812871 0.1462891352 -0.4024959603 -0.0996909049 0.2791199431
575296550.0 -0.1038862624 0.2894455865 0.1423931527 -0.4040759565 0.1418242841 -0.4041722132 -0.096380814 0.2799574248
580296520.0 -0.1007295231 0.2905114575 0.1376469656 -0.4058717565 0.1374419812 -0.4058147603 -0.0933099044 0.2814070055
585296490.0 -0.0979315649 0.2914900406 0.1336043722 -0.4069248784 0.1334204399 -0.4071859212 -0.0903933106 0.2826892441
590296460.0 -0.0945054109 0.2928077986 0.1288001192 -0.4075968497 0.1288902705 -0.4078269722 -0.0879573773 0.2834165179
595296430.0 -0.0915120549 0.2938835716 0.124005089 -0.4097778297 0.1239351577 -0.4096871399 -0.0849609979 0.2839786906
600296400.0 -0.0886601624 0.2952496089 0.119920648 -0.4110378556 0.1199729962 -0.4107074151 -0.0819550069 0.2850501428
605296370.0 -0.0855594078 0.2961161342 0.115278719 -0.4121891076 0.115439144 -0.4122024596 -0.0784838783 0.2862352851
610296340.0 -0.0822439814 0.2973101273 0.1104142281 -0.4131397138 0.1110275149 -0.413214526 -0.0760385483 0.2871226566
615296310.0 -0.0788691794 0.2979497837 0.1060645808 -0.4141142431 0.1061023522 -0.4147789448 -0.0725604603 0.2880523002
620296280.0 -0.0763135344 0.2987951763 0.1019048263 -0.4154858491 0.1016411059 -0.4153074787 -0.0698624332 0.2890263816
625296250.0 -0.0729817561 0.2996688485 0.0975483387 -0.416430216 0.0972636029 -0.4167954121 -0.0662223656 0.2895957107
630296220.0 -0.0692337612 0.3009557516 0.0923842338 -0.4178391594 0.0922791485 -0.417466962 -0.0632437625 0.2906675073
635296190.0 -0.0668599181 0.3016402142 0.0881023915 -0.4184414016 0.0878805882 -0.4186147722 -0.060328443 0.2913581549
640296160.0 -0.0633973968 0.3022849623 0.083831535 -0.4191555779 0.0838443577 -0.41939865 -0.0569287147 0.2922010893
645296130.0 -0.0603037859 0.3032798065 0.0791136808 -0.4198134556 0.0791818593 -0.4202094818 -0.0540540318 0.2930175817
650296100.0 -0.0572314764 0.3039957626 0.074500162 -0.4209267078 0.0745606905 -0.4209886414 -0.0508672222 0.2933793126
655296070.0 -0.0539564154 0.3048644979 0.069888568 -0.4220616747 0.0702143382 -0.4219074192 -0.047539453 0.2942351535
660296040.0 -0.0512542204 0.3048578379 0.0657222712 -0.4221798705 0.0652617769 -0.4225533586 -0.0443048628 0.2947827941
665296010.0 -0.0472510528 0.3056486337 0.0604480171 -0.4230307223 0.060622092 -0.4230125942 -0.0412406523 0.2959571358
670295980.0 -0.0449060634 0.3068292096 0.0565485991 -0.4236185401 0.0560723939 -0.4236318584 -0.0385693513 0.2964648176
675295950.0 -0.0414828164 0.3073718127 0.0518433064 -0.4240573325 0.0517240432 -0.4240496219 -0.0354858723 0.2970846879
680295920.0 -0.0382258559 0.3076155848 0.0473839274 -0.4245273526 0.0464241962 -0.4252016725 -0.0316994657 0.2978604515
685295890.0 -0.0346125264 0.3089088203 0.0424963933 -0.4254652188 0.0423366548 -0.4251627781 -0.028873884 0.297941231
690295860.0 -0.0313891832 0.3091455256 0.0379833037 -0.4250590813 0.0377501212 -0.4259305216 -0.0259375493 0.2990976312
695295830.0 -0.0285487996 0.3094573552 0.033160224 -0.4255771262 0.0332862173 -0.4256204773 -0.0225042311 0.2991646016
700295800.0 -0.0251505157 0.3096922635 0.0283319313 -0.4258872013 0.0283531375 -0.4261583561 -0.0199488707 0.3000857988
705295770.0 -0.0222945083 0.3107479989 0.0239578024 -0.426730651 0.0241298022 -0.4264899262 -0.0167484788 0.3004007336
710295740.0 -0.0185127423 0.3107677807 0.0194953733 -0.426977665 0.0196461538 -0.4267100547 -0.0133071018 0.3002709191
715295710.0 -0.0154768529 0.3107653021 0.0148502738 -0.4265869886 0.014472998 -0.4269517199 -0.010202129 0.3006196071
720295680.0 -0.012222512 0.3110983051 0.0100653402 -0.4269580697 0.0103051475 -0.4271763134 -0.0071495873 0.3012058758
725295650.0 -0.0087937623 0.3117081394 0.0052705716 -0.4268989072 0.0057562478 -0.4271386252 -0.0043321165 0.3015924404
730295620.0 -0.0054752434 0.3118962116 0.0006053311 -0.4265923351 0.0009745858 -0.4265473663 -0.0010747403 0.3012415366
735295590.0 -0.0023139358 0.3121702034 -0.0035719174 -0.4271517193 -0.0041166205 -0.4267552824 0.0015228354 0.3012206674
740295560.0 0.0008846803 0.3126096598 -0.0085023142 -0.4267111487 -0.0082989476 -0.4266966504 0.005563912 0.3020360366
745295530.0 0.003922039 0.3125726133 -0.012990959 -0.4262497504 -0.0132992741 -0.4264458489 0.0086982092 0.3017324401
750295500.0 0.0075364207 0.3124871414 -0.0173378682 -0.4264055835 -0.0174246747 -0.4266253986 0.0116814393 0.3019252988
755295470.0 0.0107036481 0.3123702085 -0.0222110852 -0.4261812938 -0.0224353638 -0.4263591884 0.0149437951 0.3015336491
760295440.0 0.0139059123 0.312274406 -0.0267771182 -0.4260681836 -0.027065698 -0.426291255 0.0179006651 0.301465326
765295410.0 0.0171340113 0.3122610191 -0.0315903939 -0.4252268192 -0.0317442538 -0.4257323533 0.0212379119 0.3016607247
770295380.0 0.0201788503 0.3124769697 -0.0359250136 -0.425297112 -0.0363438756 -0.424907017 0.0240794093 0.3013593375
775295350.0 0.0235451892 0.3117813404 -0.0410397597 -0.4242679555 -0.0403920306 -0.4245244922 0.0268677311 0.3012807444
780295320.0 0.0268011085 0.312032295 -0.0452784765 -0.4238967705 -0.0448150213 -0.4237707379 0.0302829086 0.300906867
785295290.0 0.0300807588 0.3114331382 -0.0501631683 -0.4230635409 -0.0498946884 -0.4233938652 0.0339112241 0.3006870896
790295260.0 0.0336859848 0.3118701978 -0.0541364318 -0.4230490453 -0.0538223065 -0.4227752131 0.0368702836 0.3008829092
795295230.0 0.0364713034 0.311121886 -0.0586763267 -0.4216264366 -0.0585297547 -0.4224085596 0.0405299843 0.3002699292
800295200.0 0.0396252199 0.3112712275 -0.063921557 -0.42098662 -0.0634876526 -0.4214613776 0.0434835535 0.2998062458
805295170.0 0.0434002644 0.3103708163 -0.0679622426 -0.4205000959 -0.067984814 -0.4208837138 0.0463074676 0.2998173415
810295140.0 0.0460700629 0.3102251442 -0.0721594747 -0.4197377521 -0.0725693306 -0.4199309233 0.0498395196 0.2994614415
815295110.0 0.0496168721 0.3098724422 -0.0770236657 -0.4187698071 -0.0768737488 -0.4190445286 0.0529306425 0.2988107729
820295080.0 0.0524248851 0.3097504362 -0.0813429352 -0.4177814961 -0.0812391967 -0.4181078261 0.0563683879 0.2986266247
825295050.0 0.0563505991 0.3092563384 -0.0857940145 -0.4171022288 -0.086028628 -0.4173404701 0.0596797034 0.2980057298
830295020.0 0.0593625605 0.3086306276 -0.0907138224 -0.4159944029 -0.0905544028 -0.4159220935 0.0630455952 0.2977768382
