!Created with skrf (http://scikit-rf.org).
# Hz S RI R 50.0 
!freq ReS11 ImS11 ReS21 ImS21 ReS12 ImS12 ReS22 ImS22
300000.0 0.8589246348 -0.0026657887 2.06002e-05 0.0002423762 -0.0005772105 -0.000369147 -0.774968274 -0.1381996644
5299970.0 0.8590079862 -0.010145032 1.8629e-06 0.0003518083 7.1279e-06 -0.0001599327 -0.7837558833 -0.0071668824
10299940.0 0.8582130952 -0.0185181812 0.0001362193 -0.0001074434 -4.76668e-05 -0.0001982497 -0.7868539284 -0.0037168576
15299910.0 0.8573117649 -0.0276248859 0.0001324637 0.000102918 0.0002343523 7.24314e-05 -0.792919244 -0.0012613765
20299880.0 0.8564372781 -0.0357197715 -3.39767e-05 -0.0001123584 -8.73682e-05 9.56549e-05 -0.7994425622 0.0023359367
25299850.0 0.8563680046 -0.0437488237 -0.0001541702 -4.57073e-05 -0.0001784911 2.77326e-05 -0.8054532096 0.0086484649
30299820.0 0.8546864551 -0.052341367 -1.58252e-05 0.000102928 7.1299e-06 -7.57819e-05 -0.8118753749 0.0164910583
35299790.0 0.8541523229 -0.0603771214 -0.0002647903 0.0001545217 0.0002812863 -1.35475e-05 -0.8169898565 0.0254003465
40299760.0 0.8530387025 -0.0692361565 6.19739e-05 -3.06636e-05 8.17926e-05 -0.0001617181 -0.8209820029 0.0346599832
45299730.0 0.8531927444 -0.0770313669 6.42305e-05 0.0001347466 -0.0001409311 -6.43766e-05 -0.8250647716 0.0442755211
50299700.0 0.8520427742 -0.0853169749 -4.47975e-05 -4.51143e-05 3.21479e-05 -8.27324e-05 -0.8272377989 0.0544514632
55299670.0 0.8508562545 -0.0942935548 6.15596e-05 9.1284e-06 -0.0001507382 -7.46014e-05 -0.8291879039 0.064899477
60299640.0 0.8498110352 -0.101532158 4.5258e-05 8.66838e-05 6.0273e-06 -1.54313e-05 -0.8301811124 0.0745252129
65299610.0 0.8483460042 -0.1104131233 8.80339e-05 -2.34898e-05 -2.10804e-05 -2.22177e-05 -0.8316988966 0.084400568
70299580.0 0.8476343653 -0.1184933035 -5.54201e-05 8.13226e-05 -0.0001086801 0.0001595502 -0.8316101431 0.0948650578
75299550.0 0.846095119 -0.1268255914 -7.0436e-06 -6.32838e-05 5.40617e-05 -5.38416e-05 -0.8323630104 0.104578709
80299520.0 0.8445280581 -0.1350629463 -2.44113e-05 5.38958e-05 3.11734e-05 4.46044e-05 -0.8323038688 0.1143807035
85299490.0 0.8432064686 -0.1433142654 -0.0001051122 8.5099e-06 0.0001420108 -6.2044e-06 -0.8314995125 0.1240343393
90299460.0 0.8417914641 -0.1515087628 -6.0898e-05 0.0001092513 9.18895e-05 2.71706e-05 -0.8309890106 0.1334425874
95299430.0 0.8397427862 -0.1600927219 5.12373e-05 2.04608e-05 -6.94873e-05 0.0001055097 -0.8291535375 0.1430479634
100299400.0 0.8387384858 -0.1673647892 -6.79779e-05 -4.45233e-05 -1.65748e-05 -3.17204e-05 -0.8286688028 0.1524053585
105299370.0 0.8373696384 -0.1760848996 0.0001646369 0.0001220686 5.32394e-05 0.0001087057 -0.826794244 0.1612515882
110299340.0 0.8351636178 -0.184110796 4.85947e-05 -0.00012105 -0.0001157797 6.52596e-05 -0.8254733003 0.1708330742
115299310.0 0.8331939655 -0.1923931336 -8.81063e-05 8.54723e-05 4.55016e-05 -4.07811e-05 -0.8239816634 0.1798303572
120299280.0 0.8316977779 -0.2004160223 -4.72787e-05 3.65573e-05 -0.0001360235 -2.99914e-05 -0.8223004403 0.1891077725
125299250.0 0.8290000982 -0.2087764698 -6.26762e-05 -1.42809e-05 -0.0001190243 -7.29545e-05 -0.8207849904 0.1979757717
130299220.0 0.8276476592 -0.216733112 -0.0002614475 -6.18547e-05 -4.20971e-05 -4.37423e-05 -0.8181943595 0.2066075974
135299190.0 0.8253288566 -0.2243681015 -4.82174e-05 -8.8294e-05 3.7862e-05 -0.0001035386 -0.8161214306 0.2163285327
140299160.0 0.8231183532 -0.2327051648 -6.60119e-05 -1.42006e-05 -4.45512e-05 1.2322e-05 -0.813482581 0.2247114698
145299130.0 0.8207766327 -0.241214962 0.0001724563 0.0001031548 4.33401e-05 -1.32409e-05 -0.8114207594 0.2341934217
150299100.0 0.8184130572 -0.2489549789 0.0001799859 7.08734e-05 -0.0001518322 -7.8748e-05 -0.8098290932 0.2428841798
155299070.0 0.8151165587 -0.2569900351 5.73604e-05 0.0001021676 3.90256e-05 5.6235e-06 -0.8064952846 0.2518025031
160299040.0 0.8126595557 -0.2646231153 -4.77115e-05 4.162e-05 4.84584e-05 -1.65974e-05 -0.8047527667 0.2605754692
165299010.0 0.8104454675 -0.2726751255 -4.12187e-05 9.7766e-06 -1.46364e-05 -6.95403e-05 -0.8018750698 0.2692677565
170298980.0 0.8073317688 -0.2808823394 -0.0003429823 4.95894e-05 -3.40353e-05 -7.05501e-05 -0.7987726072 0.2779509434
175298950.0 0.8047513987 -0.2890367529 -0.0001003503 -0.0001954703 8.04005e-05 -0.000400146 -0.7962014457 0.2866525476
180298920.0 0.8024316539 -0.2963432127 -5.22518e-05 -0.0001495639 1.2801e-06 5.98254e-05 -0.7928624454 0.2951472493
185298890.0 0.798902166 -0.3043245786 9.39288e-05 -0.0001150868 -4.22836e-05 1.0193e-06 -0.7896578829 0.3037192725
190298860.0 0.7961049424 -0.3120035268 2.20448e-05 -0.0003448051 -7.13335e-05 0.0001008344 -0.7873746497 0.3120942843
195298830.0 0.7927373106 -0.3197083988 2.93168e-05 -7.9196e-05 3.33721e-05 3.61751e-05 -0.7841868095 0.3211741549
200298800.0 0.789160436 -0.327222332 -3.77322e-05 0.0001070862 -1.80833e-05 9.05773e-05 -0.7810034415 0.3288194668
205298770.0 0.7860554008 -0.3350907204 -8.46678e-05 0.0002302493 -0.0001561628 0.0001280211 -0.7772748406 0.3374637907
210298740.0 0.7824961711 -0.3425802937 -8.40351e-05 6.41486e-05 0.0001231818 8.55791e-05 -0.7738568775 0.346590961
215298710.0 0.7789720114 -0.3502007671 -4.62067e-05 -0.0002038347 -0.0001291402 -9.90283e-05 -0.7705111021 0.3544022214
220298680.0 0.7757422431 -0.3578228959 8.48827e-05 -9.56751e-05 -9.71486e-05 -3.01435e-05 -0.7670630719 0.3625772807
225298650.0 0.7721029768 -0.3661835755 -0.0001194526 7.31428e-05 -2.76371e-05 -0.0001466054 -0.763388211 0.3703989899
230298620.0 0.768374881 -0.3727034793 -0.0001348165 4.6234e-06 -0.0002364701 0.0001272037 -0.7597731151 0.3787108804
235298590.0 0.7645084281 -0.3802240146 -8.25688e-05 0.0001173659 -3.541e-05 5.35462e-05 -0.7556494218 0.3871099653
240298560.0 0.7611269469 -0.3880148852 -3.82523e-05 0.0001172366 -6.97291e-05 0.0002024755 -0.7516354925 0.3960786508
245298530.0 0.7570089197 -0.3952097722 3.7067e-05 -0.0001666317 -0.0001030263 -0.0001670903 -0.7480668554 0.4027088988
250298500.0 0.7531721257 -0.4026021867 -3.57103e-05 0.0001859859 3.0038e-06 -0.0001433519 -0.7433244906 0.4106261911
255298470.0 0.7488497492 -0.4103761631 5.66578e-05 -0.0001239649 9.41916e-05 0.0001811613 -0.7384431138 0.4178610669
260298440.0 0.7450027718 -0.4170931593 -0.0001336543 8.35093e-05 -9.44888e-05 5.59923e-05 -0.7345600007 0.4266097321
265298410.0 0.7414118586 -0.4245521362 -0.0001009059 0.0002330556 7.9222e-06 -6.92234e-05 -0.7300884045 0.4339620809
270298380.0 0.7365259367 -0.4319722824 -8.31998e-05 -0.0001832729 0.0001266456 7.03522e-05 -0.7253198583 0.4408604904
275298350.0 0.7327790295 -0.4391019832 -8.26208e-05 0.0002439514 5.35011e-05 -0.0001124396 -0.7214035498 0.4486512946
280298320.0 0.7277967511 -0.4461143369 4.08957e-05 5.56817e-05 -4.08229e-05 9.14672e-05 -0.7158097073 0.4561621892
285298290.0 0.7243511547 -0.4532296923 0.0001442898 -1.07853e-05 5.8844e-05 3.02531e-05 -0.7104295235 0.4635900811
290298260.0 0.7197524368 -0.4601731642 0.0002271144 3.4234e-06 -3.54259e-05 5.15541e-05 -0.7055221181 0.4707671758
295298230.0 0.7158568613 -0.4676637871 -8.37561e-05 -0.000127068 6.52622e-05 -9.28351e-05 -0.7006968079 0.4780459494
300298200.0 0.7108880727 -0.475005172 -0.00012756 -0.0002829653 -4.67179e-05 0.0001074283 -0.6956436827 0.4853817857
305298170.0 0.7066703145 -0.4819876851 0.000164764 0.0001338807 -5.00874e-05 0.0001485524 -0.6895042346 0.4928923727
310298140.0 0.7023886305 -0.4890595403 -5.67604e-05 0.0001397812 -0.0001895528 5.22102e-05 -0.6848032659 0.4996190647
315298110.0 0.6980645676 -0.4969221979 -4.73462e-05 3.27028e-05 0.0001994808 5.94953e-05 -0.6791035896 0.5065765279
320298080.0 0.6932182658 -0.5042533837 -0.0002062713 -2.59376e-05 0.0001431054 0.0002703339 -0.6738948269 0.5141148757
325298050.0 0.6874968562 -0.5111964271 2.26213e-05 4.46717e-05 3.47087e-05 -2.53349e-05 -0.6683074528 0.5206246774
330298020.0 0.6818445368 -0.51870656 -9.66586e-05 1.33572e-05 -6.25231e-05 6.8176e-06 -0.663029356 0.5278418769
335297990.0 0.67555977 -0.5255163825 1.64182e-05 0.000125166 -0.0001114055 5.35999e-05 -0.6578005156 0.5352303666
340297960.0 0.6701980604 -0.5322026151 2.88298e-05 9.6839e-06 3.54108e-05 -8.489e-06 -0.6520720785 0.5421692607
345297930.0 0.663548382 -0.5382621962 -5.18331e-05 -0.000232698 -0.0001772822 4.67938e-05 -0.6466999075 0.5483405075
350297900.0 0.6580530277 -0.5440885174 8.07188e-05 -0.00027831 -0.0002009196 4.98825e-05 -0.6406441235 0.5553828681
355297870.0 0.6528206207 -0.5505913677 -0.0001380515 -0.0001660688 -0.0001090951 -7.37862e-05 -0.6350651449 0.5618123001
360297840.0 0.6466240948 -0.5563178762 0.0001002847 -0.0001402882 0.0001237207 7.79094e-05 -0.6288300809 0.5686481688
365297810.0 0.6408394315 -0.5627355411 -3.99178e-05 4.8965e-05 4.4603e-06 -1.92663e-05 -0.6226309341 0.5752937955
370297780.0 0.63542206 -0.5688981081 0.0001067455 0.0001148549 8.84448e-05 0.0001361378 -0.616743264 0.582095876
375297750.0 0.6292928344 -0.5749375026 -4.19292e-05 -0.0001876645 -1.4115e-06 -9.29032e-05 -0.6112028925 0.588133313
380297720.0 0.6240608084 -0.5811566408 -0.0001623364 -9.92058e-05 1.99914e-05 0.0001122309 -0.6053013761 0.5946431678
385297690.0 0.6180996703 -0.5869933529 5.27855e-05 -0.0001189026 -7.88997e-05 -0.0002212404 -0.5990351607 0.6007089255
390297660.0 0.6122012175 -0.5925449111 3.14403e-05 0.000113994 -6.22656e-05 8.00831e-05 -0.5933379766 0.606852517
395297630.0 0.6061987695 -0.598641285 -4.87649e-05 0.000160047 0.0001178977 -0.0001909847 -0.5861855955 0.6137419189
400297600.0 0.6002155469 -0.6042536024 -5.71824e-05 6.28173e-05 0.0001131484 5.15088e-05 -0.5801001601 0.619058028
405297570.0 0.5942747363 -0.6098503659 -4.81207e-05 -0.000188439 -5.64618e-05 0.0001667412 -0.5739110255 0.6246562279
410297540.0 0.5877419734 -0.6161591969 8.05905e-05 7.9212e-05 -0.0002090063 -0.0001729096 -0.5673127145 0.6309516043
415297510.0 0.5820018156 -0.621563917 -0.0001159146 -6.69678e-05 0.000105003 2.46503e-05 -0.5606404199 0.636598002
420297480.0 0.5763111177 -0.6269890119 1.51023e-05 -5.00113e-05 -0.0001134096 0.0001717214 -0.5538997943 0.6428605151
425297450.0 0.5689738603 -0.6326712953 6.06732e-05 0.0003123395 -5.88323e-05 2.77053e-05 -0.5478051811 0.6479308503
430297420.0 0.5634337259 -0.6377992995 8.33622e-05 0.0001712011 -8.36996e-05 -7.98567e-05 -0.540864315 0.6532310244
435297390.0 0.5568590834 -0.6435844871 7.72617e-05 3.90144e-05 7.71181e-05 0.0001842562 -0.5339207899 0.6585712262
440297360.0 0.5502515814 -0.6496256145 2.16577e-05 -2.1623e-05 0.000184917 0.0001400357 -0.5270366081 0.6636267474
445297330.0 0.5436889938 -0.6539966254 -1.54064e-05 7.14859e-05 -0.0001183332 8.04693e-05 -0.5199896654 0.6676905356
450297300.0 0.5375453529 -0.6592401856 0.0001937029 8.30398e-05 2.44508e-05 7.05439e-05 -0.5125747394 0.6739405134
455297270.0 0.5310009756 -0.6645815795 -0.0001985819 9.214e-07 -0.0003070729 -6.54531e-05 -0.5059029989 0.6782952975
460297240.0 0.5243066638 -0.6701455897 -8.54048e-05 -3.08977e-05 -5.9179e-06 -4.71529e-05 -0.4991563939 0.6837593657
465297210.0 0.5169359613 -0.6751374085 -2.84833e-05 -0.0001384136 0.0002027247 -2.12279e-05 -0.4913701574 0.6882168064
470297180.0 0.5102733107 -0.679845181 -0.0001420939 0.00025262 0.0001134227 8.1881e-05 -0.4844279762 0.6938850061
475297150.0 0.5040071802 -0.685059894 -2.66955e-05 8.36376e-05 -0.0001754783 0.0001318076 -0.4772485123 0.6976740427
480297120.0 0.4969778625 -0.6896801181 -1.11491e-05 -6.33254e-05 -5.62464e-05 9.41318e-05 -0.469461082 0.702977468
485297090.0 0.4899873118 -0.6940997371 -0.0003908312 -4.72072e-05 -9.51514e-05 -2.61748e-05 -0.4625847741 0.708068292
490297060.0 0.483104122 -0.6986061236 0.0003390677 0.0003572277 -2.68215e-05 -8.78024e-05 -0.4550368113 0.7123756263
495297030.0 0.4766414842 -0.70391364 0.0002210762 -9.36007e-05 -7.97485e-05 -4.12028e-05 -0.4477177812 0.7173532359
500297000.0 0.469397389 -0.7085437243 -3.15157e-05 2.34655e-05 0.0001548657 0.0001806941 -0.4401602933 0.721809865
505296970.0 0.4623601946 -0.7128858577 0.0001072542 -0.0001157013 -3.23732e-05 0.0001289862 -0.4327030381 0.7262602032
510296940.0 0.4545953842 -0.7175294616 -6.06161e-05 -0.0001577612 6.90774e-05 4.0339e-06 -0.4254371623 0.7302856765
515296910.0 0.4479032121 -0.7213261301 4.07632e-05 -1.46843e-05 6.72409e-05 -0.0001757027 -0.4180931428 0.7345620428
520296880.0 0.4402866684 -0.7258024953 4.42975e-05 -9.85709e-05 7.29968e-05 -0.0001957198 -0.4106986421 0.7390419458
525296850.0 0.4337383246 -0.7307284932 0.0002464971 -3.62781e-05 -7.74559e-05 2.59467e-05 -0.4035489776 0.7436023381
530296820.0 0.4260202174 -0.7341218193 -4.7341e-05 -9.82356e-05 3.94e-07 -0.0001549729 -0.3958188096 0.7472201103
535296790.0 0.4190634749 -0.7388962567 -4.58164e-05 -9.79243e-05 -4.37217e-05 7.93537e-05 -0.3885728799 0.7515628099
540296760.0 0.4115213919 -0.742902966 -1.0419e-06 -1.31639e-05 0.0001793457 -0.0001074625 -0.3806770648 0.7560828285
545296730.0 0.4039359105 -0.7464557785 3.52808e-05 -5.91049e-05 0.0001581894 6.83199e-05 -0.3727776741 0.7590756563
550296700.0 0.3967819067 -0.7495447967 0.0001595996 0.0001713921 -7.71092e-05 -1.21727e-05 -0.3652602033 0.7631920724
555296670.0 0.3890307519 -0.7538735112 0.0001416931 -9.58742e-05 -5.86587e-05 0.0001176048 -0.3575271118 0.7674268008
560296640.0 0.3812110759 -0.7573977673 -7.07769e-05 0.0003350111 3.04137e-05 -6.17813e-05 -0.3497536432 0.7706222873
565296610.0 0.3741285822 -0.7607901593 2.39254e-05 0.0001306488 -5.59048e-05 0.0001502195 -0.3421430504 0.7742941864
570296580.0 0.3662706709 -0.7645979512 -0.0001119848 -4.43768e-05 5.15532e-05 0.0001295105 -0.3345660629 0.7781636524
575296550.0 0.3586398959 -0.7673470986 2.80539e-05 -7.3933e-06 -8.79484e-05 -2.62549e-05 -0.3263371529 0.7808240502
580296520.0 0.3513550907 -0.771463323 -7.19642e-05 -0.0001074434 -0.0001038064 -0.0001063904 -0.3182076825 0.783974324
585296490.0 0.3430034694 -0.7751947096 -0.0001402143 -8.67832e-05 7.4565e-06 -2.38611e-05 -0.3096431642 0.7875655539
590296460.0 0.3362386041 -0.7774377319 -0.0002152065 -9.73257e-05 -0.0001939605 7.92624e-05 -0.30235051 0.790058897
595296430.0 0.3275187882 -0.7815471275 0.0001780382 -5.12282e-05 1.60715e-05 0.0001244206 -0.2943309547 0.7926530069
600296400.0 0.3193549859 -0.784047584 -8.3455e-06 0.0001437364 8.77052e-05 9.76928e-05 -0.286420656 0.7953884063
605296370.0 0.3120301402 -0.7872586091 -0.0002231727 8.2262e-06 2.32507e-05 2.98163e-05 -0.2779373052 0.7985635605
610296340.0 0.3041438342 -0.7907402306 9.45818e-05 0.0001766608 3.62197e-05 0.0001694949 -0.2698707476 0.800426373
615296310.0 0.2966396167 -0.7932981897 -1.57868e-05 -1.4725e-06 -1.49152e-05 0.0001273038 -0.2614584003 0.802994752
620296280.0 0.2881525872 -0.7959330344 -0.0001765745 7.1132e-05 1.82478e-05 4.39705e-05 -0.2535000301 0.8054477182
625296250.0 0.2803510976 -0.7982272731 -9.39138e-05 4.46717e-05 -0.0001995566 -2.93e-07 -0.2448900468 0.8076725922
630296220.0 0.2728841378 -0.8013279042 4.03493e-05 -1.91644e-05 5.43752e-05 1.37991e-05 -0.237257189 0.810279755
635296190.0 0.2649857936 -0.8040840169 -0.0001023319 6.54459e-05 0.000200339 -8.81903e-05 -0.2290272235 0.8122993673
640296160.0 0.2569208325 -0.8067379478 -0.0002339139 0.0001090021 -2.87021e-05 -0.0001271637 -0.2203956307 0.8152459626
645296130.0 0.2486293401 -0.8087349577 -4.88233e-05 -0.0001466118 -0.0001241554 -6.11255e-05 -0.2123120222 0.8169464975
650296100.0 0.2401991085 -0.8113288986 -0.0003395023 -0.0001419569 3.1951e-06 -0.0001243294 -0.2042767961 0.8180984213
655296070.0 0.2321188426 -0.8136429536 0.0001238911 7.96546e-05 -7.29591e-05 0.0002636926 -0.1953937803 0.8203399115
660296040.0 0.2241047148 -0.8160572121 -0.0001567364 0.0003146305 -6.14187e-05 -0.0001160318 -0.1866665566 0.8226331654
665296010.0 0.2161625073 -0.8178478285 -5.89619e-05 1.41775e-05 3.38758e-05 0.0001220207 -0.1788734003 0.8250520559
670295980.0 0.2075229173 -0.8199206986 -0.0002675555 7.54533e-05 0.0001179637 4.16662e-05 -0.1713668406 0.8260664315
675295950.0 0.1995031479 -0.8211708111 0.0002432007 0.0001478104 -0.0001827532 -0.0001235253 -0.1625037254 0.8280202581
680295920.0 0.1911022923 -0.8231167825 -1.2345e-06 -7.89509e-05 -0.0004451011 7.2851e-05 -0.154423278 0.8304540532
685295890.0 0.1839383613 -0.8244525908 -6.77201e-05 -1.04538e-05 0.0001957786 2.7863e-06 -0.1455451609 0.8311606403
690295860.0 0.1750936757 -0.8267620039 6.27228e-05 0.0001052012 -0.0002803388 -1.16334e-05 -0.1377433103 0.8335511137
695295830.0 0.1667220529 -0.8278284397 -0.0001120519 3.496e-06 8.89961e-05 -0.0002150453 -0.1288552373 0.8349792662
700295800.0 0.1589636086 -0.8298682662 6.57383e-05 -0.0001529974 -1.44416e-05 8.99827e-05 -0.1212560776 0.8359236115
705295770.0 0.1498871869 -0.8304091308 -0.0001155331 -6.87155e-05 4.8744e-05 1.22206e-05 -0.1128241927 0.8378846576
710295740.0 0.1414698046 -0.8321696865 -9.96911e-05 2.02213e-05 -0.0001027322 -9.75343e-05 -0.1044405148 0.8383434526
715295710.0 0.1331757362 -0.8336570776 0.0001589425 -0.000136016 -1.59145e-05 2.0357e-05 -0.0956930962 0.8392795188
720295680.0 0.1255282694 -0.8348556359 -2.44635e-05 2.95317e-05 -0.0001816341 6.34985e-05 -0.0869978099 0.8406942923
725295650.0 0.1163861857 -0.8350442357 -7.51773e-05 0.0001241893 1.95588e-05 4.72793e-05 -0.079923763 0.8421037986
730295620.0 0.1085682118 -0.8360844535 -0.0001467357 0.0001526674 -5.28693e-05 4.45318e-05 -0.071405619 0.8422377723
735295590.0 0.1000055353 -0.8370693722 0.0001709723 -7.8773e-05 -6.37867e-05 -4.97377e-05 -0.0626685429 0.8426286075
740295560.0 0.0915384463 -0.8377913994 -1.11001e-05 -0.000131251 0.0001456173 5.80761e-05 -0.0531970546 0.8433514883
745295530.0 0.0833178263 -0.8392436893 -6.20918e-05 -0.0001312995 0.0002405177 0.0001713964 -0.0456453308 0.8438508212
750295500.0 0.0747502924 -0.8392508339 -8.27588e-05 6.30996e-05 1.92311e-05 2.52675e-05 -0.0373062345 0.8439457637
755295470.0 0.0658681522 -0.8398851544 7.10875e-05 -8.33994e-05 5.30925e-05 5.72437e-05 -0.0285743869 0.8436913616
760295440.0 0.0572259975 -0.8404573688 1.3251e-06 7.43333e-05 -2.79055e-05 -7.6039e-06 -0.0202200446 0.8442474708
765295410.0 0.0497302839 -0.8408126369 -7.5848e-05 2.87929e-05 -0.0001442469 2.60925e-05 -0.0118731809 0.8445463553
770295380.0 0.0410660008 -0.8413597337 0.0001506897 -0.0001370407 2.87345e-05 0.0001724559 -0.0038551193 0.8437741548
775295350.0 0.0327885009 -0.8415284865 5.98884e-05 -5.3075e-06 -0.0001410585 0.0001051189 0.0038260615 0.8438960114
780295320.0 0.0245588295 -0.8412679333 -3.56176e-05 -0.0002204237 9.72704e-05 0.0001806091 0.0126216054 0.843744666
785295290.0 0.0158462173 -0.8421509765 0.0002466294 0.0001792743 7.601e-05 -0.0002095178 0.0213159644 0.8430342986
790295260.0 0.0074194262 -0.8417187222 -0.0001519276 0.0001760749 -8.6802e-06 -7.13694e-05 0.0304270996 0.8434112955
795295230.0 -0.0007132385 -0.8412482524 0.0002189736 -0.0001119094 0.0002738786 2.05643e-05 0.0386863865 0.8421057059
800295200.0 -0.0096161891 -0.8412952256 0.0001833503 2.25717e-05 8.94342e-05 -0.0001734204 0.0478166017 0.841879368
805295170.0 -0.0182518731 -0.840965948 -0.0002090406 -0.0001132278 -9.68814e-05 -7.1972e-05 0.0548970825 0.842125173
810295140.0 -0.0258386946 -0.8406497413 0.0002426694 0.0002830288 -5.908e-07 -5.03373e-05 0.0636308377 0.840419077
815295110.0 -0.0346803628 -0.8404720034 0.000163669 2.54298e-05 -2.02776e-05 0.0001810343 0.0722762616 0.840775133
820295080.0 -0.0423682927 -0.8399760414 -0.0002217004 -0.0001846176 0.0001884307 8.31227e-05 0.0808422068 0.8398681955
825295050.0 -0.0515000359 -0.8392285546 -2.79423e-05 -0.0002620796 6.64125e-05 -0.0001351673 0.0888514688 0.8391169281
830295020.0 -0.0591735936 -0.8383653076 0.0002009419 -7.80882e-05 -0.0001240393 0.0002112602 0.0985073074 0.8378725406
835294990.0 -0.0677116616 -0.8374844325 0.0002154572 -0.0002528134 -8.3691e-06 -0.0001270768 0.1058539266 0.837284197
840294960.0 -0.0764846833 -0.8368268604 -0.0001467928 -0.0001194173 7.91619e-05 0.0002063976 0.1143646398 0.8354393607
845294930.0 -0.0841660311 -0.8356914419 -0.0001020699 4.87206e-05 -0.0001361194 -0.0002346411 0.1219642426 0.8342506967
