!Created with skrf (http://scikit-rf.org).
# Hz S RI R 50.0 
!freq ReS11 ImS11 ReS21 ImS21 ReS12 ImS12 ReS22 ImS22
300000.0 -0.777582334 -0.1060945149 -0.001959501 0.0015059588 0.0001291109 0.0002489779 -0.2136832818 -0.0825557805
5299970.0 -0.7847681895 -0.005884622 -8.47394e-05 1.72425e-05 8.72195e-05 -0.0001341569 -0.2146595864 0.008276033
10299940.0 -0.7876490266 -0.0042109224 -0.0001058831 -0.0002019619 -8.46122e-05 -8.93653e-05 -0.21108628 0.0214708395
15299910.0 -0.7930778646 -0.0020241368 0.0001004812 -7.8088e-05 -0.0001009086 -5.11157e-05 -0.2059475445 0.0310795522
20299880.0 -0.8001852073 0.0016151001 -3.46021e-05 -8.84366e-05 8.41526e-05 0.0001381792 -0.200103217 0.038908284
25299850.0 -0.8062503294 0.0076558782 -7.06253e-05 -2.218e-07 -0.0001220183 -0.0002602003 -0.1936870557 0.0457815806
30299820.0 -0.8126350025 0.014970665 9.09064e-05 -6.84872e-05 -5.01669e-05 1.95255e-05 -0.1871152549 0.0509515099
35299790.0 -0.8176256994 0.0241417421 0.0001569522 -0.0001167447 6.32757e-05 0.0001517527 -0.1808688092 0.054728663
40299760.0 -0.8213097322 0.0333389264 3.15354e-05 0.0002006533 0.0003304917 0.0002345474 -0.1749107751 0.057568085
45299730.0 -0.8244179171 0.0425934944 -5.22715e-05 -0.0001157921 -4.71845e-05 -3.86486e-05 -0.169159265 0.059697317
50299700.0 -0.8273274707 0.0529835799 1.39397e-05 -0.0001282895 -0.0001366522 0.0001752952 -0.1640662063 0.0611115096
55299670.0 -0.8293857901 0.0628677017 5.88251e-05 0.0001049448 -2.77306e-05 -3.9951e-06 -0.1595572935 0.0619663547
60299640.0 -0.8302518155 0.0737662115 -0.000153335 0.0001623072 -6.27638e-05 9.2872e-05 -0.1550708285 0.0623125648
65299610.0 -0.8310782502 0.0830484477 0.0001990359 1.41236e-05 0.0001156891 -0.0001608368 -0.1512536569 0.0626850756
70299580.0 -0.8314646867 0.093526918 -4.90898e-05 4.83665e-05 0.0002232035 -6.79599e-05 -0.1475166954 0.0626404419
75299550.0 -0.8322137526 0.1031865702 -0.0001352442 0.0001603635 9.2315e-05 -0.0001709371 -0.1448361085 0.0624919863
80299520.0 -0.8318916661 0.113228577 0.0002265581 3.21358e-05 -0.0002485483 9.54767e-05 -0.1419431559 0.0628602877
85299490.0 -0.8311310636 0.1227193342 5.68721e-05 -2.46914e-05 1.55786e-05 -3.7813e-05 -0.1396049781 0.0624229556
90299460.0 -0.8305997433 0.1320255219 9.56348e-05 0.000219297 -6.75156e-05 0.0001231199 -0.1367911467 0.0620380806
95299430.0 -0.8287623511 0.1416828805 -7.07921e-05 0.0001318079 0.0001233919 0.0001199635 -0.1350342314 0.0621153904
100299400.0 -0.8280932296 0.150471762 5.14981e-05 -3.14478e-05 0.000189419 -2.49875e-05 -0.1327993512 0.0618814218
105299370.0 -0.8271116541 0.1599293871 0.0001528289 0.0002846663 0.0001245588 -7.6884e-06 -0.1308181288 0.0615779589
110299340.0 -0.8254046109 0.1694379 -2.63841e-05 -8.7339e-06 0.0004079596 0.0001494984 -0.1295227753 0.0611814944
115299310.0 -0.8238386678 0.1785600056 -2.29988e-05 -3.4547e-05 0.0001821206 0.0001385541 -0.1277118365 0.0614710241
120299280.0 -0.8221682374 0.1870059433 9.57142e-05 0.0001225254 5.43175e-05 2.44167e-05 -0.1269719521 0.0613026048
125299250.0 -0.8202273708 0.195580404 -2.79302e-05 -0.0001173652 0.0001016004 0.0001005168 -0.1254634254 0.0609176828
130299220.0 -0.8188368964 0.2054110796 2.5761e-05 -5.4832e-06 3.50502e-05 -7.60762e-05 -0.1244704799 0.06090118
135299190.0 -0.8167859965 0.2138643141 -0.0001602015 0.0001107781 -8.97109e-05 0.000185212 -0.1233539394 0.060879398
140299160.0 -0.8145327006 0.22303188 -5.2383e-05 6.05258e-05 1.92839e-05 0.0001072014 -0.1226149351 0.0613725864
145299130.0 -0.812679684 0.2322345123 -6.43503e-05 7.45051e-05 -0.000122988 2.40097e-05 -0.1218830536 0.0614867292
150299100.0 -0.8103888675 0.2409817733 -7.34054e-05 0.0001970339 -2.44714e-05 -7.82157e-05 -0.1209443709 0.0620522339
155299070.0 -0.8073445439 0.2492136664 -3.19043e-05 0.0001117323 2.42923e-05 0.0001524541 -0.1199561355 0.0623708676
160299040.0 -0.8052941348 0.2582237563 8.37841e-05 0.0001448247 -6.19035e-05 0.0002134777 -0.1198500265 0.0624382705
165299010.0 -0.8028773933 0.2670271221 4.88691e-05 0.0001082595 0.0001444365 2.24409e-05 -0.1188711829 0.0628933359
170298980.0 -0.8001707128 0.2750994752 4.56722e-05 7.01422e-05 0.000125993 -2.7747e-06 -0.1180736212 0.0633239066
175298950.0 -0.7974209887 0.2840015052 -1.04116e-05 9.67031e-05 0.000146549 -1.67505e-05 -0.1176819403 0.0640012598
180298920.0 -0.7947617662 0.2928348284 4.2201e-06 -5.30793e-05 1.7022e-06 0.0001863475 -0.1172476362 0.0643733811
185298890.0 -0.7912855329 0.3005637425 -7.99568e-05 3.88348e-05 7.60592e-05 -8.25052e-05 -0.1164463674 0.0651887297
190298860.0 -0.7884914588 0.3093455768 0.0002069496 5.09065e-05 -7.058e-06 -7.2271e-05 -0.1160196255 0.0657758145
195298830.0 -0.78520637 0.3176805426 2.0153e-06 0.0001710255 -4.15704e-05 6.49882e-05 -0.1157466008 0.0662552967
200298800.0 -0.7810376807 0.3256350735 0.0001534543 0.0002576231 0.0001730842 0.000115171 -0.1151307073 0.0667855284
205298770.0 -0.7781977608 0.3341227161 -1.24859e-05 6.26313e-05 -6.71104e-05 -4.74097e-05 -0.1145762701 0.067404813
210298740.0 -0.7749888535 0.3422029617 0.0001469114 1.48723e-05 -5.80997e-05 -9.16472e-05 -0.1141898304 0.0680077511
215298710.0 -0.7720891415 0.3505578175 -4.57609e-05 0.0001251408 -5.19411e-05 7.1551e-05 -0.1142806705 0.0688955351
220298680.0 -0.7673133194 0.3577957287 0.0001386445 5.38309e-05 -1.99421e-05 2.47639e-05 -0.114016496 0.0691704295
225298650.0 -0.7641091157 0.3666550005 4.86185e-05 0.0001855281 7.01846e-05 0.0001679978 -0.1133523195 0.0698763306
230298620.0 -0.760185164 0.3747021253 -0.0001303582 9.55672e-05 -1.54748e-05 0.0002641131 -0.1129797654 0.0707727068
235298590.0 -0.7561062728 0.3830555352 -0.0002015126 0.0001039839 3.69077e-05 0.0002113933 -0.1123011973 0.0713971508
240298560.0 -0.752435175 0.3904867002 -7.20913e-05 2.54996e-05 8.3217e-06 6.00603e-05 -0.1120771887 0.0726423263
245298530.0 -0.748724408 0.3984293863 0.0001387671 0.0001067139 8.40089e-05 0.0001718574 -0.1119845427 0.0729772947
250298500.0 -0.7438513669 0.4066016045 8.2761e-06 0.0002565662 -2.44212e-05 -0.0001382735 -0.1114053878 0.0736264651
255298470.0 -0.7393311658 0.4135624029 7.97764e-05 0.0001635382 4.79499e-05 0.0001248208 -0.1109767174 0.07436105
260298440.0 -0.7354488138 0.4217353241 0.000142531 -1.24761e-05 -0.0002344051 1.95628e-05 -0.11010563 0.0756040797
265298410.0 -0.7311051249 0.4296998773 -1.1086e-06 9.47594e-05 0.0001062462 0.0002156694 -0.1095029163 0.0762790836
270298380.0 -0.7270018408 0.4371451997 0.000150001 2.8628e-06 9.31641e-05 8.8898e-05 -0.1092132717 0.0770225116
275298350.0 -0.7220250607 0.44435201 0.0003216293 -4.60608e-05 5.34252e-05 0.0002134365 -0.1081451339 0.0781969336
280298320.0 -0.7171692735 0.4519299714 -3.57937e-05 0.0002705007 0.0001103537 6.29714e-05 -0.1077108777 0.0789085339
285298290.0 -0.7132159896 0.4604127846 -1.32711e-05 0.000293851 -1.31317e-05 0.0001815468 -0.1070080939 0.0797132341
290298260.0 -0.7082813751 0.4669912945 9.51555e-05 -1.7298e-06 1.38599e-05 0.0002214392 -0.1066256679 0.080896834
295298230.0 -0.7025466694 0.474448343 -5.0575e-06 0.0003168605 5.20636e-05 0.0002300079 -0.1056669426 0.0812151537
300298200.0 -0.6981869173 0.4816362226 0.0001847061 0.0001747573 0.0001617369 0.0001382298 -0.1053023594 0.0826058287
305298170.0 -0.6924813356 0.4878720399 8.2534e-06 -0.0001640514 -0.0002147864 0.0001671903 -0.1042915822 0.083079041
310298140.0 -0.6877723777 0.495880213 7.37239e-05 0.0001788631 8.01393e-05 6.5485e-05 -0.1040242902 0.0839687371
315298110.0 -0.6831711906 0.5031262891 6.82181e-05 9.96117e-05 4.99795e-05 0.0001380767 -0.103355391 0.0849359908
320298080.0 -0.67738348 0.5095918368 -0.0001085838 -7.7395e-06 -5.51298e-05 1.22559e-05 -0.1027254773 0.0858270432
325298050.0 -0.6718723512 0.5173555284 6.47406e-05 8.41053e-05 -2.13643e-05 5.87336e-05 -0.1023979245 0.0865907394
330298020.0 -0.6665347884 0.5239099288 0.0001448081 9.05515e-05 0.0001935655 -5.57176e-05 -0.101843007 0.0880955013
335297990.0 -0.6610966177 0.5303422764 6.8554e-05 0.0003114429 0.0002017772 -1.95437e-05 -0.1013924495 0.0892257136
340297960.0 -0.6559528444 0.5374730173 0.0002018434 0.0001687583 -4.60754e-05 0.0002196879 -0.1005824309 0.0901606009
345297930.0 -0.6499336021 0.5441639052 0.0001974236 0.0001865496 7.62352e-05 0.0002275769 -0.1003232699 0.0911338278
350297900.0 -0.6446187694 0.5507093193 -8.63812e-05 7.71703e-05 0.0001988588 -0.0001114081 -0.0996417415 0.0923702081
355297870.0 -0.6382972109 0.5581066903 7.46015e-05 7.64996e-05 0.0001930143 -0.000167384 -0.0991081155 0.0933370873
360297840.0 -0.6322319099 0.5633166636 0.0003251542 0.0002243067 0.0001264216 -1.11604e-05 -0.0982321983 0.0947226351
365297810.0 -0.6271991395 0.5705155758 -6.3317e-05 0.0001781693 7.65637e-05 6.50158e-05 -0.0977980709 0.0951844613
370297780.0 -0.6210388216 0.5761882643 0.0002348643 0.0001110264 8.74096e-05 -0.0001116633 -0.0967286853 0.0965454455
375297750.0 -0.6144607509 0.5832257807 0.0001384687 -9.59017e-05 2.94552e-05 6.92971e-05 -0.0965102201 0.0974082744
380297720.0 -0.6087307595 0.5886433573 -0.0001997441 0.0001194348 5.03301e-05 -2.66881e-05 -0.0958676865 0.0986336436
385297690.0 -0.6036524703 0.5950383199 -4.46901e-05 6.49939e-05 -4.71879e-05 -5.9404e-05 -0.0947662944 0.0995867547
390297660.0 -0.5967281503 0.6010963733 2.77234e-05 4.77661e-05 0.0002649808 0.0001048869 -0.0944096828 0.100784521
395297630.0 -0.5904788186 0.6080151719 0.0002203837 0.0001549399 0.0002404714 -1.11677e-05 -0.0931804587 0.1020346979
400297600.0 -0.584022427 0.613632382 0.000105044 0.0001359092 -4.8367e-06 0.0001827198 -0.092503356 0.1027096549
405297570.0 -0.5781549791 0.6197680139 0.0001366678 0.00021584 3.40249e-05 0.0001294009 -0.0919574631 0.1034814524
410297540.0 -0.5718223597 0.6251275626 0.000158167 0.0001887808 0.0002056703 0.0001162364 -0.0908246332 0.1046519318
415297510.0 -0.5643867831 0.6309111267 0.0001088186 -0.0001556172 3.11158e-05 0.0001852269 -0.0902396048 0.1055249955
420297480.0 -0.5594622568 0.6370255813 0.0001334821 1.72935e-05 6.14851e-05 0.000175918 -0.0893064001 0.1065281729
425297450.0 -0.5518075128 0.6427577327 1.25593e-05 5.70927e-05 -4.40772e-05 1.199e-07 -0.0884296313 0.1074828726
430297420.0 -0.5457708135 0.6482121222 0.0001121766 0.0001527298 4.80603e-05 0.0001857927 -0.0878081532 0.1080284787
435297390.0 -0.5386788917 0.6530284312 0.0002565801 0.000105599 0.0001951628 0.0003083979 -0.0864989923 0.1092595319
440297360.0 -0.5317544116 0.658808127 0.0004411098 0.0002511197 0.0001309961 7.61155e-05 -0.085959583 0.1102627665
445297330.0 -0.5248765831 0.6640010839 -4.74615e-05 0.0001860516 0.000317679 0.0001689892 -0.0851170682 0.1104469004
450297300.0 -0.5183776514 0.6692064094 3.294e-05 -4.8268e-06 0.0001970236 -4.6319e-06 -0.0836639002 0.1118442888
455297270.0 -0.5112626259 0.6741920758 1.29547e-05 -0.0001234119 0.0001149631 0.0001467789 -0.0828065794 0.1127563955
460297240.0 -0.5052156029 0.6795970324 1.0114e-05 0.000236994 -1.96592e-05 8.92601e-05 -0.0820206497 0.1139338307
465297210.0 -0.4977468055 0.6847352888 0.0003625291 -7.67887e-05 7.96744e-05 0.0002169846 -0.0808473527 0.114441872
470297180.0 -0.4901102185 0.6895319239 0.0001166638 0.0001618977 -8.72332e-05 0.0003378799 -0.0796508912 0.1155827551
475297150.0 -0.4835084494 0.6942542603 0.0002143859 0.0001869008 0.0001034162 0.0001555947 -0.0784446105 0.1162264325
480297120.0 -0.4766569653 0.6994039852 0.000193176 6.11138e-05 0.0001073236 0.0001375472 -0.0777525198 0.1173565992
485297090.0 -0.4693655191 0.7040327519 0.0001445383 -5.73178e-05 6.2522e-05 9.59059e-05 -0.0766445531 0.1184427386
490297060.0 -0.4621351572 0.7082800474 4.93158e-05 6.16651e-05 0.0001962028 -0.0001217127 -0.0756986764 0.1192509245
495297030.0 -0.4552338376 0.7126807957 -7.94119e-05 -5.11152e-05 -7.64784e-05 -0.000118318 -0.0745949365 0.1203647038
500297000.0 -0.4478892737 0.7179249806 6.14451e-05 0.0002033468 0.0002214564 -5.4582e-06 -0.0733664421 0.1213483243
505296970.0 -0.4405009411 0.7223452053 0.0002512242 0.0001330774 0.0002166932 1.51689e-05 -0.0726353202 0.1221012046
510296940.0 -0.4335679754 0.7265820319 0.000113276 0.0001749101 0.0002732032 5.3004e-06 -0.071519375 0.1226780033
515296910.0 -0.4250533076 0.7309743359 0.0003340631 5.52375e-05 0.0002312073 -7.85243e-05 -0.0702974833 0.1236180601
520296880.0 -0.4186068837 0.7356848136 0.0002874599 0.0002607849 0.000299306 0.0002709777 -0.0691858789 0.1246924556
525296850.0 -0.4102640173 0.7390952027 -3.90048e-05 -0.0001203024 7.68539e-05 0.0001535738 -0.0682477953 0.1256162399
530296820.0 -0.4031768143 0.743539876 0.0001602711 7.60929e-05 9.24777e-05 0.0001269963 -0.0669586861 0.1264670026
535296790.0 -0.3960881984 0.7471362634 0.0005596005 -1.79596e-05 0.0002445483 0.000136483 -0.0664803405 0.1270412425
540296760.0 -0.388468893 0.7506167899 -9.16981e-05 9.42825e-05 0.0003428752 0.0001069141 -0.0650278838 0.12819937
545296730.0 -0.3809453768 0.7556844421 3.26246e-05 -2.99517e-05 0.0003320157 7.00748e-05 -0.0642177464 0.128595908
550296700.0 -0.373238066 0.7588921833 0.0001947518 -6.81315e-05 0.0001276516 2.96513e-05 -0.0629972613 0.1298251974
555296670.0 -0.3652824526 0.7612639043 0.0003863378 -5.73187e-05 9.23298e-05 -1.48714e-05 -0.0615563093 0.130983053
560296640.0 -0.3578742823 0.7662565421 0.0001567642 7.35e-05 0.0001035423 -7.363e-05 -0.0605752622 0.1312727534
565296610.0 -0.3497629369 0.7695560788 0.0004607326 7.19072e-05 0.0001441801 6.60128e-05 -0.059250746 0.1320339081
570296580.0 -0.3424233379 0.7719225455 7.89994e-05 9.76295e-05 0.0002190764 3.60124e-05 -0.058536103 0.1329003791
575296550.0 -0.334991852 0.7765002426 0.0002222086 0.0001142166 0.0001969563 5.30856e-05 -0.0573212271 0.1337286335
580296520.0 -0.3270285137 0.7789237558 7.58853e-05 -1.94244e-05 0.0003839278 7.57834e-05 -0.0562847772 0.1341377437
585296490.0 -0.3192246232 0.7825884681 0.0001928489 -0.000127597 0.0001936055 -0.0001128011 -0.0545514085 0.1346418393
590296460.0 -0.311077499 0.7857307166 0.0002321079 -7.25416e-05 0.0001938781 3.62442e-05 -0.0538192445 0.1356244481
595296430.0 -0.3031328824 0.7887225401 0.0003100077 8.73283e-05 0.0001879438 6.89992e-05 -0.0522817548 0.1357179224
600296400.0 -0.2952139552 0.7919936384 0.0001395093 -0.0001299968 0.0002205978 8.15749e-05 -0.0512011355 0.1364297807
605296370.0 -0.2881430699 0.7941611521 0.0002248481 -6.89453e-05 0.0002625627 0.0002173636 -0.0495715531 0.1375936202
610296340.0 -0.2797121516 0.7975846104 0.0001866396 9.00869e-05 0.0001917351 -5.3296e-05 -0.0485614004 0.1383099273
615296310.0 -0.270725796 0.7999243634 0.0003585693 -0.0001272559 0.0001927949 0.0001285052 -0.0469324168 0.1387579965
620296280.0 -0.2631915232 0.8018414323 -0.0001102167 -7.75243e-05 -9.2393e-06 -3.88341e-05 -0.0460749148 0.1394897817
625296250.0 -0.2551229356 0.8051165568 0.000272361 0.0001951143 0.0002353023 9.07886e-05 -0.044434064 0.1399717709
630296220.0 -0.2461999006 0.8074538744 0.0001549079 -2.82438e-05 0.0002265231 -0.0001275785 -0.0435077342 0.1407334513
635296190.0 -0.2389371673 0.8100311742 0.0003192041 6.43257e-05 0.0001231615 0.0002213285 -0.0419801762 0.1411433365
640296160.0 -0.2314110654 0.8123415303 0.0003268128 -3.71285e-05 0.0002384854 7.767e-07 -0.0405159905 0.1417701577
645296130.0 -0.2230208342 0.8153681417 0.0001436758 0.0001361098 2.47169e-05 -6.65047e-05 -0.0389663277 0.1425822641
650296100.0 -0.2149959763 0.8168124545 0.0004379352 0.0001196456 0.0002213528 6.76688e-05 -0.0376690425 0.1428814401
655296070.0 -0.2064482288 0.8186170475 0.0002949806 3.56776e-05 0.0003238565 0.0001100007 -0.0362895569 0.1435307261
660296040.0 -0.198307299 0.8204380376 0.000282062 -3.38728e-05 0.0003431859 0.0001590641 -0.0348118722 0.1439221101
665296010.0 -0.1898863866 0.8219644831 0.0003450047 0.0001740217 0.0003230422 5.54171e-05 -0.0334227392 0.1447112674
670295980.0 -0.1824435725 0.8241088394 0.0003124093 6.31076e-05 7.27407e-05 -9.35311e-05 -0.0324653716 0.145198562
675295950.0 -0.1738653062 0.8260065566 0.0002317972 -6.61878e-05 0.0001694278 -0.0001674286 -0.031229466 0.1459453589
680295920.0 -0.1653388128 0.8279672078 0.000537476 0.0001708144 0.0002185688 0.0001324784 -0.0295066229 0.1467863525
685295890.0 -0.1570465573 0.8300920993 2.48306e-05 -0.0001130587 0.0002147898 -0.0002468931 -0.0282218984 0.1469132671
690295860.0 -0.1492865693 0.8308245156 0.0001630368 -0.0001841539 0.0002897427 3.25359e-05 -0.0269423676 0.147827535
695295830.0 -0.1413002728 0.8318311528 0.0001222975 -0.000201491 0.0001580754 -6.0908e-05 -0.0254279994 0.1483351322
700295800.0 -0.1317124277 0.8337995229 0.0002556645 4.8988e-06 0.0003537165 -4.80098e-05 -0.0242647767 0.1487728582
705295770.0 -0.1241872201 0.8353898971 9.04579e-05 6.46888e-05 0.0005746356 0.0001046449 -0.0230176116 0.1494742049
710295740.0 -0.1157749625 0.8365051828 0.0003130275 -4.96925e-05 6.41385e-05 -0.0001220113 -0.0219626511 0.1498559483
715295710.0 -0.107658873 0.8376419765 0.0002764718 -0.0003352612 9.19278e-05 0.000111778 -0.0204956169 0.1500828878
720295680.0 -0.0998444804 0.8382202824 0.0004277513 7.86431e-05 0.0003277175 -7.94511e-05 -0.019116464 0.150518033
725295650.0 -0.0907544419 0.8394591189 0.0003680666 -0.0001906227 0.0003720572 -8.75886e-05 -0.0175292628 0.151255538
730295620.0 -0.0824070154 0.840211155 0.0002876992 3.68737e-05 0.0001086427 0.0002511136 -0.0164576337 0.1512937962
735295590.0 -0.0747480953 0.8415012946 0.0001793544 3.13744e-05 0.0002960524 -0.0001054765 -0.0153984409 0.1514368855
740295560.0 -0.066281103 0.8419473852 0.0002150687 -4.2712e-05 0.0003353606 -0.0001309855 -0.0132088508 0.1521477101
745295530.0 -0.0580156343 0.8429429156 0.0002111004 -4.81418e-05 0.0002526459 9.6313e-06 -0.0122707043 0.1520366282
750295500.0 -0.0493067609 0.842928138 0.0002706827 -0.0001408482 0.0001396657 -3.48118e-05 -0.0107219074 0.1527513524
755295470.0 -0.0405455235 0.8431233355 0.0003097998 3.21084e-05 0.0003254958 1.85088e-05 -0.0092204826 0.1525232525
760295440.0 -0.0331959594 0.8433843149 0.0002484881 -0.0001808511 0.0002993948 0.0001421634 -0.0076527061 0.152769798
765295410.0 -0.0240052411 0.8440561891 0.0001313886 -0.0001541276 0.0003462026 2.59628e-05 -0.006350313 0.1533103498
770295380.0 -0.0162123051 0.8442874282 0.0002066418 0.0001275417 0.0002038525 -4.1876e-06 -0.005153529 0.153556169
775295350.0 -0.0082139692 0.8439188252 0.0001867369 9.54266e-05 0.0001869844 -0.0001299322 -0.0038876684 0.1534390147
780295320.0 0.000540841 0.8440146698 0.0003611636 -6.11274e-05 0.0001824677 3.99246e-05 -0.0019961353 0.15352397
785295290.0 0.0091992457 0.8432089559 0.0002562042 -0.0002594781 8.4038e-05 -0.0001270711 -0.0005341696 0.153936919
790295260.0 0.0175951255 0.8436655489 0.0004213512 -0.000119311 0.0001059504 -7.01231e-05 0.0012671763 0.1544503206
795295230.0 0.0254521227 0.8437320968 0.0002590806 -0.0002045892 8.73425e-05 -0.0001335734 0.0026897748 0.1543212533
800295200.0 0.0337541964 0.8430193374 0.0001798014 -2.91071e-05 0.0003508558 -6.10724e-05 0.0043752434 0.1547334009
805295170.0 0.042940143 0.8429523197 0.0002031398 -0.0001873867 0.0003775696 -0.0001158032 0.0055701071 0.1547049327
810295140.0 0.0506825601 0.843049029 0.0004082971 -4.3909e-06 0.0003426437 -0.0001817336 0.0073258633 0.1549245348
815295110.0 0.0588143886 0.8418090821 0.0002880296 4.37268e-05 0.0002796232 -0.0002168987 0.0087967023 0.155215571
820295080.0 0.066695872 0.8411969009 0.0004583603 -0.0001382713 0.0002889196 -0.0001750342 0.0103805378 0.1550710401
825295050.0 0.0762848712 0.8405348119 0.0002651845 -0.0002196612 0.0001993638 -4.26846e-05 0.0118929297 0.1556181012
830295020.0 0.0839675558 0.8401304081 0.0001892512 -9.66404e-05 0.0002997596 6.01908e-05 0.0137125388 0.1554278167
835294990.0 0.0918101687 0.838911733 0.0001458786 -0.0001302734 0.0001003639 -1.14191e-05 0.0148434635 0.1556863148
840294960.0 0.0997997836 0.8383043103 0.0003212283 8.55437e-05 0.0001664566 -9.98594e-05 0.016154229 0.1560331381
845294930.0 0.1083153241 0.8373127726 0.000346561 7.05914e-05 0.0001937872 -5.43545e-05 0.0176432821 0.1554467768
850294900.0 0.1164613418 0.8361170682 8.57972e-05 -0.0002345828 0.0002416322 -1.74136e-05 0.0190856264 0.1558160954
