!Created with skrf (http://scikit-rf.org).
# Hz S RI R 50.0 
!freq ReS11 ImS11 ReS21 ImS21 ReS12 ImS12 ReS22 ImS22
300000.0 -0.7756650873 -0.0980233993 -0.0015219836 0.0006462527 0.0011874336 -7.78973e-05 -0.7729379608 -0.1287968014
5299970.0 -0.7850297622 -0.0055691647 2.05211e-05 0.0002280092 6.7343e-05 -2.25257e-05 -0.7847621867 -0.0071076462
10299940.0 -0.7874767049 -0.0038949466 -0.0001328928 0.000124195 -0.0001165343 2.67696e-05 -0.7876466648 -0.0034015955
15299910.0 -0.7934884614 -0.0015011435 3.30107e-05 3.65348e-05 -9.47116e-05 4.91026e-05 -0.7929677964 -0.0013292068
20299880.0 -0.8002635183 0.0022876745 -0.0001066797 0.0001830067 -5.11814e-05 0.0001841562 -0.7997839931 0.0022317931
25299850.0 -0.8063005679 0.0076901291 -0.0001319955 -5.7453e-05 -3.03595e-05 -3.9866e-05 -0.8058516282 0.0086037299
30299820.0 -0.8127184661 0.015298911 5.2858e-06 2.73329e-05 -0.0001546818 -0.0001554862 -0.8119289582 0.0163458417
35299790.0 -0.8173433856 0.0245932786 7.78931e-05 -7.25159e-05 -0.0002186017 -3.95963e-05 -0.8171946826 0.0252018216
40299760.0 -0.8213344565 0.0335088445 4.12386e-05 -2.44341e-05 -0.0001443449 -0.0001856909 -0.8210816247 0.034136083
45299730.0 -0.8245202658 0.0429971887 -1.44813e-05 -0.0001498257 -1.75758e-05 5.21672e-05 -0.8255555864 0.043842144
50299700.0 -0.8272148183 0.0528426687 -0.0001912197 7.98316e-05 -0.0002135298 -1.45886e-05 -0.8272267605 0.0538617384
55299670.0 -0.8293207913 0.0627398511 8.9782e-05 3.43442e-05 0.0001549483 9.43654e-05 -0.829446775 0.0645367498
60299640.0 -0.8300537401 0.0732702892 -0.000225813 -0.0002675949 -3.09623e-05 -6.08994e-05 -0.8302831621 0.0742842849
65299610.0 -0.8312244337 0.083953747 -0.0001259509 -9.00016e-05 7.26679e-05 -0.0001030045 -0.8317682993 0.0840741657
70299580.0 -0.8312459257 0.0935012261 2.6103e-05 3.98611e-05 -4.26332e-05 5.2443e-05 -0.8321852971 0.0944906727
75299550.0 -0.8318181155 0.1038613281 -2.7296e-06 -0.0001518396 -8.30305e-05 -0.000191423 -0.8325943938 0.1044170262
80299520.0 -0.8322620024 0.1134168787 0.0001401905 -0.0001222308 -0.0001395374 -4.81798e-05 -0.8324053094 0.1138502059
85299490.0 -0.8310172856 0.1230648144 0.0001769699 2.01e-07 -1.06027e-05 -5.6571e-06 -0.83142429 0.1238384639
90299460.0 -0.8299105848 0.1320731157 5.77011e-05 -8.29007e-05 -5.96788e-05 0.0002651486 -0.8308220449 0.1329931725
95299430.0 -0.8291073416 0.1422206818 -7.64205e-05 -4.98019e-05 0.0002601627 -4.48291e-05 -0.829057046 0.1429376495
100299400.0 -0.8284287062 0.150770639 -0.0001691108 -0.0001615 -5.4098e-06 0.0002439004 -0.8286990762 0.15252875
105299370.0 -0.8270355212 0.1602248021 0.000121555 0.0001728583 -6.86848e-05 6.6808e-05 -0.8271525197 0.1611225548
110299340.0 -0.8253802603 0.1694670474 4.8943e-06 -4.20129e-05 0.0001070765 0.0001607953 -0.8254654901 0.1708691912
115299310.0 -0.8238749065 0.1785140812 -0.0001070286 -2.9301e-06 1.43757e-05 -1.29531e-05 -0.8246721068 0.1793496582
120299280.0 -0.82225176 0.1870985971 -0.0002567211 -4.56304e-05 2.85809e-05 -0.0001403962 -0.8225146576 0.1888371377
125299250.0 -0.8204927081 0.1954458309 2.64689e-05 0.0001242161 6.4294e-05 -4.31625e-05 -0.8210599472 0.1976842828
130299220.0 -0.8185468072 0.2053662947 -3.5787e-06 -0.0001979164 -2.93294e-05 -1.76557e-05 -0.8189452763 0.2068353328
135299190.0 -0.8167837625 0.2140162387 -8.50873e-05 0.0001441823 -1.3273e-05 2.49721e-05 -0.8168323835 0.2163962981
140299160.0 -0.8149227956 0.2232444462 -0.0001730234 -6.06302e-05 0.0002634668 -0.0001135071 -0.8143938169 0.2250164811
145299130.0 -0.8125756148 0.2320785084 5.69662e-05 -0.0002240736 0.0001230643 -0.0002118153 -0.8124687133 0.2345442806
150299100.0 -0.8101609822 0.2411678124 -4.612e-05 0.0001701745 -7.30966e-05 -0.0001459754 -0.8106123501 0.242967904
155299070.0 -0.8077977958 0.2496497855 0.0001323187 -8.61006e-05 0.0001749016 0.0001110427 -0.8072263118 0.2517343295
160299040.0 -0.8048758546 0.2581016386 0.0002001872 -0.000144701 0.0001472051 -7.28609e-05 -0.8053724949 0.2605549155
165299010.0 -0.8025613255 0.2667565464 0.0002430348 9.79649e-05 9.7859e-05 -2.83587e-05 -0.8024828807 0.2695246034
170298980.0 -0.8001569798 0.2752826366 -1.18701e-05 0.0001227518 -1.60756e-05 5.65449e-05 -0.7990812584 0.2779459045
175298950.0 -0.797348629 0.2842144711 0.0001037413 5.2035e-06 -0.0002483345 5.58729e-05 -0.7965169689 0.2862293178
180298920.0 -0.7949259637 0.2928223259 -0.0001445119 -7.98228e-05 1.66972e-05 -0.0001256972 -0.7936276242 0.2954171684
185298890.0 -0.7909341164 0.300915069 -5.72397e-05 9.1243e-05 -0.0001057149 5.55536e-05 -0.7904923632 0.3040139326
190298860.0 -0.7886150524 0.3096540294 0.0001134097 4.71487e-05 -1.06155e-05 0.0001703409 -0.7875934046 0.3126582948
195298830.0 -0.7854833011 0.3177949869 1.42542e-05 -0.0001239199 8.69211e-05 -5.17216e-05 -0.7845329253 0.3210657513
200298800.0 -0.7814827093 0.3259468499 7.24099e-05 0.0002405145 2.70182e-05 4.75695e-05 -0.7817626611 0.3294242151
205298770.0 -0.7787232528 0.3340665504 0.000182369 3.61722e-05 1.86733e-05 -9.97437e-05 -0.777861576 0.3373299234
210298740.0 -0.7751775908 0.3423914728 -4.8723e-06 3.18819e-05 6.4422e-06 4.99802e-05 -0.7741872523 0.3460706529
215298710.0 -0.7717836216 0.3510256524 -0.0002301252 0.0001420532 -5.32856e-05 -0.0001487027 -0.7707973429 0.3538370858
220298680.0 -0.7674363644 0.3594288088 0.0001071987 -4.93983e-05 -0.0001347049 -0.0001417141 -0.7675202819 0.361926397
225298650.0 -0.7642741651 0.3665882431 -0.0001387319 9.31647e-05 7.68674e-05 -8.22757e-05 -0.7637893181 0.3700230943
230298620.0 -0.7599591443 0.3747546597 4.58131e-05 0.0001208525 -7.72232e-05 1.25759e-05 -0.7601615294 0.3784310042
235298590.0 -0.7564939403 0.3831917262 0.0002173357 -0.00014874 4.32458e-05 -0.0001244304 -0.7555749682 0.3870809689
240298560.0 -0.7522330782 0.3914427813 -2.94376e-05 0.0001423161 0.0001100962 0.0001331666 -0.7516322081 0.395598427
245298530.0 -0.7483452588 0.3992032554 6.18337e-05 0.0001320737 7.21168e-05 0.000209421 -0.7478714699 0.4026519747
250298500.0 -0.7445604324 0.4070029839 -0.0001752048 0.0001062496 8.92921e-05 -0.0001263769 -0.7440181287 0.4102744616
255298470.0 -0.7397310591 0.4140400791 -0.000124052 -4.06211e-05 -0.0001688395 -1.27488e-05 -0.7391168599 0.4177799574
260298440.0 -0.7353823092 0.4212675768 0.00013905 7.91351e-05 -6.50774e-05 0.0001282475 -0.7348288828 0.4262075466
265298410.0 -0.7313330643 0.4296772801 3.7903e-06 -1.47923e-05 0.0001067083 7.50439e-05 -0.7300978422 0.4337705829
270298380.0 -0.7267251323 0.4370656822 8.71007e-05 0.0001127506 -9.34686e-05 0.0001508485 -0.7255145994 0.4411656266
275298350.0 -0.7217532263 0.4448137429 -0.0002830224 0.0002515113 -0.0001232451 -1.9774e-06 -0.721346933 0.4488109615
280298320.0 -0.7168615829 0.4529097888 -0.0001434989 -5.5981e-05 1.91782e-05 0.0001459421 -0.7161821336 0.4556759674
285298290.0 -0.7124739358 0.4596003955 0.0001288439 -6.0516e-06 -6.17436e-05 8.4415e-05 -0.7111474616 0.4637757908
290298260.0 -0.7076477968 0.4677330349 2.6734e-05 -1.85237e-05 -0.0001689777 -0.0001079128 -0.7058513897 0.4710495572
295298230.0 -0.7021778971 0.4746521044 -0.000107355 2.41892e-05 -0.0001401475 -0.0001122945 -0.700890822 0.4778197587
300298200.0 -0.698054742 0.4814745436 0.0002003257 0.0001238674 5.02413e-05 -1.32501e-05 -0.6963902153 0.4854768973
305298170.0 -0.6925730145 0.4882111579 7.1806e-05 7.89776e-05 -0.0001539357 -0.0001086337 -0.6902054979 0.4935009915
310298140.0 -0.6874797242 0.4959724001 0.0001042335 0.000174103 0.000111414 -7.19886e-05 -0.6858088347 0.4997940767
315298110.0 -0.6826193071 0.5033427207 -0.000140359 9.44484e-05 -0.0002002591 -7.66957e-05 -0.6802425839 0.5066352664
320298080.0 -0.6771844533 0.5098896881 -0.0001059057 1.52762e-05 -8.1191e-06 5.19136e-05 -0.6748046671 0.5147263267
325298050.0 -0.6718411826 0.5175273734 -9.52227e-05 7.41607e-05 -0.0003376047 2.38379e-05 -0.6687935494 0.521266144
330298020.0 -0.6662318919 0.5242880765 7.99529e-05 -0.000135931 -0.00018244 -0.0001602583 -0.6635747818 0.5288777576
335297990.0 -0.6607192169 0.530690116 2.91676e-05 7.33743e-05 -3.91473e-05 -0.0001051583 -0.6585731751 0.5352246252
340297960.0 -0.6561593013 0.5380381866 0.0002160847 6.34963e-05 0.0001225813 -1.57475e-05 -0.6524060911 0.5420761882
345297930.0 -0.6499751211 0.544116047 3.3634e-06 -6.97693e-05 -0.0001675541 0.0001436088 -0.6468879684 0.5488103577
350297900.0 -0.6440684039 0.5509556649 8.72458e-05 -0.0001141925 -1.65282e-05 0.0001728161 -0.6414088861 0.5553452632
355297870.0 -0.6379015423 0.5579465799 -7.31081e-05 -2.54446e-05 -0.0001198541 1.56647e-05 -0.6357335144 0.5620102478
360297840.0 -0.6322345734 0.5638267342 -6.55025e-05 0.0001288466 3.56947e-05 -0.0003105673 -0.6298251449 0.5690779977
365297810.0 -0.626833396 0.5708226492 -0.0001345252 -1.5753e-05 -0.0002743972 0.0004330769 -0.622993488 0.5751441714
370297780.0 -0.6209168341 0.5766735887 7.886e-06 4.05972e-05 0.0001534208 -8.58082e-05 -0.6176784959 0.5818433144
375297750.0 -0.6140778952 0.5834877433 -5.56474e-05 8.97494e-05 -0.0001092784 7.37845e-05 -0.6119986011 0.588006031
380297720.0 -0.6086667593 0.5887413183 6.07396e-05 5.00239e-05 -0.0001488421 -0.0001542383 -0.6059210318 0.5943243496
385297690.0 -0.6032825655 0.5949635507 -5.98955e-05 5.00225e-05 -0.0001430837 -0.0001202368 -0.5990812685 0.6009749399
390297660.0 -0.5968581458 0.6010846931 0.000191178 -0.0001127657 0.0001374935 -0.0001108338 -0.5932010999 0.6064811567
395297630.0 -0.590502284 0.6082929326 0.0002115171 3.75727e-05 8.06384e-05 0.0002046842 -0.5864112767 0.6130982694
400297600.0 -0.5838363 0.6145976124 -0.0003778109 5.41717e-05 6.7108e-05 -9.32308e-05 -0.5810275304 0.618968276
405297570.0 -0.5779030168 0.619675389 0.0002017986 7.03321e-05 -2.39338e-05 -7.06823e-05 -0.5740343446 0.6250058044
410297540.0 -0.570744419 0.6253323782 -2.83063e-05 -0.0002471537 0.0001404704 2.63358e-05 -0.5674959317 0.6311934062
415297510.0 -0.5644238919 0.6313032158 -0.0001095573 -0.0002259604 -2.55604e-05 0.0001323182 -0.5611261858 0.6363753672
420297480.0 -0.5592308644 0.6370269414 -2.35118e-05 -0.0001415699 -5.9843e-06 0.0001396137 -0.5542623996 0.6424692735
425297450.0 -0.5514683425 0.6423015599 0.0002290575 -0.0001239923 -6.1654e-06 0.0001428484 -0.5480115442 0.6479497428
430297420.0 -0.5451839214 0.6481081019 0.0002301667 0.0001106765 -0.0001235266 5.62801e-05 -0.541550383 0.6525023799
435297390.0 -0.5380638531 0.6529884649 1.47637e-05 4.61911e-05 -2.16015e-05 5.02935e-05 -0.5341420012 0.6584289845
440297360.0 -0.5318534368 0.6586503046 7.9696e-05 -0.0001669107 1.69516e-05 0.0001642921 -0.5275890688 0.6640465085
445297330.0 -0.5248081189 0.6644838149 0.0001262785 9.3085e-06 -7.88289e-05 -0.0001433958 -0.5208805083 0.668691019
450297300.0 -0.5181038627 0.6696290698 -7.58907e-05 -6.65469e-05 -6.9992e-06 0.0001866412 -0.5133908212 0.6744340016
455297270.0 -0.5111339228 0.6745341857 9.40457e-05 0.0001366605 2.205e-07 3.94772e-05 -0.506355547 0.6787128636
460297240.0 -0.5048768632 0.6796866331 -0.0001096658 -0.0001544788 5.19789e-05 3.38257e-05 -0.4996240596 0.6844168787
465297210.0 -0.497767285 0.6853098427 -3.37179e-05 0.0001120952 0.0001408229 3.02463e-05 -0.4918484948 0.6890069781
470297180.0 -0.4900020134 0.689697814 -0.0001430246 -0.0001859372 0.0001456724 -6.44324e-05 -0.4852960339 0.6944016886
475297150.0 -0.4833865 0.6943163075 -2.86094e-05 -4.66413e-05 3.91328e-05 7.14552e-05 -0.4779108602 0.6988621009
480297120.0 -0.476632517 0.6997162079 4.85559e-05 2.17859e-05 -0.0002047137 9.78921e-05 -0.4703821707 0.7038947626
485297090.0 -0.4689550639 0.7043698512 0.00022402 -9.8898e-06 -8.9221e-06 -2.46104e-05 -0.4634802538 0.7086926359
490297060.0 -0.462131283 0.7087811687 0.0002363175 0.0001021919 -4.47453e-05 7.45088e-05 -0.4557129989 0.7126886559
495297030.0 -0.4544758917 0.7132812374 9.2287e-06 -3.59551e-05 8.55284e-05 -3.92573e-05 -0.4486081021 0.7177086227
500297000.0 -0.4472382867 0.7182364561 -6.7618e-06 -5.96658e-05 9.342e-06 -0.0002253087 -0.4412886503 0.7231535853
505296970.0 -0.4399922488 0.7222592781 -6.43291e-05 -0.0001147594 -0.0001356451 0.000114392 -0.4335664529 0.7269079665
510296940.0 -0.4329183837 0.7267331452 0.0001494166 -0.0001108223 -5.61005e-05 -1.94608e-05 -0.4259594493 0.7308892704
515296910.0 -0.4244926782 0.730534651 -0.0002054216 -7.55825e-05 -9.2554e-05 -7.19811e-05 -0.4187095286 0.7352583683
520296880.0 -0.4181429812 0.7354808829 0.0001022487 -6.665e-05 4.34017e-05 -2.7043e-06 -0.4113116914 0.739159494
525296850.0 -0.4100008271 0.7389085743 8.65346e-05 0.0002130469 6.80394e-05 -0.0002722383 -0.4041904816 0.7439143968
530296820.0 -0.4022533297 0.7433346025 -0.0002392394 5.1737e-06 -0.0001190201 -6.27811e-05 -0.3960683271 0.7476340769
535296790.0 -0.395507208 0.7468411891 -9.52059e-05 2.16155e-05 -0.000212363 0.0001277261 -0.3892914555 0.7517156723
540296760.0 -0.3880957419 0.7510979941 7.96236e-05 -0.0001663878 0.0001205157 -1.40854e-05 -0.3811768323 0.7559065783
545296730.0 -0.380552305 0.7552394892 6.63664e-05 -7.39641e-05 6.44897e-05 -6.11364e-05 -0.3737648566 0.7595090145
550296700.0 -0.372875479 0.758806376 0.0001681923 3.02819e-05 1.08133e-05 -5.77222e-05 -0.3654926831 0.763107046
555296670.0 -0.3646336194 0.7620247297 -0.0002666166 9.50804e-05 5.94384e-05 -4.30366e-05 -0.3581785241 0.7673719777
560296640.0 -0.3577362257 0.7659906496 -1.8899e-06 -0.0001448508 -3.154e-06 2.56161e-05 -0.3500037094 0.7707771054
565296610.0 -0.3498040261 0.770071628 9.33646e-05 -0.0001254338 2.51396e-05 -0.0001223134 -0.3424229602 0.773752531
570296580.0 -0.3421179662 0.772576538 0.0001447107 7.27555e-05 2.12381e-05 3.92517e-05 -0.3346759582 0.7778685785
575296550.0 -0.3340222987 0.7766431729 -0.0002516962 -0.0001678657 -8.36119e-05 2.61437e-05 -0.3266708078 0.7811754513
580296520.0 -0.3260764426 0.7799467438 -4.30293e-05 0.0001035664 -2.18606e-05 -7.31e-05 -0.3180967261 0.7843169605
585296490.0 -0.3184512389 0.7829963395 -0.0001270098 5.38843e-05 -0.0001666658 -3.21263e-05 -0.3105532452 0.7873377144
590296460.0 -0.3097083134 0.7857137232 -3.19143e-05 0.0002782978 -0.0002807563 -4.61516e-05 -0.3027838616 0.7900666969
595296430.0 -0.3026127025 0.7882053697 7.24774e-05 -8.3998e-06 6.456e-06 -3.10044e-05 -0.2947637111 0.7925663555
600296400.0 -0.2949512004 0.7919924515 8.87387e-05 0.0002465531 -0.0001640151 -3.68657e-05 -0.2867350403 0.7958490329
605296370.0 -0.2874589717 0.7946596829 -3.97007e-05 3.41081e-05 -8.19627e-05 6.15246e-05 -0.2780266942 0.798858389
610296340.0 -0.2789973841 0.7975217834 0.0001407751 -0.0001139215 -9.0768e-06 -5.55268e-05 -0.2701792281 0.80110683
615296310.0 -0.2701488589 0.8002444876 2.052e-05 -1.09612e-05 -0.00011801 -8.95489e-05 -0.2619427593 0.8037738396
620296280.0 -0.2626370206 0.8022488817 5.43342e-05 -3.20648e-05 -3.72665e-05 5.49107e-05 -0.2540559394 0.806959828
625296250.0 -0.2548155106 0.8051035548 -1.90297e-05 4.29315e-05 0.0001338984 0.000102854 -0.2453637699 0.8081721314
630296220.0 -0.2460692231 0.8078840023 -0.0001133715 -0.0002104392 -0.000175769 -2.15633e-05 -0.2373418057 0.8110233745
635296190.0 -0.2384041396 0.8100673016 -6.27752e-05 -3.87953e-05 -5.476e-05 0.0001730164 -0.2301077443 0.813172937
640296160.0 -0.230758487 0.8121822866 -1.03439e-05 9.9168e-06 -5.09855e-05 5.94859e-05 -0.2211659172 0.815948108
645296130.0 -0.2223928831 0.8155678723 -7.31679e-05 5.88933e-05 -3.47709e-05 -0.0002632635 -0.2131976426 0.8180160629
650296100.0 -0.2136719047 0.8163344278 -0.0002562117 -6.842e-07 -9.24558e-05 0.0001629639 -0.2048923917 0.8187529905
655296070.0 -0.2058752654 0.8190805947 -0.0001085344 9.91279e-05 -8.505e-07 7.31736e-05 -0.1959182576 0.8214477287
660296040.0 -0.1975948703 0.8207090905 -0.0001065245 0.0001898275 -0.0001015103 -1.01372e-05 -0.1873612956 0.8233527204
665296010.0 -0.1897942693 0.8224869845 -8.82331e-05 -0.0001741213 4.03713e-05 4.94539e-05 -0.1793755947 0.8256057209
670295980.0 -0.1815031319 0.824367551 -4.78247e-05 6.58303e-05 0.0002545243 0.000128842 -0.172002097 0.8272101488
675295950.0 -0.1731389732 0.8258565301 0.0002149586 -0.0001335318 0.0001499568 6.17879e-05 -0.1631431543 0.8286814673
680295920.0 -0.1646083698 0.8281142545 -1.04465e-05 -3.97956e-05 4.63903e-05 -6.10355e-05 -0.1548899204 0.8309322253
685295890.0 -0.1566151345 0.830203013 -0.0002738499 8.62855e-05 0.000205034 -3.59675e-05 -0.146253099 0.8317867452
690295860.0 -0.1487492395 0.8309131275 -5.34345e-05 3.1776e-05 -0.000185005 -0.0001354965 -0.1383846955 0.8335233819
695295830.0 -0.140383948 0.8319572052 0.0001296482 -6.08314e-05 -3.00938e-05 -0.0001312505 -0.1290088792 0.8351192991
700295800.0 -0.1315226093 0.8336003214 -2.0493e-05 -2.006e-06 0.0001587071 -9.99654e-05 -0.1215417181 0.8359838009
705295770.0 -0.1237117573 0.8357060431 0.0001476427 0.000249994 -2.08835e-05 -4.49153e-05 -0.1135356552 0.8382206602
710295740.0 -0.1149741912 0.8360136809 -2.63165e-05 -0.0001074942 0.0001771367 1.28042e-05 -0.1043758279 0.8388701969
715295710.0 -0.106587391 0.8372488741 -0.0002043824 4.7351e-05 -0.0001422319 -0.0002127051 -0.0960801727 0.8396870617
720295680.0 -0.0984312192 0.8382458087 3.5306e-06 -6.376e-07 -0.0002688803 0.0002198033 -0.0879348026 0.8408873069
725295650.0 -0.0904140591 0.839244897 -1.0745e-06 9.51306e-05 -0.0001315292 -0.0001600375 -0.0796136934 0.8420695632
730295620.0 -0.082081548 0.8399422168 -0.0001196673 1.90083e-05 -9.46705e-05 2.1577e-05 -0.0717569991 0.8419772208
735295590.0 -0.0740364308 0.8406339183 -4.51459e-05 -0.0001880691 -8.7647e-06 4.61244e-05 -0.0629997032 0.8423983894
740295560.0 -0.0648065941 0.8420149443 6.55692e-05 0.0001906905 1.8425e-05 2.42815e-05 -0.0537775581 0.8442842806
745295530.0 -0.056949379 0.8425412449 6.52697e-05 0.0001297948 0.0001269673 6.61025e-05 -0.0455054712 0.843854371
750295500.0 -0.0481511768 0.8430815018 6.67759e-05 -3.8372e-05 9.40134e-05 -6.3578e-06 -0.0376469084 0.8442047114
755295470.0 -0.0400593718 0.8426332681 -0.0001511967 0.0001392335 -7.3193e-05 8.04754e-05 -0.0291974225 0.8442272655
760295440.0 -0.032209327 0.8429731163 0.000170367 2.5593e-05 -1.82053e-05 -2.2798e-06 -0.0202709862 0.8445930756
765295410.0 -0.0242056069 0.8441812597 -0.0003077347 9.00245e-05 -1.58736e-05 0.0001227932 -0.0122394508 0.8452552327
770295380.0 -0.0157196035 0.8439440599 -1.17875e-05 0.0001906749 1.66854e-05 8.09833e-05 -0.0040655674 0.8446475686
775295350.0 -0.0074272908 0.8440554578 6.30131e-05 7.63675e-05 0.0001054804 1.6823e-06 0.0042945327 0.8442638863
780295320.0 0.0015545897 0.8441114369 -0.0001310135 0.0001000451 -0.0001288095 0.0001407714 0.0125671764 0.8444116566
785295290.0 0.009544004 0.8436118409 0.0001424695 -0.000179711 7.15406e-05 0.0001321862 0.0211378008 0.8442990595
790295260.0 0.0182907207 0.8438986462 3.23178e-05 4.45509e-05 6.07106e-05 -6.06174e-05 0.0305013343 0.8443209167
795295230.0 0.0258621311 0.8436513481 3.22925e-05 0.0001161024 0.0001944292 0.0001390161 0.0389778333 0.8430747839
800295200.0 0.0341335191 0.8425410877 -1.83854e-05 -6.07057e-05 -9.81203e-05 0.0001278204 0.0467509501 0.8431394565
805295170.0 0.0433606065 0.8428406008 0.0002315705 6.6578e-05 0.0001338545 3.81903e-05 0.0547035865 0.8425673908
810295140.0 0.0515998529 0.8426010096 8.97463e-05 4.92865e-05 2.91924e-05 0.0001442821 0.063834092 0.8416434081
815295110.0 0.0590065351 0.8418918925 -4.34922e-05 -3.912e-05 7.42953e-05 -0.0001614815 0.0721260965 0.8412631124
820295080.0 0.0678786818 0.841347438 -0.0001141651 -0.0001033868 4.28809e-05 0.0002149457 0.0802946243 0.8405454843
825295050.0 0.0772349683 0.8400580664 -5.08554e-05 0.0001854156 6.4319e-06 -8.99691e-05 0.0887652752 0.8397900321
830295020.0 0.0844437854 0.8396316376 -8.07105e-05 -5.46984e-05 -0.0001290983 -1.22987e-05 0.0980534384 0.8387718766
835294990.0 0.0928733755 0.8389742728 -4.84741e-05 -8.57618e-05 8.25217e-05 -0.0002726043 0.1053178755 0.8376669363
840294960.0 0.1004176997 0.8380968851 -0.0001129865 3.00143e-05 3.79942e-05 -0.0001732145 0.1143213937 0.8366628982
845294930.0 0.1090312672 0.8367773206 0.0001460066 0.0001501557 -0.0003375873 -0.0001547073 0.1219920843 0.8353299911
850294900.0 0.117472792 0.8359061566 0.0001084777 0.0002979584 6.87177e-05 -4.67704e-05 0.1300186269 0.8339818545
