!Created with skrf (http://scikit-rf.org).
# Hz S RI R 50.0 
!freq ReS11 ImS11 ReS21 ImS21 ReS12 ImS12 ReS22 ImS22
300000.0 -0.7742479982 -0.1825141648 -0.0005629435 -0.0003082149 -0.000573462 0.000402648 0.8593248116 -0.0026426547
5299970.0 -0.7860455876 -0.0095160473 9.691e-05 4.24489e-05 0.0002125735 3.45611e-05 0.8594766642 -0.0095812758
10299940.0 -0.789660402 -0.0064404566 -3.20841e-05 -3.92013e-05 1.13541e-05 9.14542e-05 0.8587257514 -0.019365501
15299910.0 -0.7942790546 -0.0033200478 0.0002861731 -8.86535e-05 -8.48214e-05 -9.39822e-05 0.8576521815 -0.0277387091
20299880.0 -0.801161972 0.0006334516 -0.0002299177 -8.5511e-06 -0.0001109941 4.08213e-05 0.856718996 -0.0357888701
25299850.0 -0.8078282489 0.0069003853 -5.89811e-05 0.0001067097 -4.0574e-06 -1.76352e-05 0.8554945343 -0.0438345346
30299820.0 -0.8142478198 0.0138212674 7.84801e-05 -0.0001430333 2.75013e-05 4.69312e-05 0.8555049362 -0.0524827466
35299790.0 -0.8185370289 0.022749514 -0.0002069932 7.76805e-05 -0.0002322799 1.47925e-05 0.8544862082 -0.0612927535
40299760.0 -0.8240592549 0.03189716 0.0001479971 -3.55226e-05 0.0001656991 -7.33783e-05 0.8537729763 -0.0688691559
45299730.0 -0.8266943753 0.0417784355 -8.10528e-05 6.97199e-05 -4.04734e-05 0.0001435981 0.8528352598 -0.0774494577
50299700.0 -0.8288406276 0.0521533162 8.19609e-05 -0.0001752434 -0.0001599354 5.11159e-05 0.8525429178 -0.0858991
55299670.0 -0.8311136272 0.0615233409 0.0001873879 3.82962e-05 -0.0002750979 5.06054e-05 0.8509698435 -0.0935533043
60299640.0 -0.8321030941 0.0718210133 0.0001127639 -5.33e-07 0.0001283173 -6.9558e-05 0.8500689811 -0.1023537479
65299610.0 -0.8334789796 0.0816751732 -4.28507e-05 5.67327e-05 7.05212e-05 0.0001141901 0.8493839929 -0.1106900616
70299580.0 -0.8342045069 0.0915018663 -6.80585e-05 -9.57154e-05 4.46965e-05 1.74952e-05 0.8482315723 -0.1187770672
75299550.0 -0.8343132285 0.1015482138 2.65326e-05 4.42233e-05 -4.24393e-05 -0.0002153714 0.8465818869 -0.1267725361
80299520.0 -0.8338723026 0.111946559 -1.09666e-05 0.0001694254 3.09888e-05 -1.16464e-05 0.8452005984 -0.1356325523
85299490.0 -0.8327052454 0.1212201803 -5.68327e-05 5.93239e-05 -6.61521e-05 -7.42884e-05 0.8438392766 -0.142958196
90299460.0 -0.8325827597 0.1314864637 -2.0106e-05 5.0323e-05 1.20561e-05 0.0001443498 0.8427924301 -0.1513236386
95299430.0 -0.8315298074 0.1401979794 -0.0001319827 1.90376e-05 2.28729e-05 5.0713e-06 0.8408330136 -0.1598785758
100299400.0 -0.8310572809 0.1499618161 0.0002843336 -8.02366e-05 2.37292e-05 2.30177e-05 0.83898319 -0.1679706991
105299370.0 -0.8290081964 0.1596710789 1.96075e-05 5.19781e-05 -0.0002736287 -7.06913e-05 0.8373948321 -0.176081146
110299340.0 -0.8273130312 0.1687796554 7.26269e-05 -0.0001247904 -8.94845e-05 8.702e-07 0.8358421021 -0.1848498807
115299310.0 -0.8260430693 0.1775534035 -0.0001156566 0.0002147414 3.1662e-06 6.2269e-06 0.8336383434 -0.1925066482
120299280.0 -0.8241434756 0.1866545076 7.43483e-05 -7.13437e-05 5.22862e-05 -0.0001680082 0.831995091 -0.2011292724
125299250.0 -0.822498093 0.1952930391 -9.24977e-05 -0.0001167836 -0.0001498847 6.02283e-05 0.8296202278 -0.2087735763
130299220.0 -0.8215036441 0.2050695797 -4.70879e-05 3.90287e-05 9.753e-05 5.3837e-06 0.8275937804 -0.2165305509
135299190.0 -0.8189633792 0.2144364922 7.06197e-05 4.33397e-05 -0.0001436927 1.93536e-05 0.8254246717 -0.2250091492
140299160.0 -0.8172966867 0.2233361092 1.51071e-05 5.3522e-05 4.661e-06 1.16359e-05 0.8232026939 -0.2331705878
145299130.0 -0.814987367 0.2319903897 -2.47231e-05 0.0001908318 9.1461e-05 -6.69174e-05 0.82071307 -0.2415556922
150299100.0 -0.8118368029 0.2409202038 -0.0001233119 0.0002170632 8.149e-05 -5.603e-06 0.8181955938 -0.2487343732
155299070.0 -0.8100994294 0.2499824169 0.0001917052 8.26894e-05 0.0001070087 6.41952e-05 0.8160301701 -0.257156693
160299040.0 -0.8075012689 0.2588538515 -0.00037631 -5.84648e-05 -0.0002401768 -3.57177e-05 0.8130479974 -0.2652987239
165299010.0 -0.8048854702 0.2670876217 -0.0001144004 5.03014e-05 0.0001371298 8.7366e-06 0.8105055314 -0.2731547649
170298980.0 -0.8017189609 0.2756054194 0.0001034724 0.0002318771 -4.81703e-05 9.11052e-05 0.8077486858 -0.281158421
175298950.0 -0.799537263 0.2843287541 0.0001932512 -0.0001658692 -0.0001437275 -1.64546e-05 0.8048870677 -0.2889184108
180298920.0 -0.7958898091 0.2934513568 -0.0001170057 0.000207903 4.42476e-05 -5.46943e-05 0.8020272511 -0.2965935692
185298890.0 -0.7924419079 0.3020394513 -0.0001000572 4.64929e-05 -0.0001270985 0.0002377484 0.7997503314 -0.3044369667
190298860.0 -0.7897592925 0.3113356716 7.21963e-05 6.78229e-05 1.35257e-05 7.65119e-05 0.7958076299 -0.3126412927
195298830.0 -0.7863769068 0.3195098935 4.53322e-05 7.66673e-05 0.0001235102 1.05281e-05 0.7933951814 -0.3200576339
200298800.0 -0.7831661256 0.3278731661 7.47109e-05 3.30749e-05 0.0001363444 5.97322e-05 0.7898215442 -0.3278691947
205298770.0 -0.7796845681 0.3366202603 -0.0001465506 1.92071e-05 -0.0002369318 0.0001439441 0.7864356075 -0.3358048345
210298740.0 -0.7762141502 0.3446777525 -9.47642e-05 -6.54813e-05 -9.70283e-05 2.99245e-05 0.7834469958 -0.3437632151
215298710.0 -0.7722062184 0.3532195504 -0.0001454912 -0.0001277998 -9.96694e-05 0.0001449906 0.7797982124 -0.3512734226
220298680.0 -0.7687433419 0.3607957959 -4.35547e-05 0.0001043873 -0.000108424 6.05204e-05 0.7758787851 -0.3579976184
225298650.0 -0.7646930784 0.3694894582 -2.69927e-05 -0.0002364155 -4.61552e-05 4.21394e-05 0.7723461583 -0.3662886594
230298620.0 -0.7608711517 0.3779467365 1.73239e-05 -6.44405e-05 1.5033e-05 -0.0001140387 0.7688406291 -0.3734381312
235298590.0 -0.7573581984 0.3859980012 6.55895e-05 -8.57333e-05 7.88179e-05 -4.0557e-06 0.7647904352 -0.3807076815
240298560.0 -0.7531806733 0.3937068023 5.59498e-05 4.2681e-05 -8.33995e-05 0.0001284963 0.7616347441 -0.3886327476
245298530.0 -0.7486200974 0.4017016721 -0.0002594954 1.80396e-05 -0.0001552215 0.0001211655 0.7570395189 -0.3960105023
250298500.0 -0.744551868 0.4091045845 -0.0002190074 -1.80258e-05 -0.0001085642 -6.39104e-05 0.7533506355 -0.4027177775
255298470.0 -0.7406820705 0.4174884321 -0.0001912858 -0.0002375833 -0.0001618659 5.33367e-05 0.7494826507 -0.4105397823
260298440.0 -0.7370255794 0.4252678468 2.47739e-05 0.0001466176 -6.84871e-05 -7.13514e-05 0.7453025991 -0.4179794196
265298410.0 -0.7319453771 0.4327328431 5.2161e-06 -1.53084e-05 2.03414e-05 2.62808e-05 0.741548469 -0.425016583
270298380.0 -0.7275287339 0.440688088 7.1324e-06 -3.51401e-05 -0.0002153658 2.55421e-05 0.7374725405 -0.43236629
275298350.0 -0.7229536902 0.448063854 -4.83616e-05 -0.0001481345 2.64461e-05 3.30755e-05 0.7327436433 -0.4394433677
280298320.0 -0.7182833193 0.4552452275 -9.83952e-05 0.0001364831 6.42619e-05 -0.0001302518 0.7287968931 -0.4465490297
285298290.0 -0.7136820464 0.4634125021 1.07295e-05 -1.7245e-06 -5.81275e-05 1.66585e-05 0.7244601643 -0.4539513112
290298260.0 -0.7086534548 0.47068683 -0.0001336232 -0.0001117135 -7.57175e-05 7.5488e-06 0.7204331927 -0.4604647482
295298230.0 -0.7040626263 0.4784591004 -0.0001332218 -0.0001352096 2.9461e-06 1.59121e-05 0.7160620621 -0.4674121082
300298200.0 -0.6993557958 0.4852992694 8.2797e-06 1.17873e-05 -0.0001995646 4.60754e-05 0.7115506216 -0.474989054
305298170.0 -0.6951091283 0.4922039984 -2.05671e-05 0.0001375071 -8.2748e-06 4.5566e-05 0.706646842 -0.4819582552
310298140.0 -0.6886291229 0.4997267851 9.90086e-05 3.39095e-05 -0.0001306466 6.7761e-06 0.7027281758 -0.4895144613
315298110.0 -0.6843956986 0.5072869744 -0.0001855767 -4.44172e-05 0.0001165643 4.52512e-05 0.6978323179 -0.4965802823
320298080.0 -0.6787433555 0.5148796136 -1.71019e-05 7.98761e-05 0.0001016872 -0.0002492928 0.6929181699 -0.5037493587
325298050.0 -0.6737820881 0.5210186942 -0.0001811621 -4.21231e-05 -9.37032e-05 0.0001824872 0.6874057782 -0.5118015282
330298020.0 -0.6681214976 0.5276163751 1.60698e-05 3.1491e-05 2.19785e-05 -9.05071e-05 0.6819634673 -0.5188452364
335297990.0 -0.6630759237 0.5346637412 0.0001396818 -0.0001421005 -4.9864e-05 -0.0001001271 0.6761149039 -0.5258584007
340297960.0 -0.6581301607 0.541499817 0.0001598573 0.0001406698 0.0001930171 -2.55815e-05 0.6699713258 -0.5319739389
345297930.0 -0.6517937095 0.5483043813 7.25076e-05 -0.0001805626 -0.0001753146 -1.08698e-05 0.6644688705 -0.5386086716
350297900.0 -0.6466389902 0.5553986352 6.66733e-05 -0.0003181555 3.60429e-05 8.43698e-05 0.6587122427 -0.5449020346
355297870.0 -0.640791439 0.5615346588 0.0001065476 -0.0001866274 -8.3889e-05 -1.02797e-05 0.652784191 -0.5508500262
360297840.0 -0.6344941708 0.5681995192 -2.22492e-05 -0.0002153252 -2.73687e-05 0.0001232117 0.6469121926 -0.5572961936
365297810.0 -0.6294001754 0.574455761 0.0001050228 -0.0001379209 5.97446e-05 -0.0001437633 0.6414934667 -0.5632907172
370297780.0 -0.6237923215 0.5809891873 -5.95613e-05 9.33513e-05 -0.0001971099 0.0001528247 0.6355581404 -0.5694248436
375297750.0 -0.617848158 0.5873483112 9.8078e-06 5.20175e-05 6.06068e-05 -0.0001934129 0.6302252483 -0.5754040672
380297720.0 -0.6119201241 0.593192831 -2.45143e-05 1.04381e-05 4.86689e-05 9.89099e-05 0.6247470831 -0.5815374155
385297690.0 -0.6060257567 0.5995447883 0.0001163467 -6.58129e-05 3.0272e-05 -4.14387e-05 0.6179705391 -0.5873301066
390297660.0 -0.5986764651 0.6055311638 3.5674e-06 -0.0001000125 -4.21122e-05 3.6689e-05 0.6124010788 -0.5929904853
395297630.0 -0.5932339781 0.6117903461 9.44065e-05 0.0001050002 -0.0001681832 3.29243e-05 0.6065330167 -0.5994024299
400297600.0 -0.5872329373 0.6184038235 0.0002258476 -7.11692e-05 -0.000114349 -4.08167e-05 0.6005949762 -0.6042355834
405297570.0 -0.580639319 0.6232406247 0.0001260787 0.0002270498 -4.05767e-05 -1.25127e-05 0.594230569 -0.6104478299
410297540.0 -0.573761149 0.6303236079 -0.0001030395 -5.0947e-06 -7.27545e-05 -4.16906e-05 0.5883092857 -0.6159959537
415297510.0 -0.5681555146 0.6353712287 0.0001253972 0.0001055307 -2.5726e-05 -0.000297126 0.5822698586 -0.6218512315
420297480.0 -0.561108301 0.6413258702 5.91968e-05 -0.0002024681 6.01571e-05 0.0002019526 0.5764408736 -0.6270721221
425297450.0 -0.554824061 0.6466365693 5.40196e-05 -0.0002065574 -0.0001220267 -8.8746e-06 0.5703702478 -0.6336409426
430297420.0 -0.548154945 0.6520310655 0.0003099179 4.14777e-05 -7.24503e-05 -5.4375e-06 0.5635029809 -0.6388196948
435297390.0 -0.5411313082 0.657838554 -0.000115599 2.99184e-05 -5.26401e-05 0.0001910921 0.5568281511 -0.6448462351
440297360.0 -0.5340655477 0.66321142 -0.0001778789 -1.53397e-05 -2.07116e-05 -7.80278e-05 0.550805508 -0.6491999107
445297330.0 -0.5274698065 0.6684116049 -0.0001810359 -7.93894e-05 -0.0002042109 0.0001015605 0.5441132891 -0.6538642038
450297300.0 -0.5198172644 0.6739122913 -1.8233e-05 -0.0001826837 -5.70258e-05 -4.54652e-05 0.5378004906 -0.6598349197
455297270.0 -0.5139728813 0.678280033 6.06801e-05 -0.000228254 -0.0001190825 -3.49194e-05 0.5310062565 -0.6650632802
460297240.0 -0.5060758833 0.6839426386 -3.94878e-05 1.36936e-05 0.0001880136 -1.8018e-05 0.5243325313 -0.6702189903
465297210.0 -0.4994823979 0.6892484078 0.0001115521 8.10779e-05 0.0001184342 -3.46458e-05 0.5180163647 -0.6743990854
470297180.0 -0.4920327306 0.6940788747 2.2837e-06 -3.67167e-05 -4.46673e-05 -0.000109817 0.5111860124 -0.6802534049
475297150.0 -0.4848248587 0.6991924582 9.79761e-05 -0.0001137714 -0.0001617336 0.0002235921 0.5046907488 -0.6848723247
480297120.0 -0.4767603992 0.7039301425 -1.5979e-06 -6.00299e-05 -0.0002219573 3.99748e-05 0.4975163829 -0.6897480504
485297090.0 -0.4704654 0.7085803335 -5.28904e-05 0.0002209727 7.65626e-05 -3.7807e-06 0.4909574947 -0.6954631274
490297060.0 -0.4620709786 0.7141085643 3.5155e-06 0.0001520262 -0.000150354 -0.0001013706 0.4837129323 -0.6994909445
495297030.0 -0.4546365081 0.7179225071 -6.076e-07 1.15967e-05 -5.93512e-05 3.61272e-05 0.47694478 -0.7043571634
500297000.0 -0.447403557 0.7224361825 0.0001230559 8.35676e-05 -2.91401e-05 7.01122e-05 0.4698855379 -0.7090117797
505296970.0 -0.4391490578 0.7273493493 5.9486e-05 0.0001197634 -0.000171804 -1.15418e-05 0.4622111402 -0.7129452867
510296940.0 -0.4319877732 0.7310054132 9.10155e-05 -0.0001338028 -0.000330901 -9.89191e-05 0.4550351307 -0.7172508194
515296910.0 -0.4241795297 0.7357428502 -0.0003312956 -0.000131722 -4.09639e-05 -8.6746e-05 0.4487818026 -0.7220949143
520296880.0 -0.4162159961 0.7399370265 -3.51092e-05 0.000190199 -7.0467e-06 7.83603e-05 0.4417148836 -0.7260551138
525296850.0 -0.4087954778 0.7441079002 -9.49773e-05 -0.00012495 0.0001227705 -1.5488e-06 0.4344193849 -0.7303512542
530296820.0 -0.4016017989 0.7479414877 0.0001036991 4.54393e-05 -1.46907e-05 0.0001546744 0.4268509716 -0.7348464063
535296790.0 -0.3925838065 0.7521269145 0.0001697536 -4.15186e-05 -0.0001361687 2.21975e-05 0.4199935953 -0.7380877781
540296760.0 -0.385077459 0.7558682613 -8.50888e-05 0.000347932 -0.0001117314 0.0001209549 0.4119526486 -0.742400324
545296730.0 -0.3778045738 0.7606613472 4.22625e-05 0.0001550811 5.21565e-05 -5.49786e-05 0.4046810674 -0.7467719738
550296700.0 -0.369008705 0.7637433521 1.49008e-05 1.80938e-05 -2.06378e-05 -3.89456e-05 0.3974192369 -0.75043794
555296670.0 -0.3616639786 0.7673355863 8.72462e-05 9.24211e-05 -8.84972e-05 -0.0002044699 0.3895568627 -0.7547552354
560296640.0 -0.3534040642 0.7707757675 0.0001534885 7.85836e-05 -9.78663e-05 -8.50743e-05 0.3821689476 -0.7581446532
565296610.0 -0.3455275171 0.7745244376 -7.82457e-05 5.42609e-05 7.67681e-05 3.76451e-05 0.3745701227 -0.7616577616
570296580.0 -0.337066532 0.7783831122 1.68412e-05 -3.84208e-05 5.96305e-05 -0.000205452 0.3666263811 -0.7659877264
575296550.0 -0.3281513496 0.781192528 0.0001636661 0.0001751419 4.42442e-05 -4.94449e-05 0.3593979726 -0.7688668938
580296520.0 -0.3213333774 0.7849818025 0.0001183725 1.07523e-05 0.0002758279 -2.48066e-05 0.3517462814 -0.772398676
585296490.0 -0.3127384319 0.7875558967 1.53249e-05 0.0001959544 7.32175e-05 -0.0001538153 0.3439040891 -0.7750510093
590296460.0 -0.3038855176 0.7907170864 0.0001023715 -5.09766e-05 -5.59517e-05 -0.0001602459 0.3357208164 -0.7787369417
595296430.0 -0.2960368458 0.7939011846 2.35844e-05 2.29518e-05 8.40921e-05 -8.44633e-05 0.3284845664 -0.7822526634
600296400.0 -0.288199022 0.7964728925 -6.87628e-05 7.05e-07 -5.06328e-05 -3.81403e-05 0.3207449652 -0.7849399305
605296370.0 -0.2797003963 0.7996435487 0.0002454619 0.0001594736 6.3322e-06 8.01768e-05 0.3129357973 -0.7876591596
610296340.0 -0.2716751043 0.8031015055 -3.91402e-05 3.45174e-05 -5.04651e-05 -2.87838e-05 0.3044525321 -0.7909524614
615296310.0 -0.2632906878 0.8052386421 -0.0003214838 2.2577e-06 1.96119e-05 -0.0001042207 0.2968854652 -0.7941721716
620296280.0 -0.2554827962 0.8085941263 -0.0001741464 0.0001059216 -1.44087e-05 4.07109e-05 0.2889457472 -0.7964078107
625296250.0 -0.2478797453 0.8107346215 0.0002235533 -0.0001824716 -2.16217e-05 0.0001085415 0.2813159814 -0.7998332719
630296220.0 -0.2388594454 0.8134017861 0.0001591938 -0.000140534 0.0001391528 5.69979e-05 0.2733349902 -0.8021607846
635296190.0 -0.2312468702 0.8157079846 9.36939e-05 -0.0001849063 0.0001130459 -0.000125525 0.2648603382 -0.8042764661
640296160.0 -0.2218657501 0.8177755043 0.0001659112 0.0002559135 -3.56417e-05 0.0001732497 0.2568284312 -0.8069738556
645296130.0 -0.2132812243 0.8207803953 -2.513e-07 0.0002043172 -0.0001330152 -8.0746e-06 0.2485972674 -0.8092623258
650296100.0 -0.2055009358 0.82180326 9.30908e-05 7.57186e-05 -0.0002070935 0.0001084745 0.2407620855 -0.8113314727
655296070.0 -0.1978987021 0.8243973616 0.0001040976 2.5085e-05 -5.9759e-05 -3.59373e-05 0.2326913214 -0.8143908286
660296040.0 -0.1894231038 0.8265363206 6.13963e-05 9.1782e-06 -9.51514e-05 -4.40719e-05 0.2246278192 -0.8162158343
665296010.0 -0.1809156821 0.8284691317 1.35347e-05 -3.4254e-06 -7.20622e-05 9.87873e-05 0.2168793146 -0.8180128521
670295980.0 -0.1729365992 0.8306691308 -9.77534e-05 -0.0001038205 -5.4036e-06 -4.07346e-05 0.208099589 -0.8198479249
675295950.0 -0.1643777446 0.8321778911 -0.0001565334 2.86803e-05 -9.2148e-06 3.0983e-05 0.2001981017 -0.8219507399
680295920.0 -0.1564995005 0.8336732799 0.0001376468 -8.35517e-05 0.0001377167 1.87117e-05 0.1920041219 -0.8239040264
685295890.0 -0.1477252374 0.8361612361 -0.0002161146 -1.71526e-05 0.0001479594 -0.0001495994 0.1836267821 -0.8256786799
690295860.0 -0.1398217717 0.8367729147 4.29443e-05 -0.0001786864 3.50608e-05 -0.0002222317 0.1756270668 -0.8276379793
695295830.0 -0.1307910521 0.8384855487 -7.49816e-05 -0.0002694278 -8.17224e-05 7.19107e-05 0.1672818041 -0.8285197044
700295800.0 -0.1227536148 0.8400621192 1.25002e-05 2.44499e-05 -0.0001632425 -0.0001936545 0.1587658682 -0.8300096038
705295770.0 -0.1149580729 0.8417851323 -9.868e-06 -4.6787e-05 -0.0001143096 0.0001002201 0.1504834283 -0.830910926
710295740.0 -0.1066657964 0.841983832 0.0001311356 -7.03547e-05 6.58328e-05 0.0001375485 0.1428067216 -0.83219215
715295710.0 -0.0979422999 0.8438155238 -3.88513e-05 0.0001338817 -2.29059e-05 -0.0001663945 0.1345853647 -0.8346517597
720295680.0 -0.0896150587 0.8440903987 2.8884e-05 7.16088e-05 -4.44236e-05 0.0002161656 0.126205806 -0.8353667123
725295650.0 -0.0817103088 0.8456232717 -0.000158951 -3.23367e-05 0.0001577064 -7.23506e-05 0.1175521616 -0.8360924293
730295620.0 -0.0737696069 0.8466917278 0.0003500314 1.18646e-05 7.8201e-06 -7.04255e-05 0.1086371954 -0.8368893396
735295590.0 -0.0654206294 0.8472626566 -9.3448e-06 1.4399e-05 4.43605e-05 -3.93842e-05 0.1011773356 -0.8376544622
740295560.0 -0.0574378655 0.84801957 -0.0001613117 5.4116e-06 0.0001332773 -0.0001392165 0.0923245612 -0.8389034992
745295530.0 -0.0490617777 0.8490283909 -0.0001619501 -3.00828e-05 -5.96142e-05 0.0001223582 0.0835606774 -0.8397802271
750295500.0 -0.0410252465 0.8494324886 0.0001611213 2.12342e-05 3.13495e-05 0.0001283551 0.0753883578 -0.8405645795
755295470.0 -0.0323239264 0.8496864142 -0.0002371937 8.0455e-06 -1.66466e-05 5.94879e-05 0.0670037121 -0.8402043222
760295440.0 -0.0239661179 0.8509200811 3.3816e-05 -0.0003670034 0.0002562356 -4.91324e-05 0.0594416016 -0.8412538833
765295410.0 -0.0163673597 0.8504192891 2.36068e-05 -0.0001042666 -9.70391e-05 0.0001073707 0.0503628219 -0.8419115834
770295380.0 -0.0080641496 0.8507007968 8.65672e-05 -9.98154e-05 9.83622e-05 0.0001761366 0.0425444722 -0.8422835594
775295350.0 0.0001138023 0.85104721 -0.0002962863 -4.63402e-05 -0.0002199876 0.0001701267 0.0345543331 -0.8426302677
780295320.0 0.0086576031 0.851994054 -4.17387e-05 3.9179e-06 -0.0001033842 0.000114638 0.0254663815 -0.8419827497
785295290.0 0.0163409103 0.8510507188 -0.0001117883 8.23233e-05 2.96398e-05 1.1113e-06 0.0164184728 -0.8423921863
790295260.0 0.0251615544 0.8507538496 2.94979e-05 -0.0001008477 -0.0002281124 0.0001871511 0.0085089181 -0.8419936404
795295230.0 0.0328092578 0.8509261471 -0.0001453581 9.95108e-05 2.80985e-05 -0.0002451237 -0.0003186355 -0.8432579828
800295200.0 0.0411979624 0.8508351634 -0.0001583733 7.44314e-05 -5.7738e-06 -3.5825e-06 -0.0081101016 -0.8424272764
805295170.0 0.0493315211 0.8505920634 0.0001938789 0.0003516548 9.15739e-05 2.399e-05 -0.016144496 -0.8424957724
810295140.0 0.0579358289 0.8501943168 -6.8701e-06 0.0001105586 -3.37147e-05 2.00502e-05 -0.0247715621 -0.842033536
815295110.0 0.0649799038 0.8496205478 0.0003324695 0.000103823 -5.41718e-05 -3.2538e-05 -0.0339406302 -0.8409295959
820295080.0 0.0733935547 0.8489579243 -1.56141e-05 6.57908e-05 0.0001224215 0.0002011497 -0.0420254411 -0.8399832214
825295050.0 0.0816251238 0.8484735909 -5.93712e-05 -8.61126e-05 -8.32472e-05 0.0001255037 -0.0497359466 -0.8395123814
830295020.0 0.0906586297 0.8478441165 3.93647e-05 -0.000104528 -7.66626e-05 -5.4265e-06 -0.058925641 -0.8396907452
835294990.0 0.0983153024 0.8467757951 -0.0001107932 5.1835e-05 3.25979e-05 0.0001641929 -0.0672366525 -0.8380015662
840294960.0 0.1065360121 0.8452871582 -0.0001014452 -0.0001889922 -5.65527e-05 -3.12582e-05 -0.0752975151 -0.837505791
845294930.0 0.1145512026 0.8448951086 7.02433e-05 0.0002608135 0.0001000981 -4.34804e-05 -0.0833947865 -0.8362022358
850294900.0 0.1245058548 0.8434593573 0.0002779167 0.000187563 -0.0002591705 -3.15034e-05 -0.0920425121 -0.8356936833
