!Created with skrf (http://scikit-rf.org).
# Hz S RI R 50.0 
!freq ReS11 ImS11 ReS21 ImS21 ReS12 ImS12 ReS22 ImS22
300000.0 -0.231044362 -0.1373812211 0.4652799342 0.0887112489 0.4667971656 0.0863433512 -0.2347189014 -0.1304460093
5299970.0 -0.2418858974 0.0049413932 0.4747749627 0.0063099854 0.4753384801 0.0061700985 -0.2441260498 0.0045378268
10299940.0 -0.238662515 0.0186098945 0.4774259647 0.0069434725 0.4769573311 0.0071625851 -0.2405940464 0.0169321703
15299910.0 -0.2336637871 0.0291081349 0.4804455859 0.0079965634 0.4808037988 0.0081290096 -0.2367328582 0.0262189803
20299880.0 -0.2286458645 0.0371069824 0.4851113253 0.0079752896 0.4854814773 0.0081042396 -0.231793859 0.033680088
25299850.0 -0.2223269748 0.0435574378 0.490606745 0.0076383044 0.4906528005 0.0072050099 -0.226552075 0.0400328093
30299820.0 -0.217112982 0.0486169649 0.4960115493 0.0052219674 0.4963012171 0.0051854194 -0.221523712 0.0448173183
35299790.0 -0.211123876 0.0528393699 0.5007376564 0.0020794777 0.5016828794 0.0018602751 -0.2166749804 0.049178666
40299760.0 -0.2059420633 0.0560058357 0.5061917905 -0.0021241652 0.5065880047 -0.0023803753 -0.2114706128 0.0519554869
45299730.0 -0.200994186 0.0588226699 0.5109374268 -0.0065405513 0.5113844297 -0.0070310853 -0.2067139518 0.0548694831
50299700.0 -0.195807342 0.0609062445 0.5152408935 -0.0126727286 0.5153351449 -0.0126415565 -0.2022821323 0.0569461522
55299670.0 -0.1918282672 0.0625729943 0.5187989257 -0.0178951796 0.5190878048 -0.0183574165 -0.1990132654 0.0584813868
60299640.0 -0.1878827019 0.0640785206 0.5222274657 -0.0244644634 0.5225539074 -0.0248543685 -0.1951756505 0.0596702549
65299610.0 -0.1839630098 0.0653494773 0.5253777868 -0.0310765805 0.5253861552 -0.030966661 -0.1914670405 0.0610081529
70299580.0 -0.1808570446 0.0657512227 0.5274998002 -0.0370240352 0.5278736188 -0.0377248096 -0.1890661957 0.0620257152
75299550.0 -0.1778751453 0.0666888531 0.5293155333 -0.044648591 0.5295753607 -0.0445755797 -0.1860233789 0.0628891459
80299520.0 -0.1751358616 0.0677494006 0.5314036629 -0.0510968824 0.5317187384 -0.0517284472 -0.1835953184 0.0635801735
85299490.0 -0.1725668276 0.0682994613 0.5327206852 -0.0585868038 0.5326341011 -0.058085985 -0.1814083176 0.0639846815
90299460.0 -0.1703725896 0.0689208696 0.5334105652 -0.0650281526 0.5337056136 -0.0650029534 -0.1789890795 0.0651149287
95299430.0 -0.1679672188 0.0696111462 0.5343653463 -0.0719766964 0.5349564794 -0.0723732284 -0.1774239461 0.0656539481
100299400.0 -0.1658404922 0.0704206702 0.5351725032 -0.0786358406 0.5352089111 -0.0787584729 -0.175768132 0.0664531997
105299370.0 -0.1639317591 0.0710049058 0.5349675277 -0.0858434254 0.5358240557 -0.0857851985 -0.1735228171 0.0667287573
110299340.0 -0.1621896675 0.0715363536 0.535484506 -0.0923332892 0.5358058828 -0.0923510508 -0.1724878793 0.0675488716
115299310.0 -0.1608673444 0.0725358488 0.5352605998 -0.0991351551 0.5354136154 -0.0996185522 -0.1711427111 0.0684109711
120299280.0 -0.1593517842 0.0731867982 0.5351146963 -0.1061560835 0.535131929 -0.1062817282 -0.1698559844 0.0684390487
125299250.0 -0.1579249924 0.0740461285 0.5348703298 -0.1128124742 0.5348123361 -0.1128331264 -0.1685363874 0.0698557132
130299220.0 -0.1567320382 0.074723966 0.5343070195 -0.1197317971 0.5343751888 -0.1202486585 -0.1672118518 0.0706367638
135299190.0 -0.1555112127 0.0757041159 0.5339227405 -0.1259446141 0.5337167898 -0.1264084382 -0.1664945957 0.0710790609
140299160.0 -0.1540773357 0.0768790285 0.5330132259 -0.1332677621 0.5326337987 -0.1325317332 -0.1657438879 0.0719081522
145299130.0 -0.1534557944 0.0777593858 0.5315670616 -0.1391948899 0.531914203 -0.1392946844 -0.1644821088 0.0732633483
150299100.0 -0.1521725693 0.078702796 0.5304931822 -0.1460864892 0.5307627358 -0.1463630318 -0.1639006894 0.0743751228
155299070.0 -0.1506285499 0.0800673455 0.5288390973 -0.1521872053 0.5295340273 -0.1529737872 -0.1629804349 0.0749986962
160299040.0 -0.1501274802 0.0813939205 0.5283957985 -0.1590660003 0.527943634 -0.1592868016 -0.162508759 0.0759813449
165299010.0 -0.1488283436 0.0822932517 0.5268881119 -0.1651716803 0.5265031429 -0.1655569117 -0.1613328963 0.0766427376
170298980.0 -0.1479782551 0.0835530772 0.5249367187 -0.1719696927 0.5251783349 -0.1718978297 -0.1609324612 0.0778640732
175298950.0 -0.1470025767 0.0846013532 0.5240376067 -0.1777515209 0.5236460092 -0.1782995497 -0.1599055854 0.0794302448
180298920.0 -0.145958072 0.0859976 0.5217009586 -0.1845859872 0.5218472605 -0.184596708 -0.1591685792 0.0801131271
185298890.0 -0.1451288143 0.0871899657 0.5202241793 -0.1908277551 0.5200484027 -0.1903314449 -0.1584620612 0.081232917
190298860.0 -0.1437581505 0.0889003501 0.5174881142 -0.1968757475 0.5180725119 -0.1963795925 -0.1575692479 0.082231666
195298830.0 -0.1430333139 0.0899585076 0.5164782568 -0.2028751164 0.5162234481 -0.2027661535 -0.1572712415 0.0838474875
200298800.0 -0.141889465 0.0909488444 0.5139152939 -0.2091439708 0.5141413115 -0.2093960427 -0.156262439 0.0846874482
205298770.0 -0.1415802484 0.0924060618 0.511684927 -0.2149955828 0.511952572 -0.2147512942 -0.1551840809 0.0861525546
210298740.0 -0.1400280307 0.0940796063 0.5095068246 -0.2207479509 0.5094460353 -0.2206513945 -0.1548998957 0.0870103535
215298710.0 -0.1391089789 0.0955525623 0.5068326566 -0.2267438676 0.5069183459 -0.2269524257 -0.1540872131 0.0885026214
220298680.0 -0.1381876058 0.0968620363 0.5046161093 -0.2324331337 0.5045719408 -0.2329900938 -0.1531699027 0.0894713263
225298650.0 -0.1373977032 0.0982871674 0.501927349 -0.2386229755 0.5019297849 -0.2381706518 -0.1523805898 0.0908265418
230298620.0 -0.1360594757 0.0999317115 0.4995177549 -0.2445541105 0.5000443045 -0.2445429796 -0.1518690847 0.092159441
235298590.0 -0.1355937461 0.1011686404 0.4978490481 -0.2504203344 0.4972359319 -0.2503677146 -0.150945925 0.0934278579
240298560.0 -0.1341493181 0.1027075272 0.4940767597 -0.2555416008 0.4944910433 -0.2556216619 -0.1503109084 0.0946203006
245298530.0 -0.1333595072 0.1038612445 0.4913331213 -0.2616907841 0.4913640823 -0.2616827613 -0.1495758212 0.0959873673
250298500.0 -0.1323511976 0.1054455742 0.4886123052 -0.2670581695 0.4887319349 -0.2671652875 -0.148758488 0.0975045523
255298470.0 -0.1311142366 0.1069915436 0.4858042799 -0.2721688931 0.4863634496 -0.2726983631 -0.1480559285 0.0989332667
260298440.0 -0.1300312534 0.1083222709 0.4830616874 -0.2778442144 0.4834236409 -0.2781801507 -0.1473757514 0.1001373298
265298410.0 -0.1292972739 0.1099363476 0.4799146773 -0.2840265373 0.4794871637 -0.2841433899 -0.1455160324 0.1009561249
270298380.0 -0.1282632092 0.1111745809 0.4766157815 -0.2889940543 0.4772568377 -0.2891242724 -0.1451348323 0.1029574461
275298350.0 -0.1270802368 0.1130277555 0.4733183131 -0.2944915134 0.4739649306 -0.2943941056 -0.1443502058 0.1042781591
280298320.0 -0.1261046523 0.1142414829 0.4708005337 -0.2993130655 0.4709165316 -0.2998494504 -0.1431758674 0.1054831324
285298290.0 -0.1249017192 0.1157935446 0.4672747331 -0.3051748671 0.4676546645 -0.3049580566 -0.1424845634 0.1070359223
290298260.0 -0.1238167609 0.1174198761 0.4647219143 -0.3105428381 0.4645080999 -0.310402807 -0.1415854629 0.1082333544
295298230.0 -0.1226768818 0.1184418157 0.46074893 -0.316020595 0.4605352445 -0.3156961961 -0.1407146699 0.1092849942
300298200.0 -0.1212679254 0.1202316353 0.4575912463 -0.3210590932 0.4573540237 -0.3210558162 -0.139486243 0.1107674189
305298170.0 -0.1200170036 0.1211020404 0.4545088823 -0.3264131284 0.4541852027 -0.3263364845 -0.1384636775 0.1117737635
310298140.0 -0.1186149914 0.1224159782 0.4505185074 -0.3314065979 0.4509101619 -0.3312486025 -0.137085842 0.1132753294
315298110.0 -0.1175998115 0.1236077352 0.4469682363 -0.3370606071 0.4468503785 -0.3366637154 -0.1363907988 0.1144725075
320298080.0 -0.1163149837 0.1251173494 0.4424172875 -0.3419285061 0.4436965813 -0.3418817648 -0.135895519 0.1153991448
325298050.0 -0.1156773935 0.126265418 0.4388484726 -0.3465423658 0.4398935447 -0.3470334811 -0.1345724712 0.1168149859
330298020.0 -0.1149705723 0.1276174601 0.4353219971 -0.3520649518 0.435694744 -0.3519060672 -0.1338131283 0.1180270402
335297990.0 -0.1133307676 0.128817146 0.4309896375 -0.3563240497 0.4312531378 -0.3567081891 -0.1328424588 0.1191751745
340297960.0 -0.1124121902 0.130217433 0.4267734714 -0.3616650842 0.4269901549 -0.3618983454 -0.1317287327 0.1212080131
345297930.0 -0.1112933607 0.131709636 0.4232293 -0.3663057728 0.4232745592 -0.3661720628 -0.1308252702 0.1221019395
350297900.0 -0.1099437119 0.1328310539 0.4194956195 -0.3705730056 0.4193797254 -0.3703684853 -0.1299776954 0.1230952906
355297870.0 -0.108590479 0.134287488 0.414973636 -0.374765884 0.4154816005 -0.3749476952 -0.1287221038 0.1250779303
360297840.0 -0.1072968709 0.1358010899 0.4107268277 -0.3797436905 0.4111824766 -0.3803041399 -0.1275272989 0.1265445737
365297810.0 -0.1062365886 0.1371964563 0.4067225883 -0.3844445754 0.406640888 -0.3843875191 -0.1266302922 0.1274791196
370297780.0 -0.104861525 0.1383962366 0.4019865164 -0.3887423027 0.4025283306 -0.3890119787 -0.1256251533 0.1288615422
375297750.0 -0.1034659996 0.1397363347 0.3981656962 -0.3928688131 0.398141041 -0.3934066519 -0.1243614005 0.1301716869
380297720.0 -0.1023535348 0.1412374554 0.3940988934 -0.3979220424 0.393375677 -0.3977589076 -0.1228937299 0.1316956657
385297690.0 -0.1009324296 0.1421731368 0.3892387156 -0.4019909035 0.389664416 -0.402213717 -0.1219982383 0.1333423559
390297660.0 -0.0991370225 0.1432932959 0.3848533984 -0.405757913 0.3850098958 -0.4059106561 -0.1204574622 0.1341098444
395297630.0 -0.0974677288 0.1446027359 0.3807639271 -0.4101914541 0.3803119008 -0.4100410404 -0.1195319269 0.1353026315
400297600.0 -0.0965930469 0.1456719882 0.376300174 -0.4142766174 0.3762757811 -0.4146081679 -0.1182274608 0.1372846464
405297570.0 -0.0947535639 0.1465309639 0.3715898415 -0.4181154666 0.3716424188 -0.4187234674 -0.1167570097 0.1386201052
410297540.0 -0.0930883605 0.1483484285 0.3672437158 -0.4227659537 0.3668546525 -0.4225818529 -0.1152807061 0.1399100419
415297510.0 -0.091744435 0.1493240628 0.3621030148 -0.4263703697 0.3626914788 -0.4269528955 -0.1140198968 0.141096945
420297480.0 -0.0900187336 0.1499893611 0.3573724997 -0.4304272063 0.3579287196 -0.4308637416 -0.1124123772 0.1423235512
425297450.0 -0.0882069287 0.151140047 0.3532032889 -0.434004763 0.352812763 -0.4344093313 -0.1112770033 0.1431188867
430297420.0 -0.0868651681 0.1523829633 0.3485581668 -0.4383940721 0.348436444 -0.4379464947 -0.1098511207 0.1445963882
435297390.0 -0.0851678757 0.1532865402 0.3430446428 -0.4426586397 0.343228582 -0.4419592669 -0.1089706584 0.1460891142
440297360.0 -0.0834557846 0.1544289128 0.3382311114 -0.4456686825 0.3385799986 -0.4461099052 -0.107505175 0.1473824407
445297330.0 -0.0816380427 0.1552289582 0.3338712184 -0.4495197075 0.3336142275 -0.4495570368 -0.1054636846 0.1487137224
450297300.0 -0.0803394696 0.1563491089 0.3289043649 -0.4527809591 0.3289503251 -0.452726777 -0.1040932584 0.1497860041
455297270.0 -0.0787315541 0.1573474051 0.3238190432 -0.4566284149 0.3239028856 -0.4566320901 -0.1026836417 0.1505887758
460297240.0 -0.0765805773 0.1582682818 0.3187908168 -0.4603633126 0.3187221226 -0.4601754083 -0.1015146821 0.1516571861
465297210.0 -0.0749358197 0.159155215 0.3133446347 -0.4635350228 0.3132368103 -0.463793928 -0.099470979 0.1533045326
470297180.0 -0.0731433696 0.1599157412 0.3080593535 -0.4667121446 0.3087129691 -0.4670917474 -0.0983898593 0.1540951648
475297150.0 -0.0717552107 0.1613269058 0.3035599774 -0.4702517282 0.3036147556 -0.4702901056 -0.0967118718 0.1549773066
480297120.0 -0.0693077623 0.1623769417 0.2982471554 -0.4736850333 0.2986666067 -0.4733411969 -0.0955576949 0.1562107855
485297090.0 -0.0677536709 0.1626836341 0.2930479911 -0.4767008232 0.2931153676 -0.476760634 -0.0938470313 0.1574427993
490297060.0 -0.0654888023 0.1639141666 0.2875118481 -0.4800405151 0.2879533258 -0.4801217896 -0.0923794544 0.158160027
495297030.0 -0.0640347644 0.1644190034 0.2832779638 -0.4829403227 0.2829611885 -0.483422725 -0.0905085068 0.1591166927
500297000.0 -0.0620773098 0.1653926809 0.2779091028 -0.4859046997 0.2775195062 -0.4863411456 -0.0889356816 0.1608154077
505296970.0 -0.0597648344 0.1662330575 0.2725053027 -0.489274919 0.2719304885 -0.48900691 -0.0875413286 0.1609589445
510296940.0 -0.0578467864 0.166710493 0.2668761606 -0.4926271913 0.2673648575 -0.4925615622 -0.0854453425 0.162585635
515296910.0 -0.05637211 0.1678999892 0.2608337601 -0.494568224 0.2612719556 -0.4946415688 -0.0843022383 0.1629273547
520296880.0 -0.0542625229 0.1686203723 0.2556441194 -0.4975965652 0.2556249327 -0.4977312491 -0.0821475877 0.1645376873
525296850.0 -0.0523477636 0.1689871239 0.2504665419 -0.5001865688 0.2505353586 -0.5003408838 -0.0810867761 0.1652876988
530296820.0 -0.0507313025 0.1697767314 0.2448350253 -0.5033036751 0.2448569306 -0.503146222 -0.0791822735 0.166059646
535296790.0 -0.0481869679 0.170589108 0.2392762135 -0.5051379177 0.2393340159 -0.5059058087 -0.0772828594 0.1669820707
540296760.0 -0.0462431304 0.171441543 0.2337353188 -0.5082789184 0.233923745 -0.508020252 -0.0759215389 0.1673729923
545296730.0 -0.0445683294 0.1725004218 0.2288546214 -0.5103675471 0.2282975815 -0.5102566546 -0.0741641119 0.1686809468
550296700.0 -0.042153935 0.1727958979 0.2226759631 -0.512896063 0.2225391858 -0.5130465439 -0.0723943497 0.1692148659
555296670.0 -0.0406355726 0.1732382239 0.217538712 -0.5154649368 0.2172946349 -0.5157035993 -0.0709548185 0.1698851383
560296640.0 -0.0379623938 0.1737782421 0.2111745579 -0.5174122826 0.2120538039 -0.5179761289 -0.0695258477 0.1712424502
565296610.0 -0.036824427 0.1744914923 0.2064717201 -0.5199561787 0.206090702 -0.5196485409 -0.0671757344 0.1721901611
570296580.0 -0.0344365429 0.1752651681 0.2000061562 -0.5220437753 0.2000574138 -0.5223028237 -0.0656042871 0.1725311612
575296550.0 -0.0321938219 0.1753840824 0.1945690494 -0.5241165852 0.1946060502 -0.5243574078 -0.0637465135 0.1735332828
580296520.0 -0.0301795019 0.1764585844 0.1890535752 -0.526107782 0.1885394765 -0.5266522144 -0.0626028302 0.1741475224
585296490.0 -0.0283695749 0.1770978348 0.1834871012 -0.5280179357 0.1829323403 -0.5283869627 -0.0603093424 0.1750728717
590296460.0 -0.0254070052 0.1772650024 0.1774603705 -0.5301037531 0.1775761343 -0.5305076782 -0.0592310793 0.1756618827
595296430.0 -0.0236300592 0.1779237787 0.171167607 -0.5320603589 0.1717272341 -0.5321799516 -0.0573945296 0.1760913039
600296400.0 -0.0214415775 0.178245863 0.1655300934 -0.5337490457 0.1658018987 -0.5337686769 -0.0551416019 0.1765492268
605296370.0 -0.0198677955 0.1790344017 0.160766593 -0.5352780955 0.1598533197 -0.5357201558 -0.0536666096 0.1773863021
610296340.0 -0.0172164121 0.1796902815 0.1540151429 -0.5366425126 0.1547808133 -0.5369889553 -0.0519015698 0.1782087645
615296310.0 -0.0152837775 0.1799636043 0.1483372588 -0.539275484 0.147804176 -0.5388167496 -0.0499707914 0.1790425213
620296280.0 -0.0133239399 0.1806089975 0.142116505 -0.5405246308 0.1421461155 -0.5401463942 -0.0486897918 0.1796960024
625296250.0 -0.0115076252 0.18082938 0.1364963924 -0.5421307073 0.1365641057 -0.5420623887 -0.0471357795 0.1801056193
630296220.0 -0.0092751373 0.1811548177 0.1308444657 -0.5434180046 0.1306255651 -0.5434362802 -0.044971173 0.1808299503
635296190.0 -0.0074880097 0.1816792113 0.1250881455 -0.5446014187 0.1242449816 -0.544140824 -0.0427831959 0.181240501
640296160.0 -0.0051869179 0.1819335075 0.1184923457 -0.5460750037 0.1188955296 -0.5461661228 -0.0418585649 0.1818026728
645296130.0 -0.0029707779 0.1825575211 0.1126799572 -0.5473813011 0.1127891719 -0.5471694786 -0.0397240256 0.1818292036
650296100.0 -0.0010262249 0.1826219956 0.1071213002 -0.5483975463 0.1068522476 -0.5483171453 -0.0373106842 0.1829478659
655296070.0 0.0009590001 0.1825807648 0.101231428 -0.5494252614 0.10161716 -0.549315912 -0.0365660364 0.1833994153
660296040.0 0.0030594494 0.1835066958 0.0953988457 -0.5507287236 0.0952131745 -0.5506648328 -0.0343199855 0.1833656259
665296010.0 0.0051927808 0.1833483749 0.0889410108 -0.5509563291 0.0890189574 -0.5514388719 -0.0326863872 0.18422574
670295980.0 0.0069405178 0.1838127018 0.08303329 -0.5524911568 0.0829792384 -0.5517495426 -0.0311240207 0.1845929841
675295950.0 0.0092430492 0.1837898285 0.0769310872 -0.5530557852 0.0774503597 -0.5529925681 -0.0290816127 0.1851882738
680295920.0 0.0108238212 0.1843872371 0.071564925 -0.5537526498 0.0712252215 -0.5536767701 -0.0270722146 0.1855139584
685295890.0 0.0131612577 0.1842033472 0.0650433044 -0.5544952255 0.0655608423 -0.5545563919 -0.0254484126 0.1860476705
690295860.0 0.0151024432 0.1843610344 0.059814341 -0.5552427065 0.0591869579 -0.5554341583 -0.0236054323 0.1862881237
695295830.0 0.0175649266 0.1842969664 0.0537390497 -0.5558106358 0.0534317649 -0.5557459877 -0.0220244831 0.1868638159
700295800.0 0.0193316538 0.1846476737 0.0478591927 -0.5562523831 0.0472221795 -0.556103129 -0.019892367 0.1871147164
705295770.0 0.0210527921 0.1845979981 0.0418088387 -0.5570443409 0.0412403658 -0.5565734241 -0.0181477125 0.1875573955
710295740.0 0.0232168267 0.1844358034 0.0355916306 -0.5565577737 0.0351740609 -0.5573305546 -0.0160812263 0.1881823961
715295710.0 0.0252891828 0.1845952117 0.0299038571 -0.5578795774 0.0293118826 -0.5576235426 -0.0145096428 0.1879899033
720295680.0 0.0275322184 0.1847264729 0.0232630064 -0.5577392298 0.02307276 -0.5577535856 -0.0128402205 0.188023612
725295650.0 0.0289624533 0.1849790084 0.017981592 -0.5579283851 0.017380956 -0.557868505 -0.0111625135 0.1892373176
730295620.0 0.030662767 0.1844394896 0.0117776857 -0.5577811981 0.0117050441 -0.557650144 -0.0096345515 0.1894493659
735295590.0 0.033094336 0.1846777706 0.0059277857 -0.5582880492 0.0055402512 -0.5584007787 -0.0072910421 0.1893023076
740295560.0 0.0348078607 0.1843023377 -0.0003854346 -0.5583316737 -0.0003321023 -0.5583205857 -0.0056482936 0.1897463516
745295530.0 0.0369800243 0.1842761751 -0.0064046358 -0.5573791152 -0.0057452493 -0.5578473604 -0.0040524393 0.1896530252
750295500.0 0.0387637113 0.1841680142 -0.0118495746 -0.557738384 -0.0126734611 -0.5577464429 -0.001988138 0.1900814145
755295470.0 0.0405451034 0.1841272763 -0.0178660378 -0.5578649526 -0.0182615406 -0.5580457265 -0.0001038953 0.1906767805
760295440.0 0.0426414335 0.1840746697 -0.0253078291 -0.5571649832 -0.0242753227 -0.5567986079 0.002010724 0.1897287963
765295410.0 0.044894681 0.1833875055 -0.03029323 -0.5572947124 -0.0300445576 -0.5572421442 0.0036304565 0.1903186818
770295380.0 0.0465124244 0.183429097 -0.0358332332 -0.5563877338 -0.0362102731 -0.5571250176 0.0049323756 0.190536735
775295350.0 0.0484687462 0.1827381552 -0.0422452071 -0.5561772755 -0.0419858574 -0.5558544872 0.0074505792 0.1908242699
780295320.0 0.0504255772 0.1830791491 -0.0477931204 -0.5555684048 -0.047914376 -0.5558172287 0.0093778242 0.1909107659
785295290.0 0.0520831511 0.1824085373 -0.0538258511 -0.555050177 -0.0539353039 -0.5551927497 0.0105311822 0.1913794965
790295260.0 0.0542621898 0.1818063557 -0.0598410796 -0.5545604118 -0.0602622929 -0.5550784215 0.0125933702 0.1913895784
795295230.0 0.056120553 0.1812357 -0.0657059059 -0.554043806 -0.0661723734 -0.5539669786 0.014503285 0.1906484734
800295200.0 0.0578372065 0.1814115637 -0.0717520447 -0.5527409899 -0.0719678448 -0.5534651083 0.0160670085 0.1911645931
805295170.0 0.0597248851 0.1807736482 -0.0776458721 -0.5526882602 -0.0776477305 -0.5525437002 0.0186740374 0.1909068333
810295140.0 0.0617982084 0.1804808339 -0.0835757234 -0.5512148132 -0.083629306 -0.5513613342 0.0202091009 0.1907878208
815295110.0 0.063461076 0.1798435937 -0.0892461956 -0.550524722 -0.0894046952 -0.5508166092 0.0218920935 0.1911686771
820295080.0 0.0654827933 0.1793407093 -0.0951423063 -0.5490448245 -0.09489807 -0.5497767623 0.0230416916 0.1914895441
825295050.0 0.0669968208 0.1788009502 -0.101006182 -0.5484803378 -0.1013398965 -0.548471645 0.0259815836 0.1914152429
830295020.0 0.069126081 0.1782153486 -0.1070931779 -0.5471957076 -0.1073102711 -0.5475479885 0.0273075854 0.1905658634
