!Created with skrf (http://scikit-rf.org).
# Hz S RI R 50.0 
!freq ReS11 ImS11 ReS21 ImS21 ReS12 ImS12 ReS22 ImS22
300000.0 -0.7752890056 -0.1007171678 -0.0020567959 0.0014737693 0.0009424946 0.0008740106 -0.7732524889 -0.1328688302
5299970.0 -0.7850984886 -0.0060945394 -0.0001525827 0.000215463 -0.0001221793 0.0001326798 -0.7845590916 -0.0074906779
10299940.0 -0.7878541782 -0.0038530161 -4.19345e-05 -0.0001042918 -0.0002183594 -5.12587e-05 -0.7875341139 -0.0037395166
15299910.0 -0.7936414198 -0.0020192591 0.0001029161 0.0002156997 4.42996e-05 -5.06372e-05 -0.7928472004 -0.0016799301
20299880.0 -0.7997819626 0.0021981545 7.7835e-06 -0.0001335918 -9.26428e-05 2.8075e-05 -0.7994127338 0.0024598449
25299850.0 -0.8064512811 0.0077928279 0.0001513318 1.7921e-06 -2.77002e-05 -9.16998e-05 -0.8060151642 0.0081792838
30299820.0 -0.812984184 0.0149904836 -2.48343e-05 -3.1514e-05 4.18178e-05 -7.57983e-05 -0.8119086104 0.01627917
35299790.0 -0.8171868444 0.0242527332 6.35294e-05 2.31203e-05 4.23677e-05 0.0002196521 -0.8172481912 0.0254159699
40299760.0 -0.8213312363 0.0338023343 -6.1868e-05 -0.0001403994 7.63754e-05 -0.0001013126 -0.8207085031 0.0346520775
45299730.0 -0.8250339637 0.0427392915 -0.0002032231 6.48128e-05 0.0001511925 -7.26521e-05 -0.8254113911 0.0440726471
50299700.0 -0.827255058 0.0527613518 1.35966e-05 -2.65081e-05 0.0001605068 1.89391e-05 -0.8277136421 0.0536454554
55299670.0 -0.8290794453 0.0631958592 0.0002217111 -4.75556e-05 0.0001698578 -3.50158e-05 -0.8291941214 0.0646400768
60299640.0 -0.8302739405 0.0733132706 0.0001117278 -4.14089e-05 -6.70183e-05 -0.0001402307 -0.8302361858 0.0744031421
65299610.0 -0.8312625539 0.0838643338 0.0001416687 0.0001906693 -0.0001262457 0.0001043587 -0.8314602188 0.0841842999
70299580.0 -0.8316788362 0.0933991665 -3.95707e-05 2.30888e-05 -0.0001168636 2.12685e-05 -0.8319522965 0.0942462819
75299550.0 -0.8315447629 0.1042896469 -0.0002516762 -0.0001492793 -1.35337e-05 0.0001366313 -0.8326053959 0.1042692967
80299520.0 -0.8319230537 0.1132046006 -5.99185e-05 6.8953e-06 4.80823e-05 0.000215608 -0.8317568389 0.1140932995
85299490.0 -0.830939092 0.122520405 3.10182e-05 0.000105039 -8.33013e-05 0.0001097405 -0.831464081 0.1233800526
90299460.0 -0.8299450411 0.1321010769 4.69e-06 0.0001551151 -7.122e-06 6.09534e-05 -0.8306910668 0.1333569402
95299430.0 -0.8292945797 0.1420170153 0.0001330729 -7.29988e-05 -8.88108e-05 -0.0001856578 -0.8289472285 0.1426327768
100299400.0 -0.8276999011 0.151071159 6.78406e-05 7.69578e-05 4.32889e-05 1.4811e-05 -0.828205018 0.1526350454
105299370.0 -0.8269907223 0.1605252759 3.93186e-05 -0.0002231624 -0.0002234636 -5.8422e-06 -0.8268829514 0.1608792103
110299340.0 -0.8258734907 0.1691467847 0.0001569824 -0.0001779825 -4.74727e-05 -7.14841e-05 -0.8251883789 0.1709732161
115299310.0 -0.8238756175 0.1787235945 0.0001412254 3.05483e-05 -4.7907e-05 0.000166531 -0.8241910803 0.1798432416
120299280.0 -0.8219208967 0.1869586643 6.34449e-05 4.3359e-06 7.78242e-05 -0.000153502 -0.8223403806 0.1889587207
125299250.0 -0.8201465579 0.1957989827 6.66624e-05 0.0001809538 5.24191e-05 -0.0001343271 -0.8208095436 0.1980590689
130299220.0 -0.8188937306 0.2055518148 2.4911e-05 -0.0001973443 -9.59675e-05 -4.0651e-05 -0.8187480658 0.2069573288
135299190.0 -0.8164511337 0.2143311366 5.15886e-05 -0.000154245 9.11494e-05 8.05423e-05 -0.8167224611 0.2158115702
140299160.0 -0.8147182933 0.2235177351 5.57961e-05 5.26954e-05 -7.79231e-05 -3.38371e-05 -0.8138688187 0.224756197
145299130.0 -0.8125022199 0.2325768316 -9.7089e-06 0.0002767028 0.0001072542 -0.0001326868 -0.8121636239 0.2339892156
150299100.0 -0.8101705081 0.240702692 -4.72716e-05 -5.21186e-05 -6.279e-05 0.0001412854 -0.8101463416 0.2428064426
155299070.0 -0.8081044126 0.2494902802 -7.2596e-06 7.64569e-05 -1.45287e-05 2.95989e-05 -0.8069433051 0.2518194758
160299040.0 -0.8055171326 0.2580094117 -8.09469e-05 0.0001652852 -0.0001088683 0.000106437 -0.8052932124 0.2605071093
165299010.0 -0.8026913075 0.2669316896 9.2256e-05 -6.18952e-05 6.69e-06 0.0002623705 -0.8025424761 0.2691756041
170298980.0 -0.8001407714 0.2752409719 0.0002179041 0.0001111801 -0.0001673501 2.15593e-05 -0.7993086328 0.277837851
175298950.0 -0.797190342 0.284174909 -0.0001020151 0.000130674 0.0001356128 5.3309e-05 -0.7968637467 0.2866565706
180298920.0 -0.7952367637 0.29254772 -4.71787e-05 7.37956e-05 8.33821e-05 8.64491e-05 -0.7935074675 0.2949394387
185298890.0 -0.7909486587 0.3009479405 -4.88818e-05 2.10202e-05 -0.0001795344 -4.6173e-05 -0.7901909277 0.303783976
190298860.0 -0.7884931728 0.3096693582 4.32484e-05 -0.0001455455 0.0001177379 -0.0002045229 -0.7879278325 0.3121571497
195298830.0 -0.784919589 0.317495881 3.29142e-05 -6.3659e-06 7.16059e-05 -8.9232e-05 -0.7843348733 0.3210676799
200298800.0 -0.7814476833 0.3259441592 0.0002106692 8.84379e-05 -6.74911e-05 0.000125051 -0.7816320175 0.3290397582
205298770.0 -0.778675844 0.3347090672 0.0002059591 6.4127e-05 -7.48434e-05 -3.56123e-05 -0.7778078448 0.3375950995
210298740.0 -0.7747086888 0.3422028079 -4.55199e-05 -2.87683e-05 0.0002374823 4.63185e-05 -0.7745136088 0.3455482266
215298710.0 -0.7720056126 0.3507632418 6.99629e-05 -7.10139e-05 -3.46209e-05 7.5561e-05 -0.7709579912 0.3540441446
220298680.0 -0.7674595545 0.3586820076 -8.57354e-05 0.0001640651 1.23581e-05 -0.0001760203 -0.7674256323 0.3619753406
225298650.0 -0.7640848687 0.3670423237 0.0001546003 0.0001303011 0.0001151415 7.23215e-05 -0.7636228271 0.3701843097
230298620.0 -0.7602422806 0.3745898769 -8.77047e-05 4.42347e-05 -0.0001272714 0.000106213 -0.7601178558 0.3781146202
235298590.0 -0.7561250845 0.3828730693 -0.0001834286 0.0001351117 1.14615e-05 -6.46389e-05 -0.7560483894 0.3866984602
240298560.0 -0.752538524 0.39060205 -0.0002133224 -0.0004385029 -0.0001185265 -4.88007e-05 -0.7517333406 0.3951000428
245298530.0 -0.7485434354 0.3989989699 5.56681e-05 -7.10788e-05 5.17557e-05 0.0001490954 -0.7477594016 0.4022255038
250298500.0 -0.7443623825 0.40704854 7.67351e-05 0.0001347792 -3.968e-06 -8.766e-06 -0.7435478684 0.4103172634
255298470.0 -0.7397767689 0.4140774022 6.56908e-05 0.0001843044 -0.0001362707 6.50428e-05 -0.738832141 0.4178399506
260298440.0 -0.7351509967 0.4220037636 4.06503e-05 2.12859e-05 6.44186e-05 0.0001291486 -0.7345257357 0.4258891823
265298410.0 -0.731115275 0.4298295548 -0.0001002885 -2.56776e-05 2.50891e-05 -0.0001101429 -0.7302277218 0.4336995586
270298380.0 -0.7269879318 0.4374552356 0.0001394965 9.01908e-05 -8.13907e-05 2.00733e-05 -0.725631213 0.4407753119
275298350.0 -0.7224118749 0.4447712616 -0.0001018887 -8.89307e-05 -7.54724e-05 9.4662e-05 -0.7208299096 0.4482614196
280298320.0 -0.716497361 0.4522593063 -7.22022e-05 -7.88922e-05 3.79753e-05 6.32132e-05 -0.7161455139 0.4559136596
285298290.0 -0.7134957065 0.4599720902 3.77761e-05 0.0002420593 -4.14031e-05 6.42738e-05 -0.7110666997 0.4633255739
290298260.0 -0.7083205252 0.4676604184 -3.38412e-05 0.0001056469 -9.73071e-05 1.0284e-05 -0.7060193362 0.4705072907
295298230.0 -0.7024035034 0.4742373437 -0.0001101961 0.0002932295 4.28341e-05 -2.68008e-05 -0.701486235 0.4780162204
300298200.0 -0.6984739969 0.4816390597 -3.8805e-06 0.0001211304 8.76979e-05 4.66295e-05 -0.6958658124 0.4850925994
305298170.0 -0.6926274121 0.4885819151 -0.0001599207 -3.45264e-05 -0.0001093815 -2.61031e-05 -0.6901233862 0.4931012196
310298140.0 -0.6877322301 0.4963541427 5.568e-06 0.0002080179 -3.53052e-05 6.24439e-05 -0.6858203593 0.4997487818
315298110.0 -0.6826628582 0.50307614 -8.34977e-05 -6.14638e-05 -4.723e-07 -0.0001792296 -0.6800963271 0.506843748
320298080.0 -0.6774274802 0.5099456328 -4.83116e-05 -3.97433e-05 -7.99765e-05 6.35773e-05 -0.6748191696 0.5142869446
325298050.0 -0.6719082271 0.5174044811 -0.0001023737 5.62111e-05 -1.944e-07 -0.0001149385 -0.669242757 0.5210561228
330298020.0 -0.6663303561 0.5235259271 2.21555e-05 1.45831e-05 -3.2242e-05 -1.61919e-05 -0.6634820233 0.5279052716
335297990.0 -0.6606083685 0.5306931703 -6.6161e-06 -0.0002044926 -8.0138e-06 1.98654e-05 -0.6583234354 0.5353390458
340297960.0 -0.6557867101 0.5378704153 0.0001750108 -4.95014e-05 -0.0001590392 -0.0001196168 -0.6526437243 0.5419585193
345297930.0 -0.6503795489 0.544014968 5.0377e-06 -0.0001688131 -3.15724e-05 -5.53098e-05 -0.6469066044 0.5486004951
350297900.0 -0.6444513049 0.5509814806 0.0002404936 9.94039e-05 -2.10843e-05 -1.13495e-05 -0.6412905257 0.5554387039
355297870.0 -0.6379165116 0.5582463302 0.0002458833 -8.6424e-05 -0.0001131417 1.59732e-05 -0.6356432601 0.5613080242
360297840.0 -0.6323970121 0.56310145 7.10345e-05 -0.0002079232 -0.0001540399 3.68466e-05 -0.6295492167 0.5690518004
365297810.0 -0.6274766169 0.5705541887 -4.18419e-05 -8.92379e-05 9.72591e-05 -5.11027e-05 -0.6231614551 0.5748402177
370297780.0 -0.6215024014 0.577004991 -1.57996e-05 -8.9117e-06 -4.14031e-05 3.68107e-05 -0.6178885812 0.5817858734
375297750.0 -0.6147985347 0.5828919387 0.0001420411 -1.26625e-05 -0.0001406845 6.68893e-05 -0.6118737944 0.5876867585
380297720.0 -0.6084131461 0.5889301036 0.0002329821 5.83554e-05 3.19388e-05 -8.71461e-05 -0.6058355643 0.5937716917
385297690.0 -0.6034796834 0.5953825152 -0.0001907703 -9.92563e-05 -0.0001188061 0.0001663693 -0.5990543545 0.6003699447
390297660.0 -0.59705917 0.6012863795 -8.09191e-05 -0.0002442857 2.49254e-05 -6.90267e-05 -0.5930389477 0.6064057514
395297630.0 -0.5906047313 0.6084316772 4.93234e-05 6.28159e-05 0.000121068 -5.92882e-05 -0.5871276071 0.6127687396
400297600.0 -0.5842982582 0.6139740577 0.0002151907 5.21459e-05 2.01894e-05 -0.0001874667 -0.5806659406 0.6187116106
405297570.0 -0.5776820103 0.6195259758 -8.83911e-05 -3.16383e-05 2.18463e-05 -2.45837e-05 -0.5743686363 0.6245832038
410297540.0 -0.5712932326 0.6251624775 -5.00303e-05 8.18429e-05 -9.05883e-05 -6.40413e-05 -0.5674249344 0.6309949214
415297510.0 -0.564367999 0.6309683568 0.0001154484 3.49261e-05 -9.48986e-05 0.0001012152 -0.5611460951 0.6366039607
420297480.0 -0.5593802811 0.63723775 -0.0001272031 -0.0001987497 7.01138e-05 -7.7591e-06 -0.5541850615 0.642210055
425297450.0 -0.5518860226 0.6422547798 -0.0001582731 0.0001799824 -9.02764e-05 7.12308e-05 -0.5479379836 0.6478374901
430297420.0 -0.5454561242 0.6481782412 3.5006e-05 -0.00023383 -6.41282e-05 0.0001709784 -0.5412967465 0.6530361032
435297390.0 -0.5389285211 0.6529683395 7.6541e-06 9.46589e-05 -2.35537e-05 0.0001378183 -0.5340749676 0.6584517701
440297360.0 -0.5319993726 0.6591092333 7.87405e-05 7.51183e-05 -0.0001541134 5.43474e-05 -0.5273073548 0.663163693
445297330.0 -0.5251909124 0.6642009791 3.22467e-05 -0.0001097828 -6.0778e-05 0.0001134996 -0.5205714675 0.66869751
450297300.0 -0.5184722909 0.6693223272 -0.0001447098 0.0002704648 0.000153269 7.07693e-05 -0.5130740785 0.6736058379
455297270.0 -0.512122969 0.6748215892 6.6402e-06 -7.20277e-05 3.11957e-05 8.6107e-05 -0.506169119 0.678422139
460297240.0 -0.5052399085 0.6795326437 -7.37173e-05 -7.21564e-05 -7.78429e-05 0.0001563244 -0.499612569 0.684030908
465297210.0 -0.4979513707 0.6850121527 7.84885e-05 3.4532e-06 -9.64199e-05 0.0001196556 -0.4921677731 0.6887680034
470297180.0 -0.4900692686 0.6895342542 8.47571e-05 1.8503e-05 -2.43043e-05 -7.10298e-05 -0.4850607272 0.6944432326
475297150.0 -0.4836367738 0.6942700548 -9.68702e-05 0.0001429449 -0.0001549755 -1.67688e-05 -0.4777937105 0.6978946483
480297120.0 -0.4763003559 0.6994758328 -0.0001276413 -0.0003126119 2.40198e-05 3.78643e-05 -0.4701029612 0.7037321914
485297090.0 -0.4691320969 0.7040575574 0.0001293189 -9.26938e-05 -0.0002134294 9.08628e-05 -0.463326856 0.707810493
490297060.0 -0.4619841613 0.7084139572 -2.7035e-06 7.9834e-06 0.0001486202 -1.81946e-05 -0.4558724179 0.7122715178
495297030.0 -0.455393882 0.7132096332 -4.96617e-05 -3.6846e-05 0.0001714704 0.0001483438 -0.4488048469 0.7173338894
500297000.0 -0.4476396126 0.718134413 -0.0002152976 1.4283e-05 -5.4216e-06 -1.23341e-05 -0.4414024222 0.7226655699
505296970.0 -0.4396324382 0.7225408208 -2.92166e-05 5.8577e-05 4.60857e-05 7.0357e-06 -0.4336442336 0.7266271849
510296940.0 -0.4334368327 0.7269562752 0.0002217738 1.30497e-05 -0.0002402332 0.0002755418 -0.4264589457 0.7306087475
515296910.0 -0.4248474229 0.7306694459 -0.0001277621 4.02836e-05 2.20184e-05 6.2988e-06 -0.4185248882 0.7352226738
520296880.0 -0.4184541729 0.7347973495 0.0001057412 1.196e-05 7.4867e-06 0.0001331645 -0.4114270462 0.7393050873
525296850.0 -0.4103448146 0.7389062577 -1.12391e-05 -5.76923e-05 2.57059e-05 4.28602e-05 -0.4041430523 0.7435134293
530296820.0 -0.4026876124 0.7431999131 8.65212e-05 9.29749e-05 -0.0001232429 4.65278e-05 -0.3965203279 0.7476928359
535296790.0 -0.3963876664 0.7471725073 -0.0003212658 0.0001117274 1.12353e-05 -6.615e-05 -0.3891705654 0.7510486532
540296760.0 -0.3883353882 0.7508885925 0.0001897812 -5.11212e-05 3.67061e-05 0.0001572259 -0.3810763067 0.7556819248
545296730.0 -0.3809051019 0.7554922652 -1.954e-05 -0.0001336149 0.0002015064 -1.48933e-05 -0.3734830991 0.7591239788
550296700.0 -0.3737971259 0.7587484843 -3.72152e-05 -0.0002033009 0.0001391099 4.86603e-05 -0.3655211987 0.7630256441
555296670.0 -0.3649473711 0.7617535043 7.22503e-05 -3.7526e-06 -3.1811e-06 -0.0001458295 -0.3583052288 0.7673509758
560296640.0 -0.35762801 0.7664006986 0.0001555204 -0.0001071234 8.10779e-05 6.73295e-05 -0.350470169 0.7709278898
565296610.0 -0.3495510872 0.7699624241 -0.0001093893 3.85719e-05 -4.29761e-05 -9.21282e-05 -0.3424002196 0.7735528705
570296580.0 -0.3423925349 0.7723667372 8.07715e-05 9.77596e-05 -4.7851e-06 -4.29581e-05 -0.335274717 0.7777427208
575296550.0 -0.3351832031 0.7763168145 4.08021e-05 0.0001496892 -1.02032e-05 7.9648e-05 -0.3273084715 0.7808162112
580296520.0 -0.3262180045 0.7795322174 -0.0003007927 -6.95303e-05 0.0001013173 1.95841e-05 -0.3187731645 0.7838658096
585296490.0 -0.3187779721 0.7828483084 2.2349e-06 -0.0002464134 0.0001084687 -1.61148e-05 -0.3105042735 0.7869330957
590296460.0 -0.3109958165 0.7859898097 -5.93553e-05 -0.0002493265 -2.58655e-05 6.15388e-05 -0.3031047316 0.790284936
595296430.0 -0.3027225081 0.7881010191 -2.67233e-05 -5.92385e-05 -9.52238e-05 0.0001287804 -0.2950405839 0.7924082209
600296400.0 -0.2947935379 0.7923439937 -0.0001402264 0.0001274836 0.0001656082 8.39055e-05 -0.2872454395 0.7952946075
605296370.0 -0.2873813635 0.7947365426 -0.0002419666 0.0001576568 1.62735e-05 -5.22991e-05 -0.2782594192 0.7987003254
610296340.0 -0.2788861202 0.7976395944 -0.0001609548 -0.000129514 0.0001003321 -6.10536e-05 -0.2704778559 0.8007821243
615296310.0 -0.2700472514 0.8001701425 7.75373e-05 0.0001379674 -0.000132249 -0.0002189029 -0.2617579476 0.8033830459
620296280.0 -0.262981805 0.8022323021 -8.20143e-05 -0.0002410115 -8.04725e-05 -8.78633e-05 -0.2545462649 0.8063828857
625296250.0 -0.2550786176 0.805237429 2.43995e-05 0.0001061504 0.0001054032 0.0001238039 -0.2456408493 0.8079565573
630296220.0 -0.2458464947 0.8078098982 0.0001790761 4.86859e-05 3.96616e-05 -9.9606e-05 -0.2377222148 0.8109001164
635296190.0 -0.2386732598 0.8104855357 -2.60425e-05 0.000222424 -4.21162e-05 -0.0001858982 -0.2294588696 0.8131230018
640296160.0 -0.2306042289 0.8117768629 0.0001288702 0.000157141 -0.0001043407 1.277e-07 -0.2209789409 0.8151572594
645296130.0 -0.223074333 0.8153258119 2.68431e-05 -1.98262e-05 -9.44651e-05 7.64205e-05 -0.2134890541 0.8172987189
650296100.0 -0.2139657826 0.8168290827 -0.0002075474 -2.12368e-05 -2.03882e-05 2.37781e-05 -0.2049853688 0.8189693348
655296070.0 -0.2062116061 0.8190476286 -4.96362e-05 7.4934e-05 -3.17466e-05 -1.48459e-05 -0.1961733467 0.8212416839
660296040.0 -0.1976264089 0.8203982048 -0.0001715763 -1.06951e-05 -7.31666e-05 -0.0002276943 -0.1878614892 0.8230068721
665296010.0 -0.1896822527 0.8221390206 0.0001088864 -0.0001891558 3.73881e-05 8.89108e-05 -0.1793791999 0.825459779
670295980.0 -0.181942446 0.8241008028 -5.86822e-05 4.36751e-05 6.33102e-05 -9.88997e-05 -0.1719381904 0.8268056923
675295950.0 -0.173359903 0.8259319971 7.63314e-05 -0.0001066367 0.0001966237 5.07884e-05 -0.1636600121 0.8287875954
680295920.0 -0.1650783866 0.8281454131 -0.0001273699 -1.8905e-05 3.1241e-05 0.000100069 -0.1548992435 0.8304493955
685295890.0 -0.1568105145 0.8301613564 5.66202e-05 -9.19533e-05 -0.0001349752 -6.1575e-06 -0.1462413709 0.8316856791
690295860.0 -0.1489481832 0.830750765 0.0001239452 -2.50241e-05 -0.0001545794 -0.0001483875 -0.1381909699 0.8331852068
695295830.0 -0.1409997736 0.8325402456 2.53106e-05 -0.0002818516 6.60782e-05 -0.0001031055 -0.129811824 0.8350657813
700295800.0 -0.1320577936 0.8336716239 -0.0001163243 9.85673e-05 7.85e-06 0.0001243155 -0.1221467741 0.8356127365
705295770.0 -0.1246078541 0.8350169757 0.0001630053 -0.0001356711 -0.0001849206 -1.84342e-05 -0.113348604 0.8383681072
710295740.0 -0.115436134 0.8362767662 -2.46715e-05 0.0002773937 -2.45145e-05 5.42673e-05 -0.1049727931 0.8385600538
715295710.0 -0.1076041008 0.837275642 -3.39136e-05 -0.0001373272 -0.0001579176 0.0001011261 -0.096260516 0.8396129406
720295680.0 -0.0988664056 0.8381964212 9.13327e-05 9.6752e-05 0.0001098747 -5.49628e-05 -0.0880299981 0.8405692018
725295650.0 -0.0906262333 0.8396054507 -0.0001718674 -0.0002560812 -0.0001588115 0.0002609413 -0.0799171224 0.8418733385
730295620.0 -0.0821734612 0.8404614443 -1.6673e-05 2.0423e-06 2.27306e-05 0.0001132274 -0.0722692533 0.8420669999
735295590.0 -0.0742824835 0.8408920882 -0.000229314 -1.6585e-05 -5.34319e-05 0.0001340637 -0.063381123 0.8423308437
740295560.0 -0.0658909519 0.842521577 -4.42218e-05 4.17569e-05 -5.141e-07 4.75497e-05 -0.0544060158 0.8436989714
745295530.0 -0.057422145 0.8428103325 0.0001614284 -9.23489e-05 -5.26828e-05 9.30708e-05 -0.0462413149 0.8440083672
750295500.0 -0.0493485347 0.8428419682 9.11144e-05 0.0001226885 -4.49883e-05 0.0001699417 -0.037993481 0.8444261529
755295470.0 -0.0403702716 0.8430853338 -1.59408e-05 -0.000176408 1.83124e-05 0.0001653003 -0.0291481396 0.8438518119
760295440.0 -0.0324582234 0.8430240032 0.0002351567 -5.61319e-05 -5.78347e-05 0.0002419149 -0.0210336571 0.8443016541
765295410.0 -0.024756334 0.8440240366 6.01969e-05 0.0001684054 1.53662e-05 -1.34299e-05 -0.0125191408 0.8449548565
770295380.0 -0.0158614907 0.8443085866 5.1922e-06 7.6545e-06 -0.0001198776 3.069e-06 -0.0040803171 0.8444213403
775295350.0 -0.0077540208 0.8444576738 6.31619e-05 -0.00025858 -8.44112e-05 -6.82158e-05 0.0034669784 0.8440694249
780295320.0 0.0010065556 0.84436282 -6.93831e-05 1.78476e-05 -4.66979e-05 9.64055e-05 0.0122704695 0.8439963694
785295290.0 0.0090111518 0.8434730006 -0.0001619499 0.0002387763 -0.0001044741 -0.0001440534 0.0211324692 0.8437356594
790295260.0 0.0180435243 0.8438617261 -0.0001682664 -1.89473e-05 2.57386e-05 -3.02269e-05 0.0297258036 0.8443575017
795295230.0 0.0253923625 0.8439236305 -4.01443e-05 -0.0001501908 -0.0001050231 -0.0001712509 0.0387082157 0.8426665549
800295200.0 0.0347491579 0.8431562984 -6.30717e-05 7.63353e-05 -0.0001193032 4.43977e-05 0.0471289424 0.8426502201
805295170.0 0.0429903048 0.8427401476 -6.9221e-06 9.69445e-05 -0.0001096975 0.0002169123 0.0545185992 0.8426275991
810295140.0 0.0509360924 0.8424402185 -5.11795e-05 -8.74532e-05 -4.53988e-05 0.0001877381 0.0638041885 0.8417793324
815295110.0 0.0589469719 0.8418783092 -0.0001763627 2.28104e-05 -7.26378e-05 -1.44338e-05 0.0719062705 0.8408910173
820295080.0 0.0670417168 0.8417981298 -9.01095e-05 -0.0001691045 0.0001556633 0.0001399485 0.0800050487 0.8403058863
825295050.0 0.0765733298 0.8405532613 -5.6929e-06 0.0001108271 9.33833e-05 4.88637e-05 0.0880742529 0.8394304247
830295020.0 0.0841640867 0.8400954573 4.12851e-05 0.0001393874 -0.0002429133 -0.0001380549 0.0979504035 0.8385461259
835294990.0 0.0923506123 0.8391519601 0.0002008561 -5.2819e-06 -0.0001607363 6.79648e-05 0.1047406681 0.8377572144
840294960.0 0.1003967318 0.8385598576 0.0001497952 3.1247e-05 -6.15804e-05 -0.0001713935 0.1134492975 0.8365374246
845294930.0 0.1084526001 0.8363623112 0.0001156111 9.06353e-05 5.49955e-05 3.36125e-05 0.1213063237 0.8353798565
850294900.0 0.1169708341 0.8359948088 -4.94512e-05 0.000108523 3.38692e-05 0.0002581281 0.1295983741 0.8341462065
