!Created with skrf (http://scikit-rf.org).
# Hz S RI R 50.0 
!freq ReS11 ImS11 ReS21 ImS21 ReS12 ImS12 ReS22 ImS22
300000.0 -0.7742336975 -0.0984121213 0.0003111518 0.001136106 -0.000172064 0.0008125949 -0.0517639979 -0.0610200464
5299970.0 -0.7846071217 -0.0056908982 7.23395e-05 4.1613e-06 -7.28147e-05 -0.0002901829 -0.0497003837 0.0154113008
10299940.0 -0.7882001655 -0.0035506346 -8.67067e-05 3.68001e-05 -6.57652e-05 -5.99319e-05 -0.0440892022 0.0338329909
15299910.0 -0.7938165211 -0.0019963456 -1.8688e-05 0.0001265883 0.0001410134 0.0002217208 -0.0355708055 0.0482693785
20299880.0 -0.7998222196 0.0023690214 6.82578e-05 -1.10917e-05 -9.00766e-05 0.000159283 -0.0253759061 0.0597971668
25299850.0 -0.8063840366 0.007844866 0.0001358078 0.0001866569 1.49518e-05 -1.16416e-05 -0.0139695515 0.0693826288
30299820.0 -0.812802445 0.0155191271 -0.0002484641 5.82736e-05 -4.35989e-05 0.0002258914 -0.002070664 0.0760937489
35299790.0 -0.8176479032 0.0246267487 -7.88116e-05 8.87777e-05 0.0001282329 -1.4622e-06 0.0093081256 0.0811399157
40299760.0 -0.8214673158 0.033609207 -0.0001552142 -2.71166e-05 -5.49078e-05 9.20327e-05 0.0206417705 0.083395734
45299730.0 -0.8251013221 0.043474261 0.0001439049 3.51689e-05 0.0001754193 0.0001143733 0.031453884 0.0851579246
50299700.0 -0.8276474848 0.0531817954 0.0001416523 -0.0001196694 -0.0001236005 -7.25463e-05 0.0413685821 0.0846851629
55299670.0 -0.8295525887 0.0634288761 0.0002386468 -8.56643e-05 0.0002190179 -0.00012908 0.0509349016 0.0836576029
60299640.0 -0.8304949567 0.0735891157 -8.4008e-06 1.77979e-05 -3.11191e-05 -1.73587e-05 0.0595689958 0.0815596567
65299610.0 -0.8311917766 0.0836689515 -0.0001049024 4.29357e-05 1.9109e-05 3.1193e-05 0.0670684632 0.0791009481
70299580.0 -0.8316593415 0.09324179 3.65491e-05 -8.35833e-05 -2.01003e-05 4.56102e-05 0.0738982495 0.0757911201
75299550.0 -0.8320147003 0.103573369 0.0002333243 0.0003167614 0.0001357373 9.50951e-05 0.0804140722 0.0724554502
80299520.0 -0.8319836039 0.1130314432 0.0002741397 0.0002272685 -6.4429e-05 5.90635e-05 0.0861488187 0.0692199786
85299490.0 -0.8317828973 0.1228141876 7.49541e-05 -2.18402e-05 0.0001022011 2.45503e-05 0.0908717979 0.0650594748
90299460.0 -0.8306711118 0.1324416436 -7.61722e-05 -2.39051e-05 -0.0001556752 7.40665e-05 0.0954759079 0.0610019841
95299430.0 -0.8289188426 0.1420581021 8.52045e-05 0.0002275807 -1.81085e-05 3.51525e-05 0.0997013314 0.0570694217
100299400.0 -0.8280331938 0.1506732365 0.0001774799 2.8493e-06 0.0001210201 5.15546e-05 0.103903138 0.0525843865
105299370.0 -0.8269593782 0.1604074497 0.0001903954 0.0001155196 -7.76454e-05 5.8357e-05 0.1069157037 0.0487701908
110299340.0 -0.8253973843 0.1697377425 0.0001970877 4.8167e-06 2.78162e-05 8.93296e-05 0.1096034297 0.0445511363
115299310.0 -0.823867238 0.1787031235 0.0002100857 -0.0001174596 -4.75996e-05 3.9911e-05 0.1122893693 0.0405212159
120299280.0 -0.8222262919 0.1872673749 5.54991e-05 0.0001716917 0.0001092618 0.0001258652 0.1144619722 0.0365592556
125299250.0 -0.8202671944 0.1958909563 2.53923e-05 -1.9624e-05 -3.73315e-05 4.41517e-05 0.1165349314 0.0326110242
130299220.0 -0.8191519613 0.2056337173 -3.75842e-05 6.96506e-05 3.33705e-05 -2.82987e-05 0.1182266809 0.0288427918
135299190.0 -0.8169552886 0.2143077911 6.08454e-05 5.33405e-05 -7.63324e-05 1.72968e-05 0.1198794602 0.0250399588
140299160.0 -0.8142132096 0.2233982256 -0.0001277705 3.31954e-05 7.29716e-05 -0.0001101731 0.1212348026 0.0218158873
145299130.0 -0.8128132467 0.2323251173 0.0001387587 -3.15969e-05 1.42462e-05 -2.79126e-05 0.1220561649 0.0179256416
150299100.0 -0.8100411846 0.240724222 -0.00011892 5.8789e-06 -0.0001174657 0.000261225 0.1231546574 0.0148543386
155299070.0 -0.8080718795 0.2498912067 -9.81254e-05 0.0002468644 -6.68351e-05 0.0002298038 0.1237451739 0.0114364707
160299040.0 -0.8052695744 0.2579075803 0.0001429166 -5.08349e-05 -7.00953e-05 6.62599e-05 0.1241593072 0.0083209163
165299010.0 -0.8028688384 0.2669234711 -0.0002023527 -6.96701e-05 -8.1434e-06 -1.442e-06 0.1250405372 0.0047721139
170298980.0 -0.7999298781 0.2756503383 4.96065e-05 0.0001289432 -0.0001023907 -1.2584e-05 0.1251651501 0.0017637273
175298950.0 -0.7972757878 0.2844446934 0.0001673623 0.0001672447 -0.0002016495 -5.43392e-05 0.1254508787 -0.0013558703
180298920.0 -0.7949296506 0.2929953468 -0.000141597 6.93808e-05 0.0001730338 0.0001932162 0.125414404 -0.0043641915
185298890.0 -0.7908837394 0.3006475927 7.632e-06 7.8421e-06 -0.0001267227 0.00010405 0.1254711582 -0.0071675418
190298860.0 -0.7884253274 0.3098312307 -0.0002041232 -9.28258e-05 6.71007e-05 -8.04028e-05 0.125491969 -0.010036959
195298830.0 -0.78542753 0.3179968878 9.16664e-05 0.0001923149 0.0001505302 1.76226e-05 0.1253442646 -0.0130856119
200298800.0 -0.7813403627 0.3262481364 5.63563e-05 0.000155256 0.000171179 0.0001193067 0.1249411922 -0.015582542
205298770.0 -0.7782854623 0.3343438702 2.88752e-05 8.60556e-05 0.0001031148 0.0001715802 0.1245043361 -0.0185829133
210298740.0 -0.7749554285 0.3423332863 3.44665e-05 -2.25024e-05 -0.0001973091 0.0001269319 0.1244061558 -0.0208565109
215298710.0 -0.7716124935 0.3509449532 3.61509e-05 -8.44111e-05 0.0001210819 -7.92686e-05 0.1236519838 -0.0237363065
220298680.0 -0.7675009334 0.3590022295 5.13307e-05 -2.5368e-05 -0.0001439267 9.66272e-05 0.1229288754 -0.0263374243
225298650.0 -0.764148364 0.3666693151 7.88698e-05 0.0002248661 8.39485e-05 0.0001886976 0.1224132256 -0.0287323751
230298620.0 -0.7604530446 0.3746197321 0.0002885881 0.0001991864 7.56851e-05 0.0001048689 0.1217317014 -0.0313656685
235298590.0 -0.7563450996 0.3832827675 -9.5307e-05 0.0001375022 -7.65999e-05 -1.46522e-05 0.1210903773 -0.0336706589
240298560.0 -0.7521767355 0.3913558006 -0.0001639093 5.3297e-06 0.000270552 5.39812e-05 0.1203662795 -0.0360104248
245298530.0 -0.7485656593 0.3990991881 -2.52897e-05 5.25727e-05 7.35885e-05 0.0002116699 0.1197418924 -0.0385026535
250298500.0 -0.7438935837 0.4069687712 0.0002691065 0.000155689 -9.78205e-05 0.0003266521 0.118412766 -0.0409641798
255298470.0 -0.7395099006 0.4142010631 0.000198546 0.0002576624 -0.0001530928 -4.42672e-05 0.1180024438 -0.0433430504
260298440.0 -0.7352213172 0.4215408599 -0.0001461853 4.49083e-05 5.2423e-06 -0.0001545652 0.1174418869 -0.0456057964
265298410.0 -0.7310663404 0.4301726154 -0.0002064341 -3.0377e-05 8.9241e-05 -9.8955e-06 0.1163262314 -0.0470860476
270298380.0 -0.7273266144 0.437383196 -3.8636e-05 -2.58828e-05 -0.0001051231 0.0001585163 0.1158276266 -0.0494706187
275298350.0 -0.7217756184 0.4447228249 2.35792e-05 -2.588e-06 3.80824e-05 0.0002084389 0.1147933504 -0.0512953927
280298320.0 -0.7169366307 0.4527128844 -6.88833e-05 9.99561e-05 3.19573e-05 9.31246e-05 0.1139055195 -0.0537371456
285298290.0 -0.7131499927 0.4604245318 -5.27825e-05 -7.51495e-05 0.000150263 4.5269e-06 0.1128947791 -0.0556171276
290298260.0 -0.7077214647 0.467651812 4.72684e-05 -0.0002152706 1.16327e-05 0.0001081951 0.1123801577 -0.0572881018
295298230.0 -0.7024310577 0.4746758613 1.79342e-05 0.0002944705 0.000189554 0.0001016465 0.1114001624 -0.0594593324
300298200.0 -0.6975611961 0.4821842981 7.25386e-05 4.85338e-05 0.0001164059 0.0002327095 0.1102877318 -0.0617413008
305298170.0 -0.6923758461 0.4885813731 9.27018e-05 -1.57162e-05 1.39046e-05 1.30965e-05 0.109864248 -0.0638541939
310298140.0 -0.6870747072 0.4963446448 -0.0001059036 -8.003e-07 1.947e-07 9.28549e-05 0.1081297944 -0.0656214727
315298110.0 -0.6824849033 0.5031926887 1.8526e-06 -0.0001267611 0.0001262931 -0.0001214944 0.107105396 -0.0671718139
320298080.0 -0.6770459444 0.5102954069 7.01638e-05 0.0001249167 0.0001649614 3.81546e-05 0.1059136252 -0.0695075108
325298050.0 -0.6712685453 0.5173903844 0.000128345 0.0001675575 9.636e-07 -2.86186e-05 0.1042451167 -0.0710978085
330298020.0 -0.6663272515 0.5236353069 0.0002352338 -9.58812e-05 3.16443e-05 0.000110607 0.1030048923 -0.0723668407
335297990.0 -0.6608960021 0.5309933633 0.000115824 0.0002237758 7.47912e-05 0.0001177451 0.1012098525 -0.0736621425
340297960.0 -0.6557506761 0.537375111 0.0001056915 -4.67957e-05 0.0002113427 5.23632e-05 0.1006541201 -0.0752494201
345297930.0 -0.650274424 0.5441060494 -8.70356e-05 -0.000235281 0.0001025396 8.44862e-05 0.0987237351 -0.0769751453
350297900.0 -0.6445739241 0.5510011086 2.81545e-05 2.9865e-06 0.0001493867 -6.17948e-05 0.0973209563 -0.0775063535
355297870.0 -0.6382355775 0.5577842941 0.0001406118 9.96634e-05 8.68338e-05 7.64383e-05 0.0960928466 -0.0793905046
360297840.0 -0.6327854514 0.5643341527 3.00279e-05 8.771e-05 0.000215671 0.0002557772 0.0942195461 -0.0805409917
365297810.0 -0.6271113934 0.5707137021 0.0002804184 -0.0001696864 1.84915e-05 5.4071e-05 0.0930696644 -0.0822659735
370297780.0 -0.6215094743 0.5769021764 -3.66169e-05 -8.08224e-05 0.0001991897 5.04037e-05 0.09197009 -0.0831958091
375297750.0 -0.6149221228 0.5831723854 0.0001758619 0.0002459772 0.0001473346 0.000258784 0.0901782094 -0.0846684326
380297720.0 -0.6082760598 0.5895281648 -6.92035e-05 0.0001011642 -4.16406e-05 -0.0001134698 0.0882547101 -0.0855751238
385297690.0 -0.6033617753 0.5957514378 4.3646e-05 8.23353e-05 8.14718e-05 -9.25578e-05 0.0870803937 -0.0870470547
390297660.0 -0.5968852012 0.6017653491 -6.887e-07 0.0001330353 3.66278e-05 3.2143e-05 0.0855829554 -0.0881590216
395297630.0 -0.5898066785 0.607802565 0.0001960403 0.0001039946 3.38735e-05 0.000288531 0.0845192683 -0.0890539503
400297600.0 -0.5840533797 0.6139537585 0.0001937232 -0.000197098 0.0002403937 -0.0001511677 0.0830615536 -0.0907024145
405297570.0 -0.5785446001 0.6194881322 8.63969e-05 0.0001125515 -9.8722e-06 3.74118e-05 0.080986065 -0.0916836993
410297540.0 -0.5712463719 0.6256680927 5.2884e-06 2.14126e-05 3.53061e-05 9.68457e-05 0.0798905123 -0.0925969508
415297510.0 -0.5645671673 0.6311388783 5.1378e-05 0.0001564216 -5.5017e-06 3.19426e-05 0.0780192875 -0.0938958167
420297480.0 -0.559165963 0.6372221317 9.4427e-06 7.21753e-05 0.0002078458 0.0001344523 0.0768690791 -0.0950841168
425297450.0 -0.551302658 0.6431864746 0.0002269493 -1.50586e-05 5.09573e-05 1.98014e-05 0.0753817455 -0.0960505895
430297420.0 -0.5452989088 0.6480144911 0.0002864188 0.0001086651 0.0001495965 -0.0002069246 0.0734195004 -0.0972202188
435297390.0 -0.5392107431 0.6532568204 0.0001300071 4.21804e-05 0.0001472722 -0.0001248548 0.07237792 -0.0982622091
440297360.0 -0.5318998067 0.6593946215 -9.7113e-05 -4.00234e-05 -1.19198e-05 0.0001428998 0.0706382217 -0.0990643161
445297330.0 -0.5246755116 0.6647797952 -7.90165e-05 8.4084e-06 7.15848e-05 6.01489e-05 0.0691757195 -0.1006194278
450297300.0 -0.518038201 0.6694997617 -2.58137e-05 -4.90068e-05 0.0002263107 9.27098e-05 0.0675834333 -0.1009641601
455297270.0 -0.5113301597 0.6745573149 6.79529e-05 6.69117e-05 9.0068e-05 -0.0002372532 0.0662144766 -0.1022065718
460297240.0 -0.5047206557 0.6800793989 0.0002602682 8.80243e-05 0.000270941 -4.1272e-05 0.0646656509 -0.1029963705
465297210.0 -0.4976680238 0.6853283249 0.0003108946 -1.49178e-05 -9.59685e-05 0.0001880579 0.0630477717 -0.1038138617
470297180.0 -0.4898426068 0.6897773599 -4.12992e-05 -4.6267e-06 3.47905e-05 7.6746e-06 0.0615840952 -0.1048033787
475297150.0 -0.4829956838 0.6941875258 0.0001481063 0.0001239856 0.0001855034 9.937e-06 0.0603870327 -0.105518867
480297120.0 -0.4763914085 0.6994071226 -3.90175e-05 4.4311e-05 0.0001058379 0.0001218478 0.0585103229 -0.1063197091
485297090.0 -0.4689363481 0.7043500707 1.4138e-05 0.0001102131 0.0001658338 -3.64956e-05 0.0572269364 -0.1068964973
490297060.0 -0.4618618347 0.7086440083 0.0002776315 -0.0001152688 0.0002057629 0.0003051713 0.0552493604 -0.1075047772
495297030.0 -0.454967626 0.7129625023 8.18268e-05 3.30179e-05 0.0001627727 -5.74247e-05 0.0538051953 -0.1078708722
500297000.0 -0.4476041573 0.717894551 0.0002518507 2.81941e-05 0.0001014758 -4.16679e-05 0.0524772632 -0.1082534342
505296970.0 -0.4400792777 0.7227075256 1.97396e-05 6.19721e-05 0.0001253933 2.42994e-05 0.05074941 -0.1095422674
510296940.0 -0.4327011027 0.7265036605 0.0001349093 0.0001166777 0.0002003163 -3.86703e-05 0.0489673281 -0.109855855
515296910.0 -0.4246209039 0.7306589899 0.0001385261 0.0001301513 -4.1324e-05 0.0002193318 0.0474648768 -0.1103755805
520296880.0 -0.417706667 0.7356099321 0.0001290679 1.82994e-05 7.74852e-05 -1.46062e-05 0.0455174856 -0.1109086167
525296850.0 -0.4099649284 0.7392958499 0.0001160784 -6.97305e-05 0.0002326667 9.37175e-05 0.0439297898 -0.1112810087
530296820.0 -0.4024447232 0.7433831198 0.0001429462 -0.0001173031 0.00016914 -0.0001099179 0.042447649 -0.1115303942
535296790.0 -0.3956002798 0.7475146698 2.44407e-05 -4.1949e-06 0.0002733726 9.27744e-05 0.0403997887 -0.1123792186
540296760.0 -0.3874797507 0.7510193885 0.0002119817 -0.0003535198 0.0001481741 3.36423e-05 0.0387119656 -0.1128422474
545296730.0 -0.3804762874 0.7555868112 3.79176e-05 -5.6891e-05 0.0001854183 -0.0001216501 0.0370469491 -0.1132737799
550296700.0 -0.3725885046 0.7591195833 -0.0001313391 9.11255e-05 -0.0001502026 -0.0001834771 0.0355516531 -0.1133872172
555296670.0 -0.3644758736 0.7619039636 1.01118e-05 -6.06711e-05 0.0001143041 -3.48881e-05 0.0336471775 -0.1135338408
560296640.0 -0.3568001198 0.7661092812 0.0001153728 2.0642e-06 0.0001213903 2.3855e-05 0.0320763818 -0.114086045
565296610.0 -0.3493182951 0.7693827987 -7.4725e-06 -0.0003279719 0.0001393172 8.64728e-05 0.0304333354 -0.1142397424
570296580.0 -0.3419314566 0.772259538 -6.6524e-06 -0.000304298 5.14095e-05 0.0001903816 0.0282626349 -0.1149024328
575296550.0 -0.3341822477 0.7766619289 0.0002794125 2.65828e-05 0.0001168805 3.58615e-05 0.0266839258 -0.1147186839
580296520.0 -0.3255305815 0.7792817814 0.0003293986 0.0001760718 0.0001143895 -6.13352e-05 0.0249630222 -0.1153297826
585296490.0 -0.3182950312 0.7827755474 2.90361e-05 -9.96547e-05 3.23561e-05 -9.90664e-05 0.0234575574 -0.1157547469
590296460.0 -0.3100015849 0.7857346169 -9.09143e-05 0.0002976432 6.29041e-05 0.0002251434 0.0214321516 -0.1155741439
595296430.0 -0.302722871 0.7883190245 1.0316e-05 -6.0788e-05 0.0001552833 5.74534e-05 0.0195686074 -0.116110761
600296400.0 -0.2945850534 0.7921655152 0.000161678 1.62682e-05 2.78454e-05 2.9581e-05 0.0183736947 -0.1164739423
605296370.0 -0.2875074559 0.7943888907 0.0001363097 9.00525e-05 0.00022154 2.68985e-05 0.0164516405 -0.1165973374
610296340.0 -0.278752979 0.7973063219 0.0002067901 1.45173e-05 0.0002017498 -0.0002330796 0.0150211426 -0.1164697574
615296310.0 -0.2705622444 0.8004432111 8.5847e-06 0.0001067923 -4.3052e-06 -8.49877e-05 0.0133726616 -0.116884523
620296280.0 -0.2628724562 0.8021482586 -4.51835e-05 9.34515e-05 2.9865e-05 -1.89227e-05 0.011720018 -0.1169947643
625296250.0 -0.2545892314 0.8053554505 0.0001739148 -8.8836e-06 0.0002704845 -3.77679e-05 0.0100788406 -0.1170579049
630296220.0 -0.2459115362 0.8078227778 0.0001182587 0.0001145126 0.0002208689 0.0001181366 0.0082415869 -0.1167547253
635296190.0 -0.2383925683 0.8103310862 0.0001134222 8.05694e-05 8.36897e-05 -8.5781e-06 0.0067342612 -0.1170364747
640296160.0 -0.230649219 0.8125996975 0.000144481 -3.75194e-05 0.0001764428 -3.98593e-05 0.0050570179 -0.1173754874
645296130.0 -0.222565223 0.8153617629 0.0002194 -0.0001480096 6.98714e-05 0.0001243302 0.003486805 -0.1167305512
650296100.0 -0.2137906238 0.8164338602 6.6472e-05 0.0001044506 0.0002237124 3.59317e-05 0.0017329374 -0.1171586437
655296070.0 -0.2060433566 0.8194286675 0.0001764022 -5.83678e-05 2.6672e-05 3.72255e-05 0.0004635558 -0.1165226156
660296040.0 -0.1973232983 0.8209053997 0.0002422694 0.0001559168 0.0001978437 0.0001089339 -0.001196083 -0.1165436633
665296010.0 -0.1888870199 0.8224016044 0.0001228489 -0.0001852938 0.0002813739 7.03705e-05 -0.0030224449 -0.1163596544
670295980.0 -0.1815544395 0.8243038015 0.0002027256 4.22986e-05 0.0002758489 8.79951e-05 -0.00493653 -0.1161551573
675295950.0 -0.1732376391 0.8263443663 -0.0001132894 0.0001612004 0.0002832621 -7.12983e-05 -0.0065864018 -0.1156478003
680295920.0 -0.164851232 0.8282126896 0.0002615163 -7.06378e-05 9.34753e-05 7.7704e-05 -0.0079012824 -0.1154953234
685295890.0 -0.1566987384 0.8302209911 -5.19826e-05 -2.79598e-05 3.2183e-05 -2.05323e-05 -0.0096582963 -0.1152008801
690295860.0 -0.1484680197 0.8313041816 2.29782e-05 -0.0001145295 0.0002330255 -0.0001818876 -0.0112217768 -0.1145632978
695295830.0 -0.1403158743 0.8323148653 -3.14124e-05 9.97495e-05 3.98312e-05 -5.49333e-05 -0.0129692493 -0.1142915696
700295800.0 -0.1317071176 0.8336124543 0.0001203867 -0.0001484964 0.0001693525 -0.0001917833 -0.0149802718 -0.1140171409
705295770.0 -0.1239080538 0.8353256511 7.4847e-06 5.05874e-05 -5.2204e-05 0.0002268904 -0.0164576442 -0.1131557938
710295740.0 -0.1149815411 0.8363365642 0.0003204477 -4.71177e-05 6.03896e-05 -0.0001309303 -0.018198723 -0.1131674479
715295710.0 -0.1067601849 0.8372041548 -0.0001469379 0.0001036137 0.0001881643 -4.04777e-05 -0.0197953384 -0.1130520238
720295680.0 -0.098622213 0.8384873391 9.86239e-05 0.0001952972 0.0002287738 -0.0001326383 -0.0214788629 -0.112319689
725295650.0 -0.0900457679 0.8396665966 0.000100331 6.55981e-05 8.11025e-05 -8.31609e-05 -0.0231393864 -0.1116552115
730295620.0 -0.0818314476 0.8404685024 6.75117e-05 0.0002394876 0.0001113451 -0.0001178589 -0.0248270284 -0.1115983034
735295590.0 -0.0737319997 0.8413117089 0.0001766975 -0.0001383088 0.0001895706 -3.03751e-05 -0.0270304607 -0.1111372777
740295560.0 -0.0656762881 0.8417033973 0.0002251228 -0.0002274829 0.0001137679 -0.0002690976 -0.0279086307 -0.1105101674
745295530.0 -0.0569466654 0.8426930281 0.0001166684 0.0001087257 0.000139597 -1.5155e-06 -0.029704743 -0.1104067296
750295500.0 -0.0486298223 0.8429028151 -4.08881e-05 -0.0002975762 0.0001019376 -0.0002329741 -0.0310617918 -0.1094255051
755295470.0 -0.0402356602 0.8431090805 5.83139e-05 -2.1087e-05 0.0003450014 -5.02886e-05 -0.0325936278 -0.1094279463
760295440.0 -0.0321281027 0.8435387595 0.0002114995 -0.0001046759 0.0003271981 0.0002414961 -0.034356811 -0.1088579724
765295410.0 -0.0237578719 0.8438156695 0.0004374394 -0.0001415091 0.0002570965 -7.94613e-05 -0.0361848607 -0.1081682317
770295380.0 -0.0152795091 0.8441030416 9.08521e-05 -0.0001195708 0.0001968813 -2.54361e-05 -0.0378847558 -0.1077789993
775295350.0 -0.0071928151 0.8442220515 0.000172331 -0.0001650354 0.0002391989 -8.73219e-05 -0.0396543326 -0.1064888065
780295320.0 0.0014631279 0.8436396234 0.0001541698 1.03007e-05 7.7541e-06 -6.49445e-05 -0.0408229253 -0.1062758376
785295290.0 0.0095554375 0.8435314898 6.0835e-06 4.5315e-05 0.0001331271 -9.74807e-05 -0.0420413991 -0.1057442592
790295260.0 0.0182685464 0.8438556535 0.0001387335 -6.49112e-05 0.0002294767 -4.59143e-05 -0.0437289143 -0.1047480342
795295230.0 0.0258538523 0.8434940718 0.0003424078 0.0001324945 8.34538e-05 0.0001102202 -0.0453067824 -0.1042821658
800295200.0 0.0341231227 0.8434305557 0.0002112897 -9.6512e-06 0.0002011262 -0.0001353876 -0.0466227022 -0.103454586
805295170.0 0.0432358141 0.8430257747 0.0001212395 -6.21293e-05 0.0001091879 -9.624e-07 -0.048055081 -0.1028410707
810295140.0 0.0516227249 0.8423644224 0.0002568799 -8.61741e-05 0.0004038514 -5.98361e-05 -0.0491886872 -0.1020587788
815295110.0 0.0597298952 0.8415964836 0.000306069 -2.52454e-05 0.0001272539 -1.73303e-05 -0.0509292157 -0.1014923815
820295080.0 0.067622182 0.84136753 0.0001944836 -9.2888e-06 0.0003056241 5.73788e-05 -0.0522562953 -0.1003540099
825295050.0 0.0770987815 0.8400588124 0.0001106087 0.0001212667 -6.2826e-06 9.51758e-05 -0.0533836537 -0.0995598971
830295020.0 0.0843217246 0.8400425268 4.11475e-05 5.09025e-05 3.3038e-06 -2.89001e-05 -0.0549213147 -0.0986341811
835294990.0 0.0923747558 0.8389006005 0.000253621 -5.48755e-05 8.56353e-05 -0.0002617487 -0.0565290036 -0.0978139635
840294960.0 0.1007311893 0.8376828964 0.0002905542 6.90923e-05 3.12109e-05 -0.0001632711 -0.0576393119 -0.0970591929
845294930.0 0.1091150416 0.8366772501 0.0001699075 -0.0001338468 4.51396e-05 7.93556e-05 -0.0590949062 -0.0958499202
850294900.0 0.117363595 0.8359344497 0.0002557166 0.0001251412 0.000163565 -7.81658e-05 -0.0605858999 -0.0947133133
