!Created with skrf (http://scikit-rf.org).
# Hz S RI R 50.0 
!freq ReS11 ImS11 ReS21 ImS21 ReS12 ImS12 ReS22 ImS22
300000.0 -0.7769661849 -0.1452355845 -0.0010446802 0.0005918912 0.0005275055 0.0004772513 0.8596413919 -0.0017801645
5299970.0 -0.7849350167 -0.0074009465 0.000274488 -2.14855e-05 -2.82635e-05 -9.09206e-05 0.8587294309 -0.0107251135
10299940.0 -0.7875843626 -0.0039044694 -2.54007e-05 0.0001342772 0.0001116648 -0.000221615 0.8581786502 -0.0185081059
15299910.0 -0.7928707816 -0.0014817142 -7.83827e-05 -2.38909e-05 -0.0001666608 -0.0001404766 0.8574876989 -0.0275961288
20299880.0 -0.7997083234 0.0024643257 -7.02763e-05 8.8157e-05 3.20117e-05 0.0001600831 0.8569841089 -0.0365560852
25299850.0 -0.8066606226 0.0082475947 0.0002020128 2.82757e-05 2.45576e-05 -4.78763e-05 0.8551399999 -0.0435086142
30299820.0 -0.8121749603 0.0163488109 -3.4847e-06 7.33858e-05 -6.50655e-05 0.000126187 0.8550034952 -0.0521899103
35299790.0 -0.8171283204 0.0249901572 -0.0001093106 -2.79873e-05 0.0001719678 -3.7379e-06 0.853852312 -0.0607058964
40299760.0 -0.8214134468 0.0342882134 -3.63813e-05 0.0001692638 -6.23917e-05 0.0001288765 0.8534133881 -0.0687317822
45299730.0 -0.8248922418 0.0440779111 -1.94724e-05 -0.0001864113 6.56851e-05 -1.61914e-05 0.852717654 -0.0771166556
50299700.0 -0.8270285317 0.0538554287 -0.0001350039 -8.63643e-05 -3.49828e-05 8.98981e-05 0.8519249363 -0.0847914995
55299670.0 -0.8289044162 0.0642874077 -2.0285e-05 -0.0001364864 -9.7485e-05 0.0001393759 0.8502999686 -0.0931012095
60299640.0 -0.8300760252 0.074328101 -7.32393e-05 -0.0001689676 4.37473e-05 -0.0001221489 0.8497825129 -0.1019001648
65299610.0 -0.8310866241 0.0843780105 -9.58836e-05 0.0001896862 -1.73975e-05 1.11195e-05 0.8488827757 -0.1102045988
70299580.0 -0.8312311856 0.0945356723 -0.000226879 0.0001935149 0.0002440705 1.29627e-05 0.8476508824 -0.1186575558
75299550.0 -0.8315598612 0.1048023545 -7.56248e-05 -0.0002462239 -4.15228e-05 -4.56076e-05 0.847600334 -0.1262453399
80299520.0 -0.8312299046 0.1147440556 -5.38665e-05 -0.0001056451 -5.26835e-05 -8.13614e-05 0.8451006603 -0.1344059853
85299490.0 -0.8312116833 0.124270346 -5.61984e-05 -1.37731e-05 -0.0001149803 0.0001073654 0.8435247067 -0.1426931449
90299460.0 -0.8300973466 0.1341853374 0.0001192466 5.72415e-05 0.000104306 -3.43065e-05 0.8419912686 -0.1513690926
95299430.0 -0.8290224569 0.1438147479 7.90539e-05 -0.0002963174 -6.92897e-05 -3.061e-07 0.8406172637 -0.1588276326
100299400.0 -0.8278733979 0.1528505591 4.47247e-05 -9.96221e-05 -7.51188e-05 -0.000129799 0.8395263859 -0.1673786219
105299370.0 -0.8265930078 0.1624147782 0.00011989 -0.0001159825 0.0001679458 -1.70163e-05 0.8376554757 -0.175654797
110299340.0 -0.8251983569 0.1708695404 -0.0001389681 3.20232e-05 -0.0001324828 -0.0001349107 0.8353543769 -0.183198323
115299310.0 -0.8239589321 0.1807996154 0.0002550916 5.60046e-05 -7.3555e-06 -6.84067e-05 0.8334246479 -0.192578988
120299280.0 -0.8221701383 0.1895915415 -0.0002010825 2.84607e-05 -2.21471e-05 -0.000109507 0.8316305471 -0.1996250201
125299250.0 -0.8205798099 0.1986344839 7.14669e-05 5.08295e-05 -6.41817e-05 -5.7372e-05 0.8297101832 -0.2090623858
130299220.0 -0.8182160936 0.2072140893 -0.0001591929 8.89441e-05 -0.0001724098 8.94238e-05 0.8276671684 -0.2163353376
135299190.0 -0.8166247357 0.2170527181 -0.0001037936 -0.0001232561 0.000134997 0.0001388215 0.8254688901 -0.2244696408
140299160.0 -0.8144841763 0.2256846247 -0.0001421917 8.10767e-05 -0.0001085805 4.40767e-05 0.8230774002 -0.2323806835
145299130.0 -0.8123058912 0.2343598243 0.0001994222 -4.21379e-05 0.000283659 -0.0002198635 0.8206023333 -0.2406745115
150299100.0 -0.8103053158 0.2432149039 9.697e-06 -0.0001857492 3.40035e-05 6.15098e-05 0.8180428411 -0.2490874533
155299070.0 -0.8079212782 0.2525935875 -2.89752e-05 -6.41156e-05 0.0002607147 -1.8561e-05 0.8159053015 -0.2564444875
160299040.0 -0.8048914881 0.2612799721 0.0001206103 -6.35811e-05 6.3115e-05 -8.7479e-05 0.8130975442 -0.2646465759
165299010.0 -0.8020080226 0.2693735176 -0.0001243124 5.91193e-05 1.82161e-05 -7.7409e-06 0.8106795188 -0.2726598675
170298980.0 -0.7995455447 0.2782717924 -0.0001275566 -0.0001117116 -0.0001413349 0.0002052547 0.8081249255 -0.2802338982
175298950.0 -0.7971652676 0.2869259846 -0.000162505 0.0001381052 8.27305e-05 0.0001500297 0.8049046209 -0.2880601594
180298920.0 -0.7939070024 0.29499186 0.0001014542 3.49396e-05 -0.0001442135 -7.32093e-05 0.8022373236 -0.2959486346
185298890.0 -0.7908331321 0.3039201221 -0.0002097255 6.42996e-05 -0.0001243782 -4.0235e-06 0.799346063 -0.3041048448
190298860.0 -0.7877145982 0.3126918604 -8.02245e-05 2.53629e-05 -6.33132e-05 0.0001233184 0.7966143768 -0.3115444848
195298830.0 -0.7844752367 0.3204851074 5.7159e-06 9.10491e-05 0.0001196442 5.21816e-05 0.7930149974 -0.3191522933
200298800.0 -0.7803963901 0.3293467043 -1.92587e-05 2.48907e-05 2.40069e-05 -0.0002266277 0.7905257967 -0.3273435585
205298770.0 -0.7776379486 0.3373492971 -4.33137e-05 -0.0002273104 -0.00015364 -0.000102196 0.7869652522 -0.3346148709
210298740.0 -0.7734282367 0.3455487223 -4.21142e-05 6.5227e-05 -3.22923e-05 -0.0001140239 0.7836654111 -0.3422552384
215298710.0 -0.7705009188 0.3542950071 -0.0001382438 4.5856e-06 4.22679e-05 0.0001197991 0.7802658936 -0.3497991516
220298680.0 -0.7667590147 0.3620555776 5.40133e-05 -4.2666e-05 0.0001257405 -0.0001379201 0.7773163064 -0.357412421
225298650.0 -0.7626841153 0.3706606833 8.35854e-05 -5.7344e-06 0.0001467287 -3.4011e-06 0.7736013872 -0.3649203366
230298620.0 -0.7588858612 0.3785569059 5.10034e-05 0.0001655646 -0.0002417238 -0.0001263085 0.7697361299 -0.3727490957
235298590.0 -0.7545757379 0.3870657468 2.20773e-05 6.47832e-05 -0.0001669198 2.66776e-05 0.7667824815 -0.3795561925
240298560.0 -0.7508075371 0.3951118314 2.2052e-06 0.0001055726 -0.0001016777 1.76465e-05 0.7627662262 -0.3874041145
245298530.0 -0.7469746874 0.4034265118 0.0002385024 -0.0001462444 -2.9852e-05 6.65017e-05 0.7583899676 -0.3946959187
250298500.0 -0.7423763121 0.4106396951 0.0001124746 -0.0001077438 0.000130581 0.0001112413 0.7545333238 -0.4017026288
255298470.0 -0.7378245022 0.4188480858 -6.66522e-05 -4.17374e-05 -9.36828e-05 -0.0002034347 0.7509233897 -0.4089691008
260298440.0 -0.7339341085 0.4259013891 2.417e-06 3.08656e-05 -2.75455e-05 -4.64495e-05 0.7468123064 -0.4163354863
265298410.0 -0.729319138 0.4340418848 -8.86924e-05 -9.87869e-05 -3.03043e-05 -4.36127e-05 0.7431909318 -0.4240681621
270298380.0 -0.7242200063 0.441492398 5.53532e-05 -4.69753e-05 0.0001494925 6.72312e-05 0.7394763824 -0.4307325535
275298350.0 -0.7191961542 0.4494551905 0.0001424517 -0.0001329449 -0.0002515097 -5.53559e-05 0.7347179017 -0.4368596192
280298320.0 -0.7152952773 0.4563345475 3.367e-05 -0.0002419094 -8.83225e-05 8.8876e-05 0.7315116337 -0.4448931731
285298290.0 -0.7104831688 0.4645081784 -4.7652e-05 -0.0001198927 -5.07074e-05 3.07136e-05 0.7264845439 -0.4518179181
290298260.0 -0.7053084496 0.4716493353 0.0001468593 -0.0001396902 1.28104e-05 0.0001833222 0.7226279462 -0.458690082
295298230.0 -0.7009409359 0.4794330083 -0.0002930656 -0.0001521101 -8.73919e-05 4.53008e-05 0.7184523619 -0.4656994624
300298200.0 -0.694948717 0.4867525244 7.48111e-05 1.48155e-05 9.721e-06 4.6695e-05 0.7139792553 -0.4730819377
305298170.0 -0.6903143765 0.4944997275 0.0001182742 5.17743e-05 -6.52224e-05 7.15692e-05 0.7100819847 -0.479474547
310298140.0 -0.6842688843 0.5008762425 0.0001587339 -0.0001275601 2.71909e-05 0.0001087059 0.7057272908 -0.4865288573
315298110.0 -0.6800660268 0.507911642 2.23018e-05 -4.50723e-05 2.7188e-05 -0.0001091155 0.7010024773 -0.4941870463
320298080.0 -0.6742571623 0.5158920868 -4.28545e-05 -4.64425e-05 3.9514e-06 0.0001882014 0.6963383202 -0.5019444549
325298050.0 -0.6688360962 0.5225261467 -2.63278e-05 0.0001160227 4.09346e-05 -5.90297e-05 0.691315371 -0.5092662895
330298020.0 -0.6629080865 0.5289262817 -0.0001210497 -0.0001263938 5.83895e-05 -6.46626e-05 0.6857465367 -0.516593655
335297990.0 -0.6574182529 0.5365903824 -2.89795e-05 -2.7476e-05 4.55479e-05 0.0001015329 0.6802722473 -0.5236019265
340297960.0 -0.6518418685 0.5424703339 6.13667e-05 7.1444e-05 -0.0001754928 4.58331e-05 0.6747476465 -0.5296875172
345297930.0 -0.6458062603 0.5491919835 1.30485e-05 -0.0001479935 -2.3762e-05 6.05861e-05 0.668478873 -0.535634467
350297900.0 -0.640194163 0.5560655394 -7.331e-07 -4.81037e-05 1.27615e-05 -0.0001021463 0.6634555716 -0.5414707118
355297870.0 -0.6345224621 0.5629094376 -2.6086e-05 -0.0001321439 0.0002041601 7.23628e-05 0.6577255102 -0.5476623548
360297840.0 -0.6283805337 0.5690944829 0.0001752273 0.0001329461 -7.60796e-05 1.07478e-05 0.6526762894 -0.5539367157
365297810.0 -0.6218024315 0.575505585 0.000275017 -1.15626e-05 -0.0001692467 2.83471e-05 0.6468318286 -0.5601840942
370297780.0 -0.6162078238 0.5819939283 -0.0001457267 -9.06455e-05 -5.57722e-05 -0.00012174 0.6413289257 -0.5659735424
375297750.0 -0.6100362908 0.5880361141 5.99843e-05 -7.6162e-05 -7.05186e-05 0.0001232067 0.6355243787 -0.5719314818
380297720.0 -0.6040465711 0.5947150537 0.0002673499 -0.000100248 -6.55177e-05 1.9035e-06 0.6305068613 -0.5774993838
385297690.0 -0.5979029183 0.6007334902 0.000143482 3.7902e-06 0.0001215135 7.8206e-05 0.6243347227 -0.5833751956
390297660.0 -0.5913991231 0.6073463507 -0.0002013287 0.0001716445 -8.83958e-05 -5.41403e-05 0.619258281 -0.5898621469
395297630.0 -0.585327847 0.6126888305 -0.0002741361 0.0001312622 5.58436e-05 -8.34635e-05 0.613539158 -0.5955799221
400297600.0 -0.5789255023 0.6190166916 -3.40604e-05 8.87195e-05 3.97783e-05 1.6734e-06 0.6076965729 -0.6011359246
405297570.0 -0.5728690939 0.6248189972 5.34159e-05 0.0001628925 -5.18853e-05 -9.17592e-05 0.6022605937 -0.6068537466
410297540.0 -0.5662208518 0.6310380113 5.73468e-05 0.0001844822 3.36e-08 1.26083e-05 0.5955680442 -0.6126032407
415297510.0 -0.5595692995 0.6365299777 4.29907e-05 0.0001214025 -0.0001730878 0.0001213107 0.5893829516 -0.6182973694
420297480.0 -0.5519182012 0.6421019872 0.0001972854 6.51172e-05 0.0001905624 7.50759e-05 0.5833080907 -0.6240875582
425297450.0 -0.5453653709 0.6475700825 -0.0001442012 -0.0001034388 -0.0001075221 -0.0001756482 0.5776356229 -0.6293088806
430297420.0 -0.5394375327 0.6534036744 -4.1892e-05 0.0001247556 -0.0001015832 -9.1694e-06 0.571424357 -0.6347091957
435297390.0 -0.5320262954 0.6587832244 -5.34915e-05 0.000197921 -0.0001541959 7.7306e-05 0.5647426808 -0.640003468
440297360.0 -0.5250710669 0.6641948065 0.0002019319 -8.31915e-05 -1.64585e-05 5.07499e-05 0.5586072553 -0.6459519804
445297330.0 -0.5182873818 0.6700546071 6.17421e-05 -0.0003436078 3.59466e-05 3.03791e-05 0.5524221188 -0.6516137933
450297300.0 -0.5113678972 0.6744503691 -0.0001468671 -2.0134e-06 5.09117e-05 -0.0001967439 0.5457177829 -0.656507382
455297270.0 -0.5043914403 0.6798019918 8.78363e-05 -0.0001954738 -7.4337e-06 -5.04933e-05 0.539176882 -0.6617611611
460297240.0 -0.4977269466 0.6849789547 -2.21717e-05 9.51904e-05 9.15003e-05 -2.23786e-05 0.5336588415 -0.6669701371
465297210.0 -0.4902547547 0.6899385757 -0.0001406688 0.0001409639 -7.05945e-05 2.51833e-05 0.5257972792 -0.6718395504
470297180.0 -0.4829404825 0.6947350044 4.96805e-05 -0.0002306038 -0.0001271159 -0.0002987625 0.5190313837 -0.6770010055
475297150.0 -0.4754514831 0.7002994492 4.29094e-05 6.88974e-05 -0.0001692283 6.50903e-05 0.5134159298 -0.6817245612
480297120.0 -0.4692214746 0.7049894364 3.46299e-05 -3.4998e-05 -8.39284e-05 -0.0002079561 0.506106094 -0.6866985065
485297090.0 -0.461181736 0.7092391899 -9.50464e-05 7.93774e-05 4.96243e-05 -0.0001278711 0.4988612613 -0.6920181735
490297060.0 -0.4545915014 0.7137581836 0.0001398501 -7.607e-05 -0.0001180178 2.3245e-05 0.4925847272 -0.696558067
495297030.0 -0.4469486652 0.7190310345 -5.32704e-05 -0.0004388505 -0.0002021338 1.64369e-05 0.4857492367 -0.7010953209
500297000.0 -0.4391601207 0.7233117222 -2.81916e-05 -8.9643e-05 2.93782e-05 -0.0001497856 0.4782289176 -0.7056977169
505296970.0 -0.4315746702 0.7271829341 6.45119e-05 -0.0001776438 3.20248e-05 -0.0002018772 0.4710295204 -0.7106190203
510296940.0 -0.4246191299 0.7317558432 0.0001059758 -4.68206e-05 4.97221e-05 -0.0001150708 0.4641720207 -0.7145719772
515296910.0 -0.4172608734 0.735917145 -8.17217e-05 0.0001461674 5.81948e-05 -1.22439e-05 0.45624314 -0.719239712
520296880.0 -0.4090844288 0.7405193029 -5.85739e-05 1.97564e-05 -6.58366e-05 1.08935e-05 0.4495433129 -0.724223478
525296850.0 -0.4021549673 0.7444147897 0.0001739254 0.0001162328 6.87e-07 0.0001166526 0.4429600881 -0.7277042401
530296820.0 -0.3938393128 0.7479178521 7.70512e-05 -0.0002109653 8.50502e-05 1.41004e-05 0.4348882527 -0.7324721755
535296790.0 -0.3858901938 0.7523084818 -0.0001946093 8.95506e-05 4.50735e-05 3.3892e-06 0.4278318145 -0.7376079052
540296760.0 -0.378500239 0.7558663051 4.38201e-05 -3.76301e-05 -4.62323e-05 -6.08866e-05 0.4199790339 -0.7403596673
545296730.0 -0.3711273409 0.7590497952 4.66521e-05 4.39673e-05 7.87155e-05 3.81815e-05 0.4130001555 -0.7457908828
550296700.0 -0.3633756308 0.7637566278 2.64559e-05 -0.0001727866 -0.0001301163 0.0001076364 0.4053367064 -0.7492521714
555296670.0 -0.3548443829 0.7666726185 -0.0001595699 8.88947e-05 -6.67154e-05 -0.0002356127 0.3979745566 -0.7526330273
560296640.0 -0.3471803769 0.7707973819 -3.78614e-05 4.54051e-05 0.0001770237 -2.11917e-05 0.3903401165 -0.7569537712
565296610.0 -0.3397384653 0.7740137399 0.0001317157 -8.10587e-05 0.0001203828 2.75712e-05 0.3829216722 -0.7602747435
570296580.0 -0.3316351819 0.7772342271 0.0002547629 -0.0001521928 2.3914e-05 2.37046e-05 0.3749888789 -0.7634790939
575296550.0 -0.3238233276 0.7806311518 -0.0001611375 -3.6697e-06 -8.7e-09 3.01732e-05 0.367346502 -0.7674965608
580296520.0 -0.3160352821 0.7840695816 2.73861e-05 8.29194e-05 -9.1453e-06 5.58248e-05 0.3598971877 -0.7709780596
585296490.0 -0.3075454582 0.7862344258 9.3575e-05 -3.36348e-05 0.0002069162 -0.0002706019 0.3521639756 -0.7751006312
590296460.0 -0.2998822972 0.7895003191 5.7055e-05 -0.0001292241 5.66348e-05 0.0001136515 0.3443224982 -0.7775397138
595296430.0 -0.2915376055 0.793179863 0.0001707416 -0.0001203178 1.6688e-06 3.20235e-05 0.3363837053 -0.7808735368
600296400.0 -0.2835711985 0.7958140671 6.52361e-05 0.0001768912 -1.58023e-05 0.0001005048 0.3288406228 -0.7838943997
605296370.0 -0.2755704362 0.7986965613 -7.22068e-05 0.0001324112 -0.0001166364 -4.68155e-05 0.3203388925 -0.7875744905
610296340.0 -0.2674739968 0.8015549294 8.36763e-05 -0.0002387642 -0.0001101157 -1.38555e-05 0.3126246264 -0.7898558529
615296310.0 -0.2589679535 0.8044303405 -0.0001506597 -1.17145e-05 -4.17254e-05 5.49395e-05 0.3051090901 -0.7938376872
620296280.0 -0.2503213519 0.8063095713 -0.0001910747 0.00021988 0.000114679 -9.2107e-06 0.2975873377 -0.7971182199
625296250.0 -0.242944627 0.8088094777 0.0002263943 0.0001010654 0.0001357927 -3.6788e-06 0.2889346212 -0.7986516208
630296220.0 -0.234488841 0.8116215149 -8.3143e-05 -0.000180129 4.93705e-05 4.71903e-05 0.2805372345 -0.8014459757
635296190.0 -0.2263694672 0.813422297 1.19937e-05 -0.0002229256 2.1693e-06 -6.10135e-05 0.2728294524 -0.8043985966
640296160.0 -0.217847453 0.8148931468 -8.76362e-05 2.83952e-05 -5.01861e-05 -0.0001996399 0.2651388381 -0.8070739214
645296130.0 -0.210361012 0.8174582094 -3.78154e-05 -5.03695e-05 -0.0001106422 -2.21767e-05 0.2569969188 -0.8094215518
650296100.0 -0.2017877894 0.8202613146 -4.23047e-05 7.93578e-05 0.0001430761 -0.0001126576 0.2484437024 -0.8117790161
655296070.0 -0.1929176574 0.8218714729 -0.0001912367 -4.45565e-05 0.0001477421 0.0002855015 0.2399375214 -0.8141460266
660296040.0 -0.1855769139 0.823917151 -0.0002610435 -1.40431e-05 -4.19453e-05 5.27959e-05 0.2322587164 -0.8159746213
665296010.0 -0.1765449698 0.8258903937 0.0003656656 0.0001907354 -2.04524e-05 -7.41089e-05 0.2238894249 -0.8181381856
670295980.0 -0.1681392504 0.8271638875 -0.0002164985 0.0002113519 -9.5182e-05 2.17851e-05 0.216117488 -0.8196988593
675295950.0 -0.1601216313 0.8289324623 -4.74493e-05 -0.0002363261 -1.80237e-05 -0.0001840973 0.2081535034 -0.8222059742
680295920.0 -0.1515232986 0.8309591373 -2.99456e-05 4.3781e-06 -2.1619e-05 0.0002296453 0.1999903351 -0.8242833606
685295890.0 -0.1432273579 0.8322107979 -0.0001571401 9.632e-05 -0.000152812 0.0002357983 0.1919501708 -0.8262067294
690295860.0 -0.1344050271 0.833395371 -1.11305e-05 -3.014e-05 5.91311e-05 0.000178837 0.1839095442 -0.8275855185
695295830.0 -0.1259779377 0.8338623232 -0.0002142418 2.67066e-05 3.5359e-05 0.0001817489 0.174696361 -0.8290086953
700295800.0 -0.118121747 0.8356107401 -3.78903e-05 -7.129e-07 -0.0001904973 5.6295e-05 0.1661922514 -0.830859075
705295770.0 -0.1085766295 0.8376722809 -1.37212e-05 0.0001221323 0.000135948 1.38959e-05 0.1582688333 -0.831645432
710295740.0 -0.1009979331 0.8380977767 2.61358e-05 -8.22686e-05 1.8496e-05 7.10304e-05 0.149563196 -0.8326950922
715295710.0 -0.0932145904 0.8394362193 5.54901e-05 0.0001527608 0.0003266737 0.000163854 0.1418842885 -0.8348257966
720295680.0 -0.084640816 0.8396850983 -9.37498e-05 1.2108e-05 8.65536e-05 -3.43688e-05 0.1333206857 -0.8360622788
725295650.0 -0.075521225 0.8413241989 -0.0002025924 -0.0001782601 0.000268335 -5.448e-05 0.1253374351 -0.8368635592
730295620.0 -0.0675047067 0.8410786052 -4.47e-05 -2.84953e-05 -0.0001377406 -7.59957e-05 0.1164174522 -0.8384220971
735295590.0 -0.0585150476 0.8418641478 8.54768e-05 -8.011e-07 0.0001397969 -0.00021138 0.1083629979 -0.8390978927
740295560.0 -0.0500265408 0.84278065 0.0001460986 0.0001452686 -8.04234e-05 1.07152e-05 0.0995947793 -0.8406719323
745295530.0 -0.0419241991 0.8429167177 0.0001285533 7.5443e-06 -0.0001039243 -0.0002320772 0.0911034114 -0.8406086823
750295500.0 -0.0340398931 0.8430806494 -0.000101597 7.60616e-05 2.14298e-05 -8.9743e-05 0.0834502949 -0.8418093786
755295470.0 -0.0244156651 0.8433486455 -3.21142e-05 9.24489e-05 -1.47235e-05 -3.33796e-05 0.0740464533 -0.8418139256
760295440.0 -0.0163533586 0.8431212169 0.0001202832 -0.0001210335 1.84308e-05 -0.0001756855 0.0654422383 -0.8430135538
765295410.0 -0.0080044385 0.8436227413 9.23886e-05 6.95861e-05 3.25538e-05 6.89333e-05 0.0579698649 -0.8431764956
770295380.0 0.0005119993 0.8437474099 -1.42962e-05 -2.64439e-05 7.447e-07 0.0001107222 0.0499036201 -0.8432490252
775295350.0 0.0084459123 0.844169925 -5.76667e-05 -0.000158958 9.5034e-06 0.0001841093 0.0413894922 -0.8451561858
780295320.0 0.0175684747 0.8435719299 0.0002203025 -1.03907e-05 -3.10218e-05 5.58843e-05 0.0323242555 -0.8441780028
785295290.0 0.0259235748 0.8438793772 6.49516e-05 7.97025e-05 -8.9714e-05 1.34208e-05 0.0244036518 -0.8439653185
790295260.0 0.034290795 0.8430179959 -0.0001064299 5.05661e-05 -0.0001658292 0.0001051052 0.0162145127 -0.8442845835
795295230.0 0.0427365135 0.843244114 0.0003120526 2.73161e-05 8.511e-06 0.0002576176 0.0065311515 -0.844197532
800295200.0 0.0511984099 0.8425684646 -0.0001247762 3.08662e-05 0.0001097813 -0.0001047325 -0.0009537089 -0.8444082676
805295170.0 0.0597457386 0.8416578208 -0.0001725978 -1.74334e-05 -1.59984e-05 -0.00025912 -0.0099402815 -0.8441864217
810295140.0 0.0678070866 0.8412433893 -0.0001787802 0.0001321717 -5.76605e-05 0.0001141127 -0.0182427604 -0.8430427156
815295110.0 0.0764410817 0.8401593879 -4.24157e-05 -5.00149e-05 0.0001660491 -0.0002082404 -0.0268369963 -0.8428378774
820295080.0 0.0846759609 0.8389562477 1.42745e-05 -0.0001677682 4.70433e-05 -2.94622e-05 -0.0353067719 -0.8428272233
825295050.0 0.0934554948 0.8383712303 -8.74405e-05 -2.71692e-05 -0.0002402369 0.0002148691 -0.0434092563 -0.8422372344
830295020.0 0.1020200175 0.8380578863 0.0001328855 -0.0001027925 -6.1514e-05 -4.00553e-05 -0.0522662159 -0.8414828441
835294990.0 0.1095462567 0.8369033724 0.0001322517 7.02912e-05 -0.0001404233 -5.622e-05 -0.060099963 -0.8408801297
840294960.0 0.1184918292 0.8349267359 -0.0001103946 5.09796e-05 -0.0001776989 -6.78278e-05 -0.0695763373 -0.8393987696
845294930.0 0.1266671924 0.8343836379 -0.0001119477 5.8879e-06 3.67189e-05 4.66347e-05 -0.0770974169 -0.8389428835
