!Created with skrf (http://scikit-rf.org).
# Hz S RI R 50.0 
!freq ReS11 ImS11 ReS21 ImS21 ReS12 ImS12 ReS22 ImS22
300000.0 -0.1009421608 -0.0624561085 0.6301444625 0.0590412767 0.6244336752 0.0603748258 -0.1001022168 -0.0714431887
5299970.0 -0.1026818243 0.0131444672 0.6310692491 0.0098364591 0.631146807 0.0104170418 -0.1009379322 0.0131351886
10299940.0 -0.0972177972 0.0292462628 0.633843876 0.0153162539 0.6343056879 0.0156283805 -0.0960494536 0.0304563549
15299910.0 -0.0898991495 0.0427012749 0.6409654854 0.0203904826 0.6407338034 0.0206246193 -0.0888419053 0.0434085777
20299880.0 -0.0815585554 0.0531127161 0.6488354136 0.024066507 0.6488957369 0.0240242641 -0.0800123623 0.0545733264
25299850.0 -0.0724517868 0.0623036114 0.6574162089 0.0253271152 0.6575676856 0.0255266117 -0.0698918872 0.0633136556
30299820.0 -0.0624824721 0.0688312273 0.6675177325 0.024597324 0.667212915 0.0243954611 -0.0597843815 0.0699457048
35299790.0 -0.0527344621 0.0736269167 0.6775227009 0.0219189968 0.6774299884 0.0213968546 -0.0500305248 0.0747017507
40299760.0 -0.0432377271 0.0768844074 0.686158442 0.0169659626 0.6865198296 0.0175615903 -0.040320671 0.0771955375
45299730.0 -0.0339032763 0.0792201335 0.69466805 0.0116930497 0.6954502879 0.0118706003 -0.0314365133 0.0794634629
50299700.0 -0.0255492188 0.0802046135 0.7036554918 0.0047821678 0.7038600608 0.0056820017 -0.0227826514 0.080489981
55299670.0 -0.01752934 0.0803903242 0.7104347376 -0.0033068989 0.7108650516 -0.0026337301 -0.0146344311 0.0804918408
60299640.0 -0.0097008914 0.0799759813 0.7171258246 -0.011698072 0.7176540245 -0.0108412856 -0.0078265419 0.0792898956
65299610.0 -0.0036549832 0.0787933611 0.7232389399 -0.0196867986 0.723555114 -0.0199847476 -0.0009829769 0.0784437818
70299580.0 0.0027119803 0.0775649748 0.7287294676 -0.0294782931 0.7286718782 -0.0290356189 0.0048110348 0.0767362297
75299550.0 0.0083682872 0.0757120213 0.7326588127 -0.0391002898 0.7329191602 -0.03859045 0.0103357479 0.0748233712
80299520.0 0.0130279837 0.0735534481 0.7370107958 -0.0487679801 0.7375259619 -0.0490172035 0.0153603626 0.0727365055
85299490.0 0.0180252556 0.0715563606 0.7401625613 -0.0582415072 0.7408556685 -0.0579828081 0.0196206605 0.0699021221
90299460.0 0.0220109329 0.0691122662 0.7426859747 -0.0687974562 0.7436406719 -0.0686538055 0.0239136234 0.0683209159
95299430.0 0.0261512737 0.0664842073 0.7455306891 -0.0786228764 0.7460049795 -0.078853448 0.0279174137 0.0657255221
100299400.0 0.0289343538 0.0645101591 0.746919238 -0.0887137204 0.7470747285 -0.0888490508 0.0312826057 0.0627629948
105299370.0 0.0322220456 0.0620977099 0.7486432149 -0.0991265304 0.7493044882 -0.0990859724 0.0344609161 0.0608329434
110299340.0 0.0351555189 0.0595275063 0.750354716 -0.1090498175 0.7497858549 -0.1084642748 0.0361795248 0.0581287336
115299310.0 0.0373741296 0.057032736 0.7509134721 -0.1190139645 0.7510922997 -0.1191287008 0.0390278565 0.0557347337
120299280.0 0.0398290966 0.0546114264 0.7510674427 -0.1290082428 0.7513740273 -0.1290303436 0.0414276994 0.0534821691
125299250.0 0.0419171029 0.0522487854 0.7518353203 -0.1387219327 0.7519890742 -0.1386850998 0.0428633215 0.0501884694
130299220.0 0.0434242257 0.0501719442 0.750787996 -0.1493097969 0.7511958877 -0.149163606 0.0448305146 0.0484660639
135299190.0 0.0453862628 0.0481950746 0.751957707 -0.1591240506 0.7510313496 -0.158549757 0.0463718558 0.0466694446
140299160.0 0.046607692 0.0462090791 0.7509104549 -0.1688870329 0.7511707526 -0.168711328 0.0478259364 0.0448739529
145299130.0 0.0479609775 0.0440113677 0.7505032239 -0.178362884 0.7502491222 -0.1779792011 0.0495811243 0.0423495725
150299100.0 0.0497824906 0.042157023 0.7482624342 -0.1867704832 0.7490367394 -0.1874455322 0.0502910831 0.0404194658
155299070.0 0.0502801741 0.0399639488 0.7482333394 -0.1979696666 0.7475269261 -0.1976916137 0.0517509559 0.038711063
160299040.0 0.0519247977 0.0382634329 0.7465251691 -0.206799976 0.7456599784 -0.2072382303 0.0517756042 0.0363400746
165299010.0 0.0521759855 0.0364249905 0.744594611 -0.2171970048 0.7450818852 -0.2169884394 0.0534701434 0.0348646749
170298980.0 0.0533989896 0.0339796124 0.7431656999 -0.2261432199 0.743468351 -0.2265161312 0.0539885632 0.0331657351
175298950.0 0.0536975877 0.0324129745 0.7417941415 -0.23542585 0.7408814071 -0.2351211109 0.0545013536 0.0314969962
180298920.0 0.0541505239 0.0309011741 0.7391177879 -0.2438523906 0.7390442227 -0.2444911259 0.055110759 0.0294901788
185298890.0 0.0554872832 0.0288846706 0.7365285829 -0.2536435656 0.7366124914 -0.25365234 0.0557040615 0.0283377758
190298860.0 0.0553641178 0.0274349933 0.7345081991 -0.2632675785 0.7347549652 -0.2627900593 0.0562130637 0.0261503328
195298830.0 0.05613487 0.0254597729 0.7316776632 -0.271821873 0.7324638224 -0.2712823604 0.0570402245 0.0250466066
200298800.0 0.0563220993 0.0241451828 0.7291406285 -0.2809012621 0.7293062407 -0.2808146235 0.0566199377 0.0234903807
205298770.0 0.056978763 0.0228887891 0.7256584766 -0.2900562304 0.7266481595 -0.2896548455 0.0571010339 0.0212463347
210298740.0 0.0573184671 0.0211599506 0.7231692473 -0.298279641 0.7234156608 -0.2975583094 0.0579121024 0.0212332236
215298710.0 0.0571347764 0.0197130053 0.7207339163 -0.3072822195 0.7209922725 -0.3071957309 0.0575397806 0.0194666817
220298680.0 0.0578188645 0.0178675235 0.7164927998 -0.315340098 0.7172132918 -0.3154676191 0.0576681581 0.0177836928
225298650.0 0.058006909 0.0166115891 0.7137673736 -0.3245965905 0.7140414723 -0.324228208 0.0576757349 0.0161904957
230298620.0 0.058010388 0.015918085 0.7109394584 -0.333016836 0.7111497378 -0.3326613305 0.0575163162 0.0149458344
235298590.0 0.0579546642 0.0147212649 0.7068021332 -0.3415114997 0.7070783113 -0.3403947431 0.0579192545 0.0137234973
240298560.0 0.0581715616 0.0134548906 0.7037588681 -0.3499136653 0.7033850695 -0.3496960211 0.0581734617 0.012791115
245298530.0 0.0581210612 0.0119709214 0.7001510319 -0.3580490295 0.6997957005 -0.3581874266 0.0587791605 0.0106077518
250298500.0 0.05843033 0.0109725839 0.6954169204 -0.3661822073 0.695193304 -0.3658114161 0.0581892805 0.0106070329
255298470.0 0.0585219321 0.0093189855 0.6910152369 -0.3742298582 0.6919204264 -0.3742477792 0.0585095292 0.0092296022
260298440.0 0.0580554193 0.0080961271 0.6881407789 -0.3831279451 0.6878235975 -0.3821871387 0.0588359185 0.0078642494
265298410.0 0.0586880402 0.0074662374 0.6837291723 -0.3909538833 0.6841481857 -0.3902579807 0.0584611024 0.0070931867
270298380.0 0.058605925 0.0060905178 0.6800260758 -0.3984902549 0.6797604478 -0.3982482754 0.0582182182 0.0059423621
275298350.0 0.0589722234 0.0051273556 0.6757229374 -0.4065218239 0.6760264019 -0.4063289368 0.0588155488 0.0044487388
280298320.0 0.0587657245 0.0041569857 0.6715402238 -0.4143300977 0.6715687994 -0.4143853866 0.0590811065 0.0034329853
285298290.0 0.058731825 0.0030968944 0.6669876375 -0.4224609263 0.6666375246 -0.4220782529 0.0586700515 0.0024541306
290298260.0 0.0590041552 0.0021635094 0.6620325725 -0.4297495573 0.6622448014 -0.4300001264 0.0586869351 0.0021825936
295298230.0 0.0588903298 0.0008036028 0.6577732079 -0.4373660522 0.6578157123 -0.437535128 0.0596927263 0.0007094405
300298200.0 0.0584321541 -0.0001851992 0.6531653913 -0.4450889531 0.6531859295 -0.4456337018 0.0589733154 -0.0004447587
305298170.0 0.0587541885 -0.0014917953 0.6478322512 -0.4536728751 0.6478804131 -0.4529334665 0.0595860641 -0.0019156343
310298140.0 0.0583351993 -0.0023248804 0.6434097182 -0.4609455959 0.6437500472 -0.4605085476 0.0591655012 -0.0027635582
315298110.0 0.0583327767 -0.0039469628 0.6378146456 -0.4678769082 0.638679556 -0.4685536059 0.0585184657 -0.0041942733
320298080.0 0.058713617 -0.0048487562 0.6322229386 -0.4762853779 0.6328309172 -0.4754601885 0.058863045 -0.0047883593
325298050.0 0.0576672248 -0.0061961966 0.627108474 -0.4837308451 0.6271450827 -0.4830059196 0.0576831205 -0.0060405636
330298020.0 0.0573480587 -0.0070527896 0.6215953127 -0.4905344812 0.621851015 -0.4908093713 0.0574020694 -0.0075213493
335297990.0 0.0571108966 -0.0083989526 0.6159104687 -0.4979007698 0.6158951242 -0.4975913571 0.056416348 -0.0075617662
340297960.0 0.0561058322 -0.0088410122 0.6098423797 -0.5044122646 0.6097133129 -0.5048879459 0.056655256 -0.008398072
345297930.0 0.0558774806 -0.0093585926 0.6042153908 -0.5117758805 0.6041929037 -0.511897446 0.056159977 -0.0093280406
350297900.0 0.0553477454 -0.0108502286 0.5977987633 -0.5187069689 0.5984585678 -0.5185470447 0.0552841627 -0.009718045
355297870.0 0.0550354183 -0.0103667818 0.5926413517 -0.5248654826 0.5930188433 -0.5251793636 0.0551512297 -0.0107580781
360297840.0 0.054586923 -0.0112958232 0.5878166316 -0.5311015048 0.5873512048 -0.5313236984 0.0549275943 -0.0112894303
365297810.0 0.0540786644 -0.0117128706 0.5806834403 -0.5381554463 0.5813122644 -0.5383099868 0.0545587307 -0.0117485327
370297780.0 0.0545181213 -0.0129744539 0.5743749616 -0.5446457617 0.5753977163 -0.5439635104 0.0542119325 -0.0123195919
375297750.0 0.0540557016 -0.0138455904 0.5689916751 -0.5508373272 0.5701278303 -0.5509914833 0.0544662558 -0.0130345382
380297720.0 0.0536787518 -0.0142916315 0.5631616702 -0.5576233787 0.5631318185 -0.5569269091 0.0534910782 -0.0142784328
385297690.0 0.0529917434 -0.0153021166 0.5566251443 -0.5639942474 0.5565353001 -0.5632915579 0.0533507131 -0.0142335997
390297660.0 0.0527981393 -0.0151921342 0.5504913814 -0.5697682838 0.5506533709 -0.569715226 0.0525155002 -0.0151766739
395297630.0 0.0525278421 -0.0160253365 0.5444318803 -0.5761483714 0.5445799179 -0.5760743743 0.0530112475 -0.0159408606
400297600.0 0.0518538987 -0.0165116094 0.5374773883 -0.5828320083 0.5378574697 -0.5820524168 0.0524737889 -0.0165553369
405297570.0 0.0512770106 -0.0176391576 0.5312612892 -0.5881132322 0.5319231126 -0.5875249463 0.0516567412 -0.0169752167
410297540.0 0.0513366395 -0.0180765147 0.525082585 -0.5937524817 0.5256189665 -0.5938841132 0.0513538415 -0.0171820211
415297510.0 0.0511637435 -0.0188627762 0.5185866424 -0.599822097 0.518649697 -0.600109584 0.0512665742 -0.0175904907
420297480.0 0.0509597362 -0.018882037 0.5115362072 -0.6058856801 0.5118586311 -0.6058714805 0.0508616319 -0.019270463
425297450.0 0.050155115 -0.0203931007 0.5050596176 -0.6111901888 0.5054260657 -0.6112148605 0.0497651084 -0.0188896393
430297420.0 0.0498464001 -0.0209508364 0.4982108348 -0.616070348 0.4988975805 -0.6161888376 0.0499010362 -0.0199812731
435297390.0 0.0493665227 -0.0212304867 0.4909612913 -0.6227970361 0.4913696597 -0.6220980976 0.0503385691 -0.0205384873
440297360.0 0.049399176 -0.0216835533 0.4846874751 -0.6276419352 0.484687732 -0.6279271394 0.0490877977 -0.0214409913
445297330.0 0.0486161112 -0.0227611498 0.4776392267 -0.632800816 0.4778170262 -0.6323413898 0.0492951589 -0.022307155
450297300.0 0.0486081611 -0.0229465644 0.4704750246 -0.6382885562 0.471051253 -0.6383270309 0.0485176808 -0.0226748403
455297270.0 0.0481721068 -0.0236517966 0.4636177788 -0.6433978297 0.4640606834 -0.644020558 0.0484427124 -0.0232106919
460297240.0 0.0478928798 -0.0243098579 0.4567388507 -0.6485035654 0.4567748652 -0.6486515908 0.0480879952 -0.023383145
465297210.0 0.0474424654 -0.0248270524 0.4497262329 -0.6537585373 0.4497299643 -0.6543923443 0.0474610327 -0.0244563705
470297180.0 0.0471424303 -0.0255137089 0.4418897828 -0.6589194792 0.4422549076 -0.6585707675 0.0469484479 -0.024739837
475297150.0 0.0468872652 -0.0264681949 0.4345070303 -0.6631144398 0.4354826142 -0.6630810094 0.0470950207 -0.0257099498
480297120.0 0.0462388308 -0.0260810229 0.4278399348 -0.6684959286 0.4277275535 -0.6684797333 0.0470347944 -0.0253806693
485297090.0 0.0456817188 -0.0268404316 0.4206347244 -0.6729975433 0.4208460302 -0.6727866943 0.0464152296 -0.0263649514
490297060.0 0.0448208354 -0.027547742 0.4129797444 -0.6782898534 0.4135111916 -0.677091846 0.046021496 -0.0263492578
495297030.0 0.0445798666 -0.0278695352 0.4054595001 -0.6817335162 0.4062195946 -0.6819951282 0.0452721392 -0.0274234831
500297000.0 0.0442989377 -0.0288204084 0.39724308 -0.6866205899 0.3976065739 -0.685946017 0.0446384303 -0.0273903226
505296970.0 0.0440507329 -0.0289279931 0.39079612 -0.6906739349 0.3904060153 -0.6907020377 0.0445137721 -0.0279581359
510296940.0 0.0435135332 -0.0293074443 0.3824178097 -0.6950956966 0.3826761107 -0.6952269937 0.0444355988 -0.0282645379
515296910.0 0.0428226276 -0.0298407522 0.3746353577 -0.699548584 0.3752293076 -0.6989944797 0.0435797821 -0.0287993567
520296880.0 0.0421524658 -0.0303308765 0.3674157159 -0.7035516975 0.3675885464 -0.702887342 0.0431154384 -0.0294514032
525296850.0 0.0421547531 -0.0316257406 0.3589989203 -0.7073148551 0.3600249291 -0.7074910602 0.0427020375 -0.0297805119
530296820.0 0.0417081288 -0.0314662337 0.3516361462 -0.7116863649 0.3524119975 -0.7113993041 0.0424004531 -0.0300494136
535296790.0 0.0405474261 -0.0316408264 0.3443614831 -0.7148879471 0.344633465 -0.7145515684 0.0417602682 -0.0311782558
540296760.0 0.0401655793 -0.0317644852 0.3362319546 -0.7194264518 0.3363507036 -0.7185601878 0.0405977197 -0.0306059243
545296730.0 0.0399204148 -0.0325190843 0.327905733 -0.7226408899 0.32833339 -0.7223196972 0.0403786124 -0.0314372814
550296700.0 0.0399537173 -0.0326336061 0.3203964881 -0.7254917496 0.3206350069 -0.7264009104 0.0397715139 -0.0317445429
555296670.0 0.0386867687 -0.0332832347 0.3127443782 -0.7289366816 0.3127594198 -0.7294873437 0.0393974326 -0.031967749
560296640.0 0.0386820527 -0.0333339352 0.3041544854 -0.73330424 0.3048663336 -0.7331717138 0.0389109822 -0.0326535024
565296610.0 0.0374730226 -0.0340781784 0.2960582526 -0.7364043449 0.2966434493 -0.7365698722 0.0379564128 -0.0331568242
570296580.0 0.0373035855 -0.0339352832 0.2883858314 -0.7396980287 0.2879476485 -0.7397092066 0.0376768227 -0.0329300911
575296550.0 0.0363381239 -0.0343840208 0.2804719061 -0.7431746098 0.2801661705 -0.7425364726 0.0375586035 -0.0337894876
580296520.0 0.0362377497 -0.0346987428 0.2718216607 -0.7457006943 0.2727298968 -0.7455707837 0.0367034158 -0.0342543737
585296490.0 0.0356032297 -0.0357197288 0.2643335105 -0.7484974077 0.2646568588 -0.7482524972 0.0364364747 -0.0344118543
590296460.0 0.0353942239 -0.0353221025 0.2558029676 -0.7511558979 0.2559019826 -0.7511362724 0.0352376007 -0.0348217984
595296430.0 0.0349123276 -0.0358028545 0.2473745325 -0.7541121299 0.2468936706 -0.7540201115 0.0354715125 -0.0353953704
600296400.0 0.0339355253 -0.0364460953 0.2389302025 -0.7569412877 0.2392643295 -0.7566945202 0.0343761261 -0.0355078016
605296370.0 0.0337555537 -0.0364708984 0.2306120806 -0.7594850278 0.2312863954 -0.7595061232 0.033824328 -0.03567569
610296340.0 0.0332415154 -0.0366937316 0.2221209647 -0.7617301433 0.2231012553 -0.7619918675 0.0338261894 -0.0362362349
615296310.0 0.0328540678 -0.0377261965 0.2142112677 -0.7638915863 0.21436736 -0.7646561622 0.0335411919 -0.0363484625
620296280.0 0.0319920823 -0.0377636899 0.2061059677 -0.7663436111 0.2058007227 -0.7659875911 0.0325656375 -0.0365925496
625296250.0 0.0311490896 -0.0384320495 0.1984994579 -0.7694246499 0.1976571896 -0.7688524564 0.0328517426 -0.0368937118
630296220.0 0.0318979152 -0.0381453367 0.1886864009 -0.7711274955 0.1883549883 -0.7706945954 0.0315240048 -0.0367427523
635296190.0 0.0298263805 -0.0388547854 0.1809272953 -0.7722138188 0.1810437351 -0.7728197829 0.0315697366 -0.0374658186
640296160.0 0.0296294179 -0.0388333042 0.1719249716 -0.7743994932 0.1728150764 -0.7744370746 0.0308595418 -0.0375658193
645296130.0 0.0291176586 -0.0389137691 0.1632788866 -0.7760610727 0.1644334501 -0.7767695567 0.0299922326 -0.0379235083
650296100.0 0.0287624393 -0.0394328658 0.155008598 -0.7781543558 0.1554908241 -0.778584449 0.0302707155 -0.0389256605
655296070.0 0.027756846 -0.0401611545 0.1464432068 -0.7801605567 0.1473817284 -0.7800137918 0.0292656609 -0.0384365507
660296040.0 0.0267031799 -0.0404836001 0.1386700612 -0.7818193512 0.1391764985 -0.7816966535 0.0292203017 -0.0387417339
665296010.0 0.0271140374 -0.0404502978 0.1293392169 -0.7823006784 0.1301305349 -0.7827773614 0.0282733517 -0.0382947247
670295980.0 0.0249962153 -0.0402794567 0.1214759124 -0.7839564512 0.1214877613 -0.7843291684 0.0272466685 -0.0387903434
675295950.0 0.0254064151 -0.0401645973 0.1130111122 -0.7854239147 0.1129763649 -0.7848432006 0.0264983291 -0.0388906877
680295920.0 0.0242348792 -0.04125618 0.1039792283 -0.7863780499 0.1035787775 -0.7870478205 0.0259733071 -0.0385410621
685295890.0 0.0241775977 -0.0403990649 0.0956286923 -0.787877787 0.0953591549 -0.787659596 0.0254413062 -0.0390200283
690295860.0 0.0237226635 -0.0406646417 0.0869465055 -0.787964216 0.0868703695 -0.7885461013 0.0247046036 -0.0383697105
695295830.0 0.0229714713 -0.0411055879 0.0786166165 -0.7894082717 0.0785615261 -0.7892319399 0.0239063439 -0.039131612
700295800.0 0.0227364449 -0.041793833 0.0697484964 -0.7902801939 0.0691990367 -0.7894981997 0.0233456113 -0.0386741409
705295770.0 0.0217708244 -0.0407243915 0.0608361064 -0.790490637 0.0613985315 -0.7913517419 0.0227353137 -0.0391084146
710295740.0 0.0215432056 -0.0413838112 0.0524281658 -0.7924956534 0.0532123443 -0.7924031646 0.0224344203 -0.0399216799
715295710.0 0.019933352 -0.0416002935 0.0444823989 -0.7924091327 0.044036151 -0.792268067 0.0220342866 -0.0396558822
720295680.0 0.0198028603 -0.0417465869 0.0353811331 -0.792944588 0.0358538267 -0.7922825086 0.0213106681 -0.0392750441
725295650.0 0.019340069 -0.0418529521 0.0264371583 -0.7927470728 0.0268857858 -0.7929876323 0.0203654766 -0.0394014417
730295620.0 0.0188725853 -0.0413170831 0.0180951479 -0.7926981416 0.0179481807 -0.7933775106 0.0194178153 -0.0401804341
735295590.0 0.0180309083 -0.0416580485 0.0091715532 -0.7932666133 0.0093595687 -0.7933198214 0.0190516931 -0.0405170006
740295560.0 0.017188731 -0.0414439803 0.0008994605 -0.7931678034 0.0008990917 -0.793256076 0.0189526736 -0.0401215389
745295530.0 0.0166979491 -0.0414897689 -0.007911184 -0.7930275723 -0.007754058 -0.7928764849 0.0183825431 -0.0408243478
750295500.0 0.0162850722 -0.0417251754 -0.0160638082 -0.7928003744 -0.0165646234 -0.7927156686 0.017553842 -0.040358937
755295470.0 0.01568897 -0.0422902769 -0.0249321887 -0.7927053641 -0.0247371693 -0.792969122 0.0177926211 -0.0409431048
760295440.0 0.0150327748 -0.0418181971 -0.0337080913 -0.792966131 -0.0333304083 -0.7926981437 0.0167776068 -0.0405230813
765295410.0 0.0140978227 -0.0418285109 -0.0427086818 -0.7923880596 -0.0421091143 -0.7920041801 0.0165678737 -0.0404227105
770295380.0 0.0132576916 -0.0423813843 -0.0515286491 -0.79201369 -0.0505045136 -0.7917858265 0.0152439415 -0.0410407723
775295350.0 0.012711558 -0.0426467871 -0.059840285 -0.7901754702 -0.0597329762 -0.7904232146 0.0140676769 -0.0402287585
780295320.0 0.0124494256 -0.042228904 -0.0681971295 -0.7900132451 -0.0677601685 -0.790113621 0.0136420066 -0.0409223889
785295290.0 0.01128153 -0.0427481919 -0.0776607881 -0.7888385276 -0.0765954239 -0.7889940091 0.0138345222 -0.0406126899
790295260.0 0.0114019596 -0.0416619684 -0.0848496033 -0.7882993549 -0.084342682 -0.7888123499 0.0128006497 -0.0407422368
795295230.0 0.0107368088 -0.042222877 -0.0935452781 -0.7870284144 -0.0928041047 -0.7875839413 0.0126894108 -0.0402566263
800295200.0 0.0096353247 -0.0420137474 -0.1031623198 -0.786174477 -0.1018856642 -0.7864296366 0.0119404055 -0.0407290612
805295170.0 0.009093232 -0.0421846318 -0.1109399052 -0.7851579233 -0.1108696171 -0.7852956688 0.0113540218 -0.0402877308
810295140.0 0.0084203009 -0.04279209 -0.1194230107 -0.7838544166 -0.1192706116 -0.7842881542 0.0113888342 -0.0402340526
815295110.0 0.0083878518 -0.0426573313 -0.127953947 -0.7818126995 -0.1275122762 -0.7824016668 0.0102090721 -0.0400690464
820295080.0 0.0068903469 -0.0416321585 -0.1364189944 -0.7807519868 -0.1356455553 -0.7806768717 0.009530429 -0.0401939453
825295050.0 0.0072202315 -0.0419602763 -0.1443384021 -0.778892367 -0.1446332954 -0.7794002021 0.0092480529 -0.0402084002
830295020.0 0.0064490947 -0.0414630775 -0.1531787955 -0.7771512028 -0.1530987475 -0.7774395576 0.0096532706 -0.0397999429
