!Created with skrf (http://scikit-rf.org).
# Hz S RI R 50.0 
!freq ReS11 ImS11 ReS21 ImS21 ReS12 ImS12 ReS22 ImS22
300000.0 -0.7752544198 -0.0827985583 -0.001458861 0.0013023107 0.0006628251 0.0023869408 -0.7727000398 -0.1294472068
5299970.0 -0.7844906284 -0.0050917595 0.0002849769 -0.0002217189 0.0001015253 -0.0002360418 -0.7843849268 -0.0069986761
10299940.0 -0.7878766627 -0.0034421219 -0.000240824 -0.0002360613 -1.32003e-05 -0.000123974 -0.7873755139 -0.0032207963
15299910.0 -0.7933415886 -0.0018439013 -0.0002155044 4.374e-05 -0.0001287096 -0.0001621855 -0.7926920882 -0.0014548835
20299880.0 -0.8000077899 0.0023959477 -4.90535e-05 8.92893e-05 -5.73948e-05 0.0001202094 -0.7995269693 0.0024331653
25299850.0 -0.8063351792 0.0078454232 1.38564e-05 -3.93106e-05 2.86774e-05 0.0001435586 -0.8059935178 0.0085185465
30299820.0 -0.8125845982 0.0155954789 -0.0001290863 2.46126e-05 5.2366e-05 0.0001154821 -0.8119454753 0.0164141209
35299790.0 -0.8172053229 0.0247541129 -5.26611e-05 1.3664e-05 -5.58825e-05 -3.2412e-06 -0.817162336 0.024950231
40299760.0 -0.8214207484 0.0335455668 0.000152498 -1.26232e-05 -0.0001323526 -0.0001792303 -0.8215482317 0.0342603335
45299730.0 -0.8247730805 0.0433392469 -0.0001227797 -7.13097e-05 -3.58407e-05 -3.59118e-05 -0.8253554984 0.0440157335
50299700.0 -0.8270700833 0.0534164536 5.72053e-05 5.31437e-05 -2.1861e-06 2.03166e-05 -0.8271157857 0.0540197972
55299670.0 -0.8296830155 0.0632834105 5.87734e-05 1.62011e-05 -0.0003240171 0.000165767 -0.8296989297 0.0649265808
60299640.0 -0.8304977021 0.0735970794 -0.0001560712 5.67775e-05 -2.12465e-05 -3.81836e-05 -0.8309001829 0.07462846
65299610.0 -0.8313110404 0.0838735801 2.30429e-05 1.14472e-05 -4.2073e-05 -1.998e-07 -0.8320410172 0.0841553046
70299580.0 -0.8318380445 0.0937096104 -1.796e-05 0.0001687178 -0.0001071498 4.97521e-05 -0.8321803756 0.094256301
75299550.0 -0.8317134154 0.1037724778 -0.0001692695 -0.0001148041 0.0001559004 -3.00643e-05 -0.8324210443 0.1042918175
80299520.0 -0.8318201065 0.113093752 -7.67786e-05 -0.0001497011 2.56865e-05 0.0001252874 -0.8324070433 0.1140908736
85299490.0 -0.8311469534 0.1225775127 -0.0001159193 -1.8584e-05 -6.12635e-05 -1.87102e-05 -0.8315294048 0.1236271104
90299460.0 -0.8300072774 0.1322202692 9.79081e-05 -0.0001853288 6.84544e-05 2.33639e-05 -0.8311127428 0.1330670823
95299430.0 -0.8292255389 0.1416960523 -9.64647e-05 -6.6722e-05 5.65563e-05 9.01637e-05 -0.8292929581 0.1430875891
100299400.0 -0.8279103608 0.1513451952 -7.9082e-06 9.73215e-05 0.0001176069 -9.87254e-05 -0.8288286321 0.1525384163
105299370.0 -0.8265181805 0.1598220747 -0.0001111131 -0.0003026349 -9.33308e-05 -0.0001567018 -0.8270884952 0.1610703131
110299340.0 -0.8253675939 0.1702129057 -0.0001393809 0.0003046154 0.000128936 -5.2767e-06 -0.8257120459 0.1710856476
115299310.0 -0.8241265772 0.1786935297 -7.99878e-05 1.28962e-05 2.30654e-05 0.0001796252 -0.8240926681 0.1798261515
120299280.0 -0.8223719032 0.1872778362 2.16473e-05 -8.99268e-05 -4.62289e-05 3.33562e-05 -0.8222076008 0.1891464518
125299250.0 -0.8203585479 0.1960221313 8.65257e-05 -5.63073e-05 -5.32765e-05 -1.2638e-05 -0.8210056068 0.1976577271
130299220.0 -0.818613692 0.2055004882 6.56251e-05 -8.2561e-05 5.36605e-05 5.48041e-05 -0.8188916023 0.2072081365
135299190.0 -0.8167746035 0.2141763173 0.0001671118 3.85392e-05 -2.68971e-05 1.49928e-05 -0.8164331512 0.2159079733
140299160.0 -0.8148854725 0.2232458716 -8.0167e-05 2.04145e-05 8.10119e-05 0.0001845044 -0.8142369521 0.2249844897
145299130.0 -0.8126165747 0.2323937399 0.000107304 4.63443e-05 6.13233e-05 -1.782e-07 -0.8121213548 0.2342399885
150299100.0 -0.8106444461 0.2409538861 0.0001878197 0.0001420808 0.0001269729 3.54559e-05 -0.8105751666 0.2430571438
155299070.0 -0.8078237555 0.2497427011 0.0001099844 3.80344e-05 -0.0001640496 8.72829e-05 -0.8071112741 0.2521251076
160299040.0 -0.8052757782 0.2585822684 -5.97783e-05 1.5732e-06 -4.44066e-05 -0.0002291499 -0.8052281074 0.2606683973
165299010.0 -0.8023610331 0.2669219261 -0.0001164047 -9.81278e-05 2.90065e-05 -0.0001303552 -0.8025003435 0.2694292322
170298980.0 -0.7997857281 0.2756146495 0.0001463461 8.60915e-05 7.35649e-05 1.13908e-05 -0.7993625877 0.2779579933
175298950.0 -0.7972034116 0.2843245286 -7.85101e-05 -0.0002645556 -9.50959e-05 -7.52821e-05 -0.7969746373 0.2868399749
180298920.0 -0.7946075841 0.2929199517 0.0001064083 -2.84071e-05 0.0001313244 0.00012279 -0.7936554296 0.2949385357
185298890.0 -0.7912474479 0.301219843 3.9604e-06 -0.0002091954 -7.2607e-06 3.72048e-05 -0.7897615909 0.3036664486
190298860.0 -0.7884767387 0.3098540329 9.87136e-05 5.43982e-05 -0.0001461753 0.0001402068 -0.7881026259 0.3125075433
195298830.0 -0.7854415223 0.3184603894 0.0001625175 2.50713e-05 3.38765e-05 -0.0001267278 -0.7848689904 0.3213911119
200298800.0 -0.7812853608 0.3258438761 8.02072e-05 0.0001360408 -0.0001883297 -2.89654e-05 -0.7817681715 0.3290353839
205298770.0 -0.7784140345 0.3342284105 -0.0001126342 0.0002425856 4.10233e-05 0.000124709 -0.7778301128 0.3376827296
210298740.0 -0.775145695 0.3427901064 -6.91141e-05 0.0001558812 5.83688e-05 9.10391e-05 -0.774464702 0.3458924943
215298710.0 -0.7715411246 0.3507471288 -2.71186e-05 0.0001199531 -7.35789e-05 0.0001294739 -0.7708861403 0.3540172362
220298680.0 -0.7673412393 0.3590559408 9.45536e-05 -0.0002161354 0.0001361851 4.51159e-05 -0.7679089829 0.3621452954
225298650.0 -0.7641411054 0.3667020462 -2.93942e-05 -2.50774e-05 0.0001547835 0.0001701712 -0.7637349441 0.3706348595
230298620.0 -0.7598411694 0.3751636051 0.0001163194 -3.91123e-05 8.14834e-05 2.40957e-05 -0.7601384504 0.378676637
235298590.0 -0.7562028063 0.3835884663 2.46495e-05 -0.0001483939 -3.94078e-05 8.48001e-05 -0.7553255441 0.3867571343
240298560.0 -0.7522760535 0.3918130973 8.2117e-05 9.5701e-06 -5.29969e-05 0.0001803204 -0.751722888 0.3953467338
245298530.0 -0.7485950085 0.3991091047 -5.19382e-05 -1.74912e-05 -8.74508e-05 0.000141803 -0.7479694524 0.4027912485
250298500.0 -0.7436936808 0.4071730013 3.11546e-05 2.93871e-05 7.1048e-06 3.61162e-05 -0.7438289889 0.410245445
255298470.0 -0.7393451831 0.4142539434 -0.0001852722 0.0001279329 0.0002279986 5.51691e-05 -0.7386356902 0.4185164191
260298440.0 -0.7353314811 0.4221921139 5.68002e-05 0.0001102279 1.11222e-05 -9.52729e-05 -0.7343836206 0.4262739288
265298410.0 -0.7310975258 0.42988462 -7.29647e-05 0.0002519347 -5.35901e-05 -0.0001892305 -0.7303561041 0.4336576957
270298380.0 -0.7270080513 0.4374078306 0.0001598216 6.9392e-06 -6.95834e-05 -0.0001759203 -0.725821807 0.4411662338
275298350.0 -0.721749579 0.4452344787 4.13882e-05 -0.0001081436 6.75617e-05 -0.0002651426 -0.7209830314 0.4485663033
280298320.0 -0.7171107714 0.4531211748 0.0002728498 1.68245e-05 0.0003196799 0.0002605496 -0.7158238452 0.4562142268
285298290.0 -0.7128311185 0.460190507 -8.58948e-05 0.0002441588 5.78474e-05 6.17236e-05 -0.7109625799 0.4639413705
290298260.0 -0.7076796374 0.4679755102 -2.15775e-05 1.2567e-05 0.000153565 -8.77385e-05 -0.7057232598 0.4709936063
295298230.0 -0.7024441628 0.4747993073 0.0001737351 0.0001076056 0.0001034929 0.0001773568 -0.7014028517 0.4779397296
300298200.0 -0.6977217856 0.4820637254 -3.82529e-05 6.78778e-05 -4.59851e-05 8.33956e-05 -0.696104198 0.4857863724
305298170.0 -0.6922307618 0.488389575 9.2052e-06 -4.32311e-05 0.000134583 5.55995e-05 -0.6901273208 0.4931195076
310298140.0 -0.6871156287 0.496120922 1.47406e-05 -6.42578e-05 -0.0001145636 1.46339e-05 -0.6854798255 0.4998899388
315298110.0 -0.682081187 0.5033146586 1.3575e-05 -7.27659e-05 -1.65932e-05 -0.0001544901 -0.6801273985 0.5070618002
320298080.0 -0.6773074421 0.5104335424 2.52016e-05 -7.68688e-05 1.44164e-05 -0.0001245716 -0.6745660072 0.5147359843
325298050.0 -0.6718284863 0.5177714669 -9.93346e-05 8.78347e-05 8.26939e-05 0.00010925 -0.6689397141 0.5211043176
330298020.0 -0.6664177772 0.5243220572 5.35767e-05 0.0001420094 -4.20531e-05 -5.14295e-05 -0.6637001954 0.5284559921
335297990.0 -0.660534362 0.5310198019 -4.53043e-05 0.000107996 0.0001730837 3.75856e-05 -0.6586358615 0.5356050837
340297960.0 -0.6556943585 0.5377355501 -5.39286e-05 -6.29921e-05 5.45151e-05 8.21187e-05 -0.6528926444 0.5426341352
345297930.0 -0.6498283398 0.5442950576 0.0002265967 1.40528e-05 1.24925e-05 -4.8172e-05 -0.6471079005 0.5483199106
350297900.0 -0.6443715141 0.5511716254 3.07823e-05 -1.72462e-05 1.00099e-05 -0.0001166104 -0.6412667282 0.5554343377
355297870.0 -0.6379476944 0.5579559388 0.0001785606 -0.0001371258 0.0001253671 1.40097e-05 -0.6355207633 0.5619464933
360297840.0 -0.6324325788 0.563791435 -5.23896e-05 4.85654e-05 -0.0001125832 -5.71912e-05 -0.6296851464 0.5692419749
365297810.0 -0.6268804772 0.5709544755 0.0001807828 -8.7641e-05 -6.72797e-05 -0.0002268778 -0.6226873459 0.5754294278
370297780.0 -0.6207130444 0.576801384 -8.1442e-05 -0.0002603176 2.20294e-05 0.0001286697 -0.6171386693 0.5819425585
375297750.0 -0.6145884033 0.5832929612 -0.0002672682 0.000112514 0.0001265945 2.61477e-05 -0.6112111521 0.5875559324
380297720.0 -0.6085941223 0.5894452651 9.5272e-06 4.63144e-05 -0.0001443492 0.0001219166 -0.6052797593 0.5944147892
385297690.0 -0.6026047689 0.5956663734 0.0003270618 -6.90787e-05 7.91758e-05 4.17141e-05 -0.598712018 0.601036472
390297660.0 -0.5972999144 0.6012008043 -0.0001661161 7.8969e-06 0.0001212501 -8.10072e-05 -0.5929612679 0.6069871125
395297630.0 -0.5897015489 0.6085075937 -0.0001629965 -2.4884e-05 0.0001040737 -0.0001007738 -0.5861453432 0.6133746223
400297600.0 -0.5831224893 0.6140242673 -5.7788e-06 0.0002006796 -0.0002362879 -3.8012e-06 -0.5808004734 0.6188803726
405297570.0 -0.577855917 0.6199635148 0.000218963 -8.1999e-05 -3.99544e-05 1.82536e-05 -0.5738319801 0.62509939
410297540.0 -0.5706683277 0.6257515209 5.92591e-05 1.12142e-05 4.41185e-05 -7.08299e-05 -0.5673241273 0.6312360165
415297510.0 -0.5640838293 0.6316347784 -8.48759e-05 3.9546e-06 -7.32596e-05 0.0001388201 -0.561138819 0.6363676131
420297480.0 -0.5588292031 0.6375172423 -0.0002262913 -0.0001506743 -9.64408e-05 -8.53844e-05 -0.5544783754 0.6428339858
425297450.0 -0.5512807929 0.6430873052 -0.000205088 -0.0002185877 -3.65597e-05 7.14989e-05 -0.5478002511 0.6478349088
430297420.0 -0.5451650013 0.6485507431 5.79568e-05 7.58659e-05 7.67684e-05 -7.80113e-05 -0.5414844188 0.6529965869
435297390.0 -0.5382370757 0.6533952835 -3.67846e-05 -4.52782e-05 5.02135e-05 0.0001414364 -0.5339172725 0.6590822563
440297360.0 -0.5313703696 0.6591269572 5.72802e-05 -0.0001446175 1.23627e-05 0.0001280268 -0.5274956246 0.6640374148
445297330.0 -0.5244023395 0.6647734738 -5.17873e-05 -0.0001984229 0.0001274654 0.0001270587 -0.5202987716 0.6689832766
450297300.0 -0.5180863955 0.6692567215 0.0001376412 -9.92601e-05 0.0001550332 0.0001387936 -0.5125672293 0.674204875
455297270.0 -0.5105669571 0.6746610575 -2.78869e-05 0.0003204706 2.5652e-06 5.9506e-06 -0.5061152044 0.678783775
460297240.0 -0.5050629314 0.6796018533 0.0001204302 -4.69887e-05 -3.20576e-05 -0.0001331442 -0.4994329685 0.6844196806
465297210.0 -0.4972542944 0.6851678381 -1.50777e-05 0.0001107603 0.0001128398 8.23119e-05 -0.4919630421 0.6892066862
470297180.0 -0.490113087 0.6899104199 0.0001764532 0.0001874631 -0.0001073115 -1.52332e-05 -0.4848112973 0.6946688794
475297150.0 -0.4831106958 0.6947780882 -1.07097e-05 -4.37252e-05 -7.6515e-06 -0.0001788759 -0.4775337152 0.6987495971
480297120.0 -0.476330646 0.6994925586 -1.30353e-05 3.05747e-05 -2.46959e-05 -8.36934e-05 -0.4701996122 0.7035879102
485297090.0 -0.4687235572 0.7040027013 -3.54897e-05 -7.27323e-05 5.30579e-05 -0.00024949 -0.4630516629 0.7081735116
490297060.0 -0.4622242725 0.7083923895 -0.0001049472 1.7249e-05 -0.0001940571 -0.000113512 -0.4558521433 0.7126699511
495297030.0 -0.4548096131 0.7130927729 -6.49128e-05 0.0002282305 -7.05743e-05 -6.07464e-05 -0.448045635 0.7178423668
500297000.0 -0.4476399554 0.7178629953 -3.51505e-05 9.41781e-05 -0.0002867622 -1.42155e-05 -0.4410083486 0.7224726286
505296970.0 -0.4400042089 0.7224678107 0.0001004018 0.0001703366 -1.44406e-05 5.81285e-05 -0.4336434077 0.7268737272
510296940.0 -0.4327041926 0.7264093474 8.0358e-05 3.09385e-05 8.70725e-05 -0.0001992012 -0.4259448276 0.7306154177
515296910.0 -0.424247915 0.7310127735 -6.303e-06 8.08279e-05 3.30813e-05 7.86697e-05 -0.4183857545 0.7353166689
520296880.0 -0.418241228 0.7353352141 0.0002859233 -0.0001151252 7.56213e-05 -0.0002047216 -0.4112280282 0.7392061329
525296850.0 -0.4098272343 0.7389364004 2.90562e-05 0.0001286861 0.0001258402 0.0001608534 -0.4037750514 0.7440197808
530296820.0 -0.4025323286 0.7435273944 3.42462e-05 -0.0002377984 -0.0002203971 5.49455e-05 -0.3962222296 0.747490189
535296790.0 -0.3956335897 0.7476834983 -8.1347e-05 -0.0002310315 0.0001943611 -1.20388e-05 -0.3891311557 0.7514270043
540296760.0 -0.3879294622 0.7511655474 -9.41572e-05 8.1312e-06 6.29949e-05 1.68574e-05 -0.381258703 0.7555622769
545296730.0 -0.379962413 0.755555059 -9.86236e-05 -0.0001329272 0.0001409844 -1.2599e-05 -0.3730328642 0.7594986701
550296700.0 -0.3725983898 0.7589175852 7.38348e-05 -4.29151e-05 -1.99269e-05 1.2262e-05 -0.3652851006 0.7632292849
555296670.0 -0.3641263609 0.7618919564 -0.0001108381 0.0001445297 8.40035e-05 -0.0001141886 -0.3577615441 0.7673713483
560296640.0 -0.3567974699 0.7659405962 -0.0003135688 -0.0001051941 -0.0002566672 4.01304e-05 -0.3499587708 0.7705191294
565296610.0 -0.3485999231 0.7702670785 7.85712e-05 0.0001529658 7.09529e-05 -3.49748e-05 -0.3420456809 0.77390024
570296580.0 -0.3418009063 0.7721213304 0.0001962085 -0.0001386482 0.0001940073 0.0001388197 -0.3348355472 0.777700845
575296550.0 -0.3337531621 0.7766940087 4.69233e-05 0.0001285937 0.000131401 8.45707e-05 -0.3260371732 0.781091884
580296520.0 -0.3259232419 0.7794041205 -2.29207e-05 -0.0001853362 -2.26689e-05 -8.74382e-05 -0.3173869128 0.7838148215
585296490.0 -0.3183134371 0.7830665745 -3.58481e-05 0.000104944 -7.48452e-05 0.0001297534 -0.3098171767 0.7873563783
590296460.0 -0.3100926539 0.7859003898 -6.25141e-05 -7.68543e-05 -2.68369e-05 -1.2915e-06 -0.3027124899 0.7906698387
595296430.0 -0.302409369 0.7880087811 0.0001178338 -0.0001480178 -3.72652e-05 -0.0002070225 -0.2945884904 0.792746342
600296400.0 -0.2944534689 0.7923776555 1.63042e-05 0.0001389978 1.00049e-05 1.2994e-06 -0.2865248563 0.7955415636
605296370.0 -0.2868599938 0.7948097592 0.0001185875 -0.0003384229 -6.02437e-05 -2.3493e-06 -0.2780219845 0.798522417
610296340.0 -0.2784067198 0.7974629409 9.2238e-06 8.58972e-05 -0.0001201328 -0.000299129 -0.2700829126 0.8009719257
615296310.0 -0.2695753927 0.7998536202 0.0001694338 0.0001531865 2.54036e-05 -7.64235e-05 -0.2611753345 0.8032734836
620296280.0 -0.2626854386 0.802390478 0.0001242721 0.0002601447 4.35484e-05 4.97486e-05 -0.2540773756 0.8064358481
625296250.0 -0.2539904093 0.8056355095 -0.0001410459 -0.000130203 -1.45912e-05 -2.33014e-05 -0.2451279408 0.8080078242
630296220.0 -0.2459177738 0.8079652659 1.56758e-05 0.000213393 3.65482e-05 0.000129663 -0.2373799416 0.8111810293
635296190.0 -0.238057107 0.8105652857 0.0001128051 0.0001193484 2.70072e-05 -0.0001078363 -0.2291707464 0.8128392451
640296160.0 -0.2304681113 0.8121789856 -5.95592e-05 7.129e-05 6.81178e-05 -5.73468e-05 -0.2210264791 0.8155493249
645296130.0 -0.2220484848 0.81521732 3.45953e-05 -3.50901e-05 0.0002226587 -0.0002668658 -0.212734759 0.8175884231
650296100.0 -0.2138431219 0.8167013579 0.0002124876 -0.0001315817 -0.0001116629 -1.47975e-05 -0.2046030651 0.8188729888
655296070.0 -0.2058293714 0.8189795897 0.0001235954 -3.14032e-05 1.9023e-06 0.0001364521 -0.1963289363 0.821135037
660296040.0 -0.1973282457 0.8202533192 -7.41327e-05 6.82465e-05 -7.20156e-05 -0.0001992611 -0.1872414751 0.8231577985
665296010.0 -0.1890753301 0.8222978874 1.24355e-05 -5.81873e-05 -0.0001574388 -0.0001307146 -0.178930724 0.8256718138
670295980.0 -0.1815667653 0.8243356888 -0.0001169663 0.0001699564 -2.35623e-05 0.0001114474 -0.1711031596 0.8268600033
675295950.0 -0.1728872241 0.8261775397 0.0001249499 -6.96013e-05 -1.95259e-05 -4.09915e-05 -0.1632023051 0.8284182974
680295920.0 -0.164458958 0.8281042482 -6.78572e-05 4.43141e-05 1.91494e-05 -8.08053e-05 -0.1544343622 0.8307372291
685295890.0 -0.1561997645 0.8300486701 -0.0001472071 -6.81532e-05 -5.87605e-05 -7.70435e-05 -0.1455998331 0.831416201
690295860.0 -0.1483341771 0.830857516 2.97801e-05 -3.95667e-05 -1.31488e-05 -0.0001587243 -0.1379928094 0.8339991245
695295830.0 -0.1401524527 0.8322869798 -1.9548e-06 7.04615e-05 -0.0001302361 -0.0002084768 -0.1289831267 0.8345241181
700295800.0 -0.1314745025 0.8340132028 -9.83152e-05 -0.0003201744 -9.20357e-05 -9.16664e-05 -0.1212875154 0.8362177547
705295770.0 -0.123623206 0.8352528584 -8.61203e-05 0.000201946 0.0002117028 3.32252e-05 -0.1126684534 0.8381477856
710295740.0 -0.1149851851 0.8362789089 -0.0002258625 -2.18312e-05 -0.0002191509 -0.0001074749 -0.1043898496 0.8387175567
715295710.0 -0.107085837 0.8372414597 7.52941e-05 0.0001653075 -6.87936e-05 1.27018e-05 -0.0959475003 0.8398313026
720295680.0 -0.0984690094 0.8384955915 7.29658e-05 -4.25657e-05 1.2634e-05 6.25635e-05 -0.0871899781 0.8412959994
725295650.0 -0.0899982944 0.839436469 -5.19224e-05 8.04626e-05 -9.20714e-05 -2.52959e-05 -0.0789886649 0.8416377395
730295620.0 -0.0813729257 0.8401911268 -6.77302e-05 -0.0001602307 -1.97038e-05 -0.0001625502 -0.0712732678 0.8422468913
735295590.0 -0.073520933 0.8414489605 -0.0002207465 -1.72382e-05 -6.3535e-05 2.96308e-05 -0.0629788579 0.8424398674
740295560.0 -0.0649440622 0.8417026104 -1.28842e-05 2.4066e-06 0.0001456425 -8.60321e-05 -0.0538682826 0.8439335416
745295530.0 -0.0566669964 0.8423907695 -5.16444e-05 -3.34939e-05 -1.93156e-05 5.49852e-05 -0.045814072 0.843778015
750295500.0 -0.0481781169 0.8425449347 -0.0002737372 -0.0001415279 -1.05189e-05 -4.16896e-05 -0.037482602 0.8442434765
755295470.0 -0.0397623677 0.8430670559 -0.0002484019 0.000163496 -0.0001333333 -0.0001414364 -0.0286336242 0.8439891789
760295440.0 -0.0316870632 0.8433680565 -0.0001062038 7.6122e-06 0.0001805105 -3.16255e-05 -0.0207721686 0.8444699442
765295410.0 -0.0236045212 0.8438730247 -4.83344e-05 -0.0001182994 -5.99668e-05 3.85622e-05 -0.012201194 0.8449464141
770295380.0 -0.0156847834 0.843716223 4.60881e-05 -0.0001154778 -5.43102e-05 -2.31797e-05 -0.0035627242 0.8448614578
775295350.0 -0.0071721603 0.8442168078 0.0002304111 0.0001614049 -4.19691e-05 -9.83575e-05 0.0040293154 0.8443611371
780295320.0 0.0015924282 0.8440751675 6.08683e-05 0.0001201072 -6.57553e-05 -7.99912e-05 0.0125870261 0.8445970346
785295290.0 0.0093946873 0.8433483836 0.0001722599 0.0001225108 -5.36979e-05 1.38913e-05 0.0215538312 0.8440155401
790295260.0 0.0189547933 0.8438154973 2.3828e-05 0.0001501103 4.64113e-05 0.0002026484 0.030442048 0.8440557961
795295230.0 0.0263415654 0.8434426228 -0.0001128246 6.57312e-05 0.0001642462 -9.73973e-05 0.0387776915 0.8429968144
800295200.0 0.034448926 0.8425308466 -1.25387e-05 6.36467e-05 -0.0001759201 0.0001584478 0.0475452239 0.8428125804
805295170.0 0.0436420386 0.843155529 9.03033e-05 -0.0001060249 6.22727e-05 5.87011e-05 0.0550721053 0.8423192985
810295140.0 0.0519427972 0.8421062867 -7.60357e-05 4.34466e-05 -7.91931e-05 -8.02047e-05 0.0639119998 0.8414986796
815295110.0 0.0600001871 0.8419438396 8.78735e-05 3.59651e-05 0.0001738587 -6.41552e-05 0.0725250532 0.8403039804
820295080.0 0.0680542959 0.8408228605 -5.76582e-05 -0.0001185543 -5.24082e-05 5.77413e-05 0.0803362275 0.8403334257
825295050.0 0.0772123031 0.8402130049 0.0002638788 0.0001552064 -7.9262e-06 5.92274e-05 0.088863201 0.839634693
830295020.0 0.0845072667 0.8394695365 0.0002410478 -0.0001158974 0.0001253659 9.74153e-05 0.0980401665 0.8383836406
835294990.0 0.0924763107 0.8386312658 -0.0001476719 -1.49483e-05 5.85218e-05 -0.0001708987 0.1056636029 0.8377724085
840294960.0 0.1006551638 0.8378598628 4.2832e-06 6.39359e-05 0.0001469511 -2.32572e-05 0.1142271407 0.8363035858
845294930.0 0.109208536 0.8365201742 -0.0001282202 0.0001953657 2.46781e-05 -0.0001050122 0.1220734126 0.8345468599
