!Created with skrf (http://scikit-rf.org).
# Hz S RI R 50.0 
!freq ReS11 ImS11 ReS21 ImS21 ReS12 ImS12 ReS22 ImS22
300000.0 -0.7734422399 -0.1444182446 0.0003764801 -0.0010372091 -9.49749e-05 0.0017032765 -0.0458404861 -0.0676402029
5299970.0 -0.7855343961 -0.0073433137 7.63137e-05 0.0001416328 0.0001617163 -5.35781e-05 -0.0495647245 0.0147615048
10299940.0 -0.7878492568 -0.0044216854 -8.4004e-06 8.07607e-05 -0.0002005416 0.0001498285 -0.0440277097 0.0321596269
15299910.0 -0.7934598603 -0.0015005036 -0.0002343293 1.56012e-05 2.35901e-05 1.3918e-06 -0.0354803624 0.046450132
20299880.0 -0.7995704399 0.0026042304 0.0001371966 0.0001237822 8.58688e-05 9.06634e-05 -0.0257411899 0.0586073059
25299850.0 -0.8060996078 0.0083417307 -0.0001149895 5.22584e-05 -0.0001211911 -9.20458e-05 -0.0151031964 0.0675002684
30299820.0 -0.8123046146 0.0161615991 0.0001720858 2.10208e-05 5.19807e-05 -1.64554e-05 -0.0039585772 0.0747874184
35299790.0 -0.8166354552 0.0249570246 5.34493e-05 2.93948e-05 -0.0002922579 2.43148e-05 0.0076417106 0.079494026
40299760.0 -0.8214731361 0.0342301027 3.88928e-05 3.04339e-05 -1.73578e-05 -9.91648e-05 0.0187303101 0.0822600464
45299730.0 -0.8245199564 0.0438610573 -3.95503e-05 1.44673e-05 -7.05458e-05 -3.3003e-05 0.0292196343 0.0839820242
50299700.0 -0.8270671306 0.0538246648 -0.0001353718 7.53101e-05 -5.7532e-05 4.95988e-05 0.0396552785 0.083939931
55299670.0 -0.8285970795 0.064088624 0.0001005592 -5.66764e-05 -7.22897e-05 -0.0002244498 0.0481465441 0.0834389582
60299640.0 -0.8296577442 0.0743920592 3.82809e-05 0.0002384605 -5.11e-08 1.56835e-05 0.0571462708 0.0815459656
65299610.0 -0.8311912002 0.0849650378 0.0001184336 -6.05821e-05 9.33686e-05 0.0001719388 0.0647364693 0.0795066472
70299580.0 -0.8314136859 0.0943546105 7.31656e-05 0.0001315533 -9.1899e-06 -0.0001073202 0.07196145 0.0764323423
75299550.0 -0.831293737 0.1048677034 -5.35462e-05 0.0001150306 0.0001274549 0.0002509193 0.0783849802 0.0734031673
80299520.0 -0.831404802 0.1149242326 -3.40636e-05 -6.95638e-05 -8.83814e-05 -6.5541e-06 0.083426221 0.0700170736
85299490.0 -0.830869605 0.1241118559 -7.95652e-05 0.0001621851 7.83292e-05 0.0001165283 0.0887378484 0.0664529388
90299460.0 -0.8294794153 0.1337117714 0.0001422384 0.0001943513 0.0001367501 0.0001479249 0.0936123293 0.0628362745
95299430.0 -0.8286315901 0.1439556515 0.0001206479 -1.55737e-05 3.44513e-05 0.0001404891 0.0977021284 0.0589200911
100299400.0 -0.8280487992 0.153144785 -0.0001023839 0.0001286138 0.0002148581 0.0001524987 0.1009258166 0.0552205561
105299370.0 -0.8268610575 0.1622267439 -5.72335e-05 0.0001379079 0.0001155747 8.42774e-05 0.1045856512 0.0516144501
110299340.0 -0.8251811731 0.1709535684 7.8672e-06 9.6861e-05 5.40326e-05 0.0002197815 0.1071531959 0.047810629
115299310.0 -0.8238893544 0.180440288 0.0001304202 -3.57014e-05 -3.02273e-05 0.0002307744 0.1099670528 0.0434162485
120299280.0 -0.8222845239 0.189550303 0.0001059141 0.000131704 0.0001871674 0.0001076842 0.1123960533 0.039950613
125299250.0 -0.8205095418 0.1986340559 8.99937e-05 6.52393e-05 -4.57704e-05 0.0001031123 0.1144919567 0.0361478372
130299220.0 -0.8185705666 0.2076148704 0.0001010596 0.0001009986 0.0001190597 9.68671e-05 0.1157017171 0.0326480352
135299190.0 -0.8166307934 0.2165777836 -1.73722e-05 3.5229e-05 2.7075e-05 -3.1533e-06 0.1174494041 0.0288368933
140299160.0 -0.8144803252 0.2256255515 -1.35883e-05 8.78421e-05 0.0001261519 4.59651e-05 0.1190840045 0.0253992937
145299130.0 -0.8123252071 0.2344076964 0.000165344 0.0001096992 3.11771e-05 -0.000177912 0.1197944419 0.0222011105
150299100.0 -0.8099610189 0.2434633103 -4.92782e-05 -0.0001475362 0.0001158587 0.0002794179 0.1208493158 0.01863227
155299070.0 -0.8077327477 0.2523018985 0.0002675936 2.19427e-05 -5.81443e-05 0.0001920348 0.1217907652 0.0154691335
160299040.0 -0.8044539277 0.2613319708 -9.22446e-05 7.83972e-05 1.29535e-05 7.80718e-05 0.1224347481 0.0120100307
165299010.0 -0.8019519076 0.2693840587 0.0001019958 -8.8708e-06 0.0002309788 7.54064e-05 0.1229097524 0.0088428657
170298980.0 -0.7998397878 0.2779355602 -1.63736e-05 -0.0001292991 0.000189422 3.39008e-05 0.1235244295 0.0060756862
175298950.0 -0.7971504985 0.2872116077 0.0001812826 -0.0001001216 0.000103364 1.46767e-05 0.1240161279 0.0027508041
180298920.0 -0.7940226237 0.2951382046 6.19887e-05 4.44563e-05 8.62637e-05 0.0001733879 0.1242935064 -6.56619e-05
185298890.0 -0.7908949099 0.3044345348 8.9944e-06 0.0003948903 0.0001133801 4.00579e-05 0.1241574998 -0.0031190947
190298860.0 -0.7873618221 0.3123050011 0.0001327716 5.30873e-05 0.0002445876 0.0001089375 0.1243904273 -0.0057098673
195298830.0 -0.7842581474 0.3210200378 0.0003184462 0.0001995841 -7.5881e-06 0.0003256484 0.1244331531 -0.0084896225
200298800.0 -0.781003773 0.3295083218 4.9301e-05 1.15121e-05 0.0002268184 0.0001683458 0.1244684444 -0.0113030083
205298770.0 -0.7772822092 0.3374253208 3.67699e-05 -0.0001328094 -1.24786e-05 0.0001217518 0.124192214 -0.0138733281
210298740.0 -0.7738689297 0.3459764759 0.0001563161 0.0001349431 0.00018075 -0.0001518453 0.1242274857 -0.0163219758
215298710.0 -0.7702805458 0.3541614669 0.0002898614 -0.0001361971 5.42121e-05 -4.40817e-05 0.1235508405 -0.0186526347
220298680.0 -0.7669584069 0.3622449852 -7.93207e-05 9.54896e-05 0.0004034922 -7.8255e-06 0.1235507845 -0.0206993697
225298650.0 -0.7631004509 0.3706952109 0.0002648104 0.0002733531 0.0001467343 0.0001192887 0.1226694146 -0.0231678105
230298620.0 -0.7581443677 0.3786343996 -2.01621e-05 6.28136e-05 7.45575e-05 2.00307e-05 0.1227465077 -0.0257572673
235298590.0 -0.7548146925 0.3873339831 9.10312e-05 -8.86699e-05 3.55976e-05 1.49521e-05 0.1221903121 -0.0284189403
240298560.0 -0.7507813164 0.395185903 0.0001332681 0.0001518265 4.13542e-05 0.0001986897 0.1217949879 -0.0302800875
245298530.0 -0.746711656 0.4030053785 0.0001270183 0.0003706332 0.0001858871 0.0001356834 0.1213402736 -0.032485799
250298500.0 -0.7427155812 0.4106211248 8.96975e-05 9.81166e-05 0.0001798234 -4.47202e-05 0.1208791177 -0.0345636693
255298470.0 -0.7372713801 0.4183181456 0.000127032 4.94993e-05 0.0003447649 6.12227e-05 0.1198048873 -0.0364698084
260298440.0 -0.7338013528 0.4256442442 0.0002573728 6.91821e-05 -7.47338e-05 0.0002130836 0.1195118654 -0.0388517483
265298410.0 -0.7291360468 0.4341188461 0.0001212447 0.0001994302 0.0002482636 0.0001104893 0.1187750178 -0.0409232906
270298380.0 -0.7244196834 0.4415474216 -1.75529e-05 6.05838e-05 0.0001540882 0.000219876 0.11863057 -0.0424969561
275298350.0 -0.7193052564 0.4489307693 0.0002242957 0.0002528897 0.0001676388 4.927e-07 0.117778889 -0.0442826082
280298320.0 -0.7150904535 0.4562706691 7.7691e-06 0.0001012693 0.0001594632 0.0002658051 0.1169847157 -0.0463926628
285298290.0 -0.710195922 0.4648558602 0.0002094367 -3.22582e-05 0.0001421879 5.4886e-05 0.1160343199 -0.048287451
290298260.0 -0.7054237879 0.4719140992 0.0001069019 0.0001393988 0.0004425704 7.45766e-05 0.1156334161 -0.0498104215
295298230.0 -0.7006852851 0.4790153519 0.0003270798 0.0004235047 0.0002548331 0.0001772217 0.1145770228 -0.0517987961
300298200.0 -0.6949028199 0.4865006312 0.0001025769 0.0002061279 1.4104e-05 6.35139e-05 0.1137341084 -0.0532540282
305298170.0 -0.6900919731 0.493996348 0.0003046093 0.0001095479 6.78712e-05 0.0001691754 0.1134070323 -0.0549713299
310298140.0 -0.6845300115 0.5008902422 0.0001240699 -3.8047e-05 0.000162962 5.0261e-05 0.1123782065 -0.0565861002
315298110.0 -0.6797704495 0.5080092892 9.10719e-05 0.0002698204 6.26357e-05 0.000140015 0.1117295567 -0.0584595704
320298080.0 -0.6742516094 0.5154309531 0.0001624159 0.0001680363 8.39959e-05 0.0003027923 0.1108790605 -0.0604635435
325298050.0 -0.6688782773 0.5222361786 7.64136e-05 0.000117394 0.0003024165 8.58309e-05 0.1096378087 -0.0621959336
330298020.0 -0.6625928491 0.5289860752 0.0001201309 0.0002518225 9.7719e-05 5.50668e-05 0.1088392641 -0.0639152677
335297990.0 -0.6567133979 0.5361863624 0.0003017446 6.20174e-05 0.0003217497 8.01096e-05 0.1071172487 -0.0655525386
340297960.0 -0.6521388167 0.5432854637 0.0001228564 0.0003679352 0.0003146337 7.79704e-05 0.1063569072 -0.0670749268
345297930.0 -0.6458979475 0.5492145066 0.0001668786 -3.85297e-05 8.5205e-05 0.0001974392 0.1051935459 -0.0680933053
350297900.0 -0.6401098968 0.5557934113 4.05582e-05 0.0001313495 0.0002455043 0.000279703 0.1038163394 -0.0694276724
355297870.0 -0.6344944456 0.5627106272 -4.73856e-05 0.0002722485 8.23768e-05 4.12464e-05 0.1025765538 -0.0706341703
360297840.0 -0.628371244 0.5690780883 0.0002562313 0.0002074074 8.14219e-05 8.86235e-05 0.1015042175 -0.0718385138
365297810.0 -0.6221916302 0.5757371439 0.0002388584 1.61938e-05 0.0001428857 -3.87816e-05 0.1001760648 -0.0728074314
370297780.0 -0.6165847605 0.5816494877 0.00021018 0.0001198319 0.0003128041 0.0002579826 0.0989148446 -0.074351225
375297750.0 -0.6101191544 0.5881983052 0.0002697215 -0.0001072246 0.0002410764 -7.29318e-05 0.0982366049 -0.0754233653
380297720.0 -0.6038930432 0.5951874154 0.0001869344 -1.82656e-05 0.0004306146 0.000148914 0.0972837256 -0.0764783375
385297690.0 -0.5978796779 0.6012094275 0.0001452441 -1.30431e-05 0.0001265401 0.0001133477 0.095666995 -0.076977039
390297660.0 -0.5916192141 0.6074573979 6.34407e-05 7.57316e-05 0.0003755678 -5.55436e-05 0.094399704 -0.0787804564
395297630.0 -0.5852991356 0.6133158833 0.0003534137 0.0001894653 0.0003916097 0.0001243975 0.0932515798 -0.079527042
400297600.0 -0.5789021874 0.61906312 0.0001095841 1.11857e-05 0.0003904676 0.0001058648 0.0918996611 -0.0808372333
405297570.0 -0.5723569706 0.6252876668 0.000597842 3.30851e-05 0.0002952027 0.0003212976 0.090789895 -0.0818665786
410297540.0 -0.5661427599 0.6309367659 -1.1566e-05 0.0002037754 0.0001862833 9.09633e-05 0.0895710294 -0.0826093512
415297510.0 -0.5585867956 0.6369022119 0.0001162648 0.0002059032 0.0002264408 0.0003251508 0.0880616961 -0.0835780877
420297480.0 -0.552349157 0.6421980382 0.0001472128 0.0001499981 -1.46115e-05 5.84202e-05 0.0868936967 -0.0848494951
425297450.0 -0.5457238917 0.6479666938 0.0001121637 0.0001082707 9.01305e-05 6.43121e-05 0.0858677692 -0.0855116256
430297420.0 -0.5391012514 0.653779771 0.0004322968 0.0003449608 6.8864e-05 4.40346e-05 0.0843480687 -0.086380122
435297390.0 -0.5318083596 0.6591106384 0.0003498784 7.24367e-05 7.68424e-05 0.0001480977 0.0832730277 -0.0871065323
440297360.0 -0.5255534844 0.6644141211 0.0002712976 0.0001887384 0.0001120219 6.71684e-05 0.0818314648 -0.0883551234
445297330.0 -0.5181014686 0.6697152789 0.000407818 7.15872e-05 0.0002287793 4.91369e-05 0.0804763224 -0.0889982641
450297300.0 -0.5112883711 0.6748334264 0.0001909955 0.0002490545 0.0003729653 -2.89743e-05 0.0789437571 -0.0901666435
455297270.0 -0.5044786522 0.680985417 0.0004795273 -2.7586e-05 0.0002103143 1.54497e-05 0.0778601099 -0.0908497158
460297240.0 -0.4977223637 0.6851713937 4.42831e-05 0.0001433012 0.0001186486 3.77459e-05 0.0769624248 -0.0915243676
465297210.0 -0.4902137577 0.6905505727 0.0001120663 0.000375388 0.000371868 5.18046e-05 0.074900871 -0.0925067117
470297180.0 -0.4829959371 0.6946010325 0.0002111389 -7.7059e-06 0.0003064154 0.0002078473 0.0734435409 -0.0929279874
475297150.0 -0.4758146878 0.7005336477 0.0002734135 8.6453e-06 0.0002046548 -2.10567e-05 0.0726598888 -0.0938511909
480297120.0 -0.468882411 0.7046550169 0.0001972568 7.99289e-05 0.000249112 9.91341e-05 0.070891054 -0.094380878
485297090.0 -0.4610187792 0.709419538 0.0001403783 0.0001202511 0.0001451532 0.0001044565 0.0696549479 -0.0951528441
490297060.0 -0.4542171219 0.7138989722 0.0003161337 6.81192e-05 0.000325124 0.0004233703 0.0682933532 -0.0958897018
495297030.0 -0.4470959047 0.7191254434 0.00034507 0.0002697886 0.0002595499 0.0001583742 0.066688202 -0.0967045378
500297000.0 -0.4382959318 0.7233603403 -0.0001624655 -9.17128e-05 0.000269813 0.000143561 0.0653020668 -0.0972317776
505296970.0 -0.4315839869 0.7269009994 0.0002311002 6.33804e-05 0.0003026721 6.78273e-05 0.0637887866 -0.0979134425
510296940.0 -0.4243829201 0.731974088 0.0002332155 7.669e-06 9.98605e-05 -1.57328e-05 0.0624444544 -0.0983117172
515296910.0 -0.4167720584 0.7362048272 0.0004597762 0.0001832584 0.0002862122 0.0002133032 0.0612000642 -0.0987630032
520296880.0 -0.4089289533 0.7407482515 0.0001670071 -0.0001955475 0.000243274 0.0002236363 0.0599811196 -0.0995406851
525296850.0 -0.4018729666 0.7448177376 0.0004662735 0.0001126848 0.0002842755 0.0001052897 0.0583741846 -0.1000319031
530296820.0 -0.3943693275 0.7480916608 0.0001983744 0.0003212634 0.000324664 0.0002318789 0.0566501651 -0.1007580867
535296790.0 -0.3859823741 0.7523707471 0.0002966889 -0.000278078 0.0002810735 7.14431e-05 0.054964959 -0.1015218092
540296760.0 -0.3780809506 0.7559990172 0.0002316891 0.0001795815 0.0003517769 1.04258e-05 0.05354148 -0.1015736477
545296730.0 -0.3709955892 0.7596536897 0.0003351336 0.0001190681 0.0002195896 8.23724e-05 0.0523065751 -0.1022639746
550296700.0 -0.3632382242 0.7631614904 0.000258252 -4.08848e-05 0.000132559 0.0001374043 0.0511495809 -0.1024911962
555296670.0 -0.3548093891 0.7672219249 0.0003326526 -7.16132e-05 0.0003042457 8.40849e-05 0.0492107366 -0.1027183185
560296640.0 -0.3472367665 0.7705253006 0.000415333 9.80796e-05 0.0003471146 1.95022e-05 0.048013454 -0.1036554395
565296610.0 -0.3395800689 0.7741698321 0.0005316332 0.0002094712 0.0005224303 0.0001935911 0.0464821248 -0.1039549016
570296580.0 -0.3316781229 0.7774818338 0.0002985101 0.0002593438 0.0003410592 0.0002619038 0.04512745 -0.1039245694
575296550.0 -0.3235556094 0.7808280397 0.0003214233 7.75163e-05 0.000344185 -0.0001167328 0.0435449181 -0.104679963
580296520.0 -0.3154736809 0.7843948116 0.0001769897 0.0002902135 0.0002406307 -9.84597e-05 0.0422543339 -0.1048166049
585296490.0 -0.3078025577 0.7864888679 0.000244083 0.0002220166 0.0004777593 0.0001506733 0.0405577515 -0.1055866742
590296460.0 -0.299548104 0.7901188328 0.0002371794 9.20338e-05 0.0002399546 0.0001652682 0.0394277111 -0.1058171409
595296430.0 -0.291218893 0.7936123851 0.0003196829 -0.0001642298 0.0004348407 3.56646e-05 0.0376593995 -0.1057770336
600296400.0 -0.2832304525 0.7955656556 0.000587725 -5.37898e-05 0.0004657267 -1.39064e-05 0.0361352165 -0.1062806624
605296370.0 -0.2749235275 0.7988065851 0.0002882933 0.0001029117 0.000250023 6.59498e-05 0.0347290784 -0.1063378796
610296340.0 -0.267720216 0.8014821118 0.0004613022 0.000264506 0.0001911469 0.000155787 0.0327859558 -0.1063349565
615296310.0 -0.2593526975 0.8042694651 0.0003865612 0.0002807915 0.0003400535 0.0002024071 0.0315609108 -0.1070326334
620296280.0 -0.2508094759 0.8061836545 0.0004210986 -1.77543e-05 0.000535219 0.0001045903 0.0298936166 -0.1073481694
625296250.0 -0.242612017 0.8092239411 0.0004883481 1.36064e-05 0.0003104842 6.939e-05 0.0284748761 -0.1072126404
630296220.0 -0.2335398815 0.8117751162 0.0004387255 -4.18598e-05 0.0005781855 0.000129124 0.0274125416 -0.1073223195
635296190.0 -0.2259284653 0.8140554911 0.0004636549 -0.0002589759 0.0003551379 0.0001834064 0.0257620207 -0.1073607106
640296160.0 -0.2174604579 0.8156333425 0.0004652074 8.58887e-05 0.0003105187 0.0001237597 0.024528102 -0.1076799665
645296130.0 -0.2098730643 0.818193311 0.0006291342 0.0002473459 0.0003042469 -8.11865e-05 0.0226615836 -0.1078815853
650296100.0 -0.2017106187 0.8196024415 0.0004350342 -3.05993e-05 0.0004307404 2.51862e-05 0.0209556659 -0.1077639426
655296070.0 -0.1930998843 0.8219272354 0.0002667186 -0.0001787425 0.0006213397 -0.0001212936 0.0198486928 -0.1074806858
660296040.0 -0.1850950433 0.8243304784 0.000298405 0.0002369382 0.0004273441 -8.50483e-05 0.0182943735 -0.1078404382
665296010.0 -0.1769399593 0.8257318553 0.0002920015 9.1966e-06 0.0004676456 0.0002430408 0.0170465488 -0.1078774299
670295980.0 -0.1677751196 0.8277552006 0.0005205775 -0.0003795347 0.000327612 -5.15833e-05 0.0153932712 -0.107734363
675295950.0 -0.1596042313 0.8286405376 0.000582832 8.49031e-05 0.0003479654 -1.0782e-06 0.014024772 -0.1077327907
680295920.0 -0.1517935313 0.8306465178 0.0003583481 -3.48599e-05 0.0004645692 7.85937e-05 0.0123316588 -0.1078705515
685295890.0 -0.1426224071 0.8315905169 0.0004651509 2.4218e-05 0.0003281528 0.0001220991 0.0110240112 -0.1077745277
690295860.0 -0.1343083772 0.8335710939 0.000178735 -3.8089e-06 0.0004319388 6.7194e-06 0.0098771815 -0.1073222561
695295830.0 -0.1256876413 0.8342685533 0.0004743384 -0.0001072277 0.0004127112 -1.08955e-05 0.0082132624 -0.1074917863
700295800.0 -0.1177483107 0.8358617434 0.0004575405 -0.0001129662 0.0003380315 -0.0001446262 0.0068770317 -0.1078846178
705295770.0 -0.1091454395 0.8375585694 0.0003393113 0.0001981869 0.0003107157 5.75816e-05 0.0052190596 -0.1071105282
710295740.0 -0.1010948543 0.8387275813 0.0004602454 0.0002234312 0.0003131619 -0.0001180457 0.0036363516 -0.1067472174
715295710.0 -0.0928930368 0.8390788035 0.00045427 7.56387e-05 0.0004746624 0.0002654643 0.0023777935 -0.1070027909
720295680.0 -0.0844137012 0.839773042 0.0004145464 0.0001412716 0.0004172633 -3.57565e-05 0.0011446275 -0.1066725605
725295650.0 -0.0750113313 0.8406781248 0.0003857877 -0.0002747952 0.0004223081 -2.67754e-05 -0.0005658711 -0.1066939657
730295620.0 -0.0676653967 0.8411567414 0.0002932292 -0.0001899208 0.0004138642 -0.0001971574 -0.0018942274 -0.1063560608
735295590.0 -0.0582070591 0.8419664213 0.0005986032 -0.0002354559 0.0003031568 -4.6714e-06 -0.0032568062 -0.1062957773
740295560.0 -0.0501202091 0.8428748799 0.0004339521 -5.91269e-05 0.0002270866 8.16347e-05 -0.0047514151 -0.1062600509
745295530.0 -0.041653096 0.842822085 0.0002215264 -0.0002009989 0.0004082474 -0.0001251818 -0.0063442962 -0.1056333413
750295500.0 -0.0337411704 0.8431523106 0.0003829838 -9.72366e-05 0.0004405254 -0.0001360904 -0.0075899449 -0.1054928476
755295470.0 -0.0239775757 0.8435825696 0.0002289927 -1.6242e-05 0.0004459058 -5.04208e-05 -0.0089052301 -0.1048074693
760295440.0 -0.015954775 0.8435663326 0.0004497289 1.8235e-06 0.0006095859 -6.52011e-05 -0.0105104255 -0.1047963358
765295410.0 -0.0077683589 0.8435744152 0.0005399335 8.1612e-05 0.0003304572 0.0001074642 -0.0116584372 -0.1040380064
770295380.0 0.0009195349 0.8438937718 0.0005025613 1.33741e-05 0.0004794146 6.1616e-05 -0.0127872096 -0.1036347876
775295350.0 0.0092473922 0.8439243508 0.0004454547 -5.51079e-05 0.0004246007 6.96571e-05 -0.0147760538 -0.1039992059
780295320.0 0.0181177231 0.8432195873 0.0006533855 -7.09135e-05 0.0004626895 0.0001227465 -0.0161630372 -0.1028759598
785295290.0 0.0260463356 0.8435044904 0.0002398164 -5.33328e-05 0.00040122 -3.36691e-05 -0.0172604586 -0.1024161549
790295260.0 0.0346276517 0.8435101038 0.0003217116 3.5121e-05 0.0004256818 -0.000101493 -0.0186448859 -0.1021841108
795295230.0 0.0426445235 0.8434184814 0.0004162343 9.1751e-06 0.0006816357 -4.20653e-05 -0.0200289902 -0.1016084681
800295200.0 0.0512546946 0.8427130847 0.000475492 -0.0002028423 0.0002077791 7.83559e-05 -0.0214251766 -0.1014436461
805295170.0 0.0601551002 0.842028147 0.0004488031 0.0001123666 0.0003013344 -7.14191e-05 -0.0229473235 -0.1009418867
810295140.0 0.0680604737 0.8413124215 0.0003891852 -3.47877e-05 0.0003699218 0.0001805527 -0.0235856394 -0.0999464629
815295110.0 0.0768486309 0.8399263814 0.0003516159 -0.0002381178 0.0004742498 6.06676e-05 -0.025558666 -0.099482659
820295080.0 0.0851875657 0.839023176 0.0005939611 9.2267e-06 0.0003892447 -0.0002137387 -0.0267258755 -0.099322518
825295050.0 0.0939560507 0.838391312 0.000559088 -0.0001323618 0.0002652286 -4.94182e-05 -0.027817733 -0.0985558557
830295020.0 0.1019678569 0.8380453316 0.0004559587 -0.0001057411 0.0004664629 -0.0001269427 -0.0292478932 -0.0979445969
835294990.0 0.1100862282 0.8369135221 0.0004562837 -0.0001830006 0.0003473521 -2.90922e-05 -0.0304177447 -0.0977790025
840294960.0 0.1185490907 0.8350678942 0.0002804203 -9.3586e-06 0.0003824921 -1.70076e-05 -0.0317772944 -0.0965225487
845294930.0 0.1271420675 0.8340412247 0.0003626253 -0.0003567697 0.0003401359 -0.000169392 -0.0328960752 -0.0960854362
850294900.0 0.1352637437 0.8324653721 0.0002892752 -3.41229e-05 0.0005170801 -0.0001430455 -0.0343740776 -0.0953112725
