!Created with skrf (http://scikit-rf.org).
# Hz S RI R 50.0 
!freq ReS11 ImS11 ReS21 ImS21 ReS12 ImS12 ReS22 ImS22
300000.0 -0.0932138008 -0.0997219489 0.6218673651 0.0928863611 0.6195115514 0.0931453348 -0.0947687914 -0.1042227359
5299970.0 -0.1014034388 0.0115325002 0.6304145332 0.0110644354 0.6310470832 0.0113437097 -0.1014438213 0.0113045528
10299940.0 -0.0969391099 0.0286904842 0.6346815717 0.0158824141 0.6341317316 0.0166456876 -0.0967442455 0.0285451785
15299910.0 -0.0891225767 0.0424545157 0.6406057174 0.0210970103 0.6407833071 0.0209951443 -0.0899178165 0.0420121485
20299880.0 -0.0803417182 0.0534666509 0.6491396556 0.024274899 0.649084969 0.0242286814 -0.080969477 0.0528387667
25299850.0 -0.0704393052 0.0623292691 0.6583468889 0.0258851821 0.6584952287 0.0256817831 -0.0716725661 0.0619575204
30299820.0 -0.0607032442 0.0687133455 0.6679639007 0.0241720337 0.6677211722 0.024501807 -0.0618991917 0.0686104299
35299790.0 -0.0507018072 0.0733937814 0.6772424569 0.022296283 0.6775497791 0.0217369304 -0.0523358594 0.0736359845
40299760.0 -0.0411416759 0.0765130873 0.6868855591 0.0178670377 0.6867670001 0.0178506397 -0.0424721165 0.0770047894
45299730.0 -0.031841303 0.0781256857 0.6956700583 0.0127641681 0.6961014309 0.0120721842 -0.033014308 0.078880329
50299700.0 -0.0226296251 0.0789564435 0.7034197152 0.0051120042 0.7037057263 0.0048127543 -0.0243661279 0.0801483086
55299670.0 -0.0155797531 0.079083643 0.711297339 -0.0024479227 0.7105662749 -0.0022608447 -0.0175689616 0.0805267617
60299640.0 -0.0076047862 0.0785265399 0.7179398981 -0.0108574208 0.7177624294 -0.0107536486 -0.0095666241 0.0794319775
65299610.0 -0.0012631558 0.0772348052 0.7240549909 -0.0198624425 0.7240883157 -0.0195763437 -0.0027221649 0.0787150211
70299580.0 0.0052455712 0.0752141958 0.7295421502 -0.0288084581 0.7293404822 -0.0289553222 0.0030086592 0.0772480707
75299550.0 0.0106063997 0.073114042 0.7337774261 -0.0393748773 0.733283861 -0.0384965684 0.0088252027 0.075441391
80299520.0 0.0152813289 0.0715474215 0.737662962 -0.0488603821 0.7381771724 -0.0488067703 0.013689129 0.0733355362
85299490.0 0.020047342 0.0688775662 0.7407856959 -0.0589327122 0.7408206388 -0.0583411441 0.0180012427 0.0709483308
90299460.0 0.0237663756 0.0667267572 0.7434724987 -0.0684363376 0.7436237898 -0.0682965446 0.0224144782 0.0692318607
95299430.0 0.028003341 0.0643204601 0.7461821275 -0.0787155212 0.7461185799 -0.0789315617 0.0259045157 0.0666342594
100299400.0 0.0314551969 0.0616621419 0.7476633467 -0.0887650543 0.7472736796 -0.0889714431 0.0289217971 0.0645742918
105299370.0 0.0346221005 0.0592297012 0.7494339774 -0.0987439964 0.7497774635 -0.0988142261 0.032676026 0.061703786
110299340.0 0.0372955425 0.0562147217 0.7505643656 -0.1086191395 0.7509140617 -0.1085115142 0.0348474463 0.059383434
115299310.0 0.0395608874 0.0542455313 0.751545062 -0.1185339281 0.75106214 -0.1184492167 0.0373583411 0.0574050061
120299280.0 0.0416134575 0.0521027543 0.7522011565 -0.1296458552 0.7518356084 -0.1292162044 0.0397028555 0.0543517764
125299250.0 0.0438937606 0.0496979189 0.7520062436 -0.1387463156 0.7520002768 -0.138496561 0.0419636976 0.0529012705
130299220.0 0.0459037248 0.0469072996 0.7521482428 -0.149440264 0.7521923442 -0.1491878471 0.0436222671 0.0506144349
135299190.0 0.0469882927 0.0452654835 0.7517141774 -0.1585302181 0.7521398744 -0.1588944622 0.0453599687 0.0480616431
140299160.0 0.0487589223 0.0433562022 0.7519090073 -0.1684325571 0.7514937609 -0.1678537532 0.0461813507 0.0457598374
145299130.0 0.0494227826 0.0410602737 0.7502863102 -0.1778267703 0.7505169154 -0.1777040109 0.0479479761 0.0436758669
150299100.0 0.0510027103 0.039450664 0.749424397 -0.1880699608 0.7492332366 -0.187689868 0.0490354171 0.0420588798
155299070.0 0.0526386039 0.0372754437 0.7477646188 -0.1974550885 0.7482064707 -0.1977970728 0.050185538 0.0396072914
160299040.0 0.0534661889 0.0354579117 0.7468641995 -0.2072459221 0.7464770967 -0.2069709091 0.0510850505 0.0382786641
165299010.0 0.0544192238 0.0334018944 0.7455075014 -0.2159711214 0.7449991976 -0.2166921478 0.052232022 0.0359497937
170298980.0 0.0551999318 0.0318282092 0.7431798777 -0.2256938174 0.7433330282 -0.226063108 0.052547302 0.0342615518
175298950.0 0.055924031 0.0304311013 0.7419124989 -0.2354312335 0.7422306027 -0.235417641 0.0533102463 0.0326130238
180298920.0 0.0563174214 0.0287330923 0.7394212671 -0.244734611 0.7391124034 -0.2444461159 0.0540876388 0.0308035291
185298890.0 0.0569535118 0.0273764846 0.7379337319 -0.253980573 0.7374100643 -0.2533314666 0.0551914864 0.0290884319
190298860.0 0.0578023293 0.025687027 0.7344515237 -0.2627146349 0.7351234737 -0.2623699039 0.0551555242 0.0273668759
195298830.0 0.0579316045 0.0242427148 0.7324329005 -0.2716620084 0.7323524407 -0.271764303 0.055884344 0.0259722648
200298800.0 0.0584747355 0.0225412139 0.7298057984 -0.2810883462 0.7299023653 -0.2809773937 0.0563736818 0.0240979933
205298770.0 0.0582185013 0.0208997181 0.7269938463 -0.2890768362 0.727416797 -0.2891950117 0.0570385957 0.0226822972
210298740.0 0.0590501333 0.0199905196 0.7247199342 -0.2979448058 0.7236029795 -0.2983916071 0.056598832 0.0206401005
215298710.0 0.0594826458 0.0185548902 0.720818979 -0.3066903042 0.7210015001 -0.3067861101 0.0571448507 0.0201540943
220298680.0 0.0595465451 0.0176810537 0.7172389413 -0.3153264839 0.7173284731 -0.3156794768 0.0573490601 0.0180930085
225298650.0 0.0596899966 0.0161712119 0.7137754409 -0.3246401029 0.7148525531 -0.3237525188 0.0577837758 0.0166916064
230298620.0 0.0602978342 0.0150298062 0.7115057119 -0.3328952846 0.7114615223 -0.3329052483 0.0572310082 0.0153635809
235298590.0 0.0597200316 0.013831561 0.7078328289 -0.342020153 0.7078026826 -0.3412763287 0.0576849966 0.0140090368
240298560.0 0.0604587453 0.012980695 0.7039029948 -0.3495920077 0.7040255667 -0.3492712549 0.0577748666 0.0127309784
245298530.0 0.0603579128 0.0113063245 0.7002598613 -0.3578837224 0.7000482585 -0.3579540382 0.0578994315 0.0117520837
250298500.0 0.0602834377 0.010181117 0.6968433472 -0.3660280812 0.6964964796 -0.3657478584 0.0574822319 0.0106183943
255298470.0 0.0604340539 0.0096853439 0.6929798627 -0.3736341225 0.6931470069 -0.374141836 0.0581392542 0.0100041583
260298440.0 0.0604595376 0.0082695123 0.6893788479 -0.3812373007 0.6891121692 -0.3818709019 0.0576833249 0.0081426253
265298410.0 0.0599189681 0.0076138313 0.6849043041 -0.3906050432 0.6847175704 -0.3909899824 0.0590937959 0.006650333
270298380.0 0.0601767555 0.0062082984 0.6806442551 -0.3984302633 0.6807790138 -0.3982551876 0.0583606623 0.0058800862
275298350.0 0.0604207409 0.0056381146 0.6759397083 -0.4060145388 0.6754056982 -0.4062250544 0.0577506941 0.0050435507
280298320.0 0.0599604621 0.0046093783 0.6721052311 -0.4133783547 0.6720931025 -0.4141818246 0.0583762953 0.00409927
285298290.0 0.060210288 0.0037547034 0.6674513496 -0.4216759498 0.6674108125 -0.421827007 0.0580837727 0.002553738
290298260.0 0.0599202937 0.002876099 0.6638829069 -0.4294535781 0.663157718 -0.4294899997 0.0583835208 0.0017206545
295298230.0 0.0600045474 0.001326467 0.6588163665 -0.4378592348 0.6583556408 -0.4376744856 0.0578420658 0.0001535576
300298200.0 0.0602958552 0.0009908935 0.6541626692 -0.4449222777 0.6534694448 -0.4448679958 0.0576628515 -0.0007673634
305298170.0 0.0599921762 -0.0008000021 0.6491063764 -0.4528188059 0.649546846 -0.4530133929 0.0578687202 -0.0023496552
310298140.0 0.0605641313 -0.001607445 0.6451018197 -0.4602726603 0.6445588762 -0.4603085034 0.057925737 -0.0035665663
315298110.0 0.0598945101 -0.0031838195 0.6395423205 -0.4683912863 0.6389411452 -0.4687009666 0.0576867657 -0.0046395141
320298080.0 0.0597280999 -0.0038106735 0.6338192868 -0.4755867399 0.6342787304 -0.4762503647 0.057187656 -0.0055141431
325298050.0 0.0585627778 -0.0053043778 0.6280718782 -0.4829409668 0.6291306514 -0.4828965097 0.0567439006 -0.0069757904
330298020.0 0.0573850393 -0.0060027147 0.6230460633 -0.4905723469 0.6230173881 -0.4906624917 0.056057607 -0.008006035
335297990.0 0.0576322742 -0.0065673902 0.6172302287 -0.4971147199 0.6176514911 -0.4974861473 0.0557168953 -0.0087205266
340297960.0 0.057054651 -0.0077017444 0.6110790341 -0.5045703355 0.6112185552 -0.5042762981 0.0552849763 -0.0092350079
345297930.0 0.0563852797 -0.0083963061 0.6057324177 -0.5120027427 0.6053477031 -0.5115093151 0.0547243236 -0.0105660773
350297900.0 0.0558351261 -0.0093943981 0.6002670836 -0.5177293607 0.6001768537 -0.5180840293 0.0546100437 -0.0113848819
355297870.0 0.0555892329 -0.0098320972 0.5947838353 -0.5243194012 0.5940353256 -0.524720017 0.0546098666 -0.0120464709
360297840.0 0.0550594742 -0.0104572033 0.5882287819 -0.531436756 0.5882935787 -0.5317357309 0.0534596018 -0.012307608
365297810.0 0.0547998182 -0.0109071897 0.5830536609 -0.5379835189 0.5824031867 -0.5382336957 0.0531265383 -0.0134811946
370297780.0 0.0546550192 -0.0113712046 0.5764312788 -0.5442215968 0.5765052416 -0.5442492786 0.0530065466 -0.0140161576
375297750.0 0.0542162035 -0.0121745385 0.5708783812 -0.5504895964 0.5706585973 -0.5509596724 0.0529470013 -0.0147043148
380297720.0 0.0536601656 -0.0129345753 0.5645029243 -0.5578624259 0.5638631629 -0.5575647986 0.0523472984 -0.0150021743
385297690.0 0.0531535411 -0.013684701 0.5580922995 -0.5631740071 0.5581690268 -0.5643770125 0.0522935907 -0.0155535139
390297660.0 0.0529426744 -0.0142838846 0.5520981034 -0.5691785899 0.5521536817 -0.5695901648 0.0523254512 -0.016710657
395297630.0 0.0532756537 -0.0147182146 0.5460210221 -0.5753517927 0.545954592 -0.5754711785 0.0512357248 -0.0170484117
400297600.0 0.0521934028 -0.0158206378 0.5394082486 -0.5823270089 0.5397374039 -0.5814759288 0.0515738528 -0.0175245051
405297570.0 0.0519565302 -0.0168066026 0.5332561187 -0.5872688567 0.5334575462 -0.5878917893 0.0510082655 -0.0180002104
410297540.0 0.051686717 -0.0167751359 0.5264847306 -0.593786727 0.5267482998 -0.5935085979 0.0503751832 -0.0186512497
415297510.0 0.050794396 -0.0175752889 0.5199070232 -0.5996519265 0.5205481831 -0.5999434097 0.0505128311 -0.0190521899
420297480.0 0.0508068409 -0.0184370978 0.5133354165 -0.6054479321 0.5137323604 -0.6053769449 0.0503580976 -0.0196681586
425297450.0 0.0508690927 -0.0190322498 0.5071164005 -0.6105674894 0.5064537657 -0.6112230462 0.0500530091 -0.0206056266
430297420.0 0.0500742152 -0.0194810821 0.5007107934 -0.6166300696 0.5004515612 -0.6159937546 0.0501027683 -0.0210907641
435297390.0 0.0497424589 -0.0204660003 0.4933910417 -0.6226857452 0.4931504655 -0.6222254822 0.0487500033 -0.0214541209
440297360.0 0.0496305698 -0.0209704157 0.4860415332 -0.6279114834 0.485930078 -0.6277456796 0.0486370606 -0.0220072942
445297330.0 0.0492601746 -0.0220538335 0.48012794 -0.6325107297 0.4795734919 -0.6330453655 0.0481988019 -0.0221936705
450297300.0 0.0490156576 -0.0221679705 0.4726184064 -0.6380542755 0.4729869758 -0.6379773651 0.0481564532 -0.0228922052
455297270.0 0.0480173594 -0.0228358494 0.4659593934 -0.6432513521 0.466342637 -0.6436663295 0.0475539497 -0.0234100404
460297240.0 0.04807561 -0.0233958615 0.459283445 -0.6489453007 0.458917769 -0.6490455587 0.0473698155 -0.0240310502
465297210.0 0.047681424 -0.0240167027 0.4505996184 -0.653607696 0.4509579153 -0.6537926447 0.0476589595 -0.0238253614
470297180.0 0.0471421886 -0.0250305103 0.4440000487 -0.6585199829 0.4446083469 -0.6583571534 0.0471034527 -0.0251306218
475297150.0 0.0465451266 -0.0249433871 0.4368779382 -0.6635689465 0.4369438451 -0.6637033121 0.0466239822 -0.0257639319
480297120.0 0.0466276924 -0.0251518405 0.4296971015 -0.6683261945 0.4300217318 -0.6679437013 0.0461212124 -0.0265417126
485297090.0 0.0461040512 -0.0267575374 0.4221558228 -0.6734244808 0.4222197133 -0.6730803659 0.0458619964 -0.0262760392
490297060.0 0.0462693204 -0.0267423775 0.4143981435 -0.6777748772 0.414864771 -0.6777682858 0.0451355417 -0.027110143
495297030.0 0.0450607878 -0.0277556375 0.4075793795 -0.6825356227 0.4075406013 -0.6828746886 0.0453526933 -0.0277830254
500297000.0 0.0449757255 -0.0277030412 0.4001367495 -0.6861201777 0.4002210172 -0.6868857876 0.0447904315 -0.0279359729
505296970.0 0.0450738463 -0.0284079654 0.3932448933 -0.691212224 0.3924531539 -0.6907208707 0.0445573629 -0.029062947
510296940.0 0.0441716436 -0.0289797003 0.3844109313 -0.6960762703 0.3848779695 -0.6962146989 0.0445456231 -0.0289997443
515296910.0 0.0437115507 -0.0290698956 0.376806046 -0.6998682184 0.3767664214 -0.6996902545 0.0438336592 -0.0302089016
520296880.0 0.043552 -0.0295325364 0.3695618583 -0.7036539049 0.3694772052 -0.7036918184 0.0437538719 -0.0297330792
525296850.0 0.0430124063 -0.0304533768 0.3616363995 -0.7079374314 0.3614570774 -0.7074926895 0.0433213149 -0.0303384945
530296820.0 0.0425774314 -0.0312278089 0.3536267971 -0.7121709689 0.3541607946 -0.7118148777 0.0428697652 -0.0316008649
535296790.0 0.0429493204 -0.031289592 0.3467248244 -0.7157358911 0.3464858531 -0.7158428276 0.0430038268 -0.0313892804
540296760.0 0.0421076074 -0.0312558617 0.3382212744 -0.7192291038 0.3383224896 -0.7194179202 0.04227589 -0.0324968238
545296730.0 0.0407609181 -0.0319807552 0.33083007 -0.7228030844 0.3302555415 -0.7228475062 0.0420467772 -0.032396408
550296700.0 0.0415885896 -0.0324257006 0.3228337182 -0.7268780871 0.3224186742 -0.7267929499 0.0416176549 -0.0329738687
555296670.0 0.040720349 -0.0328869173 0.3145128987 -0.7308266817 0.3149854623 -0.7303502839 0.0408365765 -0.0341121582
560296640.0 0.0410934769 -0.0334198279 0.3063228815 -0.733514885 0.3073131719 -0.7333356023 0.0405546692 -0.0338069504
565296610.0 0.0397319061 -0.0333811308 0.2991690129 -0.7371808931 0.2987410936 -0.736237476 0.040459799 -0.03421464
570296580.0 0.0391427072 -0.0337270011 0.2900428471 -0.7400494391 0.2907843104 -0.7403402143 0.0396418064 -0.0353064593
575296550.0 0.0390902676 -0.0343332316 0.2823101057 -0.7433730068 0.2824951261 -0.7433639792 0.0390968287 -0.0352379934
580296520.0 0.0387553047 -0.0343580919 0.2742199809 -0.7462395485 0.2737758181 -0.7463705437 0.0384355163 -0.0357614346
585296490.0 0.0380929532 -0.0346793836 0.2662022218 -0.7492125229 0.2656934494 -0.7493211599 0.0386438572 -0.0357457715
590296460.0 0.0384904738 -0.0351277031 0.2581250351 -0.7524567695 0.2576183724 -0.7525295284 0.0373793833 -0.0360228059
595296430.0 0.0376141877 -0.0353332825 0.2490559143 -0.7548557739 0.2491411205 -0.7547813674 0.0375833089 -0.0370563414
600296400.0 0.0376190943 -0.0355549479 0.2412573431 -0.7574068521 0.2409630329 -0.7577944843 0.0372462142 -0.0373150366
605296370.0 0.03614584 -0.0358617233 0.2334111558 -0.7601535854 0.2327332108 -0.7603492814 0.0364193977 -0.0374855136
610296340.0 0.0364760212 -0.0356360877 0.2242399548 -0.7620929095 0.224663957 -0.7627450861 0.0354791081 -0.0378068935
615296310.0 0.0362022931 -0.0365083904 0.2160928367 -0.7656764779 0.2159076285 -0.7653957184 0.0353352094 -0.0380374098
620296280.0 0.0348383168 -0.0360275604 0.2076213095 -0.7677658069 0.2077196123 -0.7673744318 0.0345673893 -0.0382071508
625296250.0 0.0345157975 -0.0368049537 0.1994035135 -0.7695880968 0.1997004176 -0.7698803476 0.0336614799 -0.0388612901
630296220.0 0.0341020113 -0.0368413 0.190391692 -0.7723515921 0.1909360828 -0.7715440575 0.0336791712 -0.0390253718
635296190.0 0.0333510914 -0.0366350338 0.1824960898 -0.7742062164 0.1825198499 -0.7734762492 0.0330212812 -0.0391164712
640296160.0 0.0330549172 -0.0369712558 0.1741962377 -0.7759200533 0.1742558733 -0.7762422722 0.0319707371 -0.0395843774
645296130.0 0.0331282483 -0.036893314 0.164972612 -0.7775703081 0.1660780152 -0.7773826145 0.0314140934 -0.0405123974
650296100.0 0.0320720309 -0.0373710341 0.1570251983 -0.7794628855 0.1569253561 -0.7794640026 0.0318347375 -0.0402883725
655296070.0 0.0316373456 -0.0375991427 0.1478565035 -0.7812042124 0.1487211791 -0.780715384 0.030462332 -0.0403015685
660296040.0 0.0310110525 -0.0377438586 0.1400827317 -0.782416906 0.1401794808 -0.783065264 0.0298158778 -0.0414842143
665296010.0 0.0306502295 -0.03775634 0.130662552 -0.7837871297 0.1310104232 -0.7844432026 0.0293801217 -0.0411430779
670295980.0 0.0301330031 -0.0378561226 0.1229088385 -0.7856856221 0.1225369854 -0.7849620689 0.028279473 -0.0417409046
675295950.0 0.0294888877 -0.0380625272 0.1141383595 -0.7864936513 0.114855353 -0.7867442921 0.0279907507 -0.0414290846
680295920.0 0.028724345 -0.0380964854 0.1058184391 -0.7875630825 0.1059755571 -0.7882174013 0.0277128529 -0.0419689116
685295890.0 0.0284729059 -0.0379602651 0.0966390788 -0.7894284529 0.0971566879 -0.789233042 0.0271204601 -0.0414868674
690295860.0 0.0275309045 -0.0381855804 0.0880979075 -0.7900182173 0.0879841924 -0.7902422457 0.0264697638 -0.0420863368
695295830.0 0.0272056568 -0.0385035354 0.0802951047 -0.791404016 0.0802169845 -0.7906088356 0.0257666188 -0.0424718702
700295800.0 0.0267755949 -0.0381571514 0.0715066405 -0.7916979325 0.0714164842 -0.7915193585 0.0250286823 -0.0422140256
705295770.0 0.0257291493 -0.0381893531 0.0624531183 -0.7928796844 0.0627370085 -0.7923941308 0.0246000964 -0.0419611783
710295740.0 0.0254881954 -0.0385200536 0.0536513816 -0.7931831942 0.0539817465 -0.7936491162 0.0240347988 -0.0422804324
715295710.0 0.0248496669 -0.0380780942 0.0455365951 -0.7940432995 0.0454701381 -0.7934474426 0.02322002 -0.042762906
720295680.0 0.024561116 -0.0383056033 0.0366035014 -0.7941232787 0.0368518718 -0.7944716142 0.0225921036 -0.0428255328
725295650.0 0.0233724102 -0.0383497316 0.0284819835 -0.7941196467 0.028132194 -0.7945442415 0.0216837851 -0.0421909369
730295620.0 0.0221119851 -0.0387225379 0.0191586553 -0.7944272247 0.0199642698 -0.7937622139 0.021107839 -0.0425345555
735295590.0 0.0224979507 -0.0387383486 0.0110081976 -0.7951071893 0.010903385 -0.7947882062 0.0203582154 -0.0430724366
740295560.0 0.0218474903 -0.0388163558 0.0022715881 -0.7946374166 0.0027643783 -0.7950029288 0.0194073695 -0.042634474
745295530.0 0.0208855122 -0.0386016209 -0.0060775211 -0.79402775 -0.005477735 -0.7945421489 0.0183205195 -0.0429677265
750295500.0 0.0199627503 -0.038487922 -0.0146470946 -0.7950723538 -0.014889879 -0.7945401669 0.0179896714 -0.0427835102
755295470.0 0.0191377505 -0.0384684477 -0.0229897792 -0.7954146694 -0.0232967915 -0.7951257024 0.0177224567 -0.0424096503
760295440.0 0.0186360082 -0.0376761589 -0.0324655547 -0.7943801839 -0.0322091526 -0.7937609187 0.0170558357 -0.0438589271
765295410.0 0.0188539996 -0.0385925486 -0.0405282756 -0.7936257496 -0.03987812 -0.7936639614 0.0163325697 -0.0431768033
770295380.0 0.0177660569 -0.0381456969 -0.0491051234 -0.7929003397 -0.0492455515 -0.7934445144 0.0151926923 -0.042821626
775295350.0 0.0171791424 -0.0386697338 -0.0580679771 -0.7928093107 -0.0576073681 -0.7919814465 0.0154629403 -0.0425738739
780295320.0 0.0165042518 -0.037757081 -0.0660539599 -0.7910888879 -0.0659190047 -0.7918280568 0.0146152209 -0.0430416352
785295290.0 0.0157396314 -0.0382140093 -0.0750312447 -0.791304761 -0.0749823402 -0.7910284258 0.0131762916 -0.0423956922
790295260.0 0.0156329424 -0.0386103675 -0.0830242924 -0.7907789422 -0.0829301148 -0.7901482375 0.0126641909 -0.0416901516
795295230.0 0.0147629494 -0.0383033743 -0.092349186 -0.7892554085 -0.0919769591 -0.7894599101 0.0123233356 -0.0430919181
800295200.0 0.0135060282 -0.0379015487 -0.1005552964 -0.7874826523 -0.1006096042 -0.788186016 0.0112429632 -0.0421901871
805295170.0 0.0128553436 -0.0381986214 -0.1094233236 -0.786947466 -0.1085875171 -0.7871673176 0.0115488425 -0.0423406025
810295140.0 0.012880321 -0.038009438 -0.1172631089 -0.7858352613 -0.1175366687 -0.7860136287 0.0105357939 -0.0422463478
815295110.0 0.0119503513 -0.0376227042 -0.1261398493 -0.7844496704 -0.1257777619 -0.7846796973 0.0097848749 -0.0420628437
820295080.0 0.0113287753 -0.03768128 -0.1343416374 -0.7827480848 -0.134101627 -0.7829775685 0.0079338359 -0.0410828789
825295050.0 0.0104318374 -0.0377899449 -0.1430828663 -0.7816992876 -0.1426498679 -0.780941403 0.0088319867 -0.0410747645
830295020.0 0.0098641409 -0.03773086 -0.1514467402 -0.7798184984 -0.1511957178 -0.7798386291 0.0075827324 -0.0416725949
