!Created with skrf (http://scikit-rf.org).
# Hz S RI R 50.0 
!freq ReS11 ImS11 ReS21 ImS21 ReS12 ImS12 ReS22 ImS22
300000.0 -0.0926620137 -0.1013426345 0.6226928748 0.0941951354 0.6204105055 0.0933542576 -0.0962831844 -0.1056508731
5299970.0 -0.1013730839 0.0117559892 0.6303630499 0.0111841203 0.6310093124 0.0111679682 -0.1018346872 0.0113735179
10299940.0 -0.0970525761 0.0286408521 0.6346068656 0.0161363644 0.6343330311 0.0166788883 -0.0967647871 0.028587595
15299910.0 -0.0894099355 0.0423854238 0.6407746629 0.0209015256 0.6406236609 0.0213510871 -0.0897716643 0.0417782108
20299880.0 -0.0805554253 0.0534560888 0.648940703 0.0246443191 0.6491879171 0.0244586803 -0.0809797983 0.0528930894
25299850.0 -0.0705035931 0.0621919376 0.6582563346 0.0261109022 0.6584291615 0.0255187786 -0.0718222182 0.0618230348
30299820.0 -0.0609340714 0.0687722804 0.6679053453 0.024579305 0.6679692016 0.0246328014 -0.0620739483 0.0682451358
35299790.0 -0.0506233545 0.0734633326 0.6768257942 0.0219235041 0.6774845857 0.021979493 -0.0524600985 0.0740265727
40299760.0 -0.0413243401 0.0764998633 0.6871929955 0.0176081826 0.6871385394 0.0175113385 -0.0428409199 0.0769069553
45299730.0 -0.0321579926 0.0782446988 0.6960371762 0.0126861676 0.6962582335 0.0121759873 -0.0333219396 0.0790218828
50299700.0 -0.0229786308 0.0790000825 0.7039801247 0.0053661832 0.7038720015 0.0049519668 -0.0248510161 0.0801726202
55299670.0 -0.01513209 0.0788846511 0.7112101899 -0.0023155597 0.7108239291 -0.002529315 -0.0174502097 0.0806249469
60299640.0 -0.0078187171 0.0786750915 0.7180146464 -0.0113262405 0.7179622774 -0.0111337738 -0.0097388777 0.0797319171
65299610.0 -0.0013733624 0.0772101749 0.7242848517 -0.0194925086 0.7245278475 -0.019788771 -0.0027995147 0.0787208841
70299580.0 0.0052670048 0.0751838291 0.7293226879 -0.0287583732 0.7294054982 -0.0289276049 0.0028638936 0.0771629918
75299550.0 0.010511683 0.0732642827 0.7335576393 -0.0390344517 0.7336325888 -0.0386331938 0.0086191661 0.0755540325
80299520.0 0.0153312743 0.0713276235 0.7375032677 -0.0485283924 0.7377113879 -0.0485300396 0.0135036199 0.0734507532
85299490.0 0.0200093661 0.0691765601 0.741174221 -0.0583066146 0.7413812049 -0.0583801979 0.0181436064 0.0709903738
90299460.0 0.024198329 0.0667210472 0.7436585763 -0.0683460655 0.743383609 -0.0682819876 0.0223614261 0.0691647311
95299430.0 0.0281661099 0.0641558818 0.7461612565 -0.0788357327 0.7464573437 -0.0792143104 0.0259349108 0.0664927112
100299400.0 0.0312296386 0.0614917694 0.7480489011 -0.0882750159 0.7481144994 -0.0888751724 0.0289910072 0.0645513429
105299370.0 0.0342634895 0.0591673105 0.749140102 -0.0985704089 0.7499883953 -0.0984921702 0.0327587169 0.0617266599
110299340.0 0.0373168847 0.0564621193 0.7501912831 -0.108715092 0.7509766726 -0.1081969192 0.0350122426 0.0594969702
115299310.0 0.039672503 0.0542326612 0.7515854356 -0.118413843 0.7515788372 -0.1191066769 0.0374054923 0.0573445406
120299280.0 0.0415425788 0.0520780553 0.7519911252 -0.1292852264 0.7515268801 -0.1293534306 0.0395141715 0.0546331687
125299250.0 0.0438571805 0.0495188043 0.7519155849 -0.1392076721 0.7522455595 -0.1384008223 0.0419532731 0.0531415554
130299220.0 0.0456738656 0.0471087494 0.7528012002 -0.1492820024 0.7521179958 -0.1487919931 0.0437123168 0.0508424921
135299190.0 0.0467923554 0.0455119069 0.7520093757 -0.1577706482 0.7525541454 -0.1586426514 0.045532398 0.0480736246
140299160.0 0.0489012289 0.0432268509 0.751839938 -0.1683920253 0.7511218104 -0.1680005718 0.0461692339 0.0457725465
145299130.0 0.0494408885 0.0411172413 0.750183892 -0.1782421815 0.7507144729 -0.1776524723 0.0480358753 0.0437913184
150299100.0 0.0511309487 0.0392331062 0.7494945632 -0.1871598349 0.749645138 -0.1874185166 0.0490658406 0.0422403109
155299070.0 0.0528130025 0.0372028476 0.7474325313 -0.1975470455 0.7483068312 -0.1973616254 0.0503337876 0.0395888
160299040.0 0.053425322 0.0358498957 0.7471576403 -0.2066981009 0.7467171174 -0.2072572627 0.0510999413 0.0381101438
165299010.0 0.0545591431 0.0335837639 0.7458405984 -0.2166135126 0.7451578371 -0.2163907675 0.0520070453 0.036149033
170298980.0 0.0551184605 0.0321889493 0.7433246016 -0.2256262848 0.7432628087 -0.2260378062 0.052452354 0.0338908558
175298950.0 0.0560934971 0.0304910664 0.7422428119 -0.2352302802 0.7423880269 -0.2355718982 0.053404757 0.0326486957
180298920.0 0.0564926873 0.0288087815 0.7397424539 -0.2447556924 0.7392276301 -0.244339993 0.054129334 0.0309861707
185298890.0 0.0569299095 0.0272046028 0.7377572023 -0.2533632014 0.7374379439 -0.2533903879 0.0551968629 0.0287157323
190298860.0 0.05782525 0.0259488055 0.734964432 -0.2626631285 0.7353572027 -0.2623729282 0.0554269559 0.0273870291
195298830.0 0.0578873001 0.0242653182 0.7327494686 -0.2718650058 0.7330729879 -0.2714004298 0.0556588961 0.0262929714
200298800.0 0.0586609075 0.0226731814 0.7298983135 -0.2812261826 0.7299109301 -0.2806544547 0.0559129388 0.0242376374
205298770.0 0.0586167611 0.0206882115 0.7272981537 -0.2895568035 0.7273239642 -0.2890414527 0.0570007026 0.0230791529
210298740.0 0.0589265426 0.0200220871 0.7244931512 -0.2979824888 0.724048265 -0.297934661 0.0564786357 0.0210216531
215298710.0 0.0596138526 0.0185732033 0.7210438821 -0.3065273942 0.7212377395 -0.3070752344 0.0569238811 0.0198407087
220298680.0 0.0598281777 0.0176053549 0.7181106639 -0.315147027 0.7176323303 -0.3159375377 0.0574013388 0.0184917308
225298650.0 0.0599398776 0.0162249444 0.7146478415 -0.3239380699 0.7146597067 -0.3238667529 0.057494348 0.0165424527
230298620.0 0.0604005888 0.0152560474 0.711547225 -0.3324957797 0.7113520219 -0.3328689326 0.0574986599 0.015270711
235298590.0 0.0598516262 0.0138962601 0.70830629 -0.3417751288 0.7082016334 -0.341450162 0.0577250874 0.0142815501
240298560.0 0.0602943328 0.0129283924 0.704302291 -0.3494158538 0.7039558138 -0.349039597 0.0578558048 0.0131332014
245298530.0 0.060400475 0.0114386203 0.7003357032 -0.358260293 0.7002423729 -0.3580963766 0.0578991776 0.011891374
250298500.0 0.0600175061 0.0103738454 0.6968339062 -0.3659467933 0.6967943335 -0.3656181133 0.0578539885 0.0109756657
255298470.0 0.0608278538 0.0097585518 0.6933742212 -0.3740400675 0.6937277924 -0.3739089774 0.0578121699 0.0098963028
260298440.0 0.0607825736 0.0084001502 0.6895613272 -0.3820458049 0.6892951744 -0.3819703015 0.0575394111 0.0080278636
265298410.0 0.0600492465 0.0076244587 0.6846856226 -0.390180658 0.6846008227 -0.3906017819 0.0586526447 0.0067972177
270298380.0 0.0601961375 0.0061677485 0.680252544 -0.3984256734 0.6807710541 -0.3979288293 0.0582174106 0.0059197177
275298350.0 0.0606502509 0.0056487998 0.6756873309 -0.4057542063 0.6758666825 -0.4060526927 0.0577209183 0.0050531632
280298320.0 0.0599348654 0.0044604853 0.6721688895 -0.4134644746 0.67261227 -0.4138934371 0.0582842798 0.0040287552
285298290.0 0.0602852536 0.0035135049 0.6674645989 -0.4222238508 0.6678968701 -0.4214078577 0.057988253 0.0026024156
290298260.0 0.0598441872 0.0028095128 0.6640506847 -0.4290881314 0.6633912243 -0.4291953894 0.0584684735 0.0017461546
295298230.0 0.06001135 0.0015485127 0.6587345061 -0.4378226836 0.6589421868 -0.4378649733 0.0577768315 0.0006826678
300298200.0 0.0600974088 0.0012332304 0.653909703 -0.4451148405 0.6542630421 -0.4446348686 0.0577439583 -0.0004666128
305298170.0 0.060281382 -0.0008930544 0.6495326267 -0.4534973982 0.6490936742 -0.4534594167 0.0577990885 -0.0020556573
310298140.0 0.0607394486 -0.0015468175 0.6446457027 -0.4602928784 0.6446331786 -0.4600045697 0.058203555 -0.0035464307
315298110.0 0.0598242934 -0.0030819061 0.63972912 -0.4684538851 0.6392188609 -0.4684882331 0.0576619191 -0.0044693138
320298080.0 0.0597761665 -0.0038157994 0.6336082336 -0.4759094327 0.6343410377 -0.4760274879 0.0572456454 -0.0054872053
325298050.0 0.0588708288 -0.0050194687 0.6285017801 -0.4827159973 0.6294190896 -0.4831186929 0.0571678029 -0.0065291106
330298020.0 0.0575634306 -0.0057196998 0.6229078678 -0.4907877464 0.6236169007 -0.4908974822 0.055987457 -0.0077157931
335297990.0 0.0577833093 -0.0065927197 0.6174197016 -0.4971995227 0.6173397349 -0.4975576558 0.0557945436 -0.0085005174
340297960.0 0.0570772668 -0.0076139941 0.6113331332 -0.5048125142 0.610970225 -0.5041969417 0.0551984558 -0.0091144123
345297930.0 0.0562114635 -0.0082938752 0.6055649114 -0.5116353894 0.6059828963 -0.5115821336 0.05505852 -0.0104359664
350297900.0 0.0557981829 -0.0089756126 0.6004505427 -0.5172456834 0.6008822036 -0.5183633457 0.054716602 -0.0113775869
355297870.0 0.0556671414 -0.0096100857 0.5947262272 -0.5242516428 0.5943457286 -0.5240163008 0.0548032119 -0.0118049791
360297840.0 0.0554625169 -0.0104895228 0.5883095747 -0.5313632085 0.5889968514 -0.5318684191 0.0536477516 -0.011985822
365297810.0 0.0547456606 -0.0109440596 0.5827348594 -0.5382263348 0.5827637321 -0.5378657247 0.0529727543 -0.012984514
370297780.0 0.0547927508 -0.0114835816 0.576393231 -0.5439455084 0.576714647 -0.5445384939 0.0528749507 -0.0139179068
375297750.0 0.0544480971 -0.0120975482 0.5708572737 -0.5506933942 0.5709667395 -0.5512032193 0.0530200208 -0.0146039289
380297720.0 0.0534722053 -0.0125995031 0.5650639155 -0.55708423 0.5644946876 -0.5575239488 0.0523585473 -0.0150835602
385297690.0 0.0531980884 -0.0135309611 0.5577428644 -0.5636280176 0.5587222556 -0.5641457222 0.0521049114 -0.0155577874
390297660.0 0.0531420471 -0.0143121681 0.5523448429 -0.5690759885 0.5529410076 -0.5700486172 0.0523702883 -0.0165475071
395297630.0 0.0529183302 -0.0147946011 0.5464033943 -0.5748847362 0.5462412596 -0.5756550001 0.0514055314 -0.0171635054
400297600.0 0.0521598682 -0.0156358246 0.5397548471 -0.581572016 0.5401887754 -0.5819867112 0.0513433956 -0.0172893203
405297570.0 0.0520138173 -0.0167154296 0.533612503 -0.5877954449 0.5338290667 -0.5876224647 0.051099188 -0.0180615802
410297540.0 0.0518021724 -0.0164072588 0.5270618856 -0.5940027213 0.5277586002 -0.5938447445 0.0506053347 -0.0185348372
415297510.0 0.051097382 -0.017507164 0.5202904676 -0.5995322277 0.5211661628 -0.5996851739 0.0505809524 -0.0190284741
420297480.0 0.0506565815 -0.0183010413 0.5133757696 -0.6055967491 0.5145220386 -0.6056502707 0.0502701115 -0.0193821902
425297450.0 0.05113271 -0.0188181054 0.5072020159 -0.6105488014 0.50742682 -0.6110002917 0.0498485668 -0.0205225567
430297420.0 0.0502311566 -0.0194332758 0.5007931384 -0.6165804728 0.5017147838 -0.6158066407 0.0500155995 -0.0209945453
435297390.0 0.0501007941 -0.0200860188 0.493701816 -0.6227883608 0.4937334513 -0.6221082216 0.0487539999 -0.0212813825
440297360.0 0.0496292013 -0.0213737518 0.4863801732 -0.6278134031 0.4866911458 -0.6277239123 0.0488689984 -0.0218076051
445297330.0 0.0494347368 -0.0218358699 0.4796441216 -0.6325393463 0.479668558 -0.6333349233 0.0483451358 -0.0219606789
450297300.0 0.0492393733 -0.0223563882 0.4731619244 -0.6386030238 0.4732628094 -0.638023693 0.0479746662 -0.0225212652
455297270.0 0.0481992574 -0.0229060754 0.4662884426 -0.6433293426 0.4664129113 -0.6434874792 0.0478009655 -0.0233336925
460297240.0 0.0482624385 -0.0235036578 0.4592952339 -0.6493675905 0.4587711863 -0.6488541203 0.0475525551 -0.0240407372
465297210.0 0.0476691333 -0.0242598432 0.4511880821 -0.6535175758 0.4512727123 -0.6539756345 0.0474299633 -0.0239135921
470297180.0 0.0473167831 -0.0252931114 0.4447276903 -0.6583165285 0.4452348694 -0.658523496 0.0472048086 -0.0250165953
475297150.0 0.0465730965 -0.0250013845 0.4371794532 -0.6634899346 0.4372472993 -0.6636026378 0.0466540078 -0.0255721068
480297120.0 0.0469922179 -0.025025457 0.4298120134 -0.6686236398 0.4300225963 -0.6678205787 0.0461237767 -0.0260473839
485297090.0 0.046260866 -0.0268564626 0.4225050271 -0.6732670894 0.4226289562 -0.6728187054 0.0456679285 -0.0263218952
490297060.0 0.0463051211 -0.026734213 0.4146147354 -0.6779252192 0.4150474293 -0.6781561589 0.0452536378 -0.0272071808
495297030.0 0.0452983128 -0.0278186433 0.4081743675 -0.6821225196 0.4077424901 -0.6826579547 0.0455040099 -0.0275415029
500297000.0 0.0450935919 -0.0277557874 0.4004114037 -0.6865924071 0.4003431564 -0.6868115079 0.0451938672 -0.0276892249
505296970.0 0.0451253923 -0.0283709945 0.3929979562 -0.6912947856 0.3930208935 -0.6910816706 0.0444178184 -0.0290504024
510296940.0 0.0443438808 -0.0292168686 0.3853636854 -0.6964873167 0.3856118905 -0.6962900113 0.0444862964 -0.0290577862
515296910.0 0.043670446 -0.0292094888 0.3769457407 -0.6998471749 0.3772283885 -0.6997167731 0.0438784392 -0.0302800411
520296880.0 0.0436792963 -0.0297360171 0.3701161319 -0.7037207007 0.369695789 -0.7037747189 0.0439250796 -0.0296551178
525296850.0 0.0434019364 -0.0302758933 0.3619410692 -0.7073109164 0.3621291087 -0.7078349413 0.0435695573 -0.0307782289
530296820.0 0.0426891473 -0.0312457993 0.3538623088 -0.7120551172 0.3546254742 -0.712067777 0.0431744355 -0.0311499083
535296790.0 0.0430666853 -0.0311871757 0.346333126 -0.7155811011 0.3469400413 -0.7158076683 0.0433168286 -0.0310709719
540296760.0 0.0421564181 -0.0315706058 0.3383202259 -0.7192363604 0.3387611104 -0.7195358011 0.0424498503 -0.0324285631
545296730.0 0.0409850367 -0.0321892062 0.3308886722 -0.7227705846 0.3308828993 -0.7231349116 0.0421211612 -0.0325193464
550296700.0 0.0419638978 -0.0325210203 0.323179714 -0.7264161471 0.3229076141 -0.727156791 0.0419967487 -0.0328059443
555296670.0 0.0409927096 -0.0328875882 0.3145064978 -0.730625214 0.3151815804 -0.7304303869 0.0411427185 -0.0339015821
560296640.0 0.04117559 -0.0331707674 0.3066010957 -0.7331629146 0.3075166894 -0.7334316969 0.0407048322 -0.0333412958
565296610.0 0.0398533128 -0.0337975069 0.2985999717 -0.7372596799 0.2996497704 -0.7363409616 0.0405198755 -0.0339038628
570296580.0 0.0394015894 -0.0338734921 0.2902340167 -0.7398299162 0.290616392 -0.7404492111 0.0400138172 -0.0350168261
575296550.0 0.0392792059 -0.0344563481 0.2831269674 -0.7435282326 0.2828776478 -0.7434418447 0.0392177829 -0.0349883536
580296520.0 0.0388356794 -0.034388042 0.2746964858 -0.7463522061 0.2741482768 -0.746716572 0.0387626173 -0.0355042829
585296490.0 0.0386089614 -0.0345992094 0.2664055527 -0.7491128835 0.2661401142 -0.7490298627 0.0387488525 -0.0352939673
590296460.0 0.0388639843 -0.0352185307 0.2585383505 -0.7523490591 0.2583421587 -0.7522333366 0.0381689532 -0.0359270105
595296430.0 0.0380661477 -0.0355144307 0.2494009463 -0.7549123472 0.2496232557 -0.755085725 0.0376351686 -0.0369532277
600296400.0 0.0377834307 -0.0357014113 0.2413496438 -0.7579603266 0.2413070125 -0.7579879481 0.0374730887 -0.0371436351
605296370.0 0.0364866154 -0.035863735 0.2333906145 -0.7601219299 0.2330271122 -0.7604242398 0.0367380782 -0.0374318423
610296340.0 0.0366305886 -0.0357529083 0.2248437851 -0.7620367329 0.2255457725 -0.7628531016 0.0355292203 -0.0376673809
615296310.0 0.0361160055 -0.0361045095 0.2166193474 -0.7650691344 0.2160073411 -0.7653596517 0.0357408439 -0.0376315326
620296280.0 0.035306532 -0.0362609644 0.2078573058 -0.7677100727 0.2080362116 -0.7674303435 0.0347808495 -0.0380802455
625296250.0 0.0348509011 -0.0369449649 0.1993586402 -0.7700158191 0.2000711311 -0.7703049843 0.0338624858 -0.0385041901
630296220.0 0.0345455775 -0.0367390197 0.1913618238 -0.7723650893 0.1913101229 -0.7721619941 0.0337699793 -0.0386345855
635296190.0 0.0335377498 -0.0368922096 0.1827883037 -0.7743424409 0.1829472775 -0.773355801 0.0333028873 -0.0393217769
640296160.0 0.033097366 -0.0369195698 0.1744607377 -0.7762347883 0.1739760119 -0.7761992696 0.0323091969 -0.039593367
645296130.0 0.0330673396 -0.0370376868 0.1659405826 -0.777556625 0.1660352667 -0.7774530216 0.0318414284 -0.0404063277
650296100.0 0.0324393608 -0.0375829312 0.1574008985 -0.7797786612 0.1576290765 -0.7798065813 0.0321465457 -0.0403596218
655296070.0 0.0318615705 -0.0375836391 0.1488176788 -0.7813629546 0.1489043632 -0.780928336 0.0305886983 -0.0402280889
660296040.0 0.0313310176 -0.0373917324 0.1402592479 -0.7830954712 0.1404091551 -0.7831316262 0.0302374431 -0.0413408819
665296010.0 0.0309440641 -0.0379547138 0.1310772676 -0.7837858161 0.1321884975 -0.7840577166 0.0297718203 -0.0410612212
670295980.0 0.0304383652 -0.037935411 0.1231672831 -0.7858626215 0.1233857013 -0.7854501137 0.0284446612 -0.0416506274
675295950.0 0.0295950369 -0.0381307236 0.1144366246 -0.786700818 0.1147856767 -0.7876247602 0.0280766895 -0.0412047132
680295920.0 0.028941396 -0.0382522521 0.1059906752 -0.7879751314 0.1065993585 -0.7879999564 0.0279676836 -0.0418771972
685295890.0 0.0287799487 -0.0379982932 0.0966946091 -0.7892654191 0.0980457299 -0.7891231622 0.0275319488 -0.0413851305
690295860.0 0.0278058508 -0.0379173599 0.0890817058 -0.7904734079 0.0886871729 -0.7905430605 0.0265061642 -0.0422686629
695295830.0 0.0275129516 -0.0384788462 0.0808039881 -0.7914401897 0.080553959 -0.7907581706 0.02605997 -0.0422350128
700295800.0 0.0269845472 -0.0381703697 0.0717555549 -0.7918500813 0.0722500656 -0.7917760751 0.0253720244 -0.0422681371
705295770.0 0.0257508677 -0.0384469922 0.063103614 -0.7934650909 0.0631401591 -0.7923395911 0.0245298494 -0.0420876459
710295740.0 0.0256551858 -0.0387169567 0.0544109468 -0.7935645557 0.0545884305 -0.793429323 0.0241144976 -0.042107477
715295710.0 0.0248466138 -0.0381528449 0.0454378201 -0.7941709012 0.046534412 -0.7939698251 0.0234262668 -0.0426571801
720295680.0 0.0249936037 -0.0384497721 0.0379177525 -0.7942714217 0.0372709205 -0.7945998135 0.0228544809 -0.0427562103
725295650.0 0.0235078939 -0.0380805119 0.0285095356 -0.794576871 0.0282784836 -0.7947027715 0.021751071 -0.0424171588
730295620.0 0.0224332378 -0.0388369686 0.0195317538 -0.7946573925 0.0198583877 -0.7940400034 0.0210628636 -0.0419424115
735295590.0 0.0225085258 -0.0386456091 0.0115974967 -0.7951864938 0.0111656316 -0.7952875446 0.0203507731 -0.0429876447
740295560.0 0.0218305628 -0.0389251147 0.0030360502 -0.7952458012 0.0030424875 -0.7955026975 0.0192998652 -0.0424016076
745295530.0 0.020814662 -0.0388031586 -0.0056545188 -0.7943241324 -0.0050723921 -0.7948381828 0.018321571 -0.0430465458
750295500.0 0.0198929025 -0.0382468118 -0.0146683692 -0.7947865625 -0.0147934343 -0.7949138263 0.0179760529 -0.0426984169
755295470.0 0.0193963457 -0.0382832235 -0.0230569203 -0.7950062713 -0.0224968119 -0.7947990318 0.0177488564 -0.0421396642
760295440.0 0.0189912797 -0.0381032393 -0.0322983663 -0.7942586613 -0.0314417127 -0.793881161 0.017052581 -0.0436080687
765295410.0 0.0189453329 -0.038422531 -0.0407309649 -0.793774199 -0.0396750373 -0.7936830182 0.0165469123 -0.0427767023
770295380.0 0.0179324884 -0.0379191257 -0.048279719 -0.7932033317 -0.0483592201 -0.7935878589 0.0155522368 -0.0428039414
775295350.0 0.0172598757 -0.0386938946 -0.0572491144 -0.7929155875 -0.0571491443 -0.7919286723 0.0152575641 -0.042382064
780295320.0 0.0161933527 -0.0379200751 -0.0657520553 -0.7917621989 -0.0659856137 -0.7923476311 0.0149185286 -0.04280708
785295290.0 0.0158570048 -0.0382835132 -0.0744282791 -0.791382721 -0.0742823109 -0.791316277 0.0132797073 -0.0420222859
790295260.0 0.0154253403 -0.0385797722 -0.0827324991 -0.7909554157 -0.0826741568 -0.790698331 0.0129367577 -0.0417039709
795295230.0 0.0147495089 -0.0387545861 -0.0917064186 -0.78999704 -0.0912764207 -0.7900097752 0.012674227 -0.0428996794
800295200.0 0.0135057896 -0.0380450427 -0.0997535325 -0.7878774832 -0.0999929686 -0.7883976958 0.0113634271 -0.0421591995
805295170.0 0.0128431904 -0.0382471674 -0.1090794358 -0.7876314263 -0.1080896441 -0.7872696696 0.0116961839 -0.0420619861
810295140.0 0.0129347359 -0.0380884087 -0.1172663334 -0.7862335347 -0.1173668903 -0.7865214082 0.0105279241 -0.0420250472
815295110.0 0.0121193444 -0.0374824993 -0.1252212805 -0.7844721264 -0.1253378546 -0.7847575622 0.0098841844 -0.0418893156
820295080.0 0.0113759507 -0.0378208518 -0.1338534151 -0.7828761438 -0.1335909947 -0.7832317358 0.0084839327 -0.0410098685
825295050.0 0.010511863 -0.0377679046 -0.1425417711 -0.7821764146 -0.142300414 -0.7813294933 0.0091503307 -0.0408274284
830295020.0 0.0099349066 -0.0379341777 -0.1515048011 -0.7802779629 -0.1508261042 -0.780314174 0.0078758906 -0.0414905799
