!Created with skrf (http://scikit-rf.org).
# Hz S RI R 50.0 
!freq ReS11 ImS11 ReS21 ImS21 ReS12 ImS12 ReS22 ImS22
300000.0 -0.2419373734 -0.0871562238 0.4733251563 0.0582274088 0.4715401329 0.0556024859 -0.2424850124 -0.0976406245
5299970.0 -0.2450087905 0.0064982528 0.4750023837 0.0051024389 0.4747497562 0.0048399344 -0.2410834663 0.0076326938
10299940.0 -0.2417295905 0.0179893582 0.4766203334 0.005735261 0.4766115995 0.0061264807 -0.2374616651 0.0204896808
15299910.0 -0.237333644 0.0267637191 0.4804764086 0.0073827691 0.4802418985 0.0076063453 -0.2331865958 0.0303534631
20299880.0 -0.2329855264 0.0341370536 0.4850054744 0.0080014957 0.4854184129 0.0080700458 -0.2280979656 0.0379289581
25299850.0 -0.2278699608 0.0403645369 0.4901881817 0.0071107227 0.4902373569 0.0070637391 -0.2216630998 0.0446129084
30299820.0 -0.2225096637 0.0453479882 0.4956860134 0.0047991268 0.4954198681 0.0047404939 -0.215900217 0.0500434571
35299790.0 -0.2174112716 0.0491081751 0.500848515 0.0012381811 0.5009425393 0.001593416 -0.2107127935 0.0543444939
40299760.0 -0.2125897067 0.0524008052 0.505983003 -0.0024266144 0.5061848022 -0.0022267648 -0.2052534401 0.0577997997
45299730.0 -0.2080469952 0.0545600883 0.510283529 -0.0067046079 0.5107213594 -0.0072623616 -0.2000602218 0.0605833034
50299700.0 -0.2038402885 0.0567525739 0.5149607221 -0.0125361282 0.5150093162 -0.0125028948 -0.1953751009 0.0623693406
55299670.0 -0.1998439786 0.0583975953 0.5186133307 -0.0192230011 0.5186170436 -0.0184144563 -0.1914163408 0.0641886364
60299640.0 -0.1959654815 0.0600432215 0.5216823817 -0.0252389778 0.5218766848 -0.0245755462 -0.1872843099 0.065246421
65299610.0 -0.1930851566 0.0607317744 0.5251063137 -0.0312462992 0.5248897715 -0.0312305333 -0.1841633315 0.0666801213
70299580.0 -0.1898242759 0.0622006755 0.5270438906 -0.0378291423 0.5269427785 -0.0379148158 -0.1805791516 0.0679660892
75299550.0 -0.1872712238 0.0629420221 0.5290741631 -0.0446829094 0.5289061506 -0.0444748639 -0.1778946951 0.0682995688
80299520.0 -0.1846623819 0.0636824361 0.531126104 -0.0517059143 0.5311979332 -0.0517647565 -0.1751639482 0.0692943677
85299490.0 -0.1823034065 0.0641890618 0.5319664955 -0.0583614358 0.5321359873 -0.0577626107 -0.1728733429 0.0695607865
90299460.0 -0.1804500409 0.0647964766 0.5327265208 -0.065310639 0.5336356855 -0.0654615692 -0.1703224436 0.0707192255
95299430.0 -0.1781164044 0.0653373041 0.5339934215 -0.0723446991 0.5342633267 -0.0724087697 -0.1681972628 0.0710588637
100299400.0 -0.1766480003 0.0662764572 0.5339897476 -0.0789870831 0.5343125429 -0.0792109802 -0.165823919 0.0718151497
105299370.0 -0.1750210717 0.0667766511 0.5346792183 -0.0861780682 0.5348698534 -0.0860752426 -0.1639740518 0.0724103402
110299340.0 -0.1734919716 0.0675821492 0.5348758973 -0.0927347425 0.534605936 -0.0925707203 -0.1628364442 0.0729595896
115299310.0 -0.1720520328 0.0681316032 0.5348725432 -0.0996895209 0.5345363285 -0.0997676454 -0.1611046265 0.0737615935
120299280.0 -0.1706590033 0.0685292603 0.5343257806 -0.1060565447 0.5347334656 -0.1066750716 -0.1595880697 0.074357048
125299250.0 -0.1695093175 0.0693190167 0.5339898195 -0.1128045207 0.5341029627 -0.1131310143 -0.1584697293 0.0749238513
130299220.0 -0.1687293894 0.0703067907 0.5334005235 -0.1199860102 0.5337371029 -0.1199672856 -0.1572632186 0.075846075
135299190.0 -0.1676427729 0.0710940942 0.533210151 -0.1260238469 0.532845618 -0.1261497475 -0.1555634085 0.0767552022
140299160.0 -0.1666526663 0.0719787818 0.532031987 -0.1333042265 0.5324202004 -0.1331633207 -0.1543997119 0.0780135228
145299130.0 -0.1656508809 0.0727432708 0.5311655616 -0.139605336 0.5308840029 -0.1393225696 -0.1533943485 0.0789564149
150299100.0 -0.1644029854 0.0738028477 0.5296320468 -0.1456115627 0.5300735861 -0.1457567827 -0.152301091 0.0802500858
155299070.0 -0.1638290301 0.0746609362 0.5287114031 -0.153184823 0.5285549103 -0.1524960453 -0.1510966396 0.0814070702
160299040.0 -0.1627259496 0.0756396514 0.5271984173 -0.159021243 0.5268084477 -0.1594326196 -0.1507775617 0.0821635729
165299010.0 -0.1620876178 0.077118583 0.5256746865 -0.1660342414 0.5262105427 -0.1658163121 -0.1492052288 0.0837066042
170298980.0 -0.161493331 0.0776323687 0.5241553673 -0.1719070766 0.5242961936 -0.1719698083 -0.1482996677 0.0846262595
175298950.0 -0.1606808232 0.0787620557 0.5230243394 -0.1780428091 0.5225386972 -0.1778017158 -0.1476295427 0.0860977509
180298920.0 -0.1601620067 0.0802008291 0.5212188248 -0.1843099807 0.5208995146 -0.1841869878 -0.1465936141 0.0873298671
185298890.0 -0.1586457165 0.0809508475 0.5190546775 -0.1906797309 0.5190538408 -0.1904561865 -0.1456379966 0.0889527373
190298860.0 -0.1585675365 0.0823794219 0.5175318781 -0.1970564959 0.5174251834 -0.1964695288 -0.1450391045 0.0896648015
195298830.0 -0.1576386144 0.0831294936 0.5150814919 -0.2027507312 0.5151752187 -0.202685614 -0.1439510719 0.0912326888
200298800.0 -0.1569171389 0.0847260678 0.5135477726 -0.2092679174 0.5133048008 -0.2092973603 -0.1432579657 0.0923824619
205298770.0 -0.1561524242 0.085898335 0.5109439679 -0.2153666919 0.5105169544 -0.214964963 -0.141842074 0.0930438503
210298740.0 -0.1552647371 0.0864762711 0.5083480677 -0.2204660943 0.5089533218 -0.2209581543 -0.1408792549 0.0953969091
215298710.0 -0.1551543446 0.0883384568 0.5065509881 -0.2270818729 0.5060179208 -0.2275993829 -0.140301648 0.0963108543
220298680.0 -0.1542635124 0.0892504323 0.503506026 -0.2325466797 0.5037054873 -0.2327775072 -0.1396609567 0.0975020989
225298650.0 -0.1535660286 0.09083076 0.5015515947 -0.2388286879 0.5015882026 -0.2386578881 -0.1386426525 0.0991433811
230298620.0 -0.1525079267 0.0920466123 0.4988277144 -0.2444508911 0.4997055487 -0.2445680731 -0.1379521493 0.1000779523
235298590.0 -0.1516988862 0.0935953399 0.4964673164 -0.2501359434 0.4964450627 -0.2498007622 -0.1368810128 0.1015381205
240298560.0 -0.1510031723 0.0949843088 0.493636891 -0.2560786078 0.4936517884 -0.2563371217 -0.1360001445 0.1033046477
245298530.0 -0.1504161664 0.0962892412 0.4909553886 -0.2617235637 0.4908813238 -0.2617775846 -0.1347565237 0.1040089798
250298500.0 -0.1492410821 0.0977975213 0.4875775254 -0.2676165658 0.4877052751 -0.2670251862 -0.1339210825 0.1054381675
255298470.0 -0.148778011 0.0986131276 0.4845212246 -0.2723879522 0.4847339048 -0.2726533689 -0.1328151849 0.1068940956
260298440.0 -0.1479376943 0.1000162215 0.4816507746 -0.2786562748 0.4820539037 -0.2783474202 -0.1312952939 0.1084243958
265298410.0 -0.1466791203 0.1018365897 0.4788897906 -0.2839851624 0.4790941412 -0.2838107853 -0.1306276618 0.1099142941
270298380.0 -0.1460255771 0.1028785291 0.4760758669 -0.2890669166 0.4762222051 -0.2893211949 -0.1294480478 0.1112443142
275298350.0 -0.1448817429 0.1044203786 0.4727697091 -0.2950198005 0.4729779342 -0.2947223224 -0.1281034074 0.112303838
280298320.0 -0.1436339382 0.1056489541 0.4698443939 -0.3000068681 0.4697049238 -0.300270094 -0.1268404989 0.1139465908
285298290.0 -0.1430621405 0.1070359322 0.4665893613 -0.3054365169 0.4664489564 -0.3053680191 -0.1259966619 0.1150466876
290298260.0 -0.1418816331 0.1083008449 0.4627355181 -0.3104472109 0.463152557 -0.310744725 -0.1246342155 0.1166028938
295298230.0 -0.1408696927 0.109513626 0.4596709542 -0.3158511746 0.4597935896 -0.3161241403 -0.12281043 0.1175560715
300298200.0 -0.1402774113 0.1108386268 0.4563360266 -0.3206565907 0.4568837038 -0.3212772667 -0.121877726 0.1188900977
305298170.0 -0.1389327098 0.1120547922 0.4529100348 -0.3263024779 0.4529351653 -0.3261145473 -0.1198447713 0.1203706482
310298140.0 -0.1381144813 0.1135384202 0.4493327481 -0.3315168431 0.4495659812 -0.3312370709 -0.1189682556 0.1215981688
315298110.0 -0.1369903126 0.1146904822 0.4457496186 -0.3367283967 0.4459578119 -0.336693409 -0.1176617693 0.1229404447
320298080.0 -0.135790435 0.1158940154 0.441695044 -0.3420404863 0.4417783269 -0.3417532942 -0.1164494297 0.1241610077
325298050.0 -0.1350138895 0.1171858892 0.4382093687 -0.3470126025 0.4380356232 -0.3469272971 -0.1152781584 0.1250901595
330298020.0 -0.134309478 0.118162998 0.4334872835 -0.3518463083 0.4342823412 -0.351673026 -0.1142223712 0.1267201704
335297990.0 -0.1332055425 0.1194398479 0.4299967408 -0.3564367548 0.4298293086 -0.3568381715 -0.1134334693 0.1285882481
340297960.0 -0.1326843092 0.1211338631 0.425871336 -0.3612678054 0.4258701989 -0.3617885437 -0.1113887046 0.1297934375
345297930.0 -0.1315737803 0.1224376123 0.4217169186 -0.3662041433 0.421614471 -0.366505777 -0.1105963493 0.1306461042
350297900.0 -0.1306103384 0.1235814756 0.4171383686 -0.3710459026 0.4173727755 -0.3707552096 -0.1097421853 0.1325401548
355297870.0 -0.1291017207 0.1255173239 0.4133918087 -0.3757594759 0.4136549852 -0.3754827557 -0.1082710082 0.1338474281
360297840.0 -0.1280836126 0.126753964 0.409712008 -0.3796741254 0.4098270166 -0.3796569139 -0.1068717003 0.1356171938
365297810.0 -0.1271757637 0.1282043257 0.4051363587 -0.3848208267 0.4051548146 -0.3846999321 -0.105271662 0.1368976235
370297780.0 -0.1257228684 0.1291511434 0.4005327853 -0.3886555374 0.4012036715 -0.388474191 -0.1039018359 0.1380084164
375297750.0 -0.1246410473 0.1305422776 0.3964882622 -0.392861913 0.3971966755 -0.3933373452 -0.1024740812 0.1393057982
380297720.0 -0.1235016299 0.1319042321 0.3922141159 -0.3971610757 0.3923868746 -0.3970784532 -0.1011587499 0.1405328998
385297690.0 -0.1222655364 0.1333549784 0.3876737463 -0.4015958977 0.3877745936 -0.4015928169 -0.0996405881 0.1417516224
390297660.0 -0.1213203012 0.1347978048 0.3838438082 -0.406165992 0.3833741805 -0.4056733743 -0.0983812412 0.1431359657
395297630.0 -0.1198981009 0.1360891478 0.3788996234 -0.4105562524 0.3790070894 -0.4104116471 -0.096265984 0.1443191879
400297600.0 -0.1186002659 0.137487034 0.3743632154 -0.415000847 0.3743026981 -0.4149460431 -0.0948652698 0.1455910529
405297570.0 -0.1176475599 0.1388203939 0.3700124302 -0.418431509 0.3702284519 -0.4181803271 -0.0940894311 0.1467951251
410297540.0 -0.1160741694 0.1399255666 0.3652700462 -0.4224292768 0.3656267958 -0.4225095673 -0.0920481418 0.148163994
415297510.0 -0.1144508776 0.1409309587 0.3604957209 -0.4267386251 0.360767235 -0.4265331366 -0.0905847841 0.1492165778
420297480.0 -0.1131954147 0.1426870962 0.3555117191 -0.4302214555 0.3556408401 -0.4307703271 -0.0889449128 0.1502098427
425297450.0 -0.1120082529 0.1433915837 0.3511425157 -0.4342198445 0.3515030769 -0.4345492025 -0.0877482349 0.151712394
430297420.0 -0.1107454336 0.1446495815 0.3463424173 -0.4374365896 0.3461669236 -0.4378165258 -0.086074168 0.152446925
435297390.0 -0.1094837917 0.1461935178 0.3411141286 -0.4415077721 0.3412229527 -0.4418749948 -0.0837332148 0.1536021502
440297360.0 -0.1078841019 0.1473614906 0.3363549676 -0.4457162962 0.3368753703 -0.4455579346 -0.0826492946 0.1543464478
445297330.0 -0.1066976479 0.1480225396 0.3319831999 -0.4486756074 0.3318061028 -0.4485201154 -0.0805220677 0.1551618169
450297300.0 -0.1053586504 0.1493219765 0.3269554536 -0.4529113469 0.3269434111 -0.4529980431 -0.0789161289 0.156255247
455297270.0 -0.1037148834 0.150662801 0.3217871148 -0.4559585234 0.3217859026 -0.4563678461 -0.0772688824 0.1572622567
460297240.0 -0.1024444449 0.1516019937 0.3169737863 -0.4599563642 0.3168177046 -0.4595379914 -0.0756700936 0.1583940419
465297210.0 -0.1008835322 0.1529814717 0.3120342727 -0.4633674957 0.3117636585 -0.4633490398 -0.0734149955 0.15883112
470297180.0 -0.0991289865 0.1537992131 0.306619371 -0.4664762009 0.3068002825 -0.466664586 -0.0716036984 0.1603051799
475297150.0 -0.0978356224 0.1546956144 0.3015741784 -0.4694022938 0.3015776274 -0.4695077143 -0.0695054751 0.1607358505
480297120.0 -0.0963865988 0.1564109272 0.2964517386 -0.4737675439 0.2963216224 -0.4732025742 -0.0679041675 0.1618604234
485297090.0 -0.0948967695 0.1571223192 0.2913746525 -0.4758379996 0.2912927555 -0.4759025723 -0.0662923454 0.1628299143
490297060.0 -0.093870419 0.1581846919 0.286286844 -0.4796305748 0.286441009 -0.4791283377 -0.0643150964 0.163978707
495297030.0 -0.0920668015 0.1591377975 0.2812219591 -0.4824478363 0.2812812024 -0.4825445642 -0.0628376887 0.1650158223
500297000.0 -0.0905875932 0.1601742785 0.2754608444 -0.4846454312 0.2755876704 -0.485139219 -0.0609058554 0.1663257899
505296970.0 -0.0886321202 0.1611915485 0.2706593612 -0.4881891554 0.2700598135 -0.4884315047 -0.059036375 0.1666880351
510296940.0 -0.0874290892 0.162628213 0.264971993 -0.4917325071 0.2647396509 -0.4915620773 -0.0569364989 0.1678280016
515296910.0 -0.0856949443 0.1634373489 0.2595555283 -0.4942424643 0.2596285779 -0.4937074201 -0.0552937314 0.1683913621
520296880.0 -0.0843217212 0.1643020426 0.2544439898 -0.4971205538 0.2541425179 -0.4967382244 -0.0533361486 0.1688442454
525296850.0 -0.082585767 0.1645728608 0.2486591845 -0.4995400738 0.2489980462 -0.4995424184 -0.0515702744 0.169716212
530296820.0 -0.0807969612 0.1661761707 0.2430128703 -0.5025112807 0.2433912601 -0.5023256548 -0.0497810597 0.170926754
535296790.0 -0.0796430517 0.1670280742 0.2379910411 -0.5046042051 0.2383482304 -0.5044232397 -0.047629032 0.1709216233
540296760.0 -0.0778640604 0.168000359 0.2327064647 -0.5076512429 0.2322813914 -0.5074899384 -0.046124998 0.1723503045
545296730.0 -0.0760678618 0.168777465 0.2262297468 -0.5098470835 0.2265940738 -0.5099810787 -0.0444513074 0.1727494067
550296700.0 -0.0742942751 0.1698887087 0.2210063627 -0.5124902237 0.2213213051 -0.5126633985 -0.0427526406 0.1735476792
555296670.0 -0.072747098 0.1706275751 0.2157091404 -0.5145329003 0.2160443411 -0.5146396305 -0.0406730085 0.1743803011
560296640.0 -0.0707513765 0.1717195647 0.2095695756 -0.5170857553 0.2103919724 -0.5170337894 -0.038662942 0.1747688659
565296610.0 -0.0696518029 0.1725263294 0.2038086002 -0.5192263961 0.2046259069 -0.5192489741 -0.0367796069 0.1751758511
570296580.0 -0.0681640215 0.1729742831 0.1990099464 -0.5216717645 0.1986061565 -0.5214604238 -0.0350580547 0.1763605335
575296550.0 -0.0666777227 0.1744452743 0.1934411977 -0.5238405914 0.1932352602 -0.5234816744 -0.0329318597 0.1765205094
580296520.0 -0.0645752053 0.1748803148 0.1876852486 -0.525810419 0.1875019468 -0.5254195274 -0.0308977707 0.1768878206
585296490.0 -0.0632411447 0.1750526541 0.1818268294 -0.5269608334 0.1822168329 -0.5274622168 -0.0292410194 0.177636813
590296460.0 -0.0610133104 0.1762157377 0.1763837682 -0.5285645114 0.176074664 -0.5291840907 -0.0275410605 0.1781063505
595296430.0 -0.0592975819 0.176877787 0.1700727638 -0.5310599007 0.1701034062 -0.5310823675 -0.0252352609 0.1779718531
600296400.0 -0.0579949048 0.177850084 0.1648912203 -0.5331781031 0.1645060697 -0.5327829761 -0.0233881475 0.1783836265
605296370.0 -0.0562864686 0.1783884002 0.1586904248 -0.5345524658 0.1587980565 -0.5348812158 -0.021268286 0.178815991
610296340.0 -0.0542783414 0.1791924299 0.1524998686 -0.5364053044 0.152965124 -0.5360248509 -0.0192834042 0.1790743619
615296310.0 -0.0525254096 0.179592756 0.1470685166 -0.5371943588 0.1469533334 -0.5382818025 -0.0171732294 0.1794185564
620296280.0 -0.050919225 0.1797506099 0.1416849966 -0.5392554235 0.141276245 -0.5395192552 -0.0155921719 0.1800158607
625296250.0 -0.049257118 0.1806253255 0.1357742238 -0.5410184991 0.1353551772 -0.5414259338 -0.0126370653 0.1801558945
630296220.0 -0.0467837799 0.1813900008 0.1291584418 -0.5425006334 0.1294294672 -0.5421937007 -0.0109564779 0.1806496001
635296190.0 -0.0458647566 0.1819336743 0.1232669506 -0.5434284648 0.123359165 -0.5433733237 -0.0088981278 0.1807359981
640296160.0 -0.043876021 0.1826933899 0.117875823 -0.5445830916 0.1179694787 -0.544782856 -0.0068569637 0.180936486
645296130.0 -0.0418838301 0.1833294342 0.1114241954 -0.5456103305 0.1120817592 -0.5462879009 -0.0046916066 0.1813062341
650296100.0 -0.0401667141 0.1839009828 0.1058370111 -0.5469183106 0.1058600481 -0.5471283236 -0.0025858151 0.1809977273
655296070.0 -0.0388131431 0.18357211 0.0999295049 -0.5481137992 0.0998313331 -0.5482071805 -0.0006402688 0.1812596738
660296040.0 -0.0371748381 0.1842385045 0.0945398737 -0.5488892402 0.0943674891 -0.5495195783 0.0017057591 0.1815790311
665296010.0 -0.0347836669 0.1849258226 0.0878173628 -0.5500917165 0.0883823545 -0.5503218382 0.0035022742 0.1823290697
670295980.0 -0.0339060328 0.1857627049 0.0820687497 -0.5513512506 0.082270845 -0.550905502 0.005190489 0.1818859328
675295950.0 -0.0317981538 0.186289925 0.0769143885 -0.5518382723 0.0762100444 -0.5512549194 0.0072250712 0.1823745531
680295920.0 -0.0298677881 0.1864764585 0.0704463742 -0.5522634064 0.0696241396 -0.5527788756 0.0096785079 0.1828019822
685295890.0 -0.0279903587 0.1872671377 0.0644431431 -0.5532182642 0.0639507724 -0.5533684551 0.0112721232 0.1824673193
690295860.0 -0.025926098 0.1876951044 0.0582657787 -0.5537747918 0.0584114402 -0.5543927834 0.0134324402 0.1831122289
695295830.0 -0.0244695408 0.187960571 0.0523908921 -0.5544775048 0.0522161315 -0.5544366295 0.0158409196 0.1830141315
700295800.0 -0.0222703599 0.1879947299 0.0462619773 -0.5547283567 0.0462095919 -0.5550757009 0.0173448462 0.183359532
705295770.0 -0.0207820198 0.189140166 0.039873043 -0.5555608184 0.0407782548 -0.5559380476 0.0191983993 0.183535529
710295740.0 -0.0186941851 0.1888611088 0.0347348665 -0.5561845367 0.0345471445 -0.5562533459 0.0213055227 0.1826690145
715295710.0 -0.0174127871 0.1888763658 0.0288683584 -0.5558109156 0.0281295911 -0.5562213767 0.0235481741 0.1827886879
720295680.0 -0.0152424829 0.1893434628 0.0226086487 -0.5564872713 0.0228345668 -0.556502435 0.025334653 0.1832357066
725295650.0 -0.0132324024 0.1898468783 0.0161905362 -0.5565377397 0.0167337735 -0.5570707681 0.0270529394 0.1831502807
730295620.0 -0.0112056928 0.1902371852 0.0103255246 -0.5564483551 0.0104005895 -0.5567392334 0.0290500758 0.1825131348
735295590.0 -0.0096590103 0.1904046384 0.0043540959 -0.5570617845 0.0043928375 -0.556726196 0.0310761395 0.1823509712
740295560.0 -0.0080353131 0.1910324593 -0.0013504542 -0.5567144648 -0.0014699045 -0.5566127719 0.0337449276 0.1823331317
745295530.0 -0.0059575942 0.1910765166 -0.0076186343 -0.556104305 -0.0074239164 -0.5566685971 0.035158892 0.1816816636
750295500.0 -0.0038079096 0.1911231103 -0.0135469119 -0.5561301215 -0.013466558 -0.5565411567 0.0373519245 0.181699637
755295470.0 -0.002101144 0.1912552439 -0.0193198998 -0.5563585909 -0.0195626832 -0.5564241226 0.039718647 0.1809019154
760295440.0 -0.0004629114 0.1913580816 -0.0251950065 -0.556260234 -0.0258103539 -0.5566348889 0.0412066216 0.1808620444
765295410.0 0.001574898 0.1916020619 -0.0315307978 -0.5556017112 -0.0320737466 -0.5559959664 0.0433989722 0.1807823329
770295380.0 0.003145797 0.1917828184 -0.0377410894 -0.5557082004 -0.0376816583 -0.5553870568 0.0451380299 0.1799924358
775295350.0 0.0047138342 0.191397941 -0.043878149 -0.5542398414 -0.0433384844 -0.554797877 0.0466270551 0.1800519284
780295320.0 0.0071734359 0.1918095561 -0.0495867557 -0.5538427791 -0.0494302924 -0.554296268 0.0488892789 0.1790642149
785295290.0 0.0083361991 0.1913784809 -0.0555220812 -0.553323948 -0.0551388346 -0.553747167 0.0515543756 0.1786780138
790295260.0 0.0111797574 0.1921944295 -0.0609518303 -0.5525247154 -0.06037404 -0.5528536377 0.0534176397 0.1784335149
795295230.0 0.012642983 0.1916716597 -0.0671129764 -0.5519340095 -0.0670126757 -0.5526242185 0.0555119879 0.1780151234
800295200.0 0.0142621671 0.1920101955 -0.0738064522 -0.5514004595 -0.0731307713 -0.5515497593 0.0575234824 0.177339256
805295170.0 0.0161739494 0.1916847396 -0.0791642762 -0.55044129 -0.0790834884 -0.5504858638 0.0595264295 0.1773335124
810295140.0 0.017999248 0.1915899995 -0.0846590429 -0.5500042018 -0.0851280817 -0.5499169911 0.0618240949 0.176903156
815295110.0 0.0199056831 0.1916117994 -0.0909309666 -0.5483935293 -0.0905358619 -0.5491637594 0.0635042418 0.1760867955
820295080.0 0.0215369215 0.1918938341 -0.0966565748 -0.5473533528 -0.0964362157 -0.5474224002 0.0655806728 0.1755581253
825295050.0 0.0239418322 0.1914211276 -0.1021581007 -0.546134286 -0.1026308177 -0.5466911065 0.0675703155 0.1749510985
830295020.0 0.0253067803 0.1916595792 -0.1087241198 -0.5450208987 -0.1085092657 -0.5452423139 0.0701904653 0.1745136617
