!Created with skrf (http://scikit-rf.org).
# Hz S RI R 50.0 
!freq ReS11 ImS11 ReS21 ImS21 ReS12 ImS12 ReS22 ImS22
300000.0 -0.7782457378 -0.1472814106 -0.0010961508 2.88437e-05 0.0009735405 -0.0001738889 -0.0474928854 -0.0718317927
5299970.0 -0.7852864838 -0.0071775903 0.0001172233 -0.0002100561 -0.000282992 0.0001032502 -0.0494022778 0.0144703216
10299940.0 -0.7877663514 -0.0038607003 -2.0597e-05 4.7456e-06 6.01861e-05 -7.8577e-06 -0.0437547381 0.032174651
15299910.0 -0.7934163227 -0.0014041251 2.27279e-05 -0.0002896655 -1.01213e-05 -4.5865e-06 -0.0353676181 0.0465608424
20299880.0 -0.799794135 0.0026763799 4.81505e-05 -0.0001090944 -8.175e-05 -9.31702e-05 -0.0257929401 0.0582213204
25299850.0 -0.8063279953 0.0081521568 -0.0001216823 -4.642e-05 -4.75967e-05 0.0001764853 -0.014991773 0.0675935046
30299820.0 -0.8121685808 0.0165407024 0.000140945 -7.65345e-05 -0.0001220006 -6.05425e-05 -0.0037219925 0.0746808943
35299790.0 -0.8163982191 0.0254268692 5.44772e-05 0.0001726131 0.0001531588 -8.90233e-05 0.007809434 0.0795459734
40299760.0 -0.8210409828 0.0339799981 -4.82606e-05 0.0001766749 -9.06645e-05 6.39835e-05 0.0191808226 0.0827260122
45299730.0 -0.8245675599 0.0440868182 3.22758e-05 4.50953e-05 0.0001431833 0.000103356 0.0293825338 0.0840153013
50299700.0 -0.8269171369 0.0539087189 0.0001953537 -0.0002865725 5.17234e-05 5.9258e-05 0.0399235393 0.0844436468
55299670.0 -0.8289450775 0.0645323196 7.98621e-05 4.54082e-05 0.0001679824 9.32336e-05 0.048487622 0.0836214572
60299640.0 -0.8296186759 0.0743981975 1.32736e-05 -2.21928e-05 -4.14529e-05 0.0002063014 0.0570734402 0.0814976658
65299610.0 -0.8312331459 0.0848944038 0.000182888 4.60165e-05 -0.0001183979 5.39975e-05 0.0646791102 0.0797195606
70299580.0 -0.831515933 0.0946633195 -4.2418e-05 1.25907e-05 9.01035e-05 0.0001205453 0.0717561762 0.0765788753
75299550.0 -0.831444753 0.1047759877 -2.22848e-05 0.0002340922 -0.0001005068 0.0001086169 0.0783040188 0.0736341067
80299520.0 -0.8310921459 0.114789355 0.0001061586 -7.07212e-05 9.87959e-05 -5.61236e-05 0.0836414469 0.0703280147
85299490.0 -0.8304924726 0.12436746 -5.54575e-05 4.19175e-05 0.0001062954 -2.71649e-05 0.0884916273 0.0667654704
90299460.0 -0.8295766732 0.1339503517 0.0002354231 -6.86195e-05 1.39419e-05 -7.6596e-06 0.0935561255 0.0628634158
95299430.0 -0.8287146937 0.1437144536 0.000154446 -6.085e-06 2.40893e-05 0.0002099083 0.0974708724 0.0592364252
100299400.0 -0.8275079588 0.1529292739 4.77158e-05 -0.0001904158 9.07537e-05 0.0001165792 0.1007476345 0.0554552746
105299370.0 -0.8263451948 0.1620064454 -9.53338e-05 4.50385e-05 -0.000180771 0.000226521 0.1044951671 0.0514107285
110299340.0 -0.8254527653 0.1709232842 9.7055e-05 0.0001256115 -2.42052e-05 0.0002193814 0.1071415475 0.0480390123
115299310.0 -0.8234711253 0.1805375322 0.0001550189 -6.94864e-05 0.0001234349 7.12382e-05 0.1100632659 0.0437500557
120299280.0 -0.8221583055 0.1894438994 6.20199e-05 1.16644e-05 9.77825e-05 4.34518e-05 0.112132319 0.040307485
125299250.0 -0.8205515991 0.1986965809 -6.01056e-05 3.04163e-05 4.0703e-05 0.0001396136 0.1143988885 0.0360721403
130299220.0 -0.8180744071 0.2075025134 -3.02639e-05 -2.89131e-05 0.0001490006 3.0415e-05 0.1153452828 0.0327776163
135299190.0 -0.8164577957 0.2167453306 0.000148908 0.0002562534 0.000144106 0.0001404592 0.1174301866 0.0291312628
140299160.0 -0.8147152218 0.2252778489 0.0001639237 4.05974e-05 7.47263e-05 0.0001695916 0.1188374114 0.0253376316
145299130.0 -0.8119905874 0.2343526228 0.0001699914 0.0003071829 0.0001030603 0.0001755045 0.1195336809 0.0224479899
150299100.0 -0.8098738639 0.2433045413 -7.6449e-05 -2.2095e-06 -2.62037e-05 0.0001706238 0.1204196495 0.0184988864
155299070.0 -0.8076830189 0.2524514746 -5.58952e-05 -1.1679e-06 -0.0001023429 -7.51142e-05 0.1215677461 0.0154585789
160299040.0 -0.8043831807 0.2611345559 0.0001855869 0.000125948 0.0001983489 0.0001487223 0.1221574836 0.0122806066
165299010.0 -0.802373813 0.269451926 0.0002900446 0.0001986985 0.0001127904 0.0002515257 0.122783687 0.0090358492
170298980.0 -0.7989980335 0.2778736028 0.0002318867 8.8664e-05 0.0001948804 -0.0001411686 0.123373378 0.0060942773
175298950.0 -0.7970148145 0.2871924346 0.000226435 -0.0001159531 0.0001810421 0.0001952129 0.1235807499 0.0029111803
180298920.0 -0.793977002 0.2954776167 5.5932e-06 0.0001000569 3.13675e-05 0.0001979225 0.1242848115 7.39361e-05
185298890.0 -0.7906081728 0.3043170455 -1.78422e-05 0.0002128714 -7.3467e-06 0.0001884196 0.1240987802 -0.0029311685
190298860.0 -0.7876201027 0.31251444 0.0002390632 0.000151425 0.0002674481 0.000197794 0.1244292772 -0.0057893143
195298830.0 -0.7838271913 0.3206700258 0.0001891166 0.0002448456 -1.72551e-05 -4.24848e-05 0.1243229261 -0.0083573227
200298800.0 -0.7807723683 0.3294419104 0.0001633839 -8.91809e-05 0.0001673374 0.0001034825 0.1246132336 -0.011291075
205298770.0 -0.7774222339 0.3376147581 0.0002284843 7.2024e-05 6.40755e-05 0.0001227369 0.1242339973 -0.0136908103
210298740.0 -0.7735121893 0.3461591985 -7.03807e-05 0.0002249298 0.0003461375 3.57505e-05 0.12395 -0.0163990528
215298710.0 -0.7700958844 0.3540239391 -7.10602e-05 0.0001198932 2.15714e-05 0.0002994736 0.123377038 -0.0190306241
220298680.0 -0.7666521938 0.3625617751 0.0001869512 0.0001329011 -4.64711e-05 0.0001203555 0.123463191 -0.0208029777
225298650.0 -0.7627025114 0.3706326814 0.0002729146 0.0001357101 0.0002230454 -0.0001068354 0.1226553261 -0.0232735972
230298620.0 -0.7587074257 0.3790091798 0.0002584046 -2.79204e-05 0.0002442241 0.0001587629 0.1226604958 -0.026028376
235298590.0 -0.7549460876 0.3876450475 0.0001735323 0.0002885727 -3.41177e-05 0.0001194818 0.1222136387 -0.0281621989
240298560.0 -0.7510386773 0.3950170604 2.83891e-05 0.0002911122 -5.52519e-05 0.0004200378 0.121719041 -0.0303595441
245298530.0 -0.7465282324 0.4028607157 0.0001910316 2.60514e-05 0.0004384677 0.0002366784 0.121255949 -0.0324316822
250298500.0 -0.7421885069 0.4103785404 0.0001987721 -1.56569e-05 4.60943e-05 0.0001989848 0.1211339121 -0.0345823874
255298470.0 -0.7376629417 0.4192672388 0.0002416055 0.0001237687 0.0002732411 0.0001223439 0.1199727357 -0.0368236138
260298440.0 -0.7335665426 0.4255874502 0.0001233651 0.0001986513 0.0002317991 3.54069e-05 0.1195245555 -0.0385440556
265298410.0 -0.7290507182 0.4339254727 0.0001831179 0.0003338255 -6.76992e-05 0.0002600092 0.1188473759 -0.0408349498
270298380.0 -0.7241200051 0.4421190173 0.000238818 0.0002812492 0.0001956236 0.0001133556 0.1187172049 -0.0428034563
275298350.0 -0.7191411298 0.4496055993 8.20158e-05 0.0002695184 0.0001748614 0.000148109 0.1178173657 -0.0445303842
280298320.0 -0.7150313155 0.4565904845 0.0001472361 5.40587e-05 9.95327e-05 6.61317e-05 0.1171471509 -0.046418645
285298290.0 -0.7104200755 0.4645388929 0.0001847604 0.0003127362 -0.0001458543 0.0002942603 0.1161891252 -0.0483329583
290298260.0 -0.7056029838 0.471620521 -7.49832e-05 0.0002447929 9.53274e-05 6.90054e-05 0.1157339716 -0.0498607
295298230.0 -0.7008932503 0.4792284811 0.0002415257 0.0001346374 1.5683e-06 0.0001245717 0.1149600432 -0.0515911255
300298200.0 -0.6943765945 0.4867485949 0.0001109674 0.0003177251 1.13161e-05 -8.54997e-05 0.11392528 -0.0533506703
305298170.0 -0.6902422133 0.4941974642 0.0001434796 8.58097e-05 9.3704e-05 8.30282e-05 0.1138997768 -0.0548233868
310298140.0 -0.6853777843 0.5009927165 0.0001496094 9.82438e-05 0.000187513 0.0001797999 0.1123278977 -0.0564322882
315298110.0 -0.6791157805 0.5077027824 0.0002657959 0.0001734876 0.0001836803 0.0002969779 0.1121384361 -0.0584099147
320298080.0 -0.6742456689 0.5157128173 0.0001399151 0.0001348253 0.0002203348 0.0002939731 0.1110348592 -0.060351429
325298050.0 -0.6684821974 0.5224097698 1.97808e-05 0.0001444313 0.000269521 1.77336e-05 0.1097950687 -0.0619938536
330298020.0 -0.6629311859 0.5289261455 0.000127782 0.0002247094 0.0002405274 5.31592e-05 0.108675414 -0.0636575928
335297990.0 -0.6572240371 0.5364374088 0.0002076223 5.49055e-05 8.04707e-05 0.0002797248 0.1075267795 -0.0654155816
340297960.0 -0.6522078241 0.5429118099 0.0002404147 0.0001272954 0.0002264198 0.0001055598 0.1063241422 -0.0668275964
345297930.0 -0.6462427971 0.5494858822 0.0003548157 0.0001793629 0.00012406 9.77585e-05 0.1052263641 -0.0680326946
350297900.0 -0.6405926272 0.5565452959 0.0003689886 6.04349e-05 9.56505e-05 0.0001335084 0.1039045678 -0.0690530141
355297870.0 -0.6345631995 0.5628705041 -6.77467e-05 0.0001631189 0.0001335099 6.81531e-05 0.1029346892 -0.0703637928
360297840.0 -0.6287661639 0.5692938595 0.0001001448 0.0001101618 0.0001462453 0.0002453957 0.1018314091 -0.0716734165
365297810.0 -0.6225253359 0.5765578768 0.0001886482 5.8285e-06 0.0001608532 0.0001820425 0.1001854232 -0.0729592359
370297780.0 -0.6158293818 0.5818056113 0.0001616941 -6.00123e-05 0.0002010003 9.30118e-05 0.099375895 -0.0738087832
375297750.0 -0.6100017396 0.5880944087 0.0001682175 8.30613e-05 0.0003057768 8.33654e-05 0.0983295 -0.075256986
380297720.0 -0.6038611477 0.5947342598 0.0001533645 0.0001489902 4.37237e-05 3.88433e-05 0.0971789277 -0.0761023522
385297690.0 -0.5974863095 0.6009904808 0.0002811037 0.000242829 0.000214612 5.71587e-05 0.0956259737 -0.0771976958
390297660.0 -0.5914760556 0.6068643457 0.0002569015 0.0001592446 9.34032e-05 9.58726e-05 0.0946272383 -0.0784708855
395297630.0 -0.585763267 0.6130835948 0.0001689621 0.0001698597 0.0002145027 1.42892e-05 0.0932809436 -0.0794274487
400297600.0 -0.578999152 0.6190804576 0.0003131983 0.0001636259 0.0003271076 4.66887e-05 0.0917778704 -0.0806800538
405297570.0 -0.5727210675 0.624776442 0.000154811 0.0001814562 0.0002065974 0.0001804503 0.0908238084 -0.0814946934
410297540.0 -0.5657540797 0.6310378693 0.0004201734 6.47684e-05 1.8259e-05 0.0001532209 0.0894593713 -0.0824130367
415297510.0 -0.559076063 0.6370086925 0.0001702136 0.0001347217 0.0001420366 0.0002624091 0.0882816691 -0.0831882581
420297480.0 -0.5514438447 0.642646897 0.0001967313 0.0001264376 0.000197793 0.0002128652 0.086836976 -0.0846548426
425297450.0 -0.5455167726 0.6475690657 0.0001360024 0.000149709 0.0001100113 0.0001712799 0.0858063209 -0.0853300099
430297420.0 -0.5393179972 0.6534833005 0.0002877938 8.49184e-05 0.0004066907 7.54552e-05 0.084455381 -0.0862475291
435297390.0 -0.5321000502 0.6595397841 0.0002850334 0.0001226834 0.0002163744 0.0001283709 0.0835177281 -0.0868103905
440297360.0 -0.5251821112 0.6644675576 0.0002593783 0.0002016629 0.000298378 0.0002777896 0.0815433934 -0.0881220921
445297330.0 -0.518405126 0.6698719042 0.0002792671 0.0003391138 0.0003398705 0.0002709458 0.0804380295 -0.0889771193
450297300.0 -0.5112037363 0.6743450369 0.000572753 0.0001553993 0.0001226631 0.0003290728 0.079109502 -0.0896883259
455297270.0 -0.5042254555 0.6804160263 0.0004671224 -1.09677e-05 0.0002007758 0.000238067 0.0776786165 -0.0906076218
460297240.0 -0.4975806699 0.6855903035 0.0003726119 0.0001130606 0.0002369688 0.0002151505 0.0766203085 -0.0913165512
465297210.0 -0.4902817333 0.6905717033 0.00022528 0.0001020216 0.0001745206 0.0002307951 0.0748884226 -0.0922954345
470297180.0 -0.4829745677 0.694849728 0.0005363887 7.29961e-05 0.0002527477 0.0001941565 0.0729338027 -0.092756135
475297150.0 -0.4757156933 0.700002685 0.0002823026 0.0001369457 0.0001907891 3.13373e-05 0.0723981817 -0.0936088456
480297120.0 -0.4688999637 0.7046069124 0.0003621842 0.0001766988 0.0003604185 1.57769e-05 0.0711426559 -0.0943808984
485297090.0 -0.4615118583 0.7096167076 0.0001263354 -2.50569e-05 0.0003706104 8.7245e-05 0.0692466642 -0.0949797101
490297060.0 -0.4540848368 0.714072084 0.0002139433 -3.09763e-05 0.0001734444 5.07656e-05 0.0680459274 -0.0958669428
495297030.0 -0.4472179847 0.7190504965 0.0003563577 9.42872e-05 0.0002609647 0.0001543994 0.0667010337 -0.0966798235
500297000.0 -0.4388306158 0.7237212495 0.0005286865 0.0001641653 0.0003279571 -1.04762e-05 0.0651169126 -0.097270771
505296970.0 -0.4311549851 0.7273410004 0.000254903 5.14875e-05 7.84572e-05 -1.95404e-05 0.063392396 -0.0976550051
510296940.0 -0.424572215 0.7319978899 0.0005917879 -0.0001013939 0.0002259914 1.39599e-05 0.0622755925 -0.0983353027
515296910.0 -0.4170108041 0.7365285487 0.0003337953 -2.7125e-06 0.0002104494 -2.34629e-05 0.0610213708 -0.0987001125
520296880.0 -0.4092498066 0.7412309091 0.0002465614 0.0001672593 0.0004291358 4.92907e-05 0.0595288757 -0.0997939074
525296850.0 -0.4017864276 0.74469634 0.0003830916 -3.09992e-05 0.0004171621 3.26295e-05 0.0582148486 -0.1002286402
530296820.0 -0.3944511528 0.7480454537 0.0002617276 9.36121e-05 0.0003389445 0.0001717512 0.0564159353 -0.1006884619
535296790.0 -0.3856012177 0.7525018871 0.0002306088 -8.4121e-06 0.0003297902 -6.61718e-05 0.0549826401 -0.1013531115
540296760.0 -0.378403382 0.7560399013 0.0006266996 0.0004148615 7.44079e-05 -4.35148e-05 0.0536560077 -0.1016996151
545296730.0 -0.371017445 0.7596028375 0.0001764565 0.0003182046 0.0002045974 0.00023434 0.052002209 -0.102120989
550296700.0 -0.3630939574 0.7641504948 0.0003387902 4.6666e-06 0.0003530141 0.0002230064 0.0509742765 -0.1027379557
555296670.0 -0.3543562646 0.7676088936 0.0002429263 0.0001771243 0.0002849 4.55334e-05 0.0490625183 -0.1028423798
560296640.0 -0.3472747088 0.770463578 0.0001990438 -9.22912e-05 0.0002556932 0.0001515291 0.0481122367 -0.1036465713
565296610.0 -0.339639587 0.7738522657 0.0001214459 -0.0001816342 0.0002114263 3.7326e-06 0.0464249681 -0.1039336077
570296580.0 -0.3312141695 0.7776692886 0.0003412823 0.0002992402 0.0002646604 0.000155711 0.0452853145 -0.1039973631
575296550.0 -0.3233988504 0.7804295117 0.0002214694 -2.50974e-05 0.0003106217 -9.9083e-05 0.0437528667 -0.1045901219
580296520.0 -0.3158223705 0.784551041 0.0004498508 -4.68698e-05 0.0003435745 0.0002123688 0.0420939721 -0.1047142501
585296490.0 -0.3076625831 0.7868243198 0.000180257 6.5859e-06 0.0003795566 0.0001891913 0.0406602823 -0.1053927157
590296460.0 -0.2993663026 0.7898196638 0.0002747581 9.6576e-06 0.0003131282 -2.95024e-05 0.0394155269 -0.105773029
595296430.0 -0.2914969451 0.793583815 0.0001141524 0.000214377 0.0003595833 6.74266e-05 0.0375646874 -0.105990722
600296400.0 -0.2834538435 0.7954568032 0.0002303182 0.0004205508 4.726e-06 -2.72722e-05 0.0366128625 -0.1062421909
605296370.0 -0.275198071 0.7991254429 0.0001565152 4.27898e-05 0.0002413089 -0.0001436409 0.0347110935 -0.1064325105
610296340.0 -0.2673935157 0.8016009921 0.0002893495 8.14471e-05 0.0004903991 -6.3061e-05 0.0333776136 -0.1064626911
615296310.0 -0.259262332 0.8044601847 0.0004013477 0.0001852091 0.0004430733 1.11067e-05 0.0320144468 -0.1067882357
620296280.0 -0.2508431025 0.8063158126 0.0002581303 0.0001693642 0.0005204703 3.1845e-06 0.0301516346 -0.1074929734
625296250.0 -0.2424260632 0.8090675917 0.0003930718 -0.0001186704 0.0001437041 -0.0001656537 0.0292458038 -0.1070602685
630296220.0 -0.2340283723 0.8116026433 0.0004657717 2.11193e-05 0.0004177765 0.0001621067 0.0274830663 -0.1071269396
635296190.0 -0.2259487324 0.8138102685 0.0003685277 -1.64585e-05 0.0005190675 4.53214e-05 0.0262621653 -0.1073108388
640296160.0 -0.2180051497 0.8151933969 0.0004340548 0.000124013 0.0001740937 0.0001127956 0.0244415444 -0.1075756432
645296130.0 -0.209959849 0.8178672739 0.000422396 3.73842e-05 0.000305078 -1.37498e-05 0.0227815645 -0.1075382298
650296100.0 -0.2015532471 0.8205227495 0.0002388224 3.51379e-05 0.0004077027 -0.0001069308 0.0214216609 -0.1075967593
655296070.0 -0.1931418769 0.8221251397 0.0002799995 -1.85353e-05 0.0005440245 -5.4789e-05 0.0200325082 -0.1072732143
660296040.0 -0.185321426 0.8241785028 0.0005136402 0.0001410312 0.0003584263 0.0001618202 0.0185318414 -0.1076704559
665296010.0 -0.1770384358 0.8261084318 0.0005039052 9.43603e-05 0.0005782924 0.000209072 0.0172035119 -0.1075811925
670295980.0 -0.1680431077 0.8272594426 0.0002769851 0.0002275381 0.0004480086 -2.73509e-05 0.0155695492 -0.1075943766
675295950.0 -0.1599883654 0.8285587612 0.0005669484 0.000102703 0.0003563667 1.10518e-05 0.0144018801 -0.1074740608
680295920.0 -0.1513902203 0.8305742757 0.0002206232 8.19082e-05 0.0003851332 -0.0001391501 0.0127230834 -0.107471979
685295890.0 -0.1425947975 0.8320146939 0.0004800905 0.0001793038 0.0002621229 -0.0002020558 0.0113266993 -0.1073680322
690295860.0 -0.1343238009 0.8340183066 0.0005459977 4.47103e-05 0.0005625271 -0.0002211044 0.0097879873 -0.1072886672
695295830.0 -0.1265260586 0.8344476406 0.0004114646 -3.6297e-05 0.0003368911 3.29565e-05 0.0081700331 -0.1075100082
700295800.0 -0.1176734928 0.8357776382 0.0001965645 -0.0002514424 0.0002494255 -2.62086e-05 0.0068131538 -0.1071988577
705295770.0 -0.1087135612 0.8374987535 0.0003144826 -0.0001540521 0.000348699 -2.30765e-05 0.0053015167 -0.1069102717
710295740.0 -0.1011949982 0.8382167964 0.0004084439 -5.3679e-06 0.0003409659 -0.0001139156 0.0038144015 -0.1064836132
715295710.0 -0.0927627487 0.8390757468 0.000377423 -0.0001058742 0.0003668328 1.9424e-06 0.0024123928 -0.1067072703
720295680.0 -0.0844582898 0.8394264321 0.0006046667 0.0001323062 0.000374724 6.66807e-05 0.0014627586 -0.1066101149
725295650.0 -0.0744039592 0.8412119849 0.0004873863 2.09043e-05 9.83683e-05 8.27412e-05 3.93026e-05 -0.1062203575
730295620.0 -0.067663333 0.8414083831 0.0003784707 7.35794e-05 0.0004466396 -3.5107e-06 -0.0017514415 -0.1062195423
735295590.0 -0.0579721054 0.8417241148 0.000371652 -0.0002047957 0.0004903066 -2.56638e-05 -0.0031643233 -0.1056884894
740295560.0 -0.049950039 0.8426678999 0.0004089087 -8.94346e-05 0.0005725123 -0.0002463028 -0.004764963 -0.1059891409
745295530.0 -0.0417365807 0.8425404675 0.0002297961 5.33861e-05 0.0003147169 -0.0003047244 -0.0061271836 -0.1053774509
750295500.0 -0.0336643859 0.8430789359 0.0003827903 -0.000208697 0.0002466694 0.0001376895 -0.007498242 -0.1052090586
755295470.0 -0.0242843582 0.8433244007 0.0003439815 8.17965e-05 0.0001547094 -0.0001454848 -0.0092546116 -0.1044063141
760295440.0 -0.0159642499 0.8438020895 0.0004491967 5.656e-05 0.000345302 -0.0002357113 -0.0106819964 -0.1042277753
765295410.0 -0.0081295491 0.8442866681 0.0004582974 -0.000268466 0.0003705077 -2.31574e-05 -0.0117585277 -0.1039663716
770295380.0 0.000860913 0.8444429903 0.0004667315 -9.09503e-05 0.0003102692 -6.41609e-05 -0.0129961944 -0.1037815296
775295350.0 0.0088206574 0.8438256425 0.0005553169 -9.1583e-06 0.0004217493 8.45174e-05 -0.014811305 -0.1034697605
780295320.0 0.0179622912 0.8437401582 0.0002096224 0.0002294382 0.0003900009 -0.0001636484 -0.0163120237 -0.1028393071
785295290.0 0.025863422 0.8438349838 0.0004933064 0.0001379647 0.0003699526 -0.0001176313 -0.0173289462 -0.1021557582
790295260.0 0.0345134012 0.8432983427 0.0006593249 -9.43628e-05 0.0004575079 -8.04477e-05 -0.0185192867 -0.1021467908
795295230.0 0.042612178 0.8434025185 0.000502562 -0.0002235848 0.0004228067 -0.0001045877 -0.0198109622 -0.1013786809
800295200.0 0.0513187825 0.8423594514 0.0004841625 -0.0002225681 0.0002360584 -3.50602e-05 -0.0213675026 -0.1011560219
805295170.0 0.0598244944 0.8421255651 0.0004049334 -0.0002292055 0.0004101349 -4.18067e-05 -0.0228462558 -0.1006791416
810295140.0 0.0680584927 0.8406775026 0.0006480783 -2.83104e-05 0.0004831412 -7.38867e-05 -0.0238717377 -0.0999654882
815295110.0 0.076917755 0.8402581532 0.000470757 -0.0001636018 0.0004690037 -0.0001422087 -0.0254215514 -0.099253642
820295080.0 0.0852142428 0.8384701987 0.0003523943 3.45595e-05 0.0003336254 2.98723e-05 -0.0268008713 -0.0991806592
825295050.0 0.0941223623 0.8383690535 0.0003205971 -2.34255e-05 0.0002835852 -9.30581e-05 -0.0278666397 -0.0984097389
830295020.0 0.1020504581 0.8373588764 0.0004049971 -0.000260499 0.0001862103 -0.0001783101 -0.0294255552 -0.0978055277
835294990.0 0.1097537059 0.8373784305 0.0005005953 -0.0001538921 0.0003023016 3.55401e-05 -0.0303159752 -0.0975973389
840294960.0 0.1189156862 0.8352546299 0.0004253134 -0.0004710611 0.0003921275 -3.42402e-05 -0.0317195421 -0.0967609611
845294930.0 0.1267601185 0.8342529428 0.0003403809 -0.0002394038 0.0005557665 -0.0001973923 -0.0329036284 -0.0959120113
850294900.0 0.1353019796 0.8323808158 0.0005979403 -0.0001654568 0.0003989255 -2.35287e-05 -0.0341095304 -0.0951656115
