!Created with skrf (http://scikit-rf.org).
# Hz S RI R 50.0 
!freq ReS11 ImS11 ReS21 ImS21 ReS12 ImS12 ReS22 ImS22
300000.0 -0.2124915065 -0.0564811267 -0.0008514717 0.0008257739 3.08443e-05 0.001361329 -0.7723573754 -0.132299645
5299970.0 -0.2169009985 0.0084067985 -8.5225e-05 -0.0001529569 -0.0001014756 0.0001948224 -0.784311363 -0.0074163309
10299940.0 -0.2132394749 0.0194075855 4.31973e-05 -9.91534e-05 -6.36063e-05 -5.0711e-05 -0.7877967606 -0.0036679022
15299910.0 -0.2086784597 0.0286131407 -0.0001266244 -0.0001628814 9.15834e-05 -7.6277e-06 -0.7928392801 -0.0013478552
20299880.0 -0.2034568038 0.0357990849 3.62549e-05 -0.0001040589 -0.0002060267 4.05341e-05 -0.7995317819 0.002163651
25299850.0 -0.1979166351 0.0421337085 -8.41737e-05 -7.65415e-05 1.73121e-05 0.0001142875 -0.8059254131 0.0077818094
30299820.0 -0.1921350224 0.0468439829 4.0018e-05 0.0001491919 0.0001098162 -3.76547e-05 -0.8122198419 0.0163815415
35299790.0 -0.1865021512 0.0507921356 0.0001154157 -7.18213e-05 0.0001060684 -6.4388e-05 -0.8169338814 0.0251270948
40299760.0 -0.1807245508 0.0534311956 -6.37999e-05 0.0001380974 7.20231e-05 -2.00059e-05 -0.821088425 0.0346137536
45299730.0 -0.1753244545 0.0555301766 -0.0001388207 2.00818e-05 8.80668e-05 -4.57519e-05 -0.8255858159 0.044065773
50299700.0 -0.1709203272 0.056674283 -0.0001400523 -2.30579e-05 -6.86005e-05 2.24187e-05 -0.82736096 0.053978274
55299670.0 -0.166538273 0.0578104153 -8.46854e-05 -5.59352e-05 -1.31049e-05 0.000160997 -0.8293894768 0.0642147343
60299640.0 -0.1625025099 0.0587942914 6.08822e-05 2.55452e-05 9.9045e-05 6.48531e-05 -0.8305434706 0.074625333
65299610.0 -0.1590840059 0.05930031 -5.80287e-05 -8.70739e-05 3.07257e-05 -0.0001881794 -0.8322081363 0.0839530504
70299580.0 -0.1557688613 0.0596739555 3.95021e-05 7.6896e-05 1.4685e-06 0.0001376079 -0.8317180481 0.0944159805
75299550.0 -0.1525966441 0.059839663 6.97459e-05 -6.37327e-05 7.28279e-05 -7.82894e-05 -0.8325730567 0.1042676868
80299520.0 -0.1497943524 0.0602108336 2.22814e-05 7.40702e-05 6.24389e-05 -0.0001383285 -0.832148448 0.1140095265
85299490.0 -0.1479749374 0.0599319074 -5.8222e-06 -7.16553e-05 3.57696e-05 6.23016e-05 -0.8315075936 0.1240275566
90299460.0 -0.1454322078 0.0601369812 -6.44445e-05 -5.72e-05 6.32649e-05 7.28712e-05 -0.830488647 0.132868908
95299430.0 -0.143341981 0.0597795973 0.0001557861 -0.0001549754 8.20875e-05 5.95239e-05 -0.8297146915 0.1433829661
100299400.0 -0.1418789061 0.0598895741 0.0001490437 0.0003848022 0.0001695648 -1.6034e-05 -0.8286225457 0.1523084424
105299370.0 -0.1401374737 0.0599183608 9.80866e-05 0.0001272806 1.09474e-05 0.0001641753 -0.8269026632 0.1608276193
110299340.0 -0.1385380225 0.0599013734 -1.86972e-05 3.52336e-05 0.0001860158 -7.74242e-05 -0.8251900027 0.1707096867
115299310.0 -0.1372098242 0.0600625607 1.80749e-05 7.18811e-05 0.0001496334 -8.00936e-05 -0.8241892403 0.1798347947
120299280.0 -0.1358853246 0.0597150626 -5.42318e-05 -6.69428e-05 9.9317e-06 4.03598e-05 -0.8225063649 0.1891145298
125299250.0 -0.1351663406 0.0601007723 -1.15281e-05 -3.14958e-05 5.03534e-05 2.69998e-05 -0.8209755504 0.1981671198
130299220.0 -0.1341734602 0.0603127799 0.0001031674 0.0001286341 -3.33795e-05 0.0001381944 -0.8189646705 0.2067901795
135299190.0 -0.1332651864 0.0606281998 0.0003721313 0.0001834318 8.157e-07 5.529e-05 -0.8166997824 0.2162855404
140299160.0 -0.1325713647 0.0606628072 2.76135e-05 9.95714e-05 -2.19264e-05 9.59072e-05 -0.8144353733 0.2245977721
145299130.0 -0.1315049561 0.0609780326 -0.0001838284 0.0001123922 -1.22596e-05 3.3763e-06 -0.8120983656 0.2341612975
150299100.0 -0.1307447205 0.0614586444 -8.58669e-05 0.0001444741 0.0001248905 0.0001557939 -0.8105499222 0.243283463
155299070.0 -0.1301703476 0.0619562542 -0.0001229288 0.0001770974 -7.47604e-05 0.0001034656 -0.8072235494 0.2520186177
160299040.0 -0.1296292075 0.0624643799 -6.03557e-05 9.07985e-05 1.93386e-05 0.0001883062 -0.8054546164 0.2604474437
165299010.0 -0.1290389499 0.0626358906 -3.41933e-05 -7.77566e-05 0.0001567937 3.66996e-05 -0.8027542987 0.2694150127
170298980.0 -0.1286149804 0.0634852194 0.0001103518 0.0001485697 -5.7201e-05 0.000218406 -0.7992565735 0.2782517131
175298950.0 -0.1278296981 0.0642693622 -7.9348e-05 -0.0001305506 0.0001704552 -0.0001412869 -0.7971515171 0.2867916873
180298920.0 -0.127307243 0.0648660682 -0.0002717041 6.18027e-05 0.0002219537 0.0002097347 -0.7935565486 0.2955052702
185298890.0 -0.1266144902 0.0653505729 -8.41229e-05 6.42449e-05 -8.6093e-05 9.24083e-05 -0.7899411515 0.3039246102
190298860.0 -0.126159092 0.0660265849 0.0001929481 0.0001966197 -4.7077e-05 -8.1216e-06 -0.7881645952 0.3126169818
195298830.0 -0.1259509395 0.0665388244 0.0001311714 -0.0001046717 -0.0001549896 8.39443e-05 -0.7844344445 0.3208421744
200298800.0 -0.1251338146 0.0673307179 2.97089e-05 7.76403e-05 -0.0001724204 5.5965e-06 -0.7819643189 0.3292032931
205298770.0 -0.1249731493 0.0680481762 -3.7508e-05 0.0002131559 6.24371e-05 0.0001827542 -0.7775838409 0.3374281072
210298740.0 -0.1244632271 0.0687549161 -0.0001216345 -0.0001034184 0.0002446491 -6.20075e-05 -0.7745559558 0.3458549831
215298710.0 -0.1241372506 0.0694363794 -8.861e-07 7.52259e-05 7.36646e-05 7.93066e-05 -0.771731683 0.354344421
220298680.0 -0.1236822832 0.0703944082 -0.0001448323 0.0001191763 4.08324e-05 0.0002356776 -0.7670367557 0.3621743977
225298650.0 -0.1232807731 0.0713773252 0.0001305869 7.14022e-05 -9.77654e-05 0.0001251959 -0.763783797 0.370353087
230298620.0 -0.1227191205 0.0722466778 -0.0001895581 -1.27438e-05 0.0001221724 -3.99287e-05 -0.7598154848 0.378242547
235298590.0 -0.1220494184 0.0731021719 -5.47486e-05 9.72306e-05 8.9782e-06 7.23303e-05 -0.7561259979 0.3869399058
240298560.0 -0.1218237886 0.0737319341 6.13937e-05 -0.0001093619 -2.6363e-05 0.0001088744 -0.7513157443 0.3953410225
245298530.0 -0.1211888147 0.0748087876 8.30301e-05 7.49238e-05 0.0001755023 5.47668e-05 -0.7478554791 0.4024524415
250298500.0 -0.1206338151 0.0758435252 0.0001492497 0.0001986466 4.52492e-05 7.44341e-05 -0.7439132419 0.4102739188
255298470.0 -0.1206580547 0.0767673817 2.84224e-05 3.50406e-05 0.0001024209 -1.42282e-05 -0.7381936252 0.4179660941
260298440.0 -0.1201197937 0.0776779641 0.0001671063 4.37476e-05 4.17338e-05 0.0002480844 -0.7348219809 0.4261642342
265298410.0 -0.1196309771 0.0789284196 3.39903e-05 0.0001560592 0.0002184899 2.10463e-05 -0.7300972453 0.4337711764
270298380.0 -0.1189055348 0.0795766531 0.00022168 0.0001195386 0.0002004007 0.0001277225 -0.7256129984 0.4410954291
275298350.0 -0.1183264752 0.0806662922 7.47631e-05 0.000126921 0.0001512198 0.0002629499 -0.7211393137 0.4487839715
280298320.0 -0.1177199454 0.081703649 0.0003299904 -4.06099e-05 0.0002086197 9.37571e-05 -0.7155966978 0.4559859278
285298290.0 -0.1171488429 0.0831321559 0.0001188223 0.0001104568 6.74153e-05 0.0002934223 -0.7106776798 0.4636657934
290298260.0 -0.1162199625 0.0837201121 0.0001277725 -0.0001380544 0.0001870553 -8.606e-06 -0.7061208189 0.4709827281
295298230.0 -0.1157623031 0.0845577218 -1.90506e-05 -7.14516e-05 0.0002555261 -3.31227e-05 -0.7012238119 0.478008205
300298200.0 -0.1152888478 0.085659295 0.0002992305 -7.98987e-05 1.72548e-05 -5.53264e-05 -0.6959705594 0.4856799715
305298170.0 -0.1146654596 0.0867372072 -7.66236e-05 -0.0001390684 -0.0001174238 0.0001080432 -0.6904961215 0.4930994023
310298140.0 -0.1140129475 0.0879598746 3.45302e-05 2.49575e-05 8.36077e-05 -0.0003206026 -0.685464545 0.4997423088
315298110.0 -0.1132501192 0.0888681363 7.98503e-05 0.0002016887 -0.0001229768 -5.89784e-05 -0.6802587672 0.5065574508
320298080.0 -0.1125307719 0.0894952384 0.0002085247 6.18919e-05 0.0002287406 -0.0001481954 -0.674611588 0.5147934344
325298050.0 -0.1121396454 0.0905338077 -6.79193e-05 -8.67361e-05 9.15404e-05 0.0002877479 -0.669331222 0.5212158538
330298020.0 -0.1115478127 0.0912151692 -1.075e-06 4.098e-05 -2.78575e-05 7.7838e-05 -0.6635301979 0.5283256288
335297990.0 -0.1109213525 0.0923001202 0.0002637439 -1.57577e-05 0.0002159121 0.0001338328 -0.6587788665 0.5356172281
340297960.0 -0.110421657 0.0936259379 0.0001504978 0.0002909061 4.02693e-05 0.000189855 -0.6526541501 0.5425576346
345297930.0 -0.1100642152 0.0949177488 0.0003616667 0.0002616751 0.0002538271 0.0001167591 -0.6472211173 0.5489950815
350297900.0 -0.1092053472 0.0959151534 0.0004435126 -1.40008e-05 6.16009e-05 -0.0001454399 -0.6414820754 0.5557123006
355297870.0 -0.1085673918 0.0974514131 0.0002463551 0.000313499 0.000127086 0.0001026368 -0.6358809567 0.5617956184
360297840.0 -0.1076121393 0.0983184501 0.0001433203 0.0001097778 0.0001225444 0.0001160983 -0.6300537758 0.5689565728
365297810.0 -0.107302585 0.0995809204 7.44838e-05 -0.0001378471 0.0001977191 0.000145184 -0.6233943136 0.5752162488
370297780.0 -0.1063750424 0.1006150006 -5.8983e-05 -2.38694e-05 0.0002449991 2.16279e-05 -0.6177229514 0.5818004579
375297750.0 -0.1052877492 0.1016474421 0.0002340488 0.0001314182 -0.000133851 0.0001106596 -0.6113395399 0.5880759163
380297720.0 -0.1048256913 0.1022441478 0.000320985 3.16353e-05 0.0001102916 0.0001134799 -0.6057289618 0.5941601656
385297690.0 -0.1041363951 0.1037802377 0.0001938249 5.46556e-05 0.0002398881 -5.33087e-05 -0.5991681116 0.6007671965
390297660.0 -0.1035238893 0.1049825303 0.0001566229 5.74048e-05 -1.86694e-05 5.65729e-05 -0.5931759699 0.6069506696
395297630.0 -0.1021788168 0.1059642936 1.18251e-05 0.0001097911 0.0001106458 0.0001873876 -0.5868301786 0.6133418648
400297600.0 -0.1013772151 0.1072089691 0.0002806575 9.8417e-06 0.0003124982 3.20507e-05 -0.5809118758 0.6191829997
405297570.0 -0.1009672356 0.1081967917 0.0001672608 0.0001664301 0.000346088 0.0001421612 -0.5741109099 0.624944157
410297540.0 -0.100046857 0.1092342254 -4.47256e-05 0.000392116 0.0001151351 3.57345e-05 -0.5674356657 0.6305668386
415297510.0 -0.0987933571 0.1099992294 0.0003329212 7.19051e-05 0.0002129013 2.17797e-05 -0.5614962663 0.6368570841
420297480.0 -0.098320059 0.1113609357 0.0004005054 6.84976e-05 0.0001850133 1.52808e-05 -0.5546296802 0.6425921698
425297450.0 -0.0973325808 0.1125284367 0.0001552212 0.0001461756 0.000197545 0.000126911 -0.548478359 0.64816164
430297420.0 -0.0961108245 0.1135037774 0.0001376047 -4.96393e-05 0.0001505411 0.0001841659 -0.5414177099 0.6533940341
435297390.0 -0.0953078252 0.1146668543 0.0003217688 0.0001569976 0.0001717289 0.0001072908 -0.5338490961 0.6586943549
440297360.0 -0.0944097362 0.1155362959 -5.14248e-05 0.0001079452 0.0002475147 -5.8176e-06 -0.526760009 0.6639310195
445297330.0 -0.0937856824 0.1164686939 1.20514e-05 0.0001676442 0.0001910417 9.64221e-05 -0.5199136868 0.6685955592
450297300.0 -0.0925599213 0.1173640055 5.6389e-06 -8.42997e-05 5.27975e-05 -2.2356e-06 -0.5133985991 0.6741041063
455297270.0 -0.0916377192 0.1184042651 0.000105382 9.13549e-05 0.0001410359 0.0001485004 -0.5061800608 0.6786859405
460297240.0 -0.0906737354 0.1193382941 3.18984e-05 -8.0378e-05 0.0001004953 0.0001228021 -0.4997437066 0.6843483018
465297210.0 -0.08944467 0.1205469403 5.01943e-05 -0.0003063854 0.0004015684 2.71713e-05 -0.4918847753 0.6890596898
470297180.0 -0.088411383 0.1215185308 0.0002237934 8.19588e-05 3.88354e-05 -9.04274e-05 -0.4848214896 0.6947026221
475297150.0 -0.0877355799 0.1225889521 0.0001654985 -4.00844e-05 0.0002670511 0.0001127707 -0.4776305101 0.6990186082
480297120.0 -0.0863673164 0.1237310641 0.0001274214 4.47884e-05 0.0003998972 6.54136e-05 -0.4705799447 0.7038987383
485297090.0 -0.0853709085 0.1245859245 0.0003897824 -0.0001444979 0.0002185163 -1.52524e-05 -0.4629717254 0.7086621123
490297060.0 -0.0845064493 0.1256396693 0.0004900833 0.0003631445 0.0001703308 1.6168e-05 -0.4557250833 0.7127646145
495297030.0 -0.083234389 0.1266473239 0.0001052189 0.0004005402 7.20802e-05 0.0002186843 -0.4488989519 0.7178655724
500297000.0 -0.0819816688 0.1274897689 0.0002659369 -3.8567e-05 6.91092e-05 -9.13618e-05 -0.4406984646 0.7227335006
505296970.0 -0.0808625306 0.1284169198 -0.0001149196 0.0001910972 9.42381e-05 6.94345e-05 -0.4334036281 0.7268075714
510296940.0 -0.0798393889 0.1292256955 0.0003628896 0.0003433811 0.0003225271 0.0002230772 -0.4257564232 0.7309924331
515296910.0 -0.0784247093 0.1300869039 -2.00423e-05 -3.81216e-05 9.6657e-05 0.0001443551 -0.4186425619 0.7353909222
520296880.0 -0.0778763439 0.1312809539 0.0003318827 0.0001000574 0.0003936376 5.12875e-05 -0.4109798957 0.73921021
525296850.0 -0.0764208853 0.1317448905 0.0003402486 0.0002704683 0.0002430005 0.0003091602 -0.40396084 0.7439972054
530296820.0 -0.075185291 0.1327609387 0.0002602482 0.0001720185 0.0002633764 0.0001452841 -0.3962405279 0.7476853237
535296790.0 -0.0741515296 0.1337947768 0.0001995178 0.0001493517 0.0001359994 6.64261e-05 -0.3892059487 0.7515484193
540296760.0 -0.0732310849 0.1348488165 0.0001785039 -5.24431e-05 0.000141381 -0.0001279276 -0.3813554775 0.7559966793
545296730.0 -0.0721047584 0.1355965101 0.0003667495 9.56124e-05 0.0003201535 5.97807e-05 -0.3731783971 0.7595068383
550296700.0 -0.0703174621 0.1365368972 0.000193847 -0.0001143801 0.0003689483 4.6835e-06 -0.3653573053 0.7633891726
555296670.0 -0.0695233397 0.1369961023 0.0001584831 0.000164931 0.0001836649 0.0001165705 -0.3574480973 0.7673312576
560296640.0 -0.0678101399 0.1381471454 0.0001291944 9.78939e-05 0.0003280873 7.8174e-06 -0.3498061816 0.7711240918
565296610.0 -0.0666152549 0.1390749337 0.000117293 0.0002017815 0.0002382631 0.0001808361 -0.3422267896 0.7740910441
570296580.0 -0.0658083571 0.1396236063 0.0002329774 0.0002044961 0.0002976947 1.84885e-05 -0.3343703734 0.7784224603
575296550.0 -0.064367716 0.1408535779 0.0001930566 -6.8546e-06 0.0003011214 0.0001239661 -0.3266295624 0.7807373614
580296520.0 -0.063167594 0.1410944192 0.0002399461 0.0001773477 0.0001765832 0.0001033218 -0.3179590901 0.7842049657
585296490.0 -0.0620523502 0.1418796936 8.67051e-05 8.98589e-05 0.0001806558 8.79593e-05 -0.3104498622 0.7879124944
590296460.0 -0.0604347377 0.1426042459 0.0002902573 -0.0001384257 0.0002892812 0.0001387718 -0.3026707636 0.7903446637
595296430.0 -0.0592573214 0.1435769831 -6.93085e-05 5.21292e-05 -7.21937e-05 -3.82996e-05 -0.2944763078 0.7927883336
600296400.0 -0.058307018 0.1444436321 0.0002994392 -0.0001285469 0.0002771708 -7.54629e-05 -0.2866225008 0.7953291573
605296370.0 -0.0568386133 0.1450006077 8.35323e-05 0.0001283081 0.0002973929 0.0001908581 -0.2775158104 0.7988322998
610296340.0 -0.0555513722 0.1457339572 0.0003727671 -0.0002019533 0.000147742 0.000146619 -0.2699864094 0.8009183461
615296310.0 -0.0539202193 0.1463587617 0.000241567 -4.4311e-06 -7.08086e-05 -6.76928e-05 -0.2615551207 0.8033303613
620296280.0 -0.0530963728 0.1469504181 8.9562e-06 0.0002980509 0.0002642551 0.0002108094 -0.2543126258 0.8064466608
625296250.0 -0.051547664 0.1478893459 0.0002781308 0.0001762308 0.0001848146 1.59017e-05 -0.2452133958 0.8081277912
630296220.0 -0.04974072 0.148272633 0.0002819146 -1.11754e-05 0.0002498083 6.79876e-05 -0.2376152082 0.810814186
635296190.0 -0.0489443479 0.1491814326 0.0001912508 -2.78582e-05 0.0001040693 -0.000135209 -0.2299711402 0.8129181758
640296160.0 -0.0476872487 0.1498552225 0.0001382625 6.9084e-06 0.0002587582 0.0001230169 -0.2215723279 0.8156624754
645296130.0 -0.0463732064 0.1507297273 0.0002233019 9.04531e-05 0.0002459536 0.0002021126 -0.2126630712 0.8179916954
650296100.0 -0.0448012585 0.1511559404 0.0003520532 -0.0002540101 0.000184931 0.0001837923 -0.20444412 0.8192205332
655296070.0 -0.043188238 0.1516233627 0.0002890866 0.0002588346 0.0003434047 0.0002948376 -0.1963053536 0.8209298383
660296040.0 -0.0421707857 0.1522016441 0.000349704 -0.0001588611 0.0003901183 4.13888e-05 -0.1872529689 0.8238027876
665296010.0 -0.0405168351 0.152345348 0.0002558656 7.6964e-05 0.0002305538 -0.0001091575 -0.1792370124 0.8253719466
670295980.0 -0.0393810055 0.1536465724 0.0001943205 -8.01949e-05 0.0004176067 -0.0002313301 -0.1713496902 0.8268604893
675295950.0 -0.0378369773 0.1539380648 0.0001654433 -0.0002373832 -3.71126e-05 5.89657e-05 -0.1635932664 0.8285623059
680295920.0 -0.036316607 0.1544974797 0.0002769309 -5.62244e-05 0.0001838219 -1.69093e-05 -0.1545090482 0.831406016
685295890.0 -0.0347534705 0.1553031372 0.0002759987 -8.52282e-05 0.000195149 -1.67673e-05 -0.146011544 0.8320672302
690295860.0 -0.0333511486 0.1557607126 2.1891e-05 0.000148205 3.58163e-05 -0.0001465278 -0.1381829207 0.8333646104
695295830.0 -0.0320597283 0.1564515468 0.0003460251 0.0001254771 0.0002929166 -9.29096e-05 -0.1291684104 0.8350119789
700295800.0 -0.0307113794 0.156601888 0.0002636454 -1.81803e-05 0.0003563905 2.76289e-05 -0.1217132181 0.8361640131
705295770.0 -0.0292429097 0.1573777766 0.0003727996 7.05363e-05 0.0001574231 1.1657e-05 -0.1135894615 0.8382465155
710295740.0 -0.0278082571 0.1575598284 0.0001668996 -0.0001016456 0.0003727014 0.0001400031 -0.1050486367 0.8388185535
715295710.0 -0.0265602897 0.1579158349 4.09901e-05 1.53201e-05 0.0001926624 4.56497e-05 -0.0958032615 0.8393111548
720295680.0 -0.0249320818 0.1585469482 0.0003628079 2.75869e-05 0.0003248096 -3.6236e-06 -0.0874265315 0.8407302445
725295650.0 -0.0232064183 0.1593646404 0.0003785224 0.0001138396 0.0005910586 -3.52168e-05 -0.0795088702 0.8418183828
730295620.0 -0.0218385598 0.1596213165 0.0002100179 -8.81374e-05 0.0002239337 -9.7601e-06 -0.0715226983 0.842601951
735295590.0 -0.0204738795 0.1599496478 0.0003165785 -0.0001536641 0.0003722196 1.24596e-05 -0.063152153 0.8424037672
740295560.0 -0.0187599864 0.1604286429 0.0001899285 -0.0001241509 0.0002061245 0.0001528433 -0.0541129271 0.8442487474
745295530.0 -0.0174977483 0.1608147962 0.0005536759 6.75025e-05 0.0002285926 4.05005e-05 -0.0454345276 0.8437676433
750295500.0 -0.0155613107 0.1611583167 0.0002490564 -0.0001946412 0.0003178661 -1.26466e-05 -0.0379693532 0.8447755338
755295470.0 -0.0144137492 0.1615445945 0.0004468936 0.0002149579 0.0002244181 -4.30037e-05 -0.0287308079 0.8443175772
760295440.0 -0.0131361637 0.1616899845 0.0002183594 -0.0001745942 0.0003067545 6.50302e-05 -0.0208307102 0.8444083231
765295410.0 -0.011347302 0.1620736674 0.0001536923 -0.0002180334 0.0002566067 -0.0001753285 -0.0121692604 0.8449742196
770295380.0 -0.0100502935 0.1623386505 0.0003426633 -8.95791e-05 0.0003535248 8.49297e-05 -0.0042208261 0.8447216245
775295350.0 -0.0089202195 0.1626322225 0.0002153666 8.15724e-05 0.0003589593 7.671e-06 0.0040714844 0.8442081983
780295320.0 -0.0072379775 0.1627944209 0.0004380851 -0.0001755855 0.0002587359 0.0002011086 0.0123093255 0.8441321121
785295290.0 -0.0055786714 0.162811507 0.0001381105 -0.0001319282 0.0001902679 0.0001080634 0.0214509147 0.8441925555
790295260.0 -0.0036791389 0.1633636266 0.0002453333 -0.0002497602 0.0002128556 -8.06673e-05 0.0301335425 0.8441679669
795295230.0 -0.0025981358 0.1636828831 0.0002094094 -0.0002271259 0.0002614426 -0.0001318641 0.0387321987 0.8433110914
800295200.0 -0.0007450035 0.1641918864 0.0003829451 0.0001026243 0.0001953017 -3.52422e-05 0.0476648812 0.8428010414
805295170.0 0.0005280224 0.1639795784 0.0002703353 -0.0001720979 0.0005177912 -0.0001955205 0.0550994439 0.842517896
810295140.0 0.0021702111 0.1641754146 0.0001842506 4.02786e-05 -5.68273e-05 -6.294e-05 0.0641142161 0.8415981899
815295110.0 0.0036203242 0.164164532 0.0001489684 0.0001021648 0.0002781755 -0.0002205404 0.0718684791 0.8408502146
820295080.0 0.0053508311 0.1647139822 0.0003733974 -0.0001273182 0.000291925 -4.23977e-05 0.0811798572 0.8405634177
825295050.0 0.0070843234 0.1644977331 0.0003365871 5.7593e-05 0.0003173125 -9.51002e-05 0.0885793114 0.8397331491
830295020.0 0.0083579698 0.1650799913 0.0001718796 -6.47204e-05 0.0002439753 4.9897e-06 0.0982889629 0.8388851597
835294990.0 0.0099003313 0.1648075883 0.0001578095 -0.0002592094 0.0003667966 5.77505e-05 0.1054012657 0.8374955281
840294960.0 0.0113545035 0.1652383462 0.0004241436 -9.53242e-05 0.0002534485 -0.0001235703 0.1139078466 0.8364829905
845294930.0 0.0127627777 0.1654423849 7.61703e-05 -0.0001935029 0.0003158045 -3.66229e-05 0.1223254474 0.8353148908
850294900.0 0.014291086 0.1654618718 0.000361165 -5.35678e-05 0.0003984947 -0.0001564923 0.1298845309 0.8341673164
