!Created with skrf (http://scikit-rf.org).
# Hz S RI R 50.0 
!freq ReS11 ImS11 ReS21 ImS21 ReS12 ImS12 ReS22 ImS22
300000.0 -0.319163971 -0.1034987523 0.372448836 0.0528872953 0.3734238426 0.0557322998 -0.3181848507 -0.112566114
5299970.0 -0.3236377006 0.0046477145 0.3787242196 0.0026239611 0.3783150571 0.0030024026 -0.3261713004 0.0028044356
10299940.0 -0.3208533542 0.0154510041 0.3800132796 0.0024670614 0.3795627205 0.0025203605 -0.3240764511 0.0126567524
15299910.0 -0.318162611 0.0237283198 0.3820735999 0.0019116903 0.3820690822 0.0023944811 -0.321362689 0.019794783
20299880.0 -0.314499877 0.0302153508 0.3853584392 0.0016127723 0.384994091 0.001603695 -0.3185834265 0.0263114948
25299850.0 -0.310729176 0.0355346753 0.3886653353 -0.0003704279 0.3880490989 5.88976e-05 -0.3155700969 0.0313175403
30299820.0 -0.3070844538 0.0405454831 0.3922269493 -0.0020491671 0.3919461287 -0.0022824153 -0.3126385421 0.0356686914
35299790.0 -0.3029596574 0.0448202666 0.395077037 -0.0053683035 0.3952744731 -0.005260422 -0.3097898146 0.0394764941
40299760.0 -0.2994519778 0.0478132802 0.3981156602 -0.0084454922 0.3983088165 -0.0088161305 -0.3070063488 0.0430377207
45299730.0 -0.2964312991 0.0515245178 0.4010029049 -0.0130319336 0.4012174718 -0.0126484809 -0.3047019566 0.0462004772
50299700.0 -0.2932774941 0.0542232947 0.4033046161 -0.0174493414 0.4035567058 -0.0177117046 -0.3020825917 0.0492833848
55299670.0 -0.290857589 0.0568927192 0.4055113336 -0.0222132125 0.4057162826 -0.0217611188 -0.3002496562 0.0518216103
60299640.0 -0.2880978969 0.0589772771 0.4074564461 -0.0268821151 0.4075902352 -0.0268103813 -0.2980426311 0.0545350326
65299610.0 -0.2861692917 0.0617265054 0.409779826 -0.0318203936 0.4093759343 -0.0317061311 -0.2963091794 0.0570593877
70299580.0 -0.2837988621 0.0637036864 0.4105274568 -0.0370529499 0.4105571464 -0.036953535 -0.2946597932 0.0596921256
75299550.0 -0.2815975558 0.065987982 0.4114570641 -0.0421935371 0.4116815862 -0.042258286 -0.2929288078 0.0620360255
80299520.0 -0.2804008925 0.0683343999 0.4128695663 -0.0475692382 0.4125811868 -0.0474883146 -0.2914524484 0.0639360646
85299490.0 -0.2784124144 0.0697425868 0.4129059562 -0.0527456361 0.4129169524 -0.0526272588 -0.2901318849 0.0661516758
90299460.0 -0.2771392067 0.0722452291 0.4135423912 -0.0576138395 0.4137789481 -0.0579765136 -0.288899374 0.0690273351
95299430.0 -0.2756866268 0.0741991033 0.4139421502 -0.0635128401 0.4139109776 -0.0628999146 -0.2875849563 0.0711568486
100299400.0 -0.2744668028 0.0766027896 0.4137161954 -0.0686815253 0.4138554031 -0.0683259705 -0.2865933003 0.0732841738
105299370.0 -0.273217593 0.0783653224 0.4134395802 -0.073157338 0.4137983387 -0.073457555 -0.2855545984 0.075480006
110299340.0 -0.2723431236 0.0802928967 0.4134871061 -0.0786338591 0.4134446724 -0.0790902172 -0.2845545375 0.0781836505
115299310.0 -0.2706280779 0.0824016614 0.4128161296 -0.0835258469 0.4133261657 -0.0834988157 -0.2831583671 0.0798702831
120299280.0 -0.2697234692 0.0846740316 0.4130148353 -0.0889728569 0.4129301837 -0.0890064565 -0.2824099582 0.0826111355
125299250.0 -0.2688595349 0.0868153116 0.4120441366 -0.0939092296 0.4122245849 -0.0941752174 -0.2813262027 0.084770309
130299220.0 -0.2677502116 0.0890646196 0.4115629266 -0.0987318512 0.4114696675 -0.0992645724 -0.2805197196 0.0875619302
135299190.0 -0.2666802597 0.0911648832 0.4108332489 -0.1038086303 0.4105255742 -0.1041327508 -0.2796116766 0.0896999241
140299160.0 -0.2660310987 0.0935565888 0.41023847 -0.1091279661 0.4102022156 -0.109324911 -0.2786321512 0.0920947972
145299130.0 -0.2646825214 0.0960028647 0.4092950047 -0.1140070016 0.4091200671 -0.1138387173 -0.2781767263 0.0947913708
150299100.0 -0.263843034 0.0981823074 0.4082020429 -0.1189135404 0.4080712924 -0.1189902121 -0.2772705714 0.0968236419
155299070.0 -0.2629278994 0.1007266241 0.4069940428 -0.1240719945 0.4071648511 -0.1240385017 -0.2761615842 0.0993580732
160299040.0 -0.2619099209 0.1030076665 0.4058189046 -0.1284948901 0.4061093139 -0.1286623541 -0.2751615199 0.1022992053
165299010.0 -0.2612644585 0.1052994523 0.4046457641 -0.133550029 0.4046742914 -0.1335640491 -0.2740950836 0.1045332249
170298980.0 -0.2601782191 0.1079386709 0.4029459445 -0.1384977819 0.4031892296 -0.1383750192 -0.2731391182 0.1072177492
175298950.0 -0.2590324929 0.1103995348 0.4023442964 -0.1431666005 0.4020821095 -0.1433810157 -0.2721468378 0.1097795373
180298920.0 -0.2579598802 0.1126098201 0.400736607 -0.1479102312 0.4002388624 -0.1479915694 -0.2708035785 0.1124995878
185298890.0 -0.2568971281 0.1151401603 0.3986744132 -0.1527661917 0.3988034634 -0.152516323 -0.2704071824 0.114731834
190298860.0 -0.2558607192 0.1177535916 0.3971610063 -0.1575474021 0.3974684152 -0.1576289592 -0.2687566329 0.1174474789
195298830.0 -0.2545819075 0.1200031214 0.3957040429 -0.1615569816 0.395646927 -0.162077292 -0.2679894999 0.119975736
200298800.0 -0.2537101139 0.1229694057 0.3944025338 -0.1663681963 0.3938522222 -0.166528598 -0.2665940112 0.1229185658
205298770.0 -0.2526554206 0.1254038636 0.3923694496 -0.1712074447 0.3924144577 -0.1711657743 -0.2656679128 0.1251844314
210298740.0 -0.2514756643 0.1279292075 0.390237038 -0.1759390845 0.3904823109 -0.1758592618 -0.2645481586 0.128143143
215298710.0 -0.2502870503 0.1304481966 0.3885559315 -0.1802464451 0.3882816812 -0.1802592134 -0.2635878615 0.1309236663
220298680.0 -0.2494022511 0.132935665 0.3865609987 -0.1846910568 0.3864639222 -0.1847612354 -0.2621721007 0.1337447847
225298650.0 -0.2475903068 0.1355034171 0.3842907362 -0.1890877309 0.3842722979 -0.1889304416 -0.2611414741 0.1364014118
230298620.0 -0.2466773519 0.1380422537 0.3826206585 -0.1935946955 0.3826311989 -0.1935618893 -0.2595528242 0.1387993808
235298590.0 -0.2455274484 0.1407380376 0.380491511 -0.1979692725 0.3805511612 -0.1980402604 -0.258274724 0.1413156721
240298560.0 -0.2443322082 0.143084549 0.3783452751 -0.2019418531 0.3783885402 -0.2020738274 -0.2572284721 0.1443510954
245298530.0 -0.2425583796 0.1458241609 0.3754819355 -0.206730747 0.3760989208 -0.2067318555 -0.2557928462 0.1470864127
250298500.0 -0.2417885453 0.148178219 0.3741583167 -0.2104124886 0.3739762125 -0.210412198 -0.2540924051 0.1497323017
255298470.0 -0.2398942738 0.151247594 0.3709379434 -0.2154579721 0.3711443871 -0.2148647966 -0.2526296245 0.1523926538
260298440.0 -0.2387324865 0.1534484967 0.368974698 -0.2191833567 0.3690710936 -0.2192084092 -0.2510163244 0.1549777405
265298410.0 -0.2371971602 0.1562332221 0.3666619478 -0.223501812 0.3665836322 -0.2234055582 -0.2497803135 0.1575232482
270298380.0 -0.235619551 0.1588378731 0.3637205495 -0.2277852177 0.3641410873 -0.2277207395 -0.2479443478 0.1603585526
275298350.0 -0.2342365655 0.1612044745 0.3617233539 -0.2318671637 0.361647311 -0.2320717279 -0.2461589327 0.1629200155
280298320.0 -0.2327528819 0.1635081034 0.3593584336 -0.2356431097 0.3588070827 -0.2358470154 -0.2447144831 0.1655699999
285298290.0 -0.2308310155 0.1664554179 0.35611223 -0.2398815265 0.3563552949 -0.2399560743 -0.2429444739 0.1685486556
290298260.0 -0.2295198884 0.1689854748 0.3540038142 -0.243951529 0.3537596935 -0.243874008 -0.2409269868 0.1712309203
295298230.0 -0.2276086513 0.171431544 0.3512902494 -0.2478201881 0.3509707525 -0.2480863873 -0.2395084974 0.1740100687
300298200.0 -0.2257329773 0.1738947788 0.3483086441 -0.2523564832 0.3484735138 -0.2521606666 -0.2376780445 0.1765711386
305298170.0 -0.2237093193 0.176093238 0.3456977175 -0.2560142863 0.3459010561 -0.2562109688 -0.2356180546 0.1794076773
310298140.0 -0.2221764057 0.1783506532 0.3429967874 -0.2599553182 0.3431284435 -0.2603098077 -0.234179537 0.1820006143
315298110.0 -0.2207780887 0.1808490984 0.3400230325 -0.2638302516 0.3399407702 -0.2642578058 -0.2318998796 0.1843535897
320298080.0 -0.2187933728 0.1833992881 0.3371010007 -0.267968194 0.3367718622 -0.267599944 -0.2302909967 0.1865354888
325298050.0 -0.2169082103 0.1855249281 0.3342639515 -0.2715817499 0.3341118364 -0.2716695936 -0.2284231319 0.1890353377
330298020.0 -0.2150734648 0.188040602 0.3304493878 -0.2754111172 0.3306690828 -0.2755323954 -0.2264500515 0.1917839094
335297990.0 -0.2134629257 0.1902389841 0.3278164858 -0.2790547849 0.3276326119 -0.2792514079 -0.2249770052 0.194162513
340297960.0 -0.2119582992 0.1927175415 0.3244796976 -0.2828066951 0.3245929143 -0.2824273409 -0.222582073 0.1966441493
345297930.0 -0.2100433046 0.1951090659 0.3211489087 -0.286103669 0.3208283413 -0.2858569753 -0.2206912858 0.1995874811
350297900.0 -0.207732689 0.1974765391 0.3177836581 -0.2894622838 0.3181497282 -0.2894864703 -0.2190204377 0.2021881711
355297870.0 -0.2061963143 0.199724121 0.3148122485 -0.292889082 0.3147259254 -0.2935517072 -0.2168537634 0.2048771938
360297840.0 -0.2038784831 0.2020545294 0.3115328486 -0.2969593907 0.3113499393 -0.2968639996 -0.214632868 0.2072114941
365297810.0 -0.2017243966 0.2045870456 0.3077150693 -0.3001385934 0.3082481575 -0.3000898199 -0.2126203853 0.2101484127
370297780.0 -0.1996428577 0.2066345349 0.3047723968 -0.3034723941 0.3049261659 -0.3036808961 -0.2104592866 0.2121906527
375297750.0 -0.1974137069 0.2095077752 0.3018778692 -0.3070729155 0.3015710166 -0.3066146511 -0.2082994707 0.2146224293
380297720.0 -0.1953525997 0.2113894384 0.2981497038 -0.3099416626 0.2979886442 -0.309871572 -0.205872665 0.2173543375
385297690.0 -0.193114428 0.2139936727 0.2944497922 -0.3132527074 0.294304842 -0.3133938857 -0.2034734452 0.220028334
390297660.0 -0.1908999147 0.2157861922 0.2908979389 -0.3164933428 0.2909577116 -0.3165863879 -0.2012883239 0.2216175714
395297630.0 -0.1888039459 0.2180289547 0.2875272502 -0.319596372 0.2874977521 -0.3201175063 -0.1992180834 0.224580086
400297600.0 -0.1865853515 0.2204151786 0.2841165786 -0.3225693929 0.2841947243 -0.3228965923 -0.1972786913 0.226553031
405297570.0 -0.1839705414 0.2225467992 0.2802977845 -0.3260627742 0.2804648333 -0.3261014128 -0.1946956477 0.2291571543
410297540.0 -0.1818169368 0.2245034756 0.2764072066 -0.3290741746 0.2763150607 -0.3290312632 -0.1920254241 0.2314217892
415297510.0 -0.1795198727 0.2267318717 0.2727484401 -0.3318523518 0.2730093243 -0.3320806972 -0.1898829121 0.2340115939
420297480.0 -0.1768046393 0.2284798863 0.2691390484 -0.3348790427 0.2693265334 -0.334922262 -0.1873321966 0.2357139582
425297450.0 -0.174615123 0.2304671622 0.2655798967 -0.3378763623 0.2659479629 -0.337908368 -0.1848859096 0.2381847438
430297420.0 -0.1724608606 0.2327370104 0.2620352392 -0.3413472522 0.2619941656 -0.3407653976 -0.1824388523 0.2399398473
435297390.0 -0.1698000177 0.2344904146 0.2582055918 -0.3437742797 0.2581528919 -0.3432945038 -0.179953835 0.2425561696
440297360.0 -0.1672688125 0.2366477171 0.2537650589 -0.3462760505 0.253824803 -0.3464143152 -0.1776049666 0.2442006471
445297330.0 -0.1646858193 0.2382993703 0.2502099048 -0.3491308355 0.2503153074 -0.349263138 -0.1750704159 0.2465046184
450297300.0 -0.1624722314 0.240321156 0.2464315474 -0.3520380242 0.2468906289 -0.3518789032 -0.1727150347 0.2485486786
455297270.0 -0.1600444296 0.2421963909 0.242924809 -0.3547029645 0.2429758184 -0.3544219397 -0.1700230302 0.2507804239
460297240.0 -0.157676371 0.244036819 0.2386548011 -0.3568762418 0.2385809527 -0.3570709083 -0.1669152134 0.252774961
465297210.0 -0.154357345 0.2460413135 0.2344130841 -0.35955784 0.2350180734 -0.3596964887 -0.1649326132 0.2546290633
470297180.0 -0.1521897493 0.2474288562 0.2309113415 -0.3618475118 0.2308645007 -0.3617770702 -0.1626749771 0.2565222268
475297150.0 -0.1495581922 0.249333363 0.2265557345 -0.3644870457 0.2270117904 -0.3643079357 -0.1597425204 0.2583090368
480297120.0 -0.1471510763 0.2510499251 0.2229478225 -0.3667014178 0.2229500307 -0.3668168765 -0.1570626815 0.2607254541
485297090.0 -0.1442199455 0.2527502974 0.2190644882 -0.3695025299 0.2189020993 -0.369452193 -0.1544356964 0.2621996035
490297060.0 -0.1415034616 0.254255992 0.2146277982 -0.3715074013 0.2148267364 -0.3715412714 -0.1516479656 0.2640997374
495297030.0 -0.1390921822 0.2562901534 0.2103359326 -0.3740203368 0.2104663406 -0.373891167 -0.1487848624 0.2653649855
500297000.0 -0.1361180134 0.25752116 0.2061268883 -0.3763984349 0.2066526851 -0.3760141423 -0.1462855499 0.267468308
505296970.0 -0.1335663194 0.2589804001 0.2021481056 -0.3778533738 0.2021666313 -0.3781890801 -0.1443016428 0.2698938788
510296940.0 -0.1309133942 0.2607069689 0.1983405409 -0.3805565721 0.1982450642 -0.3806711833 -0.140368573 0.2710737903
515296910.0 -0.1285833082 0.262385023 0.1943075832 -0.3824386875 0.194025052 -0.3825126362 -0.1378704017 0.2727478721
520296880.0 -0.1255112468 0.2638733418 0.1897850437 -0.3844197182 0.1897410448 -0.3847147579 -0.1351835245 0.2743902542
525296850.0 -0.1226404877 0.2652686472 0.1856678321 -0.3868375985 0.185765781 -0.3868920458 -0.1321017507 0.2759324005
530296820.0 -0.1200603884 0.2665586994 0.1812229663 -0.3879701621 0.1813870658 -0.388107925 -0.1297457675 0.277283668
535296790.0 -0.1171349648 0.2678832603 0.1772572238 -0.3898627832 0.1771316981 -0.3899096862 -0.1269340675 0.278725129
540296760.0 -0.114267069 0.2693460626 0.1729256342 -0.3925493063 0.1726482478 -0.392412588 -0.1240313875 0.2806422055
545296730.0 -0.1113072097 0.2711042248 0.168407017 -0.3939160973 0.1686137938 -0.3940486733 -0.1209279529 0.2818245697
550296700.0 -0.1086773029 0.2722638877 0.1641139795 -0.3962929781 0.1643507131 -0.3962371803 -0.118094637 0.2836552267
555296670.0 -0.105300981 0.2735650318 0.1595836911 -0.3979021153 0.159794937 -0.3978207249 -0.1153861786 0.2851464169
560296640.0 -0.1027452028 0.2746551826 0.1553667101 -0.3991494793 0.1555362993 -0.399132151 -0.1121774277 0.2863325852
565296610.0 -0.10022247 0.2758411544 0.1513548283 -0.4008750976 0.1510978492 -0.4008739336 -0.1095573841 0.2873590774
570296580.0 -0.096835989 0.2769347701 0.1465193795 -0.4023667975 0.1471530126 -0.4029225128 -0.1064770207 0.2894160697
575296550.0 -0.0941624752 0.2784436993 0.1423561922 -0.4040085103 0.1428092079 -0.4039463258 -0.1033968507 0.2902318143
580296520.0 -0.0910987593 0.2793180224 0.1382899366 -0.4055560119 0.1378721166 -0.4054502575 -0.1005848791 0.2914594222
585296490.0 -0.0880186503 0.2801657222 0.1336577254 -0.4070703074 0.1337641526 -0.4066056617 -0.0977545942 0.2925522314
590296460.0 -0.0854595805 0.2811616104 0.1290221899 -0.4081382907 0.1287838591 -0.4085972983 -0.0940815177 0.2938573776
595296430.0 -0.0823040059 0.2825689579 0.1247018493 -0.4097316985 0.1246500038 -0.4098221112 -0.0911393469 0.2947591094
600296400.0 -0.0792496118 0.2835106679 0.1203986054 -0.4111926829 0.1205648152 -0.4113801398 -0.0882626382 0.2962494275
605296370.0 -0.0762511287 0.2846644346 0.1158791103 -0.4124530654 0.1156962372 -0.4121222669 -0.085227941 0.2971726235
610296340.0 -0.0734151916 0.2854940057 0.1116505657 -0.4134397128 0.1115353157 -0.4134856028 -0.0821680051 0.2984430607
615296310.0 -0.0701714841 0.2865399663 0.1068469852 -0.4143650401 0.1066527689 -0.414806964 -0.0788857503 0.2991412992
620296280.0 -0.0672851642 0.2871659748 0.1024922869 -0.4154624138 0.1022434446 -0.4156513833 -0.0762252932 0.3000972235
625296250.0 -0.0642139975 0.2882485713 0.0976998244 -0.4167726415 0.0977807267 -0.4167561586 -0.0730089325 0.3010241286
630296220.0 -0.0609650104 0.2891305925 0.0931147525 -0.4179686792 0.0935294505 -0.4178041419 -0.0700438839 0.3020179847
635296190.0 -0.058035682 0.2897952682 0.0886505076 -0.4183364376 0.0886010838 -0.4181799735 -0.0670214235 0.3028215619
640296160.0 -0.0550070776 0.2900469692 0.0842754873 -0.4193494144 0.0841585066 -0.4194145739 -0.0636270019 0.3036388011
645296130.0 -0.0521180403 0.2916226329 0.0797014772 -0.4205755026 0.0798744535 -0.4204014131 -0.060972372 0.3044014459
650296100.0 -0.0487247269 0.2924381335 0.0750999823 -0.4210063877 0.0751152532 -0.4210245624 -0.0576402267 0.3053700676
655296070.0 -0.0459096062 0.2925301576 0.0706621971 -0.421948928 0.0704324446 -0.4220236693 -0.0541165264 0.3064789297
660296040.0 -0.043254011 0.2934923278 0.0661475977 -0.4223651381 0.0660347986 -0.4222207948 -0.0512570325 0.306373874
665296010.0 -0.0396100469 0.293854495 0.0616152109 -0.4231210074 0.0618825615 -0.4233225518 -0.0481600105 0.3074384672
670295980.0 -0.0361046815 0.2944004883 0.0565806627 -0.4237353845 0.0571061211 -0.4237208869 -0.0451026971 0.3080895066
675295950.0 -0.0333287678 0.2948762498 0.0522038465 -0.4244237575 0.0524930622 -0.4247810534 -0.0416936205 0.3087488357
680295920.0 -0.0305289234 0.2957087667 0.0476327346 -0.4248343766 0.0475211235 -0.4250920395 -0.0386315629 0.3093993888
685295890.0 -0.0272047755 0.296252602 0.0431451059 -0.4255758502 0.0428532205 -0.425487456 -0.035258127 0.3098379593
690295860.0 -0.0237603891 0.2964566562 0.0382101952 -0.4254275601 0.0381557901 -0.4255573377 -0.0318690479 0.3104363119
695295830.0 -0.0206403037 0.2965660775 0.0334545415 -0.4258474001 0.0333836154 -0.4262666429 -0.0293076617 0.3109027537
700295800.0 -0.0173451499 0.2969610595 0.0286297773 -0.4259450578 0.0292106126 -0.4265793045 -0.0258407033 0.3108607781
705295770.0 -0.0143462199 0.2974173186 0.0242397942 -0.4267744179 0.0248088266 -0.4267885935 -0.0226984419 0.3117445861
710295740.0 -0.0112944867 0.2979660857 0.0196341 -0.426480886 0.0198931581 -0.4268300172 -0.019727205 0.3122630735
715295710.0 -0.0083703998 0.2980922639 0.015230088 -0.4268361708 0.015399091 -0.4269617218 -0.0162983437 0.3124008382
720295680.0 -0.0051620422 0.2982330596 0.0103960629 -0.4268875845 0.0105855981 -0.427453796 -0.0126333852 0.3127567603
725295650.0 -0.0014453992 0.2986012141 0.0054856763 -0.4269051511 0.0059200154 -0.4270398968 -0.0094070766 0.3130395802
730295620.0 0.0011387648 0.2984822478 0.0015639378 -0.427062033 0.0012401639 -0.427027932 -0.006017499 0.3127806393
735295590.0 0.0048404101 0.2987499783 -0.0032962869 -0.4269192719 -0.0032008626 -0.4273179919 -0.0028502275 0.3134149868
740295560.0 0.0077923702 0.2990869838 -0.0080746339 -0.4266175063 -0.008138918 -0.4267577737 0.0006928772 0.3130557783
745295530.0 0.0105951199 0.2988517787 -0.0128021678 -0.4270153388 -0.0123406372 -0.4270912467 0.0032459502 0.3136549866
750295500.0 0.0139059871 0.2986944664 -0.0170971121 -0.4265776185 -0.0173752995 -0.4265724623 0.0068377082 0.3134301058
755295470.0 0.017709105 0.2988232069 -0.0220250951 -0.4261364742 -0.0217079437 -0.4265010118 0.0097621091 0.3138147612
760295440.0 0.0202215036 0.2989463544 -0.026324968 -0.4261555573 -0.0262335703 -0.4259481119 0.0127266946 0.3136417725
765295410.0 0.0234502325 0.2987518704 -0.0303099945 -0.4252650719 -0.0307962994 -0.4259124384 0.0165674952 0.3137664327
770295380.0 0.0269837279 0.2989960326 -0.0359431861 -0.4250624161 -0.0356709766 -0.4257712255 0.0201270048 0.3136191099
775295350.0 0.0299289039 0.298845539 -0.0404758633 -0.4246702029 -0.039971869 -0.4248336266 0.0229320621 0.3129526249
780295320.0 0.0330950869 0.2982166841 -0.0444666158 -0.4242427431 -0.0444332173 -0.4245319644 0.0260279084 0.3135482153
785295290.0 0.036203709 0.2986470857 -0.0492572528 -0.4233596692 -0.0493617593 -0.4238423295 0.0291674799 0.3134426028
790295260.0 0.0393789483 0.2979437683 -0.0541381633 -0.4230069592 -0.0538535137 -0.4232910333 0.0330382388 0.3133589657
795295230.0 0.0424278849 0.2979334936 -0.0578847297 -0.4222694245 -0.0578879742 -0.4226415034 0.0360963395 0.3135879539
800295200.0 0.0459649656 0.2977232018 -0.0632540098 -0.4217952657 -0.0633983604 -0.4220142953 0.0395233973 0.3127719573
805295170.0 0.0486411613 0.2970319853 -0.0674923302 -0.4207673157 -0.0677333362 -0.4210071563 0.0422452816 0.3120920895
810295140.0 0.0522376467 0.2966555842 -0.0719467584 -0.4203681669 -0.0722147652 -0.4208253495 0.0457691863 0.3126956543
815295110.0 0.0550970989 0.2962750259 -0.0765356787 -0.41925992 -0.0768329293 -0.4194448752 0.0489504733 0.3120236333
820295080.0 0.0582272768 0.2955308721 -0.0808655804 -0.4187114324 -0.081019506 -0.4184983681 0.0521375512 0.3113588664
825295050.0 0.0616312203 0.2953566454 -0.0853721846 -0.4172483467 -0.0856835704 -0.4175744229 0.0556228461 0.3111118534
830295020.0 0.064752846 0.2950304712 -0.0903108442 -0.4164353042 -0.0905144862 -0.4168032408 0.0586740653 0.3106364514
