!Created with skrf (http://scikit-rf.org).
# Hz S RI R 50.0 
!freq ReS11 ImS11 ReS21 ImS21 ReS12 ImS12 ReS22 ImS22
300000.0 -0.0997342781 -0.0717952561 0.6291755603 0.0666662187 0.6238089766 0.0651649362 -0.1006838212 -0.075800907
5299970.0 -0.1020563604 0.0129110101 0.6302885311 0.0100534008 0.6306628032 0.0104599378 -0.1008923583 0.0131505495
10299940.0 -0.0973000459 0.0293109726 0.6341263926 0.0152002478 0.6341123022 0.0158407427 -0.0959255113 0.0303860652
15299910.0 -0.089890631 0.0425019816 0.640454205 0.0201471207 0.6408356314 0.0204616147 -0.0886973605 0.0433968352
20299880.0 -0.081785983 0.0530886033 0.6487872309 0.0247135168 0.6484195671 0.0245543513 -0.080128179 0.0544433027
25299850.0 -0.0722941333 0.0621786916 0.6577331316 0.0250695037 0.657548204 0.0255745647 -0.0695926417 0.0632745923
30299820.0 -0.0621908522 0.0690589591 0.6672679778 0.0241012534 0.6670912191 0.0246138725 -0.059939683 0.0700438167
35299790.0 -0.0524011966 0.0737806896 0.6774811256 0.021517876 0.6768659105 0.0215459597 -0.050051852 0.0747102222
40299760.0 -0.0434211833 0.0773186608 0.6861313979 0.017073671 0.6863636827 0.0176787634 -0.0402722057 0.0775231445
45299730.0 -0.0340502466 0.0792805585 0.6950161601 0.0119292286 0.6951397509 0.0122050106 -0.0317301276 0.0797540753
50299700.0 -0.0257219736 0.0803043618 0.703703489 0.005162618 0.7034619277 0.0056402642 -0.0230248551 0.0805553435
55299670.0 -0.0175022346 0.0805335918 0.7109766223 -0.0033506303 0.7107433139 -0.0022934133 -0.0148479925 0.0808956124
60299640.0 -0.0100072892 0.0801943219 0.7172749117 -0.011550088 0.7180101437 -0.0105660698 -0.0078683289 0.0795401846
65299610.0 -0.0037222023 0.0789532282 0.7230666915 -0.0199005864 0.7233122336 -0.0198031651 -0.0010466005 0.0785068869
70299580.0 0.002587458 0.0777863916 0.7286403544 -0.0292594782 0.7283162602 -0.0292482659 0.0048429392 0.0766788728
75299550.0 0.0080811044 0.075954699 0.7328587891 -0.0385786378 0.7327597044 -0.0388951121 0.0100188639 0.074863798
80299520.0 0.0131872741 0.0736881298 0.7371036375 -0.04903525 0.7374364014 -0.0487710143 0.0151610597 0.0727238939
85299490.0 0.0177408082 0.0713493819 0.7399757916 -0.0582797195 0.7405299097 -0.0582802844 0.0193020134 0.0697602525
90299460.0 0.0216603779 0.0690358894 0.74251579 -0.0688339768 0.7434584456 -0.0689836112 0.0237654778 0.0683396488
95299430.0 0.0259951339 0.0666469041 0.7458338729 -0.0786934423 0.7459871655 -0.0791795479 0.0275623106 0.0656480676
100299400.0 0.0291666356 0.0647373792 0.7466813367 -0.0889453492 0.7471836092 -0.0891741267 0.0310877017 0.0626683322
105299370.0 0.0323352164 0.0619736193 0.7487435886 -0.0994352586 0.7492970615 -0.098951807 0.0341316523 0.0608152578
110299340.0 0.035039161 0.0598340303 0.7498600851 -0.1090267057 0.7498100167 -0.1085363901 0.0361356487 0.0576933522
115299310.0 0.037492863 0.0573880304 0.7510431844 -0.1190787489 0.7506543645 -0.1189571493 0.0391612566 0.0555270262
120299280.0 0.0400268254 0.0547306414 0.7513800183 -0.1289309439 0.7516783119 -0.1294525103 0.0412933259 0.0532781781
125299250.0 0.0418951645 0.0522912349 0.7514931565 -0.138636501 0.7516115024 -0.1384614496 0.0425792899 0.0505744012
130299220.0 0.0437042983 0.0502703782 0.7510340634 -0.1492690804 0.7510899652 -0.1488692569 0.0450321024 0.0480952463
135299190.0 0.045360704 0.0483180208 0.7516379151 -0.1590017641 0.7510848992 -0.1583210383 0.0463843038 0.0462101323
140299160.0 0.0467294408 0.0464189395 0.750858633 -0.1687985457 0.7506199923 -0.1686909313 0.0479738386 0.0446675136
145299130.0 0.04830661 0.0439129896 0.7502537884 -0.1783945276 0.749918928 -0.1781664572 0.049576607 0.042311231
150299100.0 0.0498874734 0.0422457429 0.7483939402 -0.1875147046 0.7491811734 -0.1870882309 0.0506801462 0.0404515156
155299070.0 0.0503846597 0.0398651106 0.7478729421 -0.1984299705 0.747809794 -0.1972359741 0.0516984735 0.0384630331
160299040.0 0.0519907928 0.0381424016 0.7464856152 -0.2070173394 0.7458682886 -0.2074174276 0.0523616402 0.0364669251
165299010.0 0.0524225351 0.0364316345 0.7448390222 -0.2167267928 0.7449880671 -0.2165792859 0.0536917949 0.035104967
170298980.0 0.0536292299 0.0339680536 0.7432158473 -0.2266115399 0.7429538775 -0.2261323669 0.054288348 0.0334436909
175298950.0 0.0537057098 0.0323364457 0.7414772621 -0.2354086612 0.740737902 -0.2352974109 0.0549312424 0.0313404989
180298920.0 0.054495655 0.0307550155 0.7393212439 -0.2445649153 0.7392217574 -0.2441919038 0.0555707859 0.0299760284
185298890.0 0.0554609769 0.0289394747 0.7366689278 -0.2540178439 0.7364922661 -0.253534377 0.0559325444 0.0283547847
190298860.0 0.0555319536 0.0274619767 0.7345383265 -0.2627001164 0.7348467352 -0.2626575089 0.0562165559 0.0264185076
195298830.0 0.0561321492 0.0254099905 0.7318750099 -0.2720888945 0.7320858423 -0.2717651779 0.0570709197 0.024868913
200298800.0 0.0567437819 0.0242797328 0.7291615631 -0.2811024157 0.7291888182 -0.2807329893 0.0568064139 0.0237673348
205298770.0 0.0568424266 0.0230739339 0.7256371402 -0.2899252926 0.726313956 -0.2894862568 0.0574623766 0.0215468914
210298740.0 0.0574748148 0.0210863439 0.7232705998 -0.2983503892 0.7232024272 -0.2982614297 0.058057837 0.0215480053
215298710.0 0.0567632993 0.0198738076 0.7203787816 -0.3073432473 0.7204688832 -0.3070870966 0.0576749416 0.0199251623
220298680.0 0.0575666054 0.017782753 0.7168816116 -0.3158749867 0.7169352723 -0.3154477894 0.0576371622 0.0178558691
225298650.0 0.0578241105 0.0169467081 0.7138296825 -0.3246710154 0.7139292164 -0.3241301234 0.0574499345 0.0166041774
230298620.0 0.0579956266 0.0159442812 0.7110462886 -0.3326144642 0.7109518302 -0.3328114488 0.0574613708 0.0150039479
235298590.0 0.0579559411 0.0147199298 0.7069972626 -0.3413219591 0.7071397247 -0.3408134712 0.0575978159 0.0137845663
240298560.0 0.0582204857 0.013393272 0.7037018225 -0.3496076708 0.7032205473 -0.3500339674 0.0577181834 0.0132182696
245298530.0 0.057781962 0.0121339252 0.7000161855 -0.3578628638 0.6999277063 -0.3584044348 0.0584763734 0.0110521692
250298500.0 0.0586596829 0.0113141247 0.6953541928 -0.3659642052 0.6954465701 -0.3655114817 0.057877388 0.0103701025
255298470.0 0.0582747404 0.0094337688 0.6915517489 -0.3740313187 0.6918178441 -0.3736543342 0.0582608041 0.0089330978
260298440.0 0.058014195 0.0081367872 0.6877965523 -0.3828300554 0.6880617734 -0.3822751297 0.0585343286 0.0080449409
265298410.0 0.0587041187 0.0078155888 0.6838878099 -0.3910344489 0.6838952613 -0.3901668959 0.0582736675 0.0072194913
270298380.0 0.0586808252 0.0062677291 0.6799247514 -0.3984460487 0.6798338496 -0.3982704412 0.058186015 0.0056851775
275298350.0 0.059182342 0.0050295545 0.6754063569 -0.4065143792 0.6759905512 -0.4065338627 0.0584457995 0.0044730435
280298320.0 0.0586533756 0.0043668364 0.6714860043 -0.4141589332 0.6715105523 -0.414234389 0.0588579812 0.0035496467
285298290.0 0.0587455494 0.0033440081 0.6671295235 -0.4220013903 0.6660841262 -0.4220741885 0.058548887 0.0022940209
290298260.0 0.0591339644 0.0023185176 0.6624947969 -0.4293082885 0.6623705174 -0.429782962 0.0587132418 0.0017153609
295298230.0 0.0591695248 0.0009087902 0.6579529233 -0.4375195865 0.6579475059 -0.4374024765 0.0595221648 0.0003083199
300298200.0 0.0584776265 -0.0003574778 0.6532901531 -0.445147217 0.6531451861 -0.4458534721 0.0588836723 -0.000801957
305298170.0 0.0587856593 -0.0012178067 0.6480081931 -0.4530536799 0.6477800685 -0.4528082285 0.0594394332 -0.0020848454
310298140.0 0.0584189422 -0.0023390699 0.6432386424 -0.4607434859 0.6437003964 -0.4603840885 0.0594452468 -0.0030533731
315298110.0 0.0583983265 -0.004033133 0.6379097865 -0.4685179436 0.6385411678 -0.4681677048 0.059133231 -0.004438939
320298080.0 0.0586996481 -0.0047629321 0.6329611419 -0.4764152898 0.6333312046 -0.4759216977 0.0586141348 -0.0051988703
325298050.0 0.05787405 -0.0059387143 0.6269193418 -0.4839798678 0.6274211354 -0.4827789827 0.0581598469 -0.0061645907
330298020.0 0.0572380589 -0.0072316179 0.6214851489 -0.4906852012 0.6219445041 -0.4907149579 0.057485139 -0.0074859985
335297990.0 0.0573464633 -0.0085334405 0.61575889 -0.4976034799 0.6157303705 -0.4973929594 0.0566499857 -0.0076759248
340297960.0 0.0560765747 -0.0088553769 0.61031462 -0.5043813612 0.6098538604 -0.5045135871 0.0569721416 -0.0085167637
345297930.0 0.0558648211 -0.0090702026 0.6047616577 -0.511557632 0.6042012418 -0.5119128324 0.0565721978 -0.0097432484
350297900.0 0.0554491287 -0.0107921462 0.5975498217 -0.5186478981 0.5980308096 -0.5181883156 0.0555078174 -0.0097411511
355297870.0 0.0549054008 -0.0105024097 0.5924624435 -0.5247140853 0.5932349767 -0.5250222772 0.0551458129 -0.0108100667
360297840.0 0.0549268264 -0.0111153853 0.5878726325 -0.5317117937 0.5878051255 -0.5309895983 0.0550242995 -0.0110333693
365297810.0 0.0540270963 -0.0118782119 0.580877458 -0.5386250818 0.5818641874 -0.5378068214 0.0548898396 -0.0116544298
370297780.0 0.0543704454 -0.0130944827 0.5747582325 -0.5447949593 0.5750923716 -0.544015275 0.0540943837 -0.0124244664
375297750.0 0.0540339751 -0.0135833808 0.5690485072 -0.55095036 0.5695515595 -0.5510080133 0.0545499902 -0.0128476092
380297720.0 0.0537264161 -0.0141473287 0.5626057097 -0.5579614992 0.5633003447 -0.5567619739 0.0535252077 -0.0138834765
385297690.0 0.0529533379 -0.014963068 0.5563879656 -0.5635033244 0.5564844636 -0.5627581201 0.0531196032 -0.0142923593
390297660.0 0.0529446928 -0.0151408848 0.5509490926 -0.5699232085 0.5505388292 -0.5692732318 0.0528355047 -0.015490074
395297630.0 0.0523631205 -0.0160858583 0.5440574625 -0.5758088189 0.5447276492 -0.5759219308 0.0532893994 -0.0157751228
400297600.0 0.0520822589 -0.0165001551 0.5372235092 -0.5824061941 0.5379949646 -0.5817891243 0.0522864471 -0.0163146538
405297570.0 0.0511930765 -0.017403154 0.5311800741 -0.5874264453 0.5315947448 -0.5874807515 0.0516616752 -0.0169963949
410297540.0 0.0514817624 -0.0178372147 0.5254357255 -0.5944714695 0.5253128661 -0.5938516784 0.0515227449 -0.0169428172
415297510.0 0.0513646715 -0.0186979094 0.5179271325 -0.5997124625 0.5187204877 -0.5997063918 0.050888551 -0.0178937143
420297480.0 0.0508744037 -0.0188895054 0.5114760642 -0.605526278 0.5118375868 -0.6060940486 0.0506096284 -0.0191525295
425297450.0 0.0503908083 -0.0203263165 0.5050485591 -0.6114401465 0.5053413875 -0.610769979 0.049509949 -0.0189093482
430297420.0 0.0499070166 -0.0207906231 0.4987405771 -0.6161544332 0.4983502258 -0.6161692061 0.0497693524 -0.0200987656
435297390.0 0.0497519906 -0.0208727704 0.4910935024 -0.6222318949 0.4914776836 -0.6218286968 0.0502923035 -0.0203646329
440297360.0 0.0497115347 -0.0215213205 0.4843153403 -0.6275589511 0.4849310197 -0.6274506095 0.0490164698 -0.0214279117
445297330.0 0.0489002294 -0.0227238995 0.478269262 -0.6328965887 0.4783397455 -0.632177709 0.0492172143 -0.0220996925
450297300.0 0.0489601019 -0.023031616 0.4708251549 -0.6384040627 0.47067071 -0.6382796591 0.0485901907 -0.0228454926
455297270.0 0.048136301 -0.0234566762 0.4632379162 -0.6434170168 0.4644843241 -0.6437429482 0.0482520784 -0.0234110839
460297240.0 0.0477400319 -0.0240805003 0.4565409234 -0.6484205523 0.4565266709 -0.6487753805 0.0478121291 -0.0238137158
465297210.0 0.0476431214 -0.0246451844 0.449701915 -0.6535146638 0.4497030685 -0.6544072984 0.0478837243 -0.0245383182
470297180.0 0.0471059004 -0.0254156911 0.441755126 -0.6584208894 0.4419840332 -0.6588993075 0.0473281448 -0.0247275615
475297150.0 0.0470216786 -0.0262237643 0.4349714897 -0.6628507166 0.435408074 -0.662932675 0.0475278301 -0.0257774215
480297120.0 0.0462440072 -0.0261920988 0.4275138503 -0.6689731434 0.4274775243 -0.6680953737 0.0469331699 -0.0257017283
485297090.0 0.045755479 -0.0266769524 0.4205507721 -0.6724997852 0.4210902886 -0.6724560751 0.0467316891 -0.0267754148
490297060.0 0.0448430243 -0.0276908184 0.4131688876 -0.6781149805 0.4131685628 -0.6771375684 0.0462780816 -0.0266110662
495297030.0 0.0448091541 -0.0277760629 0.405051702 -0.6815208821 0.4058823129 -0.6815583816 0.0450962359 -0.0274718073
500297000.0 0.0442714699 -0.0287739705 0.39764202 -0.6858700929 0.397650879 -0.6859404011 0.0449410976 -0.0272081632
505296970.0 0.0441941989 -0.0291080479 0.3902066371 -0.6905506693 0.3902008385 -0.690532798 0.0448502713 -0.0278999729
510296940.0 0.0433538187 -0.0292740438 0.3824946653 -0.6951013124 0.3828374186 -0.6949042978 0.0444391781 -0.0281530859
515296910.0 0.0428189029 -0.029414426 0.3745799907 -0.6989655347 0.3753572199 -0.6989011007 0.0443076207 -0.0287535092
520296880.0 0.0422918516 -0.0302939208 0.3676820494 -0.7038657072 0.3677787736 -0.7030295859 0.0431438354 -0.0296813245
525296850.0 0.0422564623 -0.0314247214 0.3592447153 -0.7070402795 0.3600720218 -0.7073571251 0.0428340484 -0.0297489974
530296820.0 0.0413014195 -0.0311141259 0.3516807451 -0.7116061645 0.3521290304 -0.7113756198 0.0427426865 -0.0300170792
535296790.0 0.0405580636 -0.0316410719 0.3447137636 -0.7152567224 0.344902002 -0.714531142 0.0419526742 -0.0313290318
540296760.0 0.0403702616 -0.0317804599 0.3362933529 -0.7193409131 0.3359546613 -0.7190316348 0.0411518843 -0.0304204583
545296730.0 0.0397925178 -0.0323558507 0.3280286284 -0.7224973775 0.3284674507 -0.7219952087 0.0404529172 -0.0312793995
550296700.0 0.0400517107 -0.0325956171 0.3201466643 -0.7260329963 0.320611504 -0.7263193911 0.039855609 -0.0316163202
555296670.0 0.0389135904 -0.0329778786 0.3128951896 -0.7297939184 0.3128293131 -0.729629715 0.0396768811 -0.0318877981
560296640.0 0.0387368214 -0.0330365802 0.3043583712 -0.733229698 0.3043852607 -0.7330823646 0.0389634648 -0.0325420018
565296610.0 0.0376915951 -0.0337369209 0.2955911916 -0.7366572289 0.2966407383 -0.7360138593 0.0380796454 -0.0331778093
570296580.0 0.0375061299 -0.0339378991 0.28800314 -0.7400894971 0.2880633779 -0.7395035746 0.037781548 -0.0325128345
575296550.0 0.0363332757 -0.0341789759 0.2805973608 -0.7428639943 0.2805546937 -0.7427884973 0.0378113998 -0.0336822595
580296520.0 0.0362347101 -0.0347517513 0.2721094685 -0.7464888131 0.2720939877 -0.7458432399 0.0369560951 -0.0340471178
585296490.0 0.0357271274 -0.0357082167 0.2645062082 -0.7484879814 0.2643626314 -0.7486299043 0.0361453007 -0.0342597452
590296460.0 0.0354255161 -0.0353470421 0.2558464574 -0.7507318726 0.255757772 -0.7510964106 0.0351214558 -0.0346799965
595296430.0 0.0352062298 -0.0355570889 0.2471689311 -0.7544524995 0.2475513145 -0.7540304899 0.0350823868 -0.035300507
600296400.0 0.0339782142 -0.0361984736 0.239339535 -0.7568321923 0.2394512702 -0.7564353908 0.0345803961 -0.035550866
605296370.0 0.0337231425 -0.0366526145 0.2310387833 -0.7591997972 0.2311413525 -0.7595989663 0.0341065618 -0.035899829
610296340.0 0.0333949852 -0.0366854263 0.2218254382 -0.7619007255 0.2229393568 -0.7615546291 0.0335319826 -0.0363167119
615296310.0 0.0330879579 -0.0376968485 0.2144525095 -0.7640957274 0.2143287936 -0.7646867269 0.0333320084 -0.036292079
620296280.0 0.0324628039 -0.038007676 0.2059603035 -0.7661849887 0.2061853509 -0.7661410903 0.0325190281 -0.0371046962
625296250.0 0.0314414959 -0.0384595525 0.1981379189 -0.769552805 0.1983012621 -0.7691009727 0.0330056858 -0.0371857167
630296220.0 0.0317269412 -0.0381974261 0.1885140443 -0.7712536563 0.1887078831 -0.7706067956 0.0316406813 -0.0369181946
635296190.0 0.0299362482 -0.0387479265 0.1809076843 -0.7729451765 0.1808035657 -0.7728060111 0.0316098025 -0.0373727595
640296160.0 0.0297885808 -0.0389186747 0.1722255266 -0.7746773903 0.1726983513 -0.7743203251 0.0307309446 -0.0377999236
645296130.0 0.0292832646 -0.039071891 0.163653814 -0.7762346437 0.1641088034 -0.776600298 0.0303254618 -0.03826947
650296100.0 0.0286706476 -0.0391423448 0.1553287741 -0.7781283961 0.1558389049 -0.7783054321 0.0301271017 -0.0389162271
655296070.0 0.0276976595 -0.0399173392 0.1469900064 -0.7796902884 0.1470342605 -0.7798123195 0.0294314547 -0.0386089125
660296040.0 0.0266048507 -0.040438203 0.1381492829 -0.7814326103 0.1389984617 -0.7815840905 0.0291792709 -0.0389760563
665296010.0 0.0267933168 -0.0402497245 0.1294235523 -0.7829347525 0.1301624426 -0.7827327678 0.0283646336 -0.0382414121
670295980.0 0.0251385297 -0.0402782269 0.1213496371 -0.7842823888 0.1215764688 -0.7842078747 0.0274736468 -0.0391145368
675295950.0 0.0250191511 -0.0401705282 0.1128248171 -0.7852667545 0.1130265442 -0.7849536918 0.0266325159 -0.0393359426
680295920.0 0.0241164473 -0.0410270704 0.1037511029 -0.7863553659 0.1037046795 -0.7872080618 0.0263820241 -0.0386711736
685295890.0 0.0240162103 -0.0401151698 0.0955774698 -0.7879732773 0.0954454011 -0.7875789969 0.0256047355 -0.0391710659
690295860.0 0.0235293976 -0.0407659652 0.0868337889 -0.7878969013 0.0871113074 -0.7888412126 0.0250611929 -0.038421766
695295830.0 0.023036492 -0.0410176951 0.0793986135 -0.789267163 0.0779272459 -0.7891074517 0.0244501902 -0.0391587402
700295800.0 0.0225254018 -0.0416021246 0.0699050037 -0.7904605553 0.0691074512 -0.7898573475 0.0235441762 -0.0385948498
705295770.0 0.0217835764 -0.0405313073 0.0607305199 -0.7913141167 0.0612380929 -0.7908413601 0.0230889812 -0.0390688307
710295740.0 0.0213399976 -0.0412415889 0.0525829491 -0.7924623722 0.0528557489 -0.7926325139 0.0229162009 -0.0399344487
715295710.0 0.0201760869 -0.0416306835 0.0445077839 -0.7925431169 0.0439609826 -0.7919772479 0.0222027684 -0.0394374046
720295680.0 0.0197797115 -0.0415634093 0.0353917179 -0.7928385879 0.0358750502 -0.7922930242 0.0215336899 -0.0391489087
725295650.0 0.0195508901 -0.0415177431 0.0271006579 -0.7925842326 0.02678397 -0.7928346703 0.0202209755 -0.0392176467
730295620.0 0.0190473242 -0.041279705 0.0182138188 -0.7934348729 0.0182690624 -0.7934518809 0.019616861 -0.0398367759
735295590.0 0.0181891186 -0.0413844739 0.0096781589 -0.7934115235 0.0097410317 -0.7931777831 0.0189652929 -0.0401209618
740295560.0 0.0172968813 -0.0414807258 0.0009621653 -0.7937331616 0.0009372419 -0.7933915278 0.0190815735 -0.0396799516
745295530.0 0.0168777417 -0.0413189319 -0.0080318399 -0.792478206 -0.0080527459 -0.7934409179 0.0182761605 -0.0405016694
750295500.0 0.0163450038 -0.041595734 -0.0162687545 -0.7932748334 -0.0162413984 -0.7931748086 0.0174755959 -0.0404789733
755295470.0 0.0159554287 -0.0418856836 -0.0247155475 -0.7927719654 -0.0246655151 -0.7928403081 0.0178489145 -0.040772383
760295440.0 0.0149404468 -0.0416975504 -0.0331971853 -0.793232679 -0.0334478344 -0.7930569337 0.0166045474 -0.0404752428
765295410.0 0.0142604978 -0.0419187569 -0.0425481102 -0.7923286403 -0.0422997595 -0.7926447642 0.0162109697 -0.0405042187
770295380.0 0.0134443576 -0.0422755847 -0.0516584153 -0.791926023 -0.0509822012 -0.7915670071 0.0150447532 -0.0409464176
775295350.0 0.0128986528 -0.042575015 -0.0603260343 -0.7904107041 -0.0591824853 -0.7906351641 0.0136959505 -0.0406665558
780295320.0 0.0125759029 -0.0421405981 -0.0681784537 -0.7900492405 -0.0670129185 -0.7897180867 0.0137287223 -0.0412326898
785295290.0 0.0115015035 -0.0427524519 -0.0769404877 -0.7890391697 -0.0761210609 -0.7893311295 0.0140985957 -0.0408746041
790295260.0 0.0118039247 -0.0415839025 -0.0845883679 -0.7881130478 -0.084164413 -0.7879662486 0.0128527672 -0.0409675779
795295230.0 0.0107893578 -0.0424903716 -0.0932186255 -0.7868810849 -0.0929588394 -0.787643919 0.0128081168 -0.0405553113
800295200.0 0.0099098018 -0.0419955331 -0.1033274087 -0.7859356535 -0.1022992178 -0.7865585076 0.0119061247 -0.041098647
805295170.0 0.0094502655 -0.0419531127 -0.1110571477 -0.7846964091 -0.1107809208 -0.7858012326 0.0111603123 -0.0407678866
810295140.0 0.0082734388 -0.0425669828 -0.1194291002 -0.7837614991 -0.119057857 -0.783859583 0.0112031098 -0.0402763994
815295110.0 0.0081052719 -0.0429055595 -0.1280029149 -0.7823042772 -0.1276096501 -0.7824231336 0.0101146952 -0.0404965712
820295080.0 0.0070107477 -0.0416787327 -0.136371889 -0.78106368 -0.1358497007 -0.7812589112 0.0096603144 -0.0403960838
825295050.0 0.0072696331 -0.0419713272 -0.1441983574 -0.7792519489 -0.1443727057 -0.7796015546 0.0097057693 -0.0401796374
830295020.0 0.0061457423 -0.0417980349 -0.1534381309 -0.7774764402 -0.1528458836 -0.7772514035 0.0096133056 -0.0398934084
