!Created with skrf (http://scikit-rf.org).
# Hz S RI R 50.0 
!freq ReS11 ImS11 ReS21 ImS21 ReS12 ImS12 ReS22 ImS22
300000.0 -0.0433708496 -0.0728176214 0.0008882656 0.0011943927 -0.0004702085 0.0008738317 -0.7699305596 -0.192835339
5299970.0 -0.0458749848 0.0145927682 2.81863e-05 0.0001644212 -0.000257309 0.0001744223 -0.7852213249 -0.0096098476
10299940.0 -0.0405131625 0.0328279088 0.0001175553 0.0001089817 2.24336e-05 0.0001856399 -0.787906567 -0.0052699148
15299910.0 -0.0314458162 0.0475871004 1.73733e-05 6.60995e-05 0.0001000994 -3.93e-07 -0.7926386296 -0.0024207573
20299880.0 -0.021591024 0.0593595315 1.3748e-06 9.083e-06 -0.0001549782 -3.7376e-06 -0.7997909407 0.0014248216
25299850.0 -0.0101106258 0.0685454323 -0.0001165647 -4.35342e-05 0.000180261 2.9277e-05 -0.8059177976 0.0077982525
30299820.0 0.0015841837 0.0757239837 2.07227e-05 4.84174e-05 7.41908e-05 4.30755e-05 -0.8119125293 0.0157200521
35299790.0 0.0132189611 0.0799952743 -6.73191e-05 -0.0001409249 -2.7161e-05 9.43473e-05 -0.8169675657 0.0248669889
40299760.0 0.0248019075 0.0830709311 -3.17702e-05 -0.0001520176 8.45944e-05 0.0001425571 -0.8210745332 0.0342022188
45299730.0 0.0350855957 0.0841703024 0.0001558048 0.0001227383 5.31884e-05 -0.0001453053 -0.8242719081 0.0437187357
50299700.0 0.0457952352 0.0843943615 7.13583e-05 -0.0002551029 4.2743e-05 -6.74524e-05 -0.8265273623 0.0540989679
55299670.0 0.0548649898 0.0833780269 3.57179e-05 0.000151106 8.58785e-05 0.0002173152 -0.8290037002 0.0639116446
60299640.0 0.0633489276 0.0814472497 0.000115866 0.0003377554 -0.0001874521 4.38086e-05 -0.8293636573 0.073995281
65299610.0 0.0717263442 0.0791834128 -4.7811e-06 0.0001273944 -0.0001099057 0.000149577 -0.8304869665 0.0838247722
70299580.0 0.0781512255 0.0761382666 -7.45692e-05 -8.99549e-05 8.08479e-05 -1.84806e-05 -0.8310884172 0.0934752816
75299550.0 0.0847358992 0.0730663181 7.59473e-05 1.68726e-05 -0.000112882 3.26404e-05 -0.8312013662 0.1040083103
80299520.0 0.0904327088 0.0694067464 -6.76712e-05 6.0265e-05 -0.0002078198 7.0308e-05 -0.8309806272 0.1139331965
85299490.0 0.0954118314 0.0657925139 0.0001478745 6.13829e-05 7.2503e-06 -1.36209e-05 -0.8298479687 0.1232046447
90299460.0 0.1005882817 0.0620065362 0.0001986974 0.0002584449 -9.88026e-05 -8.03014e-05 -0.8291589168 0.1328874689
95299430.0 0.1043529204 0.058042392 8.24095e-05 -3.69326e-05 5.33077e-05 0.0001271691 -0.8280280521 0.1423240927
100299400.0 0.108231929 0.0541887729 0.0002063922 8.61992e-05 -0.0001001332 5.5472e-06 -0.8270943742 0.151837775
105299370.0 0.1114020494 0.0502027258 0.0001985278 7.72233e-05 1.05615e-05 0.0001506613 -0.8261099074 0.1609118635
110299340.0 0.1145668722 0.0463824442 -0.0001007521 5.23071e-05 0.0002770811 1.08371e-05 -0.8245610027 0.1700236279
115299310.0 0.1168916985 0.0425936212 8.19851e-05 -8.82574e-05 -4.88968e-05 -2.74017e-05 -0.8231965645 0.1794975605
120299280.0 0.1194135181 0.0389287255 -0.0001379204 3.94193e-05 -2.69306e-05 0.0001747154 -0.8209143164 0.1880631071
125299250.0 0.1213032286 0.0350767162 -7.94409e-05 -1.4658e-05 0.0001136251 2.80788e-05 -0.8197464857 0.1968125483
130299220.0 0.1229417211 0.0311724466 0.0001617992 7.16006e-05 2.18002e-05 0.0001845255 -0.8177176686 0.2058726671
135299190.0 0.1245847825 0.0279300224 -0.0001483137 0.0002292809 0.0001264915 -7.41267e-05 -0.81597885 0.2152700363
140299160.0 0.1259515294 0.02439333 4.83646e-05 0.0002018272 7.21582e-05 5.45601e-05 -0.8136072762 0.2235613061
145299130.0 0.1274755547 0.0212485627 -0.000172858 0.0001766881 7.13311e-05 0.0001641279 -0.8119367668 0.2326168213
150299100.0 0.1284934629 0.0177688111 9.66216e-05 0.0001690892 8.65143e-05 7.10036e-05 -0.809864159 0.2413406957
155299070.0 0.1292745959 0.0147779372 0.000353727 4.36174e-05 0.0001048961 0.0001219481 -0.8071210244 0.250354593
160299040.0 0.1298246338 0.0113930145 1.28309e-05 0.0002124397 -4.40874e-05 -9.5055e-06 -0.8049653272 0.2585211172
165299010.0 0.1307859959 0.0085291984 3.66765e-05 0.0001489633 0.0001534885 0.0001972254 -0.8016428677 0.2669244931
170298980.0 0.130904179 0.0054756865 -2.77082e-05 0.0002118835 2.59941e-05 5.0347e-06 -0.7997843846 0.2753797026
175298950.0 0.1314410446 0.0024767701 0.0001721203 0.0003410243 0.0001006079 0.0001685455 -0.7965328772 0.2846030297
180298920.0 0.1312830939 -0.0005549779 0.0001235095 0.0002439855 0.0001949618 0.0002431914 -0.7933847712 0.2929658304
185298890.0 0.131644269 -0.0032967776 0.0001157299 6.92612e-05 0.0001619096 0.0002125777 -0.7904491047 0.3016744409
190298860.0 0.1317476382 -0.0056949179 4.11232e-05 0.0002074415 0.000109489 7.15349e-05 -0.7869686079 0.3098496859
195298830.0 0.1320469711 -0.0081604489 -1.02736e-05 0.0002912746 1.6081e-06 -3.0108e-06 -0.7839704229 0.3179556985
200298800.0 0.1319345833 -0.0112530553 -2.11499e-05 -0.000173908 6.51951e-05 0.0002111338 -0.7804704901 0.3265014461
205298770.0 0.1315738036 -0.0138370358 -0.0001512813 0.0001862058 6.8913e-05 0.0001909136 -0.7774024017 0.3352959862
210298740.0 0.1316706198 -0.0160631974 0.00031884 0.0002980512 3.8448e-05 0.0002064074 -0.7741769119 0.3430158053
215298710.0 0.1309995208 -0.0183949715 -3.48807e-05 -7.91642e-05 0.0001731947 1.00177e-05 -0.7705068083 0.3512703896
220298680.0 0.1311563338 -0.021023343 0.0002364869 0.000105457 -2.80296e-05 -2.4846e-05 -0.7668015711 0.3595358076
225298650.0 0.1306395701 -0.0234109233 0.0001280483 -1.08776e-05 -1.81113e-05 -1.8424e-05 -0.7631328845 0.3677063079
230298620.0 0.1298990073 -0.0252697359 -6.98696e-05 4.3049e-06 9.00753e-05 0.0002873613 -0.7589565263 0.3759862133
235298590.0 0.1297472403 -0.0274932631 0.0002875579 -2.459e-07 0.000105241 0.0001162519 -0.7548633233 0.3829769391
240298560.0 0.1288057315 -0.02962808 0.0002015017 5.08306e-05 7.39424e-05 -0.0001202872 -0.7511523256 0.3908999768
245298530.0 0.1282553144 -0.0317040571 -2.4468e-06 0.0002773788 -1.59542e-05 -2.13706e-05 -0.747117063 0.3992373401
250298500.0 0.1278492499 -0.0338681886 0.0002225964 0.000238747 3.03196e-05 4.75753e-05 -0.7429356943 0.4070510599
255298470.0 0.1273296178 -0.0356663186 0.0001414138 -6.6187e-05 9.76853e-05 0.0001156696 -0.7386075778 0.41443208
260298440.0 0.1266472022 -0.0378389858 9.48289e-05 0.0002067661 0.0001973453 1.35473e-05 -0.7338419501 0.421774243
265298410.0 0.1258712979 -0.0398025283 -6.69636e-05 9.50347e-05 -6.7601e-06 4.50634e-05 -0.7296008354 0.429691129
270298380.0 0.1253900922 -0.0417697879 0.0002663621 0.0001688713 7.13432e-05 0.0001382383 -0.7252754972 0.4382066562
275298350.0 0.1243965909 -0.0434443973 0.0001228954 1.31511e-05 0.0001457847 -6.9497e-05 -0.7205021654 0.4451337807
280298320.0 0.1233355815 -0.0451750338 0.0001234922 0.0001461943 0.0001861795 0.0001009617 -0.7161736895 0.4528260925
285298290.0 0.1228008514 -0.0472692239 3.55112e-05 -8.8576e-05 2.61034e-05 0.0001566932 -0.7121775935 0.4604154939
290298260.0 0.1219076775 -0.0486591288 6.02669e-05 -0.0001172977 5.18309e-05 -3.22694e-05 -0.7064678007 0.4683034489
295298230.0 0.1207806555 -0.0508212292 0.000320898 0.000193397 -0.0001089072 2.62176e-05 -0.7019442952 0.47505358
300298200.0 0.1201785715 -0.0524493453 0.0001864051 0.0001340186 0.0001871393 3.82488e-05 -0.6964641004 0.482311093
305298170.0 0.1193150376 -0.0544689195 0.0001860615 -2.27366e-05 0.0001643133 -0.000172304 -0.6910641166 0.489588452
310298140.0 0.1184285048 -0.0565399513 5.57614e-05 0.0003772585 2.7361e-05 0.000182482 -0.6866333682 0.4971581434
315298110.0 0.1174197511 -0.0583397714 7.98039e-05 -5.12721e-05 0.0001714107 0.0003512488 -0.6812967455 0.5037379707
320298080.0 0.1162201546 -0.0601393324 9.96554e-05 0.0001607759 0.0001024592 0.0003245688 -0.6764685422 0.5102730564
325298050.0 0.1145924 -0.0620782624 5.79003e-05 -4.32983e-05 0.0002554977 0.000191993 -0.6702304898 0.5175118373
330298020.0 0.1132700808 -0.063298153 5.24533e-05 -7.90266e-05 0.0002152382 0.0001132904 -0.6654796031 0.5245854581
335297990.0 0.1121939719 -0.0648027499 3.50309e-05 0.0001450726 8.71507e-05 0.000164383 -0.6593864467 0.5311724591
340297960.0 0.1107600166 -0.0663101303 0.0003255948 0.0001163317 7.52262e-05 -4.91213e-05 -0.6540798399 0.5384305265
345297930.0 0.109709643 -0.0675654494 0.000180854 9.35251e-05 0.0002092827 6.95516e-05 -0.6485381287 0.5445462737
350297900.0 0.1083870697 -0.0690394536 6.67999e-05 5.03068e-05 4.94386e-05 0.0002399405 -0.6436694647 0.5511555813
355297870.0 0.107405002 -0.0705056336 9.30801e-05 4.74418e-05 2.52122e-05 8.23973e-05 -0.636807849 0.5584713222
360297840.0 0.1062573878 -0.0717262638 0.0002129922 1.66609e-05 0.0001432438 -0.0001664371 -0.6307060088 0.5646757676
365297810.0 0.1050243875 -0.0729596284 0.000344913 0.0001189695 0.0003574596 2.518e-06 -0.6255836171 0.5707795726
370297780.0 0.1038519048 -0.0745228186 0.0001350588 1.05907e-05 0.0003347262 0.000161148 -0.6197230079 0.5773238984
375297750.0 0.1026474951 -0.0755017406 6.47375e-05 0.0001979473 0.0002737031 0.0001669081 -0.6132479823 0.5838266609
380297720.0 0.1014815275 -0.0766197656 0.0001655319 -7.164e-07 0.0001399117 0.0003016722 -0.6069980028 0.5900519701
385297690.0 0.1000514834 -0.0779095576 0.0002468837 0.0001815016 6.30677e-05 0.000249995 -0.60167451 0.5959930458
390297660.0 0.0989320841 -0.079549375 0.0002017194 4.66014e-05 0.0001588044 9.73811e-05 -0.5947191489 0.6021758491
395297630.0 0.0979707 -0.0806328904 0.0002606113 -1.07486e-05 7.46923e-05 1.86097e-05 -0.5879741128 0.607647907
400297600.0 0.0963429897 -0.0819459399 0.0003514048 0.0003041568 0.0001213008 0.000159259 -0.5823766275 0.614251765
405297570.0 0.0951954009 -0.0832445151 7.45645e-05 0.0001737026 0.0001434364 0.0001145383 -0.5756938004 0.6200219037
410297540.0 0.0940379202 -0.0841417644 0.0002272414 0.0001216712 -4.14661e-05 0.0001335209 -0.5694273909 0.6261141309
415297510.0 0.0926311812 -0.085192934 -1.21191e-05 0.0001985132 0.0001553415 7.83043e-05 -0.5629754153 0.6315957196
420297480.0 0.0913610629 -0.0866019591 0.0002029225 8.78024e-05 5.51826e-05 0.0002073201 -0.5564954154 0.6378828274
425297450.0 0.0904863612 -0.0877662717 -3.0355e-05 9.59505e-05 0.0001063458 0.0002640667 -0.5495025189 0.6426755612
430297420.0 0.0888961869 -0.0887208383 0.0004084345 5.71188e-05 0.00014198 0.0001448433 -0.5427804745 0.6488194678
435297390.0 0.0875776122 -0.0898425817 3.70772e-05 0.0001203418 0.0001937718 -8.5611e-06 -0.5366741159 0.6546676694
440297360.0 0.0864086881 -0.0910079755 6.14767e-05 -9.15464e-05 0.0002805935 6.1594e-05 -0.5302607113 0.6592192385
445297330.0 0.0854739699 -0.0922383488 0.0003940576 0.000317484 0.0001687816 0.0001456778 -0.5230006872 0.6650530581
450297300.0 0.0841544097 -0.0932998973 6.26639e-05 5.48783e-05 0.0002304277 4.38352e-05 -0.5159708156 0.6698626568
455297270.0 0.0823072267 -0.0937920222 0.0001215759 -2.80007e-05 0.00022206 0.0001646951 -0.5091491332 0.675614755
460297240.0 0.0812242408 -0.0950114048 0.0001532769 -5.31669e-05 -5.19067e-05 -1.8407e-06 -0.502511823 0.6797828304
465297210.0 0.0800514164 -0.0958541456 0.000121464 0.0002361865 0.0002646446 -2.00465e-05 -0.4949816002 0.6857947816
470297180.0 0.0786223485 -0.0969382674 0.0002279327 3.83185e-05 0.0002901637 -0.0001550114 -0.4881415244 0.6902544554
475297150.0 0.0772924322 -0.0976364492 -2.76658e-05 9.29728e-05 0.0001967291 0.0001976828 -0.4812466004 0.695562559
480297120.0 0.0763055097 -0.0988191826 -1.41234e-05 -1.34919e-05 8.29772e-05 0.0001533828 -0.4742164099 0.6999262449
485297090.0 0.07472346 -0.0993920874 0.0002997594 -0.0001784836 0.0002800609 0.0002117534 -0.4674599984 0.7048216454
490297060.0 0.0740246568 -0.1002589703 0.0003405407 0.0001482254 0.0002337235 3.74727e-05 -0.4596694736 0.7087271613
495297030.0 0.0723592137 -0.1013047573 0.0002393128 0.0001968239 0.000240632 7.62627e-05 -0.4526165728 0.7134836881
500297000.0 0.0708872074 -0.1019669271 0.0003136825 0.000183263 0.000291413 9.10244e-05 -0.4452774959 0.7187405397
505296970.0 0.0699249357 -0.1026327104 0.0002197917 2.9519e-05 0.0001856123 0.0002009305 -0.43779317 0.7227386638
510296940.0 0.0684412884 -0.1033076861 0.0002296542 0.0002174323 0.0004495194 2.98936e-05 -0.4296854897 0.7274844475
515296910.0 0.0669976112 -0.1039950127 0.0001149929 0.0002082398 0.0003882338 0.0001423971 -0.4233344909 0.7310604626
520296880.0 0.0657738261 -0.1048471106 0.0003606069 0.0001778862 0.0003465751 -1.31585e-05 -0.4150857886 0.7354297641
525296850.0 0.0644910449 -0.1056512906 0.0002309988 8.10161e-05 0.0001782208 0.0002021033 -0.4082000045 0.7393957761
530296820.0 0.0630371362 -0.1060125408 0.0002829077 0.0001511193 0.0002418776 -8.0689e-06 -0.400460923 0.7434069921
535296790.0 0.0618851025 -0.1068101507 0.0001511783 0.000189057 0.0002318759 8.56111e-05 -0.3930502833 0.7478123192
540296760.0 0.0608538559 -0.1072419309 0.0002197983 7.10962e-05 0.0002427089 -1.67496e-05 -0.3852052806 0.7514569611
545296730.0 0.0589939614 -0.1076895149 0.0002109397 -5.53709e-05 0.000190614 0.0002362083 -0.3775676856 0.7554521076
550296700.0 0.0577799121 -0.1080411717 0.0002758689 0.0003120013 0.0002048894 4.54133e-05 -0.370035556 0.7589616402
555296670.0 0.0565581919 -0.1086759102 0.00023806 4.95828e-05 0.0002156417 0.0001980874 -0.3628248661 0.762050738
560296640.0 0.0552436649 -0.1093325133 0.0001982877 0.0001973808 0.0003774524 0.0001991459 -0.3545746808 0.7666818761
565296610.0 0.0535668917 -0.1094062434 0.0002607127 -4.65059e-05 0.0001502455 1.30286e-05 -0.34663903 0.7702390732
570296580.0 0.0523802409 -0.109839557 0.0003105086 4.24782e-05 0.0002936071 -0.0001066358 -0.3390476965 0.7730350483
575296550.0 0.0510565515 -0.1102787919 0.0003080221 4.73839e-05 0.0002331985 0.0001272603 -0.3310770936 0.7763750403
580296520.0 0.0497490921 -0.1106188391 0.0003411439 0.0001206879 0.000349875 0.0001958241 -0.323666796 0.7798294209
585296490.0 0.0483937927 -0.1108047083 0.0002962658 2.88638e-05 0.0003671364 6.68563e-05 -0.3156674239 0.7835927307
590296460.0 0.0471146889 -0.1111739859 0.0002842912 2.2417e-05 0.0001171635 -3.95616e-05 -0.3077547795 0.7854794116
595296430.0 0.0456965126 -0.1117834299 0.0003069715 0.0001902837 0.0003426102 0.0001160451 -0.3000661161 0.7890555671
600296400.0 0.0443762973 -0.1121134639 0.0002309171 0.0002642573 0.000198527 3.72321e-05 -0.2918289461 0.7919171095
605296370.0 0.0426344258 -0.1120258101 0.0002828504 6.97587e-05 0.0003763837 -0.0002015747 -0.2838060974 0.7953351368
610296340.0 0.0416073124 -0.1126511173 0.0002319859 -0.0001838114 0.0001890403 7.44854e-05 -0.2762905441 0.7980777846
615296310.0 0.0405422971 -0.1126931593 0.000189869 7.168e-05 0.0003391918 -0.000121259 -0.2672781429 0.8005514612
620296280.0 0.0389267773 -0.1125298274 0.0004750316 -2.20908e-05 0.0001509647 0.000165812 -0.2598615922 0.8030274953
625296250.0 0.0371557018 -0.1129437707 0.0003752648 3.70343e-05 0.0002772427 1.2475e-05 -0.2515402042 0.8049456443
630296220.0 0.0360207593 -0.1127904119 0.0003310956 4.05818e-05 0.000138504 -0.0001063827 -0.2432183224 0.8080818145
635296190.0 0.034458742 -0.1131574716 0.0003787698 0.0002336614 0.0002164525 2.70174e-05 -0.2356629476 0.8098883063
640296160.0 0.0329901692 -0.1133462039 0.0003739839 -0.0002351537 0.0004688734 -1.11222e-05 -0.2273970182 0.812254674
645296130.0 0.0322154657 -0.1134059485 0.0004421564 -4.71389e-05 0.0004067019 -0.0001151763 -0.2196184614 0.8141978702
650296100.0 0.0303417765 -0.1134700409 0.000243269 9.76312e-05 0.0005137448 1.91439e-05 -0.2109618753 0.8172208697
655296070.0 0.028767861 -0.113348635 0.000199733 0.0003896682 0.0004510267 -1.24617e-05 -0.2034739565 0.8188497889
660296040.0 0.0273614476 -0.1132197154 0.0004973152 0.0001982846 0.0003190493 -7.7493e-05 -0.1942272173 0.8209344701
665296010.0 0.0259904655 -0.1134433572 0.000381023 1.27368e-05 0.0003789266 3.14444e-05 -0.1857307227 0.8222681263
670295980.0 0.0241919763 -0.1131486665 0.0003838441 6.64863e-05 0.0003539047 0.0001009273 -0.1785610283 0.8244223545
675295950.0 0.0228700098 -0.1131686537 0.0001992204 -0.0001280395 0.0003022651 0.0002325764 -0.170022154 0.8262145736
680295920.0 0.0211896835 -0.1131462036 0.0002468192 0.0001672052 0.0003693343 1.25261e-05 -0.161423362 0.8277656205
685295890.0 0.0200228667 -0.1128753727 0.0002755741 -1.9066e-05 0.000347056 1.6242e-06 -0.1536213618 0.829401842
690295860.0 0.0185615403 -0.1128905895 0.0002708726 0.0001063769 0.0005519903 8.63747e-05 -0.1451639229 0.8312925075
695295830.0 0.0168699583 -0.1130016604 0.0003536525 3.41795e-05 0.0003889218 0.0002814955 -0.136959792 0.8328264634
700295800.0 0.0156102694 -0.1123485129 0.0003380764 9.50734e-05 0.0001777045 -9.23576e-05 -0.128351169 0.8336670931
705295770.0 0.0140948081 -0.1122955943 0.0004054371 -0.0001560495 0.0003657836 -4.62054e-05 -0.1203928485 0.835575264
710295740.0 0.0125273633 -0.1123587673 0.000214564 7.87458e-05 0.000446494 8.60876e-05 -0.1117315493 0.8365241181
715295710.0 0.0114413635 -0.1119687265 0.0003294901 -2.83803e-05 0.0003263692 0.0001145825 -0.1032280033 0.8366932498
720295680.0 0.0098405142 -0.1118404059 0.0003315264 -2.25235e-05 0.0004005644 6.35619e-05 -0.0946101955 0.8378347706
725295650.0 0.0082202002 -0.1115518263 0.00030993 -0.0002902215 0.0003165112 -0.0001238676 -0.087132177 0.8391093921
730295620.0 0.0066416663 -0.1113116611 0.0002891753 -1.86302e-05 0.0002003487 -0.0002550664 -0.0787402804 0.8403803124
735295590.0 0.0049738026 -0.1108345253 3.72898e-05 -7.75346e-05 0.0003083783 -8.28989e-05 -0.0699290762 0.840485505
740295560.0 0.0033267301 -0.1109397663 0.0003817397 8.29427e-05 0.0002553084 -0.0002358343 -0.0618417883 0.841068085
745295530.0 0.0022530219 -0.110405509 0.0003449296 -5.2093e-05 0.0003677595 -0.0002028441 -0.0536189334 0.8419405083
750295500.0 0.0005967153 -0.1101273044 0.0003273543 3.03163e-05 0.0004053776 -5.07637e-05 -0.0447868674 0.8420695484
755295470.0 -0.0007212544 -0.1096355743 0.000167601 4.466e-06 0.0004628661 -3.7131e-05 -0.0366752666 0.8429411289
760295440.0 -0.0023569118 -0.1094205068 9.29336e-05 -0.0001582433 0.0002490264 -0.0001007025 -0.0282526067 0.8425217231
765295410.0 -0.0035941008 -0.1094272417 0.0004338317 -3.58397e-05 0.0002730404 2.07489e-05 -0.0198825333 0.8426849143
770295380.0 -0.0053585763 -0.1085466148 0.0004571287 -8.24033e-05 0.0003818702 -6.82377e-05 -0.0113223683 0.8433133572
775295350.0 -0.0068518703 -0.1083630833 0.0004178646 5.80045e-05 0.0002230013 -1.89405e-05 -0.003669826 0.8431061054
780295320.0 -0.0082782127 -0.1079921165 0.0003665273 0.0002920164 0.0001418299 -6.82682e-05 0.0053857632 0.8438464635
785295290.0 -0.0094645477 -0.1077068138 0.0002635475 -0.0001221952 0.0004238669 -8.10305e-05 0.0134029013 0.8436082147
790295260.0 -0.0110358258 -0.1075151671 0.0004659641 -0.0001307 0.000448171 -0.0002632769 0.0217446171 0.8434291979
795295230.0 -0.0124416266 -0.1070937509 0.0004299741 -6.94548e-05 0.0002775035 -0.0001227186 0.0298289137 0.8425674699
800295200.0 -0.0140741335 -0.1063955001 0.0005041956 8.0058e-06 0.0003526154 -0.0001307698 0.0386944517 0.8420765389
805295170.0 -0.0155945698 -0.1059978568 0.0002558187 -6.54196e-05 0.0003153865 -4.09366e-05 0.0474869841 0.8420538936
810295140.0 -0.0167098536 -0.105444124 0.0004807848 0.0001248992 0.0004372172 -0.0001246576 0.055737115 0.8413510479
815295110.0 -0.0183100786 -0.1051083004 0.0005628126 -8.38901e-05 0.0004452437 0.0001069412 0.0635993973 0.840787596
820295080.0 -0.0197353919 -0.1046113933 0.0005616095 -0.0002961932 0.0005257813 -0.0001443976 0.0713309018 0.8402989808
825295050.0 -0.021251402 -0.104301398 0.000521405 -0.0002731538 0.0003819145 -0.0003136352 0.0805338087 0.8395019445
830295020.0 -0.0223705491 -0.1037552673 0.0003804003 -9.09162e-05 0.0004259329 2.39956e-05 0.0878100247 0.8384049922
835294990.0 -0.0239989786 -0.1033302979 0.0004343831 -0.0001123135 0.0004135622 -6.2838e-05 0.0967237355 0.8377761389
840294960.0 -0.0255334618 -0.1026038313 0.0003016625 -0.0001628324 0.0002802316 6.58354e-05 0.1053795072 0.8368288464
845294930.0 -0.026662132 -0.1021229295 0.0003429753 -1.80201e-05 0.0004761271 -0.000287092 0.1131742441 0.8356273237
850294900.0 -0.0279267185 -0.1017745684 0.0004514014 -5.10366e-05 0.000372039 -9.91706e-05 0.1210130789 0.8346458912
