!Created with skrf (http://scikit-rf.org).
# Hz S RI R 50.0 
!freq ReS11 ImS11 ReS21 ImS21 ReS12 ImS12 ReS22 ImS22
300000.0 -0.7724502524 -0.1760184891 0.0003130508 0.0007023743 0.0007431188 0.0012312126 -0.0442929407 -0.0779939435
5299970.0 -0.786526071 -0.0094521131 -3.3714e-06 -1.07315e-05 -0.0001087632 -3.15803e-05 -0.0489319753 0.0146369177
10299940.0 -0.7896695131 -0.0060206961 -7.76689e-05 3.18858e-05 0.0001450987 0.0001500389 -0.0430918681 0.0323161967
15299910.0 -0.794257564 -0.0034155419 2.22867e-05 4.81552e-05 -7.69506e-05 3.68392e-05 -0.0348252086 0.0465706332
20299880.0 -0.8011401634 0.0006812082 -0.0001592563 -6.36867e-05 -0.0001601061 -0.0001779951 -0.0252269449 0.0585954655
25299850.0 -0.807469207 0.0066104872 0.0001226663 0.0002173364 8.302e-07 0.0002342083 -0.0142664546 0.0678504963
30299820.0 -0.8138442304 0.0142003037 -0.0001140679 -0.0001002986 -0.0002339289 -0.0001524446 -0.0027829258 0.0747925565
35299790.0 -0.8187681984 0.0230942573 -0.0001533751 0.0001393328 -1.45176e-05 0.0001057598 0.0083889378 0.0795220911
40299760.0 -0.8234176665 0.0314261259 2.57425e-05 3.79266e-05 0.0001228235 -2.99225e-05 0.0196384117 0.082635609
45299730.0 -0.8270552038 0.0417361887 -5.5628e-06 -6.01665e-05 -5.32693e-05 5.36306e-05 0.0303435205 0.0841058821
50299700.0 -0.8293484737 0.0517583745 0.0001243581 -0.0001149821 -0.0001310922 0.0001680179 0.0401195266 0.0843459558
55299670.0 -0.831174793 0.0611524318 -5.17636e-05 9.65075e-05 0.00015212 6.89255e-05 0.0492607996 0.0833726824
60299640.0 -0.8326612258 0.0718928541 0.0001807369 1.851e-05 -3.1986e-05 -3.52603e-05 0.0576991456 0.081729934
65299610.0 -0.8334245949 0.0819195255 -3.79578e-05 5.75997e-05 -0.0001410545 1.57905e-05 0.0658248081 0.0792870317
70299580.0 -0.8336653202 0.0912861626 0.0001251285 0.0003690545 3.45133e-05 2.83586e-05 0.0726309626 0.0768020019
75299550.0 -0.8339101436 0.1017533213 -0.0002590502 -0.0001090715 -8.89011e-05 0.0001818369 0.0792320768 0.0736816461
80299520.0 -0.8339744967 0.112263686 1.72135e-05 7.24793e-05 8.26289e-05 0.0001948065 0.0849094738 0.0701792739
85299490.0 -0.8328993892 0.1213915654 -6.24617e-05 8.63553e-05 -3.00885e-05 5.76684e-05 0.0900262917 0.0664796401
90299460.0 -0.8325532578 0.1311824395 -2.39668e-05 0.0001208504 -0.0001348403 -1.288e-07 0.0942293677 0.0629760314
95299430.0 -0.831325635 0.1406667901 0.0001076669 0.0002561187 0.0001008324 1.70758e-05 0.098654912 0.0592502734
100299400.0 -0.8302248533 0.1502231473 -0.0001712606 -1.87621e-05 -5.88177e-05 0.0001264749 0.1020569466 0.0555748558
105299370.0 -0.8295121749 0.1593032767 -6.6513e-05 4.41325e-05 8.14175e-05 0.0001305747 0.105634743 0.0514131365
110299340.0 -0.8273893786 0.1681570469 -0.0001337471 0.0001036661 -7.34198e-05 0.0002351601 0.1085234809 0.0475338361
115299310.0 -0.8256309971 0.1777686362 -0.0001240202 -5.14293e-05 0.0001157143 0.000158365 0.1108729887 0.0440939682
120299280.0 -0.8247693227 0.1868875696 0.0003565311 -9.64417e-05 7.53389e-05 5.8696e-05 0.1133201319 0.0400058968
125299250.0 -0.8220121392 0.195599036 0.0001174187 3.6013e-06 2.14839e-05 1.08934e-05 0.1151899221 0.0364326226
130299220.0 -0.8208504236 0.2047131599 -9.58327e-05 0.0001130993 0.0001448425 6.26438e-05 0.1171905251 0.0327816662
135299190.0 -0.8185254969 0.2141351646 5.62327e-05 0.0001409395 3.06861e-05 3.10485e-05 0.1185444245 0.0290290182
140299160.0 -0.8169672353 0.223418616 -0.0001118058 0.0001633487 9.98e-05 0.0001595411 0.1196996148 0.0256769302
145299130.0 -0.814822587 0.2320646336 0.0001339133 -4.38632e-05 -8.04708e-05 -5.2955e-06 0.1209262085 0.0222310374
150299100.0 -0.8122767976 0.240989205 0.0001466644 0.0001494642 -8.41862e-05 2.06966e-05 0.1217177701 0.0190306152
155299070.0 -0.8105786433 0.2503922332 -3.23883e-05 9.41814e-05 4.64055e-05 0.0001982598 0.1228530129 0.015796537
160299040.0 -0.8074689303 0.2589064469 -4.7469e-06 -6.23702e-05 0.0001307864 0.000180535 0.1232186534 0.0123017192
165299010.0 -0.8048584759 0.2672804462 -5.46311e-05 0.0001151459 0.0001585506 0.0001086596 0.1238622179 0.0091645925
170298980.0 -0.8016806204 0.2761852056 4.7268e-05 0.0001478697 -0.0001696112 0.0002270519 0.124294508 0.0065714018
175298950.0 -0.798890113 0.2847297433 0.0001437659 1.44406e-05 0.0001665282 5.9776e-05 0.124748658 0.0036815488
180298920.0 -0.7961199344 0.2935612956 -3.98226e-05 7.36717e-05 -3.9453e-06 0.0001036431 0.1250605114 0.0003754193
185298890.0 -0.792178911 0.3025671088 6.21567e-05 0.0001319827 9.75334e-05 -8.82867e-05 0.124999987 -0.0024450644
190298860.0 -0.7897950329 0.3108587708 0.0001786794 0.0001731389 0.0001255207 -2.82525e-05 0.1250246173 -0.0052146689
195298830.0 -0.7863390074 0.3190412042 0.00012827 0.0001470404 -5.27708e-05 2.9334e-05 0.1249908425 -0.0078524231
200298800.0 -0.7828259737 0.3275880072 9.47926e-05 0.0001150911 0.0001431038 0.0001304959 0.1249012011 -0.0102069238
205298770.0 -0.779165105 0.3365160623 6.54632e-05 0.0001106967 4.83586e-05 0.000289824 0.1247835706 -0.0132051273
210298740.0 -0.7759740683 0.3444624516 -3.27517e-05 -0.0001266797 0.0002157781 -1.3596e-06 0.1244737409 -0.0156438819
215298710.0 -0.7722082336 0.3537777794 0.0001297968 9.82e-08 1.34049e-05 0.0001503821 0.1242008206 -0.0179890239
220298680.0 -0.7685768719 0.3608120646 5.61848e-05 -2.46349e-05 6.91278e-05 0.0002073871 0.1237479448 -0.0202490591
225298650.0 -0.7644159843 0.3696489273 0.0002110709 0.0001254345 5.6434e-05 1.7239e-06 0.1231957585 -0.0230118524
230298620.0 -0.7612678933 0.3779052067 -6.99166e-05 2.7789e-06 0.0001534392 0.0002729004 0.122861726 -0.0251298439
235298590.0 -0.7572253541 0.386397761 0.0001813368 5.36589e-05 0.0001527027 -0.0002090484 0.1223781337 -0.0270050848
240298560.0 -0.7530474698 0.3935324735 0.0002564418 5.52912e-05 -3.6675e-06 0.0001982309 0.1219696689 -0.0295417047
245298530.0 -0.7492125542 0.4021168266 9.82663e-05 0.0002401848 0.000189788 8.40522e-05 0.1212363443 -0.0317373329
250298500.0 -0.7448827131 0.4095228345 -7.78734e-05 0.0001529979 0.0001610153 0.0002185193 0.1207133975 -0.0336860649
255298470.0 -0.7402358735 0.4177952875 0.000109541 0.0001104125 0.0002804173 0.0001581169 0.1200936672 -0.0360935986
260298440.0 -0.7360141921 0.4249365575 9.6075e-05 -3.76877e-05 0.0002336704 6.64967e-05 0.1189403035 -0.0381240118
265298410.0 -0.7322887513 0.4325979811 5.9945e-06 -1.50903e-05 0.000275178 0.0001644699 0.1187270791 -0.0400469818
270298380.0 -0.7269734211 0.4406683161 8.0688e-06 0.0002403834 0.0002865552 0.0001091505 0.1180580485 -0.0419448829
275298350.0 -0.7231486452 0.448360063 -5.5066e-05 -3.11466e-05 0.0001022556 0.0002234258 0.1174724427 -0.0438921179
280298320.0 -0.7179085817 0.455161942 4.6878e-06 0.0001244584 -4.44356e-05 0.0002123064 0.1162087045 -0.0457041873
285298290.0 -0.7133104111 0.4632410372 0.0002640021 0.0001202652 5.24496e-05 0.0001485305 0.1156685436 -0.0473674652
290298260.0 -0.7086662036 0.4708418583 9.46515e-05 0.0001472857 0.00016 0.0001804248 0.1146521388 -0.0491264127
295298230.0 -0.7039281854 0.4782889487 1.06692e-05 0.0001826358 7.79876e-05 8.98935e-05 0.1141155224 -0.0509650604
300298200.0 -0.6992520115 0.4856397212 0.0001139001 9.1892e-05 -7.5933e-06 0.0002923661 0.1133559068 -0.0527525805
305298170.0 -0.6945946882 0.492137451 1.97267e-05 0.0002187614 0.0002813663 9.95811e-05 0.1124927147 -0.0546818468
310298140.0 -0.6888140738 0.4997073972 0.0003192863 9.44848e-05 0.0003268223 0.0001339967 0.111549202 -0.0562777194
315298110.0 -0.6847468125 0.506955104 0.0001117771 0.000258216 4.07873e-05 0.0001784793 0.1108142539 -0.0582467663
320298080.0 -0.6790308121 0.514478408 0.0002511778 0.0001727023 0.0003431974 0.0001718129 0.1095782078 -0.059976484
325298050.0 -0.6733446146 0.5211246866 -3.69707e-05 -2.30008e-05 0.0001582245 0.0002610997 0.1085680099 -0.062112206
330298020.0 -0.6679882084 0.5283261053 0.0002250651 0.0002687958 -4.78939e-05 -4.7078e-05 0.1074274981 -0.0638148856
335297990.0 -0.6630141869 0.534687992 0.0001528907 8.88776e-05 0.0001474574 2.11645e-05 0.1061304321 -0.0652775047
340297960.0 -0.6577380155 0.541424802 0.0002401765 -8.04157e-05 0.0002064436 0.0001713242 0.1048863221 -0.0666098446
345297930.0 -0.6520839969 0.5481083466 0.000185944 0.0001220844 0.000286806 1.18205e-05 0.1037219453 -0.0681230277
350297900.0 -0.6463482107 0.5549130368 0.000441258 0.0001149424 8.44357e-05 2.80635e-05 0.1022818972 -0.0694923265
355297870.0 -0.6409353603 0.561356916 0.0002936854 5.93504e-05 4.25449e-05 0.0002470864 0.1011946209 -0.0709307053
360297840.0 -0.6348017506 0.568120189 0.0002872142 4.45171e-05 0.0002901882 5.5613e-05 0.0998438169 -0.0717886116
365297810.0 -0.6293152514 0.5745771834 0.0003654509 -0.0001488858 0.000382825 0.0002800547 0.0985716474 -0.073271445
370297780.0 -0.6234749656 0.5805936804 0.0001696676 7.42892e-05 0.0002390685 0.000200725 0.0972244044 -0.0742516603
375297750.0 -0.6176910183 0.5867588127 -8.861e-06 0.0001930811 0.0003580301 0.0001410801 0.0962414016 -0.0758270939
380297720.0 -0.6119201454 0.5934864896 0.0002373877 8.39075e-05 0.0002798178 7.87855e-05 0.0952414914 -0.0769434691
385297690.0 -0.6063424605 0.5995918146 0.0002527803 -1.04233e-05 9.56865e-05 0.0001974114 0.0937283611 -0.0779920981
390297660.0 -0.5983264032 0.6054441658 2.62918e-05 0.000190308 0.000434482 0.0001381549 0.0924876815 -0.0792471355
395297630.0 -0.5925594507 0.6123513362 0.0001843458 0.0002221814 0.0002107733 0.0001897425 0.0913199938 -0.0804150846
400297600.0 -0.5868623525 0.618616655 0.0002893039 5.64517e-05 0.0001087695 0.0001808776 0.0900432773 -0.0815446725
405297570.0 -0.5807290073 0.6236004192 0.0003132546 -6.28673e-05 0.0003215142 0.0002550551 0.0891880594 -0.0826891202
410297540.0 -0.5740713689 0.6296617349 0.0002740923 3.86467e-05 0.0001681417 6.8194e-05 0.0876394432 -0.0834764776
415297510.0 -0.5674581562 0.6353472962 0.0003447199 0.0001264501 0.0002340423 -5.40753e-05 0.0863468651 -0.0846129558
420297480.0 -0.5603432219 0.6407591199 0.0005299341 -9.78129e-05 6.51668e-05 0.0002138247 0.0853030345 -0.0856947021
425297450.0 -0.5546654546 0.6463534745 0.0003079459 7.26108e-05 0.0001939153 0.0001692799 0.0837781913 -0.0869661086
430297420.0 -0.5478124962 0.6521990749 0.000181291 0.00014167 0.0002386438 4.16195e-05 0.0823811524 -0.0879188079
435297390.0 -0.5409219008 0.6573707714 0.0002038534 0.0001065508 0.0002629875 0.0001140866 0.0808957016 -0.0886482129
440297360.0 -0.5338865509 0.662723565 0.000331615 0.0001089557 0.0001584837 3.74429e-05 0.0798539248 -0.0898081068
445297330.0 -0.5274096471 0.6682093557 0.0001037617 0.000136354 0.0003051411 0.0001567258 0.0787253841 -0.090365875
450297300.0 -0.5203170697 0.6736005498 0.0002916462 0.0002870422 0.0003508327 -2.10421e-05 0.0776131558 -0.091331974
455297270.0 -0.513402565 0.6785224169 0.0001711846 -0.0001422189 0.0002994415 -0.0001285808 0.0760715158 -0.0921132334
460297240.0 -0.5058911285 0.6843114562 8.86881e-05 6.06246e-05 0.0002020996 -5.1744e-06 0.0743709886 -0.0931134035
465297210.0 -0.4992499591 0.6892573812 0.0002202635 0.0001566392 0.0002224581 0.000205874 0.0735216748 -0.0936111844
470297180.0 -0.4916099357 0.6942430169 7.24926e-05 0.0001437364 0.0003437988 0.0003347982 0.0719024435 -0.0945854742
475297150.0 -0.4846049115 0.6986178968 0.0001535123 2.87548e-05 0.0002783797 6.73051e-05 0.070702952 -0.0954182465
480297120.0 -0.4767267457 0.7036905353 0.000300415 0.0001089831 4.31426e-05 4.62843e-05 0.069110156 -0.0961020071
485297090.0 -0.469976132 0.7085004673 0.0002050301 1.16245e-05 0.0001255531 0.0003209005 0.067875175 -0.0968520451
490297060.0 -0.4621760046 0.714068732 0.0001782053 -1.0385e-06 0.0001515263 0.0002150794 0.0662702101 -0.0979330851
495297030.0 -0.4549123781 0.7179549393 0.0002990986 1.36411e-05 0.0001118661 6.08875e-05 0.0649815857 -0.098276086
500297000.0 -0.4474160711 0.7219400566 7.31342e-05 8.87776e-05 0.0003929565 0.0002407481 0.0636535356 -0.099273562
505296970.0 -0.4391035287 0.7271725486 0.000362571 7.31374e-05 0.000366071 0.0002479218 0.0622321269 -0.099835424
510296940.0 -0.4323284308 0.7313439553 7.37294e-05 3.19162e-05 0.0001943162 0.0001482986 0.061149732 -0.1002263968
515296910.0 -0.4243526008 0.7356241104 0.0001737778 0.0002849967 0.0002570328 0.0001218384 0.0593894056 -0.1012902542
520296880.0 -0.4161220216 0.7399251533 0.0001559039 0.0001639477 0.0005132716 0.0001127551 0.0584561314 -0.1014417709
525296850.0 -0.408975084 0.7445075691 0.0002072635 -1.6049e-06 0.0003165752 -0.0001227454 0.0565976705 -0.1021544816
530296820.0 -0.4015277044 0.7483399555 0.0002319878 0.0001829768 0.000232237 0.0001241866 0.0551734759 -0.1031329133
535296790.0 -0.3927139184 0.7519532217 0.0004129768 0.0001325616 0.0003435438 7.3803e-05 0.0541510001 -0.1033678139
540296760.0 -0.3849596544 0.756164599 0.0002966696 1.90441e-05 0.0005007098 0.0001202599 0.052527099 -0.1039439828
545296730.0 -0.3772612893 0.7598606151 0.0002624503 0.000219933 0.0003958605 6.27161e-05 0.0510642479 -0.1044219872
550296700.0 -0.3683459063 0.7640898617 0.0002507495 -4.95844e-05 0.000367779 0.0003114193 0.0497562348 -0.1051016245
555296670.0 -0.3618459529 0.7673516873 0.0003259711 0.0002915686 0.000423461 0.0002399981 0.0480628152 -0.1055075385
560296640.0 -0.353411992 0.7709949777 0.0003331015 0.0002883798 0.0002972342 0.0003371733 0.046771401 -0.1057969514
565296610.0 -0.3454996872 0.7742458566 0.00036324 -3.80173e-05 0.0002972005 -2.70018e-05 0.0455082205 -0.1060753547
570296580.0 -0.3376097132 0.7778986848 0.0001577103 0.0001256755 0.0004151948 0.0001735894 0.0436787887 -0.1067028521
575296550.0 -0.3281165806 0.7809477274 0.0001728867 2.96474e-05 0.0004029429 0.0002147626 0.0424766219 -0.1068072478
580296520.0 -0.3212424153 0.7846559935 0.0002950124 5.29184e-05 0.0003221162 0.0001754697 0.040814169 -0.107296792
585296490.0 -0.3125237874 0.7874954585 0.0004025113 0.0002002538 0.0003293428 0.0001838332 0.0396533865 -0.1074976686
590296460.0 -0.3036635458 0.7907202333 0.0005597617 0.000259004 0.0002854759 0.0001689421 0.0381061237 -0.108008823
595296430.0 -0.2960181799 0.7937614288 0.0001549899 1.05345e-05 0.0003063034 -5.555e-05 0.036593361 -0.1082903284
600296400.0 -0.2880392795 0.7968905176 0.0003350509 0.0001993587 0.0003431361 0.0001575299 0.0353131455 -0.1083458725
605296370.0 -0.2796885677 0.7998240505 0.0002372209 -1.95121e-05 0.0001241861 0.0001189472 0.0338595005 -0.1087041116
610296340.0 -0.2711708319 0.8030516209 1.46598e-05 0.0001097954 0.0003959989 0.0001713413 0.0321587425 -0.1089521556
615296310.0 -0.2628526026 0.8055388058 0.0006487037 0.0001429134 0.000380248 6.27251e-05 0.0307253011 -0.1092069607
620296280.0 -0.2545842419 0.8082251617 0.0002904315 5.30731e-05 0.0004451029 5.58972e-05 0.0290778163 -0.1093283742
625296250.0 -0.247403023 0.8100262663 0.0002312079 0.000252046 0.0002861481 -0.0001223423 0.0277668827 -0.1092986062
630296220.0 -0.2385201382 0.8130891648 0.0003390815 -3.84801e-05 0.0004066273 6.34918e-05 0.026452624 -0.1096963199
635296190.0 -0.2305867866 0.8160573381 0.0003263227 -2.62785e-05 0.0004924166 0.0001825669 0.0246540702 -0.1096551426
640296160.0 -0.2217193087 0.817503268 0.0004249787 8.31468e-05 0.0003629123 -6.216e-05 0.0232270719 -0.1096793003
645296130.0 -0.21392563 0.8203294954 0.0003237427 0.0001079066 0.0003034818 0.0001311854 0.0217952719 -0.1100129842
650296100.0 -0.2047668782 0.821821232 0.0002551791 -3.38484e-05 0.000160385 -8.3836e-06 0.0206061822 -0.1101889758
655296070.0 -0.1975055695 0.8242686729 0.0002814318 0.0001958455 0.0004293906 9.64059e-05 0.0189515108 -0.1101213383
660296040.0 -0.1896001866 0.826658996 0.0005532601 8.20309e-05 0.0005049785 4.40559e-05 0.0176914831 -0.1101183699
665296010.0 -0.1807299966 0.8286859161 0.000208537 -7.97628e-05 0.0003258926 0.000128343 0.0163419704 -0.1103138118
670295980.0 -0.1726117215 0.8305730578 0.0004061765 -3.34863e-05 0.0002957191 -0.0002337335 0.014759636 -0.1099545758
675295950.0 -0.1638838884 0.8318921787 0.0003327023 -1.8135e-06 0.0004621407 6.21772e-05 0.013047428 -0.1100879717
680295920.0 -0.1564429886 0.8338766069 0.0005262929 -0.0001017402 0.0004597031 0.0002210071 0.0118516788 -0.1102380831
685295890.0 -0.1471123763 0.8356517119 0.0003535208 -7.22451e-05 0.0004767757 6.40331e-05 0.0104471696 -0.1099016517
690295860.0 -0.1394580541 0.8365683254 0.0003925124 9.08462e-05 0.0002890381 6.13533e-05 0.0093686627 -0.1098567892
695295830.0 -0.1305967683 0.8388270117 0.0002153763 0.000111981 0.0006657149 9.24912e-05 0.0075316778 -0.1094185743
700295800.0 -0.122313504 0.8397392463 0.0003635763 0.0001428396 0.0004719898 -2.12433e-05 0.0063587004 -0.1097068367
705295770.0 -0.1143382955 0.8417712022 0.0004274748 0.0001378862 0.0004470978 -7.69942e-05 0.0046516408 -0.1093597044
710295740.0 -0.1070114102 0.8419892929 0.0004101161 -8.43928e-05 0.0002389272 5.6437e-05 0.0035861664 -0.1091763895
715295710.0 -0.0973134535 0.8437789802 0.0003808505 -4.0746e-05 0.0004087616 -6.7989e-06 0.0019037056 -0.10915385
720295680.0 -0.089048294 0.8442845715 0.0002926075 -0.0001762209 0.0003299458 -0.0001381799 0.000269793 -0.1092698742
725295650.0 -0.0812601453 0.8459138726 0.0004924583 0.0001285203 0.0007412205 -0.0001020607 -0.0010583899 -0.108514582
730295620.0 -0.0738082588 0.8462064047 0.0003653334 -0.0001331736 0.0002665814 -0.0002405934 -0.00224746 -0.1082797935
735295590.0 -0.065377917 0.8473702584 0.0004845339 2.092e-06 0.0002908803 4.95094e-05 -0.0037800045 -0.1082550611
740295560.0 -0.0577778124 0.8478369216 0.0001859667 2.23663e-05 0.0003157383 -0.0002179792 -0.0052315175 -0.108126514
745295530.0 -0.0487281522 0.8486531654 0.0003673744 -2.492e-05 0.0004516373 -0.0001111401 -0.0066134072 -0.107795333
750295500.0 -0.0408578647 0.8494336526 0.0001428947 -1.4846e-05 0.0002529527 -0.000230195 -0.008114035 -0.1074135422
755295470.0 -0.0322433384 0.8495595176 0.0005299983 2.9676e-05 0.0003416842 0.0001225275 -0.0093189351 -0.1066706159
760295440.0 -0.0240725356 0.8504185978 0.0004647254 -0.0001672462 0.0003672997 -0.0002059747 -0.0106468117 -0.1068685813
765295410.0 -0.015711606 0.850304775 0.000422322 4.9898e-05 0.000404301 -0.0001850027 -0.012100507 -0.1066674053
770295380.0 -0.008772628 0.8511091647 0.0003526263 5.67696e-05 0.0004815596 -0.0001468452 -0.0134891958 -0.1061645485
775295350.0 -0.0001721902 0.8509562822 0.0003830083 -0.0001462969 0.0003325086 -0.0002535159 -0.01488301 -0.1058486304
780295320.0 0.0088054804 0.851484579 0.000278322 -1.69396e-05 0.0004782021 -0.0001175737 -0.0162660117 -0.1055142235
785295290.0 0.0170411268 0.8507675883 0.0002180852 -6.2423e-06 0.0005183811 -9.2097e-05 -0.017693148 -0.104735635
790295260.0 0.024974965 0.8508876611 0.0002797842 -3.24951e-05 0.0003312687 -2.05512e-05 -0.0191765953 -0.104139938
795295230.0 0.0332863182 0.8503108455 0.0002894977 9.07665e-05 0.0007415687 -2.10177e-05 -0.0205597585 -0.103923446
800295200.0 0.041144368 0.8505801772 0.0004516594 -1.68302e-05 0.0005313433 -0.0001243812 -0.0217075197 -0.103939813
805295170.0 0.0493728016 0.8509086291 0.0002191321 0.0001942896 0.0003907879 -5.39818e-05 -0.0227281432 -0.103126805
810295140.0 0.0578840646 0.8502495044 0.0003688971 -0.0001961654 0.0004136862 -0.0002145671 -0.0242174145 -0.1024162979
815295110.0 0.0652332882 0.8495803993 0.0004460797 -0.0003741456 0.0004979362 -7.28929e-05 -0.0259102397 -0.1019936024
820295080.0 0.0735123549 0.8492805318 0.0003874335 1.44049e-05 0.0002230518 -0.0001886591 -0.0273243356 -0.1011456549
825295050.0 0.0818721445 0.8482502798 0.0004236251 -0.0001307038 0.0003175089 -0.0001151697 -0.0282311495 -0.1007014805
830295020.0 0.090848224 0.8475294206 0.0001766776 8.82154e-05 0.0003353704 -9.0595e-06 -0.0295493584 -0.100389589
835294990.0 0.0984471686 0.8467840882 0.0004779269 -0.0002434133 0.0003879043 -0.0001038436 -0.030697163 -0.0994396847
840294960.0 0.1067224029 0.8452431525 0.000418234 -0.0003666669 0.0003239384 -0.0001615549 -0.0319192388 -0.0988583496
845294930.0 0.1152710933 0.8446954481 0.0005035679 -0.0001428328 0.0003369534 -0.0001302874 -0.0333634292 -0.0982654297
850294900.0 0.1242587666 0.8432569001 0.0006231717 -0.0001576766 0.0004966728 -0.0001093684 -0.03464039 -0.0977738675
