!Created with skrf (http://scikit-rf.org).
# Hz S RI R 50.0 
!freq ReS11 ImS11 ReS21 ImS21 ReS12 ImS12 ReS22 ImS22
300000.0 -0.092885662 -0.1015217146 0.621580019 0.09457869 0.6203900235 0.0953227066 -0.0943909077 -0.1067569934
5299970.0 -0.1012675769 0.0113372851 0.630607552 0.0113055666 0.630535778 0.0110943923 -0.1016590751 0.0113243539
10299940.0 -0.0969265644 0.0287835468 0.6348602496 0.0159423913 0.6341096909 0.0164090404 -0.0963100783 0.0285028483
15299910.0 -0.0892412657 0.0422456612 0.6405451356 0.0213190178 0.6407167105 0.0211640212 -0.0897342377 0.0418480758
20299880.0 -0.0801724677 0.0534514293 0.6487117216 0.0242970331 0.6492479589 0.0243443855 -0.0810978421 0.0529784914
25299850.0 -0.0700988726 0.0623089788 0.6580569749 0.0259652508 0.6581364929 0.0258146355 -0.0717722471 0.0620009537
30299820.0 -0.0607844725 0.0689393971 0.6678320206 0.0246185203 0.6678606547 0.0243870447 -0.0618391456 0.0687401342
35299790.0 -0.0504732812 0.0734305419 0.677429892 0.0221586781 0.6772436706 0.022097842 -0.0521486663 0.0738099399
40299760.0 -0.0412265426 0.0764101145 0.6865098876 0.0175346894 0.6868042319 0.0173039629 -0.042670758 0.0769947507
45299730.0 -0.0319557757 0.0783128774 0.6959856822 0.0124596886 0.696374378 0.0120720409 -0.0331106971 0.0790961392
50299700.0 -0.022700613 0.0789015143 0.7039292687 0.0049177075 0.703820764 0.004868663 -0.0243961459 0.0802600888
55299670.0 -0.0151802292 0.0788000938 0.711001739 -0.0022631005 0.710883451 -0.002686021 -0.0173265087 0.0805838613
60299640.0 -0.0076689251 0.078815408 0.7179815812 -0.0109382578 0.7176079537 -0.0112421567 -0.0097013653 0.0794500293
65299610.0 -0.0012576879 0.0771913621 0.7242465737 -0.0197378148 0.7240471084 -0.0197254635 -0.0026608728 0.0785827077
70299580.0 0.0050617905 0.0750439288 0.7289611555 -0.0286118176 0.7293726232 -0.0289758008 0.002973571 0.07708339
75299550.0 0.010470222 0.0732305271 0.7331264486 -0.0391667527 0.7333693669 -0.0391725044 0.0087448984 0.0752250292
80299520.0 0.0154057721 0.0714419498 0.7377253163 -0.0487739175 0.7377023079 -0.0486389028 0.0137913196 0.0734637516
85299490.0 0.0200630962 0.0691643779 0.7412468095 -0.0587586078 0.7409344478 -0.0585189543 0.0180228676 0.0706392445
90299460.0 0.0238932358 0.0665812167 0.7434220136 -0.068796928 0.743402985 -0.0680399779 0.0224008936 0.069367635
95299430.0 0.0280338344 0.0642072294 0.7459561687 -0.0790473866 0.7464900871 -0.0791714911 0.02588546 0.0663506203
100299400.0 0.0312153908 0.0615559834 0.7476542518 -0.0883953465 0.747899841 -0.0887823201 0.0290164855 0.0647268319
105299370.0 0.034273292 0.0592948994 0.7491065433 -0.0986390361 0.7494115921 -0.0985436051 0.0326342992 0.0617279151
110299340.0 0.0373381642 0.0563976337 0.7504467378 -0.1082096945 0.7509748011 -0.1084792051 0.03512414 0.0591686186
115299310.0 0.0395826807 0.0541135726 0.7511775959 -0.1184506593 0.7510761215 -0.1185652924 0.0372575001 0.0574471459
120299280.0 0.0415983576 0.0520247611 0.7521660272 -0.1302284192 0.7517516422 -0.1290479703 0.0396797178 0.0547245721
125299250.0 0.0438915843 0.0496941413 0.7520529532 -0.1390331818 0.7522022572 -0.1386199135 0.0420432567 0.0526710171
130299220.0 0.0456795106 0.0471438653 0.7521636278 -0.1489918516 0.7519043929 -0.1490201543 0.0437792637 0.0506100258
135299190.0 0.0468916568 0.0454197548 0.7522156813 -0.158694431 0.7522366566 -0.1589245638 0.0454419121 0.0479729619
140299160.0 0.0487909433 0.0431224862 0.7513690724 -0.1682805661 0.7515613296 -0.1684787018 0.046129636 0.0454731951
145299130.0 0.0493117405 0.0411555404 0.7504046035 -0.1783605832 0.7505642958 -0.1779405795 0.04802078 0.0438261192
150299100.0 0.0508695744 0.0391922482 0.7493095553 -0.1879270057 0.7489210747 -0.1877245419 0.0492180266 0.0417735837
155299070.0 0.052330774 0.037075983 0.7480389065 -0.1973473455 0.7486219513 -0.1977767447 0.0503271639 0.0395812981
160299040.0 0.0534945987 0.0356029904 0.7467704343 -0.2070697073 0.7466907316 -0.2069641478 0.0512147771 0.0384288047
165299010.0 0.0543400752 0.0335382063 0.7455993509 -0.2164234215 0.7450542162 -0.2165850381 0.0523414038 0.035953873
170298980.0 0.0550032596 0.0320193738 0.7431283792 -0.2258980563 0.7433790466 -0.2259270514 0.0526184017 0.0339677428
175298950.0 0.0560174023 0.0303107458 0.7417361056 -0.235339482 0.7415194322 -0.2356808343 0.0532541692 0.0323827108
180298920.0 0.0563079612 0.028675612 0.7394310317 -0.2447376691 0.7395487324 -0.2444002847 0.0541613138 0.0308750395
185298890.0 0.056861454 0.0269900418 0.7378312994 -0.2537426051 0.7371367494 -0.2531913566 0.0554126142 0.028853376
190298860.0 0.05782192 0.0255914472 0.734253368 -0.2628834055 0.7354689494 -0.2625183659 0.0553891762 0.0274676778
195298830.0 0.0577741533 0.0240975779 0.7324512881 -0.2713577038 0.7328402214 -0.2716614039 0.0558474991 0.0259749939
200298800.0 0.0585565064 0.0223794575 0.7298624872 -0.2809317948 0.729430203 -0.2807917736 0.0563595806 0.0240191646
205298770.0 0.0584148767 0.0208897267 0.7271582291 -0.2891707584 0.7269665195 -0.2890514005 0.0569045381 0.0225872967
210298740.0 0.0588056532 0.0201786315 0.7243434284 -0.2980388258 0.7237290918 -0.2980884942 0.0565897033 0.0209263445
215298710.0 0.0591420396 0.0187819239 0.72092162 -0.3064841706 0.721038148 -0.3073391951 0.0571446091 0.0200289402
220298680.0 0.0596360761 0.0176325313 0.7177512215 -0.3157593808 0.7175523824 -0.315660974 0.057278335 0.0183014768
225298650.0 0.0596751849 0.0159416426 0.7139792598 -0.3239926557 0.7147413639 -0.3238093437 0.0576261151 0.0166001369
230298620.0 0.0603850115 0.0152190234 0.7114951433 -0.3328898202 0.7113562481 -0.3328480211 0.0571232656 0.0153337291
235298590.0 0.059664061 0.0139629151 0.7083246966 -0.3416204257 0.70775765 -0.3413777301 0.057609676 0.0141663563
240298560.0 0.0603632998 0.0127483506 0.7043339855 -0.3492019314 0.703854441 -0.349329892 0.0578309552 0.0126210867
245298530.0 0.0605237101 0.0113312233 0.7004740089 -0.3577990684 0.6999681866 -0.3582368154 0.0579848343 0.0114431797
250298500.0 0.060246533 0.0102394767 0.6971481465 -0.3659525573 0.6966866337 -0.3660340575 0.0578571932 0.0106573708
255298470.0 0.0604467669 0.0097385136 0.6931729796 -0.3740992604 0.6934159505 -0.374327667 0.0580077158 0.0099192645
260298440.0 0.0606460708 0.0084044184 0.6890963162 -0.3821416642 0.6891770699 -0.3822955262 0.0577974906 0.0079569746
265298410.0 0.0601651941 0.0073840493 0.6843481055 -0.3908997323 0.6843034533 -0.3911271336 0.0588080551 0.0064857625
270298380.0 0.0602357025 0.0062396394 0.6809285026 -0.3984364368 0.6807466691 -0.3978768435 0.0582833063 0.0061190013
275298350.0 0.0603751599 0.0057110525 0.675636161 -0.4060243277 0.6759551613 -0.4058371113 0.0576386359 0.005209968
280298320.0 0.0597255769 0.0043819897 0.6716933868 -0.4137731779 0.672302045 -0.413851434 0.0583407613 0.0041129937
285298290.0 0.0597746003 0.0034885066 0.6671260178 -0.4220231016 0.6676263714 -0.4217204085 0.0580392732 0.0026850854
290298260.0 0.0600499772 0.0027913668 0.6633113258 -0.4297976846 0.6635074915 -0.4298306071 0.0580841489 0.0016582505
295298230.0 0.0599727403 0.001261811 0.6588158947 -0.4379094551 0.6585896731 -0.4374767193 0.0578719679 0.0003514334
300298200.0 0.060291627 0.0009774375 0.6538261629 -0.4455380005 0.6536639751 -0.4449399926 0.0576234074 -0.0007225719
305298170.0 0.0598867927 -0.0007731107 0.6492060026 -0.4529263162 0.6492274013 -0.4533875285 0.0575823172 -0.0024057484
310298140.0 0.0603114241 -0.0017397617 0.6445914217 -0.4601322721 0.6445216966 -0.4604192136 0.0579574044 -0.0036001102
315298110.0 0.0598723959 -0.0029369987 0.6395155359 -0.4685024424 0.6387630413 -0.4684132222 0.0575254841 -0.0044323641
320298080.0 0.0597135846 -0.003754801 0.6336032044 -0.4758940869 0.6344018753 -0.4761110618 0.0573332036 -0.0054064401
325298050.0 0.0586385854 -0.0052812376 0.6285339174 -0.4828920675 0.6287052135 -0.48327068 0.057168466 -0.0068253807
330298020.0 0.0574142557 -0.0058873 0.6229165974 -0.4905532666 0.6230778366 -0.4905884807 0.0560194947 -0.0081519269
335297990.0 0.0575613139 -0.0064994333 0.6173871968 -0.4981088189 0.6173637095 -0.4981094559 0.0557223601 -0.0086977952
340297960.0 0.0568100372 -0.0078785276 0.610976833 -0.504861368 0.6109915405 -0.5048788206 0.0551308289 -0.0090616319
345297930.0 0.0564811019 -0.0084783052 0.6057921468 -0.5121894365 0.6054491098 -0.5114475706 0.0551461258 -0.0104574553
350297900.0 0.0556609184 -0.0094064256 0.6006624206 -0.5177038816 0.6003894475 -0.5179467605 0.0546221051 -0.0113320101
355297870.0 0.0555084049 -0.0096804683 0.5946664417 -0.5242698924 0.594204062 -0.5242786088 0.0548668434 -0.0118873847
360297840.0 0.0554954635 -0.0102235933 0.5883224847 -0.5315738836 0.5884119737 -0.5317156842 0.0537188492 -0.0122034424
365297810.0 0.0547085186 -0.0109263644 0.5824878436 -0.5380223936 0.5824748406 -0.538120722 0.0530443147 -0.0132509451
370297780.0 0.0547838164 -0.0114323089 0.576062116 -0.544491451 0.5763969432 -0.5443132675 0.0529291551 -0.0137991883
375297750.0 0.0544265976 -0.0125536236 0.5705672125 -0.551353708 0.5706801788 -0.550876055 0.0528050837 -0.014751444
380297720.0 0.053328912 -0.0128216379 0.5645270606 -0.557772966 0.5645476572 -0.5571966384 0.0521787243 -0.015254135
385297690.0 0.0530380207 -0.0136622385 0.5580435627 -0.5634102771 0.5583879232 -0.564154815 0.0521052316 -0.0155022136
390297660.0 0.0530454514 -0.0143101986 0.5516908788 -0.569246104 0.5522417999 -0.5702147511 0.0524355574 -0.016670462
395297630.0 0.0531875909 -0.0147962238 0.5462796211 -0.5750338966 0.5456324246 -0.5753855793 0.0513558486 -0.0171377315
400297600.0 0.0521009071 -0.0157881507 0.5396484544 -0.5820076351 0.5396945748 -0.5819269153 0.0513840065 -0.0174990427
405297570.0 0.0521606923 -0.0166919907 0.533483931 -0.5875607024 0.5330395922 -0.5878005035 0.0511613581 -0.01799109
410297540.0 0.0516111608 -0.0166941549 0.5263085853 -0.5940493403 0.5268637846 -0.5939077514 0.0504105987 -0.0189297609
415297510.0 0.0510449831 -0.0176599337 0.5200131039 -0.5996027298 0.5207395744 -0.5997837094 0.050580099 -0.0190707442
420297480.0 0.0507876862 -0.0184236592 0.5134436263 -0.6058925542 0.5139573903 -0.6053789542 0.0503461763 -0.0196873744
425297450.0 0.0509922562 -0.0187947753 0.5070239407 -0.6105186817 0.5069752354 -0.6111922186 0.0496636989 -0.020511489
430297420.0 0.0501488085 -0.0192848319 0.500812554 -0.6173890693 0.5007591585 -0.6162705602 0.0498913533 -0.0209866318
435297390.0 0.0497968055 -0.0203018219 0.4930880025 -0.622890184 0.4927859458 -0.622301217 0.0488635732 -0.0212277262
440297360.0 0.0496121051 -0.0210467099 0.4860608452 -0.6277100979 0.4860732269 -0.6279460933 0.0485937883 -0.0220152629
445297330.0 0.0494004702 -0.0219936943 0.4797817899 -0.6325587817 0.4796193511 -0.6331451493 0.0484822028 -0.0220397454
450297300.0 0.0488777915 -0.0223677933 0.4728376003 -0.6379193525 0.4730962156 -0.6378542329 0.048296064 -0.0226150572
455297270.0 0.0482220938 -0.0228039119 0.4658987837 -0.6433769438 0.4662740401 -0.6439533326 0.0477721798 -0.0235765529
460297240.0 0.0480120608 -0.0231753261 0.4589819078 -0.649192103 0.4585010071 -0.6485368073 0.0474659701 -0.0241461204
465297210.0 0.0474837448 -0.0240868757 0.4508519206 -0.6540235869 0.4506436284 -0.6540847391 0.0473810672 -0.0238927429
470297180.0 0.0471646546 -0.0249829815 0.4439830891 -0.6585713495 0.4446986072 -0.6587324696 0.0470156015 -0.0251306557
475297150.0 0.0465042133 -0.0246492863 0.4370727356 -0.6632642086 0.4375006193 -0.6637354103 0.0466921241 -0.0256885375
480297120.0 0.0466697946 -0.0251209261 0.4295738005 -0.6683684472 0.4298818383 -0.6680244287 0.0460173683 -0.026556973
485297090.0 0.0462762088 -0.0266721993 0.4226932092 -0.6732103583 0.4225957015 -0.673083407 0.045637435 -0.0264956991
490297060.0 0.046249453 -0.0265142629 0.4140484863 -0.6775191753 0.4149689369 -0.6783347741 0.0449916178 -0.0271870978
495297030.0 0.0449610045 -0.0277505273 0.407639204 -0.6821371993 0.4077560127 -0.6827634791 0.0454080883 -0.0278364346
500297000.0 0.0445615357 -0.0277952512 0.4001460819 -0.6869843239 0.3999679975 -0.6869950828 0.0448503573 -0.0277879238
505296970.0 0.045031878 -0.028555847 0.3925372273 -0.6915302282 0.3924701254 -0.6908227758 0.0445481499 -0.0294577137
510296940.0 0.0442326546 -0.0293051478 0.3849895816 -0.6967561122 0.385455329 -0.6959332246 0.0440943577 -0.0290548787
515296910.0 0.04368839 -0.0291102181 0.3765171542 -0.6999698294 0.3767992342 -0.7001043988 0.0437680534 -0.0300671855
520296880.0 0.0435197116 -0.0297074908 0.3697751571 -0.7037769161 0.3690457126 -0.7038725495 0.0440634128 -0.0295566775
525296850.0 0.0432016266 -0.0303070266 0.3617490791 -0.7072899869 0.3613738862 -0.7081533584 0.0435885315 -0.0307447011
530296820.0 0.0425255809 -0.0312004931 0.354033523 -0.7121106662 0.3543806553 -0.7117124293 0.0430812348 -0.0315343818
535296790.0 0.042633553 -0.0312489968 0.3462424854 -0.7158951872 0.3464952179 -0.7155883465 0.0428620578 -0.0311029229
540296760.0 0.0422680492 -0.0314588117 0.3381725304 -0.7195585297 0.3381084825 -0.7193552437 0.0422764571 -0.0326369822
545296730.0 0.0407772086 -0.0319044423 0.3297119379 -0.7231248292 0.3300840749 -0.7226176587 0.0418707869 -0.0328352315
550296700.0 0.041694017 -0.0322631712 0.323136432 -0.7266078819 0.3220510282 -0.7271520662 0.0415205793 -0.0330206328
555296670.0 0.0407014942 -0.0326900321 0.3145997111 -0.7306281494 0.3144894361 -0.7304078658 0.0410069475 -0.0339445697
560296640.0 0.0412548714 -0.0333085587 0.3064384046 -0.7334557228 0.3068339408 -0.7336362925 0.0404211242 -0.0335128964
565296610.0 0.0398619812 -0.0334789162 0.2988980894 -0.736856882 0.2989923356 -0.7365668028 0.0402227705 -0.0339799962
570296580.0 0.0394347364 -0.0336366339 0.289730458 -0.7399282343 0.2905713205 -0.7405571043 0.0396897431 -0.035072326
575296550.0 0.039112846 -0.0341366378 0.2821317539 -0.7433629981 0.2825435106 -0.7432550965 0.0391303157 -0.0352924331
580296520.0 0.0385638818 -0.0342813272 0.2744111513 -0.7463473815 0.2737978037 -0.7465243618 0.0381700763 -0.0356750681
585296490.0 0.0380968067 -0.0345439485 0.2665133267 -0.7492596708 0.2657703284 -0.7490947795 0.0388093756 -0.0354970823
590296460.0 0.038446728 -0.0349701199 0.2578173786 -0.7519860078 0.2575664311 -0.7528328555 0.0377287154 -0.0359939324
595296430.0 0.0376781129 -0.0352968689 0.2490296855 -0.7551255541 0.2492594769 -0.7556288843 0.0375663163 -0.0368644356
600296400.0 0.0375041669 -0.0357085898 0.2403637175 -0.7577660914 0.2412592423 -0.7575389478 0.0368901804 -0.0374316282
605296370.0 0.0361028335 -0.0358609057 0.2331176978 -0.7602895229 0.232651972 -0.7604964359 0.0361405668 -0.0374192206
610296340.0 0.0365260779 -0.0355884226 0.2243989186 -0.7620861856 0.2246227569 -0.7625195816 0.0355717482 -0.0377163132
615296310.0 0.0359624831 -0.0363977905 0.2161092068 -0.7653087807 0.2155141529 -0.7652096619 0.0354870648 -0.0381106179
620296280.0 0.034889992 -0.036021082 0.2075603308 -0.7672793142 0.2073924769 -0.7673883165 0.0344945955 -0.0381565342
625296250.0 0.0347265486 -0.036826145 0.1991940508 -0.7699894164 0.1994727967 -0.7701417191 0.0335835149 -0.0385696285
630296220.0 0.034315347 -0.0365631566 0.1904990136 -0.7723690942 0.1908561749 -0.7717805223 0.0336126862 -0.038990246
635296190.0 0.0331156107 -0.0364315107 0.1826996716 -0.7734952755 0.1822689579 -0.7735512151 0.0330670811 -0.0392843846
640296160.0 0.0327849987 -0.0370006589 0.1735391115 -0.7759363264 0.1737886042 -0.7762386901 0.0318939928 -0.0397337292
645296130.0 0.0329903144 -0.03667096 0.1655907849 -0.7777969078 0.1657564398 -0.7777037793 0.0315782246 -0.0407701428
650296100.0 0.0321826211 -0.0375497157 0.157183679 -0.7799019142 0.156917604 -0.7792697408 0.0322019582 -0.0404469795
655296070.0 0.0315866847 -0.037568669 0.1482091454 -0.781260034 0.1485102339 -0.7807199581 0.0303022688 -0.0404453632
660296040.0 0.0311149571 -0.0374907249 0.1395291963 -0.783147037 0.140161371 -0.7830313144 0.0299208134 -0.041468862
665296010.0 0.0306493401 -0.0376866581 0.130850623 -0.7836653661 0.1312935705 -0.7842499202 0.0296141751 -0.0409895347
670295980.0 0.0304372079 -0.0377755216 0.1222749839 -0.7856213579 0.122346725 -0.7850195928 0.0283581652 -0.0415200648
675295950.0 0.0290741503 -0.0381258589 0.1138779871 -0.7865051765 0.1144194876 -0.7865362359 0.0278427331 -0.0414804209
680295920.0 0.0288725601 -0.0379000521 0.1051336941 -0.7879079284 0.1056699542 -0.7877242631 0.0277815905 -0.0423208226
685295890.0 0.0286706355 -0.0379350008 0.0969901173 -0.7894446169 0.0973315749 -0.789162591 0.0270485744 -0.0416641759
690295860.0 0.0272835728 -0.0380797697 0.0883034891 -0.7896968695 0.0880434547 -0.7902115833 0.0261636585 -0.0422761847
695295830.0 0.0271246791 -0.038642569 0.0801647613 -0.7911887274 0.080282941 -0.7907519176 0.0256424466 -0.0421123131
700295800.0 0.026681714 -0.0380834194 0.0721074644 -0.7917510926 0.0715584828 -0.7916829162 0.0249473295 -0.0422454466
705295770.0 0.0257844117 -0.0382258107 0.0625112684 -0.7928744714 0.0627084394 -0.7925351158 0.0242068328 -0.0422486592
710295740.0 0.0254080038 -0.0385757592 0.0543133266 -0.7935318493 0.053870662 -0.7931766027 0.0239496156 -0.0423532515
715295710.0 0.0246466028 -0.0381691032 0.0458918656 -0.7940235042 0.0457777202 -0.7938366322 0.0232412872 -0.0431039605
720295680.0 0.0247236714 -0.0383208104 0.0367852581 -0.794084287 0.0371263514 -0.7946715812 0.0227266229 -0.0430734551
725295650.0 0.0230828285 -0.0385253911 0.0286218904 -0.7945198169 0.0283521054 -0.794548993 0.0215738435 -0.042430732
730295620.0 0.0222321459 -0.0386200578 0.0195496391 -0.7946308065 0.0198489225 -0.7939358598 0.0209990493 -0.0423109788
735295590.0 0.0225840609 -0.0383697584 0.0109415766 -0.7948461793 0.010963657 -0.7948257027 0.0202660037 -0.0431707903
740295560.0 0.0216124001 -0.0388727494 0.0023213338 -0.7949514857 0.0029396242 -0.795244302 0.0191542127 -0.0428483042
745295530.0 0.0209324719 -0.03849025 -0.0057336405 -0.7937830492 -0.0056731003 -0.7946742262 0.018261404 -0.0429127954
750295500.0 0.0199842554 -0.0383783121 -0.0139702614 -0.7946498053 -0.0148188811 -0.7944704947 0.0176875603 -0.0427752353
755295470.0 0.0192153794 -0.0384957143 -0.0227993166 -0.7950199648 -0.0230903499 -0.7947691542 0.0176616835 -0.0421809916
760295440.0 0.0188999989 -0.0381148012 -0.0324642489 -0.7945589111 -0.0320315245 -0.7935284461 0.0169412362 -0.0435712791
765295410.0 0.0188612024 -0.0384138947 -0.0404118122 -0.7938871373 -0.0398862578 -0.7933422889 0.0161671388 -0.0430233149
770295380.0 0.017592431 -0.0379684346 -0.0493044557 -0.7926048429 -0.0488983722 -0.7937083773 0.0150149665 -0.0430147218
775295350.0 0.0171255608 -0.0384594602 -0.0575596413 -0.7929947626 -0.0573945096 -0.792098328 0.0152395355 -0.0426829797
780295320.0 0.0162781538 -0.0380693165 -0.0661517079 -0.7916118856 -0.066122108 -0.7918888822 0.0144791588 -0.0429436237
785295290.0 0.0156077943 -0.0382230927 -0.0749408346 -0.7911995505 -0.0752841186 -0.7912599943 0.0130573573 -0.042163809
790295260.0 0.0155342671 -0.0385750063 -0.0829756986 -0.7901783706 -0.0830106749 -0.7902051013 0.0126063004 -0.0419138381
795295230.0 0.0146603408 -0.0385543007 -0.0921090875 -0.7898889068 -0.0920848011 -0.7894176447 0.0122010167 -0.0431292632
800295200.0 0.0134971059 -0.0378882825 -0.1003548374 -0.7877687396 -0.1006495793 -0.788477491 0.0111496161 -0.042505701
805295170.0 0.0129751661 -0.0380414012 -0.1090756421 -0.7870345503 -0.1085306295 -0.7874241527 0.0115029696 -0.0421485892
810295140.0 0.0128875502 -0.0380031083 -0.1172565919 -0.7860260146 -0.1175105968 -0.7860608611 0.0106326009 -0.0422162689
815295110.0 0.0118811705 -0.0378174214 -0.1255280396 -0.7843564447 -0.1254329669 -0.7847665079 0.009589789 -0.0422583406
820295080.0 0.0115893813 -0.0376906725 -0.1337110504 -0.7822463592 -0.1341398288 -0.7834200846 0.0080983156 -0.0411175582
825295050.0 0.0103460819 -0.0378151167 -0.1431813606 -0.7819043 -0.1426153091 -0.7814042402 0.0088162469 -0.0408316916
830295020.0 0.0098606899 -0.0378057713 -0.1516051702 -0.7794904162 -0.1512896307 -0.7799643915 0.0077262879 -0.0419070993
