!Created with skrf (http://scikit-rf.org).
# Hz S RI R 50.0 
!freq ReS11 ImS11 ReS21 ImS21 ReS12 ImS12 ReS22 ImS22
300000.0 -0.2381213264 -0.0958106252 0.4718190183 0.0637647898 0.4699792732 0.0594710468 -0.2394919602 -0.0998857004
5299970.0 -0.2448839679 0.0062998888 0.4745516609 0.0051940815 0.474791194 0.0050380812 -0.2409633864 0.0072533698
10299940.0 -0.2417222216 0.0179074678 0.4767145537 0.0060552192 0.4767701284 0.0065338614 -0.2376554235 0.0204433843
15299910.0 -0.2374675464 0.0269260672 0.4806215235 0.0073233607 0.48073281 0.0072921571 -0.2331499689 0.0299276881
20299880.0 -0.2328128099 0.0342000786 0.4853478767 0.0082907425 0.4848249894 0.008187075 -0.2278895967 0.0380562721
25299850.0 -0.2279322667 0.0401416214 0.4901475535 0.0074133407 0.4905577106 0.0073059626 -0.2218649623 0.0446930533
30299820.0 -0.2225465125 0.0449468512 0.4957037382 0.0050419693 0.4956107667 0.0050549148 -0.2160825519 0.0501074007
35299790.0 -0.2173039581 0.0490679389 0.5007287519 0.0015121639 0.5010629573 0.0016352092 -0.2105104944 0.0546097983
40299760.0 -0.2125588508 0.0524132577 0.5054728494 -0.0023719002 0.5059342839 -0.002177943 -0.2053227385 0.0576422711
45299730.0 -0.2081910459 0.054691477 0.5105490581 -0.0067643086 0.5107592379 -0.0069280729 -0.2005019692 0.0606645348
50299700.0 -0.2038954975 0.0568300444 0.5149958102 -0.012679159 0.5148011131 -0.0119252644 -0.1953591277 0.0627602874
55299670.0 -0.1998744934 0.0586066341 0.5185898042 -0.0192233867 0.5184254179 -0.0183361129 -0.1913280234 0.0645993087
60299640.0 -0.1959612681 0.059761967 0.5215947307 -0.0245366211 0.5220744945 -0.0246223234 -0.1876113071 0.0656128307
65299610.0 -0.1930855784 0.0610344167 0.5247676517 -0.0315452972 0.524862405 -0.0311819821 -0.1840148431 0.066479185
70299580.0 -0.1900444543 0.0620394045 0.5272148712 -0.0378574367 0.527144835 -0.0377718266 -0.1808657471 0.067451649
75299550.0 -0.1872591611 0.0630639815 0.528882038 -0.0446745539 0.5291887 -0.0447310158 -0.1782620834 0.0682379118
80299520.0 -0.1847795651 0.0637501442 0.5311297954 -0.0516575498 0.5311242615 -0.0515276623 -0.1753555654 0.0691808757
85299490.0 -0.1825601791 0.0641217356 0.5321727895 -0.0583167388 0.5323073822 -0.0577421681 -0.1730402725 0.0694955649
90299460.0 -0.1803098286 0.0648573961 0.5329597241 -0.0655224772 0.5333346099 -0.0652258775 -0.1701855222 0.0704107133
95299430.0 -0.1780915311 0.065019483 0.5339937303 -0.0721665589 0.5341112406 -0.0722506412 -0.168297733 0.0711038007
100299400.0 -0.1767753978 0.0664489911 0.5340346243 -0.0789379578 0.5340391227 -0.079083943 -0.165955052 0.0715802693
105299370.0 -0.1748993588 0.0669732843 0.5344621779 -0.0863778008 0.5351220489 -0.0856188459 -0.1642355845 0.0724379727
110299340.0 -0.1734004861 0.0676475178 0.5348951419 -0.092613468 0.5347337277 -0.0925697282 -0.162955499 0.072953319
115299310.0 -0.1719470223 0.0680968432 0.5349882304 -0.0998184818 0.5345546744 -0.0993658128 -0.1611356247 0.073690156
120299280.0 -0.1705995849 0.0685115732 0.5342232427 -0.1062367719 0.5346154289 -0.1065900815 -0.1596499681 0.0746934099
125299250.0 -0.1697027457 0.0692444513 0.5345570828 -0.1125536048 0.5341631354 -0.1127746126 -0.1586910289 0.0749817249
130299220.0 -0.1687473168 0.0705446078 0.5335460376 -0.1202225529 0.5333155029 -0.1197247331 -0.1569155787 0.0756731472
135299190.0 -0.1673240884 0.0711168598 0.5329645695 -0.1265360638 0.5328554311 -0.1260026184 -0.1556093731 0.0769439432
140299160.0 -0.166457358 0.0721385826 0.532028937 -0.1331732193 0.5324240405 -0.1330527551 -0.1543631071 0.0780403644
145299130.0 -0.1657837965 0.0728246558 0.5315414683 -0.1395948839 0.5310219397 -0.1394792381 -0.1531265402 0.078903794
150299100.0 -0.1642879529 0.0742155174 0.5295472601 -0.1461702426 0.5299694523 -0.1455848244 -0.1522535833 0.0803490424
155299070.0 -0.1638955885 0.0747826964 0.5292462238 -0.1530275675 0.5285987894 -0.1526991727 -0.1513232748 0.0814967569
160299040.0 -0.1629550479 0.0757171075 0.5275617129 -0.158899871 0.5267979649 -0.1588804515 -0.1506509689 0.0820962604
165299010.0 -0.1621640256 0.0768938869 0.5258612806 -0.1656731816 0.5261474397 -0.1655592092 -0.1491281359 0.083694391
170298980.0 -0.1612324532 0.0775548408 0.5240759598 -0.1717294946 0.5243721503 -0.171791382 -0.1481645787 0.084789228
175298950.0 -0.1606401339 0.0788954172 0.5231066258 -0.1780266841 0.5226669266 -0.1781832684 -0.147450714 0.085986719
180298920.0 -0.1599500301 0.0800561248 0.5212165611 -0.1841842883 0.5209788363 -0.1841313338 -0.1464734824 0.0873905467
185298890.0 -0.1587900086 0.0808640965 0.519146636 -0.1902531947 0.5189818566 -0.1902098545 -0.1453336895 0.088602767
190298860.0 -0.1581074481 0.0823222982 0.5174044383 -0.1969374687 0.5176414979 -0.1967682412 -0.1446110653 0.0898140802
195298830.0 -0.15769192 0.0833902821 0.5152118819 -0.2031015793 0.5154871413 -0.2028438723 -0.1432760692 0.0911231827
200298800.0 -0.1567688246 0.0848767341 0.5132561975 -0.2094130632 0.5132646409 -0.2091022954 -0.1430651908 0.0925077682
205298770.0 -0.1561505929 0.0858304156 0.5106493016 -0.2152741819 0.5110339761 -0.2147635229 -0.1420206572 0.0931333275
210298740.0 -0.1556102396 0.0868958295 0.5086557362 -0.220717348 0.5089989905 -0.2207187017 -0.1407977886 0.0954404118
215298710.0 -0.1551044969 0.0883084662 0.5066931814 -0.2267847596 0.5062704276 -0.2272811337 -0.1405191033 0.0963226576
220298680.0 -0.1539980967 0.0893795825 0.5034719856 -0.2326086162 0.5038971509 -0.2327300528 -0.1396686795 0.0975980263
225298650.0 -0.1534310251 0.0905948205 0.5014476616 -0.2383351685 0.5016255983 -0.2386997732 -0.1389160671 0.0989856844
230298620.0 -0.1526011111 0.0923217805 0.499150165 -0.2443138473 0.4995064191 -0.2440657007 -0.1382286345 0.0998258145
235298590.0 -0.1517740529 0.0939286908 0.4964327603 -0.2502429109 0.4966818126 -0.2495784859 -0.1370872751 0.101501329
240298560.0 -0.1511275808 0.0949475586 0.4938936603 -0.2559058133 0.4938995698 -0.2560737723 -0.1360891137 0.1033595374
245298530.0 -0.1504570868 0.0961880839 0.491303239 -0.2615624906 0.4912095494 -0.2615608203 -0.1349402798 0.1038826628
250298500.0 -0.1493315171 0.0976656662 0.4876602368 -0.267321369 0.4875572122 -0.2668772161 -0.1339386687 0.1056528544
255298470.0 -0.1485886158 0.0984022518 0.4845887375 -0.2721796715 0.485166748 -0.2723557774 -0.132605039 0.1067420355
260298440.0 -0.1480408007 0.1000704043 0.4819086017 -0.2786620575 0.482145086 -0.2783165781 -0.1313475598 0.1084102668
265298410.0 -0.1466870285 0.1019007573 0.4793655687 -0.2840817389 0.4794771636 -0.2838541262 -0.1306007763 0.1099493762
270298380.0 -0.1461375614 0.1029966326 0.4762517842 -0.2890925455 0.476185865 -0.2888408487 -0.1296973805 0.1111495609
275298350.0 -0.144654832 0.104293347 0.4723445921 -0.2945609422 0.4731096318 -0.2946651405 -0.1282633709 0.1124782723
280298320.0 -0.1438925004 0.1057746627 0.4699823935 -0.2999098475 0.4700202163 -0.2999120686 -0.1268150129 0.1137130786
285298290.0 -0.1429589178 0.1072409105 0.4668223701 -0.3048929656 0.4664933129 -0.3052978691 -0.1256063958 0.1151300361
290298260.0 -0.1418373601 0.1083222516 0.4631471702 -0.310151775 0.4633809643 -0.3104907302 -0.1240862629 0.1165160429
295298230.0 -0.1408416761 0.1094059218 0.4599277776 -0.3155730206 0.4598474784 -0.3158394841 -0.1228473804 0.1176917276
300298200.0 -0.1402499407 0.1110482676 0.4567448326 -0.3209900508 0.4568948613 -0.3211998234 -0.121736756 0.1189262003
305298170.0 -0.1390748684 0.1121828851 0.4526454443 -0.3266569303 0.4528784507 -0.3259377175 -0.1198239874 0.1201150741
310298140.0 -0.1378941635 0.1135215394 0.4494050481 -0.3316987539 0.4495268755 -0.331359483 -0.1187289836 0.1214990717
315298110.0 -0.1370025141 0.1147585906 0.4455765153 -0.3365199381 0.445697025 -0.3367692165 -0.1177305442 0.1228897509
320298080.0 -0.1356270288 0.1159545688 0.4414041126 -0.3420775595 0.4420770626 -0.3418315504 -0.1161944807 0.1239701167
325298050.0 -0.1350341387 0.1169408624 0.4378618382 -0.3465854557 0.4380728519 -0.3466836587 -0.1155033168 0.125296884
330298020.0 -0.1342264106 0.1181931818 0.4338998936 -0.3515471974 0.4343259173 -0.3519918817 -0.1143717601 0.1265259666
335297990.0 -0.1331363936 0.1195273137 0.4304980202 -0.3564745325 0.4301168668 -0.3566327711 -0.1132964779 0.1284335385
340297960.0 -0.1324456635 0.1210699455 0.4256016806 -0.3612585674 0.4258151574 -0.3614190569 -0.111533868 0.1300073089
345297930.0 -0.1315239087 0.1229000964 0.4216977558 -0.3662298231 0.4216611591 -0.3664089697 -0.1104142197 0.1310712854
350297900.0 -0.1305589438 0.1236644682 0.4168418185 -0.3708214449 0.4175313175 -0.3707692006 -0.1092975555 0.1327897709
355297870.0 -0.1290859662 0.1255756549 0.4136624019 -0.3755965381 0.413756376 -0.3752394845 -0.1080999408 0.1340284663
360297840.0 -0.1280946399 0.1269992964 0.4099187132 -0.3799827953 0.4099731265 -0.3795497752 -0.1067327857 0.1355406669
365297810.0 -0.1271091572 0.1283515433 0.4053483405 -0.3842322144 0.4055530445 -0.3844399696 -0.1052125472 0.1365734216
370297780.0 -0.1257138886 0.1293386686 0.4005856945 -0.3887094746 0.401406841 -0.3881389087 -0.103985124 0.1379253952
375297750.0 -0.1244685814 0.1308419658 0.3967781406 -0.3928867146 0.3972797321 -0.393206001 -0.1026131956 0.139350675
380297720.0 -0.1234523948 0.132108613 0.3922441072 -0.3979057362 0.3925974111 -0.3964853155 -0.1015165592 0.1404180785
385297690.0 -0.1226056424 0.1335982767 0.3877716048 -0.4013692248 0.3876533335 -0.4018569892 -0.0993260495 0.141954874
390297660.0 -0.1212200902 0.1349381289 0.3835894146 -0.4059797532 0.3834921604 -0.4057885566 -0.0982492007 0.1432851377
395297630.0 -0.1198650676 0.1364594821 0.3787797783 -0.4102414155 0.3794855459 -0.4100747811 -0.0965169766 0.1447193222
400297600.0 -0.1187528008 0.1375519948 0.3741055342 -0.4146469958 0.3744988459 -0.4146005904 -0.0950764847 0.1455144992
405297570.0 -0.1174640927 0.1389444317 0.3699276554 -0.4179719541 0.3703985822 -0.4178919559 -0.0939095628 0.1466407708
410297540.0 -0.1158713928 0.1399679055 0.3653937493 -0.4224585278 0.3660754481 -0.4225454284 -0.0923630889 0.1484296842
415297510.0 -0.1145214679 0.1412697513 0.3601320857 -0.4263682678 0.3610882841 -0.4266874599 -0.0902820997 0.1493724823
420297480.0 -0.1135478258 0.1429114467 0.3557622687 -0.4306568415 0.3558407638 -0.4305338102 -0.0893006456 0.1498008928
425297450.0 -0.1121862045 0.1436852575 0.3513868291 -0.4343992353 0.3517139973 -0.4341926831 -0.0878664881 0.1517255372
430297420.0 -0.1108210917 0.1449155577 0.3467829579 -0.4375919443 0.3465197659 -0.4377377539 -0.0860723278 0.1524630991
435297390.0 -0.1095435494 0.1460532783 0.3414960331 -0.4417153099 0.3416561213 -0.4416718511 -0.0838270524 0.1536813673
440297360.0 -0.1080870958 0.1476455527 0.3366941871 -0.4454195639 0.3369496103 -0.4454387993 -0.0827656918 0.1544473885
445297330.0 -0.1067426006 0.1481308053 0.332375457 -0.4492868573 0.3321141932 -0.4490645053 -0.0805242853 0.1550290862
450297300.0 -0.1049251042 0.1495222793 0.3273778981 -0.4528507411 0.3269314609 -0.452798015 -0.0789837093 0.1561114029
455297270.0 -0.1036748969 0.1506566542 0.3216366488 -0.4561688757 0.3222393345 -0.4561986381 -0.0774445544 0.1573841005
460297240.0 -0.1023708372 0.1520659338 0.316581831 -0.4597826753 0.3171236106 -0.4596415916 -0.0754718679 0.1582911869
465297210.0 -0.1007428163 0.1530152579 0.3124079278 -0.4629303859 0.3121339253 -0.4631607203 -0.0737181401 0.1590428852
470297180.0 -0.0994360411 0.1541101109 0.3066214986 -0.46667332 0.3071634568 -0.4665485307 -0.0716603652 0.1604724622
475297150.0 -0.0978223233 0.154818547 0.3014555929 -0.4692541678 0.3020061755 -0.4696440969 -0.0696735356 0.1606490322
480297120.0 -0.0965220962 0.15659702 0.296371613 -0.4735724066 0.2965300557 -0.4735259821 -0.0678409162 0.1620590459
485297090.0 -0.0950639336 0.1574749139 0.2915774741 -0.4759791271 0.2916675859 -0.4758767078 -0.0660399223 0.1628598941
490297060.0 -0.0939528665 0.1583835184 0.2867714761 -0.4795467563 0.2864395466 -0.4793539594 -0.0642782115 0.1639014341
495297030.0 -0.0919791735 0.1593709538 0.280904992 -0.4823182484 0.281611548 -0.4820448674 -0.062449561 0.1647911013
500297000.0 -0.0902869085 0.1603779004 0.2756844055 -0.4848601829 0.2753979192 -0.485029623 -0.0606179637 0.1660854038
505296970.0 -0.0887740461 0.1612971164 0.2704380182 -0.4879897051 0.2706760988 -0.4882287342 -0.059005783 0.1666524509
510296940.0 -0.0872245521 0.1622757656 0.2650411818 -0.490875616 0.2652210551 -0.491530618 -0.0567772909 0.1674172844
515296910.0 -0.0854989863 0.1634686374 0.2594729389 -0.4938977184 0.2596470488 -0.4936477554 -0.0552066979 0.1681170742
520296880.0 -0.0841657025 0.1643140755 0.2541797383 -0.4970818264 0.254836975 -0.4964865338 -0.0536816411 0.1692325832
525296850.0 -0.0824225517 0.1648381291 0.2488342184 -0.4996539993 0.2493954525 -0.4992278438 -0.0515944862 0.1699818086
530296820.0 -0.0809385713 0.1662519327 0.2433197845 -0.5025635654 0.2432789546 -0.5019158723 -0.0493562254 0.1705721328
535296790.0 -0.079673128 0.1674002595 0.2387315252 -0.5049767452 0.238260567 -0.5047001643 -0.0480276388 0.1714748636
540296760.0 -0.078001892 0.1682631143 0.2327454472 -0.507102802 0.2324740498 -0.5075794788 -0.046266301 0.1723672062
545296730.0 -0.0764576621 0.1689950176 0.2265681434 -0.5096987084 0.2271754952 -0.509879923 -0.0444021125 0.1730758865
550296700.0 -0.074281321 0.1701114471 0.2213510019 -0.5123602309 0.221931648 -0.5123066508 -0.0429205489 0.1735310902
555296670.0 -0.0732652336 0.1707541514 0.2159855657 -0.514454841 0.216055923 -0.5144276387 -0.0404976148 0.1742347397
560296640.0 -0.0709270997 0.1718071678 0.2101542411 -0.5167525117 0.2105409458 -0.5168323905 -0.038557083 0.1750436014
565296610.0 -0.0696638983 0.1725846872 0.2046881098 -0.5191345551 0.2046726472 -0.5191537799 -0.0369203489 0.1749792542
570296580.0 -0.0680949083 0.1734197709 0.198851946 -0.5215536395 0.1983985021 -0.521325877 -0.0351499308 0.176512398
575296550.0 -0.0664776408 0.1744827726 0.1934420728 -0.523424661 0.1931946081 -0.523539976 -0.0330289528 0.1763846444
580296520.0 -0.0645289964 0.1749785102 0.1874482106 -0.526048984 0.1875452793 -0.5252546667 -0.0308908136 0.1769828656
585296490.0 -0.0631378633 0.1753710575 0.1819855176 -0.5270595216 0.182188421 -0.5272840739 -0.0291573 0.1774314608
590296460.0 -0.0611939952 0.1765094026 0.1766559076 -0.5290018509 0.1764904987 -0.5289565321 -0.0277577408 0.1780881602
595296430.0 -0.0593291073 0.1772134624 0.1699972873 -0.5313122499 0.1701686971 -0.5309347523 -0.0253723139 0.1779719598
600296400.0 -0.0580509016 0.1779444592 0.1647614295 -0.5333591818 0.1647420172 -0.5325157272 -0.0234625111 0.1782519886
605296370.0 -0.0563809322 0.1785223915 0.1589447316 -0.5347861036 0.1591743814 -0.5346113946 -0.0212408816 0.1789835721
610296340.0 -0.0543736165 0.1791674606 0.1529911496 -0.5359240146 0.1535321419 -0.53655027 -0.0193089207 0.1792129547
615296310.0 -0.0523524885 0.1794369083 0.1467801577 -0.5375683963 0.1471293484 -0.5382081924 -0.0169642456 0.1795005003
620296280.0 -0.0509803205 0.1801196385 0.1415718083 -0.5392984989 0.1414015349 -0.5388753378 -0.0153673059 0.1799277781
625296250.0 -0.0494546993 0.1806120554 0.136231147 -0.5408165867 0.1355445897 -0.5412297309 -0.0127892223 0.1800709859
630296220.0 -0.0468422695 0.1817652702 0.1291547764 -0.5422815169 0.1293333475 -0.5421480925 -0.0111629708 0.1807372751
635296190.0 -0.0456657725 0.1818663875 0.1237660644 -0.5433196744 0.1238222259 -0.54375527 -0.009097065 0.1807392985
640296160.0 -0.044209249 0.1829368442 0.117804018 -0.5446485312 0.1183187911 -0.5448838016 -0.0069882096 0.1807648877
645296130.0 -0.042111058 0.1835807917 0.1119321352 -0.545963855 0.1124008357 -0.5459410959 -0.0047635657 0.1811310925
650296100.0 -0.0403199006 0.1838485262 0.1062250328 -0.5468594066 0.106442241 -0.547154713 -0.0026780874 0.1807648021
655296070.0 -0.0385570195 0.1841062045 0.0999865889 -0.5483541715 0.1006156872 -0.5480660602 -0.000586338 0.1814673698
660296040.0 -0.0372686627 0.1845063747 0.0944476767 -0.5492523378 0.0945845815 -0.5495861801 0.001593955 0.1816673122
665296010.0 -0.0347363858 0.1850741624 0.0882329077 -0.5499281633 0.088582027 -0.5502748971 0.0039447125 0.1823181354
670295980.0 -0.03381901 0.1855965013 0.0823885939 -0.5509759338 0.0825919903 -0.5508417302 0.0051595369 0.1821503628
675295950.0 -0.0316143719 0.1863786259 0.0764114093 -0.5517114384 0.0767417532 -0.5512929793 0.0070343286 0.1824803548
680295920.0 -0.0300034416 0.1867581814 0.0706830137 -0.5524265116 0.0701763788 -0.5531964804 0.0095351818 0.1827899772
685295890.0 -0.0277133801 0.187548593 0.0641963778 -0.5532560923 0.0643518915 -0.5530130861 0.0115454421 0.1822824545
690295860.0 -0.0262149677 0.1878373567 0.0588181722 -0.553496901 0.0586976977 -0.5543733803 0.0132863947 0.1833876434
695295830.0 -0.0240719051 0.1877264018 0.0530667128 -0.5544425794 0.0523640353 -0.5549496989 0.0155685041 0.1831772319
700295800.0 -0.0223359508 0.1882224637 0.046452697 -0.5546661612 0.0463680297 -0.5547390384 0.0172345216 0.1836431181
705295770.0 -0.02095801 0.1890258325 0.040809529 -0.5552327918 0.040803567 -0.5553221937 0.0195542189 0.1833952181
710295740.0 -0.0186254651 0.1889618995 0.0347303376 -0.5559969524 0.0350252238 -0.5561675612 0.0216020287 0.1827690032
715295710.0 -0.0171704013 0.1893554805 0.0291208046 -0.5562837247 0.0288986651 -0.5560204332 0.0237500208 0.1829486189
720295680.0 -0.0151445253 0.1896370086 0.0227188285 -0.5565885594 0.0230194565 -0.5566275446 0.0253300543 0.1831542989
725295650.0 -0.0133136614 0.1899655931 0.0167926994 -0.5566173819 0.0170303113 -0.5568265149 0.027085132 0.1832564902
730295620.0 -0.011254546 0.1907275272 0.0105157134 -0.5567300653 0.0111219508 -0.5565489206 0.0288835629 0.1825138121
735295590.0 -0.0095818851 0.1909939268 0.0046459396 -0.5571885053 0.0046564155 -0.5567103057 0.0309384802 0.1821971555
740295560.0 -0.0079467359 0.1910561844 -0.0011669954 -0.5566846672 -0.0014815432 -0.5569329169 0.033604446 0.1822270363
745295530.0 -0.0059046479 0.1912751584 -0.00737387 -0.5561542071 -0.0072603223 -0.5565345358 0.0352440692 0.181519852
750295500.0 -0.0039662299 0.1914915529 -0.0130701552 -0.5562496979 -0.0135429149 -0.5565431052 0.0371968562 0.1815400545
755295470.0 -0.0020749892 0.1913362476 -0.0194144826 -0.5561232376 -0.019181942 -0.55613448 0.0397474369 0.180755574
760295440.0 -0.0003590558 0.1918338065 -0.0253643982 -0.5565112893 -0.0250196555 -0.5564297299 0.0414043344 0.1808418877
765295410.0 0.0014504505 0.1917519822 -0.0313324311 -0.5557898249 -0.0316105838 -0.5561721991 0.0433624643 0.1808688456
770295380.0 0.0032153217 0.1918756061 -0.037607221 -0.5552613263 -0.0373693385 -0.5553087115 0.04530661 0.1797937328
775295350.0 0.0046246312 0.1915809424 -0.0433990457 -0.5546547846 -0.0430871494 -0.554828704 0.0467196666 0.1799373462
780295320.0 0.0070212307 0.1918800105 -0.0494653156 -0.5543659218 -0.0483295121 -0.5539784017 0.0489926039 0.1790978885
785295290.0 0.0086449242 0.1915700466 -0.0555200881 -0.5533623479 -0.0548912109 -0.5534751722 0.0517322536 0.1789432841
790295260.0 0.0108442936 0.1924018884 -0.0607179155 -0.5533245308 -0.0603333581 -0.5528699333 0.05354936 0.1783788818
795295230.0 0.0126336293 0.1920343695 -0.0670593328 -0.5522840332 -0.0664051635 -0.5525330981 0.0558245991 0.1782030976
800295200.0 0.0142399138 0.1922563685 -0.0734344852 -0.5510884533 -0.0728990547 -0.5512238686 0.0576700526 0.1776120684
805295170.0 0.0161677921 0.1919549434 -0.0787689887 -0.550383261 -0.0789110189 -0.5508543452 0.0593927781 0.1769634725
810295140.0 0.0178401343 0.1916316498 -0.0845575354 -0.5492144339 -0.0846423833 -0.5497078397 0.0618278396 0.1769823362
815295110.0 0.0198430151 0.1916839387 -0.0908929289 -0.5485115959 -0.0905967996 -0.5487592101 0.0635840842 0.1759711495
820295080.0 0.0215482761 0.1921586654 -0.0964131821 -0.5476616905 -0.0959946674 -0.5477199337 0.0656298163 0.1755245967
825295050.0 0.0238941708 0.1920168107 -0.1018754258 -0.5462095764 -0.1023687897 -0.5468792846 0.0676422755 0.1749559032
830295020.0 0.0255731049 0.1918888432 -0.1080777286 -0.5451806854 -0.1079238606 -0.5454338542 0.070166624 0.1743748386
