!Created with skrf (http://scikit-rf.org).
# Hz S RI R 50.0 
!freq ReS11 ImS11 ReS21 ImS21 ReS12 ImS12 ReS22 ImS22
300000.0 -0.0432136436 -0.0590415672 -0.0008800998 0.0013451158 1.39355e-05 0.0007797597 -0.7684835344 -0.1680760753
5299970.0 -0.0449108953 0.016097182 -3.94131e-05 0.0001009143 0.0001321281 -0.0001416238 -0.7851322831 -0.0091903271
10299940.0 -0.0390983203 0.0336489824 -3.61794e-05 -0.0001158339 6.21378e-05 0.0001152844 -0.7885102223 -0.0053868723
15299910.0 -0.030649822 0.0480750618 5.71566e-05 0.0002938088 0.0001185948 4.72189e-05 -0.7936551653 -0.0032413355
20299880.0 -0.0205276221 0.0599208624 9.37089e-05 0.0001586915 -2.84121e-05 4.16687e-05 -0.800391619 0.0019095379
25299850.0 -0.0092212475 0.0693585008 -0.000154327 1.68304e-05 -7.81902e-05 -5.83447e-05 -0.8067437037 0.0074648249
30299820.0 0.0028469092 0.0760060523 0.0001484558 0.0001031682 0.0002920472 2.14569e-05 -0.8128279829 0.0146876619
35299790.0 0.0144320089 0.0810931647 -0.0001898067 0.0001260616 -1.4098e-06 8.03399e-05 -0.817882556 0.0239349807
40299760.0 0.0260193439 0.0837449819 5.34712e-05 0.0001850634 2.6426e-05 0.0001673516 -0.8218372672 0.0330289898
45299730.0 0.0364311718 0.0854279646 0.0002020935 0.000247722 4.92283e-05 -3.42723e-05 -0.8256232245 0.0422846179
50299700.0 0.0466997567 0.08529036 9.19711e-05 2.70787e-05 6.01558e-05 0.0001490441 -0.8281236999 0.0531802403
55299670.0 0.0558538724 0.0842335989 0.0001598169 2.887e-06 -4.4122e-06 -1.52223e-05 -0.8297503794 0.063089556
60299640.0 0.0647687717 0.0820814913 0.0001596821 0.0002210382 6.30469e-05 0.0001741339 -0.8311466128 0.0731313531
65299610.0 0.0720549053 0.079981325 0.0001055147 -3.76622e-05 -7.33713e-05 8.88695e-05 -0.831387303 0.0827332178
70299580.0 0.0794797575 0.0769410103 0.0001871421 -4.48031e-05 -0.0001667814 -4.11717e-05 -0.8325875345 0.0925800416
75299550.0 0.0857146092 0.0734112571 0.0003268755 9.70236e-05 -3.26456e-05 -2.7381e-05 -0.8329412878 0.1031122411
80299520.0 0.0912297759 0.0702631634 -0.0001139196 -2.15687e-05 6.2844e-05 2.18245e-05 -0.8320784211 0.112143974
85299490.0 0.0962126278 0.0664912532 -0.0001589793 0.0001647501 7.4504e-06 0.0001736646 -0.8316864785 0.1216128521
90299460.0 0.1009381003 0.0628413232 -0.000155719 -0.0001486614 0.0001566597 2.10375e-05 -0.8303281822 0.1310066122
95299430.0 0.1050495075 0.0585212239 -6.52664e-05 6.1166e-06 -8.42261e-05 -0.0001236377 -0.8301184628 0.1410103341
100299400.0 0.1085195429 0.0550242989 0.0001316594 3.93832e-05 6.33468e-05 0.0001486137 -0.8287093415 0.1498115044
105299370.0 0.1117602818 0.0511797849 1.8966e-05 0.0002753658 2.61516e-05 -7.3896e-06 -0.8273828292 0.1594266476
110299340.0 0.1144855876 0.0473941874 -1.4564e-05 3.43888e-05 1.08106e-05 7.53807e-05 -0.8265371903 0.1680618313
115299310.0 0.1173440058 0.043088804 -1.0792e-06 6.9312e-06 -3.96014e-05 3.48276e-05 -0.8247596894 0.1774408643
120299280.0 0.1191920822 0.0398754779 -2.03408e-05 0.0002021549 0.0002240367 -4.303e-05 -0.8231185835 0.1863975684
125299250.0 0.1210974333 0.035545392 7.28901e-05 0.0001305684 5.03152e-05 3.18325e-05 -0.8216823542 0.1954644217
130299220.0 0.1231401522 0.032416518 -3.45189e-05 7.94418e-05 6.17112e-05 0.0001337215 -0.8199121977 0.2042817121
135299190.0 0.124553927 0.0285781638 6.75164e-05 3.04511e-05 7.66329e-05 0.0001576437 -0.8182263385 0.2129837177
140299160.0 0.1261286318 0.0251784389 7.01287e-05 3.68347e-05 -2.063e-05 9.47083e-05 -0.8163167152 0.2214543302
145299130.0 0.1270091339 0.021532582 1.46674e-05 -5.79009e-05 1.9793e-06 6.57503e-05 -0.8139152593 0.2299957395
150299100.0 0.1280333106 0.0179242046 0.000289215 0.0001123833 7.07506e-05 -0.0001130703 -0.811677776 0.2383173054
155299070.0 0.1287733588 0.0151374239 6.95167e-05 0.00027528 -3.97357e-05 7.19105e-05 -0.8094897176 0.2475971565
160299040.0 0.1294062597 0.01157055 -9.6196e-06 9.74537e-05 7.458e-06 -3.11611e-05 -0.8077218215 0.2565293767
165299010.0 0.1297276421 0.0085979403 0.0001824477 0.0001534695 -1.04998e-05 -0.0001241007 -0.8045475522 0.2651203405
170298980.0 0.1301648511 0.0054908739 6.5813e-05 8.51978e-05 -4.46239e-05 -8.35019e-05 -0.8017799334 0.2734276082
175298950.0 0.1306092984 0.0027205057 0.0001329642 -5.1428e-05 0.0001715793 0.0001216287 -0.7991077609 0.2819661259
180298920.0 0.1306249695 -0.000572674 0.0002660038 3.23404e-05 -4.30363e-05 0.0002634513 -0.795460259 0.2904600652
185298890.0 0.130901483 -0.0034165388 7.48555e-05 0.0001222234 8.6102e-06 0.0002737643 -0.7931117249 0.2985147782
190298860.0 0.1312509669 -0.0060464616 -0.0001651142 0.0001405867 0.0001927444 0.0001396434 -0.7897511506 0.3075641367
195298830.0 0.1311790718 -0.0089144475 -3.6407e-06 5.05518e-05 -5.5681e-06 0.0003057746 -0.7870244661 0.3153239369
200298800.0 0.1309243993 -0.0113962494 -4.08913e-05 0.0001038747 1.77316e-05 -5.8364e-05 -0.7833019392 0.3240544002
205298770.0 0.1307126667 -0.0139956696 3.778e-06 8.412e-07 0.0002036321 0.0002492587 -0.7800646489 0.3325002181
210298740.0 0.1304593863 -0.0163964462 -0.00020434 3.28868e-05 5.86752e-05 -2.3502e-05 -0.7769327885 0.3406180755
215298710.0 0.1303973959 -0.0191184746 -8.9691e-05 3.21344e-05 6.59057e-05 8.09295e-05 -0.7733161245 0.348471806
220298680.0 0.1298496366 -0.021650946 7.59407e-05 0.0001296642 3.89378e-05 3.00497e-05 -0.7694263992 0.357183095
225298650.0 0.1294665172 -0.0239111836 4.8326e-05 0.0001445201 -5.26616e-05 0.0002352699 -0.7657213296 0.3647621447
230298620.0 0.1291407875 -0.0259567656 6.83683e-05 -3.45594e-05 0.0002683826 -5.73096e-05 -0.7617858136 0.3727531569
235298590.0 0.1284689672 -0.0285801998 0.0001853322 1.8175e-06 9.02274e-05 8.28807e-05 -0.7581142571 0.3803453419
240298560.0 0.1279339732 -0.0308729402 0.0002502364 0.0002191818 0.0001287965 7.0254e-06 -0.7541941148 0.3884451226
245298530.0 0.1275941496 -0.0330769845 7.604e-07 8.02076e-05 0.0001721576 4.87459e-05 -0.7500782267 0.3966403502
250298500.0 0.1268751597 -0.0351371528 4.81223e-05 0.0003088925 0.000152685 5.97704e-05 -0.7460788245 0.4047983349
255298470.0 0.1262190282 -0.0371952816 0.0001871393 -3.19428e-05 0.0003191014 1.23118e-05 -0.7414658093 0.4125519822
260298440.0 0.1256543502 -0.0389673426 -5.28472e-05 -0.0001543328 0.0002108342 0.0001394727 -0.7369468029 0.4197651671
265298410.0 0.1247527052 -0.0411036934 0.0002814885 0.0001096462 7.78711e-05 6.86784e-05 -0.7324607666 0.4276211517
270298380.0 0.1242138839 -0.0428550057 0.000264212 0.0002842501 6.87169e-05 0.0001293013 -0.7276453326 0.4355515268
275298350.0 0.1235502863 -0.045003293 0.0002108555 -0.0001346444 8.68925e-05 6.72846e-05 -0.723278901 0.4428758942
280298320.0 0.1228281401 -0.0467957343 -0.0001355296 2.25244e-05 3.2909e-05 9.0311e-06 -0.7188522019 0.4505513143
285298290.0 0.121933046 -0.048824274 0.0001514734 1.87453e-05 0.0001661414 0.0003293386 -0.7135518703 0.4575229002
290298260.0 0.1213339489 -0.0505704814 0.0001101673 4.83208e-05 0.0002136642 5.03503e-05 -0.7086681893 0.4659811096
295298230.0 0.120586692 -0.052572016 -0.000106827 0.0003366789 3.96747e-05 -4.05437e-05 -0.7039900443 0.4733001674
300298200.0 0.1195990915 -0.0548392472 0.0002040093 0.0003345621 0.0002201628 0.0001566162 -0.6990310212 0.4805158782
305298170.0 0.1190883621 -0.056247395 0.0001269411 0.0003259049 5.83177e-05 2.4174e-06 -0.6932518739 0.4877815771
310298140.0 0.1180427968 -0.0584168195 1.5009e-05 0.0002474737 0.000284083 9.0509e-05 -0.6893941899 0.4950532045
315298110.0 0.1166768257 -0.0603055523 0.0003190187 0.0003276466 0.0003412455 0.0001016998 -0.6833894161 0.5024265012
320298080.0 0.1158193627 -0.0620966514 0.0001562697 -1.35723e-05 -1.69892e-05 3.6408e-06 -0.6778211881 0.5090503056
325298050.0 0.1144943169 -0.0639679376 0.000135048 -0.0001084621 0.0001665794 0.0001910651 -0.6725161799 0.5164382657
330298020.0 0.1131474967 -0.0652738096 6.40675e-05 -5.10575e-05 -0.0002015075 0.0001119789 -0.6671183147 0.5234454988
335297990.0 0.1119172719 -0.0668925165 9.5535e-05 8.02067e-05 7.42645e-05 8.27781e-05 -0.6614625087 0.5302872742
340297960.0 0.1108690968 -0.0679704966 0.0001705578 -8.99101e-05 0.0003137332 0.0001349579 -0.6557613054 0.5372149999
345297930.0 0.1094112137 -0.0694933691 -0.0001293189 0.0001733139 0.0001290173 0.0003020023 -0.6497156665 0.543895354
350297900.0 0.1086068812 -0.0709682203 0.0001752083 8.3967e-05 8.32466e-05 0.0001156103 -0.6441998765 0.5506363024
355297870.0 0.1070014238 -0.0724330722 1.33301e-05 9.373e-05 0.0002410086 4.52704e-05 -0.6386562646 0.5574974729
360297840.0 0.1059638068 -0.0736609792 0.0001784639 0.0001231675 9.98728e-05 0.0001082016 -0.6326661639 0.5638765988
365297810.0 0.1048168816 -0.0752816716 0.0001320757 -3.16562e-05 0.0001371842 0.000180661 -0.6269479474 0.5700376034
370297780.0 0.1037797941 -0.0764415724 0.0001205551 0.0001840594 9.60938e-05 8.94241e-05 -0.6212445995 0.5764949701
375297750.0 0.1023653444 -0.0774751939 9.6612e-06 4.58308e-05 2.28845e-05 0.0001948913 -0.6140733989 0.5831373988
380297720.0 0.1019631478 -0.079169423 0.000273393 3.9115e-05 2.68269e-05 0.0001986797 -0.6080145096 0.5903903331
385297690.0 0.1002542036 -0.080043194 -5.09586e-05 0.0001516158 0.0003104252 0.0001996266 -0.6020881321 0.5958424181
390297660.0 0.0991611413 -0.0810330224 0.0001542769 -3.4646e-06 0.0002323817 0.0001824297 -0.5955056444 0.6018383629
395297630.0 0.0981342171 -0.0823943656 0.0001465017 5.64667e-05 0.0003270942 0.0001256736 -0.5893215603 0.6079073569
400297600.0 0.096385513 -0.0833422804 7.32347e-05 -1.28369e-05 0.0002794573 4.67474e-05 -0.5838908424 0.6135971344
405297570.0 0.0957695742 -0.0845951379 0.0001258283 0.0001153412 0.0001518372 0.0001668416 -0.5771307894 0.6200084809
410297540.0 0.0942131328 -0.0856417751 0.0002355218 0.0001431988 0.0002271647 -6.61e-07 -0.5704164767 0.6255695321
415297510.0 0.0931134996 -0.0867747163 0.0002084302 0.0001706138 0.0002940946 9.79223e-05 -0.5638744178 0.631874343
420297480.0 0.0916690953 -0.0882007064 -3.481e-05 -3.94794e-05 7.14663e-05 0.0001101652 -0.5567247774 0.6365222092
425297450.0 0.0905053445 -0.089197336 3.73079e-05 0.0002030028 0.0001648484 0.0002368577 -0.5503234713 0.6426642656
430297420.0 0.0890054162 -0.0901445081 0.0002900022 -0.0001661364 0.0003243974 0.0001535058 -0.5444070705 0.6484061191
435297390.0 0.0878843498 -0.0910541948 0.0001386961 5.18407e-05 0.0002147666 0.0001953161 -0.5360941169 0.653792219
440297360.0 0.0865039904 -0.0920530655 0.000106597 0.0004150698 0.0003087767 2.633e-05 -0.5302579972 0.6584405481
445297330.0 0.085276299 -0.092807466 0.0001572765 0.0001177768 0.0004002768 0.000188518 -0.5238185683 0.6639497533
450297300.0 0.0839033757 -0.0941315442 0.0002841661 0.0001373608 8.54864e-05 0.0001201435 -0.5174295205 0.6695222512
455297270.0 0.0824015913 -0.0949088824 0.0002023009 0.0001652864 8.80743e-05 0.0001562939 -0.5103486166 0.674690382
460297240.0 0.0812190739 -0.0956186632 0.0004304225 7.2032e-05 0.0002731275 7.41774e-05 -0.5024594586 0.680506547
465297210.0 0.0799638136 -0.0968836475 0.000276836 0.000107087 0.0001057117 0.0002200856 -0.4967844566 0.685022733
470297180.0 0.0785731608 -0.0973021482 5.99434e-05 0.0002090144 0.000452983 -6.60684e-05 -0.4897187107 0.6894743575
475297150.0 0.0771681969 -0.0982273679 0.0001480199 0.0001869052 0.0002526062 0.000129882 -0.4820865361 0.6946797371
480297120.0 0.0758021441 -0.0991680134 0.0002307772 -0.0001117119 0.0001928153 4.42744e-05 -0.4760150401 0.7000113515
485297090.0 0.0746243046 -0.0998036766 0.0001113247 -5.25117e-05 1.1333e-06 1.85814e-05 -0.4680522934 0.7040792477
490297060.0 0.0732798948 -0.1008744586 0.0003893213 -9.61292e-05 0.000282142 -7.36619e-05 -0.4612928017 0.7080994878
495297030.0 0.0719794517 -0.1016519245 0.0001161501 0.0001145147 0.0002032142 0.0001632438 -0.4537266262 0.7128595165
500297000.0 0.0705095815 -0.1025119398 0.0002371362 0.0001267012 0.0004439246 0.0003073474 -0.4471088909 0.718131136
505296970.0 0.0687901886 -0.1031718982 0.0002391742 4.49084e-05 0.0002766452 2.47257e-05 -0.4403041443 0.7219873618
510296940.0 0.0676962035 -0.1034821982 0.0002938543 8.33425e-05 0.0003262091 0.00018714 -0.4323116846 0.7259201132
515296910.0 0.0661338278 -0.1041199946 0.0003747597 9.03769e-05 0.0002609211 5.55539e-05 -0.4251054996 0.7305236397
520296880.0 0.0648476505 -0.105115266 0.000305468 -5.60525e-05 0.0001875755 0.0001454096 -0.4174128851 0.7343136327
525296850.0 0.0633734779 -0.1055336599 0.0002965831 0.0001405588 0.0003434549 -2.50039e-05 -0.409552987 0.7393290895
530296820.0 0.0619833911 -0.1061908804 0.0002106243 -1.04054e-05 0.0002730071 0.0001671669 -0.4034987629 0.7428505693
535296790.0 0.060720675 -0.1065551686 0.0002880256 -2.30966e-05 0.000211665 0.0001957117 -0.3960513978 0.7463986593
540296760.0 0.0592278363 -0.1076433826 0.0002326984 2.69063e-05 8.14314e-05 0.0001035068 -0.3883233309 0.7509287967
545296730.0 0.0577338513 -0.107916622 0.0002102608 -2.56482e-05 0.0001291396 -2.2725e-05 -0.3808772405 0.7540024228
550296700.0 0.0562619171 -0.1085314866 0.0001156117 -4.9426e-05 0.0005212163 -0.0001431004 -0.3738220882 0.7575681295
555296670.0 0.0551663498 -0.1088478774 0.0001544038 0.000131818 0.0004030086 9.45344e-05 -0.365560594 0.7619378453
560296640.0 0.0534315099 -0.1095397105 0.0002420229 0.0004272365 0.0002709564 0.0001265371 -0.3578327481 0.7656392822
565296610.0 0.051960782 -0.1098364675 0.0002703206 -3.48493e-05 0.0003030419 6.95613e-05 -0.3504671726 0.7688035139
570296580.0 0.0505323421 -0.110542778 0.0003293148 7.55033e-05 0.0002422852 0.0002091427 -0.3433184112 0.7725420615
575296550.0 0.0494033946 -0.1106136466 0.0003634891 5.89231e-05 0.0003469287 0.0002099634 -0.33515672 0.7756653409
580296520.0 0.0478728979 -0.1110428628 0.0001248901 0.0001554236 0.0001567959 8.66487e-05 -0.3273923944 0.7784636264
585296490.0 0.0460783185 -0.111602543 0.0003551719 -9.08262e-05 0.0001808995 -3.34911e-05 -0.3196924729 0.7817341526
590296460.0 0.0445931409 -0.1118355782 0.0003857131 0.0002558686 0.000300672 1.95237e-05 -0.3119633343 0.7848442839
595296430.0 0.0432015866 -0.1122238884 0.0002802874 3.2889e-05 0.0001442904 0.0002444955 -0.304251869 0.7874977122
600296400.0 0.0418375247 -0.1125925468 0.0004816244 -1.59903e-05 0.0004178875 0.0001323263 -0.2968061774 0.7911521605
605296370.0 0.0405427567 -0.1130817729 0.0004326358 -8.0972e-05 0.0002607696 -6.94205e-05 -0.2890403866 0.7947235217
610296340.0 0.0391639684 -0.1132206702 0.0005091428 2.25084e-05 0.0004488067 9.55637e-05 -0.280739752 0.7968669091
615296310.0 0.0377097375 -0.113346165 0.0001060567 -5.95748e-05 0.0001754448 -0.0001032481 -0.2729150385 0.7990008551
620296280.0 0.0360600215 -0.113632727 0.0002781565 5.53343e-05 0.0002645958 1.86527e-05 -0.264954906 0.8019070363
625296250.0 0.034808785 -0.1140614495 0.0005476006 -2.5677e-06 0.0001667459 8.94649e-05 -0.2571167502 0.80447089
630296220.0 0.0332052216 -0.1141534729 0.0005494415 4.2448e-06 0.0004506876 3.71763e-05 -0.2488245798 0.8072633429
635296190.0 0.0315971526 -0.1144234935 6.14486e-05 -0.0001174274 0.0002913581 0.0001119297 -0.2413266123 0.8093583006
640296160.0 0.0302452087 -0.1145406114 0.0003854258 4.56589e-05 0.0003174934 0.0002043255 -0.2324748578 0.8118866533
645296130.0 0.0285820266 -0.1147397641 0.0001299448 1.68897e-05 0.0003750726 -1.02058e-05 -0.225148403 0.8138875659
650296100.0 0.0272808752 -0.1147037348 0.0003835848 0.00013289 0.0003285506 -9.14493e-05 -0.2174013777 0.8164181198
655296070.0 0.0260805308 -0.1150010795 0.0004229279 -1.73616e-05 0.0002925196 -0.0001015933 -0.2083726981 0.8181021555
660296040.0 0.0243458623 -0.1148838653 0.0001865304 9.83119e-05 0.0002817613 0.0002119806 -0.2006014291 0.8205551826
665296010.0 0.0231145511 -0.1150758054 0.0002025114 5.35309e-05 0.0004681072 -6.61234e-05 -0.193383251 0.822035824
670295980.0 0.0215525346 -0.1153074778 0.0003296126 -1.36169e-05 0.0002240116 5.36949e-05 -0.1856312776 0.8241746424
675295950.0 0.0201180854 -0.1152603802 0.0002391603 5.4757e-06 0.0003389484 -1.27875e-05 -0.1763233634 0.8259471558
680295920.0 0.0186737204 -0.1150221609 0.0005151889 -0.0001179408 0.0003741446 -0.0001013666 -0.1682356225 0.8277040319
685295890.0 0.0170661121 -0.1151705429 0.0003110291 0.0001013701 0.0003288228 0.0001688368 -0.159792126 0.829312787
690295860.0 0.0159481768 -0.1153421197 0.0003215824 -2.8076e-05 0.000256477 -0.000140126 -0.1519640823 0.83004444
695295830.0 0.0144500909 -0.1152442195 0.0005328052 -0.0001146696 0.0002136657 2.89175e-05 -0.1439607637 0.8319139355
700295800.0 0.0128541657 -0.1151613695 0.0003952806 -7.71591e-05 0.0005110159 -4.02732e-05 -0.1348830932 0.8330598929
705295770.0 0.0115373393 -0.1152309085 0.0005002532 0.000113155 0.0004056503 -8.55289e-05 -0.1275521692 0.8353857529
710295740.0 0.0101289431 -0.1150646115 0.0002616149 -5.85953e-05 0.0004160261 0.0001351542 -0.1196207436 0.8364003986
715295710.0 0.0083822722 -0.1148331813 0.000331409 -6.51097e-05 0.0003038866 6.78823e-05 -0.1110895002 0.8373797721
720295680.0 0.0070474266 -0.1147353883 0.0004801063 -4.90571e-05 0.000394711 4.24793e-05 -0.102308339 0.8381424622
725295650.0 0.0057929635 -0.1145703283 0.0003636987 2.8605e-05 0.0004438094 -0.0001911653 -0.0945064262 0.8396847732
730295620.0 0.0041711067 -0.1145095265 0.0003723068 -8.40805e-05 0.0003448685 -9.7871e-06 -0.0861146043 0.8400469185
735295590.0 0.0029286377 -0.1144278887 0.0003029523 0.0001412515 0.0003932943 -0.0001487196 -0.0771421722 0.8407173252
740295560.0 0.0013456298 -0.1139358696 0.0004392759 -0.0001444822 0.000552725 -7.52731e-05 -0.0697415963 0.8409928552
745295530.0 -0.0001432128 -0.1137959745 0.0003901733 -0.0002135259 0.0001738568 -9.83682e-05 -0.0612029369 0.8418531651
750295500.0 -0.0013894872 -0.1136520165 0.0002959682 -0.0001282361 0.0003744853 -1.67634e-05 -0.052554342 0.8421140114
755295470.0 -0.0025427563 -0.1133017232 0.0003682426 -3.47203e-05 0.0003401754 -9.1056e-06 -0.0446577631 0.843439173
760295440.0 -0.0043069834 -0.1129122581 0.0001297594 -4.6999e-06 0.0003522475 -2.74785e-05 -0.0365805205 0.8440072103
765295410.0 -0.0056090517 -0.1129030464 0.0002709838 3.8542e-05 0.0003499432 -5.10959e-05 -0.0274238204 0.8440295195
770295380.0 -0.0069644398 -0.112162774 0.0004939357 -0.0001107849 0.0004330387 -0.0001372435 -0.0193485456 0.8444016268
775295350.0 -0.00850443 -0.1118259512 0.0002266848 -0.0001040116 0.000264347 -3.86263e-05 -0.0114187426 0.8443077972
780295320.0 -0.010077278 -0.1118903071 0.0002524026 -0.0001290151 0.0002489448 -4.1663e-05 -0.0030525162 0.8449068116
785295290.0 -0.01134206 -0.1112934617 0.0002479122 -4.50157e-05 0.0002431674 -3.32766e-05 0.0049221145 0.8445770974
790295260.0 -0.0124536523 -0.1107746847 0.0001048369 -0.0002441034 0.0003358877 -0.0001790795 0.0143240878 0.8446310895
795295230.0 -0.0139720047 -0.1102231457 0.0003210551 0.0002004544 0.0005431901 -0.0001191455 0.0220713726 0.8444401753
800295200.0 -0.0151818562 -0.110236264 0.0003935212 -0.0002982924 0.0004399826 -7.42322e-05 0.0304863601 0.843891103
805295170.0 -0.0166643193 -0.1097444045 0.0005511231 -7.2924e-05 0.0002665429 -0.0001572226 0.0378187803 0.8435641908
810295140.0 -0.0180162507 -0.109176352 0.0003096169 -6.8785e-06 0.000351472 -0.000109449 0.0464142942 0.8439118984
815295110.0 -0.0193696086 -0.108936968 0.0003635757 -0.0002534006 0.0003295627 5.22105e-05 0.0548399298 0.8428326324
820295080.0 -0.0205474438 -0.1084421017 0.0003751206 -1.99021e-05 0.0003469178 0.000187996 0.06333439 0.8421534183
825295050.0 -0.021947979 -0.1078480947 0.0003989755 -1.64977e-05 0.0002542087 -0.000163054 0.0715214848 0.8416866614
830295020.0 -0.0233439096 -0.1073150449 0.0003044223 -0.0001422842 0.0002632413 -0.0001204167 0.0795626832 0.8404749521
835294990.0 -0.0245945387 -0.1068839538 0.0003858842 5.0765e-05 0.0003088243 -0.0002382763 0.0882118233 0.8397851907
840294960.0 -0.0258666573 -0.1063663782 0.0004045848 -0.0002936217 0.000467689 -2.47844e-05 0.0958246842 0.8394889299
845294930.0 -0.0269591435 -0.1057579319 0.0003119733 -8.58514e-05 0.0003770019 -0.0001161591 0.1041642078 0.8381486358
850294900.0 -0.0282525018 -0.1051538703 0.0002621339 -0.0001486446 0.0004376527 -9.40175e-05 0.1121533744 0.8372615082
