!Created with skrf (http://scikit-rf.org).
# Hz S RI R 50.0 
!freq ReS11 ImS11 ReS21 ImS21 ReS12 ImS12 ReS22 ImS22
300000.0 -0.0499229282 -0.0478411807 0.0016958551 0.0013719999 0.0002514051 0.001926128 -0.7677771271 -0.1425304402
5299970.0 -0.0486738593 0.0152454109 -0.0002711772 4.78012e-05 0.0001579022 0.0001122703 -0.7837436736 -0.0078480114
10299940.0 -0.0430154977 0.0318451866 0.0001258244 -0.0001854766 6.28603e-05 -0.0001656729 -0.7865302667 -0.0038645797
15299910.0 -0.0350343339 0.0459437279 1.19231e-05 3.00517e-05 -0.0001262655 3.56127e-05 -0.7924645225 -0.0013997723
20299880.0 -0.0251416011 0.0573385866 -0.000125852 8.7208e-06 0.0001627083 0.00015172 -0.7992087859 0.0022495459
25299850.0 -0.0144621172 0.0664850732 3.38641e-05 -0.0001129701 9.5053e-05 -0.0001129107 -0.805402319 0.0085698547
30299820.0 -0.0032015505 0.0729947286 -6.55415e-05 -0.0001018204 -0.0001015481 -0.000167847 -0.8110568587 0.016603077
35299790.0 0.0081788138 0.0776660688 -0.0001082271 7.54287e-05 -0.0001036487 6.71655e-05 -0.8168780267 0.0257052929
40299760.0 0.0189606715 0.080658186 4.14516e-05 0.0001054509 -0.0002335918 -5.97566e-05 -0.8209887874 0.0349455254
45299730.0 0.029521833 0.0815865913 1.25091e-05 -5.47322e-05 3.4111e-05 -0.0001821325 -0.8248340405 0.0442472037
50299700.0 0.0391573082 0.0817430601 -4.46906e-05 -2.34193e-05 -2.36206e-05 5.04138e-05 -0.8271056494 0.0544545354
55299670.0 0.0483869696 0.0802729156 -3.34085e-05 8.57483e-05 -9.13159e-05 3.72767e-05 -0.8292648924 0.0645642097
60299640.0 0.0569224505 0.0788102821 0.0001561514 0.0001704011 0.0001357116 0.0001761304 -0.8304260325 0.0743743063
65299610.0 0.064179525 0.0760970533 0.0001362632 1.42475e-05 0.0001291325 0.0002183201 -0.8319603438 0.0841335878
70299580.0 0.0710243644 0.0734133543 -5.56774e-05 -6.5882e-05 0.0001649879 -1.87984e-05 -0.8319262386 0.0945013308
75299550.0 0.0776432815 0.0701804735 0.0001901173 -0.0001244632 -0.0001620746 0.0001208476 -0.8320972935 0.103537912
80299520.0 0.0829598439 0.0665475261 8.68044e-05 0.0001605849 8.83213e-05 1.0968e-05 -0.8322556013 0.1142340945
85299490.0 0.0878746058 0.0627083975 7.94322e-05 -5.17109e-05 0.0002000617 -1.65906e-05 -0.8315152778 0.1235745358
90299460.0 0.0921742999 0.0587580226 1.63894e-05 -6.04413e-05 1.46568e-05 6.41961e-05 -0.8307795628 0.1334853796
95299430.0 0.0964482635 0.0547993187 -1.3735e-05 5.17205e-05 -0.0001129687 -9.25094e-05 -0.8292370465 0.143222679
100299400.0 0.0998647651 0.051125209 5.46703e-05 -0.0002513222 -4.3424e-05 7.97023e-05 -0.8281947287 0.1524445614
105299370.0 0.1030905117 0.0471587421 -0.0001318583 2.61675e-05 7.52332e-05 -8.04476e-05 -0.826812989 0.1609270667
110299340.0 0.1059533669 0.042978721 -0.0001515108 0.0002129688 6.5557e-05 -6.7618e-06 -0.8254041615 0.1704845395
115299310.0 0.1084083463 0.0392072653 -0.0001169206 -9.25614e-05 -4.31514e-05 -4.7986e-06 -0.8237698798 0.1794839887
120299280.0 0.1106625472 0.0352100686 0.0001777153 8.13036e-05 8.27296e-05 0.0001776585 -0.8223330121 0.1892613627
125299250.0 0.112039784 0.0311371384 -0.0001347689 -7.79859e-05 -8.08706e-05 0.0001626996 -0.8205277217 0.1976825772
130299220.0 0.1136431845 0.0279022909 0.0001771167 3.7269e-05 -5.71578e-05 2.26641e-05 -0.8182433228 0.2063388113
135299190.0 0.115341072 0.0241575515 8.12462e-05 6.83523e-05 0.0002082882 -2.59091e-05 -0.8162398557 0.2158314593
140299160.0 0.1163348184 0.020485774 -0.0002244287 -3.94895e-05 -3.36973e-05 6.90019e-05 -0.8138150555 0.2247520315
145299130.0 0.1173728081 0.0170920949 2.67823e-05 8.17267e-05 -8.17564e-05 -1.2218e-06 -0.8116626328 0.2339150141
150299100.0 0.1185252243 0.0135645407 1.575e-05 1.3043e-05 5.34551e-05 -1.8804e-05 -0.8098899868 0.2431682604
155299070.0 0.118869085 0.0102814569 2.13285e-05 0.0003363978 3.51867e-05 1.0012e-06 -0.8063789954 0.2516752287
160299040.0 0.1195483288 0.0069860633 -0.0001841949 -7.96649e-05 -0.0001476263 0.0001076129 -0.8042178624 0.2607285074
165299010.0 0.1200677867 0.0035919003 0.0001134684 2.2841e-06 -0.0001271714 4.66605e-05 -0.8019039645 0.269727504
170298980.0 0.1200509327 0.0009060379 3.73578e-05 5.75469e-05 4.13479e-05 5.71674e-05 -0.7984654101 0.2780146662
175298950.0 0.1203200127 -0.0023078256 -7.25248e-05 9.66231e-05 0.00012565 6.20871e-05 -0.7959890632 0.2864016379
180298920.0 0.1203917076 -0.0053031682 7.0984e-05 -0.0001875169 -0.0001685651 0.0002149028 -0.7929613054 0.2951055922
185298890.0 0.1206055298 -0.0084004634 -0.0001761182 -2.2953e-06 -0.0001922304 -2.89601e-05 -0.7895355904 0.3041581606
190298860.0 0.1207136053 -0.0111545326 -3.60121e-05 9.83574e-05 0.0001582739 -5.82389e-05 -0.787059569 0.3124949467
195298830.0 0.1202277047 -0.0140580612 -6.58618e-05 -7.95611e-05 -0.0001518218 -3.65206e-05 -0.7838880657 0.3212504888
200298800.0 0.1200912573 -0.0164543158 0.0001211639 -2.66165e-05 -5.36813e-05 -2.61521e-05 -0.7808463813 0.3291930665
205298770.0 0.1198121096 -0.0191449328 0.0001849126 0.0001660199 -0.0001267977 5.09512e-05 -0.777023692 0.3375987997
210298740.0 0.1192273195 -0.0216574405 0.0002132795 0.0002056236 0.0002538652 9.74538e-05 -0.7738426686 0.3454552008
215298710.0 0.1187559464 -0.0243849319 -5.96517e-05 -0.0002585296 0.000137494 -5.49047e-05 -0.7703444494 0.3547176171
220298680.0 0.117858947 -0.0269447447 3.15797e-05 -8.7609e-05 0.000125969 -3.46075e-05 -0.767201728 0.3624952906
225298650.0 0.1174957528 -0.0294105283 -6.34186e-05 8.00176e-05 -7.98254e-05 6.88355e-05 -0.7637640236 0.3703598913
230298620.0 0.1169134483 -0.0316905102 0.000267476 0.0001361618 4.40009e-05 -0.0001262134 -0.7598778237 0.3787381136
235298590.0 0.1163840395 -0.0336403435 -0.0001106047 -3.37632e-05 0.0001251913 0.0002138314 -0.7557357952 0.3871864818
240298560.0 0.1155976758 -0.0363366922 1.25971e-05 0.0001176423 5.87387e-05 -4.81282e-05 -0.7514174063 0.3953154051
245298530.0 0.1148983996 -0.0385847241 7.61678e-05 8.39406e-05 1.2957e-06 4.7442e-05 -0.7474013011 0.4029441965
250298500.0 0.1141417429 -0.0407255099 0.0001872506 -4.37501e-05 0.0002063402 -1.04406e-05 -0.7432139284 0.410200273
255298470.0 0.1129723741 -0.0431638919 0.0002709682 0.0001464109 0.0001325386 -1.05798e-05 -0.7385909293 0.4183236463
260298440.0 0.1123314037 -0.0451884905 0.000252238 7.49789e-05 -2.28889e-05 7.17298e-05 -0.734586458 0.4266926351
265298410.0 0.1113582287 -0.0470866977 0.0001211082 -9.68446e-05 -0.0001347815 0.0001576085 -0.7301526982 0.4341719254
270298380.0 0.1106813632 -0.0488959404 0.000112662 4.91261e-05 -7.44404e-05 0.0001509974 -0.7253430875 0.441114083
275298350.0 0.1097416012 -0.0510806819 7.56091e-05 1.17576e-05 -9.61088e-05 1.51713e-05 -0.7203544847 0.4487507622
280298320.0 0.1089185607 -0.0531521421 0.0001082754 5.25827e-05 4.76263e-05 0.0001183222 -0.7152450061 0.4561931801
285298290.0 0.1081079044 -0.0548014481 0.0001375209 9.53051e-05 6.7574e-06 0.0002649758 -0.7105948848 0.4639175115
290298260.0 0.1067034421 -0.0568643269 0.0001940443 8.63787e-05 2.67665e-05 -3.2261e-05 -0.7056373905 0.470826976
295298230.0 0.1058076556 -0.0590065731 1.99053e-05 -1.72306e-05 6.72483e-05 -6.97356e-05 -0.7001513674 0.4776699988
300298200.0 0.1049716839 -0.0604647463 -4.9471e-06 -3.89055e-05 -9.65837e-05 0.0002039222 -0.6952610802 0.4850215258
305298170.0 0.1038829728 -0.0625630611 -3.24189e-05 -2.16046e-05 -9.74557e-05 -7.8481e-05 -0.6892327275 0.4927541138
310298140.0 0.1030532133 -0.06427037 8.58501e-05 1.84765e-05 0.0001262005 3.54301e-05 -0.6852477435 0.4996944162
315298110.0 0.1019665703 -0.0660370767 0.0001915212 0.0001201912 3.8657e-05 9.77835e-05 -0.6789281282 0.5061860932
320298080.0 0.1007947348 -0.0677784439 0.0003133025 -5.74054e-05 -3.9818e-06 -4.73423e-05 -0.6738999957 0.514240377
325298050.0 0.0997149487 -0.0699797367 0.0001910315 0.000340237 0.0003425545 0.0002173569 -0.6679964555 0.5212030632
330298020.0 0.0982078635 -0.0717281501 0.0002629757 0.0003284565 8.15454e-05 0.0003257856 -0.6628296418 0.5275709677
335297990.0 0.0966990848 -0.0731602709 9.46784e-05 0.0001012305 6.54558e-05 -3.6804e-06 -0.6579536777 0.535228595
340297960.0 0.0948424836 -0.0748074732 0.0001726461 -4.76266e-05 3.9418e-06 0.0001768041 -0.6516006616 0.5420007182
345297930.0 0.0933988996 -0.0764233143 5.554e-05 0.0001668304 4.57949e-05 2.3056e-06 -0.6460710332 0.5482502995
350297900.0 0.092184703 -0.0776332828 -9.7602e-05 -3.26631e-05 5.88256e-05 0.000139498 -0.6405440572 0.5553670804
355297870.0 0.0908031749 -0.0789454506 0.0001550848 1.3471e-06 3.87048e-05 5.53783e-05 -0.6346515356 0.5618293549
360297840.0 0.0893210217 -0.0801444854 0.0002132711 0.0001147245 0.0002374902 0.0002496478 -0.6287694111 0.5686546713
365297810.0 0.0877732212 -0.0812233887 7.14029e-05 0.0001329587 7.17257e-05 0.0001708494 -0.6227955258 0.575264458
370297780.0 0.0867778356 -0.0825673109 -4.34285e-05 2.70741e-05 0.0001857766 0.00015938 -0.6169121842 0.5822121293
375297750.0 0.085297291 -0.084025689 -2.22203e-05 0.0001682781 8.76435e-05 9.08864e-05 -0.6112027881 0.5884066538
380297720.0 0.0838758517 -0.0853463356 0.0001297044 2.28985e-05 7.44269e-05 -8.93386e-05 -0.6050056335 0.594163415
385297690.0 0.0820102979 -0.0861739412 -0.000106635 -6.01996e-05 9.39145e-05 -4.4605e-06 -0.5987182953 0.6006657859
390297660.0 0.0810553882 -0.0872471252 1.48561e-05 4.29826e-05 8.43411e-05 2.05468e-05 -0.5929799323 0.6069646468
395297630.0 0.079496103 -0.0883934707 5.51527e-05 0.0001230955 0.0002771085 -7.6063e-06 -0.5861621151 0.6134858725
400297600.0 0.0782421395 -0.0893528585 7.10173e-05 6.06356e-05 5.96297e-05 0.00013535 -0.5803904117 0.6192433311
405297570.0 0.0762080038 -0.0907035401 0.0002322275 0.0001465054 0.0001770959 0.000125763 -0.5738958688 0.625338412
410297540.0 0.0749390023 -0.0915845769 0.0002030819 0.0001369836 1.7586e-05 0.0001121796 -0.5668647475 0.6311786574
415297510.0 0.0736567956 -0.0930875751 0.0002651864 4.20989e-05 0.0001642397 7.65734e-05 -0.5610320688 0.636808223
420297480.0 0.0720607057 -0.0933970241 0.0002499994 6.58883e-05 -5.53406e-05 -7.6725e-06 -0.5540419343 0.6424328628
425297450.0 0.0709305157 -0.0948701393 0.0001787935 -4.8025e-06 8.88487e-05 -7.37819e-05 -0.5471904832 0.648317103
430297420.0 0.0690502664 -0.0958389175 0.0001593738 2.7117e-05 -0.0001282733 0.0002968001 -0.5409899 0.6530565264
435297390.0 0.0675827708 -0.0966538311 0.0002022989 -6.43636e-05 3.09485e-05 8.11176e-05 -0.5336727293 0.6585925049
440297360.0 0.0659191955 -0.0978677973 0.0004956811 -4.44249e-05 0.0001590886 4.34686e-05 -0.5270773202 0.6638328276
445297330.0 0.0646234964 -0.0986525172 0.0002860168 0.0003270834 0.0001970087 2.39972e-05 -0.519948244 0.6684615704
450297300.0 0.062909614 -0.0995996286 -0.0001025529 -0.0001194283 0.0002922439 7.03989e-05 -0.5124798654 0.6740272757
455297270.0 0.0610780294 -0.1002893844 3.02026e-05 -5.08106e-05 -3.85908e-05 -0.0001328327 -0.5057555471 0.6783621768
460297240.0 0.0597321606 -0.101167051 -3.3591e-05 3.90754e-05 -5.20284e-05 0.0001266572 -0.4989068177 0.683859652
465297210.0 0.0582001903 -0.101833636 7.74989e-05 9.1164e-05 0.0001486463 -9.45054e-05 -0.491425345 0.6883860373
470297180.0 0.0565616892 -0.1025881544 0.000101489 8.29883e-05 0.0001147198 -0.0001468755 -0.4842567744 0.694135989
475297150.0 0.0549210126 -0.1035578568 0.0003392963 2.71487e-05 -2.8809e-06 -8.3052e-06 -0.4768112493 0.6979103436
480297120.0 0.0536097653 -0.1042032124 5.1069e-06 -5.9015e-05 0.0001308046 0.0002416074 -0.4692616495 0.7029882347
485297090.0 0.0520489609 -0.1048208916 0.0001229162 -8.93976e-05 0.0002010249 0.0001111106 -0.462378613 0.7077292433
490297060.0 0.0501130581 -0.1052018394 0.0002272697 -0.0002664375 0.000227974 3.26114e-05 -0.4548843712 0.7123552045
495297030.0 0.048493113 -0.1059714282 0.0002275141 5.6888e-06 0.0002101286 -0.0001387809 -0.4479251393 0.7175997006
500297000.0 0.0468123588 -0.1063880934 0.0002479884 8.65205e-05 2.76308e-05 6.75528e-05 -0.439915402 0.7220947362
505296970.0 0.0454676725 -0.1073627165 0.0002672146 0.0002285835 0.0001748375 -8.68378e-05 -0.4325389139 0.7263041709
510296940.0 0.0439850859 -0.1077790929 0.0001830667 -6.29357e-05 7.76248e-05 7.04252e-05 -0.4255374988 0.7307157968
515296910.0 0.0422897535 -0.1084039187 0.000169302 -1.18928e-05 0.0002236164 3.49795e-05 -0.4178098164 0.7347360637
520296880.0 0.0403522114 -0.1091135181 4.70512e-05 -2.30615e-05 2.95121e-05 -8.63827e-05 -0.4099675853 0.7386783214
525296850.0 0.0390701014 -0.1097925103 0.0002403102 4.73666e-05 0.0001852738 4.36198e-05 -0.4033458465 0.7435060275
530296820.0 0.0371149527 -0.1096964622 2.10378e-05 -0.0002295731 9.24399e-05 3.79439e-05 -0.3958309945 0.7473977152
535296790.0 0.0355963814 -0.1103285974 1.98532e-05 2.3053e-06 5.10868e-05 -1.01116e-05 -0.3885606803 0.7515427152
540296760.0 0.0339602217 -0.1105956832 5.5411e-05 0.0001111755 6.59245e-05 0.0001008904 -0.3804427989 0.7553472798
545296730.0 0.0323079857 -0.1110301328 0.0003949834 8.55689e-05 0.000135091 0.0001505137 -0.3729046464 0.7591504919
550296700.0 0.0309535619 -0.1113092374 -6.2686e-06 3.58841e-05 -4.50194e-05 -0.0001409357 -0.3647504259 0.7631240689
555296670.0 0.0289388002 -0.1119758276 7.93861e-05 3.32099e-05 0.0001966079 -1.89697e-05 -0.357271512 0.7672411033
560296640.0 0.0275227272 -0.1119766257 0.0001548842 -4.43223e-05 8.955e-05 -8.694e-05 -0.3497462806 0.7705045085
565296610.0 0.0256652297 -0.1121575685 3.93804e-05 -0.0003741801 8.91141e-05 5.26155e-05 -0.3418742333 0.7742849989
570296580.0 0.0238651776 -0.1125901519 -2.58238e-05 -0.0001120367 2.97432e-05 0.000114209 -0.3342336992 0.7777156587
575296550.0 0.0222593259 -0.1126741214 -1.18044e-05 0.0002138486 0.0002086667 -0.0001032132 -0.325801725 0.7809792495
580296520.0 0.0207068044 -0.1130379689 -0.000117835 5.78055e-05 0.0002180452 0.0001820563 -0.3175122931 0.7841164198
585296490.0 0.018493824 -0.1137179038 0.0003166626 -5.58815e-05 -4.06488e-05 -0.0001719836 -0.3100310446 0.7873312785
590296460.0 0.017496825 -0.1133372719 -1.85578e-05 6.2474e-06 0.0001343329 -3.27294e-05 -0.3025161562 0.7898871179
595296430.0 0.0154295697 -0.1135636003 9.74355e-05 -0.000115902 4.21864e-05 6.92848e-05 -0.2938375646 0.7923120696
600296400.0 0.0137622394 -0.1135247473 7.2522e-05 -3.04248e-05 4.0021e-05 1.37415e-05 -0.2862338655 0.7952833762
605296370.0 0.0119643213 -0.1137169773 8.84142e-05 -4.4749e-06 0.0001458726 4.73033e-05 -0.2774497423 0.7984129008
610296340.0 0.0101738392 -0.1135722646 0.0001419158 7.23066e-05 0.0002744397 -3.09054e-05 -0.2697460843 0.8006856186
615296310.0 0.0087864493 -0.1141393375 0.0001934836 -0.0001516599 0.0003164563 -0.0001213559 -0.2609212484 0.8030342821
620296280.0 0.0069043752 -0.1139046101 -0.0001297509 1.08692e-05 0.0002938277 6.14e-08 -0.2540871118 0.8054415161
625296250.0 0.0051579753 -0.1143906489 3.8803e-05 -4.27483e-05 0.0002410111 -2.20844e-05 -0.2452763288 0.8077323214
630296220.0 0.0039907345 -0.1142003686 -2.91205e-05 -5.4443e-06 0.0002086809 0.0001745974 -0.2374634468 0.810258521
635296190.0 0.0018792973 -0.1142145255 0.0002255316 2.21766e-05 7.16364e-05 -0.0001617113 -0.228934784 0.8120166987
640296160.0 0.0004631979 -0.1142807978 0.000149776 -4.5418e-06 0.0003143522 -2.69821e-05 -0.2205634852 0.8148902481
645296130.0 -0.0012661089 -0.1138893692 0.0003091902 -3.3069e-05 4.82567e-05 0.0001773862 -0.2130700394 0.8166442329
650296100.0 -0.0031977437 -0.1136126833 0.0001153114 0.0003057434 0.0002569864 0.0001338373 -0.2041189403 0.8179711294
655296070.0 -0.005063384 -0.1135447359 0.000210523 -8.5802e-06 0.0001625109 1.17324e-05 -0.1953091187 0.8202048054
660296040.0 -0.0065640491 -0.1135325025 0.0001347032 0.0001617048 0.0001633851 -1.43083e-05 -0.1869580857 0.822353096
665296010.0 -0.0077485347 -0.1135849505 0.0001618477 -4.81176e-05 3.79708e-05 2.6332e-05 -0.1787652058 0.8246257595
670295980.0 -0.009886839 -0.1130127643 -4.46768e-05 9.49484e-05 9.96868e-05 3.17035e-05 -0.1708697549 0.8263486559
675295950.0 -0.0112543101 -0.1127987787 0.0001728471 -7.78391e-05 1.63485e-05 1.98099e-05 -0.1628282185 0.8282522186
680295920.0 -0.0129805376 -0.112432791 0.0002393083 -7.72316e-05 0.0002272536 0.0001384195 -0.1541104999 0.8304181559
685295890.0 -0.01428286 -0.1124257556 0.0001412277 1.52013e-05 0.0002344682 -9.54758e-05 -0.1453760158 0.8313526578
690295860.0 -0.0160112662 -0.1118009053 0.0001151073 0.0001226483 5.6307e-05 -6.3471e-06 -0.1374430691 0.8329152955
695295830.0 -0.0180175082 -0.1116204065 0.0001612965 -0.0002241039 0.0001723389 3.3209e-06 -0.1283936466 0.8342207809
700295800.0 -0.0194713716 -0.1114274148 0.000149885 2.64818e-05 0.0001954298 1.41604e-05 -0.1212604524 0.8356648823
705295770.0 -0.0213856856 -0.1109178181 5.97342e-05 -0.0001737231 0.0001258401 5.08987e-05 -0.1126271898 0.8377086314
710295740.0 -0.0228200874 -0.1104641353 2.8066e-05 0.0001219498 5.14754e-05 0.000319186 -0.1045580707 0.8382904303
715295710.0 -0.0245825708 -0.1102974794 4.07948e-05 7.55513e-05 0.0001775294 -1.36134e-05 -0.0952361689 0.8394136752
720295680.0 -0.0260159201 -0.1097428295 9.00231e-05 8.8785e-05 0.0002133685 5.20779e-05 -0.08763221 0.8410794052
725295650.0 -0.0276038023 -0.1090556577 9.52758e-05 -1.6744e-05 0.0003370436 -1.84235e-05 -0.0791840236 0.8420059009
730295620.0 -0.0291972832 -0.1086300634 1.49378e-05 -0.0002648061 0.0002081461 -0.0001748189 -0.0712345287 0.8421403484
735295590.0 -0.030786446 -0.1078932004 9.03686e-05 6.5791e-06 8.89449e-05 4.73056e-05 -0.062500035 0.8425221622
740295560.0 -0.0327203106 -0.1075899731 8.15359e-05 -7.44628e-05 8.88504e-05 -0.0001265661 -0.0531593861 0.84355869
745295530.0 -0.0342416156 -0.1070973908 0.0001085076 -1.0853e-06 0.0001916521 -0.0001338737 -0.0457406456 0.8434691359
750295500.0 -0.0356299713 -0.1062632964 -7.47933e-05 3.73995e-05 0.0002935099 -0.0001027348 -0.0373381985 0.8440884608
755295470.0 -0.0373385794 -0.1059555158 0.0001824872 0.0001216732 0.0002295404 4.0619e-06 -0.0285973933 0.8439487238
760295440.0 -0.0390786805 -0.1051644527 0.000223561 -6.37705e-05 5.07201e-05 -0.0001052886 -0.0202549321 0.8444033081
765295410.0 -0.0403704193 -0.1046118793 0.0002785154 0.0001487067 6.51576e-05 -7.77216e-05 -0.0121002996 0.8444601351
770295380.0 -0.0421994919 -0.1040825346 0.0001669244 -0.000120002 2.73797e-05 -0.0001106404 -0.0035572807 0.8440219384
775295350.0 -0.0438348048 -0.1034785981 3.26973e-05 0.0001496186 0.000195996 1.29118e-05 0.0041638464 0.8435783184
780295320.0 -0.0453101902 -0.1028949761 8.52451e-05 -0.0002550042 -4.89131e-05 -8.98166e-05 0.0126096279 0.843546455
785295290.0 -0.0467855839 -0.1022255228 5.71686e-05 -0.0001709762 7.55401e-05 -0.0001310387 0.0217599044 0.843095417
790295260.0 -0.0481232359 -0.1013038781 0.0002281323 0.0001526586 0.0001174173 -0.0002318612 0.0305002498 0.8427831901
795295230.0 -0.0496382348 -0.1002974282 -0.0001511714 -2.05341e-05 -1.07297e-05 1.82399e-05 0.038983387 0.8421255955
800295200.0 -0.0514182155 -0.0996665339 0.0001626127 -0.0001395663 0.0002635291 -2.79835e-05 0.0474671994 0.8420423855
805295170.0 -0.0528071757 -0.0991471713 8.0706e-05 -0.0001625896 7.9918e-06 -0.0002230727 0.055048425 0.8419438714
810295140.0 -0.0540912496 -0.0982146538 -4.0289e-05 -9.7787e-06 0.0003290589 -0.0001513311 0.0642694009 0.8401257123
815295110.0 -0.0557515471 -0.0974907782 0.0002381648 -1.90384e-05 0.0002125082 -0.0001316587 0.0727724955 0.8401855754
820295080.0 -0.0570330413 -0.0964326993 0.0001146041 -5.56213e-05 -4.65561e-05 9.1173e-06 0.0806251544 0.8393924709
825295050.0 -0.0584806828 -0.0957924745 1.68199e-05 -3.13012e-05 0.0002125722 3.39646e-05 0.0895276303 0.8391156274
830295020.0 -0.0597522425 -0.0947561389 0.0003290575 -0.0001663796 -8.39206e-05 -8.55697e-05 0.0982631739 0.837661069
835294990.0 -0.0615014695 -0.0936899178 0.0002596322 0.0003462273 0.0003079727 -0.0002744443 0.105580391 0.8368592683
840294960.0 -0.0625733765 -0.092806017 0.0003564918 5.2642e-05 -0.0001169596 -0.0001171223 0.1146183061 0.8359637162
845294930.0 -0.0640926486 -0.0918983094 0.0001437051 0.0002537708 0.0002812588 -0.000236165 0.1222689903 0.8347086441
850294900.0 -0.0653066555 -0.0906081762 0.000257223 -0.0001443229 0.0001308114 -0.0001283059 0.1304993657 0.8337242997
