!Created with skrf (http://scikit-rf.org).
# Hz S RI R 50.0 
!freq ReS11 ImS11 ReS21 ImS21 ReS12 ImS12 ReS22 ImS22
300000.0 -0.0978546263 -0.0843841603 0.6239312552 0.0794246978 0.6257734816 0.0831528275 -0.0970092859 -0.0936857932
5299970.0 -0.1002678065 0.0130128179 0.6305374532 0.0106015881 0.6305190691 0.0108797686 -0.1021523903 0.0116863508
10299940.0 -0.0953315697 0.02988646 0.6344430447 0.0158728434 0.6341830058 0.015901101 -0.0974607868 0.0285591586
15299910.0 -0.088495885 0.0432373072 0.6401333713 0.020398426 0.6401591394 0.020899807 -0.0900799777 0.0417868259
20299880.0 -0.0793730007 0.0543537364 0.6483641416 0.0240552288 0.6487796421 0.0242282392 -0.0819586366 0.0534006496
25299850.0 -0.0699586642 0.0629750173 0.6580584725 0.0247988319 0.6579659382 0.0251230995 -0.0726121436 0.0620335322
30299820.0 -0.0593755461 0.0692444957 0.6680545158 0.0245890119 0.6672717607 0.024163754 -0.0626355608 0.0687387419
35299790.0 -0.0494506647 0.0744599008 0.6773263836 0.0216755587 0.6778285601 0.0220216864 -0.0524159478 0.0736277163
40299760.0 -0.0394154377 0.077177362 0.6865509016 0.0176258684 0.6867073352 0.0173567784 -0.0436211632 0.0770466117
45299730.0 -0.0303307138 0.0793019911 0.6954217525 0.011929383 0.6955833711 0.012266953 -0.0341250428 0.0789186536
50299700.0 -0.0216921525 0.0797723174 0.7032471342 0.0050445009 0.7035965164 0.0048220237 -0.0255820597 0.0799302317
55299670.0 -0.0142140981 0.0799736582 0.710257821 -0.0037606284 0.7110601775 -0.0026689871 -0.0178245689 0.0796790857
60299640.0 -0.0066524411 0.0788234711 0.7174050076 -0.0112877086 0.7174641154 -0.0112579132 -0.0105739832 0.0798695584
65299610.0 -0.0001184868 0.0781450028 0.7237309116 -0.0195843706 0.7238380279 -0.0203131724 -0.0035913326 0.0784901221
70299580.0 0.0061540026 0.0757822212 0.7287901025 -0.0292054343 0.7285617352 -0.0292861443 0.0023805814 0.077164765
75299550.0 0.0115931114 0.0744402959 0.7328501182 -0.0386774812 0.7330738684 -0.0389181279 0.0080731457 0.0757157077
80299520.0 0.0161666185 0.0720109253 0.7375567434 -0.0488913845 0.7376783136 -0.0488396452 0.0131379403 0.0727249173
85299490.0 0.0208353048 0.069508691 0.740509667 -0.0585344332 0.740728898 -0.0584879514 0.0176630382 0.0707534116
90299460.0 0.0245097462 0.0674587806 0.7433705328 -0.0690656886 0.7437039107 -0.0684137537 0.0220730728 0.0686778008
95299430.0 0.0280698647 0.065553869 0.7462025803 -0.0795980515 0.7459445325 -0.0792828475 0.0252795229 0.0662768065
100299400.0 0.0314466365 0.0625941983 0.7473234053 -0.0889850257 0.7474427041 -0.0891556508 0.028494189 0.0638762885
105299370.0 0.0347298093 0.060430378 0.7486541649 -0.0991157966 0.7487201093 -0.09932767 0.0321273939 0.0618548877
110299340.0 0.0370256331 0.0578264862 0.7499526299 -0.1089782195 0.7501524053 -0.1095501433 0.034876382 0.0591948991
115299310.0 0.0396569072 0.054782464 0.7506056284 -0.1194450812 0.751360414 -0.1191621372 0.0375283217 0.0562443206
120299280.0 0.0412816714 0.0527273784 0.7515563336 -0.1295093178 0.7514533397 -0.1292795157 0.038815749 0.0541577104
125299250.0 0.0432444098 0.0503363128 0.7518313478 -0.1393753087 0.7516579994 -0.1392895917 0.0414408538 0.0511738933
130299220.0 0.0450003192 0.0477956003 0.7513632823 -0.1485835639 0.7519202604 -0.14951744 0.0433339342 0.0494288371
135299190.0 0.0466296063 0.0454797603 0.7507655962 -0.1587983103 0.7507538679 -0.1589865401 0.044352781 0.0475143251
140299160.0 0.0478906432 0.044119466 0.7509743687 -0.1689143169 0.7509395524 -0.1688424146 0.0463280433 0.0453894949
145299130.0 0.0493158155 0.0419633618 0.7504028816 -0.1786596771 0.7498151919 -0.1782054367 0.0472909334 0.0425069327
150299100.0 0.0508243898 0.0397149892 0.749073248 -0.1880909018 0.7490000534 -0.1881332202 0.0488052746 0.0408790427
155299070.0 0.0511604175 0.0382770877 0.7478512504 -0.1977783474 0.7474994541 -0.198097273 0.0493830454 0.0387993647
160299040.0 0.0523822337 0.0358841417 0.7460259338 -0.2066568963 0.7463294817 -0.2071912707 0.0508212189 0.037362319
165299010.0 0.0529695908 0.034198898 0.745176731 -0.2170488568 0.7448524097 -0.2165649379 0.0516427858 0.0347792775
170298980.0 0.0534589414 0.0324837858 0.7419501497 -0.2262969996 0.7429526738 -0.2261330917 0.052775187 0.0329728604
175298950.0 0.0544384381 0.0306029054 0.741704996 -0.2350757966 0.7411983342 -0.2354307813 0.0532160106 0.0310522331
180298920.0 0.0552794511 0.0292512473 0.7390730918 -0.2445764299 0.739022185 -0.2438907001 0.0539003148 0.0299517028
185298890.0 0.0561560523 0.0272294504 0.7367523823 -0.2542081009 0.7369041223 -0.2533128169 0.0541602657 0.0276635131
190298860.0 0.0561000227 0.0256643874 0.734081734 -0.2627600467 0.7347177055 -0.2629078528 0.0555073868 0.0262179319
195298830.0 0.056363704 0.0238375586 0.7316626398 -0.2713011132 0.7319417116 -0.2721300923 0.0559441586 0.0243866799
200298800.0 0.0571021802 0.0224737496 0.7298041558 -0.2802381758 0.7293128157 -0.2799808294 0.0563222875 0.0231478293
205298770.0 0.0572926068 0.0214101695 0.7269768907 -0.2893301343 0.7263906789 -0.2892972423 0.0564387866 0.0209384045
210298740.0 0.0572332565 0.0195343441 0.7237046298 -0.2986158747 0.7240622987 -0.2982232401 0.05672832 0.0200383271
215298710.0 0.0580387119 0.0186687036 0.7205370408 -0.3071993582 0.7207595238 -0.3067218726 0.0571602261 0.0185791257
220298680.0 0.0582538856 0.0172980585 0.7173716304 -0.3162357981 0.7175389046 -0.3155760588 0.0575305034 0.0173797561
225298650.0 0.0584758857 0.0161933334 0.7136771736 -0.3240100115 0.7139773318 -0.324262976 0.0577723149 0.0158011742
230298620.0 0.058080699 0.0149416768 0.7111022871 -0.3327937223 0.7110160265 -0.3329965685 0.0577461561 0.0142729379
235298590.0 0.0584472787 0.0134291416 0.7079003463 -0.3412668882 0.7076699717 -0.3417956697 0.0581454875 0.0128574804
240298560.0 0.0583074706 0.011948219 0.7039938818 -0.3490403191 0.7040540161 -0.3490094785 0.0581405578 0.0120864641
245298530.0 0.0588874103 0.0110127404 0.6993791942 -0.3578486266 0.7000366043 -0.3579739627 0.0582847029 0.0107644339
250298500.0 0.0583604009 0.0096733849 0.6956654828 -0.365396348 0.6968820844 -0.3655926308 0.0587040076 0.0092181432
255298470.0 0.0580017567 0.0088560396 0.6913119904 -0.3742471586 0.6923761075 -0.3742427284 0.0589581432 0.0074709094
260298440.0 0.0581558924 0.0075639648 0.6879155615 -0.3820885834 0.6884481257 -0.3824065449 0.0595929183 0.0070357994
265298410.0 0.0591219613 0.0070660679 0.6842852627 -0.3908952858 0.6837944082 -0.3906993149 0.0589097314 0.0055235942
270298380.0 0.0590865419 0.0056061263 0.679942048 -0.3988251661 0.6802051936 -0.3983686086 0.0591376305 0.0052357054
275298350.0 0.0582671001 0.004800291 0.6755077047 -0.4067730392 0.6761522419 -0.4066354752 0.0590201747 0.0033733606
280298320.0 0.0586944032 0.0040974612 0.6713031609 -0.4135065097 0.6709431612 -0.4145095226 0.0593259404 0.0028491987
285298290.0 0.0588839611 0.0031591323 0.6667055066 -0.4218182885 0.6667166996 -0.4218768123 0.0588519955 0.0017416156
290298260.0 0.058747563 0.0017922299 0.6620974746 -0.4299860841 0.6624699126 -0.4298408683 0.0596457911 0.0006031144
295298230.0 0.0588345263 0.0006983197 0.6577311768 -0.4377428825 0.6574157847 -0.4375352572 0.0595817187 -0.0003758672
300298200.0 0.0592680546 -2.86224e-05 0.6534212292 -0.4450651583 0.6533951108 -0.445226975 0.0590192515 -0.0015025531
305298170.0 0.0590484743 -0.0012102012 0.6485695374 -0.4531717524 0.6486649072 -0.4532961941 0.0598752984 -0.0021756431
310298140.0 0.0595681024 -0.0021577694 0.6436993747 -0.4606976066 0.6436650403 -0.4609866204 0.0598956686 -0.0029856508
315298110.0 0.0588634107 -0.0035695485 0.6382507188 -0.4682060241 0.6384415153 -0.4683923961 0.0598701605 -0.0045208024
320298080.0 0.0584277577 -0.0042181338 0.6329014334 -0.4755337519 0.6337897183 -0.4756035264 0.0591311955 -0.0055569112
325298050.0 0.0584430495 -0.005757049 0.6284492526 -0.483563924 0.628401687 -0.4837451071 0.0593547709 -0.0069426708
330298020.0 0.0577547503 -0.0065283035 0.6214310427 -0.4905020565 0.6218086027 -0.4907345452 0.0583357504 -0.008475169
335297990.0 0.0577874879 -0.0076886255 0.6164857219 -0.4974515161 0.6163021913 -0.4980599111 0.0581747805 -0.0091226923
340297960.0 0.0566866383 -0.0078322781 0.6102900414 -0.5047182262 0.6107103127 -0.5041009428 0.0570048102 -0.0096264291
345297930.0 0.0561912356 -0.0087651081 0.6048134102 -0.51093219 0.6045571593 -0.5111977365 0.0577817407 -0.0106667886
350297900.0 0.0564586522 -0.0093169859 0.5990268077 -0.5177755792 0.5993690393 -0.517776232 0.0567308758 -0.0105607613
355297870.0 0.0560917234 -0.0103526143 0.5934420156 -0.5243335484 0.5930068942 -0.5249861485 0.0564054471 -0.0112746004
360297840.0 0.0560779977 -0.0107261353 0.5877522939 -0.5315373382 0.5872807269 -0.5314354567 0.0563875689 -0.0120478351
365297810.0 0.0558514416 -0.0114594103 0.5811910102 -0.5375013184 0.5818382148 -0.5379174814 0.055793195 -0.0124182914
370297780.0 0.0556856554 -0.0122354338 0.5753218133 -0.544430806 0.5757989026 -0.5448957585 0.055784191 -0.012915014
375297750.0 0.0548838005 -0.0123524912 0.5701782439 -0.5511800159 0.5697438001 -0.5509920951 0.0554830335 -0.0136167438
380297720.0 0.0550713134 -0.013845297 0.5636309807 -0.5568203286 0.5634295732 -0.5567093134 0.055387631 -0.0143769345
385297690.0 0.0549430028 -0.0140114882 0.5574294442 -0.5626817853 0.5572127842 -0.563443322 0.0549332103 -0.0149386702
390297660.0 0.0543545851 -0.0147456885 0.5511374524 -0.569584142 0.551363495 -0.5702550769 0.0551071383 -0.0157783255
395297630.0 0.0546152651 -0.0157938437 0.5450434427 -0.575662139 0.5452718305 -0.5754354087 0.0543026626 -0.015830868
400297600.0 0.053774497 -0.0159696518 0.5383782913 -0.5819276492 0.5387241238 -0.5825563873 0.05338257 -0.0170990534
405297570.0 0.0538976845 -0.0165468753 0.532078146 -0.5879052629 0.5320891299 -0.5879414386 0.0537682897 -0.0167068025
410297540.0 0.0536056274 -0.0174077517 0.5250194033 -0.5934135309 0.5250483308 -0.5939809285 0.0533738953 -0.0178279847
415297510.0 0.0533137634 -0.0174826968 0.5189331249 -0.5997208453 0.5190869683 -0.6002294939 0.0527781209 -0.0180482231
420297480.0 0.0528829293 -0.018985261 0.5117303063 -0.6052550439 0.5126945207 -0.6057294106 0.0529233918 -0.019207617
425297450.0 0.0534451032 -0.0196682029 0.505853622 -0.6113999707 0.5065373413 -0.6112410383 0.0523952433 -0.0190407265
430297420.0 0.0524635989 -0.0196914218 0.4993771087 -0.6172308608 0.4990336384 -0.6175810321 0.0517166901 -0.0203795657
435297390.0 0.0523107525 -0.0206972474 0.492514101 -0.6222162506 0.4924218603 -0.6216958276 0.0511808264 -0.0200954926
440297360.0 0.0522881572 -0.0216423728 0.48538711 -0.6273219497 0.4850031087 -0.6279064848 0.0511434327 -0.0216510313
445297330.0 0.0523488876 -0.0222293449 0.4781713682 -0.6335967581 0.4786659822 -0.6335041013 0.0507149571 -0.0218481475
450297300.0 0.0519323829 -0.0228406564 0.4711956384 -0.6382540984 0.4717099983 -0.6387977688 0.0503292385 -0.0219202541
455297270.0 0.0509180924 -0.0234778326 0.4643970189 -0.6436911689 0.4647146468 -0.6432964333 0.0502801517 -0.0225879902
460297240.0 0.0506488501 -0.0239069122 0.4572445531 -0.6485755701 0.4566539004 -0.6486016151 0.0496997862 -0.0224726284
465297210.0 0.0507963327 -0.0248636341 0.4505790844 -0.6530143017 0.4507084525 -0.6537936399 0.048890095 -0.0235325343
470297180.0 0.0500741572 -0.0251669586 0.4430943772 -0.6582522073 0.4432441284 -0.6588368486 0.0481018155 -0.0242693471
475297150.0 0.0492927678 -0.0265266781 0.4356396006 -0.6632178773 0.4364386685 -0.6631751178 0.0483040579 -0.0246056728
480297120.0 0.049747594 -0.0269503606 0.4283826393 -0.6678405345 0.4288635964 -0.6683602403 0.0478096547 -0.0245910776
485297090.0 0.0493530347 -0.0273390921 0.4214385364 -0.672616399 0.4213616298 -0.6729995603 0.0469806347 -0.0258468991
490297060.0 0.0489406379 -0.0281701615 0.4140669641 -0.6774159142 0.4141258661 -0.677943704 0.0472318326 -0.0255216066
495297030.0 0.0479506442 -0.028164771 0.4060376297 -0.6823807674 0.4058846198 -0.6822046073 0.0465291336 -0.0263921718
500297000.0 0.048013984 -0.0294565362 0.3985058595 -0.6866376151 0.3985704373 -0.6865932847 0.0453920519 -0.0267550181
505296970.0 0.0468939032 -0.0296596884 0.3906233027 -0.6908818942 0.3907996139 -0.6911848843 0.0449988007 -0.0273488287
510296940.0 0.0469737309 -0.0301359297 0.3835141545 -0.6953421579 0.3836080064 -0.6952084064 0.0450442285 -0.0272389547
515296910.0 0.0461540822 -0.0303587204 0.3756408739 -0.6987527079 0.3758696663 -0.699808912 0.0439194671 -0.028428538
520296880.0 0.0459876545 -0.0313352676 0.3682427722 -0.703440347 0.368538404 -0.7034621332 0.0443190057 -0.0281655994
525296850.0 0.0452818065 -0.0318884953 0.3609676095 -0.7073073475 0.3605194557 -0.7079360069 0.0440874216 -0.0288944161
530296820.0 0.0448724735 -0.0325054493 0.3526874434 -0.7105586912 0.3526809321 -0.7114058694 0.0426565559 -0.0299437935
535296790.0 0.0441787605 -0.0329142373 0.3442987845 -0.7148577965 0.3451696092 -0.7151458852 0.0425820244 -0.0303235718
540296760.0 0.0439942852 -0.0336986852 0.3373599427 -0.7193698435 0.336966952 -0.7193816514 0.0416404448 -0.0299768789
545296730.0 0.0434224702 -0.0334908911 0.3290714026 -0.722383298 0.3292263813 -0.7229435329 0.0414884323 -0.0309714828
550296700.0 0.0425477122 -0.0343410143 0.3215457128 -0.7263839577 0.3222010157 -0.7266744527 0.0404691406 -0.0305707451
555296670.0 0.042380404 -0.0352274467 0.3138781596 -0.7300717566 0.3132812952 -0.7298596563 0.0399906992 -0.0313456953
560296640.0 0.0418371856 -0.0353752307 0.305729229 -0.7330146583 0.3053300851 -0.7327925181 0.0394012298 -0.0314995239
565296610.0 0.0408751689 -0.0361881635 0.2970140544 -0.7370264674 0.2971033154 -0.7366154117 0.0390270646 -0.0323448511
570296580.0 0.0412333934 -0.0367166399 0.2892065084 -0.7390574428 0.289396416 -0.740115643 0.0387692985 -0.0318941318
575296550.0 0.0401064037 -0.036248852 0.2812901986 -0.7421202317 0.281312304 -0.7426685985 0.0383794045 -0.0326957571
580296520.0 0.0395726786 -0.0371088982 0.2737952765 -0.7458709005 0.2726227585 -0.7462851544 0.0376365166 -0.0334249336
585296490.0 0.0393375286 -0.037724602 0.2654527673 -0.7488598519 0.2653703111 -0.748762126 0.0369209141 -0.0339809935
590296460.0 0.038023443 -0.0383440832 0.2566928008 -0.7520512889 0.2566714158 -0.7516693988 0.036843831 -0.0333323669
595296430.0 0.037805517 -0.0385525676 0.2484306618 -0.7545576765 0.2487779659 -0.7550538595 0.0365821253 -0.0338540983
600296400.0 0.0371279639 -0.0386779505 0.2405043234 -0.757362003 0.240964073 -0.7570866026 0.0354205667 -0.034326429
605296370.0 0.0369687342 -0.0385636034 0.2322124527 -0.7595728825 0.2322087589 -0.7597115871 0.0350765201 -0.0350431895
610296340.0 0.0358944619 -0.0392331022 0.2242691295 -0.761842773 0.2240726839 -0.7619520915 0.0343005685 -0.0342342868
615296310.0 0.0354274713 -0.0394311999 0.2155976523 -0.7647089353 0.2151570601 -0.7647202817 0.0340245139 -0.0349675964
620296280.0 0.0346437242 -0.040216009 0.2073244298 -0.7669520507 0.2071214254 -0.7666118163 0.0332639786 -0.0358786222
625296250.0 0.0345275508 -0.0403648521 0.198389535 -0.7698176474 0.1985836386 -0.7694184515 0.0330707778 -0.0354273358
630296220.0 0.0338553317 -0.0404143433 0.1900656552 -0.7715579969 0.1907807607 -0.7719128609 0.0319148628 -0.0359158814
635296190.0 0.0331376156 -0.0408508495 0.1818500296 -0.7726631659 0.1816825776 -0.7726799707 0.0315426899 -0.0364607636
640296160.0 0.0321248954 -0.0410252477 0.1735515889 -0.7748330022 0.17335894 -0.7752615835 0.0314251574 -0.036813567
645296130.0 0.031977589 -0.0411741803 0.1647711332 -0.7770884776 0.1650399962 -0.7773539084 0.0296497251 -0.0372659257
650296100.0 0.0308915631 -0.0410185834 0.1570396012 -0.7786140222 0.1569119438 -0.7785346803 0.0297727014 -0.0373920379
655296070.0 0.0303002858 -0.0422306208 0.1479172859 -0.7801421133 0.1480452497 -0.7804104639 0.0298106377 -0.0368300325
660296040.0 0.0292629342 -0.0416600323 0.1398981527 -0.781416789 0.1398269304 -0.7817987598 0.0286295289 -0.038094344
665296010.0 0.0294497187 -0.0425155556 0.1312534659 -0.7836081643 0.1319310519 -0.7832397276 0.0276767394 -0.0374274417
670295980.0 0.0293394782 -0.0421596875 0.1229122599 -0.7845615335 0.122721313 -0.7846882754 0.0270600986 -0.0381721347
675295950.0 0.0284282278 -0.0425558586 0.113788945 -0.7857576184 0.1143447756 -0.7866252251 0.0268090579 -0.0379310466
680295920.0 0.027442195 -0.0426069333 0.1048968716 -0.7872954156 0.1053270809 -0.7870600583 0.0267734208 -0.0385915183
685295890.0 0.0266737165 -0.0428909305 0.0967892902 -0.7885560272 0.0965035149 -0.7885193216 0.0259384985 -0.03833666
690295860.0 0.0268259801 -0.0430419638 0.0884298199 -0.7887372289 0.0877280967 -0.7889883177 0.0254124103 -0.038151921
695295830.0 0.0264427302 -0.0434161636 0.0785775539 -0.7901822576 0.0789119878 -0.7903608329 0.024185283 -0.0385878049
700295800.0 0.0257948518 -0.0436151442 0.0701450453 -0.7910728833 0.0707834296 -0.7915724416 0.0238119006 -0.0392528081
705295770.0 0.024638369 -0.0436243077 0.0620269528 -0.7913247343 0.0620982524 -0.7915758379 0.023140024 -0.0393566821
710295740.0 0.0241945898 -0.0433878501 0.0536501457 -0.7918900057 0.0533918911 -0.7918257896 0.021957213 -0.0387963677
715295710.0 0.0234759244 -0.0438613407 0.0451016839 -0.7928959857 0.045362424 -0.7929152856 0.0219303458 -0.0400585252
720295680.0 0.0227309026 -0.0442856308 0.036329579 -0.7931111198 0.0366295658 -0.7936720792 0.0216268303 -0.0392410219
725295650.0 0.0226365102 -0.0441238644 0.027625578 -0.7930882944 0.0273256553 -0.7933978385 0.0206536337 -0.0391118024
730295620.0 0.0213563153 -0.0448063203 0.018709006 -0.7941830291 0.0189670069 -0.7941943008 0.0203216356 -0.040262335
735295590.0 0.0213000332 -0.0440283817 0.0107275798 -0.7933182678 0.0111060908 -0.7937576991 0.0195858359 -0.0394886114
740295560.0 0.0202744891 -0.0440617803 0.0019250427 -0.7934355268 0.0019938629 -0.7936951348 0.0196542457 -0.0400625248
745295530.0 0.0200707761 -0.0448732829 -0.0064919846 -0.7942747858 -0.0067695796 -0.7940888158 0.0183244736 -0.0398101578
750295500.0 0.0191444833 -0.0449255515 -0.0149641361 -0.793189497 -0.0149414645 -0.793834591 0.01848423 -0.0405226892
755295470.0 0.0192816012 -0.0446059597 -0.0233760155 -0.7935220518 -0.023851343 -0.7939883407 0.016883328 -0.0400602932
760295440.0 0.0178275511 -0.0446307395 -0.0324811752 -0.7931450177 -0.0327130728 -0.7934301111 0.0160615725 -0.0405457812
765295410.0 0.0169806437 -0.0449902061 -0.0407137211 -0.7928231987 -0.0408733505 -0.7928390536 0.0168414291 -0.0397642797
770295380.0 0.0171558411 -0.0449475806 -0.0495149372 -0.7918921603 -0.0500429029 -0.7925914643 0.0159655535 -0.0399227507
775295350.0 0.0162049699 -0.044530783 -0.0583947887 -0.7911197877 -0.0582551844 -0.791971585 0.0146944024 -0.0409522913
780295320.0 0.0156360066 -0.044843713 -0.0666451319 -0.79079189 -0.0665362188 -0.7910832317 0.0146343558 -0.0397501711
785295290.0 0.0147609658 -0.0446010775 -0.0751285836 -0.7892710086 -0.0756925606 -0.7904510361 0.0133579604 -0.0403540324
790295260.0 0.0141347403 -0.0448165155 -0.0835827968 -0.7889355758 -0.0842357539 -0.7897036885 0.0131014308 -0.0402646181
795295230.0 0.0135623569 -0.0448518657 -0.0918725717 -0.7874795387 -0.0924139553 -0.7878477577 0.0124072211 -0.0392471229
800295200.0 0.0129664355 -0.0446592217 -0.1017804235 -0.7875867422 -0.1016996825 -0.7878565958 0.0120001597 -0.0400570646
805295170.0 0.0118140146 -0.0447159726 -0.109778183 -0.7855310449 -0.1097412758 -0.7860631122 0.0110918614 -0.0404427968
810295140.0 0.0114157703 -0.0446643993 -0.1181734138 -0.7851136203 -0.1179449788 -0.785320382 0.0109506862 -0.0397202031
815295110.0 0.0107680682 -0.0445530371 -0.1266393801 -0.7827832474 -0.1268682299 -0.7835588364 0.0096534271 -0.0402307438
820295080.0 0.0103967876 -0.0447460338 -0.1353060256 -0.7824608672 -0.1356142941 -0.7823827885 0.0090170191 -0.0398749232
825295050.0 0.0096441249 -0.044879298 -0.1438717584 -0.7800687774 -0.1437660023 -0.7803155022 0.009114606 -0.0394729333
830295020.0 0.00894377 -0.0442371963 -0.1525234018 -0.7784700508 -0.1527043976 -0.7794296102 0.0081949528 -0.0401355197
