!Created with skrf (http://scikit-rf.org).
# Hz S RI R 50.0 
!freq ReS11 ImS11 ReS21 ImS21 ReS12 ImS12 ReS22 ImS22
300000.0 -0.7674767722 -0.1807539088 -0.0008521581 -0.0004532767 -0.0007627987 0.0005463625 -0.0455538322 -0.0767739627
5299970.0 -0.7860666107 -0.0097355427 -5.31297e-05 4.39758e-05 9.43489e-05 7.56437e-05 -0.047836395 0.0138032058
10299940.0 -0.7895060041 -0.0059465569 2.19579e-05 -5.47861e-05 3.5365e-05 -0.0002431245 -0.0419653087 0.0315223843
15299910.0 -0.7943071393 -0.0030716027 8.61751e-05 8.50538e-05 8.64133e-05 0.0001666932 -0.0338233589 0.0456752387
20299880.0 -0.8011275917 0.0003045532 -0.000118364 7.22772e-05 -5.56503e-05 1.09715e-05 -0.0243924583 0.057339948
25299850.0 -0.808203272 0.0063968792 0.0002067884 6.41013e-05 -9.21006e-05 -0.0001948436 -0.01353531 0.0662412445
30299820.0 -0.8140302668 0.0138222373 0.0001708402 1.46336e-05 0.0001160506 3.58239e-05 -0.0019735909 0.0728533175
35299790.0 -0.8184764531 0.0232889477 9.30363e-05 2.26099e-05 7.81955e-05 0.0001132489 0.0090562214 0.0771720962
40299760.0 -0.8236309322 0.0322575683 -7.81039e-05 -2.29149e-05 -3.75104e-05 -1.69242e-05 0.0202462692 0.079851846
45299730.0 -0.8270717109 0.0420933457 6.64451e-05 0.0002453597 -0.0001278966 -2.21683e-05 0.0303509689 0.0811818822
50299700.0 -0.8292399896 0.0520821039 2.84573e-05 0.0002496257 8.17266e-05 6.30677e-05 0.0404806525 0.0816027287
55299670.0 -0.8311228625 0.0610207069 -0.0002038004 -8.96367e-05 -7.00854e-05 -0.0001097673 0.049170157 0.0803162798
60299640.0 -0.8328423867 0.0722365264 0.0003517632 -8.76645e-05 -0.0001107872 -2.28721e-05 0.0577718524 0.0782503632
65299610.0 -0.8336027471 0.081806463 -6.12682e-05 -0.0001538178 5.15316e-05 7.07712e-05 0.0654790814 0.0759810384
70299580.0 -0.8336278483 0.0912254415 0.0002121521 -0.0001403861 -6.68095e-05 0.0001321506 0.0720446895 0.0730188058
75299550.0 -0.8338223798 0.1016945742 9.05766e-05 1.54583e-05 -0.0001243238 0.0001464404 0.078685295 0.0696523582
80299520.0 -0.8342868281 0.1123930314 -8.16926e-05 0.000262921 6.5405e-06 6.13575e-05 0.0841030128 0.0662179141
85299490.0 -0.8326875575 0.1211736197 3.23221e-05 -2.84719e-05 -0.0001669167 -0.0001130713 0.088937299 0.0625377607
90299460.0 -0.8322184528 0.1314273784 -0.0001820296 5.27897e-05 1.07372e-05 7.81815e-05 0.0934627695 0.0588354977
95299430.0 -0.8314178093 0.1406140139 -7.78611e-05 2.45551e-05 5.1278e-06 0.0001175314 0.0974951167 0.0548425199
100299400.0 -0.8300381399 0.1499356111 0.000198537 -6.75001e-05 -0.0002482106 0.0001553998 0.1011956113 0.0512604576
105299370.0 -0.8292566738 0.1592180641 0.000308668 -3.95859e-05 -9.55338e-05 4.547e-07 0.1044258736 0.0467975291
110299340.0 -0.8281708784 0.1682016271 -1.4645e-05 0.0002295128 -0.0001112788 6.35368e-05 0.1064933014 0.0429425772
115299310.0 -0.8261717002 0.1777608634 5.15626e-05 0.0001604411 0.0001767091 2.3738e-05 0.109101417 0.038769735
120299280.0 -0.8243772434 0.1867167636 1.34875e-05 -0.0002264136 5.25789e-05 5.351e-06 0.1114659025 0.0351055603
125299250.0 -0.8228965066 0.1957771082 -6.5929e-06 9.55519e-05 -4.80687e-05 5.23093e-05 0.1134517218 0.0311995662
130299220.0 -0.8207717785 0.2050630252 -2.9953e-05 -0.0001721672 0.0001782754 0.000116148 0.1154138748 0.0276221284
135299190.0 -0.8187180931 0.2142563948 8.619e-07 6.0711e-05 0.0001560757 -3.88799e-05 0.1164404581 0.0236832855
140299160.0 -0.8173423396 0.2236168412 -0.0002426492 -0.0001671713 -5.63432e-05 0.0001197852 0.1171939737 0.0202712505
145299130.0 -0.8149022778 0.2324221904 9.60083e-05 -0.0001596067 3.99729e-05 2.8716e-05 0.1182952521 0.0167957606
150299100.0 -0.8117387357 0.2408838317 3.75751e-05 4.45272e-05 4.6772e-06 9.34775e-05 0.1191680451 0.0133644353
155299070.0 -0.8102420419 0.250438331 -2.63683e-05 0.0002273438 -6.03526e-05 -2.18583e-05 0.1199679752 0.0100612545
160299040.0 -0.8079545484 0.2590071173 0.0001729012 -2.69339e-05 3.26711e-05 4.58816e-05 0.1202600723 0.0068378999
165299010.0 -0.8043762931 0.2676298134 -0.0001054006 0.0001032386 4.17769e-05 5.90032e-05 0.1208299735 0.0033419942
170298980.0 -0.8019163691 0.2761663134 -3.66239e-05 2.76899e-05 -2.2387e-06 7.77502e-05 0.1211938978 0.0003877483
175298950.0 -0.7993025078 0.2843241799 0.000239989 9.65585e-05 7.49249e-05 -7.7728e-06 0.1212093888 -0.0027707319
180298920.0 -0.7962471996 0.2932648081 0.0001954594 -8.28878e-05 -2.81791e-05 -1.19433e-05 0.1215091186 -0.005792961
185298890.0 -0.7932263665 0.302558865 -2.60759e-05 7.48359e-05 -1.02782e-05 7.61542e-05 0.1215196177 -0.0087349109
190298860.0 -0.7899385901 0.3113126782 -0.0001620108 4.13859e-05 0.0001209564 0.0001626146 0.1213909572 -0.0118697538
195298830.0 -0.7862747239 0.3193076225 -9.54413e-05 0.0001811176 0.0001372549 4.71211e-05 0.1211641601 -0.0143360443
200298800.0 -0.782694388 0.327756725 -0.0002161347 -1.69776e-05 -0.0001647951 6.59235e-05 0.12116749 -0.0170186228
205298770.0 -0.7790772846 0.3364772889 -0.0001146697 -4.82089e-05 9.88245e-05 0.0001247014 0.1209391995 -0.0198799159
210298740.0 -0.776186863 0.345144679 -3.98447e-05 0.0001523931 -1.68776e-05 0.0001459827 0.1200883952 -0.0223908461
215298710.0 -0.7725722602 0.3533770122 -7.98621e-05 -0.0001352138 -5.67373e-05 0.0003219595 0.119968023 -0.0249930528
220298680.0 -0.7687510053 0.3609195698 0.000252093 0.0002451484 -2.30516e-05 5.36339e-05 0.1194425983 -0.0270683634
225298650.0 -0.7648506078 0.3697215043 -7.54234e-05 -2.65259e-05 9.63334e-05 0.000107716 0.1186269413 -0.0297376185
230298620.0 -0.7605436498 0.3777997332 1.95478e-05 -0.0001505781 -0.0001264615 6.47951e-05 0.1184250982 -0.0326021721
235298590.0 -0.7573469976 0.386190507 1.25754e-05 8.05826e-05 -1.00354e-05 4.7402e-06 0.117323431 -0.0344459385
240298560.0 -0.7528789582 0.3937956187 0.0001053122 0.0001718262 -0.0002997862 2.23009e-05 0.1168833828 -0.0369696722
245298530.0 -0.7481232498 0.4016981484 0.0002754453 0.000261955 0.0001023094 0.0001112813 0.1158870095 -0.0391972624
250298500.0 -0.7446861809 0.4093670769 -4.26308e-05 3.63898e-05 0.0001277268 -7.92358e-05 0.1152609286 -0.0413649365
255298470.0 -0.7406858208 0.4175171942 0.000130398 -0.00017988 7.09576e-05 -3.5976e-06 0.1143921147 -0.0437164287
260298440.0 -0.7363475109 0.4249784627 -2.02219e-05 0.0001407565 0.0002820331 -0.0001627823 0.1132437275 -0.0456696359
265298410.0 -0.731964366 0.4325552485 7.39042e-05 6.2848e-05 -6.22949e-05 7.48976e-05 0.1129408393 -0.0478596321
270298380.0 -0.7270051219 0.4402466234 -8.99506e-05 2.28534e-05 -1.50514e-05 0.0001970651 0.1120149481 -0.0497603503
275298350.0 -0.72327742 0.4481713493 -2.60717e-05 0.0001143608 2.94837e-05 -5.94408e-05 0.110815013 -0.0517570842
280298320.0 -0.7183837906 0.4552762123 0.0002733343 1.11683e-05 -2.50057e-05 -0.0001208346 0.1096369402 -0.0535276938
285298290.0 -0.7134493187 0.4635559431 0.0001056818 0.0001311971 0.0001196858 0.0001776921 0.1090647659 -0.0554735519
290298260.0 -0.7082571656 0.4707654784 -0.000178657 -3.9043e-05 7.72159e-05 3.52732e-05 0.1080451129 -0.0574602691
295298230.0 -0.7036604505 0.4778903286 4.61146e-05 -6.7279e-06 1.83816e-05 0.000121343 0.107011902 -0.0594120463
300298200.0 -0.6990877007 0.485650078 -0.0002259357 -0.0001041911 -6.28073e-05 -4.30606e-05 0.1063293926 -0.0610075911
305298170.0 -0.6941211693 0.4924219419 -0.0001048517 1.2129e-06 0.0002071551 4.19586e-05 0.1048951191 -0.0630350017
310298140.0 -0.6892251601 0.4995022201 8.35432e-05 -0.0002333521 8.82645e-05 -4.24922e-05 0.1042186362 -0.0645346589
315298110.0 -0.6842942165 0.5067878704 4.3749e-06 -0.0002353709 2.1603e-06 0.0003015394 0.1030809325 -0.066716463
320298080.0 -0.6783381437 0.5143637999 0.0001931503 0.0001184229 -0.0001798485 -0.0001259704 0.1016446264 -0.0684796385
325298050.0 -0.6734796355 0.5209711413 0.0002352196 0.0002101848 -1.46762e-05 5.97802e-05 0.1005811732 -0.0705361458
330298020.0 -0.6681487147 0.5278618688 0.0001907113 8.3e-06 0.0001781936 0.000119596 0.0989824447 -0.0724146608
335297990.0 -0.6627701426 0.5346829332 3.56791e-05 3.80416e-05 0.0001691559 5.6292e-06 0.0976144822 -0.07385767
340297960.0 -0.6577777518 0.5411132012 -0.0001045372 9.70026e-05 -4.91814e-05 1.78233e-05 0.0962121219 -0.0750481897
345297930.0 -0.6518324954 0.5479714934 0.000147733 2.70358e-05 -9.3829e-06 -0.0001301266 0.0947664418 -0.0768087601
350297900.0 -0.6457674623 0.5555886652 9.37129e-05 0.0002841187 0.000107691 0.0001020366 0.0931917969 -0.0784750136
355297870.0 -0.6406391827 0.5613975112 -1.7738e-06 2.76359e-05 -1.0999e-05 0.0001591245 0.0918331581 -0.0794924472
360297840.0 -0.6346063015 0.5681592743 1.71928e-05 5.11065e-05 9.46858e-05 1.48963e-05 0.090468305 -0.0811839072
365297810.0 -0.6291887469 0.5747871586 -2.75148e-05 2.75549e-05 -5.91442e-05 -5.1658e-05 0.0890260616 -0.0821729059
370297780.0 -0.6236265564 0.580434985 -1.56096e-05 4.886e-07 0.0001329262 6.69279e-05 0.0873701542 -0.0835028942
375297750.0 -0.6177800633 0.5870915777 8.69595e-05 0.0001572854 0.0001545673 4.84251e-05 0.0860570702 -0.0846728047
380297720.0 -0.6115268987 0.5932104773 1.92716e-05 0.0002523127 9.33047e-05 0.0001382559 0.0845544975 -0.0856120709
385297690.0 -0.6059169649 0.5992873758 0.0001509062 -0.0001277945 -2.91851e-05 0.0001346458 0.0835227607 -0.0871549083
390297660.0 -0.598123866 0.6054527074 6.85037e-05 0.0001387659 0.00012568 -6.43826e-05 0.0817925898 -0.0882783678
395297630.0 -0.5929816328 0.6125315793 0.000199003 0.0003066206 -3.61766e-05 -6.92591e-05 0.0803633853 -0.0896625856
400297600.0 -0.5868896771 0.6183295823 0.0002434486 0.0003452308 3.36622e-05 1.98816e-05 0.0789256522 -0.090083806
405297570.0 -0.5808065839 0.6228285119 5.02123e-05 0.0002815491 -1.06181e-05 6.26372e-05 0.0776638739 -0.0916284983
410297540.0 -0.5737603029 0.629830581 0.000247356 -0.0002974628 0.0001367738 6.13328e-05 0.0757827609 -0.0925462444
415297510.0 -0.5679093722 0.635911067 9.18057e-05 -0.0001442767 0.0001191774 8.84415e-05 0.0745286279 -0.0936463621
420297480.0 -0.5609755013 0.6412140356 0.0001673899 0.0001617997 0.0002984238 0.0001017825 0.0733048439 -0.0946021516
425297450.0 -0.5544185965 0.646481479 -0.0001372596 4.31914e-05 -9.39237e-05 -0.0001913476 0.0715961164 -0.096061453
430297420.0 -0.5482536252 0.6514479722 0.0001094143 0.0002887698 -3.17195e-05 7.83584e-05 0.0703069819 -0.0965231858
435297390.0 -0.5410421308 0.6581110654 0.0002397637 0.0002173274 0.0001587826 2.23598e-05 0.0683451408 -0.0974605454
440297360.0 -0.5339359173 0.6637103986 0.0001820044 9.3471e-06 0.0001783892 7.15284e-05 0.0669563592 -0.0984348871
445297330.0 -0.5269634057 0.6681060373 1.3031e-06 -0.0001354528 -5.02624e-05 7.48456e-05 0.065535726 -0.0994156543
450297300.0 -0.5204270567 0.6739935861 0.0003320608 0.0001610258 0.0001349291 8.55523e-05 0.0641550591 -0.1002814326
455297270.0 -0.5136807819 0.6785532743 -8.19806e-05 -2.28739e-05 -6.44761e-05 2.48612e-05 0.0625241422 -0.1009418212
460297240.0 -0.5059868367 0.6846275141 -4.57893e-05 5.16035e-05 -0.0001163104 0.0001820332 0.0607917556 -0.1021802855
465297210.0 -0.4994449184 0.6892556242 4.91244e-05 0.0001009929 -1.02981e-05 6.72872e-05 0.0594317328 -0.1026203985
470297180.0 -0.49191583 0.6940897391 0.0003331167 -2.37417e-05 9.92244e-05 -0.0001176892 0.0577876385 -0.1033103546
475297150.0 -0.4847820631 0.6989294718 0.0001213896 0.0002013314 9.58362e-05 6.60011e-05 0.0563838016 -0.1043293806
480297120.0 -0.4768231774 0.7047269665 0.0001629086 -0.0001198488 6.94682e-05 -1.1716e-05 0.0545500476 -0.1048796875
485297090.0 -0.4695859333 0.708370864 2.78752e-05 4.02042e-05 0.0001673481 -0.0001167767 0.0528676031 -0.1056204073
490297060.0 -0.4615565602 0.7139630263 -6.0892e-05 0.0001707026 0.0001302931 -1.4289e-06 0.0512889301 -0.1062811419
495297030.0 -0.4544554751 0.7180255196 0.0001968265 -5.80822e-05 0.000184961 0.0001119777 0.0497956879 -0.1069667382
500297000.0 -0.4472135407 0.7225279733 0.0002735242 1.92885e-05 0.0003271407 9.59718e-05 0.0482807469 -0.1076425093
505296970.0 -0.4392181307 0.7270216761 0.0001406751 -0.0001378471 7.48035e-05 -0.0001552189 0.0464804258 -0.1083572458
510296940.0 -0.4321731716 0.7315028525 -0.0001378768 0.0001795132 9.14147e-05 -0.0001090967 0.0450872377 -0.1083708302
515296910.0 -0.4240404699 0.7357420207 -5.7799e-05 -3.2477e-06 -3.27711e-05 -6.04943e-05 0.043205533 -0.1096362307
520296880.0 -0.4163265987 0.7401584279 2.39415e-05 0.0001965803 6.26557e-05 0.0001447065 0.0419885849 -0.1099759082
525296850.0 -0.4084462107 0.7441540066 0.000121362 1.25449e-05 0.0002276847 -0.000127874 0.0400859278 -0.1102658098
530296820.0 -0.4014836866 0.7481211109 0.0001295835 -2.44104e-05 0.0001070713 -0.0002112422 0.038213606 -0.1110105217
535296790.0 -0.3929239401 0.7523917669 0.0004323983 -0.000112323 0.0001402628 0.000191399 0.0368854413 -0.1110532633
540296760.0 -0.3847436808 0.755788301 0.0002911719 -3.11427e-05 8.79778e-05 -5.95405e-05 0.0349658139 -0.1116908256
545296730.0 -0.3774358758 0.7600243559 0.0001506744 3.01139e-05 7.4979e-05 2.20062e-05 0.0335228005 -0.1121196217
550296700.0 -0.3692761631 0.7639111388 8.43157e-05 -7.31943e-05 9.1163e-05 7.35425e-05 0.0316352788 -0.1126590878
555296670.0 -0.3615679215 0.7671723595 -1.75001e-05 -4.67436e-05 0.0002000601 0.0001612396 0.0299656725 -0.1130827257
560296640.0 -0.3533194 0.7707334825 -0.0001012589 0.0002075983 9.143e-07 8.9729e-05 0.0282843824 -0.1132706171
565296610.0 -0.3457812629 0.7746161011 0.0001256446 0.0001086216 -9.78714e-05 -0.0001159944 0.0268381464 -0.1133831563
570296580.0 -0.3370858057 0.7782628737 6.5677e-05 -0.0001765936 0.0001336728 0.0001090278 0.0248662666 -0.1140884001
575296550.0 -0.3284930496 0.7810739595 0.0001663544 -0.000125666 0.0002582376 0.0001446391 0.0234650901 -0.1142064569
580296520.0 -0.3215330808 0.7845703409 5.86646e-05 7.84704e-05 0.0002957282 0.0001335289 0.0217559443 -0.1146225787
585296490.0 -0.3127134678 0.7873651177 0.0001488557 5.53234e-05 8.06121e-05 0.0001724791 0.0203513122 -0.1143450338
590296460.0 -0.3040211247 0.7911943807 7.51408e-05 4.18353e-05 9.48707e-05 8.59616e-05 0.0181463818 -0.1146362881
595296430.0 -0.2961743334 0.793765088 0.0002039626 -9.69102e-05 4.05222e-05 -0.000186752 0.0166830384 -0.1145954322
600296400.0 -0.2883219126 0.7968923888 1.0075e-06 0.0001203059 1.82583e-05 -5.95914e-05 0.0149675611 -0.1150294931
605296370.0 -0.2793185994 0.7997300636 0.0003249992 -0.0001010358 0.0001385864 2.39975e-05 0.013501951 -0.1152374719
610296340.0 -0.2711389391 0.803122713 0.0001238165 7.91236e-05 0.0002043037 -6.98307e-05 0.0115702087 -0.1152893919
615296310.0 -0.2629169159 0.8058452533 1.42324e-05 -4.77977e-05 0.0001418819 5.81505e-05 0.0100165489 -0.1148553153
620296280.0 -0.2552487599 0.8084397246 0.0001033378 2.27827e-05 8.09788e-05 0.0001362168 0.0081561306 -0.114952963
625296250.0 -0.2472737629 0.8105519647 0.000193447 -0.0002778562 0.0002437813 1.39167e-05 0.0065801068 -0.1152236407
630296220.0 -0.2387061443 0.813050332 -6.51659e-05 7.07928e-05 0.0003194097 0.0001732253 0.0048228974 -0.1153231274
635296190.0 -0.2305144299 0.814766826 -1.40008e-05 -9.15448e-05 2.20697e-05 5.07345e-05 0.0029873714 -0.1149333796
640296160.0 -0.2221500739 0.8177227623 -6.81993e-05 -5.94386e-05 6.38075e-05 -3.1661e-05 0.0011844496 -0.1149402282
645296130.0 -0.2129390659 0.8203445465 -9.59021e-05 -0.0003085313 0.0003358059 -0.0001699153 -0.0003986881 -0.1150711146
650296100.0 -0.2050997885 0.8220136782 0.0002240237 -0.0001785241 6.72669e-05 3.4495e-05 -0.0016782861 -0.1150603542
655296070.0 -0.1968435188 0.8248572949 0.0002938313 0.0001128428 0.000154344 9.45657e-05 -0.003882106 -0.1149407509
660296040.0 -0.1888363294 0.8264652859 0.0002855995 -9.3243e-06 0.0001091914 -6.48739e-05 -0.0050902099 -0.1145445477
665296010.0 -0.1807892137 0.8281304464 0.0001773104 2.89899e-05 0.0001947879 -3.91466e-05 -0.0069951189 -0.1144016207
670295980.0 -0.1726153431 0.8306540508 0.0001854647 5.11386e-05 0.0001022357 7.0649e-05 -0.0086948453 -0.1145138184
675295950.0 -0.1637381584 0.8321396573 0.0001770307 -8.2772e-06 7.5554e-06 -3.22045e-05 -0.0103663339 -0.1140668676
680295920.0 -0.1564193475 0.8337815547 5.04061e-05 0.0001486832 -5.0872e-06 0.0001848042 -0.0122922807 -0.113937007
685295890.0 -0.1475440366 0.8355556519 0.0002657684 -9.87763e-05 4.7497e-05 -0.0002449804 -0.0133805734 -0.1134511546
690295860.0 -0.1390232193 0.8367138676 0.0001130289 -0.0002368614 0.0001383662 -0.0001333557 -0.0150741781 -0.1134916766
695295830.0 -0.1308169645 0.8384022649 4.37461e-05 -4.0637e-06 0.0002691563 -0.0001466326 -0.0168445939 -0.1126797791
700295800.0 -0.1223593689 0.8400805594 0.0001802514 -1.43002e-05 0.0003420791 -0.0002156206 -0.0180641413 -0.1128191904
705295770.0 -0.1145265967 0.8418768196 0.0001051254 0.0002091175 9.72647e-05 -3.7606e-05 -0.0203776599 -0.1120291926
710295740.0 -0.1066565213 0.8416435485 -1.6468e-05 9.06533e-05 0.0001657894 6.46663e-05 -0.0214326594 -0.1117920051
715295710.0 -0.0976752079 0.8435530724 9.18657e-05 0.0001610846 6.63106e-05 -0.0001629291 -0.0234111284 -0.1114839827
720295680.0 -0.0888039359 0.8444607196 0.0001176467 -0.0004115361 0.0003099697 1.44486e-05 -0.0249296845 -0.1113085119
725295650.0 -0.0817096025 0.8456592511 0.0002998018 -0.0001632885 0.000171521 -0.0001471078 -0.0265226538 -0.110385135
730295620.0 -0.0731538933 0.8468292315 8.44651e-05 8.76437e-05 5.55375e-05 -0.0001096503 -0.0282711551 -0.1098807705
735295590.0 -0.0655532373 0.8474374055 0.0001040591 -0.0001739306 0.0001579846 -0.0001319402 -0.0294644288 -0.1095950762
740295560.0 -0.0573462479 0.8478718447 0.0001195886 -0.0001268891 5.28485e-05 -7.94469e-05 -0.0314626359 -0.1089742764
745295530.0 -0.0490618235 0.8490079764 0.000383732 3.48431e-05 0.0001623902 -0.0001173662 -0.0330938483 -0.1084491296
750295500.0 -0.0407409114 0.8493284302 5.61625e-05 -1.68181e-05 0.0003602853 1.84174e-05 -0.0347317889 -0.1079269722
755295470.0 -0.0321555149 0.8499828054 0.000127828 -0.0001025303 -0.0001051094 1.63845e-05 -0.0361670443 -0.1069381839
760295440.0 -0.0237447609 0.8509107973 0.0003166509 -0.0001223243 0.0001832237 -0.0001881188 -0.0374575615 -0.1070576084
765295410.0 -0.0159626208 0.8504316893 -0.000133904 -7.33544e-05 -2.45986e-05 -0.0001370551 -0.0390366724 -0.1062162672
770295380.0 -0.008062132 0.8512102515 9.8751e-05 -7.86001e-05 0.0001537727 -9.26557e-05 -0.0408253891 -0.1054603714
775295350.0 0.0003277036 0.8511156647 0.0001275903 7.4433e-06 5.90886e-05 4.33125e-05 -0.0423841993 -0.1049859964
780295320.0 0.0090152605 0.8513216762 0.0001611114 0.0002333508 0.0002414372 -7.65093e-05 -0.0438052715 -0.1041347588
785295290.0 0.0169245705 0.8509357845 6.28179e-05 -0.0001270351 0.0002361714 -4.6232e-05 -0.0454960979 -0.1032881088
790295260.0 0.0248454981 0.8508054276 -6.52206e-05 -0.0001411045 0.0002085972 -0.0001798067 -0.0469971641 -0.1025563273
795295230.0 0.0333411693 0.8505753135 8.82655e-05 -0.0001571229 0.0001077566 -4.71805e-05 -0.0488118649 -0.1023835337
800295200.0 0.0415691202 0.8508940197 1.01945e-05 -0.0001651681 0.0002098269 2.68142e-05 -0.0498993918 -0.1015545111
805295170.0 0.0492333504 0.8505472092 7.14597e-05 -0.0001756817 6.36414e-05 0.0001421078 -0.0512268601 -0.1011499378
810295140.0 0.0578831999 0.8508365776 0.0002908277 -0.0001789301 0.0001505356 1.80043e-05 -0.0527031145 -0.0997186394
815295110.0 0.0653643356 0.8491631161 4.14546e-05 -6.26429e-05 4.78565e-05 0.0001133378 -0.0546180224 -0.0991368853
820295080.0 0.0740236709 0.8488905437 0.0002386444 -7.2626e-06 0.0001091075 3.03109e-05 -0.0560409683 -0.0976773505
825295050.0 0.0817251177 0.8479705057 8.33807e-05 4.3323e-06 0.0001353624 3.1324e-05 -0.0572066116 -0.0972361345
830295020.0 0.0909267155 0.8476237124 0.0002848169 -4.20239e-05 -1.43791e-05 8.35647e-05 -0.0588457344 -0.0963105286
835294990.0 0.0981359671 0.8468530002 9.42763e-05 -0.0002017233 0.0001507779 8.50627e-05 -0.0601200352 -0.0954485623
840294960.0 0.1071366498 0.8453255392 0.0002128447 -0.0002739838 0.0004176129 4.92916e-05 -0.0614320931 -0.0943889066
845294930.0 0.1147538569 0.8443402632 0.0001240258 -0.0001176025 0.0001128523 3.1895e-06 -0.0631833309 -0.0936651534
850294900.0 0.1239129171 0.8431112085 0.0001254755 0.0001035463 2.2891e-05 4.51784e-05 -0.0644831828 -0.0923953503
