!Created with skrf (http://scikit-rf.org).
# Hz S RI R 50.0 
!freq ReS11 ImS11 ReS21 ImS21 ReS12 ImS12 ReS22 ImS22
300000.0 -0.3187592768 -0.1072068645 0.3725052568 0.0544880353 0.3758468494 0.0586921923 -0.3182423541 -0.1199444809
5299970.0 -0.3237905187 0.0044410316 0.3786804079 0.0029715735 0.3788047628 0.0032441155 -0.3258636667 0.0028226654
10299940.0 -0.3211928894 0.0154424107 0.3797955889 0.00229829 0.3798638577 0.0024790826 -0.3238068474 0.0127690007
15299910.0 -0.3179995588 0.0233547797 0.3817271605 0.0022455069 0.3819105317 0.0022346058 -0.3211674221 0.0198230435
20299880.0 -0.3143138614 0.0300783956 0.3852396722 0.0016150217 0.3850068488 0.0015200742 -0.3183793544 0.0261732516
25299850.0 -0.3106217139 0.0358568264 0.3884895441 -0.000155357 0.3884480675 0.0002255928 -0.3152653482 0.0311994047
30299820.0 -0.3064103725 0.0404000025 0.3918142832 -0.0020326978 0.3916608269 -0.0022870568 -0.3125713717 0.035513789
35299790.0 -0.3029499292 0.044750985 0.3951215601 -0.0053299124 0.3951071981 -0.0051516194 -0.3095528448 0.0392369163
40299760.0 -0.2994485706 0.0479547976 0.3983403305 -0.0087737092 0.3982371975 -0.0088086193 -0.3068121342 0.0432796055
45299730.0 -0.2963200976 0.0515379755 0.4012754915 -0.0126385626 0.4010159994 -0.0125921805 -0.3047205333 0.0461525918
50299700.0 -0.2930966169 0.0540270381 0.4033093378 -0.0172989903 0.4037581507 -0.0175508383 -0.3021435599 0.0492964433
55299670.0 -0.2906906614 0.0566972265 0.4056514659 -0.0220658922 0.4060048891 -0.0220152228 -0.3001769113 0.0520727475
60299640.0 -0.2881221731 0.0592346297 0.407497706 -0.0270354929 0.4073754395 -0.0268500914 -0.2979378446 0.0545458708
65299610.0 -0.2861660591 0.0615589214 0.4093146087 -0.0313623697 0.4093709558 -0.0315795825 -0.29633947 0.0571036646
70299580.0 -0.2839622743 0.0634471389 0.4104690048 -0.0369361113 0.4104680635 -0.0368901467 -0.2945615738 0.059777412
75299550.0 -0.2815669435 0.0659637252 0.4114142044 -0.0423009297 0.4111107613 -0.0423032333 -0.292696123 0.0620230358
80299520.0 -0.2802678918 0.0678807287 0.4126437458 -0.0471042784 0.4127088117 -0.0473407426 -0.2914474299 0.0642803557
85299490.0 -0.2784768787 0.0699696733 0.4133307702 -0.0523948004 0.4130545674 -0.0527855325 -0.2904507728 0.0666574376
90299460.0 -0.2769223314 0.0722829301 0.4133011946 -0.0577677375 0.4135988466 -0.0578583395 -0.2886092793 0.0688792876
95299430.0 -0.2755742345 0.0740859999 0.4137282623 -0.0633903634 0.4140993744 -0.063045814 -0.287681156 0.0712930565
100299400.0 -0.2743485834 0.0763732101 0.4136849799 -0.068737675 0.413713422 -0.0682709602 -0.2865529382 0.0735833085
105299370.0 -0.2729489582 0.0782206016 0.4137377125 -0.0735649458 0.4136839524 -0.0737663569 -0.2851970052 0.0758022282
110299340.0 -0.2720445625 0.0804134926 0.413409846 -0.0785601684 0.4133203875 -0.0790323932 -0.2844178061 0.0786426322
115299310.0 -0.2704325149 0.0822728313 0.4126369817 -0.0834825049 0.4128995746 -0.0839100365 -0.2831378116 0.0803533188
120299280.0 -0.2697657293 0.0847793979 0.4128200446 -0.0888144121 0.4127119438 -0.0887735833 -0.2823039463 0.0827397936
125299250.0 -0.2689233072 0.0866693999 0.4123469452 -0.0935630036 0.4125140437 -0.0939797787 -0.281328518 0.0846883105
130299220.0 -0.2674635633 0.0892572396 0.4112810789 -0.0988037133 0.4117898729 -0.0992407625 -0.2808234631 0.0876249711
135299190.0 -0.2666089309 0.0910718915 0.4107915201 -0.1038399144 0.4104942067 -0.1039500302 -0.2795524994 0.0896339866
140299160.0 -0.2658500328 0.0938081933 0.41013914 -0.1089472505 0.4100465034 -0.1092565375 -0.2783595487 0.0923478303
145299130.0 -0.2646274992 0.0958041445 0.4091632108 -0.1141001653 0.4091073408 -0.1138559547 -0.2780932556 0.0945737497
150299100.0 -0.2639181292 0.0981253251 0.4081751567 -0.1191967556 0.4083292133 -0.1190125789 -0.2769368395 0.0969208489
155299070.0 -0.2629805125 0.100766598 0.4070361847 -0.1240471506 0.4071998581 -0.124208552 -0.2762763238 0.099542154
160299040.0 -0.261635595 0.1029827769 0.4055112247 -0.1285361163 0.4055678336 -0.1287611381 -0.2748049544 0.1021844335
165299010.0 -0.2610982814 0.1053625308 0.4047096821 -0.1336085749 0.4047562708 -0.1337696477 -0.274263316 0.1045361151
170298980.0 -0.2599078118 0.1079567341 0.4027518828 -0.1382214457 0.4035427576 -0.1383090738 -0.2731023195 0.1072816864
175298950.0 -0.2590569519 0.1106105658 0.4021566894 -0.1431882821 0.4020396123 -0.1429585061 -0.2721357154 0.1099450927
180298920.0 -0.257911502 0.1126414473 0.4004158169 -0.1480166965 0.4005518155 -0.147824953 -0.2711496774 0.1124848884
185298890.0 -0.2568556602 0.1152789386 0.3986272519 -0.152728715 0.3991380918 -0.1526462588 -0.2704834897 0.1150096793
190298860.0 -0.255694543 0.1176559776 0.3972455501 -0.1574112408 0.3973100488 -0.1574734553 -0.2688569287 0.1174558015
195298830.0 -0.2547654878 0.1201969584 0.3956385148 -0.1618450933 0.3957883389 -0.1622067675 -0.2680374461 0.119915839
200298800.0 -0.2536710862 0.1228973206 0.3942688163 -0.1661939373 0.3941455132 -0.1663084945 -0.2668740261 0.1229598653
205298770.0 -0.2525495179 0.125417807 0.3922698875 -0.1709295607 0.3922375981 -0.171192898 -0.2657624223 0.1255285857
210298740.0 -0.2515207682 0.1276924783 0.3905172981 -0.1758250899 0.3904574829 -0.1758176543 -0.2645247249 0.1281234178
215298710.0 -0.2503069108 0.1302691004 0.3883841207 -0.1799921859 0.3882957641 -0.1800692254 -0.2633832559 0.1309608171
220298680.0 -0.249037361 0.1328798785 0.3862839205 -0.1847170905 0.3866608215 -0.1847006734 -0.2618903395 0.1336632512
225298650.0 -0.2476688716 0.1357298817 0.3845370015 -0.1891549136 0.3840755633 -0.1889173526 -0.2610266407 0.1364022041
230298620.0 -0.2468290934 0.1383647869 0.3829045519 -0.1935318836 0.3828139708 -0.1936145521 -0.2596287117 0.1386245437
235298590.0 -0.2451854701 0.1407189684 0.3801242459 -0.1978438435 0.3803709873 -0.1980358132 -0.2582859275 0.1412578431
240298560.0 -0.2441568292 0.1434997419 0.3783085227 -0.2021196763 0.3784487868 -0.2020267753 -0.2571200334 0.1442167454
245298530.0 -0.2424934997 0.1455508065 0.3755344776 -0.2064549281 0.3758663365 -0.2067696204 -0.2556432317 0.1469527463
250298500.0 -0.2417969628 0.148210905 0.3737665567 -0.2104566147 0.3741045811 -0.210326436 -0.2537819075 0.1496393028
255298470.0 -0.2398486746 0.1509236493 0.3709525008 -0.2152281179 0.371314099 -0.2150356462 -0.2524036624 0.1522659635
260298440.0 -0.2385377781 0.1536518531 0.3690659682 -0.2191501799 0.3690302555 -0.219366071 -0.2509721297 0.154735718
265298410.0 -0.2372893347 0.1562165582 0.3665901783 -0.2235579882 0.3663503082 -0.2231427052 -0.2495786112 0.157348156
270298380.0 -0.2354659852 0.1585429348 0.363966874 -0.2276460709 0.3640119169 -0.227775978 -0.2475773606 0.1603137063
275298350.0 -0.2340949795 0.1613709669 0.3615681228 -0.2321055825 0.3618566949 -0.2319039678 -0.2460844337 0.1631664671
280298320.0 -0.2325296721 0.1637772857 0.3588796748 -0.2352365126 0.3588711892 -0.2357276261 -0.2446451433 0.1658730856
285298290.0 -0.230775359 0.1666597907 0.3561175192 -0.2399379331 0.3565123879 -0.2401073417 -0.2429002081 0.1684275731
290298260.0 -0.2294802278 0.1688901515 0.3539321154 -0.2438470902 0.3539256859 -0.2439689843 -0.2411413708 0.1713031613
295298230.0 -0.2274926693 0.1715458648 0.3510792537 -0.2479182137 0.3511902446 -0.247869836 -0.2393373802 0.1736751383
300298200.0 -0.2254390405 0.1737928702 0.3480427736 -0.2519241339 0.3482715166 -0.2522045123 -0.2375535977 0.1767112508
305298170.0 -0.2241143289 0.1761771641 0.3460797537 -0.2558245154 0.3459208403 -0.2559385792 -0.2353719038 0.1788447994
310298140.0 -0.2218166124 0.1781847929 0.3429911369 -0.2599508201 0.3426697119 -0.2604142803 -0.2338007969 0.1819736968
315298110.0 -0.220606627 0.1810387072 0.3398310148 -0.2638088369 0.3401654548 -0.2638149593 -0.2316525033 0.1843041194
320298080.0 -0.2189216734 0.1833501938 0.3369270185 -0.2677578974 0.337412586 -0.2677013595 -0.2296962198 0.1867052256
325298050.0 -0.2169980135 0.1857179651 0.3343565834 -0.2716811683 0.3340518954 -0.2717026723 -0.2279913881 0.1894416457
330298020.0 -0.2152758609 0.1881453095 0.3309159643 -0.2751748579 0.3307134649 -0.2753647894 -0.226109786 0.1918907557
335297990.0 -0.2132143592 0.1901756604 0.327366682 -0.2791266857 0.3275569312 -0.2791860804 -0.2245581187 0.1943745846
340297960.0 -0.2121411502 0.192834754 0.3244479871 -0.2825663444 0.3244771181 -0.2824839781 -0.2225021619 0.196836876
345297930.0 -0.2101688617 0.1950179092 0.3211916192 -0.2858916118 0.3207321618 -0.2861413757 -0.2203102058 0.1994569382
350297900.0 -0.2077379725 0.1978079175 0.317884556 -0.2895575803 0.3183799396 -0.2897038835 -0.2187295417 0.2022029206
355297870.0 -0.205763513 0.2000019924 0.3145968401 -0.2932507609 0.3146812554 -0.2932472133 -0.216525145 0.2048549
360297840.0 -0.203869778 0.2023784268 0.3111622368 -0.2968637912 0.311106495 -0.2966590201 -0.2143929895 0.2073380795
365297810.0 -0.2017841335 0.204554058 0.307923866 -0.2998933262 0.3081741076 -0.3000243664 -0.2124666719 0.2098775623
370297780.0 -0.1996161379 0.2065929837 0.3045161719 -0.3032264596 0.3045559537 -0.3036878584 -0.2099851075 0.2121525329
375297750.0 -0.1974046552 0.2093949146 0.3014885307 -0.3067051781 0.3012516298 -0.3072809584 -0.2078565936 0.21486783
380297720.0 -0.1952915184 0.2113258554 0.2979989589 -0.3098367779 0.2978847659 -0.3100051057 -0.2053764928 0.2175020106
385297690.0 -0.1930928352 0.2137413968 0.2943613448 -0.3128735115 0.2945518032 -0.313207564 -0.2036584386 0.2198283269
390297660.0 -0.1910024709 0.2158531017 0.2907120923 -0.3163618838 0.2912886172 -0.3170803757 -0.2015989057 0.2221293037
395297630.0 -0.1887545493 0.2180117742 0.2873812947 -0.3192363802 0.2874516235 -0.3198123933 -0.1991144614 0.2250047188
400297600.0 -0.1865952643 0.2204570613 0.283886158 -0.3227192683 0.2841652221 -0.3230441131 -0.197232683 0.2267235238
405297570.0 -0.1843442868 0.2224246606 0.2802667186 -0.3257220212 0.2803262744 -0.3260077005 -0.1947144563 0.2290907084
410297540.0 -0.1817962692 0.2248382244 0.2764338814 -0.3291520248 0.2765985154 -0.3291266565 -0.1923992262 0.2314921652
415297510.0 -0.1793728704 0.2265402561 0.2730900176 -0.3316416294 0.2732954319 -0.3318739292 -0.1901119411 0.2340516036
420297480.0 -0.1772560896 0.2285868302 0.2691173736 -0.3349520001 0.2691688268 -0.3348538413 -0.1871156471 0.2359195869
425297450.0 -0.1746180967 0.2305355904 0.2651867265 -0.3378344968 0.2658443959 -0.3377735081 -0.1851697888 0.2384022293
430297420.0 -0.1727755415 0.2327391295 0.2621515446 -0.3408508311 0.2621686634 -0.3406034289 -0.1829459778 0.2402518175
435297390.0 -0.1700437157 0.2348967551 0.2582874964 -0.3434237752 0.2584024752 -0.3433572928 -0.1801876741 0.2425047773
440297360.0 -0.1674300154 0.2365449035 0.2541517209 -0.3462521507 0.254017669 -0.3462658188 -0.1774924442 0.244368072
445297330.0 -0.1647428372 0.2385639261 0.2499976477 -0.3493906269 0.2501987966 -0.348933127 -0.1750941095 0.2465074621
450297300.0 -0.162227891 0.240062929 0.2461894999 -0.3514963019 0.2467149361 -0.3519118717 -0.1727613805 0.2487294121
455297270.0 -0.1598055954 0.2422086979 0.2427847266 -0.354237317 0.2432608747 -0.3541640889 -0.1703696841 0.2506961383
460297240.0 -0.1575404444 0.244243046 0.2387548937 -0.3564666238 0.2381979823 -0.3569362368 -0.1669670786 0.2530960261
465297210.0 -0.1545218377 0.2459321101 0.2349530914 -0.3595928846 0.2350503334 -0.3596904608 -0.165000348 0.2543878965
470297180.0 -0.1520748624 0.2474847851 0.2310309344 -0.3620199561 0.2312855787 -0.3621666225 -0.1627402943 0.2565720509
475297150.0 -0.14968592 0.2495009077 0.2267609051 -0.3643747174 0.2273393358 -0.3639992102 -0.1596605805 0.2582433011
480297120.0 -0.147054625 0.2507799722 0.2227924778 -0.3669892076 0.2231041503 -0.3667937592 -0.1573644761 0.2608007157
485297090.0 -0.1440207281 0.2525122163 0.2189274402 -0.3692844494 0.2190969798 -0.3692466384 -0.1544915288 0.2622478524
490297060.0 -0.1414489952 0.2540512093 0.2146887902 -0.3714944767 0.2147337358 -0.371319772 -0.1519055113 0.2638647509
495297030.0 -0.1391908705 0.2562826138 0.2103625482 -0.3738742176 0.2103124013 -0.3741788021 -0.1488977398 0.2654781737
500297000.0 -0.1359220543 0.2575777107 0.2063835989 -0.376026928 0.206618867 -0.375915927 -0.1466580874 0.26727324
505296970.0 -0.133487333 0.2590180739 0.2019279284 -0.3780401124 0.2024294397 -0.3779762175 -0.1441643273 0.2693734726
510296940.0 -0.1308405757 0.2608500323 0.1981614476 -0.3805772022 0.1984048634 -0.3807822494 -0.1409962128 0.2715075604
515296910.0 -0.1284725673 0.2626360391 0.1936571408 -0.382364153 0.1942025449 -0.3825766056 -0.138053183 0.2727108234
520296880.0 -0.1254788227 0.2638732832 0.1897465461 -0.3844640613 0.1898989126 -0.3843974186 -0.1351457587 0.2743207888
525296850.0 -0.1225759362 0.2653413137 0.1856248105 -0.3863046532 0.1854339113 -0.3869427969 -0.1322370294 0.2757786022
530296820.0 -0.1199930103 0.2666571776 0.1816896522 -0.387752176 0.1813992204 -0.3883135301 -0.1298590919 0.2772514321
535296790.0 -0.1171763984 0.2681779174 0.177244815 -0.3902555893 0.1774051558 -0.3899855112 -0.1268721543 0.2789822526
540296760.0 -0.1142619635 0.2693149437 0.1727957661 -0.3923762032 0.1725486318 -0.3922679093 -0.1239013424 0.2806653849
545296730.0 -0.1113127259 0.2707643877 0.1686699855 -0.3939479483 0.168825483 -0.3941020499 -0.1214270043 0.2814757595
550296700.0 -0.1085477433 0.2721574204 0.1643784437 -0.3955845166 0.1644259431 -0.3963815161 -0.1184309836 0.2836169778
555296670.0 -0.1051276024 0.273161049 0.1598385727 -0.3975156915 0.1602436348 -0.3974990412 -0.115574803 0.2848707351
560296640.0 -0.1025705868 0.2746699352 0.1555884507 -0.3992914403 0.1559131125 -0.3989623138 -0.1125495726 0.2862351443
565296610.0 -0.1000993371 0.2759583444 0.1513243106 -0.4008504047 0.1509430316 -0.4008780062 -0.109509455 0.2873663172
570296580.0 -0.0972933069 0.2770210603 0.1468947259 -0.4022781157 0.1471766512 -0.4023755769 -0.1065106391 0.289121682
575296550.0 -0.0940980621 0.2782182711 0.1422865032 -0.4036683783 0.1428778376 -0.4035783558 -0.103469674 0.2900065914
580296520.0 -0.0911915371 0.2792977771 0.138072859 -0.4055559985 0.1381716195 -0.4054242357 -0.10071951 0.2911029885
585296490.0 -0.0880577332 0.280184714 0.1339298646 -0.4068775538 0.1338455162 -0.4067099788 -0.097621104 0.2921663885
590296460.0 -0.0854124512 0.2814183075 0.1290404253 -0.4081133168 0.129224578 -0.4082354958 -0.0945433918 0.2934361524
595296430.0 -0.0821049957 0.2827568659 0.1248131662 -0.4098361964 0.1246745117 -0.4100976344 -0.0916501186 0.2948246403
600296400.0 -0.0792510428 0.2834949423 0.1202320184 -0.4109278985 0.1206635169 -0.4110703189 -0.0882534167 0.2960877697
605296370.0 -0.0761362174 0.284627162 0.115757672 -0.4122060321 0.1157862459 -0.4121739981 -0.0851857875 0.2969391768
610296340.0 -0.0733786871 0.2856804119 0.1118396315 -0.4131111524 0.1118077403 -0.4136107824 -0.0821329537 0.2984627297
615296310.0 -0.0703256054 0.2866162104 0.1070345354 -0.4144420546 0.1067618055 -0.4143416627 -0.0793207273 0.2989797181
620296280.0 -0.0670294405 0.2873306741 0.102683611 -0.4155471743 0.1024371981 -0.4156683323 -0.0762438058 0.3001577505
625296250.0 -0.0642381099 0.2882447683 0.0975187344 -0.4167894132 0.0979105639 -0.4171032164 -0.07294957 0.3010874057
630296220.0 -0.0610589238 0.2889130185 0.0932611602 -0.4173903115 0.0938645015 -0.4178810938 -0.0700658908 0.3024439362
635296190.0 -0.0581116808 0.2899301414 0.0888128441 -0.4182316432 0.0889971733 -0.4182594183 -0.066835503 0.3027468508
640296160.0 -0.0552560258 0.2902989933 0.0845068419 -0.4193625217 0.0839304445 -0.4196975478 -0.0633919823 0.3038694954
645296130.0 -0.051896952 0.2915709137 0.0794974737 -0.420546659 0.0798454848 -0.4203737451 -0.0607529764 0.3042098683
650296100.0 -0.0489943874 0.2922974388 0.0755738775 -0.4209637351 0.0753971499 -0.4209847876 -0.0575839425 0.3054926611
655296070.0 -0.0457331125 0.2925063931 0.0705435472 -0.421621554 0.0704518779 -0.4215675509 -0.0540392435 0.3060211423
660296040.0 -0.0430136329 0.2934912172 0.0662811801 -0.4223581891 0.0663209483 -0.4223107246 -0.0513527898 0.3066746068
665296010.0 -0.0398174778 0.2940862598 0.0615545341 -0.4230366784 0.0621370127 -0.4231508652 -0.0484772049 0.3075920291
670295980.0 -0.0363798224 0.294440034 0.0569221344 -0.4237232864 0.0573191235 -0.4237469622 -0.0454444534 0.3080814835
675295950.0 -0.0334554797 0.2949231523 0.0520082252 -0.4242325281 0.0522942382 -0.4247454008 -0.0413884974 0.3090155819
680295920.0 -0.030257497 0.2957191175 0.0474537491 -0.4247687875 0.0474097239 -0.4248054685 -0.0385163859 0.3092222813
685295890.0 -0.0268723285 0.2958292579 0.0430996961 -0.4252458468 0.0428614108 -0.4258679097 -0.035312656 0.3100207016
690295860.0 -0.0239329506 0.2966671704 0.0387871837 -0.4255131293 0.038085523 -0.4253278384 -0.0317832825 0.3105468311
695295830.0 -0.0203777742 0.296697169 0.0330666258 -0.4259326252 0.0336334264 -0.4263540321 -0.029176569 0.3109952412
700295800.0 -0.017369592 0.2973715397 0.0290467387 -0.4263145234 0.02912303 -0.4266043483 -0.0257097239 0.3106650372
705295770.0 -0.0143150244 0.2976971653 0.0245733831 -0.4265655996 0.0244814647 -0.4265647844 -0.0225060322 0.3119584118
710295740.0 -0.0112435813 0.2979328134 0.0199215405 -0.4269551254 0.0200292559 -0.4267231085 -0.0198472319 0.3122229391
715295710.0 -0.0081074353 0.2982024491 0.0149216815 -0.4267553516 0.0156382027 -0.4271266272 -0.0162552482 0.3124724958
720295680.0 -0.005167737 0.2981796562 0.0105118279 -0.4268474041 0.0106716568 -0.4275734128 -0.0125951081 0.3132234423
725295650.0 -0.0016530515 0.2988040314 0.0057637229 -0.4267960532 0.0057202874 -0.4270605667 -0.0096256443 0.3132743763
730295620.0 0.0011332191 0.2985842663 0.0012612932 -0.4270680572 0.0010507391 -0.4271846654 -0.0064308538 0.3131622171
735295590.0 0.0048904648 0.2989711972 -0.0031932674 -0.4270658163 -0.0027999227 -0.4271659911 -0.0028715624 0.313189987
740295560.0 0.0079176408 0.2990650582 -0.007779779 -0.4265485626 -0.0081268783 -0.427158396 0.0002596982 0.3134080699
745295530.0 0.0108915198 0.2987494459 -0.0123893619 -0.4266750864 -0.012343027 -0.4272398823 0.0034359031 0.3137619735
750295500.0 0.0141706084 0.2989286886 -0.0172635951 -0.4264097621 -0.0169620149 -0.4263205229 0.00666425 0.3133782438
755295470.0 0.017845731 0.299110093 -0.0218401907 -0.4264630417 -0.0213415112 -0.4263325761 0.0095668613 0.3139287146
760295440.0 0.0204552931 0.2990326817 -0.0262219585 -0.4261922911 -0.0260151648 -0.4260717772 0.0125655185 0.3140176868
765295410.0 0.0235835763 0.2986653543 -0.0306905349 -0.4255846844 -0.0309423929 -0.4257736145 0.0167668818 0.3139418835
770295380.0 0.0268424059 0.2989401585 -0.0354444387 -0.424944064 -0.0353910104 -0.4252669175 0.0198722285 0.3137630892
775295350.0 0.0298835121 0.2987130264 -0.0402551357 -0.4245849843 -0.0399414187 -0.4249440744 0.0225287288 0.3129629441
780295320.0 0.0332866178 0.2982261912 -0.0445049249 -0.4243061448 -0.044401653 -0.4246351281 0.0260341774 0.3138388478
785295290.0 0.0363368954 0.2984345173 -0.0493089718 -0.4232452022 -0.0488495267 -0.4237445534 0.0289455623 0.3135041655
790295260.0 0.0392496257 0.2982349547 -0.0535621003 -0.4231713287 -0.053798352 -0.4235596036 0.0326196965 0.3134926155
795295230.0 0.0424891749 0.2977871465 -0.0577749746 -0.4219758769 -0.0580622939 -0.4228628174 0.0358108167 0.3136188179
800295200.0 0.0459071386 0.2978552167 -0.0629610381 -0.4221216767 -0.0630476321 -0.4218612985 0.0391091571 0.3125665815
805295170.0 0.0485224208 0.2971876998 -0.0673480758 -0.4208407967 -0.0673399482 -0.4211170935 0.0419917698 0.312245303
810295140.0 0.052028481 0.2969206767 -0.0717890336 -0.4204212939 -0.071699629 -0.4207922151 0.0454820331 0.3127455938
815295110.0 0.0549956578 0.2964938093 -0.0764395735 -0.4193628621 -0.0766915642 -0.4192362629 0.0485700293 0.3118056427
820295080.0 0.0582476947 0.2957355913 -0.0811350083 -0.4185833108 -0.0810349609 -0.4187390334 0.0516557588 0.3113686177
825295050.0 0.0614465747 0.2954285898 -0.0855168497 -0.4170596151 -0.0854801935 -0.4175682437 0.0553249421 0.3111842192
830295020.0 0.0647259462 0.2949573511 -0.0898535121 -0.4161704831 -0.0899698154 -0.4169022494 0.058384819 0.3105957617
