!Created with skrf (http://scikit-rf.org).
# Hz S RI R 50.0 
!freq ReS11 ImS11 ReS21 ImS21 ReS12 ImS12 ReS22 ImS22
300000.0 -0.7741392699 -0.182216478 -0.0011001921 0.0009610502 7.6579e-06 0.0005910619 0.8599521019 -0.002433275
5299970.0 -0.7863373604 -0.0095695217 6.34286e-05 -0.0001708682 -3.8846e-06 -0.0001976349 0.8591731823 -0.0101903789
10299940.0 -0.7894071036 -0.006079332 1.39379e-05 -8.89216e-05 1.21598e-05 -2.97051e-05 0.858407446 -0.0190372918
15299910.0 -0.7942998494 -0.0037338327 -3.5766e-05 4.30541e-05 -9.38938e-05 0.0003209503 0.8575940166 -0.0274687287
20299880.0 -0.8011234734 0.0003759381 4.35001e-05 0.0001892559 -0.0001094716 -0.0001759435 0.8564133942 -0.0359510899
25299850.0 -0.8074421653 0.0066301994 -5.49763e-05 -0.0001634312 0.000120177 3.86018e-05 0.8555404512 -0.0438412551
30299820.0 -0.8141521468 0.0138445998 -0.0001254394 -0.0001387684 -5.07593e-05 0.0001416155 0.8554571185 -0.052800619
35299790.0 -0.8186046364 0.0235557787 1.5093e-05 0.0001564908 -5.52419e-05 -0.0002082432 0.8548751802 -0.0611036661
40299760.0 -0.823964715 0.0320647254 1.61934e-05 3.74299e-05 -2.69048e-05 0.0002475053 0.8539925424 -0.0688609473
45299730.0 -0.8264950511 0.0419533407 -9.0776e-06 -5.88598e-05 -9.79495e-05 -1.6277e-06 0.8524138985 -0.0775834826
50299700.0 -0.8293197524 0.0518395228 9.604e-07 -2.6597e-06 -0.0002797658 5.04435e-05 0.8524693834 -0.0860242765
55299670.0 -0.8312487637 0.0614212812 6.54645e-05 -5.99215e-05 6.25405e-05 7.56675e-05 0.8507052895 -0.0934633412
60299640.0 -0.8327238087 0.0718124826 4.81214e-05 6.35486e-05 -7.46528e-05 -0.0001416228 0.8500200937 -0.1023753447
65299610.0 -0.8337526187 0.0819575363 -0.0001396971 3.94321e-05 -0.0001731958 8.80048e-05 0.8491166274 -0.1101085167
70299580.0 -0.8337693373 0.0916875755 0.0001205199 0.0001748036 1.09197e-05 0.0001391385 0.8477899303 -0.1184010982
75299550.0 -0.8341349801 0.1017842406 0.0001204339 -1.79764e-05 9.58594e-05 -4.44238e-05 0.8461510062 -0.1267976916
80299520.0 -0.8335399627 0.1119516773 0.0001060212 0.0001874532 -5.40328e-05 -0.0001642842 0.8451789363 -0.1355837389
85299490.0 -0.8329447995 0.1212501771 -0.0001285782 -7.80239e-05 -5.10428e-05 0.00013445 0.8437325745 -0.1431445806
90299460.0 -0.832292505 0.1314340902 -0.0002240995 -4.80511e-05 1.64921e-05 -0.0001047277 0.8418979934 -0.1518598594
95299430.0 -0.8315358769 0.1411632918 -0.0001448707 9.46738e-05 -7.15368e-05 -0.0001581906 0.840814234 -0.1598864583
100299400.0 -0.8303796844 0.1500852957 5.4176e-05 -1.29085e-05 4.83548e-05 -9.01735e-05 0.8385498558 -0.1680056394
105299370.0 -0.8287266454 0.1593990626 1.91234e-05 -9.20452e-05 7.43975e-05 -0.0001218808 0.8374856375 -0.1766821214
110299340.0 -0.8280032124 0.168042698 -1.02375e-05 4.03476e-05 1.09838e-05 8.55529e-05 0.8354087168 -0.184532171
115299310.0 -0.8262288762 0.1772581836 -0.0001379369 -3.1011e-05 8.86419e-05 -2.4864e-05 0.8334538864 -0.1927580656
120299280.0 -0.8247466304 0.1867035471 -2.25518e-05 -1.84666e-05 -9.86915e-05 4.0165e-06 0.8314151002 -0.2005525479
125299250.0 -0.8223115592 0.1957269978 -5.81368e-05 1.92086e-05 8.4558e-05 -0.0001979213 0.8295475519 -0.2089564024
130299220.0 -0.8207381299 0.2055695894 -0.0001287327 5.4282e-05 -0.000116882 0.0001045679 0.8277179296 -0.2167834334
135299190.0 -0.818810854 0.2146745761 0.0001826237 -0.0001599264 0.0001537034 -4.02216e-05 0.8253706892 -0.2249919661
140299160.0 -0.8171502391 0.2231886061 9.358e-07 5.9903e-05 -7.35759e-05 8.25596e-05 0.8231392683 -0.2330886298
145299130.0 -0.8148627386 0.2322489115 -0.0001044356 -4.78107e-05 0.000239099 -0.0001992139 0.8208520532 -0.2413517409
150299100.0 -0.8118444384 0.2408570165 6.72573e-05 -4.00171e-05 3.7734e-05 -3.7362e-05 0.8182093897 -0.248873273
155299070.0 -0.810151502 0.2502103231 -3.18916e-05 6.32402e-05 -3.14836e-05 3.81379e-05 0.8157407712 -0.2571759815
160299040.0 -0.807545294 0.2590149135 -1.36341e-05 8.34105e-05 2.02753e-05 -0.0001256548 0.8128217595 -0.2654581303
165299010.0 -0.8047008303 0.2679669401 -4.49231e-05 -5.09888e-05 -5.91272e-05 -5.2219e-06 0.810562176 -0.2731964079
170298980.0 -0.8019364757 0.2767540701 4.84625e-05 0.0001014941 2.7513e-05 -8.66436e-05 0.8073236826 -0.2813121183
175298950.0 -0.7989638611 0.284194828 -0.0001572705 -0.0001772384 7.55584e-05 -2.38597e-05 0.8047923379 -0.2888868792
180298920.0 -0.7961601643 0.2935102931 0.0001266202 6.60987e-05 -0.0002041924 0.0001389301 0.8017904696 -0.2969278471
185298890.0 -0.7928717163 0.3019027616 6.34767e-05 -9.54525e-05 3.76592e-05 -3.41119e-05 0.7991078847 -0.3044880541
190298860.0 -0.7893362938 0.3114264351 -0.0001300579 -3.26078e-05 -0.0001418186 -9.56503e-05 0.7955092149 -0.3126806754
195298830.0 -0.786527931 0.319238596 -0.0001704405 0.000266127 0.0001064928 -2.8924e-05 0.7929276829 -0.3200030918
200298800.0 -0.7833220661 0.327589299 6.90517e-05 8.3258e-06 -0.0001318936 3.02516e-05 0.7897839015 -0.327965475
205298770.0 -0.7796341187 0.3361739926 0.0001315581 2.49745e-05 7.08736e-05 0.0001363847 0.7862522305 -0.3361548767
210298740.0 -0.7759128472 0.3446366298 8.29743e-05 -9.68192e-05 4.3833e-06 -3.16123e-05 0.7832827236 -0.3436491582
215298710.0 -0.772327852 0.3531441387 5.4268e-06 -7.515e-05 8.26873e-05 0.0001260855 0.7792401448 -0.3510539787
220298680.0 -0.7681655475 0.3605064548 0.0001224126 4.8645e-06 -6.83275e-05 -9.09171e-05 0.7759418207 -0.3584785839
225298650.0 -0.7647646939 0.3695472446 8.34796e-05 -2.14214e-05 9.4348e-06 -0.0002237051 0.772287546 -0.3664513336
230298620.0 -0.7613393573 0.3778565595 3.88038e-05 -8.8373e-05 -0.0001690163 0.0001219015 0.7688962491 -0.3735987452
235298590.0 -0.7573710328 0.3859309199 -3.78005e-05 -1.66235e-05 -0.0001532947 -4.68718e-05 0.7650670448 -0.3808741096
240298560.0 -0.7531377449 0.3934126122 -0.0001595026 -1.1514e-06 9.19644e-05 -0.000167419 0.7618157428 -0.3883183707
245298530.0 -0.7490299544 0.4012925447 0.0001581052 -0.0002212043 6.13696e-05 0.0001903045 0.7574035317 -0.3956843087
250298500.0 -0.7445004783 0.4092636417 0.0001058499 0.0001398814 -3.08877e-05 0.0001952694 0.7534237595 -0.4031191695
255298470.0 -0.7404307192 0.4175262523 -7.29036e-05 7.42011e-05 0.000150887 -8.40597e-05 0.7497139614 -0.4107207818
260298440.0 -0.7362909038 0.4252381898 -0.000117237 0.0001786449 -6.51282e-05 -0.0001608881 0.7449215501 -0.4183049745
265298410.0 -0.7318013575 0.4328250446 -0.0001080937 0.0001004198 0.0001295574 -2.71697e-05 0.7415067048 -0.4248524975
270298380.0 -0.7275872884 0.4407754577 0.0002494579 -7.21615e-05 -0.0001672054 9.36311e-05 0.737610829 -0.4324334435
275298350.0 -0.722922968 0.4479813237 0.0001247893 1.33697e-05 0.0001541132 0.0001742936 0.7325290898 -0.4396299737
280298320.0 -0.718176142 0.4556215735 -5.84092e-05 4.96955e-05 -7.34474e-05 0.0001929146 0.7286942726 -0.4467515188
285298290.0 -0.7133663788 0.4636479932 -0.0001612445 -0.0001827702 -0.0002339345 -1.46585e-05 0.7245167398 -0.4538845323
290298260.0 -0.7081861997 0.4709223701 0.0002301442 1.05713e-05 0.0001229974 -3.14952e-05 0.7197908938 -0.4608219116
295298230.0 -0.703543242 0.4785493271 0.0001753152 5.242e-05 0.000167775 0.0001034736 0.7162215881 -0.4678588525
300298200.0 -0.6993486105 0.4857100641 0.0001349946 -0.0001562173 4.2786e-06 -6.0582e-06 0.7114294703 -0.4750831628
305298170.0 -0.6947084076 0.492202744 0.0002254078 9.93092e-05 -5.42631e-05 7.46485e-05 0.7060435219 -0.4821269193
310298140.0 -0.6891747534 0.4995896845 -4.75295e-05 -0.0001277323 -0.0001302282 4.01692e-05 0.7024346099 -0.4892592901
315298110.0 -0.6848189805 0.5071579647 0.0001350014 8.46158e-05 -0.0001651892 -9.74413e-05 0.6974188415 -0.4966586395
320298080.0 -0.6793840885 0.5140451514 -0.0001428894 6.42764e-05 3.72117e-05 2.19045e-05 0.692469673 -0.5041487683
325298050.0 -0.6732909237 0.5212731138 -4.2127e-06 -2.23911e-05 -2.8964e-05 7.53087e-05 0.6874751148 -0.5119328579
330298020.0 -0.6687414654 0.5280104453 -0.0001950399 -8.9681e-06 0.000106387 6.74715e-05 0.6821333504 -0.5193969824
335297990.0 -0.6630071349 0.5351584524 -9.64234e-05 -9.97469e-05 2.00312e-05 7.7685e-05 0.6758462862 -0.5260156395
340297960.0 -0.6575499144 0.5415813532 -8.46985e-05 0.0001261997 -0.0001078277 0.0001426856 0.6700111515 -0.532155738
345297930.0 -0.6522552948 0.5490388431 0.0002870243 -7.10577e-05 8.28452e-05 -0.0001582724 0.6645786018 -0.5386974063
350297900.0 -0.6464002546 0.5549883991 -0.0001567268 -0.0001594425 4.4839e-06 4.32284e-05 0.6581638239 -0.5449061302
355297870.0 -0.640998618 0.5612168242 -0.0002515937 -1.97653e-05 4.5565e-06 -8.1876e-06 0.6528722731 -0.5512660229
360297840.0 -0.6347520727 0.5682955593 0.0002856757 -3.9418e-05 -0.0001285202 -7.4571e-05 0.6469722739 -0.5571489747
365297810.0 -0.6298971769 0.5748825083 5.19238e-05 -0.0001813298 4.77525e-05 0.0001565362 0.6411650389 -0.5632242884
370297780.0 -0.6237518857 0.581200117 6.1722e-05 0.0001405041 0.000184237 -4.61316e-05 0.6354252498 -0.569030362
375297750.0 -0.6175468311 0.5869982404 3.30858e-05 -1.52003e-05 -0.000128505 -0.0002100034 0.6298499627 -0.575708202
380297720.0 -0.6121726908 0.5933620429 0.0001500673 0.0001683998 -0.0001301489 -0.0001284975 0.6241111445 -0.5811854298
385297690.0 -0.6059536921 0.5994438347 0.0001377961 -4.56145e-05 3.37576e-05 0.0001088054 0.6183039754 -0.587591275
390297660.0 -0.5987299349 0.6058459892 -1.92494e-05 -8.69594e-05 -6.9227e-06 -3.32375e-05 0.6123413858 -0.5929208996
395297630.0 -0.5928993833 0.6121199684 0.0001673768 -0.0001120786 4.82934e-05 6.47039e-05 0.6067227532 -0.5990511737
400297600.0 -0.5868412528 0.6184809401 -0.0001638878 -0.000231312 -7.30596e-05 -1.29786e-05 0.6005089479 -0.6043939236
405297570.0 -0.5809127723 0.6238661656 -4.8271e-06 -0.0001766872 0.0002226398 0.0001140916 0.5943172551 -0.610692204
410297540.0 -0.5736009404 0.6298315662 -0.0001760737 0.0002580578 -8.02631e-05 0.0002315195 0.5883030685 -0.6167547045
415297510.0 -0.5677799331 0.6357851352 0.0001151936 -6.7888e-05 -0.0002595844 -4.81808e-05 0.5821776226 -0.6220528275
420297480.0 -0.5608983916 0.6409785679 9.64275e-05 -5.39934e-05 -0.0001705395 -0.000124147 0.5764191191 -0.6271363621
425297450.0 -0.5543317035 0.6466649743 1.49279e-05 -6.29373e-05 -7.9718e-05 -0.000161362 0.5699686071 -0.6335276522
430297420.0 -0.5481397774 0.6519427039 -6.02274e-05 9.55814e-05 2.24969e-05 -4.92851e-05 0.5637083869 -0.6389483304
435297390.0 -0.5413249718 0.6575072287 -1.4201e-06 4.44515e-05 2.91698e-05 0.0001052726 0.5570364822 -0.6444721105
440297360.0 -0.5340948213 0.6625749937 -0.0002348407 -2.08041e-05 -0.0001646142 -6.78536e-05 0.551140839 -0.6493323384
445297330.0 -0.5273528838 0.6683504637 0.0002048819 0.0001426346 -0.0001687496 -0.0001536576 0.5440193591 -0.6540667872
450297300.0 -0.5202726943 0.6741414005 -0.0002291699 8.74057e-05 -0.0001536797 -1.37261e-05 0.5376500869 -0.6598159892
455297270.0 -0.5138328779 0.6783517377 -0.000294105 7.06041e-05 -0.0003720295 1.3023e-06 0.5310775484 -0.6647315428
460297240.0 -0.5055876328 0.6842377205 0.0001393771 -3.16982e-05 -0.0002301523 0.0001126987 0.5239522525 -0.6705843624
465297210.0 -0.4992309025 0.6890232733 0.0001091728 -0.0002622244 5.3957e-06 -0.0001531298 0.5174815725 -0.6745523266
470297180.0 -0.4918878499 0.6946657022 -5.37267e-05 8.01164e-05 -0.0001726526 5.03863e-05 0.5108859901 -0.6806403252
475297150.0 -0.4845076156 0.69918763 -0.0001509065 4.94081e-05 0.000237752 -2.52401e-05 0.5051431332 -0.6850984193
480297120.0 -0.4767807432 0.7041918408 -0.0001219182 -0.0001057321 -5.63479e-05 -5.56935e-05 0.4972342621 -0.690005806
485297090.0 -0.4697054588 0.7083537104 -0.0001435478 0.0001082085 -0.0001393935 8.51831e-05 0.4906852958 -0.6951756071
490297060.0 -0.4623139174 0.7138552485 -2.47317e-05 3.55744e-05 0.0001080963 -5.50392e-05 0.4833769203 -0.6995051681
495297030.0 -0.4550628266 0.7180245188 9.6207e-05 0.0001126645 -7.69506e-05 -0.0001342666 0.4762566688 -0.704520112
500297000.0 -0.4473836467 0.7222634992 -7.80627e-05 0.0001005546 -0.0002211164 0.0002162257 0.4695912978 -0.7087204765
505296970.0 -0.4395753836 0.7271378789 -0.0001400585 0.0001305906 -7.48071e-05 -1.05833e-05 0.4623186685 -0.7132086203
510296940.0 -0.4319205182 0.7317364243 0.0002372166 -9.1077e-05 -3.51149e-05 3.76657e-05 0.4547695853 -0.7173266396
515296910.0 -0.4241660432 0.735538922 -0.0001247887 0.0001165415 0.0001817007 0.0001567089 0.4479117064 -0.7224313462
520296880.0 -0.4166700702 0.7396967312 -4.02675e-05 3.74003e-05 0.0001831411 -9.35615e-05 0.4414885284 -0.7266084695
525296850.0 -0.4083634916 0.744155234 0.0003156134 0.0001016759 -6.83937e-05 -0.0001834112 0.4340195241 -0.7309498121
530296820.0 -0.4012358105 0.7481752066 -1.84048e-05 -0.0001252149 -7.15132e-05 -6.53837e-05 0.4266134059 -0.7352018719
535296790.0 -0.3931037508 0.7518506553 -0.0001287426 -0.0001401563 -0.0001333749 -8.4916e-06 0.4199195318 -0.7383867194
540296760.0 -0.3849690148 0.7558945558 -3.7203e-05 -0.0001331635 0.0001133573 -4.42451e-05 0.4118010546 -0.7429082573
545296730.0 -0.3776138921 0.7604064342 6.26495e-05 3.93525e-05 -1.54049e-05 5.32171e-05 0.404534606 -0.7469738175
550296700.0 -0.3694377732 0.7634627628 9.41109e-05 -9.23033e-05 -9.88692e-05 -0.0002040701 0.3967635243 -0.7502739059
555296670.0 -0.3612109615 0.7675195782 -0.0001219499 -4.3899e-06 -9.05e-07 0.000122894 0.3892970959 -0.7544974355
560296640.0 -0.3530831426 0.7706254765 -4.70879e-05 -0.0001046627 1.00124e-05 0.0001655335 0.3819389172 -0.7582463912
565296610.0 -0.3454749163 0.7743433359 -0.0001077368 -2.38199e-05 -6.18262e-05 -2.46e-08 0.3747616435 -0.7615453241
570296580.0 -0.337082844 0.7778142974 -5.73501e-05 -2.49269e-05 -2.24082e-05 0.0002081023 0.3665254017 -0.7656948846
575296550.0 -0.3283931457 0.7816519426 3.7238e-06 -2.11062e-05 -1.80202e-05 6.23541e-05 0.3588992308 -0.7688751125
580296520.0 -0.3214996325 0.7845979894 1.07588e-05 -6.21936e-05 3.36534e-05 -1.5488e-06 0.3509782326 -0.7725165574
585296490.0 -0.3124766415 0.7881051513 -8.5545e-06 0.0002518988 -0.0003658517 -4.95023e-05 0.3437332684 -0.774892466
590296460.0 -0.3040436305 0.7909315861 5.65834e-05 7.73584e-05 5.51455e-05 -0.0001412931 0.3351861588 -0.7788870765
595296430.0 -0.2957798256 0.7942415863 -0.0001479627 7.4155e-05 7.082e-06 0.0001397058 0.3282251926 -0.7823090861
600296400.0 -0.2883976645 0.7968680201 -9.10778e-05 -0.0001053966 -0.0001485046 -1.52e-05 0.3205863593 -0.7850896653
605296370.0 -0.280135874 0.7994644933 7.4049e-05 -7.55967e-05 8.1943e-05 0.0001408546 0.3127162742 -0.7879648388
610296340.0 -0.2715088333 0.8030310536 0.0002119177 0.0001289633 -9.30568e-05 0.0001323796 0.3045088962 -0.7907220579
615296310.0 -0.2627126797 0.8057167411 0.0001176258 8.64217e-05 6.1274e-05 -0.0001322822 0.2968350283 -0.7937099248
620296280.0 -0.2552208265 0.8084893687 6.24233e-05 0.0001097596 -0.0003382526 -2.67219e-05 0.2884081343 -0.7958769995
625296250.0 -0.2470165465 0.8102524905 -4.35586e-05 3.14578e-05 -0.0002046067 0.0001056962 0.2808070591 -0.7992456424
630296220.0 -0.2386517328 0.8130099292 3.87161e-05 1.08698e-05 -0.000181005 -1.33802e-05 0.2731473359 -0.8012292704
635296190.0 -0.2300226689 0.8157888835 0.0001385896 -8.6849e-05 8.8708e-06 -2.88268e-05 0.2649490709 -0.804583735
640296160.0 -0.2216654337 0.8175391117 -0.0001286627 -2.54909e-05 -0.0002674805 -8.58151e-05 0.2563932656 -0.8068817735
645296130.0 -0.2138943936 0.8206996217 4.79955e-05 -4.7661e-05 8.1176e-06 8.8395e-05 0.2487238411 -0.8092740314
650296100.0 -0.2055213708 0.8222278901 -1.88746e-05 -0.0001249909 -0.0002169219 -7.1207e-06 0.2402704139 -0.8121010687
655296070.0 -0.1973184715 0.8242655543 -0.0001387511 0.0001370451 0.0001518262 0.0001177812 0.2320973253 -0.8142329243
660296040.0 -0.1891435428 0.8262732498 -0.0001175204 3.94117e-05 8.72545e-05 9.43167e-05 0.2245371648 -0.816329298
665296010.0 -0.1809944787 0.8284808427 5.28048e-05 -0.0001239172 0.0002270057 0.000256845 0.2168453682 -0.8177870766
670295980.0 -0.1723438255 0.8303223564 -4.8989e-05 0.0001576839 -0.0001253779 5.41036e-05 0.207898539 -0.8199599673
675295950.0 -0.1639948885 0.8320784524 3.16358e-05 0.0001131386 -3.45659e-05 -2.0117e-06 0.1997870506 -0.8219875705
680295920.0 -0.1562010422 0.8338406193 0.0001939643 -1.18351e-05 -7.61152e-05 5.79787e-05 0.1915886199 -0.8236320548
685295890.0 -0.1472985462 0.8352744625 -7.16548e-05 1.74298e-05 5.05137e-05 5.96996e-05 0.1835524752 -0.8253327671
690295860.0 -0.1392901815 0.8371738511 -0.0001234391 1.56195e-05 0.0001532829 6.93567e-05 0.1754008905 -0.8277784589
695295830.0 -0.1304685567 0.8385802822 -0.0001117992 1.16664e-05 3.18e-08 -6.68352e-05 0.16719206 -0.8285624291
700295800.0 -0.122446967 0.8400407326 1.7708e-06 6.3275e-06 4.48636e-05 0.0001511541 0.158901721 -0.8302118771
705295770.0 -0.1143935593 0.8413109483 -8.2007e-05 7.41194e-05 -0.0002284883 0.0001188983 0.1504103012 -0.8312005345
710295740.0 -0.1073606974 0.8418390589 0.000102376 3.2902e-05 4.62647e-05 0.0002565677 0.1423613596 -0.832772651
715295710.0 -0.0980169262 0.8437879311 -8.40664e-05 -0.0001147555 5.07155e-05 7.1098e-06 0.1339024386 -0.8343259363
720295680.0 -0.0889443372 0.8443400763 -1.78528e-05 -2.80743e-05 6.83281e-05 -9.42984e-05 0.1261614937 -0.8354581225
725295650.0 -0.0815150525 0.8454942275 0.000125214 -1.12469e-05 -0.0002951282 2.96535e-05 0.1168269898 -0.8360117064
730295620.0 -0.0737690464 0.8466029922 0.0001745918 -5.2788e-05 0.0001521568 8.56779e-05 0.1086370059 -0.8369688849
735295590.0 -0.0655472745 0.8478442295 0.000142494 0.0001847707 -0.000125091 -1.79468e-05 0.100668799 -0.8376277979
740295560.0 -0.0578354514 0.8473840847 0.0001261153 -8.0979e-05 -0.0001972715 4.24242e-05 0.0923391547 -0.8388008368
745295530.0 -0.0485829945 0.8486071607 1.22674e-05 0.0001686512 -0.00012565 -8.348e-07 0.0830818483 -0.8396015637
750295500.0 -0.0409002199 0.8490189381 3.72448e-05 7.87263e-05 0.0001612368 3.76169e-05 0.0754302938 -0.8401639662
755295470.0 -0.0324113851 0.8495168091 -0.0001488597 3.07403e-05 3.83398e-05 -0.0002191491 0.0667879077 -0.8403349797
760295440.0 -0.0243037336 0.8507713967 -0.0001061831 -2.52542e-05 0.0001294744 -1.99669e-05 0.0591050798 -0.8413125166
765295410.0 -0.0162925893 0.850720255 0.0001043766 -1.51205e-05 -0.0002086345 0.0001709062 0.0505496643 -0.8410355403
770295380.0 -0.008449637 0.8510664483 -5.10111e-05 7.3177e-06 -0.0001184338 6.04957e-05 0.0418600228 -0.8418232997
775295350.0 -9.5973e-05 0.8512596962 0.000248343 3.78672e-05 -6.03724e-05 0.0002954496 0.0341011466 -0.842647815
780295320.0 0.0087921468 0.851143964 -9.03722e-05 1.0866e-05 2.22634e-05 7.2813e-06 0.0248546577 -0.8422878834
785295290.0 0.0168310416 0.8505910705 7.9617e-06 -5.45478e-05 6.08623e-05 -2.0276e-06 0.0160762752 -0.842185707
790295260.0 0.0252186725 0.8509508118 -6.99166e-05 -6.94673e-05 -0.0001573135 -6.27048e-05 0.0087524556 -0.8423589294
795295230.0 0.0332890457 0.8507010984 -3.65872e-05 -8.81152e-05 -0.0001835716 0.0002683117 -0.0002209924 -0.8429053297
800295200.0 0.0411695997 0.8507218166 -6.64981e-05 -0.0001063624 1.0725e-06 -6.43126e-05 -0.0089132752 -0.8421732114
805295170.0 0.0492376679 0.8505382104 -3.36945e-05 9.182e-07 0.0001008966 -0.000196665 -0.0160551281 -0.8422993511
810295140.0 0.0576591746 0.8505176438 -0.0001931831 2.61937e-05 -7.12164e-05 0.0001232959 -0.0250622711 -0.8413657878
815295110.0 0.0653942478 0.8497327171 3.36806e-05 -4.30281e-05 -0.0001663185 4.60254e-05 -0.0340721554 -0.8410702103
820295080.0 0.0738002923 0.8489509468 -0.0001422892 0.0001163059 -7.427e-07 -0.0001290589 -0.0424821778 -0.8402720581
825295050.0 0.0817523388 0.8483323994 -0.0002110626 -0.0001366876 -1.22698e-05 -1.86747e-05 -0.0506217014 -0.8395004725
830295020.0 0.0909980733 0.8477293016 -0.0001457475 -0.0001271136 5.98802e-05 1.32986e-05 -0.0591146689 -0.8391747735
835294990.0 0.0986143933 0.8463965811 -0.0004158401 9.35337e-05 -0.0001112511 0.0002626335 -0.0672485528 -0.8379523752
840294960.0 0.1068666315 0.845496906 6.241e-07 0.0001619195 5.70082e-05 2.15048e-05 -0.0758215956 -0.8374313173
845294930.0 0.1148531714 0.8441776866 6.65273e-05 -0.0001717202 -0.0001127729 4.34768e-05 -0.0841480408 -0.8360605119
