!Created with skrf (http://scikit-rf.org).
# Hz S RI R 50.0 
!freq ReS11 ImS11 ReS21 ImS21 ReS12 ImS12 ReS22 ImS22
300000.0 -0.3194284047 -0.1061754517 0.3721489284 0.0525002177 0.3743072642 0.0564257171 -0.3177707671 -0.1123253844
5299970.0 -0.3236505792 0.004827375 0.3787827264 0.002726855 0.3783420637 0.0029382184 -0.3263448628 0.0031880727
10299940.0 -0.3210911553 0.0154422259 0.3796316302 0.0024570808 0.3796890229 0.0025269643 -0.3242813105 0.0128557408
15299910.0 -0.3182073017 0.0231765718 0.3819789985 0.0023460017 0.382112395 0.0025547108 -0.3214447649 0.0197851463
20299880.0 -0.3142463221 0.0300800214 0.3846318635 0.001669157 0.385172942 0.0016917132 -0.3184934056 0.0261444601
25299850.0 -0.310791442 0.0357661033 0.3884682519 0.0002126419 0.3887025801 0.0001495019 -0.3158351937 0.0311084466
30299820.0 -0.30684257 0.0404944433 0.3923903997 -0.0022041922 0.3918412463 -0.0021856269 -0.3128345928 0.0355551615
35299790.0 -0.3026841852 0.0445647961 0.3948234067 -0.0050728764 0.3951740639 -0.0053154661 -0.3099266414 0.0396784938
40299760.0 -0.2995164128 0.0481837432 0.3980669952 -0.0085023599 0.398418008 -0.008824459 -0.3072970602 0.0431862036
45299730.0 -0.2965017996 0.051451955 0.4011739226 -0.0128335393 0.4011770654 -0.0125872893 -0.3048719739 0.0460228617
50299700.0 -0.2932694996 0.0542016039 0.4035429005 -0.0173997721 0.4039382648 -0.0172676765 -0.3021591014 0.0492580484
55299670.0 -0.2908812502 0.0569071468 0.4056689346 -0.0220447441 0.406004706 -0.0219785654 -0.3005185289 0.0521088373
60299640.0 -0.2882121419 0.0589383776 0.4076106451 -0.0267690268 0.4079493845 -0.0271508389 -0.2981650456 0.0545264903
65299610.0 -0.2862504712 0.0615606578 0.4096778706 -0.0315627912 0.4094697461 -0.0314888171 -0.2963866038 0.0571506799
70299580.0 -0.2836929403 0.0634324002 0.4103652927 -0.0366876956 0.4103682564 -0.0367989069 -0.2945054449 0.0594674665
75299550.0 -0.2817384031 0.0658712789 0.4113024912 -0.0422114302 0.4114112645 -0.0422358448 -0.2930756235 0.0620532437
80299520.0 -0.2801664783 0.0681065237 0.4126172157 -0.0473906851 0.4124450556 -0.0472331874 -0.2914123305 0.0636654217
85299490.0 -0.2784660823 0.0699446288 0.413138836 -0.0524384869 0.4129827648 -0.0527394381 -0.2905375931 0.0665767918
90299460.0 -0.2771140922 0.0720800637 0.4134576331 -0.0577181105 0.4134988451 -0.0580373842 -0.2886178147 0.0690249403
95299430.0 -0.2756001369 0.0745593768 0.4141086336 -0.0635606643 0.4139006917 -0.0630908994 -0.2875748089 0.0712581879
100299400.0 -0.2744380622 0.0765247367 0.4136068785 -0.06837989 0.4138140742 -0.0686009569 -0.2865854075 0.0733539103
105299370.0 -0.273069021 0.0785834461 0.4134539392 -0.073451503 0.4135974472 -0.0735238948 -0.285200455 0.0756963751
110299340.0 -0.2719633727 0.0803206248 0.4133606488 -0.078409395 0.4134547206 -0.0787534876 -0.2845502245 0.0777971025
115299310.0 -0.2705628395 0.0824715797 0.4129719471 -0.083644216 0.4133933179 -0.083407427 -0.2831411682 0.0798537593
120299280.0 -0.2700153396 0.0846820511 0.4131554338 -0.0887857832 0.4127927839 -0.0890351197 -0.2824985599 0.0825711363
125299250.0 -0.2691090075 0.086925526 0.4125755568 -0.0941387308 0.4124223501 -0.093832728 -0.2813688826 0.0846301581
130299220.0 -0.2678592152 0.0890851919 0.4114813159 -0.0985158083 0.4116023856 -0.0990839802 -0.2805775661 0.0873015351
135299190.0 -0.2666878365 0.0912042922 0.4107012106 -0.1037827508 0.4109606671 -0.1037114765 -0.2798419569 0.0892959504
140299160.0 -0.2658721664 0.0938302246 0.410085484 -0.1086674179 0.4102401457 -0.1090556186 -0.2782880749 0.0917519704
145299130.0 -0.2646265964 0.0960136561 0.4093263199 -0.1144862682 0.4092210648 -0.1136843995 -0.277928063 0.0944394968
150299100.0 -0.2637421618 0.0980463587 0.4079620907 -0.1189368433 0.4082385008 -0.1188957701 -0.2767898071 0.0967776292
155299070.0 -0.2630680131 0.1009668069 0.4071639973 -0.1241131674 0.4072863455 -0.1241190611 -0.2764529136 0.0995779673
160299040.0 -0.2619838546 0.1031617549 0.4057919415 -0.1284987516 0.4060412708 -0.1286257091 -0.2751880946 0.1022887845
165299010.0 -0.2608928406 0.1054459844 0.4046889315 -0.1335795893 0.4048994964 -0.1339029102 -0.2745392834 0.1044263242
170298980.0 -0.2600317203 0.1080425265 0.4027766328 -0.1384455536 0.4033163239 -0.1383631998 -0.273312753 0.1070750426
175298950.0 -0.2589944827 0.1106713297 0.4021960982 -0.1430370872 0.4021893769 -0.143091228 -0.2722046846 0.1098405474
180298920.0 -0.2580214778 0.1127045842 0.4004517993 -0.1484507493 0.4006402693 -0.1479754287 -0.2710910256 0.1127889594
185298890.0 -0.2567103715 0.1152309888 0.3985922727 -0.1528433937 0.3990751532 -0.1525913642 -0.2704009053 0.114699389
190298860.0 -0.2560385633 0.1175809917 0.3972809934 -0.1574181525 0.3973689038 -0.1574797323 -0.2688622361 0.1176907044
195298830.0 -0.2546425142 0.1199680236 0.395803679 -0.1616686326 0.3958472133 -0.161906241 -0.2681101388 0.1198705387
200298800.0 -0.2538581818 0.1226337174 0.3941716775 -0.1659413791 0.3941691028 -0.1665674754 -0.2665741294 0.1230515634
205298770.0 -0.2526206552 0.1252767797 0.3923078386 -0.1709071781 0.3925523746 -0.1710185172 -0.2657291538 0.1252930377
210298740.0 -0.2517106624 0.1278049145 0.3906308241 -0.1758205618 0.3907534039 -0.175723208 -0.2645216247 0.1284272168
215298710.0 -0.250559244 0.1303790165 0.3887993991 -0.18014329 0.3885391517 -0.1799693616 -0.2637790897 0.1309526536
220298680.0 -0.2493110787 0.1328884166 0.3863768326 -0.1846164021 0.3866479921 -0.1846272954 -0.2621371021 0.1338788024
225298650.0 -0.2477595325 0.1355093837 0.384551524 -0.1888103605 0.3843602715 -0.1887605422 -0.2611130747 0.1364459697
230298620.0 -0.246772868 0.1383942664 0.3828363892 -0.193542699 0.382647545 -0.1934506085 -0.2596570814 0.1391759018
235298590.0 -0.2454364251 0.1403702128 0.3803284932 -0.1975618123 0.3806282899 -0.1981992955 -0.2585053532 0.1415611659
240298560.0 -0.2443702795 0.1434729531 0.3787046573 -0.2023830967 0.378525398 -0.2018111592 -0.2571286402 0.1445831841
245298530.0 -0.2426516234 0.1458308463 0.3756613507 -0.2064880307 0.3758986692 -0.2064286321 -0.2555775797 0.1470854728
250298500.0 -0.2413174776 0.1483465263 0.3736327226 -0.2106016939 0.3741777778 -0.2105721032 -0.2540712288 0.1499904144
255298470.0 -0.2401534987 0.1511245866 0.3712659754 -0.2153366154 0.3717190922 -0.2149461034 -0.2528688409 0.1522808714
260298440.0 -0.238425497 0.1533739227 0.368922908 -0.2190307893 0.369097392 -0.2194828616 -0.2510315788 0.1548824142
265298410.0 -0.237196462 0.1564638533 0.3666159747 -0.2237802598 0.3663875838 -0.2234729264 -0.2496552612 0.1575694288
270298380.0 -0.2357829416 0.1585660871 0.3641798338 -0.227379833 0.3644149858 -0.2275039005 -0.2480162558 0.1604299477
275298350.0 -0.2343164736 0.1612692991 0.3617332827 -0.2317267004 0.3619553974 -0.2321751828 -0.2464796478 0.1632685933
280298320.0 -0.2328464685 0.1638616588 0.3594957127 -0.2355877342 0.3589792476 -0.2359939083 -0.2449824921 0.1659996641
285298290.0 -0.2307677522 0.1664224082 0.356460062 -0.2398362896 0.356463335 -0.2398851121 -0.2435991241 0.1684281385
290298260.0 -0.2292363801 0.1687727497 0.3541156974 -0.2437901513 0.3539830721 -0.2438982348 -0.2414136039 0.1715921052
295298230.0 -0.2276279063 0.1715994947 0.351544564 -0.2481468469 0.3510850029 -0.2481014729 -0.2395574738 0.1737151634
300298200.0 -0.2259262783 0.1736987221 0.3484145774 -0.2519923668 0.348633555 -0.252028967 -0.2381355399 0.1767527643
305298170.0 -0.2239318047 0.1763148189 0.3459355245 -0.2561192012 0.345886134 -0.2559693324 -0.2358640534 0.1793135336
310298140.0 -0.2221991655 0.1785141178 0.3428913109 -0.2601616544 0.3432992225 -0.2599499073 -0.2342323126 0.1819409342
315298110.0 -0.2205353446 0.1809937751 0.3398952098 -0.2639519808 0.3403158161 -0.263998256 -0.2321743131 0.1841505514
320298080.0 -0.2186823773 0.1832113314 0.3370313862 -0.2677886367 0.3372423735 -0.2675930908 -0.2302293658 0.1868064933
325298050.0 -0.2170684302 0.1853410113 0.3344226592 -0.2715750523 0.3342924109 -0.2718097021 -0.228634633 0.1895707118
330298020.0 -0.2151405371 0.1880255072 0.3304682044 -0.275169101 0.3308164511 -0.2752382513 -0.2268879978 0.1917117195
335297990.0 -0.2133870895 0.1902432744 0.327801241 -0.2790117388 0.327804614 -0.2789953916 -0.2250292533 0.1943661453
340297960.0 -0.2119444921 0.1929491761 0.3244456855 -0.2829402125 0.3247378957 -0.2826800081 -0.2227761301 0.1968359132
345297930.0 -0.2101752268 0.1952455346 0.321385358 -0.2857648693 0.3209296867 -0.2858589034 -0.2207136846 0.1993300236
350297900.0 -0.2077305103 0.1979195561 0.3179861896 -0.2893550756 0.3181633294 -0.2896640694 -0.218798338 0.2021656871
355297870.0 -0.2060788358 0.1998393048 0.3145948135 -0.2929153682 0.3149015124 -0.2932611684 -0.2170978204 0.2049019678
360297840.0 -0.2037974165 0.2021390503 0.3113363533 -0.2967768286 0.3115758733 -0.2966710842 -0.2147913536 0.2070891673
365297810.0 -0.2015843421 0.204409866 0.3080989035 -0.2999696221 0.3081649865 -0.3000926468 -0.2124490945 0.2098883063
370297780.0 -0.1995237077 0.2066825008 0.30460312 -0.3029543984 0.3047299967 -0.3036685651 -0.210625599 0.2118695616
375297750.0 -0.1974470024 0.2096439044 0.3016196694 -0.3071493997 0.3013488068 -0.3069888039 -0.2081942809 0.2148873561
380297720.0 -0.1951774143 0.2114238815 0.297762607 -0.3100942578 0.2979926416 -0.3100905787 -0.2057980331 0.2173314863
385297690.0 -0.1934533997 0.213866729 0.2946107599 -0.3130074815 0.294419979 -0.3129586508 -0.2036871291 0.2196820249
390297660.0 -0.1911912986 0.2157674013 0.2911448485 -0.3165163099 0.2912181806 -0.3170980186 -0.2016284622 0.2218568354
395297630.0 -0.1888276246 0.2181164535 0.2879038939 -0.3197296726 0.2873307425 -0.3195195019 -0.1992400581 0.224727312
400297600.0 -0.1867000368 0.2202632112 0.2841083197 -0.3226167644 0.2843433355 -0.3229221378 -0.1971392589 0.22662323
405297570.0 -0.1841084586 0.2224914477 0.2801805159 -0.3260273561 0.2805895201 -0.3258271226 -0.1952009186 0.2291100771
410297540.0 -0.1819114704 0.2241470645 0.2760793785 -0.328174991 0.2766932374 -0.3289110592 -0.1923553361 0.231415955
415297510.0 -0.1797863662 0.2265731251 0.2731404855 -0.3318791495 0.2729990592 -0.3318073089 -0.189638914 0.233766255
420297480.0 -0.1769381021 0.2286168588 0.2692824604 -0.3349717847 0.2692792776 -0.3346697086 -0.1872826566 0.2357630945
425297450.0 -0.1745075256 0.2303743514 0.265680396 -0.3374802241 0.2660448044 -0.3377778546 -0.1846781682 0.2383281388
430297420.0 -0.172437724 0.232585068 0.2619173285 -0.3411465756 0.2621632771 -0.340686097 -0.1826484482 0.2403840886
435297390.0 -0.1698814127 0.2345407989 0.2582364418 -0.3433723463 0.2583406323 -0.3431906327 -0.1800659612 0.2424290288
440297360.0 -0.1673958859 0.236602672 0.2539445774 -0.3463796687 0.2542877879 -0.3461909161 -0.1775778059 0.2440383231
445297330.0 -0.1650118589 0.2383102325 0.2502035202 -0.3493839674 0.2506226877 -0.3490003804 -0.1753234751 0.2464012387
450297300.0 -0.1621111295 0.2400041222 0.246196221 -0.3517820229 0.246681501 -0.3514452096 -0.1727893566 0.2484612214
455297270.0 -0.1599454984 0.2421442948 0.2427067018 -0.3543697392 0.2428773614 -0.3544426283 -0.1697913693 0.2509965511
460297240.0 -0.1576658201 0.2444752478 0.2389770237 -0.3573367815 0.2385529243 -0.3567661598 -0.1672865915 0.2530692218
465297210.0 -0.1544904606 0.2457717307 0.2351163387 -0.3596290497 0.2349782306 -0.3594593834 -0.1651397171 0.2542772037
470297180.0 -0.1521542795 0.2476155329 0.2308635922 -0.3621078028 0.2309180972 -0.3620032254 -0.1625298413 0.2564779845
475297150.0 -0.1497259223 0.2492056152 0.2266250641 -0.3642279804 0.2273953966 -0.364372407 -0.1596933861 0.2586732108
480297120.0 -0.1470686906 0.250674567 0.2227580178 -0.3667168907 0.223347008 -0.3670232047 -0.1574042159 0.2610627902
485297090.0 -0.1442103356 0.2525048778 0.2187505477 -0.369012454 0.2189059232 -0.3690490828 -0.1546364634 0.2624959079
490297060.0 -0.141435263 0.2541875219 0.2150354815 -0.3713657589 0.2149936512 -0.3714801262 -0.1518545097 0.2640660842
495297030.0 -0.1391669651 0.2561182556 0.2105843104 -0.3738570218 0.2106301591 -0.3739540715 -0.1492355353 0.2657174311
500297000.0 -0.1361580186 0.2576144233 0.2066129147 -0.3759572688 0.2068212429 -0.3760698802 -0.1463856659 0.2679350746
505296970.0 -0.1334767128 0.2590370943 0.2022252353 -0.3778759541 0.2025161732 -0.3781016624 -0.1438898141 0.2695992699
510296940.0 -0.1307651983 0.2609807239 0.1983078801 -0.3804741822 0.198367454 -0.3804843273 -0.1407059294 0.2712158108
515296910.0 -0.1283388738 0.262645738 0.1939255371 -0.3825143972 0.1940670971 -0.3824405104 -0.1380695214 0.2729573961
520296880.0 -0.1250957352 0.2636906963 0.1896036212 -0.3844879508 0.1899269799 -0.3842934699 -0.1351988236 0.2747057924
525296850.0 -0.1226356052 0.2653038234 0.1857416815 -0.3863439393 0.1860371458 -0.3867811003 -0.131998328 0.2762425265
530296820.0 -0.1197834338 0.2665167148 0.1818277911 -0.3880367942 0.1814395266 -0.3884250668 -0.1299269523 0.2774173596
535296790.0 -0.1169644763 0.2681017645 0.177228235 -0.390281716 0.1774282307 -0.3900826835 -0.1269012155 0.2790268595
540296760.0 -0.114017184 0.2693315562 0.1729300477 -0.3924133498 0.1727532748 -0.3922610119 -0.1243227127 0.2808667766
545296730.0 -0.1115883495 0.27044837 0.1689443831 -0.3938010178 0.1687634371 -0.3941436027 -0.1214028497 0.2819809337
550296700.0 -0.1087759824 0.2722014911 0.1644479766 -0.39597042 0.1649798303 -0.3960414957 -0.1183350723 0.2835642716
555296670.0 -0.105579283 0.2734990704 0.1603590823 -0.3980682974 0.1603019252 -0.3975762715 -0.1158295259 0.2851960038
560296640.0 -0.1026763923 0.2742834224 0.1555611032 -0.3990934608 0.1558723886 -0.3990678999 -0.1124796994 0.2865299421
565296610.0 -0.0999916738 0.2758346184 0.1513540955 -0.4006003403 0.151249041 -0.4009869147 -0.1098176722 0.2878087667
570296580.0 -0.0970192807 0.2768708642 0.1466472168 -0.4022560842 0.1472193716 -0.4027604298 -0.1068948543 0.2892486924
575296550.0 -0.0941360062 0.2784573701 0.1429806576 -0.4038989521 0.1428253486 -0.4038609627 -0.1035449575 0.2904970316
580296520.0 -0.0911347056 0.2795049166 0.1383099373 -0.4052167214 0.1381916698 -0.4054988719 -0.1007399723 0.2916597433
585296490.0 -0.0879707074 0.280272047 0.1339606616 -0.4067799229 0.1337776603 -0.4069347987 -0.0978523254 0.2924249929
590296460.0 -0.0854680883 0.2812241395 0.1291002799 -0.408143697 0.1292555661 -0.4086807269 -0.0949382642 0.293763805
595296430.0 -0.0821396019 0.2828708046 0.1247998526 -0.4098133593 0.124859392 -0.4097547965 -0.0920515874 0.2948604039
600296400.0 -0.0793597397 0.2835146669 0.1204898392 -0.4107864932 0.120944809 -0.4108814058 -0.0885331242 0.2963455692
605296370.0 -0.0762146926 0.2847390073 0.1158360753 -0.4122793213 0.1161535957 -0.4118880962 -0.085636706 0.2972422764
610296340.0 -0.0734647877 0.2854765748 0.1119093868 -0.413341643 0.1117038453 -0.4137056565 -0.0824681607 0.29856012
615296310.0 -0.0702706212 0.2865219523 0.1070601817 -0.4143293254 0.1068010403 -0.4146315526 -0.0792805703 0.2996462575
620296280.0 -0.0671958224 0.2872410559 0.1027028413 -0.4151223911 0.102559904 -0.4157075026 -0.0765102223 0.2999654856
625296250.0 -0.0640019334 0.2881234942 0.0977131088 -0.4168379614 0.097836684 -0.4168021653 -0.0730484037 0.3014767473
630296220.0 -0.0608623838 0.2893763479 0.0931613486 -0.4177386111 0.0937616644 -0.4178622912 -0.0703695582 0.3023745242
635296190.0 -0.0579049093 0.2899928517 0.0887112058 -0.4183358861 0.0889044847 -0.4182251073 -0.0668697124 0.302585773
640296160.0 -0.0548472307 0.2901698616 0.0844263278 -0.4190505656 0.0842348598 -0.4197336173 -0.0636056789 0.3037765042
645296130.0 -0.0521921406 0.2913131219 0.0795878829 -0.4203847223 0.0799153477 -0.419990684 -0.0612755454 0.3042393295
650296100.0 -0.049033866 0.2925588835 0.0756584768 -0.4209140398 0.0752917962 -0.4211605857 -0.0575164186 0.3056241257
655296070.0 -0.0458074691 0.2927028686 0.070370961 -0.4217703807 0.0706020461 -0.4218768292 -0.0542675718 0.3062874002
660296040.0 -0.0429293221 0.2935087846 0.0660672045 -0.422265055 0.0664244094 -0.4221643204 -0.0515797304 0.3064569224
665296010.0 -0.0396056106 0.2936565219 0.0614590697 -0.4231772528 0.0619666439 -0.4232704862 -0.0481118111 0.3075809339
670295980.0 -0.0364198321 0.2942339354 0.0570514792 -0.4235610389 0.0574013003 -0.4239122349 -0.0453633819 0.3083489603
675295950.0 -0.0333771015 0.2948913792 0.0523598876 -0.4243743049 0.0526744805 -0.4248115286 -0.0417608521 0.3090526107
680295920.0 -0.0301475966 0.2957614599 0.0478717287 -0.4246306388 0.0476013697 -0.4246736506 -0.0387042918 0.3092035006
685295890.0 -0.0270530428 0.2959971739 0.0433729382 -0.4252996684 0.0431698168 -0.4255665321 -0.0355813767 0.3099074629
690295860.0 -0.024017947 0.2963196856 0.0384287714 -0.4250997333 0.038218585 -0.4255951333 -0.032063996 0.310593513
695295830.0 -0.0204698296 0.2968442286 0.0329838516 -0.4261344544 0.0340100842 -0.4261933987 -0.0291062619 0.3112154883
700295800.0 -0.0174541369 0.2975553496 0.0288777933 -0.4266042311 0.0292456666 -0.4265736797 -0.0253881223 0.3110486062
705295770.0 -0.0143105746 0.2975718682 0.0246143874 -0.4263782672 0.0246607162 -0.4266879568 -0.0228605767 0.3119221684
710295740.0 -0.0114921203 0.297960086 0.0202036261 -0.4266111411 0.0202987844 -0.4267831045 -0.0198439038 0.3122813175
715295710.0 -0.00840802 0.2984556071 0.0149931615 -0.4272219204 0.0158234948 -0.4270252444 -0.0161950454 0.3122205732
720295680.0 -0.0053634371 0.2982191142 0.0110486359 -0.4268644281 0.0110394889 -0.4274413595 -0.0125894947 0.3127903968
725295650.0 -0.0016688762 0.2985831923 0.0057137885 -0.4267146072 0.0063478617 -0.4272252503 -0.0098064284 0.3133318253
730295620.0 0.0010834206 0.2985319196 0.0014852703 -0.427041615 0.0016243016 -0.4271362531 -0.0063688347 0.3129719016
735295590.0 0.0046434319 0.2987367481 -0.0030500896 -0.427173386 -0.0028191732 -0.4273085581 -0.0030201329 0.3134710675
740295560.0 0.007686531 0.2991500045 -0.0075778782 -0.4266753497 -0.0075645856 -0.4268194224 9.62348e-05 0.3134574453
745295530.0 0.010883449 0.2988525932 -0.0125038944 -0.4268913572 -0.0123658134 -0.4270119181 0.0033111589 0.3138319195
750295500.0 0.0141073295 0.2991508708 -0.0168516952 -0.4264273091 -0.0171480594 -0.4265884957 0.0068008041 0.3134156467
755295470.0 0.017506262 0.2988424827 -0.0213030505 -0.4263425504 -0.0210996151 -0.4266150086 0.0096113013 0.314306466
760295440.0 0.0204066235 0.2989820137 -0.0260904624 -0.4259111165 -0.0259869248 -0.4260816435 0.0127265636 0.313902076
765295410.0 0.0232712327 0.2986349937 -0.0302472351 -0.4253555529 -0.0307093596 -0.4258574537 0.0169646381 0.3141617494
770295380.0 0.0268349791 0.2988115752 -0.0352886596 -0.425053548 -0.0352924605 -0.4255953973 0.0198359822 0.3141430198
775295350.0 0.029809086 0.2990361032 -0.0399687058 -0.4246690913 -0.0396928137 -0.4246491513 0.0227190759 0.3135288412
780295320.0 0.0331646153 0.2982755561 -0.0444880019 -0.4244122191 -0.0441459404 -0.4245849043 0.0262138838 0.3141579735
785295290.0 0.0360633015 0.2986499653 -0.048813454 -0.423375384 -0.0490620495 -0.4239430773 0.0290940836 0.3137470033
790295260.0 0.0390090542 0.2983156085 -0.0533275905 -0.4236537759 -0.0537056594 -0.4237276201 0.0327752322 0.3132715515
795295230.0 0.0423803528 0.2980942074 -0.0581342206 -0.4225241848 -0.0578063609 -0.4225894259 0.0360258082 0.313683677
800295200.0 0.0458591666 0.297851698 -0.0632210832 -0.4219791878 -0.0632164619 -0.4222179379 0.0389583128 0.3131085714
805295170.0 0.0487147623 0.297354953 -0.0671375763 -0.4208568574 -0.0672281003 -0.4213738222 0.0419876668 0.3127427626
810295140.0 0.0520002144 0.2969768329 -0.0717542593 -0.4203435731 -0.0719649586 -0.4208406712 0.0456243018 0.3129028273
815295110.0 0.0551249813 0.2964623211 -0.0765001146 -0.419156429 -0.0765600328 -0.4195749684 0.0488305554 0.3120832742
820295080.0 0.0583155603 0.2956871355 -0.0807088995 -0.4185797329 -0.0808213036 -0.4190518179 0.0518832622 0.3115969238
825295050.0 0.0615635744 0.2953808462 -0.0855009499 -0.4169931166 -0.0853525478 -0.417858254 0.0553578864 0.3114322465
830295020.0 0.0645068314 0.2951418049 -0.0899611387 -0.4166792537 -0.0898333481 -0.4169530225 0.0582702423 0.3108481702
