!Created with skrf (http://scikit-rf.org).
# Hz S RI R 50.0 
!freq ReS11 ImS11 ReS21 ImS21 ReS12 ImS12 ReS22 ImS22
300000.0 -0.0428220065 -0.0745071451 -0.0011253102 0.001402952 -0.0010797305 0.001123605 -0.764267454 -0.1977834021
5299970.0 -0.0458615341 0.0144192998 5.78422e-05 -3.62474e-05 0.0001354926 0.0001354683 -0.7847050521 -0.009745885
10299940.0 -0.0405511413 0.0327890016 9.09652e-05 -6.48639e-05 -8.0208e-05 1.37879e-05 -0.7872417794 -0.0053891127
15299910.0 -0.0316745443 0.0474114402 -7.53548e-05 -1.93304e-05 3.3658e-06 8.96196e-05 -0.7926031879 -0.0027257818
20299880.0 -0.0213432073 0.0594410924 0.0001911646 0.0001327978 0.000181598 -0.0001588024 -0.7995005552 0.0015569912
25299850.0 -0.0098931786 0.068698327 0.0001309306 -3.69723e-05 0.0002516465 -4.6767e-06 -0.8056164778 0.0077276004
30299820.0 0.0011826185 0.0755862662 -1.52239e-05 2.40048e-05 -0.0002863749 3.28379e-05 -0.8116184532 0.0151890672
35299790.0 0.0132148068 0.0804038168 0.0001527522 5.95039e-05 -4.03052e-05 0.0001138066 -0.8164871597 0.024257147
40299760.0 0.0248894143 0.0833225932 -8.3187e-05 -5.98844e-05 -2.36395e-05 -6.7539e-06 -0.8209673836 0.0339887661
45299730.0 0.0352388135 0.0843865292 5.12157e-05 0.0001094798 -5.19017e-05 0.000161577 -0.8235700722 0.0439408118
50299700.0 0.0455552989 0.0843295733 0.0001336402 0.0001283859 3.8579e-05 0.0001315327 -0.8262737538 0.0540941141
55299670.0 0.0549138755 0.0835082987 -0.000201848 -0.0001257173 -4.09029e-05 6.65033e-05 -0.8283195963 0.0636219108
60299640.0 0.0633725749 0.0815705734 -5.68578e-05 -6.60562e-05 -0.0001068636 -3.802e-05 -0.8295439715 0.0737824747
65299610.0 0.0714982483 0.0793728824 -6.80008e-05 -7.28589e-05 -8.04964e-05 1.5972e-05 -0.8303671539 0.0840776919
70299580.0 0.078065432 0.0761751141 3.12628e-05 0.00013457 -5.6248e-05 0.0002631746 -0.8311963426 0.0936168102
75299550.0 0.0847883424 0.0731032305 -0.0002755358 0.0001273184 -0.0001149831 0.0001023349 -0.8307819001 0.1044272392
80299520.0 0.0904305386 0.0693074233 9.12836e-05 0.0002001714 4.69594e-05 -4.3359e-05 -0.8303122826 0.1139413951
85299490.0 0.0956311533 0.0655574758 6.9695e-05 0.000182653 0.0001368363 -1.47356e-05 -0.8298918169 0.1234061231
90299460.0 0.1005153894 0.0618218699 0.0001069197 -6.32458e-05 -1.1883e-06 0.0002091797 -0.8285603561 0.132524461
95299430.0 0.1045096808 0.0581186651 -0.0001385346 -4.55957e-05 -1.2861e-06 -8.1122e-06 -0.827543197 0.1424776811
100299400.0 0.1082455621 0.0543769828 0.0002135496 2.08795e-05 -2.78292e-05 -6.61414e-05 -0.8268715749 0.1515702295
105299370.0 0.1117973785 0.0501600746 3.9898e-06 4.59025e-05 -0.0001498201 4.99174e-05 -0.8254681014 0.1608976124
110299340.0 0.1145833462 0.0462643598 0.0003057987 0.0001703746 0.000123583 5.94757e-05 -0.8240560544 0.1699309516
115299310.0 0.1170915355 0.0425705764 4.89048e-05 -0.000128733 -7.7686e-05 0.0001720579 -0.8231405446 0.1791456464
120299280.0 0.1194546986 0.039126411 0.0001873 0.0002122511 0.000199374 -2.80015e-05 -0.8210165861 0.1882265354
125299250.0 0.1212792311 0.0351071027 -5.47617e-05 8.8395e-06 8.69819e-05 8.55543e-05 -0.819476593 0.1972417579
130299220.0 0.1230362205 0.0312278856 8.13861e-05 -8.341e-06 5.1844e-06 -3.26654e-05 -0.8173101685 0.2058014
135299190.0 0.124939693 0.0276430331 -0.0003008425 0.0001817803 -7.49293e-05 -0.0001070612 -0.8158890687 0.2151238958
140299160.0 0.1259447319 0.0243236237 7.29613e-05 -9.61146e-05 0.0001884018 -2.77543e-05 -0.8138452451 0.2235252696
145299130.0 0.1275104069 0.0211733912 0.0003250123 -2.3757e-06 -6.12917e-05 1.27942e-05 -0.8117879947 0.232467541
150299100.0 0.1283563179 0.0175805946 4.10346e-05 3.34744e-05 -4.26899e-05 -1.4472e-05 -0.8093319883 0.2415190374
155299070.0 0.1291092881 0.0146710832 8.82272e-05 -0.0001797182 -5.61289e-05 -7.78875e-05 -0.8069719746 0.2504481777
160299040.0 0.1297739327 0.0115844425 2.9295e-05 9.50598e-05 -0.0001111847 0.0002264562 -0.8042559227 0.2589927629
165299010.0 0.1305942077 0.0085884915 -7.27836e-05 0.000268649 2.1654e-05 -0.0001060969 -0.8019756338 0.267486418
170298980.0 0.1308454836 0.0052803971 -0.0002943225 9.12457e-05 5.11412e-05 -0.0001301662 -0.7993204453 0.275819788
175298950.0 0.1313514817 0.0023594983 0.0001570221 -3.13116e-05 0.000150525 0.0001621445 -0.7961108627 0.2848366088
180298920.0 0.1313813733 -0.0004318096 -0.0001874035 0.0001326236 0.0001097161 0.0001465114 -0.7931268204 0.2926911392
185298890.0 0.1315054833 -0.0034428328 0.0002215374 9.59767e-05 0.0001241096 0.0001672696 -0.7904306122 0.3015030185
190298860.0 0.1318453031 -0.0059172152 -0.0004035259 0.0003188901 6.02308e-05 3.24723e-05 -0.7868793693 0.3100146138
195298830.0 0.1320414641 -0.0081773543 0.0001312233 0.0003000313 2.87696e-05 2.61591e-05 -0.7839473812 0.3180146013
200298800.0 0.1321140841 -0.0113900177 0.0003701576 2.99989e-05 0.0001058547 0.0001578609 -0.7806371692 0.3268266301
205298770.0 0.1312419627 -0.0137069576 -1.39961e-05 0.000107617 1.57002e-05 0.0002082305 -0.7774036599 0.3351230332
210298740.0 0.1318048419 -0.0159703625 0.0001294151 0.0001440044 0.0001214299 0.0001635739 -0.773818277 0.3430239183
215298710.0 0.1311378209 -0.0186822773 4.22545e-05 6.5681e-06 4.45775e-05 0.0001535346 -0.7699383301 0.3509969146
220298680.0 0.1311732583 -0.0209347191 -5.16232e-05 -4.12969e-05 -3.17051e-05 6.83055e-05 -0.7663991728 0.3600104043
225298650.0 0.1306619213 -0.0234741038 0.0001767994 1.5514e-06 3.6116e-05 0.000229519 -0.7628587298 0.3675808459
230298620.0 0.1299661699 -0.0254442853 -3.59749e-05 4.40066e-05 5.05075e-05 -4.5721e-05 -0.7589958222 0.3753649862
235298590.0 0.1295924465 -0.0276753156 0.0003361451 -2.98192e-05 0.0002014631 0.0001669804 -0.7548256922 0.3834188574
240298560.0 0.1288633902 -0.0297369849 0.0001711786 0.0002969387 0.0002168347 0.0004008756 -0.751245136 0.3906265223
245298530.0 0.1283288574 -0.0320203215 6.00312e-05 -0.0001794237 9.33383e-05 0.0002646766 -0.7470152991 0.399037461
250298500.0 0.1277824325 -0.0338937814 -8.4923e-06 -0.0001369529 0.0001591159 9.84436e-05 -0.7428452026 0.4070680496
255298470.0 0.127254423 -0.0356870398 4.41271e-05 5.11068e-05 0.0002612423 4.31213e-05 -0.7384076682 0.4150912153
260298440.0 0.1266524914 -0.037959018 0.0002422968 0.0001728529 0.000169289 0.0002872241 -0.7340819333 0.4226911296
265298410.0 0.1255616346 -0.0397649315 0.0002110242 0.0002441208 0.0001076553 0.0001628531 -0.7297102455 0.430078469
270298380.0 0.1250634254 -0.041805567 0.000239916 0.0002514552 2.0033e-06 2.3114e-06 -0.7250698456 0.4385715151
275298350.0 0.1245705266 -0.0434470421 -0.0001020796 0.0001828971 0.0002148825 4.41016e-05 -0.7200627837 0.4454657275
280298320.0 0.1235908503 -0.045409798 -0.0001227569 -4.28315e-05 7.50282e-05 0.0001840849 -0.7160557094 0.4524578958
285298290.0 0.1227447534 -0.0472091183 0.0002126239 0.0001603189 0.0001181606 0.0002355724 -0.7119096538 0.4605343013
290298260.0 0.1217895429 -0.0490076697 0.0002674611 0.0001361189 0.0001912814 3.90183e-05 -0.7063108735 0.4676746927
295298230.0 0.1210026217 -0.05091546 0.000117218 0.0001594551 0.0002744973 -1.06065e-05 -0.7015241324 0.4749504835
300298200.0 0.1204877899 -0.0524244093 -3.89009e-05 -8.87782e-05 -1.9939e-05 2.54032e-05 -0.6969552344 0.4826490442
305298170.0 0.1197467686 -0.0544372679 0.0002466605 2.15152e-05 3.16028e-05 8.34912e-05 -0.6915113748 0.4897274038
310298140.0 0.1183535539 -0.0567337799 0.0002380292 0.0001193853 -0.0001122285 0.0001842151 -0.6856672285 0.4975153957
315298110.0 0.1174692676 -0.0583134703 0.0001162915 9.15724e-05 0.0001232815 0.0003032044 -0.6808773992 0.5037117631
320298080.0 0.11634975 -0.0601223963 0.0002591592 9.21074e-05 5.37658e-05 0.00014477 -0.6762912986 0.5103839382
325298050.0 0.1145723408 -0.0622487587 9.87582e-05 0.0002887208 0.0002361359 0.000208621 -0.6702537207 0.5172582051
330298020.0 0.1134701996 -0.0632445818 -2.30072e-05 0.0001312091 0.0001271888 0.0002039881 -0.6648099933 0.5245973141
335297990.0 0.1119892284 -0.0650054752 0.000163214 0.0002202678 0.0001063559 0.0002873038 -0.6593335569 0.5314724401
340297960.0 0.1108071212 -0.0659795717 7.07767e-05 6.62019e-05 0.0001740014 -7.39866e-05 -0.6543300427 0.5386898642
345297930.0 0.1098203432 -0.0675874853 6.4604e-06 0.0001355383 0.0002522753 1.19244e-05 -0.648480862 0.5448770674
350297900.0 0.1087469842 -0.06925295 0.0001446915 0.0001676017 0.0004384048 0.0001382107 -0.6428847419 0.5515967049
355297870.0 0.1074240513 -0.0704937149 0.0001505103 0.0001801151 0.0002836281 7.5063e-05 -0.6359096298 0.5587747115
360297840.0 0.1060593939 -0.0718127041 0.0001720282 0.0003658662 0.0002560496 0.0001404934 -0.6308546885 0.5654022526
365297810.0 0.1049044166 -0.0728413577 1.82325e-05 0.0001211445 0.0003292462 0.0002049715 -0.6260622373 0.570831837
370297780.0 0.1039238036 -0.0745746434 9.47931e-05 5.325e-05 0.0001730017 0.0001023213 -0.6190983246 0.577449419
375297750.0 0.1028532094 -0.0756711602 3.38866e-05 0.0001649155 0.0002794172 0.0001139253 -0.6134778479 0.5843856081
380297720.0 0.1014712213 -0.0763266025 0.0002091483 4.37036e-05 6.17349e-05 5.81504e-05 -0.6068468846 0.5903317526
385297690.0 0.1000599235 -0.0782086197 0.0002244401 3.11e-08 0.0001413324 0.0001167811 -0.6011775069 0.5967229567
390297660.0 0.0990217767 -0.0797196912 -0.0001899375 8.4598e-06 0.000267284 4.36589e-05 -0.5946819718 0.6021801534
395297630.0 0.097767106 -0.0806275674 6.95883e-05 0.0001520657 0.0001923259 0.0001302514 -0.587913291 0.6079259701
400297600.0 0.0961574904 -0.0817026164 0.0001338754 3.89455e-05 0.0002955044 0.0002428175 -0.5826958326 0.613966607
405297570.0 0.0950522873 -0.0831491577 4.93357e-05 -5.61508e-05 0.0001598098 -2.7129e-06 -0.5753570602 0.6208362006
410297540.0 0.0942695275 -0.0841695597 0.000174684 0.0002243757 0.0002206856 0.0001669841 -0.5694022946 0.6256665605
415297510.0 0.0927882882 -0.085489311 0.0003552665 0.0001103656 0.0003259583 8.68298e-05 -0.5627479913 0.6314377051
420297480.0 0.0916821859 -0.0868367386 5.74115e-05 0.0002769957 0.0001011162 8.54162e-05 -0.5561802406 0.6379229449
425297450.0 0.0903361511 -0.0877484941 0.000245491 0.0001038023 0.0002633405 0.0001385037 -0.5496272723 0.6428787976
430297420.0 0.088757114 -0.0889662766 0.0001325898 -4.1493e-05 0.0001355562 0.0001407026 -0.5427944847 0.6485327266
435297390.0 0.087634356 -0.0898667494 0.0001983714 0.0002619902 0.0001371424 0.0001388553 -0.5367145328 0.6546181266
440297360.0 0.0862201804 -0.0911025325 8.2336e-06 5.6477e-06 0.0001204101 0.0001278714 -0.5301996703 0.6594655733
445297330.0 0.0852999291 -0.09219527 0.0002627222 7.29992e-05 0.0002430747 0.0002453053 -0.5229552786 0.6651436247
450297300.0 0.083849826 -0.0931591232 0.0002594233 0.0002491685 0.0001493882 -0.0001029314 -0.5152699142 0.6700759746
455297270.0 0.0825274074 -0.0939668016 0.0004121959 0.0001886983 0.0002258486 0.0001702929 -0.5092539489 0.6754048314
460297240.0 0.0815021489 -0.0950174248 0.0001185346 0.0001396672 0.0002128771 -2.85614e-05 -0.5024559064 0.6799925872
465297210.0 0.0798878627 -0.0958434306 0.0003829142 0.0001103964 0.000273898 0.0002675287 -0.4952914971 0.6860598574
470297180.0 0.0787205862 -0.0965679306 7.01897e-05 0.0001847868 0.0001919215 8.28214e-05 -0.488123885 0.6905763516
475297150.0 0.0773007426 -0.0977043038 0.0001887515 0.000116505 0.0002769586 -2.64441e-05 -0.4812009802 0.6954424636
480297120.0 0.0761381718 -0.0989735014 0.0002111049 -0.000109623 0.0002928977 1.79965e-05 -0.4741909645 0.7002617782
485297090.0 0.0749361234 -0.09960178 0.0003705961 6.19651e-05 0.0002416122 0.000217546 -0.4673239044 0.7046554
490297060.0 0.0739499272 -0.1005072077 0.0002695624 0.0001590633 0.0002800636 0.0001759842 -0.4594222745 0.7092036632
495297030.0 0.0722752165 -0.1011386802 0.0001509221 3.7507e-05 0.0002105089 0.0002183022 -0.4522218843 0.7139300448
500297000.0 0.0709416028 -0.1018187005 0.0001043221 -5.9987e-05 0.0001472561 8.88752e-05 -0.4455137497 0.7185033818
505296970.0 0.069681506 -0.1026113178 0.0001190619 1.80236e-05 0.0001662714 6.77492e-05 -0.4373948289 0.7226972394
510296940.0 0.0682246517 -0.1032865139 6.73494e-05 3.9999e-05 0.0002151419 0.0001215167 -0.4303258669 0.7274938338
515296910.0 0.0668966194 -0.1039350599 0.0001478814 1.66259e-05 0.000296177 0.0001911565 -0.4232096773 0.7305589511
520296880.0 0.0659309944 -0.105052401 0.0002405137 0.0001276803 0.0002645301 2.0617e-06 -0.4152704096 0.7358580202
525296850.0 0.0644651108 -0.1053586815 0.0001509007 0.0001123395 0.0003948717 -1.84719e-05 -0.4081645315 0.7395090582
530296820.0 0.0630963343 -0.1060492184 0.0001949791 0.0001301692 0.0003161244 0.000238365 -0.4003610891 0.7433489319
535296790.0 0.0619247801 -0.1068395566 0.0002591102 9.33763e-05 0.0001575516 7.28938e-05 -0.3932823224 0.7483307005
540296760.0 0.0606895442 -0.1072489855 0.0002062376 6.79636e-05 0.0003854837 0.00020922 -0.3847252598 0.7513157476
545296730.0 0.0589558871 -0.1079328761 0.0002536627 0.0001310534 0.0001520758 6.89475e-05 -0.3776336159 0.7554600843
550296700.0 0.0579212662 -0.1084233241 0.0002331788 7.76897e-05 0.0002722167 6.77273e-05 -0.3699438343 0.7592107073
555296670.0 0.0565328143 -0.10879196 0.0001697097 -4.2102e-05 0.0003291 -1.58384e-05 -0.362440536 0.761756627
560296640.0 0.0554371896 -0.1092320162 0.0001919899 0.0002693747 0.0001964278 5.74775e-05 -0.3542037327 0.7670770217
565296610.0 0.0539080169 -0.1097347617 0.000361896 0.0002532186 0.0003252217 0.0001442531 -0.3470201274 0.7701312268
570296580.0 0.0524440954 -0.1102219787 0.0002685255 0.0002265019 0.0002172808 4.52776e-05 -0.3389420569 0.7729573565
575296550.0 0.0512258375 -0.1107690347 0.0003100685 -1.13454e-05 0.0002426421 1.833e-07 -0.3312038852 0.7766136716
580296520.0 0.0497057679 -0.1107420171 0.0002125983 0.0001457722 0.0002555101 3.60592e-05 -0.3232523999 0.7793399583
585296490.0 0.0483580734 -0.1112904559 0.0003048795 -0.0001316588 0.0003204658 0.0001936073 -0.3151754343 0.7835553415
590296460.0 0.0472818824 -0.1113738169 0.0003163005 0.0001412374 0.0003546217 0.0001989123 -0.3074648177 0.7860347201
595296430.0 0.0456433822 -0.1118798345 0.0005560499 -2.24258e-05 0.0001857318 0.000229502 -0.2999480223 0.7889780231
600296400.0 0.0442448938 -0.1121701082 7.39864e-05 -0.0001595769 0.0002638237 0.000161432 -0.2916043506 0.7921352513
605296370.0 0.0426890654 -0.1122140242 0.000186535 -4.91354e-05 0.0001851206 6.6828e-06 -0.2835222534 0.7952051793
610296340.0 0.0413176092 -0.1125367999 0.0004769346 1.15819e-05 0.0005044822 0.0001364435 -0.2756038922 0.7978940597
615296310.0 0.0403226608 -0.1127462564 0.0002457151 -0.000204547 0.0001534429 0.0001084169 -0.2678383606 0.8002816997
620296280.0 0.03865278 -0.1125922749 0.0002482262 -3.31841e-05 0.0001823602 -0.0001477189 -0.2599448263 0.8033639344
625296250.0 0.0373910904 -0.1129169338 0.0004382401 -6.8e-08 0.0003371665 3.58974e-05 -0.2516149358 0.8052136532
630296220.0 0.0359110272 -0.1131142357 0.0001670274 9.00422e-05 0.0005477358 0.0001312557 -0.2436990904 0.8080750655
635296190.0 0.0344102992 -0.1127026655 0.0003858569 2.39829e-05 0.0003607571 -0.000167559 -0.2355594961 0.8100696649
640296160.0 0.0329686829 -0.1134757436 0.000198687 -6.882e-06 0.0004149239 4.65024e-05 -0.2273800689 0.8125478096
645296130.0 0.0320473852 -0.1131608874 0.0002829311 -0.0001534926 0.0005450094 0.0001156638 -0.2193435234 0.8144007883
650296100.0 0.0303442674 -0.1134504187 0.0003424122 5.80503e-05 0.0002032716 3.79416e-05 -0.2109282299 0.8169513784
655296070.0 0.0288053616 -0.1134915303 0.0004677107 -3.54878e-05 0.000362558 -0.0001569328 -0.2029405375 0.8190090382
660296040.0 0.027227526 -0.1134160493 0.0004001453 -2.99779e-05 0.0004462115 7.92058e-05 -0.1938770897 0.8207473546
665296010.0 0.0260165373 -0.1131648749 0.0002333056 -8.24826e-05 0.000427281 0.0002351472 -0.1862568681 0.8223724785
670295980.0 0.0242926042 -0.1133345882 0.0005379153 1.09661e-05 0.0003284627 5.43197e-05 -0.1784243081 0.8241176133
675295950.0 0.0227298409 -0.1133821288 0.0003807781 -0.000147522 0.0003515436 0.0001483963 -0.1697182592 0.8264730776
680295920.0 0.0212717018 -0.112962924 0.0002390382 -9.59637e-05 0.0003066173 0.0001790752 -0.1613423967 0.827780442
685295890.0 0.0199586127 -0.1130623461 0.0003150489 8.2767e-06 0.0004230945 -6.54574e-05 -0.1533217543 0.8291562764
690295860.0 0.0186657654 -0.1128135164 0.0004013935 9.45219e-05 0.0004049124 9.53281e-05 -0.1454123326 0.8314311733
695295830.0 0.0168615208 -0.1126543267 0.0003654995 -1.05967e-05 0.0001345183 -1.83717e-05 -0.1365988811 0.8327445106
700295800.0 0.0155001228 -0.1128096009 0.0002754384 -0.0001060301 0.0003640751 0.0001295216 -0.1285962378 0.833273978
705295770.0 0.0140769372 -0.1126055832 0.0004708522 0.0002330053 0.0001234337 0.0001241102 -0.1205325706 0.8353216991
710295740.0 0.012581963 -0.1122122043 0.0002704594 -0.000137781 0.0003442492 1.7197e-06 -0.1114885614 0.8361252242
715295710.0 0.0111977746 -0.1119753098 0.0004657954 1.19375e-05 0.0002862215 1.45662e-05 -0.1033068439 0.8368488114
720295680.0 0.0097084274 -0.1118717435 0.0004690486 7.20247e-05 0.000388613 -0.0001600042 -0.0949259311 0.8377766533
725295650.0 0.0080272426 -0.111435833 0.0001785587 -7.71627e-05 0.0002821847 0.000140637 -0.0870459443 0.8394477609
730295620.0 0.0063811145 -0.1114058645 0.0001865342 -0.0002760844 0.0003378826 -1.92503e-05 -0.078944267 0.8405975296
735295590.0 0.0052062333 -0.1108833663 0.0002386182 4.005e-05 0.0003167743 -7.77316e-05 -0.069196189 0.8401682823
740295560.0 0.0034008349 -0.1106899379 0.0003491565 0.0001108599 0.0004155908 -0.0001522986 -0.0616241441 0.8410484494
745295530.0 0.0021758582 -0.1105635402 0.0002550279 5.08789e-05 0.0003572766 6.99513e-05 -0.0536562912 0.8417069118
750295500.0 0.0005929382 -0.1101130894 0.0004232229 -6.84696e-05 0.0004301267 0.0001917375 -0.0445439324 0.8424009577
755295470.0 -0.0011440753 -0.109876893 0.0005161446 -1.75026e-05 9.92713e-05 5.72878e-05 -0.0369855636 0.8426466664
760295440.0 -0.0023646996 -0.1094030002 0.0004420015 -8.57898e-05 0.0003221934 -0.000104066 -0.0280986374 0.8426832382
765295410.0 -0.0037931008 -0.1095229068 0.0005556907 -8.63924e-05 0.0003536915 -5.0681e-05 -0.0198122183 0.8433787213
770295380.0 -0.0052633742 -0.1086331126 0.0003266453 -0.0002019005 0.0003543237 -0.0001242791 -0.0113764324 0.8431091076
775295350.0 -0.0069358117 -0.1084864734 0.0004226196 -0.0001669138 0.0003396827 2.5719e-06 -0.0033238143 0.8431175891
780295320.0 -0.0083449241 -0.1079937255 0.0004093424 1.35616e-05 0.0004057694 -0.0001429172 0.0052374016 0.8436661792
785295290.0 -0.0094768675 -0.1078550007 0.0004950128 -0.0002436917 0.0004319445 -0.0001344116 0.0132815261 0.843616782
790295260.0 -0.0109101135 -0.1074343299 0.0006222997 -5.66203e-05 0.0003800636 5.75656e-05 0.0219448478 0.8432310342
795295230.0 -0.012372515 -0.1070359066 0.0005624186 2.30725e-05 0.0003483216 -0.0001029823 0.0301417566 0.8428259379
800295200.0 -0.0137985286 -0.1065332233 0.0004498278 -8.06394e-05 0.0003809375 -0.0001345605 0.0385999538 0.8422037206
805295170.0 -0.0154346267 -0.1061067133 0.0004051042 -0.0001621329 0.0002626288 7.59406e-05 0.0475878057 0.842002967
810295140.0 -0.016721359 -0.1053088085 0.0001317853 -7.15366e-05 0.0003461529 -0.0002245386 0.0560812281 0.8414097527
815295110.0 -0.0185213858 -0.1050551079 0.0001861947 7.76753e-05 0.0004739052 -0.0001789016 0.0636961067 0.8409516747
820295080.0 -0.0198740159 -0.1045660502 0.0004058543 -0.0001604957 0.0003965725 -0.0001169101 0.0716250745 0.8400170247
825295050.0 -0.0214683955 -0.1042877789 0.0003879191 2.38059e-05 0.0003597444 -0.0002639212 0.0799247651 0.8390979351
830295020.0 -0.0224546144 -0.1037613275 0.0004206498 -0.0001275994 0.000464126 -0.0001034723 0.0879237414 0.8382307767
835294990.0 -0.0239582311 -0.1035155264 0.0004681239 -0.0001056899 0.0003749465 -0.0002219534 0.0968422546 0.837547836
840294960.0 -0.0251653996 -0.1027627631 0.0005173171 6.9953e-05 0.0003395383 -0.0001156193 0.1055930445 0.8366748767
845294930.0 -0.0268684867 -0.1020272002 0.0002378711 -0.0002048218 0.0001547194 -0.0002239058 0.1136145092 0.8350499811
850294900.0 -0.027926909 -0.1018655728 0.0002137083 -0.000199372 0.0003342879 -5.37674e-05 0.1211397964 0.834545071
