!Created with skrf (http://scikit-rf.org).
# Hz S RI R 50.0 
!freq ReS11 ImS11 ReS21 ImS21 ReS12 ImS12 ReS22 ImS22
300000.0 -0.3150328023 -0.1298472855 0.3725648096 0.0643603633 0.3715565301 0.0641788594 -0.3170524198 -0.1282628611
5299970.0 -0.3247324219 0.0029050731 0.3783486172 0.0033015374 0.3787403182 0.0032574273 -0.3259174715 0.002254848
10299940.0 -0.3226607272 0.0137694398 0.3798995404 0.0027480351 0.3796512914 0.0033295502 -0.3234620031 0.0124723805
15299910.0 -0.3190030928 0.022405008 0.3820226619 0.0027831829 0.3825598089 0.0025902443 -0.3208229062 0.0198329167
20299880.0 -0.3156044442 0.029039458 0.3849501844 0.0017465164 0.3853726135 0.0018511856 -0.3178781505 0.02613377
25299850.0 -0.3116342274 0.0350076332 0.3885342239 0.0004126937 0.3889131931 -6.14592e-05 -0.3149518265 0.0312252166
30299820.0 -0.30857718 0.0394708006 0.3921351737 -0.0019114321 0.3924589137 -0.0022035999 -0.3120892829 0.0357782203
35299790.0 -0.3044256934 0.0433533452 0.3950199849 -0.0050343617 0.3952256319 -0.0050791478 -0.3093314899 0.0400527093
40299760.0 -0.3014132664 0.0467145087 0.398156142 -0.0087355108 0.3987037817 -0.0086924253 -0.3064855612 0.0435435382
45299730.0 -0.298555082 0.0502125972 0.4015079737 -0.0123127761 0.4017494254 -0.0127464449 -0.3036242831 0.0465861936
50299700.0 -0.2947182276 0.0527135892 0.4036631559 -0.0169615886 0.4039326102 -0.017389214 -0.3011864677 0.0496095083
55299670.0 -0.2924958544 0.0553969164 0.4065096417 -0.0216458676 0.4057805441 -0.022116535 -0.2993998747 0.0522105338
60299640.0 -0.2895344423 0.0577841991 0.4080561907 -0.026956338 0.4079848254 -0.0272009909 -0.2973769665 0.0551148972
65299610.0 -0.2874789506 0.060348206 0.4098315118 -0.0314329101 0.4099310668 -0.0317094393 -0.2951619817 0.0575523922
70299580.0 -0.2853978467 0.0621272001 0.410801082 -0.0365484228 0.4112329002 -0.0369807671 -0.2937302735 0.0598819279
75299550.0 -0.2835164002 0.0642893683 0.4116825166 -0.04206513 0.4119173698 -0.0419546702 -0.2916981099 0.062123035
80299520.0 -0.2818686307 0.0667099003 0.4127338717 -0.0474627807 0.4129715657 -0.0471543868 -0.2904824839 0.0648670741
85299490.0 -0.2800045773 0.0684860335 0.4134397102 -0.0525794279 0.4133891503 -0.0526137171 -0.2892289041 0.0671680504
90299460.0 -0.2782811781 0.0705041244 0.4137107991 -0.0575751386 0.4136203041 -0.0577591346 -0.2879528071 0.0695868414
95299430.0 -0.2765499974 0.07246531 0.4137099157 -0.062753946 0.4143566533 -0.0632100671 -0.2863381099 0.0718285181
100299400.0 -0.2752624893 0.0747622231 0.414004527 -0.0684544834 0.4142671541 -0.0683617508 -0.2854540638 0.0745620592
105299370.0 -0.2739790758 0.0765748413 0.4139731108 -0.0730454956 0.4142550658 -0.0735245317 -0.284114341 0.0762580732
110299340.0 -0.2729820504 0.0788880474 0.4141351248 -0.0779548016 0.4141863646 -0.0783681445 -0.2837014197 0.0786373596
115299310.0 -0.2715537143 0.0809337871 0.4135072921 -0.0833034524 0.4136798231 -0.083686014 -0.2824300715 0.0814067766
120299280.0 -0.2705231582 0.0830048056 0.4130724369 -0.0889608071 0.4128605819 -0.0893034244 -0.2809533195 0.0832139759
125299250.0 -0.2692348296 0.0853252522 0.4126731953 -0.0939899056 0.4125941426 -0.093792961 -0.2803290681 0.086011872
130299220.0 -0.2682554971 0.0873503739 0.411703207 -0.0992305483 0.412085227 -0.0995166757 -0.2792932663 0.088186159
135299190.0 -0.2670710686 0.0899445574 0.4110853613 -0.1037210888 0.4113394145 -0.1044587735 -0.2781803921 0.0905861054
140299160.0 -0.2661600605 0.0922304 0.4105069782 -0.1093193574 0.4102450891 -0.1086095324 -0.2777600439 0.0931136187
145299130.0 -0.265364606 0.0943470836 0.4096710526 -0.113623999 0.4096666062 -0.1139203722 -0.2766726892 0.0955016944
150299100.0 -0.264336433 0.0970611025 0.4084511895 -0.1187694883 0.4085661608 -0.1190183666 -0.2757950497 0.0984827883
155299070.0 -0.2630330576 0.0991721186 0.4069058159 -0.123620412 0.4072245787 -0.1237901851 -0.274763285 0.1008876587
160299040.0 -0.2623658644 0.1018828783 0.4063194633 -0.1285950062 0.4060523349 -0.1287139168 -0.2740229068 0.1035676302
165299010.0 -0.2610103888 0.1041648459 0.404740139 -0.1334575193 0.4047648823 -0.133695798 -0.2727143402 0.1058852725
170298980.0 -0.2602744226 0.1068092966 0.4034617536 -0.1382034591 0.4036193557 -0.1385203617 -0.2722848528 0.1086593407
175298950.0 -0.2591914518 0.1091190373 0.4022246001 -0.1429217881 0.4025368546 -0.1433414861 -0.2711711142 0.1114962785
180298920.0 -0.2583026754 0.111773435 0.4004899425 -0.1477316221 0.4007880064 -0.1482199936 -0.2699596421 0.1140884753
185298890.0 -0.2570832996 0.114409144 0.3992680004 -0.1524777127 0.3992983975 -0.1525203366 -0.2689669145 0.1165831053
190298860.0 -0.2560485838 0.1172488169 0.3974697712 -0.1573853089 0.3978236696 -0.1572445586 -0.2678238981 0.1192563874
195298830.0 -0.2550299588 0.1195991588 0.3962602282 -0.1618641029 0.3963338142 -0.1618390787 -0.2670870369 0.1218761291
200298800.0 -0.2535055454 0.1219453971 0.3943242052 -0.166826249 0.3944548288 -0.1667428135 -0.2657586428 0.1245736261
205298770.0 -0.2527689341 0.124546735 0.3924520541 -0.1708472975 0.3926499109 -0.1711377771 -0.2645185581 0.1273493806
210298740.0 -0.2517565441 0.1270631921 0.3905744026 -0.1753642341 0.3905184768 -0.1753091467 -0.2637766442 0.1298658529
215298710.0 -0.2502192523 0.1302875209 0.3883590476 -0.1800171196 0.3886031358 -0.1803099431 -0.262493591 0.1326358766
220298680.0 -0.2490987076 0.1325562024 0.3863741593 -0.1844164872 0.3869703167 -0.1848743412 -0.2611385512 0.1352044344
225298650.0 -0.2477695568 0.135297293 0.3845049077 -0.1889231627 0.3847655424 -0.1887568193 -0.2598925531 0.1380034664
230298620.0 -0.2465258459 0.1379323992 0.3825952711 -0.1932050297 0.3829040807 -0.1938251588 -0.2585857575 0.1404466644
235298590.0 -0.2452422171 0.1407207924 0.3806673831 -0.1980878781 0.380713056 -0.1979550008 -0.2573001698 0.1435244225
240298560.0 -0.2441743311 0.1431715987 0.378535258 -0.2021819416 0.378576853 -0.2019842243 -0.2561054805 0.145714622
245298530.0 -0.2429766381 0.1458694918 0.3760276879 -0.2067844628 0.3764341658 -0.2064500529 -0.2549135926 0.1488056814
250298500.0 -0.2414528985 0.1483464258 0.3738890718 -0.210417045 0.373861129 -0.2105280759 -0.2536728682 0.1515303238
255298470.0 -0.2399092844 0.15106098 0.3718173137 -0.2147434716 0.3721594354 -0.2152556346 -0.2522565452 0.1544609869
260298440.0 -0.2384351628 0.1536792406 0.3690278554 -0.2187489013 0.3694264629 -0.2189735716 -0.2508709872 0.1568535832
265298410.0 -0.2375288626 0.1560409159 0.3664800635 -0.2233387799 0.3668130738 -0.2236696529 -0.2488061804 0.159415453
270298380.0 -0.2359716366 0.1585300448 0.3645033875 -0.2275995886 0.3645801978 -0.2274597296 -0.2473389105 0.1620668742
275298350.0 -0.2345838068 0.1613973318 0.3615897117 -0.2311568235 0.3618925182 -0.2314594653 -0.2460857045 0.1648895963
280298320.0 -0.2330737487 0.1640095375 0.3593020028 -0.2353063268 0.3593609473 -0.2357188565 -0.2442403986 0.1673635713
285298290.0 -0.2315111923 0.166567101 0.3565802936 -0.2395479795 0.3572136423 -0.2394072549 -0.2428528315 0.1706144569
290298260.0 -0.2300799946 0.1693340039 0.3543761433 -0.2437579327 0.3544963117 -0.2437201777 -0.2413200411 0.1729663132
295298230.0 -0.2285692127 0.1714864116 0.3515290967 -0.2478196064 0.3519258134 -0.2479718371 -0.2397912644 0.1753276513
300298200.0 -0.2265354109 0.1744378168 0.3488643826 -0.2518525219 0.3491450745 -0.2516716376 -0.2377663672 0.1778742706
305298170.0 -0.2253050094 0.1765433826 0.346387634 -0.2557326518 0.346289943 -0.2558504036 -0.2357535321 0.1803100695
310298140.0 -0.2232277274 0.1787712859 0.3433758327 -0.2594077988 0.3435295458 -0.2594425528 -0.2339006812 0.1829572379
315298110.0 -0.2220640218 0.1812011813 0.3404846977 -0.2638685184 0.3406202274 -0.2635374087 -0.2324447266 0.1856865508
320298080.0 -0.2201323959 0.1837796622 0.337133885 -0.2674458804 0.3379846955 -0.2676723564 -0.2306229421 0.1882225727
325298050.0 -0.2182613295 0.1859241052 0.3342262376 -0.2710106969 0.3350738176 -0.2714367943 -0.2283085254 0.1902136828
330298020.0 -0.2169368108 0.188631141 0.3313653437 -0.2750231253 0.3318189623 -0.2749489891 -0.2271222219 0.192768777
335297990.0 -0.2152900162 0.1907213285 0.3283846292 -0.2785192814 0.3286221924 -0.2786135888 -0.2250295268 0.1953957357
340297960.0 -0.2135776483 0.1931598529 0.3246454708 -0.2822800067 0.325353246 -0.2821907502 -0.2231828827 0.1981147572
345297930.0 -0.2119615808 0.1955585767 0.3219435292 -0.2858376841 0.32204751 -0.2861452622 -0.2213827655 0.2003225193
350297900.0 -0.2100019949 0.1979523776 0.3187951765 -0.2893146955 0.319123349 -0.2893625825 -0.2194896672 0.2026110488
355297870.0 -0.2083550069 0.2003416375 0.3158596304 -0.2926252269 0.3157701074 -0.2923906267 -0.216948823 0.205557527
360297840.0 -0.2062634356 0.2026433549 0.3120508502 -0.2961275498 0.3125134824 -0.2965432268 -0.2151481826 0.2081611898
365297810.0 -0.2043303858 0.2049199465 0.3087180593 -0.2996872783 0.3090199037 -0.2997198635 -0.213318921 0.2101090571
370297780.0 -0.2023906435 0.2073294112 0.3051745657 -0.3031990961 0.3057749922 -0.3030218404 -0.2109734579 0.2126652413
375297750.0 -0.2007286812 0.2095275218 0.3024083896 -0.3059893246 0.3023340878 -0.3063165553 -0.2085992796 0.2148090499
380297720.0 -0.1986051222 0.2120848398 0.2991456583 -0.3098485014 0.2990140724 -0.309842354 -0.2067328081 0.2176188346
385297690.0 -0.1964985674 0.2141759786 0.2952428209 -0.3131064439 0.2955082725 -0.31323844 -0.204501573 0.2199345679
390297660.0 -0.1941539793 0.2160679097 0.2920963146 -0.3160844878 0.2920981817 -0.3162832619 -0.201735878 0.2220083752
395297630.0 -0.1918088026 0.2185077006 0.2883539779 -0.3189979132 0.2885222152 -0.3188930439 -0.1999029893 0.2241871106
400297600.0 -0.1901141208 0.2207016985 0.2851251403 -0.3226776888 0.2855198121 -0.3224802979 -0.1976482838 0.2267228465
405297570.0 -0.1877626456 0.2223464281 0.2814076131 -0.3252781497 0.2814903828 -0.3258667544 -0.195102314 0.2289957423
410297540.0 -0.1853182701 0.2246748166 0.2776611341 -0.328704398 0.2783405558 -0.3287238558 -0.1931273986 0.2315123931
415297510.0 -0.1835408802 0.226919562 0.274171751 -0.3318447274 0.2743793127 -0.3316527286 -0.1904222719 0.2331475172
420297480.0 -0.1810651387 0.2286281041 0.2705018358 -0.3345379642 0.2707284369 -0.3348311821 -0.18788881 0.2358993325
425297450.0 -0.178686229 0.2307000663 0.2667188396 -0.3372186755 0.266466834 -0.3375573678 -0.1854379891 0.2372815869
430297420.0 -0.1765635689 0.2325020823 0.2635376881 -0.3404806807 0.2636557292 -0.3399289803 -0.1829235441 0.2396258845
435297390.0 -0.174081632 0.2345695519 0.2591427401 -0.3437865732 0.2593027745 -0.3434896198 -0.1806989137 0.2424154082
440297360.0 -0.1720078734 0.236465758 0.2554069743 -0.3462567847 0.255743162 -0.3461587674 -0.1782774745 0.2441566797
445297330.0 -0.1692153438 0.2383917725 0.2518074808 -0.3485057335 0.252059145 -0.3492059864 -0.1754146064 0.2463499301
450297300.0 -0.1666094041 0.2401274762 0.2479294968 -0.3515703566 0.2482669127 -0.3514838162 -0.1728665737 0.2480755251
455297270.0 -0.1642348996 0.2421316336 0.2442530666 -0.3542026976 0.244361164 -0.3544257932 -0.1701338481 0.2499457154
460297240.0 -0.1616625101 0.2438966362 0.2404119643 -0.3573529936 0.2403337773 -0.3569703851 -0.1677206162 0.2518664783
465297210.0 -0.159092669 0.2459145913 0.2359733327 -0.3597462109 0.2358474488 -0.3599823369 -0.1647914424 0.2541917665
470297180.0 -0.1566127381 0.2476711581 0.2321602606 -0.361871144 0.2324573955 -0.3618421794 -0.1622240592 0.2559722989
475297150.0 -0.154002623 0.2493796708 0.2280945478 -0.3646812037 0.2283313907 -0.3647161673 -0.159627252 0.2579222197
480297120.0 -0.1507240335 0.2512228639 0.224142092 -0.3672807675 0.2245279099 -0.3670558549 -0.157075269 0.2598008067
485297090.0 -0.1487281718 0.2525709011 0.2201546831 -0.369649686 0.2201702769 -0.3694879535 -0.1543627517 0.261770847
490297060.0 -0.1453748841 0.2546706746 0.2159057679 -0.3720294687 0.2160406495 -0.3721591231 -0.1514547047 0.26319038
495297030.0 -0.1430401776 0.2560081735 0.2122921005 -0.3740856184 0.2117836315 -0.3742246131 -0.1481890933 0.2651471484
500297000.0 -0.140138063 0.2578825258 0.2076604916 -0.3764183472 0.2078493004 -0.376612245 -0.1457704715 0.2668987804
505296970.0 -0.1372767077 0.2594454035 0.2037561561 -0.3787671943 0.2035868928 -0.3784457253 -0.14285754 0.2681714237
510296940.0 -0.1346919335 0.2610979492 0.199494779 -0.3814969472 0.1998859996 -0.3811066904 -0.1398461842 0.2702097672
515296910.0 -0.1318650744 0.2629683984 0.1948163724 -0.3832188329 0.1950401035 -0.382887197 -0.1371551482 0.2713263876
520296880.0 -0.1287829331 0.2641373984 0.1911406732 -0.3848312957 0.1908489484 -0.3850831596 -0.1340852699 0.2735840441
525296850.0 -0.1260195074 0.2656777129 0.1869027147 -0.3871583099 0.1866208586 -0.3870866123 -0.1313440016 0.2753349183
530296820.0 -0.1233932656 0.2668254954 0.1826286029 -0.388857571 0.1823790604 -0.3890576482 -0.1284079113 0.2762720156
535296790.0 -0.1199085893 0.2684646449 0.1781737944 -0.3908211041 0.1784494159 -0.3912269553 -0.1251911337 0.2779720002
540296760.0 -0.1171182992 0.270123448 0.1739407325 -0.3933543954 0.1735712567 -0.392498114 -0.1222059962 0.2787303412
545296730.0 -0.1146832329 0.2717700991 0.1695948309 -0.394581465 0.1695042662 -0.3945380847 -0.1196200985 0.2806208882
550296700.0 -0.1110893867 0.2726954697 0.1650057941 -0.3965167069 0.1651210057 -0.3966855585 -0.1167404244 0.2819986952
555296670.0 -0.1084557123 0.2742773015 0.1610319675 -0.3987595172 0.160961097 -0.398131137 -0.1139479766 0.282753518
560296640.0 -0.105033752 0.2750182989 0.156053756 -0.399649843 0.1564311496 -0.4001339351 -0.1103442699 0.2849634343
565296610.0 -0.1026457454 0.2766919009 0.1522783992 -0.4015726151 0.1521493972 -0.4013959072 -0.1074399968 0.286387435
570296580.0 -0.0994971189 0.2780928362 0.1475339407 -0.4029097818 0.1478031255 -0.403257004 -0.1045727686 0.2871759529
575296550.0 -0.0962005376 0.279008808 0.1431991635 -0.4046686751 0.1432048075 -0.4048050748 -0.1015022962 0.2885056807
580296520.0 -0.0935018679 0.280627519 0.1387174377 -0.4058087891 0.138675054 -0.4064053843 -0.0986003928 0.2896678232
585296490.0 -0.0901703593 0.2818445799 0.1348324622 -0.4079091866 0.1339127994 -0.407537519 -0.0949965444 0.2909963481
590296460.0 -0.0865154032 0.2827922926 0.1300272283 -0.4090061859 0.1297357722 -0.4093939702 -0.0925575181 0.2923540584
595296430.0 -0.0839471936 0.284167453 0.1253418776 -0.4104421538 0.1252742533 -0.4104836166 -0.0895215367 0.2930634999
600296400.0 -0.0809127072 0.2851908227 0.1205257489 -0.411641587 0.1206658751 -0.411765771 -0.0862341756 0.2938338183
605296370.0 -0.0778772998 0.2864498435 0.1169150109 -0.4127552741 0.1162216242 -0.4130142044 -0.0830015637 0.2949483044
610296340.0 -0.0743358195 0.2876013468 0.1117547324 -0.4137786821 0.1120427269 -0.4138564215 -0.0798788107 0.2963422365
615296310.0 -0.0711012495 0.2885759491 0.1072936976 -0.4154815787 0.1067752481 -0.4155590462 -0.0763866905 0.2973597405
620296280.0 -0.06845363 0.28981415 0.1027917393 -0.4163726183 0.1029880611 -0.4162684019 -0.0737223992 0.2983872596
625296250.0 -0.0655429597 0.2902823439 0.0985686495 -0.4173457924 0.0981719406 -0.4178635913 -0.0707802794 0.299068158
630296220.0 -0.0622695589 0.2911195334 0.0938868366 -0.4182503097 0.0935176863 -0.4182987826 -0.0673441678 0.2999249575
635296190.0 -0.0593437957 0.2924451962 0.0893389279 -0.4189461355 0.0892815801 -0.4191605383 -0.0644099346 0.3007252748
640296160.0 -0.0559771852 0.2931551111 0.0847344923 -0.420528513 0.0846194695 -0.4203998954 -0.0611102806 0.3017572318
645296130.0 -0.0527629063 0.2944261044 0.0803701312 -0.4210560862 0.0797983591 -0.4210091401 -0.0582680179 0.3021639594
650296100.0 -0.0500201446 0.2948872064 0.0758702872 -0.4220009854 0.0750079185 -0.4221258812 -0.054069746 0.3031074655
655296070.0 -0.0467266457 0.29579475 0.070848153 -0.4229126196 0.0708722038 -0.4225650963 -0.0517263176 0.3039879049
660296040.0 -0.0434496924 0.2967014965 0.06634268 -0.4235056001 0.0660957428 -0.4235079529 -0.0485053949 0.304111256
665296010.0 -0.0404772264 0.2972669902 0.0615078006 -0.4238405436 0.0614231865 -0.4237933794 -0.0451703674 0.3050416626
670295980.0 -0.0372629403 0.2983303183 0.0568422204 -0.4248200225 0.0568991825 -0.4243903897 -0.0422599704 0.3055014717
675295950.0 -0.0342603776 0.2987329545 0.0524245617 -0.424879556 0.0524162852 -0.4253522794 -0.0388661116 0.3063153484
680295920.0 -0.0314283822 0.2996253721 0.0483229822 -0.4254041797 0.047759124 -0.4254667218 -0.0353269361 0.3068114486
685295890.0 -0.0276716953 0.300196034 0.0430878534 -0.4264932642 0.0433339799 -0.4262331006 -0.0325035705 0.3072870511
690295860.0 -0.0250761368 0.3003576216 0.0387370012 -0.4265970761 0.0384849175 -0.4265392113 -0.0292107526 0.307836223
695295830.0 -0.0216825194 0.300997237 0.0341524033 -0.4269265433 0.0338338339 -0.4271146002 -0.0256725658 0.3086023313
700295800.0 -0.0185243381 0.3017253198 0.0298538485 -0.4272749248 0.0292312602 -0.4273332089 -0.0223837266 0.3086247236
705295770.0 -0.0154770239 0.3020657558 0.0247800784 -0.4276427845 0.0246933047 -0.4271920231 -0.0193912998 0.3091751421
710295740.0 -0.0126507947 0.3023984063 0.0204339168 -0.4273340648 0.0197707564 -0.4280497895 -0.0161505178 0.3097871261
715295710.0 -0.0087183215 0.3027087504 0.0153322624 -0.4277901672 0.0154998388 -0.4277882683 -0.0126797506 0.3093588459
720295680.0 -0.0058225821 0.3031878212 0.0108800794 -0.4277556426 0.0108852014 -0.4282260163 -0.0096685029 0.3098575059
725295650.0 -0.0032458609 0.3036068108 0.0069818735 -0.4277944166 0.0062956317 -0.4281295737 -0.006391169 0.3107340553
730295620.0 -0.0006916232 0.3039335755 0.0018955861 -0.4278342006 0.0016185276 -0.4277607216 -0.0034105276 0.3108382592
735295590.0 0.0028198333 0.3040807342 -0.002961719 -0.4278968265 -0.0031540658 -0.4281013094 6.54094e-05 0.3106180717
740295560.0 0.0055592507 0.3038347851 -0.0073254523 -0.4277223303 -0.0075001615 -0.4280934602 0.0035146124 0.3110503625
745295530.0 0.0091320039 0.3047267645 -0.0120400794 -0.4272350971 -0.0114416716 -0.4278410136 0.0060874094 0.3112213192
750295500.0 0.0120137748 0.3046329302 -0.0164658103 -0.4275317594 -0.0170613274 -0.4276717297 0.0096940579 0.3110549682
755295470.0 0.015228645 0.3047453337 -0.0210478188 -0.4273981495 -0.0213528429 -0.4275313358 0.0129386438 0.3112254962
760295440.0 0.0181760338 0.304855638 -0.0260543435 -0.4268220018 -0.0259751305 -0.4268076362 0.0162575414 0.3105092566
765295410.0 0.0214689952 0.3049038261 -0.0303042354 -0.426843727 -0.0302961606 -0.4267472932 0.0194722678 0.3110312785
770295380.0 0.0241298656 0.3052245454 -0.0348516163 -0.4257802512 -0.0348169604 -0.4264174064 0.0226212969 0.3108877915
775295350.0 0.0274348106 0.3047755584 -0.0395642078 -0.4257231432 -0.0394485888 -0.4257478297 0.0259790921 0.3107880678
780295320.0 0.0306835024 0.3047782391 -0.0440300646 -0.4253678695 -0.0440709014 -0.4256088198 0.0294196788 0.310939195
785295290.0 0.033666102 0.3047117462 -0.0485758418 -0.4249563908 -0.048467498 -0.424996293 0.0323796199 0.3107034975
790295260.0 0.0368208869 0.304349793 -0.0531463159 -0.4241943251 -0.0532515496 -0.424513118 0.0357241814 0.3105603256
795295230.0 0.0395352846 0.3042305586 -0.0578582099 -0.4238693558 -0.0577678598 -0.4239503459 0.0388709986 0.3098276765
800295200.0 0.0426276735 0.3045453106 -0.0619625358 -0.4227178266 -0.0622681434 -0.4232435942 0.042164355 0.309909117
805295170.0 0.0455874139 0.3041953072 -0.0669688173 -0.4224020401 -0.0667557476 -0.4224873158 0.0458663663 0.309538437
810295140.0 0.0490394417 0.3037047797 -0.0711366565 -0.4211668472 -0.0716353698 -0.4213478967 0.0488947593 0.3094568232
815295110.0 0.0518593057 0.3035244126 -0.0757555252 -0.4210127762 -0.0755423517 -0.4207546735 0.0519858217 0.3089885968
820295080.0 0.0548280404 0.3031117253 -0.0797840388 -0.4197107828 -0.0803902289 -0.4203216394 0.054404413 0.3090244173
825295050.0 0.057662743 0.3025038241 -0.0848734851 -0.4189811796 -0.0853206444 -0.4191044369 0.0586236287 0.3084259092
830295020.0 0.0610213657 0.3022709986 -0.0896382498 -0.4180473758 -0.0895427919 -0.4181649463 0.0615378384 0.3075476004
