!Created with skrf (http://scikit-rf.org).
# Hz S RI R 50.0 
!freq ReS11 ImS11 ReS21 ImS21 ReS12 ImS12 ReS22 ImS22
300000.0 -0.2403389957 -0.0732827855 0.4716297097 0.0506202792 0.4672484449 0.0506285895 -0.2380880453 -0.0905261782
5299970.0 -0.2441765366 0.0073983033 0.4736467238 0.0047730629 0.4732684733 0.0051846942 -0.2438660144 0.0072748865
10299940.0 -0.2409592596 0.019097353 0.4755021411 0.0060791142 0.475546563 0.0061606572 -0.2405999496 0.0202433513
15299910.0 -0.2367040561 0.0281040372 0.4791317979 0.0075092747 0.4792750284 0.0075355332 -0.2359358961 0.0298850559
20299880.0 -0.2321495947 0.0353966502 0.4839116901 0.0085349115 0.4840829781 0.008045469 -0.2310305911 0.0373529451
25299850.0 -0.2268417545 0.0419622949 0.4888999595 0.0074803914 0.4893483534 0.0072378875 -0.2249136761 0.044234169
30299820.0 -0.2215662437 0.0472426339 0.4942798025 0.005319719 0.4943769321 0.005199711 -0.2189891082 0.0494291103
35299790.0 -0.216287778 0.0514692528 0.5001284405 0.0019199803 0.5000601139 0.001969508 -0.2135179522 0.0536644685
40299760.0 -0.2114477792 0.0550120638 0.5049346662 -0.0019317392 0.5051162606 -0.0018042184 -0.2080849283 0.0562582202
45299730.0 -0.2069459139 0.0578834096 0.5100766898 -0.00636452 0.5099003063 -0.0066247333 -0.203325634 0.0589792406
50299700.0 -0.2024005335 0.0598504219 0.5144646804 -0.0123968646 0.5144235364 -0.0119934296 -0.1985844107 0.0610044141
55299670.0 -0.1982198176 0.0618799682 0.5178854629 -0.0185482848 0.5180561773 -0.0181105291 -0.1945833015 0.0623639109
60299640.0 -0.194115812 0.0635233674 0.5209434611 -0.0245004498 0.5213435773 -0.0243083664 -0.1907007978 0.0634079396
65299610.0 -0.191116739 0.0646504102 0.5240735162 -0.0305050536 0.524138003 -0.0309660498 -0.1871949252 0.0642947218
70299580.0 -0.1880895959 0.0662313886 0.526664807 -0.037573224 0.5263488252 -0.0372757046 -0.1839328809 0.0648868179
75299550.0 -0.1849352741 0.0673264857 0.5283245631 -0.0442229704 0.528222944 -0.0442903422 -0.1811766265 0.0651974736
80299520.0 -0.1824335949 0.0683027371 0.5303857185 -0.0514364174 0.530669825 -0.0512283647 -0.1785409664 0.0660925673
85299490.0 -0.1803013737 0.0688975097 0.531681447 -0.0578171941 0.5315879548 -0.057845974 -0.1762099935 0.0661966081
90299460.0 -0.1777052705 0.0698533787 0.5324900537 -0.0652128238 0.5329302881 -0.0649889211 -0.1738472536 0.0668247522
95299430.0 -0.175591732 0.0702879287 0.5334315382 -0.0714689341 0.5338422702 -0.071819843 -0.1715224914 0.0670275191
100299400.0 -0.1739900224 0.0717841738 0.5337445819 -0.0787021249 0.5335414756 -0.0789452575 -0.1694789329 0.0673606856
105299370.0 -0.1720421874 0.0725045477 0.5344528559 -0.0860272866 0.534437585 -0.0857221201 -0.1674551955 0.06789549
110299340.0 -0.1704230895 0.0733936953 0.5348091779 -0.0920707055 0.5343776245 -0.0924184012 -0.1665073461 0.0684768138
115299310.0 -0.1688162296 0.0743511251 0.5345717415 -0.0993961974 0.5343854944 -0.0992146532 -0.1648826419 0.0687410698
120299280.0 -0.1673224662 0.0745934571 0.5339324945 -0.1063510713 0.5343484737 -0.1065346329 -0.1634682492 0.0691842984
125299250.0 -0.1661447271 0.0756594977 0.5336593914 -0.1124083562 0.5339416208 -0.1127167761 -0.1626373542 0.0693735929
130299220.0 -0.1650631254 0.0767913694 0.5330716179 -0.1197932232 0.5330583696 -0.1198100297 -0.1610490843 0.0704321556
135299190.0 -0.1636426506 0.0778861105 0.5325056489 -0.126192139 0.532681959 -0.1263022049 -0.1598267486 0.071010686
140299160.0 -0.1627346339 0.0791061403 0.5323326783 -0.1331704739 0.5320929166 -0.133103927 -0.1587598534 0.0718740151
145299130.0 -0.1612354524 0.0801185737 0.5310397222 -0.1395766488 0.5305542407 -0.1396311767 -0.1577893057 0.0727504062
150299100.0 -0.1600800528 0.081290736 0.5297264953 -0.1456691789 0.5296537487 -0.145788204 -0.1570243001 0.0737270688
155299070.0 -0.1594503605 0.0822618112 0.5287236091 -0.1531486669 0.5280870455 -0.1526989279 -0.1558617272 0.074557022
160299040.0 -0.1581268031 0.0834180225 0.5271750937 -0.1587081511 0.5270152239 -0.1593542423 -0.155325805 0.0754389554
165299010.0 -0.1573862725 0.084702028 0.5259592543 -0.1657866316 0.5254786624 -0.1658545533 -0.1540596642 0.0766639517
170298980.0 -0.1564572556 0.0857446967 0.523985677 -0.1716676738 0.5242090571 -0.1718278211 -0.1531960729 0.0775819579
175298950.0 -0.155488038 0.086863624 0.5229519893 -0.1778825183 0.5222057655 -0.1781202171 -0.1527359356 0.0786796604
180298920.0 -0.1547314016 0.0883049424 0.5209389042 -0.184831518 0.5204698613 -0.1842269161 -0.1518983524 0.0801188308
185298890.0 -0.1532196597 0.0894767236 0.5187152775 -0.1905319076 0.5188075043 -0.1907395915 -0.1509754071 0.0809715929
190298860.0 -0.152610464 0.0911637084 0.5172515172 -0.1970687677 0.5176286447 -0.1969771405 -0.1505402865 0.0818972397
195298830.0 -0.1517405416 0.091897724 0.5153144955 -0.2030870075 0.5151140429 -0.2027513665 -0.1495098816 0.0829243078
200298800.0 -0.1507742237 0.0933607231 0.5127876907 -0.2090826547 0.5130292474 -0.2090374384 -0.1493461362 0.0843606139
205298770.0 -0.1496622867 0.0952233329 0.510423291 -0.215544261 0.5105713959 -0.2149053377 -0.1483035932 0.0848598015
210298740.0 -0.1488683347 0.0963647976 0.5082653584 -0.2211148274 0.5084687474 -0.2208821613 -0.1473683519 0.0868294711
215298710.0 -0.1482564964 0.0976049677 0.5061668711 -0.2274622345 0.5057549877 -0.2271045112 -0.1471798479 0.0876850803
220298680.0 -0.1469240284 0.0987226433 0.5032149989 -0.2329304849 0.5034832501 -0.2330163136 -0.1467949969 0.0888781541
225298650.0 -0.1462539963 0.1003195552 0.5013646543 -0.2387233026 0.501247604 -0.2389192318 -0.1462081223 0.089798708
230298620.0 -0.1452009555 0.1020255821 0.4989851001 -0.2443427983 0.4989561827 -0.2444741645 -0.1457260017 0.090665506
235298590.0 -0.1443352661 0.103597138 0.496484841 -0.2500780105 0.4961460941 -0.2499283933 -0.1450790142 0.0922501953
240298560.0 -0.143018126 0.1050491197 0.4935766419 -0.2562154224 0.4933769101 -0.2563605138 -0.1438113087 0.0937831606
245298530.0 -0.1422191565 0.1063864515 0.491116095 -0.2616231482 0.4906623409 -0.2621065004 -0.1428984235 0.0943717735
250298500.0 -0.1406820884 0.1078388799 0.486846437 -0.2677003783 0.4873937992 -0.2672081576 -0.1427983865 0.0958441823
255298470.0 -0.1401684002 0.1090607044 0.4844044622 -0.2725581171 0.4847651074 -0.2729458582 -0.1415858576 0.096855067
260298440.0 -0.138948914 0.1105736284 0.4815205181 -0.278856662 0.4818120931 -0.2784782789 -0.1406811405 0.0982762272
265298410.0 -0.1377972689 0.1124326482 0.478459957 -0.2845224368 0.4788281779 -0.2837447385 -0.1398257166 0.0995010986
270298380.0 -0.136628223 0.1137595467 0.4758544189 -0.2890487338 0.4759565691 -0.2895171558 -0.139434867 0.1003011376
275298350.0 -0.1351750315 0.115417617 0.4724595071 -0.2951940194 0.4727184452 -0.2951090858 -0.1381707629 0.1018656337
280298320.0 -0.1338978609 0.1168494732 0.4695912646 -0.3004106195 0.469099426 -0.3001707277 -0.1368799101 0.102956797
285298290.0 -0.1327657169 0.1183971946 0.4663358918 -0.3052932721 0.4659510622 -0.3056891168 -0.1360942178 0.1042474369
290298260.0 -0.1313777754 0.1196774883 0.4626211466 -0.3106735958 0.4628730212 -0.3109904393 -0.1350900707 0.1056838202
295298230.0 -0.1303319461 0.1206320767 0.4594532477 -0.3164938438 0.4593894265 -0.3160722026 -0.1334781715 0.1065481632
300298200.0 -0.1291912204 0.1223592694 0.4566185867 -0.3211039177 0.4559748832 -0.3215924001 -0.1328088751 0.107921125
305298170.0 -0.1276009905 0.1237464407 0.4525371476 -0.3270738635 0.4522932181 -0.3264840241 -0.1311918099 0.1086365004
310298140.0 -0.1264529696 0.1249441965 0.449098913 -0.3320535545 0.449111054 -0.3317603638 -0.1304300039 0.1102533288
315298110.0 -0.1251201578 0.1260577838 0.4454040028 -0.3369510449 0.4453522524 -0.3372173297 -0.1294515194 0.1113224838
320298080.0 -0.1238133334 0.1273773107 0.4408591307 -0.3424527417 0.4417632841 -0.3417520341 -0.1284561287 0.112733436
325298050.0 -0.1225999511 0.128581957 0.4373616221 -0.3474225634 0.4376028758 -0.3468215139 -0.1278928202 0.1136488818
330298020.0 -0.1213273141 0.1301173586 0.4336295625 -0.3523093501 0.433580889 -0.3520904961 -0.1266838736 0.1149654303
335297990.0 -0.1201042097 0.1310865856 0.4295369852 -0.3567208502 0.4294945528 -0.356959468 -0.1264729289 0.1167320404
340297960.0 -0.1193630836 0.1328067061 0.4256964491 -0.3618283896 0.4250877978 -0.3619552222 -0.1245620794 0.1178333942
345297930.0 -0.1178664012 0.1346010775 0.421320361 -0.3664898889 0.4209575812 -0.3667118006 -0.1242419901 0.1188142082
350297900.0 -0.1164651654 0.1354567969 0.4165957032 -0.3713079672 0.4167823078 -0.3710647044 -0.1233174817 0.1208610555
355297870.0 -0.1149622533 0.1374802047 0.4126589118 -0.3761009203 0.4133592022 -0.3756110262 -0.1223824078 0.1219226657
360297840.0 -0.1138145485 0.1383339198 0.4092504419 -0.38002299 0.4094436295 -0.3801594305 -0.1210476192 0.1236531445
365297810.0 -0.1126675501 0.1402029645 0.4046894219 -0.3846751781 0.4048264322 -0.3849609388 -0.1200345313 0.1247882681
370297780.0 -0.1107460573 0.1415468361 0.3999883057 -0.389009223 0.4005361721 -0.3886964045 -0.118989079 0.1262104691
375297750.0 -0.1091542935 0.1426991834 0.396151954 -0.3934269121 0.39643268 -0.3938146141 -0.1180103247 0.1278922113
380297720.0 -0.1077339502 0.1439596132 0.3919370882 -0.3978549787 0.3922017013 -0.3975329229 -0.1171868672 0.1290684946
385297690.0 -0.1065444461 0.145665268 0.3874490921 -0.4023931023 0.3874586942 -0.4019607005 -0.115771799 0.130420579
390297660.0 -0.1048418367 0.1468407969 0.3830754688 -0.406649336 0.3828664419 -0.4063486463 -0.114858726 0.1318319828
395297630.0 -0.1033051666 0.1481019421 0.3783602475 -0.4104735536 0.3785431714 -0.4105744205 -0.1129243951 0.1325465216
400297600.0 -0.1018547056 0.1497775172 0.3736968877 -0.4153464804 0.3738006986 -0.4146885321 -0.1122044144 0.1339931668
405297570.0 -0.100258546 0.1506171457 0.3694827858 -0.4184975934 0.36929797 -0.418704298 -0.1110480931 0.1351609612
410297540.0 -0.0984407028 0.1519534013 0.3646509617 -0.4225754871 0.3650513915 -0.4229450633 -0.1101877024 0.1367738767
415297510.0 -0.0967365284 0.1531425556 0.3597367557 -0.4274615519 0.3601352693 -0.4271894782 -0.1089193183 0.1376029808
420297480.0 -0.0952054629 0.1548466961 0.3549312534 -0.430831172 0.3553415057 -0.4309238942 -0.1077686162 0.1385130265
425297450.0 -0.0933042918 0.1552319266 0.350694541 -0.4348070134 0.3507923049 -0.4348184901 -0.1066242025 0.1402821148
430297420.0 -0.0918931304 0.1566379214 0.345961382 -0.4382299187 0.3459054269 -0.4379680204 -0.105427195 0.1407122367
435297390.0 -0.0901215461 0.1579634273 0.3407827727 -0.4421950226 0.3406638249 -0.4424748845 -0.1032087771 0.1417711277
440297360.0 -0.0886117201 0.1590177767 0.3363973283 -0.4458496914 0.3358168502 -0.4459511281 -0.1026309866 0.143037679
445297330.0 -0.086524736 0.1597446918 0.3312158987 -0.449321659 0.3312020401 -0.449319209 -0.1009930656 0.1434638503
450297300.0 -0.0848833302 0.160828216 0.3262729464 -0.4532435456 0.325789835 -0.4532689327 -0.0996519619 0.1446726913
455297270.0 -0.0830380804 0.1619480417 0.3211712311 -0.4565933974 0.3212622684 -0.4568187087 -0.0981373432 0.1459286843
460297240.0 -0.081688137 0.1630880239 0.3162454206 -0.4599320103 0.3162583886 -0.4599949162 -0.0967308377 0.1471010495
465297210.0 -0.0793893178 0.1641816908 0.3112937745 -0.4635803557 0.3110184395 -0.4638421163 -0.0951332745 0.1476785788
470297180.0 -0.0777333859 0.1649095114 0.3059149752 -0.4665390477 0.3059819571 -0.4668092347 -0.0937275413 0.1490709249
475297150.0 -0.0759693071 0.1657247756 0.3007016682 -0.4699607903 0.3009292275 -0.4696222624 -0.0921174461 0.1495982369
480297120.0 -0.0742450408 0.1670666272 0.2957100647 -0.4734863907 0.2956408 -0.4735687318 -0.0904911495 0.1511713883
485297090.0 -0.072335755 0.1680597229 0.2907253916 -0.4762011177 0.2905747663 -0.4762298609 -0.0890862621 0.1516919806
490297060.0 -0.0707850004 0.1692188791 0.285501055 -0.4798989218 0.2852685611 -0.4792216846 -0.0874673452 0.1532098795
495297030.0 -0.0689160554 0.1696552814 0.280093523 -0.4822756444 0.2805874547 -0.4822718397 -0.0863314277 0.1544145241
500297000.0 -0.0669625216 0.1707112055 0.2746868114 -0.4854656795 0.2744299828 -0.4855342034 -0.0847700714 0.1554820157
505296970.0 -0.0647961903 0.1712750227 0.2696391903 -0.4880351073 0.2694031937 -0.4885680659 -0.083016318 0.1564460644
510296940.0 -0.063188408 0.1724875966 0.2640686825 -0.4914860426 0.2640331875 -0.4915791593 -0.0817432399 0.1575152979
515296910.0 -0.0611003618 0.1732137094 0.2586413147 -0.4943237634 0.2587878111 -0.4941108968 -0.079945516 0.1582859568
520296880.0 -0.0595220463 0.1741386287 0.2536746124 -0.4977540486 0.2533261028 -0.4969476363 -0.0785453311 0.1591167839
525296850.0 -0.0571935634 0.1743376922 0.247889624 -0.4996919582 0.2480507539 -0.4995041129 -0.0773294434 0.1604435768
530296820.0 -0.0553928815 0.1757010222 0.242740041 -0.5028263752 0.2421991202 -0.502668953 -0.0753710703 0.161191388
535296790.0 -0.0538415485 0.1763011158 0.2376241816 -0.5048291308 0.2371911045 -0.5044487219 -0.074270353 0.1619643831
540296760.0 -0.0518098276 0.1771815174 0.2312637647 -0.5079040767 0.2312343597 -0.5077361439 -0.0727267678 0.1633361176
545296730.0 -0.0496409194 0.1778376549 0.2256195277 -0.5099477322 0.2259176978 -0.5099025043 -0.0713144468 0.164218209
550296700.0 -0.0474501627 0.1785984915 0.2202125909 -0.5124019146 0.2202880347 -0.5128520737 -0.0698996042 0.1650508229
555296670.0 -0.0459025192 0.1790606126 0.2150555039 -0.5146671838 0.2151464798 -0.5145588 -0.0680473705 0.1660103782
560296640.0 -0.0433523034 0.1802774378 0.2092456697 -0.5171782542 0.2094913324 -0.5168587232 -0.0663158889 0.166687716
565296610.0 -0.0421569631 0.1808384849 0.2034972371 -0.5194740035 0.2034067925 -0.519309496 -0.0648527352 0.1670564861
570296580.0 -0.0399591614 0.1809751216 0.197976797 -0.5217726326 0.1972383504 -0.521365363 -0.0636251351 0.1684889895
575296550.0 -0.0379478548 0.1821299042 0.1925355625 -0.52381872 0.1919556127 -0.5236107134 -0.061828772 0.1692847942
580296520.0 -0.0358356869 0.1823532772 0.1863226643 -0.5262279939 0.1863070484 -0.5259231165 -0.0602921853 0.1700951407
585296490.0 -0.033870268 0.182626759 0.1808349811 -0.5271890999 0.1808792445 -0.5277961607 -0.0587482103 0.1705193065
590296460.0 -0.0315109708 0.1832182426 0.1750040825 -0.5286297674 0.174983268 -0.5292551353 -0.0576605179 0.1709911598
595296430.0 -0.0295170501 0.1838913415 0.1690660636 -0.5312876349 0.1688174687 -0.5313102471 -0.0556863359 0.1714740925
600296400.0 -0.0279511631 0.1842467341 0.1633537495 -0.5331623537 0.1637793571 -0.5329050973 -0.0540915698 0.1722520964
605296370.0 -0.0257809454 0.184546948 0.1577927552 -0.5348362488 0.1578625926 -0.5350461507 -0.0522220946 0.1727046513
610296340.0 -0.023509963 0.1853092806 0.151151816 -0.5363267995 0.1517795571 -0.5360995715 -0.0504760366 0.1732392394
615296310.0 -0.0212803348 0.1851899202 0.1459553976 -0.5375388584 0.1461511412 -0.5383904358 -0.0487230472 0.1738901592
620296280.0 -0.0196060242 0.185406304 0.1403963241 -0.5394186059 0.1401859413 -0.5388526614 -0.0470350091 0.1746347209
625296250.0 -0.0178410689 0.1855320959 0.1348958326 -0.5410772573 0.1344484234 -0.540958074 -0.0449491469 0.1749948406
630296220.0 -0.0149431661 0.1861413182 0.1281272561 -0.5422875144 0.1281197448 -0.5422739223 -0.0435930925 0.1759708643
635296190.0 -0.0136072592 0.1864616191 0.1227553583 -0.543250661 0.1224058683 -0.5435719178 -0.0415949961 0.1761451751
640296160.0 -0.0116699218 0.1869629707 0.1169655772 -0.5449107537 0.1169429137 -0.544935442 -0.0397855371 0.1765015739
645296130.0 -0.009176774 0.187104577 0.1106256428 -0.5457576736 0.1107577196 -0.5460406193 -0.0379891126 0.1773566962
650296100.0 -0.00727887 0.187509352 0.1050616855 -0.5470574236 0.1049019729 -0.5468492673 -0.0360187582 0.1770545377
655296070.0 -0.0056323303 0.1873790785 0.0993215206 -0.5483495892 0.0989336035 -0.5481884848 -0.0342872161 0.1779251169
660296040.0 -0.00368295 0.1872359129 0.0934596156 -0.5489998556 0.0930319635 -0.5491289882 -0.0324137825 0.1784961384
665296010.0 -0.0008695686 0.1876581965 0.0867029073 -0.5502578601 0.0872317654 -0.5500490132 -0.030499718 0.1796479871
670295980.0 9.272e-06 0.1880814683 0.0812305132 -0.5507327563 0.0809794874 -0.5510134908 -0.029198392 0.1798911272
675295950.0 0.0024919308 0.1882020126 0.0754495821 -0.5516673309 0.0751009252 -0.5513033515 -0.027744738 0.1803026585
680295920.0 0.0045062832 0.1881607304 0.0687949796 -0.5526246715 0.06865039 -0.5529234019 -0.025590442 0.1814445386
685295890.0 0.0069958102 0.1889757805 0.0629594331 -0.5531610374 0.0628405537 -0.5535362088 -0.0238788122 0.1813149879
690295860.0 0.0090906092 0.188594459 0.0574066887 -0.5534444008 0.0571544935 -0.554120588 -0.0221731714 0.1822969828
695295830.0 0.0111483564 0.1883283072 0.051673213 -0.5543309216 0.0509233132 -0.554320313 -0.0203976721 0.1823631648
700295800.0 0.0135086729 0.1881064644 0.045162615 -0.5549105797 0.0450769417 -0.5547436423 -0.0186611519 0.1832642087
705295770.0 0.0151256692 0.1887625485 0.0392280251 -0.5556224363 0.0393202095 -0.5554875614 -0.0167347338 0.1834300152
710295740.0 0.0173939383 0.1885370125 0.0335769153 -0.5562257143 0.0335691307 -0.5560104781 -0.0149026241 0.1832261165
715295710.0 0.0191871236 0.1882733692 0.0275859195 -0.5559341978 0.0267860801 -0.5560993532 -0.0129664034 0.183985688
720295680.0 0.0214214388 0.1885086232 0.0213811766 -0.5563712059 0.0215971204 -0.5568249668 -0.0114903296 0.1850547217
725295650.0 0.0237985462 0.1880093972 0.0150032819 -0.5563428604 0.0149765512 -0.5566212892 -0.0101767482 0.1851257213
730295620.0 0.0259559643 0.188252126 0.0091050266 -0.5563806577 0.0092529184 -0.5564139488 -0.0085541351 0.1846492833
735295590.0 0.0275493173 0.1882403268 0.0035287858 -0.5566910497 0.0030890604 -0.5565491307 -0.0068840118 0.185076137
740295560.0 0.0294326024 0.1880051047 -0.0027173899 -0.5562624156 -0.0028694362 -0.5566142466 -0.0043724062 0.185574488
745295530.0 0.031659954 0.1879465322 -0.0089671679 -0.5559087144 -0.0090234177 -0.5566172479 -0.0028473543 0.1852887031
750295500.0 0.034044797 0.1876861962 -0.0143087792 -0.5561502813 -0.0149207997 -0.5561788328 -0.0013821029 0.1857397393
755295470.0 0.0361594576 0.1871679967 -0.0208303809 -0.5562616958 -0.0206266202 -0.5561668246 0.0008947958 0.1854312941
760295440.0 0.0380440453 0.1870028239 -0.0266794471 -0.5561209842 -0.0268290274 -0.5563170747 0.0023885167 0.1858270886
765295410.0 0.0400411712 0.1867808334 -0.0325058854 -0.5552849815 -0.0332210418 -0.5557978138 0.0043404237 0.1861399395
770295380.0 0.0418539268 0.186433086 -0.0389478471 -0.5551092166 -0.0385740958 -0.5548941594 0.0057613277 0.1858044275
775295350.0 0.0439012174 0.1856705391 -0.0447930212 -0.5542321658 -0.0445846374 -0.5543974171 0.0072701752 0.1860895082
780295320.0 0.0463538769 0.185723962 -0.0509669062 -0.5536821494 -0.0501071153 -0.5533604016 0.0092169441 0.1858368274
785295290.0 0.0478171354 0.1848455901 -0.056947339 -0.5529935548 -0.0566555726 -0.553334926 0.0117462749 0.1858364637
790295260.0 0.0505205464 0.1849389546 -0.0623853619 -0.5528980135 -0.0617940652 -0.5527277171 0.01315237 0.1857786904
795295230.0 0.05227452 0.1843443445 -0.0684984965 -0.5514924259 -0.0684269939 -0.5518580289 0.0151789233 0.1859417926
800295200.0 0.0542771871 0.1841096105 -0.0751084087 -0.5508099998 -0.0745070841 -0.5509378915 0.0171065361 0.1859424321
805295170.0 0.0562530727 0.1831301212 -0.080355228 -0.5498104408 -0.0806238026 -0.5501788459 0.0189331068 0.185942355
810295140.0 0.0583278106 0.182775558 -0.0862631749 -0.5490676874 -0.0866394926 -0.5492727048 0.0211878763 0.1860301207
815295110.0 0.0604308785 0.1818645007 -0.0921499174 -0.5475958142 -0.0919309699 -0.5480044865 0.0225180214 0.1859193149
820295080.0 0.0617556608 0.1821414194 -0.0980044788 -0.5467039166 -0.0979644046 -0.5470389289 0.024695474 0.1856659596
825295050.0 0.0644471585 0.1812988977 -0.1036877454 -0.5458671981 -0.1040882264 -0.5460932958 0.0265450407 0.1855983396
830295020.0 0.0662210636 0.1806400799 -0.1100460997 -0.5446522225 -0.1101007858 -0.5447357503 0.0290343814 0.185531938
