!Created with skrf (http://scikit-rf.org).
# Hz S RI R 50.0 
!freq ReS11 ImS11 ReS21 ImS21 ReS12 ImS12 ReS22 ImS22
300000.0 -0.3204201532 -0.1041178842 0.373632519 0.0520647089 0.3745428772 0.0547382015 -0.3200653396 -0.1101411227
5299970.0 -0.3236428053 0.0048349462 0.3789486825 0.0028207658 0.3787494945 0.0031643853 -0.326258479 0.003028377
10299940.0 -0.3210808774 0.0156203937 0.379937964 0.0022655549 0.3798288279 0.0023348211 -0.3243501255 0.012588481
15299910.0 -0.3181035879 0.0234519274 0.3819550757 0.0023451699 0.3819078882 0.0025057612 -0.3212845654 0.0196629632
20299880.0 -0.3144018613 0.0299980877 0.3849180779 0.0018589657 0.385423733 0.0014737023 -0.3187971926 0.0258642793
25299850.0 -0.3106448987 0.0355866913 0.3885883767 -0.0001029298 0.3884415133 8.05284e-05 -0.3159225612 0.0310906619
30299820.0 -0.3069013363 0.0403243212 0.3922089185 -0.0020341298 0.3917894181 -0.0023178759 -0.3129468377 0.0353973277
35299790.0 -0.3029479642 0.0447750992 0.3950479509 -0.0051786439 0.3953906283 -0.0052878015 -0.3099336594 0.0392139302
40299760.0 -0.2993363982 0.0480471375 0.3984213134 -0.0082683399 0.398380127 -0.0088331938 -0.3070464587 0.0430863898
45299730.0 -0.2965521879 0.051463803 0.4012128773 -0.0128197008 0.4014904752 -0.0129004293 -0.3049036384 0.0461499462
50299700.0 -0.2932984648 0.0542820452 0.4035778311 -0.0173697547 0.4035742334 -0.0176157523 -0.3021806761 0.048931921
55299670.0 -0.2905723427 0.0567106332 0.4055411484 -0.0220752686 0.4058804062 -0.0220386617 -0.3006008309 0.051989034
60299640.0 -0.2881509506 0.0590771626 0.4074120193 -0.0268798875 0.40762185 -0.0270395655 -0.2982485495 0.0545373312
65299610.0 -0.2860411422 0.0617359854 0.4095889693 -0.0313707437 0.4097495338 -0.031915841 -0.2963707677 0.057393895
70299580.0 -0.2837715539 0.0635823584 0.4106904211 -0.0366093938 0.4104091866 -0.0368451864 -0.294627666 0.059238047
75299550.0 -0.2817715615 0.0657422491 0.4115003424 -0.0421387202 0.4114737871 -0.042180013 -0.2931747082 0.0620220208
80299520.0 -0.2803857955 0.0679137699 0.412754237 -0.0473209734 0.412595185 -0.0472316599 -0.2916763968 0.0637621501
85299490.0 -0.2782977416 0.0696371295 0.4127353459 -0.0526371714 0.4129115397 -0.0527821074 -0.2904380664 0.0662062564
90299460.0 -0.2771018844 0.0719789724 0.413399477 -0.0576337247 0.4136327148 -0.0579495734 -0.2886896471 0.0685145857
95299430.0 -0.2755053767 0.0742191853 0.4140825668 -0.0633493085 0.4141242209 -0.0629471444 -0.2878871971 0.0712156479
100299400.0 -0.274538985 0.0764099232 0.4136867672 -0.0683218112 0.4138983264 -0.0682751835 -0.2868190019 0.0732673611
105299370.0 -0.2727397368 0.0784833264 0.4132586769 -0.073416036 0.4138370865 -0.0737198395 -0.2852026477 0.0756331645
110299340.0 -0.2718318094 0.0802237081 0.4132026692 -0.0784194184 0.4134441204 -0.0788735806 -0.2843453487 0.0781245995
115299310.0 -0.2704960427 0.0824899988 0.413041526 -0.0836702533 0.4131784854 -0.083744842 -0.2830152043 0.0801029908
120299280.0 -0.2697764538 0.0847110788 0.4131020461 -0.0888733355 0.4128434703 -0.0890292801 -0.2821854805 0.0825200861
125299250.0 -0.2689935821 0.0867188243 0.4122438832 -0.0937819372 0.4125288609 -0.093922799 -0.2811726328 0.084817432
130299220.0 -0.2677396154 0.08902997 0.4116616713 -0.0986406919 0.4115694533 -0.0990152405 -0.2807294009 0.0873400149
135299190.0 -0.2668652224 0.091018765 0.4112047165 -0.103800753 0.4108815761 -0.1041331341 -0.2799601222 0.0898123259
140299160.0 -0.2658464956 0.0939121186 0.4102924158 -0.1089498176 0.4103208555 -0.1092714787 -0.2784199621 0.0921180325
145299130.0 -0.2648821437 0.0957041508 0.4096607886 -0.1140287509 0.4091005522 -0.1137475459 -0.2780698782 0.0945993918
150299100.0 -0.2636953849 0.0980577506 0.4083513149 -0.1188617045 0.408389825 -0.1190088461 -0.2770075996 0.0968390849
155299070.0 -0.2630750332 0.100974186 0.4068459434 -0.1243977363 0.4072409759 -0.1239002326 -0.2760916862 0.0994263222
160299040.0 -0.2621726927 0.1031416979 0.4058348609 -0.1283366711 0.4061289635 -0.1287949468 -0.2751734804 0.1024844952
165299010.0 -0.2609977719 0.1054893672 0.4049446997 -0.1337012897 0.4046913972 -0.1336300874 -0.273944943 0.104503378
170298980.0 -0.2600441272 0.107657706 0.4029997614 -0.1381418403 0.4028944214 -0.1384589104 -0.2729630867 0.1070972448
175298950.0 -0.2588011505 0.1105703664 0.4020747483 -0.1429791842 0.4022078011 -0.1432570338 -0.272158294 0.1097942957
180298920.0 -0.2578780259 0.1126473393 0.400373125 -0.1480178409 0.4006201225 -0.1478551937 -0.2712856552 0.1124724991
185298890.0 -0.2567011021 0.1153154869 0.3983768835 -0.1527191515 0.3987594719 -0.1523081316 -0.2700257436 0.1148445755
190298860.0 -0.2557659566 0.1176181735 0.3971104786 -0.1570812544 0.397405038 -0.157419434 -0.2686214432 0.1176674332
195298830.0 -0.254672383 0.1199262119 0.3955160254 -0.1615955285 0.3957389502 -0.1623204632 -0.2678467626 0.1200865381
200298800.0 -0.2535439757 0.1229614892 0.3941027378 -0.1662957399 0.3938932659 -0.1666903775 -0.2665449266 0.1231307786
205298770.0 -0.2527788598 0.1253144812 0.3921327908 -0.1712125725 0.3923173609 -0.1711733339 -0.2656632949 0.1255616125
210298740.0 -0.2516456815 0.1278924432 0.3907274583 -0.1758750692 0.3904384198 -0.1759282309 -0.2643571441 0.1282980345
215298710.0 -0.2503049258 0.1305394735 0.3887512095 -0.1800950349 0.3886331242 -0.1799985348 -0.2635849073 0.1308303349
220298680.0 -0.2490952184 0.132811761 0.3867586912 -0.1844996383 0.3868269106 -0.1850184538 -0.2623284838 0.1336433509
225298650.0 -0.2476601562 0.1355096217 0.3841677371 -0.1888910957 0.3843867054 -0.1887381967 -0.2614180026 0.136373667
230298620.0 -0.2469477614 0.1382763408 0.382735331 -0.1935867234 0.382832001 -0.1936623574 -0.2597333631 0.1390009976
235298590.0 -0.2455207766 0.1404661276 0.380470365 -0.1975991655 0.3806710245 -0.1981269333 -0.2584837733 0.1415203201
240298560.0 -0.244133949 0.1430900461 0.3784411498 -0.2019956441 0.3784067444 -0.2021200964 -0.2571359831 0.1442883177
245298530.0 -0.2427277357 0.1458048562 0.375486171 -0.2064887342 0.3761400927 -0.2063951175 -0.2556537389 0.1470549024
250298500.0 -0.2417213652 0.1482836971 0.3736448794 -0.2103960451 0.3738889345 -0.2101124874 -0.2540893745 0.1496011129
255298470.0 -0.2399195057 0.150970506 0.3712694513 -0.2152149506 0.3714584875 -0.2150847689 -0.2528017061 0.1524099317
260298440.0 -0.2386413116 0.1533881218 0.3691611453 -0.2190530799 0.369333592 -0.2194819025 -0.2510951045 0.1551392501
265298410.0 -0.237101235 0.1561866905 0.3669022833 -0.2236386301 0.3665472347 -0.2234902167 -0.2496569399 0.157518003
270298380.0 -0.2355261065 0.1586100998 0.3635556357 -0.2274946197 0.3644592698 -0.2277975166 -0.2477792833 0.160685961
275298350.0 -0.2344668769 0.161220214 0.3614668572 -0.2319187517 0.3617918651 -0.2318231392 -0.246562597 0.1632610197
280298320.0 -0.2325850983 0.1638106707 0.3589351726 -0.235474155 0.3589556497 -0.2359370569 -0.2447117325 0.1658596903
285298290.0 -0.2308631617 0.1664966486 0.3563798017 -0.2397245498 0.3565011043 -0.2400638226 -0.2431440373 0.1684781445
290298260.0 -0.2292491493 0.1686678906 0.3538907684 -0.2438448314 0.3537139067 -0.2437983708 -0.2414401431 0.1714080812
295298230.0 -0.2275171829 0.1713921959 0.3514079869 -0.2477316184 0.3506810722 -0.2478057577 -0.2396080321 0.1738528108
300298200.0 -0.2255579357 0.1739521029 0.3483033766 -0.2520539197 0.3483853085 -0.2521877018 -0.2377456372 0.1765449933
305298170.0 -0.2238358603 0.1763827385 0.3457570377 -0.2561159427 0.3459152825 -0.256253658 -0.2358757364 0.1794345414
310298140.0 -0.2217968899 0.178322418 0.3429428315 -0.2598168927 0.3431701666 -0.2602315349 -0.2341622871 0.181946011
315298110.0 -0.2208263707 0.1804527191 0.3401391255 -0.2635909203 0.3400485955 -0.2639018686 -0.2318807373 0.1842528131
320298080.0 -0.2188111742 0.1832778427 0.3374493225 -0.267781937 0.3374286211 -0.2678296904 -0.2301801837 0.1868858167
325298050.0 -0.2170888264 0.1854394423 0.3342732601 -0.2715250217 0.3343841065 -0.2715054174 -0.2286806973 0.1892896546
330298020.0 -0.2149539081 0.1880562232 0.3306059236 -0.2752183027 0.3306449773 -0.2754442795 -0.226666869 0.1917853912
335297990.0 -0.213621032 0.1903183821 0.3276752008 -0.2791817785 0.3279366678 -0.2788593286 -0.2249194553 0.1941856777
340297960.0 -0.2118219414 0.1928497551 0.3243906558 -0.2828409574 0.3246598553 -0.2825583684 -0.2229707638 0.1968599061
345297930.0 -0.2101653391 0.1951518836 0.3213089875 -0.2857588672 0.3210168305 -0.2858972579 -0.2207348154 0.1994360779
350297900.0 -0.2079736256 0.1977624565 0.3179226078 -0.2895684523 0.3184224947 -0.2897642384 -0.2187664127 0.2021235035
355297870.0 -0.2057737593 0.1997429531 0.3144327773 -0.2933200386 0.314681478 -0.2932531624 -0.2167906243 0.2049224491
360297840.0 -0.2041037086 0.2022599294 0.3116326416 -0.2970071914 0.3117035771 -0.2967704288 -0.2148026909 0.2070582913
365297810.0 -0.2012693478 0.204353683 0.3080598869 -0.299830089 0.3082790769 -0.300209463 -0.2128533683 0.2097671941
370297780.0 -0.1997741313 0.2067552244 0.3045689557 -0.3031737515 0.3046044894 -0.3038844949 -0.2101352982 0.2122618796
375297750.0 -0.197575564 0.2093392607 0.3021186542 -0.3069194332 0.3014226691 -0.3069660406 -0.2081281461 0.2147776582
380297720.0 -0.195238648 0.2113702994 0.298069868 -0.309901973 0.2983403375 -0.3099650068 -0.2058875961 0.2175930037
385297690.0 -0.1931859083 0.2136896426 0.2943284305 -0.3131130701 0.2944134403 -0.3129827191 -0.2036035157 0.219792174
390297660.0 -0.1911843151 0.216092336 0.2911301195 -0.3166568567 0.2910491909 -0.3166478045 -0.2012654556 0.2217806642
395297630.0 -0.1886371383 0.2180192868 0.2874856354 -0.319689104 0.2874328938 -0.3196668137 -0.1992170513 0.224467371
400297600.0 -0.1865407384 0.2201375296 0.2839356038 -0.3227763148 0.28386944 -0.3227398942 -0.1970222898 0.2264212343
405297570.0 -0.1842359839 0.2224657394 0.2805458325 -0.3262835128 0.2806431768 -0.3261325941 -0.1949271332 0.2293906401
410297540.0 -0.1819236713 0.224405431 0.2764737873 -0.3287765768 0.2768918692 -0.3289911177 -0.1925305079 0.2314370919
415297510.0 -0.1797313563 0.2265685375 0.2730346081 -0.3317161081 0.2732600455 -0.3320868476 -0.1901616445 0.23412871
420297480.0 -0.1772876237 0.2284558674 0.2694126455 -0.3348832143 0.2692310189 -0.3348890627 -0.1871878715 0.2357689759
425297450.0 -0.1744183077 0.2303600693 0.265523142 -0.3379252119 0.2662494727 -0.338061652 -0.1849707263 0.2383694737
430297420.0 -0.1723440432 0.2328704976 0.2620248302 -0.3410790821 0.2621707319 -0.3407847643 -0.1827872808 0.2403472502
435297390.0 -0.1697509515 0.2346365159 0.2581438382 -0.3434504615 0.2581993439 -0.3433099136 -0.1800556911 0.242739134
440297360.0 -0.1673399596 0.2368119247 0.2543915039 -0.3463125026 0.2539365768 -0.3461731302 -0.1776037082 0.2441856642
445297330.0 -0.164934104 0.2386358693 0.2504150298 -0.3492524848 0.2505466407 -0.3489833084 -0.1750462087 0.2463992022
450297300.0 -0.1620542258 0.2399597736 0.2462805123 -0.3514779918 0.2468586288 -0.3516080435 -0.1727108252 0.2487406873
455297270.0 -0.1599224423 0.242027849 0.2428102605 -0.3545197072 0.2429631459 -0.3543474818 -0.1698659429 0.2508588365
460297240.0 -0.1574655342 0.2441510653 0.2386163827 -0.3568483636 0.2385682317 -0.35713325 -0.1670980638 0.2531851495
465297210.0 -0.1544154666 0.2461432334 0.2346824626 -0.3596863552 0.2350994772 -0.3596062359 -0.1648737899 0.2545369149
470297180.0 -0.1520732167 0.2473254692 0.2308712534 -0.3620203237 0.2310852254 -0.3621878191 -0.1626197932 0.2564973126
475297150.0 -0.14967337 0.2493376128 0.2265653512 -0.3642106801 0.2271526561 -0.3641048245 -0.1593603805 0.2585242684
480297120.0 -0.1471524443 0.2507748152 0.2226277973 -0.3667664104 0.223083501 -0.3667621484 -0.1572890061 0.2607675812
485297090.0 -0.1442062488 0.2524150612 0.2189724599 -0.3691676732 0.2187808396 -0.3693461754 -0.1544905876 0.2623790737
490297060.0 -0.1417914215 0.2540939159 0.2149655761 -0.371704567 0.2150928773 -0.3717497008 -0.1518040431 0.2643098214
495297030.0 -0.1392464587 0.2561091901 0.2105897042 -0.3737800264 0.210510261 -0.3740005402 -0.1489599663 0.2656488483
500297000.0 -0.1361149734 0.2572486951 0.2063923223 -0.3762709815 0.2069850945 -0.3761903984 -0.1464537627 0.2677659571
505296970.0 -0.1337391285 0.2594029748 0.2023674935 -0.3779100586 0.2024279969 -0.3784225835 -0.144256854 0.2695317222
510296940.0 -0.1307953643 0.2607914418 0.1982427801 -0.380439763 0.198622963 -0.3802752409 -0.1408486253 0.2713881482
515296910.0 -0.1285787127 0.262510152 0.1940091003 -0.3826162403 0.1941884564 -0.3828769942 -0.1380104149 0.2731279824
520296880.0 -0.1251529588 0.2639826989 0.1898305271 -0.3846462494 0.1902046157 -0.3844892009 -0.1353853689 0.2746141167
525296850.0 -0.1227637414 0.2652839784 0.1855580618 -0.3865398236 0.1859758494 -0.3867207856 -0.1322826492 0.2761412809
530296820.0 -0.1198545983 0.2665588297 0.1816856075 -0.387976988 0.1814017716 -0.3882968157 -0.1301111587 0.2775972365
535296790.0 -0.1169978427 0.2680916241 0.1773981419 -0.3903809688 0.1775276361 -0.390089131 -0.1271085114 0.2791527668
540296760.0 -0.1143967653 0.269208692 0.1730207567 -0.3924342459 0.172962903 -0.392430142 -0.1240744571 0.2806749491
545296730.0 -0.1116783153 0.2708766332 0.1684084212 -0.3941002133 0.1687498849 -0.3942032164 -0.1212633926 0.2817861925
550296700.0 -0.1087691645 0.2722719172 0.1647064563 -0.3960803703 0.1647275794 -0.3960702523 -0.1184785173 0.2835481705
555296670.0 -0.1051248657 0.2731594768 0.1599868314 -0.3974004812 0.1603034844 -0.397713116 -0.1158687916 0.285191188
560296640.0 -0.1028170761 0.2745079786 0.155652541 -0.3992166361 0.1555907809 -0.399165099 -0.1124909435 0.2863326154
565296610.0 -0.1002065426 0.2759888074 0.1513813204 -0.4008583025 0.1513781061 -0.4008711945 -0.1099677959 0.2876805601
570296580.0 -0.0970361431 0.2770517204 0.1469626116 -0.402352764 0.1473073432 -0.4027327946 -0.1066581218 0.2893617016
575296550.0 -0.0942467887 0.2785822428 0.1428516554 -0.4036054679 0.1427825069 -0.4039211205 -0.1034810864 0.2903661779
580296520.0 -0.0913621142 0.2795160563 0.138254446 -0.4054700837 0.1382777049 -0.4056687573 -0.1005314975 0.2916839501
585296490.0 -0.0880235641 0.280100978 0.1335564536 -0.4067640336 0.1338252031 -0.4066400567 -0.0980287124 0.29251371
590296460.0 -0.0852276649 0.2811777289 0.1290735455 -0.4078375604 0.1292628761 -0.4086925001 -0.0946060135 0.2939637369
595296430.0 -0.0822947875 0.2826141844 0.125110375 -0.4094972645 0.1251015581 -0.4098655475 -0.0914643019 0.2949049644
600296400.0 -0.0791808041 0.2835655128 0.1200471512 -0.4111297078 0.1208828389 -0.4112957341 -0.0884896226 0.2961733561
605296370.0 -0.0760188257 0.2845206659 0.1159436179 -0.4123368677 0.1161834078 -0.4119947006 -0.0856528083 0.2972656114
610296340.0 -0.0732953853 0.2854870931 0.1119567929 -0.4133353001 0.111682883 -0.4135571569 -0.0824044394 0.2985119593
615296310.0 -0.0700506556 0.2867790414 0.1066444234 -0.4144000831 0.1069154822 -0.4145295625 -0.0793597796 0.2993095046
620296280.0 -0.0675129565 0.2870515478 0.1029389231 -0.4153373244 0.1022816427 -0.4154884162 -0.0763105825 0.2998485955
625296250.0 -0.0641907811 0.2881099957 0.0976572764 -0.4168744353 0.0975917907 -0.4169854299 -0.073091282 0.3012989486
630296220.0 -0.0610315095 0.2890707736 0.0932658012 -0.4177746573 0.0937679444 -0.4178542362 -0.0700191979 0.3022547203
635296190.0 -0.058081401 0.2900028381 0.0887421941 -0.4182175056 0.0888185637 -0.418069887 -0.0671930866 0.3027572433
640296160.0 -0.0548012661 0.2903576125 0.0844538565 -0.4193665803 0.0840224393 -0.4196652069 -0.0636724157 0.30367651
645296130.0 -0.0521420803 0.2914888958 0.0798484489 -0.4203118714 0.080068759 -0.4202714313 -0.0610170121 0.3045337736
650296100.0 -0.0490343103 0.2922814415 0.0756724304 -0.4209589685 0.0752493113 -0.4207345487 -0.0577882411 0.3053301345
655296070.0 -0.0460263919 0.2924964285 0.0706127478 -0.4217742225 0.0709253877 -0.4216703985 -0.0540702246 0.3060190193
660296040.0 -0.0430186441 0.2935938119 0.0662240493 -0.4224601835 0.0662511753 -0.4223900257 -0.051382605 0.3067457309
665296010.0 -0.0398393598 0.2940400322 0.0616810548 -0.423213951 0.0621234962 -0.4234078381 -0.0485540868 0.307774606
670295980.0 -0.0363157185 0.2946532888 0.0568754928 -0.4240505711 0.0571789076 -0.4235551351 -0.0454012442 0.3081197974
675295950.0 -0.0333691001 0.2948957768 0.0520219324 -0.4244044928 0.052261693 -0.4246425164 -0.0416347277 0.3086815113
680295920.0 -0.030314739 0.2961676171 0.0478275459 -0.4253117254 0.0476542926 -0.4249811228 -0.038360554 0.3093550433
685295890.0 -0.0271483173 0.2963078282 0.0433043883 -0.425429864 0.0428943586 -0.4257169096 -0.0351256322 0.3097251165
690295860.0 -0.0240113065 0.2966017917 0.0385236386 -0.4252577223 0.0381528644 -0.4255448678 -0.0319496426 0.3103825291
695295830.0 -0.0205451848 0.2965471928 0.0334259832 -0.4262691449 0.0336947345 -0.4261492425 -0.029044739 0.3110033785
700295800.0 -0.0175464091 0.2972104455 0.0290369199 -0.4263781846 0.0293188587 -0.4266124462 -0.0257904144 0.3109672384
705295770.0 -0.0142673698 0.2976009038 0.0243701251 -0.4263903251 0.0248580173 -0.4267665373 -0.0226457571 0.3117372498
710295740.0 -0.011283334 0.2979179996 0.019997402 -0.4268347744 0.0199869348 -0.4268425411 -0.019756797 0.3123995446
715295710.0 -0.00801264 0.2983707007 0.0152776093 -0.4269603271 0.015772495 -0.4268734643 -0.0161863467 0.3120408598
720295680.0 -0.0052209055 0.2982660771 0.0107370658 -0.4270847035 0.0109693001 -0.4275492006 -0.0128095099 0.3129014349
725295650.0 -0.0014602902 0.2985505698 0.005705855 -0.4267474622 0.0061184442 -0.4272182834 -0.0095331692 0.3128522261
730295620.0 0.0010328599 0.2987512949 0.0014327815 -0.4268985414 0.0015212159 -0.427117541 -0.0062407436 0.3131291106
735295590.0 0.0049404212 0.2988327065 -0.0032924726 -0.4271481063 -0.002937018 -0.4272187346 -0.0027327881 0.3132043671
740295560.0 0.0074591789 0.299388563 -0.0077408867 -0.4267698769 -0.0079808378 -0.4268482845 0.0003299043 0.3133680991
745295530.0 0.0106693005 0.2989916329 -0.0124927965 -0.4267748808 -0.0121378879 -0.4267453123 0.003472844 0.3137960656
750295500.0 0.013908339 0.2989794656 -0.0166979202 -0.4265718948 -0.0167611875 -0.4267085447 0.006505462 0.3136598004
755295470.0 0.0175944617 0.2992640842 -0.0213807385 -0.4264938411 -0.0212206823 -0.4264742312 0.0095840335 0.3138731301
760295440.0 0.0200037225 0.2990086239 -0.0263137712 -0.4260186157 -0.0259433532 -0.426135613 0.0125876277 0.31385556
765295410.0 0.0235199301 0.2985990245 -0.0305446962 -0.4254845681 -0.0305741313 -0.42579941 0.0166974166 0.3143421008
770295380.0 0.0267539609 0.2987820787 -0.0351975639 -0.4249866804 -0.0352263357 -0.4254032949 0.0200157025 0.3138437773
775295350.0 0.0298959476 0.2988986104 -0.0401513546 -0.4247936768 -0.0396994054 -0.4250686558 0.0225135688 0.3133590432
780295320.0 0.033074899 0.2981416607 -0.0439193893 -0.4242890245 -0.0440690149 -0.4246275771 0.0264242853 0.3137201524
785295290.0 0.0361128055 0.2984857876 -0.0487768023 -0.4234382254 -0.0487653965 -0.4239508318 0.0288309845 0.3135645328
790295260.0 0.0393936365 0.2981203907 -0.0536929895 -0.4234516236 -0.0538095282 -0.4237446979 0.0328104423 0.3133583374
795295230.0 0.0423591245 0.2982420506 -0.0578798204 -0.4225682271 -0.0578976048 -0.422902098 0.035937857 0.3136714508
800295200.0 0.0456929617 0.2977591979 -0.0630091276 -0.4218878003 -0.0632078723 -0.4221990208 0.0391486225 0.3129381604
805295170.0 0.0488207223 0.2972653695 -0.0672784204 -0.4206870792 -0.0672507998 -0.4212047625 0.0420715478 0.3126092957
810295140.0 0.0520208266 0.2968728406 -0.0719048632 -0.4203551651 -0.0715356379 -0.4208299227 0.0453197582 0.3127991609
815295110.0 0.055447223 0.2963182537 -0.0763880518 -0.4191702787 -0.0763077711 -0.4194636405 0.0487785117 0.3120008877
820295080.0 0.0582687439 0.2957140887 -0.0810330362 -0.4184436415 -0.0808531813 -0.4187873362 0.0519525694 0.311740756
825295050.0 0.0618249595 0.295527099 -0.0853048424 -0.4173146044 -0.085441652 -0.417865993 0.0555580223 0.3114194128
830295020.0 0.0647339991 0.2949048869 -0.0901276683 -0.4163850893 -0.0902736775 -0.416877811 0.0582251322 0.3107960789
