!Created with skrf (http://scikit-rf.org).
# Hz S RI R 50.0 
!freq ReS11 ImS11 ReS21 ImS21 ReS12 ImS12 ReS22 ImS22
300000.0 -0.7829073009 -0.1242469007 -0.0007464401 6.29903e-05 0.000462392 0.0005211763 0.8597029691 -0.0026794124
5299970.0 -0.7851743324 -0.0069160537 -5.1764e-06 -0.0001085351 0.000128474 1.47678e-05 0.8595880963 -0.0098069062
10299940.0 -0.7875144103 -0.004194696 2.07516e-05 6.93092e-05 -8.50498e-05 8.23583e-05 0.8589723065 -0.0189912831
15299910.0 -0.7932877067 -0.0023550545 0.0002160371 1.34147e-05 -0.0001503492 -0.0001171527 0.8577126517 -0.0276338725
20299880.0 -0.800226525 0.001805538 -0.0001013288 3.18854e-05 -8.06449e-05 -2.85475e-05 0.8572239098 -0.0354537597
25299850.0 -0.8064676575 0.007514882 5.1161e-06 0.0001781791 2.82401e-05 2.92442e-05 0.8559597858 -0.0437157346
30299820.0 -0.8128171646 0.0152064786 0.0001461776 -0.0001108355 3.66503e-05 -0.0001694022 0.8549513131 -0.0514941966
35299790.0 -0.8173483858 0.0243595373 8.05552e-05 4.68593e-05 -6.74497e-05 8.12384e-05 0.8546417183 -0.0595838428
40299760.0 -0.8212532789 0.0338192227 -2.32932e-05 -9.36736e-05 4.79331e-05 2.60546e-05 0.8530222314 -0.0679466917
45299730.0 -0.824240201 0.0429341707 -5.37671e-05 0.0002097995 0.0002099922 7.13855e-05 0.8523154094 -0.0760254754
50299700.0 -0.8274326251 0.0532549506 4.19632e-05 3.40319e-05 0.0002154359 -2.4257e-05 0.8515078497 -0.0841413259
55299670.0 -0.8291838031 0.0629416845 0.0002491338 3.44338e-05 0.0001320943 -8.2152e-05 0.8505662706 -0.0929248288
60299640.0 -0.8304326242 0.0738207993 -0.0001422446 4.3241e-06 0.000202996 0.0001055444 0.849544432 -0.1006380189
65299610.0 -0.8309111962 0.0835316338 0.0002538436 -0.0001265876 -6.40088e-05 -0.0001243518 0.8489533912 -0.1089072421
70299580.0 -0.8317352829 0.0933285522 -0.0002605824 0.0001961478 -6.28312e-05 -2.39384e-05 0.8472499503 -0.1168925817
75299550.0 -0.8318694362 0.103793772 0.0002600453 0.000155145 -5.96407e-05 7.6802e-05 0.8460714602 -0.1258201173
80299520.0 -0.8320893612 0.1132521997 0.0002094683 0.0002110939 0.0001715739 -3.37672e-05 0.8446832563 -0.1334218466
85299490.0 -0.8304919854 0.1230296421 6.98775e-05 -0.000102466 0.0001127991 1.7816e-05 0.8437093667 -0.142259258
90299460.0 -0.8299232738 0.1320668868 -0.0001648558 1.48773e-05 -9.85534e-05 2.3663e-05 0.8418762606 -0.1498904272
95299430.0 -0.8297827351 0.1417437154 -0.000145801 -0.0001217088 0.0001516105 -0.0001310878 0.8398838093 -0.1586619068
100299400.0 -0.8278889459 0.150996299 0.0001364184 -6.03091e-05 3.34511e-05 -1.79486e-05 0.8385511737 -0.1664525297
105299370.0 -0.8269314787 0.1602253121 -9.80339e-05 0.0001861108 6.05653e-05 -0.0001470564 0.8372071409 -0.1748204587
110299340.0 -0.825375116 0.1693577078 6.1011e-06 7.998e-07 -0.0001197907 -5.05843e-05 0.8356407985 -0.1824498728
115299310.0 -0.823743383 0.1789880086 -7.31275e-05 -3.64671e-05 3.6999e-05 4.97688e-05 0.8340226608 -0.19121154
120299280.0 -0.822044665 0.1870018923 -9.59299e-05 -0.000247693 5.26316e-05 0.0001287605 0.8319573476 -0.1998149143
125299250.0 -0.8202941028 0.1963728049 -5.76002e-05 -0.00019101 6.79644e-05 0.0001406211 0.8304539719 -0.2068254372
130299220.0 -0.8188561382 0.2051926606 6.98482e-05 -2.38312e-05 0.0002243714 -0.0001545154 0.8285931124 -0.2152429211
135299190.0 -0.8168883344 0.2146728284 -0.0002969462 2.1155e-06 4.98445e-05 -0.000239727 0.8264569537 -0.2229255164
140299160.0 -0.814669151 0.2233047794 -6.64934e-05 -3.21798e-05 -0.0001291612 1.87866e-05 0.8238583989 -0.2308592353
145299130.0 -0.8126813348 0.2326879231 -2.74214e-05 4.23367e-05 -1.2141e-05 0.0002043789 0.8219725369 -0.2385415849
150299100.0 -0.8096692968 0.2411413206 -8.45011e-05 -0.0001989867 3.46638e-05 0.0001180096 0.8200754919 -0.2469626085
155299070.0 -0.8079781089 0.2493633026 -4.59274e-05 -0.0001274902 -2.88909e-05 0.0001664613 0.8177347043 -0.2549031561
160299040.0 -0.8050496181 0.2583168675 1.83128e-05 -2.73316e-05 0.0001171807 -1.00024e-05 0.815170354 -0.2622989251
165299010.0 -0.8030922054 0.266989534 0.000142631 8.5456e-06 -3.33407e-05 7.10696e-05 0.8115814291 -0.270424075
170298980.0 -0.8002949236 0.2749141495 2.39919e-05 -0.0001893409 4.79755e-05 -3.13802e-05 0.8090539398 -0.2779536115
175298950.0 -0.7976215694 0.2844019775 8.02197e-05 2.01367e-05 6.667e-06 -1.83327e-05 0.8069385725 -0.2860923154
180298920.0 -0.795033804 0.2925983663 -0.0001203539 5.19913e-05 -1.30005e-05 -0.0002009403 0.8040045621 -0.2940682111
185298890.0 -0.7916920389 0.3005212495 0.0001568722 -0.0001822203 -1.8136e-05 -0.0001088141 0.8005770904 -0.301444281
190298860.0 -0.7886282808 0.3098502871 0.0003521268 -0.0002274864 6.1559e-05 -0.0001317674 0.7977143471 -0.3089032066
195298830.0 -0.7852435021 0.3175187339 -5.47675e-05 0.000241688 0.0002653446 5.18975e-05 0.7944802849 -0.3165785792
200298800.0 -0.7814234822 0.3261518512 -1.78765e-05 -0.0001006711 -3.43772e-05 -0.0001535069 0.7914760371 -0.3243492879
205298770.0 -0.7784529668 0.334207591 -9.55019e-05 0.0001216637 1.72427e-05 9.60589e-05 0.7879070821 -0.3317903571
210298740.0 -0.7748987038 0.3426637139 -3.41568e-05 -5.24084e-05 8.39518e-05 -0.0001537861 0.7844300743 -0.3390534641
215298710.0 -0.7719107635 0.3507489383 1.97582e-05 0.0002073878 6.68573e-05 -7.18341e-05 0.7811307508 -0.346956439
220298680.0 -0.7671999408 0.3590616877 -0.0001782314 0.0003109751 3.32885e-05 5.82151e-05 0.7779841089 -0.3544250424
225298650.0 -0.7642459279 0.3662050376 6.85268e-05 -0.0001612111 6.8748e-05 -0.0002555391 0.7738720942 -0.3618523262
230298620.0 -0.7601991283 0.3748469744 0.0001133978 0.0001996174 -4.65529e-05 -0.0001213776 0.7703709647 -0.3692128041
235298590.0 -0.756123484 0.3831809321 1.25123e-05 0.0001853405 -0.0001738542 -0.0002660523 0.7664374533 -0.3772165572
240298560.0 -0.7531310493 0.3911944345 -0.0001195823 -7.68238e-05 -8.89694e-05 4.84007e-05 0.7631513196 -0.3843120363
245298530.0 -0.7483699073 0.3987453805 -0.0001110577 0.0001581852 -1.31899e-05 -9.76005e-05 0.7590516699 -0.3918775101
250298500.0 -0.7444412295 0.4069137685 0.0001008116 -0.0001457965 -9.05986e-05 8.27785e-05 0.7551312147 -0.3991590202
255298470.0 -0.7393679909 0.4139992486 -0.0003159804 0.0001222716 -4.49887e-05 -0.0002207515 0.7513564723 -0.4070426973
260298440.0 -0.7356146224 0.4214356754 -0.0001441932 -1.44022e-05 0.0001130713 9.46793e-05 0.7475543121 -0.413376118
265298410.0 -0.7315341618 0.4303223969 -0.0002027111 0.0002478686 -4.3664e-05 -8.19406e-05 0.7441134138 -0.4209020405
270298380.0 -0.726569008 0.437080848 -5.835e-05 0.0001990941 0.0001029292 0.0001157851 0.7397471985 -0.427735394
275298350.0 -0.7224043132 0.4445024366 -0.0003181451 -0.0001500058 2.33208e-05 -2.6555e-05 0.7350418503 -0.4356146504
280298320.0 -0.7168784232 0.4522126398 -0.0001043051 -9.41156e-05 8.42239e-05 3.62576e-05 0.7321002991 -0.4430779038
285298290.0 -0.7127254042 0.460260466 7.379e-07 -9.57535e-05 -5.85532e-05 -8.31834e-05 0.7280725315 -0.4495881581
290298260.0 -0.7078998553 0.467285777 3.7084e-05 0.0001030387 0.0002718308 3.46694e-05 0.7234812627 -0.4574997514
295298230.0 -0.7024649411 0.4740164976 -3.23499e-05 -5.69658e-05 4.48198e-05 7.26022e-05 0.7192593754 -0.4641188297
300298200.0 -0.6979874493 0.4817208485 -0.0001628476 6.08068e-05 -0.0001126096 0.0002005861 0.7158571592 -0.4714131265
305298170.0 -0.692811635 0.4881009994 -0.0001057164 -2.55809e-05 -0.0001876518 0.0002285962 0.7112161489 -0.4795573582
310298140.0 -0.6877574455 0.4963150296 1.2153e-05 4.8433e-05 3.03991e-05 -2.4138e-05 0.7061665053 -0.4871943205
315298110.0 -0.6829165972 0.5026811208 0.000125319 1.2738e-05 -8.07608e-05 0.0001212444 0.7009920815 -0.4942689756
320298080.0 -0.677609198 0.5102931437 -8.83849e-05 9.17788e-05 -0.0001051064 0.0003023929 0.6959879675 -0.5015475932
325298050.0 -0.6717148829 0.5174525504 -0.0001157132 -0.0001499125 -5.7699e-06 -8.16079e-05 0.6907513187 -0.5085720955
330298020.0 -0.6662933912 0.5241132321 -3.61637e-05 -0.0003109327 5.87323e-05 4.25139e-05 0.6838488197 -0.5153380517
335297990.0 -0.660641408 0.5309995508 3.11649e-05 1.71774e-05 -0.000192429 8.2e-05 0.6789993262 -0.52108656
340297960.0 -0.6560497478 0.53756826 -7.0711e-05 0.0001654739 7.9234e-05 0.0001291197 0.6737094654 -0.5271496762
345297930.0 -0.6502626133 0.5438276705 -5.24089e-05 -2.17104e-05 -1.16692e-05 -8.14214e-05 0.6675917303 -0.5338898225
350297900.0 -0.6443710044 0.550705252 0.000232328 -5.59596e-05 0.0001083229 -0.0001938727 0.661588963 -0.5394101246
355297870.0 -0.6383437715 0.5579208033 2.92189e-05 0.0002009461 0.0001855377 -1.72235e-05 0.6569249789 -0.5458555617
360297840.0 -0.6326976359 0.563874553 0.0001696456 8.02371e-05 9.74604e-05 2.67907e-05 0.6513343154 -0.5524873545
365297810.0 -0.6275270984 0.570510799 -8.6588e-06 -1.72749e-05 7.36217e-05 8.41875e-05 0.6457039593 -0.5585356013
370297780.0 -0.6211157406 0.5769555632 -4.66879e-05 7.86686e-05 4.34008e-05 -7.30558e-05 0.6403696429 -0.5639383525
375297750.0 -0.614448947 0.5830686717 -0.0002590989 -3.76393e-05 0.0002437369 -8.76411e-05 0.6343973573 -0.5698675547
380297720.0 -0.6088654322 0.5887287501 -0.0003606216 3.4742e-05 -4.51445e-05 0.0002156127 0.6280591455 -0.5763678509
385297690.0 -0.6030075137 0.594956909 3.71741e-05 2.69058e-05 -2.11843e-05 -8.68239e-05 0.6232888929 -0.5820018825
390297660.0 -0.597110286 0.6015975121 0.0001495461 -0.0001882015 -2.44414e-05 0.0001010711 0.6167289257 -0.5880481695
395297630.0 -0.5902733693 0.6077112602 5.99662e-05 2.09095e-05 0.0001050355 8.166e-05 0.6111994075 -0.5934646746
400297600.0 -0.5839571003 0.6141086664 0.0001955579 0.0001207635 7.26128e-05 3.41884e-05 0.6050161433 -0.5989774585
405297570.0 -0.5780198579 0.6194841691 2.94321e-05 -0.000121547 -3.12029e-05 -7.80285e-05 0.5991029433 -0.6057633653
410297540.0 -0.5703574263 0.6255216206 -5.91677e-05 -5.94092e-05 9.5064e-06 -4.81865e-05 0.5937537669 -0.6112905976
415297510.0 -0.5647999825 0.6311521566 -3.11949e-05 -1.93948e-05 -4.69598e-05 7.61033e-05 0.5870144288 -0.6169909083
420297480.0 -0.5589996486 0.6370572998 0.0001043759 -0.0001003208 0.0001394469 8.125e-07 0.5812294622 -0.6222809942
425297450.0 -0.5521844137 0.6423794173 -0.0001791969 3.94391e-05 -0.0001325515 0.000104408 0.5749318967 -0.6285372458
430297420.0 -0.5452304455 0.648440618 0.0001237795 -9.32094e-05 0.0001606945 -5.53157e-05 0.5688698294 -0.6341438933
435297390.0 -0.538323336 0.6534065375 0.0001361468 0.0001307821 -6.72805e-05 0.0001426702 0.5626892012 -0.6398970773
440297360.0 -0.5320563018 0.6589565471 5.7135e-05 0.000183629 0.0001347201 6.89724e-05 0.5565802523 -0.6449661331
445297330.0 -0.5247639301 0.6643545875 -8.6066e-05 -8.5695e-05 -0.0001276597 5.51568e-05 0.5505972862 -0.6511856002
450297300.0 -0.5179702768 0.6694745802 0.0001202041 -0.0001409705 7.19724e-05 7.82829e-05 0.5441249493 -0.6555831851
455297270.0 -0.5113185563 0.6743974025 -0.0001256702 0.0001161915 -8.3809e-06 0.0001776809 0.537038799 -0.661010725
460297240.0 -0.504842518 0.6796558583 -0.000121997 1.7106e-05 0.000228618 3.93335e-05 0.5303670697 -0.6666900635
465297210.0 -0.4979740388 0.6851611455 2.62754e-05 -9.27517e-05 -5.28099e-05 -4.447e-06 0.5242596807 -0.6713267884
470297180.0 -0.4901066209 0.6892254834 0.0001007553 -6.44646e-05 1.27581e-05 -3.08888e-05 0.5175275334 -0.6759293309
475297150.0 -0.483742355 0.6944418577 0.0001221039 2.94983e-05 1.32553e-05 -4.61315e-05 0.5102699403 -0.6812390182
480297120.0 -0.4768626252 0.6996491752 1.0535e-05 -0.0001078459 -8.66635e-05 0.000113727 0.5049581785 -0.6856226565
485297090.0 -0.4690773656 0.7042187062 -4.18055e-05 -4.24937e-05 -0.000131466 0.0002264767 0.4981986881 -0.690987962
490297060.0 -0.4620531142 0.7087636021 -2.04123e-05 -8.3286e-05 9.359e-06 -5.96369e-05 0.4908285187 -0.6961919846
495297030.0 -0.4550780594 0.7131413495 0.0001241593 -1.24629e-05 -0.0001687329 -5.93465e-05 0.4838065276 -0.7001515451
500297000.0 -0.4474719018 0.718053638 -6.23193e-05 3.26915e-05 8.5422e-06 -3.48321e-05 0.4772679798 -0.7053827323
505296970.0 -0.440076908 0.7226531875 8.01687e-05 -4.00497e-05 -0.0001731805 9.26086e-05 0.4699478023 -0.70932891
510296940.0 -0.4329913258 0.7267556638 -1.52915e-05 -0.0003530297 -0.0001423403 7.00821e-05 0.4623039549 -0.7144233768
515296910.0 -0.4247853301 0.7307240672 -0.0002037365 8.38937e-05 -3.61356e-05 0.0001296586 0.4559885927 -0.7180540503
520296880.0 -0.4179531373 0.7356004752 -0.0001192682 0.0001529443 0.0001323039 -0.000230624 0.4489315126 -0.7228455169
525296850.0 -0.4101712799 0.7391528636 6.2911e-06 0.000220268 5.8322e-05 5.54252e-05 0.4417655503 -0.7263561711
530296820.0 -0.4030037834 0.7434716836 8.01177e-05 9.55943e-05 -2.05534e-05 2.18748e-05 0.4350117438 -0.7301715213
535296790.0 -0.3958904208 0.7470443003 -0.0001008817 0.0001036949 4.71182e-05 9.8466e-06 0.4272520888 -0.7352502923
540296760.0 -0.3884670434 0.7508079396 -5.85411e-05 0.0001236645 -0.0001317391 -6.05771e-05 0.4199024215 -0.7387632146
545296730.0 -0.3806584109 0.7553848234 -0.0001123409 -0.000137279 -1.791e-06 5.8716e-06 0.4128919527 -0.7430547815
550296700.0 -0.3734859449 0.7591579418 -0.0002880329 9.4662e-06 0.0001161221 -9.17645e-05 0.404918448 -0.7473442024
555296670.0 -0.3647157713 0.7617827016 -5.62828e-05 0.0001365221 1.399e-07 -0.0001376416 0.3976884007 -0.7504525187
560296640.0 -0.3574026206 0.7669933756 -1.44813e-05 -0.0003253051 -6.1941e-05 -0.0002674984 0.3897803399 -0.7539415072
565296610.0 -0.349736241 0.7695575093 -1.56298e-05 0.0001832487 1.39703e-05 -3.92724e-05 0.3823434326 -0.7578794712
570296580.0 -0.3421425821 0.7719508741 -2.98187e-05 -0.0003140096 0.0001877737 0.0001539355 0.3744338962 -0.7617494872
575296550.0 -0.3347528506 0.7767912956 0.0002380608 8.08508e-05 -5.51268e-05 -8.74424e-05 0.367221912 -0.7648596888
580296520.0 -0.3260700038 0.7793609121 5.25292e-05 0.0002132092 9.56909e-05 -1.64954e-05 0.3595862685 -0.7687832575
585296490.0 -0.3182182304 0.7827652758 -3.37881e-05 -3.38756e-05 -7.36777e-05 0.0001454661 0.3527705268 -0.7722350937
590296460.0 -0.3106952814 0.7854866063 -1.60241e-05 -9.65709e-05 0.0002039414 -1.70394e-05 0.3440482255 -0.7751764948
595296430.0 -0.3029499837 0.7884791 0.0001288356 0.0001327026 9.85017e-05 -0.000193865 0.3366421385 -0.7788702195
600296400.0 -0.2946715789 0.7919946686 -0.0001018802 6.44111e-05 -6.29075e-05 -0.0001533965 0.3296841121 -0.782206726
605296370.0 -0.2875162678 0.794389836 -0.000164515 -7.3644e-05 -2.09707e-05 0.0001292008 0.3215746708 -0.7852712943
610296340.0 -0.2787335019 0.7972465911 4.22779e-05 2.9608e-06 3.96839e-05 4.26288e-05 0.3138466118 -0.7876024496
615296310.0 -0.2701926529 0.8002200453 5.84862e-05 -0.0002574992 6.89008e-05 -4.54075e-05 0.3057646545 -0.7910934519
620296280.0 -0.262988733 0.8018763419 7.31503e-05 -0.0001322261 0.0003990235 -8.06717e-05 0.2981366841 -0.7940780897
625296250.0 -0.2545917043 0.8050513509 4.9743e-05 -0.0001488953 -5.25607e-05 -1.03953e-05 0.2911012807 -0.7968435137
630296220.0 -0.2461067763 0.8075824422 0.0001644654 -0.0001465388 0.0001743262 3.91016e-05 0.282417522 -0.8002015668
635296190.0 -0.2387053296 0.810180127 7.68804e-05 4.27855e-05 -6.11099e-05 4.2318e-05 0.2749201845 -0.802343118
640296160.0 -0.2310306953 0.8126004841 -0.0001164407 -4.2022e-05 5.30508e-05 -6.24985e-05 0.2662023267 -0.8056251915
645296130.0 -0.2227608564 0.8149297788 -0.0001951613 0.0001844205 9.24966e-05 -3.2899e-06 0.2589158831 -0.807751959
650296100.0 -0.214315544 0.8170519516 -0.0002038289 -7.89e-05 -3.66666e-05 9.28389e-05 0.2514508693 -0.8107580169
655296070.0 -0.2062438942 0.819214659 -0.0001615609 -5.89128e-05 -0.0001949641 6.74928e-05 0.2441041942 -0.8121879313
660296040.0 -0.1979783197 0.8203003616 3.56397e-05 0.000105144 0.0001175371 -0.0001444013 0.235689658 -0.8152277323
665296010.0 -0.1893965497 0.8224896113 -3.8739e-05 0.0001621262 0.0001984926 -4.22907e-05 0.2272645924 -0.8167560298
670295980.0 -0.1815505496 0.8245636444 -0.0001014385 5.2777e-05 1.66187e-05 3.3676e-06 0.2188606887 -0.8189032741
675295950.0 -0.1732112308 0.8263419919 4.52807e-05 8.5692e-05 9.80035e-05 -0.0001658433 0.2106065639 -0.8199727058
680295920.0 -0.1648458762 0.8284276611 0.0001082828 0.0001686461 -0.0001643069 0.0001438575 0.203062468 -0.8222770178
685295890.0 -0.1564972854 0.8298875269 -0.0002187056 1.18413e-05 -9.12503e-05 -1.50192e-05 0.1947939007 -0.8238997126
690295860.0 -0.1487504832 0.8311545142 7.89199e-05 -9.3269e-05 -0.0001171639 1.66121e-05 0.1861632443 -0.8253423552
695295830.0 -0.1409375359 0.8323855449 -0.0003209604 4.776e-05 0.0001155661 7.88775e-05 0.1783127322 -0.827432614
700295800.0 -0.1317087602 0.8339875262 9.80891e-05 0.0001144786 0.0001882411 0.0001231555 0.1703500083 -0.8291591367
705295770.0 -0.1237939247 0.835340236 7.56472e-05 0.0001933404 0.0002165904 -3.92356e-05 0.1614846843 -0.8296134031
710295740.0 -0.1159062882 0.8364145398 4.53551e-05 -3.2481e-05 -0.0001252821 -4.18981e-05 0.1530607177 -0.8312308591
715295710.0 -0.1073195052 0.8373599255 -2.30421e-05 5.10856e-05 9.56897e-05 -0.000107686 0.1451511369 -0.832905852
720295680.0 -0.0992807567 0.8385715878 4.69998e-05 -0.0001563154 -6.0293e-06 0.0001452641 0.1369919791 -0.8338024751
725295650.0 -0.0908093824 0.8397313321 0.0002247826 0.0001439747 -0.0001171024 -8.48918e-05 0.1284870216 -0.8346178025
730295620.0 -0.08211785 0.8405104967 -0.0001918125 -0.0002180821 8.1299e-05 2.1279e-05 0.1197931597 -0.8362506914
735295590.0 -0.0740565074 0.8413358073 -9.69872e-05 -0.0001467341 -4.971e-07 -0.0001318384 0.1114304785 -0.8376016707
740295560.0 -0.0662101501 0.8420473624 -0.0002798884 6.2306e-05 0.0001011976 -9.38152e-05 0.1033567078 -0.8379166623
745295530.0 -0.0575252089 0.8423207275 -4.58564e-05 3.89852e-05 -0.0001173068 0.0001857616 0.0954513117 -0.8385622016
750295500.0 -0.0485368809 0.8422446787 1.39989e-05 9.6752e-06 -9.41796e-05 1.02463e-05 0.0871969547 -0.8398531177
755295470.0 -0.0401282742 0.8428306961 -4.72268e-05 -6.23131e-05 -3.07656e-05 -0.0001794358 0.078931255 -0.8408713342
760295440.0 -0.0326073191 0.8430536868 -8.03723e-05 -2.57335e-05 -8.59963e-05 -0.0001151922 0.0704534938 -0.8414904944
765295410.0 -0.0241326475 0.8441820978 0.0001347732 2.94542e-05 -0.0002456653 4.456e-05 0.0626443961 -0.8417573619
770295380.0 -0.0158379408 0.8441920112 1.8758e-05 -4.21294e-05 5.61566e-05 0.0001110265 0.0534530948 -0.8425036037
775295350.0 -0.0075803674 0.8437512365 -3.63744e-05 -0.0002329987 7.47989e-05 5.444e-06 0.0445053611 -0.842749952
780295320.0 0.0011858283 0.8442847826 -2.76434e-05 0.0001341059 2.43947e-05 2.26016e-05 0.0369777852 -0.8429655882
785295290.0 0.0093247144 0.8434671138 9.12085e-05 -8.52839e-05 7.03736e-05 -6.17961e-05 0.0291066784 -0.843756265
790295260.0 0.0183477388 0.8437812824 0.0001473644 -0.000113853 3.13469e-05 4.63419e-05 0.0213894356 -0.8436318279
795295230.0 0.0257192031 0.8434208811 0.0001632975 6.18923e-05 9.7738e-06 -0.0001312826 0.0124153019 -0.8442098284
800295200.0 0.0340688674 0.8432611562 2.47251e-05 7.60155e-05 2.65535e-05 -9.25145e-05 0.0033406035 -0.8436286395
805295170.0 0.0428341056 0.8433838796 4.77531e-05 -2.90657e-05 7.02229e-05 -9.3106e-06 -0.0049131331 -0.8433807581
810295140.0 0.0510567264 0.8423152621 0.0001228829 -1.38463e-05 -0.0001226163 0.0001137929 -0.0121684881 -0.8440230966
815295110.0 0.0591139505 0.8413498081 7.06806e-05 -6.26175e-05 3.38364e-05 -0.0001707499 -0.0211556536 -0.8430562252
820295080.0 0.0675534781 0.8413035487 0.0001509381 -0.0002080639 -6.62292e-05 7.87669e-05 -0.0296799275 -0.8429875281
825295050.0 0.0767898414 0.8401384851 -7.843e-05 0.0001625223 -2.8527e-05 -3.8327e-06 -0.0373298423 -0.8417344989
830295020.0 0.0842686841 0.8399566451 -1.71989e-05 9.17457e-05 0.0001212091 0.000216114 -0.0453081849 -0.8416128058
835294990.0 0.092532828 0.8386685659 -3.12406e-05 4.7571e-05 -7.99482e-05 6.3662e-05 -0.0545327949 -0.8408124706
840294960.0 0.1003945421 0.8383650754 0.0001330782 8.37e-06 -5.94833e-05 -3.4216e-06 -0.0623508907 -0.8404117759
845294930.0 0.1087942274 0.8371104209 -0.0001692175 -0.0001036499 -0.0001378933 4.00253e-05 -0.0712783266 -0.8386225882
850294900.0 0.1171317058 0.8356908805 -9.32985e-05 -4.4045e-06 -1.30224e-05 -6.08596e-05 -0.0793297116 -0.8381755987
