!Created with skrf (http://scikit-rf.org).
# Hz S RI R 50.0 
!freq ReS11 ImS11 ReS21 ImS21 ReS12 ImS12 ReS22 ImS22
300000.0 -0.3179789941 -0.1028892106 0.3713522869 0.0534428348 0.3733995228 0.0556759575 -0.3184592588 -0.1158484005
5299970.0 -0.3239388573 0.0046964687 0.3785297872 0.0025894234 0.3787228325 0.0030782156 -0.326046651 0.0028969418
10299940.0 -0.3209292986 0.0154862875 0.3798373219 0.002311574 0.3797042718 0.0023601496 -0.3242376524 0.0126668093
15299910.0 -0.3180069533 0.0234926937 0.3819314072 0.0021956637 0.3820110023 0.0025849128 -0.3211655186 0.0196789362
20299880.0 -0.3143200642 0.0301752434 0.3849489955 0.0016506244 0.3850317572 0.0016509039 -0.3186211005 0.0259231693
25299850.0 -0.3108115131 0.0358453073 0.3883827701 6.97666e-05 0.3883790452 0.0003349925 -0.3155587933 0.0312910305
30299820.0 -0.3067456554 0.0401793349 0.3918973044 -0.0019195366 0.3916340046 -0.0022933827 -0.3124755919 0.0355688461
35299790.0 -0.3027137808 0.0448066478 0.3951887469 -0.0053589422 0.3951960561 -0.0052649099 -0.3097284869 0.0392170501
40299760.0 -0.2993449839 0.0480776276 0.3984730007 -0.0087418777 0.3985506441 -0.0087275317 -0.3071807612 0.0431891557
45299730.0 -0.296396524 0.0515245207 0.401062977 -0.0130988356 0.4012365863 -0.0126356159 -0.304772124 0.0462044536
50299700.0 -0.2932206129 0.0539424868 0.4034547108 -0.0173855914 0.4036068206 -0.0172537627 -0.3019800512 0.0489497651
55299670.0 -0.2906387146 0.056741322 0.4052585294 -0.0221554801 0.4055890141 -0.0219933585 -0.300033154 0.0518426385
60299640.0 -0.2880273206 0.0590094114 0.4072209965 -0.0269345494 0.4077767479 -0.0271813524 -0.297982982 0.0546611377
65299610.0 -0.2858438314 0.0616394418 0.4093978757 -0.0316415137 0.409411525 -0.0317046426 -0.2960768053 0.057183326
70299580.0 -0.2836241601 0.0635213988 0.4103710414 -0.0367435073 0.4108573122 -0.0372603437 -0.2947615374 0.059688953
75299550.0 -0.2815615878 0.0660374463 0.4112875178 -0.0421805784 0.41135004 -0.0422889495 -0.2930279958 0.0619481542
80299520.0 -0.2802233572 0.0678816197 0.4125459067 -0.0472803621 0.4126554126 -0.0471248352 -0.2918105039 0.0640505895
85299490.0 -0.2784435791 0.0697594016 0.4131045899 -0.0527160358 0.4131207631 -0.0525531642 -0.2903870003 0.0660876136
90299460.0 -0.2771213343 0.0723033871 0.4133830126 -0.0579665737 0.4135695804 -0.0579210531 -0.2885036805 0.0689218312
95299430.0 -0.2756747761 0.0745098746 0.4139822684 -0.0634624474 0.4137662148 -0.0632348892 -0.2874954327 0.0716647801
100299400.0 -0.2743502354 0.0765042424 0.4139789919 -0.0683990763 0.4138223041 -0.068371985 -0.2864779192 0.0735367809
105299370.0 -0.2727878855 0.0782979082 0.4132206565 -0.0733554185 0.4137254156 -0.0735444779 -0.285170564 0.0755782485
110299340.0 -0.2716768496 0.0805096588 0.4133139275 -0.0786163663 0.4131178821 -0.0788032906 -0.2841629605 0.0780393305
115299310.0 -0.2707108182 0.0823205356 0.4129153874 -0.0833001018 0.4131408831 -0.0837070814 -0.2831035766 0.0800566009
120299280.0 -0.2699481813 0.0846484314 0.4129415389 -0.0888548266 0.4128725683 -0.0891593848 -0.2823409631 0.0827236055
125299250.0 -0.2688418122 0.086738946 0.4125145859 -0.0936017499 0.4124724642 -0.0941161495 -0.2810640509 0.0847661699
130299220.0 -0.2677191099 0.0893122662 0.4115539852 -0.0986041898 0.411717789 -0.0990989071 -0.2808265491 0.0874377674
135299190.0 -0.2666871483 0.0910634618 0.4108984826 -0.1038418075 0.4104491352 -0.104075717 -0.2796754741 0.0896863862
140299160.0 -0.2657126187 0.0936472511 0.4100401575 -0.1091493746 0.4102394914 -0.1091873923 -0.2787031432 0.0918845055
145299130.0 -0.2648548378 0.0959476157 0.4093574677 -0.1141880069 0.4092002762 -0.1136321073 -0.2779038237 0.0943805871
150299100.0 -0.2637665355 0.0981644228 0.408006388 -0.1192767793 0.4082960206 -0.1190896907 -0.2767044793 0.0968664786
155299070.0 -0.2627788634 0.1010065194 0.4072051856 -0.124195862 0.4071935693 -0.1239012074 -0.2763570752 0.0994716808
160299040.0 -0.2620973586 0.1031212507 0.4060296813 -0.1286316783 0.4060410557 -0.1287212779 -0.2750312177 0.102227102
165299010.0 -0.2610109651 0.1053984203 0.4048660471 -0.1336716811 0.4047855219 -0.1338137843 -0.274120326 0.1044400893
170298980.0 -0.2598521444 0.107828098 0.4026786084 -0.1382896288 0.4033179337 -0.1386101132 -0.2731439349 0.107159139
175298950.0 -0.2590203624 0.1107607654 0.4023225654 -0.1432412598 0.4021448084 -0.143204436 -0.2721551847 0.1096897841
180298920.0 -0.2581371376 0.1126166344 0.4005076792 -0.1480425836 0.4004012333 -0.1478981777 -0.2710023201 0.1124480951
185298890.0 -0.2568720975 0.1154322544 0.3984782777 -0.1527249618 0.3991792281 -0.1525295626 -0.2703044469 0.1147330868
190298860.0 -0.2558332012 0.1176307728 0.3970941198 -0.1575541245 0.3974314887 -0.1574546619 -0.2688885316 0.1175556418
195298830.0 -0.254604446 0.1199202547 0.3954697439 -0.1616303358 0.3959108048 -0.1619601006 -0.2680066265 0.1198849719
200298800.0 -0.2537535747 0.1227230368 0.3944046164 -0.1659269923 0.3940336283 -0.1664976301 -0.2668694797 0.1231078427
205298770.0 -0.2526544534 0.1253568576 0.3924623749 -0.1709232616 0.392013261 -0.1711321088 -0.2655088554 0.1251748798
210298740.0 -0.2514271979 0.1278654056 0.3905069099 -0.1762541691 0.3904045695 -0.1758743417 -0.264664748 0.1279606798
215298710.0 -0.2501845351 0.1303633121 0.3882571887 -0.1803644747 0.3885866541 -0.1801764079 -0.2636738525 0.1306682148
220298680.0 -0.2490949422 0.1328352724 0.3861962198 -0.1847530086 0.3866193253 -0.1848107861 -0.2621853074 0.1336596456
225298650.0 -0.2476535453 0.1355227824 0.3841013019 -0.18891913 0.3841218072 -0.1887662304 -0.2610000112 0.1364245403
230298620.0 -0.2467199771 0.1382980298 0.3825740239 -0.1937531266 0.3826982384 -0.1936175564 -0.2597962601 0.1389576761
235298590.0 -0.2456178645 0.140389137 0.3804403649 -0.1974304294 0.3805944942 -0.1982407881 -0.2585236898 0.1414298515
240298560.0 -0.2442300768 0.1431873873 0.3785436751 -0.201974143 0.3784553094 -0.2021834821 -0.2568434518 0.1444420398
245298530.0 -0.2426837099 0.1458166439 0.3752631386 -0.206502492 0.3759923211 -0.2066584279 -0.2554967343 0.1468994227
250298500.0 -0.2416817988 0.1482830452 0.3739984627 -0.2106045577 0.3740223562 -0.2102513175 -0.2539469941 0.1497087897
255298470.0 -0.2401650658 0.1508690076 0.3712496347 -0.2153191717 0.3715012961 -0.2149608325 -0.2526255177 0.1521978422
260298440.0 -0.2387649482 0.153359259 0.3694403002 -0.2193254364 0.3689763753 -0.2191702267 -0.250856432 0.1550945961
265298410.0 -0.2372010456 0.1563400779 0.3662199019 -0.2238018177 0.3663300951 -0.2235167352 -0.2495995223 0.157672978
270298380.0 -0.2354291134 0.1587454969 0.3635773515 -0.2277978837 0.3640448777 -0.2277806567 -0.2478942278 0.1605841417
275298350.0 -0.2341356753 0.1610622609 0.361640362 -0.2319923224 0.3617550694 -0.2318573416 -0.246384831 0.1634687864
280298320.0 -0.232450404 0.1638101439 0.3589819892 -0.2355532342 0.3587830584 -0.2360432227 -0.2444018671 0.1657411787
285298290.0 -0.2309936196 0.166359685 0.3564666767 -0.2396787987 0.3564052862 -0.2399247747 -0.2430737782 0.1684028518
290298260.0 -0.2292051572 0.1687745774 0.3536809418 -0.2440241648 0.3538824776 -0.2441138476 -0.2410399701 0.1710399205
295298230.0 -0.2277665314 0.1713434143 0.3514277296 -0.2480000314 0.3508804412 -0.2480859122 -0.2393364915 0.1739521258
300298200.0 -0.2258623786 0.1737101294 0.3485539984 -0.2518354955 0.3483255844 -0.2523150201 -0.2379325918 0.1764871784
305298170.0 -0.2240003818 0.176074632 0.3461019097 -0.2557552792 0.3458704342 -0.2557273491 -0.2355643009 0.1792159334
310298140.0 -0.2223427732 0.1780552357 0.3429386775 -0.2599067983 0.3427749425 -0.2601744436 -0.2337602292 0.1819753318
315298110.0 -0.2205987562 0.1807607064 0.3399353846 -0.2638538033 0.3401792315 -0.2642528206 -0.2318331226 0.1843400831
320298080.0 -0.2186649338 0.183080181 0.3368856896 -0.2675978589 0.3372589907 -0.2678526954 -0.2302299031 0.1866706573
325298050.0 -0.2170063267 0.1853134622 0.3344545809 -0.2716369363 0.3339087688 -0.2716620975 -0.228240632 0.1893774385
330298020.0 -0.2152077812 0.1881685105 0.3305177959 -0.2753397676 0.3304327911 -0.2753242998 -0.2262256302 0.1915294272
335297990.0 -0.2134321573 0.1901642049 0.3276110406 -0.2790755594 0.3277065906 -0.2790279513 -0.2246538468 0.1944766734
340297960.0 -0.2118119656 0.1929361088 0.3242158287 -0.2827294928 0.3245349743 -0.2827378792 -0.2227012358 0.1972430405
345297930.0 -0.2100965782 0.1950489503 0.3212724404 -0.2860696585 0.3210102944 -0.2859759158 -0.2205182471 0.199266538
350297900.0 -0.2076553044 0.1976478043 0.3180518025 -0.2893993146 0.3181837298 -0.289612133 -0.2187699506 0.2023808818
355297870.0 -0.205816425 0.2000311208 0.314447973 -0.2931885956 0.3148959571 -0.2933619445 -0.2168195311 0.2045370311
360297840.0 -0.2037742819 0.2023898324 0.3113631796 -0.2969195891 0.3113813551 -0.2965533551 -0.2145566035 0.2073114859
365297810.0 -0.2019222191 0.2043976288 0.3082220911 -0.3000461452 0.307861943 -0.3001550009 -0.2123405377 0.2100043507
370297780.0 -0.1995505915 0.2066918597 0.3044999257 -0.3035147437 0.3048840451 -0.3037552116 -0.2104819727 0.2120817668
375297750.0 -0.1978693845 0.2095083702 0.3021313886 -0.3069081254 0.3012097908 -0.3070089698 -0.20804683 0.2149372879
380297720.0 -0.1952471932 0.2113754356 0.297789906 -0.3100856868 0.2978657126 -0.3100144197 -0.2056923128 0.2175245748
385297690.0 -0.1933578497 0.2136129137 0.2942026999 -0.3132053947 0.2943584004 -0.313335916 -0.2036225106 0.2198236492
390297660.0 -0.1912405565 0.2157813243 0.2912167756 -0.316455741 0.2908962512 -0.3166411091 -0.2014018887 0.2220261523
395297630.0 -0.188472376 0.2180450741 0.2877493572 -0.3194197084 0.2873015348 -0.3195994296 -0.1989620221 0.2243746457
400297600.0 -0.1865906275 0.220171688 0.2840715714 -0.3229455737 0.2843580481 -0.3229575694 -0.1972336475 0.226389706
405297570.0 -0.1842015042 0.222293905 0.280430366 -0.325783027 0.2804194362 -0.3262459674 -0.1947256956 0.2290876226
410297540.0 -0.181758309 0.2246506742 0.2762163698 -0.3291360397 0.2764797435 -0.3287950681 -0.1921932486 0.2311837404
415297510.0 -0.179472403 0.2266997829 0.2733309338 -0.3321515312 0.2730312078 -0.3319890519 -0.1899622383 0.2339856556
420297480.0 -0.1769655318 0.2284368193 0.2690390613 -0.3351400149 0.2693456025 -0.3348754467 -0.1873910159 0.2359051076
425297450.0 -0.1746420373 0.2304628095 0.2653312664 -0.3378606536 0.2660899232 -0.3383732758 -0.1851578138 0.2384997181
430297420.0 -0.1724031059 0.2327473003 0.261777114 -0.3410701572 0.2621331594 -0.3407151228 -0.1829067059 0.2403066485
435297390.0 -0.169549854 0.234535743 0.2577462986 -0.3435727502 0.2581588847 -0.3433002661 -0.1797585313 0.2427779801
440297360.0 -0.1673631154 0.2364685006 0.253912394 -0.346238842 0.2540701382 -0.3465654912 -0.1776561405 0.2443233955
445297330.0 -0.1647394476 0.2383673718 0.2500148681 -0.3494271971 0.2503867238 -0.3492162824 -0.1751405304 0.2465434978
450297300.0 -0.1622287149 0.2400809235 0.2462664275 -0.3515376339 0.2465590072 -0.3517247297 -0.1728714193 0.2486482666
455297270.0 -0.1598698614 0.2423701046 0.2427608872 -0.3547648236 0.2428559824 -0.3541320635 -0.1696400301 0.2506614704
460297240.0 -0.157406845 0.2441925621 0.2385827441 -0.3568756299 0.2385090021 -0.3568874711 -0.1672626051 0.2530953316
465297210.0 -0.1545608447 0.2459756143 0.2349029578 -0.359602793 0.2347943375 -0.3594703871 -0.1649243546 0.2547586429
470297180.0 -0.1522123499 0.2476467153 0.2307470496 -0.3618682849 0.2311717134 -0.3620504291 -0.1624376797 0.2568798431
475297150.0 -0.1498302449 0.2492183756 0.2267681075 -0.3640236723 0.2270956518 -0.3644325671 -0.159530894 0.258547472
480297120.0 -0.1470022016 0.2506291916 0.2226493382 -0.3668513581 0.2229386482 -0.366904437 -0.1571479727 0.2607941266
485297090.0 -0.144190819 0.2528192641 0.2191513064 -0.3691678021 0.2187317293 -0.3688024649 -0.1542965569 0.2621360877
490297060.0 -0.1414991122 0.2542643547 0.2147936421 -0.3717857302 0.2148320614 -0.371697701 -0.1519331577 0.2643397709
495297030.0 -0.1393902821 0.2562416561 0.2105671775 -0.3741352141 0.2104689471 -0.373977984 -0.1489011869 0.2655971297
500297000.0 -0.1364213858 0.2574969406 0.2063672059 -0.3761544305 0.2067153101 -0.3759732863 -0.1463728588 0.2674299265
505296970.0 -0.1336891708 0.2592783491 0.2019228955 -0.3781685824 0.2020606454 -0.3781295349 -0.1437439864 0.2692812991
510296940.0 -0.1309949947 0.2607362563 0.1986290527 -0.3805208471 0.1984094137 -0.3805899312 -0.140865946 0.2712555374
515296910.0 -0.1284544402 0.2623397351 0.1938518238 -0.3826773424 0.1940002027 -0.3825350842 -0.1380517826 0.272774647
520296880.0 -0.1255524757 0.2638635308 0.1899655789 -0.3847010626 0.189950414 -0.3842337372 -0.1349239487 0.2744747625
525296850.0 -0.1227369496 0.26495885 0.1854389906 -0.3862996006 0.1856738637 -0.3864502251 -0.1320903537 0.2760802862
530296820.0 -0.1198972907 0.266717433 0.1814424605 -0.3881883448 0.1814449298 -0.3880716351 -0.1299278749 0.2773888675
535296790.0 -0.1167493851 0.2679303281 0.176591363 -0.3903408084 0.1774854673 -0.3900608156 -0.1267809634 0.2786893059
540296760.0 -0.1143500341 0.2692111056 0.1730027542 -0.3925498821 0.172912555 -0.3925553973 -0.1242613429 0.2807946774
545296730.0 -0.1113496819 0.2708764928 0.1684932315 -0.3936827702 0.1687185104 -0.3943723787 -0.1211570184 0.2816354447
550296700.0 -0.1084940672 0.2722402153 0.1642796021 -0.3958169589 0.1644758941 -0.395993819 -0.1183125605 0.2834186549
555296670.0 -0.1051423657 0.273270329 0.1598960559 -0.3978728963 0.1595474885 -0.3977378319 -0.1153494979 0.2848257714
560296640.0 -0.1028601623 0.2744444359 0.1555986094 -0.3990889965 0.1557963683 -0.399116919 -0.1122687303 0.2863560784
565296610.0 -0.1001388732 0.2757875999 0.1512304072 -0.4008240049 0.1509442406 -0.4008706733 -0.1094734329 0.2874312847
570296580.0 -0.0970673772 0.2769343418 0.1466089604 -0.4025823995 0.1470241569 -0.4028532116 -0.1063876878 0.2892986983
575296550.0 -0.0941789374 0.2784940807 0.1424620422 -0.4040409594 0.1428111393 -0.4038072296 -0.1032932066 0.2903476302
580296520.0 -0.0913435524 0.2794449425 0.1383574986 -0.4056279983 0.1379447416 -0.4055193954 -0.1006888433 0.2914201251
585296490.0 -0.088238532 0.2801785297 0.1338890751 -0.4066919998 0.1336091571 -0.4070771226 -0.0974938505 0.29238514
590296460.0 -0.0853504161 0.281256787 0.1290449079 -0.4080182673 0.1288961904 -0.4083708142 -0.0943828593 0.2936635174
595296430.0 -0.0823052985 0.2826603769 0.124757731 -0.4098845051 0.1246114665 -0.4098554753 -0.0911820045 0.294833342
600296400.0 -0.0794824567 0.2835838184 0.1202705046 -0.4110336617 0.1207209989 -0.4111596333 -0.088474211 0.2963210295
605296370.0 -0.076283648 0.284706375 0.1158877905 -0.412538165 0.1161308226 -0.4120411292 -0.0854495394 0.2971529183
610296340.0 -0.0733926734 0.2856105332 0.1117484166 -0.4133571742 0.111473225 -0.413439086 -0.0822999062 0.2983392612
615296310.0 -0.0701148716 0.2869318662 0.1068892275 -0.4145702279 0.1068236138 -0.4144818783 -0.0790847539 0.2990414261
620296280.0 -0.0671923398 0.2873116105 0.1025071855 -0.4154001183 0.1024508002 -0.4155194098 -0.0764014187 0.2997791402
625296250.0 -0.0639818069 0.2882351984 0.097500243 -0.4165979144 0.0978319742 -0.4168839094 -0.0729971971 0.3012689075
630296220.0 -0.0608088339 0.2893350379 0.0929818249 -0.4178559618 0.0934031503 -0.4178517033 -0.0698954264 0.3022732333
635296190.0 -0.0580095604 0.2900102711 0.088523579 -0.4182238062 0.0883307127 -0.4183262905 -0.0667801201 0.3028328698
640296160.0 -0.0549527654 0.2904891843 0.084140082 -0.4195718493 0.0843490054 -0.4194157027 -0.0637146693 0.3034097001
645296130.0 -0.0522638073 0.2914985774 0.0794172678 -0.4202620156 0.0798402574 -0.4204246026 -0.0609950523 0.3042958227
650296100.0 -0.0491463325 0.2921871446 0.0751384455 -0.4211404567 0.0750296133 -0.421220761 -0.0576859463 0.3055186466
655296070.0 -0.0459659244 0.2925890112 0.0704020131 -0.4217600125 0.0705449893 -0.4220019885 -0.0541378572 0.3064016045
660296040.0 -0.043154227 0.2936135361 0.0662672881 -0.4223929129 0.0661302897 -0.4223940047 -0.0511867722 0.3066065479
665296010.0 -0.0396745579 0.2938067423 0.0615661555 -0.4230379892 0.0619746829 -0.4234155324 -0.0481980492 0.3075812848
670295980.0 -0.036319473 0.2945240753 0.0566699281 -0.4238830531 0.05706158 -0.4239244735 -0.0453364635 0.3081738439
675295950.0 -0.0333275448 0.2950706463 0.051993098 -0.424627778 0.0525351911 -0.424658061 -0.0416220033 0.3088836277
680295920.0 -0.0303076086 0.2958222353 0.0474322469 -0.424789492 0.0475996296 -0.4249548046 -0.0385778378 0.3092473403
685295890.0 -0.0269810194 0.2959655422 0.043068445 -0.4251780384 0.0427800297 -0.4255136422 -0.0352714639 0.3101033217
690295860.0 -0.0236285681 0.2964238292 0.0383602374 -0.4251450804 0.0381080183 -0.4257434792 -0.0318517101 0.3104469718
695295830.0 -0.0206074254 0.2963855023 0.0334856624 -0.4258728615 0.0336609413 -0.4260777193 -0.0292103474 0.3105513997
700295800.0 -0.0176606527 0.2971653302 0.0289617732 -0.4266061181 0.029112862 -0.4262840102 -0.0256669508 0.3107847051
705295770.0 -0.01393894 0.2977331368 0.0244082322 -0.4265307541 0.0247970765 -0.4265347574 -0.0230730876 0.3114483538
710295740.0 -0.0110943673 0.2981235672 0.0198041244 -0.4268055968 0.0197825852 -0.4269130061 -0.0199356251 0.3123234037
715295710.0 -0.0084485935 0.2982214676 0.0152407471 -0.4266670708 0.015665352 -0.4271255704 -0.0161956895 0.312183959
720295680.0 -0.005146889 0.2980601269 0.0105301681 -0.4268473437 0.0106343197 -0.4275007881 -0.0128904835 0.3126654727
725295650.0 -0.001379029 0.2985300861 0.0056883237 -0.426685076 0.0058810459 -0.4271684293 -0.0094774589 0.3129415927
730295620.0 0.0010166944 0.2984178127 0.0013221674 -0.4270442835 0.0012925332 -0.4272278622 -0.0060748163 0.313206788
735295590.0 0.0046765973 0.2983975133 -0.002899264 -0.4271088389 -0.00301978 -0.4271929274 -0.0027392412 0.3132527599
740295560.0 0.0076339863 0.2993611397 -0.0081283454 -0.4269403952 -0.0079964577 -0.4265228076 0.0001873675 0.3129917459
745295530.0 0.0109761356 0.2987262745 -0.0124988533 -0.4269103355 -0.012235124 -0.4272946781 0.003449791 0.3138932838
750295500.0 0.0139725374 0.298787537 -0.0171568417 -0.4263079033 -0.0172231244 -0.4264861473 0.0069719815 0.3131762238
755295470.0 0.0176341363 0.2986051261 -0.0218666754 -0.426037358 -0.021499483 -0.4266877826 0.0094536909 0.3139340497
760295440.0 0.0203332321 0.2989886174 -0.0265225734 -0.4259847418 -0.0260749109 -0.4261860335 0.0127076273 0.3137488249
765295410.0 0.0233173669 0.2987343734 -0.0305127934 -0.4255351541 -0.0307762388 -0.4259743463 0.0168759874 0.313909004
770295380.0 0.0268717936 0.2986884342 -0.0354739206 -0.4251768583 -0.0354821928 -0.4255769065 0.0199781589 0.3138800616
775295350.0 0.0297329988 0.2987430731 -0.0400341573 -0.4243130209 -0.0397544993 -0.4248282997 0.0227148861 0.3130566772
780295320.0 0.0331399443 0.2984873703 -0.0446533902 -0.4241738405 -0.0444395614 -0.4245699257 0.0262793039 0.3137195663
785295290.0 0.0362434247 0.2985295314 -0.0493516918 -0.4231974767 -0.0491476642 -0.4238788269 0.029009432 0.3135646906
790295260.0 0.0394702528 0.2982542686 -0.0537870317 -0.4233203608 -0.0539380531 -0.423746928 0.0328075929 0.313092064
795295230.0 0.0426552263 0.2977900914 -0.0579899304 -0.422191964 -0.0581580653 -0.4226521704 0.0359276069 0.3135407433
800295200.0 0.045759342 0.2975715111 -0.0632405391 -0.4218040272 -0.0633585505 -0.4219350625 0.039005259 0.3125803748
805295170.0 0.0485710173 0.2972150129 -0.0673143941 -0.4209767044 -0.0673424684 -0.4209876053 0.0422773853 0.3125932714
810295140.0 0.0519884077 0.2970047991 -0.0719254584 -0.420366022 -0.071718681 -0.4208189345 0.0457408957 0.3124968579
815295110.0 0.0552830919 0.2964311894 -0.0767265108 -0.4192684938 -0.0767159336 -0.4195146532 0.0487217909 0.3118732469
820295080.0 0.0581266516 0.2955850741 -0.0808126637 -0.418616551 -0.0809277064 -0.4188130667 0.0518290735 0.3113035637
825295050.0 0.0615505201 0.2953457314 -0.0856890892 -0.4173689927 -0.0857090597 -0.4175995115 0.05526499 0.311367794
830295020.0 0.0647335737 0.2951718186 -0.0902563295 -0.4164848858 -0.0903077239 -0.4169623712 0.05833281 0.3105760279
