!Created with skrf (http://scikit-rf.org).
# Hz S RI R 50.0 
!freq ReS11 ImS11 ReS21 ImS21 ReS12 ImS12 ReS22 ImS22
300000.0 -0.7725420578 -0.1484081795 -0.0025697036 -0.0002035707 0.0009146358 0.0003519139 -0.0451523438 -0.0702612897
5299970.0 -0.7851338882 -0.0075102356 -0.0001666634 0.0001185842 -0.0001607059 -5.36351e-05 -0.0484042171 0.0144020961
10299940.0 -0.787288282 -0.0039777288 -0.00018692 -9.3578e-06 -1.7623e-06 6.05911e-05 -0.043221195 0.0313739651
15299910.0 -0.7932272935 -0.0016653643 0.0001070016 -4.15494e-05 -0.0001915092 -9.07995e-05 -0.0348011997 0.0454462525
20299880.0 -0.7994414605 0.0026561975 -3.26902e-05 3.21511e-05 2.62486e-05 5.86676e-05 -0.0248890609 0.0568392464
25299850.0 -0.8060465479 0.0079631201 -0.0001483654 -9.76131e-05 0.0001280943 -7.1947e-06 -0.0143260972 0.0662521929
30299820.0 -0.8120446036 0.0163280959 0.0001035862 -0.0001011923 9.3369e-06 9.60676e-05 -0.003235185 0.0726547496
35299790.0 -0.8170460433 0.0249834732 -1.87612e-05 9.83855e-05 -0.0001012788 3.87882e-05 0.0081707111 0.077271926
40299760.0 -0.8213550716 0.034506108 0.0001155442 -0.0001106642 -0.0001633362 2.91106e-05 0.0193442466 0.0799529624
45299730.0 -0.8245678433 0.0439276933 0.0001120592 9.41231e-05 -4.41451e-05 7.5151e-06 0.0293977781 0.0812929517
50299700.0 -0.8266785547 0.0541224108 -5.0704e-05 3.3024e-05 0.0001255313 -6.63728e-05 0.0394234846 0.0815435928
55299670.0 -0.8284656296 0.0641968605 0.0001167537 0.0002085864 2.01437e-05 -0.0001182375 0.0482670099 0.0804549479
60299640.0 -0.8297007632 0.0748074407 -0.0003600713 2.27159e-05 7.51779e-05 4.23837e-05 0.0568452927 0.0784821658
65299610.0 -0.8309499033 0.0842539708 -5.96648e-05 -3.2093e-05 9.05504e-05 -0.0001702759 0.0642861384 0.0759669809
70299580.0 -0.8317462089 0.0947086748 0.0001374129 -9.1232e-06 -3.80875e-05 -8.11328e-05 0.0711184232 0.0729493315
75299550.0 -0.8314369921 0.1048574069 9.70229e-05 0.0002804098 2.21697e-05 9.48638e-05 0.0773918521 0.0697749531
80299520.0 -0.8311787729 0.1140963518 0.0001008648 0.0002455943 2.30441e-05 0.0001037309 0.0824772251 0.0662264574
85299490.0 -0.8306208239 0.1240660708 0.0001257479 0.0001927798 9.14187e-05 -1.80169e-05 0.0879555987 0.0626390161
90299460.0 -0.8297442652 0.1339374065 -0.0001047629 -1.99209e-05 -8.88819e-05 1.779e-05 0.0922988789 0.0586204984
95299430.0 -0.8289404357 0.1437166937 7.20018e-05 -9.37367e-05 -2.88284e-05 -9.10054e-05 0.0963719109 0.0547573967
100299400.0 -0.8277803822 0.1528172407 -8.28086e-05 -2.97494e-05 2.87916e-05 -0.0001176285 0.0997191918 0.0508272885
105299370.0 -0.8262589977 0.1620471434 0.0001090996 0.0001710657 0.0002369545 -6.23562e-05 0.1033632823 0.0466575743
110299340.0 -0.8249725485 0.1708816632 -9.14484e-05 6.94144e-05 -7.91371e-05 3.57756e-05 0.1056411353 0.0429709086
115299310.0 -0.8232022775 0.180522088 0.0001255166 2.76213e-05 -3.54503e-05 5.898e-07 0.1082843106 0.0387302071
120299280.0 -0.8220044539 0.1894601253 9.63578e-05 -3.7584e-06 -4.9834e-05 -9.68754e-05 0.1105288328 0.0350418763
125299250.0 -0.8201189204 0.1988643906 8.36553e-05 -3.63084e-05 -0.0001521557 5.04266e-05 0.1124768364 0.0308611542
130299220.0 -0.8182564815 0.2074922968 8.64601e-05 2.77511e-05 -0.0002618138 0.0001588772 0.1135122941 0.027470992
135299190.0 -0.8167098911 0.2166760162 -7.18306e-05 -0.0001258623 5.4519e-05 -4.45188e-05 0.1153859181 0.0234707237
140299160.0 -0.8145189915 0.2255277909 4.145e-07 -6.7221e-05 3.8496e-05 5.4534e-06 0.1167629135 0.0197065816
145299130.0 -0.8118265814 0.2342859979 -0.0001253186 -6.53988e-05 -8.38393e-05 0.0001519809 0.1172095095 0.0167935284
150299100.0 -0.8101079352 0.2428783083 0.0001126189 -0.0001790754 0.0001112539 2.05022e-05 0.1183191501 0.0131608316
155299070.0 -0.8077291444 0.2522485951 0.0001273741 0.0001320682 9.0304e-05 -1.09133e-05 0.1190286016 0.0097199943
160299040.0 -0.8047847141 0.2609164459 0.0001006428 -0.0001302259 0.0001448908 0.0001448116 0.1197877214 0.0064808784
165299010.0 -0.802166241 0.2694202379 -2.07581e-05 2.74865e-05 8.89982e-05 -9.04138e-05 0.1199276526 0.0030047041
170298980.0 -0.7993052495 0.2777783265 -1.1681e-05 0.0001865915 -2.20566e-05 0.0001218896 0.1205454459 -2.75904e-05
175298950.0 -0.7971176673 0.286837005 1.25191e-05 0.0001358729 0.0001330536 0.0001637142 0.120488484 -0.0031333946
180298920.0 -0.793619343 0.2951196446 -0.0002140406 1.66e-06 0.0001428252 8.95851e-05 0.1206161797 -0.006424002
185298890.0 -0.7904872056 0.3044283963 -4.00572e-05 3.7563e-05 0.0002041312 4.29919e-05 0.1206945982 -0.0093870583
190298860.0 -0.787329704 0.311820356 7.03844e-05 3.92445e-05 -2.73044e-05 0.0001211772 0.120952679 -0.012027739
195298830.0 -0.7842352259 0.32071566 1.7698e-05 0.0001374706 0.000224013 1.16969e-05 0.1202854206 -0.0151297076
200298800.0 -0.7807663989 0.329343454 0.0001582862 0.0002964952 4.64147e-05 0.0001406281 0.1207816913 -0.0179725316
205298770.0 -0.7770477471 0.3375957294 4.58793e-05 0.0001891333 -2.91526e-05 0.0001177493 0.1202528201 -0.02062062
210298740.0 -0.7730831925 0.3454407093 0.0001391342 1.28396e-05 -3.93301e-05 8.39835e-05 0.1198884551 -0.0230600609
215298710.0 -0.7704760551 0.3541758388 0.0002712351 4.05345e-05 1.35882e-05 0.0001567758 0.1191925721 -0.0258672909
220298680.0 -0.766861545 0.361869957 5.78263e-05 -0.0001297195 0.0002295142 6.9502e-05 0.1193040773 -0.0281926134
225298650.0 -0.7626490781 0.3708653105 -0.0001365599 -8.30526e-05 0.0001039672 5.22811e-05 0.1180590298 -0.0302254169
230298620.0 -0.758869521 0.3787246299 -4.58316e-05 0.0003703695 -0.0001811157 6.96079e-05 0.1181196153 -0.0327806864
235298590.0 -0.7545354545 0.3869711814 0.0001307243 -9.61039e-05 -1.00869e-05 -8.8482e-06 0.117192028 -0.035140662
240298560.0 -0.7506362939 0.3948367914 5.13144e-05 0.0001028386 1.03275e-05 0.000110671 0.1167539391 -0.0377162666
245298530.0 -0.7460427476 0.4028701636 -0.0001324963 0.0002603938 -9.55407e-05 8.17125e-05 0.1162213653 -0.0399289506
250298500.0 -0.7424683808 0.410573857 -3.22454e-05 0.000146332 -4.57584e-05 3.92459e-05 0.1155325128 -0.0418496146
255298470.0 -0.7374014338 0.4188152567 -1.12262e-05 0.0001446913 -0.0001482825 -7.74563e-05 0.1146840189 -0.0442013657
260298440.0 -0.7332544231 0.4256950311 4.04779e-05 -0.0001659246 0.0001004509 0.0001105199 0.1138303122 -0.0465078676
265298410.0 -0.729448805 0.4340847217 -4.47972e-05 -0.0001286567 0.000233662 0.0001256498 0.1127892239 -0.0485797206
270298380.0 -0.7240845795 0.4417338194 8.58391e-05 -5.5183e-05 -3.77139e-05 -3.84136e-05 0.1124120521 -0.0507205629
275298350.0 -0.7191205651 0.4491914886 0.000240127 0.0002818884 9.47562e-05 0.0001865349 0.1114104495 -0.0523101979
280298320.0 -0.7150452249 0.4562317945 0.000132117 -0.0001174081 -9.5829e-06 -0.0001692577 0.1106142306 -0.05415489
285298290.0 -0.7102892277 0.4647477763 0.000112186 -5.4414e-06 0.0001700418 9.59372e-05 0.1094470776 -0.0564401346
290298260.0 -0.7055403746 0.4715546792 7.22103e-05 0.0001220372 0.0001484569 7.31575e-05 0.1088718378 -0.0581469093
295298230.0 -0.7004405447 0.4793155582 -2.41245e-05 0.0002134744 -7.91844e-05 0.0002169287 0.1077558825 -0.0597193684
300298200.0 -0.6948036734 0.4864290041 3.11847e-05 0.0002242033 8.64213e-05 4.93594e-05 0.1067844322 -0.0615542346
305298170.0 -0.6898013481 0.4943870294 5.25884e-05 0.000243264 -2.7709e-06 -0.0001304309 0.1061969036 -0.0630974194
310298140.0 -0.6842825039 0.5011199382 0.0002728945 -2.7516e-05 7.99647e-05 -5.32765e-05 0.1050793296 -0.0650592761
315298110.0 -0.6792244715 0.5078028277 0.0001917392 5.23089e-05 3.77329e-05 -0.0001664775 0.1040691814 -0.0669726041
320298080.0 -0.6745188433 0.5153596893 0.0001721301 -0.0002502965 0.0001425721 0.0001131387 0.1028839363 -0.0686692528
325298050.0 -0.6679114384 0.5217546582 0.0001551095 9.03749e-05 8.3499e-05 0.0002759159 0.1017106379 -0.0707513841
330298020.0 -0.6623034173 0.5291244885 0.0001535128 0.0001567418 0.0002055778 1.6033e-05 0.1004776873 -0.0726078185
335297990.0 -0.6571226249 0.5358515897 4.35148e-05 7.60766e-05 -0.0001067292 0.0001452799 0.0989100486 -0.0739887397
340297960.0 -0.6521241799 0.542770029 0.0002313027 -9.36172e-05 0.000197542 7.48235e-05 0.0979155378 -0.0753976017
345297930.0 -0.6460073854 0.5489057399 3.42195e-05 0.0002298609 0.000140709 -9.3289e-05 0.0964313376 -0.0768691143
350297900.0 -0.6402574563 0.5558042941 9.58261e-05 0.0001500459 0.0001524449 -9.96698e-05 0.0947993004 -0.0780201354
355297870.0 -0.6342934131 0.5622982543 1.85097e-05 -0.0001880541 -6.51184e-05 0.0001856597 0.0934780242 -0.0795652004
360297840.0 -0.628502922 0.5691875567 0.000229193 -0.0002549607 0.0001270414 4.89578e-05 0.0924409932 -0.080699204
365297810.0 -0.6221292869 0.5751872422 -0.0001345224 1.3497e-06 -5.83387e-05 -7.9451e-05 0.0907492933 -0.0817491461
370297780.0 -0.6162536924 0.5816703083 -2.67069e-05 0.0001170545 1.64968e-05 2.43404e-05 0.0893205412 -0.0830670801
375297750.0 -0.6103032101 0.5881598281 0.0002647405 0.0001076733 0.0001562695 4.3577e-06 0.0882452334 -0.0841760645
380297720.0 -0.6040901434 0.5945298717 1.67587e-05 -1.66483e-05 0.0001920077 9.71243e-05 0.0869840233 -0.0852996385
385297690.0 -0.5973758086 0.6011581452 0.0001643015 2.59981e-05 5.28874e-05 9.06443e-05 0.0853975075 -0.0861904178
390297660.0 -0.5916975068 0.6072145309 0.0002087371 -5.72466e-05 6.65059e-05 4.71754e-05 0.0839604967 -0.0877005079
395297630.0 -0.5849484076 0.6132005549 0.0003805562 2.1058e-06 9.35274e-05 -5.19493e-05 0.082597146 -0.0887792619
400297600.0 -0.5791905927 0.619294431 -8.23955e-05 4.43226e-05 6.2539e-05 0.0001830168 0.0810761421 -0.0899823073
405297570.0 -0.5727704537 0.6245397288 0.0002962191 0.0001715686 -2.08107e-05 -0.0002358491 0.0797229178 -0.0908141836
410297540.0 -0.5653950575 0.6304448856 0.0003134356 0.0001388646 8.00784e-05 -0.0001078698 0.0779923023 -0.0915273105
415297510.0 -0.5590778457 0.6366092856 3.58517e-05 0.0001406204 0.0001475135 0.0001549872 0.0765444342 -0.0924974716
420297480.0 -0.5522676804 0.6420934284 2.23485e-05 3.3526e-05 0.0001834762 -3.21203e-05 0.0750738363 -0.0937715739
425297450.0 -0.5460102461 0.648370635 1.74712e-05 0.0001560544 0.000209596 -0.0001143592 0.0737794068 -0.094463011
430297420.0 -0.5390634234 0.6533420776 4.44183e-05 0.0001412352 4.14363e-05 -7.132e-05 0.0723840277 -0.0954815785
435297390.0 -0.5321724552 0.6588949967 6.95544e-05 -5.90678e-05 -0.0001890767 -3.40753e-05 0.0710722795 -0.0959535444
440297360.0 -0.5248998823 0.6642785762 -0.0001609516 -2.2483e-05 4.26479e-05 7.5919e-05 0.0693875528 -0.0971269319
445297330.0 -0.5186233999 0.6698057177 0.0001466133 7.71425e-05 3.28194e-05 -9.90176e-05 0.0678272562 -0.0979724137
450297300.0 -0.5111357039 0.6748502669 0.0002136505 -9.24523e-05 0.0004140399 2.90228e-05 0.0658027934 -0.0987863759
455297270.0 -0.5039214934 0.6798847624 0.0003355606 0.0001318808 7.80595e-05 5.94668e-05 0.0646104942 -0.0996916472
460297240.0 -0.4978024581 0.6851477968 0.0001075377 2.8529e-06 0.0001689559 2.6697e-06 0.0632239796 -0.1003384437
465297210.0 -0.4903614513 0.6904082494 7.50244e-05 1.72378e-05 0.0003182404 -9.2217e-06 0.0610729685 -0.1014017562
470297180.0 -0.4831184165 0.6948560212 0.0001756029 0.000197734 -1.4003e-05 6.43923e-05 0.0595585318 -0.1017444898
475297150.0 -0.4758800961 0.7004720982 -8.14807e-05 5.89571e-05 0.0002940852 0.0002557012 0.0582679159 -0.1022912384
480297120.0 -0.468756526 0.7044058238 6.8589e-05 0.0001286397 0.0001382343 7.4666e-05 0.0566019283 -0.102895423
485297090.0 -0.4614283269 0.709509599 0.0002193415 -6.99074e-05 0.0002516879 -2.51271e-05 0.0548790296 -0.103714529
490297060.0 -0.454527405 0.713605557 0.0001889073 -6.3478e-06 0.0004296504 -0.0001947227 0.0533285844 -0.1044537837
495297030.0 -0.4471655299 0.7183132426 3.43881e-05 8.85893e-05 4.07864e-05 3.6371e-05 0.0517372557 -0.1052114686
500297000.0 -0.4385451601 0.7234019498 0.0002372545 0.0001087132 0.0002537392 3.49736e-05 0.0500164517 -0.1056255957
505296970.0 -0.4315313443 0.72706623 0.0001777197 -3.2891e-06 0.0001619969 -3.66738e-05 0.0481289824 -0.106237286
510296940.0 -0.4241489791 0.7318632853 6.46851e-05 0.0001440531 8.14089e-05 6.9867e-06 0.0467662366 -0.1066199405
515296910.0 -0.4172235094 0.7365461242 -2.24947e-05 1.09348e-05 0.0001140511 0.000123547 0.0450574058 -0.1069108032
520296880.0 -0.4094183584 0.7406269978 0.0001651398 0.000122342 1.1779e-05 -5.77232e-05 0.0433704481 -0.1077729241
525296850.0 -0.401788371 0.7447601248 -0.0001061686 8.86907e-05 0.0001225037 -7.29173e-05 0.0419208784 -0.1082497956
530296820.0 -0.3944638504 0.7479484376 0.0001329731 3.91994e-05 0.0001761418 -0.0001927989 0.0397864308 -0.1085666732
535296790.0 -0.3861478819 0.7524103855 5.17035e-05 -0.0002415499 0.0001586244 7.66091e-05 0.0381936094 -0.1091395762
540296760.0 -0.3784621715 0.7557558525 0.0002694474 3.813e-05 -3.02882e-05 8.05942e-05 0.0362022687 -0.1093877856
545296730.0 -0.3710477722 0.7600485336 -2.8242e-06 4.97336e-05 0.0002642396 -6.14915e-05 0.0348946722 -0.1099934548
550296700.0 -0.3633258552 0.7638522105 0.0001818251 3.3311e-05 0.0003287896 5.24982e-05 0.0333298689 -0.1104473878
555296670.0 -0.3551903365 0.7669383545 3.62135e-05 0.0001116558 0.0001123087 -6.9991e-06 0.0315262171 -0.1102672278
560296640.0 -0.3466998249 0.7706647354 7.79946e-05 -6.93956e-05 -3.4519e-06 -8.52882e-05 0.0300020527 -0.1109587054
565296610.0 -0.3399755099 0.7739471836 0.000326985 2.55251e-05 7.68935e-05 5.13324e-05 0.0280108032 -0.1113081571
570296580.0 -0.3320146414 0.7772479277 0.0002460943 -0.0001251507 4.04161e-05 9.76877e-05 0.026491558 -0.1110451893
575296550.0 -0.3236571543 0.7807089083 0.0003565025 -5.7645e-05 0.0001093515 4.01205e-05 0.0247058237 -0.1118354735
580296520.0 -0.3157826211 0.7841043474 0.0002475378 -0.0001019867 0.000177274 4.37597e-05 0.0228624153 -0.1117823333
585296490.0 -0.3077547767 0.7865149696 0.0002114639 -2.64756e-05 3.18526e-05 -9.35375e-05 0.0212552929 -0.1125728275
590296460.0 -0.2998075957 0.789494097 -1.572e-06 9.25504e-05 -3.15286e-05 -7.92429e-05 0.0193214135 -0.1124165708
595296430.0 -0.2918361358 0.7937035573 0.0002883203 -1.3109e-05 0.0001563102 9.778e-07 0.0178963094 -0.1127559498
600296400.0 -0.2839196749 0.7959937333 0.0001832655 0.0001324375 0.0001137737 0.0001468597 0.0161826193 -0.1125775745
605296370.0 -0.2752263883 0.7986028853 -6.59958e-05 -1.75134e-05 8.39392e-05 -0.0001393525 0.0145177545 -0.112435794
610296340.0 -0.2678042448 0.8013256484 -3.63356e-05 -3.69424e-05 -3.51823e-05 -9.00769e-05 0.0127877694 -0.1125716462
615296310.0 -0.2595095147 0.8045516111 0.0003632107 7.08354e-05 -5.83859e-05 -0.0001882751 0.0112751204 -0.1129923301
620296280.0 -0.2511684232 0.8061704054 8.0539e-05 5.65248e-05 -5.89056e-05 0.0001253955 0.0093294145 -0.1130708457
625296250.0 -0.2426693968 0.8090305321 0.0001049931 4.12582e-05 0.0002747537 -0.0001229026 0.0075669815 -0.1129644231
630296220.0 -0.2345054594 0.8111662488 -0.0001212742 6.84814e-05 0.0001004074 5.43181e-05 0.0058586298 -0.1127720674
635296190.0 -0.2267006439 0.8139793026 0.0001909443 4.38138e-05 0.0003082568 5.08113e-05 0.0042952443 -0.1128049934
640296160.0 -0.2181144304 0.815564659 6.93027e-05 3.2219e-06 0.0002352637 1.34199e-05 0.0026292191 -0.1129258251
645296130.0 -0.210062547 0.8176535051 -3.38192e-05 5.67141e-05 0.0002507455 3.94884e-05 0.0008860501 -0.1129001297
650296100.0 -0.2018630263 0.8202883105 0.0001726288 -9.15689e-05 0.0002874126 0.0002280618 -0.0009045479 -0.1125642024
655296070.0 -0.193312184 0.8216683526 0.0002729163 -0.0002408849 0.0002276113 -3.6009e-05 -0.0025503545 -0.1123181975
660296040.0 -0.1856750669 0.8239513638 3.8473e-05 -6.46437e-05 0.0001588419 0.00014516 -0.0042471435 -0.112427114
665296010.0 -0.1772254198 0.8258775336 8.74567e-05 0.0001190948 0.000157634 8.13014e-05 -0.0060531073 -0.1123296249
670295980.0 -0.1683694499 0.8275397941 -2.4419e-06 -1.0577e-06 0.0001258748 -0.0002565477 -0.0077445004 -0.1121635692
675295950.0 -0.1603503558 0.828516674 -3.31536e-05 6.78895e-05 0.0001610353 0.0002021368 -0.009267325 -0.111681775
680295920.0 -0.151877783 0.8303547381 0.0002278336 -0.0001106003 0.0001134369 4.45981e-05 -0.0110611897 -0.1117784996
685295890.0 -0.1430588083 0.8317638437 0.0002929722 0.0001066904 4.6443e-05 -0.0001736207 -0.0123735557 -0.1112895869
690295860.0 -0.1344479602 0.8333090851 0.0001836572 0.0001323443 0.0001208786 -0.0001401663 -0.0141863609 -0.1109919215
695295830.0 -0.1263973931 0.8342460277 4.27106e-05 -3.7487e-05 0.0002521618 -0.0001422488 -0.0160727484 -0.1106546065
700295800.0 -0.1175768031 0.8354359284 0.000120308 -0.0004102034 4.66403e-05 4.24587e-05 -0.0176279984 -0.1107361256
705295770.0 -0.1086963162 0.8372024535 2.5538e-05 -4.74782e-05 9.43907e-05 2.37463e-05 -0.0190700787 -0.1097116853
710295740.0 -0.1014789957 0.8386762002 9.788e-07 0.0001020384 0.0002065506 -6.4859e-05 -0.0212292605 -0.1092531195
715295710.0 -0.0934550339 0.8394389462 5.41813e-05 1.19213e-05 0.0003189635 -9.69435e-05 -0.0225211553 -0.1095121297
720295680.0 -0.0842237866 0.8393757944 5.30439e-05 -3.2823e-05 0.000152584 -7.8713e-05 -0.0240200243 -0.1086580475
725295650.0 -0.0752087575 0.8408013463 9.42541e-05 -9.01284e-05 1.75712e-05 -7.92833e-05 -0.0255076051 -0.1083312941
730295620.0 -0.0674080545 0.8414905283 0.0002076352 -2.57631e-05 0.0003285201 8.78283e-05 -0.0272256037 -0.1080853464
735295590.0 -0.0583202251 0.8414063767 -4.65854e-05 -8.99905e-05 0.0001543858 1.02937e-05 -0.0285946324 -0.1076062239
740295560.0 -0.0501270592 0.8426469208 0.0001072877 4.86787e-05 5.53436e-05 -5.17096e-05 -0.0306315481 -0.1070759485
745295530.0 -0.0422225581 0.8424834756 0.0002335139 -0.0001053232 6.15281e-05 1.23071e-05 -0.0323489487 -0.1063887175
750295500.0 -0.0341673536 0.8432933851 0.0001054064 -0.0001113322 0.0001639715 7.46771e-05 -0.0338208175 -0.1060175253
755295470.0 -0.0245148613 0.843636769 0.000215128 -6.26605e-05 6.6255e-05 0.0001468763 -0.0353552616 -0.1051215174
760295440.0 -0.0164942757 0.8435533549 0.0003953998 0.0001664993 0.0002101735 0.0001094381 -0.0370837521 -0.104694018
765295410.0 -0.0083009502 0.8440200227 0.0002175305 -9.06488e-05 0.0001472002 -3.47593e-05 -0.0381790927 -0.1038622462
770295380.0 0.000655297 0.8439204382 0.0002598341 9.70169e-05 1.90698e-05 -0.0001725739 -0.039712454 -0.103544626
775295350.0 0.0085639267 0.8442923954 0.0001734355 -0.0001090261 0.0002976528 -0.0001202778 -0.0420249242 -0.1033035275
780295320.0 0.0174628913 0.843285164 -6.42289e-05 -1.32736e-05 0.0002664482 4.82338e-05 -0.0434310645 -0.1017977929
785295290.0 0.0257108625 0.8436916776 0.0002441702 0.0001239916 -5.13769e-05 -0.0001047125 -0.0452962641 -0.1011567125
790295260.0 0.0342893142 0.8432351836 0.0002388378 2.8593e-06 -6.27112e-05 4.7243e-06 -0.0460579089 -0.1008825508
795295230.0 0.0428220672 0.8432039553 0.0003042484 -1.4726e-06 0.0001967069 -4.90401e-05 -0.047294832 -0.0999160678
800295200.0 0.0515015965 0.8426054224 -0.0001286667 -0.0001722831 0.000273196 0.0002131215 -0.0492834727 -0.0994410647
805295170.0 0.0592252481 0.842074581 0.0003624399 -2.03068e-05 -4.4366e-06 -1.44997e-05 -0.0508961673 -0.098136314
810295140.0 0.0682239141 0.8416092504 0.0002569488 3.15758e-05 4.60602e-05 -0.0001500138 -0.0520125251 -0.0975311301
815295110.0 0.0766663807 0.8402501653 0.0002439537 -0.0002794774 1.10189e-05 8.0708e-06 -0.0537847087 -0.0968383855
820295080.0 0.0846071528 0.8396585067 3.83537e-05 4.9192e-06 7.6611e-06 -5.2371e-05 -0.0554929751 -0.0960395258
825295050.0 0.0933978279 0.8385556603 0.0001748893 -0.0001876602 -0.0001773918 -0.0001642527 -0.0566851307 -0.0948909105
830295020.0 0.1018515873 0.837638001 0.0001056439 4.1315e-05 0.0002161997 -0.0001062639 -0.0581029924 -0.0942117776
835294990.0 0.1097131622 0.8369873993 0.0002750166 -4.21563e-05 2.93634e-05 1.9352e-06 -0.0596253539 -0.0931588874
840294960.0 0.1184444584 0.8351407055 -1.08823e-05 7.61615e-05 -3.92235e-05 -2.30943e-05 -0.0609660176 -0.0920401392
845294930.0 0.1270527258 0.8344950359 0.0002290052 5.16714e-05 0.0004101135 -0.0001346584 -0.0623818911 -0.0911670175
850294900.0 0.1348391094 0.8327441573 0.0002245415 7.7359e-06 0.0002995645 -3.04272e-05 -0.0640020997 -0.0903924158
