!Created with skrf (http://scikit-rf.org).
# Hz S RI R 50.0 
!freq ReS11 ImS11 ReS21 ImS21 ReS12 ImS12 ReS22 ImS22
300000.0 -0.3148581812 -0.1292736548 0.3714293696 0.0635651825 0.3714052465 0.0678617184 -0.3150524423 -0.131389115
5299970.0 -0.3249253257 0.002829031 0.3783417859 0.0033694339 0.3787238241 0.0036206369 -0.3257378754 0.0018044051
10299940.0 -0.3226511313 0.0140184207 0.3800333175 0.0027210774 0.3799379754 0.002976931 -0.3231190743 0.0125624952
15299910.0 -0.3187539563 0.0224208368 0.3817446616 0.0028692424 0.3825234214 0.0028497181 -0.3207636823 0.0198141215
20299880.0 -0.3154957506 0.0290743354 0.3849788239 0.0017959926 0.3855606476 0.0017581467 -0.3178330394 0.0259529418
25299850.0 -0.3115527604 0.0346458977 0.3885424372 0.0006173708 0.3889625359 0.0004466239 -0.3149434718 0.031317292
30299820.0 -0.3083143647 0.0392986554 0.3920528453 -0.0021302978 0.3919528772 -0.0023315346 -0.3120708478 0.0357346251
35299790.0 -0.3044160939 0.0437429436 0.3948889773 -0.0048839614 0.3956820079 -0.0051696375 -0.3093265552 0.0400408247
40299760.0 -0.3012700626 0.0469020175 0.3982183643 -0.0085285115 0.3986909784 -0.0087802534 -0.3065693327 0.043321322
45299730.0 -0.2981188126 0.0500345432 0.401018268 -0.0123468601 0.4014103564 -0.0127684141 -0.3037016475 0.0466724672
50299700.0 -0.2950614939 0.0528987529 0.4037315383 -0.0172623349 0.4038498547 -0.0173064671 -0.3011793628 0.0498057522
55299670.0 -0.2923461912 0.0554826669 0.4059819411 -0.0218652235 0.4061157158 -0.0217981522 -0.2995007366 0.0523049948
60299640.0 -0.2897763877 0.0580420793 0.4080285259 -0.0265718713 0.4081127771 -0.0268979973 -0.2972102045 0.0548139159
65299610.0 -0.2874265817 0.0601560718 0.4098281237 -0.0314954465 0.409559361 -0.0318880728 -0.2952051345 0.057446777
70299580.0 -0.2853175832 0.061818919 0.4105419266 -0.0362674176 0.4112333848 -0.0366463056 -0.2936941797 0.0599278835
75299550.0 -0.2834299472 0.0641758984 0.4116426291 -0.0421736894 0.4120174097 -0.0421316715 -0.2921612697 0.0625814769
80299520.0 -0.2815825944 0.0666555595 0.4125192233 -0.0472076183 0.413018726 -0.0476210934 -0.2903553443 0.0646846521
85299490.0 -0.2795802543 0.0685513818 0.4135954382 -0.0527073674 0.4134067823 -0.0523912698 -0.2893001405 0.0669818137
90299460.0 -0.2783677119 0.07059351 0.413544865 -0.0578567517 0.4135567911 -0.0577248724 -0.2874245801 0.0694009978
95299430.0 -0.2768759902 0.072453886 0.4138418653 -0.0629255504 0.4142452578 -0.063211909 -0.2866765475 0.0718654226
100299400.0 -0.2753745907 0.0746638711 0.4140332201 -0.0679607641 0.4141750843 -0.068361088 -0.2853699162 0.0744480732
105299370.0 -0.2738497898 0.0765125422 0.4135865472 -0.0734522937 0.4140733353 -0.0733837644 -0.2837991421 0.0760914479
110299340.0 -0.2728330194 0.0787850149 0.4137351383 -0.0780286571 0.414306983 -0.0781877738 -0.2832432493 0.0787346804
115299310.0 -0.271373732 0.0811211057 0.4137893151 -0.0835130588 0.4136123543 -0.0836013023 -0.2820299854 0.0815495704
120299280.0 -0.2704315946 0.0831883528 0.4132134463 -0.0891504284 0.4129692809 -0.0888253725 -0.2812726663 0.083423244
125299250.0 -0.2693108296 0.08527132 0.412272165 -0.0937207498 0.4124902419 -0.0937556545 -0.2799881865 0.0859539441
130299220.0 -0.2683593176 0.0875922443 0.4120578191 -0.0988824026 0.411779337 -0.0992319386 -0.2791032142 0.0882489023
135299190.0 -0.2670540471 0.0899020266 0.4112009068 -0.103815562 0.4114266697 -0.104127782 -0.2781546251 0.0906444012
140299160.0 -0.2659621909 0.0920468808 0.4103894583 -0.1091571247 0.4105232087 -0.1088555177 -0.2774782902 0.0932519796
145299130.0 -0.2655124677 0.0946297503 0.4094934835 -0.1137829503 0.4097482825 -0.1139508086 -0.2766699065 0.0958149544
150299100.0 -0.2641571488 0.0968793299 0.4082961241 -0.1188423081 0.4082239175 -0.1189220487 -0.2755053073 0.0982086549
155299070.0 -0.2630811085 0.0995563046 0.4068706721 -0.1239490357 0.4075762377 -0.1239233845 -0.2747207665 0.1010864554
160299040.0 -0.2622921276 0.1019097901 0.4062213778 -0.1285593782 0.4062786262 -0.128544429 -0.2738474648 0.1034416056
165299010.0 -0.261122186 0.1043531251 0.4051266741 -0.1335155922 0.4048693498 -0.1335146956 -0.2726604786 0.1057986023
170298980.0 -0.2601738861 0.1067059104 0.4034227434 -0.138231661 0.4035543241 -0.1383591492 -0.2719265722 0.1086590067
175298950.0 -0.2589609844 0.1092706424 0.4023324532 -0.1430057676 0.4025320747 -0.1433618491 -0.271154369 0.1116607538
180298920.0 -0.2578944446 0.111848977 0.4003960997 -0.1479530087 0.4008303767 -0.1480286496 -0.270148503 0.114139624
185298890.0 -0.2571169113 0.1143109729 0.3994832721 -0.1523109307 0.3995247076 -0.1527948145 -0.2688095806 0.1166499873
190298860.0 -0.2556476302 0.1170850005 0.3971035394 -0.1572822996 0.3979239122 -0.1572361918 -0.2678819302 0.1191799624
195298830.0 -0.2548541335 0.1198190394 0.3962251962 -0.1618548767 0.3961747363 -0.1620857151 -0.2670126818 0.1221376362
200298800.0 -0.2532417261 0.1220018188 0.3942441108 -0.1668200183 0.3941465386 -0.166851904 -0.2656028479 0.124454502
205298770.0 -0.2525709728 0.1245796218 0.3919705354 -0.1711396826 0.3924734837 -0.170918035 -0.2646465056 0.1273634478
210298740.0 -0.2514879359 0.1272819318 0.3909311378 -0.1757227771 0.3904526113 -0.1757670341 -0.2635831171 0.1299975157
215298710.0 -0.2502182531 0.1299692863 0.3883346999 -0.1797303645 0.388833263 -0.1802641112 -0.2623375256 0.1325495029
220298680.0 -0.2489389595 0.1324376999 0.3862482262 -0.1846558093 0.3865411689 -0.1847469929 -0.2610682175 0.1356070657
225298650.0 -0.2477186643 0.1350520814 0.3843567204 -0.1885246453 0.3849021866 -0.189017867 -0.2598324766 0.1381028061
230298620.0 -0.246341069 0.1380291948 0.3826970553 -0.1935239135 0.3832938182 -0.1934965224 -0.2588385298 0.1408147882
235298590.0 -0.2455473668 0.1407696278 0.3805953968 -0.1982164893 0.3809097965 -0.1978985796 -0.2573853939 0.1434540265
240298560.0 -0.2438430981 0.1432988816 0.3782732124 -0.2017712565 0.3783169327 -0.2022018959 -0.2560247644 0.1459509993
245298530.0 -0.242805528 0.1456922042 0.3761534691 -0.2065486838 0.3763326996 -0.2069070614 -0.2546447279 0.1488173285
250298500.0 -0.2413522038 0.1481857799 0.3741549271 -0.2104926392 0.3740224979 -0.2106532734 -0.2533274307 0.15146781
255298470.0 -0.2398340678 0.1511886373 0.3716494556 -0.2146690147 0.3720543889 -0.2149698947 -0.2520039334 0.1541681964
260298440.0 -0.2383557551 0.153559185 0.3696710752 -0.2186084285 0.369184816 -0.2189399536 -0.2505078284 0.1568434972
265298410.0 -0.2373526607 0.156233376 0.3666584472 -0.223523714 0.3667576914 -0.2234628987 -0.2487683836 0.159164526
270298380.0 -0.2358773641 0.1588989893 0.3644142352 -0.227379709 0.3645768748 -0.2274602834 -0.2474387536 0.1622451875
275298350.0 -0.2345962288 0.1615210295 0.3614895348 -0.231315353 0.3618418285 -0.2315758999 -0.2457579541 0.1651342817
280298320.0 -0.2332841642 0.164052371 0.3597585626 -0.2353976887 0.3594907985 -0.2357277679 -0.2440145363 0.167764639
285298290.0 -0.231250485 0.1668127306 0.3564726709 -0.2396598216 0.3571985364 -0.2395686297 -0.2426098108 0.1701823141
290298260.0 -0.2296039812 0.1693005388 0.3542488146 -0.2437239244 0.3544117991 -0.2437355838 -0.2411590482 0.1730618706
295298230.0 -0.2285218937 0.1715428483 0.3513453191 -0.2478726881 0.3518323101 -0.2479118897 -0.2394022612 0.1752758273
300298200.0 -0.2265558684 0.1740649022 0.3487721923 -0.2516947995 0.3491340497 -0.2517563639 -0.2377446259 0.1780158695
305298170.0 -0.2252955761 0.1764525545 0.3461795319 -0.2555598793 0.3463316723 -0.2555439969 -0.2358465895 0.1803561937
310298140.0 -0.223380929 0.1787877239 0.3431811039 -0.2592512163 0.3437387985 -0.2595848207 -0.2337151471 0.1832365228
315298110.0 -0.2220226915 0.1811526208 0.3405813996 -0.2639135979 0.3403308533 -0.2638115041 -0.2320271579 0.1855924768
320298080.0 -0.2198974252 0.183730342 0.336849635 -0.2674216181 0.337714441 -0.2676195848 -0.2304142833 0.1881168621
325298050.0 -0.2187105423 0.1857312291 0.3346024 -0.270999292 0.3350200104 -0.2712262731 -0.2283846416 0.1903134581
330298020.0 -0.2170723619 0.1889081311 0.3313958208 -0.2751142367 0.3319114842 -0.2751899113 -0.2267043789 0.1928654652
335297990.0 -0.2153692366 0.1909208278 0.3282765337 -0.2785317362 0.328804122 -0.278707961 -0.2247459726 0.1952373046
340297960.0 -0.2137131497 0.1932746158 0.3247378106 -0.2823988658 0.3250163451 -0.2821868687 -0.2229542733 0.1981830035
345297930.0 -0.2121470256 0.1956516732 0.3219948475 -0.2858428027 0.3218782044 -0.2862414756 -0.2210944959 0.2006883398
350297900.0 -0.2104266423 0.197881758 0.3191368903 -0.2890553135 0.3190034967 -0.2892953149 -0.2195865463 0.2027820287
355297870.0 -0.2083846395 0.2000343941 0.3156030175 -0.2925600689 0.3155921592 -0.2926302816 -0.217100207 0.2055468716
360297840.0 -0.2061695116 0.2028030792 0.3119038689 -0.2963596188 0.3124258048 -0.2965246726 -0.2150480066 0.2080280671
365297810.0 -0.2046836115 0.2049360707 0.3090263103 -0.2996353442 0.3091282609 -0.2997895144 -0.2133022518 0.2101229075
370297780.0 -0.2025856937 0.2071764674 0.3054499706 -0.3025494675 0.3057390363 -0.3029095067 -0.21112562 0.2129964963
375297750.0 -0.2006066231 0.2094986438 0.3022947236 -0.3063587885 0.3021816038 -0.3064374954 -0.2088763145 0.2149877991
380297720.0 -0.1989056441 0.2120886359 0.2992609856 -0.3098843298 0.298882303 -0.3098359762 -0.2065213912 0.2176781152
385297690.0 -0.1964764572 0.213884702 0.2952809389 -0.3125970936 0.2955569434 -0.3130997628 -0.2044162221 0.2199344199
390297660.0 -0.1940675912 0.216114358 0.2918132645 -0.3158475775 0.2921084721 -0.3160229983 -0.201919769 0.222013359
395297630.0 -0.1919083572 0.2185801405 0.2885652774 -0.3193399507 0.288344761 -0.3194234363 -0.1998326186 0.2242434067
400297600.0 -0.1900600836 0.2207428676 0.284818413 -0.3226150318 0.2852239809 -0.3224535874 -0.1975905248 0.2266303244
405297570.0 -0.1881599668 0.2225384778 0.2816724032 -0.325445719 0.2815389147 -0.3254561622 -0.1946343648 0.2289462927
410297540.0 -0.1852793933 0.2249893327 0.2778977968 -0.3291369501 0.2780474404 -0.3283316395 -0.1928756877 0.2313498896
415297510.0 -0.1833965455 0.2270628367 0.2740707268 -0.3317587942 0.274512588 -0.3319604031 -0.1904416682 0.233518469
420297480.0 -0.1813821904 0.2284144713 0.2704365291 -0.3345445391 0.2706524993 -0.3349696853 -0.187824839 0.2360637603
425297450.0 -0.1785457306 0.2308830749 0.2668223724 -0.337518952 0.2669218587 -0.3376711295 -0.1855931356 0.2376539237
430297420.0 -0.1765780334 0.2326031707 0.2633120991 -0.3404620482 0.2633784717 -0.3401040467 -0.1827161618 0.2397636129
435297390.0 -0.1740605404 0.2348091192 0.2590071454 -0.343616357 0.2595011211 -0.3433537984 -0.1808148554 0.2425007041
440297360.0 -0.1716058322 0.2364246224 0.2553864802 -0.3463309001 0.2555476773 -0.3463011282 -0.1783289053 0.2442108989
445297330.0 -0.1689810012 0.2384642699 0.2517246884 -0.3487784066 0.2517458823 -0.3491346034 -0.1752687492 0.2462630721
450297300.0 -0.1667867167 0.2404490627 0.2476983992 -0.3516775313 0.2482654764 -0.3514470438 -0.1726145671 0.2481776994
455297270.0 -0.1643844304 0.2423803199 0.2444166708 -0.3544101357 0.2442080743 -0.354573727 -0.1699050706 0.2502242786
460297240.0 -0.1616117982 0.2440098173 0.2401748109 -0.3575618792 0.2403493071 -0.3572227429 -0.1678221883 0.2519751574
465297210.0 -0.1590148055 0.2456510163 0.2359776766 -0.359648254 0.235983669 -0.3599018254 -0.1648689783 0.2546493521
470297180.0 -0.156405801 0.2477913723 0.2323246194 -0.3617998422 0.2324642845 -0.3618880096 -0.1623681885 0.2562303738
475297150.0 -0.154317472 0.2494784536 0.2284926464 -0.3645380386 0.2282864505 -0.3648894951 -0.159409348 0.2581726823
480297120.0 -0.1511259235 0.2515283925 0.2241628232 -0.3674688597 0.224318136 -0.3667694703 -0.156863103 0.2598106368
485297090.0 -0.1485871623 0.2525135234 0.2197901708 -0.3693407679 0.2199692343 -0.3694778383 -0.1540445251 0.2617444518
490297060.0 -0.1451283164 0.2547554235 0.2154857414 -0.3721983493 0.2159769402 -0.3720195599 -0.1513646752 0.2632678797
495297030.0 -0.1429045706 0.256028217 0.2120255161 -0.3744485362 0.2122093453 -0.3743773433 -0.1483370109 0.2648446928
500297000.0 -0.1403477883 0.2576578339 0.2077724234 -0.3761267113 0.2077147817 -0.3766616069 -0.1457446081 0.2667789853
505296970.0 -0.1374003732 0.259382658 0.2037455178 -0.3788956176 0.2036929985 -0.3785884456 -0.1430697621 0.2680944996
510296940.0 -0.1348004889 0.2611056996 0.1994083518 -0.3813624306 0.1996856241 -0.3812841457 -0.1399056546 0.2704066683
515296910.0 -0.1317346982 0.2625102372 0.194948144 -0.3831432984 0.1950274351 -0.3829259744 -0.137362836 0.2716259994
520296880.0 -0.1288544379 0.264228975 0.190999669 -0.3850954294 0.1910143528 -0.3851056505 -0.1340842257 0.2734259098
525296850.0 -0.1260832119 0.2655568392 0.186714849 -0.387019949 0.1863036737 -0.3869921202 -0.1308926845 0.2749480035
530296820.0 -0.1234856835 0.267035569 0.1823752247 -0.3891320642 0.1823399938 -0.3889696429 -0.1284505719 0.2761125062
535296790.0 -0.1199135496 0.2685214415 0.1781415688 -0.3911278014 0.1781442602 -0.3911967243 -0.1255525363 0.2781652669
540296760.0 -0.1170302171 0.2699944735 0.1737059893 -0.3928920911 0.173741165 -0.3930097692 -0.1221688566 0.2795261619
545296730.0 -0.1146654642 0.2717347968 0.169715149 -0.3945355615 0.169478608 -0.3945473201 -0.1194875849 0.2805254514
550296700.0 -0.1110637458 0.2726184398 0.1650665845 -0.3966584744 0.1650909969 -0.3967193355 -0.1167649483 0.2821074609
555296670.0 -0.1082152258 0.2739677985 0.1607606561 -0.3985566416 0.1609125142 -0.3982778437 -0.113732713 0.2830202584
560296640.0 -0.1050923188 0.2752219796 0.1563740512 -0.3997585617 0.1566178588 -0.4000437445 -0.1106094013 0.2849373362
565296610.0 -0.102635657 0.2769937717 0.1522938228 -0.4018616014 0.1520777871 -0.4015102411 -0.107274707 0.2862617603
570296580.0 -0.0992859995 0.2784442903 0.1475519713 -0.4032045967 0.1476185083 -0.4030277614 -0.1045711919 0.2871641972
575296550.0 -0.0961331283 0.2792258101 0.1436606858 -0.4050634783 0.143095091 -0.4046404981 -0.101403873 0.2882820451
580296520.0 -0.0934316567 0.2806239558 0.1389022113 -0.4062271393 0.1387132334 -0.4064036768 -0.0986083335 0.289549591
585296490.0 -0.090177818 0.2819539094 0.1348512366 -0.4076829286 0.1343231893 -0.4077381185 -0.0952616052 0.2912013468
590296460.0 -0.0867234339 0.2831413512 0.1298999378 -0.4089694987 0.1298646883 -0.40940329 -0.0923062957 0.2921733176
595296430.0 -0.0837323224 0.284103511 0.1251205547 -0.4103047897 0.1252956782 -0.4103363265 -0.0891309541 0.293208466
600296400.0 -0.0808726525 0.2850266895 0.1208243438 -0.4115308232 0.1205797659 -0.4119962003 -0.0859957583 0.2941648065
605296370.0 -0.0780370953 0.2863642287 0.1167590359 -0.4127267631 0.11640509 -0.4130896124 -0.0829661306 0.2953268899
610296340.0 -0.0744732261 0.2874137295 0.1120222469 -0.4133427735 0.1120991128 -0.4140725731 -0.0801728296 0.2964834501
615296310.0 -0.0710986307 0.2883962684 0.1074898335 -0.4154012212 0.1072578074 -0.4157355871 -0.076670902 0.297481125
620296280.0 -0.068388434 0.2899655667 0.1029288388 -0.4163658532 0.1024931256 -0.4163800652 -0.0736574687 0.2984917647
625296250.0 -0.0655843457 0.2903951078 0.0987180088 -0.417356865 0.0983629215 -0.417639144 -0.0706999179 0.2989796168
630296220.0 -0.0621027108 0.2916792332 0.093467357 -0.4186321052 0.0935178236 -0.4184844101 -0.0670342865 0.3001378306
635296190.0 -0.059195273 0.2924363619 0.0893387886 -0.4192428995 0.0890244538 -0.4191204915 -0.0638921774 0.3008381059
640296160.0 -0.0559315161 0.2933166698 0.0845850914 -0.4204074112 0.0846435292 -0.4204417942 -0.0611424524 0.3015999036
645296130.0 -0.052634527 0.2946014494 0.0801547424 -0.4211371782 0.079873765 -0.4207528737 -0.0581644963 0.3023297246
650296100.0 -0.0498031533 0.2948371085 0.0756248905 -0.4218905792 0.0749889429 -0.4222786171 -0.0544293531 0.3031889182
655296070.0 -0.0468131659 0.295733533 0.0707180868 -0.4227680716 0.0706696229 -0.4226057509 -0.0518436538 0.3039916376
660296040.0 -0.0434650806 0.2962391528 0.0666057965 -0.423198982 0.0660229316 -0.4234989353 -0.0482805161 0.3045085179
665296010.0 -0.0402771701 0.2973664649 0.0615332748 -0.4238177452 0.061225581 -0.4238798196 -0.0449550439 0.305121849
670295980.0 -0.037541016 0.298115751 0.0567835624 -0.4248385165 0.0568912967 -0.4245662265 -0.0421588673 0.3056016669
675295950.0 -0.0339130473 0.2985201102 0.0525708871 -0.4251580356 0.052443529 -0.4250566875 -0.0388139534 0.3064321519
680295920.0 -0.0311525127 0.2995567486 0.0477279163 -0.4257201675 0.0476230026 -0.4255193179 -0.0355438351 0.3065093297
685295890.0 -0.0275968824 0.3000939772 0.0431558994 -0.426152193 0.0429567958 -0.4264008931 -0.0322042449 0.3075594257
690295860.0 -0.0247553697 0.3006766088 0.0387501415 -0.4266911785 0.0383490628 -0.4263672897 -0.0291846684 0.3081176702
695295830.0 -0.0215792661 0.3010409914 0.0343674095 -0.4271057508 0.0336050818 -0.4271320801 -0.0257452065 0.3086608173
700295800.0 -0.0184920293 0.3017059506 0.0297746369 -0.4273349185 0.0294501569 -0.4273144082 -0.0229545125 0.3085385646
705295770.0 -0.0152543698 0.3020371297 0.0247461876 -0.4276025171 0.024692141 -0.4275433029 -0.0194384473 0.30957749
710295740.0 -0.012097373 0.3024268843 0.0204862543 -0.4277128708 0.019907223 -0.4278403474 -0.0159835143 0.3095578906
715295710.0 -0.0092342015 0.3028825039 0.0156481776 -0.4278945638 0.0153705322 -0.4280494059 -0.0127875055 0.309455307
720295680.0 -0.0058760182 0.303082782 0.0110034374 -0.4277018143 0.0107987501 -0.428032698 -0.0095915152 0.3097376792
725295650.0 -0.0031680116 0.303593193 0.0066436631 -0.428030835 0.0065181204 -0.4281703765 -0.0064823407 0.3109954662
730295620.0 -0.00026876 0.304028417 0.0018060871 -0.4279170303 0.0017327863 -0.4278027537 -0.0035066327 0.310960002
735295590.0 0.0029160751 0.3042794342 -0.0027582055 -0.4279471793 -0.0029170968 -0.4280728787 -3.60068e-05 0.3104032386
740295560.0 0.00581597 0.3041850472 -0.0072784736 -0.4277773854 -0.007625279 -0.4280259892 0.0030357191 0.3111656306
745295530.0 0.0090427005 0.3047081189 -0.0118803633 -0.4272319615 -0.0115284543 -0.4277976697 0.0062159777 0.3111641462
750295500.0 0.0120275402 0.3048147778 -0.0162005313 -0.4271479955 -0.0167798088 -0.4277015131 0.0095506536 0.3112058012
755295470.0 0.0149379812 0.3049959854 -0.020795159 -0.4275391628 -0.0216618515 -0.4278110464 0.0130645442 0.3116592076
760295440.0 0.0181496585 0.3052717302 -0.0263380016 -0.4268132115 -0.0258358332 -0.4268909389 0.016193849 0.3106192139
765295410.0 0.0213924368 0.3050635741 -0.0303933506 -0.4266794778 -0.0303670258 -0.4269208248 0.0194131628 0.3110745404
770295380.0 0.0245201005 0.3054442581 -0.035019236 -0.4261947433 -0.0352120296 -0.4267288184 0.0228923073 0.3112890769
775295350.0 0.0273825132 0.3051135057 -0.0394712006 -0.4260380456 -0.0396282843 -0.4258186843 0.0259734069 0.3109540064
780295320.0 0.0305757319 0.3050501348 -0.0436686792 -0.4253271578 -0.0440707773 -0.4253041753 0.0293691528 0.3109110758
785295290.0 0.033368252 0.3046535541 -0.0485384734 -0.4249662251 -0.0489018041 -0.4250371334 0.0321871436 0.3109312891
790295260.0 0.036651064 0.3045478094 -0.0530449215 -0.4243425575 -0.0531017814 -0.4246574991 0.0355795878 0.3108114304
795295230.0 0.039715675 0.3043292477 -0.0577907048 -0.4236824586 -0.0580470386 -0.4239338481 0.0387591492 0.3101447906
800295200.0 0.0425172926 0.3043307695 -0.0619152954 -0.4226957943 -0.0626623045 -0.4231606266 0.0417610156 0.3098354663
805295170.0 0.0454729055 0.3042234763 -0.0663754216 -0.4223707135 -0.0667657445 -0.4225012417 0.0457298521 0.3098240661
810295140.0 0.0489008596 0.3039208287 -0.0709585249 -0.4212579323 -0.0714914412 -0.4215837948 0.0489445902 0.3092152722
815295110.0 0.0515056031 0.3035447054 -0.0757906762 -0.4207904762 -0.075677395 -0.4210823572 0.0518561635 0.3091329259
820295080.0 0.0545396996 0.3031439669 -0.0801088401 -0.4195104365 -0.0801794936 -0.4201978417 0.0546485061 0.308802702
825295050.0 0.0577063399 0.3027875505 -0.0849172822 -0.4191650162 -0.0852141267 -0.4195751821 0.0584375509 0.3084690991
830295020.0 0.0609621474 0.3022276763 -0.089402677 -0.4179038624 -0.0895485714 -0.4182572485 0.0614246907 0.3075924184
